!Agilent Technologies,E8363B,MY43030201,A.06.04.32
!Agilent E8363B: A.06.04.32
!Date: Tuesday, November 11, 2014 21:34:19
!Correction: S21(Response(S21)) 
!S1P File: Measurement: S21:
# Hz S  dB   R 50
3000000000  -4.067050e+001  7.230654e+001 
3003125000  -4.202649e+001  6.545340e+001 
3006250000  -4.225846e+001  6.431502e+001 
3009375000  -4.265471e+001  6.997125e+001 
3012500000  -4.155791e+001  6.389230e+001 
3015625000  -4.143116e+001  5.834851e+001 
3018750000  -4.183522e+001  5.829120e+001 
3021875000  -4.007464e+001  5.887431e+001 
3025000000  -3.885892e+001  5.536940e+001 
3028125000  -3.794561e+001  4.442902e+001 
3031250000  -3.696810e+001  3.318859e+001 
3034375000  -3.669107e+001  1.978277e+001 
3037500000  -3.761632e+001  8.629188e+000 
3040625000  -3.875640e+001  4.189301e+000 
3043750000  -3.917161e+001  -2.913172e+000 
3046875000  -3.988180e+001  -8.493354e+000 
3050000000  -4.099356e+001  -1.284557e+001 
3053125000  -4.063991e+001  -7.941072e+000 
3056250000  -4.041325e+001  -4.784148e+000 
3059375000  -3.986152e+001  -7.872556e+000 
3062500000  -3.816929e+001  -1.218435e+001 
3065625000  -3.778853e+001  -2.242038e+001 
3068750000  -3.747684e+001  -2.989918e+001 
3071875000  -3.765114e+001  -3.245243e+001 
3075000000  -3.686743e+001  -3.951917e+001 
3078125000  -3.702919e+001  -4.552225e+001 
3081250000  -3.724414e+001  -5.211011e+001 
3084375000  -3.644777e+001  -5.644595e+001 
3087500000  -3.637158e+001  -6.289158e+001 
3090625000  -3.584030e+001  -7.572573e+001 
3093750000  -3.700824e+001  -8.311624e+001 
3096875000  -3.745506e+001  -8.822882e+001 
3100000000  -3.732265e+001  -9.101039e+001 
3103125000  -3.748990e+001  -9.554950e+001 
3106250000  -3.713140e+001  -1.001616e+002 
3109375000  -3.730862e+001  -1.045602e+002 
3112500000  -3.718721e+001  -1.103785e+002 
3115625000  -3.719592e+001  -1.141600e+002 
3118750000  -3.722474e+001  -1.177982e+002 
3121875000  -3.663964e+001  -1.280531e+002 
3125000000  -3.855981e+001  -1.306960e+002 
3128125000  -3.840313e+001  -1.237892e+002 
3131250000  -3.595100e+001  -1.300902e+002 
3134375000  -3.530652e+001  -1.483178e+002 
3137500000  -3.606141e+001  -1.582601e+002 
3140625000  -3.726289e+001  -1.623098e+002 
3143750000  -3.813987e+001  -1.642535e+002 
3146875000  -3.752007e+001  -1.627363e+002 
3150000000  -3.685432e+001  -1.674035e+002 
3153125000  -3.714583e+001  -1.745487e+002 
3156250000  -3.798462e+001  -1.707891e+002 
3159375000  -3.573560e+001  -1.722798e+002 
3162500000  -3.418372e+001  1.717246e+002 
3165625000  -3.559846e+001  1.594316e+002 
3168750000  -3.545277e+001  1.584910e+002 
3171875000  -3.488045e+001  1.511233e+002 
3175000000  -3.543182e+001  1.421299e+002 
3178125000  -3.507656e+001  1.401726e+002 
3181250000  -3.442134e+001  1.313293e+002 
3184375000  -3.430309e+001  1.203588e+002 
3187500000  -3.552450e+001  1.051063e+002 
3190625000  -3.704139e+001  9.905983e+001 
3193750000  -3.746116e+001  1.049806e+002 
3196875000  -3.733075e+001  1.057911e+002 
3200000000  -3.621048e+001  1.000514e+002 
3203125000  -3.598809e+001  9.265476e+001 
3206250000  -3.622105e+001  8.435059e+001 
3209375000  -3.578340e+001  7.654533e+001 
3212500000  -3.622848e+001  7.016360e+001 
3215625000  -3.597961e+001  6.714336e+001 
3218750000  -3.689181e+001  5.653747e+001 
3221875000  -3.728930e+001  5.016844e+001 
3225000000  -3.702336e+001  4.624744e+001 
3228125000  -3.778980e+001  3.820932e+001 
3231250000  -3.830014e+001  3.635701e+001 
3234375000  -3.786117e+001  3.273197e+001 
3237500000  -3.801057e+001  2.904443e+001 
3240625000  -3.760568e+001  2.377671e+001 
3243750000  -3.765689e+001  1.269186e+001 
3246875000  -3.811819e+001  7.313436e+000 
3250000000  -3.875641e+001  2.818145e+000 
3253125000  -3.880840e+001  -9.675856e-001 
3256250000  -3.860693e+001  -9.077401e+000 
3259375000  -3.893167e+001  -1.967027e+001 
3262500000  -4.052538e+001  -2.339967e+001 
3265625000  -4.112888e+001  -1.953394e+001 
3268750000  -4.138844e+001  -1.907755e+001 
3271875000  -4.046710e+001  -2.405204e+001 
3275000000  -4.020041e+001  -3.255976e+001 
3278125000  -4.079197e+001  -3.703843e+001 
3281250000  -4.117796e+001  -3.798571e+001 
3284375000  -4.053085e+001  -4.268044e+001 
3287500000  -4.107275e+001  -4.839399e+001 
3290625000  -4.146818e+001  -5.597870e+001 
3293750000  -4.123497e+001  -5.986050e+001 
3296875000  -4.216121e+001  -6.296914e+001 
3300000000  -4.176239e+001  -6.310745e+001 
3303125000  -4.100503e+001  -6.924103e+001 
3306250000  -4.069363e+001  -7.673404e+001 
3309375000  -4.047102e+001  -8.410732e+001 
3312500000  -4.114239e+001  -9.731676e+001 
3315625000  -4.224179e+001  -1.024489e+002 
3318750000  -4.353119e+001  -1.069257e+002 
3321875000  -4.501306e+001  -1.049381e+002 
3325000000  -4.479846e+001  -9.766399e+001 
3328125000  -4.376330e+001  -9.770202e+001 
3331250000  -4.190066e+001  -9.395140e+001 
3334375000  -3.964349e+001  -1.101015e+002 
3337500000  -4.042006e+001  -1.304918e+002 
3340625000  -4.205714e+001  -1.395432e+002 
3343750000  -4.369695e+001  -1.395111e+002 
3346875000  -4.344183e+001  -1.396990e+002 
3350000000  -4.288687e+001  -1.438853e+002 
3353125000  -4.278409e+001  -1.499251e+002 
3356250000  -4.260299e+001  -1.581124e+002 
3359375000  -4.355252e+001  -1.709361e+002 
3362500000  -4.457113e+001  -1.767386e+002 
3365625000  -4.482621e+001  -1.795086e+002 
3368750000  -4.534065e+001  1.746075e+002 
3371875000  -4.601046e+001  1.732131e+002 
3375000000  -4.755302e+001  1.705618e+002 
3378125000  -4.850480e+001  1.710040e+002 
3381250000  -4.930065e+001  1.790555e+002 
3384375000  -4.622311e+001  -1.697761e+002 
3387500000  -4.378183e+001  1.726508e+002 
3390625000  -4.615849e+001  1.529543e+002 
3393750000  -4.705845e+001  1.556565e+002 
3396875000  -4.595315e+001  1.525711e+002 
3400000000  -4.617262e+001  1.400742e+002 
3403125000  -4.714116e+001  1.324166e+002 
3406250000  -4.772637e+001  1.309067e+002 
3409375000  -4.740689e+001  1.251005e+002 
3412500000  -4.864206e+001  1.189795e+002 
3415625000  -4.982141e+001  1.163398e+002 
3418750000  -4.986822e+001  1.189471e+002 
3421875000  -5.090206e+001  1.227374e+002 
3425000000  -4.976259e+001  1.186860e+002 
3428125000  -5.031288e+001  1.161544e+002 
3431250000  -5.028424e+001  1.083082e+002 
3434375000  -5.066681e+001  1.009970e+002 
3437500000  -5.182754e+001  1.059833e+002 
3440625000  -5.266948e+001  1.008911e+002 
3443750000  -5.060555e+001  1.076341e+002 
3446875000  -5.088580e+001  9.964056e+001 
3450000000  -4.987808e+001  9.085960e+001 
3453125000  -5.048285e+001  8.420092e+001 
3456250000  -5.177704e+001  8.206032e+001 
3459375000  -5.326179e+001  8.494993e+001 
3462500000  -5.223649e+001  8.720275e+001 
3465625000  -5.155927e+001  7.815198e+001 
3468750000  -5.131536e+001  7.699160e+001 
3471875000  -5.228199e+001  8.226469e+001 
3475000000  -5.128857e+001  7.222530e+001 
3478125000  -5.164616e+001  6.481493e+001 
3481250000  -5.214657e+001  6.138852e+001 
3484375000  -5.226109e+001  6.589097e+001 
3487500000  -5.169357e+001  6.121512e+001 
3490625000  -5.112448e+001  5.602633e+001 
3493750000  -5.122484e+001  4.981580e+001 
3496875000  -5.153691e+001  4.865627e+001 
3500000000  -5.232288e+001  4.949218e+001 
3503125000  -5.078101e+001  4.559838e+001 
3506250000  -4.936497e+001  3.995943e+001 
3509375000  -4.978907e+001  2.473787e+001 
3512500000  -5.052111e+001  1.243441e+001 
3515625000  -5.150950e+001  1.287923e+001 
3518750000  -5.267909e+001  8.288853e+000 
3521875000  -5.259277e+001  7.044059e+000 
3525000000  -5.232143e+001  -9.767584e-001 
3528125000  -5.264830e+001  7.632271e+000 
3531250000  -5.062174e+001  1.955427e+000 
3534375000  -5.214012e+001  -1.445104e+001 
3537500000  -5.405661e+001  -2.677751e+001 
3540625000  -5.555864e+001  -1.600858e+001 
3543750000  -5.540584e+001  -1.071154e+001 
3546875000  -5.610170e+001  -1.489118e+001 
3550000000  -5.332109e+001  -1.554288e+001 
3553125000  -5.310030e+001  -3.827922e+001 
3556250000  -5.515430e+001  -3.543799e+001 
3559375000  -5.581350e+001  -4.074249e+001 
3562500000  -5.580989e+001  -4.108307e+001 
3565625000  -5.578425e+001  -4.852171e+001 
3568750000  -5.636971e+001  -3.404557e+001 
3571875000  -5.938892e+001  -3.745144e+001 
3575000000  -5.717020e+001  -3.482546e+001 
3578125000  -5.847288e+001  -4.531870e+001 
3581250000  -5.916343e+001  -3.563827e+001 
3584375000  -5.757110e+001  -3.849591e+001 
3587500000  -5.814423e+001  -5.492414e+001 
3590625000  -5.836477e+001  -6.603096e+001 
3593750000  -5.817409e+001  -3.578485e+001 
3596875000  -5.971530e+001  -3.449353e+001 
3600000000  -5.775090e+001  -4.060803e+001 
3603125000  -5.874559e+001  -5.382676e+001 
3606250000  -5.820642e+001  -4.806209e+001 
3609375000  -5.966386e+001  -4.562841e+001 
3612500000  -5.809435e+001  -3.955600e+001 
3615625000  -5.915109e+001  -5.123764e+001 
3618750000  -5.851559e+001  -3.690066e+001 
3621875000  -5.685136e+001  -4.693344e+001 
3625000000  -5.767285e+001  -4.574092e+001 
3628125000  -5.599808e+001  -4.911616e+001 
3631250000  -5.640377e+001  -4.766103e+001 
3634375000  -5.638999e+001  -4.429425e+001 
3637500000  -5.500010e+001  -4.857104e+001 
3640625000  -5.375037e+001  -3.724820e+001 
3643750000  -5.369630e+001  -4.535002e+001 
3646875000  -5.308815e+001  -5.680182e+001 
3650000000  -5.161156e+001  -5.697270e+001 
3653125000  -5.177103e+001  -5.920177e+001 
3656250000  -5.179064e+001  -6.526973e+001 
3659375000  -5.152993e+001  -6.688477e+001 
3662500000  -5.081781e+001  -7.279169e+001 
3665625000  -4.981567e+001  -7.503471e+001 
3668750000  -4.836935e+001  -7.234251e+001 
3671875000  -4.722707e+001  -8.298012e+001 
3675000000  -4.785326e+001  -9.332874e+001 
3678125000  -4.731805e+001  -9.832157e+001 
3681250000  -4.654883e+001  -1.006147e+002 
3684375000  -4.677927e+001  -1.060361e+002 
3687500000  -4.641342e+001  -1.138920e+002 
3690625000  -4.667399e+001  -1.166092e+002 
3693750000  -4.705994e+001  -1.153482e+002 
3696875000  -4.610207e+001  -1.196409e+002 
3700000000  -4.491252e+001  -1.261487e+002 
3703125000  -4.499184e+001  -1.318997e+002 
3706250000  -4.601516e+001  -1.313729e+002 
3709375000  -4.506252e+001  -1.307704e+002 
3712500000  -4.354736e+001  -1.367158e+002 
3715625000  -4.212452e+001  -1.469766e+002 
3718750000  -4.173644e+001  -1.554722e+002 
3721875000  -4.134119e+001  -1.641312e+002 
3725000000  -4.201884e+001  -1.688893e+002 
3728125000  -4.150234e+001  -1.726882e+002 
3731250000  -4.067723e+001  -1.794281e+002 
3734375000  -4.018776e+001  1.740497e+002 
3737500000  -4.087122e+001  1.647236e+002 
3740625000  -4.082494e+001  1.592859e+002 
3743750000  -4.050978e+001  1.533232e+002 
3746875000  -4.064924e+001  1.466468e+002 
3750000000  -4.084380e+001  1.413924e+002 
3753125000  -4.079790e+001  1.380172e+002 
3756250000  -4.065097e+001  1.339339e+002 
3759375000  -4.032314e+001  1.282014e+002 
3762500000  -4.033125e+001  1.233297e+002 
3765625000  -4.096181e+001  1.193823e+002 
3768750000  -4.034165e+001  1.183297e+002 
3771875000  -3.849591e+001  1.109574e+002 
3775000000  -3.870152e+001  9.877801e+001 
3778125000  -3.898119e+001  9.239655e+001 
3781250000  -3.897694e+001  8.849834e+001 
3784375000  -3.884417e+001  8.298147e+001 
3787500000  -3.854430e+001  7.629418e+001 
3790625000  -3.907100e+001  6.835085e+001 
3793750000  -3.892662e+001  6.483923e+001 
3796875000  -3.816175e+001  6.084933e+001 
3800000000  -3.634467e+001  5.542328e+001 
3803125000  -3.814140e+001  4.149384e+001 
3806250000  -3.893143e+001  3.803013e+001 
3809375000  -3.842144e+001  3.373019e+001 
3812500000  -3.850194e+001  2.453489e+001 
3815625000  -3.954522e+001  1.478620e+001 
3818750000  -4.064070e+001  1.682957e+001 
3821875000  -4.037411e+001  2.777682e+001 
3825000000  -3.798783e+001  2.314980e+001 
3828125000  -3.690991e+001  3.564478e+000 
3831250000  -3.797915e+001  -1.019057e+001 
3834375000  -4.026118e+001  -1.242762e+001 
3837500000  -4.036351e+001  -8.481418e+000 
3840625000  -3.891722e+001  -9.219361e+000 
3843750000  -3.814127e+001  -2.749362e+001 
3846875000  -3.974713e+001  -3.275131e+001 
3850000000  -4.086719e+001  -2.545854e+001 
3853125000  -3.999803e+001  -2.456488e+001 
3856250000  -3.927337e+001  -3.502376e+001 
3859375000  -3.870522e+001  -4.025639e+001 
3862500000  -3.872251e+001  -5.062754e+001 
3865625000  -3.903720e+001  -5.416899e+001 
3868750000  -3.878830e+001  -5.606548e+001 
3871875000  -3.787214e+001  -6.376749e+001 
3875000000  -3.835941e+001  -7.448246e+001 
3878125000  -3.941950e+001  -7.565509e+001 
3881250000  -3.918589e+001  -7.728793e+001 
3884375000  -3.883773e+001  -8.325639e+001 
3887500000  -3.908266e+001  -8.945040e+001 
3890625000  -3.923188e+001  -9.363374e+001 
3893750000  -3.966911e+001  -9.585765e+001 
3896875000  -4.007767e+001  -9.873489e+001 
3900000000  -4.000506e+001  -1.015917e+002 
3903125000  -3.949985e+001  -1.085731e+002 
3906250000  -3.913682e+001  -1.112693e+002 
3909375000  -3.830065e+001  -1.201762e+002 
3912500000  -3.901486e+001  -1.300031e+002 
3915625000  -4.043077e+001  -1.277109e+002 
3918750000  -3.999123e+001  -1.309490e+002 
3921875000  -3.924273e+001  -1.340952e+002 
3925000000  -3.849332e+001  -1.412141e+002 
3928125000  -3.832740e+001  -1.513021e+002 
3931250000  -3.904792e+001  -1.560710e+002 
3934375000  -3.954327e+001  -1.573387e+002 
3937500000  -3.995225e+001  -1.589707e+002 
3940625000  -3.981393e+001  -1.614665e+002 
3943750000  -3.901900e+001  -1.660915e+002 
3946875000  -3.845406e+001  -1.743547e+002 
3950000000  -3.944306e+001  1.775690e+002 
3953125000  -3.988889e+001  1.792843e+002 
3956250000  -3.892146e+001  1.781375e+002 
3959375000  -3.773094e+001  1.718501e+002 
3962500000  -3.770253e+001  1.616285e+002 
3965625000  -3.773006e+001  1.527358e+002 
3968750000  -3.851450e+001  1.449581e+002 
3971875000  -3.858316e+001  1.409550e+002 
3975000000  -3.826088e+001  1.375191e+002 
3978125000  -3.860951e+001  1.313667e+002 
3981250000  -3.861616e+001  1.260143e+002 
3984375000  -3.917614e+001  1.182764e+002 
3987500000  -3.984111e+001  1.150216e+002 
3990625000  -3.981586e+001  1.118195e+002 
3993750000  -3.976973e+001  1.088886e+002 
3996875000  -3.997390e+001  1.034000e+002 
4000000000  -4.071763e+001  9.748746e+001 
4003125000  -4.106349e+001  1.024579e+002 
4006250000  -3.915824e+001  9.864409e+001 
4009375000  -3.868297e+001  8.361217e+001 
4012500000  -4.033091e+001  7.567403e+001 
4015625000  -4.130829e+001  7.517091e+001 
4018750000  -4.128242e+001  7.561044e+001 
4021875000  -4.087157e+001  7.328368e+001 
4025000000  -4.030665e+001  6.551592e+001 
4028125000  -4.030739e+001  5.894843e+001 
4031250000  -4.105618e+001  5.552500e+001 
4034375000  -4.121137e+001  5.644004e+001 
4037500000  -4.103418e+001  5.715898e+001 
4040625000  -4.099294e+001  5.119181e+001 
4043750000  -4.122454e+001  4.891503e+001 
4046875000  -4.079102e+001  4.473919e+001 
4050000000  -4.060281e+001  3.909236e+001 
4053125000  -4.141853e+001  3.807541e+001 
4056250000  -4.144345e+001  4.321003e+001 
4059375000  -3.935597e+001  3.935065e+001 
4062500000  -3.888902e+001  3.050391e+001 
4065625000  -3.886393e+001  2.620181e+001 
4068750000  -3.848964e+001  1.843384e+001 
4071875000  -3.764622e+001  7.987144e+000 
4075000000  -3.851368e+001  6.089074e-001 
4078125000  -3.880527e+001  -1.683716e+000 
4081250000  -3.823139e+001  -7.173733e+000 
4084375000  -3.822927e+001  -1.671900e+001 
4087500000  -3.877767e+001  -2.277643e+001 
4090625000  -3.906620e+001  -2.509707e+001 
4093750000  -3.846635e+001  -2.819271e+001 
4096875000  -3.880160e+001  -3.619093e+001 
4100000000  -3.992225e+001  -4.373023e+001 
4103125000  -4.073490e+001  -4.348976e+001 
4106250000  -4.008514e+001  -3.934278e+001 
4109375000  -3.914672e+001  -4.312631e+001 
4112500000  -3.854757e+001  -5.242300e+001 
4115625000  -3.937749e+001  -5.951291e+001 
4118750000  -3.896317e+001  -6.504816e+001 
4121875000  -3.900248e+001  -7.254923e+001 
4125000000  -3.975895e+001  -7.765299e+001 
4128125000  -4.089309e+001  -7.570610e+001 
4131250000  -3.980275e+001  -6.977668e+001 
4134375000  -3.765738e+001  -8.028070e+001 
4137500000  -3.826320e+001  -9.988762e+001 
4140625000  -4.028324e+001  -1.088874e+002 
4143750000  -4.191372e+001  -1.009231e+002 
4146875000  -4.075487e+001  -9.618062e+001 
4150000000  -3.976332e+001  -1.064805e+002 
4153125000  -3.979012e+001  -1.138026e+002 
4156250000  -4.132055e+001  -1.173954e+002 
4159375000  -4.114017e+001  -1.110565e+002 
4162500000  -3.974926e+001  -1.113586e+002 
4165625000  -3.861865e+001  -1.157550e+002 
4168750000  -3.837709e+001  -1.276184e+002 
4171875000  -3.832743e+001  -1.381659e+002 
4175000000  -3.947525e+001  -1.427309e+002 
4178125000  -3.975095e+001  -1.450073e+002 
4181250000  -3.920951e+001  -1.497372e+002 
4184375000  -3.942901e+001  -1.528008e+002 
4187500000  -3.954138e+001  -1.585354e+002 
4190625000  -3.949051e+001  -1.653738e+002 
4193750000  -4.075714e+001  -1.720024e+002 
4196875000  -4.146164e+001  -1.708018e+002 
4200000000  -4.237129e+001  -1.667212e+002 
4203125000  -4.084377e+001  -1.537242e+002 
4206250000  -3.712794e+001  -1.625781e+002 
4209375000  -3.722485e+001  1.735432e+002 
4212500000  -3.966495e+001  1.690650e+002 
4215625000  -4.001404e+001  1.753671e+002 
4218750000  -3.820756e+001  1.768584e+002 
4221875000  -3.662920e+001  1.645074e+002 
4225000000  -3.778767e+001  1.545340e+002 
4228125000  -3.773446e+001  1.544078e+002 
4231250000  -3.640816e+001  1.478874e+002 
4234375000  -3.641423e+001  1.364495e+002 
4237500000  -3.588275e+001  1.299252e+002 
4240625000  -3.635997e+001  1.199008e+002 
4243750000  -3.735085e+001  1.114607e+002 
4246875000  -3.866868e+001  1.107787e+002 
4250000000  -3.828259e+001  1.103097e+002 
4253125000  -3.793215e+001  1.083211e+002 
4256250000  -3.816851e+001  1.026997e+002 
4259375000  -3.772554e+001  9.761927e+001 
4262500000  -3.794259e+001  9.121852e+001 
4265625000  -3.793748e+001  8.943228e+001 
4268750000  -3.698125e+001  8.392203e+001 
4271875000  -3.675105e+001  7.422112e+001 
4275000000  -3.651430e+001  6.691103e+001 
4278125000  -3.779588e+001  5.411038e+001 
4281250000  -3.882812e+001  5.133633e+001 
4284375000  -3.888442e+001  4.977638e+001 
4287500000  -4.051498e+001  4.710632e+001 
4290625000  -4.057912e+001  5.352039e+001 
4293750000  -3.895468e+001  5.430792e+001 
4296875000  -3.790949e+001  4.156236e+001 
4300000000  -3.895129e+001  3.253695e+001 
4303125000  -3.954696e+001  3.722448e+001 
4306250000  -3.869987e+001  3.781069e+001 
4309375000  -3.766993e+001  3.243792e+001 
4312500000  -3.746290e+001  2.086678e+001 
4315625000  -3.801364e+001  1.360668e+001 
4318750000  -3.879866e+001  9.385745e+000 
4321875000  -3.874214e+001  1.005867e+001 
4325000000  -3.809155e+001  8.880959e+000 
4328125000  -3.738714e+001  -5.276310e-001 
4331250000  -3.755706e+001  -1.144985e+001 
4334375000  -3.841854e+001  -1.929000e+001 
4337500000  -3.928301e+001  -1.932410e+001 
4340625000  -3.967822e+001  -1.385847e+001 
4343750000  -3.860674e+001  -1.726552e+001 
4346875000  -3.820953e+001  -2.749977e+001 
4350000000  -3.830600e+001  -3.490642e+001 
4353125000  -3.923438e+001  -4.239801e+001 
4356250000  -4.107804e+001  -3.746667e+001 
4359375000  -3.984269e+001  -2.612638e+001 
4362500000  -3.672766e+001  -3.353681e+001 
4365625000  -3.583635e+001  -4.843122e+001 
4368750000  -3.707344e+001  -5.815172e+001 
4371875000  -3.775743e+001  -6.093195e+001 
4375000000  -3.718715e+001  -6.373314e+001 
4378125000  -3.690071e+001  -7.264391e+001 
4381250000  -3.704474e+001  -8.028814e+001 
4384375000  -3.734796e+001  -8.527758e+001 
4387500000  -3.832975e+001  -9.110789e+001 
4390625000  -3.863393e+001  -9.259350e+001 
4393750000  -3.788885e+001  -9.333670e+001 
4396875000  -3.726513e+001  -9.773779e+001 
4400000000  -3.685270e+001  -1.061155e+002 
4403125000  -3.778777e+001  -1.177277e+002 
4406250000  -3.823994e+001  -1.194185e+002 
4409375000  -3.869660e+001  -1.246304e+002 
4412500000  -3.973074e+001  -1.270234e+002 
4415625000  -3.952022e+001  -1.222736e+002 
