!Agilent Technologies,E8363B,MY43030201,A.06.04.32
!Agilent E8363B: A.06.04.32
!Date: Tuesday, November 11, 2014 21:34:07
!Correction: S21(Response(S21)) 
!S1P File: Measurement: S21:
# Hz S  dB   R 50
3000000000  -4.057278e+001  7.237484e+001 
3003125000  -4.217196e+001  6.695964e+001 
3006250000  -4.216523e+001  6.436157e+001 
3009375000  -4.275545e+001  6.949966e+001 
3012500000  -4.153831e+001  6.442434e+001 
3015625000  -4.142578e+001  5.763571e+001 
3018750000  -4.183974e+001  5.966644e+001 
3021875000  -4.038229e+001  6.101765e+001 
3025000000  -3.892213e+001  5.595425e+001 
3028125000  -3.804850e+001  4.442358e+001 
3031250000  -3.697969e+001  3.361904e+001 
3034375000  -3.673905e+001  1.943291e+001 
3037500000  -3.750449e+001  8.295637e+000 
3040625000  -3.876057e+001  3.405965e+000 
3043750000  -3.902055e+001  -3.063201e+000 
3046875000  -3.988956e+001  -8.929841e+000 
3050000000  -4.089902e+001  -1.358364e+001 
3053125000  -4.047579e+001  -8.015478e+000 
3056250000  -4.049160e+001  -5.204435e+000 
3059375000  -3.960625e+001  -8.565604e+000 
3062500000  -3.831721e+001  -1.209918e+001 
3065625000  -3.783059e+001  -2.330323e+001 
3068750000  -3.751845e+001  -2.987233e+001 
3071875000  -3.767345e+001  -3.242201e+001 
3075000000  -3.697544e+001  -3.947578e+001 
3078125000  -3.712132e+001  -4.573959e+001 
3081250000  -3.713162e+001  -5.206645e+001 
3084375000  -3.626424e+001  -5.658152e+001 
3087500000  -3.647588e+001  -6.307569e+001 
3090625000  -3.592553e+001  -7.517367e+001 
3093750000  -3.693814e+001  -8.318575e+001 
3096875000  -3.732867e+001  -8.796376e+001 
3100000000  -3.718764e+001  -9.077811e+001 
3103125000  -3.772009e+001  -9.562963e+001 
3106250000  -3.709507e+001  -1.002912e+002 
3109375000  -3.729774e+001  -1.041911e+002 
3112500000  -3.715933e+001  -1.092704e+002 
3115625000  -3.718302e+001  -1.138049e+002 
3118750000  -3.714008e+001  -1.174749e+002 
3121875000  -3.669721e+001  -1.287635e+002 
3125000000  -3.835129e+001  -1.311402e+002 
3128125000  -3.849538e+001  -1.241051e+002 
3131250000  -3.601929e+001  -1.306250e+002 
3134375000  -3.542701e+001  -1.479399e+002 
3137500000  -3.606087e+001  -1.597040e+002 
3140625000  -3.747724e+001  -1.625026e+002 
3143750000  -3.810931e+001  -1.648434e+002 
3146875000  -3.756445e+001  -1.627538e+002 
3150000000  -3.683170e+001  -1.657708e+002 
3153125000  -3.725602e+001  -1.748152e+002 
3156250000  -3.792352e+001  -1.706779e+002 
3159375000  -3.566279e+001  -1.719678e+002 
3162500000  -3.425340e+001  1.718278e+002 
3165625000  -3.547752e+001  1.587764e+002 
3168750000  -3.537859e+001  1.583013e+002 
3171875000  -3.490476e+001  1.509317e+002 
3175000000  -3.545632e+001  1.418255e+002 
3178125000  -3.501906e+001  1.405522e+002 
3181250000  -3.437219e+001  1.318704e+002 
3184375000  -3.410307e+001  1.203298e+002 
3187500000  -3.550935e+001  1.057904e+002 
3190625000  -3.720218e+001  9.914649e+001 
3193750000  -3.760407e+001  1.046852e+002 
3196875000  -3.739098e+001  1.059326e+002 
3200000000  -3.619261e+001  1.009906e+002 
3203125000  -3.592881e+001  9.227614e+001 
3206250000  -3.611115e+001  8.461636e+001 
3209375000  -3.575219e+001  7.624884e+001 
3212500000  -3.631960e+001  7.020529e+001 
3215625000  -3.607061e+001  6.797279e+001 
3218750000  -3.682926e+001  5.588174e+001 
3221875000  -3.722599e+001  4.921150e+001 
3225000000  -3.709610e+001  4.563201e+001 
3228125000  -3.771975e+001  3.886547e+001 
3231250000  -3.833256e+001  3.661382e+001 
3234375000  -3.779042e+001  3.365234e+001 
3237500000  -3.798240e+001  2.871148e+001 
3240625000  -3.756929e+001  2.412397e+001 
3243750000  -3.770264e+001  1.305695e+001 
3246875000  -3.806709e+001  6.160925e+000 
3250000000  -3.870486e+001  2.653310e+000 
3253125000  -3.905529e+001  8.972750e-001 
3256250000  -3.852635e+001  -9.429472e+000 
3259375000  -3.921243e+001  -1.922769e+001 
3262500000  -4.067620e+001  -2.258705e+001 
3265625000  -4.114333e+001  -1.966261e+001 
3268750000  -4.132641e+001  -1.933926e+001 
3271875000  -4.079142e+001  -2.357654e+001 
3275000000  -4.016895e+001  -3.119513e+001 
3278125000  -4.084148e+001  -3.618166e+001 
3281250000  -4.102361e+001  -3.798903e+001 
3284375000  -4.074313e+001  -4.331033e+001 
3287500000  -4.087006e+001  -4.759209e+001 
3290625000  -4.125494e+001  -5.516412e+001 
3293750000  -4.096622e+001  -6.055843e+001 
3296875000  -4.232040e+001  -6.297120e+001 
3300000000  -4.180514e+001  -6.245015e+001 
3303125000  -4.079096e+001  -6.905009e+001 
3306250000  -4.078453e+001  -7.748199e+001 
3309375000  -4.053561e+001  -8.484879e+001 
3312500000  -4.082082e+001  -9.629852e+001 
3315625000  -4.208549e+001  -1.023474e+002 
3318750000  -4.354396e+001  -1.080164e+002 
3321875000  -4.495698e+001  -1.007665e+002 
3325000000  -4.455360e+001  -9.717641e+001 
3328125000  -4.406446e+001  -9.829649e+001 
3331250000  -4.211998e+001  -9.464250e+001 
3334375000  -3.980989e+001  -1.090838e+002 
3337500000  -4.039562e+001  -1.305490e+002 
3340625000  -4.249838e+001  -1.395804e+002 
3343750000  -4.413318e+001  -1.389091e+002 
3346875000  -4.337622e+001  -1.382945e+002 
3350000000  -4.305270e+001  -1.438800e+002 
3353125000  -4.306947e+001  -1.512913e+002 
3356250000  -4.257974e+001  -1.592631e+002 
3359375000  -4.368698e+001  -1.698017e+002 
3362500000  -4.440840e+001  -1.748742e+002 
3365625000  -4.481458e+001  -1.783657e+002 
3368750000  -4.542317e+001  1.762946e+002 
3371875000  -4.575176e+001  1.756126e+002 
3375000000  -4.720026e+001  1.660239e+002 
3378125000  -4.848994e+001  1.684469e+002 
3381250000  -4.993393e+001  -1.764182e+002 
3384375000  -4.598458e+001  -1.678349e+002 
3387500000  -4.408789e+001  1.690001e+002 
3390625000  -4.666309e+001  1.516436e+002 
3393750000  -4.736398e+001  1.539357e+002 
3396875000  -4.580964e+001  1.502448e+002 
3400000000  -4.603233e+001  1.394975e+002 
3403125000  -4.682166e+001  1.341183e+002 
3406250000  -4.776408e+001  1.317555e+002 
3409375000  -4.796183e+001  1.242754e+002 
3412500000  -4.899427e+001  1.171418e+002 
3415625000  -5.009557e+001  1.161157e+002 
3418750000  -5.069254e+001  1.197969e+002 
3421875000  -5.149055e+001  1.216710e+002 
3425000000  -5.008151e+001  1.175264e+002 
3428125000  -5.016600e+001  1.144944e+002 
3431250000  -5.064524e+001  1.070718e+002 
3434375000  -5.093447e+001  1.058489e+002 
3437500000  -5.141978e+001  1.016363e+002 
3440625000  -5.191553e+001  1.057085e+002 
3443750000  -5.033485e+001  1.069918e+002 
3446875000  -5.076300e+001  1.009741e+002 
3450000000  -5.010249e+001  9.289790e+001 
3453125000  -5.065915e+001  8.341754e+001 
3456250000  -5.196045e+001  8.510596e+001 
3459375000  -5.389806e+001  8.444783e+001 
3462500000  -5.189891e+001  8.738368e+001 
3465625000  -5.152948e+001  7.842841e+001 
3468750000  -5.186884e+001  8.186745e+001 
3471875000  -5.200386e+001  7.715118e+001 
3475000000  -5.165648e+001  7.420112e+001 
3478125000  -5.153072e+001  6.134426e+001 
3481250000  -5.203769e+001  6.533672e+001 
3484375000  -5.252026e+001  6.427901e+001 
3487500000  -5.069611e+001  6.320036e+001 
3490625000  -5.102974e+001  5.096758e+001 
3493750000  -5.172543e+001  4.700515e+001 
3496875000  -5.108776e+001  5.229876e+001 
3500000000  -5.206799e+001  4.679544e+001 
3503125000  -5.084855e+001  4.326606e+001 
3506250000  -4.982301e+001  3.825712e+001 
3509375000  -4.979551e+001  2.378056e+001 
3512500000  -5.007552e+001  1.257274e+001 
3515625000  -5.181542e+001  1.106222e+001 
3518750000  -5.188391e+001  9.801378e+000 
3521875000  -5.251342e+001  -3.744217e-001 
3525000000  -5.348876e+001  -2.693644e+000 
3528125000  -5.165759e+001  1.898474e+000 
3531250000  -5.226027e+001  1.456311e-001 
3534375000  -5.288866e+001  -1.584953e+001 
3537500000  -5.304640e+001  -1.789143e+001 
3540625000  -5.476611e+001  -2.563721e+001 
3543750000  -5.517834e+001  -1.661284e+001 
3546875000  -5.551324e+001  -1.460446e+001 
3550000000  -5.400556e+001  -1.466541e+001 
3553125000  -5.306836e+001  -2.950296e+001 
3556250000  -5.574736e+001  -3.154365e+001 
3559375000  -5.556446e+001  -3.516208e+001 
3562500000  -5.617242e+001  -4.570580e+001 
3565625000  -5.676503e+001  -5.397043e+001 
3568750000  -5.684277e+001  -4.042920e+001 
3571875000  -5.827512e+001  -3.695637e+001 
3575000000  -5.809289e+001  -4.608154e+001 
3578125000  -5.937261e+001  -4.458658e+001 
3581250000  -5.928457e+001  -4.599259e+001 
3584375000  -5.816229e+001  -3.236662e+001 
3587500000  -5.693940e+001  -3.453402e+001 
3590625000  -5.926195e+001  -5.056265e+001 
3593750000  -5.883294e+001  -3.560229e+001 
3596875000  -5.724792e+001  -3.675072e+001 
3600000000  -5.810608e+001  -3.944698e+001 
3603125000  -5.859325e+001  -5.892983e+001 
3606250000  -5.823566e+001  -5.722010e+001 
3609375000  -5.948206e+001  -4.736218e+001 
3612500000  -5.788503e+001  -4.965674e+001 
3615625000  -5.914011e+001  -4.931002e+001 
3618750000  -5.837161e+001  -3.707070e+001 
3621875000  -5.706224e+001  -4.787917e+001 
3625000000  -5.733380e+001  -5.173278e+001 
3628125000  -5.598362e+001  -4.518675e+001 
3631250000  -5.598990e+001  -4.266267e+001 
3634375000  -5.629575e+001  -4.884665e+001 
3637500000  -5.637561e+001  -3.238204e+001 
3640625000  -5.460270e+001  -3.882438e+001 
3643750000  -5.267788e+001  -5.275178e+001 
3646875000  -5.340881e+001  -6.132453e+001 
3650000000  -5.332814e+001  -5.367719e+001 
3653125000  -5.236749e+001  -5.928824e+001 
3656250000  -5.178965e+001  -5.825291e+001 
3659375000  -5.146458e+001  -6.522253e+001 
3662500000  -5.042709e+001  -6.839385e+001 
3665625000  -4.979352e+001  -7.553699e+001 
3668750000  -4.807196e+001  -7.525922e+001 
3671875000  -4.728530e+001  -8.258320e+001 
3675000000  -4.723503e+001  -9.289685e+001 
3678125000  -4.729638e+001  -9.721245e+001 
3681250000  -4.676565e+001  -1.011228e+002 
3684375000  -4.691093e+001  -1.054582e+002 
3687500000  -4.658881e+001  -1.139000e+002 
3690625000  -4.674717e+001  -1.201140e+002 
3693750000  -4.731014e+001  -1.185632e+002 
3696875000  -4.635332e+001  -1.178883e+002 
3700000000  -4.488261e+001  -1.274244e+002 
3703125000  -4.482826e+001  -1.313115e+002 
3706250000  -4.611241e+001  -1.309663e+002 
3709375000  -4.474206e+001  -1.335073e+002 
3712500000  -4.325874e+001  -1.369250e+002 
3715625000  -4.208952e+001  -1.457208e+002 
3718750000  -4.191142e+001  -1.534128e+002 
3721875000  -4.137490e+001  -1.627089e+002 
3725000000  -4.155616e+001  -1.699757e+002 
3728125000  -4.159951e+001  -1.713440e+002 
3731250000  -4.060831e+001  -1.775650e+002 
3734375000  -3.975366e+001  1.754233e+002 
3737500000  -4.091706e+001  1.630123e+002 
3740625000  -4.102407e+001  1.581189e+002 
3743750000  -4.030930e+001  1.528514e+002 
3746875000  -4.074971e+001  1.454720e+002 
3750000000  -4.087007e+001  1.412977e+002 
3753125000  -4.059610e+001  1.393303e+002 
3756250000  -4.062225e+001  1.339162e+002 
3759375000  -4.050139e+001  1.296188e+002 
3762500000  -4.012629e+001  1.215185e+002 
3765625000  -4.070339e+001  1.180256e+002 
3768750000  -3.996555e+001  1.174334e+002 
3771875000  -3.844786e+001  1.115735e+002 
3775000000  -3.848195e+001  1.000465e+002 
3778125000  -3.895911e+001  9.378182e+001 
3781250000  -3.882513e+001  8.843050e+001 
3784375000  -3.885476e+001  8.251659e+001 
3787500000  -3.845583e+001  7.654597e+001 
3790625000  -3.914499e+001  6.707713e+001 
3793750000  -3.921280e+001  6.542807e+001 
3796875000  -3.828653e+001  5.971511e+001 
3800000000  -3.638958e+001  5.611987e+001 
3803125000  -3.819501e+001  4.242020e+001 
3806250000  -3.895361e+001  3.749364e+001 
3809375000  -3.852032e+001  3.422614e+001 
3812500000  -3.835853e+001  2.503201e+001 
3815625000  -3.954317e+001  1.463729e+001 
3818750000  -4.075085e+001  1.526443e+001 
3821875000  -4.026054e+001  2.383454e+001 
3825000000  -3.829284e+001  2.279422e+001 
3828125000  -3.697746e+001  4.576814e+000 
3831250000  -3.806921e+001  -1.047618e+001 
3834375000  -4.033329e+001  -1.083545e+001 
3837500000  -4.071447e+001  -6.727972e+000 
3840625000  -3.897330e+001  -1.024500e+001 
3843750000  -3.824279e+001  -2.584466e+001 
3846875000  -4.006292e+001  -3.154016e+001 
3850000000  -4.064383e+001  -2.463787e+001 
3853125000  -3.986712e+001  -2.473773e+001 
3856250000  -3.914923e+001  -3.248664e+001 
3859375000  -3.870177e+001  -4.040767e+001 
3862500000  -3.824524e+001  -4.997023e+001 
3865625000  -3.889894e+001  -5.663050e+001 
3868750000  -3.875404e+001  -5.683183e+001 
3871875000  -3.798834e+001  -6.316827e+001 
3875000000  -3.847617e+001  -7.396442e+001 
3878125000  -3.939315e+001  -7.591563e+001 
3881250000  -3.919027e+001  -7.749139e+001 
3884375000  -3.867325e+001  -8.164845e+001 
3887500000  -3.898475e+001  -8.977156e+001 
3890625000  -3.953866e+001  -9.476466e+001 
3893750000  -3.984392e+001  -9.593739e+001 
3896875000  -4.021129e+001  -9.897065e+001 
3900000000  -3.988226e+001  -1.039137e+002 
3903125000  -3.938806e+001  -1.088076e+002 
3906250000  -3.872275e+001  -1.103934e+002 
3909375000  -3.799385e+001  -1.201977e+002 
3912500000  -3.930049e+001  -1.289090e+002 
3915625000  -4.058677e+001  -1.275793e+002 
3918750000  -4.004472e+001  -1.295256e+002 
3921875000  -3.934542e+001  -1.338336e+002 
3925000000  -3.855580e+001  -1.397760e+002 
3928125000  -3.830878e+001  -1.503810e+002 
3931250000  -3.897678e+001  -1.572224e+002 
3934375000  -3.963852e+001  -1.578316e+002 
3937500000  -4.014791e+001  -1.595853e+002 
3940625000  -3.979535e+001  -1.626795e+002 
3943750000  -3.862980e+001  -1.640933e+002 
3946875000  -3.838337e+001  -1.739429e+002 
3950000000  -3.938062e+001  1.786462e+002 
3953125000  -3.983066e+001  1.784850e+002 
3956250000  -3.888058e+001  1.791938e+002 
3959375000  -3.785222e+001  1.717806e+002 
3962500000  -3.761740e+001  1.616644e+002 
3965625000  -3.773303e+001  1.531023e+002 
3968750000  -3.852673e+001  1.463721e+002 
3971875000  -3.878000e+001  1.409695e+002 
3975000000  -3.838266e+001  1.368205e+002 
3978125000  -3.833828e+001  1.330303e+002 
3981250000  -3.857558e+001  1.261559e+002 
3984375000  -3.886884e+001  1.188447e+002 
3987500000  -3.955866e+001  1.140395e+002 
3990625000  -4.003667e+001  1.141364e+002 
3993750000  -4.005567e+001  1.076270e+002 
3996875000  -3.990255e+001  1.044233e+002 
4000000000  -4.058520e+001  9.908936e+001 
4003125000  -4.111182e+001  1.009324e+002 
4006250000  -3.917119e+001  9.836457e+001 
4009375000  -3.856607e+001  8.395827e+001 
4012500000  -4.049075e+001  7.473457e+001 
4015625000  -4.135708e+001  7.600930e+001 
4018750000  -4.113009e+001  7.609486e+001 
4021875000  -4.082207e+001  7.398405e+001 
4025000000  -4.025565e+001  6.587389e+001 
4028125000  -4.056082e+001  6.230281e+001 
4031250000  -4.128164e+001  5.591801e+001 
4034375000  -4.151336e+001  5.640479e+001 
4037500000  -4.086110e+001  5.582420e+001 
4040625000  -4.097582e+001  5.109758e+001 
4043750000  -4.101826e+001  4.846105e+001 
4046875000  -4.083360e+001  4.388141e+001 
4050000000  -4.082224e+001  4.038115e+001 
4053125000  -4.129042e+001  3.871311e+001 
4056250000  -4.131395e+001  4.174950e+001 
4059375000  -3.962345e+001  3.766172e+001 
4062500000  -3.895245e+001  2.958148e+001 
4065625000  -3.876529e+001  2.528314e+001 
4068750000  -3.817952e+001  1.874186e+001 
4071875000  -3.781024e+001  7.835222e+000 
4075000000  -3.860301e+001  7.745289e-001 
4078125000  -3.871519e+001  -2.977675e+000 
4081250000  -3.831417e+001  -8.126155e+000 
4084375000  -3.822066e+001  -1.847942e+001 
4087500000  -3.873312e+001  -2.380525e+001 
4090625000  -3.905551e+001  -2.462056e+001 
4093750000  -3.887853e+001  -2.818199e+001 
4096875000  -3.849934e+001  -3.813815e+001 
4100000000  -3.976439e+001  -4.485937e+001 
4103125000  -4.066227e+001  -4.202699e+001 
4106250000  -3.996835e+001  -3.845287e+001 
4109375000  -3.913597e+001  -4.409737e+001 
4112500000  -3.867904e+001  -5.303279e+001 
4115625000  -3.966236e+001  -5.893139e+001 
4118750000  -3.898998e+001  -6.628713e+001 
4121875000  -3.881170e+001  -7.306009e+001 
4125000000  -3.991602e+001  -7.675356e+001 
4128125000  -4.111229e+001  -7.567966e+001 
4131250000  -3.989212e+001  -7.141309e+001 
4134375000  -3.760328e+001  -7.994125e+001 
4137500000  -3.840812e+001  -1.008817e+002 
4140625000  -4.024179e+001  -1.066873e+002 
4143750000  -4.135011e+001  -9.933642e+001 
4146875000  -4.049063e+001  -9.834545e+001 
4150000000  -3.961587e+001  -1.046926e+002 
4153125000  -4.007475e+001  -1.132381e+002 
4156250000  -4.119173e+001  -1.180349e+002 
4159375000  -4.115438e+001  -1.097728e+002 
4162500000  -3.991701e+001  -1.092934e+002 
4165625000  -3.871759e+001  -1.164799e+002 
4168750000  -3.834633e+001  -1.287312e+002 
4171875000  -3.845956e+001  -1.365059e+002 
4175000000  -3.933754e+001  -1.441857e+002 
4178125000  -3.984871e+001  -1.432975e+002 
4181250000  -3.938959e+001  -1.498518e+002 
4184375000  -3.964776e+001  -1.552040e+002 
4187500000  -3.936914e+001  -1.579922e+002 
4190625000  -3.956509e+001  -1.658836e+002 
4193750000  -4.063867e+001  -1.699141e+002 
4196875000  -4.198282e+001  -1.726182e+002 
4200000000  -4.218865e+001  -1.643976e+002 
4203125000  -4.074173e+001  -1.541219e+002 
4206250000  -3.743132e+001  -1.638139e+002 
4209375000  -3.741356e+001  1.726308e+002 
4212500000  -3.948475e+001  1.663605e+002 
4215625000  -4.022971e+001  1.747284e+002 
4218750000  -3.811118e+001  1.767204e+002 
4221875000  -3.680201e+001  1.654920e+002 
4225000000  -3.769468e+001  1.543281e+002 
4228125000  -3.773479e+001  1.554970e+002 
4231250000  -3.632242e+001  1.478586e+002 
4234375000  -3.628361e+001  1.374913e+002 
4237500000  -3.611402e+001  1.324472e+002 
4240625000  -3.632627e+001  1.187790e+002 
4243750000  -3.778697e+001  1.121975e+002 
4246875000  -3.855453e+001  1.105900e+002 
4250000000  -3.822543e+001  1.101429e+002 
4253125000  -3.809682e+001  1.088034e+002 
4256250000  -3.814135e+001  1.010033e+002 
4259375000  -3.788614e+001  9.783099e+001 
4262500000  -3.777708e+001  9.134457e+001 
4265625000  -3.788468e+001  9.158279e+001 
4268750000  -3.696608e+001  8.299185e+001 
4271875000  -3.695264e+001  7.310364e+001 
4275000000  -3.656242e+001  6.647044e+001 
4278125000  -3.791093e+001  5.415789e+001 
4281250000  -3.933879e+001  5.257569e+001 
4284375000  -3.878442e+001  5.174495e+001 
4287500000  -4.029522e+001  4.927417e+001 
4290625000  -4.051552e+001  5.654988e+001 
4293750000  -3.887645e+001  5.591102e+001 
4296875000  -3.767828e+001  4.347647e+001 
4300000000  -3.959027e+001  3.105517e+001 
4303125000  -3.974296e+001  3.687381e+001 
4306250000  -3.890981e+001  3.823736e+001 
4309375000  -3.761677e+001  3.222622e+001 
4312500000  -3.758279e+001  2.030369e+001 
4315625000  -3.769544e+001  1.273876e+001 
4318750000  -3.865170e+001  9.025436e+000 
4321875000  -3.867569e+001  1.011453e+001 
4325000000  -3.816045e+001  8.065822e+000 
4328125000  -3.730424e+001  -1.801680e+000 
4331250000  -3.762729e+001  -1.210556e+001 
4334375000  -3.851333e+001  -1.819061e+001 
4337500000  -3.950396e+001  -1.907589e+001 
4340625000  -3.970151e+001  -1.358448e+001 
4343750000  -3.858282e+001  -1.947009e+001 
4346875000  -3.841450e+001  -2.668648e+001 
4350000000  -3.822420e+001  -3.400998e+001 
4353125000  -3.908837e+001  -4.124605e+001 
4356250000  -4.091583e+001  -3.799553e+001 
4359375000  -3.988263e+001  -2.350910e+001 
4362500000  -3.668826e+001  -3.352155e+001 
4365625000  -3.591232e+001  -4.901611e+001 
4368750000  -3.724088e+001  -5.928816e+001 
4371875000  -3.791639e+001  -5.763913e+001 
4375000000  -3.724763e+001  -6.350724e+001 
4378125000  -3.708043e+001  -7.094730e+001 
4381250000  -3.731788e+001  -7.863376e+001 
4384375000  -3.718164e+001  -8.566241e+001 
4387500000  -3.810677e+001  -9.254176e+001 
4390625000  -3.860252e+001  -9.289495e+001 
4393750000  -3.815506e+001  -9.207931e+001 
4396875000  -3.713472e+001  -9.844942e+001 
4400000000  -3.696426e+001  -1.080264e+002 
4403125000  -3.804063e+001  -1.158014e+002 
4406250000  -3.825994e+001  -1.188114e+002 
4409375000  -3.869365e+001  -1.226592e+002 
4412500000  -3.980383e+001  -1.255300e+002 
4415625000  -3.928823e+001  -1.223601e+002 
