!Agilent Technologies,E8363B,MY43030201,A.06.04.32
!Agilent E8363B: A.06.04.32
!Date: Tuesday, November 11, 2014 21:31:35
!Correction: S21(Response(S21)) 
!S1P File: Measurement: S21:
# Hz S  dB   R 50
3000000000  -4.051584e+001  7.942011e+001 
3003125000  -4.226042e+001  7.187746e+001 
3006250000  -4.199526e+001  7.177856e+001 
3009375000  -4.262114e+001  7.628168e+001 
3012500000  -4.153304e+001  7.157639e+001 
3015625000  -4.131540e+001  6.355589e+001 
3018750000  -4.193923e+001  6.605354e+001 
3021875000  -4.020362e+001  6.531131e+001 
3025000000  -3.886932e+001  6.160810e+001 
3028125000  -3.782968e+001  5.223609e+001 
3031250000  -3.694597e+001  4.014515e+001 
3034375000  -3.658178e+001  2.603091e+001 
3037500000  -3.755995e+001  1.541332e+001 
3040625000  -3.873486e+001  1.023987e+001 
3043750000  -3.924644e+001  3.198667e+000 
3046875000  -3.970153e+001  -1.189734e+000 
3050000000  -4.089585e+001  -7.665595e+000 
3053125000  -4.036917e+001  -2.082156e+000 
3056250000  -4.059771e+001  9.311312e-001 
3059375000  -3.988269e+001  -1.834562e+000 
3062500000  -3.820406e+001  -6.286680e+000 
3065625000  -3.784924e+001  -1.640591e+001 
3068750000  -3.754630e+001  -2.379835e+001 
3071875000  -3.760104e+001  -2.603755e+001 
3075000000  -3.700106e+001  -3.226033e+001 
3078125000  -3.704007e+001  -3.887173e+001 
3081250000  -3.727216e+001  -4.516999e+001 
3084375000  -3.640604e+001  -4.993007e+001 
3087500000  -3.648079e+001  -5.626434e+001 
3090625000  -3.599118e+001  -6.850723e+001 
3093750000  -3.688001e+001  -7.667267e+001 
3096875000  -3.734755e+001  -8.243625e+001 
3100000000  -3.718547e+001  -8.505013e+001 
3103125000  -3.752652e+001  -8.935668e+001 
3106250000  -3.719707e+001  -9.359122e+001 
3109375000  -3.722556e+001  -9.792813e+001 
3112500000  -3.715188e+001  -1.031378e+002 
3115625000  -3.711078e+001  -1.070703e+002 
3118750000  -3.730734e+001  -1.099219e+002 
3121875000  -3.650488e+001  -1.217789e+002 
3125000000  -3.840852e+001  -1.249921e+002 
3128125000  -3.846913e+001  -1.185021e+002 
3131250000  -3.601513e+001  -1.245303e+002 
3134375000  -3.525679e+001  -1.406203e+002 
3137500000  -3.604618e+001  -1.537706e+002 
3140625000  -3.722837e+001  -1.561619e+002 
3143750000  -3.825227e+001  -1.585155e+002 
3146875000  -3.760476e+001  -1.562899e+002 
3150000000  -3.691405e+001  -1.591452e+002 
3153125000  -3.723418e+001  -1.683063e+002 
3156250000  -3.794515e+001  -1.652402e+002 
3159375000  -3.570905e+001  -1.658014e+002 
3162500000  -3.424069e+001  1.786167e+002 
3165625000  -3.547000e+001  1.659144e+002 
3168750000  -3.552192e+001  1.642833e+002 
3171875000  -3.497292e+001  1.566531e+002 
3175000000  -3.546626e+001  1.485053e+002 
3178125000  -3.502470e+001  1.466630e+002 
3181250000  -3.438926e+001  1.384059e+002 
3184375000  -3.404029e+001  1.270599e+002 
3187500000  -3.540219e+001  1.128630e+002 
3190625000  -3.725977e+001  1.055045e+002 
3193750000  -3.758229e+001  1.120709e+002 
3196875000  -3.738534e+001  1.125418e+002 
3200000000  -3.626094e+001  1.063873e+002 
3203125000  -3.590739e+001  9.916628e+001 
3206250000  -3.610315e+001  9.187576e+001 
3209375000  -3.578820e+001  8.378221e+001 
3212500000  -3.615026e+001  7.683668e+001 
3215625000  -3.594409e+001  7.422953e+001 
3218750000  -3.674605e+001  6.188462e+001 
3221875000  -3.725917e+001  5.571763e+001 
3225000000  -3.700829e+001  5.207843e+001 
3228125000  -3.773699e+001  4.538123e+001 
3231250000  -3.805816e+001  4.362119e+001 
3234375000  -3.803413e+001  3.997234e+001 
3237500000  -3.811399e+001  3.526913e+001 
3240625000  -3.754501e+001  3.014235e+001 
3243750000  -3.764614e+001  2.041383e+001 
3246875000  -3.828620e+001  1.267772e+001 
3250000000  -3.889645e+001  8.819098e+000 
3253125000  -3.899285e+001  7.046717e+000 
3256250000  -3.865723e+001  -2.620549e+000 
3259375000  -3.908144e+001  -1.310242e+001 
3262500000  -4.068230e+001  -1.886270e+001 
3265625000  -4.113077e+001  -1.422951e+001 
3268750000  -4.126416e+001  -1.223808e+001 
3271875000  -4.048721e+001  -1.677692e+001 
3275000000  -4.025253e+001  -2.467894e+001 
3278125000  -4.081229e+001  -3.002439e+001 
3281250000  -4.111158e+001  -3.277242e+001 
3284375000  -4.044377e+001  -3.779642e+001 
3287500000  -4.084494e+001  -4.118746e+001 
3290625000  -4.146814e+001  -5.030983e+001 
3293750000  -4.096358e+001  -5.433857e+001 
3296875000  -4.241636e+001  -5.537673e+001 
3300000000  -4.193673e+001  -5.570598e+001 
3303125000  -4.093832e+001  -6.236028e+001 
3306250000  -4.062731e+001  -6.991451e+001 
3309375000  -4.071850e+001  -7.783609e+001 
3312500000  -4.080329e+001  -8.907745e+001 
3315625000  -4.218970e+001  -9.685457e+001 
3318750000  -4.379972e+001  -1.028131e+002 
3321875000  -4.507928e+001  -9.688389e+001 
3325000000  -4.479121e+001  -8.863591e+001 
3328125000  -4.374723e+001  -9.072548e+001 
3331250000  -4.207673e+001  -8.919454e+001 
3334375000  -3.989600e+001  -1.029952e+002 
3337500000  -4.060056e+001  -1.229935e+002 
3340625000  -4.229211e+001  -1.328051e+002 
3343750000  -4.426797e+001  -1.333500e+002 
3346875000  -4.334238e+001  -1.333588e+002 
3350000000  -4.313709e+001  -1.358012e+002 
3353125000  -4.257824e+001  -1.436938e+002 
3356250000  -4.274385e+001  -1.536245e+002 
3359375000  -4.346783e+001  -1.624618e+002 
3362500000  -4.442621e+001  -1.670022e+002 
3365625000  -4.483815e+001  -1.721870e+002 
3368750000  -4.550282e+001  -1.780810e+002 
3371875000  -4.582791e+001  -1.786758e+002 
3375000000  -4.732836e+001  1.742222e+002 
3378125000  -4.826678e+001  1.751577e+002 
3381250000  -4.939572e+001  -1.752644e+002 
3384375000  -4.618758e+001  -1.621889e+002 
3387500000  -4.452224e+001  -1.796752e+002 
3390625000  -4.604633e+001  1.585269e+002 
3393750000  -4.690471e+001  1.612908e+002 
3396875000  -4.616613e+001  1.586113e+002 
3400000000  -4.606982e+001  1.466505e+002 
3403125000  -4.684061e+001  1.401246e+002 
3406250000  -4.787487e+001  1.386363e+002 
3409375000  -4.816231e+001  1.307448e+002 
3412500000  -4.882165e+001  1.233888e+002 
3415625000  -4.994350e+001  1.213427e+002 
3418750000  -5.067754e+001  1.241943e+002 
3421875000  -5.151934e+001  1.261956e+002 
3425000000  -5.047483e+001  1.252225e+002 
3428125000  -5.022537e+001  1.209850e+002 
3431250000  -5.019441e+001  1.174841e+002 
3434375000  -5.106335e+001  1.111282e+002 
3437500000  -5.199664e+001  1.105774e+002 
3440625000  -5.188714e+001  1.140968e+002 
3443750000  -5.120587e+001  1.140794e+002 
3446875000  -5.032254e+001  1.105119e+002 
3450000000  -5.045355e+001  1.008893e+002 
3453125000  -5.095398e+001  9.283729e+001 
3456250000  -5.243353e+001  8.797935e+001 
3459375000  -5.296101e+001  8.601267e+001 
3462500000  -5.172128e+001  9.735136e+001 
3465625000  -5.129936e+001  8.822807e+001 
3468750000  -5.243255e+001  8.318364e+001 
3471875000  -5.183431e+001  8.621942e+001 
3475000000  -5.029255e+001  7.603583e+001 
3478125000  -5.069741e+001  6.819772e+001 
3481250000  -5.242292e+001  7.540100e+001 
3484375000  -5.309494e+001  6.972025e+001 
3487500000  -5.203557e+001  6.820544e+001 
3490625000  -5.134151e+001  6.422829e+001 
3493750000  -5.184346e+001  5.895527e+001 
3496875000  -5.164464e+001  5.357703e+001 
3500000000  -5.202670e+001  5.498209e+001 
3503125000  -5.115402e+001  5.625583e+001 
3506250000  -5.068287e+001  4.677811e+001 
3509375000  -4.976450e+001  3.093946e+001 
3512500000  -5.056498e+001  2.341839e+001 
3515625000  -5.118777e+001  1.396585e+001 
3518750000  -5.244190e+001  2.291356e+001 
3521875000  -5.231971e+001  1.164283e+001 
3525000000  -5.307710e+001  5.165730e+000 
3528125000  -5.360347e+001  9.229900e+000 
3531250000  -5.203176e+001  1.808717e+000 
3534375000  -5.250396e+001  -8.063973e+000 
3537500000  -5.409106e+001  -1.594276e+001 
3540625000  -5.621622e+001  -2.167565e+001 
3543750000  -5.647120e+001  -7.123015e+000 
3546875000  -5.591922e+001  -4.786450e+000 
3550000000  -5.441861e+001  -5.121880e+000 
3553125000  -5.368488e+001  -3.238686e+001 
3556250000  -5.583146e+001  -2.129005e+001 
3559375000  -5.771107e+001  -2.646412e+001 
3562500000  -5.696417e+001  -3.595246e+001 
3565625000  -5.718205e+001  -3.180103e+001 
3568750000  -5.729680e+001  -2.793952e+001 
3571875000  -5.814848e+001  -3.702617e+001 
3575000000  -5.732425e+001  -1.907147e+001 
3578125000  -5.955344e+001  -3.708385e+001 
3581250000  -5.666710e+001  -3.025792e+001 
3584375000  -5.664201e+001  -3.158057e+001 
3587500000  -5.846097e+001  -3.348944e+001 
3590625000  -5.781053e+001  -4.022774e+001 
3593750000  -5.903035e+001  -4.364252e+001 
3596875000  -6.023221e+001  -4.022179e+001 
3600000000  -5.771352e+001  -3.136926e+001 
3603125000  -5.750599e+001  -4.915966e+001 
3606250000  -5.789287e+001  -3.926490e+001 
3609375000  -5.745432e+001  -4.028149e+001 
3612500000  -6.060308e+001  -3.461545e+001 
3615625000  -6.006897e+001  -4.231449e+001 
3618750000  -5.890506e+001  -3.609997e+001 
3621875000  -5.638793e+001  -3.893986e+001 
3625000000  -5.609343e+001  -4.107687e+001 
3628125000  -5.701743e+001  -3.013953e+001 
3631250000  -5.700110e+001  -4.249749e+001 
3634375000  -5.603795e+001  -2.620111e+001 
3637500000  -5.471102e+001  -3.464047e+001 
3640625000  -5.494946e+001  -2.876098e+001 
3643750000  -5.281801e+001  -3.719883e+001 
3646875000  -5.337927e+001  -4.179709e+001 
3650000000  -5.341898e+001  -4.637961e+001 
3653125000  -5.083750e+001  -5.054554e+001 
3656250000  -5.190206e+001  -5.159888e+001 
3659375000  -5.138832e+001  -5.930439e+001 
3662500000  -5.054522e+001  -5.972048e+001 
3665625000  -4.953558e+001  -6.502028e+001 
3668750000  -4.793921e+001  -6.840844e+001 
3671875000  -4.736718e+001  -7.434409e+001 
3675000000  -4.742303e+001  -8.652787e+001 
3678125000  -4.728851e+001  -8.952392e+001 
3681250000  -4.655771e+001  -8.936668e+001 
3684375000  -4.729379e+001  -1.000812e+002 
3687500000  -4.673774e+001  -1.041522e+002 
3690625000  -4.666614e+001  -1.084546e+002 
3693750000  -4.660661e+001  -1.089263e+002 
3696875000  -4.621102e+001  -1.113546e+002 
3700000000  -4.497094e+001  -1.175582e+002 
3703125000  -4.576913e+001  -1.246076e+002 
3706250000  -4.561955e+001  -1.250214e+002 
3709375000  -4.471371e+001  -1.226067e+002 
3712500000  -4.330609e+001  -1.298156e+002 
3715625000  -4.181311e+001  -1.376666e+002 
3718750000  -4.166047e+001  -1.463272e+002 
3721875000  -4.141476e+001  -1.543120e+002 
3725000000  -4.149144e+001  -1.622460e+002 
3728125000  -4.116867e+001  -1.656117e+002 
3731250000  -4.082577e+001  -1.717401e+002 
3734375000  -4.011669e+001  1.799443e+002 
3737500000  -4.086242e+001  1.707506e+002 
3740625000  -4.092348e+001  1.669961e+002 
3743750000  -4.075814e+001  1.610804e+002 
3746875000  -4.065445e+001  1.529339e+002 
3750000000  -4.084688e+001  1.493489e+002 
3753125000  -4.063054e+001  1.439139e+002 
3756250000  -4.069047e+001  1.421488e+002 
3759375000  -4.029920e+001  1.385018e+002 
3762500000  -4.010480e+001  1.304042e+002 
3765625000  -4.069823e+001  1.241717e+002 
3768750000  -4.020858e+001  1.256399e+002 
3771875000  -3.855426e+001  1.181461e+002 
3775000000  -3.869853e+001  1.079585e+002 
3778125000  -3.901097e+001  1.009237e+002 
3781250000  -3.884390e+001  9.690899e+001 
3784375000  -3.864965e+001  9.007434e+001 
3787500000  -3.854721e+001  8.488654e+001 
3790625000  -3.916958e+001  7.624497e+001 
3793750000  -3.902457e+001  7.250445e+001 
3796875000  -3.839783e+001  6.642268e+001 
3800000000  -3.641354e+001  6.340482e+001 
3803125000  -3.802130e+001  5.042316e+001 
3806250000  -3.892749e+001  4.530760e+001 
3809375000  -3.851597e+001  4.129198e+001 
3812500000  -3.832674e+001  3.378662e+001 
3815625000  -3.971541e+001  2.431951e+001 
3818750000  -4.056105e+001  2.470909e+001 
3821875000  -4.010074e+001  3.563949e+001 
3825000000  -3.817973e+001  3.049960e+001 
3828125000  -3.700986e+001  1.274405e+001 
3831250000  -3.798681e+001  -1.574903e+000 
3834375000  -4.042636e+001  -1.160946e+000 
3837500000  -4.051699e+001  4.967087e-001 
3840625000  -3.918931e+001  -3.241871e+000 
3843750000  -3.822835e+001  -1.671996e+001 
3846875000  -3.980684e+001  -2.334766e+001 
3850000000  -4.069828e+001  -1.464494e+001 
3853125000  -3.975074e+001  -1.908307e+001 
3856250000  -3.930170e+001  -2.525310e+001 
3859375000  -3.858739e+001  -3.238318e+001 
3862500000  -3.838230e+001  -4.318157e+001 
3865625000  -3.897437e+001  -4.865567e+001 
3868750000  -3.889886e+001  -4.735023e+001 
3871875000  -3.794461e+001  -5.639426e+001 
3875000000  -3.859312e+001  -6.624607e+001 
3878125000  -3.948666e+001  -6.784528e+001 
3881250000  -3.903905e+001  -6.848977e+001 
3884375000  -3.875396e+001  -7.490257e+001 
3887500000  -3.917166e+001  -8.009101e+001 
3890625000  -3.957122e+001  -8.700579e+001 
3893750000  -3.981352e+001  -8.950198e+001 
3896875000  -4.008876e+001  -9.199463e+001 
3900000000  -4.008425e+001  -9.501704e+001 
3903125000  -3.939554e+001  -1.004673e+002 
3906250000  -3.891544e+001  -1.027350e+002 
3909375000  -3.812206e+001  -1.113606e+002 
3912500000  -3.921545e+001  -1.202789e+002 
3915625000  -4.040540e+001  -1.188213e+002 
3918750000  -3.996303e+001  -1.230552e+002 
3921875000  -3.932887e+001  -1.261747e+002 
3925000000  -3.855947e+001  -1.311888e+002 
3928125000  -3.826445e+001  -1.418017e+002 
3931250000  -3.896770e+001  -1.497844e+002 
3934375000  -3.948376e+001  -1.493522e+002 
3937500000  -4.017351e+001  -1.508144e+002 
3940625000  -3.985211e+001  -1.546585e+002 
3943750000  -3.906315e+001  -1.567025e+002 
3946875000  -3.840040e+001  -1.653182e+002 
3950000000  -3.946369e+001  -1.757171e+002 
3953125000  -4.011050e+001  -1.753009e+002 
3956250000  -3.888346e+001  -1.723073e+002 
3959375000  -3.801973e+001  -1.798303e+002 
3962500000  -3.785185e+001  1.712387e+002 
3965625000  -3.771280e+001  1.610506e+002 
3968750000  -3.871159e+001  1.548596e+002 
3971875000  -3.864289e+001  1.492810e+002 
3975000000  -3.864084e+001  1.461461e+002 
3978125000  -3.835919e+001  1.393301e+002 
3981250000  -3.851950e+001  1.344640e+002 
3984375000  -3.885532e+001  1.267132e+002 
3987500000  -3.971852e+001  1.232479e+002 
3990625000  -4.000597e+001  1.213226e+002 
3993750000  -3.968410e+001  1.178037e+002 
3996875000  -3.999678e+001  1.119217e+002 
4000000000  -4.054092e+001  1.055944e+002 
4003125000  -4.100462e+001  1.091542e+002 
4006250000  -3.946894e+001  1.058572e+002 
4009375000  -3.881485e+001  9.161803e+001 
4012500000  -4.031283e+001  8.490691e+001 
4015625000  -4.148214e+001  8.405539e+001 
4018750000  -4.144294e+001  8.358292e+001 
4021875000  -4.073946e+001  8.257682e+001 
4025000000  -4.033719e+001  7.656928e+001 
4028125000  -4.055754e+001  6.695747e+001 
4031250000  -4.113716e+001  6.301256e+001 
4034375000  -4.147330e+001  6.396109e+001 
4037500000  -4.073711e+001  6.581505e+001 
4040625000  -4.071455e+001  5.971378e+001 
4043750000  -4.126140e+001  5.640639e+001 
4046875000  -4.075394e+001  5.297578e+001 
4050000000  -4.074115e+001  4.816884e+001 
4053125000  -4.122529e+001  4.572303e+001 
4056250000  -4.163388e+001  4.974727e+001 
4059375000  -3.929690e+001  4.709035e+001 
4062500000  -3.889701e+001  3.975007e+001 
4065625000  -3.909658e+001  3.419902e+001 
4068750000  -3.842706e+001  2.671067e+001 
4071875000  -3.792203e+001  1.614830e+001 
4075000000  -3.830590e+001  9.391161e+000 
4078125000  -3.872552e+001  5.789095e+000 
4081250000  -3.830468e+001  2.525562e-001 
4084375000  -3.805505e+001  -9.357289e+000 
4087500000  -3.870700e+001  -1.541209e+001 
4090625000  -3.934466e+001  -1.716502e+001 
4093750000  -3.887824e+001  -1.812835e+001 
4096875000  -3.866895e+001  -3.061255e+001 
4100000000  -3.965675e+001  -3.477395e+001 
4103125000  -4.059176e+001  -3.485782e+001 
4106250000  -4.026423e+001  -3.161415e+001 
4109375000  -3.915182e+001  -3.593486e+001 
4112500000  -3.893324e+001  -4.387032e+001 
4115625000  -3.929563e+001  -5.194260e+001 
4118750000  -3.920248e+001  -5.561323e+001 
4121875000  -3.890803e+001  -6.266531e+001 
4125000000  -3.976707e+001  -6.863528e+001 
4128125000  -4.069404e+001  -6.578307e+001 
4131250000  -3.996941e+001  -6.131444e+001 
4134375000  -3.784459e+001  -7.206919e+001 
4137500000  -3.813519e+001  -9.205280e+001 
4140625000  -4.056750e+001  -9.950561e+001 
4143750000  -4.148546e+001  -9.094269e+001 
4146875000  -4.060232e+001  -8.769172e+001 
4150000000  -3.980070e+001  -9.589298e+001 
4153125000  -3.983430e+001  -1.058093e+002 
4156250000  -4.120127e+001  -1.077896e+002 
4159375000  -4.110890e+001  -1.025170e+002 
4162500000  -3.987963e+001  -1.019633e+002 
4165625000  -3.876864e+001  -1.096844e+002 
4168750000  -3.856949e+001  -1.190234e+002 
4171875000  -3.821328e+001  -1.293249e+002 
4175000000  -3.929736e+001  -1.342239e+002 
4178125000  -3.976310e+001  -1.358035e+002 
4181250000  -3.933736e+001  -1.403804e+002 
4184375000  -3.948501e+001  -1.429368e+002 
4187500000  -3.940562e+001  -1.501167e+002 
4190625000  -3.961349e+001  -1.578789e+002 
4193750000  -4.049854e+001  -1.623549e+002 
4196875000  -4.150109e+001  -1.625455e+002 
4200000000  -4.240787e+001  -1.570915e+002 
4203125000  -4.109426e+001  -1.450157e+002 
4206250000  -3.748444e+001  -1.530071e+002 
4209375000  -3.747174e+001  -1.789146e+002 
4212500000  -3.960889e+001  1.754646e+002 
4215625000  -4.028802e+001  -1.778502e+002 
4218750000  -3.827683e+001  -1.762086e+002 
4221875000  -3.691406e+001  1.733715e+002 
4225000000  -3.808000e+001  1.634398e+002 
4228125000  -3.775630e+001  1.643027e+002 
4231250000  -3.631976e+001  1.569311e+002 
4234375000  -3.673593e+001  1.440571e+002 
4237500000  -3.617932e+001  1.392650e+002 
4240625000  -3.622778e+001  1.297104e+002 
4243750000  -3.770745e+001  1.195468e+002 
4246875000  -3.853582e+001  1.215802e+002 
4250000000  -3.842889e+001  1.206934e+002 
4253125000  -3.842968e+001  1.168259e+002 
4256250000  -3.810292e+001  1.117872e+002 
4259375000  -3.799506e+001  1.052001e+002 
4262500000  -3.816392e+001  1.008953e+002 
4265625000  -3.799257e+001  1.005819e+002 
4268750000  -3.713245e+001  9.117491e+001 
4271875000  -3.704783e+001  8.430528e+001 
4275000000  -3.664736e+001  7.443268e+001 
4278125000  -3.761566e+001  6.309332e+001 
4281250000  -3.898942e+001  6.149650e+001 
4284375000  -3.873138e+001  5.946026e+001 
4287500000  -4.053311e+001  5.408442e+001 
4290625000  -4.048153e+001  6.510229e+001 
4293750000  -3.882333e+001  6.453077e+001 
4296875000  -3.769891e+001  4.980121e+001 
4300000000  -3.922232e+001  4.169619e+001 
4303125000  -3.995596e+001  4.459425e+001 
4306250000  -3.860202e+001  4.778881e+001 
4309375000  -3.788215e+001  4.077524e+001 
4312500000  -3.769046e+001  3.007310e+001 
4315625000  -3.811491e+001  2.286275e+001 
4318750000  -3.867689e+001  1.786372e+001 
4321875000  -3.858234e+001  1.825475e+001 
4325000000  -3.795443e+001  1.697984e+001 
4328125000  -3.767870e+001  7.324981e+000 
4331250000  -3.783798e+001  -2.500627e+000 
4334375000  -3.820961e+001  -9.175881e+000 
4337500000  -3.939698e+001  -1.055478e+001 
4340625000  -3.964268e+001  -5.797629e+000 
4343750000  -3.871288e+001  -7.383549e+000 
4346875000  -3.844267e+001  -1.775428e+001 
4350000000  -3.857314e+001  -2.541500e+001 
4353125000  -3.890099e+001  -3.176302e+001 
4356250000  -4.115158e+001  -2.957395e+001 
4359375000  -4.016742e+001  -1.638531e+001 
4362500000  -3.658853e+001  -2.352835e+001 
4365625000  -3.604185e+001  -4.108685e+001 
4368750000  -3.746084e+001  -4.998404e+001 
4371875000  -3.821074e+001  -4.931515e+001 
4375000000  -3.744724e+001  -5.481742e+001 
4378125000  -3.695942e+001  -6.135023e+001 
4381250000  -3.722523e+001  -7.068343e+001 
4384375000  -3.744395e+001  -7.616035e+001 
4387500000  -3.839454e+001  -8.186555e+001 
4390625000  -3.874235e+001  -8.295482e+001 
4393750000  -3.818502e+001  -8.449127e+001 
4396875000  -3.723616e+001  -8.875582e+001 
4400000000  -3.704331e+001  -9.787294e+001 
4403125000  -3.789196e+001  -1.059516e+002 
4406250000  -3.852309e+001  -1.100217e+002 
4409375000  -3.881019e+001  -1.149986e+002 
4412500000  -3.975033e+001  -1.182957e+002 
4415625000  -3.954247e+001  -1.119781e+002 
