!Agilent Technologies,E8363B,MY43030201,A.06.04.32
!Agilent E8363B: A.06.04.32
!Date: Tuesday, November 11, 2014 21:29:32
!Correction: S21(Response(S21)) 
!S1P File: Measurement: S21:
# Hz S  dB   R 50
3000000000  -4.052258e+001  8.592693e+001 
3003125000  -4.217025e+001  7.824342e+001 
3006250000  -4.236552e+001  7.808005e+001 
3009375000  -4.273819e+001  8.278507e+001 
3012500000  -4.141087e+001  7.746746e+001 
3015625000  -4.129146e+001  7.183981e+001 
3018750000  -4.185910e+001  7.113697e+001 
3021875000  -4.006874e+001  7.271064e+001 
3025000000  -3.897601e+001  6.860598e+001 
3028125000  -3.794081e+001  5.879508e+001 
3031250000  -3.697613e+001  4.581174e+001 
3034375000  -3.680610e+001  3.248803e+001 
3037500000  -3.741178e+001  2.166743e+001 
3040625000  -3.870252e+001  1.686918e+001 
3043750000  -3.904424e+001  9.728089e+000 
3046875000  -3.979389e+001  4.219166e+000 
3050000000  -4.083100e+001  -1.496615e+000 
3053125000  -4.067583e+001  4.480298e+000 
3056250000  -4.028353e+001  6.580915e+000 
3059375000  -3.980682e+001  5.165515e+000 
3062500000  -3.816337e+001  -7.890296e-001 
3065625000  -3.790733e+001  -1.062179e+001 
3068750000  -3.757075e+001  -1.616618e+001 
3071875000  -3.765059e+001  -2.074246e+001 
3075000000  -3.708634e+001  -2.671006e+001 
3078125000  -3.707881e+001  -3.232255e+001 
3081250000  -3.729140e+001  -3.876086e+001 
3084375000  -3.644108e+001  -4.367976e+001 
3087500000  -3.641076e+001  -4.962593e+001 
3090625000  -3.586225e+001  -6.171464e+001 
3093750000  -3.675323e+001  -7.073681e+001 
3096875000  -3.737865e+001  -7.580923e+001 
3100000000  -3.720506e+001  -7.884159e+001 
3103125000  -3.759988e+001  -8.157564e+001 
3106250000  -3.714059e+001  -8.665525e+001 
3109375000  -3.726437e+001  -9.129492e+001 
3112500000  -3.722197e+001  -9.683622e+001 
3115625000  -3.703903e+001  -1.014029e+002 
3118750000  -3.730762e+001  -1.034291e+002 
3121875000  -3.654121e+001  -1.150606e+002 
3125000000  -3.843671e+001  -1.183546e+002 
3128125000  -3.847675e+001  -1.117440e+002 
3131250000  -3.611271e+001  -1.166832e+002 
3134375000  -3.546785e+001  -1.340480e+002 
3137500000  -3.606004e+001  -1.477104e+002 
3140625000  -3.732088e+001  -1.502197e+002 
3143750000  -3.822851e+001  -1.526498e+002 
3146875000  -3.774856e+001  -1.501755e+002 
3150000000  -3.683407e+001  -1.531487e+002 
3153125000  -3.707851e+001  -1.616241e+002 
3156250000  -3.816697e+001  -1.571955e+002 
3159375000  -3.572999e+001  -1.590925e+002 
3162500000  -3.423791e+001  -1.748136e+002 
3165625000  -3.546945e+001  1.724913e+002 
3168750000  -3.541258e+001  1.722203e+002 
3171875000  -3.496363e+001  1.641468e+002 
3175000000  -3.549275e+001  1.544800e+002 
3178125000  -3.509720e+001  1.536952e+002 
3181250000  -3.436045e+001  1.451938e+002 
3184375000  -3.414079e+001  1.335315e+002 
3187500000  -3.535010e+001  1.189019e+002 
3190625000  -3.731342e+001  1.123250e+002 
3193750000  -3.742459e+001  1.189729e+002 
3196875000  -3.735397e+001  1.188078e+002 
3200000000  -3.630088e+001  1.137159e+002 
3203125000  -3.598494e+001  1.067724e+002 
3206250000  -3.612648e+001  9.764855e+001 
3209375000  -3.566456e+001  9.052221e+001 
3212500000  -3.622462e+001  8.376841e+001 
3215625000  -3.621504e+001  7.963458e+001 
3218750000  -3.681099e+001  6.930494e+001 
3221875000  -3.737162e+001  6.232960e+001 
3225000000  -3.695794e+001  5.888092e+001 
3228125000  -3.769929e+001  5.148797e+001 
3231250000  -3.814516e+001  4.969395e+001 
3234375000  -3.787775e+001  4.610645e+001 
3237500000  -3.814354e+001  4.200176e+001 
3240625000  -3.768192e+001  3.707789e+001 
3243750000  -3.765415e+001  2.658042e+001 
3246875000  -3.838829e+001  2.030598e+001 
3250000000  -3.876543e+001  1.620377e+001 
3253125000  -3.890706e+001  1.300763e+001 
3256250000  -3.865890e+001  5.416986e+000 
3259375000  -3.907053e+001  -6.037389e+000 
3262500000  -4.066318e+001  -9.211461e+000 
3265625000  -4.109142e+001  -6.717909e+000 
3268750000  -4.114716e+001  -7.149953e+000 
3271875000  -4.060932e+001  -9.289246e+000 
3275000000  -4.019613e+001  -1.857543e+001 
3278125000  -4.100903e+001  -2.254711e+001 
3281250000  -4.094471e+001  -2.346648e+001 
3284375000  -4.056451e+001  -3.030012e+001 
3287500000  -4.090136e+001  -3.493647e+001 
3290625000  -4.143119e+001  -4.303857e+001 
3293750000  -4.120172e+001  -4.811474e+001 
3296875000  -4.254951e+001  -4.877921e+001 
3300000000  -4.167345e+001  -5.042025e+001 
3303125000  -4.087447e+001  -5.471367e+001 
3306250000  -4.086718e+001  -6.298280e+001 
3309375000  -4.079592e+001  -6.951931e+001 
3312500000  -4.098381e+001  -8.173401e+001 
3315625000  -4.211138e+001  -9.076769e+001 
3318750000  -4.370955e+001  -9.304953e+001 
3321875000  -4.487050e+001  -8.977455e+001 
3325000000  -4.478317e+001  -8.155623e+001 
3328125000  -4.402043e+001  -8.722440e+001 
3331250000  -4.244419e+001  -8.075609e+001 
3334375000  -4.007322e+001  -9.473708e+001 
3337500000  -4.049769e+001  -1.156227e+002 
3340625000  -4.209914e+001  -1.271214e+002 
3343750000  -4.407682e+001  -1.257358e+002 
3346875000  -4.347034e+001  -1.272038e+002 
3350000000  -4.315155e+001  -1.284609e+002 
3353125000  -4.297141e+001  -1.366325e+002 
3356250000  -4.245988e+001  -1.457861e+002 
3359375000  -4.339157e+001  -1.542981e+002 
3362500000  -4.428373e+001  -1.620688e+002 
3365625000  -4.473683e+001  -1.640853e+002 
3368750000  -4.562260e+001  -1.691414e+002 
3371875000  -4.569575e+001  -1.743366e+002 
3375000000  -4.748067e+001  -1.770369e+002 
3378125000  -4.773148e+001  -1.779054e+002 
3381250000  -4.998803e+001  -1.688093e+002 
3384375000  -4.662423e+001  -1.541693e+002 
3387500000  -4.462635e+001  -1.728155e+002 
3390625000  -4.578881e+001  1.648771e+002 
3393750000  -4.741471e+001  1.664135e+002 
3396875000  -4.622261e+001  1.639556e+002 
3400000000  -4.632844e+001  1.533801e+002 
3403125000  -4.723656e+001  1.478121e+002 
3406250000  -4.772952e+001  1.444844e+002 
3409375000  -4.773005e+001  1.357750e+002 
3412500000  -4.884329e+001  1.301250e+002 
3415625000  -4.958682e+001  1.294840e+002 
3418750000  -5.071080e+001  1.274564e+002 
3421875000  -5.145456e+001  1.389449e+002 
3425000000  -5.040759e+001  1.359731e+002 
3428125000  -5.058419e+001  1.259408e+002 
3431250000  -5.037540e+001  1.197664e+002 
3434375000  -5.102981e+001  1.153490e+002 
3437500000  -5.196279e+001  1.145574e+002 
3440625000  -5.223833e+001  1.145761e+002 
3443750000  -5.088462e+001  1.245661e+002 
3446875000  -5.091836e+001  1.161996e+002 
3450000000  -5.053164e+001  1.040941e+002 
3453125000  -5.137832e+001  9.491431e+001 
3456250000  -5.156363e+001  9.623448e+001 
3459375000  -5.345983e+001  9.357306e+001 
3462500000  -5.285478e+001  1.054824e+002 
3465625000  -5.191633e+001  1.001250e+002 
3468750000  -5.198874e+001  9.534428e+001 
3471875000  -5.225346e+001  9.015482e+001 
3475000000  -5.086277e+001  8.892711e+001 
3478125000  -5.225432e+001  7.927958e+001 
3481250000  -5.262026e+001  7.365356e+001 
3484375000  -5.254100e+001  8.047933e+001 
3487500000  -5.208833e+001  7.876516e+001 
3490625000  -5.045509e+001  6.490458e+001 
3493750000  -5.216050e+001  6.700456e+001 
3496875000  -5.206395e+001  6.600687e+001 
3500000000  -5.271458e+001  6.298176e+001 
3503125000  -5.109750e+001  6.046234e+001 
3506250000  -5.025975e+001  5.455458e+001 
3509375000  -4.921970e+001  4.016166e+001 
3512500000  -5.013511e+001  3.362706e+001 
3515625000  -5.070575e+001  2.599756e+001 
3518750000  -5.236346e+001  2.252681e+001 
3521875000  -5.149236e+001  2.540658e+001 
3525000000  -5.319474e+001  1.392123e+001 
3528125000  -5.295404e+001  2.549734e+001 
3531250000  -5.197217e+001  9.383949e+000 
3534375000  -5.174455e+001  1.709742e+000 
3537500000  -5.357543e+001  -6.219612e+000 
3540625000  -5.403305e+001  -1.184025e+001 
3543750000  -5.633875e+001  -5.034681e+000 
3546875000  -5.509879e+001  9.072091e+000 
3550000000  -5.425300e+001  -5.348802e+000 
3553125000  -5.331520e+001  -1.534203e+001 
3556250000  -5.608098e+001  -1.479944e+001 
3559375000  -5.586896e+001  -1.790314e+001 
3562500000  -5.558171e+001  -2.577141e+001 
3565625000  -5.753062e+001  -2.657686e+001 
3568750000  -5.782858e+001  -1.751618e+001 
3571875000  -5.806820e+001  -2.529085e+001 
3575000000  -5.984816e+001  -1.504567e+001 
3578125000  -5.861020e+001  -1.834927e+001 
3581250000  -5.901977e+001  -2.732166e+001 
3584375000  -5.851891e+001  -1.859080e+001 
3587500000  -5.741655e+001  -2.261898e+001 
3590625000  -5.871092e+001  -4.375053e+001 
3593750000  -5.966379e+001  -1.800213e+001 
3596875000  -5.947011e+001  -1.707038e+001 
3600000000  -5.869910e+001  -1.284183e+001 
3603125000  -5.960259e+001  -4.493716e+001 
3606250000  -5.837969e+001  -2.869480e+001 
3609375000  -5.878770e+001  -1.604550e+001 
3612500000  -5.835021e+001  -4.048937e+001 
3615625000  -5.943589e+001  -3.198789e+001 
3618750000  -5.858720e+001  -1.789618e+001 
3621875000  -5.663246e+001  -3.989063e+001 
3625000000  -5.733157e+001  -3.560258e+001 
3628125000  -5.620193e+001  -2.429167e+001 
3631250000  -5.542653e+001  -3.218364e+001 
3634375000  -5.683643e+001  -2.224927e+001 
3637500000  -5.539912e+001  -2.944834e+001 
3640625000  -5.433820e+001  -2.242877e+001 
3643750000  -5.366589e+001  -3.404361e+001 
3646875000  -5.178603e+001  -4.363147e+001 
3650000000  -5.282195e+001  -4.176506e+001 
3653125000  -5.142136e+001  -5.093907e+001 
3656250000  -5.158477e+001  -4.468644e+001 
3659375000  -5.172424e+001  -4.840538e+001 
3662500000  -5.091116e+001  -5.637228e+001 
3665625000  -4.997263e+001  -6.125217e+001 
3668750000  -4.857750e+001  -5.989750e+001 
3671875000  -4.708046e+001  -6.472095e+001 
3675000000  -4.725196e+001  -7.829391e+001 
3678125000  -4.776030e+001  -8.205741e+001 
3681250000  -4.671329e+001  -8.522713e+001 
3684375000  -4.670704e+001  -9.242392e+001 
3687500000  -4.665818e+001  -9.693677e+001 
3690625000  -4.652684e+001  -1.038141e+002 
3693750000  -4.706339e+001  -1.041731e+002 
3696875000  -4.632394e+001  -1.042449e+002 
3700000000  -4.495945e+001  -1.103491e+002 
3703125000  -4.567022e+001  -1.172894e+002 
3706250000  -4.585396e+001  -1.141996e+002 
3709375000  -4.490819e+001  -1.172226e+002 
3712500000  -4.333798e+001  -1.198630e+002 
3715625000  -4.178992e+001  -1.301463e+002 
3718750000  -4.179464e+001  -1.384578e+002 
3721875000  -4.122306e+001  -1.474414e+002 
3725000000  -4.173673e+001  -1.544417e+002 
3728125000  -4.123840e+001  -1.567103e+002 
3731250000  -4.071504e+001  -1.627493e+002 
3734375000  -3.998106e+001  -1.704690e+002 
3737500000  -4.091954e+001  -1.789810e+002 
3740625000  -4.097377e+001  1.741491e+002 
3743750000  -4.052203e+001  1.685715e+002 
3746875000  -4.067440e+001  1.622664e+002 
3750000000  -4.099022e+001  1.573738e+002 
3753125000  -4.060731e+001  1.535804e+002 
3756250000  -4.068142e+001  1.506011e+002 
3759375000  -4.039875e+001  1.463548e+002 
3762500000  -4.000623e+001  1.386633e+002 
3765625000  -4.066708e+001  1.345001e+002 
3768750000  -4.010105e+001  1.344601e+002 
3771875000  -3.846220e+001  1.271105e+002 
3775000000  -3.869448e+001  1.142412e+002 
3778125000  -3.886703e+001  1.100742e+002 
3781250000  -3.891647e+001  1.047464e+002 
3784375000  -3.871618e+001  9.888586e+001 
3787500000  -3.841163e+001  9.353817e+001 
3790625000  -3.918941e+001  8.209629e+001 
3793750000  -3.910019e+001  8.141691e+001 
3796875000  -3.843745e+001  7.658456e+001 
3800000000  -3.644654e+001  7.207537e+001 
3803125000  -3.825046e+001  5.820811e+001 
3806250000  -3.907632e+001  5.416264e+001 
3809375000  -3.867969e+001  4.987591e+001 
3812500000  -3.840168e+001  4.190878e+001 
3815625000  -3.954097e+001  3.310352e+001 
3818750000  -4.084757e+001  3.230548e+001 
3821875000  -4.013683e+001  4.220776e+001 
3825000000  -3.809937e+001  3.735563e+001 
3828125000  -3.726014e+001  1.926911e+001 
3831250000  -3.799076e+001  5.694699e+000 
3834375000  -4.020554e+001  5.237852e+000 
3837500000  -4.106178e+001  1.077420e+001 
3840625000  -3.898721e+001  6.217685e+000 
3843750000  -3.828875e+001  -8.915884e+000 
3846875000  -3.980047e+001  -1.512098e+001 
3850000000  -4.086622e+001  -8.733007e+000 
3853125000  -4.005932e+001  -6.564633e+000 
3856250000  -3.940092e+001  -1.562774e+001 
3859375000  -3.868481e+001  -2.294954e+001 
3862500000  -3.854761e+001  -3.451696e+001 
3865625000  -3.905875e+001  -3.890578e+001 
3868750000  -3.860197e+001  -4.011956e+001 
3871875000  -3.804679e+001  -4.740532e+001 
3875000000  -3.860263e+001  -5.608048e+001 
3878125000  -3.969724e+001  -6.057375e+001 
3881250000  -3.950697e+001  -6.036196e+001 
3884375000  -3.875978e+001  -6.757816e+001 
3887500000  -3.924808e+001  -7.380401e+001 
3890625000  -3.972791e+001  -7.846452e+001 
3893750000  -3.971727e+001  -8.050488e+001 
3896875000  -4.019867e+001  -8.240048e+001 
3900000000  -4.003134e+001  -8.681519e+001 
3903125000  -3.934364e+001  -9.173823e+001 
3906250000  -3.910319e+001  -9.439651e+001 
3909375000  -3.821932e+001  -1.021561e+002 
3912500000  -3.900480e+001  -1.110555e+002 
3915625000  -4.022728e+001  -1.117674e+002 
3918750000  -4.025007e+001  -1.153808e+002 
3921875000  -3.943746e+001  -1.193447e+002 
3925000000  -3.857583e+001  -1.237046e+002 
3928125000  -3.820287e+001  -1.327755e+002 
3931250000  -3.920973e+001  -1.397242e+002 
3934375000  -3.962088e+001  -1.414790e+002 
3937500000  -4.010716e+001  -1.440279e+002 
3940625000  -4.017815e+001  -1.451664e+002 
3943750000  -3.905623e+001  -1.489390e+002 
3946875000  -3.846071e+001  -1.566149e+002 
3950000000  -3.961338e+001  -1.669576e+002 
3953125000  -4.023398e+001  -1.654016e+002 
3956250000  -3.895613e+001  -1.645647e+002 
3959375000  -3.775214e+001  -1.715191e+002 
3962500000  -3.788742e+001  -1.796120e+002 
3965625000  -3.788607e+001  1.691943e+002 
3968750000  -3.888076e+001  1.625661e+002 
3971875000  -3.878451e+001  1.576532e+002 
3975000000  -3.852542e+001  1.542273e+002 
3978125000  -3.862424e+001  1.492570e+002 
3981250000  -3.851501e+001  1.433682e+002 
3984375000  -3.898077e+001  1.345476e+002 
3987500000  -3.990982e+001  1.314498e+002 
3990625000  -4.014820e+001  1.307467e+002 
3993750000  -3.990727e+001  1.247516e+002 
3996875000  -3.990937e+001  1.207805e+002 
4000000000  -4.064612e+001  1.161652e+002 
4003125000  -4.106050e+001  1.183244e+002 
4006250000  -3.936314e+001  1.160243e+002 
4009375000  -3.854528e+001  9.931143e+001 
4012500000  -4.034581e+001  9.245547e+001 
4015625000  -4.157373e+001  9.210355e+001 
4018750000  -4.164782e+001  9.300433e+001 
4021875000  -4.088586e+001  8.981157e+001 
4025000000  -4.047338e+001  8.364914e+001 
4028125000  -4.049429e+001  7.910536e+001 
4031250000  -4.100820e+001  7.269048e+001 
4034375000  -4.150063e+001  7.201145e+001 
4037500000  -4.122571e+001  7.369565e+001 
4040625000  -4.075865e+001  6.912530e+001 
4043750000  -4.137951e+001  6.512899e+001 
4046875000  -4.088621e+001  6.051325e+001 
4050000000  -4.053555e+001  5.723521e+001 
4053125000  -4.147294e+001  5.326343e+001 
4056250000  -4.169209e+001  5.771923e+001 
4059375000  -3.945567e+001  5.586010e+001 
4062500000  -3.891831e+001  4.757445e+001 
4065625000  -3.891246e+001  4.164761e+001 
4068750000  -3.836000e+001  3.536885e+001 
4071875000  -3.786428e+001  2.521052e+001 
4075000000  -3.843369e+001  1.947193e+001 
4078125000  -3.865713e+001  1.563380e+001 
4081250000  -3.840149e+001  9.015981e+000 
4084375000  -3.821408e+001  -2.793297e-001 
4087500000  -3.863807e+001  -6.983631e+000 
4090625000  -3.914907e+001  -8.741675e+000 
4093750000  -3.870756e+001  -1.010793e+001 
4096875000  -3.884199e+001  -1.962846e+001 
4100000000  -3.976713e+001  -2.655925e+001 
4103125000  -4.077304e+001  -2.693420e+001 
4106250000  -4.022385e+001  -2.259127e+001 
4109375000  -3.916389e+001  -2.582603e+001 
4112500000  -3.875807e+001  -3.472643e+001 
4115625000  -3.907323e+001  -4.111608e+001 
4118750000  -3.924368e+001  -4.710427e+001 
4121875000  -3.920322e+001  -5.433405e+001 
4125000000  -3.968855e+001  -6.116038e+001 
4128125000  -4.093380e+001  -5.921133e+001 
4131250000  -4.009741e+001  -5.281345e+001 
4134375000  -3.795062e+001  -6.255914e+001 
4137500000  -3.810159e+001  -8.316265e+001 
4140625000  -4.043867e+001  -9.017886e+001 
4143750000  -4.148383e+001  -8.517149e+001 
4146875000  -4.079023e+001  -7.928528e+001 
4150000000  -3.976563e+001  -8.744276e+001 
4153125000  -4.032544e+001  -9.477583e+001 
4156250000  -4.104993e+001  -1.012232e+002 
4159375000  -4.157429e+001  -9.574551e+001 
4162500000  -4.020786e+001  -9.036129e+001 
4165625000  -3.886065e+001  -9.879083e+001 
4168750000  -3.833507e+001  -1.088565e+002 
4171875000  -3.863867e+001  -1.185253e+002 
4175000000  -3.938002e+001  -1.263234e+002 
4178125000  -3.993724e+001  -1.274593e+002 
4181250000  -3.934890e+001  -1.306364e+002 
4184375000  -3.965403e+001  -1.356698e+002 
4187500000  -3.964515e+001  -1.404192e+002 
4190625000  -3.953455e+001  -1.479773e+002 
4193750000  -4.059462e+001  -1.511730e+002 
4196875000  -4.174048e+001  -1.529010e+002 
4200000000  -4.223196e+001  -1.479706e+002 
4203125000  -4.103074e+001  -1.358190e+002 
4206250000  -3.783013e+001  -1.426320e+002 
4209375000  -3.726830e+001  -1.678688e+002 
4212500000  -3.968488e+001  -1.751069e+002 
4215625000  -4.012326e+001  -1.680596e+002 
4218750000  -3.858945e+001  -1.675151e+002 
4221875000  -3.690907e+001  -1.775008e+002 
4225000000  -3.791415e+001  1.702800e+002 
4228125000  -3.806110e+001  1.730091e+002 
4231250000  -3.629758e+001  1.664142e+002 
4234375000  -3.662614e+001  1.546886e+002 
4237500000  -3.639363e+001  1.488397e+002 
4240625000  -3.631189e+001  1.387489e+002 
4243750000  -3.766459e+001  1.294015e+002 
4246875000  -3.837398e+001  1.284315e+002 
4250000000  -3.805270e+001  1.304210e+002 
4253125000  -3.831528e+001  1.246980e+002 
4256250000  -3.822519e+001  1.209350e+002 
4259375000  -3.779178e+001  1.156959e+002 
4262500000  -3.803402e+001  1.122027e+002 
4265625000  -3.800995e+001  1.084940e+002 
4268750000  -3.708315e+001  1.019575e+002 
4271875000  -3.676858e+001  9.175343e+001 
4275000000  -3.634714e+001  8.530118e+001 
4278125000  -3.753511e+001  7.253109e+001 
4281250000  -3.924072e+001  6.964182e+001 
4284375000  -3.896198e+001  6.720403e+001 
4287500000  -4.055591e+001  6.515842e+001 
4290625000  -4.108525e+001  7.249299e+001 
4293750000  -3.887969e+001  7.590955e+001 
4296875000  -3.783321e+001  6.085001e+001 
4300000000  -3.913360e+001  5.213258e+001 
4303125000  -4.009520e+001  5.281356e+001 
4306250000  -3.884445e+001  5.718171e+001 
4309375000  -3.788884e+001  5.062162e+001 
4312500000  -3.768203e+001  3.905764e+001 
4315625000  -3.810641e+001  3.078017e+001 
4318750000  -3.872500e+001  2.794453e+001 
4321875000  -3.879401e+001  2.782118e+001 
4325000000  -3.828212e+001  2.714901e+001 
4328125000  -3.727075e+001  1.798961e+001 
4331250000  -3.763380e+001  6.253189e+000 
4334375000  -3.834611e+001  -6.122438e-001 
4337500000  -3.938603e+001  -1.385743e+000 
4340625000  -3.984991e+001  3.767207e+000 
4343750000  -3.893746e+001  1.754379e+000 
4346875000  -3.858570e+001  -8.089237e+000 
4350000000  -3.848810e+001  -1.671714e+001 
4353125000  -3.885543e+001  -2.445588e+001 
4356250000  -4.096661e+001  -2.079857e+001 
4359375000  -4.018480e+001  -5.368294e+000 
4362500000  -3.667085e+001  -1.335240e+001 
4365625000  -3.607652e+001  -3.053087e+001 
4368750000  -3.721203e+001  -4.054909e+001 
4371875000  -3.804026e+001  -4.120331e+001 
4375000000  -3.735461e+001  -4.472819e+001 
4378125000  -3.693926e+001  -5.295283e+001 
4381250000  -3.744307e+001  -6.041737e+001 
4384375000  -3.703876e+001  -6.653931e+001 
4387500000  -3.820014e+001  -7.231324e+001 
4390625000  -3.885127e+001  -7.498816e+001 
4393750000  -3.824929e+001  -7.321080e+001 
4396875000  -3.729320e+001  -7.831790e+001 
4400000000  -3.717290e+001  -8.822955e+001 
4403125000  -3.786805e+001  -9.780788e+001 
4406250000  -3.845909e+001  -1.010876e+002 
4409375000  -3.877612e+001  -1.037803e+002 
4412500000  -3.991296e+001  -1.075247e+002 
4415625000  -3.965501e+001  -1.034437e+002 
