!Agilent Technologies,E8363B,MY43030201,A.06.04.32
!Agilent E8363B: A.06.04.32
!Date: Tuesday, November 11, 2014 21:32:39
!Correction: S21(Response(S21)) 
!S1P File: Measurement: S21:
# Hz S  dB   R 50
3000000000  -4.055695e+001  7.653207e+001 
3003125000  -4.201262e+001  6.783702e+001 
3006250000  -4.235058e+001  6.897633e+001 
3009375000  -4.269389e+001  7.248161e+001 
3012500000  -4.150618e+001  6.833817e+001 
3015625000  -4.139403e+001  6.237066e+001 
3018750000  -4.162222e+001  6.128922e+001 
3021875000  -4.008186e+001  6.159183e+001 
3025000000  -3.886174e+001  5.829000e+001 
3028125000  -3.775673e+001  4.801705e+001 
3031250000  -3.700378e+001  3.638972e+001 
3034375000  -3.684269e+001  2.257947e+001 
3037500000  -3.744979e+001  1.259923e+001 
3040625000  -3.874541e+001  7.261944e+000 
3043750000  -3.912318e+001  4.560660e-001 
3046875000  -3.977221e+001  -5.553579e+000 
3050000000  -4.088640e+001  -9.899325e+000 
3053125000  -4.047674e+001  -6.401999e+000 
3056250000  -4.041508e+001  -2.666225e+000 
3059375000  -3.982188e+001  -4.063908e+000 
3062500000  -3.825394e+001  -9.381236e+000 
3065625000  -3.780493e+001  -1.975446e+001 
3068750000  -3.766700e+001  -2.719170e+001 
3071875000  -3.767215e+001  -2.949532e+001 
3075000000  -3.699505e+001  -3.554343e+001 
3078125000  -3.700193e+001  -4.269220e+001 
3081250000  -3.713809e+001  -4.733686e+001 
3084375000  -3.632566e+001  -5.343936e+001 
3087500000  -3.642992e+001  -6.036644e+001 
3090625000  -3.594847e+001  -7.224178e+001 
3093750000  -3.690902e+001  -7.948935e+001 
3096875000  -3.733646e+001  -8.523767e+001 
3100000000  -3.727028e+001  -8.841818e+001 
3103125000  -3.757994e+001  -9.105067e+001 
3106250000  -3.719850e+001  -9.686790e+001 
3109375000  -3.717711e+001  -1.005454e+002 
3112500000  -3.709669e+001  -1.070196e+002 
3115625000  -3.709046e+001  -1.112047e+002 
3118750000  -3.721804e+001  -1.139925e+002 
3121875000  -3.651434e+001  -1.255052e+002 
3125000000  -3.842228e+001  -1.278687e+002 
3128125000  -3.844883e+001  -1.216331e+002 
3131250000  -3.603181e+001  -1.270080e+002 
3134375000  -3.536811e+001  -1.449285e+002 
3137500000  -3.614151e+001  -1.567343e+002 
3140625000  -3.743208e+001  -1.596766e+002 
3143750000  -3.821856e+001  -1.611496e+002 
3146875000  -3.771312e+001  -1.593366e+002 
3150000000  -3.695320e+001  -1.638071e+002 
3153125000  -3.715495e+001  -1.726111e+002 
3156250000  -3.778801e+001  -1.671147e+002 
3159375000  -3.568987e+001  -1.692250e+002 
3162500000  -3.424247e+001  1.747857e+002 
3165625000  -3.535093e+001  1.630473e+002 
3168750000  -3.535222e+001  1.617558e+002 
3171875000  -3.492637e+001  1.540458e+002 
3175000000  -3.542440e+001  1.443332e+002 
3178125000  -3.502700e+001  1.431946e+002 
3181250000  -3.433878e+001  1.345926e+002 
3184375000  -3.417020e+001  1.236066e+002 
3187500000  -3.550987e+001  1.091312e+002 
3190625000  -3.714893e+001  1.030774e+002 
3193750000  -3.744257e+001  1.074967e+002 
3196875000  -3.732750e+001  1.091576e+002 
3200000000  -3.619117e+001  1.043626e+002 
3203125000  -3.588993e+001  9.617568e+001 
3206250000  -3.598922e+001  8.788908e+001 
3209375000  -3.559943e+001  7.994983e+001 
3212500000  -3.631242e+001  7.309455e+001 
3215625000  -3.621918e+001  7.105884e+001 
3218750000  -3.677589e+001  5.996897e+001 
3221875000  -3.714962e+001  5.266078e+001 
3225000000  -3.698113e+001  4.890617e+001 
3228125000  -3.769364e+001  4.149863e+001 
3231250000  -3.830196e+001  3.897105e+001 
3234375000  -3.791603e+001  3.651748e+001 
3237500000  -3.796045e+001  3.260831e+001 
3240625000  -3.760658e+001  2.711111e+001 
3243750000  -3.785468e+001  1.654306e+001 
3246875000  -3.817162e+001  9.326721e+000 
3250000000  -3.878468e+001  5.497790e+000 
3253125000  -3.886329e+001  3.167820e+000 
3256250000  -3.846375e+001  -6.158688e+000 
3259375000  -3.928545e+001  -1.650221e+001 
3262500000  -4.061939e+001  -1.961789e+001 
3265625000  -4.127644e+001  -1.835429e+001 
3268750000  -4.122413e+001  -1.672159e+001 
3271875000  -4.070931e+001  -1.941008e+001 
3275000000  -4.003831e+001  -2.791227e+001 
3278125000  -4.082367e+001  -3.402307e+001 
3281250000  -4.101628e+001  -3.510030e+001 
3284375000  -4.067261e+001  -4.086068e+001 
3287500000  -4.110842e+001  -4.379427e+001 
3290625000  -4.121176e+001  -5.204678e+001 
3293750000  -4.137083e+001  -5.834945e+001 
3296875000  -4.247199e+001  -5.949775e+001 
3300000000  -4.170213e+001  -5.886480e+001 
3303125000  -4.077872e+001  -6.643982e+001 
3306250000  -4.076010e+001  -7.293306e+001 
3309375000  -4.052449e+001  -8.006359e+001 
3312500000  -4.076574e+001  -9.385056e+001 
3315625000  -4.203490e+001  -1.004152e+002 
3318750000  -4.351426e+001  -1.031401e+002 
3321875000  -4.523820e+001  -1.007682e+002 
3325000000  -4.483634e+001  -9.309241e+001 
3328125000  -4.371292e+001  -9.266781e+001 
3331250000  -4.266703e+001  -9.015603e+001 
3334375000  -3.968874e+001  -1.051702e+002 
3337500000  -4.034002e+001  -1.280456e+002 
3340625000  -4.229905e+001  -1.371411e+002 
3343750000  -4.402901e+001  -1.341474e+002 
3346875000  -4.331272e+001  -1.356759e+002 
3350000000  -4.317780e+001  -1.387429e+002 
3353125000  -4.280844e+001  -1.465696e+002 
3356250000  -4.246097e+001  -1.565099e+002 
3359375000  -4.327755e+001  -1.659443e+002 
3362500000  -4.428696e+001  -1.711441e+002 
3365625000  -4.500089e+001  -1.752141e+002 
3368750000  -4.530352e+001  -1.791814e+002 
3371875000  -4.581903e+001  1.769272e+002 
3375000000  -4.755077e+001  1.725792e+002 
3378125000  -4.782477e+001  1.752801e+002 
3381250000  -4.949680e+001  1.796061e+002 
3384375000  -4.631799e+001  -1.626960e+002 
3387500000  -4.394189e+001  1.731128e+002 
3390625000  -4.629106e+001  1.573217e+002 
3393750000  -4.729536e+001  1.558274e+002 
3396875000  -4.612437e+001  1.567894e+002 
3400000000  -4.607230e+001  1.412783e+002 
3403125000  -4.717554e+001  1.369193e+002 
3406250000  -4.801908e+001  1.333079e+002 
3409375000  -4.761639e+001  1.304677e+002 
3412500000  -4.864893e+001  1.218753e+002 
3415625000  -4.943526e+001  1.206688e+002 
3418750000  -5.002955e+001  1.203414e+002 
3421875000  -5.171800e+001  1.244976e+002 
3425000000  -5.050450e+001  1.234046e+002 
3428125000  -5.000552e+001  1.228096e+002 
3431250000  -4.995942e+001  1.074085e+002 
3434375000  -5.074993e+001  1.091103e+002 
3437500000  -5.207981e+001  1.068496e+002 
3440625000  -5.234947e+001  1.093392e+002 
3443750000  -5.061383e+001  1.109629e+002 
3446875000  -5.068529e+001  1.042605e+002 
3450000000  -5.055280e+001  9.727885e+001 
3453125000  -5.051947e+001  8.732832e+001 
3456250000  -5.208802e+001  8.350254e+001 
3459375000  -5.409195e+001  8.871880e+001 
3462500000  -5.284019e+001  9.160542e+001 
3465625000  -5.131042e+001  7.803463e+001 
3468750000  -5.122359e+001  8.236946e+001 
3471875000  -5.224598e+001  7.799046e+001 
3475000000  -5.123211e+001  7.562096e+001 
3478125000  -5.104818e+001  6.733400e+001 
3481250000  -5.325514e+001  6.729526e+001 
3484375000  -5.294052e+001  7.041260e+001 
3487500000  -5.166302e+001  6.774430e+001 
3490625000  -5.100816e+001  6.145745e+001 
3493750000  -5.113247e+001  4.933685e+001 
3496875000  -5.258311e+001  5.517337e+001 
3500000000  -5.194760e+001  4.707495e+001 
3503125000  -5.108038e+001  5.047947e+001 
3506250000  -5.041429e+001  4.112557e+001 
3509375000  -4.972016e+001  3.226375e+001 
3512500000  -5.029780e+001  1.540370e+001 
3515625000  -5.119563e+001  1.249853e+001 
3518750000  -5.262368e+001  1.681288e+001 
3521875000  -5.148148e+001  1.087008e+001 
3525000000  -5.419864e+001  2.601368e+000 
3528125000  -5.183182e+001  8.189896e+000 
3531250000  -5.080061e+001  7.543427e+000 
3534375000  -5.285240e+001  -1.658385e+001 
3537500000  -5.373529e+001  -1.683106e+001 
3540625000  -5.445782e+001  -1.711923e+001 
3543750000  -5.521518e+001  -9.552163e+000 
3546875000  -5.635329e+001  -1.189620e+001 
3550000000  -5.395634e+001  -1.295541e+001 
3553125000  -5.458001e+001  -2.735945e+001 
3556250000  -5.556863e+001  -2.148941e+001 
3559375000  -5.565939e+001  -2.303784e+001 
3562500000  -5.549506e+001  -3.745203e+001 
3565625000  -5.647966e+001  -5.552806e+001 
3568750000  -5.672707e+001  -3.033715e+001 
3571875000  -5.612436e+001  -3.094369e+001 
3575000000  -5.709556e+001  -3.077235e+001 
3578125000  -5.914766e+001  -4.388722e+001 
3581250000  -5.823183e+001  -3.942348e+001 
3584375000  -5.776828e+001  -4.180545e+001 
3587500000  -5.918912e+001  -3.924505e+001 
3590625000  -5.798363e+001  -4.735891e+001 
3593750000  -5.876909e+001  -5.302393e+001 
3596875000  -5.833167e+001  -3.265657e+001 
3600000000  -5.632961e+001  -3.671640e+001 
3603125000  -5.792905e+001  -4.852365e+001 
3606250000  -5.871189e+001  -5.201041e+001 
3609375000  -5.903852e+001  -3.752485e+001 
3612500000  -5.978206e+001  -4.230536e+001 
3615625000  -5.879110e+001  -4.710151e+001 
3618750000  -5.918027e+001  -3.678870e+001 
3621875000  -5.743114e+001  -4.800559e+001 
3625000000  -5.695471e+001  -3.738691e+001 
3628125000  -5.793700e+001  -3.085908e+001 
3631250000  -5.682147e+001  -4.260507e+001 
3634375000  -5.718194e+001  -4.860838e+001 
3637500000  -5.593450e+001  -3.889793e+001 
3640625000  -5.416993e+001  -3.822259e+001 
3643750000  -5.190414e+001  -4.505520e+001 
3646875000  -5.258488e+001  -5.298210e+001 
3650000000  -5.284020e+001  -5.455452e+001 
3653125000  -5.225241e+001  -5.984769e+001 
3656250000  -5.209264e+001  -5.686976e+001 
3659375000  -5.159716e+001  -6.128950e+001 
3662500000  -5.003897e+001  -7.032638e+001 
3665625000  -4.983207e+001  -6.697815e+001 
3668750000  -4.785759e+001  -6.942563e+001 
3671875000  -4.751239e+001  -7.958897e+001 
3675000000  -4.766190e+001  -8.608762e+001 
3678125000  -4.760892e+001  -9.334458e+001 
3681250000  -4.662584e+001  -9.819607e+001 
3684375000  -4.667321e+001  -1.012586e+002 
3687500000  -4.679828e+001  -1.109675e+002 
3690625000  -4.684322e+001  -1.126390e+002 
3693750000  -4.756811e+001  -1.160396e+002 
3696875000  -4.637717e+001  -1.165071e+002 
3700000000  -4.515398e+001  -1.206063e+002 
3703125000  -4.504041e+001  -1.263586e+002 
3706250000  -4.577647e+001  -1.259185e+002 
3709375000  -4.487096e+001  -1.282318e+002 
3712500000  -4.359484e+001  -1.306629e+002 
3715625000  -4.193828e+001  -1.419648e+002 
3718750000  -4.177641e+001  -1.490366e+002 
3721875000  -4.137961e+001  -1.589139e+002 
3725000000  -4.183090e+001  -1.670527e+002 
3728125000  -4.161407e+001  -1.697087e+002 
3731250000  -4.092373e+001  -1.745975e+002 
3734375000  -4.014169e+001  1.779897e+002 
3737500000  -4.086616e+001  1.685710e+002 
3740625000  -4.085617e+001  1.631401e+002 
3743750000  -4.025710e+001  1.564717e+002 
3746875000  -4.087813e+001  1.495092e+002 
3750000000  -4.085966e+001  1.442091e+002 
3753125000  -4.055320e+001  1.423072e+002 
3756250000  -4.079022e+001  1.383609e+002 
3759375000  -4.046455e+001  1.325924e+002 
3762500000  -3.998234e+001  1.268633e+002 
3765625000  -4.060582e+001  1.221819e+002 
3768750000  -4.012492e+001  1.209452e+002 
3771875000  -3.825002e+001  1.151367e+002 
3775000000  -3.845241e+001  1.041473e+002 
3778125000  -3.912680e+001  9.755088e+001 
3781250000  -3.898999e+001  9.152939e+001 
3784375000  -3.870148e+001  8.661777e+001 
3787500000  -3.857523e+001  8.008398e+001 
3790625000  -3.925791e+001  7.114428e+001 
3793750000  -3.925484e+001  6.952419e+001 
3796875000  -3.823272e+001  6.407042e+001 
3800000000  -3.635631e+001  6.017732e+001 
3803125000  -3.817282e+001  4.484775e+001 
3806250000  -3.890498e+001  4.373710e+001 
3809375000  -3.836049e+001  3.746317e+001 
3812500000  -3.870682e+001  2.786653e+001 
3815625000  -3.965032e+001  2.072927e+001 
3818750000  -4.096085e+001  2.113476e+001 
3821875000  -4.031808e+001  3.107305e+001 
3825000000  -3.828185e+001  2.703269e+001 
3828125000  -3.703145e+001  7.112644e+000 
3831250000  -3.813794e+001  -5.539031e+000 
3834375000  -4.045211e+001  -6.585598e+000 
3837500000  -4.070078e+001  -2.501808e+000 
3840625000  -3.921706e+001  -5.154783e+000 
3843750000  -3.821539e+001  -2.246951e+001 
3846875000  -3.977341e+001  -2.793600e+001 
3850000000  -4.059732e+001  -2.157339e+001 
3853125000  -4.002360e+001  -2.060280e+001 
3856250000  -3.941256e+001  -2.799314e+001 
3859375000  -3.886186e+001  -3.755674e+001 
3862500000  -3.863295e+001  -4.650650e+001 
3865625000  -3.895695e+001  -5.218738e+001 
3868750000  -3.894347e+001  -5.275190e+001 
3871875000  -3.820390e+001  -5.794952e+001 
3875000000  -3.864025e+001  -7.006185e+001 
3878125000  -3.931270e+001  -7.408611e+001 
3881250000  -3.929739e+001  -7.093402e+001 
3884375000  -3.884467e+001  -8.107261e+001 
3887500000  -3.900396e+001  -8.579391e+001 
3890625000  -3.959663e+001  -9.033164e+001 
3893750000  -4.002363e+001  -9.083975e+001 
3896875000  -4.007643e+001  -9.543731e+001 
3900000000  -4.004528e+001  -9.867397e+001 
3903125000  -3.920660e+001  -1.031294e+002 
3906250000  -3.893422e+001  -1.073745e+002 
3909375000  -3.818703e+001  -1.138798e+002 
3912500000  -3.919090e+001  -1.247645e+002 
3915625000  -4.054065e+001  -1.239150e+002 
3918750000  -4.016293e+001  -1.254376e+002 
3921875000  -3.942676e+001  -1.304072e+002 
3925000000  -3.858823e+001  -1.361380e+002 
3928125000  -3.815290e+001  -1.468529e+002 
3931250000  -3.908483e+001  -1.524906e+002 
3934375000  -3.948974e+001  -1.526704e+002 
3937500000  -4.041167e+001  -1.558545e+002 
3940625000  -4.000717e+001  -1.569783e+002 
3943750000  -3.858413e+001  -1.606499e+002 
3946875000  -3.850800e+001  -1.719071e+002 
3950000000  -3.979984e+001  -1.789264e+002 
3953125000  -4.037939e+001  -1.775905e+002 
3956250000  -3.878633e+001  -1.773807e+002 
3959375000  -3.800090e+001  1.763291e+002 
3962500000  -3.780445e+001  1.659615e+002 
3965625000  -3.782666e+001  1.575208e+002 
3968750000  -3.872695e+001  1.508997e+002 
3971875000  -3.854367e+001  1.458505e+002 
3975000000  -3.824531e+001  1.419400e+002 
3978125000  -3.866085e+001  1.365292e+002 
3981250000  -3.861247e+001  1.303563e+002 
3984375000  -3.903261e+001  1.233052e+002 
3987500000  -3.975900e+001  1.183440e+002 
3990625000  -4.011346e+001  1.175569e+002 
3993750000  -4.020230e+001  1.121018e+002 
3996875000  -3.995483e+001  1.074031e+002 
4000000000  -4.081108e+001  1.021934e+002 
4003125000  -4.109147e+001  1.047396e+002 
4006250000  -3.933177e+001  1.022382e+002 
4009375000  -3.892475e+001  8.847179e+001 
4012500000  -4.009539e+001  8.053503e+001 
4015625000  -4.163707e+001  8.105329e+001 
4018750000  -4.121100e+001  8.020747e+001 
4021875000  -4.079835e+001  7.668377e+001 
4025000000  -4.031784e+001  7.137505e+001 
4028125000  -4.070811e+001  6.502214e+001 
4031250000  -4.138438e+001  5.908168e+001 
4034375000  -4.159778e+001  5.958308e+001 
4037500000  -4.107867e+001  6.125014e+001 
4040625000  -4.114146e+001  5.681131e+001 
4043750000  -4.118210e+001  5.239081e+001 
4046875000  -4.072208e+001  4.963863e+001 
4050000000  -4.035123e+001  4.492375e+001 
4053125000  -4.193607e+001  4.217909e+001 
4056250000  -4.152696e+001  4.562035e+001 
4059375000  -3.959711e+001  4.269894e+001 
4062500000  -3.909259e+001  3.418376e+001 
4065625000  -3.889480e+001  3.014433e+001 
4068750000  -3.835074e+001  2.161275e+001 
4071875000  -3.805151e+001  1.284893e+001 
4075000000  -3.854256e+001  5.851214e+000 
4078125000  -3.879511e+001  1.958738e+000 
4081250000  -3.830781e+001  -1.808549e+000 
4084375000  -3.822533e+001  -1.235348e+001 
4087500000  -3.852312e+001  -1.800236e+001 
4090625000  -3.930642e+001  -2.158951e+001 
4093750000  -3.872580e+001  -2.389472e+001 
4096875000  -3.876861e+001  -3.321051e+001 
4100000000  -3.968447e+001  -4.021006e+001 
4103125000  -4.074263e+001  -3.970826e+001 
4106250000  -4.014160e+001  -3.600955e+001 
4109375000  -3.933505e+001  -3.910551e+001 
4112500000  -3.873303e+001  -5.042015e+001 
4115625000  -3.952294e+001  -5.521825e+001 
4118750000  -3.902687e+001  -6.016842e+001 
4121875000  -3.901876e+001  -6.653587e+001 
4125000000  -3.996011e+001  -7.381204e+001 
4128125000  -4.070133e+001  -7.195219e+001 
4131250000  -3.985580e+001  -6.599654e+001 
4134375000  -3.779004e+001  -7.523790e+001 
4137500000  -3.805868e+001  -9.643282e+001 
4140625000  -4.031603e+001  -1.045921e+002 
4143750000  -4.122081e+001  -9.650213e+001 
4146875000  -4.091035e+001  -9.179575e+001 
4150000000  -3.971683e+001  -1.013275e+002 
4153125000  -4.024557e+001  -1.083307e+002 
4156250000  -4.104984e+001  -1.143574e+002 
4159375000  -4.143873e+001  -1.072886e+002 
4162500000  -4.008820e+001  -1.061637e+002 
4165625000  -3.900566e+001  -1.128801e+002 
4168750000  -3.872597e+001  -1.229194e+002 
4171875000  -3.858255e+001  -1.341494e+002 
4175000000  -3.923766e+001  -1.388747e+002 
4178125000  -3.947652e+001  -1.390707e+002 
4181250000  -3.934203e+001  -1.446785e+002 
4184375000  -3.956267e+001  -1.496472e+002 
4187500000  -3.951900e+001  -1.551543e+002 
4190625000  -3.944272e+001  -1.613260e+002 
4193750000  -4.039552e+001  -1.662186e+002 
4196875000  -4.143655e+001  -1.687148e+002 
4200000000  -4.231980e+001  -1.618592e+002 
4203125000  -4.109375e+001  -1.489509e+002 
4206250000  -3.736586e+001  -1.599243e+002 
4209375000  -3.727750e+001  1.763719e+002 
4212500000  -3.947629e+001  1.715073e+002 
4215625000  -3.999957e+001  1.771126e+002 
4218750000  -3.846472e+001  -1.795488e+002 
4221875000  -3.685754e+001  1.700918e+002 
4225000000  -3.772565e+001  1.592231e+002 
4228125000  -3.795873e+001  1.593369e+002 
4231250000  -3.640203e+001  1.501839e+002 
4234375000  -3.641943e+001  1.409713e+002 
4237500000  -3.618874e+001  1.375552e+002 
4240625000  -3.642701e+001  1.240861e+002 
4243750000  -3.747758e+001  1.163524e+002 
4246875000  -3.852851e+001  1.161595e+002 
4250000000  -3.847029e+001  1.143861e+002 
4253125000  -3.815831e+001  1.129789e+002 
4256250000  -3.809221e+001  1.073841e+002 
4259375000  -3.771780e+001  1.008132e+002 
4262500000  -3.791291e+001  9.708643e+001 
4265625000  -3.789635e+001  9.841406e+001 
4268750000  -3.677731e+001  8.704159e+001 
4271875000  -3.697140e+001  7.820920e+001 
4275000000  -3.654810e+001  7.096766e+001 
4278125000  -3.776940e+001  5.908453e+001 
4281250000  -3.921360e+001  5.529758e+001 
4284375000  -3.886338e+001  5.361655e+001 
4287500000  -4.015480e+001  5.200751e+001 
4290625000  -4.086507e+001  5.965164e+001 
4293750000  -3.867567e+001  5.855741e+001 
4296875000  -3.777736e+001  4.607594e+001 
4300000000  -3.934007e+001  3.883974e+001 
4303125000  -3.967914e+001  4.119521e+001 
4306250000  -3.854962e+001  4.205622e+001 
4309375000  -3.772244e+001  3.766596e+001 
4312500000  -3.769620e+001  2.504416e+001 
4315625000  -3.789782e+001  1.830654e+001 
4318750000  -3.867071e+001  1.229058e+001 
4321875000  -3.869606e+001  1.568177e+001 
4325000000  -3.811044e+001  1.404284e+001 
4328125000  -3.731661e+001  2.422083e+000 
4331250000  -3.753402e+001  -7.980009e+000 
4334375000  -3.820797e+001  -1.290631e+001 
4337500000  -3.954287e+001  -1.343615e+001 
4340625000  -3.941706e+001  -9.518399e+000 
4343750000  -3.876498e+001  -1.435775e+001 
4346875000  -3.842775e+001  -2.236961e+001 
4350000000  -3.850295e+001  -3.114227e+001 
4353125000  -3.900530e+001  -3.408345e+001 
4356250000  -4.091566e+001  -3.377281e+001 
4359375000  -3.965140e+001  -1.776286e+001 
4362500000  -3.670261e+001  -2.791521e+001 
4365625000  -3.595976e+001  -4.515238e+001 
4368750000  -3.747424e+001  -5.515128e+001 
4371875000  -3.797764e+001  -5.421394e+001 
4375000000  -3.738359e+001  -5.796192e+001 
4378125000  -3.701033e+001  -6.488266e+001 
4381250000  -3.731445e+001  -7.460564e+001 
4384375000  -3.735400e+001  -7.944732e+001 
4387500000  -3.826926e+001  -8.707664e+001 
4390625000  -3.871141e+001  -8.892506e+001 
4393750000  -3.793908e+001  -8.801793e+001 
4396875000  -3.737857e+001  -9.220553e+001 
4400000000  -3.692202e+001  -1.027705e+002 
4403125000  -3.786924e+001  -1.120196e+002 
4406250000  -3.846213e+001  -1.148641e+002 
4409375000  -3.846820e+001  -1.185976e+002 
4412500000  -3.968589e+001  -1.212382e+002 
4415625000  -3.915803e+001  -1.178354e+002 
