!Agilent Technologies,E8363B,MY43030201,A.06.04.32
!Agilent E8363B: A.06.04.32
!Date: Tuesday, November 11, 2014 21:38:32
!Correction: S21(Response(S21)) 
!S1P File: Measurement: S21:
# Hz S  dB   R 50
3000000000  -4.055447e+001  6.948363e+001 
3003125000  -4.222758e+001  6.107647e+001 
3006250000  -4.198088e+001  6.094049e+001 
3009375000  -4.277047e+001  6.721291e+001 
3012500000  -4.160636e+001  6.014383e+001 
3015625000  -4.139429e+001  5.467254e+001 
3018750000  -4.181807e+001  5.565186e+001 
3021875000  -4.029052e+001  5.618962e+001 
3025000000  -3.894247e+001  5.194935e+001 
3028125000  -3.782967e+001  4.068676e+001 
3031250000  -3.693385e+001  2.933047e+001 
3034375000  -3.686426e+001  1.562363e+001 
3037500000  -3.768001e+001  4.691229e+000 
3040625000  -3.892596e+001  -1.224313e+000 
3043750000  -3.918173e+001  -7.706849e+000 
3046875000  -3.997225e+001  -1.102152e+001 
3050000000  -4.118653e+001  -1.528685e+001 
3053125000  -4.043749e+001  -1.220150e+001 
3056250000  -4.058027e+001  -1.019626e+001 
3059375000  -3.980982e+001  -1.189169e+001 
3062500000  -3.815045e+001  -1.637260e+001 
3065625000  -3.790466e+001  -2.607767e+001 
3068750000  -3.758052e+001  -3.332791e+001 
3071875000  -3.758128e+001  -3.576181e+001 
3075000000  -3.707212e+001  -4.275881e+001 
3078125000  -3.716074e+001  -4.937333e+001 
3081250000  -3.715043e+001  -5.513707e+001 
3084375000  -3.636418e+001  -6.020093e+001 
3087500000  -3.644188e+001  -6.680366e+001 
3090625000  -3.594577e+001  -7.984888e+001 
3093750000  -3.689320e+001  -8.676952e+001 
3096875000  -3.731358e+001  -9.181853e+001 
3100000000  -3.723043e+001  -9.411102e+001 
3103125000  -3.761996e+001  -9.846336e+001 
3106250000  -3.723050e+001  -1.041541e+002 
3109375000  -3.729409e+001  -1.080138e+002 
3112500000  -3.715982e+001  -1.140108e+002 
3115625000  -3.711808e+001  -1.171932e+002 
3118750000  -3.720949e+001  -1.216675e+002 
3121875000  -3.647697e+001  -1.317306e+002 
3125000000  -3.855498e+001  -1.346015e+002 
3128125000  -3.837762e+001  -1.274622e+002 
3131250000  -3.602329e+001  -1.343286e+002 
3134375000  -3.529148e+001  -1.519167e+002 
3137500000  -3.597884e+001  -1.627517e+002 
3140625000  -3.736464e+001  -1.655916e+002 
3143750000  -3.817897e+001  -1.685400e+002 
3146875000  -3.759621e+001  -1.660618e+002 
3150000000  -3.692299e+001  -1.703736e+002 
3153125000  -3.713754e+001  -1.785686e+002 
3156250000  -3.786320e+001  -1.740078e+002 
3159375000  -3.556403e+001  -1.768497e+002 
3162500000  -3.412491e+001  1.675610e+002 
3165625000  -3.550873e+001  1.554208e+002 
3168750000  -3.537307e+001  1.543374e+002 
3171875000  -3.492278e+001  1.466433e+002 
3175000000  -3.545765e+001  1.379101e+002 
3178125000  -3.492105e+001  1.366086e+002 
3181250000  -3.432026e+001  1.270808e+002 
3184375000  -3.421208e+001  1.166112e+002 
3187500000  -3.564329e+001  1.018267e+002 
3190625000  -3.723816e+001  9.668674e+001 
3193750000  -3.745136e+001  1.011859e+002 
3196875000  -3.731577e+001  1.023836e+002 
3200000000  -3.623724e+001  9.667831e+001 
3203125000  -3.595226e+001  8.911119e+001 
3206250000  -3.616453e+001  8.170924e+001 
3209375000  -3.564202e+001  7.274177e+001 
3212500000  -3.628572e+001  6.629453e+001 
3215625000  -3.599073e+001  6.445357e+001 
3218750000  -3.686816e+001  5.234254e+001 
3221875000  -3.715369e+001  4.521022e+001 
3225000000  -3.695285e+001  4.206060e+001 
3228125000  -3.769745e+001  3.471087e+001 
3231250000  -3.816216e+001  3.265659e+001 
3234375000  -3.782622e+001  2.973162e+001 
3237500000  -3.794207e+001  2.528211e+001 
3240625000  -3.745137e+001  1.999196e+001 
3243750000  -3.757753e+001  8.938921e+000 
3246875000  -3.827744e+001  2.956586e+000 
3250000000  -3.884190e+001  -9.119056e-001 
3253125000  -3.894950e+001  -3.900902e+000 
3256250000  -3.858664e+001  -1.275954e+001 
3259375000  -3.911934e+001  -2.408482e+001 
3262500000  -4.061037e+001  -2.684316e+001 
3265625000  -4.103594e+001  -2.474569e+001 
3268750000  -4.105160e+001  -2.329564e+001 
3271875000  -4.045721e+001  -2.582529e+001 
3275000000  -4.012093e+001  -3.587096e+001 
3278125000  -4.098082e+001  -3.987230e+001 
3281250000  -4.115695e+001  -4.045108e+001 
3284375000  -4.039105e+001  -4.846330e+001 
3287500000  -4.091903e+001  -5.197194e+001 
3290625000  -4.110522e+001  -5.983374e+001 
3293750000  -4.101534e+001  -6.460161e+001 
3296875000  -4.235473e+001  -6.665884e+001 
3300000000  -4.181877e+001  -6.595949e+001 
3303125000  -4.086960e+001  -7.397317e+001 
3306250000  -4.075511e+001  -8.030771e+001 
3309375000  -4.052149e+001  -8.913112e+001 
3312500000  -4.115557e+001  -1.017108e+002 
3315625000  -4.234204e+001  -1.074075e+002 
3318750000  -4.346049e+001  -1.080602e+002 
3321875000  -4.466021e+001  -1.085940e+002 
3325000000  -4.495712e+001  -9.974149e+001 
3328125000  -4.381798e+001  -9.835068e+001 
3331250000  -4.179416e+001  -9.799140e+001 
3334375000  -3.977296e+001  -1.135601e+002 
3337500000  -4.018983e+001  -1.348401e+002 
3340625000  -4.215471e+001  -1.448969e+002 
3343750000  -4.422543e+001  -1.411427e+002 
3346875000  -4.312696e+001  -1.437616e+002 
3350000000  -4.278768e+001  -1.463816e+002 
3353125000  -4.263039e+001  -1.535827e+002 
3356250000  -4.267072e+001  -1.625236e+002 
3359375000  -4.344608e+001  -1.733480e+002 
3362500000  -4.421327e+001  -1.772112e+002 
3365625000  -4.489055e+001  1.774561e+002 
3368750000  -4.531072e+001  1.733947e+002 
3371875000  -4.568653e+001  1.693046e+002 
3375000000  -4.733796e+001  1.667517e+002 
3378125000  -4.836932e+001  1.679315e+002 
3381250000  -5.002769e+001  1.779805e+002 
3384375000  -4.646610e+001  -1.684974e+002 
3387500000  -4.401619e+001  1.676243e+002 
3390625000  -4.602681e+001  1.505349e+002 
3393750000  -4.715991e+001  1.484871e+002 
3396875000  -4.592946e+001  1.464398e+002 
3400000000  -4.604174e+001  1.366806e+002 
3403125000  -4.644051e+001  1.297578e+002 
3406250000  -4.769310e+001  1.275203e+002 
3409375000  -4.813538e+001  1.197238e+002 
3412500000  -4.922527e+001  1.133423e+002 
3415625000  -4.956508e+001  1.103128e+002 
3418750000  -5.030394e+001  1.152026e+002 
3421875000  -5.092439e+001  1.207093e+002 
3425000000  -4.990992e+001  1.188073e+002 
3428125000  -4.950740e+001  1.137420e+002 
3431250000  -4.969102e+001  1.008251e+002 
3434375000  -5.037656e+001  9.813665e+001 
3437500000  -5.159559e+001  9.978505e+001 
3440625000  -5.189346e+001  1.029687e+002 
3443750000  -5.003172e+001  1.021821e+002 
3446875000  -5.067541e+001  9.357892e+001 
3450000000  -4.995385e+001  8.839519e+001 
3453125000  -5.060353e+001  8.019199e+001 
3456250000  -5.183723e+001  7.832206e+001 
3459375000  -5.293738e+001  8.295731e+001 
3462500000  -5.195042e+001  8.344385e+001 
3465625000  -5.123331e+001  7.420925e+001 
3468750000  -5.184270e+001  7.543201e+001 
3471875000  -5.206632e+001  6.989969e+001 
3475000000  -5.122570e+001  6.814185e+001 
3478125000  -5.099730e+001  5.978843e+001 
3481250000  -5.209155e+001  6.150771e+001 
3484375000  -5.194194e+001  6.280642e+001 
3487500000  -5.110768e+001  5.191483e+001 
3490625000  -5.022193e+001  4.649339e+001 
3493750000  -5.172179e+001  4.523659e+001 
3496875000  -5.127251e+001  4.188567e+001 
3500000000  -5.214089e+001  4.370042e+001 
3503125000  -5.088962e+001  4.511126e+001 
3506250000  -4.960406e+001  3.453438e+001 
3509375000  -4.932253e+001  2.124217e+001 
3512500000  -4.951363e+001  9.976399e+000 
3515625000  -5.150058e+001  4.206461e+000 
3518750000  -5.200509e+001  7.330558e+000 
3521875000  -5.284414e+001  1.943481e+000 
3525000000  -5.255745e+001  -4.059773e+000 
3528125000  -5.249888e+001  6.243470e+000 
3531250000  -5.171343e+001  -6.160357e+000 
3534375000  -5.250758e+001  -1.710690e+001 
3537500000  -5.326536e+001  -3.195011e+001 
3540625000  -5.499831e+001  -2.854307e+001 
3543750000  -5.581577e+001  -1.779927e+001 
3546875000  -5.569636e+001  -1.927259e+001 
3550000000  -5.417361e+001  -1.359742e+001 
3553125000  -5.347434e+001  -4.414291e+001 
3556250000  -5.470798e+001  -3.172957e+001 
3559375000  -5.529297e+001  -3.640290e+001 
3562500000  -5.672124e+001  -5.109031e+001 
3565625000  -5.695749e+001  -4.606888e+001 
3568750000  -5.650231e+001  -3.525704e+001 
3571875000  -5.624672e+001  -4.241450e+001 
3575000000  -5.767897e+001  -5.474022e+001 
3578125000  -5.973132e+001  -5.040303e+001 
3581250000  -5.733064e+001  -3.958894e+001 
3584375000  -5.607697e+001  -4.792407e+001 
3587500000  -5.700518e+001  -6.080379e+001 
3590625000  -5.772813e+001  -6.229264e+001 
3593750000  -6.083839e+001  -6.225058e+001 
3596875000  -5.774892e+001  -3.967984e+001 
3600000000  -5.730064e+001  -4.613590e+001 
3603125000  -5.792415e+001  -5.916120e+001 
3606250000  -5.983978e+001  -6.128260e+001 
3609375000  -5.941740e+001  -5.349249e+001 
3612500000  -5.983326e+001  -4.685587e+001 
3615625000  -6.080147e+001  -6.502071e+001 
3618750000  -6.066138e+001  -4.847483e+001 
3621875000  -5.863182e+001  -5.036323e+001 
3625000000  -5.726654e+001  -5.650072e+001 
3628125000  -5.606708e+001  -4.514723e+001 
3631250000  -5.629180e+001  -5.467558e+001 
3634375000  -5.767425e+001  -4.650720e+001 
3637500000  -5.632201e+001  -4.011813e+001 
3640625000  -5.376774e+001  -4.499426e+001 
3643750000  -5.336713e+001  -5.017001e+001 
3646875000  -5.281286e+001  -6.674696e+001 
3650000000  -5.414838e+001  -5.938824e+001 
3653125000  -5.191558e+001  -7.015241e+001 
3656250000  -5.243555e+001  -6.482079e+001 
3659375000  -5.135703e+001  -6.904929e+001 
3662500000  -5.043755e+001  -7.541151e+001 
3665625000  -4.952044e+001  -7.906999e+001 
3668750000  -4.830479e+001  -7.846249e+001 
3671875000  -4.717630e+001  -8.919116e+001 
3675000000  -4.692057e+001  -9.449158e+001 
3678125000  -4.734515e+001  -1.008947e+002 
3681250000  -4.652222e+001  -1.057451e+002 
3684375000  -4.749347e+001  -1.132829e+002 
3687500000  -4.657100e+001  -1.156968e+002 
3690625000  -4.652249e+001  -1.239376e+002 
3693750000  -4.716825e+001  -1.237591e+002 
3696875000  -4.677981e+001  -1.240460e+002 
3700000000  -4.533037e+001  -1.312568e+002 
3703125000  -4.564731e+001  -1.341403e+002 
3706250000  -4.561576e+001  -1.379265e+002 
3709375000  -4.477079e+001  -1.367140e+002 
3712500000  -4.381448e+001  -1.398831e+002 
3715625000  -4.164315e+001  -1.514241e+002 
3718750000  -4.156193e+001  -1.578836e+002 
3721875000  -4.141317e+001  -1.682331e+002 
3725000000  -4.186765e+001  -1.732169e+002 
3728125000  -4.122722e+001  -1.781942e+002 
3731250000  -4.058591e+001  1.752982e+002 
3734375000  -4.010239e+001  1.692424e+002 
3737500000  -4.100961e+001  1.592348e+002 
3740625000  -4.104614e+001  1.544474e+002 
3743750000  -4.021564e+001  1.485729e+002 
3746875000  -4.077440e+001  1.415375e+002 
3750000000  -4.102366e+001  1.366338e+002 
3753125000  -4.062192e+001  1.339860e+002 
3756250000  -4.072557e+001  1.280099e+002 
3759375000  -4.040699e+001  1.253615e+002 
3762500000  -4.005876e+001  1.182786e+002 
3765625000  -4.073019e+001  1.123261e+002 
3768750000  -3.979734e+001  1.135789e+002 
3771875000  -3.838221e+001  1.056401e+002 
3775000000  -3.849243e+001  9.435624e+001 
3778125000  -3.923189e+001  8.746955e+001 
3781250000  -3.913388e+001  8.476058e+001 
3784375000  -3.874844e+001  7.786322e+001 
3787500000  -3.853234e+001  7.201898e+001 
3790625000  -3.915028e+001  6.344954e+001 
3793750000  -3.902803e+001  5.947760e+001 
3796875000  -3.829568e+001  5.702550e+001 
3800000000  -3.629519e+001  5.084062e+001 
3803125000  -3.811013e+001  3.751361e+001 
3806250000  -3.880059e+001  3.331842e+001 
3809375000  -3.865268e+001  3.045315e+001 
3812500000  -3.851085e+001  2.007826e+001 
3815625000  -3.971424e+001  9.501493e+000 
3818750000  -4.079337e+001  1.293433e+001 
3821875000  -3.996453e+001  2.244182e+001 
3825000000  -3.809901e+001  1.740602e+001 
3828125000  -3.688045e+001  -1.742675e+000 
3831250000  -3.817949e+001  -1.523674e+001 
3834375000  -4.035386e+001  -1.592259e+001 
3837500000  -4.080716e+001  -1.101407e+001 
3840625000  -3.891018e+001  -1.567829e+001 
3843750000  -3.825569e+001  -3.096857e+001 
3846875000  -3.983094e+001  -3.617178e+001 
3850000000  -4.057112e+001  -2.996541e+001 
3853125000  -3.995446e+001  -3.033697e+001 
3856250000  -3.924977e+001  -3.619704e+001 
3859375000  -3.846055e+001  -4.648736e+001 
3862500000  -3.842876e+001  -5.418093e+001 
3865625000  -3.890937e+001  -6.011306e+001 
3868750000  -3.855056e+001  -6.134904e+001 
3871875000  -3.799738e+001  -6.927070e+001 
3875000000  -3.833846e+001  -7.850612e+001 
3878125000  -3.934903e+001  -8.094778e+001 
3881250000  -3.935770e+001  -8.163562e+001 
3884375000  -3.858120e+001  -8.895123e+001 
3887500000  -3.928509e+001  -9.536827e+001 
3890625000  -3.957277e+001  -9.939252e+001 
3893750000  -3.963697e+001  -1.006186e+002 
3896875000  -4.016201e+001  -1.042443e+002 
3900000000  -4.005540e+001  -1.080708e+002 
3903125000  -3.944463e+001  -1.123303e+002 
3906250000  -3.923045e+001  -1.159620e+002 
3909375000  -3.823327e+001  -1.266524e+002 
3912500000  -3.921072e+001  -1.348865e+002 
3915625000  -4.019837e+001  -1.332437e+002 
3918750000  -3.976366e+001  -1.368753e+002 
3921875000  -3.928813e+001  -1.415766e+002 
3925000000  -3.847292e+001  -1.453425e+002 
3928125000  -3.832927e+001  -1.542751e+002 
3931250000  -3.902738e+001  -1.605912e+002 
3934375000  -3.970089e+001  -1.632940e+002 
3937500000  -4.030862e+001  -1.653668e+002 
3940625000  -3.970895e+001  -1.667389e+002 
3943750000  -3.896105e+001  -1.706500e+002 
3946875000  -3.839659e+001  -1.783295e+002 
3950000000  -3.983350e+001  1.731313e+002 
3953125000  -4.007378e+001  1.736031e+002 
3956250000  -3.887603e+001  1.742402e+002 
3959375000  -3.774387e+001  1.652851e+002 
3962500000  -3.749747e+001  1.589444e+002 
3965625000  -3.770099e+001  1.492776e+002 
3968750000  -3.846194e+001  1.408051e+002 
3971875000  -3.870442e+001  1.360992e+002 
3975000000  -3.820187e+001  1.315779e+002 
3978125000  -3.854289e+001  1.278928e+002 
3981250000  -3.859450e+001  1.216608e+002 
3984375000  -3.899996e+001  1.136716e+002 
3987500000  -3.957308e+001  1.097105e+002 
3990625000  -4.025701e+001  1.103744e+002 
3993750000  -3.993484e+001  1.031949e+002 
3996875000  -3.966254e+001  1.005478e+002 
4000000000  -4.074281e+001  9.696371e+001 
4003125000  -4.114711e+001  9.637107e+001 
4006250000  -3.916294e+001  9.371909e+001 
4009375000  -3.855689e+001  8.078049e+001 
4012500000  -4.016098e+001  7.080967e+001 
4015625000  -4.148683e+001  7.280575e+001 
4018750000  -4.150883e+001  7.324580e+001 
4021875000  -4.063358e+001  6.828313e+001 
4025000000  -4.038795e+001  6.157715e+001 
4028125000  -4.054551e+001  5.593199e+001 
4031250000  -4.115267e+001  5.138287e+001 
4034375000  -4.142960e+001  4.870424e+001 
4037500000  -4.069747e+001  4.992359e+001 
4040625000  -4.089827e+001  4.525128e+001 
4043750000  -4.088278e+001  4.185300e+001 
4046875000  -4.086034e+001  3.932909e+001 
4050000000  -4.038741e+001  3.431863e+001 
4053125000  -4.120467e+001  3.336080e+001 
4056250000  -4.123486e+001  3.580687e+001 
4059375000  -3.945016e+001  3.247791e+001 
4062500000  -3.864886e+001  2.570136e+001 
4065625000  -3.875888e+001  2.073419e+001 
4068750000  -3.814735e+001  1.309210e+001 
4071875000  -3.782296e+001  3.185204e+000 
4075000000  -3.843068e+001  -4.465240e+000 
4078125000  -3.883953e+001  -7.083914e+000 
4081250000  -3.824191e+001  -1.292232e+001 
4084375000  -3.826434e+001  -2.252155e+001 
4087500000  -3.862780e+001  -2.951249e+001 
4090625000  -3.935165e+001  -3.021690e+001 
4093750000  -3.846749e+001  -3.388271e+001 
4096875000  -3.876518e+001  -4.190714e+001 
4100000000  -3.991689e+001  -5.049201e+001 
4103125000  -4.066492e+001  -4.888902e+001 
4106250000  -3.979434e+001  -4.409033e+001 
4109375000  -3.912431e+001  -4.818682e+001 
4112500000  -3.861242e+001  -5.803453e+001 
4115625000  -3.925221e+001  -6.593269e+001 
4118750000  -3.889171e+001  -7.103551e+001 
4121875000  -3.904908e+001  -7.751926e+001 
4125000000  -3.991305e+001  -8.259982e+001 
4128125000  -4.096698e+001  -7.857598e+001 
4131250000  -3.976836e+001  -7.529041e+001 
4134375000  -3.750214e+001  -8.570442e+001 
4137500000  -3.811732e+001  -1.054446e+002 
4140625000  -4.009152e+001  -1.130061e+002 
4143750000  -4.109441e+001  -1.072501e+002 
4146875000  -4.024456e+001  -1.013020e+002 
4150000000  -3.953634e+001  -1.124351e+002 
4153125000  -3.999455e+001  -1.213738e+002 
4156250000  -4.109165e+001  -1.225392e+002 
4159375000  -4.115615e+001  -1.162420e+002 
4162500000  -3.993252e+001  -1.148369e+002 
4165625000  -3.854002e+001  -1.210781e+002 
4168750000  -3.835513e+001  -1.316711e+002 
4171875000  -3.839539e+001  -1.442942e+002 
4175000000  -3.929193e+001  -1.482712e+002 
4178125000  -3.991060e+001  -1.492440e+002 
4181250000  -3.926614e+001  -1.530403e+002 
4184375000  -3.971115e+001  -1.586621e+002 
4187500000  -3.939421e+001  -1.629716e+002 
4190625000  -3.931768e+001  -1.709327e+002 
4193750000  -4.059902e+001  -1.776507e+002 
4196875000  -4.118724e+001  -1.776778e+002 
4200000000  -4.245135e+001  -1.685044e+002 
4203125000  -4.042701e+001  -1.580396e+002 
4206250000  -3.735224e+001  -1.694302e+002 
4209375000  -3.715639e+001  1.682502e+002 
4212500000  -3.977923e+001  1.626425e+002 
4215625000  -4.007432e+001  1.694751e+002 
4218750000  -3.801456e+001  1.715243e+002 
4221875000  -3.667889e+001  1.600623e+002 
4225000000  -3.781651e+001  1.493852e+002 
4228125000  -3.765214e+001  1.501713e+002 
4231250000  -3.634888e+001  1.425001e+002 
4234375000  -3.612049e+001  1.304360e+002 
4237500000  -3.603614e+001  1.266847e+002 
4240625000  -3.620632e+001  1.132191e+002 
4243750000  -3.750132e+001  1.065367e+002 
4246875000  -3.839801e+001  1.057858e+002 
4250000000  -3.802055e+001  1.049663e+002 
4253125000  -3.783612e+001  1.025411e+002 
4256250000  -3.787004e+001  9.709272e+001 
4259375000  -3.735587e+001  9.184822e+001 
4262500000  -3.785764e+001  8.720953e+001 
4265625000  -3.770826e+001  8.566630e+001 
4268750000  -3.702343e+001  7.787371e+001 
4271875000  -3.669502e+001  6.939180e+001 
4275000000  -3.633105e+001  6.099688e+001 
4278125000  -3.776455e+001  4.813780e+001 
4281250000  -3.909280e+001  4.818258e+001 
4284375000  -3.868211e+001  4.410622e+001 
4287500000  -4.018064e+001  4.096847e+001 
4290625000  -4.033873e+001  4.946975e+001 
4293750000  -3.865691e+001  5.025807e+001 
4296875000  -3.748431e+001  3.663209e+001 
4300000000  -3.909802e+001  2.796624e+001 
4303125000  -3.961914e+001  3.189207e+001 
4306250000  -3.832373e+001  3.267568e+001 
4309375000  -3.765427e+001  2.656063e+001 
4312500000  -3.721840e+001  1.557695e+001 
4315625000  -3.777721e+001  7.601943e+000 
4318750000  -3.839914e+001  4.644928e+000 
4321875000  -3.862526e+001  3.946512e+000 
4325000000  -3.782726e+001  2.914027e+000 
4328125000  -3.695701e+001  -7.786686e+000 
4331250000  -3.731273e+001  -1.760168e+001 
4334375000  -3.823508e+001  -2.315871e+001 
4337500000  -3.933099e+001  -2.264118e+001 
4340625000  -3.980278e+001  -1.982894e+001 
4343750000  -3.870275e+001  -2.205080e+001 
4346875000  -3.831102e+001  -3.439427e+001 
4350000000  -3.829662e+001  -3.988610e+001 
4353125000  -3.883935e+001  -4.605352e+001 
4356250000  -4.101599e+001  -4.182196e+001 
4359375000  -3.966063e+001  -3.005490e+001 
4362500000  -3.652292e+001  -3.982462e+001 
4365625000  -3.594622e+001  -5.649008e+001 
4368750000  -3.697506e+001  -6.529667e+001 
4371875000  -3.758643e+001  -6.559282e+001 
4375000000  -3.695663e+001  -7.053070e+001 
4378125000  -3.671922e+001  -7.619769e+001 
4381250000  -3.677350e+001  -8.540929e+001 
4384375000  -3.695597e+001  -9.217870e+001 
4387500000  -3.819331e+001  -9.634222e+001 
4390625000  -3.837569e+001  -9.668502e+001 
4393750000  -3.790667e+001  -9.763409e+001 
4396875000  -3.714951e+001  -1.043877e+002 
4400000000  -3.683481e+001  -1.134234e+002 
4403125000  -3.769329e+001  -1.223549e+002 
4406250000  -3.817446e+001  -1.246464e+002 
4409375000  -3.842025e+001  -1.302625e+002 
4412500000  -3.966461e+001  -1.310528e+002 
4415625000  -3.935042e+001  -1.275172e+002 
