!Agilent Technologies,E8363B,MY43030201,A.06.04.32
!Agilent E8363B: A.06.04.32
!Date: Tuesday, November 11, 2014 21:28:46
!Correction: S21(Response(S21)) 
!S1P File: Measurement: S21:
# Hz S  dB   R 50
3000000000  -4.072040e+001  8.920757e+001 
3003125000  -4.221250e+001  8.097162e+001 
3006250000  -4.212706e+001  7.915347e+001 
3009375000  -4.287784e+001  8.478888e+001 
3012500000  -4.155941e+001  8.070613e+001 
3015625000  -4.120280e+001  7.438023e+001 
3018750000  -4.190963e+001  7.536246e+001 
3021875000  -4.030050e+001  7.502913e+001 
3025000000  -3.910774e+001  7.179204e+001 
3028125000  -3.814805e+001  6.093360e+001 
3031250000  -3.719203e+001  4.949349e+001 
3034375000  -3.680903e+001  3.544598e+001 
3037500000  -3.753257e+001  2.521254e+001 
3040625000  -3.865956e+001  1.966188e+001 
3043750000  -3.927831e+001  1.358705e+001 
3046875000  -3.959732e+001  6.557455e+000 
3050000000  -4.089949e+001  2.335886e+000 
3053125000  -4.048756e+001  6.615358e+000 
3056250000  -4.042689e+001  9.827270e+000 
3059375000  -3.982869e+001  7.358425e+000 
3062500000  -3.824127e+001  3.291308e+000 
3065625000  -3.792877e+001  -6.244839e+000 
3068750000  -3.773856e+001  -1.459801e+001 
3071875000  -3.778829e+001  -1.699144e+001 
3075000000  -3.723810e+001  -2.317602e+001 
3078125000  -3.710072e+001  -2.991100e+001 
3081250000  -3.733169e+001  -3.561487e+001 
3084375000  -3.649419e+001  -3.988409e+001 
3087500000  -3.647931e+001  -4.586583e+001 
3090625000  -3.601724e+001  -5.817439e+001 
3093750000  -3.679437e+001  -6.771434e+001 
3096875000  -3.740686e+001  -7.198204e+001 
3100000000  -3.731462e+001  -7.569276e+001 
3103125000  -3.765470e+001  -7.887208e+001 
3106250000  -3.716613e+001  -8.461252e+001 
3109375000  -3.723171e+001  -8.784550e+001 
3112500000  -3.718850e+001  -9.370495e+001 
3115625000  -3.718019e+001  -9.796252e+001 
3118750000  -3.724999e+001  -1.011889e+002 
3121875000  -3.653583e+001  -1.116219e+002 
3125000000  -3.835834e+001  -1.153776e+002 
3128125000  -3.861712e+001  -1.089454e+002 
3131250000  -3.623410e+001  -1.137970e+002 
3134375000  -3.536465e+001  -1.303066e+002 
3137500000  -3.612461e+001  -1.443499e+002 
3140625000  -3.739770e+001  -1.467300e+002 
3143750000  -3.836783e+001  -1.480946e+002 
3146875000  -3.762998e+001  -1.469490e+002 
3150000000  -3.699887e+001  -1.497522e+002 
3153125000  -3.724178e+001  -1.597384e+002 
3156250000  -3.789604e+001  -1.555104e+002 
3159375000  -3.579015e+001  -1.559150e+002 
3162500000  -3.422980e+001  -1.710534e+002 
3165625000  -3.544889e+001  1.750546e+002 
3168750000  -3.550022e+001  1.741650e+002 
3171875000  -3.496278e+001  1.678579e+002 
3175000000  -3.562033e+001  1.581523e+002 
3178125000  -3.513013e+001  1.561552e+002 
3181250000  -3.436737e+001  1.483754e+002 
3184375000  -3.408834e+001  1.368783e+002 
3187500000  -3.544807e+001  1.216552e+002 
3190625000  -3.733378e+001  1.150525e+002 
3193750000  -3.754298e+001  1.213023e+002 
3196875000  -3.734520e+001  1.218642e+002 
3200000000  -3.624289e+001  1.173382e+002 
3203125000  -3.589571e+001  1.095044e+002 
3206250000  -3.622547e+001  1.019842e+002 
3209375000  -3.574770e+001  9.399498e+001 
3212500000  -3.630729e+001  8.684183e+001 
3215625000  -3.610628e+001  8.370000e+001 
3218750000  -3.684426e+001  7.284147e+001 
3221875000  -3.742883e+001  6.558820e+001 
3225000000  -3.711509e+001  6.328175e+001 
3228125000  -3.760243e+001  5.502875e+001 
3231250000  -3.827122e+001  5.301655e+001 
3234375000  -3.800224e+001  4.968809e+001 
3237500000  -3.811331e+001  4.700126e+001 
3240625000  -3.768669e+001  4.093484e+001 
3243750000  -3.768393e+001  3.128982e+001 
3246875000  -3.830103e+001  2.344030e+001 
3250000000  -3.871935e+001  2.038869e+001 
3253125000  -3.891125e+001  1.576791e+001 
3256250000  -3.867514e+001  7.583801e+000 
3259375000  -3.936039e+001  -3.364007e+000 
3262500000  -4.046027e+001  -6.227118e+000 
3265625000  -4.101880e+001  -3.990332e+000 
3268750000  -4.125658e+001  -2.255923e+000 
3271875000  -4.063450e+001  -6.904754e+000 
3275000000  -4.020580e+001  -1.374162e+001 
3278125000  -4.087590e+001  -1.826176e+001 
3281250000  -4.112525e+001  -1.984135e+001 
3284375000  -4.061565e+001  -2.647411e+001 
3287500000  -4.089065e+001  -3.097382e+001 
3290625000  -4.122493e+001  -3.839694e+001 
3293750000  -4.104868e+001  -4.376223e+001 
3296875000  -4.248909e+001  -4.535294e+001 
3300000000  -4.195427e+001  -4.434484e+001 
3303125000  -4.091669e+001  -5.181131e+001 
3306250000  -4.081344e+001  -5.870052e+001 
3309375000  -4.076842e+001  -6.617709e+001 
3312500000  -4.083883e+001  -7.815421e+001 
3315625000  -4.184969e+001  -8.465211e+001 
3318750000  -4.333770e+001  -9.104214e+001 
3321875000  -4.482014e+001  -8.878307e+001 
3325000000  -4.461203e+001  -7.907281e+001 
3328125000  -4.389238e+001  -8.117371e+001 
3331250000  -4.250567e+001  -7.603747e+001 
3334375000  -3.987497e+001  -9.094856e+001 
3337500000  -4.071822e+001  -1.114197e+002 
3340625000  -4.191147e+001  -1.216713e+002 
3343750000  -4.389561e+001  -1.225579e+002 
3346875000  -4.336599e+001  -1.219151e+002 
3350000000  -4.290133e+001  -1.257052e+002 
3353125000  -4.289200e+001  -1.321359e+002 
3356250000  -4.238428e+001  -1.402473e+002 
3359375000  -4.364176e+001  -1.507418e+002 
3362500000  -4.414173e+001  -1.571962e+002 
3365625000  -4.480331e+001  -1.589590e+002 
3368750000  -4.545490e+001  -1.634287e+002 
3371875000  -4.567555e+001  -1.682353e+002 
3375000000  -4.771635e+001  -1.719440e+002 
3378125000  -4.797083e+001  -1.723829e+002 
3381250000  -4.969467e+001  -1.633248e+002 
3384375000  -4.700446e+001  -1.515017e+002 
3387500000  -4.420627e+001  -1.682091e+002 
3390625000  -4.602204e+001  1.734628e+002 
3393750000  -4.718061e+001  1.724454e+002 
3396875000  -4.581192e+001  1.696194e+002 
3400000000  -4.612270e+001  1.614248e+002 
3403125000  -4.665961e+001  1.526459e+002 
3406250000  -4.745741e+001  1.514157e+002 
3409375000  -4.818652e+001  1.450168e+002 
3412500000  -4.928541e+001  1.395313e+002 
3415625000  -4.950725e+001  1.363135e+002 
3418750000  -5.049863e+001  1.367742e+002 
3421875000  -5.102127e+001  1.384024e+002 
3425000000  -4.977879e+001  1.384838e+002 
3428125000  -4.959388e+001  1.327801e+002 
3431250000  -5.014021e+001  1.289327e+002 
3434375000  -4.981869e+001  1.196319e+002 
3437500000  -5.081633e+001  1.217246e+002 
3440625000  -5.223015e+001  1.241069e+002 
3443750000  -5.062928e+001  1.276202e+002 
3446875000  -5.067248e+001  1.193533e+002 
3450000000  -4.981325e+001  1.134063e+002 
3453125000  -5.005677e+001  9.872872e+001 
3456250000  -5.135579e+001  1.045179e+002 
3459375000  -5.380019e+001  1.056017e+002 
3462500000  -5.191839e+001  1.079029e+002 
3465625000  -5.144313e+001  9.846642e+001 
3468750000  -5.182701e+001  9.913258e+001 
3471875000  -5.126092e+001  9.973742e+001 
3475000000  -5.097952e+001  8.979509e+001 
3478125000  -5.110342e+001  8.157674e+001 
3481250000  -5.227625e+001  8.526876e+001 
3484375000  -5.235840e+001  8.527322e+001 
3487500000  -5.105457e+001  8.359407e+001 
3490625000  -5.012119e+001  7.119392e+001 
3493750000  -5.098078e+001  6.248024e+001 
3496875000  -5.191453e+001  6.686343e+001 
3500000000  -5.183736e+001  7.074770e+001 
3503125000  -5.112160e+001  6.327410e+001 
3506250000  -4.980682e+001  5.859464e+001 
3509375000  -4.952022e+001  4.039681e+001 
3512500000  -4.987983e+001  3.251746e+001 
3515625000  -5.181413e+001  2.816581e+001 
3518750000  -5.188124e+001  3.146484e+001 
3521875000  -5.148235e+001  2.242561e+001 
3525000000  -5.220793e+001  2.001355e+001 
3528125000  -5.226623e+001  2.568187e+001 
3531250000  -5.187479e+001  1.174466e+001 
3534375000  -5.198356e+001  5.988352e+000 
3537500000  -5.330326e+001  -1.762908e+000 
3540625000  -5.403696e+001  -6.554695e+000 
3543750000  -5.532327e+001  4.536817e+000 
3546875000  -5.415812e+001  7.449520e-001 
3550000000  -5.335857e+001  -5.766523e-001 
3553125000  -5.224076e+001  -1.515979e+001 
3556250000  -5.512464e+001  -1.885702e+001 
3559375000  -5.624680e+001  -2.111670e+001 
3562500000  -5.555262e+001  -2.365523e+001 
3565625000  -5.600962e+001  -3.056202e+001 
3568750000  -5.681090e+001  -2.311592e+001 
3571875000  -5.750800e+001  -2.327346e+001 
3575000000  -5.813525e+001  -3.243997e+001 
3578125000  -5.820864e+001  -2.589472e+001 
3581250000  -5.620273e+001  -2.668943e+001 
3584375000  -5.740883e+001  -3.457682e+001 
3587500000  -5.701451e+001  -3.504871e+001 
3590625000  -5.764178e+001  -4.846967e+001 
3593750000  -6.143057e+001  -3.762414e+001 
3596875000  -5.990558e+001  -1.746365e+001 
3600000000  -5.783680e+001  -2.821403e+001 
3603125000  -5.862819e+001  -2.942968e+001 
3606250000  -5.807298e+001  -5.057310e+001 
3609375000  -5.776833e+001  -3.897522e+001 
3612500000  -5.779939e+001  -3.619447e+001 
3615625000  -6.023309e+001  -5.675524e+001 
3618750000  -5.906610e+001  -3.486495e+001 
3621875000  -5.802304e+001  -3.151707e+001 
3625000000  -5.609745e+001  -3.429575e+001 
3628125000  -5.750797e+001  -2.620772e+001 
3631250000  -5.671120e+001  -3.039161e+001 
3634375000  -5.797192e+001  -3.419848e+001 
3637500000  -5.665846e+001  -2.771209e+001 
3640625000  -5.419424e+001  -2.408671e+001 
3643750000  -5.316809e+001  -2.960546e+001 
3646875000  -5.370548e+001  -4.381781e+001 
3650000000  -5.325524e+001  -4.286565e+001 
3653125000  -5.173950e+001  -4.687328e+001 
3656250000  -5.200948e+001  -5.081366e+001 
3659375000  -5.248837e+001  -4.397129e+001 
3662500000  -5.122248e+001  -5.174701e+001 
3665625000  -4.997190e+001  -5.525837e+001 
3668750000  -4.844804e+001  -5.695436e+001 
3671875000  -4.751947e+001  -6.634995e+001 
3675000000  -4.790419e+001  -7.251154e+001 
3678125000  -4.756535e+001  -7.518121e+001 
3681250000  -4.673229e+001  -8.307327e+001 
3684375000  -4.706158e+001  -8.819067e+001 
3687500000  -4.690768e+001  -9.144926e+001 
3690625000  -4.663056e+001  -9.999458e+001 
3693750000  -4.722052e+001  -1.030381e+002 
3696875000  -4.650424e+001  -1.033797e+002 
3700000000  -4.572070e+001  -1.073944e+002 
3703125000  -4.559328e+001  -1.172528e+002 
3706250000  -4.588803e+001  -1.153947e+002 
3709375000  -4.494294e+001  -1.146098e+002 
3712500000  -4.368909e+001  -1.192565e+002 
3715625000  -4.220137e+001  -1.261434e+002 
3718750000  -4.209927e+001  -1.330885e+002 
3721875000  -4.148621e+001  -1.418852e+002 
3725000000  -4.182073e+001  -1.485942e+002 
3728125000  -4.162571e+001  -1.534957e+002 
3731250000  -4.070732e+001  -1.590961e+002 
3734375000  -4.010595e+001  -1.670740e+002 
3737500000  -4.078992e+001  -1.754715e+002 
3740625000  -4.074613e+001  1.781348e+002 
3743750000  -4.065867e+001  1.725210e+002 
3746875000  -4.053473e+001  1.646851e+002 
3750000000  -4.095100e+001  1.617766e+002 
3753125000  -4.054589e+001  1.563665e+002 
3756250000  -4.091079e+001  1.516468e+002 
3759375000  -4.035184e+001  1.496311e+002 
3762500000  -4.016041e+001  1.418626e+002 
3765625000  -4.064168e+001  1.360455e+002 
3768750000  -4.015134e+001  1.359053e+002 
3771875000  -3.852930e+001  1.290665e+002 
3775000000  -3.862961e+001  1.182697e+002 
3778125000  -3.910468e+001  1.114471e+002 
3781250000  -3.934459e+001  1.086228e+002 
3784375000  -3.891857e+001  1.027539e+002 
3787500000  -3.849687e+001  9.768385e+001 
3790625000  -3.913769e+001  8.663799e+001 
3793750000  -3.906486e+001  8.506900e+001 
3796875000  -3.803102e+001  8.034478e+001 
3800000000  -3.635082e+001  7.528896e+001 
3803125000  -3.817443e+001  6.078975e+001 
3806250000  -3.890955e+001  5.667477e+001 
3809375000  -3.856050e+001  5.306105e+001 
3812500000  -3.852096e+001  4.557952e+001 
3815625000  -3.923015e+001  3.550172e+001 
3818750000  -4.069724e+001  3.563942e+001 
3821875000  -4.031554e+001  4.548052e+001 
3825000000  -3.843202e+001  4.216553e+001 
3828125000  -3.696238e+001  2.338066e+001 
3831250000  -3.803953e+001  1.070889e+001 
3834375000  -4.033561e+001  7.257349e+000 
3837500000  -4.089180e+001  1.093184e+001 
3840625000  -3.911657e+001  1.009468e+001 
3843750000  -3.847180e+001  -4.716988e+000 
3846875000  -3.989632e+001  -1.198778e+001 
3850000000  -4.092170e+001  -5.601327e+000 
3853125000  -4.021220e+001  -4.484534e+000 
3856250000  -3.962981e+001  -1.166667e+001 
3859375000  -3.892564e+001  -2.090226e+001 
3862500000  -3.847730e+001  -2.924452e+001 
3865625000  -3.923212e+001  -3.503575e+001 
3868750000  -3.885757e+001  -3.460081e+001 
3871875000  -3.819195e+001  -4.203358e+001 
3875000000  -3.857737e+001  -5.246101e+001 
3878125000  -3.946360e+001  -5.595596e+001 
3881250000  -3.924157e+001  -5.593694e+001 
3884375000  -3.880888e+001  -6.397364e+001 
3887500000  -3.909357e+001  -6.837787e+001 
3890625000  -3.940908e+001  -7.441803e+001 
3893750000  -3.992149e+001  -7.483284e+001 
3896875000  -4.019858e+001  -7.905822e+001 
3900000000  -3.978976e+001  -8.182082e+001 
3903125000  -3.936644e+001  -8.607088e+001 
3906250000  -3.885028e+001  -9.101671e+001 
3909375000  -3.838203e+001  -9.880379e+001 
3912500000  -3.901034e+001  -1.087172e+002 
3915625000  -4.012907e+001  -1.083752e+002 
3918750000  -4.001945e+001  -1.092210e+002 
3921875000  -3.928440e+001  -1.137351e+002 
3925000000  -3.856767e+001  -1.184545e+002 
3928125000  -3.836694e+001  -1.287183e+002 
3931250000  -3.878690e+001  -1.357508e+002 
3934375000  -3.925754e+001  -1.359236e+002 
3937500000  -3.995660e+001  -1.400344e+002 
3940625000  -4.000951e+001  -1.402389e+002 
3943750000  -3.868798e+001  -1.425500e+002 
3946875000  -3.833866e+001  -1.524754e+002 
3950000000  -3.949421e+001  -1.608213e+002 
3953125000  -3.994592e+001  -1.602164e+002 
3956250000  -3.892303e+001  -1.611354e+002 
3959375000  -3.795102e+001  -1.679087e+002 
3962500000  -3.766025e+001  -1.760231e+002 
3965625000  -3.765936e+001  1.748947e+002 
3968750000  -3.841741e+001  1.669876e+002 
3971875000  -3.864741e+001  1.625382e+002 
3975000000  -3.829186e+001  1.563661e+002 
3978125000  -3.840048e+001  1.539580e+002 
3981250000  -3.852053e+001  1.470350e+002 
3984375000  -3.876977e+001  1.401482e+002 
3987500000  -3.982190e+001  1.356215e+002 
3990625000  -3.973897e+001  1.345238e+002 
3993750000  -3.994220e+001  1.306165e+002 
3996875000  -3.983817e+001  1.255967e+002 
4000000000  -4.043582e+001  1.217746e+002 
4003125000  -4.108827e+001  1.209330e+002 
4006250000  -3.944719e+001  1.194655e+002 
4009375000  -3.848787e+001  1.062156e+002 
4012500000  -4.000006e+001  9.801979e+001 
4015625000  -4.144008e+001  9.577797e+001 
4018750000  -4.132673e+001  9.589629e+001 
4021875000  -4.068586e+001  9.506377e+001 
4025000000  -4.004623e+001  8.922501e+001 
4028125000  -4.045063e+001  8.230663e+001 
4031250000  -4.077101e+001  7.998141e+001 
4034375000  -4.101566e+001  7.779367e+001 
4037500000  -4.073773e+001  7.928827e+001 
4040625000  -4.072512e+001  7.272055e+001 
4043750000  -4.092615e+001  7.060554e+001 
4046875000  -4.063438e+001  6.613237e+001 
4050000000  -4.019980e+001  6.122677e+001 
4053125000  -4.121707e+001  5.785405e+001 
4056250000  -4.116301e+001  6.125711e+001 
4059375000  -3.936284e+001  6.218298e+001 
4062500000  -3.870187e+001  5.275258e+001 
4065625000  -3.859771e+001  4.661050e+001 
4068750000  -3.807103e+001  4.103077e+001 
4071875000  -3.759975e+001  3.024481e+001 
4075000000  -3.798312e+001  2.282916e+001 
4078125000  -3.855279e+001  2.035428e+001 
4081250000  -3.821274e+001  1.408468e+001 
4084375000  -3.782333e+001  5.423730e+000 
4087500000  -3.812009e+001  -1.653284e+000 
4090625000  -3.895716e+001  -4.050771e+000 
4093750000  -3.866960e+001  -5.918064e+000 
4096875000  -3.844985e+001  -1.509456e+001 
4100000000  -3.938013e+001  -2.332418e+001 
4103125000  -4.026128e+001  -2.099300e+001 
4106250000  -3.962830e+001  -1.813730e+001 
4109375000  -3.893657e+001  -2.116903e+001 
4112500000  -3.833022e+001  -3.034113e+001 
4115625000  -3.900838e+001  -3.854158e+001 
4118750000  -3.874610e+001  -4.353059e+001 
4121875000  -3.865571e+001  -4.928165e+001 
4125000000  -3.959520e+001  -5.670186e+001 
4128125000  -4.021203e+001  -5.306514e+001 
4131250000  -3.959476e+001  -4.753640e+001 
4134375000  -3.727852e+001  -5.769123e+001 
4137500000  -3.787673e+001  -7.804823e+001 
4140625000  -4.006038e+001  -8.498225e+001 
4143750000  -4.102828e+001  -7.925918e+001 
4146875000  -4.029478e+001  -7.607253e+001 
4150000000  -3.954840e+001  -8.446726e+001 
4153125000  -3.939712e+001  -9.162209e+001 
4156250000  -4.072884e+001  -9.439435e+001 
4159375000  -4.078346e+001  -9.088821e+001 
4162500000  -3.996127e+001  -8.893272e+001 
4165625000  -3.830860e+001  -9.598234e+001 
4168750000  -3.817844e+001  -1.062121e+002 
4171875000  -3.790598e+001  -1.147421e+002 
4175000000  -3.890578e+001  -1.215991e+002 
4178125000  -3.930280e+001  -1.210332e+002 
4181250000  -3.908408e+001  -1.273614e+002 
4184375000  -3.912777e+001  -1.301023e+002 
4187500000  -3.884623e+001  -1.365006e+002 
4190625000  -3.927365e+001  -1.430938e+002 
4193750000  -3.997943e+001  -1.477247e+002 
4196875000  -4.078507e+001  -1.492767e+002 
4200000000  -4.197927e+001  -1.469816e+002 
4203125000  -4.055742e+001  -1.335645e+002 
4206250000  -3.701223e+001  -1.409112e+002 
4209375000  -3.672490e+001  -1.638672e+002 
4212500000  -3.903952e+001  -1.706664e+002 
4215625000  -3.964886e+001  -1.654819e+002 
4218750000  -3.791139e+001  -1.616482e+002 
4221875000  -3.600457e+001  -1.734667e+002 
4225000000  -3.702207e+001  1.733324e+002 
4228125000  -3.747358e+001  1.757711e+002 
4231250000  -3.581403e+001  1.698170e+002 
4234375000  -3.599446e+001  1.573356e+002 
4237500000  -3.548043e+001  1.520628e+002 
4240625000  -3.587442e+001  1.414008e+002 
4243750000  -3.683712e+001  1.337969e+002 
4246875000  -3.806643e+001  1.330604e+002 
4250000000  -3.773256e+001  1.320663e+002 
4253125000  -3.750938e+001  1.292166e+002 
4256250000  -3.736832e+001  1.243286e+002 
4259375000  -3.726380e+001  1.185644e+002 
4262500000  -3.726191e+001  1.133973e+002 
4265625000  -3.740427e+001  1.119154e+002 
4268750000  -3.667248e+001  1.048940e+002 
4271875000  -3.619176e+001  9.579926e+001 
4275000000  -3.582375e+001  8.793586e+001 
4278125000  -3.682164e+001  7.511742e+001 
4281250000  -3.845543e+001  7.401160e+001 
4284375000  -3.818274e+001  7.225885e+001 
4287500000  -3.979549e+001  6.886903e+001 
4290625000  -4.037340e+001  7.656875e+001 
4293750000  -3.813181e+001  7.643407e+001 
4296875000  -3.718081e+001  6.319538e+001 
4300000000  -3.853191e+001  5.204531e+001 
4303125000  -3.914671e+001  5.657399e+001 
4306250000  -3.818973e+001  5.978185e+001 
4309375000  -3.719350e+001  5.260540e+001 
4312500000  -3.716425e+001  4.216168e+001 
4315625000  -3.725628e+001  3.296708e+001 
4318750000  -3.813697e+001  3.023940e+001 
4321875000  -3.823532e+001  3.098083e+001 
4325000000  -3.758044e+001  2.957265e+001 
4328125000  -3.675336e+001  1.891305e+001 
4331250000  -3.692038e+001  1.035910e+001 
4334375000  -3.765570e+001  2.568999e+000 
4337500000  -3.869347e+001  1.963289e+000 
4340625000  -3.875190e+001  4.994765e+000 
4343750000  -3.815090e+001  2.510437e+000 
4346875000  -3.766589e+001  -5.585354e+000 
4350000000  -3.769083e+001  -1.350165e+001 
4353125000  -3.808467e+001  -2.191059e+001 
4356250000  -4.026431e+001  -1.910121e+001 
4359375000  -4.004922e+001  -6.683800e+000 
4362500000  -3.657095e+001  -1.229523e+001 
4365625000  -3.560389e+001  -2.939348e+001 
4368750000  -3.659975e+001  -3.885476e+001 
4371875000  -3.735532e+001  -3.931846e+001 
4375000000  -3.698858e+001  -4.246416e+001 
4378125000  -3.644278e+001  -5.090830e+001 
4381250000  -3.662484e+001  -5.815966e+001 
4384375000  -3.643985e+001  -6.450620e+001 
4387500000  -3.742857e+001  -7.083613e+001 
4390625000  -3.793036e+001  -7.138479e+001 
4393750000  -3.759542e+001  -7.117490e+001 
4396875000  -3.672914e+001  -7.805331e+001 
4400000000  -3.636762e+001  -8.642915e+001 
4403125000  -3.719001e+001  -9.463939e+001 
4406250000  -3.770753e+001  -9.905440e+001 
4409375000  -3.818563e+001  -1.037824e+002 
4412500000  -3.908658e+001  -1.070641e+002 
4415625000  -3.873828e+001  -1.023859e+002 
