!Agilent Technologies,E8363B,MY43030201,A.06.04.32
!Agilent E8363B: A.06.04.32
!Date: Tuesday, November 11, 2014 21:35:13
!Correction: S21(Response(S21)) 
!S1P File: Measurement: S21:
# Hz S  dB   R 50
3000000000  -4.054738e+001  7.156637e+001 
3003125000  -4.215375e+001  6.469526e+001 
3006250000  -4.221135e+001  6.301865e+001 
3009375000  -4.285228e+001  6.978884e+001 
3012500000  -4.150839e+001  6.267016e+001 
3015625000  -4.131776e+001  5.758192e+001 
3018750000  -4.187968e+001  5.833839e+001 
3021875000  -4.028795e+001  5.838774e+001 
3025000000  -3.889547e+001  5.490643e+001 
3028125000  -3.785072e+001  4.439055e+001 
3031250000  -3.695935e+001  3.232317e+001 
3034375000  -3.677556e+001  1.832628e+001 
3037500000  -3.751509e+001  7.608323e+000 
3040625000  -3.861860e+001  2.408002e+000 
3043750000  -3.910336e+001  -3.142046e+000 
3046875000  -3.993270e+001  -8.816192e+000 
3050000000  -4.099383e+001  -1.308810e+001 
3053125000  -4.065601e+001  -9.013204e+000 
3056250000  -4.038685e+001  -6.630615e+000 
3059375000  -3.983129e+001  -8.696470e+000 
3062500000  -3.818884e+001  -1.517182e+001 
3065625000  -3.797633e+001  -2.361539e+001 
3068750000  -3.752643e+001  -3.086577e+001 
3071875000  -3.772942e+001  -3.236994e+001 
3075000000  -3.712887e+001  -3.971680e+001 
3078125000  -3.711873e+001  -4.567902e+001 
3081250000  -3.722399e+001  -5.259456e+001 
3084375000  -3.637123e+001  -5.738914e+001 
3087500000  -3.641980e+001  -6.401770e+001 
3090625000  -3.589952e+001  -7.628771e+001 
3093750000  -3.685358e+001  -8.348936e+001 
3096875000  -3.744465e+001  -8.899134e+001 
3100000000  -3.720774e+001  -9.144411e+001 
3103125000  -3.758750e+001  -9.530288e+001 
3106250000  -3.717100e+001  -1.009463e+002 
3109375000  -3.728103e+001  -1.049564e+002 
3112500000  -3.733825e+001  -1.107150e+002 
3115625000  -3.710590e+001  -1.137310e+002 
3118750000  -3.715914e+001  -1.176211e+002 
3121875000  -3.650061e+001  -1.292058e+002 
3125000000  -3.851587e+001  -1.323821e+002 
3128125000  -3.862500e+001  -1.242124e+002 
3131250000  -3.613482e+001  -1.313186e+002 
3134375000  -3.542487e+001  -1.483934e+002 
3137500000  -3.614587e+001  -1.597586e+002 
3140625000  -3.736382e+001  -1.627454e+002 
3143750000  -3.811198e+001  -1.660386e+002 
3146875000  -3.757559e+001  -1.631985e+002 
3150000000  -3.692981e+001  -1.674160e+002 
3153125000  -3.717748e+001  -1.754710e+002 
3156250000  -3.794308e+001  -1.719207e+002 
3159375000  -3.554761e+001  -1.726394e+002 
3162500000  -3.420803e+001  1.709109e+002 
3165625000  -3.545672e+001  1.581126e+002 
3168750000  -3.542278e+001  1.576902e+002 
3171875000  -3.499564e+001  1.500385e+002 
3175000000  -3.544634e+001  1.406133e+002 
3178125000  -3.500510e+001  1.396042e+002 
3181250000  -3.438831e+001  1.305909e+002 
3184375000  -3.420792e+001  1.206223e+002 
3187500000  -3.541035e+001  1.045232e+002 
3190625000  -3.725945e+001  9.847649e+001 
3193750000  -3.741782e+001  1.038161e+002 
3196875000  -3.735015e+001  1.043204e+002 
3200000000  -3.615212e+001  9.972181e+001 
3203125000  -3.598353e+001  9.233686e+001 
3206250000  -3.610505e+001  8.331720e+001 
3209375000  -3.569507e+001  7.603852e+001 
3212500000  -3.624057e+001  6.914265e+001 
3215625000  -3.614128e+001  6.714756e+001 
3218750000  -3.687535e+001  5.441017e+001 
3221875000  -3.722171e+001  4.842101e+001 
3225000000  -3.704019e+001  4.410912e+001 
3228125000  -3.768899e+001  3.730848e+001 
3231250000  -3.821036e+001  3.623929e+001 
3234375000  -3.776950e+001  3.249323e+001 
3237500000  -3.795393e+001  2.842303e+001 
3240625000  -3.748087e+001  2.216077e+001 
3243750000  -3.775920e+001  1.264038e+001 
3246875000  -3.815311e+001  5.295005e+000 
3250000000  -3.875663e+001  2.014619e+000 
3253125000  -3.895640e+001  -9.051157e-001 
3256250000  -3.861468e+001  -8.992698e+000 
3259375000  -3.907727e+001  -2.091941e+001 
3262500000  -4.082582e+001  -2.432859e+001 
3265625000  -4.126154e+001  -2.026565e+001 
3268750000  -4.121809e+001  -2.139474e+001 
3271875000  -4.044200e+001  -2.450023e+001 
3275000000  -4.008608e+001  -3.341870e+001 
3278125000  -4.086562e+001  -3.635109e+001 
3281250000  -4.084635e+001  -3.872981e+001 
3284375000  -4.050327e+001  -4.562533e+001 
3287500000  -4.096399e+001  -4.852647e+001 
3290625000  -4.134340e+001  -5.630014e+001 
3293750000  -4.128141e+001  -6.188189e+001 
3296875000  -4.239318e+001  -6.298968e+001 
3300000000  -4.186345e+001  -6.216623e+001 
3303125000  -4.095527e+001  -7.007258e+001 
3306250000  -4.081948e+001  -7.694588e+001 
3309375000  -4.059077e+001  -8.569372e+001 
3312500000  -4.097161e+001  -9.714987e+001 
3315625000  -4.216679e+001  -1.033750e+002 
3318750000  -4.385070e+001  -1.083905e+002 
3321875000  -4.482117e+001  -1.043718e+002 
3325000000  -4.488882e+001  -9.942628e+001 
3328125000  -4.375655e+001  -9.805914e+001 
3331250000  -4.207482e+001  -9.376907e+001 
3334375000  -3.970431e+001  -1.101980e+002 
3337500000  -4.033646e+001  -1.315726e+002 
3340625000  -4.223299e+001  -1.409014e+002 
3343750000  -4.419176e+001  -1.418082e+002 
3346875000  -4.307810e+001  -1.401526e+002 
3350000000  -4.314793e+001  -1.422743e+002 
3353125000  -4.292144e+001  -1.529888e+002 
3356250000  -4.223615e+001  -1.598519e+002 
3359375000  -4.325018e+001  -1.692890e+002 
3362500000  -4.418355e+001  -1.757400e+002 
3365625000  -4.500200e+001  -1.787283e+002 
3368750000  -4.566903e+001  1.752915e+002 
3371875000  -4.551877e+001  1.692892e+002 
3375000000  -4.718555e+001  1.676749e+002 
3378125000  -4.829146e+001  1.696197e+002 
3381250000  -4.944984e+001  1.793384e+002 
3384375000  -4.590730e+001  -1.667618e+002 
3387500000  -4.432635e+001  1.705039e+002 
3390625000  -4.599055e+001  1.508996e+002 
3393750000  -4.685538e+001  1.523114e+002 
3396875000  -4.586235e+001  1.523023e+002 
3400000000  -4.596494e+001  1.409471e+002 
3403125000  -4.724149e+001  1.346829e+002 
3406250000  -4.790360e+001  1.301837e+002 
3409375000  -4.845375e+001  1.214557e+002 
3412500000  -4.899727e+001  1.192330e+002 
3415625000  -4.964503e+001  1.169140e+002 
3418750000  -5.034942e+001  1.162955e+002 
3421875000  -5.076498e+001  1.227620e+002 
3425000000  -5.015990e+001  1.152257e+002 
3428125000  -5.046342e+001  1.129237e+002 
3431250000  -5.030838e+001  1.056816e+002 
3434375000  -5.082343e+001  1.027702e+002 
3437500000  -5.173081e+001  1.076496e+002 
3440625000  -5.168430e+001  1.045511e+002 
3443750000  -5.066370e+001  1.081200e+002 
3446875000  -5.065922e+001  9.809251e+001 
3450000000  -5.024018e+001  9.267719e+001 
3453125000  -5.081223e+001  8.224384e+001 
3456250000  -5.135122e+001  8.345435e+001 
3459375000  -5.299845e+001  8.393874e+001 
3462500000  -5.219348e+001  9.048598e+001 
3465625000  -5.163946e+001  7.510708e+001 
3468750000  -5.198276e+001  7.757561e+001 
3471875000  -5.131042e+001  7.654369e+001 
3475000000  -5.158230e+001  7.500367e+001 
3478125000  -5.109386e+001  6.122811e+001 
3481250000  -5.251378e+001  5.656157e+001 
3484375000  -5.231956e+001  6.629327e+001 
3487500000  -5.102315e+001  5.824296e+001 
3490625000  -5.094078e+001  5.575784e+001 
3493750000  -5.115386e+001  4.642842e+001 
3496875000  -5.183897e+001  4.775079e+001 
3500000000  -5.204109e+001  4.514236e+001 
3503125000  -5.041536e+001  4.722372e+001 
3506250000  -4.981451e+001  3.831414e+001 
3509375000  -4.955994e+001  2.021641e+001 
3512500000  -4.978425e+001  9.375533e+000 
3515625000  -5.090660e+001  7.259259e+000 
3518750000  -5.222697e+001  1.053411e+001 
3521875000  -5.328386e+001  7.638243e+000 
3525000000  -5.269674e+001  1.335157e+000 
3528125000  -5.233334e+001  9.246993e+000 
3531250000  -5.185348e+001  1.883794e+000 
3534375000  -5.171053e+001  -1.680310e+001 
3537500000  -5.386879e+001  -3.091878e+001 
3540625000  -5.485313e+001  -2.183255e+001 
3543750000  -5.666685e+001  -2.397752e+001 
3546875000  -5.537535e+001  -1.899113e+000 
3550000000  -5.423825e+001  -1.527039e+001 
3553125000  -5.448476e+001  -3.488282e+001 
3556250000  -5.450853e+001  -3.543424e+001 
3559375000  -5.619778e+001  -3.423972e+001 
3562500000  -5.554106e+001  -4.554467e+001 
3565625000  -5.624632e+001  -5.019197e+001 
3568750000  -5.679374e+001  -4.601749e+001 
3571875000  -5.838945e+001  -4.388503e+001 
3575000000  -5.752340e+001  -4.744938e+001 
3578125000  -5.959895e+001  -5.018027e+001 
3581250000  -5.771466e+001  -4.633214e+001 
3584375000  -5.667442e+001  -4.787066e+001 
3587500000  -5.726035e+001  -3.856409e+001 
3590625000  -5.990479e+001  -5.775753e+001 
3593750000  -5.955627e+001  -5.377257e+001 
3596875000  -5.789889e+001  -3.626620e+001 
3600000000  -5.804811e+001  -3.981475e+001 
3603125000  -5.775038e+001  -5.420795e+001 
3606250000  -5.884683e+001  -5.527068e+001 
3609375000  -5.862623e+001  -4.860638e+001 
3612500000  -5.912942e+001  -5.578690e+001 
3615625000  -5.870913e+001  -4.799061e+001 
3618750000  -5.779343e+001  -4.386861e+001 
3621875000  -5.720749e+001  -5.329704e+001 
3625000000  -5.743853e+001  -3.946664e+001 
3628125000  -5.587180e+001  -4.940198e+001 
3631250000  -5.596609e+001  -4.960945e+001 
3634375000  -5.755030e+001  -5.053708e+001 
3637500000  -5.566184e+001  -4.167722e+001 
3640625000  -5.421488e+001  -4.129982e+001 
3643750000  -5.213906e+001  -4.103896e+001 
3646875000  -5.311316e+001  -6.771638e+001 
3650000000  -5.244095e+001  -5.976893e+001 
3653125000  -5.213363e+001  -6.248888e+001 
3656250000  -5.154417e+001  -6.606332e+001 
3659375000  -5.118579e+001  -6.143236e+001 
3662500000  -5.059242e+001  -6.959470e+001 
3665625000  -4.979579e+001  -6.895038e+001 
3668750000  -4.833894e+001  -7.279556e+001 
3671875000  -4.727118e+001  -8.886409e+001 
3675000000  -4.761079e+001  -9.090087e+001 
3678125000  -4.764038e+001  -9.966678e+001 
3681250000  -4.654669e+001  -1.040006e+002 
3684375000  -4.670741e+001  -1.077633e+002 
3687500000  -4.687994e+001  -1.124250e+002 
3690625000  -4.681683e+001  -1.164606e+002 
3693750000  -4.702054e+001  -1.189894e+002 
3696875000  -4.652079e+001  -1.177538e+002 
3700000000  -4.502284e+001  -1.269105e+002 
3703125000  -4.538677e+001  -1.328409e+002 
3706250000  -4.586896e+001  -1.329863e+002 
3709375000  -4.493610e+001  -1.345566e+002 
3712500000  -4.343951e+001  -1.359577e+002 
3715625000  -4.176134e+001  -1.474522e+002 
3718750000  -4.182228e+001  -1.554494e+002 
3721875000  -4.146128e+001  -1.640298e+002 
3725000000  -4.177139e+001  -1.701591e+002 
3728125000  -4.148630e+001  -1.736361e+002 
3731250000  -4.063958e+001  -1.787615e+002 
3734375000  -4.010934e+001  1.721999e+002 
3737500000  -4.066465e+001  1.636510e+002 
3740625000  -4.072244e+001  1.569974e+002 
3743750000  -4.042654e+001  1.502812e+002 
3746875000  -4.077543e+001  1.460814e+002 
3750000000  -4.077770e+001  1.407534e+002 
3753125000  -4.076812e+001  1.370827e+002 
3756250000  -4.053431e+001  1.326201e+002 
3759375000  -4.027853e+001  1.282511e+002 
3762500000  -3.996859e+001  1.219649e+002 
3765625000  -4.061042e+001  1.180341e+002 
3768750000  -4.012554e+001  1.157571e+002 
3771875000  -3.846176e+001  1.104716e+002 
3775000000  -3.866693e+001  9.896358e+001 
3778125000  -3.892327e+001  9.130979e+001 
3781250000  -3.909844e+001  8.737617e+001 
3784375000  -3.879846e+001  8.279263e+001 
3787500000  -3.848977e+001  7.610746e+001 
3790625000  -3.922181e+001  6.682500e+001 
3793750000  -3.887256e+001  6.469156e+001 
3796875000  -3.813018e+001  5.929980e+001 
3800000000  -3.633434e+001  5.461769e+001 
3803125000  -3.800660e+001  4.112899e+001 
3806250000  -3.889358e+001  3.717094e+001 
3809375000  -3.833455e+001  3.334698e+001 
3812500000  -3.861393e+001  2.375425e+001 
3815625000  -3.940543e+001  1.333464e+001 
3818750000  -4.088935e+001  1.699329e+001 
3821875000  -4.033886e+001  2.704375e+001 
3825000000  -3.814826e+001  2.336158e+001 
3828125000  -3.691608e+001  3.419912e+000 
3831250000  -3.827732e+001  -1.078287e+001 
3834375000  -4.048149e+001  -1.161915e+001 
3837500000  -4.051918e+001  -8.327205e+000 
3840625000  -3.890300e+001  -1.139227e+001 
3843750000  -3.841935e+001  -2.633522e+001 
3846875000  -3.991338e+001  -3.324281e+001 
3850000000  -4.066339e+001  -2.728768e+001 
3853125000  -3.991184e+001  -2.728510e+001 
3856250000  -3.949830e+001  -3.438289e+001 
3859375000  -3.849135e+001  -4.190050e+001 
3862500000  -3.855462e+001  -5.207689e+001 
3865625000  -3.900859e+001  -5.720300e+001 
3868750000  -3.883055e+001  -5.727502e+001 
3871875000  -3.794270e+001  -6.415213e+001 
3875000000  -3.833540e+001  -7.486082e+001 
3878125000  -3.950226e+001  -7.697123e+001 
3881250000  -3.947494e+001  -7.833568e+001 
3884375000  -3.886100e+001  -8.518607e+001 
3887500000  -3.923925e+001  -9.022758e+001 
3890625000  -3.948049e+001  -9.553725e+001 
3893750000  -3.974144e+001  -9.692539e+001 
3896875000  -4.029710e+001  -9.977367e+001 
3900000000  -3.963300e+001  -1.056722e+002 
3903125000  -3.919466e+001  -1.091630e+002 
3906250000  -3.892996e+001  -1.120838e+002 
3909375000  -3.820930e+001  -1.220490e+002 
3912500000  -3.897471e+001  -1.281987e+002 
3915625000  -4.004086e+001  -1.290152e+002 
3918750000  -3.974688e+001  -1.313879e+002 
3921875000  -3.912610e+001  -1.347728e+002 
3925000000  -3.848053e+001  -1.421951e+002 
3928125000  -3.834013e+001  -1.502120e+002 
3931250000  -3.925451e+001  -1.582777e+002 
3934375000  -3.965510e+001  -1.585502e+002 
3937500000  -3.988328e+001  -1.609619e+002 
3940625000  -3.991647e+001  -1.622280e+002 
3943750000  -3.886769e+001  -1.658548e+002 
3946875000  -3.840168e+001  -1.760162e+002 
3950000000  -3.963458e+001  1.757030e+002 
3953125000  -4.031064e+001  1.767819e+002 
3956250000  -3.898289e+001  1.769596e+002 
3959375000  -3.775195e+001  1.711243e+002 
3962500000  -3.759983e+001  1.625065e+002 
3965625000  -3.757936e+001  1.537875e+002 
3968750000  -3.860753e+001  1.455480e+002 
3971875000  -3.871904e+001  1.385925e+002 
3975000000  -3.836136e+001  1.343372e+002 
3978125000  -3.861657e+001  1.319483e+002 
3981250000  -3.847363e+001  1.246481e+002 
3984375000  -3.885514e+001  1.169712e+002 
3987500000  -3.972968e+001  1.136384e+002 
3990625000  -3.996918e+001  1.124758e+002 
3993750000  -3.964858e+001  1.071073e+002 
3996875000  -4.003727e+001  1.032073e+002 
4000000000  -4.090924e+001  9.909345e+001 
4003125000  -4.081491e+001  1.006046e+002 
4006250000  -3.939637e+001  9.698289e+001 
4009375000  -3.868692e+001  8.279528e+001 
4012500000  -4.030170e+001  7.598233e+001 
4015625000  -4.150996e+001  7.588956e+001 
4018750000  -4.118316e+001  7.563055e+001 
4021875000  -4.075459e+001  7.385852e+001 
4025000000  -4.020737e+001  6.395967e+001 
4028125000  -4.054415e+001  6.025474e+001 
4031250000  -4.121778e+001  5.633831e+001 
4034375000  -4.154529e+001  5.521268e+001 
4037500000  -4.116510e+001  5.555423e+001 
4040625000  -4.112157e+001  5.119961e+001 
4043750000  -4.132392e+001  4.688581e+001 
4046875000  -4.072071e+001  4.319783e+001 
4050000000  -4.057165e+001  3.828622e+001 
4053125000  -4.135481e+001  3.702446e+001 
4056250000  -4.146441e+001  3.978057e+001 
4059375000  -3.934787e+001  3.730543e+001 
4062500000  -3.869631e+001  2.931120e+001 
4065625000  -3.888828e+001  2.439594e+001 
4068750000  -3.821975e+001  1.686712e+001 
4071875000  -3.772005e+001  7.275797e+000 
4075000000  -3.838109e+001  -2.123688e+000 
4078125000  -3.876624e+001  -3.526077e+000 
4081250000  -3.821541e+001  -8.752492e+000 
4084375000  -3.809413e+001  -1.816020e+001 
4087500000  -3.891984e+001  -2.332113e+001 
4090625000  -3.914686e+001  -2.583478e+001 
4093750000  -3.872417e+001  -2.956490e+001 
4096875000  -3.866328e+001  -3.804476e+001 
4100000000  -3.966303e+001  -4.534649e+001 
4103125000  -4.063158e+001  -4.187733e+001 
4106250000  -4.006651e+001  -4.226605e+001 
4109375000  -3.905407e+001  -4.493400e+001 
4112500000  -3.850211e+001  -5.485318e+001 
4115625000  -3.942279e+001  -6.003128e+001 
4118750000  -3.906416e+001  -6.553684e+001 
4121875000  -3.894458e+001  -7.370301e+001 
4125000000  -4.024736e+001  -7.924784e+001 
4128125000  -4.076928e+001  -7.558148e+001 
4131250000  -3.989636e+001  -7.170425e+001 
4134375000  -3.773132e+001  -8.146969e+001 
4137500000  -3.816317e+001  -1.017362e+002 
4140625000  -4.034362e+001  -1.091534e+002 
4143750000  -4.141643e+001  -1.006052e+002 
4146875000  -4.015628e+001  -9.714261e+001 
4150000000  -3.947414e+001  -1.058440e+002 
4153125000  -3.986158e+001  -1.155383e+002 
4156250000  -4.155339e+001  -1.197009e+002 
4159375000  -4.117309e+001  -1.136813e+002 
4162500000  -3.983113e+001  -1.108956e+002 
4165625000  -3.872302e+001  -1.199758e+002 
4168750000  -3.849008e+001  -1.302471e+002 
4171875000  -3.825636e+001  -1.387279e+002 
4175000000  -3.940831e+001  -1.466117e+002 
4178125000  -3.957558e+001  -1.450426e+002 
4181250000  -3.945720e+001  -1.494854e+002 
4184375000  -3.931458e+001  -1.552981e+002 
4187500000  -3.956120e+001  -1.600324e+002 
4190625000  -3.954214e+001  -1.686708e+002 
4193750000  -4.083588e+001  -1.718600e+002 
4196875000  -4.146503e+001  -1.716364e+002 
4200000000  -4.214976e+001  -1.661871e+002 
4203125000  -4.110075e+001  -1.553020e+002 
4206250000  -3.748787e+001  -1.654626e+002 
4209375000  -3.742008e+001  1.719924e+002 
4212500000  -3.987575e+001  1.679418e+002 
4215625000  -4.010446e+001  1.753260e+002 
4218750000  -3.848780e+001  1.752582e+002 
4221875000  -3.663460e+001  1.652418e+002 
4225000000  -3.784230e+001  1.521574e+002 
4228125000  -3.754742e+001  1.534023e+002 
4231250000  -3.613983e+001  1.460371e+002 
4234375000  -3.627519e+001  1.366798e+002 
4237500000  -3.630194e+001  1.293491e+002 
4240625000  -3.627613e+001  1.180441e+002 
4243750000  -3.774601e+001  1.130598e+002 
4246875000  -3.846037e+001  1.098964e+002 
4250000000  -3.811903e+001  1.097180e+002 
4253125000  -3.801401e+001  1.078035e+002 
4256250000  -3.815604e+001  1.019446e+002 
4259375000  -3.797209e+001  9.591225e+001 
4262500000  -3.799427e+001  9.216447e+001 
4265625000  -3.811547e+001  8.903736e+001 
4268750000  -3.713943e+001  8.215038e+001 
4271875000  -3.683935e+001  7.251809e+001 
4275000000  -3.653645e+001  6.394400e+001 
4278125000  -3.773307e+001  5.202208e+001 
4281250000  -3.913577e+001  5.246968e+001 
4284375000  -3.875012e+001  4.832288e+001 
4287500000  -4.040380e+001  4.547960e+001 
4290625000  -4.053542e+001  5.598317e+001 
4293750000  -3.863363e+001  5.535751e+001 
4296875000  -3.789508e+001  4.081505e+001 
4300000000  -3.911903e+001  3.142604e+001 
4303125000  -3.978289e+001  3.566409e+001 
4306250000  -3.842958e+001  3.829378e+001 
4309375000  -3.759764e+001  2.879433e+001 
4312500000  -3.772893e+001  1.982506e+001 
4315625000  -3.784307e+001  1.334308e+001 
4318750000  -3.875484e+001  9.205079e+000 
4321875000  -3.878740e+001  9.014912e+000 
4325000000  -3.799260e+001  9.161015e+000 
4328125000  -3.730906e+001  -2.724694e+000 
4331250000  -3.749088e+001  -1.418748e+001 
4334375000  -3.835154e+001  -1.961780e+001 
4337500000  -3.956217e+001  -2.113720e+001 
4340625000  -3.974335e+001  -1.433432e+001 
4343750000  -3.851757e+001  -1.957188e+001 
4346875000  -3.836295e+001  -2.894344e+001 
4350000000  -3.844538e+001  -3.751395e+001 
4353125000  -3.918530e+001  -4.393690e+001 
4356250000  -4.116431e+001  -3.786620e+001 
4359375000  -3.987107e+001  -2.428216e+001 
4362500000  -3.627348e+001  -3.403397e+001 
4365625000  -3.601011e+001  -5.172669e+001 
4368750000  -3.730156e+001  -6.102974e+001 
4371875000  -3.794670e+001  -6.174276e+001 
4375000000  -3.712289e+001  -6.591593e+001 
4378125000  -3.683554e+001  -7.237962e+001 
4381250000  -3.727192e+001  -8.032060e+001 
4384375000  -3.711404e+001  -8.660480e+001 
4387500000  -3.822780e+001  -9.381067e+001 
4390625000  -3.856364e+001  -9.302960e+001 
4393750000  -3.803300e+001  -9.307449e+001 
4396875000  -3.750875e+001  -9.816653e+001 
4400000000  -3.715371e+001  -1.075193e+002 
4403125000  -3.782945e+001  -1.164049e+002 
4406250000  -3.828571e+001  -1.206747e+002 
4409375000  -3.876058e+001  -1.250815e+002 
4412500000  -3.985567e+001  -1.277074e+002 
4415625000  -3.944509e+001  -1.263260e+002 
