!Agilent Technologies,E8363B,MY43030201,A.06.04.32
!Agilent E8363B: A.06.04.32
!Date: Tuesday, November 11, 2014 21:32:55
!Correction: S21(Response(S21)) 
!S1P File: Measurement: S21:
# Hz S  dB   R 50
3000000000  -4.064408e+001  7.539548e+001 
3003125000  -4.204952e+001  6.758132e+001 
3006250000  -4.215032e+001  6.729682e+001 
3009375000  -4.288509e+001  7.306097e+001 
3012500000  -4.144592e+001  6.668068e+001 
3015625000  -4.153591e+001  5.979386e+001 
3018750000  -4.171600e+001  6.265775e+001 
3021875000  -4.015895e+001  6.210099e+001 
3025000000  -3.894057e+001  5.708429e+001 
3028125000  -3.795708e+001  4.692934e+001 
3031250000  -3.694626e+001  3.556395e+001 
3034375000  -3.676284e+001  2.181928e+001 
3037500000  -3.750232e+001  1.053683e+001 
3040625000  -3.870578e+001  5.810828e+000 
3043750000  -3.916397e+001  -4.548446e-001 
3046875000  -3.975264e+001  -5.117471e+000 
3050000000  -4.089923e+001  -1.193054e+001 
3053125000  -4.046729e+001  -6.358383e+000 
3056250000  -4.056330e+001  -4.084862e+000 
3059375000  -3.977917e+001  -4.774745e+000 
3062500000  -3.824413e+001  -9.916290e+000 
3065625000  -3.793807e+001  -2.013303e+001 
3068750000  -3.749771e+001  -2.784324e+001 
3071875000  -3.769867e+001  -2.967089e+001 
3075000000  -3.699501e+001  -3.725254e+001 
3078125000  -3.707123e+001  -4.349178e+001 
3081250000  -3.719775e+001  -4.992363e+001 
3084375000  -3.628827e+001  -5.376357e+001 
3087500000  -3.642201e+001  -6.091123e+001 
3090625000  -3.594007e+001  -7.304232e+001 
3093750000  -3.682901e+001  -8.057955e+001 
3096875000  -3.737605e+001  -8.570095e+001 
3100000000  -3.718484e+001  -8.919753e+001 
3103125000  -3.760193e+001  -9.241021e+001 
3106250000  -3.714165e+001  -9.781071e+001 
3109375000  -3.716904e+001  -1.019235e+002 
3112500000  -3.715147e+001  -1.066613e+002 
3115625000  -3.699515e+001  -1.113853e+002 
3118750000  -3.726345e+001  -1.147100e+002 
3121875000  -3.657550e+001  -1.260818e+002 
3125000000  -3.849417e+001  -1.292525e+002 
3128125000  -3.844333e+001  -1.209563e+002 
3131250000  -3.596537e+001  -1.274859e+002 
3134375000  -3.545905e+001  -1.451126e+002 
3137500000  -3.610970e+001  -1.574200e+002 
3140625000  -3.726434e+001  -1.605952e+002 
3143750000  -3.804424e+001  -1.635478e+002 
3146875000  -3.764569e+001  -1.606651e+002 
3150000000  -3.678948e+001  -1.635264e+002 
3153125000  -3.709076e+001  -1.719025e+002 
3156250000  -3.791724e+001  -1.686385e+002 
3159375000  -3.566402e+001  -1.692834e+002 
3162500000  -3.419158e+001  1.742203e+002 
3165625000  -3.540332e+001  1.605134e+002 
3168750000  -3.545058e+001  1.603808e+002 
3171875000  -3.491025e+001  1.535498e+002 
3175000000  -3.551604e+001  1.438138e+002 
3178125000  -3.505064e+001  1.429655e+002 
3181250000  -3.439526e+001  1.339871e+002 
3184375000  -3.419495e+001  1.226430e+002 
3187500000  -3.544859e+001  1.079077e+002 
3190625000  -3.714203e+001  1.019188e+002 
3193750000  -3.736428e+001  1.070261e+002 
3196875000  -3.738955e+001  1.080385e+002 
3200000000  -3.612206e+001  1.026626e+002 
3203125000  -3.588563e+001  9.544086e+001 
3206250000  -3.612522e+001  8.780273e+001 
3209375000  -3.580216e+001  7.869131e+001 
3212500000  -3.623406e+001  7.192845e+001 
3215625000  -3.607853e+001  6.925060e+001 
3218750000  -3.679076e+001  5.862637e+001 
3221875000  -3.733200e+001  5.232383e+001 
3225000000  -3.702571e+001  4.815948e+001 
3228125000  -3.779400e+001  4.087041e+001 
3231250000  -3.822214e+001  3.822852e+001 
3234375000  -3.775926e+001  3.565279e+001 
3237500000  -3.812966e+001  3.023049e+001 
3240625000  -3.763278e+001  2.718030e+001 
3243750000  -3.766208e+001  1.616228e+001 
3246875000  -3.821177e+001  8.641946e+000 
3250000000  -3.873032e+001  5.047284e+000 
3253125000  -3.895614e+001  1.929810e+000 
3256250000  -3.866895e+001  -6.647196e+000 
3259375000  -3.913784e+001  -1.792563e+001 
3262500000  -4.076381e+001  -2.191695e+001 
3265625000  -4.093107e+001  -1.798055e+001 
3268750000  -4.114515e+001  -1.614329e+001 
3271875000  -4.037778e+001  -2.131905e+001 
3275000000  -3.998333e+001  -2.981812e+001 
3278125000  -4.073057e+001  -3.435635e+001 
3281250000  -4.090030e+001  -3.523721e+001 
3284375000  -4.057858e+001  -4.199029e+001 
3287500000  -4.086134e+001  -4.674711e+001 
3290625000  -4.123808e+001  -5.575646e+001 
3293750000  -4.107401e+001  -5.805341e+001 
3296875000  -4.227372e+001  -6.098378e+001 
3300000000  -4.189243e+001  -5.884717e+001 
3303125000  -4.092597e+001  -6.714634e+001 
3306250000  -4.093890e+001  -7.342007e+001 
3309375000  -4.070700e+001  -8.146233e+001 
3312500000  -4.093208e+001  -9.434155e+001 
3315625000  -4.236004e+001  -1.008186e+002 
3318750000  -4.377374e+001  -1.026283e+002 
3321875000  -4.499368e+001  -9.990746e+001 
3325000000  -4.487627e+001  -9.485622e+001 
3328125000  -4.379360e+001  -9.511250e+001 
3331250000  -4.247309e+001  -9.268114e+001 
3334375000  -3.962313e+001  -1.078514e+002 
3337500000  -4.035891e+001  -1.290492e+002 
3340625000  -4.210396e+001  -1.374815e+002 
3343750000  -4.398454e+001  -1.364924e+002 
3346875000  -4.326176e+001  -1.368296e+002 
3350000000  -4.305740e+001  -1.399838e+002 
3353125000  -4.270186e+001  -1.471411e+002 
3356250000  -4.249288e+001  -1.565680e+002 
3359375000  -4.334468e+001  -1.669633e+002 
3362500000  -4.441345e+001  -1.726249e+002 
3365625000  -4.471963e+001  -1.764403e+002 
3368750000  -4.556937e+001  -1.790705e+002 
3371875000  -4.557705e+001  1.774990e+002 
3375000000  -4.750220e+001  1.712421e+002 
3378125000  -4.844247e+001  1.716488e+002 
3381250000  -4.973782e+001  -1.747713e+002 
3384375000  -4.640459e+001  -1.631545e+002 
3387500000  -4.414233e+001  1.758974e+002 
3390625000  -4.600798e+001  1.535690e+002 
3393750000  -4.711234e+001  1.556660e+002 
3396875000  -4.612945e+001  1.534041e+002 
3400000000  -4.595266e+001  1.415949e+002 
3403125000  -4.716575e+001  1.381534e+002 
3406250000  -4.772887e+001  1.329359e+002 
3409375000  -4.784398e+001  1.290721e+002 
3412500000  -4.897169e+001  1.202226e+002 
3415625000  -5.015349e+001  1.213736e+002 
3418750000  -4.954850e+001  1.213394e+002 
3421875000  -5.087500e+001  1.195978e+002 
3425000000  -5.065594e+001  1.205140e+002 
3428125000  -4.987951e+001  1.186958e+002 
3431250000  -5.017763e+001  1.118793e+002 
3434375000  -5.033994e+001  1.048447e+002 
3437500000  -5.197565e+001  1.090345e+002 
3440625000  -5.196707e+001  1.068799e+002 
3443750000  -5.055450e+001  1.100579e+002 
3446875000  -5.089425e+001  1.013251e+002 
3450000000  -5.082227e+001  9.354518e+001 
3453125000  -5.077913e+001  8.588459e+001 
3456250000  -5.159353e+001  7.892625e+001 
3459375000  -5.369251e+001  8.580128e+001 
3462500000  -5.154353e+001  8.184199e+001 
3465625000  -5.161990e+001  8.155950e+001 
3468750000  -5.207839e+001  8.197610e+001 
3471875000  -5.271331e+001  7.824960e+001 
3475000000  -5.131533e+001  7.140385e+001 
3478125000  -5.141859e+001  6.375746e+001 
3481250000  -5.303831e+001  6.321333e+001 
3484375000  -5.290297e+001  7.146518e+001 
3487500000  -5.126667e+001  6.299453e+001 
3490625000  -5.144072e+001  5.619312e+001 
3493750000  -5.164761e+001  5.382180e+001 
3496875000  -5.057256e+001  5.073660e+001 
3500000000  -5.233568e+001  5.061404e+001 
3503125000  -5.155052e+001  4.747477e+001 
3506250000  -5.036862e+001  4.472684e+001 
3509375000  -4.934750e+001  3.144984e+001 
3512500000  -5.037644e+001  1.089339e+001 
3515625000  -5.161808e+001  1.142457e+001 
3518750000  -5.225450e+001  1.203648e+001 
3521875000  -5.246486e+001  9.141016e+000 
3525000000  -5.367572e+001  -5.147295e+000 
3528125000  -5.223935e+001  7.955150e+000 
3531250000  -5.171918e+001  -9.410473e-001 
3534375000  -5.246901e+001  -1.054055e+001 
3537500000  -5.313072e+001  -2.030247e+001 
3540625000  -5.474647e+001  -1.401996e+001 
3543750000  -5.558272e+001  -1.194208e+001 
3546875000  -5.580724e+001  -2.576285e-001 
3550000000  -5.359738e+001  -1.601095e+001 
3553125000  -5.390963e+001  -2.475200e+001 
3556250000  -5.619260e+001  -2.870723e+001 
3559375000  -5.546072e+001  -2.615723e+001 
3562500000  -5.597568e+001  -3.420322e+001 
3565625000  -5.774012e+001  -4.357357e+001 
3568750000  -5.911354e+001  -4.408047e+001 
3571875000  -5.903767e+001  -4.806857e+001 
3575000000  -5.820198e+001  -2.985830e+001 
3578125000  -5.857719e+001  -3.444762e+001 
3581250000  -5.825190e+001  -3.931741e+001 
3584375000  -5.887820e+001  -3.996207e+001 
3587500000  -5.730550e+001  -2.909847e+001 
3590625000  -5.766146e+001  -5.746764e+001 
3593750000  -6.178816e+001  -3.997807e+001 
3596875000  -5.932085e+001  -3.079222e+001 
3600000000  -5.783538e+001  -2.919939e+001 
3603125000  -6.064890e+001  -5.526395e+001 
3606250000  -5.743297e+001  -4.678672e+001 
3609375000  -5.892256e+001  -3.863318e+001 
3612500000  -5.830347e+001  -4.716267e+001 
3615625000  -5.850809e+001  -4.095992e+001 
3618750000  -5.940603e+001  -4.269899e+001 
3621875000  -5.660730e+001  -4.542502e+001 
3625000000  -5.898879e+001  -3.623012e+001 
3628125000  -5.635857e+001  -3.323975e+001 
3631250000  -5.581201e+001  -5.361761e+001 
3634375000  -5.767074e+001  -4.742422e+001 
3637500000  -5.555291e+001  -3.824402e+001 
3640625000  -5.479644e+001  -2.759999e+001 
3643750000  -5.350555e+001  -4.264709e+001 
3646875000  -5.257055e+001  -5.480959e+001 
3650000000  -5.261694e+001  -5.056773e+001 
3653125000  -5.205138e+001  -5.999434e+001 
3656250000  -5.261858e+001  -6.140447e+001 
3659375000  -5.137526e+001  -5.852826e+001 
3662500000  -5.107374e+001  -6.802802e+001 
3665625000  -5.048054e+001  -6.307724e+001 
3668750000  -4.818321e+001  -6.733101e+001 
3671875000  -4.741072e+001  -8.032999e+001 
3675000000  -4.694542e+001  -9.013573e+001 
3678125000  -4.784726e+001  -9.105083e+001 
3681250000  -4.644202e+001  -9.646999e+001 
3684375000  -4.709895e+001  -1.031124e+002 
3687500000  -4.617605e+001  -1.096626e+002 
3690625000  -4.684146e+001  -1.146205e+002 
3693750000  -4.686048e+001  -1.131263e+002 
3696875000  -4.642929e+001  -1.124816e+002 
3700000000  -4.534795e+001  -1.236630e+002 
3703125000  -4.516982e+001  -1.290034e+002 
3706250000  -4.552758e+001  -1.301344e+002 
3709375000  -4.501150e+001  -1.293366e+002 
3712500000  -4.340356e+001  -1.332151e+002 
3715625000  -4.189793e+001  -1.445681e+002 
3718750000  -4.175814e+001  -1.495223e+002 
3721875000  -4.134973e+001  -1.591010e+002 
3725000000  -4.172586e+001  -1.667023e+002 
3728125000  -4.161936e+001  -1.688720e+002 
3731250000  -4.079205e+001  -1.746527e+002 
3734375000  -4.002877e+001  1.771598e+002 
3737500000  -4.095323e+001  1.662682e+002 
3740625000  -4.074608e+001  1.630452e+002 
3743750000  -4.044678e+001  1.559151e+002 
3746875000  -4.078563e+001  1.483247e+002 
3750000000  -4.113626e+001  1.433247e+002 
3753125000  -4.069786e+001  1.410870e+002 
3756250000  -4.064213e+001  1.373245e+002 
3759375000  -4.062593e+001  1.310631e+002 
3762500000  -4.014674e+001  1.239243e+002 
3765625000  -4.076652e+001  1.218901e+002 
3768750000  -4.023381e+001  1.211974e+002 
3771875000  -3.835132e+001  1.140598e+002 
3775000000  -3.851719e+001  1.014981e+002 
3778125000  -3.897897e+001  9.683440e+001 
3781250000  -3.909680e+001  9.233205e+001 
3784375000  -3.895347e+001  8.522337e+001 
3787500000  -3.847239e+001  7.955475e+001 
3790625000  -3.900900e+001  7.076398e+001 
3793750000  -3.906840e+001  6.657394e+001 
3796875000  -3.824421e+001  6.265884e+001 
3800000000  -3.640138e+001  5.942918e+001 
3803125000  -3.801409e+001  4.424428e+001 
3806250000  -3.891785e+001  4.033979e+001 
3809375000  -3.847503e+001  3.771906e+001 
3812500000  -3.854940e+001  2.708382e+001 
3815625000  -3.944133e+001  1.875817e+001 
3818750000  -4.094495e+001  2.122519e+001 
3821875000  -3.997684e+001  2.929171e+001 
3825000000  -3.824847e+001  2.566488e+001 
3828125000  -3.724944e+001  6.719178e+000 
3831250000  -3.797387e+001  -6.469313e+000 
3834375000  -4.066295e+001  -8.230455e+000 
3837500000  -4.047100e+001  -4.487292e+000 
3840625000  -3.890146e+001  -6.834689e+000 
3843750000  -3.820847e+001  -2.048284e+001 
3846875000  -3.974190e+001  -2.795403e+001 
3850000000  -4.124832e+001  -2.292061e+001 
3853125000  -3.997921e+001  -2.276129e+001 
3856250000  -3.930298e+001  -2.901558e+001 
3859375000  -3.863174e+001  -3.768164e+001 
3862500000  -3.846082e+001  -4.744522e+001 
3865625000  -3.889095e+001  -5.323583e+001 
3868750000  -3.880434e+001  -5.364396e+001 
3871875000  -3.792312e+001  -5.952224e+001 
3875000000  -3.873986e+001  -7.136266e+001 
3878125000  -3.958386e+001  -7.441965e+001 
3881250000  -3.924707e+001  -7.390958e+001 
3884375000  -3.884377e+001  -7.922835e+001 
3887500000  -3.942089e+001  -8.640849e+001 
3890625000  -3.957541e+001  -9.151215e+001 
3893750000  -3.969764e+001  -9.280317e+001 
3896875000  -3.985082e+001  -9.832598e+001 
3900000000  -3.976909e+001  -9.984981e+001 
3903125000  -3.915545e+001  -1.047454e+002 
3906250000  -3.893964e+001  -1.069581e+002 
3909375000  -3.842963e+001  -1.181688e+002 
3912500000  -3.911664e+001  -1.247857e+002 
3915625000  -4.049052e+001  -1.259968e+002 
3918750000  -3.988626e+001  -1.272154e+002 
3921875000  -3.918002e+001  -1.322919e+002 
3925000000  -3.853139e+001  -1.383295e+002 
3928125000  -3.824436e+001  -1.468005e+002 
3931250000  -3.892480e+001  -1.538528e+002 
3934375000  -3.968439e+001  -1.547933e+002 
3937500000  -4.020830e+001  -1.549954e+002 
3940625000  -4.012418e+001  -1.581843e+002 
3943750000  -3.900030e+001  -1.626836e+002 
3946875000  -3.851087e+001  -1.716793e+002 
3950000000  -3.951906e+001  -1.792122e+002 
3953125000  -3.988039e+001  -1.773404e+002 
3956250000  -3.900311e+001  1.796750e+002 
3959375000  -3.774997e+001  1.745411e+002 
3962500000  -3.747439e+001  1.657373e+002 
3965625000  -3.770055e+001  1.558177e+002 
3968750000  -3.856634e+001  1.484278e+002 
3971875000  -3.866105e+001  1.437023e+002 
3975000000  -3.842266e+001  1.394373e+002 
3978125000  -3.852177e+001  1.370018e+002 
3981250000  -3.858516e+001  1.292730e+002 
3984375000  -3.898688e+001  1.216967e+002 
3987500000  -3.960418e+001  1.191076e+002 
3990625000  -3.994963e+001  1.170685e+002 
3993750000  -3.986480e+001  1.102903e+002 
3996875000  -3.984184e+001  1.077520e+002 
4000000000  -4.041756e+001  1.001008e+002 
4003125000  -4.113897e+001  1.043305e+002 
4006250000  -3.953901e+001  1.014485e+002 
4009375000  -3.851390e+001  8.716025e+001 
4012500000  -4.026239e+001  8.050870e+001 
4015625000  -4.121093e+001  7.847704e+001 
4018750000  -4.150624e+001  7.923022e+001 
4021875000  -4.054533e+001  7.574616e+001 
4025000000  -4.054943e+001  6.920290e+001 
4028125000  -4.065357e+001  6.306333e+001 
4031250000  -4.101578e+001  5.950018e+001 
4034375000  -4.142766e+001  5.812260e+001 
4037500000  -4.082809e+001  5.990071e+001 
4040625000  -4.111237e+001  5.454614e+001 
4043750000  -4.094925e+001  5.237697e+001 
4046875000  -4.070461e+001  4.643601e+001 
4050000000  -4.078833e+001  4.284852e+001 
4053125000  -4.135550e+001  4.111351e+001 
4056250000  -4.148618e+001  4.480633e+001 
4059375000  -3.957898e+001  4.085302e+001 
4062500000  -3.887305e+001  3.352914e+001 
4065625000  -3.903499e+001  3.045265e+001 
4068750000  -3.828345e+001  2.132267e+001 
4071875000  -3.782015e+001  1.189399e+001 
4075000000  -3.842374e+001  4.828074e+000 
4078125000  -3.869199e+001  2.009770e+000 
4081250000  -3.814047e+001  -3.902187e+000 
4084375000  -3.791458e+001  -1.433243e+001 
4087500000  -3.893545e+001  -2.098878e+001 
4090625000  -3.909541e+001  -2.160605e+001 
4093750000  -3.884315e+001  -2.423854e+001 
4096875000  -3.884183e+001  -3.497891e+001 
4100000000  -3.950663e+001  -4.251662e+001 
4103125000  -4.079235e+001  -3.854671e+001 
4106250000  -3.996511e+001  -3.724891e+001 
4109375000  -3.886267e+001  -3.921559e+001 
4112500000  -3.861053e+001  -4.914848e+001 
4115625000  -3.926439e+001  -5.754254e+001 
4118750000  -3.883587e+001  -6.002662e+001 
4121875000  -3.905386e+001  -6.867095e+001 
4125000000  -3.972342e+001  -7.503786e+001 
4128125000  -4.087270e+001  -7.120524e+001 
4131250000  -3.999351e+001  -6.656854e+001 
4134375000  -3.756402e+001  -7.812631e+001 
4137500000  -3.822874e+001  -9.708176e+001 
4140625000  -4.039779e+001  -1.030348e+002 
4143750000  -4.124403e+001  -9.780717e+001 
4146875000  -4.078959e+001  -9.249551e+001 
4150000000  -3.963356e+001  -1.018324e+002 
4153125000  -4.009240e+001  -1.132839e+002 
4156250000  -4.140277e+001  -1.150547e+002 
4159375000  -4.118977e+001  -1.098200e+002 
4162500000  -4.013764e+001  -1.081684e+002 
4165625000  -3.886294e+001  -1.141567e+002 
4168750000  -3.826755e+001  -1.246867e+002 
4171875000  -3.835756e+001  -1.346027e+002 
4175000000  -3.909148e+001  -1.404969e+002 
4178125000  -3.972805e+001  -1.417850e+002 
4181250000  -3.946830e+001  -1.453779e+002 
4184375000  -3.944243e+001  -1.500629e+002 
4187500000  -3.919438e+001  -1.561513e+002 
4190625000  -3.937421e+001  -1.620196e+002 
4193750000  -4.072324e+001  -1.676405e+002 
4196875000  -4.144672e+001  -1.678357e+002 
4200000000  -4.207428e+001  -1.617626e+002 
4203125000  -4.080709e+001  -1.477872e+002 
4206250000  -3.770277e+001  -1.603285e+002 
4209375000  -3.731409e+001  1.773260e+002 
4212500000  -3.947669e+001  1.698080e+002 
4215625000  -4.012671e+001  1.764901e+002 
4218750000  -3.818106e+001  1.787761e+002 
4221875000  -3.656622e+001  1.691665e+002 
4225000000  -3.780117e+001  1.553898e+002 
4228125000  -3.770619e+001  1.563811e+002 
4231250000  -3.630387e+001  1.516988e+002 
4234375000  -3.646754e+001  1.398234e+002 
4237500000  -3.632078e+001  1.344383e+002 
4240625000  -3.622730e+001  1.221399e+002 
4243750000  -3.742219e+001  1.140756e+002 
4246875000  -3.878304e+001  1.134478e+002 
4250000000  -3.823500e+001  1.139959e+002 
4253125000  -3.811049e+001  1.115101e+002 
4256250000  -3.816879e+001  1.063209e+002 
4259375000  -3.766188e+001  1.006272e+002 
4262500000  -3.819594e+001  9.522370e+001 
4265625000  -3.785039e+001  9.500854e+001 
4268750000  -3.674371e+001  8.676534e+001 
4271875000  -3.672439e+001  7.745669e+001 
4275000000  -3.652547e+001  6.840011e+001 
4278125000  -3.763958e+001  5.769606e+001 
4281250000  -3.896387e+001  5.666450e+001 
4284375000  -3.884164e+001  5.338347e+001 
4287500000  -4.040391e+001  4.967496e+001 
4290625000  -4.039295e+001  5.820809e+001 
4293750000  -3.843356e+001  5.824247e+001 
4296875000  -3.771392e+001  4.647176e+001 
4300000000  -3.908793e+001  3.549251e+001 
4303125000  -3.979360e+001  3.873452e+001 
4306250000  -3.865041e+001  4.108706e+001 
4309375000  -3.768889e+001  3.747436e+001 
4312500000  -3.759698e+001  2.435302e+001 
4315625000  -3.765227e+001  1.558436e+001 
4318750000  -3.868244e+001  1.197073e+001 
4321875000  -3.847926e+001  1.261169e+001 
4325000000  -3.773334e+001  1.137435e+001 
4328125000  -3.714355e+001  2.642375e+000 
4331250000  -3.736564e+001  -8.665423e+000 
4334375000  -3.831347e+001  -1.509162e+001 
4337500000  -3.927709e+001  -1.351246e+001 
4340625000  -3.923171e+001  -1.045357e+001 
4343750000  -3.832541e+001  -1.398036e+001 
4346875000  -3.806085e+001  -2.499130e+001 
4350000000  -3.818557e+001  -3.164239e+001 
4353125000  -3.882737e+001  -3.836769e+001 
4356250000  -4.118250e+001  -3.791505e+001 
4359375000  -3.991882e+001  -2.098300e+001 
4362500000  -3.669086e+001  -2.801955e+001 
4365625000  -3.577486e+001  -4.657108e+001 
4368750000  -3.706924e+001  -5.553521e+001 
4371875000  -3.800255e+001  -5.735246e+001 
4375000000  -3.719225e+001  -5.999000e+001 
4378125000  -3.675087e+001  -6.771661e+001 
4381250000  -3.689384e+001  -7.644897e+001 
4384375000  -3.711426e+001  -8.495204e+001 
4387500000  -3.800872e+001  -8.798647e+001 
4390625000  -3.841819e+001  -8.946809e+001 
4393750000  -3.793338e+001  -9.045179e+001 
4396875000  -3.730134e+001  -9.491816e+001 
4400000000  -3.661181e+001  -1.025232e+002 
4403125000  -3.761353e+001  -1.123407e+002 
4406250000  -3.813755e+001  -1.182249e+002 
4409375000  -3.854992e+001  -1.208984e+002 
4412500000  -3.958261e+001  -1.217697e+002 
4415625000  -3.919084e+001  -1.199828e+002 
