!Agilent Technologies,E8363B,MY43030201,A.06.04.32
!Agilent E8363B: A.06.04.32
!Date: Tuesday, November 11, 2014 21:31:36
!Correction: S21(Response(S21)) 
!S1P File: Measurement: S21:
# Hz S  dB   R 50
3000000000  -4.042822e+001  7.973410e+001 
3003125000  -4.233797e+001  7.167445e+001 
3006250000  -4.219260e+001  7.106648e+001 
3009375000  -4.270337e+001  7.634070e+001 
3012500000  -4.138503e+001  7.023273e+001 
3015625000  -4.124815e+001  6.419858e+001 
3018750000  -4.163984e+001  6.611397e+001 
3021875000  -4.028229e+001  6.527709e+001 
3025000000  -3.892257e+001  6.204167e+001 
3028125000  -3.787276e+001  5.139291e+001 
3031250000  -3.697262e+001  3.856435e+001 
3034375000  -3.669324e+001  2.572613e+001 
3037500000  -3.743999e+001  1.455557e+001 
3040625000  -3.872863e+001  9.782869e+000 
3043750000  -3.897873e+001  2.907101e+000 
3046875000  -3.972187e+001  -2.124989e+000 
3050000000  -4.089331e+001  -7.910613e+000 
3053125000  -4.074809e+001  -2.073734e+000 
3056250000  -4.051247e+001  5.272521e-001 
3059375000  -3.965572e+001  -2.625577e+000 
3062500000  -3.802737e+001  -6.066584e+000 
3065625000  -3.784838e+001  -1.772277e+001 
3068750000  -3.767359e+001  -2.371014e+001 
3071875000  -3.776304e+001  -2.628125e+001 
3075000000  -3.696930e+001  -3.290122e+001 
3078125000  -3.704866e+001  -3.850273e+001 
3081250000  -3.719146e+001  -4.528672e+001 
3084375000  -3.634141e+001  -5.070831e+001 
3087500000  -3.637857e+001  -5.650214e+001 
3090625000  -3.594691e+001  -6.837122e+001 
3093750000  -3.686563e+001  -7.743539e+001 
3096875000  -3.723384e+001  -8.212093e+001 
3100000000  -3.725457e+001  -8.507563e+001 
3103125000  -3.746888e+001  -8.780869e+001 
3106250000  -3.725657e+001  -9.361408e+001 
3109375000  -3.724897e+001  -9.745168e+001 
3112500000  -3.719460e+001  -1.039367e+002 
3115625000  -3.713754e+001  -1.073274e+002 
3118750000  -3.718834e+001  -1.109200e+002 
3121875000  -3.648894e+001  -1.215696e+002 
3125000000  -3.833279e+001  -1.255413e+002 
3128125000  -3.850107e+001  -1.185298e+002 
3131250000  -3.601136e+001  -1.240385e+002 
3134375000  -3.537880e+001  -1.407813e+002 
3137500000  -3.600770e+001  -1.533763e+002 
3140625000  -3.719677e+001  -1.565194e+002 
3143750000  -3.812746e+001  -1.581844e+002 
3146875000  -3.752920e+001  -1.568094e+002 
3150000000  -3.690525e+001  -1.599577e+002 
3153125000  -3.727583e+001  -1.695544e+002 
3156250000  -3.801185e+001  -1.644131e+002 
3159375000  -3.571651e+001  -1.657796e+002 
3162500000  -3.434152e+001  1.787365e+002 
3165625000  -3.546811e+001  1.661257e+002 
3168750000  -3.548236e+001  1.650380e+002 
3171875000  -3.482640e+001  1.573542e+002 
3175000000  -3.544880e+001  1.480995e+002 
3178125000  -3.495679e+001  1.463785e+002 
3181250000  -3.439880e+001  1.382679e+002 
3184375000  -3.419771e+001  1.261229e+002 
3187500000  -3.541136e+001  1.114107e+002 
3190625000  -3.724709e+001  1.062804e+002 
3193750000  -3.760359e+001  1.107059e+002 
3196875000  -3.735766e+001  1.119178e+002 
3200000000  -3.629769e+001  1.076519e+002 
3203125000  -3.597970e+001  9.882478e+001 
3206250000  -3.605717e+001  9.144563e+001 
3209375000  -3.578558e+001  8.334701e+001 
3212500000  -3.631911e+001  7.677813e+001 
3215625000  -3.610036e+001  7.381958e+001 
3218750000  -3.690179e+001  6.267197e+001 
3221875000  -3.727102e+001  5.555236e+001 
3225000000  -3.705528e+001  5.158407e+001 
3228125000  -3.768748e+001  4.501679e+001 
3231250000  -3.820311e+001  4.290067e+001 
3234375000  -3.796124e+001  3.948484e+001 
3237500000  -3.807562e+001  3.466893e+001 
3240625000  -3.758477e+001  3.011986e+001 
3243750000  -3.764805e+001  1.987948e+001 
3246875000  -3.811961e+001  1.286574e+001 
3250000000  -3.880042e+001  9.498155e+000 
3253125000  -3.907605e+001  5.268734e+000 
3256250000  -3.861128e+001  -2.527256e+000 
3259375000  -3.896189e+001  -1.297562e+001 
3262500000  -4.063111e+001  -1.676191e+001 
3265625000  -4.123975e+001  -1.384094e+001 
3268750000  -4.112770e+001  -1.308849e+001 
3271875000  -4.042133e+001  -1.642929e+001 
3275000000  -4.032071e+001  -2.557348e+001 
3278125000  -4.079222e+001  -3.070744e+001 
3281250000  -4.120448e+001  -2.988857e+001 
3284375000  -4.032978e+001  -3.723939e+001 
3287500000  -4.093436e+001  -4.099604e+001 
3290625000  -4.124976e+001  -5.018275e+001 
3293750000  -4.116949e+001  -5.350474e+001 
3296875000  -4.238258e+001  -5.590972e+001 
3300000000  -4.195555e+001  -5.524437e+001 
3303125000  -4.091463e+001  -6.249064e+001 
3306250000  -4.068340e+001  -6.948660e+001 
3309375000  -4.070538e+001  -7.573013e+001 
3312500000  -4.087097e+001  -8.952247e+001 
3315625000  -4.239494e+001  -9.600001e+001 
3318750000  -4.355305e+001  -1.026722e+002 
3321875000  -4.466929e+001  -9.721664e+001 
3325000000  -4.484054e+001  -8.991192e+001 
3328125000  -4.381379e+001  -9.085300e+001 
3331250000  -4.228294e+001  -8.869769e+001 
3334375000  -3.959356e+001  -1.016147e+002 
3337500000  -4.051443e+001  -1.240668e+002 
3340625000  -4.214314e+001  -1.326589e+002 
3343750000  -4.395238e+001  -1.322379e+002 
3346875000  -4.338375e+001  -1.326931e+002 
3350000000  -4.297501e+001  -1.352972e+002 
3353125000  -4.296188e+001  -1.437008e+002 
3356250000  -4.258920e+001  -1.534264e+002 
3359375000  -4.316643e+001  -1.622365e+002 
3362500000  -4.438478e+001  -1.678969e+002 
3365625000  -4.479468e+001  -1.724190e+002 
3368750000  -4.552222e+001  -1.761161e+002 
3371875000  -4.602792e+001  1.796605e+002 
3375000000  -4.742870e+001  1.784898e+002 
3378125000  -4.808247e+001  1.775885e+002 
3381250000  -4.955516e+001  -1.737969e+002 
3384375000  -4.655372e+001  -1.611129e+002 
3387500000  -4.401929e+001  1.781779e+002 
3390625000  -4.605994e+001  1.597626e+002 
3393750000  -4.736322e+001  1.592150e+002 
3396875000  -4.615341e+001  1.615830e+002 
3400000000  -4.630896e+001  1.467402e+002 
3403125000  -4.661262e+001  1.430597e+002 
3406250000  -4.785893e+001  1.373043e+002 
3409375000  -4.846406e+001  1.293995e+002 
3412500000  -4.872443e+001  1.229396e+002 
3415625000  -5.009438e+001  1.226059e+002 
3418750000  -5.056718e+001  1.278463e+002 
3421875000  -5.114660e+001  1.299428e+002 
3425000000  -4.995360e+001  1.299483e+002 
3428125000  -4.996594e+001  1.255808e+002 
3431250000  -5.075006e+001  1.123211e+002 
3434375000  -5.133598e+001  1.083963e+002 
3437500000  -5.210061e+001  1.142248e+002 
3440625000  -5.201034e+001  1.112241e+002 
3443750000  -5.052163e+001  1.170505e+002 
3446875000  -5.119836e+001  1.077342e+002 
3450000000  -5.091547e+001  9.693560e+001 
3453125000  -5.124378e+001  8.945934e+001 
3456250000  -5.282013e+001  8.908485e+001 
3459375000  -5.296754e+001  8.926543e+001 
3462500000  -5.239022e+001  9.539878e+001 
3465625000  -5.152837e+001  8.611296e+001 
3468750000  -5.209629e+001  8.619078e+001 
3471875000  -5.137485e+001  8.276424e+001 
3475000000  -5.106528e+001  8.052534e+001 
3478125000  -5.101493e+001  6.913213e+001 
3481250000  -5.209541e+001  7.056753e+001 
3484375000  -5.206946e+001  7.533754e+001 
3487500000  -5.170017e+001  6.831351e+001 
3490625000  -5.064788e+001  5.986026e+001 
3493750000  -5.155605e+001  5.418325e+001 
3496875000  -5.168090e+001  5.511008e+001 
3500000000  -5.241817e+001  5.496621e+001 
3503125000  -5.084421e+001  5.119878e+001 
3506250000  -4.981648e+001  4.562127e+001 
3509375000  -5.035774e+001  3.645028e+001 
3512500000  -5.063945e+001  1.876194e+001 
3515625000  -5.135635e+001  1.444183e+001 
3518750000  -5.218251e+001  1.968113e+001 
3521875000  -5.254252e+001  1.431855e+001 
3525000000  -5.312910e+001  7.652657e+000 
3528125000  -5.372158e+001  7.310517e+000 
3531250000  -5.318973e+001  1.051362e+001 
3534375000  -5.309820e+001  -8.438913e+000 
3537500000  -5.329119e+001  -1.823191e+001 
3540625000  -5.527432e+001  -1.886319e+001 
3543750000  -5.556976e+001  -1.366505e+001 
3546875000  -5.543921e+001  -1.272478e+001 
3550000000  -5.484254e+001  -7.486694e+000 
3553125000  -5.429097e+001  -1.727019e+001 
3556250000  -5.585825e+001  -2.339384e+001 
3559375000  -5.715390e+001  -2.487789e+001 
3562500000  -5.600383e+001  -3.926326e+001 
3565625000  -5.789265e+001  -3.584945e+001 
3568750000  -5.810783e+001  -3.044436e+001 
3571875000  -5.838087e+001  -3.209131e+001 
3575000000  -5.835555e+001  -3.645955e+001 
3578125000  -5.961786e+001  -2.293084e+001 
3581250000  -5.855298e+001  -2.995398e+001 
3584375000  -5.783945e+001  -3.182034e+001 
3587500000  -5.671125e+001  -3.689134e+001 
3590625000  -5.945398e+001  -4.635772e+001 
3593750000  -5.958093e+001  -3.379611e+001 
3596875000  -5.778629e+001  -3.521537e+001 
3600000000  -5.656140e+001  -2.949855e+001 
3603125000  -5.802802e+001  -5.220427e+001 
3606250000  -5.845794e+001  -4.047962e+001 
3609375000  -5.669515e+001  -4.455653e+001 
3612500000  -5.648280e+001  -4.902555e+001 
3615625000  -5.944115e+001  -4.722253e+001 
3618750000  -6.035840e+001  -3.934045e+001 
3621875000  -5.711734e+001  -4.209541e+001 
3625000000  -5.748674e+001  -3.674219e+001 
3628125000  -5.660091e+001  -3.128503e+001 
3631250000  -5.686959e+001  -3.616901e+001 
3634375000  -5.684955e+001  -4.084566e+001 
3637500000  -5.495689e+001  -3.984073e+001 
3640625000  -5.496137e+001  -3.263904e+001 
3643750000  -5.309024e+001  -3.649341e+001 
3646875000  -5.376731e+001  -5.564984e+001 
3650000000  -5.309189e+001  -4.921035e+001 
3653125000  -5.195155e+001  -5.128750e+001 
3656250000  -5.232881e+001  -6.079815e+001 
3659375000  -5.097827e+001  -5.871350e+001 
3662500000  -5.058149e+001  -6.379881e+001 
3665625000  -4.977566e+001  -6.231253e+001 
3668750000  -4.787770e+001  -6.653629e+001 
3671875000  -4.732029e+001  -7.748518e+001 
3675000000  -4.752534e+001  -8.323762e+001 
3678125000  -4.716504e+001  -8.976960e+001 
3681250000  -4.664563e+001  -9.536300e+001 
3684375000  -4.679391e+001  -1.001114e+002 
3687500000  -4.692436e+001  -1.049789e+002 
3690625000  -4.648882e+001  -1.076483e+002 
3693750000  -4.670642e+001  -1.106667e+002 
3696875000  -4.644983e+001  -1.094161e+002 
3700000000  -4.547207e+001  -1.175437e+002 
3703125000  -4.509995e+001  -1.239501e+002 
3706250000  -4.610356e+001  -1.238820e+002 
3709375000  -4.460034e+001  -1.249838e+002 
3712500000  -4.344047e+001  -1.312137e+002 
3715625000  -4.201141e+001  -1.377964e+002 
3718750000  -4.148290e+001  -1.454377e+002 
3721875000  -4.148067e+001  -1.562479e+002 
3725000000  -4.164524e+001  -1.611365e+002 
3728125000  -4.149049e+001  -1.646142e+002 
3731250000  -4.067728e+001  -1.692160e+002 
3734375000  -4.016840e+001  -1.787592e+002 
3737500000  -4.079885e+001  1.729937e+002 
3740625000  -4.098027e+001  1.668877e+002 
3743750000  -4.056555e+001  1.610552e+002 
3746875000  -4.060505e+001  1.526060e+002 
3750000000  -4.080974e+001  1.471915e+002 
3753125000  -4.061673e+001  1.456721e+002 
3756250000  -4.087249e+001  1.430952e+002 
3759375000  -4.050494e+001  1.368004e+002 
3762500000  -4.013523e+001  1.313399e+002 
3765625000  -4.072470e+001  1.248264e+002 
3768750000  -4.024955e+001  1.263615e+002 
3771875000  -3.847606e+001  1.195700e+002 
3775000000  -3.842189e+001  1.070888e+002 
3778125000  -3.916521e+001  1.012112e+002 
3781250000  -3.916555e+001  9.648732e+001 
3784375000  -3.874819e+001  9.101654e+001 
3787500000  -3.842049e+001  8.506570e+001 
3790625000  -3.930227e+001  7.550301e+001 
3793750000  -3.909060e+001  7.227820e+001 
3796875000  -3.812471e+001  6.872481e+001 
3800000000  -3.644259e+001  6.411516e+001 
3803125000  -3.801600e+001  4.984116e+001 
3806250000  -3.888818e+001  4.642300e+001 
3809375000  -3.840287e+001  4.172292e+001 
3812500000  -3.847656e+001  3.179305e+001 
3815625000  -3.925696e+001  2.400743e+001 
3818750000  -4.064957e+001  2.392420e+001 
3821875000  -4.037288e+001  3.177548e+001 
3825000000  -3.817130e+001  3.215252e+001 
3828125000  -3.715869e+001  1.129496e+001 
3831250000  -3.795934e+001  -2.007893e+000 
3834375000  -4.031414e+001  -3.842242e+000 
3837500000  -4.043201e+001  1.613577e+000 
3840625000  -3.896265e+001  -2.019676e+000 
3843750000  -3.845437e+001  -1.812886e+001 
3846875000  -3.978681e+001  -2.329826e+001 
3850000000  -4.064396e+001  -1.506227e+001 
3853125000  -4.007493e+001  -1.840164e+001 
3856250000  -3.923199e+001  -2.555421e+001 
3859375000  -3.863329e+001  -3.195621e+001 
3862500000  -3.859591e+001  -4.287480e+001 
3865625000  -3.906183e+001  -4.801205e+001 
3868750000  -3.867092e+001  -4.868246e+001 
3871875000  -3.800022e+001  -5.559981e+001 
3875000000  -3.823342e+001  -6.524623e+001 
3878125000  -3.959235e+001  -7.061637e+001 
3881250000  -3.918718e+001  -6.741785e+001 
3884375000  -3.877400e+001  -7.541687e+001 
3887500000  -3.909712e+001  -8.161324e+001 
3890625000  -3.971936e+001  -8.726832e+001 
3893750000  -3.992112e+001  -8.837386e+001 
3896875000  -4.025932e+001  -9.035534e+001 
3900000000  -3.998391e+001  -9.575426e+001 
3903125000  -3.929706e+001  -9.834340e+001 
3906250000  -3.897916e+001  -1.009943e+002 
3909375000  -3.817607e+001  -1.116913e+002 
3912500000  -3.913345e+001  -1.216715e+002 
3915625000  -4.066214e+001  -1.193833e+002 
3918750000  -3.999429e+001  -1.214277e+002 
3921875000  -3.936187e+001  -1.264240e+002 
3925000000  -3.871898e+001  -1.311973e+002 
3928125000  -3.831462e+001  -1.408011e+002 
3931250000  -3.922131e+001  -1.486165e+002 
3934375000  -3.968739e+001  -1.494066e+002 
3937500000  -4.018637e+001  -1.527833e+002 
3940625000  -4.012611e+001  -1.548022e+002 
3943750000  -3.876532e+001  -1.556133e+002 
3946875000  -3.832990e+001  -1.659865e+002 
3950000000  -3.977980e+001  -1.746134e+002 
3953125000  -4.041356e+001  -1.743980e+002 
3956250000  -3.895858e+001  -1.741112e+002 
3959375000  -3.772300e+001  -1.794295e+002 
3962500000  -3.758924e+001  1.710013e+002 
3965625000  -3.787850e+001  1.609275e+002 
3968750000  -3.879736e+001  1.554806e+002 
3971875000  -3.867301e+001  1.495090e+002 
3975000000  -3.819794e+001  1.439450e+002 
3978125000  -3.846479e+001  1.410318e+002 
3981250000  -3.855057e+001  1.335961e+002 
3984375000  -3.907067e+001  1.269969e+002 
3987500000  -3.965134e+001  1.227210e+002 
3990625000  -3.985167e+001  1.205970e+002 
3993750000  -3.991634e+001  1.146580e+002 
3996875000  -4.003043e+001  1.133169e+002 
4000000000  -4.069405e+001  1.072903e+002 
4003125000  -4.104284e+001  1.099227e+002 
4006250000  -3.915508e+001  1.066592e+002 
4009375000  -3.863866e+001  9.331195e+001 
4012500000  -4.005853e+001  8.422287e+001 
4015625000  -4.161310e+001  8.430431e+001 
4018750000  -4.139723e+001  8.518565e+001 
4021875000  -4.075723e+001  8.274722e+001 
4025000000  -4.067173e+001  7.552424e+001 
4028125000  -4.043391e+001  6.903063e+001 
4031250000  -4.106662e+001  6.545523e+001 
4034375000  -4.127564e+001  6.391278e+001 
4037500000  -4.104977e+001  6.475883e+001 
4040625000  -4.104203e+001  5.870838e+001 
4043750000  -4.123323e+001  5.675377e+001 
4046875000  -4.077934e+001  5.320049e+001 
4050000000  -4.086235e+001  4.636733e+001 
4053125000  -4.140705e+001  4.662696e+001 
4056250000  -4.145113e+001  4.831469e+001 
4059375000  -3.913165e+001  4.825240e+001 
4062500000  -3.891666e+001  3.943283e+001 
4065625000  -3.883425e+001  3.228516e+001 
4068750000  -3.831889e+001  2.685446e+001 
4071875000  -3.788180e+001  1.511892e+001 
4075000000  -3.832663e+001  9.766667e+000 
4078125000  -3.887553e+001  5.215161e+000 
4081250000  -3.838408e+001  3.619512e-001 
4084375000  -3.810221e+001  -8.538912e+000 
4087500000  -3.865617e+001  -1.601282e+001 
4090625000  -3.911737e+001  -1.771118e+001 
4093750000  -3.870435e+001  -1.894226e+001 
4096875000  -3.881511e+001  -2.932761e+001 
4100000000  -3.982206e+001  -3.675927e+001 
4103125000  -4.079551e+001  -3.469777e+001 
4106250000  -4.016610e+001  -3.132670e+001 
4109375000  -3.925950e+001  -3.549503e+001 
4112500000  -3.879579e+001  -4.498388e+001 
4115625000  -3.927814e+001  -5.185517e+001 
4118750000  -3.899813e+001  -5.622226e+001 
4121875000  -3.911798e+001  -6.307052e+001 
4125000000  -3.985434e+001  -6.968608e+001 
4128125000  -4.091395e+001  -6.531683e+001 
4131250000  -3.991728e+001  -6.145520e+001 
4134375000  -3.763914e+001  -7.215063e+001 
4137500000  -3.806390e+001  -9.273319e+001 
4140625000  -4.059581e+001  -9.907904e+001 
4143750000  -4.171636e+001  -9.294395e+001 
4146875000  -4.059187e+001  -8.768095e+001 
4150000000  -3.983155e+001  -9.728019e+001 
4153125000  -4.005285e+001  -1.050527e+002 
4156250000  -4.129990e+001  -1.090358e+002 
4159375000  -4.101521e+001  -1.043790e+002 
4162500000  -4.001056e+001  -1.024325e+002 
4165625000  -3.845385e+001  -1.073574e+002 
4168750000  -3.846025e+001  -1.191079e+002 
4171875000  -3.829919e+001  -1.293144e+002 
4175000000  -3.968234e+001  -1.349602e+002 
4178125000  -3.981267e+001  -1.329238e+002 
4181250000  -3.939809e+001  -1.404713e+002 
4184375000  -3.940588e+001  -1.458958e+002 
4187500000  -3.935998e+001  -1.500415e+002 
4190625000  -3.920135e+001  -1.576670e+002 
4193750000  -4.065477e+001  -1.622843e+002 
4196875000  -4.148873e+001  -1.644123e+002 
4200000000  -4.244035e+001  -1.562834e+002 
4203125000  -4.101162e+001  -1.436084e+002 
4206250000  -3.749990e+001  -1.538571e+002 
4209375000  -3.738575e+001  -1.774828e+002 
4212500000  -3.963325e+001  1.746787e+002 
4215625000  -3.999139e+001  -1.758275e+002 
4218750000  -3.830211e+001  -1.747944e+002 
4221875000  -3.681148e+001  1.736917e+002 
4225000000  -3.778066e+001  1.627094e+002 
4228125000  -3.791990e+001  1.640447e+002 
4231250000  -3.616429e+001  1.560215e+002 
4234375000  -3.663595e+001  1.447878e+002 
4237500000  -3.605938e+001  1.398858e+002 
4240625000  -3.647968e+001  1.275934e+002 
4243750000  -3.746809e+001  1.197970e+002 
4246875000  -3.812997e+001  1.195781e+002 
4250000000  -3.850259e+001  1.198318e+002 
4253125000  -3.822239e+001  1.168540e+002 
4256250000  -3.824452e+001  1.105166e+002 
4259375000  -3.781195e+001  1.065881e+002 
4262500000  -3.792720e+001  1.014901e+002 
4265625000  -3.785685e+001  1.007266e+002 
4268750000  -3.699377e+001  9.362783e+001 
4271875000  -3.684750e+001  8.251772e+001 
4275000000  -3.678910e+001  7.612601e+001 
4278125000  -3.762331e+001  6.324471e+001 
4281250000  -3.905234e+001  6.320412e+001 
4284375000  -3.877538e+001  5.850243e+001 
4287500000  -4.034446e+001  5.556103e+001 
4290625000  -4.064819e+001  6.587789e+001 
4293750000  -3.888943e+001  6.518066e+001 
4296875000  -3.771796e+001  5.240084e+001 
4300000000  -3.897454e+001  4.111335e+001 
4303125000  -3.971303e+001  4.350828e+001 
4306250000  -3.884594e+001  4.744891e+001 
4309375000  -3.760107e+001  4.139926e+001 
4312500000  -3.769006e+001  2.990823e+001 
4315625000  -3.807855e+001  2.372438e+001 
4318750000  -3.866048e+001  1.912186e+001 
4321875000  -3.878125e+001  1.807970e+001 
4325000000  -3.805643e+001  1.681757e+001 
4328125000  -3.747651e+001  7.485653e+000 
4331250000  -3.764632e+001  -2.610005e+000 
4334375000  -3.838623e+001  -9.675230e+000 
4337500000  -3.943776e+001  -9.982700e+000 
4340625000  -3.973325e+001  -3.878594e+000 
4343750000  -3.827429e+001  -8.637044e+000 
4346875000  -3.861847e+001  -1.689234e+001 
4350000000  -3.854317e+001  -2.671001e+001 
4353125000  -3.905231e+001  -3.164678e+001 
4356250000  -4.099921e+001  -2.994232e+001 
4359375000  -4.011380e+001  -1.509692e+001 
4362500000  -3.684011e+001  -2.272821e+001 
4365625000  -3.577452e+001  -4.230619e+001 
4368750000  -3.728685e+001  -5.036800e+001 
4371875000  -3.785717e+001  -5.025992e+001 
4375000000  -3.738934e+001  -5.568795e+001 
4378125000  -3.696288e+001  -6.272009e+001 
4381250000  -3.729103e+001  -7.019336e+001 
4384375000  -3.728284e+001  -7.691521e+001 
4387500000  -3.823814e+001  -8.250038e+001 
4390625000  -3.867686e+001  -8.312521e+001 
4393750000  -3.818991e+001  -8.257815e+001 
4396875000  -3.744348e+001  -8.742642e+001 
4400000000  -3.706313e+001  -9.726339e+001 
4403125000  -3.800298e+001  -1.073556e+002 
4406250000  -3.848152e+001  -1.100369e+002 
4409375000  -3.861806e+001  -1.143857e+002 
4412500000  -3.979781e+001  -1.169872e+002 
4415625000  -3.954790e+001  -1.113063e+002 
