!Agilent Technologies,E8363B,MY43030201,A.06.04.32
!Agilent E8363B: A.06.04.32
!Date: Tuesday, November 11, 2014 21:32:29
!Correction: S21(Response(S21)) 
!S1P File: Measurement: S21:
# Hz S  dB   R 50
3000000000  -4.050867e+001  7.737583e+001 
3003125000  -4.236370e+001  6.882958e+001 
3006250000  -4.204536e+001  6.752350e+001 
3009375000  -4.268182e+001  7.378144e+001 
3012500000  -4.156932e+001  6.862919e+001 
3015625000  -4.141870e+001  6.232344e+001 
3018750000  -4.177744e+001  6.348504e+001 
3021875000  -4.027193e+001  6.431693e+001 
3025000000  -3.874422e+001  5.941844e+001 
3028125000  -3.803420e+001  4.912975e+001 
3031250000  -3.687212e+001  3.770798e+001 
3034375000  -3.665800e+001  2.299116e+001 
3037500000  -3.756733e+001  1.186650e+001 
3040625000  -3.882975e+001  7.430688e+000 
3043750000  -3.919848e+001  1.753628e+000 
3046875000  -3.981133e+001  -3.657512e+000 
3050000000  -4.083401e+001  -1.105672e+001 
3053125000  -4.048805e+001  -6.725903e+000 
3056250000  -4.056500e+001  -1.381665e+000 
3059375000  -3.970842e+001  -4.030301e+000 
3062500000  -3.807182e+001  -8.864617e+000 
3065625000  -3.780456e+001  -1.940758e+001 
3068750000  -3.753242e+001  -2.598693e+001 
3071875000  -3.764984e+001  -2.884407e+001 
3075000000  -3.701917e+001  -3.531343e+001 
3078125000  -3.717201e+001  -4.120844e+001 
3081250000  -3.717390e+001  -4.699467e+001 
3084375000  -3.628442e+001  -5.254594e+001 
3087500000  -3.641103e+001  -5.851881e+001 
3090625000  -3.592341e+001  -7.098184e+001 
3093750000  -3.697955e+001  -7.870242e+001 
3096875000  -3.721934e+001  -8.424562e+001 
3100000000  -3.718203e+001  -8.825058e+001 
3103125000  -3.762711e+001  -9.115125e+001 
3106250000  -3.716371e+001  -9.631672e+001 
3109375000  -3.727628e+001  -9.992809e+001 
3112500000  -3.728170e+001  -1.065765e+002 
3115625000  -3.714624e+001  -1.099666e+002 
3118750000  -3.725746e+001  -1.143476e+002 
3121875000  -3.650663e+001  -1.246481e+002 
3125000000  -3.850109e+001  -1.273573e+002 
3128125000  -3.855828e+001  -1.194592e+002 
3131250000  -3.597283e+001  -1.268120e+002 
3134375000  -3.532008e+001  -1.442126e+002 
3137500000  -3.605571e+001  -1.558445e+002 
3140625000  -3.726258e+001  -1.585024e+002 
3143750000  -3.819261e+001  -1.615520e+002 
3146875000  -3.759731e+001  -1.586426e+002 
3150000000  -3.679656e+001  -1.637544e+002 
3153125000  -3.735894e+001  -1.708620e+002 
3156250000  -3.795879e+001  -1.667612e+002 
3159375000  -3.568693e+001  -1.682776e+002 
3162500000  -3.421015e+001  1.767437e+002 
3165625000  -3.546601e+001  1.629688e+002 
3168750000  -3.549216e+001  1.622937e+002 
3171875000  -3.495475e+001  1.544630e+002 
3175000000  -3.550459e+001  1.457595e+002 
3178125000  -3.499765e+001  1.432947e+002 
3181250000  -3.440434e+001  1.352417e+002 
3184375000  -3.421491e+001  1.245414e+002 
3187500000  -3.548314e+001  1.085288e+002 
3190625000  -3.727959e+001  1.032801e+002 
3193750000  -3.745187e+001  1.098528e+002 
3196875000  -3.740409e+001  1.092690e+002 
3200000000  -3.624619e+001  1.040633e+002 
3203125000  -3.586703e+001  9.615878e+001 
3206250000  -3.600570e+001  8.837223e+001 
3209375000  -3.580849e+001  8.140147e+001 
3212500000  -3.639322e+001  7.380364e+001 
3215625000  -3.604818e+001  7.101034e+001 
3218750000  -3.679350e+001  6.043571e+001 
3221875000  -3.725336e+001  5.260151e+001 
3225000000  -3.699859e+001  4.901090e+001 
3228125000  -3.770376e+001  4.245934e+001 
3231250000  -3.835566e+001  4.080742e+001 
3234375000  -3.788684e+001  3.825948e+001 
3237500000  -3.802789e+001  3.280816e+001 
3240625000  -3.748183e+001  2.731801e+001 
3243750000  -3.759557e+001  1.707508e+001 
3246875000  -3.825216e+001  1.085706e+001 
3250000000  -3.868801e+001  6.597631e+000 
3253125000  -3.908727e+001  4.232101e+000 
3256250000  -3.863314e+001  -4.260763e+000 
3259375000  -3.927686e+001  -1.551519e+001 
3262500000  -4.053963e+001  -2.028530e+001 
3265625000  -4.114706e+001  -1.518372e+001 
3268750000  -4.121536e+001  -1.555798e+001 
3271875000  -4.088040e+001  -1.863628e+001 
3275000000  -4.013389e+001  -2.749854e+001 
3278125000  -4.080573e+001  -3.336880e+001 
3281250000  -4.104465e+001  -3.363103e+001 
3284375000  -4.058216e+001  -3.980258e+001 
3287500000  -4.098373e+001  -4.326013e+001 
3290625000  -4.100071e+001  -5.092239e+001 
3293750000  -4.105164e+001  -5.766221e+001 
3296875000  -4.235774e+001  -5.884554e+001 
3300000000  -4.177713e+001  -5.833978e+001 
3303125000  -4.082883e+001  -6.544914e+001 
3306250000  -4.057962e+001  -7.200684e+001 
3309375000  -4.062034e+001  -8.133185e+001 
3312500000  -4.092494e+001  -9.173068e+001 
3315625000  -4.226849e+001  -9.971542e+001 
3318750000  -4.386758e+001  -1.022671e+002 
3321875000  -4.519883e+001  -1.003143e+002 
3325000000  -4.479254e+001  -9.112701e+001 
3328125000  -4.380681e+001  -9.364368e+001 
3331250000  -4.245766e+001  -9.193484e+001 
3334375000  -3.985406e+001  -1.068252e+002 
3337500000  -4.033258e+001  -1.266670e+002 
3340625000  -4.228813e+001  -1.364962e+002 
3343750000  -4.390570e+001  -1.351148e+002 
3346875000  -4.320618e+001  -1.345377e+002 
3350000000  -4.291693e+001  -1.403420e+002 
3353125000  -4.287814e+001  -1.477535e+002 
3356250000  -4.267934e+001  -1.550522e+002 
3359375000  -4.356915e+001  -1.648606e+002 
3362500000  -4.417185e+001  -1.719097e+002 
3365625000  -4.474542e+001  -1.718230e+002 
3368750000  -4.528721e+001  -1.780184e+002 
3371875000  -4.562041e+001  1.761675e+002 
3375000000  -4.780547e+001  1.728425e+002 
3378125000  -4.832307e+001  1.687379e+002 
3381250000  -4.990623e+001  -1.780492e+002 
3384375000  -4.642071e+001  -1.604594e+002 
3387500000  -4.369015e+001  1.789321e+002 
3390625000  -4.598777e+001  1.578807e+002 
3393750000  -4.744582e+001  1.557074e+002 
3396875000  -4.583030e+001  1.554419e+002 
3400000000  -4.608331e+001  1.460265e+002 
3403125000  -4.694231e+001  1.369834e+002 
3406250000  -4.745350e+001  1.351009e+002 
3409375000  -4.788795e+001  1.305989e+002 
3412500000  -4.906185e+001  1.202374e+002 
3415625000  -4.975736e+001  1.177442e+002 
3418750000  -4.975529e+001  1.230195e+002 
3421875000  -5.050332e+001  1.239414e+002 
3425000000  -4.998302e+001  1.246095e+002 
3428125000  -4.986424e+001  1.211213e+002 
3431250000  -5.044924e+001  1.101756e+002 
3434375000  -5.067375e+001  1.079555e+002 
3437500000  -5.140951e+001  1.011815e+002 
3440625000  -5.210048e+001  1.137717e+002 
3443750000  -5.084027e+001  1.104358e+002 
3446875000  -5.034745e+001  1.063831e+002 
3450000000  -5.056768e+001  9.627286e+001 
3453125000  -5.040662e+001  8.993005e+001 
3456250000  -5.190208e+001  8.925269e+001 
3459375000  -5.294286e+001  8.490110e+001 
3462500000  -5.263563e+001  9.152608e+001 
3465625000  -5.148785e+001  8.618575e+001 
3468750000  -5.218033e+001  8.702767e+001 
3471875000  -5.248391e+001  8.159441e+001 
3475000000  -5.123769e+001  7.876590e+001 
3478125000  -5.144147e+001  6.949335e+001 
3481250000  -5.271463e+001  7.012804e+001 
3484375000  -5.206991e+001  7.139112e+001 
3487500000  -5.198298e+001  6.720283e+001 
3490625000  -5.046842e+001  5.549960e+001 
3493750000  -5.179754e+001  5.220973e+001 
3496875000  -5.171545e+001  5.540992e+001 
3500000000  -5.204812e+001  5.230200e+001 
3503125000  -5.146018e+001  4.787517e+001 
3506250000  -5.026240e+001  4.352923e+001 
3509375000  -4.942790e+001  3.467005e+001 
3512500000  -4.996846e+001  1.766671e+001 
3515625000  -5.135378e+001  1.407255e+001 
3518750000  -5.226633e+001  1.748942e+001 
3521875000  -5.278930e+001  6.235867e+000 
3525000000  -5.365035e+001  5.587774e+000 
3528125000  -5.326435e+001  5.531487e+000 
3531250000  -5.196671e+001  1.707818e+000 
3534375000  -5.234582e+001  -1.144378e+001 
3537500000  -5.364289e+001  -1.861264e+001 
3540625000  -5.631441e+001  -1.673547e+001 
3543750000  -5.626183e+001  -1.708163e+001 
3546875000  -5.553719e+001  1.392328e+000 
3550000000  -5.354294e+001  -8.934725e+000 
3553125000  -5.336168e+001  -3.181664e+001 
3556250000  -5.533558e+001  -3.057712e+001 
3559375000  -5.675643e+001  -3.148472e+001 
3562500000  -5.629110e+001  -4.108667e+001 
3565625000  -5.724233e+001  -4.706098e+001 
3568750000  -5.800980e+001  -3.424382e+001 
3571875000  -5.912814e+001  -3.515738e+001 
3575000000  -5.747255e+001  -3.237410e+001 
3578125000  -5.905704e+001  -4.572859e+001 
3581250000  -5.901756e+001  -4.089635e+001 
3584375000  -5.755259e+001  -2.502055e+001 
3587500000  -5.667348e+001  -3.915631e+001 
3590625000  -5.804585e+001  -5.149025e+001 
3593750000  -5.795284e+001  -5.037974e+001 
3596875000  -5.661932e+001  -3.762583e+001 
3600000000  -5.801818e+001  -3.415067e+001 
3603125000  -5.808399e+001  -5.078258e+001 
3606250000  -5.751587e+001  -4.691468e+001 
3609375000  -5.884448e+001  -4.255708e+001 
3612500000  -5.809617e+001  -4.648751e+001 
3615625000  -5.887776e+001  -4.677844e+001 
3618750000  -5.915374e+001  -4.437681e+001 
3621875000  -5.805882e+001  -3.910654e+001 
3625000000  -5.718874e+001  -3.665584e+001 
3628125000  -5.545929e+001  -3.368466e+001 
3631250000  -5.613736e+001  -4.653991e+001 
3634375000  -5.827112e+001  -3.788599e+001 
3637500000  -5.596718e+001  -3.337211e+001 
3640625000  -5.393834e+001  -3.155147e+001 
3643750000  -5.283376e+001  -4.244112e+001 
3646875000  -5.325998e+001  -5.331408e+001 
3650000000  -5.290679e+001  -6.086737e+001 
3653125000  -5.190400e+001  -5.219014e+001 
3656250000  -5.208604e+001  -6.382108e+001 
3659375000  -5.147742e+001  -6.163956e+001 
3662500000  -5.114267e+001  -6.732012e+001 
3665625000  -5.017094e+001  -6.658624e+001 
3668750000  -4.769558e+001  -6.975867e+001 
3671875000  -4.726836e+001  -7.967023e+001 
3675000000  -4.727913e+001  -8.750074e+001 
3678125000  -4.717495e+001  -9.051098e+001 
3681250000  -4.634631e+001  -9.885616e+001 
3684375000  -4.680334e+001  -9.771415e+001 
3687500000  -4.615738e+001  -1.071315e+002 
3690625000  -4.605840e+001  -1.133301e+002 
3693750000  -4.699443e+001  -1.133582e+002 
3696875000  -4.620817e+001  -1.147220e+002 
3700000000  -4.474562e+001  -1.231942e+002 
3703125000  -4.489779e+001  -1.287976e+002 
3706250000  -4.569773e+001  -1.262880e+002 
3709375000  -4.481442e+001  -1.286318e+002 
3712500000  -4.328334e+001  -1.339917e+002 
3715625000  -4.176909e+001  -1.421861e+002 
3718750000  -4.159394e+001  -1.482115e+002 
3721875000  -4.113379e+001  -1.603887e+002 
3725000000  -4.183471e+001  -1.656017e+002 
3728125000  -4.157481e+001  -1.678643e+002 
3731250000  -4.064513e+001  -1.731785e+002 
3734375000  -4.010353e+001  1.779349e+002 
3737500000  -4.101609e+001  1.696239e+002 
3740625000  -4.131531e+001  1.633938e+002 
3743750000  -4.057723e+001  1.582924e+002 
3746875000  -4.080178e+001  1.504761e+002 
3750000000  -4.098136e+001  1.450195e+002 
3753125000  -4.076592e+001  1.417676e+002 
3756250000  -4.067827e+001  1.393926e+002 
3759375000  -4.047988e+001  1.339155e+002 
3762500000  -4.022736e+001  1.283648e+002 
3765625000  -4.060156e+001  1.223592e+002 
3768750000  -4.012427e+001  1.229541e+002 
3771875000  -3.849535e+001  1.147360e+002 
3775000000  -3.838707e+001  1.041697e+002 
3778125000  -3.905464e+001  9.822601e+001 
3781250000  -3.894114e+001  9.383313e+001 
3784375000  -3.888484e+001  8.630591e+001 
3787500000  -3.877180e+001  8.185461e+001 
3790625000  -3.910525e+001  7.339262e+001 
3793750000  -3.910068e+001  7.053956e+001 
3796875000  -3.816634e+001  6.558970e+001 
3800000000  -3.654988e+001  6.062888e+001 
3803125000  -3.819910e+001  4.682319e+001 
3806250000  -3.868583e+001  4.258242e+001 
3809375000  -3.855542e+001  3.962931e+001 
3812500000  -3.851904e+001  2.865085e+001 
3815625000  -3.954617e+001  2.059719e+001 
3818750000  -4.087823e+001  2.133230e+001 
3821875000  -4.024272e+001  2.997089e+001 
3825000000  -3.820048e+001  2.801558e+001 
3828125000  -3.696167e+001  7.700721e+000 
3831250000  -3.811856e+001  -5.868346e+000 
3834375000  -4.043616e+001  -5.788424e+000 
3837500000  -4.043671e+001  -2.105434e+000 
3840625000  -3.889040e+001  -5.164205e+000 
3843750000  -3.825599e+001  -2.104554e+001 
3846875000  -3.996064e+001  -2.828781e+001 
3850000000  -4.059162e+001  -1.930999e+001 
3853125000  -3.996866e+001  -2.036872e+001 
3856250000  -3.962158e+001  -2.752682e+001 
3859375000  -3.860016e+001  -3.625293e+001 
3862500000  -3.854533e+001  -4.458826e+001 
3865625000  -3.889206e+001  -5.103393e+001 
3868750000  -3.864163e+001  -5.138995e+001 
3871875000  -3.796416e+001  -5.915671e+001 
3875000000  -3.865004e+001  -6.900140e+001 
3878125000  -3.952545e+001  -7.080511e+001 
3881250000  -3.934411e+001  -7.288146e+001 
3884375000  -3.883176e+001  -7.941813e+001 
3887500000  -3.910144e+001  -8.518169e+001 
3890625000  -3.959157e+001  -8.946358e+001 
3893750000  -3.987039e+001  -9.150911e+001 
3896875000  -4.020550e+001  -9.375540e+001 
3900000000  -3.993383e+001  -9.974397e+001 
3903125000  -3.935755e+001  -1.018009e+002 
3906250000  -3.868267e+001  -1.061930e+002 
3909375000  -3.813681e+001  -1.156027e+002 
3912500000  -3.901751e+001  -1.237033e+002 
3915625000  -4.039413e+001  -1.256664e+002 
3918750000  -3.995344e+001  -1.264387e+002 
3921875000  -3.911609e+001  -1.286511e+002 
3925000000  -3.868929e+001  -1.349277e+002 
3928125000  -3.831381e+001  -1.450503e+002 
3931250000  -3.904599e+001  -1.509691e+002 
3934375000  -3.960172e+001  -1.537757e+002 
3937500000  -4.018066e+001  -1.545313e+002 
3940625000  -3.989464e+001  -1.568300e+002 
3943750000  -3.871627e+001  -1.598723e+002 
3946875000  -3.849265e+001  -1.690304e+002 
3950000000  -3.975211e+001  -1.789271e+002 
3953125000  -4.025192e+001  -1.763405e+002 
3956250000  -3.880360e+001  -1.766088e+002 
3959375000  -3.787012e+001  1.767009e+002 
3962500000  -3.780268e+001  1.666512e+002 
3965625000  -3.805254e+001  1.581515e+002 
3968750000  -3.847046e+001  1.516141e+002 
3971875000  -3.857300e+001  1.451109e+002 
3975000000  -3.836910e+001  1.427342e+002 
3978125000  -3.849865e+001  1.376376e+002 
3981250000  -3.858443e+001  1.317787e+002 
3984375000  -3.897660e+001  1.230245e+002 
3987500000  -3.964430e+001  1.188336e+002 
3990625000  -4.009256e+001  1.172652e+002 
3993750000  -4.005214e+001  1.125937e+002 
3996875000  -3.983300e+001  1.093884e+002 
4000000000  -4.048428e+001  1.021659e+002 
4003125000  -4.089612e+001  1.061345e+002 
4006250000  -3.930308e+001  1.035494e+002 
4009375000  -3.850612e+001  8.907748e+001 
4012500000  -4.032415e+001  8.060855e+001 
4015625000  -4.147769e+001  8.242201e+001 
4018750000  -4.107308e+001  8.193530e+001 
4021875000  -4.056002e+001  7.797976e+001 
4025000000  -4.051897e+001  7.227753e+001 
4028125000  -4.061518e+001  6.558087e+001 
4031250000  -4.149684e+001  6.338736e+001 
4034375000  -4.152520e+001  6.164835e+001 
4037500000  -4.106499e+001  5.889430e+001 
4040625000  -4.091678e+001  5.594600e+001 
4043750000  -4.113931e+001  5.287050e+001 
4046875000  -4.082016e+001  4.791273e+001 
4050000000  -4.061948e+001  4.549966e+001 
4053125000  -4.131377e+001  4.407077e+001 
4056250000  -4.160614e+001  4.556128e+001 
4059375000  -3.949233e+001  4.353685e+001 
4062500000  -3.880246e+001  3.601272e+001 
4065625000  -3.899606e+001  3.117830e+001 
4068750000  -3.822506e+001  2.439566e+001 
4071875000  -3.804118e+001  1.324395e+001 
4075000000  -3.850348e+001  6.609660e+000 
4078125000  -3.866759e+001  2.909532e+000 
4081250000  -3.813781e+001  -2.734573e+000 
4084375000  -3.814144e+001  -1.251878e+001 
4087500000  -3.856224e+001  -1.787427e+001 
4090625000  -3.909396e+001  -1.855744e+001 
4093750000  -3.873455e+001  -2.286853e+001 
4096875000  -3.865676e+001  -3.392629e+001 
4100000000  -3.982473e+001  -3.912983e+001 
4103125000  -4.058250e+001  -3.776660e+001 
4106250000  -3.971412e+001  -3.555160e+001 
4109375000  -3.907288e+001  -3.851182e+001 
4112500000  -3.852335e+001  -4.661449e+001 
4115625000  -3.934821e+001  -5.477520e+001 
4118750000  -3.890744e+001  -5.794110e+001 
4121875000  -3.889127e+001  -6.610596e+001 
4125000000  -3.970315e+001  -7.334911e+001 
4128125000  -4.083437e+001  -7.007190e+001 
4131250000  -3.965348e+001  -6.499454e+001 
4134375000  -3.775517e+001  -7.351507e+001 
4137500000  -3.822078e+001  -9.536500e+001 
4140625000  -4.051255e+001  -1.029800e+002 
4143750000  -4.143116e+001  -9.515495e+001 
4146875000  -4.063005e+001  -9.244987e+001 
4150000000  -3.955286e+001  -1.005241e+002 
4153125000  -4.044946e+001  -1.074382e+002 
4156250000  -4.143512e+001  -1.133960e+002 
4159375000  -4.124123e+001  -1.073540e+002 
4162500000  -3.991140e+001  -1.059962e+002 
4165625000  -3.872351e+001  -1.125531e+002 
4168750000  -3.852908e+001  -1.196167e+002 
4171875000  -3.838937e+001  -1.325381e+002 
4175000000  -3.957519e+001  -1.384467e+002 
4178125000  -3.978613e+001  -1.385038e+002 
4181250000  -3.928611e+001  -1.435233e+002 
4184375000  -3.952058e+001  -1.483224e+002 
4187500000  -3.947796e+001  -1.549778e+002 
4190625000  -3.963158e+001  -1.610634e+002 
4193750000  -4.068076e+001  -1.637530e+002 
4196875000  -4.168121e+001  -1.667506e+002 
4200000000  -4.242136e+001  -1.590127e+002 
4203125000  -4.079906e+001  -1.469856e+002 
4206250000  -3.761774e+001  -1.559663e+002 
4209375000  -3.708960e+001  1.791793e+002 
4212500000  -3.986596e+001  1.720031e+002 
4215625000  -3.986599e+001  1.791604e+002 
4218750000  -3.850182e+001  1.797840e+002 
4221875000  -3.666988e+001  1.701509e+002 
4225000000  -3.786843e+001  1.598668e+002 
4228125000  -3.768324e+001  1.612852e+002 
4231250000  -3.634065e+001  1.537036e+002 
4234375000  -3.632162e+001  1.409531e+002 
4237500000  -3.618591e+001  1.367993e+002 
4240625000  -3.661375e+001  1.246428e+002 
4243750000  -3.766351e+001  1.165646e+002 
4246875000  -3.835979e+001  1.169482e+002 
4250000000  -3.837396e+001  1.167210e+002 
4253125000  -3.805906e+001  1.129450e+002 
4256250000  -3.816676e+001  1.079668e+002 
4259375000  -3.779686e+001  1.031180e+002 
4262500000  -3.787111e+001  9.792954e+001 
4265625000  -3.824150e+001  9.576373e+001 
4268750000  -3.692854e+001  9.005033e+001 
4271875000  -3.674677e+001  8.001071e+001 
4275000000  -3.665091e+001  7.186535e+001 
4278125000  -3.759750e+001  6.051250e+001 
4281250000  -3.902565e+001  5.793987e+001 
4284375000  -3.870176e+001  5.544018e+001 
4287500000  -4.053141e+001  5.141534e+001 
4290625000  -4.102077e+001  6.039822e+001 
4293750000  -3.868137e+001  6.079368e+001 
4296875000  -3.791765e+001  4.634712e+001 
4300000000  -3.915547e+001  3.711216e+001 
4303125000  -3.983984e+001  4.076216e+001 
4306250000  -3.876195e+001  4.394452e+001 
4309375000  -3.756581e+001  3.842950e+001 
4312500000  -3.752961e+001  2.684984e+001 
4315625000  -3.792469e+001  1.895277e+001 
4318750000  -3.867207e+001  1.492384e+001 
4321875000  -3.898028e+001  1.480048e+001 
4325000000  -3.825093e+001  1.335802e+001 
4328125000  -3.750372e+001  5.099898e+000 
4331250000  -3.748211e+001  -5.756120e+000 
4334375000  -3.831784e+001  -1.113609e+001 
4337500000  -3.947242e+001  -1.364353e+001 
4340625000  -3.966515e+001  -9.024960e+000 
4343750000  -3.839814e+001  -1.236205e+001 
4346875000  -3.828296e+001  -2.056763e+001 
4350000000  -3.808934e+001  -2.898684e+001 
4353125000  -3.866150e+001  -3.704840e+001 
4356250000  -4.153118e+001  -3.203754e+001 
4359375000  -3.998020e+001  -1.790958e+001 
4362500000  -3.668744e+001  -2.669950e+001 
4365625000  -3.609915e+001  -4.397274e+001 
4368750000  -3.714749e+001  -5.416302e+001 
4371875000  -3.790107e+001  -5.344454e+001 
4375000000  -3.725684e+001  -5.831503e+001 
4378125000  -3.721888e+001  -6.664483e+001 
4381250000  -3.733247e+001  -7.350953e+001 
4384375000  -3.729412e+001  -8.093534e+001 
4387500000  -3.828142e+001  -8.624560e+001 
4390625000  -3.877508e+001  -8.814795e+001 
4393750000  -3.794633e+001  -8.577061e+001 
4396875000  -3.754453e+001  -9.109737e+001 
4400000000  -3.690784e+001  -1.014597e+002 
4403125000  -3.795478e+001  -1.114226e+002 
4406250000  -3.847896e+001  -1.139080e+002 
4409375000  -3.878625e+001  -1.178515e+002 
4412500000  -3.984014e+001  -1.211811e+002 
4415625000  -3.950813e+001  -1.158084e+002 
