!Agilent Technologies,E8363B,MY43030201,A.06.04.32
!Agilent E8363B: A.06.04.32
!Date: Tuesday, November 11, 2014 21:29:47
!Correction: S21(Response(S21)) 
!S1P File: Measurement: S21:
# Hz S  dB   R 50
3000000000  -4.058812e+001  8.568696e+001 
3003125000  -4.205131e+001  7.755739e+001 
3006250000  -4.227275e+001  7.582713e+001 
3009375000  -4.278349e+001  8.112107e+001 
3012500000  -4.157420e+001  7.599947e+001 
3015625000  -4.135568e+001  6.975184e+001 
3018750000  -4.162868e+001  6.998077e+001 
3021875000  -4.017621e+001  6.999477e+001 
3025000000  -3.891936e+001  6.827438e+001 
3028125000  -3.796830e+001  5.690083e+001 
3031250000  -3.693139e+001  4.531204e+001 
3034375000  -3.664087e+001  3.094399e+001 
3037500000  -3.751224e+001  2.013991e+001 
3040625000  -3.873160e+001  1.557377e+001 
3043750000  -3.911164e+001  8.509241e+000 
3046875000  -3.978763e+001  3.203606e+000 
3050000000  -4.084455e+001  -1.532663e+000 
3053125000  -4.062310e+001  3.970389e+000 
3056250000  -4.034470e+001  5.063763e+000 
3059375000  -3.986155e+001  3.553414e+000 
3062500000  -3.814791e+001  -6.067168e-001 
3065625000  -3.799025e+001  -1.183171e+001 
3068750000  -3.753200e+001  -1.810996e+001 
3071875000  -3.772588e+001  -2.114732e+001 
3075000000  -3.698589e+001  -2.719357e+001 
3078125000  -3.706700e+001  -3.280748e+001 
3081250000  -3.729681e+001  -3.963317e+001 
3084375000  -3.638116e+001  -4.419415e+001 
3087500000  -3.647912e+001  -5.109188e+001 
3090625000  -3.587351e+001  -6.234377e+001 
3093750000  -3.679270e+001  -7.106457e+001 
3096875000  -3.726895e+001  -7.601867e+001 
3100000000  -3.731893e+001  -7.865021e+001 
3103125000  -3.766135e+001  -8.178902e+001 
3106250000  -3.714915e+001  -8.815675e+001 
3109375000  -3.728849e+001  -9.245285e+001 
3112500000  -3.709056e+001  -9.804795e+001 
3115625000  -3.714421e+001  -1.015357e+002 
3118750000  -3.719373e+001  -1.039098e+002 
3121875000  -3.651727e+001  -1.161393e+002 
3125000000  -3.843209e+001  -1.189887e+002 
3128125000  -3.861959e+001  -1.126423e+002 
3131250000  -3.606569e+001  -1.185292e+002 
3134375000  -3.541736e+001  -1.350759e+002 
3137500000  -3.612722e+001  -1.478961e+002 
3140625000  -3.745731e+001  -1.503779e+002 
3143750000  -3.815232e+001  -1.527489e+002 
3146875000  -3.763858e+001  -1.500391e+002 
3150000000  -3.684770e+001  -1.541650e+002 
3153125000  -3.716591e+001  -1.631142e+002 
3156250000  -3.800966e+001  -1.588877e+002 
3159375000  -3.577759e+001  -1.602464e+002 
3162500000  -3.422922e+001  -1.757661e+002 
3165625000  -3.549501e+001  1.701956e+002 
3168750000  -3.545675e+001  1.703340e+002 
3171875000  -3.497582e+001  1.629077e+002 
3175000000  -3.552160e+001  1.544713e+002 
3178125000  -3.507611e+001  1.525747e+002 
3181250000  -3.434859e+001  1.447370e+002 
3184375000  -3.417669e+001  1.329252e+002 
3187500000  -3.560088e+001  1.177000e+002 
3190625000  -3.742038e+001  1.118324e+002 
3193750000  -3.751951e+001  1.176449e+002 
3196875000  -3.740227e+001  1.182159e+002 
3200000000  -3.622433e+001  1.130798e+002 
3203125000  -3.590738e+001  1.050985e+002 
3206250000  -3.620785e+001  9.787717e+001 
3209375000  -3.576945e+001  8.929711e+001 
3212500000  -3.618479e+001  8.340582e+001 
3215625000  -3.606677e+001  7.937099e+001 
3218750000  -3.697958e+001  6.912185e+001 
3221875000  -3.728428e+001  6.276410e+001 
3225000000  -3.708964e+001  5.878785e+001 
3228125000  -3.763509e+001  5.066587e+001 
3231250000  -3.823519e+001  4.887209e+001 
3234375000  -3.780890e+001  4.565618e+001 
3237500000  -3.819052e+001  4.141383e+001 
3240625000  -3.768356e+001  3.646537e+001 
3243750000  -3.774645e+001  2.675125e+001 
3246875000  -3.816343e+001  1.832310e+001 
3250000000  -3.884463e+001  1.563879e+001 
3253125000  -3.892798e+001  1.377805e+001 
3256250000  -3.868239e+001  4.369945e+000 
3259375000  -3.913298e+001  -6.869372e+000 
3262500000  -4.068472e+001  -1.034966e+001 
3265625000  -4.106664e+001  -7.929991e+000 
3268750000  -4.123887e+001  -6.919599e+000 
3271875000  -4.069736e+001  -1.057450e+001 
3275000000  -4.027319e+001  -1.888391e+001 
3278125000  -4.071552e+001  -2.439634e+001 
3281250000  -4.124529e+001  -2.454798e+001 
3284375000  -4.045877e+001  -3.128187e+001 
3287500000  -4.101613e+001  -3.487759e+001 
3290625000  -4.116632e+001  -4.340145e+001 
3293750000  -4.128150e+001  -4.990562e+001 
3296875000  -4.263986e+001  -4.944230e+001 
3300000000  -4.179060e+001  -4.872547e+001 
3303125000  -4.087693e+001  -5.687967e+001 
3306250000  -4.087534e+001  -6.266302e+001 
3309375000  -4.067867e+001  -7.197746e+001 
3312500000  -4.092101e+001  -8.313203e+001 
3315625000  -4.231983e+001  -8.967162e+001 
3318750000  -4.363999e+001  -9.450771e+001 
3321875000  -4.516242e+001  -9.172813e+001 
3325000000  -4.489568e+001  -8.329864e+001 
3328125000  -4.407053e+001  -8.401071e+001 
3331250000  -4.238605e+001  -8.477252e+001 
3334375000  -3.969581e+001  -9.735608e+001 
3337500000  -4.056863e+001  -1.163786e+002 
3340625000  -4.238474e+001  -1.264805e+002 
3343750000  -4.403553e+001  -1.258667e+002 
3346875000  -4.333432e+001  -1.275252e+002 
3350000000  -4.322440e+001  -1.288176e+002 
3353125000  -4.301998e+001  -1.366576e+002 
3356250000  -4.256999e+001  -1.471546e+002 
3359375000  -4.353631e+001  -1.565848e+002 
3362500000  -4.426521e+001  -1.622988e+002 
3365625000  -4.467700e+001  -1.659272e+002 
3368750000  -4.521235e+001  -1.678653e+002 
3371875000  -4.569820e+001  -1.746230e+002 
3375000000  -4.771003e+001  -1.773292e+002 
3378125000  -4.814691e+001  -1.771129e+002 
3381250000  -4.972073e+001  -1.682858e+002 
3384375000  -4.676096e+001  -1.503170e+002 
3387500000  -4.399295e+001  -1.749417e+002 
3390625000  -4.612912e+001  1.614266e+002 
3393750000  -4.713515e+001  1.678443e+002 
3396875000  -4.604359e+001  1.652316e+002 
3400000000  -4.607240e+001  1.513930e+002 
3403125000  -4.704531e+001  1.491229e+002 
3406250000  -4.779807e+001  1.417773e+002 
3409375000  -4.794157e+001  1.347832e+002 
3412500000  -4.925638e+001  1.295932e+002 
3415625000  -5.035205e+001  1.299566e+002 
3418750000  -5.064288e+001  1.300947e+002 
3421875000  -5.108078e+001  1.330929e+002 
3425000000  -5.029974e+001  1.328152e+002 
3428125000  -4.994628e+001  1.270279e+002 
3431250000  -5.065950e+001  1.237163e+002 
3434375000  -5.095734e+001  1.096351e+002 
3437500000  -5.196219e+001  1.142203e+002 
3440625000  -5.269847e+001  1.218956e+002 
3443750000  -5.098898e+001  1.222744e+002 
3446875000  -5.149520e+001  1.130254e+002 
3450000000  -5.102901e+001  1.120351e+002 
3453125000  -5.089840e+001  9.768754e+001 
3456250000  -5.207639e+001  9.323057e+001 
3459375000  -5.314812e+001  9.705512e+001 
3462500000  -5.204241e+001  1.032807e+002 
3465625000  -5.164544e+001  9.055120e+001 
3468750000  -5.224251e+001  9.381050e+001 
3471875000  -5.190369e+001  9.147040e+001 
3475000000  -5.234103e+001  8.487222e+001 
3478125000  -5.115533e+001  7.687640e+001 
3481250000  -5.276012e+001  7.552178e+001 
3484375000  -5.310569e+001  7.903488e+001 
3487500000  -5.146802e+001  7.280759e+001 
3490625000  -5.080154e+001  6.858421e+001 
3493750000  -5.229690e+001  5.958776e+001 
3496875000  -5.178340e+001  6.010141e+001 
3500000000  -5.255234e+001  6.034352e+001 
3503125000  -5.117389e+001  6.431585e+001 
3506250000  -4.973745e+001  5.364838e+001 
3509375000  -5.029792e+001  4.058142e+001 
3512500000  -5.013401e+001  2.799622e+001 
3515625000  -5.151659e+001  2.569320e+001 
3518750000  -5.206953e+001  2.642244e+001 
3521875000  -5.190918e+001  2.168024e+001 
3525000000  -5.363065e+001  1.293951e+001 
3528125000  -5.179772e+001  1.985570e+001 
3531250000  -5.241916e+001  8.780078e+000 
3534375000  -5.311389e+001  -2.333990e+000 
3537500000  -5.356052e+001  -8.182764e+000 
3540625000  -5.441474e+001  -9.256220e+000 
3543750000  -5.599947e+001  7.096817e-001 
3546875000  -5.636220e+001  7.224536e+000 
3550000000  -5.417272e+001  3.955231e+000 
3553125000  -5.392555e+001  -2.475260e+001 
3556250000  -5.579044e+001  -1.406481e+001 
3559375000  -5.634407e+001  -2.189388e+001 
3562500000  -5.603946e+001  -3.318278e+001 
3565625000  -5.726518e+001  -4.427478e+001 
3568750000  -5.724155e+001  -2.368823e+001 
3571875000  -5.711663e+001  -2.798666e+001 
3575000000  -5.698860e+001  -2.489765e+001 
3578125000  -6.057632e+001  -3.059474e+001 
3581250000  -5.893124e+001  -2.533697e+001 
3584375000  -5.521450e+001  -1.708549e+001 
3587500000  -5.752591e+001  -2.622064e+001 
3590625000  -6.028921e+001  -3.824807e+001 
3593750000  -5.856643e+001  -3.240614e+001 
3596875000  -5.884686e+001  -4.099471e+000 
3600000000  -5.693211e+001  -2.059155e+001 
3603125000  -5.792353e+001  -3.869407e+001 
3606250000  -5.805936e+001  -3.562827e+001 
3609375000  -5.893503e+001  -3.238903e+001 
3612500000  -5.830403e+001  -4.257351e+001 
3615625000  -5.914547e+001  -4.138528e+001 
3618750000  -5.687844e+001  -2.615462e+001 
3621875000  -5.843983e+001  -3.065260e+001 
3625000000  -5.612674e+001  -3.136658e+001 
3628125000  -5.774980e+001  -2.748689e+001 
3631250000  -5.639380e+001  -3.632994e+001 
3634375000  -5.732306e+001  -2.931916e+001 
3637500000  -5.548396e+001  -2.760355e+001 
3640625000  -5.282682e+001  -2.467290e+001 
3643750000  -5.359427e+001  -3.010317e+001 
3646875000  -5.256230e+001  -4.580118e+001 
3650000000  -5.288302e+001  -4.825595e+001 
3653125000  -5.189500e+001  -4.712897e+001 
3656250000  -5.138871e+001  -5.050551e+001 
3659375000  -5.149536e+001  -5.384476e+001 
3662500000  -4.997739e+001  -5.736343e+001 
3665625000  -5.000065e+001  -5.520218e+001 
3668750000  -4.760262e+001  -5.914044e+001 
3671875000  -4.740695e+001  -7.276608e+001 
3675000000  -4.723331e+001  -7.702122e+001 
3678125000  -4.713504e+001  -8.215894e+001 
3681250000  -4.631641e+001  -8.592439e+001 
3684375000  -4.617278e+001  -9.074199e+001 
3687500000  -4.625952e+001  -9.616351e+001 
3690625000  -4.645388e+001  -1.014018e+002 
3693750000  -4.690940e+001  -1.020069e+002 
3696875000  -4.671314e+001  -1.029466e+002 
3700000000  -4.549928e+001  -1.131330e+002 
3703125000  -4.491424e+001  -1.168637e+002 
3706250000  -4.600565e+001  -1.173788e+002 
3709375000  -4.480906e+001  -1.160626e+002 
3712500000  -4.338295e+001  -1.236652e+002 
3715625000  -4.201685e+001  -1.322258e+002 
3718750000  -4.174426e+001  -1.394267e+002 
3721875000  -4.132013e+001  -1.489083e+002 
3725000000  -4.153818e+001  -1.562252e+002 
3728125000  -4.170251e+001  -1.583963e+002 
3731250000  -4.080228e+001  -1.640319e+002 
3734375000  -4.001736e+001  -1.706840e+002 
3737500000  -4.074255e+001  1.793669e+002 
3740625000  -4.104333e+001  1.736366e+002 
3743750000  -4.055170e+001  1.677807e+002 
3746875000  -4.075254e+001  1.619712e+002 
3750000000  -4.118697e+001  1.561902e+002 
3753125000  -4.059811e+001  1.517159e+002 
3756250000  -4.070392e+001  1.492515e+002 
3759375000  -4.062837e+001  1.450320e+002 
3762500000  -4.000018e+001  1.375494e+002 
3765625000  -4.072864e+001  1.317934e+002 
3768750000  -4.051196e+001  1.325605e+002 
3771875000  -3.842305e+001  1.268743e+002 
3775000000  -3.857759e+001  1.141996e+002 
3778125000  -3.906745e+001  1.082710e+002 
3781250000  -3.912933e+001  1.034619e+002 
3784375000  -3.886121e+001  9.759473e+001 
3787500000  -3.866658e+001  9.238766e+001 
3790625000  -3.924229e+001  8.284892e+001 
3793750000  -3.878363e+001  7.964509e+001 
3796875000  -3.822544e+001  7.564975e+001 
3800000000  -3.640649e+001  7.074915e+001 
3803125000  -3.812938e+001  5.812272e+001 
3806250000  -3.881253e+001  5.323544e+001 
3809375000  -3.848179e+001  5.035374e+001 
3812500000  -3.836966e+001  3.986299e+001 
3815625000  -3.951748e+001  3.089623e+001 
3818750000  -4.068828e+001  3.152153e+001 
3821875000  -4.047560e+001  4.106382e+001 
3825000000  -3.830406e+001  3.848369e+001 
3828125000  -3.697464e+001  2.017510e+001 
3831250000  -3.816798e+001  4.695735e+000 
3834375000  -4.036290e+001  3.576402e+000 
3837500000  -4.066203e+001  8.207750e+000 
3840625000  -3.924951e+001  2.052171e+000 
3843750000  -3.843243e+001  -1.068612e+001 
3846875000  -3.991917e+001  -1.701560e+001 
3850000000  -4.095584e+001  -1.105687e+001 
3853125000  -3.994242e+001  -9.980621e+000 
3856250000  -3.946614e+001  -1.695855e+001 
3859375000  -3.866096e+001  -2.332886e+001 
3862500000  -3.850639e+001  -3.498636e+001 
3865625000  -3.905307e+001  -4.038842e+001 
3868750000  -3.877325e+001  -4.108796e+001 
3871875000  -3.811013e+001  -4.724413e+001 
3875000000  -3.860341e+001  -5.739601e+001 
3878125000  -3.936926e+001  -6.035147e+001 
3881250000  -3.944716e+001  -5.996596e+001 
3884375000  -3.841769e+001  -6.889766e+001 
3887500000  -3.916407e+001  -7.286602e+001 
3890625000  -3.959418e+001  -7.869431e+001 
3893750000  -3.979940e+001  -8.060303e+001 
3896875000  -4.019961e+001  -8.332565e+001 
3900000000  -3.982967e+001  -8.603459e+001 
3903125000  -3.952192e+001  -9.015826e+001 
3906250000  -3.910365e+001  -9.492898e+001 
3909375000  -3.838465e+001  -1.036445e+002 
3912500000  -3.903856e+001  -1.120094e+002 
3915625000  -4.053892e+001  -1.132645e+002 
3918750000  -4.030781e+001  -1.148568e+002 
3921875000  -3.930825e+001  -1.192419e+002 
3925000000  -3.868034e+001  -1.227716e+002 
3928125000  -3.835204e+001  -1.353546e+002 
3931250000  -3.915718e+001  -1.414712e+002 
3934375000  -3.980085e+001  -1.403136e+002 
3937500000  -4.001754e+001  -1.437513e+002 
3940625000  -4.000667e+001  -1.460428e+002 
3943750000  -3.902017e+001  -1.490409e+002 
3946875000  -3.867384e+001  -1.590819e+002 
3950000000  -3.947782e+001  -1.669189e+002 
3953125000  -4.002309e+001  -1.666746e+002 
3956250000  -3.919379e+001  -1.665929e+002 
3959375000  -3.798942e+001  -1.750249e+002 
3962500000  -3.748309e+001  -1.799022e+002 
3965625000  -3.782288e+001  1.689549e+002 
3968750000  -3.876966e+001  1.610724e+002 
3971875000  -3.897822e+001  1.574055e+002 
3975000000  -3.857981e+001  1.524937e+002 
3978125000  -3.856689e+001  1.478428e+002 
3981250000  -3.863630e+001  1.421666e+002 
3984375000  -3.910980e+001  1.336575e+002 
3987500000  -3.976613e+001  1.314730e+002 
3990625000  -4.015493e+001  1.289354e+002 
3993750000  -4.000274e+001  1.256031e+002 
3996875000  -3.998360e+001  1.197538e+002 
4000000000  -4.089536e+001  1.138959e+002 
4003125000  -4.125496e+001  1.175058e+002 
4006250000  -3.947728e+001  1.165306e+002 
4009375000  -3.883014e+001  1.003741e+002 
4012500000  -4.035497e+001  9.215299e+001 
4015625000  -4.177731e+001  9.252183e+001 
4018750000  -4.111016e+001  9.090695e+001 
4021875000  -4.091703e+001  8.914828e+001 
4025000000  -4.050320e+001  8.262681e+001 
4028125000  -4.079930e+001  7.649199e+001 
4031250000  -4.120242e+001  7.228395e+001 
4034375000  -4.115054e+001  7.410212e+001 
4037500000  -4.129193e+001  7.305148e+001 
4040625000  -4.094254e+001  6.908562e+001 
4043750000  -4.109563e+001  6.366793e+001 
4046875000  -4.109317e+001  6.186871e+001 
4050000000  -4.047328e+001  5.652188e+001 
4053125000  -4.122286e+001  5.471431e+001 
4056250000  -4.148283e+001  5.851332e+001 
4059375000  -3.949022e+001  5.452083e+001 
4062500000  -3.878740e+001  4.657659e+001 
4065625000  -3.876941e+001  4.212339e+001 
4068750000  -3.836271e+001  3.529615e+001 
4071875000  -3.771816e+001  2.371503e+001 
4075000000  -3.852893e+001  1.770198e+001 
4078125000  -3.887865e+001  1.455401e+001 
4081250000  -3.840512e+001  1.027704e+001 
4084375000  -3.789359e+001  2.927144e-001 
4087500000  -3.859238e+001  -7.945090e+000 
4090625000  -3.930947e+001  -9.544367e+000 
4093750000  -3.903809e+001  -9.894309e+000 
4096875000  -3.853286e+001  -2.104771e+001 
4100000000  -3.961485e+001  -2.982202e+001 
4103125000  -4.068462e+001  -2.523733e+001 
4106250000  -4.005058e+001  -2.121634e+001 
4109375000  -3.920758e+001  -2.752170e+001 
4112500000  -3.877719e+001  -3.551876e+001 
4115625000  -3.914988e+001  -4.358899e+001 
4118750000  -3.916398e+001  -4.892845e+001 
4121875000  -3.892634e+001  -5.497088e+001 
4125000000  -3.973094e+001  -6.185698e+001 
4128125000  -4.119825e+001  -6.193725e+001 
4131250000  -3.983102e+001  -5.474496e+001 
4134375000  -3.789487e+001  -6.283190e+001 
4137500000  -3.827728e+001  -8.486540e+001 
4140625000  -4.039042e+001  -9.185345e+001 
4143750000  -4.152597e+001  -8.601196e+001 
4146875000  -4.056944e+001  -8.015959e+001 
4150000000  -3.964081e+001  -8.916822e+001 
4153125000  -3.998946e+001  -9.781709e+001 
4156250000  -4.145811e+001  -1.011172e+002 
4159375000  -4.122748e+001  -9.433090e+001 
4162500000  -3.996780e+001  -9.397303e+001 
4165625000  -3.899173e+001  -1.023013e+002 
4168750000  -3.843549e+001  -1.106769e+002 
4171875000  -3.859829e+001  -1.202563e+002 
4175000000  -3.929988e+001  -1.281222e+002 
4178125000  -3.982169e+001  -1.283998e+002 
4181250000  -3.939166e+001  -1.323493e+002 
4184375000  -3.962195e+001  -1.380066e+002 
4187500000  -3.947204e+001  -1.418392e+002 
4190625000  -3.952877e+001  -1.504199e+002 
4193750000  -4.038998e+001  -1.554588e+002 
4196875000  -4.141595e+001  -1.557533e+002 
4200000000  -4.238096e+001  -1.484115e+002 
4203125000  -4.110928e+001  -1.361334e+002 
4206250000  -3.761887e+001  -1.461539e+002 
4209375000  -3.713230e+001  -1.687115e+002 
4212500000  -3.965087e+001  -1.769305e+002 
4215625000  -4.012466e+001  -1.684563e+002 
4218750000  -3.822426e+001  -1.680174e+002 
4221875000  -3.659258e+001  -1.787385e+002 
4225000000  -3.796693e+001  1.701545e+002 
4228125000  -3.780286e+001  1.734674e+002 
4231250000  -3.638626e+001  1.632650e+002 
4234375000  -3.623130e+001  1.533446e+002 
4237500000  -3.600928e+001  1.494366e+002 
4240625000  -3.657404e+001  1.360926e+002 
4243750000  -3.768633e+001  1.287554e+002 
4246875000  -3.849715e+001  1.276962e+002 
4250000000  -3.838891e+001  1.288428e+002 
4253125000  -3.824531e+001  1.251725e+002 
4256250000  -3.825902e+001  1.197123e+002 
4259375000  -3.769870e+001  1.153137e+002 
4262500000  -3.766952e+001  1.079998e+002 
4265625000  -3.801174e+001  1.100335e+002 
4268750000  -3.695795e+001  1.000192e+002 
4271875000  -3.697066e+001  9.122462e+001 
4275000000  -3.667762e+001  8.411398e+001 
4278125000  -3.763949e+001  7.067002e+001 
4281250000  -3.927296e+001  6.974032e+001 
4284375000  -3.885908e+001  6.831113e+001 
4287500000  -4.000713e+001  6.311438e+001 
4290625000  -4.058252e+001  7.192737e+001 
4293750000  -3.865413e+001  7.214346e+001 
4296875000  -3.783699e+001  5.837405e+001 
4300000000  -3.909969e+001  4.912333e+001 
4303125000  -3.986296e+001  5.353326e+001 
4306250000  -3.874733e+001  5.516311e+001 
4309375000  -3.755516e+001  4.889462e+001 
4312500000  -3.778850e+001  3.849156e+001 
4315625000  -3.789395e+001  2.917361e+001 
4318750000  -3.864989e+001  2.515868e+001 
4321875000  -3.861615e+001  2.747326e+001 
4325000000  -3.829542e+001  2.648011e+001 
4328125000  -3.746089e+001  1.665773e+001 
4331250000  -3.784642e+001  5.079418e+000 
4334375000  -3.844323e+001  -9.992551e-002 
4337500000  -3.927952e+001  -3.435095e+000 
4340625000  -3.957225e+001  2.981683e+000 
4343750000  -3.855461e+001  1.080051e+000 
4346875000  -3.835727e+001  -1.020910e+001 
4350000000  -3.835120e+001  -1.885366e+001 
4353125000  -3.869714e+001  -2.626609e+001 
4356250000  -4.099626e+001  -2.044450e+001 
4359375000  -4.006772e+001  -5.786161e+000 
4362500000  -3.651087e+001  -1.351789e+001 
4365625000  -3.592295e+001  -3.100925e+001 
4368750000  -3.724802e+001  -4.182166e+001 
4371875000  -3.813221e+001  -4.173143e+001 
4375000000  -3.749114e+001  -4.627259e+001 
4378125000  -3.685346e+001  -5.422313e+001 
4381250000  -3.705037e+001  -6.136040e+001 
4384375000  -3.699474e+001  -6.762831e+001 
4387500000  -3.829339e+001  -7.372523e+001 
4390625000  -3.846744e+001  -7.503657e+001 
4393750000  -3.785273e+001  -7.499976e+001 
4396875000  -3.726956e+001  -7.889281e+001 
4400000000  -3.692722e+001  -8.977851e+001 
4403125000  -3.785022e+001  -9.793832e+001 
4406250000  -3.850865e+001  -1.024371e+002 
4409375000  -3.852140e+001  -1.070519e+002 
4412500000  -3.968722e+001  -1.092777e+002 
4415625000  -3.945426e+001  -1.045853e+002 
