!Agilent Technologies,E8363B,MY43030201,A.06.04.32
!Agilent E8363B: A.06.04.32
!Date: Tuesday, November 11, 2014 21:36:53
!Correction: S21(Response(S21)) 
!S1P File: Measurement: S21:
# Hz S  dB   R 50
3000000000  -4.063501e+001  7.077574e+001 
3003125000  -4.219388e+001  6.217516e+001 
3006250000  -4.221127e+001  6.270407e+001 
3009375000  -4.269120e+001  6.881508e+001 
3012500000  -4.153483e+001  6.216611e+001 
3015625000  -4.140044e+001  5.542336e+001 
3018750000  -4.168524e+001  5.589629e+001 
3021875000  -4.033747e+001  5.698697e+001 
3025000000  -3.876064e+001  5.353304e+001 
3028125000  -3.798605e+001  4.299142e+001 
3031250000  -3.697347e+001  3.075155e+001 
3034375000  -3.683501e+001  1.682231e+001 
3037500000  -3.753307e+001  6.433036e+000 
3040625000  -3.885729e+001  8.159895e-001 
3043750000  -3.936592e+001  -5.182006e+000 
3046875000  -4.004292e+001  -1.099413e+001 
3050000000  -4.097615e+001  -1.658285e+001 
3053125000  -4.035568e+001  -1.135628e+001 
3056250000  -4.053121e+001  -7.262246e+000 
3059375000  -3.976880e+001  -9.656443e+000 
3062500000  -3.825805e+001  -1.480316e+001 
3065625000  -3.781960e+001  -2.506210e+001 
3068750000  -3.767988e+001  -3.339275e+001 
3071875000  -3.752672e+001  -3.437112e+001 
3075000000  -3.685447e+001  -4.160584e+001 
3078125000  -3.713425e+001  -4.825340e+001 
3081250000  -3.708258e+001  -5.363363e+001 
3084375000  -3.634797e+001  -5.896561e+001 
3087500000  -3.643622e+001  -6.494616e+001 
3090625000  -3.590628e+001  -7.766910e+001 
3093750000  -3.704191e+001  -8.534317e+001 
3096875000  -3.737458e+001  -9.002732e+001 
3100000000  -3.726756e+001  -9.363967e+001 
3103125000  -3.741542e+001  -9.738563e+001 
3106250000  -3.714991e+001  -1.024249e+002 
3109375000  -3.718300e+001  -1.060403e+002 
3112500000  -3.710618e+001  -1.117859e+002 
3115625000  -3.707264e+001  -1.160370e+002 
3118750000  -3.717100e+001  -1.192468e+002 
3121875000  -3.656510e+001  -1.301411e+002 
3125000000  -3.847335e+001  -1.331713e+002 
3128125000  -3.850735e+001  -1.263844e+002 
3131250000  -3.609652e+001  -1.326731e+002 
3134375000  -3.530014e+001  -1.500269e+002 
3137500000  -3.609797e+001  -1.618360e+002 
3140625000  -3.745931e+001  -1.649121e+002 
3143750000  -3.804916e+001  -1.682345e+002 
3146875000  -3.750668e+001  -1.655152e+002 
3150000000  -3.683687e+001  -1.692714e+002 
3153125000  -3.710453e+001  -1.774942e+002 
3156250000  -3.791475e+001  -1.733293e+002 
3159375000  -3.573563e+001  -1.758548e+002 
3162500000  -3.415911e+001  1.699725e+002 
3165625000  -3.549881e+001  1.573239e+002 
3168750000  -3.535706e+001  1.559186e+002 
3171875000  -3.485806e+001  1.485184e+002 
3175000000  -3.544481e+001  1.387152e+002 
3178125000  -3.502296e+001  1.379155e+002 
3181250000  -3.445547e+001  1.281737e+002 
3184375000  -3.420050e+001  1.172514e+002 
3187500000  -3.552153e+001  1.030778e+002 
3190625000  -3.724031e+001  9.730969e+001 
3193750000  -3.746347e+001  1.014867e+002 
3196875000  -3.737385e+001  1.036452e+002 
3200000000  -3.616898e+001  9.814249e+001 
3203125000  -3.593000e+001  8.978716e+001 
3206250000  -3.613626e+001  8.236439e+001 
3209375000  -3.575814e+001  7.445841e+001 
3212500000  -3.626983e+001  6.832641e+001 
3215625000  -3.605758e+001  6.514966e+001 
3218750000  -3.691767e+001  5.322927e+001 
3221875000  -3.719531e+001  4.756087e+001 
3225000000  -3.697971e+001  4.353705e+001 
3228125000  -3.770810e+001  3.601953e+001 
3231250000  -3.824923e+001  3.357723e+001 
3234375000  -3.784640e+001  2.994642e+001 
3237500000  -3.791996e+001  2.594680e+001 
3240625000  -3.750548e+001  2.100489e+001 
3243750000  -3.758975e+001  1.008974e+001 
3246875000  -3.815987e+001  4.164001e+000 
3250000000  -3.879345e+001  1.096902e-002 
3253125000  -3.907690e+001  -3.818161e+000 
3256250000  -3.846440e+001  -1.117711e+001 
3259375000  -3.914914e+001  -2.176403e+001 
3262500000  -4.078484e+001  -2.589495e+001 
3265625000  -4.128064e+001  -2.210444e+001 
3268750000  -4.125563e+001  -2.189439e+001 
3271875000  -4.055466e+001  -2.564995e+001 
3275000000  -4.002446e+001  -3.402795e+001 
3278125000  -4.073819e+001  -3.934482e+001 
3281250000  -4.122110e+001  -4.064544e+001 
3284375000  -4.047668e+001  -4.624893e+001 
3287500000  -4.097970e+001  -5.142346e+001 
3290625000  -4.120267e+001  -5.875294e+001 
3293750000  -4.139492e+001  -6.386100e+001 
3296875000  -4.237102e+001  -6.529378e+001 
3300000000  -4.185339e+001  -6.529874e+001 
3303125000  -4.082891e+001  -7.120594e+001 
3306250000  -4.063480e+001  -7.776243e+001 
3309375000  -4.058567e+001  -8.555984e+001 
3312500000  -4.066385e+001  -9.881889e+001 
3315625000  -4.247549e+001  -1.067592e+002 
3318750000  -4.357634e+001  -1.091229e+002 
3321875000  -4.478860e+001  -1.058415e+002 
3325000000  -4.456400e+001  -9.683852e+001 
3328125000  -4.378094e+001  -1.015429e+002 
3331250000  -4.236930e+001  -9.677279e+001 
3334375000  -3.965350e+001  -1.135126e+002 
3337500000  -4.051324e+001  -1.334982e+002 
3340625000  -4.236383e+001  -1.421844e+002 
3343750000  -4.398959e+001  -1.414158e+002 
3346875000  -4.344168e+001  -1.422125e+002 
3350000000  -4.283427e+001  -1.447626e+002 
3353125000  -4.272440e+001  -1.530133e+002 
3356250000  -4.247037e+001  -1.613680e+002 
3359375000  -4.334514e+001  -1.736037e+002 
3362500000  -4.428743e+001  -1.763555e+002 
3365625000  -4.501085e+001  1.788150e+002 
3368750000  -4.532671e+001  1.756813e+002 
3371875000  -4.588697e+001  1.724132e+002 
3375000000  -4.749015e+001  1.662545e+002 
3378125000  -4.834938e+001  1.657849e+002 
3381250000  -4.917147e+001  1.773457e+002 
3384375000  -4.677875e+001  -1.702332e+002 
3387500000  -4.381620e+001  1.677205e+002 
3390625000  -4.635706e+001  1.540211e+002 
3393750000  -4.690202e+001  1.528390e+002 
3396875000  -4.620225e+001  1.503488e+002 
3400000000  -4.600524e+001  1.383147e+002 
3403125000  -4.712876e+001  1.314500e+002 
3406250000  -4.760111e+001  1.249598e+002 
3409375000  -4.761744e+001  1.244939e+002 
3412500000  -4.863126e+001  1.194866e+002 
3415625000  -5.039332e+001  1.151016e+002 
3418750000  -5.028205e+001  1.146147e+002 
3421875000  -5.109520e+001  1.196545e+002 
3425000000  -5.000761e+001  1.127526e+002 
3428125000  -5.012224e+001  1.179586e+002 
3431250000  -4.953874e+001  1.012188e+002 
3434375000  -5.132155e+001  1.011604e+002 
3437500000  -5.211160e+001  1.023257e+002 
3440625000  -5.179951e+001  1.029779e+002 
3443750000  -5.026491e+001  1.028372e+002 
3446875000  -5.055135e+001  9.972985e+001 
3450000000  -4.954083e+001  9.171523e+001 
3453125000  -5.085039e+001  8.223276e+001 
3456250000  -5.174174e+001  8.153423e+001 
3459375000  -5.235878e+001  8.616775e+001 
3462500000  -5.236457e+001  8.831596e+001 
3465625000  -5.115430e+001  7.634257e+001 
3468750000  -5.161172e+001  8.401892e+001 
3471875000  -5.201575e+001  7.210076e+001 
3475000000  -5.111134e+001  6.715583e+001 
3478125000  -5.103456e+001  6.033485e+001 
3481250000  -5.216354e+001  5.891315e+001 
3484375000  -5.233061e+001  6.297654e+001 
3487500000  -5.051910e+001  5.883999e+001 
3490625000  -5.075023e+001  4.853430e+001 
3493750000  -5.137580e+001  4.856508e+001 
3496875000  -5.137865e+001  4.632164e+001 
3500000000  -5.168850e+001  4.680564e+001 
3503125000  -5.068927e+001  4.068499e+001 
3506250000  -4.988203e+001  3.329004e+001 
3509375000  -4.944889e+001  2.230585e+001 
3512500000  -5.045073e+001  8.673636e+000 
3515625000  -5.161528e+001  7.852126e-001 
3518750000  -5.158130e+001  1.061846e+001 
3521875000  -5.175812e+001  -2.962026e+000 
3525000000  -5.329669e+001  -3.983537e+000 
3528125000  -5.268145e+001  -9.031978e-001 
3531250000  -5.172724e+001  -6.251417e+000 
3534375000  -5.349070e+001  -1.266114e+001 
3537500000  -5.318871e+001  -3.007151e+001 
3540625000  -5.450093e+001  -3.096732e+001 
3543750000  -5.539483e+001  -2.234119e+001 
3546875000  -5.678269e+001  -1.612701e+001 
3550000000  -5.439972e+001  -1.486556e+001 
3553125000  -5.386140e+001  -3.073898e+001 
3556250000  -5.515188e+001  -3.766932e+001 
3559375000  -5.622486e+001  -4.241576e+001 
3562500000  -5.627658e+001  -5.300402e+001 
3565625000  -5.639524e+001  -4.914935e+001 
3568750000  -5.838370e+001  -4.002165e+001 
3571875000  -5.724670e+001  -3.787120e+001 
3575000000  -5.816668e+001  -5.212679e+001 
3578125000  -5.821795e+001  -4.465184e+001 
3581250000  -5.820763e+001  -3.984539e+001 
3584375000  -5.602320e+001  -3.271617e+001 
3587500000  -5.636466e+001  -4.938634e+001 
3590625000  -5.770528e+001  -6.657867e+001 
3593750000  -5.870124e+001  -3.953074e+001 
3596875000  -5.973235e+001  -3.373446e+001 
3600000000  -5.814489e+001  -4.204392e+001 
3603125000  -5.709534e+001  -5.976028e+001 
3606250000  -5.872274e+001  -4.848462e+001 
3609375000  -5.688617e+001  -5.441189e+001 
3612500000  -5.878352e+001  -4.654365e+001 
3615625000  -5.967174e+001  -5.960247e+001 
3618750000  -6.069890e+001  -4.943700e+001 
3621875000  -5.716206e+001  -5.263348e+001 
3625000000  -5.763461e+001  -4.034538e+001 
3628125000  -5.710073e+001  -3.921294e+001 
3631250000  -5.728648e+001  -5.393814e+001 
3634375000  -5.680249e+001  -4.331249e+001 
3637500000  -5.565237e+001  -4.226573e+001 
3640625000  -5.453380e+001  -4.380880e+001 
3643750000  -5.176192e+001  -5.266925e+001 
3646875000  -5.225567e+001  -5.805916e+001 
3650000000  -5.298016e+001  -6.113241e+001 
3653125000  -5.171764e+001  -6.628881e+001 
3656250000  -5.116395e+001  -6.158700e+001 
3659375000  -5.215908e+001  -7.031956e+001 
3662500000  -5.035859e+001  -7.323804e+001 
3665625000  -4.982424e+001  -7.163988e+001 
3668750000  -4.795869e+001  -7.818065e+001 
3671875000  -4.727435e+001  -8.759373e+001 
3675000000  -4.727912e+001  -9.388787e+001 
3678125000  -4.722107e+001  -1.026569e+002 
3681250000  -4.649761e+001  -1.019386e+002 
3684375000  -4.654277e+001  -1.059020e+002 
3687500000  -4.654522e+001  -1.152230e+002 
3690625000  -4.687117e+001  -1.202240e+002 
3693750000  -4.665300e+001  -1.198343e+002 
3696875000  -4.628914e+001  -1.219152e+002 
3700000000  -4.529244e+001  -1.292344e+002 
3703125000  -4.543762e+001  -1.357200e+002 
3706250000  -4.600492e+001  -1.332490e+002 
3709375000  -4.450493e+001  -1.348477e+002 
3712500000  -4.333251e+001  -1.410842e+002 
3715625000  -4.203594e+001  -1.489122e+002 
3718750000  -4.191881e+001  -1.558673e+002 
3721875000  -4.130347e+001  -1.655985e+002 
3725000000  -4.168348e+001  -1.720763e+002 
3728125000  -4.131621e+001  -1.748939e+002 
3731250000  -4.072948e+001  1.764316e+002 
3734375000  -4.026686e+001  1.719812e+002 
3737500000  -4.090052e+001  1.607211e+002 
3740625000  -4.097824e+001  1.560266e+002 
3743750000  -4.022022e+001  1.483839e+002 
3746875000  -4.083530e+001  1.420694e+002 
3750000000  -4.094229e+001  1.394358e+002 
3753125000  -4.073142e+001  1.357055e+002 
3756250000  -4.085329e+001  1.307789e+002 
3759375000  -4.053249e+001  1.256479e+002 
3762500000  -4.019503e+001  1.202210e+002 
3765625000  -4.091767e+001  1.169716e+002 
3768750000  -4.017861e+001  1.146618e+002 
3771875000  -3.839925e+001  1.073607e+002 
3775000000  -3.865116e+001  9.561375e+001 
3778125000  -3.902459e+001  9.106227e+001 
3781250000  -3.914503e+001  8.548655e+001 
3784375000  -3.881123e+001  7.951563e+001 
3787500000  -3.854248e+001  7.493758e+001 
3790625000  -3.915808e+001  6.552509e+001 
3793750000  -3.916038e+001  6.264746e+001 
3796875000  -3.820971e+001  5.855714e+001 
3800000000  -3.637884e+001  5.290767e+001 
3803125000  -3.806320e+001  3.953765e+001 
3806250000  -3.887626e+001  3.503942e+001 
3809375000  -3.854516e+001  3.090048e+001 
3812500000  -3.840425e+001  2.146243e+001 
3815625000  -3.958035e+001  1.357436e+001 
3818750000  -4.087807e+001  1.548919e+001 
3821875000  -3.991073e+001  2.473453e+001 
3825000000  -3.832647e+001  1.862635e+001 
3828125000  -3.687175e+001  3.254766e-002 
3831250000  -3.810511e+001  -1.273725e+001 
3834375000  -4.034355e+001  -1.441954e+001 
3837500000  -4.059426e+001  -1.034282e+001 
3840625000  -3.906617e+001  -1.223168e+001 
3843750000  -3.818713e+001  -2.825715e+001 
3846875000  -3.993103e+001  -3.312006e+001 
3850000000  -4.064559e+001  -2.856258e+001 
3853125000  -3.963797e+001  -2.846358e+001 
3856250000  -3.947855e+001  -3.594001e+001 
3859375000  -3.835003e+001  -4.336224e+001 
3862500000  -3.844857e+001  -5.372859e+001 
3865625000  -3.874063e+001  -6.140438e+001 
3868750000  -3.880517e+001  -6.116397e+001 
3871875000  -3.794276e+001  -6.697666e+001 
3875000000  -3.855797e+001  -7.661601e+001 
3878125000  -3.941283e+001  -7.994054e+001 
3881250000  -3.928351e+001  -8.051050e+001 
3884375000  -3.861665e+001  -8.632921e+001 
3887500000  -3.913425e+001  -9.200160e+001 
3890625000  -3.930088e+001  -9.927706e+001 
3893750000  -3.961645e+001  -9.911542e+001 
3896875000  -4.010106e+001  -1.029761e+002 
3900000000  -3.952748e+001  -1.067293e+002 
3903125000  -3.931639e+001  -1.111379e+002 
3906250000  -3.906489e+001  -1.135510e+002 
3909375000  -3.808545e+001  -1.238991e+002 
3912500000  -3.931598e+001  -1.330153e+002 
3915625000  -4.029295e+001  -1.312421e+002 
3918750000  -4.017946e+001  -1.340219e+002 
3921875000  -3.915312e+001  -1.362151e+002 
3925000000  -3.835922e+001  -1.434550e+002 
3928125000  -3.823890e+001  -1.529190e+002 
3931250000  -3.901039e+001  -1.600737e+002 
3934375000  -3.992334e+001  -1.601728e+002 
3937500000  -3.985810e+001  -1.629968e+002 
3940625000  -3.986688e+001  -1.652633e+002 
3943750000  -3.883721e+001  -1.682874e+002 
3946875000  -3.848597e+001  -1.771046e+002 
3950000000  -3.968516e+001  1.743815e+002 
3953125000  -4.015986e+001  1.740698e+002 
3956250000  -3.867419e+001  1.748963e+002 
3959375000  -3.771709e+001  1.682652e+002 
3962500000  -3.769579e+001  1.578081e+002 
3965625000  -3.750638e+001  1.497829e+002 
3968750000  -3.873143e+001  1.428244e+002 
3971875000  -3.874391e+001  1.382175e+002 
3975000000  -3.832994e+001  1.327269e+002 
3978125000  -3.839635e+001  1.282321e+002 
3981250000  -3.864019e+001  1.233102e+002 
3984375000  -3.901789e+001  1.138480e+002 
3987500000  -3.948917e+001  1.120456e+002 
3990625000  -3.989844e+001  1.126679e+002 
3993750000  -3.995965e+001  1.054734e+002 
3996875000  -3.949775e+001  9.971529e+001 
4000000000  -4.067294e+001  9.561100e+001 
4003125000  -4.103215e+001  9.703463e+001 
4006250000  -3.934316e+001  9.642255e+001 
4009375000  -3.878856e+001  8.092233e+001 
4012500000  -4.025875e+001  7.311218e+001 
4015625000  -4.161732e+001  7.256022e+001 
4018750000  -4.119671e+001  7.408776e+001 
4021875000  -4.063481e+001  7.040814e+001 
4025000000  -4.035276e+001  6.542221e+001 
4028125000  -4.044926e+001  5.651065e+001 
4031250000  -4.119873e+001  5.285546e+001 
4034375000  -4.109927e+001  5.242371e+001 
4037500000  -4.098635e+001  5.202177e+001 
4040625000  -4.075592e+001  4.785382e+001 
4043750000  -4.103250e+001  4.493278e+001 
4046875000  -4.068263e+001  4.127721e+001 
4050000000  -4.072714e+001  3.566875e+001 
4053125000  -4.149221e+001  3.407732e+001 
4056250000  -4.136699e+001  3.927296e+001 
4059375000  -3.920596e+001  3.593866e+001 
4062500000  -3.887810e+001  2.722038e+001 
4065625000  -3.882507e+001  2.200869e+001 
4068750000  -3.814330e+001  1.549123e+001 
4071875000  -3.758274e+001  3.803495e+000 
4075000000  -3.826922e+001  -2.982302e+000 
4078125000  -3.867997e+001  -5.446174e+000 
4081250000  -3.829676e+001  -1.072858e+001 
4084375000  -3.812558e+001  -2.052018e+001 
4087500000  -3.881835e+001  -2.636643e+001 
4090625000  -3.915810e+001  -2.768192e+001 
4093750000  -3.870434e+001  -3.131081e+001 
4096875000  -3.875182e+001  -4.195471e+001 
4100000000  -3.979592e+001  -4.725594e+001 
4103125000  -4.034013e+001  -4.504869e+001 
4106250000  -3.994711e+001  -4.353754e+001 
4109375000  -3.912431e+001  -4.747741e+001 
4112500000  -3.859321e+001  -5.788422e+001 
4115625000  -3.947477e+001  -6.304764e+001 
4118750000  -3.904529e+001  -6.747993e+001 
4121875000  -3.891150e+001  -7.507001e+001 
4125000000  -3.982370e+001  -8.080561e+001 
4128125000  -4.087729e+001  -7.897826e+001 
4131250000  -3.986961e+001  -7.491232e+001 
4134375000  -3.747036e+001  -8.220038e+001 
4137500000  -3.829416e+001  -1.045962e+002 
4140625000  -4.049208e+001  -1.110543e+002 
4143750000  -4.149310e+001  -1.039988e+002 
4146875000  -4.038903e+001  -1.008130e+002 
4150000000  -3.950524e+001  -1.090826e+002 
4153125000  -4.003891e+001  -1.166293e+002 
4156250000  -4.107195e+001  -1.193097e+002 
4159375000  -4.105687e+001  -1.175985e+002 
4162500000  -3.975755e+001  -1.117672e+002 
4165625000  -3.865873e+001  -1.202816e+002 
4168750000  -3.835831e+001  -1.321424e+002 
4171875000  -3.839753e+001  -1.398593e+002 
4175000000  -3.913409e+001  -1.470147e+002 
4178125000  -3.966130e+001  -1.489836e+002 
4181250000  -3.920583e+001  -1.515722e+002 
4184375000  -3.949183e+001  -1.566714e+002 
4187500000  -3.957101e+001  -1.623441e+002 
4190625000  -3.965943e+001  -1.697907e+002 
4193750000  -4.057954e+001  -1.743272e+002 
4196875000  -4.165300e+001  -1.749378e+002 
4200000000  -4.257676e+001  -1.680683e+002 
4203125000  -4.065798e+001  -1.566330e+002 
4206250000  -3.751321e+001  -1.661777e+002 
4209375000  -3.714742e+001  1.712465e+002 
4212500000  -3.968488e+001  1.640577e+002 
4215625000  -4.029137e+001  1.725474e+002 
4218750000  -3.832601e+001  1.736488e+002 
4221875000  -3.683706e+001  1.604514e+002 
4225000000  -3.808195e+001  1.522778e+002 
4228125000  -3.783181e+001  1.506421e+002 
4231250000  -3.650185e+001  1.434297e+002 
4234375000  -3.639080e+001  1.323912e+002 
4237500000  -3.616869e+001  1.271621e+002 
4240625000  -3.634502e+001  1.161482e+002 
4243750000  -3.757985e+001  1.090705e+002 
4246875000  -3.851238e+001  1.067362e+002 
4250000000  -3.827906e+001  1.083978e+002 
4253125000  -3.797679e+001  1.042603e+002 
4256250000  -3.791562e+001  1.000891e+002 
4259375000  -3.763672e+001  9.420925e+001 
4262500000  -3.777789e+001  8.838546e+001 
4265625000  -3.787849e+001  8.878294e+001 
4268750000  -3.695231e+001  7.981490e+001 
4271875000  -3.692908e+001  7.063686e+001 
4275000000  -3.661797e+001  6.241230e+001 
4278125000  -3.770996e+001  5.126302e+001 
4281250000  -3.910152e+001  4.850715e+001 
4284375000  -3.875787e+001  4.655681e+001 
4287500000  -4.042822e+001  4.163288e+001 
4290625000  -4.062767e+001  5.046872e+001 
4293750000  -3.865879e+001  5.284743e+001 
4296875000  -3.790611e+001  3.954571e+001 
4300000000  -3.909406e+001  2.947678e+001 
4303125000  -3.958400e+001  3.370781e+001 
4306250000  -3.870121e+001  3.411577e+001 
4309375000  -3.766611e+001  2.833463e+001 
4312500000  -3.771411e+001  1.807720e+001 
4315625000  -3.780135e+001  9.451895e+000 
4318750000  -3.843575e+001  5.685112e+000 
4321875000  -3.857504e+001  6.708075e+000 
4325000000  -3.812786e+001  5.115602e+000 
4328125000  -3.729335e+001  -4.787799e+000 
4331250000  -3.757357e+001  -1.451617e+001 
4334375000  -3.823819e+001  -2.181259e+001 
4337500000  -3.977169e+001  -2.105090e+001 
4340625000  -3.964363e+001  -1.657883e+001 
4343750000  -3.846714e+001  -2.124484e+001 
4346875000  -3.832738e+001  -3.205934e+001 
4350000000  -3.835623e+001  -3.850872e+001 
4353125000  -3.913327e+001  -4.596157e+001 
4356250000  -4.127841e+001  -4.235560e+001 
4359375000  -3.972766e+001  -2.766538e+001 
4362500000  -3.643067e+001  -3.626883e+001 
4365625000  -3.593410e+001  -5.521630e+001 
4368750000  -3.742688e+001  -6.194773e+001 
4371875000  -3.783975e+001  -6.243340e+001 
4375000000  -3.728298e+001  -6.700512e+001 
4378125000  -3.669782e+001  -7.595492e+001 
4381250000  -3.708815e+001  -8.121318e+001 
4384375000  -3.754661e+001  -8.876232e+001 
4387500000  -3.820691e+001  -9.588843e+001 
4390625000  -3.871092e+001  -9.553600e+001 
4393750000  -3.810400e+001  -9.634724e+001 
4396875000  -3.712750e+001  -1.008976e+002 
4400000000  -3.682414e+001  -1.119764e+002 
4403125000  -3.784134e+001  -1.214577e+002 
4406250000  -3.838202e+001  -1.242312e+002 
4409375000  -3.893026e+001  -1.281282e+002 
4412500000  -3.999911e+001  -1.293306e+002 
4415625000  -3.941905e+001  -1.255735e+002 
