!Agilent Technologies,E8363B,MY43030201,A.06.04.32
!Agilent E8363B: A.06.04.32
!Date: Tuesday, November 11, 2014 21:29:41
!Correction: S21(Response(S21)) 
!S1P File: Measurement: S21:
# Hz S  dB   R 50
3000000000  -4.059566e+001  8.606937e+001 
3003125000  -4.225655e+001  7.884896e+001 
3006250000  -4.223791e+001  7.721072e+001 
3009375000  -4.282899e+001  8.070884e+001 
3012500000  -4.138760e+001  7.680561e+001 
3015625000  -4.147219e+001  7.031729e+001 
3018750000  -4.192736e+001  7.064082e+001 
3021875000  -4.031952e+001  7.085786e+001 
3025000000  -3.889969e+001  6.739314e+001 
3028125000  -3.800110e+001  5.814750e+001 
3031250000  -3.695538e+001  4.508210e+001 
3034375000  -3.677922e+001  3.184146e+001 
3037500000  -3.751191e+001  2.130726e+001 
3040625000  -3.880442e+001  1.582792e+001 
3043750000  -3.912323e+001  9.649966e+000 
3046875000  -3.956234e+001  2.791690e+000 
3050000000  -4.101995e+001  -1.472755e+000 
3053125000  -4.052650e+001  3.238801e+000 
3056250000  -4.041014e+001  6.258852e+000 
3059375000  -3.987026e+001  3.572700e+000 
3062500000  -3.836211e+001  -3.851441e-001 
3065625000  -3.776529e+001  -9.965603e+000 
3068750000  -3.752950e+001  -1.846211e+001 
3071875000  -3.764323e+001  -2.022294e+001 
3075000000  -3.702466e+001  -2.645513e+001 
3078125000  -3.713412e+001  -3.293599e+001 
3081250000  -3.726550e+001  -3.921066e+001 
3084375000  -3.626199e+001  -4.353876e+001 
3087500000  -3.631739e+001  -5.100837e+001 
3090625000  -3.592102e+001  -6.251976e+001 
3093750000  -3.684970e+001  -7.031542e+001 
3096875000  -3.741162e+001  -7.571191e+001 
3100000000  -3.730968e+001  -7.885586e+001 
3103125000  -3.755821e+001  -8.285983e+001 
3106250000  -3.722673e+001  -8.737965e+001 
3109375000  -3.730008e+001  -9.155490e+001 
3112500000  -3.726527e+001  -9.696280e+001 
3115625000  -3.709594e+001  -1.011912e+002 
3118750000  -3.720780e+001  -1.044849e+002 
3121875000  -3.651772e+001  -1.150358e+002 
3125000000  -3.834471e+001  -1.194215e+002 
3128125000  -3.854155e+001  -1.126966e+002 
3131250000  -3.607538e+001  -1.170091e+002 
3134375000  -3.533305e+001  -1.346355e+002 
3137500000  -3.606767e+001  -1.481384e+002 
3140625000  -3.730370e+001  -1.502393e+002 
3143750000  -3.819180e+001  -1.525198e+002 
3146875000  -3.772257e+001  -1.497584e+002 
3150000000  -3.685902e+001  -1.536744e+002 
3153125000  -3.721881e+001  -1.628680e+002 
3156250000  -3.804996e+001  -1.587198e+002 
3159375000  -3.571256e+001  -1.599770e+002 
3162500000  -3.419835e+001  -1.754607e+002 
3165625000  -3.549821e+001  1.710999e+002 
3168750000  -3.549903e+001  1.710875e+002 
3171875000  -3.489330e+001  1.634187e+002 
3175000000  -3.555359e+001  1.543532e+002 
3178125000  -3.508377e+001  1.537393e+002 
3181250000  -3.432925e+001  1.446524e+002 
3184375000  -3.407463e+001  1.323077e+002 
3187500000  -3.533250e+001  1.186090e+002 
3190625000  -3.732373e+001  1.122584e+002 
3193750000  -3.754658e+001  1.180433e+002 
3196875000  -3.746549e+001  1.188609e+002 
3200000000  -3.625298e+001  1.137530e+002 
3203125000  -3.592812e+001  1.054094e+002 
3206250000  -3.621255e+001  9.758137e+001 
3209375000  -3.567775e+001  9.062543e+001 
3212500000  -3.621665e+001  8.339849e+001 
3215625000  -3.617703e+001  7.948727e+001 
3218750000  -3.688831e+001  6.916196e+001 
3221875000  -3.725900e+001  6.238000e+001 
3225000000  -3.712018e+001  5.827557e+001 
3228125000  -3.771417e+001  5.204796e+001 
3231250000  -3.832017e+001  4.951613e+001 
3234375000  -3.803100e+001  4.677705e+001 
3237500000  -3.803707e+001  4.124409e+001 
3240625000  -3.762616e+001  3.763031e+001 
3243750000  -3.765749e+001  2.614421e+001 
3246875000  -3.824035e+001  1.915517e+001 
3250000000  -3.874064e+001  1.552968e+001 
3253125000  -3.895516e+001  1.285570e+001 
3256250000  -3.869550e+001  4.164407e+000 
3259375000  -3.918064e+001  -5.622593e+000 
3262500000  -4.054285e+001  -9.701866e+000 
3265625000  -4.105444e+001  -7.201611e+000 
3268750000  -4.123616e+001  -7.393636e+000 
3271875000  -4.083343e+001  -9.158686e+000 
3275000000  -4.018450e+001  -1.924029e+001 
3278125000  -4.090058e+001  -2.421003e+001 
3281250000  -4.095455e+001  -2.488345e+001 
3284375000  -4.053423e+001  -3.129663e+001 
3287500000  -4.085755e+001  -3.607609e+001 
3290625000  -4.127887e+001  -4.339006e+001 
3293750000  -4.123360e+001  -4.846969e+001 
3296875000  -4.238714e+001  -4.987447e+001 
3300000000  -4.181653e+001  -4.969139e+001 
3303125000  -4.105103e+001  -5.467280e+001 
3306250000  -4.081230e+001  -6.328094e+001 
3309375000  -4.056876e+001  -7.020314e+001 
3312500000  -4.104452e+001  -8.254096e+001 
3315625000  -4.239856e+001  -9.075541e+001 
3318750000  -4.333823e+001  -9.378870e+001 
3321875000  -4.488660e+001  -9.221512e+001 
3325000000  -4.512169e+001  -8.580752e+001 
3328125000  -4.421275e+001  -8.506743e+001 
3331250000  -4.271047e+001  -8.101892e+001 
3334375000  -3.977897e+001  -9.661046e+001 
3337500000  -4.027769e+001  -1.171360e+002 
3340625000  -4.214711e+001  -1.254628e+002 
3343750000  -4.411462e+001  -1.231472e+002 
3346875000  -4.355976e+001  -1.251520e+002 
3350000000  -4.323993e+001  -1.291539e+002 
3353125000  -4.319437e+001  -1.365574e+002 
3356250000  -4.257331e+001  -1.452984e+002 
3359375000  -4.346448e+001  -1.559666e+002 
3362500000  -4.460036e+001  -1.586806e+002 
3365625000  -4.493110e+001  -1.645643e+002 
3368750000  -4.566430e+001  -1.706289e+002 
3371875000  -4.553033e+001  -1.736729e+002 
3375000000  -4.755680e+001  -1.774603e+002 
3378125000  -4.830921e+001  -1.753362e+002 
3381250000  -4.943405e+001  -1.653198e+002 
3384375000  -4.610474e+001  -1.523421e+002 
3387500000  -4.419240e+001  -1.723183e+002 
3390625000  -4.625522e+001  1.654491e+002 
3393750000  -4.818038e+001  1.641772e+002 
3396875000  -4.628601e+001  1.668797e+002 
3400000000  -4.625531e+001  1.524102e+002 
3403125000  -4.702359e+001  1.485713e+002 
3406250000  -4.770527e+001  1.441000e+002 
3409375000  -4.812090e+001  1.371714e+002 
3412500000  -4.895387e+001  1.324317e+002 
3415625000  -4.929247e+001  1.278465e+002 
3418750000  -5.026611e+001  1.297541e+002 
3421875000  -5.181843e+001  1.317244e+002 
3425000000  -5.065680e+001  1.367711e+002 
3428125000  -5.002316e+001  1.288008e+002 
3431250000  -5.035135e+001  1.197334e+002 
3434375000  -5.057895e+001  1.165211e+002 
3437500000  -5.185595e+001  1.212955e+002 
3440625000  -5.215685e+001  1.185944e+002 
3443750000  -5.087117e+001  1.209991e+002 
3446875000  -5.140511e+001  1.119708e+002 
3450000000  -5.071204e+001  1.032875e+002 
3453125000  -5.122840e+001  9.563375e+001 
3456250000  -5.231630e+001  9.338363e+001 
3459375000  -5.353609e+001  9.466010e+001 
3462500000  -5.254451e+001  1.005595e+002 
3465625000  -5.164327e+001  9.072574e+001 
3468750000  -5.241045e+001  9.526331e+001 
3471875000  -5.136150e+001  9.149030e+001 
3475000000  -5.138275e+001  8.811289e+001 
3478125000  -5.254414e+001  7.571882e+001 
3481250000  -5.237276e+001  7.587428e+001 
3484375000  -5.268491e+001  8.203154e+001 
3487500000  -5.190545e+001  7.740569e+001 
3490625000  -5.067008e+001  6.704878e+001 
3493750000  -5.201599e+001  6.345964e+001 
3496875000  -5.170465e+001  6.224182e+001 
3500000000  -5.237192e+001  5.744320e+001 
3503125000  -5.161855e+001  6.347824e+001 
3506250000  -5.055025e+001  5.309354e+001 
3509375000  -4.969879e+001  4.043156e+001 
3512500000  -4.996431e+001  2.899818e+001 
3515625000  -5.156052e+001  2.619177e+001 
3518750000  -5.293334e+001  2.554679e+001 
3521875000  -5.258865e+001  1.787599e+001 
3525000000  -5.408532e+001  3.024266e+000 
3528125000  -5.345782e+001  2.113454e+001 
3531250000  -5.182534e+001  1.249032e+001 
3534375000  -5.258195e+001  -3.945342e+000 
3537500000  -5.319200e+001  -9.659876e+000 
3540625000  -5.510675e+001  -1.113975e+001 
3543750000  -5.565992e+001  -3.511722e+000 
3546875000  -5.474155e+001  3.493315e+000 
3550000000  -5.482540e+001  -2.191403e+000 
3553125000  -5.339039e+001  -1.186768e+001 
3556250000  -5.492181e+001  -1.975720e+001 
3559375000  -5.565193e+001  -1.911803e+001 
3562500000  -5.649605e+001  -2.376923e+001 
3565625000  -5.657372e+001  -2.504511e+001 
3568750000  -5.793848e+001  -1.743141e+001 
3571875000  -5.720475e+001  -2.700351e+001 
3575000000  -5.838469e+001  -2.257096e+001 
3578125000  -5.840538e+001  -3.876830e+001 
3581250000  -5.831374e+001  -3.308298e+001 
3584375000  -5.795710e+001  -2.213869e+001 
3587500000  -5.938618e+001  -2.187152e+001 
3590625000  -5.874173e+001  -4.383694e+001 
3593750000  -5.955120e+001  -2.234638e+001 
3596875000  -5.919942e+001  -1.422279e+001 
3600000000  -5.743832e+001  -2.512954e+001 
3603125000  -5.945259e+001  -2.834942e+001 
3606250000  -5.738362e+001  -2.752876e+001 
3609375000  -5.743308e+001  -2.938646e+001 
3612500000  -5.775795e+001  -3.412876e+001 
3615625000  -5.793357e+001  -4.150397e+001 
3618750000  -5.885082e+001  -2.370521e+001 
3621875000  -5.853578e+001  -2.484245e+001 
3625000000  -5.813410e+001  -3.528890e+001 
3628125000  -5.668637e+001  -2.738481e+001 
3631250000  -5.588042e+001  -3.629721e+001 
3634375000  -5.726420e+001  -2.262397e+001 
3637500000  -5.432450e+001  -1.749276e+001 
3640625000  -5.309942e+001  -2.566461e+001 
3643750000  -5.313502e+001  -2.824134e+001 
3646875000  -5.253122e+001  -4.147765e+001 
3650000000  -5.344396e+001  -4.212854e+001 
3653125000  -5.194294e+001  -4.533435e+001 
3656250000  -5.147803e+001  -4.305531e+001 
3659375000  -5.193380e+001  -4.963152e+001 
3662500000  -5.077745e+001  -5.323613e+001 
3665625000  -4.990495e+001  -5.869921e+001 
3668750000  -4.844989e+001  -5.983363e+001 
3671875000  -4.671194e+001  -6.788240e+001 
3675000000  -4.745349e+001  -7.705163e+001 
3678125000  -4.745490e+001  -8.122114e+001 
3681250000  -4.663046e+001  -8.402341e+001 
3684375000  -4.619096e+001  -9.218256e+001 
3687500000  -4.664264e+001  -9.704153e+001 
3690625000  -4.644417e+001  -1.010306e+002 
3693750000  -4.718230e+001  -1.031681e+002 
3696875000  -4.644299e+001  -1.029549e+002 
3700000000  -4.556823e+001  -1.071114e+002 
3703125000  -4.516457e+001  -1.170468e+002 
3706250000  -4.641472e+001  -1.164591e+002 
3709375000  -4.493447e+001  -1.157625e+002 
3712500000  -4.365135e+001  -1.225326e+002 
3715625000  -4.206910e+001  -1.335343e+002 
3718750000  -4.202233e+001  -1.370309e+002 
3721875000  -4.121475e+001  -1.458530e+002 
3725000000  -4.169102e+001  -1.550025e+002 
3728125000  -4.158694e+001  -1.582358e+002 
3731250000  -4.061340e+001  -1.624751e+002 
3734375000  -4.016785e+001  -1.714506e+002 
3737500000  -4.079600e+001  -1.796542e+002 
3740625000  -4.072727e+001  1.735132e+002 
3743750000  -4.073682e+001  1.678282e+002 
3746875000  -4.069441e+001  1.611184e+002 
3750000000  -4.094933e+001  1.567025e+002 
3753125000  -4.068900e+001  1.542031e+002 
3756250000  -4.065101e+001  1.505901e+002 
3759375000  -4.025971e+001  1.451525e+002 
3762500000  -4.006676e+001  1.382770e+002 
3765625000  -4.082304e+001  1.330551e+002 
3768750000  -4.031137e+001  1.326413e+002 
3771875000  -3.853090e+001  1.248827e+002 
3775000000  -3.863181e+001  1.135395e+002 
3778125000  -3.900961e+001  1.094597e+002 
3781250000  -3.896415e+001  1.028394e+002 
3784375000  -3.887037e+001  9.869820e+001 
3787500000  -3.847652e+001  9.186871e+001 
3790625000  -3.917060e+001  8.462318e+001 
3793750000  -3.933970e+001  8.002758e+001 
3796875000  -3.820483e+001  7.604372e+001 
3800000000  -3.634469e+001  7.155572e+001 
3803125000  -3.823130e+001  5.865566e+001 
3806250000  -3.895240e+001  5.306401e+001 
3809375000  -3.855014e+001  4.945142e+001 
3812500000  -3.853644e+001  4.132882e+001 
3815625000  -3.930717e+001  3.254863e+001 
3818750000  -4.063982e+001  3.231308e+001 
3821875000  -4.026305e+001  4.056062e+001 
3825000000  -3.841392e+001  3.759552e+001 
3828125000  -3.700651e+001  1.969889e+001 
3831250000  -3.807438e+001  3.605900e+000 
3834375000  -4.036539e+001  5.340126e+000 
3837500000  -4.085142e+001  8.286223e+000 
3840625000  -3.908292e+001  6.495034e+000 
3843750000  -3.851326e+001  -9.325031e+000 
3846875000  -3.964622e+001  -1.546124e+001 
3850000000  -4.088632e+001  -1.162285e+001 
3853125000  -4.003480e+001  -9.314036e+000 
3856250000  -3.946558e+001  -1.588268e+001 
3859375000  -3.886678e+001  -2.422866e+001 
3862500000  -3.844690e+001  -3.400615e+001 
3865625000  -3.890096e+001  -4.038994e+001 
3868750000  -3.878875e+001  -3.948246e+001 
3871875000  -3.802213e+001  -4.840204e+001 
3875000000  -3.871129e+001  -5.800009e+001 
3878125000  -3.966223e+001  -6.090398e+001 
3881250000  -3.943640e+001  -6.195112e+001 
3884375000  -3.896270e+001  -6.790231e+001 
3887500000  -3.900364e+001  -7.275459e+001 
3890625000  -3.935424e+001  -7.719997e+001 
3893750000  -3.992081e+001  -8.127158e+001 
3896875000  -4.020913e+001  -8.265240e+001 
3900000000  -4.020055e+001  -8.750822e+001 
3903125000  -3.958886e+001  -9.280190e+001 
3906250000  -3.879763e+001  -9.606325e+001 
3909375000  -3.808377e+001  -1.031081e+002 
3912500000  -3.911138e+001  -1.128814e+002 
3915625000  -4.046838e+001  -1.107701e+002 
3918750000  -4.021778e+001  -1.148029e+002 
3921875000  -3.964937e+001  -1.187597e+002 
3925000000  -3.833145e+001  -1.234202e+002 
3928125000  -3.828461e+001  -1.338659e+002 
3931250000  -3.909141e+001  -1.399576e+002 
3934375000  -3.964363e+001  -1.417979e+002 
3937500000  -4.003301e+001  -1.442067e+002 
3940625000  -3.975404e+001  -1.454507e+002 
3943750000  -3.911512e+001  -1.483139e+002 
3946875000  -3.840068e+001  -1.565120e+002 
3950000000  -3.964015e+001  -1.659613e+002 
3953125000  -4.005681e+001  -1.664000e+002 
3956250000  -3.879409e+001  -1.648665e+002 
3959375000  -3.784167e+001  -1.720230e+002 
3962500000  -3.778391e+001  1.784194e+002 
3965625000  -3.785199e+001  1.694048e+002 
3968750000  -3.871513e+001  1.626159e+002 
3971875000  -3.880771e+001  1.572527e+002 
3975000000  -3.831826e+001  1.537391e+002 
3978125000  -3.845811e+001  1.477379e+002 
3981250000  -3.874648e+001  1.423244e+002 
3984375000  -3.919875e+001  1.340926e+002 
3987500000  -3.982634e+001  1.309845e+002 
3990625000  -3.991436e+001  1.288593e+002 
3993750000  -4.007526e+001  1.248118e+002 
3996875000  -4.010595e+001  1.210358e+002 
4000000000  -4.059861e+001  1.156357e+002 
4003125000  -4.118639e+001  1.172552e+002 
4006250000  -3.952319e+001  1.134897e+002 
4009375000  -3.875376e+001  1.001011e+002 
4012500000  -4.029368e+001  9.257234e+001 
4015625000  -4.142796e+001  9.327042e+001 
4018750000  -4.162006e+001  9.438113e+001 
4021875000  -4.098849e+001  8.976877e+001 
4025000000  -4.067154e+001  8.317709e+001 
4028125000  -4.072049e+001  7.622619e+001 
4031250000  -4.141944e+001  7.198026e+001 
4034375000  -4.141206e+001  7.199216e+001 
4037500000  -4.099258e+001  7.381455e+001 
4040625000  -4.096472e+001  6.867262e+001 
4043750000  -4.120113e+001  6.572497e+001 
4046875000  -4.096360e+001  6.159990e+001 
4050000000  -4.058038e+001  5.637663e+001 
4053125000  -4.143730e+001  5.236766e+001 
4056250000  -4.150764e+001  5.916470e+001 
4059375000  -3.969130e+001  5.645051e+001 
4062500000  -3.879278e+001  4.777769e+001 
4065625000  -3.884461e+001  4.087962e+001 
4068750000  -3.830771e+001  3.301450e+001 
4071875000  -3.791140e+001  2.608237e+001 
4075000000  -3.842125e+001  1.686659e+001 
4078125000  -3.878161e+001  1.372104e+001 
4081250000  -3.836629e+001  9.738544e+000 
4084375000  -3.814772e+001  2.270733e-001 
4087500000  -3.900004e+001  -8.011504e+000 
4090625000  -3.903204e+001  -8.143511e+000 
4093750000  -3.877954e+001  -1.086618e+001 
4096875000  -3.866662e+001  -2.044523e+001 
4100000000  -3.966975e+001  -2.838974e+001 
4103125000  -4.079564e+001  -2.781643e+001 
4106250000  -3.997809e+001  -2.362850e+001 
4109375000  -3.924754e+001  -2.818027e+001 
4112500000  -3.858795e+001  -3.634306e+001 
4115625000  -3.934370e+001  -4.370795e+001 
4118750000  -3.912388e+001  -4.684373e+001 
4121875000  -3.888083e+001  -5.429939e+001 
4125000000  -3.966382e+001  -6.041511e+001 
4128125000  -4.074739e+001  -5.989718e+001 
4131250000  -4.000253e+001  -5.311092e+001 
4134375000  -3.770753e+001  -6.336126e+001 
4137500000  -3.837426e+001  -8.328884e+001 
4140625000  -4.055028e+001  -9.156179e+001 
4143750000  -4.142511e+001  -8.468074e+001 
4146875000  -4.086956e+001  -8.021230e+001 
4150000000  -3.990358e+001  -8.714498e+001 
4153125000  -4.041804e+001  -9.444376e+001 
4156250000  -4.142815e+001  -1.006351e+002 
4159375000  -4.122372e+001  -9.635503e+001 
4162500000  -4.008833e+001  -9.346243e+001 
4165625000  -3.888332e+001  -9.929764e+001 
4168750000  -3.863885e+001  -1.088667e+002 
4171875000  -3.867063e+001  -1.198197e+002 
4175000000  -3.967516e+001  -1.258636e+002 
4178125000  -3.953235e+001  -1.277416e+002 
4181250000  -3.926526e+001  -1.314625e+002 
4184375000  -3.970168e+001  -1.346690e+002 
4187500000  -3.975053e+001  -1.403572e+002 
4190625000  -3.951811e+001  -1.472817e+002 
4193750000  -4.070972e+001  -1.509968e+002 
4196875000  -4.142597e+001  -1.548769e+002 
4200000000  -4.244894e+001  -1.476991e+002 
4203125000  -4.116244e+001  -1.371968e+002 
4206250000  -3.770914e+001  -1.447508e+002 
4209375000  -3.746002e+001  -1.686779e+002 
4212500000  -3.930488e+001  -1.755161e+002 
4215625000  -4.034660e+001  -1.703891e+002 
4218750000  -3.846777e+001  -1.651057e+002 
4221875000  -3.666265e+001  -1.778621e+002 
4225000000  -3.819318e+001  1.716325e+002 
4228125000  -3.775472e+001  1.719946e+002 
4231250000  -3.645882e+001  1.641935e+002 
4234375000  -3.651694e+001  1.539528e+002 
4237500000  -3.646907e+001  1.488083e+002 
4240625000  -3.641671e+001  1.374685e+002 
4243750000  -3.756569e+001  1.284688e+002 
4246875000  -3.822709e+001  1.295781e+002 
4250000000  -3.831072e+001  1.289745e+002 
4253125000  -3.800370e+001  1.248829e+002 
4256250000  -3.818981e+001  1.211773e+002 
4259375000  -3.771395e+001  1.146484e+002 
4262500000  -3.786509e+001  1.095151e+002 
4265625000  -3.807467e+001  1.085633e+002 
4268750000  -3.708838e+001  1.008150e+002 
4271875000  -3.689719e+001  9.215913e+001 
4275000000  -3.651805e+001  8.307167e+001 
4278125000  -3.781337e+001  7.125430e+001 
4281250000  -3.911761e+001  6.954935e+001 
4284375000  -3.903876e+001  6.596402e+001 
4287500000  -4.008448e+001  6.390815e+001 
4290625000  -4.112848e+001  7.432709e+001 
4293750000  -3.892985e+001  7.458598e+001 
4296875000  -3.786734e+001  5.953406e+001 
4300000000  -3.934897e+001  5.011005e+001 
4303125000  -4.021872e+001  5.243454e+001 
4306250000  -3.919931e+001  5.356778e+001 
4309375000  -3.754086e+001  4.973001e+001 
4312500000  -3.779557e+001  3.981568e+001 
4315625000  -3.807254e+001  3.119988e+001 
4318750000  -3.860354e+001  2.806594e+001 
4321875000  -3.865115e+001  2.776024e+001 
4325000000  -3.812901e+001  2.622531e+001 
4328125000  -3.739120e+001  1.710821e+001 
4331250000  -3.755550e+001  4.929540e+000 
4334375000  -3.838654e+001  -3.900473e-001 
4337500000  -3.931501e+001  -1.219963e+000 
4340625000  -3.970852e+001  1.784942e+000 
4343750000  -3.852130e+001  -1.890182e-001 
4346875000  -3.868383e+001  -9.800338e+000 
4350000000  -3.853471e+001  -1.532386e+001 
4353125000  -3.916339e+001  -2.429399e+001 
4356250000  -4.075404e+001  -2.304753e+001 
4359375000  -4.008426e+001  -6.577649e+000 
4362500000  -3.681113e+001  -1.364626e+001 
4365625000  -3.596033e+001  -3.304227e+001 
4368750000  -3.736325e+001  -4.272091e+001 
4371875000  -3.803077e+001  -4.100902e+001 
4375000000  -3.730911e+001  -4.593341e+001 
4378125000  -3.677100e+001  -5.330624e+001 
4381250000  -3.727224e+001  -6.029113e+001 
4384375000  -3.712589e+001  -6.695571e+001 
4387500000  -3.831334e+001  -7.393018e+001 
4390625000  -3.850591e+001  -7.529535e+001 
4393750000  -3.806404e+001  -7.322508e+001 
4396875000  -3.749871e+001  -7.976600e+001 
4400000000  -3.697546e+001  -8.880056e+001 
4403125000  -3.791907e+001  -9.766633e+001 
4406250000  -3.842925e+001  -1.010175e+002 
4409375000  -3.840409e+001  -1.057873e+002 
4412500000  -3.988671e+001  -1.075933e+002 
4415625000  -3.917574e+001  -1.045360e+002 
