!Agilent Technologies,E8363B,MY43030201,A.06.04.32
!Agilent E8363B: A.06.04.32
!Date: Tuesday, November 11, 2014 21:38:13
!Correction: S21(Response(S21)) 
!S1P File: Measurement: S21:
# Hz S  dB   R 50
3000000000  -4.065767e+001  6.953986e+001 
3003125000  -4.201448e+001  6.329773e+001 
3006250000  -4.207959e+001  6.081032e+001 
3009375000  -4.295501e+001  6.650122e+001 
3012500000  -4.127627e+001  6.089610e+001 
3015625000  -4.163992e+001  5.571241e+001 
3018750000  -4.162115e+001  5.451643e+001 
3021875000  -4.009889e+001  5.623476e+001 
3025000000  -3.866590e+001  5.352634e+001 
3028125000  -3.793966e+001  4.230287e+001 
3031250000  -3.696025e+001  2.987115e+001 
3034375000  -3.673161e+001  1.516374e+001 
3037500000  -3.758221e+001  5.318415e+000 
3040625000  -3.883675e+001  -1.635378e-001 
3043750000  -3.920980e+001  -6.364171e+000 
3046875000  -3.983248e+001  -1.210755e+001 
3050000000  -4.094182e+001  -1.538900e+001 
3053125000  -4.053022e+001  -1.168362e+001 
3056250000  -4.048134e+001  -8.593489e+000 
3059375000  -3.963008e+001  -1.253879e+001 
3062500000  -3.810091e+001  -1.443370e+001 
3065625000  -3.770512e+001  -2.565863e+001 
3068750000  -3.757528e+001  -3.348373e+001 
3071875000  -3.759340e+001  -3.533640e+001 
3075000000  -3.706991e+001  -4.246563e+001 
3078125000  -3.708001e+001  -4.940690e+001 
3081250000  -3.708930e+001  -5.479951e+001 
3084375000  -3.636951e+001  -6.006114e+001 
3087500000  -3.645036e+001  -6.645807e+001 
3090625000  -3.591610e+001  -7.830577e+001 
3093750000  -3.696175e+001  -8.625164e+001 
3096875000  -3.724070e+001  -9.087318e+001 
3100000000  -3.734376e+001  -9.400323e+001 
3103125000  -3.754756e+001  -9.846114e+001 
3106250000  -3.711866e+001  -1.044170e+002 
3109375000  -3.726904e+001  -1.073960e+002 
3112500000  -3.711363e+001  -1.139059e+002 
3115625000  -3.722048e+001  -1.166171e+002 
3118750000  -3.717340e+001  -1.202771e+002 
3121875000  -3.658020e+001  -1.318236e+002 
3125000000  -3.858334e+001  -1.346393e+002 
3128125000  -3.858327e+001  -1.277052e+002 
3131250000  -3.610849e+001  -1.333683e+002 
3134375000  -3.542892e+001  -1.511428e+002 
3137500000  -3.606673e+001  -1.628371e+002 
3140625000  -3.741621e+001  -1.657755e+002 
3143750000  -3.825156e+001  -1.687513e+002 
3146875000  -3.759961e+001  -1.656245e+002 
3150000000  -3.680612e+001  -1.704604e+002 
3153125000  -3.730323e+001  -1.784587e+002 
3156250000  -3.795577e+001  -1.739630e+002 
3159375000  -3.565201e+001  -1.758161e+002 
3162500000  -3.416689e+001  1.686250e+002 
3165625000  -3.545179e+001  1.553255e+002 
3168750000  -3.544923e+001  1.543003e+002 
3171875000  -3.482383e+001  1.470208e+002 
3175000000  -3.542900e+001  1.380148e+002 
3178125000  -3.495870e+001  1.363009e+002 
3181250000  -3.436060e+001  1.278178e+002 
3184375000  -3.413577e+001  1.171840e+002 
3187500000  -3.557769e+001  1.021129e+002 
3190625000  -3.723240e+001  9.640812e+001 
3193750000  -3.731008e+001  1.017661e+002 
3196875000  -3.731660e+001  1.025291e+002 
3200000000  -3.609047e+001  9.702444e+001 
3203125000  -3.590717e+001  8.866787e+001 
3206250000  -3.616439e+001  8.128671e+001 
3209375000  -3.563097e+001  7.273867e+001 
3212500000  -3.630487e+001  6.704755e+001 
3215625000  -3.610459e+001  6.440832e+001 
3218750000  -3.682056e+001  5.240083e+001 
3221875000  -3.710135e+001  4.643395e+001 
3225000000  -3.691685e+001  4.114098e+001 
3228125000  -3.790510e+001  3.503553e+001 
3231250000  -3.818613e+001  3.317323e+001 
3234375000  -3.780975e+001  2.907872e+001 
3237500000  -3.805797e+001  2.471496e+001 
3240625000  -3.748677e+001  2.040288e+001 
3243750000  -3.766577e+001  9.553383e+000 
3246875000  -3.822061e+001  2.868726e+000 
3250000000  -3.862318e+001  -9.375057e-001 
3253125000  -3.896058e+001  -2.745757e+000 
3256250000  -3.849972e+001  -1.201045e+001 
3259375000  -3.899551e+001  -2.298151e+001 
3262500000  -4.069671e+001  -2.660456e+001 
3265625000  -4.108253e+001  -2.403249e+001 
3268750000  -4.114698e+001  -2.266689e+001 
3271875000  -4.043538e+001  -2.547621e+001 
3275000000  -4.001847e+001  -3.604288e+001 
3278125000  -4.104201e+001  -3.983384e+001 
3281250000  -4.093857e+001  -4.072868e+001 
3284375000  -4.064130e+001  -4.842039e+001 
3287500000  -4.085494e+001  -5.133245e+001 
3290625000  -4.123485e+001  -5.915775e+001 
3293750000  -4.124248e+001  -6.486165e+001 
3296875000  -4.241474e+001  -6.664310e+001 
3300000000  -4.170159e+001  -6.639823e+001 
3303125000  -4.088070e+001  -7.262644e+001 
3306250000  -4.067033e+001  -7.922232e+001 
3309375000  -4.043354e+001  -8.756995e+001 
3312500000  -4.099354e+001  -1.006652e+002 
3315625000  -4.229242e+001  -1.066281e+002 
3318750000  -4.355948e+001  -1.115816e+002 
3321875000  -4.521214e+001  -1.069797e+002 
3325000000  -4.487968e+001  -9.648687e+001 
3328125000  -4.358380e+001  -1.011826e+002 
3331250000  -4.205382e+001  -9.816126e+001 
3334375000  -3.976546e+001  -1.143416e+002 
3337500000  -4.051902e+001  -1.341634e+002 
3340625000  -4.252767e+001  -1.429003e+002 
3343750000  -4.420087e+001  -1.425050e+002 
3346875000  -4.313770e+001  -1.422420e+002 
3350000000  -4.288433e+001  -1.468286e+002 
3353125000  -4.296088e+001  -1.543626e+002 
3356250000  -4.253989e+001  -1.608725e+002 
3359375000  -4.322866e+001  -1.731782e+002 
3362500000  -4.424781e+001  -1.787800e+002 
3365625000  -4.482736e+001  1.785643e+002 
3368750000  -4.528139e+001  1.739148e+002 
3371875000  -4.584518e+001  1.697015e+002 
3375000000  -4.759101e+001  1.629892e+002 
3378125000  -4.807116e+001  1.655184e+002 
3381250000  -5.008170e+001  1.779998e+002 
3384375000  -4.634680e+001  -1.721782e+002 
3387500000  -4.397386e+001  1.699202e+002 
3390625000  -4.565834e+001  1.472596e+002 
3393750000  -4.719022e+001  1.491635e+002 
3396875000  -4.570110e+001  1.488922e+002 
3400000000  -4.610236e+001  1.361243e+002 
3403125000  -4.654640e+001  1.298471e+002 
3406250000  -4.741049e+001  1.301942e+002 
3409375000  -4.836993e+001  1.228312e+002 
3412500000  -4.943801e+001  1.154203e+002 
3415625000  -4.959255e+001  1.132227e+002 
3418750000  -4.992415e+001  1.121249e+002 
3421875000  -5.103734e+001  1.229564e+002 
3425000000  -4.937482e+001  1.169966e+002 
3428125000  -4.995649e+001  1.098434e+002 
3431250000  -4.978538e+001  1.066034e+002 
3434375000  -5.020879e+001  9.991451e+001 
3437500000  -5.162670e+001  1.012323e+002 
3440625000  -5.181009e+001  1.001357e+002 
3443750000  -5.022222e+001  1.047436e+002 
3446875000  -5.012583e+001  9.788943e+001 
3450000000  -5.018364e+001  9.070905e+001 
3453125000  -5.091090e+001  7.807286e+001 
3456250000  -5.141491e+001  7.668075e+001 
3459375000  -5.311019e+001  7.854578e+001 
3462500000  -5.211102e+001  8.279630e+001 
3465625000  -5.088264e+001  7.488834e+001 
3468750000  -5.177768e+001  7.718593e+001 
3471875000  -5.199543e+001  7.261427e+001 
3475000000  -5.059408e+001  6.898176e+001 
3478125000  -5.006355e+001  5.818069e+001 
3481250000  -5.217997e+001  5.810953e+001 
3484375000  -5.309111e+001  5.558820e+001 
3487500000  -5.140622e+001  5.761940e+001 
3490625000  -5.110986e+001  5.194919e+001 
3493750000  -5.148148e+001  4.281293e+001 
3496875000  -5.131419e+001  4.725299e+001 
3500000000  -5.198784e+001  3.830753e+001 
3503125000  -5.076103e+001  4.434354e+001 
3506250000  -4.953436e+001  3.518299e+001 
3509375000  -4.927468e+001  1.964761e+001 
3512500000  -5.005683e+001  8.901775e+000 
3515625000  -5.127932e+001  1.036898e+001 
3518750000  -5.252321e+001  1.011471e+001 
3521875000  -5.261961e+001  2.897947e+000 
3525000000  -5.416812e+001  -3.315517e+000 
3528125000  -5.273870e+001  3.224676e+000 
3531250000  -5.215663e+001  -2.918589e+000 
3534375000  -5.246063e+001  -1.928373e+001 
3537500000  -5.362082e+001  -2.443645e+001 
3540625000  -5.411765e+001  -3.302689e+001 
3543750000  -5.585437e+001  -2.046333e+001 
3546875000  -5.717310e+001  -1.604617e+001 
3550000000  -5.375474e+001  -2.442916e+001 
3553125000  -5.373691e+001  -3.722607e+001 
3556250000  -5.632591e+001  -3.901447e+001 
3559375000  -5.720742e+001  -4.354056e+001 
3562500000  -5.572370e+001  -5.326342e+001 
3565625000  -5.693335e+001  -5.556826e+001 
3568750000  -5.685995e+001  -4.699292e+001 
3571875000  -5.763251e+001  -4.235308e+001 
3575000000  -5.768237e+001  -4.896692e+001 
3578125000  -5.830417e+001  -4.743005e+001 
3581250000  -5.789360e+001  -5.108366e+001 
3584375000  -5.659608e+001  -3.766163e+001 
3587500000  -5.683314e+001  -4.277967e+001 
3590625000  -6.040821e+001  -6.167785e+001 
3593750000  -6.167665e+001  -5.007924e+001 
3596875000  -5.806073e+001  -4.828912e+001 
3600000000  -5.811966e+001  -4.773978e+001 
3603125000  -5.764244e+001  -6.006363e+001 
3606250000  -6.016205e+001  -5.195764e+001 
3609375000  -5.725035e+001  -4.847843e+001 
3612500000  -5.843280e+001  -6.024501e+001 
3615625000  -5.950796e+001  -5.363518e+001 
3618750000  -5.875408e+001  -5.099070e+001 
3621875000  -5.676370e+001  -5.628200e+001 
3625000000  -5.674910e+001  -3.925693e+001 
3628125000  -5.638047e+001  -4.512790e+001 
3631250000  -5.653790e+001  -5.059546e+001 
3634375000  -5.643141e+001  -5.713170e+001 
3637500000  -5.633142e+001  -5.051252e+001 
3640625000  -5.383920e+001  -4.696517e+001 
3643750000  -5.224648e+001  -4.883930e+001 
3646875000  -5.274662e+001  -6.318958e+001 
3650000000  -5.306256e+001  -6.742503e+001 
3653125000  -5.208184e+001  -6.645000e+001 
3656250000  -5.155062e+001  -6.864989e+001 
3659375000  -5.180367e+001  -6.593485e+001 
3662500000  -5.063552e+001  -7.549483e+001 
3665625000  -5.026485e+001  -8.038715e+001 
3668750000  -4.843579e+001  -7.371275e+001 
3671875000  -4.744398e+001  -8.973115e+001 
3675000000  -4.716239e+001  -9.408155e+001 
3678125000  -4.668172e+001  -9.802689e+001 
3681250000  -4.644838e+001  -1.045751e+002 
3684375000  -4.667337e+001  -1.090509e+002 
3687500000  -4.684172e+001  -1.152597e+002 
3690625000  -4.677778e+001  -1.235891e+002 
3693750000  -4.709427e+001  -1.232856e+002 
3696875000  -4.602454e+001  -1.214215e+002 
3700000000  -4.497960e+001  -1.295732e+002 
3703125000  -4.519206e+001  -1.366697e+002 
3706250000  -4.628775e+001  -1.369017e+002 
3709375000  -4.485508e+001  -1.360092e+002 
3712500000  -4.316698e+001  -1.414828e+002 
3715625000  -4.192524e+001  -1.512468e+002 
3718750000  -4.176977e+001  -1.582129e+002 
3721875000  -4.116037e+001  -1.669462e+002 
3725000000  -4.170887e+001  -1.746792e+002 
3728125000  -4.133806e+001  -1.782857e+002 
3731250000  -4.076101e+001  1.753276e+002 
3734375000  -4.010077e+001  1.710688e+002 
3737500000  -4.056800e+001  1.606138e+002 
3740625000  -4.075255e+001  1.557523e+002 
3743750000  -4.057590e+001  1.469095e+002 
3746875000  -4.066447e+001  1.402115e+002 
3750000000  -4.098131e+001  1.379535e+002 
3753125000  -4.038202e+001  1.334532e+002 
3756250000  -4.076730e+001  1.298608e+002 
3759375000  -4.051794e+001  1.238631e+002 
3762500000  -4.011106e+001  1.179797e+002 
3765625000  -4.093034e+001  1.146892e+002 
3768750000  -4.013186e+001  1.156303e+002 
3771875000  -3.839161e+001  1.062542e+002 
3775000000  -3.855860e+001  9.605306e+001 
3778125000  -3.905242e+001  8.894695e+001 
3781250000  -3.910465e+001  8.347145e+001 
3784375000  -3.870893e+001  7.822607e+001 
3787500000  -3.866486e+001  7.241171e+001 
3790625000  -3.924716e+001  6.456001e+001 
3793750000  -3.903985e+001  5.950805e+001 
3796875000  -3.820042e+001  5.574607e+001 
3800000000  -3.643334e+001  5.143938e+001 
3803125000  -3.804935e+001  3.910030e+001 
3806250000  -3.891508e+001  3.419468e+001 
3809375000  -3.849872e+001  3.063029e+001 
3812500000  -3.836724e+001  1.893594e+001 
3815625000  -3.944357e+001  1.247364e+001 
3818750000  -4.062688e+001  1.284829e+001 
3821875000  -4.005924e+001  2.234223e+001 
3825000000  -3.821098e+001  1.837994e+001 
3828125000  -3.716542e+001  -1.260511e+000 
3831250000  -3.796943e+001  -1.611231e+001 
3834375000  -4.036328e+001  -1.444920e+001 
3837500000  -4.090238e+001  -1.110957e+001 
3840625000  -3.900990e+001  -1.440917e+001 
3843750000  -3.833471e+001  -2.912810e+001 
3846875000  -3.979451e+001  -3.492559e+001 
3850000000  -4.059139e+001  -2.751691e+001 
3853125000  -3.987135e+001  -2.959250e+001 
3856250000  -3.901201e+001  -3.772409e+001 
3859375000  -3.859861e+001  -4.594830e+001 
3862500000  -3.850116e+001  -5.465274e+001 
3865625000  -3.876959e+001  -5.941995e+001 
3868750000  -3.856724e+001  -6.043354e+001 
3871875000  -3.792579e+001  -6.853146e+001 
3875000000  -3.856886e+001  -7.828363e+001 
3878125000  -3.938064e+001  -7.982522e+001 
3881250000  -3.920750e+001  -8.118633e+001 
3884375000  -3.876246e+001  -8.828178e+001 
3887500000  -3.933489e+001  -9.499058e+001 
3890625000  -3.934808e+001  -9.899557e+001 
3893750000  -3.964004e+001  -1.022206e+002 
3896875000  -4.025251e+001  -1.039783e+002 
3900000000  -3.975083e+001  -1.079268e+002 
3903125000  -3.930077e+001  -1.113080e+002 
3906250000  -3.867494e+001  -1.156985e+002 
3909375000  -3.823634e+001  -1.254088e+002 
3912500000  -3.908377e+001  -1.331256e+002 
3915625000  -4.037833e+001  -1.334585e+002 
3918750000  -3.994345e+001  -1.345139e+002 
3921875000  -3.918711e+001  -1.395520e+002 
3925000000  -3.851531e+001  -1.455028e+002 
3928125000  -3.835084e+001  -1.548238e+002 
3931250000  -3.917763e+001  -1.621523e+002 
3934375000  -3.953616e+001  -1.611163e+002 
3937500000  -3.992957e+001  -1.642010e+002 
3940625000  -3.988321e+001  -1.647605e+002 
3943750000  -3.879653e+001  -1.692192e+002 
3946875000  -3.846522e+001  -1.777442e+002 
3950000000  -3.953309e+001  1.747635e+002 
3953125000  -4.020116e+001  1.743704e+002 
3956250000  -3.885167e+001  1.749176e+002 
3959375000  -3.784388e+001  1.677296e+002 
3962500000  -3.760654e+001  1.600506e+002 
3965625000  -3.781116e+001  1.498738e+002 
3968750000  -3.853347e+001  1.410880e+002 
3971875000  -3.859289e+001  1.358736e+002 
3975000000  -3.835903e+001  1.327608e+002 
3978125000  -3.832907e+001  1.289119e+002 
3981250000  -3.842029e+001  1.208089e+002 
3984375000  -3.911574e+001  1.145788e+002 
3987500000  -3.968933e+001  1.119650e+002 
3990625000  -3.967171e+001  1.093159e+002 
3993750000  -3.980758e+001  1.038985e+002 
3996875000  -3.996733e+001  9.765636e+001 
4000000000  -4.049694e+001  9.452957e+001 
4003125000  -4.084082e+001  9.695105e+001 
4006250000  -3.931183e+001  9.432771e+001 
4009375000  -3.869455e+001  7.859581e+001 
4012500000  -4.022526e+001  7.254770e+001 
4015625000  -4.142498e+001  7.106969e+001 
4018750000  -4.132541e+001  7.154677e+001 
4021875000  -4.074642e+001  6.882115e+001 
4025000000  -4.062439e+001  6.224032e+001 
4028125000  -4.055693e+001  5.515554e+001 
4031250000  -4.108382e+001  5.074517e+001 
4034375000  -4.135675e+001  5.289917e+001 
4037500000  -4.101925e+001  5.228919e+001 
4040625000  -4.124635e+001  4.752827e+001 
4043750000  -4.105135e+001  4.470806e+001 
4046875000  -4.073887e+001  4.040388e+001 
4050000000  -4.040926e+001  3.524695e+001 
4053125000  -4.157212e+001  3.313002e+001 
4056250000  -4.157303e+001  3.810939e+001 
4059375000  -3.944958e+001  3.423108e+001 
4062500000  -3.866772e+001  2.534423e+001 
4065625000  -3.901366e+001  2.070654e+001 
4068750000  -3.841154e+001  1.391517e+001 
4071875000  -3.768211e+001  3.588257e+000 
4075000000  -3.852589e+001  -3.628733e+000 
4078125000  -3.872626e+001  -7.471322e+000 
4081250000  -3.804482e+001  -1.275054e+001 
4084375000  -3.808381e+001  -2.134605e+001 
4087500000  -3.859069e+001  -2.780906e+001 
4090625000  -3.903598e+001  -2.966931e+001 
4093750000  -3.859700e+001  -3.143506e+001 
4096875000  -3.884795e+001  -4.263217e+001 
4100000000  -3.961262e+001  -4.974448e+001 
4103125000  -4.046230e+001  -4.676357e+001 
4106250000  -4.013835e+001  -4.513924e+001 
4109375000  -3.911667e+001  -4.662760e+001 
4112500000  -3.850700e+001  -5.749520e+001 
4115625000  -3.952547e+001  -6.305165e+001 
4118750000  -3.892921e+001  -6.786623e+001 
4121875000  -3.871118e+001  -7.705016e+001 
4125000000  -3.978127e+001  -8.161095e+001 
4128125000  -4.086668e+001  -7.869031e+001 
4131250000  -3.983043e+001  -7.417130e+001 
4134375000  -3.742371e+001  -8.461578e+001 
4137500000  -3.823691e+001  -1.066675e+002 
4140625000  -4.035305e+001  -1.113375e+002 
4143750000  -4.137285e+001  -1.059187e+002 
4146875000  -4.027342e+001  -1.004145e+002 
4150000000  -3.945151e+001  -1.119133e+002 
4153125000  -3.993868e+001  -1.195633e+002 
4156250000  -4.107991e+001  -1.219414e+002 
4159375000  -4.103964e+001  -1.173562e+002 
4162500000  -3.981204e+001  -1.128959e+002 
4165625000  -3.867833e+001  -1.225132e+002 
4168750000  -3.843905e+001  -1.322972e+002 
4171875000  -3.838571e+001  -1.417629e+002 
4175000000  -3.902155e+001  -1.472069e+002 
4178125000  -3.938565e+001  -1.488169e+002 
4181250000  -3.916368e+001  -1.529270e+002 
4184375000  -3.927532e+001  -1.570898e+002 
4187500000  -3.918550e+001  -1.632663e+002 
4190625000  -3.936988e+001  -1.711608e+002 
4193750000  -4.073654e+001  -1.755996e+002 
4196875000  -4.174618e+001  -1.761367e+002 
4200000000  -4.228440e+001  -1.693173e+002 
4203125000  -4.061042e+001  -1.561234e+002 
4206250000  -3.737212e+001  -1.662034e+002 
4209375000  -3.711504e+001  1.685991e+002 
4212500000  -3.955826e+001  1.620082e+002 
4215625000  -3.991659e+001  1.717018e+002 
4218750000  -3.810932e+001  1.719521e+002 
4221875000  -3.674433e+001  1.622859e+002 
4225000000  -3.790657e+001  1.484514e+002 
4228125000  -3.747874e+001  1.513586e+002 
4231250000  -3.619738e+001  1.433994e+002 
4234375000  -3.618845e+001  1.329148e+002 
4237500000  -3.613644e+001  1.279390e+002 
4240625000  -3.597063e+001  1.146884e+002 
4243750000  -3.753965e+001  1.073620e+002 
4246875000  -3.836596e+001  1.076238e+002 
4250000000  -3.842965e+001  1.058010e+002 
4253125000  -3.821443e+001  1.037615e+002 
4256250000  -3.799788e+001  9.923232e+001 
4259375000  -3.755825e+001  9.314403e+001 
4262500000  -3.799270e+001  8.760513e+001 
4265625000  -3.797302e+001  8.669281e+001 
4268750000  -3.684721e+001  7.880183e+001 
4271875000  -3.669099e+001  7.109021e+001 
4275000000  -3.644650e+001  6.109410e+001 
4278125000  -3.776456e+001  5.025111e+001 
4281250000  -3.899611e+001  4.742345e+001 
4284375000  -3.858910e+001  4.428507e+001 
4287500000  -4.012103e+001  4.383053e+001 
4290625000  -4.051385e+001  5.201759e+001 
4293750000  -3.867821e+001  5.046824e+001 
4296875000  -3.778882e+001  3.766387e+001 
4300000000  -3.863626e+001  2.811541e+001 
4303125000  -3.970804e+001  3.071686e+001 
4306250000  -3.810342e+001  3.285938e+001 
4309375000  -3.728389e+001  2.754053e+001 
4312500000  -3.756643e+001  1.676111e+001 
4315625000  -3.762297e+001  8.379917e+000 
4318750000  -3.856735e+001  4.960675e+000 
4321875000  -3.853678e+001  5.790946e+000 
4325000000  -3.790034e+001  2.417143e+000 
4328125000  -3.692259e+001  -4.675002e+000 
4331250000  -3.716969e+001  -1.617125e+001 
4334375000  -3.805645e+001  -2.344379e+001 
4337500000  -3.925481e+001  -2.318898e+001 
4340625000  -3.908874e+001  -1.875553e+001 
4343750000  -3.831400e+001  -2.306162e+001 
4346875000  -3.795437e+001  -3.250581e+001 
4350000000  -3.835902e+001  -4.044093e+001 
4353125000  -3.885370e+001  -4.637097e+001 
4356250000  -4.093110e+001  -4.248758e+001 
4359375000  -3.991074e+001  -2.929669e+001 
4362500000  -3.615756e+001  -3.656400e+001 
4365625000  -3.585052e+001  -5.593182e+001 
4368750000  -3.687096e+001  -6.538403e+001 
4371875000  -3.763645e+001  -6.525799e+001 
4375000000  -3.721027e+001  -6.832037e+001 
4378125000  -3.651666e+001  -7.717106e+001 
4381250000  -3.686353e+001  -8.515435e+001 
4384375000  -3.707303e+001  -9.144150e+001 
4387500000  -3.795295e+001  -9.642704e+001 
4390625000  -3.818907e+001  -9.787901e+001 
4393750000  -3.769578e+001  -9.709272e+001 
4396875000  -3.707941e+001  -1.043645e+002 
4400000000  -3.678302e+001  -1.120505e+002 
4403125000  -3.750790e+001  -1.207806e+002 
4406250000  -3.817599e+001  -1.263838e+002 
4409375000  -3.855750e+001  -1.297022e+002 
4412500000  -3.947970e+001  -1.301313e+002 
4415625000  -3.909835e+001  -1.252999e+002 
