!Agilent Technologies,E8363B,MY43030201,A.06.04.32
!Agilent E8363B: A.06.04.32
!Date: Tuesday, November 11, 2014 21:30:53
!Correction: S21(Response(S21)) 
!S1P File: Measurement: S21:
# Hz S  dB   R 50
3000000000  -4.068594e+001  8.182786e+001 
3003125000  -4.232388e+001  7.502228e+001 
3006250000  -4.215732e+001  7.374208e+001 
3009375000  -4.267440e+001  7.919138e+001 
3012500000  -4.157541e+001  7.377741e+001 
3015625000  -4.138033e+001  6.746326e+001 
3018750000  -4.190594e+001  6.754266e+001 
3021875000  -4.040538e+001  6.821080e+001 
3025000000  -3.897470e+001  6.464619e+001 
3028125000  -3.798652e+001  5.509263e+001 
3031250000  -3.699817e+001  4.278721e+001 
3034375000  -3.675080e+001  2.884900e+001 
3037500000  -3.748722e+001  1.737642e+001 
3040625000  -3.892018e+001  1.272978e+001 
3043750000  -3.926275e+001  6.461823e+000 
3046875000  -3.988339e+001  -1.815076e-001 
3050000000  -4.108926e+001  -3.280461e+000 
3053125000  -4.065649e+001  -1.575562e-001 
3056250000  -4.044931e+001  2.951214e+000 
3059375000  -3.984210e+001  7.264391e-001 
3062500000  -3.826080e+001  -2.986297e+000 
3065625000  -3.810945e+001  -1.370038e+001 
3068750000  -3.757999e+001  -2.043133e+001 
3071875000  -3.761499e+001  -2.248562e+001 
3075000000  -3.702353e+001  -2.959310e+001 
3078125000  -3.690348e+001  -3.566908e+001 
3081250000  -3.725253e+001  -4.166141e+001 
3084375000  -3.646706e+001  -4.628940e+001 
3087500000  -3.646434e+001  -5.320499e+001 
3090625000  -3.587564e+001  -6.583838e+001 
3093750000  -3.684056e+001  -7.300996e+001 
3096875000  -3.755215e+001  -7.899974e+001 
3100000000  -3.726249e+001  -8.213830e+001 
3103125000  -3.756383e+001  -8.576408e+001 
3106250000  -3.710322e+001  -8.986998e+001 
3109375000  -3.721172e+001  -9.488393e+001 
3112500000  -3.722382e+001  -9.976196e+001 
3115625000  -3.715143e+001  -1.046050e+002 
3118750000  -3.730173e+001  -1.074994e+002 
3121875000  -3.648285e+001  -1.187120e+002 
3125000000  -3.837724e+001  -1.224534e+002 
3128125000  -3.848534e+001  -1.146767e+002 
3131250000  -3.612414e+001  -1.201314e+002 
3134375000  -3.537695e+001  -1.373949e+002 
3137500000  -3.625601e+001  -1.495040e+002 
3140625000  -3.726012e+001  -1.524193e+002 
3143750000  -3.817849e+001  -1.552966e+002 
3146875000  -3.768688e+001  -1.523740e+002 
3150000000  -3.680645e+001  -1.574501e+002 
3153125000  -3.711926e+001  -1.652346e+002 
3156250000  -3.806687e+001  -1.609468e+002 
3159375000  -3.572500e+001  -1.626875e+002 
3162500000  -3.429219e+001  -1.783809e+002 
3165625000  -3.534407e+001  1.683383e+002 
3168750000  -3.539257e+001  1.675659e+002 
3171875000  -3.488937e+001  1.597065e+002 
3175000000  -3.534275e+001  1.514186e+002 
3178125000  -3.519043e+001  1.497079e+002 
3181250000  -3.437766e+001  1.413382e+002 
3184375000  -3.420748e+001  1.295866e+002 
3187500000  -3.539922e+001  1.151374e+002 
3190625000  -3.722423e+001  1.090903e+002 
3193750000  -3.744279e+001  1.135161e+002 
3196875000  -3.736426e+001  1.157755e+002 
3200000000  -3.626862e+001  1.099457e+002 
3203125000  -3.591874e+001  1.023500e+002 
3206250000  -3.608686e+001  9.485957e+001 
3209375000  -3.575961e+001  8.747715e+001 
3212500000  -3.628522e+001  8.054790e+001 
3215625000  -3.600994e+001  7.771632e+001 
3218750000  -3.684270e+001  6.590459e+001 
3221875000  -3.728303e+001  5.962207e+001 
3225000000  -3.703182e+001  5.492482e+001 
3228125000  -3.760593e+001  4.860051e+001 
3231250000  -3.831816e+001  4.542983e+001 
3234375000  -3.790965e+001  4.332737e+001 
3237500000  -3.814778e+001  3.844434e+001 
3240625000  -3.761874e+001  3.349924e+001 
3243750000  -3.774619e+001  2.363950e+001 
3246875000  -3.815822e+001  1.622357e+001 
3250000000  -3.870185e+001  1.271595e+001 
3253125000  -3.894169e+001  9.399864e+000 
3256250000  -3.851037e+001  7.390941e-001 
3259375000  -3.915187e+001  -1.095468e+001 
3262500000  -4.071751e+001  -1.286979e+001 
3265625000  -4.129266e+001  -9.575217e+000 
3268750000  -4.110429e+001  -9.095530e+000 
3271875000  -4.054499e+001  -1.271301e+001 
3275000000  -4.007106e+001  -2.143174e+001 
3278125000  -4.078041e+001  -2.704809e+001 
3281250000  -4.099213e+001  -2.716225e+001 
3284375000  -4.049992e+001  -3.331038e+001 
3287500000  -4.071515e+001  -3.793439e+001 
3290625000  -4.133455e+001  -4.427980e+001 
3293750000  -4.147746e+001  -5.188945e+001 
3296875000  -4.251879e+001  -5.288231e+001 
3300000000  -4.177641e+001  -5.180951e+001 
3303125000  -4.094757e+001  -5.817368e+001 
3306250000  -4.074437e+001  -6.518130e+001 
3309375000  -4.053977e+001  -7.252187e+001 
3312500000  -4.092318e+001  -8.612286e+001 
3315625000  -4.207266e+001  -9.308054e+001 
3318750000  -4.327841e+001  -9.780313e+001 
3321875000  -4.484900e+001  -9.238662e+001 
3325000000  -4.440361e+001  -8.747803e+001 
3328125000  -4.363542e+001  -8.749236e+001 
3331250000  -4.239181e+001  -8.422927e+001 
3334375000  -3.957137e+001  -9.837891e+001 
3337500000  -4.061644e+001  -1.179384e+002 
3340625000  -4.216564e+001  -1.276924e+002 
3343750000  -4.381964e+001  -1.281971e+002 
3346875000  -4.325526e+001  -1.303825e+002 
3350000000  -4.283364e+001  -1.307666e+002 
3353125000  -4.278273e+001  -1.389895e+002 
3356250000  -4.255832e+001  -1.469731e+002 
3359375000  -4.338335e+001  -1.578269e+002 
3362500000  -4.423726e+001  -1.626607e+002 
3365625000  -4.452573e+001  -1.663004e+002 
3368750000  -4.533833e+001  -1.719046e+002 
3371875000  -4.598224e+001  -1.776131e+002 
3375000000  -4.704866e+001  -1.799447e+002 
3378125000  -4.808984e+001  -1.791959e+002 
3381250000  -4.988314e+001  -1.668862e+002 
3384375000  -4.652460e+001  -1.515284e+002 
3387500000  -4.381988e+001  -1.773504e+002 
3390625000  -4.629021e+001  1.660830e+002 
3393750000  -4.683808e+001  1.647118e+002 
3396875000  -4.582330e+001  1.622723e+002 
3400000000  -4.600793e+001  1.504505e+002 
3403125000  -4.690164e+001  1.457103e+002 
3406250000  -4.743635e+001  1.409179e+002 
3409375000  -4.740186e+001  1.350881e+002 
3412500000  -4.879873e+001  1.290773e+002 
3415625000  -4.985711e+001  1.308485e+002 
3418750000  -5.010634e+001  1.284840e+002 
3421875000  -5.129093e+001  1.353437e+002 
3425000000  -5.022076e+001  1.321000e+002 
3428125000  -4.913226e+001  1.262131e+002 
3431250000  -4.935486e+001  1.177528e+002 
3434375000  -5.038131e+001  1.154840e+002 
3437500000  -5.103212e+001  1.152073e+002 
3440625000  -5.146573e+001  1.123870e+002 
3443750000  -5.019260e+001  1.154513e+002 
3446875000  -5.088929e+001  1.156313e+002 
3450000000  -4.917020e+001  1.064977e+002 
3453125000  -5.038962e+001  9.597417e+001 
3456250000  -5.187145e+001  8.982168e+001 
3459375000  -5.263819e+001  9.793653e+001 
3462500000  -5.175768e+001  1.025371e+002 
3465625000  -5.108060e+001  8.548123e+001 
3468750000  -5.215139e+001  9.455942e+001 
3471875000  -5.240233e+001  8.736888e+001 
3475000000  -5.063365e+001  8.846652e+001 
3478125000  -5.062487e+001  7.458264e+001 
3481250000  -5.249958e+001  7.508237e+001 
3484375000  -5.186652e+001  7.980152e+001 
3487500000  -5.116766e+001  7.343635e+001 
3490625000  -5.123527e+001  6.830714e+001 
3493750000  -5.073198e+001  5.624718e+001 
3496875000  -5.100303e+001  6.231705e+001 
3500000000  -5.158551e+001  5.884884e+001 
3503125000  -5.073906e+001  5.871501e+001 
3506250000  -4.931396e+001  5.027557e+001 
3509375000  -4.998857e+001  3.699809e+001 
3512500000  -5.036910e+001  2.118425e+001 
3515625000  -5.081422e+001  1.794112e+001 
3518750000  -5.125205e+001  2.212884e+001 
3521875000  -5.092777e+001  1.045958e+001 
3525000000  -5.335804e+001  6.809502e+000 
3528125000  -5.247844e+001  1.723418e+001 
3531250000  -5.168172e+001  1.598019e+001 
3534375000  -5.246355e+001  -4.704473e+000 
3537500000  -5.327319e+001  -1.347502e+001 
3540625000  -5.436029e+001  -1.509945e+001 
3543750000  -5.332632e+001  -1.141359e+001 
3546875000  -5.625393e+001  2.669925e+000 
3550000000  -5.354488e+001  -8.178461e+000 
3553125000  -5.331802e+001  -2.114214e+001 
3556250000  -5.411043e+001  -2.219300e+001 
3559375000  -5.389942e+001  -2.475063e+001 
3562500000  -5.581112e+001  -3.497164e+001 
3565625000  -5.569516e+001  -4.314683e+001 
3568750000  -5.722688e+001  -3.511525e+001 
3571875000  -5.753687e+001  -3.888538e+001 
3575000000  -5.813012e+001  -3.748511e+001 
3578125000  -5.788410e+001  -3.989823e+001 
3581250000  -5.767176e+001  -2.056879e+001 
3584375000  -5.664643e+001  -3.201903e+001 
3587500000  -5.743436e+001  -4.169707e+001 
3590625000  -5.875562e+001  -5.834429e+001 
3593750000  -5.906127e+001  -3.744071e+001 
3596875000  -5.766273e+001  -3.768431e+001 
3600000000  -5.633055e+001  -3.425711e+001 
3603125000  -5.821101e+001  -4.985961e+001 
3606250000  -5.921998e+001  -4.338083e+001 
3609375000  -5.836377e+001  -4.816231e+001 
3612500000  -5.900487e+001  -4.721536e+001 
3615625000  -5.853695e+001  -5.040005e+001 
3618750000  -6.070056e+001  -2.646754e+001 
3621875000  -5.719951e+001  -4.799181e+001 
3625000000  -5.836446e+001  -4.129326e+001 
3628125000  -5.790489e+001  -4.337588e+001 
3631250000  -5.619236e+001  -3.891801e+001 
3634375000  -5.688933e+001  -3.880783e+001 
3637500000  -5.663514e+001  -4.398329e+001 
3640625000  -5.359497e+001  -3.258289e+001 
3643750000  -5.494532e+001  -4.336987e+001 
3646875000  -5.299239e+001  -4.741174e+001 
3650000000  -5.372764e+001  -5.681057e+001 
3653125000  -5.198252e+001  -5.195388e+001 
3656250000  -5.294945e+001  -5.455075e+001 
3659375000  -5.170304e+001  -5.277440e+001 
3662500000  -5.127978e+001  -6.612448e+001 
3665625000  -5.061265e+001  -6.214247e+001 
3668750000  -4.906077e+001  -6.304993e+001 
3671875000  -4.774774e+001  -7.683333e+001 
3675000000  -4.787271e+001  -8.110498e+001 
3678125000  -4.721710e+001  -8.874005e+001 
3681250000  -4.699512e+001  -8.983959e+001 
3684375000  -4.694563e+001  -9.487757e+001 
3687500000  -4.694633e+001  -9.868633e+001 
3690625000  -4.702396e+001  -1.074699e+002 
3693750000  -4.744350e+001  -1.069304e+002 
3696875000  -4.700016e+001  -1.080941e+002 
3700000000  -4.505418e+001  -1.139095e+002 
3703125000  -4.542073e+001  -1.213777e+002 
3706250000  -4.611189e+001  -1.236418e+002 
3709375000  -4.479133e+001  -1.203192e+002 
3712500000  -4.350102e+001  -1.268842e+002 
3715625000  -4.211173e+001  -1.374727e+002 
3718750000  -4.191390e+001  -1.436198e+002 
3721875000  -4.130122e+001  -1.518953e+002 
3725000000  -4.197245e+001  -1.582887e+002 
3728125000  -4.158664e+001  -1.622169e+002 
3731250000  -4.080725e+001  -1.686645e+002 
3734375000  -4.007372e+001  -1.732977e+002 
3737500000  -4.102994e+001  1.769001e+002 
3740625000  -4.093636e+001  1.695274e+002 
3743750000  -4.051503e+001  1.626463e+002 
3746875000  -4.076213e+001  1.567744e+002 
3750000000  -4.077418e+001  1.530106e+002 
3753125000  -4.066223e+001  1.490195e+002 
3756250000  -4.083459e+001  1.453646e+002 
3759375000  -4.051999e+001  1.394857e+002 
3762500000  -3.987848e+001  1.342029e+002 
3765625000  -4.076233e+001  1.289293e+002 
3768750000  -4.012701e+001  1.290502e+002 
3771875000  -3.861121e+001  1.215079e+002 
3775000000  -3.832501e+001  1.110416e+002 
3778125000  -3.895130e+001  1.045996e+002 
3781250000  -3.904375e+001  1.002191e+002 
3784375000  -3.883082e+001  9.404543e+001 
3787500000  -3.860948e+001  8.834070e+001 
3790625000  -3.919570e+001  7.982267e+001 
3793750000  -3.907158e+001  7.516496e+001 
3796875000  -3.831749e+001  7.138997e+001 
3800000000  -3.644870e+001  6.737788e+001 
3803125000  -3.816650e+001  5.373837e+001 
3806250000  -3.894678e+001  4.917311e+001 
3809375000  -3.853520e+001  4.512064e+001 
3812500000  -3.851998e+001  3.668317e+001 
3815625000  -3.961207e+001  2.741712e+001 
3818750000  -4.090252e+001  2.687174e+001 
3821875000  -4.046416e+001  3.736698e+001 
3825000000  -3.832257e+001  3.254296e+001 
3828125000  -3.691819e+001  1.626038e+001 
3831250000  -3.828855e+001  2.151481e+000 
3834375000  -4.046641e+001  -3.865551e-001 
3837500000  -4.075716e+001  3.884690e+000 
3840625000  -3.900244e+001  1.476039e+000 
3843750000  -3.815917e+001  -1.414021e+001 
3846875000  -3.989909e+001  -2.049449e+001 
3850000000  -4.077483e+001  -1.529494e+001 
3853125000  -3.984566e+001  -1.170121e+001 
3856250000  -3.952821e+001  -1.929286e+001 
3859375000  -3.893726e+001  -2.849177e+001 
3862500000  -3.831848e+001  -3.807056e+001 
3865625000  -3.913602e+001  -4.441122e+001 
3868750000  -3.859695e+001  -4.245933e+001 
3871875000  -3.797491e+001  -5.145443e+001 
3875000000  -3.840751e+001  -6.200071e+001 
3878125000  -3.953390e+001  -6.385759e+001 
3881250000  -3.914400e+001  -6.333273e+001 
3884375000  -3.857568e+001  -7.231900e+001 
3887500000  -3.900551e+001  -7.674440e+001 
3890625000  -3.946395e+001  -8.212064e+001 
3893750000  -3.978045e+001  -8.383282e+001 
3896875000  -3.996644e+001  -8.787591e+001 
3900000000  -3.965266e+001  -9.161360e+001 
3903125000  -3.892988e+001  -9.489088e+001 
3906250000  -3.893019e+001  -9.826238e+001 
3909375000  -3.805710e+001  -1.090466e+002 
3912500000  -3.908121e+001  -1.169872e+002 
3915625000  -4.050011e+001  -1.172352e+002 
3918750000  -4.003273e+001  -1.164646e+002 
3921875000  -3.934422e+001  -1.222236e+002 
3925000000  -3.836972e+001  -1.273804e+002 
3928125000  -3.812617e+001  -1.369736e+002 
3931250000  -3.887070e+001  -1.433949e+002 
3934375000  -3.936385e+001  -1.454360e+002 
3937500000  -4.020319e+001  -1.485566e+002 
3940625000  -3.978293e+001  -1.490993e+002 
3943750000  -3.887501e+001  -1.531525e+002 
3946875000  -3.844596e+001  -1.616544e+002 
3950000000  -3.912937e+001  -1.688225e+002 
3953125000  -3.971840e+001  -1.702441e+002 
3956250000  -3.872284e+001  -1.717827e+002 
3959375000  -3.777465e+001  -1.763519e+002 
3962500000  -3.749282e+001  1.757802e+002 
3965625000  -3.774781e+001  1.658150e+002 
3968750000  -3.881478e+001  1.594874e+002 
3971875000  -3.866829e+001  1.529838e+002 
3975000000  -3.822997e+001  1.475261e+002 
3978125000  -3.858351e+001  1.442240e+002 
3981250000  -3.837394e+001  1.377415e+002 
3984375000  -3.907708e+001  1.307770e+002 
3987500000  -3.956370e+001  1.271948e+002 
3990625000  -3.979489e+001  1.248778e+002 
3993750000  -3.982213e+001  1.207056e+002 
3996875000  -4.004797e+001  1.148138e+002 
4000000000  -4.028809e+001  1.108339e+002 
4003125000  -4.082779e+001  1.145160e+002 
4006250000  -3.910226e+001  1.103474e+002 
4009375000  -3.860625e+001  9.655672e+001 
4012500000  -3.983941e+001  8.938111e+001 
4015625000  -4.124668e+001  8.848430e+001 
4018750000  -4.125998e+001  8.958650e+001 
4021875000  -4.059793e+001  8.622624e+001 
4025000000  -3.989811e+001  8.177021e+001 
4028125000  -4.024516e+001  7.596794e+001 
4031250000  -4.095916e+001  6.855251e+001 
4034375000  -4.116940e+001  6.985828e+001 
4037500000  -4.064264e+001  6.906508e+001 
4040625000  -4.047585e+001  6.534609e+001 
4043750000  -4.085399e+001  6.078182e+001 
4046875000  -4.086649e+001  5.796152e+001 
4050000000  -4.040523e+001  5.283504e+001 
4053125000  -4.143433e+001  4.883603e+001 
4056250000  -4.149310e+001  5.326014e+001 
4059375000  -3.925913e+001  5.419612e+001 
4062500000  -3.884961e+001  4.446215e+001 
4065625000  -3.866657e+001  3.669711e+001 
4068750000  -3.799620e+001  3.274342e+001 
4071875000  -3.774837e+001  2.039013e+001 
4075000000  -3.827251e+001  1.437638e+001 
4078125000  -3.844480e+001  1.030599e+001 
4081250000  -3.799053e+001  5.344615e+000 
4084375000  -3.778981e+001  -3.425536e+000 
4087500000  -3.856362e+001  -9.466665e+000 
4090625000  -3.894528e+001  -1.264823e+001 
4093750000  -3.861933e+001  -1.429444e+001 
4096875000  -3.830028e+001  -2.427329e+001 
4100000000  -3.924964e+001  -3.145895e+001 
4103125000  -4.053328e+001  -3.036539e+001 
4106250000  -3.947116e+001  -2.779365e+001 
4109375000  -3.893917e+001  -3.058557e+001 
4112500000  -3.836398e+001  -3.992617e+001 
4115625000  -3.876038e+001  -4.659467e+001 
4118750000  -3.866580e+001  -5.172206e+001 
4121875000  -3.870384e+001  -5.917426e+001 
4125000000  -3.968421e+001  -6.515856e+001 
4128125000  -4.039091e+001  -6.249668e+001 
4131250000  -3.939752e+001  -5.850478e+001 
4134375000  -3.726159e+001  -6.728634e+001 
4137500000  -3.777216e+001  -8.953706e+001 
4140625000  -3.994569e+001  -9.331915e+001 
4143750000  -4.129289e+001  -8.890217e+001 
4146875000  -4.029630e+001  -8.544434e+001 
4150000000  -3.945398e+001  -9.298183e+001 
4153125000  -3.947660e+001  -1.010405e+002 
4156250000  -4.083825e+001  -1.057142e+002 
4159375000  -4.053102e+001  -1.001357e+002 
4162500000  -3.957071e+001  -9.707825e+001 
4165625000  -3.862817e+001  -1.051640e+002 
4168750000  -3.811737e+001  -1.148071e+002 
4171875000  -3.810782e+001  -1.247754e+002 
4175000000  -3.889318e+001  -1.311801e+002 
4178125000  -3.910383e+001  -1.318532e+002 
4181250000  -3.884051e+001  -1.368836e+002 
4184375000  -3.898536e+001  -1.414722e+002 
4187500000  -3.891037e+001  -1.464028e+002 
4190625000  -3.905136e+001  -1.518633e+002 
4193750000  -3.990739e+001  -1.565718e+002 
4196875000  -4.110827e+001  -1.602676e+002 
4200000000  -4.221381e+001  -1.547876e+002 
4203125000  -4.040453e+001  -1.411119e+002 
4206250000  -3.735390e+001  -1.504700e+002 
4209375000  -3.674136e+001  -1.745101e+002 
4212500000  -3.917064e+001  -1.786828e+002 
4215625000  -3.962151e+001  -1.735855e+002 
4218750000  -3.781533e+001  -1.726108e+002 
4221875000  -3.620838e+001  1.777620e+002 
4225000000  -3.722198e+001  1.649334e+002 
4228125000  -3.722809e+001  1.664576e+002 
4231250000  -3.586003e+001  1.589919e+002 
4234375000  -3.576468e+001  1.478727e+002 
4237500000  -3.573517e+001  1.439375e+002 
4240625000  -3.582125e+001  1.329526e+002 
4243750000  -3.696390e+001  1.253211e+002 
4246875000  -3.800943e+001  1.238604e+002 
4250000000  -3.785550e+001  1.223404e+002 
4253125000  -3.724469e+001  1.207028e+002 
4256250000  -3.742235e+001  1.148755e+002 
4259375000  -3.709478e+001  1.094699e+002 
4262500000  -3.723994e+001  1.022469e+002 
4265625000  -3.743067e+001  1.017291e+002 
4268750000  -3.648362e+001  9.710297e+001 
4271875000  -3.624614e+001  8.755819e+001 
4275000000  -3.602336e+001  7.784350e+001 
4278125000  -3.709848e+001  6.565350e+001 
4281250000  -3.856368e+001  6.346451e+001 
4284375000  -3.835615e+001  6.138010e+001 
4287500000  -3.993169e+001  5.792063e+001 
4290625000  -4.057201e+001  6.709488e+001 
4293750000  -3.819315e+001  6.722607e+001 
4296875000  -3.707679e+001  5.394996e+001 
4300000000  -3.832334e+001  4.330008e+001 
4303125000  -3.925686e+001  4.886887e+001 
4306250000  -3.801396e+001  5.162978e+001 
4309375000  -3.703696e+001  4.368167e+001 
4312500000  -3.696460e+001  3.355845e+001 
4315625000  -3.727806e+001  2.390554e+001 
4318750000  -3.786361e+001  2.057461e+001 
4321875000  -3.820849e+001  2.166878e+001 
4325000000  -3.750042e+001  1.946369e+001 
4328125000  -3.699090e+001  1.116802e+001 
4331250000  -3.699911e+001  -1.189907e+000 
4334375000  -3.780556e+001  -7.176725e+000 
4337500000  -3.907090e+001  -7.841996e+000 
4340625000  -3.923531e+001  -2.834940e+000 
4343750000  -3.806627e+001  -6.467840e+000 
4346875000  -3.790764e+001  -1.481076e+001 
4350000000  -3.779502e+001  -2.369766e+001 
4353125000  -3.804908e+001  -3.113193e+001 
4356250000  -4.045137e+001  -2.625820e+001 
4359375000  -3.939118e+001  -1.500658e+001 
4362500000  -3.597863e+001  -2.135151e+001 
4365625000  -3.541608e+001  -3.890629e+001 
4368750000  -3.683937e+001  -4.918381e+001 
4371875000  -3.749962e+001  -4.997084e+001 
4375000000  -3.664779e+001  -5.313438e+001 
4378125000  -3.624457e+001  -6.005965e+001 
4381250000  -3.658679e+001  -6.697117e+001 
4384375000  -3.660216e+001  -7.474550e+001 
4387500000  -3.732626e+001  -8.012627e+001 
4390625000  -3.799825e+001  -8.201433e+001 
4393750000  -3.712917e+001  -8.036330e+001 
4396875000  -3.673845e+001  -8.705949e+001 
4400000000  -3.628096e+001  -9.591273e+001 
4403125000  -3.710693e+001  -1.051956e+002 
4406250000  -3.791162e+001  -1.085627e+002 
4409375000  -3.832436e+001  -1.125768e+002 
4412500000  -3.900048e+001  -1.174146e+002 
4415625000  -3.892500e+001  -1.106716e+002 
