!Agilent Technologies,E8363B,MY43030201,A.06.04.32
!Agilent E8363B: A.06.04.32
!Date: Tuesday, November 11, 2014 21:33:39
!Correction: S21(Response(S21)) 
!S1P File: Measurement: S21:
# Hz S  dB   R 50
3000000000  -4.049809e+001  7.398850e+001 
3003125000  -4.221490e+001  6.617723e+001 
3006250000  -4.229010e+001  6.471893e+001 
3009375000  -4.286172e+001  6.942973e+001 
3012500000  -4.133902e+001  6.380919e+001 
3015625000  -4.145337e+001  5.931691e+001 
3018750000  -4.181225e+001  5.928621e+001 
3021875000  -4.013840e+001  5.968542e+001 
3025000000  -3.883685e+001  5.710117e+001 
3028125000  -3.805708e+001  4.586281e+001 
3031250000  -3.688858e+001  3.406076e+001 
3034375000  -3.665469e+001  1.962642e+001 
3037500000  -3.759066e+001  9.307587e+000 
3040625000  -3.876298e+001  3.771291e+000 
3043750000  -3.899783e+001  -3.524622e+000 
3046875000  -3.971752e+001  -8.388872e+000 
3050000000  -4.081037e+001  -1.291081e+001 
3053125000  -4.037105e+001  -8.607750e+000 
3056250000  -4.061605e+001  -4.995453e+000 
3059375000  -3.965038e+001  -7.465701e+000 
3062500000  -3.823310e+001  -1.200809e+001 
3065625000  -3.795107e+001  -2.200139e+001 
3068750000  -3.744291e+001  -2.963621e+001 
3071875000  -3.758446e+001  -3.209990e+001 
3075000000  -3.698148e+001  -3.881106e+001 
3078125000  -3.710072e+001  -4.509094e+001 
3081250000  -3.721648e+001  -5.130709e+001 
3084375000  -3.629203e+001  -5.564079e+001 
3087500000  -3.645442e+001  -6.275110e+001 
3090625000  -3.596538e+001  -7.482037e+001 
3093750000  -3.687114e+001  -8.231984e+001 
3096875000  -3.739130e+001  -8.803251e+001 
3100000000  -3.728326e+001  -9.107676e+001 
3103125000  -3.750487e+001  -9.450230e+001 
3106250000  -3.720991e+001  -9.989129e+001 
3109375000  -3.727376e+001  -1.037413e+002 
3112500000  -3.726005e+001  -1.099247e+002 
3115625000  -3.718764e+001  -1.131518e+002 
3118750000  -3.723846e+001  -1.171586e+002 
3121875000  -3.653818e+001  -1.284451e+002 
3125000000  -3.847375e+001  -1.305564e+002 
3128125000  -3.864161e+001  -1.233498e+002 
3131250000  -3.595499e+001  -1.312213e+002 
3134375000  -3.534117e+001  -1.474875e+002 
3137500000  -3.602596e+001  -1.591164e+002 
3140625000  -3.737991e+001  -1.624219e+002 
3143750000  -3.809080e+001  -1.651256e+002 
3146875000  -3.763707e+001  -1.625008e+002 
3150000000  -3.690651e+001  -1.664843e+002 
3153125000  -3.715176e+001  -1.748857e+002 
3156250000  -3.778706e+001  -1.702354e+002 
3159375000  -3.558881e+001  -1.722065e+002 
3162500000  -3.423523e+001  1.733104e+002 
3165625000  -3.553973e+001  1.592477e+002 
3168750000  -3.539517e+001  1.585674e+002 
3171875000  -3.496198e+001  1.507256e+002 
3175000000  -3.550934e+001  1.424471e+002 
3178125000  -3.500323e+001  1.403606e+002 
3181250000  -3.432169e+001  1.323490e+002 
3184375000  -3.429770e+001  1.202137e+002 
3187500000  -3.545544e+001  1.063969e+002 
3190625000  -3.726038e+001  1.001959e+002 
3193750000  -3.734749e+001  1.050778e+002 
3196875000  -3.733973e+001  1.057225e+002 
3200000000  -3.620644e+001  1.008369e+002 
3203125000  -3.590489e+001  9.316933e+001 
3206250000  -3.597046e+001  8.585208e+001 
3209375000  -3.577579e+001  7.691705e+001 
3212500000  -3.628215e+001  7.059018e+001 
3215625000  -3.613710e+001  6.804200e+001 
3218750000  -3.685231e+001  5.743404e+001 
3221875000  -3.732746e+001  4.917144e+001 
3225000000  -3.699831e+001  4.579950e+001 
3228125000  -3.761311e+001  3.936756e+001 
3231250000  -3.830124e+001  3.654166e+001 
3234375000  -3.777789e+001  3.322961e+001 
3237500000  -3.805408e+001  2.851799e+001 
3240625000  -3.749420e+001  2.483722e+001 
3243750000  -3.761407e+001  1.360689e+001 
3246875000  -3.827999e+001  6.376145e+000 
3250000000  -3.884343e+001  2.719259e+000 
3253125000  -3.901730e+001  6.996052e-001 
3256250000  -3.862659e+001  -8.752453e+000 
3259375000  -3.916916e+001  -1.972307e+001 
3262500000  -4.076854e+001  -2.359617e+001 
3265625000  -4.120670e+001  -2.111327e+001 
3268750000  -4.105989e+001  -1.931896e+001 
3271875000  -4.061789e+001  -2.369404e+001 
3275000000  -4.022462e+001  -3.159692e+001 
3278125000  -4.097567e+001  -3.602435e+001 
3281250000  -4.096471e+001  -3.700414e+001 
3284375000  -4.061737e+001  -4.289431e+001 
3287500000  -4.108915e+001  -4.661807e+001 
3290625000  -4.102792e+001  -5.413404e+001 
3293750000  -4.122266e+001  -6.148995e+001 
3296875000  -4.244091e+001  -6.192028e+001 
3300000000  -4.177529e+001  -6.290605e+001 
3303125000  -4.081916e+001  -6.830196e+001 
3306250000  -4.075434e+001  -7.677335e+001 
3309375000  -4.051375e+001  -8.416830e+001 
3312500000  -4.085207e+001  -9.595977e+001 
3315625000  -4.221846e+001  -1.029690e+002 
3318750000  -4.356216e+001  -1.072537e+002 
3321875000  -4.546725e+001  -1.032246e+002 
3325000000  -4.490127e+001  -9.839072e+001 
3328125000  -4.387556e+001  -9.749425e+001 
3331250000  -4.209437e+001  -9.287222e+001 
3334375000  -3.967698e+001  -1.090378e+002 
3337500000  -4.040844e+001  -1.299308e+002 
3340625000  -4.223809e+001  -1.403064e+002 
3343750000  -4.387672e+001  -1.380111e+002 
3346875000  -4.334819e+001  -1.404766e+002 
3350000000  -4.306558e+001  -1.418773e+002 
3353125000  -4.284187e+001  -1.490667e+002 
3356250000  -4.255618e+001  -1.600233e+002 
3359375000  -4.324586e+001  -1.678509e+002 
3362500000  -4.438980e+001  -1.749367e+002 
3365625000  -4.482917e+001  -1.762804e+002 
3368750000  -4.555087e+001  1.778624e+002 
3371875000  -4.572912e+001  1.745327e+002 
3375000000  -4.744307e+001  1.685883e+002 
3378125000  -4.814816e+001  1.701228e+002 
3381250000  -4.949791e+001  1.786615e+002 
3384375000  -4.627333e+001  -1.666239e+002 
3387500000  -4.344416e+001  1.746185e+002 
3390625000  -4.606766e+001  1.517726e+002 
3393750000  -4.714450e+001  1.562451e+002 
3396875000  -4.595209e+001  1.515101e+002 
3400000000  -4.661819e+001  1.374888e+002 
3403125000  -4.656704e+001  1.349077e+002 
3406250000  -4.748469e+001  1.329551e+002 
3409375000  -4.784637e+001  1.253174e+002 
3412500000  -4.933484e+001  1.209228e+002 
3415625000  -4.955739e+001  1.199287e+002 
3418750000  -4.986875e+001  1.217535e+002 
3421875000  -5.148862e+001  1.222933e+002 
3425000000  -4.983496e+001  1.188811e+002 
3428125000  -4.955827e+001  1.174673e+002 
3431250000  -4.981337e+001  1.063052e+002 
3434375000  -5.092467e+001  1.021380e+002 
3437500000  -5.152459e+001  1.038348e+002 
3440625000  -5.191098e+001  1.047252e+002 
3443750000  -5.063181e+001  1.110785e+002 
3446875000  -5.120222e+001  1.009113e+002 
3450000000  -4.997447e+001  9.411564e+001 
3453125000  -5.071175e+001  8.630132e+001 
3456250000  -5.128028e+001  8.456544e+001 
3459375000  -5.272345e+001  8.941965e+001 
3462500000  -5.210409e+001  8.479183e+001 
3465625000  -5.148212e+001  8.344244e+001 
3468750000  -5.252090e+001  7.834303e+001 
3471875000  -5.190014e+001  7.355222e+001 
3475000000  -5.139766e+001  7.041453e+001 
3478125000  -5.081242e+001  6.251012e+001 
3481250000  -5.204760e+001  6.591460e+001 
3484375000  -5.310127e+001  6.636108e+001 
3487500000  -5.162448e+001  6.141327e+001 
3490625000  -5.086865e+001  5.612413e+001 
3493750000  -5.148701e+001  4.671885e+001 
3496875000  -5.176682e+001  4.877860e+001 
3500000000  -5.197050e+001  5.307276e+001 
3503125000  -5.156268e+001  4.128096e+001 
3506250000  -4.980708e+001  3.790044e+001 
3509375000  -4.965718e+001  2.489168e+001 
3512500000  -5.001363e+001  7.851644e+000 
3515625000  -5.134700e+001  1.235630e+001 
3518750000  -5.220525e+001  1.000731e+001 
3521875000  -5.263206e+001  1.964787e+000 
3525000000  -5.355811e+001  -2.303264e-001 
3528125000  -5.230842e+001  2.686236e+000 
3531250000  -5.213167e+001  1.930156e+000 
3534375000  -5.205728e+001  -1.804920e+001 
3537500000  -5.379567e+001  -2.579038e+001 
3540625000  -5.518246e+001  -1.822946e+001 
3543750000  -5.492130e+001  -1.505067e+001 
3546875000  -5.529060e+001  -9.664154e+000 
3550000000  -5.406212e+001  -1.312251e+001 
3553125000  -5.369860e+001  -3.515129e+001 
3556250000  -5.492170e+001  -2.793789e+001 
3559375000  -5.564561e+001  -4.445810e+001 
3562500000  -5.799913e+001  -4.729373e+001 
3565625000  -5.649748e+001  -5.283153e+001 
3568750000  -5.662914e+001  -4.183161e+001 
3571875000  -5.823450e+001  -4.358812e+001 
3575000000  -5.807731e+001  -3.114067e+001 
3578125000  -5.849292e+001  -4.027529e+001 
3581250000  -5.828648e+001  -4.455650e+001 
3584375000  -5.681686e+001  -3.801500e+001 
3587500000  -5.876832e+001  -5.040709e+001 
3590625000  -5.754471e+001  -5.411323e+001 
3593750000  -6.069709e+001  -4.887496e+001 
3596875000  -5.811217e+001  -2.575327e+001 
3600000000  -5.833356e+001  -2.669344e+001 
3603125000  -5.744031e+001  -5.380080e+001 
3606250000  -5.885481e+001  -4.481757e+001 
3609375000  -5.733228e+001  -4.750251e+001 
3612500000  -5.722396e+001  -5.654344e+001 
3615625000  -5.857225e+001  -5.368164e+001 
3618750000  -6.020989e+001  -4.768548e+001 
3621875000  -5.744476e+001  -4.078171e+001 
3625000000  -5.938037e+001  -4.268613e+001 
3628125000  -5.670375e+001  -4.297399e+001 
3631250000  -5.671468e+001  -4.124468e+001 
3634375000  -5.693256e+001  -4.762860e+001 
3637500000  -5.570533e+001  -3.833635e+001 
3640625000  -5.364707e+001  -3.894181e+001 
3643750000  -5.350555e+001  -4.446991e+001 
3646875000  -5.401218e+001  -5.388489e+001 
3650000000  -5.259073e+001  -6.160738e+001 
3653125000  -5.254977e+001  -6.110250e+001 
3656250000  -5.193768e+001  -6.023469e+001 
3659375000  -5.110583e+001  -6.353361e+001 
3662500000  -5.082981e+001  -7.227462e+001 
3665625000  -5.002079e+001  -7.012630e+001 
3668750000  -4.774054e+001  -7.165076e+001 
3671875000  -4.722966e+001  -8.399002e+001 
3675000000  -4.721045e+001  -9.463001e+001 
3678125000  -4.734189e+001  -9.124380e+001 
3681250000  -4.681755e+001  -1.002441e+002 
3684375000  -4.674710e+001  -1.058373e+002 
3687500000  -4.640425e+001  -1.139160e+002 
3690625000  -4.677394e+001  -1.143933e+002 
3693750000  -4.694167e+001  -1.161672e+002 
3696875000  -4.627979e+001  -1.194535e+002 
3700000000  -4.531005e+001  -1.223082e+002 
3703125000  -4.539080e+001  -1.326248e+002 
3706250000  -4.588293e+001  -1.334239e+002 
3709375000  -4.497540e+001  -1.335909e+002 
3712500000  -4.377091e+001  -1.340301e+002 
3715625000  -4.177407e+001  -1.457746e+002 
3718750000  -4.169247e+001  -1.537633e+002 
3721875000  -4.127943e+001  -1.615450e+002 
3725000000  -4.175416e+001  -1.681199e+002 
3728125000  -4.148782e+001  -1.713659e+002 
3731250000  -4.064529e+001  -1.787895e+002 
3734375000  -4.023608e+001  1.765707e+002 
3737500000  -4.101293e+001  1.647646e+002 
3740625000  -4.090593e+001  1.591689e+002 
3743750000  -4.034804e+001  1.526900e+002 
3746875000  -4.067258e+001  1.453089e+002 
3750000000  -4.111283e+001  1.421044e+002 
3753125000  -4.055882e+001  1.398778e+002 
3756250000  -4.060238e+001  1.360382e+002 
3759375000  -4.064017e+001  1.311379e+002 
3762500000  -4.012772e+001  1.238060e+002 
3765625000  -4.095481e+001  1.190707e+002 
3768750000  -4.012979e+001  1.180985e+002 
3771875000  -3.856509e+001  1.109093e+002 
3775000000  -3.854949e+001  1.009001e+002 
3778125000  -3.893111e+001  9.352877e+001 
3781250000  -3.910154e+001  8.959529e+001 
3784375000  -3.892338e+001  8.388665e+001 
3787500000  -3.861727e+001  7.698689e+001 
3790625000  -3.909908e+001  6.752325e+001 
3793750000  -3.903728e+001  6.378205e+001 
3796875000  -3.843596e+001  6.363114e+001 
3800000000  -3.643558e+001  5.738460e+001 
3803125000  -3.785803e+001  4.350531e+001 
3806250000  -3.891228e+001  3.815295e+001 
3809375000  -3.848490e+001  3.529382e+001 
3812500000  -3.854740e+001  2.503036e+001 
3815625000  -3.959008e+001  1.703469e+001 
3818750000  -4.071687e+001  1.778918e+001 
3821875000  -3.997181e+001  2.721864e+001 
3825000000  -3.813771e+001  2.320924e+001 
3828125000  -3.687604e+001  4.379707e+000 
3831250000  -3.820839e+001  -1.116855e+001 
3834375000  -4.035357e+001  -1.163189e+001 
3837500000  -4.054019e+001  -4.607405e+000 
3840625000  -3.920449e+001  -9.149030e+000 
3843750000  -3.833778e+001  -2.397781e+001 
3846875000  -3.952172e+001  -3.143401e+001 
3850000000  -4.073551e+001  -2.527322e+001 
3853125000  -3.979910e+001  -2.267652e+001 
3856250000  -3.950396e+001  -3.089200e+001 
3859375000  -3.854268e+001  -3.964676e+001 
3862500000  -3.855382e+001  -5.024146e+001 
3865625000  -3.898201e+001  -5.621161e+001 
3868750000  -3.872166e+001  -5.588769e+001 
3871875000  -3.815123e+001  -6.373953e+001 
3875000000  -3.856600e+001  -7.405127e+001 
3878125000  -3.967101e+001  -7.519502e+001 
3881250000  -3.930218e+001  -7.686137e+001 
3884375000  -3.873777e+001  -8.348331e+001 
3887500000  -3.905116e+001  -8.877332e+001 
3890625000  -3.944753e+001  -9.490005e+001 
3893750000  -3.986732e+001  -9.622919e+001 
3896875000  -4.016390e+001  -9.993783e+001 
3900000000  -3.973208e+001  -1.030069e+002 
3903125000  -3.948121e+001  -1.068661e+002 
3906250000  -3.903407e+001  -1.091384e+002 
3909375000  -3.792840e+001  -1.199917e+002 
3912500000  -3.904401e+001  -1.277346e+002 
3915625000  -4.059028e+001  -1.288761e+002 
3918750000  -4.002254e+001  -1.300367e+002 
3921875000  -3.923280e+001  -1.354975e+002 
3925000000  -3.861935e+001  -1.397332e+002 
3928125000  -3.821715e+001  -1.492706e+002 
3931250000  -3.915057e+001  -1.567686e+002 
3934375000  -3.958641e+001  -1.566100e+002 
3937500000  -4.003170e+001  -1.573180e+002 
3940625000  -3.976461e+001  -1.600578e+002 
3943750000  -3.876767e+001  -1.642779e+002 
3946875000  -3.842207e+001  -1.743384e+002 
3950000000  -3.956113e+001  1.770627e+002 
3953125000  -4.008577e+001  1.788807e+002 
3956250000  -3.871290e+001  1.787013e+002 
3959375000  -3.768662e+001  1.710712e+002 
3962500000  -3.762790e+001  1.630098e+002 
3965625000  -3.793235e+001  1.548773e+002 
3968750000  -3.849430e+001  1.452170e+002 
3971875000  -3.879649e+001  1.414369e+002 
3975000000  -3.840459e+001  1.378461e+002 
3978125000  -3.846825e+001  1.335527e+002 
3981250000  -3.871672e+001  1.264798e+002 
3984375000  -3.892248e+001  1.195349e+002 
3987500000  -3.968582e+001  1.158772e+002 
3990625000  -4.015171e+001  1.126094e+002 
3993750000  -4.001415e+001  1.071767e+002 
3996875000  -3.976818e+001  1.037067e+002 
4000000000  -4.082021e+001  1.002094e+002 
4003125000  -4.097159e+001  1.022548e+002 
4006250000  -3.943654e+001  9.930286e+001 
4009375000  -3.872919e+001  8.659697e+001 
4012500000  -4.026726e+001  7.660497e+001 
4015625000  -4.128107e+001  7.613172e+001 
4018750000  -4.114195e+001  7.704065e+001 
4021875000  -4.087747e+001  7.370923e+001 
4025000000  -4.012797e+001  6.669166e+001 
4028125000  -4.047710e+001  5.983160e+001 
4031250000  -4.093098e+001  5.597669e+001 
4034375000  -4.158267e+001  5.875085e+001 
4037500000  -4.118051e+001  5.664297e+001 
4040625000  -4.091579e+001  5.187072e+001 
4043750000  -4.090394e+001  4.683335e+001 
4046875000  -4.067682e+001  4.506564e+001 
4050000000  -4.059725e+001  3.754735e+001 
4053125000  -4.137998e+001  3.703916e+001 
4056250000  -4.145382e+001  4.152932e+001 
4059375000  -3.937151e+001  3.846619e+001 
4062500000  -3.897011e+001  3.051790e+001 
4065625000  -3.873551e+001  2.499182e+001 
4068750000  -3.857230e+001  2.019028e+001 
4071875000  -3.793039e+001  8.428164e+000 
4075000000  -3.834671e+001  1.359964e+000 
4078125000  -3.870872e+001  -1.922956e+000 
4081250000  -3.827937e+001  -6.193881e+000 
4084375000  -3.791335e+001  -1.607742e+001 
4087500000  -3.868902e+001  -2.341409e+001 
4090625000  -3.919368e+001  -2.443324e+001 
4093750000  -3.867696e+001  -2.679592e+001 
4096875000  -3.863212e+001  -3.713732e+001 
4100000000  -3.975718e+001  -4.346569e+001 
4103125000  -4.060841e+001  -4.285495e+001 
4106250000  -4.012449e+001  -3.976732e+001 
4109375000  -3.892847e+001  -4.312633e+001 
4112500000  -3.878838e+001  -5.217158e+001 
4115625000  -3.933182e+001  -5.773678e+001 
4118750000  -3.893275e+001  -6.477483e+001 
4121875000  -3.890604e+001  -7.073685e+001 
4125000000  -4.002008e+001  -7.907372e+001 
4128125000  -4.079665e+001  -7.525161e+001 
4131250000  -4.005214e+001  -6.902271e+001 
4134375000  -3.766913e+001  -8.072495e+001 
4137500000  -3.831475e+001  -9.936729e+001 
4140625000  -4.055291e+001  -1.062779e+002 
4143750000  -4.148714e+001  -1.002498e+002 
4146875000  -4.065972e+001  -9.609637e+001 
4150000000  -3.949085e+001  -1.055075e+002 
4153125000  -3.997274e+001  -1.152964e+002 
4156250000  -4.132198e+001  -1.180829e+002 
4159375000  -4.098845e+001  -1.104702e+002 
4162500000  -3.970026e+001  -1.085471e+002 
4165625000  -3.870900e+001  -1.168923e+002 
4168750000  -3.833374e+001  -1.263368e+002 
4171875000  -3.821469e+001  -1.390124e+002 
4175000000  -3.944349e+001  -1.449146e+002 
4178125000  -3.993984e+001  -1.430891e+002 
4181250000  -3.930292e+001  -1.477789e+002 
4184375000  -3.940441e+001  -1.520589e+002 
4187500000  -3.965959e+001  -1.581500e+002 
4190625000  -3.943350e+001  -1.647156e+002 
4193750000  -4.048408e+001  -1.702428e+002 
4196875000  -4.174802e+001  -1.718051e+002 
4200000000  -4.258978e+001  -1.644031e+002 
4203125000  -4.102006e+001  -1.519765e+002 
4206250000  -3.729655e+001  -1.618992e+002 
4209375000  -3.718823e+001  1.740440e+002 
4212500000  -3.994988e+001  1.664033e+002 
4215625000  -4.012120e+001  1.749174e+002 
4218750000  -3.833217e+001  1.762399e+002 
4221875000  -3.671354e+001  1.672681e+002 
4225000000  -3.779111e+001  1.539573e+002 
4228125000  -3.785579e+001  1.545693e+002 
4231250000  -3.618829e+001  1.482985e+002 
4234375000  -3.641454e+001  1.365036e+002 
4237500000  -3.592973e+001  1.324296e+002 
4240625000  -3.614175e+001  1.194396e+002 
4243750000  -3.767817e+001  1.135567e+002 
4246875000  -3.854641e+001  1.119699e+002 
4250000000  -3.837791e+001  1.102956e+002 
4253125000  -3.785994e+001  1.094325e+002 
4256250000  -3.802809e+001  1.029607e+002 
4259375000  -3.778544e+001  9.813265e+001 
4262500000  -3.778197e+001  9.263518e+001 
4265625000  -3.808255e+001  9.181943e+001 
4268750000  -3.662767e+001  8.421175e+001 
4271875000  -3.687984e+001  7.512021e+001 
4275000000  -3.636019e+001  6.772330e+001 
4278125000  -3.783753e+001  5.410952e+001 
4281250000  -3.932969e+001  5.199712e+001 
4284375000  -3.895788e+001  5.062549e+001 
4287500000  -4.047445e+001  4.843124e+001 
4290625000  -4.067728e+001  5.645607e+001 
4293750000  -3.880089e+001  5.483447e+001 
4296875000  -3.782872e+001  4.338609e+001 
4300000000  -3.897219e+001  3.595387e+001 
4303125000  -3.997290e+001  3.798853e+001 
4306250000  -3.863235e+001  3.953123e+001 
4309375000  -3.757280e+001  3.232188e+001 
4312500000  -3.785915e+001  2.139038e+001 
4315625000  -3.801856e+001  1.425031e+001 
4318750000  -3.871450e+001  1.091178e+001 
4321875000  -3.859224e+001  9.839382e+000 
4325000000  -3.814599e+001  9.555290e+000 
4328125000  -3.709827e+001  -1.388099e+000 
4331250000  -3.728582e+001  -1.157656e+001 
4334375000  -3.807572e+001  -1.784733e+001 
4337500000  -3.952407e+001  -1.798540e+001 
4340625000  -3.962572e+001  -1.204673e+001 
4343750000  -3.847264e+001  -1.808129e+001 
4346875000  -3.842867e+001  -2.615044e+001 
4350000000  -3.830803e+001  -3.365854e+001 
4353125000  -3.893161e+001  -3.945716e+001 
4356250000  -4.104394e+001  -3.609076e+001 
4359375000  -3.999791e+001  -2.366684e+001 
4362500000  -3.616391e+001  -3.093333e+001 
4365625000  -3.585920e+001  -4.966106e+001 
4368750000  -3.704081e+001  -5.936228e+001 
4371875000  -3.786754e+001  -5.892636e+001 
4375000000  -3.696622e+001  -6.392810e+001 
4378125000  -3.693662e+001  -7.152438e+001 
4381250000  -3.710460e+001  -7.870392e+001 
4384375000  -3.686705e+001  -8.489497e+001 
4387500000  -3.820560e+001  -9.040044e+001 
4390625000  -3.857692e+001  -9.140083e+001 
4393750000  -3.786436e+001  -9.132774e+001 
4396875000  -3.734398e+001  -9.645854e+001 
4400000000  -3.700388e+001  -1.064136e+002 
4403125000  -3.760940e+001  -1.158974e+002 
4406250000  -3.824192e+001  -1.191604e+002 
4409375000  -3.877779e+001  -1.230675e+002 
4412500000  -3.951707e+001  -1.246180e+002 
4415625000  -3.938492e+001  -1.207524e+002 
