!Agilent Technologies,E8363B,MY43030201,A.06.04.32
!Agilent E8363B: A.06.04.32
!Date: Tuesday, November 11, 2014 21:31:49
!Correction: S21(Response(S21)) 
!S1P File: Measurement: S21:
# Hz S  dB   R 50
3000000000  -4.054996e+001  7.877454e+001 
3003125000  -4.213543e+001  7.180956e+001 
3006250000  -4.200758e+001  7.133807e+001 
3009375000  -4.293231e+001  7.595448e+001 
3012500000  -4.149588e+001  7.063271e+001 
3015625000  -4.128442e+001  6.423940e+001 
3018750000  -4.189378e+001  6.495025e+001 
3021875000  -4.021307e+001  6.545451e+001 
3025000000  -3.893911e+001  6.173141e+001 
3028125000  -3.786746e+001  5.085052e+001 
3031250000  -3.701246e+001  3.936179e+001 
3034375000  -3.669465e+001  2.561383e+001 
3037500000  -3.749844e+001  1.406487e+001 
3040625000  -3.874915e+001  9.067245e+000 
3043750000  -3.922367e+001  2.461596e+000 
3046875000  -3.975676e+001  -2.953235e+000 
3050000000  -4.081167e+001  -7.157405e+000 
3053125000  -4.053563e+001  -2.682219e+000 
3056250000  -4.051439e+001  4.000222e-003 
3059375000  -3.965583e+001  -1.799034e+000 
3062500000  -3.816413e+001  -6.920905e+000 
3065625000  -3.801998e+001  -1.590778e+001 
3068750000  -3.746621e+001  -2.473123e+001 
3071875000  -3.751314e+001  -2.690438e+001 
3075000000  -3.694137e+001  -3.324487e+001 
3078125000  -3.707280e+001  -3.887296e+001 
3081250000  -3.720657e+001  -4.541107e+001 
3084375000  -3.631490e+001  -5.058371e+001 
3087500000  -3.639172e+001  -5.729694e+001 
3090625000  -3.595190e+001  -6.914392e+001 
3093750000  -3.691728e+001  -7.729182e+001 
3096875000  -3.747612e+001  -8.218854e+001 
3100000000  -3.723041e+001  -8.439864e+001 
3103125000  -3.748628e+001  -8.943552e+001 
3106250000  -3.721394e+001  -9.425135e+001 
3109375000  -3.726809e+001  -9.809966e+001 
3112500000  -3.709984e+001  -1.035000e+002 
3115625000  -3.716595e+001  -1.086976e+002 
3118750000  -3.721076e+001  -1.120932e+002 
3121875000  -3.655456e+001  -1.221969e+002 
3125000000  -3.858845e+001  -1.246971e+002 
3128125000  -3.852415e+001  -1.186968e+002 
3131250000  -3.614276e+001  -1.245319e+002 
3134375000  -3.535335e+001  -1.415797e+002 
3137500000  -3.600304e+001  -1.528497e+002 
3140625000  -3.728026e+001  -1.555167e+002 
3143750000  -3.811946e+001  -1.586884e+002 
3146875000  -3.764236e+001  -1.570981e+002 
3150000000  -3.681612e+001  -1.595132e+002 
3153125000  -3.705770e+001  -1.703240e+002 
3156250000  -3.778648e+001  -1.646850e+002 
3159375000  -3.567328e+001  -1.665055e+002 
3162500000  -3.424602e+001  1.778834e+002 
3165625000  -3.552141e+001  1.660197e+002 
3168750000  -3.538359e+001  1.639429e+002 
3171875000  -3.480402e+001  1.565391e+002 
3175000000  -3.546407e+001  1.476202e+002 
3178125000  -3.487636e+001  1.463263e+002 
3181250000  -3.442823e+001  1.379063e+002 
3184375000  -3.418840e+001  1.256316e+002 
3187500000  -3.539581e+001  1.106446e+002 
3190625000  -3.740422e+001  1.050392e+002 
3193750000  -3.752423e+001  1.106195e+002 
3196875000  -3.727671e+001  1.121585e+002 
3200000000  -3.613563e+001  1.073406e+002 
3203125000  -3.579081e+001  9.801621e+001 
3206250000  -3.606442e+001  9.008205e+001 
3209375000  -3.576224e+001  8.243641e+001 
3212500000  -3.625362e+001  7.637930e+001 
3215625000  -3.605508e+001  7.252610e+001 
3218750000  -3.687549e+001  6.103305e+001 
3221875000  -3.719962e+001  5.548242e+001 
3225000000  -3.712212e+001  5.227122e+001 
3228125000  -3.767791e+001  4.441449e+001 
3231250000  -3.822242e+001  4.261692e+001 
3234375000  -3.783305e+001  3.910035e+001 
3237500000  -3.813960e+001  3.513163e+001 
3240625000  -3.751984e+001  2.922191e+001 
3243750000  -3.761212e+001  1.938490e+001 
3246875000  -3.818847e+001  1.212290e+001 
3250000000  -3.876614e+001  7.885478e+000 
3253125000  -3.904556e+001  5.186670e+000 
3256250000  -3.870822e+001  -3.776986e+000 
3259375000  -3.906771e+001  -1.358744e+001 
3262500000  -4.055054e+001  -1.778236e+001 
3265625000  -4.121651e+001  -1.580258e+001 
3268750000  -4.129430e+001  -1.298763e+001 
3271875000  -4.055875e+001  -1.729943e+001 
3275000000  -4.006139e+001  -2.588005e+001 
3278125000  -4.072311e+001  -2.986522e+001 
3281250000  -4.101119e+001  -3.097388e+001 
3284375000  -4.064470e+001  -3.744772e+001 
3287500000  -4.115249e+001  -4.214308e+001 
3290625000  -4.133736e+001  -4.986560e+001 
3293750000  -4.110669e+001  -5.523946e+001 
3296875000  -4.240361e+001  -5.651733e+001 
3300000000  -4.194782e+001  -5.602832e+001 
3303125000  -4.103035e+001  -6.223970e+001 
3306250000  -4.086666e+001  -6.922868e+001 
3309375000  -4.066496e+001  -7.862143e+001 
3312500000  -4.086313e+001  -9.030885e+001 
3315625000  -4.220243e+001  -9.631174e+001 
3318750000  -4.361111e+001  -1.003977e+002 
3321875000  -4.493680e+001  -9.651687e+001 
3325000000  -4.483017e+001  -9.194888e+001 
3328125000  -4.372235e+001  -9.315149e+001 
3331250000  -4.220649e+001  -8.842571e+001 
3334375000  -3.962674e+001  -1.037074e+002 
3337500000  -4.057962e+001  -1.242512e+002 
3340625000  -4.225539e+001  -1.337856e+002 
3343750000  -4.395558e+001  -1.339631e+002 
3346875000  -4.345641e+001  -1.359406e+002 
3350000000  -4.275838e+001  -1.370856e+002 
3353125000  -4.287798e+001  -1.439369e+002 
3356250000  -4.280033e+001  -1.534624e+002 
3359375000  -4.344735e+001  -1.625824e+002 
3362500000  -4.433738e+001  -1.672769e+002 
3365625000  -4.448754e+001  -1.729224e+002 
3368750000  -4.529274e+001  -1.763246e+002 
3371875000  -4.583334e+001  1.785011e+002 
3375000000  -4.760586e+001  1.732844e+002 
3378125000  -4.813480e+001  1.759584e+002 
3381250000  -4.979889e+001  -1.729424e+002 
3384375000  -4.621602e+001  -1.625793e+002 
3387500000  -4.378103e+001  1.778216e+002 
3390625000  -4.617850e+001  1.588739e+002 
3393750000  -4.724109e+001  1.593914e+002 
3396875000  -4.639594e+001  1.555066e+002 
3400000000  -4.609085e+001  1.437940e+002 
3403125000  -4.721712e+001  1.388213e+002 
3406250000  -4.743711e+001  1.381561e+002 
3409375000  -4.786171e+001  1.316620e+002 
3412500000  -4.881889e+001  1.273030e+002 
3415625000  -4.999155e+001  1.231555e+002 
3418750000  -5.043976e+001  1.285457e+002 
3421875000  -5.124220e+001  1.284518e+002 
3425000000  -5.051993e+001  1.261253e+002 
3428125000  -5.015448e+001  1.220065e+002 
3431250000  -5.048683e+001  1.147245e+002 
3434375000  -5.012499e+001  1.123533e+002 
3437500000  -5.193043e+001  1.137094e+002 
3440625000  -5.158984e+001  1.107565e+002 
3443750000  -5.011298e+001  1.147962e+002 
3446875000  -5.094792e+001  1.111420e+002 
3450000000  -5.007039e+001  9.962669e+001 
3453125000  -5.089766e+001  8.743699e+001 
3456250000  -5.184374e+001  8.933510e+001 
3459375000  -5.303729e+001  9.086548e+001 
3462500000  -5.258897e+001  9.043819e+001 
3465625000  -5.174975e+001  8.320705e+001 
3468750000  -5.239421e+001  8.883289e+001 
3471875000  -5.223879e+001  8.390519e+001 
3475000000  -5.132715e+001  7.958447e+001 
3478125000  -5.118762e+001  6.641742e+001 
3481250000  -5.201770e+001  7.400131e+001 
3484375000  -5.347071e+001  7.941927e+001 
3487500000  -5.148682e+001  6.489544e+001 
3490625000  -5.052764e+001  6.044017e+001 
3493750000  -5.190047e+001  5.336943e+001 
3496875000  -5.177467e+001  5.272582e+001 
3500000000  -5.251297e+001  4.846747e+001 
3503125000  -5.123578e+001  5.330028e+001 
3506250000  -4.978777e+001  4.336360e+001 
3509375000  -4.984700e+001  3.338365e+001 
3512500000  -5.049976e+001  1.701921e+001 
3515625000  -5.158994e+001  1.455146e+001 
3518750000  -5.251434e+001  1.266211e+001 
3521875000  -5.225585e+001  4.996814e+000 
3525000000  -5.399539e+001  8.441769e+000 
3528125000  -5.350394e+001  1.655803e+001 
3531250000  -5.216646e+001  1.213712e+001 
3534375000  -5.211721e+001  -9.797310e+000 
3537500000  -5.409568e+001  -1.792819e+001 
3540625000  -5.489170e+001  -1.611957e+001 
3543750000  -5.454224e+001  -7.249199e+000 
3546875000  -5.534770e+001  3.411195e+000 
3550000000  -5.384957e+001  -9.744361e+000 
3553125000  -5.395493e+001  -2.954238e+001 
3556250000  -5.598814e+001  -2.151407e+001 
3559375000  -5.589668e+001  -2.141070e+001 
3562500000  -5.711554e+001  -4.127692e+001 
3565625000  -5.825498e+001  -3.832494e+001 
3568750000  -5.648527e+001  -2.934488e+001 
3571875000  -5.867842e+001  -3.521275e+001 
3575000000  -5.940866e+001  -3.487960e+001 
3578125000  -6.308507e+001  -3.808217e+001 
3581250000  -5.870026e+001  -2.736916e+001 
3584375000  -5.717514e+001  -3.625668e+001 
3587500000  -5.760668e+001  -3.334502e+001 
3590625000  -5.940900e+001  -4.900331e+001 
3593750000  -5.851887e+001  -3.490931e+001 
3596875000  -5.841618e+001  -2.059136e+001 
3600000000  -5.657570e+001  -3.592729e+001 
3603125000  -5.830062e+001  -5.246054e+001 
3606250000  -5.818870e+001  -3.872327e+001 
3609375000  -5.700365e+001  -5.068378e+001 
3612500000  -5.757044e+001  -4.099767e+001 
3615625000  -5.846633e+001  -4.626809e+001 
3618750000  -5.706412e+001  -3.672281e+001 
3621875000  -5.805091e+001  -3.997115e+001 
3625000000  -5.826846e+001  -3.538931e+001 
3628125000  -5.562825e+001  -3.191352e+001 
3631250000  -5.626487e+001  -4.197086e+001 
3634375000  -5.765072e+001  -3.645160e+001 
3637500000  -5.587529e+001  -3.645945e+001 
3640625000  -5.455283e+001  -3.465304e+001 
3643750000  -5.278165e+001  -3.780952e+001 
3646875000  -5.320888e+001  -5.030085e+001 
3650000000  -5.312596e+001  -5.438734e+001 
3653125000  -5.172783e+001  -5.442828e+001 
3656250000  -5.194010e+001  -5.986181e+001 
3659375000  -5.201062e+001  -5.581454e+001 
3662500000  -4.973439e+001  -6.546784e+001 
3665625000  -4.952135e+001  -6.629958e+001 
3668750000  -4.834039e+001  -7.151141e+001 
3671875000  -4.763601e+001  -7.452032e+001 
3675000000  -4.756779e+001  -8.553285e+001 
3678125000  -4.701136e+001  -8.872198e+001 
3681250000  -4.655962e+001  -9.704831e+001 
3684375000  -4.690619e+001  -9.901535e+001 
3687500000  -4.654659e+001  -1.065870e+002 
3690625000  -4.650724e+001  -1.094123e+002 
3693750000  -4.694069e+001  -1.126629e+002 
3696875000  -4.631152e+001  -1.110529e+002 
3700000000  -4.517773e+001  -1.165188e+002 
3703125000  -4.520538e+001  -1.204837e+002 
3706250000  -4.592955e+001  -1.278069e+002 
3709375000  -4.483410e+001  -1.266852e+002 
3712500000  -4.347733e+001  -1.309483e+002 
3715625000  -4.196101e+001  -1.385688e+002 
3718750000  -4.180056e+001  -1.470665e+002 
3721875000  -4.120551e+001  -1.552887e+002 
3725000000  -4.168990e+001  -1.639848e+002 
3728125000  -4.128045e+001  -1.657998e+002 
3731250000  -4.070226e+001  -1.710307e+002 
3734375000  -4.032158e+001  -1.799206e+002 
3737500000  -4.111430e+001  1.717803e+002 
3740625000  -4.110971e+001  1.671943e+002 
3743750000  -4.033295e+001  1.599762e+002 
3746875000  -4.074918e+001  1.525746e+002 
3750000000  -4.091555e+001  1.485306e+002 
3753125000  -4.072475e+001  1.453867e+002 
3756250000  -4.096848e+001  1.409472e+002 
3759375000  -4.040916e+001  1.357268e+002 
3762500000  -4.001027e+001  1.300655e+002 
3765625000  -4.081444e+001  1.239101e+002 
3768750000  -3.993449e+001  1.250075e+002 
3771875000  -3.846486e+001  1.180904e+002 
3775000000  -3.867768e+001  1.069887e+002 
3778125000  -3.900112e+001  9.992444e+001 
3781250000  -3.903967e+001  9.740427e+001 
3784375000  -3.884887e+001  8.935926e+001 
3787500000  -3.868804e+001  8.367484e+001 
3790625000  -3.903656e+001  7.545675e+001 
3793750000  -3.918674e+001  7.135952e+001 
3796875000  -3.827553e+001  6.770467e+001 
3800000000  -3.650179e+001  6.333627e+001 
3803125000  -3.802161e+001  5.070048e+001 
3806250000  -3.894615e+001  4.418135e+001 
3809375000  -3.843791e+001  4.213472e+001 
3812500000  -3.850681e+001  3.151217e+001 
3815625000  -3.931961e+001  2.362921e+001 
3818750000  -4.068019e+001  2.284404e+001 
3821875000  -3.997459e+001  3.416552e+001 
3825000000  -3.827361e+001  3.000879e+001 
3828125000  -3.705560e+001  1.251578e+001 
3831250000  -3.794568e+001  -4.369942e+000 
3834375000  -4.056511e+001  -4.059608e+000 
3837500000  -4.075478e+001  1.092803e+000 
3840625000  -3.887279e+001  -7.642356e-001 
3843750000  -3.829519e+001  -1.765107e+001 
3846875000  -3.973870e+001  -2.352418e+001 
3850000000  -4.072303e+001  -1.894340e+001 
3853125000  -4.009265e+001  -1.770368e+001 
3856250000  -3.946001e+001  -2.705108e+001 
3859375000  -3.859514e+001  -3.348225e+001 
3862500000  -3.859015e+001  -4.235232e+001 
3865625000  -3.903130e+001  -4.841069e+001 
3868750000  -3.876387e+001  -4.924952e+001 
3871875000  -3.800702e+001  -5.702423e+001 
3875000000  -3.850364e+001  -6.601445e+001 
3878125000  -3.953478e+001  -6.951291e+001 
3881250000  -3.912035e+001  -7.018513e+001 
3884375000  -3.877530e+001  -7.601407e+001 
3887500000  -3.889109e+001  -8.063156e+001 
3890625000  -3.958248e+001  -8.730052e+001 
3893750000  -3.963278e+001  -8.908817e+001 
3896875000  -4.003729e+001  -9.242821e+001 
3900000000  -3.995703e+001  -9.537653e+001 
3903125000  -3.946146e+001  -9.839299e+001 
3906250000  -3.911286e+001  -1.027383e+002 
3909375000  -3.825732e+001  -1.129409e+002 
3912500000  -3.907686e+001  -1.237337e+002 
3915625000  -4.050558e+001  -1.199276e+002 
3918750000  -4.003684e+001  -1.233171e+002 
3921875000  -3.942602e+001  -1.285240e+002 
3925000000  -3.852888e+001  -1.316940e+002 
3928125000  -3.830361e+001  -1.438186e+002 
3931250000  -3.898668e+001  -1.495116e+002 
3934375000  -3.943454e+001  -1.500760e+002 
3937500000  -4.010485e+001  -1.531804e+002 
3940625000  -3.975800e+001  -1.542706e+002 
3943750000  -3.884135e+001  -1.564818e+002 
3946875000  -3.847672e+001  -1.666721e+002 
3950000000  -3.960535e+001  -1.766234e+002 
3953125000  -4.001046e+001  -1.749032e+002 
3956250000  -3.868557e+001  -1.732218e+002 
3959375000  -3.787303e+001  1.798487e+002 
3962500000  -3.781130e+001  1.697827e+002 
3965625000  -3.771996e+001  1.620091e+002 
3968750000  -3.892872e+001  1.538709e+002 
3971875000  -3.898835e+001  1.495756e+002 
3975000000  -3.845610e+001  1.461109e+002 
3978125000  -3.871277e+001  1.411941e+002 
3981250000  -3.842778e+001  1.324672e+002 
3984375000  -3.890136e+001  1.248730e+002 
3987500000  -3.959521e+001  1.227024e+002 
3990625000  -4.024109e+001  1.205572e+002 
3993750000  -3.959684e+001  1.152164e+002 
3996875000  -3.994943e+001  1.117817e+002 
4000000000  -4.089791e+001  1.062572e+002 
4003125000  -4.113274e+001  1.069544e+002 
4006250000  -3.920029e+001  1.068341e+002 
4009375000  -3.852177e+001  9.261133e+001 
4012500000  -4.045322e+001  8.342493e+001 
4015625000  -4.169116e+001  8.214663e+001 
4018750000  -4.152900e+001  8.548209e+001 
4021875000  -4.064394e+001  8.116043e+001 
4025000000  -4.053182e+001  7.527144e+001 
4028125000  -4.082981e+001  6.866196e+001 
4031250000  -4.130444e+001  6.400304e+001 
4034375000  -4.141962e+001  6.297373e+001 
4037500000  -4.103916e+001  6.550013e+001 
4040625000  -4.099063e+001  5.883860e+001 
4043750000  -4.105725e+001  5.641721e+001 
4046875000  -4.086408e+001  5.193920e+001 
4050000000  -4.067702e+001  4.687069e+001 
4053125000  -4.147138e+001  4.524134e+001 
4056250000  -4.171898e+001  4.849261e+001 
4059375000  -3.958691e+001  4.604401e+001 
4062500000  -3.897159e+001  3.766373e+001 
4065625000  -3.865426e+001  3.330634e+001 
4068750000  -3.848470e+001  2.690077e+001 
4071875000  -3.780305e+001  1.512621e+001 
4075000000  -3.845144e+001  8.787171e+000 
4078125000  -3.880779e+001  4.755918e+000 
4081250000  -3.805471e+001  -3.670930e-002 
4084375000  -3.817698e+001  -1.071138e+001 
4087500000  -3.850948e+001  -1.604187e+001 
4090625000  -3.923390e+001  -1.725281e+001 
4093750000  -3.866729e+001  -2.072294e+001 
4096875000  -3.877478e+001  -3.070017e+001 
4100000000  -3.974946e+001  -3.687203e+001 
4103125000  -4.086020e+001  -3.497202e+001 
4106250000  -4.005629e+001  -3.263935e+001 
4109375000  -3.941602e+001  -3.406283e+001 
4112500000  -3.882887e+001  -4.513940e+001 
4115625000  -3.944206e+001  -5.182116e+001 
4118750000  -3.917845e+001  -5.622308e+001 
4121875000  -3.895174e+001  -6.390387e+001 
4125000000  -3.970013e+001  -7.005511e+001 
4128125000  -4.098426e+001  -6.870855e+001 
4131250000  -3.956889e+001  -6.327155e+001 
4134375000  -3.763160e+001  -7.164227e+001 
4137500000  -3.832766e+001  -9.295680e+001 
4140625000  -4.066567e+001  -9.951933e+001 
4143750000  -4.152148e+001  -9.325418e+001 
4146875000  -4.054617e+001  -8.972511e+001 
4150000000  -3.980909e+001  -9.689822e+001 
4153125000  -4.000026e+001  -1.071098e+002 
4156250000  -4.145571e+001  -1.097284e+002 
4159375000  -4.101065e+001  -1.038857e+002 
4162500000  -3.987743e+001  -1.020550e+002 
4165625000  -3.875126e+001  -1.086726e+002 
4168750000  -3.847543e+001  -1.194633e+002 
4171875000  -3.840763e+001  -1.299861e+002 
4175000000  -3.921479e+001  -1.359069e+002 
4178125000  -3.988834e+001  -1.379595e+002 
4181250000  -3.939813e+001  -1.398711e+002 
4184375000  -3.936186e+001  -1.465841e+002 
4187500000  -3.956002e+001  -1.506967e+002 
4190625000  -3.951039e+001  -1.578789e+002 
4193750000  -4.051267e+001  -1.637415e+002 
4196875000  -4.152898e+001  -1.630578e+002 
4200000000  -4.252007e+001  -1.576236e+002 
4203125000  -4.139308e+001  -1.463218e+002 
4206250000  -3.746185e+001  -1.544194e+002 
4209375000  -3.747590e+001  -1.793651e+002 
4212500000  -3.951651e+001  1.745414e+002 
4215625000  -4.016380e+001  -1.783163e+002 
4218750000  -3.838354e+001  -1.759416e+002 
4221875000  -3.662271e+001  1.731413e+002 
4225000000  -3.810278e+001  1.628512e+002 
4228125000  -3.798158e+001  1.624730e+002 
4231250000  -3.644190e+001  1.558018e+002 
4234375000  -3.639390e+001  1.450970e+002 
4237500000  -3.638019e+001  1.389831e+002 
4240625000  -3.649460e+001  1.281548e+002 
4243750000  -3.760860e+001  1.195904e+002 
4246875000  -3.845509e+001  1.193633e+002 
4250000000  -3.832858e+001  1.202338e+002 
4253125000  -3.813351e+001  1.163317e+002 
4256250000  -3.823355e+001  1.113883e+002 
4259375000  -3.771978e+001  1.056300e+002 
4262500000  -3.795424e+001  9.993891e+001 
4265625000  -3.788172e+001  9.864349e+001 
4268750000  -3.692196e+001  9.141001e+001 
4271875000  -3.668934e+001  8.233186e+001 
4275000000  -3.672293e+001  7.491490e+001 
4278125000  -3.788409e+001  6.155761e+001 
4281250000  -3.916262e+001  6.017918e+001 
4284375000  -3.880992e+001  5.818941e+001 
4287500000  -4.030600e+001  5.661129e+001 
4290625000  -4.082902e+001  6.420500e+001 
4293750000  -3.878344e+001  6.561194e+001 
4296875000  -3.764053e+001  5.077444e+001 
4300000000  -3.936380e+001  3.868825e+001 
4303125000  -3.985398e+001  4.254370e+001 
4306250000  -3.880532e+001  4.722022e+001 
4309375000  -3.773442e+001  4.006340e+001 
4312500000  -3.760157e+001  2.960298e+001 
4315625000  -3.784684e+001  2.210512e+001 
4318750000  -3.890395e+001  1.694558e+001 
4321875000  -3.855694e+001  1.812778e+001 
4325000000  -3.808376e+001  1.551834e+001 
4328125000  -3.717609e+001  8.401686e+000 
4331250000  -3.754160e+001  -4.332305e+000 
4334375000  -3.840709e+001  -9.809018e+000 
4337500000  -3.935048e+001  -8.590426e+000 
4340625000  -3.979988e+001  -5.461381e+000 
4343750000  -3.849126e+001  -1.034122e+001 
4346875000  -3.827704e+001  -1.941671e+001 
4350000000  -3.854073e+001  -2.654539e+001 
4353125000  -3.893384e+001  -3.338723e+001 
4356250000  -4.091862e+001  -3.013764e+001 
4359375000  -4.004585e+001  -1.487147e+001 
4362500000  -3.670132e+001  -2.389067e+001 
4365625000  -3.608732e+001  -4.281176e+001 
4368750000  -3.711725e+001  -5.265104e+001 
4371875000  -3.790838e+001  -4.973428e+001 
4375000000  -3.727513e+001  -5.552118e+001 
4378125000  -3.712936e+001  -6.379916e+001 
4381250000  -3.726267e+001  -6.991051e+001 
4384375000  -3.743661e+001  -7.803345e+001 
4387500000  -3.838893e+001  -8.309023e+001 
4390625000  -3.862399e+001  -8.406455e+001 
4393750000  -3.802072e+001  -8.291493e+001 
4396875000  -3.726125e+001  -9.015577e+001 
4400000000  -3.686303e+001  -9.876835e+001 
4403125000  -3.804515e+001  -1.081295e+002 
4406250000  -3.866734e+001  -1.107656e+002 
4409375000  -3.857692e+001  -1.150355e+002 
4412500000  -3.993554e+001  -1.179088e+002 
4415625000  -3.962448e+001  -1.123956e+002 
