!Agilent Technologies,E8363B,MY43030201,A.06.04.32
!Agilent E8363B: A.06.04.32
!Date: Tuesday, November 11, 2014 21:32:44
!Correction: S21(Response(S21)) 
!S1P File: Measurement: S21:
# Hz S  dB   R 50
3000000000  -4.062415e+001  7.619358e+001 
3003125000  -4.210336e+001  6.837064e+001 
3006250000  -4.217334e+001  6.711756e+001 
3009375000  -4.287022e+001  7.222286e+001 
3012500000  -4.160149e+001  6.797517e+001 
3015625000  -4.126884e+001  6.079250e+001 
3018750000  -4.180928e+001  6.215619e+001 
3021875000  -4.016772e+001  6.152962e+001 
3025000000  -3.886184e+001  5.836626e+001 
3028125000  -3.783901e+001  4.837624e+001 
3031250000  -3.673118e+001  3.678917e+001 
3034375000  -3.672467e+001  2.265187e+001 
3037500000  -3.759317e+001  1.145572e+001 
3040625000  -3.873595e+001  6.270977e+000 
3043750000  -3.921562e+001  -4.802827e-001 
3046875000  -3.997268e+001  -6.791301e+000 
3050000000  -4.095940e+001  -1.141222e+001 
3053125000  -4.063084e+001  -6.181343e+000 
3056250000  -4.038919e+001  -3.616036e+000 
3059375000  -3.979675e+001  -4.659705e+000 
3062500000  -3.819507e+001  -9.990091e+000 
3065625000  -3.789235e+001  -1.982383e+001 
3068750000  -3.759151e+001  -2.791518e+001 
3071875000  -3.770322e+001  -3.020030e+001 
3075000000  -3.705269e+001  -3.620631e+001 
3078125000  -3.704590e+001  -4.264602e+001 
3081250000  -3.720465e+001  -4.866691e+001 
3084375000  -3.633590e+001  -5.301835e+001 
3087500000  -3.640457e+001  -6.028980e+001 
3090625000  -3.590504e+001  -7.222247e+001 
3093750000  -3.680447e+001  -7.975436e+001 
3096875000  -3.739364e+001  -8.587128e+001 
3100000000  -3.717815e+001  -8.782754e+001 
3103125000  -3.747655e+001  -9.218501e+001 
3106250000  -3.715995e+001  -9.645666e+001 
3109375000  -3.728178e+001  -1.006466e+002 
3112500000  -3.716628e+001  -1.065418e+002 
3115625000  -3.714941e+001  -1.111976e+002 
3118750000  -3.707840e+001  -1.137981e+002 
3121875000  -3.649114e+001  -1.251791e+002 
3125000000  -3.848168e+001  -1.284345e+002 
3128125000  -3.850930e+001  -1.211944e+002 
3131250000  -3.612579e+001  -1.265037e+002 
3134375000  -3.535345e+001  -1.446870e+002 
3137500000  -3.609851e+001  -1.572148e+002 
3140625000  -3.727848e+001  -1.596241e+002 
3143750000  -3.814790e+001  -1.616406e+002 
3146875000  -3.762881e+001  -1.604202e+002 
3150000000  -3.679644e+001  -1.628576e+002 
3153125000  -3.712271e+001  -1.724494e+002 
3156250000  -3.773893e+001  -1.679471e+002 
3159375000  -3.562169e+001  -1.688620e+002 
3162500000  -3.422126e+001  1.746504e+002 
3165625000  -3.544009e+001  1.623802e+002 
3168750000  -3.547979e+001  1.613886e+002 
3171875000  -3.488884e+001  1.533792e+002 
3175000000  -3.544935e+001  1.440963e+002 
3178125000  -3.500080e+001  1.432428e+002 
3181250000  -3.435297e+001  1.341813e+002 
3184375000  -3.415572e+001  1.234628e+002 
3187500000  -3.537276e+001  1.088579e+002 
3190625000  -3.727670e+001  1.020835e+002 
3193750000  -3.750876e+001  1.076149e+002 
3196875000  -3.734991e+001  1.084213e+002 
3200000000  -3.611341e+001  1.042420e+002 
3203125000  -3.595338e+001  9.588941e+001 
3206250000  -3.599995e+001  8.771371e+001 
3209375000  -3.577428e+001  7.898025e+001 
3212500000  -3.623819e+001  7.364838e+001 
3215625000  -3.593254e+001  7.072807e+001 
3218750000  -3.683105e+001  5.860324e+001 
3221875000  -3.733476e+001  5.190003e+001 
3225000000  -3.705737e+001  4.897009e+001 
3228125000  -3.772893e+001  4.109948e+001 
3231250000  -3.832818e+001  3.892720e+001 
3234375000  -3.791161e+001  3.551332e+001 
3237500000  -3.795558e+001  3.296679e+001 
3240625000  -3.759580e+001  2.682970e+001 
3243750000  -3.767156e+001  1.655186e+001 
3246875000  -3.807093e+001  9.532794e+000 
3250000000  -3.879852e+001  5.361416e+000 
3253125000  -3.911813e+001  2.489874e+000 
3256250000  -3.864011e+001  -4.973172e+000 
3259375000  -3.901249e+001  -1.699635e+001 
3262500000  -4.067256e+001  -2.003717e+001 
3265625000  -4.132560e+001  -1.587782e+001 
3268750000  -4.119604e+001  -1.614846e+001 
3271875000  -4.058673e+001  -2.085423e+001 
3275000000  -4.006815e+001  -2.895466e+001 
3278125000  -4.079597e+001  -3.236435e+001 
3281250000  -4.099886e+001  -3.590173e+001 
3284375000  -4.046767e+001  -4.070449e+001 
3287500000  -4.077655e+001  -4.546320e+001 
3290625000  -4.099777e+001  -5.304625e+001 
3293750000  -4.128801e+001  -5.753006e+001 
3296875000  -4.239867e+001  -6.062470e+001 
3300000000  -4.181250e+001  -5.891040e+001 
3303125000  -4.088117e+001  -6.758587e+001 
3306250000  -4.080603e+001  -7.275676e+001 
3309375000  -4.050967e+001  -8.021634e+001 
3312500000  -4.097087e+001  -9.386347e+001 
3315625000  -4.218867e+001  -9.847572e+001 
3318750000  -4.350433e+001  -1.031026e+002 
3321875000  -4.471175e+001  -1.014096e+002 
3325000000  -4.504214e+001  -9.169242e+001 
3328125000  -4.360181e+001  -9.592619e+001 
3331250000  -4.204633e+001  -9.234872e+001 
3334375000  -3.970124e+001  -1.067268e+002 
3337500000  -4.031897e+001  -1.266384e+002 
3340625000  -4.248281e+001  -1.360343e+002 
3343750000  -4.409378e+001  -1.352095e+002 
3346875000  -4.323857e+001  -1.377170e+002 
3350000000  -4.300456e+001  -1.388075e+002 
3353125000  -4.314242e+001  -1.465555e+002 
3356250000  -4.265801e+001  -1.560172e+002 
3359375000  -4.359936e+001  -1.668540e+002 
3362500000  -4.434515e+001  -1.726164e+002 
3365625000  -4.493734e+001  -1.758242e+002 
3368750000  -4.564990e+001  -1.791136e+002 
3371875000  -4.597627e+001  1.744394e+002 
3375000000  -4.696928e+001  1.726399e+002 
3378125000  -4.763845e+001  1.677057e+002 
3381250000  -4.968748e+001  1.794197e+002 
3384375000  -4.659806e+001  -1.620989e+002 
3387500000  -4.369669e+001  1.769583e+002 
3390625000  -4.641333e+001  1.546388e+002 
3393750000  -4.762930e+001  1.556004e+002 
3396875000  -4.614901e+001  1.560921e+002 
3400000000  -4.605562e+001  1.439301e+002 
3403125000  -4.674363e+001  1.372769e+002 
3406250000  -4.734847e+001  1.351237e+002 
3409375000  -4.809778e+001  1.288159e+002 
3412500000  -4.894332e+001  1.182061e+002 
3415625000  -4.967854e+001  1.144369e+002 
3418750000  -4.986665e+001  1.224223e+002 
3421875000  -5.056388e+001  1.231323e+002 
3425000000  -5.030622e+001  1.234444e+002 
3428125000  -5.012604e+001  1.218287e+002 
3431250000  -5.039080e+001  1.107592e+002 
3434375000  -5.045169e+001  1.054114e+002 
3437500000  -5.171607e+001  1.051180e+002 
3440625000  -5.201339e+001  1.073674e+002 
3443750000  -5.065978e+001  1.119039e+002 
3446875000  -5.112185e+001  1.017001e+002 
3450000000  -5.002226e+001  9.694205e+001 
3453125000  -5.121277e+001  8.650866e+001 
3456250000  -5.157039e+001  7.917191e+001 
3459375000  -5.282778e+001  8.272594e+001 
3462500000  -5.287864e+001  8.598897e+001 
3465625000  -5.206807e+001  8.395930e+001 
3468750000  -5.209622e+001  8.455009e+001 
3471875000  -5.166743e+001  8.351125e+001 
3475000000  -5.075946e+001  7.383559e+001 
3478125000  -5.073555e+001  6.798320e+001 
3481250000  -5.266021e+001  7.065516e+001 
3484375000  -5.221972e+001  6.686358e+001 
3487500000  -5.112703e+001  6.712825e+001 
3490625000  -5.050349e+001  6.293266e+001 
3493750000  -5.107577e+001  5.108858e+001 
3496875000  -5.172252e+001  5.422451e+001 
3500000000  -5.293619e+001  5.159982e+001 
3503125000  -5.098029e+001  4.970101e+001 
3506250000  -5.011326e+001  4.367839e+001 
3509375000  -5.041202e+001  2.910501e+001 
3512500000  -5.084852e+001  1.385725e+001 
3515625000  -5.246502e+001  1.275126e+001 
3518750000  -5.234120e+001  1.506985e+001 
3521875000  -5.223912e+001  7.764715e+000 
3525000000  -5.383369e+001  4.095850e+000 
3528125000  -5.276198e+001  6.766226e+000 
3531250000  -5.187273e+001  -2.767207e+000 
3534375000  -5.198069e+001  -1.230905e+001 
3537500000  -5.421611e+001  -2.358987e+001 
3540625000  -5.405608e+001  -2.043265e+001 
3543750000  -5.667236e+001  -8.987204e+000 
3546875000  -5.642225e+001  -8.436661e+000 
3550000000  -5.419357e+001  -1.182798e+001 
3553125000  -5.440990e+001  -2.930867e+001 
3556250000  -5.558585e+001  -2.613050e+001 
3559375000  -5.662915e+001  -2.886166e+001 
3562500000  -5.665696e+001  -3.548212e+001 
3565625000  -5.678953e+001  -3.800875e+001 
3568750000  -5.917745e+001  -3.517647e+001 
3571875000  -5.760209e+001  -4.323783e+001 
3575000000  -5.865054e+001  -3.736062e+001 
3578125000  -5.973288e+001  -2.562164e+001 
3581250000  -5.747986e+001  -3.871283e+001 
3584375000  -5.705980e+001  -4.104825e+001 
3587500000  -5.642807e+001  -2.650760e+001 
3590625000  -5.841997e+001  -4.577710e+001 
3593750000  -5.891687e+001  -3.957073e+001 
3596875000  -5.775592e+001  -3.781526e+001 
3600000000  -5.749505e+001  -4.002737e+001 
3603125000  -5.986496e+001  -4.351284e+001 
3606250000  -5.800910e+001  -4.248529e+001 
3609375000  -5.798388e+001  -4.309924e+001 
3612500000  -5.782727e+001  -4.194774e+001 
3615625000  -5.817957e+001  -4.606649e+001 
3618750000  -5.938391e+001  -4.479632e+001 
3621875000  -5.737125e+001  -4.618904e+001 
3625000000  -5.863061e+001  -4.681470e+001 
3628125000  -5.800097e+001  -4.233363e+001 
3631250000  -5.658650e+001  -4.129208e+001 
3634375000  -5.636291e+001  -3.914528e+001 
3637500000  -5.593192e+001  -4.416524e+001 
3640625000  -5.459285e+001  -2.813456e+001 
3643750000  -5.267086e+001  -4.694527e+001 
3646875000  -5.301723e+001  -5.597799e+001 
3650000000  -5.332093e+001  -5.972789e+001 
3653125000  -5.159311e+001  -5.619707e+001 
3656250000  -5.190672e+001  -5.828403e+001 
3659375000  -5.221989e+001  -5.475776e+001 
3662500000  -5.105611e+001  -6.493751e+001 
3665625000  -4.990225e+001  -7.181456e+001 
3668750000  -4.820572e+001  -6.881628e+001 
3671875000  -4.775958e+001  -8.136385e+001 
3675000000  -4.745160e+001  -8.891131e+001 
3678125000  -4.711783e+001  -9.342120e+001 
3681250000  -4.684687e+001  -9.716866e+001 
3684375000  -4.652606e+001  -1.029682e+002 
3687500000  -4.681491e+001  -1.076871e+002 
3690625000  -4.643913e+001  -1.157740e+002 
3693750000  -4.697454e+001  -1.125706e+002 
3696875000  -4.677458e+001  -1.154361e+002 
3700000000  -4.498830e+001  -1.225376e+002 
3703125000  -4.542538e+001  -1.288913e+002 
3706250000  -4.588089e+001  -1.284388e+002 
3709375000  -4.488711e+001  -1.288352e+002 
3712500000  -4.354526e+001  -1.339820e+002 
3715625000  -4.207139e+001  -1.437401e+002 
3718750000  -4.176348e+001  -1.503918e+002 
3721875000  -4.144329e+001  -1.582335e+002 
3725000000  -4.152070e+001  -1.662995e+002 
3728125000  -4.137777e+001  -1.706597e+002 
3731250000  -4.078392e+001  -1.766591e+002 
3734375000  -4.036501e+001  1.793886e+002 
3737500000  -4.082539e+001  1.670795e+002 
3740625000  -4.112568e+001  1.630977e+002 
3743750000  -4.046905e+001  1.570140e+002 
3746875000  -4.064178e+001  1.488510e+002 
3750000000  -4.092257e+001  1.448167e+002 
3753125000  -4.068830e+001  1.423452e+002 
3756250000  -4.079820e+001  1.387846e+002 
3759375000  -4.050173e+001  1.320016e+002 
3762500000  -4.003448e+001  1.258690e+002 
3765625000  -4.056909e+001  1.206111e+002 
3768750000  -3.995079e+001  1.219240e+002 
3771875000  -3.856727e+001  1.134638e+002 
3775000000  -3.855024e+001  1.034779e+002 
3778125000  -3.904013e+001  9.549419e+001 
3781250000  -3.895638e+001  9.260539e+001 
3784375000  -3.870458e+001  8.673327e+001 
3787500000  -3.873107e+001  8.095845e+001 
3790625000  -3.920173e+001  7.156944e+001 
3793750000  -3.928475e+001  6.745260e+001 
3796875000  -3.824586e+001  6.365700e+001 
3800000000  -3.647662e+001  5.914758e+001 
3803125000  -3.804395e+001  4.620277e+001 
3806250000  -3.893782e+001  4.325421e+001 
3809375000  -3.839185e+001  3.882475e+001 
3812500000  -3.843332e+001  2.892498e+001 
3815625000  -3.956955e+001  1.872909e+001 
3818750000  -4.073296e+001  2.016395e+001 
3821875000  -4.016829e+001  2.879863e+001 
3825000000  -3.827900e+001  2.528761e+001 
3828125000  -3.709991e+001  7.429250e+000 
3831250000  -3.813458e+001  -7.433206e+000 
3834375000  -4.019244e+001  -7.130064e+000 
3837500000  -4.042924e+001  -5.095989e+000 
3840625000  -3.902853e+001  -7.650656e+000 
3843750000  -3.822670e+001  -2.022192e+001 
3846875000  -3.960030e+001  -2.776618e+001 
3850000000  -4.065002e+001  -2.117601e+001 
3853125000  -3.992423e+001  -2.180399e+001 
3856250000  -3.940609e+001  -2.935324e+001 
3859375000  -3.850591e+001  -3.674232e+001 
3862500000  -3.866682e+001  -4.660199e+001 
3865625000  -3.908331e+001  -5.294658e+001 
3868750000  -3.858381e+001  -5.146028e+001 
3871875000  -3.777364e+001  -6.059962e+001 
3875000000  -3.859926e+001  -6.962794e+001 
3878125000  -3.978440e+001  -7.240047e+001 
3881250000  -3.940289e+001  -7.353532e+001 
3884375000  -3.876538e+001  -7.973563e+001 
3887500000  -3.921879e+001  -8.571088e+001 
3890625000  -3.952760e+001  -9.230912e+001 
3893750000  -3.982743e+001  -9.287016e+001 
3896875000  -4.015752e+001  -9.541539e+001 
3900000000  -3.967887e+001  -1.015091e+002 
3903125000  -3.944976e+001  -1.036563e+002 
3906250000  -3.884625e+001  -1.073528e+002 
3909375000  -3.843066e+001  -1.161316e+002 
3912500000  -3.925375e+001  -1.244268e+002 
3915625000  -4.049233e+001  -1.262742e+002 
3918750000  -4.000208e+001  -1.268361e+002 
3921875000  -3.917815e+001  -1.316765e+002 
3925000000  -3.854664e+001  -1.374296e+002 
3928125000  -3.828547e+001  -1.467216e+002 
3931250000  -3.903428e+001  -1.522168e+002 
3934375000  -3.966399e+001  -1.538064e+002 
3937500000  -3.999059e+001  -1.568565e+002 
3940625000  -3.998647e+001  -1.578743e+002 
3943750000  -3.885473e+001  -1.617381e+002 
3946875000  -3.840275e+001  -1.711063e+002 
3950000000  -3.968453e+001  1.795647e+002 
3953125000  -4.007545e+001  -1.797001e+002 
3956250000  -3.878516e+001  -1.775585e+002 
3959375000  -3.804012e+001  1.757070e+002 
3962500000  -3.755951e+001  1.666045e+002 
3965625000  -3.793378e+001  1.561056e+002 
3968750000  -3.867639e+001  1.498052e+002 
3971875000  -3.882285e+001  1.449482e+002 
3975000000  -3.819824e+001  1.402368e+002 
3978125000  -3.852329e+001  1.373125e+002 
3981250000  -3.845729e+001  1.297722e+002 
3984375000  -3.887675e+001  1.225800e+002 
3987500000  -3.975779e+001  1.196338e+002 
3990625000  -4.002239e+001  1.179785e+002 
3993750000  -3.967062e+001  1.124026e+002 
3996875000  -3.978045e+001  1.080016e+002 
4000000000  -4.043981e+001  1.033682e+002 
4003125000  -4.096144e+001  1.043451e+002 
4006250000  -3.935409e+001  1.030039e+002 
4009375000  -3.863715e+001  8.853706e+001 
4012500000  -4.038061e+001  8.181895e+001 
4015625000  -4.152890e+001  7.894948e+001 
4018750000  -4.132543e+001  8.094904e+001 
4021875000  -4.097102e+001  7.646610e+001 
4025000000  -4.059545e+001  7.032301e+001 
4028125000  -4.054255e+001  6.364302e+001 
4031250000  -4.102247e+001  6.252574e+001 
4034375000  -4.147336e+001  6.153677e+001 
4037500000  -4.103358e+001  6.069510e+001 
4040625000  -4.089857e+001  5.496735e+001 
4043750000  -4.122443e+001  5.265309e+001 
4046875000  -4.094358e+001  4.920802e+001 
4050000000  -4.079409e+001  4.429484e+001 
4053125000  -4.132878e+001  3.939647e+001 
4056250000  -4.137000e+001  4.417739e+001 
4059375000  -3.956781e+001  4.205320e+001 
4062500000  -3.878404e+001  3.469908e+001 
4065625000  -3.900163e+001  2.896338e+001 
4068750000  -3.843313e+001  2.237311e+001 
4071875000  -3.791503e+001  1.231057e+001 
4075000000  -3.840393e+001  4.161516e+000 
4078125000  -3.880664e+001  9.423247e-001 
4081250000  -3.815200e+001  -3.754776e+000 
4084375000  -3.807548e+001  -1.328352e+001 
4087500000  -3.868963e+001  -2.052903e+001 
4090625000  -3.917739e+001  -2.075583e+001 
4093750000  -3.881281e+001  -2.451160e+001 
4096875000  -3.869672e+001  -3.431302e+001 
4100000000  -3.978773e+001  -4.196725e+001 
4103125000  -4.069362e+001  -3.904510e+001 
4106250000  -3.997837e+001  -3.472418e+001 
4109375000  -3.912903e+001  -3.771849e+001 
4112500000  -3.870305e+001  -4.943824e+001 
4115625000  -3.956014e+001  -5.508928e+001 
4118750000  -3.887053e+001  -6.037013e+001 
4121875000  -3.893379e+001  -6.899973e+001 
4125000000  -3.987064e+001  -7.399365e+001 
4128125000  -4.087207e+001  -7.145216e+001 
4131250000  -3.979823e+001  -6.633152e+001 
4134375000  -3.759473e+001  -7.548773e+001 
4137500000  -3.842045e+001  -9.713013e+001 
4140625000  -4.066808e+001  -1.023180e+002 
4143750000  -4.126879e+001  -9.647486e+001 
4146875000  -4.051169e+001  -9.304754e+001 
4150000000  -3.964968e+001  -1.016441e+002 
4153125000  -3.993269e+001  -1.084517e+002 
4156250000  -4.150788e+001  -1.126771e+002 
4159375000  -4.139098e+001  -1.070163e+002 
4162500000  -3.991360e+001  -1.063893e+002 
4165625000  -3.891141e+001  -1.114030e+002 
4168750000  -3.846492e+001  -1.244211e+002 
4171875000  -3.854913e+001  -1.339097e+002 
4175000000  -3.938685e+001  -1.384880e+002 
4178125000  -3.958061e+001  -1.406627e+002 
4181250000  -3.933490e+001  -1.428663e+002 
4184375000  -3.946729e+001  -1.493945e+002 
4187500000  -3.937622e+001  -1.551916e+002 
4190625000  -3.947758e+001  -1.617053e+002 
4193750000  -4.048655e+001  -1.670256e+002 
4196875000  -4.137039e+001  -1.695615e+002 
4200000000  -4.265742e+001  -1.624118e+002 
4203125000  -4.096236e+001  -1.489264e+002 
4206250000  -3.721889e+001  -1.586054e+002 
4209375000  -3.719212e+001  1.769987e+002 
4212500000  -3.957504e+001  1.714240e+002 
4215625000  -4.019367e+001  1.783909e+002 
4218750000  -3.834324e+001  1.793630e+002 
4221875000  -3.690688e+001  1.714787e+002 
4225000000  -3.762411e+001  1.572158e+002 
4228125000  -3.806749e+001  1.600198e+002 
4231250000  -3.630684e+001  1.528972e+002 
4234375000  -3.648742e+001  1.393442e+002 
4237500000  -3.632415e+001  1.356092e+002 
4240625000  -3.628799e+001  1.230929e+002 
4243750000  -3.759832e+001  1.154338e+002 
4246875000  -3.845560e+001  1.158729e+002 
4250000000  -3.837852e+001  1.152585e+002 
4253125000  -3.806066e+001  1.131832e+002 
4256250000  -3.816335e+001  1.067857e+002 
4259375000  -3.771252e+001  1.025306e+002 
4262500000  -3.806979e+001  9.661076e+001 
4265625000  -3.781784e+001  9.640472e+001 
4268750000  -3.688230e+001  8.705682e+001 
4271875000  -3.696348e+001  7.817213e+001 
4275000000  -3.660852e+001  7.009161e+001 
4278125000  -3.774292e+001  5.801279e+001 
4281250000  -3.912896e+001  5.666430e+001 
4284375000  -3.902117e+001  5.495372e+001 
4287500000  -4.024024e+001  5.060707e+001 
4290625000  -4.062558e+001  5.993417e+001 
4293750000  -3.839793e+001  6.013517e+001 
4296875000  -3.756558e+001  4.678047e+001 
4300000000  -3.919535e+001  3.597574e+001 
4303125000  -3.993357e+001  4.151094e+001 
4306250000  -3.843213e+001  4.258354e+001 
4309375000  -3.767783e+001  3.509662e+001 
4312500000  -3.749047e+001  2.403666e+001 
4315625000  -3.801214e+001  1.849981e+001 
4318750000  -3.863069e+001  1.289425e+001 
4321875000  -3.845380e+001  1.486049e+001 
4325000000  -3.796031e+001  1.207745e+001 
4328125000  -3.737197e+001  4.205394e+000 
4331250000  -3.726287e+001  -7.789095e+000 
4334375000  -3.820632e+001  -1.399312e+001 
4337500000  -3.940806e+001  -1.529791e+001 
4340625000  -3.948812e+001  -9.588729e+000 
4343750000  -3.856878e+001  -1.465631e+001 
4346875000  -3.828160e+001  -2.309034e+001 
4350000000  -3.812126e+001  -3.083313e+001 
4353125000  -3.865170e+001  -3.714150e+001 
4356250000  -4.095580e+001  -3.268229e+001 
4359375000  -3.973547e+001  -2.039273e+001 
4362500000  -3.641214e+001  -2.906537e+001 
4365625000  -3.591647e+001  -4.502921e+001 
4368750000  -3.713779e+001  -5.628431e+001 
4371875000  -3.785064e+001  -5.595435e+001 
4375000000  -3.712843e+001  -5.935859e+001 
4378125000  -3.667725e+001  -6.628252e+001 
4381250000  -3.709610e+001  -7.542023e+001 
4384375000  -3.717684e+001  -8.211364e+001 
4387500000  -3.820230e+001  -8.787444e+001 
4390625000  -3.850663e+001  -8.841908e+001 
4393750000  -3.788103e+001  -8.815632e+001 
4396875000  -3.724425e+001  -9.346132e+001 
4400000000  -3.665404e+001  -1.027465e+002 
4403125000  -3.767213e+001  -1.118275e+002 
4406250000  -3.805142e+001  -1.157662e+002 
4409375000  -3.857443e+001  -1.189767e+002 
4412500000  -3.969708e+001  -1.208553e+002 
4415625000  -3.944451e+001  -1.179806e+002 
