!Agilent Technologies,E8363B,MY43030201,A.06.04.32
!Agilent E8363B: A.06.04.32
!Date: Tuesday, November 11, 2014 21:31:56
!Correction: S21(Response(S21)) 
!S1P File: Measurement: S21:
# Hz S  dB   R 50
3000000000  -4.044770e+001  7.818361e+001 
3003125000  -4.228019e+001  6.948761e+001 
3006250000  -4.211810e+001  6.927832e+001 
3009375000  -4.276857e+001  7.434373e+001 
3012500000  -4.153401e+001  7.010355e+001 
3015625000  -4.142989e+001  6.215737e+001 
3018750000  -4.165701e+001  6.404848e+001 
3021875000  -4.024351e+001  6.487399e+001 
3025000000  -3.876690e+001  6.118868e+001 
3028125000  -3.788035e+001  5.038654e+001 
3031250000  -3.693645e+001  3.822023e+001 
3034375000  -3.683292e+001  2.463669e+001 
3037500000  -3.749726e+001  1.322159e+001 
3040625000  -3.868946e+001  8.874130e+000 
3043750000  -3.917639e+001  2.413582e+000 
3046875000  -3.966433e+001  -3.657613e+000 
3050000000  -4.095828e+001  -8.468655e+000 
3053125000  -4.036098e+001  -2.576776e+000 
3056250000  -4.051310e+001  5.625830e-001 
3059375000  -3.992835e+001  -2.812266e+000 
3062500000  -3.826445e+001  -6.942682e+000 
3065625000  -3.787309e+001  -1.685919e+001 
3068750000  -3.746016e+001  -2.471716e+001 
3071875000  -3.768817e+001  -2.809248e+001 
3075000000  -3.701053e+001  -3.352743e+001 
3078125000  -3.697967e+001  -4.019968e+001 
3081250000  -3.715332e+001  -4.588129e+001 
3084375000  -3.628682e+001  -5.036789e+001 
3087500000  -3.641566e+001  -5.755547e+001 
3090625000  -3.589263e+001  -6.988272e+001 
3093750000  -3.699578e+001  -7.792729e+001 
3096875000  -3.726574e+001  -8.286533e+001 
3100000000  -3.723280e+001  -8.544143e+001 
3103125000  -3.745634e+001  -9.032986e+001 
3106250000  -3.713231e+001  -9.444690e+001 
3109375000  -3.717143e+001  -9.900767e+001 
3112500000  -3.714074e+001  -1.045659e+002 
3115625000  -3.725418e+001  -1.091773e+002 
3118750000  -3.714602e+001  -1.114907e+002 
3121875000  -3.659587e+001  -1.224397e+002 
3125000000  -3.859949e+001  -1.260393e+002 
3128125000  -3.851691e+001  -1.191250e+002 
3131250000  -3.608507e+001  -1.252346e+002 
3134375000  -3.534964e+001  -1.421602e+002 
3137500000  -3.600423e+001  -1.549225e+002 
3140625000  -3.730789e+001  -1.562926e+002 
3143750000  -3.812521e+001  -1.591741e+002 
3146875000  -3.773240e+001  -1.576781e+002 
3150000000  -3.687535e+001  -1.607706e+002 
3153125000  -3.718016e+001  -1.700712e+002 
3156250000  -3.777970e+001  -1.652613e+002 
3159375000  -3.573667e+001  -1.670598e+002 
3162500000  -3.423864e+001  1.771056e+002 
3165625000  -3.543407e+001  1.645207e+002 
3168750000  -3.550772e+001  1.640343e+002 
3171875000  -3.488620e+001  1.559664e+002 
3175000000  -3.549480e+001  1.471532e+002 
3178125000  -3.503310e+001  1.451600e+002 
3181250000  -3.434302e+001  1.370252e+002 
3184375000  -3.412232e+001  1.252308e+002 
3187500000  -3.538117e+001  1.107696e+002 
3190625000  -3.723283e+001  1.061122e+002 
3193750000  -3.732013e+001  1.100101e+002 
3196875000  -3.744785e+001  1.110602e+002 
3200000000  -3.631230e+001  1.064407e+002 
3203125000  -3.587737e+001  9.818306e+001 
3206250000  -3.615290e+001  9.023241e+001 
3209375000  -3.581349e+001  8.240432e+001 
3212500000  -3.637965e+001  7.549735e+001 
3215625000  -3.611753e+001  7.344032e+001 
3218750000  -3.675303e+001  6.142249e+001 
3221875000  -3.743116e+001  5.448721e+001 
3225000000  -3.713549e+001  5.073545e+001 
3228125000  -3.774647e+001  4.368878e+001 
3231250000  -3.827728e+001  4.147338e+001 
3234375000  -3.807447e+001  3.804139e+001 
3237500000  -3.813901e+001  3.487371e+001 
3240625000  -3.752805e+001  2.892174e+001 
3243750000  -3.773187e+001  1.867455e+001 
3246875000  -3.813967e+001  1.252028e+001 
3250000000  -3.887096e+001  8.617620e+000 
3253125000  -3.887194e+001  4.573406e+000 
3256250000  -3.854359e+001  -3.527803e+000 
3259375000  -3.915288e+001  -1.369223e+001 
3262500000  -4.069719e+001  -1.714324e+001 
3265625000  -4.116235e+001  -1.575511e+001 
3268750000  -4.121128e+001  -1.389707e+001 
3271875000  -4.052929e+001  -1.874818e+001 
3275000000  -4.013522e+001  -2.641274e+001 
3278125000  -4.117962e+001  -3.016866e+001 
3281250000  -4.100330e+001  -3.233448e+001 
3284375000  -4.048387e+001  -3.800595e+001 
3287500000  -4.097739e+001  -4.271047e+001 
3290625000  -4.109111e+001  -4.956962e+001 
3293750000  -4.112276e+001  -5.596290e+001 
3296875000  -4.239273e+001  -5.562000e+001 
3300000000  -4.192862e+001  -5.578251e+001 
3303125000  -4.094870e+001  -6.486973e+001 
3306250000  -4.073077e+001  -7.082374e+001 
3309375000  -4.039586e+001  -7.829862e+001 
3312500000  -4.087339e+001  -9.196744e+001 
3315625000  -4.212789e+001  -9.824146e+001 
3318750000  -4.346886e+001  -1.001044e+002 
3321875000  -4.472041e+001  -9.977161e+001 
3325000000  -4.488536e+001  -9.132327e+001 
3328125000  -4.412253e+001  -8.930730e+001 
3331250000  -4.256074e+001  -8.803386e+001 
3334375000  -3.980376e+001  -1.032216e+002 
3337500000  -4.042185e+001  -1.254032e+002 
3340625000  -4.232080e+001  -1.338430e+002 
3343750000  -4.420057e+001  -1.334556e+002 
3346875000  -4.358984e+001  -1.332392e+002 
3350000000  -4.301026e+001  -1.364895e+002 
3353125000  -4.315335e+001  -1.448625e+002 
3356250000  -4.242580e+001  -1.529137e+002 
3359375000  -4.323761e+001  -1.643613e+002 
3362500000  -4.440112e+001  -1.690048e+002 
3365625000  -4.486052e+001  -1.719575e+002 
3368750000  -4.544243e+001  -1.752022e+002 
3371875000  -4.586400e+001  -1.791597e+002 
3375000000  -4.738468e+001  1.759874e+002 
3378125000  -4.836683e+001  1.739761e+002 
3381250000  -4.933631e+001  -1.751435e+002 
3384375000  -4.665455e+001  -1.631861e+002 
3387500000  -4.443636e+001  1.784676e+002 
3390625000  -4.632072e+001  1.562690e+002 
3393750000  -4.709462e+001  1.598815e+002 
3396875000  -4.590302e+001  1.585450e+002 
3400000000  -4.607222e+001  1.457132e+002 
3403125000  -4.683185e+001  1.413182e+002 
3406250000  -4.752473e+001  1.364850e+002 
3409375000  -4.764519e+001  1.323328e+002 
3412500000  -4.852850e+001  1.249669e+002 
3415625000  -4.973806e+001  1.202058e+002 
3418750000  -5.020013e+001  1.259253e+002 
3421875000  -5.135995e+001  1.264383e+002 
3425000000  -4.996367e+001  1.246321e+002 
3428125000  -4.997963e+001  1.209610e+002 
3431250000  -4.987573e+001  1.099034e+002 
3434375000  -5.108587e+001  1.091501e+002 
3437500000  -5.177809e+001  1.098211e+002 
3440625000  -5.232219e+001  1.105192e+002 
3443750000  -5.095629e+001  1.162159e+002 
3446875000  -5.085594e+001  1.063083e+002 
3450000000  -5.048066e+001  1.011065e+002 
3453125000  -5.112717e+001  8.703980e+001 
3456250000  -5.170701e+001  8.953288e+001 
3459375000  -5.283087e+001  8.891764e+001 
3462500000  -5.286380e+001  9.329939e+001 
3465625000  -5.143110e+001  8.743323e+001 
3468750000  -5.195372e+001  8.566297e+001 
3471875000  -5.220271e+001  7.983978e+001 
3475000000  -5.188592e+001  7.874454e+001 
3478125000  -5.127285e+001  7.217683e+001 
3481250000  -5.165456e+001  7.372009e+001 
3484375000  -5.238066e+001  7.268188e+001 
3487500000  -5.249209e+001  6.708993e+001 
3490625000  -5.014706e+001  6.118261e+001 
3493750000  -5.192057e+001  5.039610e+001 
3496875000  -5.184764e+001  6.072026e+001 
3500000000  -5.227279e+001  4.789408e+001 
3503125000  -5.137870e+001  5.651130e+001 
3506250000  -4.964526e+001  4.653586e+001 
3509375000  -4.975343e+001  3.100094e+001 
3512500000  -4.994526e+001  1.950573e+001 
3515625000  -5.157592e+001  1.770224e+001 
3518750000  -5.283903e+001  1.912028e+001 
3521875000  -5.241407e+001  8.962691e+000 
3525000000  -5.373575e+001  4.591096e+000 
3528125000  -5.245858e+001  1.369744e+001 
3531250000  -5.209289e+001  4.880796e+000 
3534375000  -5.286038e+001  -1.722577e+001 
3537500000  -5.419225e+001  -2.016656e+001 
3540625000  -5.586540e+001  -1.579599e+001 
3543750000  -5.453621e+001  -7.173197e+000 
3546875000  -5.477436e+001  -5.179807e+000 
3550000000  -5.464828e+001  -1.239400e+001 
3553125000  -5.382214e+001  -3.290717e+001 
3556250000  -5.533265e+001  -2.425926e+001 
3559375000  -5.489768e+001  -2.839359e+001 
3562500000  -5.587862e+001  -3.471161e+001 
3565625000  -5.705486e+001  -4.447075e+001 
3568750000  -5.752282e+001  -2.912057e+001 
3571875000  -5.986751e+001  -4.353718e+001 
3575000000  -6.019966e+001  -4.448919e+001 
3578125000  -5.875058e+001  -3.388424e+001 
3581250000  -5.765711e+001  -3.023976e+001 
3584375000  -5.728075e+001  -3.333823e+001 
3587500000  -5.773658e+001  -4.507423e+001 
3590625000  -5.969144e+001  -5.770343e+001 
3593750000  -5.823103e+001  -5.089492e+001 
3596875000  -5.888480e+001  -3.054912e+001 
3600000000  -5.845003e+001  -2.527506e+001 
3603125000  -5.873754e+001  -6.443667e+001 
3606250000  -5.864935e+001  -4.718552e+001 
3609375000  -5.847637e+001  -5.020403e+001 
3612500000  -5.857687e+001  -4.034187e+001 
3615625000  -5.859204e+001  -4.417504e+001 
3618750000  -5.963148e+001  -3.966298e+001 
3621875000  -5.717391e+001  -4.014438e+001 
3625000000  -5.678620e+001  -4.084689e+001 
3628125000  -5.680871e+001  -2.998145e+001 
3631250000  -5.623952e+001  -3.701132e+001 
3634375000  -5.761147e+001  -3.914431e+001 
3637500000  -5.478328e+001  -3.479045e+001 
3640625000  -5.348758e+001  -3.264474e+001 
3643750000  -5.336150e+001  -3.541830e+001 
3646875000  -5.290273e+001  -5.224368e+001 
3650000000  -5.252354e+001  -4.870200e+001 
3653125000  -5.219777e+001  -5.365478e+001 
3656250000  -5.211440e+001  -5.864638e+001 
3659375000  -5.122662e+001  -5.585008e+001 
3662500000  -5.022001e+001  -6.158027e+001 
3665625000  -4.990020e+001  -6.317812e+001 
3668750000  -4.758446e+001  -6.869661e+001 
3671875000  -4.709671e+001  -7.776485e+001 
3675000000  -4.752850e+001  -8.338139e+001 
3678125000  -4.719274e+001  -8.722926e+001 
3681250000  -4.648614e+001  -9.318668e+001 
3684375000  -4.708935e+001  -1.019031e+002 
3687500000  -4.671780e+001  -1.059007e+002 
3690625000  -4.700899e+001  -1.116485e+002 
3693750000  -4.706604e+001  -1.117807e+002 
3696875000  -4.612690e+001  -1.117337e+002 
3700000000  -4.551301e+001  -1.176856e+002 
3703125000  -4.490489e+001  -1.247418e+002 
3706250000  -4.587572e+001  -1.251574e+002 
3709375000  -4.436728e+001  -1.267567e+002 
3712500000  -4.357045e+001  -1.293587e+002 
3715625000  -4.190941e+001  -1.399584e+002 
3718750000  -4.169927e+001  -1.466959e+002 
3721875000  -4.106335e+001  -1.550138e+002 
3725000000  -4.155853e+001  -1.638419e+002 
3728125000  -4.158202e+001  -1.669126e+002 
3731250000  -4.061750e+001  -1.724167e+002 
3734375000  -4.013046e+001  -1.793103e+002 
3737500000  -4.064982e+001  1.706005e+002 
3740625000  -4.095877e+001  1.659638e+002 
3743750000  -4.045437e+001  1.581174e+002 
3746875000  -4.059753e+001  1.519448e+002 
3750000000  -4.097533e+001  1.466609e+002 
3753125000  -4.069606e+001  1.437828e+002 
3756250000  -4.076792e+001  1.408241e+002 
3759375000  -4.048505e+001  1.348049e+002 
3762500000  -4.001504e+001  1.289248e+002 
3765625000  -4.053957e+001  1.257546e+002 
3768750000  -4.001653e+001  1.257500e+002 
3771875000  -3.855864e+001  1.179029e+002 
3775000000  -3.873579e+001  1.064905e+002 
3778125000  -3.912350e+001  1.009685e+002 
3781250000  -3.880464e+001  9.518151e+001 
3784375000  -3.889700e+001  8.971696e+001 
3787500000  -3.880267e+001  8.380749e+001 
3790625000  -3.902518e+001  7.462889e+001 
3793750000  -3.914653e+001  7.116261e+001 
3796875000  -3.827603e+001  6.606211e+001 
3800000000  -3.645484e+001  6.225099e+001 
3803125000  -3.812573e+001  4.865849e+001 
3806250000  -3.898815e+001  4.493265e+001 
3809375000  -3.834905e+001  4.101420e+001 
3812500000  -3.857021e+001  3.098230e+001 
3815625000  -3.967329e+001  2.379429e+001 
3818750000  -4.063194e+001  2.301554e+001 
3821875000  -4.024764e+001  3.379254e+001 
3825000000  -3.825430e+001  2.828649e+001 
3828125000  -3.705489e+001  1.152025e+001 
3831250000  -3.814170e+001  -3.637697e+000 
3834375000  -4.058377e+001  -5.485427e+000 
3837500000  -4.098995e+001  -1.567381e+000 
3840625000  -3.915832e+001  -4.455202e+000 
3843750000  -3.817074e+001  -1.879528e+001 
3846875000  -3.977037e+001  -2.406603e+001 
3850000000  -4.065422e+001  -1.737572e+001 
3853125000  -4.019353e+001  -1.711565e+001 
3856250000  -3.931135e+001  -2.675025e+001 
3859375000  -3.852932e+001  -3.388266e+001 
3862500000  -3.854060e+001  -4.302679e+001 
3865625000  -3.914328e+001  -4.910149e+001 
3868750000  -3.870066e+001  -4.944373e+001 
3871875000  -3.790455e+001  -5.673909e+001 
3875000000  -3.869464e+001  -6.826326e+001 
3878125000  -3.965549e+001  -6.974742e+001 
3881250000  -3.930050e+001  -6.973405e+001 
3884375000  -3.876604e+001  -7.595479e+001 
3887500000  -3.910443e+001  -8.334304e+001 
3890625000  -3.955201e+001  -8.798051e+001 
3893750000  -3.985020e+001  -8.883585e+001 
3896875000  -4.000341e+001  -9.301514e+001 
3900000000  -3.981631e+001  -9.670453e+001 
3903125000  -3.941400e+001  -1.002254e+002 
3906250000  -3.866519e+001  -1.036198e+002 
3909375000  -3.814425e+001  -1.126520e+002 
3912500000  -3.916992e+001  -1.222060e+002 
3915625000  -4.011821e+001  -1.235338e+002 
3918750000  -3.997474e+001  -1.233493e+002 
3921875000  -3.939589e+001  -1.275602e+002 
3925000000  -3.885889e+001  -1.332653e+002 
3928125000  -3.842805e+001  -1.420176e+002 
3931250000  -3.906524e+001  -1.494728e+002 
3934375000  -3.942597e+001  -1.511004e+002 
3937500000  -3.998055e+001  -1.531588e+002 
3940625000  -3.987898e+001  -1.542690e+002 
3943750000  -3.904490e+001  -1.577866e+002 
3946875000  -3.839761e+001  -1.665826e+002 
3950000000  -3.923875e+001  -1.762415e+002 
3953125000  -4.043305e+001  -1.736758e+002 
3956250000  -3.892926e+001  -1.750170e+002 
3959375000  -3.775155e+001  1.772012e+002 
3962500000  -3.775109e+001  1.688402e+002 
3965625000  -3.788970e+001  1.611107e+002 
3968750000  -3.879409e+001  1.527856e+002 
3971875000  -3.867376e+001  1.477214e+002 
3975000000  -3.833521e+001  1.442160e+002 
3978125000  -3.879485e+001  1.396508e+002 
3981250000  -3.868344e+001  1.335897e+002 
3984375000  -3.890717e+001  1.250649e+002 
3987500000  -3.965350e+001  1.210453e+002 
3990625000  -4.010925e+001  1.202404e+002 
3993750000  -3.984344e+001  1.161297e+002 
3996875000  -3.990525e+001  1.121581e+002 
4000000000  -4.074144e+001  1.065450e+002 
4003125000  -4.087013e+001  1.101266e+002 
4006250000  -3.961834e+001  1.052374e+002 
4009375000  -3.857799e+001  9.146955e+001 
4012500000  -4.015039e+001  8.275274e+001 
4015625000  -4.155356e+001  8.333923e+001 
4018750000  -4.104847e+001  8.288618e+001 
4021875000  -4.087068e+001  8.224334e+001 
4025000000  -4.041769e+001  7.447742e+001 
4028125000  -4.052761e+001  6.932546e+001 
4031250000  -4.123160e+001  6.301529e+001 
4034375000  -4.139184e+001  6.466373e+001 
4037500000  -4.120694e+001  6.232082e+001 
4040625000  -4.104590e+001  5.835951e+001 
4043750000  -4.111635e+001  5.517977e+001 
4046875000  -4.085200e+001  5.079762e+001 
4050000000  -4.043832e+001  4.629939e+001 
4053125000  -4.131529e+001  4.393843e+001 
4056250000  -4.153637e+001  4.801532e+001 
4059375000  -3.937830e+001  4.599555e+001 
4062500000  -3.861079e+001  3.784183e+001 
4065625000  -3.896874e+001  3.191502e+001 
4068750000  -3.835430e+001  2.546126e+001 
4071875000  -3.792827e+001  1.429255e+001 
4075000000  -3.850012e+001  7.192012e+000 
4078125000  -3.862477e+001  4.076560e+000 
4081250000  -3.828402e+001  2.879923e-001 
4084375000  -3.802096e+001  -9.021050e+000 
4087500000  -3.860051e+001  -1.717019e+001 
4090625000  -3.929048e+001  -1.836962e+001 
4093750000  -3.886098e+001  -2.067995e+001 
4096875000  -3.854255e+001  -3.117532e+001 
4100000000  -3.971603e+001  -3.941617e+001 
4103125000  -4.051603e+001  -3.708661e+001 
4106250000  -4.006993e+001  -3.271670e+001 
4109375000  -3.915449e+001  -3.592448e+001 
4112500000  -3.879786e+001  -4.600166e+001 
4115625000  -3.969399e+001  -5.193433e+001 
4118750000  -3.909641e+001  -5.583961e+001 
4121875000  -3.896691e+001  -6.382118e+001 
4125000000  -3.977710e+001  -6.969724e+001 
4128125000  -4.094729e+001  -6.873348e+001 
4131250000  -4.001496e+001  -6.159581e+001 
4134375000  -3.757688e+001  -7.178343e+001 
4137500000  -3.822348e+001  -9.318993e+001 
4140625000  -4.088764e+001  -9.970445e+001 
4143750000  -4.142185e+001  -9.239567e+001 
4146875000  -4.067589e+001  -8.907302e+001 
4150000000  -3.951183e+001  -9.831348e+001 
4153125000  -4.031694e+001  -1.060145e+002 
4156250000  -4.118639e+001  -1.103126e+002 
4159375000  -4.100501e+001  -1.050603e+002 
4162500000  -4.013486e+001  -1.041007e+002 
4165625000  -3.885510e+001  -1.122070e+002 
4168750000  -3.851178e+001  -1.206351e+002 
4171875000  -3.830870e+001  -1.307420e+002 
4175000000  -3.922621e+001  -1.370633e+002 
4178125000  -3.962928e+001  -1.382310e+002 
4181250000  -3.946262e+001  -1.413693e+002 
4184375000  -3.946044e+001  -1.461196e+002 
4187500000  -3.951881e+001  -1.523882e+002 
4190625000  -3.945191e+001  -1.589424e+002 
4193750000  -4.086384e+001  -1.623609e+002 
4196875000  -4.142469e+001  -1.648671e+002 
4200000000  -4.250418e+001  -1.587512e+002 
4203125000  -4.101112e+001  -1.475960e+002 
4206250000  -3.732368e+001  -1.538060e+002 
4209375000  -3.734852e+001  -1.788056e+002 
4212500000  -3.974795e+001  1.764646e+002 
4215625000  -4.011175e+001  -1.759833e+002 
4218750000  -3.832031e+001  -1.765876e+002 
4221875000  -3.709496e+001  1.723407e+002 
4225000000  -3.795785e+001  1.612806e+002 
4228125000  -3.788313e+001  1.618408e+002 
4231250000  -3.645962e+001  1.532144e+002 
4234375000  -3.652996e+001  1.436326e+002 
4237500000  -3.633223e+001  1.393122e+002 
4240625000  -3.633504e+001  1.277627e+002 
4243750000  -3.761827e+001  1.189320e+002 
4246875000  -3.857730e+001  1.182751e+002 
4250000000  -3.841390e+001  1.188497e+002 
4253125000  -3.811860e+001  1.140883e+002 
4256250000  -3.815027e+001  1.103396e+002 
4259375000  -3.771665e+001  1.042785e+002 
4262500000  -3.821912e+001  1.005791e+002 
4265625000  -3.802197e+001  9.873491e+001 
4268750000  -3.711471e+001  9.194192e+001 
4271875000  -3.682991e+001  8.151204e+001 
4275000000  -3.648881e+001  7.474973e+001 
4278125000  -3.786260e+001  6.215229e+001 
4281250000  -3.926756e+001  6.014403e+001 
4284375000  -3.899104e+001  5.761151e+001 
4287500000  -4.053256e+001  5.492942e+001 
4290625000  -4.083030e+001  6.465977e+001 
4293750000  -3.883791e+001  6.270903e+001 
4296875000  -3.747314e+001  5.041434e+001 
4300000000  -3.916565e+001  3.788520e+001 
4303125000  -3.972385e+001  4.407514e+001 
4306250000  -3.862135e+001  4.722225e+001 
4309375000  -3.798516e+001  4.130856e+001 
4312500000  -3.768747e+001  2.972727e+001 
4315625000  -3.796373e+001  1.977439e+001 
4318750000  -3.871544e+001  1.659329e+001 
4321875000  -3.864423e+001  1.738066e+001 
4325000000  -3.803870e+001  1.477281e+001 
4328125000  -3.723625e+001  6.932668e+000 
4331250000  -3.744464e+001  -3.547227e+000 
4334375000  -3.823761e+001  -1.058142e+001 
4337500000  -3.968301e+001  -9.925237e+000 
4340625000  -3.964153e+001  -6.383488e+000 
4343750000  -3.873633e+001  -1.134470e+001 
4346875000  -3.836646e+001  -1.815753e+001 
4350000000  -3.832980e+001  -2.682777e+001 
4353125000  -3.884352e+001  -3.472325e+001 
4356250000  -4.120236e+001  -3.112522e+001 
4359375000  -3.990191e+001  -1.552334e+001 
4362500000  -3.677666e+001  -2.373440e+001 
4365625000  -3.587191e+001  -4.142784e+001 
4368750000  -3.702429e+001  -5.288700e+001 
4371875000  -3.790911e+001  -5.162630e+001 
4375000000  -3.722394e+001  -5.586048e+001 
4378125000  -3.702819e+001  -6.370387e+001 
4381250000  -3.724014e+001  -7.228803e+001 
4384375000  -3.745734e+001  -7.825317e+001 
4387500000  -3.825504e+001  -8.300557e+001 
4390625000  -3.866512e+001  -8.555463e+001 
4393750000  -3.804491e+001  -8.480629e+001 
4396875000  -3.720336e+001  -9.053935e+001 
4400000000  -3.699511e+001  -9.789330e+001 
4403125000  -3.787514e+001  -1.077475e+002 
4406250000  -3.843164e+001  -1.100003e+002 
4409375000  -3.904989e+001  -1.151392e+002 
4412500000  -3.994371e+001  -1.168494e+002 
4415625000  -3.954351e+001  -1.152917e+002 
