!Agilent Technologies,E8363B,MY43030201,A.06.04.32
!Agilent E8363B: A.06.04.32
!Date: Tuesday, November 11, 2014 21:31:55
!Correction: S21(Response(S21)) 
!S1P File: Measurement: S21:
# Hz S  dB   R 50
3000000000  -4.052983e+001  7.855216e+001 
3003125000  -4.226462e+001  7.125154e+001 
3006250000  -4.226141e+001  7.099509e+001 
3009375000  -4.258786e+001  7.537305e+001 
3012500000  -4.146475e+001  7.017120e+001 
3015625000  -4.132773e+001  6.366255e+001 
3018750000  -4.153031e+001  6.326727e+001 
3021875000  -4.012434e+001  6.424186e+001 
3025000000  -3.885110e+001  6.148539e+001 
3028125000  -3.790383e+001  5.107985e+001 
3031250000  -3.702884e+001  3.900908e+001 
3034375000  -3.675405e+001  2.539783e+001 
3037500000  -3.745755e+001  1.432123e+001 
3040625000  -3.876376e+001  8.149173e+000 
3043750000  -3.931314e+001  2.279396e+000 
3046875000  -3.996737e+001  -2.438354e+000 
3050000000  -4.089359e+001  -9.335386e+000 
3053125000  -4.063353e+001  -2.831381e+000 
3056250000  -4.037482e+001  -1.029408e+000 
3059375000  -3.980223e+001  -2.701645e+000 
3062500000  -3.825957e+001  -7.233823e+000 
3065625000  -3.780919e+001  -1.758707e+001 
3068750000  -3.748721e+001  -2.430409e+001 
3071875000  -3.776139e+001  -2.643411e+001 
3075000000  -3.688023e+001  -3.362006e+001 
3078125000  -3.705009e+001  -3.966751e+001 
3081250000  -3.716343e+001  -4.599485e+001 
3084375000  -3.634703e+001  -5.014037e+001 
3087500000  -3.642986e+001  -5.691972e+001 
3090625000  -3.595580e+001  -6.952439e+001 
3093750000  -3.688244e+001  -7.758799e+001 
3096875000  -3.739562e+001  -8.291805e+001 
3100000000  -3.722137e+001  -8.521272e+001 
3103125000  -3.751855e+001  -8.963588e+001 
3106250000  -3.713829e+001  -9.473405e+001 
3109375000  -3.726552e+001  -9.859304e+001 
3112500000  -3.724722e+001  -1.042836e+002 
3115625000  -3.711806e+001  -1.080313e+002 
3118750000  -3.712314e+001  -1.114164e+002 
3121875000  -3.668859e+001  -1.228431e+002 
3125000000  -3.846718e+001  -1.258993e+002 
3128125000  -3.853580e+001  -1.187726e+002 
3131250000  -3.600445e+001  -1.245269e+002 
3134375000  -3.540777e+001  -1.417970e+002 
3137500000  -3.605038e+001  -1.540178e+002 
3140625000  -3.740683e+001  -1.575005e+002 
3143750000  -3.818299e+001  -1.589256e+002 
3146875000  -3.766282e+001  -1.567737e+002 
3150000000  -3.689536e+001  -1.606456e+002 
3153125000  -3.717668e+001  -1.695155e+002 
3156250000  -3.814877e+001  -1.648918e+002 
3159375000  -3.570015e+001  -1.669708e+002 
3162500000  -3.426676e+001  1.772667e+002 
3165625000  -3.540166e+001  1.646629e+002 
3168750000  -3.541243e+001  1.638722e+002 
3171875000  -3.488594e+001  1.573924e+002 
3175000000  -3.546842e+001  1.468187e+002 
3178125000  -3.500237e+001  1.459416e+002 
3181250000  -3.440517e+001  1.374388e+002 
3184375000  -3.431341e+001  1.257046e+002 
3187500000  -3.527233e+001  1.109020e+002 
3190625000  -3.704031e+001  1.050715e+002 
3193750000  -3.757303e+001  1.101655e+002 
3196875000  -3.727008e+001  1.114631e+002 
3200000000  -3.609494e+001  1.054781e+002 
3203125000  -3.592944e+001  9.787007e+001 
3206250000  -3.627200e+001  9.031799e+001 
3209375000  -3.580776e+001  8.285788e+001 
3212500000  -3.627788e+001  7.691389e+001 
3215625000  -3.606717e+001  7.307799e+001 
3218750000  -3.689386e+001  6.075899e+001 
3221875000  -3.730984e+001  5.530848e+001 
3225000000  -3.702177e+001  5.171606e+001 
3228125000  -3.774132e+001  4.337648e+001 
3231250000  -3.830743e+001  4.207401e+001 
3234375000  -3.791190e+001  3.903333e+001 
3237500000  -3.799587e+001  3.450957e+001 
3240625000  -3.755886e+001  2.979803e+001 
3243750000  -3.753340e+001  1.815806e+001 
3246875000  -3.834760e+001  1.266841e+001 
3250000000  -3.867582e+001  8.600281e+000 
3253125000  -3.915588e+001  3.942165e+000 
3256250000  -3.855103e+001  -3.942421e+000 
3259375000  -3.906068e+001  -1.389993e+001 
3262500000  -4.056391e+001  -1.738631e+001 
3265625000  -4.113990e+001  -1.467552e+001 
3268750000  -4.116648e+001  -1.309269e+001 
3271875000  -4.054384e+001  -1.724413e+001 
3275000000  -4.024418e+001  -2.675456e+001 
3278125000  -4.080862e+001  -3.144466e+001 
3281250000  -4.098495e+001  -3.151272e+001 
3284375000  -4.059544e+001  -3.859626e+001 
3287500000  -4.105191e+001  -4.309240e+001 
3290625000  -4.133490e+001  -5.089865e+001 
3293750000  -4.127617e+001  -5.550859e+001 
3296875000  -4.246055e+001  -5.747386e+001 
3300000000  -4.180927e+001  -5.527064e+001 
3303125000  -4.094989e+001  -6.307670e+001 
3306250000  -4.069785e+001  -6.992560e+001 
3309375000  -4.060699e+001  -7.786596e+001 
3312500000  -4.094851e+001  -9.190519e+001 
3315625000  -4.214985e+001  -9.729392e+001 
3318750000  -4.381660e+001  -1.030095e+002 
3321875000  -4.487896e+001  -9.775982e+001 
3325000000  -4.495279e+001  -8.933980e+001 
3328125000  -4.397078e+001  -9.204493e+001 
3331250000  -4.256542e+001  -8.725581e+001 
3334375000  -3.974269e+001  -1.052269e+002 
3337500000  -4.041163e+001  -1.243467e+002 
3340625000  -4.216428e+001  -1.321719e+002 
3343750000  -4.430578e+001  -1.319161e+002 
3346875000  -4.320634e+001  -1.345585e+002 
3350000000  -4.311547e+001  -1.367862e+002 
3353125000  -4.281682e+001  -1.448253e+002 
3356250000  -4.262654e+001  -1.518366e+002 
3359375000  -4.340931e+001  -1.614009e+002 
3362500000  -4.426430e+001  -1.687343e+002 
3365625000  -4.490378e+001  -1.731629e+002 
3368750000  -4.584142e+001  -1.779437e+002 
3371875000  -4.577518e+001  1.797760e+002 
3375000000  -4.750850e+001  1.772754e+002 
3378125000  -4.845939e+001  1.771980e+002 
3381250000  -4.962508e+001  -1.775716e+002 
3384375000  -4.641662e+001  -1.613982e+002 
3387500000  -4.374137e+001  1.758523e+002 
3390625000  -4.574165e+001  1.578779e+002 
3393750000  -4.718620e+001  1.605832e+002 
3396875000  -4.615448e+001  1.551844e+002 
3400000000  -4.607022e+001  1.472998e+002 
3403125000  -4.708295e+001  1.400460e+002 
3406250000  -4.769459e+001  1.364672e+002 
3409375000  -4.833659e+001  1.306038e+002 
3412500000  -4.902989e+001  1.235918e+002 
3415625000  -4.978057e+001  1.200695e+002 
3418750000  -5.013908e+001  1.215135e+002 
3421875000  -5.065041e+001  1.266169e+002 
3425000000  -5.027708e+001  1.286295e+002 
3428125000  -4.972618e+001  1.263520e+002 
3431250000  -4.987297e+001  1.115316e+002 
3434375000  -5.098771e+001  1.099129e+002 
3437500000  -5.095494e+001  1.088470e+002 
3440625000  -5.231205e+001  1.090567e+002 
3443750000  -5.114114e+001  1.133252e+002 
3446875000  -5.041460e+001  1.053256e+002 
3450000000  -5.024835e+001  1.008761e+002 
3453125000  -5.127824e+001  8.837801e+001 
3456250000  -5.200135e+001  8.619218e+001 
3459375000  -5.369801e+001  9.001662e+001 
3462500000  -5.179532e+001  9.627494e+001 
3465625000  -5.177320e+001  8.692635e+001 
3468750000  -5.197656e+001  8.344501e+001 
3471875000  -5.279517e+001  8.267558e+001 
3475000000  -5.161046e+001  7.859019e+001 
3478125000  -5.141216e+001  7.218578e+001 
3481250000  -5.263435e+001  7.048887e+001 
3484375000  -5.242413e+001  7.080936e+001 
3487500000  -5.125859e+001  7.017171e+001 
3490625000  -5.111820e+001  5.997413e+001 
3493750000  -5.119756e+001  5.259164e+001 
3496875000  -5.260978e+001  5.463099e+001 
3500000000  -5.246493e+001  5.182782e+001 
3503125000  -5.181736e+001  5.171019e+001 
3506250000  -5.019256e+001  4.486042e+001 
3509375000  -4.969359e+001  3.828409e+001 
3512500000  -5.022694e+001  1.801348e+001 
3515625000  -5.176826e+001  1.802817e+001 
3518750000  -5.264533e+001  2.056055e+001 
3521875000  -5.278241e+001  9.684274e+000 
3525000000  -5.328327e+001  4.643317e+000 
3528125000  -5.288737e+001  1.626596e+001 
3531250000  -5.174060e+001  4.332924e+000 
3534375000  -5.215484e+001  -7.111746e+000 
3537500000  -5.395856e+001  -1.613862e+001 
3540625000  -5.467445e+001  -1.940597e+001 
3543750000  -5.516624e+001  -4.082393e+000 
3546875000  -5.534443e+001  -2.513183e+000 
3550000000  -5.389112e+001  -9.640608e+000 
3553125000  -5.434600e+001  -2.577395e+001 
3556250000  -5.535567e+001  -3.029112e+001 
3559375000  -5.610981e+001  -3.122684e+001 
3562500000  -5.624672e+001  -3.413420e+001 
3565625000  -5.702860e+001  -4.142928e+001 
3568750000  -5.870556e+001  -3.142022e+001 
3571875000  -5.860305e+001  -3.040447e+001 
3575000000  -5.960044e+001  -2.919373e+001 
3578125000  -5.859259e+001  -4.986474e+001 
3581250000  -5.935784e+001  -4.013018e+001 
3584375000  -5.797493e+001  -2.219558e+001 
3587500000  -5.738165e+001  -3.265855e+001 
3590625000  -5.760408e+001  -3.420771e+001 
3593750000  -5.849153e+001  -3.839262e+001 
3596875000  -5.820403e+001  -3.090768e+001 
3600000000  -5.802094e+001  -2.045342e+001 
3603125000  -5.936382e+001  -6.032020e+001 
3606250000  -5.987582e+001  -5.237204e+001 
3609375000  -5.762760e+001  -3.510696e+001 
3612500000  -5.686637e+001  -4.034409e+001 
3615625000  -5.814720e+001  -3.603366e+001 
3618750000  -5.972774e+001  -2.791553e+001 
3621875000  -5.809551e+001  -3.557026e+001 
3625000000  -5.741961e+001  -4.039869e+001 
3628125000  -5.594489e+001  -3.197668e+001 
3631250000  -5.628969e+001  -3.955330e+001 
3634375000  -5.680879e+001  -4.428219e+001 
3637500000  -5.545565e+001  -3.192927e+001 
3640625000  -5.389838e+001  -2.910977e+001 
3643750000  -5.339295e+001  -3.982885e+001 
3646875000  -5.277148e+001  -5.218626e+001 
3650000000  -5.252907e+001  -5.124387e+001 
3653125000  -5.208910e+001  -5.483229e+001 
3656250000  -5.211216e+001  -5.764996e+001 
3659375000  -5.130592e+001  -6.310612e+001 
3662500000  -5.017394e+001  -6.342884e+001 
3665625000  -4.994003e+001  -6.451762e+001 
3668750000  -4.810962e+001  -6.800138e+001 
3671875000  -4.740579e+001  -7.922825e+001 
3675000000  -4.733133e+001  -8.663957e+001 
3678125000  -4.707965e+001  -8.832899e+001 
3681250000  -4.636316e+001  -9.631947e+001 
3684375000  -4.645022e+001  -9.950867e+001 
3687500000  -4.691988e+001  -1.039148e+002 
3690625000  -4.674853e+001  -1.106609e+002 
3693750000  -4.723177e+001  -1.129379e+002 
3696875000  -4.660944e+001  -1.120186e+002 
3700000000  -4.555564e+001  -1.186008e+002 
3703125000  -4.553300e+001  -1.255893e+002 
3706250000  -4.573720e+001  -1.244804e+002 
3709375000  -4.488555e+001  -1.257249e+002 
3712500000  -4.343970e+001  -1.292821e+002 
3715625000  -4.185265e+001  -1.407103e+002 
3718750000  -4.188365e+001  -1.466606e+002 
3721875000  -4.150203e+001  -1.555180e+002 
3725000000  -4.181504e+001  -1.627367e+002 
3728125000  -4.135649e+001  -1.680575e+002 
3731250000  -4.056174e+001  -1.708503e+002 
3734375000  -4.017989e+001  -1.797345e+002 
3737500000  -4.090267e+001  1.716435e+002 
3740625000  -4.107239e+001  1.647009e+002 
3743750000  -4.071455e+001  1.580471e+002 
3746875000  -4.051807e+001  1.518665e+002 
3750000000  -4.078898e+001  1.476757e+002 
3753125000  -4.073632e+001  1.445231e+002 
3756250000  -4.084040e+001  1.409895e+002 
3759375000  -4.047009e+001  1.371190e+002 
3762500000  -3.999717e+001  1.272741e+002 
3765625000  -4.078188e+001  1.250847e+002 
3768750000  -4.010300e+001  1.257209e+002 
3771875000  -3.849940e+001  1.181550e+002 
3775000000  -3.859945e+001  1.064294e+002 
3778125000  -3.907490e+001  9.902291e+001 
3781250000  -3.883564e+001  9.510477e+001 
3784375000  -3.874952e+001  8.973541e+001 
3787500000  -3.853031e+001  8.353242e+001 
3790625000  -3.918914e+001  7.349235e+001 
3793750000  -3.908089e+001  7.215289e+001 
3796875000  -3.835116e+001  6.802517e+001 
3800000000  -3.649408e+001  6.302522e+001 
3803125000  -3.816914e+001  4.835909e+001 
3806250000  -3.874532e+001  4.454283e+001 
3809375000  -3.868866e+001  4.042425e+001 
3812500000  -3.847787e+001  3.133304e+001 
3815625000  -3.960595e+001  2.345001e+001 
3818750000  -4.075349e+001  2.420413e+001 
3821875000  -4.018945e+001  3.215879e+001 
3825000000  -3.815805e+001  2.887598e+001 
3828125000  -3.693566e+001  1.071548e+001 
3831250000  -3.815052e+001  -3.832236e+000 
3834375000  -4.012255e+001  -4.845968e+000 
3837500000  -4.055685e+001  1.760781e+000 
3840625000  -3.890767e+001  -2.484713e+000 
3843750000  -3.830650e+001  -1.795306e+001 
3846875000  -3.974625e+001  -2.419241e+001 
3850000000  -4.065193e+001  -1.946776e+001 
3853125000  -3.991644e+001  -1.744044e+001 
3856250000  -3.944343e+001  -2.619333e+001 
3859375000  -3.840929e+001  -3.452430e+001 
3862500000  -3.838235e+001  -4.146588e+001 
3865625000  -3.899649e+001  -4.723266e+001 
3868750000  -3.855559e+001  -4.982344e+001 
3871875000  -3.815131e+001  -5.688584e+001 
3875000000  -3.856783e+001  -6.663324e+001 
3878125000  -3.957039e+001  -7.013854e+001 
3881250000  -3.921144e+001  -7.027525e+001 
3884375000  -3.871402e+001  -7.781052e+001 
3887500000  -3.895555e+001  -8.372732e+001 
3890625000  -3.947959e+001  -8.859423e+001 
3893750000  -3.979605e+001  -8.906237e+001 
3896875000  -4.010482e+001  -9.135120e+001 
3900000000  -3.975548e+001  -9.518255e+001 
3903125000  -3.935699e+001  -1.006773e+002 
3906250000  -3.888480e+001  -1.035698e+002 
3909375000  -3.815347e+001  -1.140817e+002 
3912500000  -3.908983e+001  -1.221129e+002 
3915625000  -4.036530e+001  -1.205664e+002 
3918750000  -4.008651e+001  -1.224178e+002 
3921875000  -3.918156e+001  -1.282101e+002 
3925000000  -3.870484e+001  -1.311256e+002 
3928125000  -3.837250e+001  -1.430180e+002 
3931250000  -3.910244e+001  -1.495276e+002 
3934375000  -3.979927e+001  -1.518460e+002 
3937500000  -3.995860e+001  -1.539865e+002 
3940625000  -3.979489e+001  -1.552798e+002 
3943750000  -3.891005e+001  -1.572167e+002 
3946875000  -3.820581e+001  -1.673105e+002 
3950000000  -3.962778e+001  -1.754759e+002 
3953125000  -4.036416e+001  -1.729579e+002 
3956250000  -3.880060e+001  -1.737207e+002 
3959375000  -3.785318e+001  1.799972e+002 
3962500000  -3.765672e+001  1.699409e+002 
3965625000  -3.794448e+001  1.604461e+002 
3968750000  -3.882150e+001  1.541482e+002 
3971875000  -3.851343e+001  1.483326e+002 
3975000000  -3.846754e+001  1.439451e+002 
3978125000  -3.870831e+001  1.400640e+002 
3981250000  -3.860291e+001  1.330276e+002 
3984375000  -3.901492e+001  1.260863e+002 
3987500000  -3.984388e+001  1.202353e+002 
3990625000  -4.022738e+001  1.213382e+002 
3993750000  -3.986630e+001  1.145975e+002 
3996875000  -4.005347e+001  1.123417e+002 
4000000000  -4.086827e+001  1.058706e+002 
4003125000  -4.126180e+001  1.069675e+002 
4006250000  -3.931099e+001  1.077829e+002 
4009375000  -3.887041e+001  9.098564e+001 
4012500000  -4.030562e+001  8.316794e+001 
4015625000  -4.153386e+001  8.240044e+001 
4018750000  -4.151569e+001  8.571161e+001 
4021875000  -4.076729e+001  8.162657e+001 
4025000000  -4.047969e+001  7.481149e+001 
4028125000  -4.081976e+001  6.819328e+001 
4031250000  -4.095652e+001  6.469238e+001 
4034375000  -4.153372e+001  6.268284e+001 
4037500000  -4.101977e+001  6.367210e+001 
4040625000  -4.071181e+001  5.892191e+001 
4043750000  -4.134900e+001  5.462409e+001 
4046875000  -4.087059e+001  5.268847e+001 
4050000000  -4.069918e+001  4.517662e+001 
4053125000  -4.136113e+001  4.417884e+001 
4056250000  -4.157562e+001  4.803668e+001 
4059375000  -3.943619e+001  4.586966e+001 
4062500000  -3.882623e+001  3.674295e+001 
4065625000  -3.898396e+001  3.286030e+001 
4068750000  -3.821391e+001  2.499220e+001 
4071875000  -3.783937e+001  1.531570e+001 
4075000000  -3.867133e+001  8.459023e+000 
4078125000  -3.881385e+001  5.535344e+000 
4081250000  -3.832151e+001  -9.085043e-001 
4084375000  -3.817931e+001  -1.067807e+001 
4087500000  -3.881643e+001  -1.643754e+001 
4090625000  -3.907789e+001  -1.789129e+001 
4093750000  -3.854220e+001  -2.013703e+001 
4096875000  -3.878745e+001  -2.960709e+001 
4100000000  -3.999617e+001  -3.775520e+001 
4103125000  -4.067788e+001  -3.828458e+001 
4106250000  -4.009868e+001  -3.256282e+001 
4109375000  -3.940859e+001  -3.612740e+001 
4112500000  -3.885674e+001  -4.558076e+001 
4115625000  -3.922831e+001  -5.296827e+001 
4118750000  -3.922094e+001  -5.650832e+001 
4121875000  -3.882865e+001  -6.395100e+001 
4125000000  -3.973120e+001  -7.116134e+001 
4128125000  -4.063546e+001  -6.898824e+001 
4131250000  -3.978535e+001  -6.373249e+001 
4134375000  -3.769543e+001  -7.276720e+001 
4137500000  -3.840706e+001  -9.272152e+001 
4140625000  -4.059286e+001  -9.749821e+001 
4143750000  -4.150531e+001  -9.434601e+001 
4146875000  -4.034201e+001  -8.943007e+001 
4150000000  -3.956584e+001  -9.628204e+001 
4153125000  -4.006514e+001  -1.054232e+002 
4156250000  -4.127907e+001  -1.106851e+002 
4159375000  -4.100074e+001  -1.037545e+002 
4162500000  -4.003250e+001  -1.023816e+002 
4165625000  -3.900105e+001  -1.087981e+002 
4168750000  -3.858974e+001  -1.181967e+002 
4171875000  -3.844683e+001  -1.301254e+002 
4175000000  -3.934539e+001  -1.355305e+002 
4178125000  -3.943644e+001  -1.348474e+002 
4181250000  -3.957244e+001  -1.421031e+002 
4184375000  -3.947766e+001  -1.453780e+002 
4187500000  -3.948662e+001  -1.509074e+002 
4190625000  -3.945891e+001  -1.584108e+002 
4193750000  -4.051691e+001  -1.634969e+002 
4196875000  -4.157694e+001  -1.627643e+002 
4200000000  -4.255529e+001  -1.580751e+002 
4203125000  -4.110761e+001  -1.471163e+002 
4206250000  -3.743940e+001  -1.555876e+002 
4209375000  -3.743719e+001  -1.787559e+002 
4212500000  -3.969711e+001  1.742018e+002 
4215625000  -4.015475e+001  -1.762726e+002 
4218750000  -3.831913e+001  -1.782618e+002 
4221875000  -3.649443e+001  1.729463e+002 
4225000000  -3.793060e+001  1.622539e+002 
4228125000  -3.770823e+001  1.630661e+002 
4231250000  -3.648175e+001  1.546322e+002 
4234375000  -3.635921e+001  1.451911e+002 
4237500000  -3.605580e+001  1.387830e+002 
4240625000  -3.635448e+001  1.280841e+002 
4243750000  -3.767658e+001  1.204392e+002 
4246875000  -3.835929e+001  1.192651e+002 
4250000000  -3.836984e+001  1.186404e+002 
4253125000  -3.816522e+001  1.144317e+002 
4256250000  -3.802086e+001  1.094782e+002 
4259375000  -3.779733e+001  1.053373e+002 
4262500000  -3.794168e+001  1.004185e+002 
4265625000  -3.805363e+001  9.804611e+001 
4268750000  -3.694639e+001  8.927805e+001 
4271875000  -3.682691e+001  8.317898e+001 
4275000000  -3.662114e+001  7.366174e+001 
4278125000  -3.770608e+001  6.240941e+001 
4281250000  -3.908942e+001  6.050460e+001 
4284375000  -3.885730e+001  5.815718e+001 
4287500000  -4.064551e+001  5.388046e+001 
4290625000  -4.054021e+001  6.381642e+001 
4293750000  -3.855927e+001  6.346698e+001 
4296875000  -3.776503e+001  5.168346e+001 
4300000000  -3.910197e+001  4.089330e+001 
4303125000  -3.986440e+001  4.331792e+001 
4306250000  -3.854152e+001  4.536059e+001 
4309375000  -3.774996e+001  4.028850e+001 
4312500000  -3.776374e+001  2.852380e+001 
4315625000  -3.798771e+001  2.024720e+001 
4318750000  -3.852833e+001  1.728544e+001 
4321875000  -3.901159e+001  1.817906e+001 
4325000000  -3.807752e+001  1.678821e+001 
4328125000  -3.742516e+001  6.710858e+000 
4331250000  -3.727348e+001  -2.522330e+000 
4334375000  -3.836348e+001  -8.964156e+000 
4337500000  -3.951811e+001  -9.640655e+000 
4340625000  -3.943578e+001  -7.241951e+000 
4343750000  -3.875259e+001  -9.968461e+000 
4346875000  -3.835471e+001  -1.767598e+001 
4350000000  -3.848470e+001  -2.542298e+001 
4353125000  -3.892650e+001  -3.228788e+001 
4356250000  -4.088555e+001  -2.900928e+001 
4359375000  -4.000352e+001  -1.698103e+001 
4362500000  -3.629464e+001  -2.464277e+001 
4365625000  -3.608936e+001  -4.044212e+001 
4368750000  -3.708629e+001  -5.118530e+001 
4371875000  -3.788521e+001  -5.227214e+001 
4375000000  -3.727149e+001  -5.486701e+001 
4378125000  -3.690137e+001  -6.308321e+001 
4381250000  -3.727979e+001  -7.166653e+001 
4384375000  -3.738036e+001  -7.699818e+001 
4387500000  -3.809345e+001  -8.303812e+001 
4390625000  -3.861501e+001  -8.528378e+001 
4393750000  -3.813947e+001  -8.434766e+001 
4396875000  -3.746381e+001  -9.139279e+001 
4400000000  -3.709105e+001  -9.934686e+001 
4403125000  -3.783380e+001  -1.088559e+002 
4406250000  -3.845633e+001  -1.113361e+002 
4409375000  -3.873940e+001  -1.171031e+002 
4412500000  -3.997298e+001  -1.190397e+002 
4415625000  -3.960831e+001  -1.136538e+002 
