!Agilent Technologies,E8363B,MY43030201,A.06.04.32
!Agilent E8363B: A.06.04.32
!Date: Tuesday, November 11, 2014 21:30:33
!Correction: S21(Response(S21)) 
!S1P File: Measurement: S21:
# Hz S  dB   R 50
3000000000  -4.058791e+001  8.361543e+001 
3003125000  -4.226242e+001  7.647011e+001 
3006250000  -4.205719e+001  7.499495e+001 
3009375000  -4.262358e+001  8.001965e+001 
3012500000  -4.153180e+001  7.512055e+001 
3015625000  -4.125249e+001  6.918639e+001 
3018750000  -4.180475e+001  6.900124e+001 
3021875000  -4.021293e+001  6.950639e+001 
3025000000  -3.891732e+001  6.548326e+001 
3028125000  -3.803695e+001  5.629193e+001 
3031250000  -3.706270e+001  4.414793e+001 
3034375000  -3.682898e+001  3.016552e+001 
3037500000  -3.743735e+001  1.874259e+001 
3040625000  -3.875820e+001  1.391148e+001 
3043750000  -3.920895e+001  7.989626e+000 
3046875000  -3.979125e+001  8.113549e-001 
3050000000  -4.109566e+001  -3.354536e+000 
3053125000  -4.037724e+001  2.266462e+000 
3056250000  -4.026306e+001  4.023283e+000 
3059375000  -3.972778e+001  2.720879e+000 
3062500000  -3.819659e+001  -2.753479e+000 
3065625000  -3.778776e+001  -1.214787e+001 
3068750000  -3.767643e+001  -2.037422e+001 
3071875000  -3.772353e+001  -2.229693e+001 
3075000000  -3.708418e+001  -2.838760e+001 
3078125000  -3.695528e+001  -3.462911e+001 
3081250000  -3.730908e+001  -4.105952e+001 
3084375000  -3.643154e+001  -4.568363e+001 
3087500000  -3.636056e+001  -5.221336e+001 
3090625000  -3.599558e+001  -6.461940e+001 
3093750000  -3.687601e+001  -7.311165e+001 
3096875000  -3.742287e+001  -7.763174e+001 
3100000000  -3.721143e+001  -8.091386e+001 
3103125000  -3.751574e+001  -8.446692e+001 
3106250000  -3.726305e+001  -9.012804e+001 
3109375000  -3.721398e+001  -9.343135e+001 
3112500000  -3.720280e+001  -9.860087e+001 
3115625000  -3.717925e+001  -1.039676e+002 
3118750000  -3.727431e+001  -1.055403e+002 
3121875000  -3.653846e+001  -1.180914e+002 
3125000000  -3.837313e+001  -1.215686e+002 
3128125000  -3.858282e+001  -1.137501e+002 
3131250000  -3.620678e+001  -1.199201e+002 
3134375000  -3.522456e+001  -1.368935e+002 
3137500000  -3.610353e+001  -1.500469e+002 
3140625000  -3.750184e+001  -1.523400e+002 
3143750000  -3.822305e+001  -1.550899e+002 
3146875000  -3.756852e+001  -1.518595e+002 
3150000000  -3.707799e+001  -1.556116e+002 
3153125000  -3.710691e+001  -1.645676e+002 
3156250000  -3.781651e+001  -1.599136e+002 
3159375000  -3.575491e+001  -1.618097e+002 
3162500000  -3.415077e+001  -1.771706e+002 
3165625000  -3.537262e+001  1.697917e+002 
3168750000  -3.537779e+001  1.689496e+002 
3171875000  -3.484534e+001  1.622146e+002 
3175000000  -3.550927e+001  1.522507e+002 
3178125000  -3.508681e+001  1.512661e+002 
3181250000  -3.441524e+001  1.431597e+002 
3184375000  -3.412548e+001  1.309477e+002 
3187500000  -3.552805e+001  1.155162e+002 
3190625000  -3.730661e+001  1.093285e+002 
3193750000  -3.736050e+001  1.151350e+002 
3196875000  -3.739949e+001  1.166545e+002 
3200000000  -3.614063e+001  1.120722e+002 
3203125000  -3.597226e+001  1.027992e+002 
3206250000  -3.617796e+001  9.523215e+001 
3209375000  -3.583253e+001  8.827207e+001 
3212500000  -3.626786e+001  8.087706e+001 
3215625000  -3.601658e+001  7.723356e+001 
3218750000  -3.684237e+001  6.656084e+001 
3221875000  -3.740215e+001  6.111995e+001 
3225000000  -3.696094e+001  5.632155e+001 
3228125000  -3.774245e+001  4.952245e+001 
3231250000  -3.821204e+001  4.780085e+001 
3234375000  -3.796880e+001  4.397482e+001 
3237500000  -3.790561e+001  3.996466e+001 
3240625000  -3.762814e+001  3.484515e+001 
3243750000  -3.764085e+001  2.567485e+001 
3246875000  -3.816464e+001  1.696236e+001 
3250000000  -3.861217e+001  1.400672e+001 
3253125000  -3.901152e+001  9.648397e+000 
3256250000  -3.850877e+001  2.344754e+000 
3259375000  -3.906606e+001  -7.341951e+000 
3262500000  -4.042052e+001  -1.056395e+001 
3265625000  -4.110195e+001  -9.093309e+000 
3268750000  -4.098849e+001  -8.157735e+000 
3271875000  -4.057675e+001  -1.275163e+001 
3275000000  -4.013702e+001  -2.051746e+001 
3278125000  -4.069902e+001  -2.496754e+001 
3281250000  -4.092583e+001  -2.592116e+001 
3284375000  -4.052359e+001  -3.152828e+001 
3287500000  -4.090996e+001  -3.571637e+001 
3290625000  -4.129279e+001  -4.280032e+001 
3293750000  -4.119431e+001  -5.085027e+001 
3296875000  -4.264734e+001  -5.134771e+001 
3300000000  -4.172897e+001  -5.187808e+001 
3303125000  -4.084643e+001  -5.756266e+001 
3306250000  -4.087771e+001  -6.429839e+001 
3309375000  -4.055719e+001  -7.181541e+001 
3312500000  -4.084344e+001  -8.431179e+001 
3315625000  -4.198830e+001  -9.284820e+001 
3318750000  -4.346204e+001  -9.383638e+001 
3321875000  -4.473657e+001  -9.207108e+001 
3325000000  -4.457150e+001  -8.507800e+001 
3328125000  -4.396620e+001  -8.618554e+001 
3331250000  -4.239276e+001  -8.337571e+001 
3334375000  -3.960998e+001  -9.683535e+001 
3337500000  -4.044041e+001  -1.175256e+002 
3340625000  -4.194125e+001  -1.280411e+002 
3343750000  -4.387723e+001  -1.280921e+002 
3346875000  -4.339765e+001  -1.280849e+002 
3350000000  -4.293955e+001  -1.311521e+002 
3353125000  -4.278256e+001  -1.382157e+002 
3356250000  -4.262995e+001  -1.473207e+002 
3359375000  -4.356130e+001  -1.561902e+002 
3362500000  -4.441383e+001  -1.632805e+002 
3365625000  -4.459468e+001  -1.676589e+002 
3368750000  -4.539367e+001  -1.695847e+002 
3371875000  -4.611238e+001  -1.743934e+002 
3375000000  -4.761100e+001  1.798928e+002 
3378125000  -4.804865e+001  -1.780827e+002 
3381250000  -4.988245e+001  -1.690223e+002 
3384375000  -4.666691e+001  -1.553776e+002 
3387500000  -4.366256e+001  -1.731492e+002 
3390625000  -4.559261e+001  1.654147e+002 
3393750000  -4.711242e+001  1.666404e+002 
3396875000  -4.561618e+001  1.665313e+002 
3400000000  -4.608705e+001  1.535050e+002 
3403125000  -4.700187e+001  1.475241e+002 
3406250000  -4.734032e+001  1.434668e+002 
3409375000  -4.710218e+001  1.356004e+002 
3412500000  -4.903035e+001  1.296890e+002 
3415625000  -4.965975e+001  1.320140e+002 
3418750000  -5.046300e+001  1.310828e+002 
3421875000  -5.062927e+001  1.320318e+002 
3425000000  -5.064137e+001  1.328099e+002 
3428125000  -4.940334e+001  1.321421e+002 
3431250000  -4.974658e+001  1.191834e+002 
3434375000  -5.066714e+001  1.144815e+002 
3437500000  -5.121967e+001  1.152221e+002 
3440625000  -5.137515e+001  1.197386e+002 
3443750000  -4.982797e+001  1.211655e+002 
3446875000  -5.000811e+001  1.150561e+002 
3450000000  -5.008675e+001  1.048348e+002 
3453125000  -4.989263e+001  9.914393e+001 
3456250000  -5.104334e+001  9.077107e+001 
3459375000  -5.348680e+001  9.610927e+001 
3462500000  -5.264685e+001  1.004982e+002 
3465625000  -5.105559e+001  8.943975e+001 
3468750000  -5.147475e+001  9.109632e+001 
3471875000  -5.147935e+001  9.079314e+001 
3475000000  -5.082780e+001  8.255871e+001 
3478125000  -5.074639e+001  7.349393e+001 
3481250000  -5.133981e+001  7.406454e+001 
3484375000  -5.275633e+001  7.865031e+001 
3487500000  -5.083934e+001  7.289994e+001 
3490625000  -5.032587e+001  6.698583e+001 
3493750000  -5.104627e+001  5.501214e+001 
3496875000  -5.059615e+001  6.198511e+001 
3500000000  -5.170512e+001  5.848916e+001 
3503125000  -5.110283e+001  5.650040e+001 
3506250000  -4.974055e+001  4.997070e+001 
3509375000  -4.916379e+001  3.532348e+001 
3512500000  -4.994790e+001  2.079224e+001 
3515625000  -5.060158e+001  1.866393e+001 
3518750000  -5.210520e+001  2.089559e+001 
3521875000  -5.115658e+001  1.502410e+001 
3525000000  -5.247902e+001  1.229648e+001 
3528125000  -5.155997e+001  1.422663e+001 
3531250000  -5.157166e+001  8.721649e+000 
3534375000  -5.225600e+001  -8.317565e+000 
3537500000  -5.284964e+001  -1.230404e+001 
3540625000  -5.391657e+001  -1.077492e+001 
3543750000  -5.582094e+001  -1.542120e+001 
3546875000  -5.565095e+001  2.457923e+000 
3550000000  -5.360265e+001  -8.684514e+000 
3553125000  -5.313470e+001  -2.367292e+001 
3556250000  -5.473707e+001  -2.603734e+001 
3559375000  -5.603659e+001  -3.111283e+001 
3562500000  -5.532174e+001  -3.579503e+001 
3565625000  -5.660183e+001  -3.573960e+001 
3568750000  -5.760743e+001  -2.639304e+001 
3571875000  -5.679193e+001  -3.124687e+001 
3575000000  -5.816666e+001  -3.561127e+001 
3578125000  -5.768971e+001  -4.455557e+001 
3581250000  -5.810069e+001  -2.261155e+001 
3584375000  -5.696845e+001  -2.546399e+001 
3587500000  -5.680531e+001  -4.524463e+001 
3590625000  -5.782605e+001  -4.657558e+001 
3593750000  -5.769740e+001  -4.653892e+001 
3596875000  -5.863496e+001  -2.614028e+001 
3600000000  -5.925901e+001  -2.420329e+001 
3603125000  -5.825560e+001  -3.840660e+001 
3606250000  -5.913253e+001  -5.742596e+001 
3609375000  -5.854683e+001  -3.994342e+001 
3612500000  -5.796609e+001  -5.061262e+001 
3615625000  -5.963327e+001  -4.801320e+001 
3618750000  -5.915038e+001  -4.520792e+001 
3621875000  -5.773570e+001  -4.237559e+001 
3625000000  -5.982490e+001  -3.924110e+001 
3628125000  -5.736802e+001  -3.436546e+001 
3631250000  -5.793459e+001  -3.213518e+001 
3634375000  -5.828036e+001  -3.881349e+001 
3637500000  -5.686829e+001  -3.329687e+001 
3640625000  -5.472388e+001  -3.063133e+001 
3643750000  -5.324942e+001  -3.597979e+001 
3646875000  -5.447162e+001  -4.611994e+001 
3650000000  -5.331897e+001  -4.332494e+001 
3653125000  -5.260863e+001  -5.379576e+001 
3656250000  -5.251212e+001  -5.602059e+001 
3659375000  -5.183037e+001  -5.388644e+001 
3662500000  -5.015118e+001  -5.764816e+001 
3665625000  -5.048908e+001  -6.072435e+001 
3668750000  -4.882281e+001  -5.684495e+001 
3671875000  -4.771281e+001  -7.362872e+001 
3675000000  -4.744087e+001  -7.878354e+001 
3678125000  -4.773362e+001  -8.792155e+001 
3681250000  -4.673732e+001  -8.976833e+001 
3684375000  -4.667291e+001  -9.225544e+001 
3687500000  -4.695304e+001  -1.014885e+002 
3690625000  -4.683796e+001  -1.072429e+002 
3693750000  -4.740022e+001  -1.087856e+002 
3696875000  -4.675909e+001  -1.080264e+002 
3700000000  -4.571284e+001  -1.112883e+002 
3703125000  -4.598022e+001  -1.194562e+002 
3706250000  -4.610194e+001  -1.191773e+002 
3709375000  -4.536454e+001  -1.200521e+002 
3712500000  -4.323680e+001  -1.255680e+002 
3715625000  -4.252639e+001  -1.344412e+002 
3718750000  -4.198080e+001  -1.413279e+002 
3721875000  -4.110529e+001  -1.496566e+002 
3725000000  -4.190536e+001  -1.569553e+002 
3728125000  -4.155892e+001  -1.603425e+002 
3731250000  -4.071346e+001  -1.672603e+002 
3734375000  -4.017250e+001  -1.747532e+002 
3737500000  -4.077810e+001  1.760870e+002 
3740625000  -4.089999e+001  1.720507e+002 
3743750000  -4.049894e+001  1.646532e+002 
3746875000  -4.078681e+001  1.591651e+002 
3750000000  -4.095014e+001  1.519745e+002 
3753125000  -4.048895e+001  1.493679e+002 
3756250000  -4.088703e+001  1.463258e+002 
3759375000  -4.027001e+001  1.421057e+002 
3762500000  -4.005706e+001  1.353006e+002 
3765625000  -4.076595e+001  1.309106e+002 
3768750000  -4.032079e+001  1.297882e+002 
3771875000  -3.840762e+001  1.221870e+002 
3775000000  -3.848000e+001  1.114981e+002 
3778125000  -3.910159e+001  1.049460e+002 
3781250000  -3.925250e+001  1.011070e+002 
3784375000  -3.878543e+001  9.491524e+001 
3787500000  -3.848885e+001  9.068003e+001 
3790625000  -3.921968e+001  8.152369e+001 
3793750000  -3.929170e+001  7.710076e+001 
3796875000  -3.823047e+001  7.386858e+001 
3800000000  -3.641300e+001  6.879617e+001 
3803125000  -3.802383e+001  5.478456e+001 
3806250000  -3.894912e+001  5.108621e+001 
3809375000  -3.841327e+001  4.724149e+001 
3812500000  -3.857368e+001  3.805461e+001 
3815625000  -3.945082e+001  2.882116e+001 
3818750000  -4.069385e+001  3.011185e+001 
3821875000  -4.006915e+001  3.768788e+001 
3825000000  -3.840677e+001  3.620555e+001 
3828125000  -3.724205e+001  1.668638e+001 
3831250000  -3.819052e+001  3.364576e+000 
3834375000  -4.030944e+001  7.643000e-001 
3837500000  -4.055155e+001  5.410039e+000 
3840625000  -3.898411e+001  2.094820e+000 
3843750000  -3.811592e+001  -1.139334e+001 
3846875000  -3.971828e+001  -1.802875e+001 
3850000000  -4.092987e+001  -1.258233e+001 
3853125000  -4.002125e+001  -1.213452e+001 
3856250000  -3.967117e+001  -2.002798e+001 
3859375000  -3.886308e+001  -2.626044e+001 
3862500000  -3.835962e+001  -3.725854e+001 
3865625000  -3.897199e+001  -4.337620e+001 
3868750000  -3.882876e+001  -4.287341e+001 
3871875000  -3.794041e+001  -5.127958e+001 
3875000000  -3.841207e+001  -6.029929e+001 
3878125000  -3.946250e+001  -6.282713e+001 
3881250000  -3.920739e+001  -6.468034e+001 
3884375000  -3.861540e+001  -7.081973e+001 
3887500000  -3.915421e+001  -7.565192e+001 
3890625000  -3.950175e+001  -8.117457e+001 
3893750000  -3.957402e+001  -8.296748e+001 
3896875000  -3.999968e+001  -8.500358e+001 
3900000000  -3.977756e+001  -8.849111e+001 
3903125000  -3.927324e+001  -9.235023e+001 
3906250000  -3.884460e+001  -9.794614e+001 
3909375000  -3.817729e+001  -1.069024e+002 
3912500000  -3.903436e+001  -1.167980e+002 
3915625000  -4.026552e+001  -1.138264e+002 
3918750000  -3.957405e+001  -1.171369e+002 
3921875000  -3.921315e+001  -1.204791e+002 
3925000000  -3.859053e+001  -1.258915e+002 
3928125000  -3.807846e+001  -1.371891e+002 
3931250000  -3.878520e+001  -1.429386e+002 
3934375000  -3.933164e+001  -1.447290e+002 
3937500000  -4.015216e+001  -1.474697e+002 
3940625000  -4.003019e+001  -1.488163e+002 
3943750000  -3.878718e+001  -1.505071e+002 
3946875000  -3.827713e+001  -1.593495e+002 
3950000000  -3.942719e+001  -1.694877e+002 
3953125000  -3.999659e+001  -1.666564e+002 
3956250000  -3.880365e+001  -1.678811e+002 
3959375000  -3.782901e+001  -1.755956e+002 
3962500000  -3.773316e+001  1.756116e+002 
3965625000  -3.760513e+001  1.682406e+002 
3968750000  -3.838277e+001  1.614139e+002 
3971875000  -3.846838e+001  1.536279e+002 
3975000000  -3.858197e+001  1.499134e+002 
3978125000  -3.856958e+001  1.464556e+002 
3981250000  -3.834488e+001  1.408803e+002 
3984375000  -3.886380e+001  1.330891e+002 
3987500000  -3.958200e+001  1.291018e+002 
3990625000  -3.969385e+001  1.274317e+002 
3993750000  -3.982342e+001  1.222127e+002 
3996875000  -3.975508e+001  1.168412e+002 
4000000000  -4.066565e+001  1.123761e+002 
4003125000  -4.120345e+001  1.153146e+002 
4006250000  -3.912785e+001  1.129947e+002 
4009375000  -3.849461e+001  9.915372e+001 
4012500000  -4.019930e+001  9.189457e+001 
4015625000  -4.119218e+001  8.953983e+001 
4018750000  -4.110434e+001  9.154321e+001 
4021875000  -4.075670e+001  8.792393e+001 
4025000000  -4.019518e+001  8.165880e+001 
4028125000  -4.039216e+001  7.441696e+001 
4031250000  -4.110550e+001  7.088756e+001 
4034375000  -4.129110e+001  7.053030e+001 
4037500000  -4.071340e+001  7.061536e+001 
4040625000  -4.061956e+001  6.653899e+001 
4043750000  -4.077007e+001  6.200362e+001 
4046875000  -4.059481e+001  6.073412e+001 
4050000000  -4.037251e+001  5.375357e+001 
4053125000  -4.087217e+001  4.986877e+001 
4056250000  -4.116521e+001  5.562569e+001 
4059375000  -3.940726e+001  5.231051e+001 
4062500000  -3.851904e+001  4.520937e+001 
4065625000  -3.882326e+001  3.984400e+001 
4068750000  -3.813372e+001  3.364837e+001 
4071875000  -3.760363e+001  2.339308e+001 
4075000000  -3.793181e+001  1.653045e+001 
4078125000  -3.833484e+001  1.188945e+001 
4081250000  -3.796503e+001  6.575436e+000 
4084375000  -3.780818e+001  -1.524008e+000 
4087500000  -3.824068e+001  -9.148238e+000 
4090625000  -3.886927e+001  -1.156296e+001 
4093750000  -3.849165e+001  -1.337170e+001 
4096875000  -3.844792e+001  -2.300102e+001 
4100000000  -3.943252e+001  -3.164038e+001 
4103125000  -4.008206e+001  -2.993087e+001 
4106250000  -3.979723e+001  -2.639199e+001 
4109375000  -3.894296e+001  -2.879638e+001 
4112500000  -3.804435e+001  -3.839711e+001 
4115625000  -3.889537e+001  -4.629649e+001 
4118750000  -3.867450e+001  -5.121321e+001 
4121875000  -3.868585e+001  -5.670887e+001 
4125000000  -3.938451e+001  -6.447240e+001 
4128125000  -4.034433e+001  -6.231240e+001 
4131250000  -3.932305e+001  -5.662574e+001 
4134375000  -3.727306e+001  -6.434828e+001 
4137500000  -3.778188e+001  -8.596980e+001 
4140625000  -4.012460e+001  -9.291951e+001 
4143750000  -4.135318e+001  -8.682033e+001 
4146875000  -4.021077e+001  -8.313931e+001 
4150000000  -3.925520e+001  -8.978669e+001 
4153125000  -3.965738e+001  -9.969368e+001 
4156250000  -4.093392e+001  -1.035324e+002 
4159375000  -4.075496e+001  -9.945082e+001 
4162500000  -3.971789e+001  -9.628300e+001 
4165625000  -3.841990e+001  -1.024860e+002 
4168750000  -3.793088e+001  -1.130152e+002 
4171875000  -3.778384e+001  -1.233712e+002 
4175000000  -3.870955e+001  -1.290279e+002 
4178125000  -3.894925e+001  -1.305021e+002 
4181250000  -3.891694e+001  -1.336608e+002 
4184375000  -3.900523e+001  -1.383267e+002 
4187500000  -3.884492e+001  -1.458802e+002 
4190625000  -3.891986e+001  -1.513145e+002 
4193750000  -4.009995e+001  -1.573912e+002 
4196875000  -4.066533e+001  -1.571473e+002 
4200000000  -4.200653e+001  -1.520669e+002 
4203125000  -4.084111e+001  -1.392492e+002 
4206250000  -3.698026e+001  -1.493214e+002 
4209375000  -3.678658e+001  -1.717320e+002 
4212500000  -3.945131e+001  -1.784092e+002 
4215625000  -3.964249e+001  -1.708448e+002 
4218750000  -3.770922e+001  -1.696684e+002 
4221875000  -3.620792e+001  1.791951e+002 
4225000000  -3.729713e+001  1.657594e+002 
4228125000  -3.768458e+001  1.687422e+002 
4231250000  -3.590484e+001  1.621187e+002 
4234375000  -3.581915e+001  1.498935e+002 
4237500000  -3.565743e+001  1.444259e+002 
4240625000  -3.587810e+001  1.323974e+002 
4243750000  -3.689656e+001  1.254580e+002 
4246875000  -3.793163e+001  1.251193e+002 
4250000000  -3.771747e+001  1.252474e+002 
4253125000  -3.754993e+001  1.217771e+002 
4256250000  -3.730300e+001  1.158824e+002 
4259375000  -3.723454e+001  1.113403e+002 
4262500000  -3.709291e+001  1.055028e+002 
4265625000  -3.747398e+001  1.043454e+002 
4268750000  -3.652303e+001  9.658168e+001 
4271875000  -3.622769e+001  8.808813e+001 
4275000000  -3.595870e+001  7.935334e+001 
4278125000  -3.681790e+001  6.634141e+001 
4281250000  -3.874059e+001  6.535580e+001 
4284375000  -3.793241e+001  6.458671e+001 
4287500000  -3.956274e+001  5.956446e+001 
4290625000  -4.026594e+001  6.949773e+001 
4293750000  -3.811327e+001  7.002432e+001 
4296875000  -3.745987e+001  5.494954e+001 
4300000000  -3.857087e+001  4.562406e+001 
4303125000  -3.914149e+001  4.927142e+001 
4306250000  -3.814353e+001  5.220402e+001 
4309375000  -3.702827e+001  4.553356e+001 
4312500000  -3.713899e+001  3.514244e+001 
4315625000  -3.750368e+001  2.701222e+001 
4318750000  -3.796315e+001  2.240027e+001 
4321875000  -3.800830e+001  2.230886e+001 
4325000000  -3.728849e+001  2.061755e+001 
4328125000  -3.680089e+001  1.220125e+001 
4331250000  -3.701805e+001  7.788430e-001 
4334375000  -3.764545e+001  -4.881422e+000 
4337500000  -3.869266e+001  -7.436388e+000 
4340625000  -3.896329e+001  -1.535064e+000 
4343750000  -3.795277e+001  -4.558568e+000 
4346875000  -3.804971e+001  -1.335904e+001 
4350000000  -3.767209e+001  -2.113126e+001 
4353125000  -3.815648e+001  -3.027964e+001 
4356250000  -4.033636e+001  -2.687439e+001 
4359375000  -3.938447e+001  -1.179362e+001 
4362500000  -3.599889e+001  -2.060467e+001 
4365625000  -3.542199e+001  -3.713208e+001 
4368750000  -3.674148e+001  -4.599159e+001 
4371875000  -3.726911e+001  -4.736917e+001 
4375000000  -3.694627e+001  -5.061569e+001 
4378125000  -3.640112e+001  -5.799428e+001 
4381250000  -3.661137e+001  -6.521807e+001 
4384375000  -3.670258e+001  -7.308119e+001 
4387500000  -3.753814e+001  -8.109843e+001 
4390625000  -3.811773e+001  -8.100116e+001 
4393750000  -3.738920e+001  -7.996722e+001 
4396875000  -3.671209e+001  -8.465685e+001 
4400000000  -3.620666e+001  -9.410259e+001 
4403125000  -3.717593e+001  -1.046333e+002 
4406250000  -3.767172e+001  -1.065387e+002 
4409375000  -3.790102e+001  -1.128494e+002 
4412500000  -3.913224e+001  -1.137987e+002 
4415625000  -3.907005e+001  -1.111327e+002 
