!Agilent Technologies,E8363B,MY43030201,A.06.04.32
!Agilent E8363B: A.06.04.32
!Date: Tuesday, November 11, 2014 21:32:08
!Correction: S21(Response(S21)) 
!S1P File: Measurement: S21:
# Hz S  dB   R 50
3000000000  -4.053463e+001  7.843431e+001 
3003125000  -4.209577e+001  7.070497e+001 
3006250000  -4.215466e+001  6.877414e+001 
3009375000  -4.261362e+001  7.448344e+001 
3012500000  -4.158710e+001  6.991798e+001 
3015625000  -4.137151e+001  6.343429e+001 
3018750000  -4.177345e+001  6.310796e+001 
3021875000  -4.027872e+001  6.390743e+001 
3025000000  -3.887107e+001  6.034207e+001 
3028125000  -3.798265e+001  4.986567e+001 
3031250000  -3.696584e+001  3.869795e+001 
3034375000  -3.669323e+001  2.449996e+001 
3037500000  -3.758166e+001  1.290168e+001 
3040625000  -3.880515e+001  8.279549e+000 
3043750000  -3.925209e+001  1.340359e+000 
3046875000  -3.979469e+001  -4.316098e+000 
3050000000  -4.114402e+001  -7.545718e+000 
3053125000  -4.068000e+001  -4.524809e+000 
3056250000  -4.038264e+001  -8.781553e-001 
3059375000  -3.991972e+001  -2.662825e+000 
3062500000  -3.819114e+001  -8.310727e+000 
3065625000  -3.792725e+001  -1.797765e+001 
3068750000  -3.746246e+001  -2.556563e+001 
3071875000  -3.782887e+001  -2.790932e+001 
3075000000  -3.693995e+001  -3.391715e+001 
3078125000  -3.704900e+001  -4.117417e+001 
3081250000  -3.728657e+001  -4.628534e+001 
3084375000  -3.638855e+001  -5.113399e+001 
3087500000  -3.630261e+001  -5.840294e+001 
3090625000  -3.587115e+001  -7.063721e+001 
3093750000  -3.692983e+001  -7.878725e+001 
3096875000  -3.735281e+001  -8.311305e+001 
3100000000  -3.723731e+001  -8.687155e+001 
3103125000  -3.740051e+001  -8.999902e+001 
3106250000  -3.712490e+001  -9.459610e+001 
3109375000  -3.746344e+001  -9.965641e+001 
3112500000  -3.710256e+001  -1.057196e+002 
3115625000  -3.703120e+001  -1.093685e+002 
3118750000  -3.720933e+001  -1.121682e+002 
3121875000  -3.652411e+001  -1.231681e+002 
3125000000  -3.840651e+001  -1.270356e+002 
3128125000  -3.849882e+001  -1.189148e+002 
3131250000  -3.607215e+001  -1.250617e+002 
3134375000  -3.539081e+001  -1.429252e+002 
3137500000  -3.602516e+001  -1.549083e+002 
3140625000  -3.730243e+001  -1.589297e+002 
3143750000  -3.813156e+001  -1.604922e+002 
3146875000  -3.754855e+001  -1.578694e+002 
3150000000  -3.682895e+001  -1.615220e+002 
3153125000  -3.725570e+001  -1.698289e+002 
3156250000  -3.798941e+001  -1.658005e+002 
3159375000  -3.561168e+001  -1.678911e+002 
3162500000  -3.420191e+001  1.765859e+002 
3165625000  -3.547947e+001  1.637193e+002 
3168750000  -3.546691e+001  1.625901e+002 
3171875000  -3.489689e+001  1.558289e+002 
3175000000  -3.531224e+001  1.465520e+002 
3178125000  -3.505578e+001  1.447643e+002 
3181250000  -3.445913e+001  1.359334e+002 
3184375000  -3.420493e+001  1.249489e+002 
3187500000  -3.539103e+001  1.107838e+002 
3190625000  -3.738741e+001  1.038067e+002 
3193750000  -3.746055e+001  1.100164e+002 
3196875000  -3.743678e+001  1.111963e+002 
3200000000  -3.621339e+001  1.051958e+002 
3203125000  -3.594414e+001  9.714515e+001 
3206250000  -3.624911e+001  8.954501e+001 
3209375000  -3.585954e+001  8.222264e+001 
3212500000  -3.624040e+001  7.552074e+001 
3215625000  -3.599513e+001  7.212066e+001 
3218750000  -3.676288e+001  5.968146e+001 
3221875000  -3.733467e+001  5.438196e+001 
3225000000  -3.700009e+001  5.125101e+001 
3228125000  -3.768811e+001  4.366611e+001 
3231250000  -3.832710e+001  4.057180e+001 
3234375000  -3.783334e+001  3.763049e+001 
3237500000  -3.793206e+001  3.330788e+001 
3240625000  -3.753213e+001  2.939408e+001 
3243750000  -3.764478e+001  1.890885e+001 
3246875000  -3.818605e+001  1.159472e+001 
3250000000  -3.883000e+001  6.531429e+000 
3253125000  -3.897126e+001  3.975568e+000 
3256250000  -3.867641e+001  -4.558620e+000 
3259375000  -3.903091e+001  -1.500316e+001 
3262500000  -4.067616e+001  -1.989446e+001 
3265625000  -4.102950e+001  -1.626999e+001 
3268750000  -4.116125e+001  -1.344533e+001 
3271875000  -4.060488e+001  -1.780046e+001 
3275000000  -4.014692e+001  -2.750186e+001 
3278125000  -4.082455e+001  -3.065966e+001 
3281250000  -4.104633e+001  -3.239245e+001 
3284375000  -4.055843e+001  -3.833445e+001 
3287500000  -4.096265e+001  -4.403540e+001 
3290625000  -4.128178e+001  -5.157995e+001 
3293750000  -4.121813e+001  -5.657596e+001 
3296875000  -4.247998e+001  -5.734322e+001 
3300000000  -4.175193e+001  -5.730255e+001 
3303125000  -4.091028e+001  -6.355042e+001 
3306250000  -4.085169e+001  -7.042001e+001 
3309375000  -4.039968e+001  -7.818625e+001 
3312500000  -4.104480e+001  -9.101257e+001 
3315625000  -4.222910e+001  -9.821917e+001 
3318750000  -4.367257e+001  -1.022455e+002 
3321875000  -4.505332e+001  -9.976714e+001 
3325000000  -4.485160e+001  -9.177611e+001 
3328125000  -4.397958e+001  -9.118327e+001 
3331250000  -4.215806e+001  -8.847958e+001 
3334375000  -3.980667e+001  -1.041591e+002 
3337500000  -4.040950e+001  -1.246818e+002 
3340625000  -4.219862e+001  -1.351807e+002 
3343750000  -4.440565e+001  -1.335291e+002 
3346875000  -4.358589e+001  -1.352741e+002 
3350000000  -4.300875e+001  -1.380577e+002 
3353125000  -4.258799e+001  -1.444707e+002 
3356250000  -4.251705e+001  -1.525875e+002 
3359375000  -4.333818e+001  -1.653054e+002 
3362500000  -4.448567e+001  -1.704890e+002 
3365625000  -4.457755e+001  -1.736573e+002 
3368750000  -4.542665e+001  -1.773742e+002 
3371875000  -4.584783e+001  1.783779e+002 
3375000000  -4.722296e+001  1.754141e+002 
3378125000  -4.809175e+001  1.734837e+002 
3381250000  -4.932060e+001  -1.712223e+002 
3384375000  -4.722897e+001  -1.613109e+002 
3387500000  -4.339508e+001  1.777514e+002 
3390625000  -4.569750e+001  1.562121e+002 
3393750000  -4.708069e+001  1.587375e+002 
3396875000  -4.613273e+001  1.548373e+002 
3400000000  -4.616272e+001  1.445018e+002 
3403125000  -4.678171e+001  1.403154e+002 
3406250000  -4.751858e+001  1.377489e+002 
3409375000  -4.782416e+001  1.313565e+002 
3412500000  -4.939245e+001  1.226021e+002 
3415625000  -5.001057e+001  1.228803e+002 
3418750000  -5.001270e+001  1.265124e+002 
3421875000  -5.037747e+001  1.291925e+002 
3425000000  -4.987786e+001  1.237898e+002 
3428125000  -5.040011e+001  1.204123e+002 
3431250000  -4.941380e+001  1.099696e+002 
3434375000  -5.020552e+001  1.029363e+002 
3437500000  -5.165551e+001  1.073738e+002 
3440625000  -5.187043e+001  1.070915e+002 
3443750000  -5.100580e+001  1.116261e+002 
3446875000  -5.064929e+001  1.097786e+002 
3450000000  -5.067682e+001  9.776883e+001 
3453125000  -5.149007e+001  8.723572e+001 
3456250000  -5.154755e+001  8.804787e+001 
3459375000  -5.227536e+001  9.542007e+001 
3462500000  -5.236371e+001  9.621185e+001 
3465625000  -5.193394e+001  8.397830e+001 
3468750000  -5.195237e+001  8.415577e+001 
3471875000  -5.191569e+001  8.522911e+001 
3475000000  -5.104269e+001  8.207437e+001 
3478125000  -5.125559e+001  7.166942e+001 
3481250000  -5.204004e+001  7.172056e+001 
3484375000  -5.320802e+001  8.009094e+001 
3487500000  -5.169197e+001  6.706696e+001 
3490625000  -5.086754e+001  5.450973e+001 
3493750000  -5.059678e+001  5.401693e+001 
3496875000  -5.159610e+001  5.528156e+001 
3500000000  -5.307427e+001  4.876987e+001 
3503125000  -5.085483e+001  5.555395e+001 
3506250000  -5.055502e+001  4.295804e+001 
3509375000  -4.899832e+001  3.189540e+001 
3512500000  -5.016103e+001  2.187809e+001 
3515625000  -5.144896e+001  1.548250e+001 
3518750000  -5.269031e+001  2.023255e+001 
3521875000  -5.226484e+001  8.977553e+000 
3525000000  -5.334463e+001  3.712457e+000 
3528125000  -5.212143e+001  1.189594e+001 
3531250000  -5.193520e+001  8.617602e+000 
3534375000  -5.280342e+001  -1.052659e+001 
3537500000  -5.376308e+001  -1.734924e+001 
3540625000  -5.452485e+001  -1.818002e+001 
3543750000  -5.675376e+001  -1.556271e+001 
3546875000  -5.617122e+001  -5.074675e+000 
3550000000  -5.448431e+001  -2.639854e+000 
3553125000  -5.478845e+001  -2.531332e+001 
3556250000  -5.495628e+001  -2.845746e+001 
3559375000  -5.647370e+001  -3.367482e+001 
3562500000  -5.775322e+001  -4.267934e+001 
3565625000  -5.795943e+001  -4.170926e+001 
3568750000  -5.673800e+001  -2.889730e+001 
3571875000  -5.758119e+001  -2.586313e+001 
3575000000  -5.805886e+001  -3.326562e+001 
3578125000  -5.896070e+001  -4.132372e+001 
3581250000  -5.909718e+001  -2.274096e+001 
3584375000  -5.654669e+001  -1.248549e+001 
3587500000  -5.675737e+001  -3.486964e+001 
3590625000  -5.833444e+001  -5.622884e+001 
3593750000  -5.967074e+001  -4.382359e+001 
3596875000  -5.817182e+001  -3.142120e+001 
3600000000  -5.940361e+001  -3.574279e+001 
3603125000  -5.876488e+001  -5.394415e+001 
3606250000  -5.696133e+001  -4.748938e+001 
3609375000  -5.801612e+001  -3.694418e+001 
3612500000  -5.861968e+001  -5.036456e+001 
3615625000  -5.950379e+001  -4.455273e+001 
3618750000  -5.914442e+001  -4.741660e+001 
3621875000  -5.776680e+001  -3.703843e+001 
3625000000  -5.661869e+001  -4.176364e+001 
3628125000  -5.669890e+001  -2.945764e+001 
3631250000  -5.708892e+001  -4.050341e+001 
3634375000  -5.726478e+001  -3.293186e+001 
3637500000  -5.607336e+001  -3.629612e+001 
3640625000  -5.379364e+001  -3.448433e+001 
3643750000  -5.318526e+001  -4.297094e+001 
3646875000  -5.277272e+001  -5.192357e+001 
3650000000  -5.211147e+001  -5.311485e+001 
3653125000  -5.285231e+001  -5.579003e+001 
3656250000  -5.191448e+001  -5.846979e+001 
3659375000  -5.160163e+001  -5.772189e+001 
3662500000  -5.075570e+001  -6.505820e+001 
3665625000  -4.938703e+001  -6.557365e+001 
3668750000  -4.787359e+001  -6.656126e+001 
3671875000  -4.726158e+001  -8.071433e+001 
3675000000  -4.733381e+001  -8.738920e+001 
3678125000  -4.759729e+001  -9.011281e+001 
3681250000  -4.661554e+001  -9.778828e+001 
3684375000  -4.633958e+001  -9.942802e+001 
3687500000  -4.672203e+001  -1.077823e+002 
3690625000  -4.678036e+001  -1.112777e+002 
3693750000  -4.688291e+001  -1.131453e+002 
3696875000  -4.657997e+001  -1.125079e+002 
3700000000  -4.518271e+001  -1.199373e+002 
3703125000  -4.510062e+001  -1.261881e+002 
3706250000  -4.633395e+001  -1.271218e+002 
3709375000  -4.497157e+001  -1.273851e+002 
3712500000  -4.345119e+001  -1.301888e+002 
3715625000  -4.196114e+001  -1.424732e+002 
3718750000  -4.211766e+001  -1.477471e+002 
3721875000  -4.124662e+001  -1.558943e+002 
3725000000  -4.150428e+001  -1.633455e+002 
3728125000  -4.151988e+001  -1.673224e+002 
3731250000  -4.062321e+001  -1.744351e+002 
3734375000  -4.010697e+001  -1.791969e+002 
3737500000  -4.086082e+001  1.700875e+002 
3740625000  -4.073984e+001  1.640301e+002 
3743750000  -4.054737e+001  1.590137e+002 
3746875000  -4.079683e+001  1.508932e+002 
3750000000  -4.095508e+001  1.466003e+002 
3753125000  -4.042392e+001  1.441000e+002 
3756250000  -4.079393e+001  1.398149e+002 
3759375000  -4.043787e+001  1.359916e+002 
3762500000  -4.004956e+001  1.274731e+002 
3765625000  -4.065992e+001  1.228335e+002 
3768750000  -4.035185e+001  1.249874e+002 
3771875000  -3.840103e+001  1.167442e+002 
3775000000  -3.877588e+001  1.058319e+002 
3778125000  -3.892712e+001  9.953808e+001 
3781250000  -3.899077e+001  9.495489e+001 
3784375000  -3.896152e+001  8.903754e+001 
3787500000  -3.849229e+001  8.420387e+001 
3790625000  -3.919845e+001  7.284173e+001 
3793750000  -3.906387e+001  7.091405e+001 
3796875000  -3.818232e+001  6.569086e+001 
3800000000  -3.634394e+001  6.176262e+001 
3803125000  -3.813765e+001  4.891478e+001 
3806250000  -3.885143e+001  4.360061e+001 
3809375000  -3.845528e+001  4.089915e+001 
3812500000  -3.846046e+001  3.126189e+001 
3815625000  -3.944722e+001  2.086183e+001 
3818750000  -4.085553e+001  2.239597e+001 
3821875000  -3.997390e+001  3.157932e+001 
3825000000  -3.824294e+001  2.899403e+001 
3828125000  -3.701077e+001  9.385275e+000 
3831250000  -3.811195e+001  -4.086290e+000 
3834375000  -4.051704e+001  -5.327597e+000 
3837500000  -4.055708e+001  -1.041416e+000 
3840625000  -3.922050e+001  -3.965091e+000 
3843750000  -3.842494e+001  -2.022792e+001 
3846875000  -3.999258e+001  -2.500949e+001 
3850000000  -4.105255e+001  -1.885727e+001 
3853125000  -4.006528e+001  -1.865942e+001 
3856250000  -3.935027e+001  -2.873835e+001 
3859375000  -3.877412e+001  -3.450837e+001 
3862500000  -3.850079e+001  -4.414756e+001 
3865625000  -3.930161e+001  -4.877778e+001 
3868750000  -3.871480e+001  -4.961149e+001 
3871875000  -3.800503e+001  -5.863709e+001 
3875000000  -3.852314e+001  -6.761646e+001 
3878125000  -3.943190e+001  -7.031953e+001 
3881250000  -3.930379e+001  -6.904702e+001 
3884375000  -3.884864e+001  -7.735802e+001 
3887500000  -3.931696e+001  -8.354293e+001 
3890625000  -3.966815e+001  -8.750431e+001 
3893750000  -3.990565e+001  -9.014584e+001 
3896875000  -3.993866e+001  -9.225909e+001 
3900000000  -3.996183e+001  -9.589226e+001 
3903125000  -3.933441e+001  -1.034913e+002 
3906250000  -3.896398e+001  -1.044652e+002 
3909375000  -3.825280e+001  -1.127775e+002 
3912500000  -3.915522e+001  -1.226732e+002 
3915625000  -4.058517e+001  -1.215099e+002 
3918750000  -4.016598e+001  -1.232910e+002 
3921875000  -3.932140e+001  -1.275273e+002 
3925000000  -3.860895e+001  -1.332699e+002 
3928125000  -3.843249e+001  -1.425814e+002 
3931250000  -3.896550e+001  -1.505344e+002 
3934375000  -3.948302e+001  -1.503202e+002 
3937500000  -3.993626e+001  -1.537003e+002 
3940625000  -3.999451e+001  -1.551997e+002 
3943750000  -3.882506e+001  -1.578918e+002 
3946875000  -3.856274e+001  -1.683667e+002 
3950000000  -3.948678e+001  -1.773781e+002 
3953125000  -4.025545e+001  -1.745030e+002 
3956250000  -3.874959e+001  -1.765010e+002 
3959375000  -3.790372e+001  1.766938e+002 
3962500000  -3.761963e+001  1.688224e+002 
3965625000  -3.782222e+001  1.592321e+002 
3968750000  -3.887790e+001  1.523726e+002 
3971875000  -3.871174e+001  1.464926e+002 
3975000000  -3.856520e+001  1.443088e+002 
3978125000  -3.850397e+001  1.379860e+002 
3981250000  -3.874539e+001  1.335262e+002 
3984375000  -3.909341e+001  1.233471e+002 
3987500000  -3.986956e+001  1.204435e+002 
3990625000  -4.005421e+001  1.210560e+002 
3993750000  -3.977923e+001  1.135749e+002 
3996875000  -4.002876e+001  1.096878e+002 
4000000000  -4.118546e+001  1.054910e+002 
4003125000  -4.106664e+001  1.090083e+002 
4006250000  -3.912780e+001  1.041609e+002 
4009375000  -3.870837e+001  9.097961e+001 
4012500000  -4.009875e+001  8.338934e+001 
4015625000  -4.159856e+001  8.326861e+001 
4018750000  -4.137277e+001  8.200137e+001 
4021875000  -4.062885e+001  7.966090e+001 
4025000000  -4.042514e+001  7.407537e+001 
4028125000  -4.048275e+001  6.743697e+001 
4031250000  -4.128357e+001  6.197690e+001 
4034375000  -4.169124e+001  6.149497e+001 
4037500000  -4.124202e+001  6.420596e+001 
4040625000  -4.085734e+001  5.680400e+001 
4043750000  -4.121813e+001  5.335314e+001 
4046875000  -4.071104e+001  5.201159e+001 
4050000000  -4.047692e+001  4.493868e+001 
4053125000  -4.161782e+001  4.442215e+001 
4056250000  -4.147181e+001  4.677028e+001 
4059375000  -3.930400e+001  4.425636e+001 
4062500000  -3.888830e+001  3.847577e+001 
4065625000  -3.906918e+001  3.225755e+001 
4068750000  -3.824026e+001  2.490683e+001 
4071875000  -3.790335e+001  1.442626e+001 
4075000000  -3.859317e+001  7.049085e+000 
4078125000  -3.884732e+001  4.375483e+000 
4081250000  -3.818998e+001  -1.717280e+000 
4084375000  -3.812040e+001  -9.604134e+000 
4087500000  -3.886745e+001  -1.709333e+001 
4090625000  -3.914688e+001  -1.715608e+001 
4093750000  -3.876308e+001  -2.220007e+001 
4096875000  -3.865652e+001  -3.244428e+001 
4100000000  -3.969861e+001  -3.868184e+001 
4103125000  -4.052003e+001  -3.575492e+001 
4106250000  -4.001945e+001  -3.285289e+001 
4109375000  -3.918126e+001  -3.716340e+001 
4112500000  -3.868706e+001  -4.595610e+001 
4115625000  -3.929321e+001  -5.202396e+001 
4118750000  -3.923067e+001  -5.759044e+001 
4121875000  -3.880569e+001  -6.474875e+001 
4125000000  -4.004064e+001  -7.048147e+001 
4128125000  -4.087913e+001  -6.866516e+001 
4131250000  -3.974848e+001  -6.364495e+001 
4134375000  -3.784101e+001  -7.428789e+001 
4137500000  -3.823336e+001  -9.356329e+001 
4140625000  -4.056433e+001  -9.974367e+001 
4143750000  -4.134106e+001  -9.443874e+001 
4146875000  -4.064981e+001  -9.305513e+001 
4150000000  -3.972222e+001  -9.910002e+001 
4153125000  -3.998275e+001  -1.083404e+002 
4156250000  -4.100952e+001  -1.112083e+002 
4159375000  -4.115120e+001  -1.052821e+002 
4162500000  -4.005815e+001  -1.020338e+002 
4165625000  -3.866615e+001  -1.104209e+002 
4168750000  -3.838494e+001  -1.210778e+002 
4171875000  -3.836551e+001  -1.315553e+002 
4175000000  -3.937584e+001  -1.364470e+002 
4178125000  -3.963103e+001  -1.370124e+002 
4181250000  -3.951573e+001  -1.426788e+002 
4184375000  -3.943528e+001  -1.464348e+002 
4187500000  -3.946678e+001  -1.506763e+002 
4190625000  -3.942995e+001  -1.591113e+002 
4193750000  -4.058874e+001  -1.651496e+002 
4196875000  -4.128899e+001  -1.670377e+002 
4200000000  -4.251397e+001  -1.595604e+002 
4203125000  -4.088030e+001  -1.465227e+002 
4206250000  -3.758938e+001  -1.566326e+002 
4209375000  -3.731874e+001  1.794003e+002 
4212500000  -3.978711e+001  1.749563e+002 
4215625000  -4.015760e+001  -1.796152e+002 
4218750000  -3.828595e+001  -1.782357e+002 
4221875000  -3.669622e+001  1.714037e+002 
4225000000  -3.798954e+001  1.593565e+002 
4228125000  -3.803949e+001  1.620119e+002 
4231250000  -3.622740e+001  1.529847e+002 
4234375000  -3.663253e+001  1.433169e+002 
4237500000  -3.616776e+001  1.386570e+002 
4240625000  -3.649673e+001  1.269731e+002 
4243750000  -3.747366e+001  1.187421e+002 
4246875000  -3.856499e+001  1.173395e+002 
4250000000  -3.840507e+001  1.180120e+002 
4253125000  -3.814338e+001  1.144686e+002 
4256250000  -3.804347e+001  1.093334e+002 
4259375000  -3.775422e+001  1.031367e+002 
4262500000  -3.783580e+001  9.867412e+001 
4265625000  -3.823861e+001  9.705093e+001 
4268750000  -3.708738e+001  8.947198e+001 
4271875000  -3.701809e+001  8.022271e+001 
4275000000  -3.644884e+001  7.217166e+001 
4278125000  -3.766008e+001  6.149868e+001 
4281250000  -3.902974e+001  5.850278e+001 
4284375000  -3.876428e+001  5.653331e+001 
4287500000  -4.034633e+001  5.320244e+001 
4290625000  -4.049712e+001  6.182423e+001 
4293750000  -3.851370e+001  6.337002e+001 
4296875000  -3.764816e+001  4.880025e+001 
4300000000  -3.898848e+001  3.908523e+001 
4303125000  -3.986113e+001  4.250523e+001 
4306250000  -3.852390e+001  4.351789e+001 
4309375000  -3.770667e+001  3.791141e+001 
4312500000  -3.789039e+001  2.662008e+001 
4315625000  -3.782427e+001  1.949038e+001 
4318750000  -3.867611e+001  1.678652e+001 
4321875000  -3.891058e+001  1.585948e+001 
4325000000  -3.813820e+001  1.612289e+001 
4328125000  -3.743840e+001  6.296079e+000 
4331250000  -3.743490e+001  -5.207783e+000 
4334375000  -3.828246e+001  -1.215201e+001 
4337500000  -3.962637e+001  -1.175712e+001 
4340625000  -3.975014e+001  -8.048348e+000 
4343750000  -3.872071e+001  -1.048280e+001 
4346875000  -3.844968e+001  -2.004220e+001 
4350000000  -3.837688e+001  -2.732949e+001 
4353125000  -3.918883e+001  -3.461731e+001 
4356250000  -4.129978e+001  -3.030561e+001 
4359375000  -3.995840e+001  -1.686498e+001 
4362500000  -3.652895e+001  -2.374063e+001 
4365625000  -3.593758e+001  -4.242196e+001 
4368750000  -3.721547e+001  -5.252737e+001 
4371875000  -3.787092e+001  -5.171149e+001 
4375000000  -3.743446e+001  -5.626566e+001 
4378125000  -3.691599e+001  -6.358643e+001 
4381250000  -3.718280e+001  -7.259203e+001 
4384375000  -3.715086e+001  -7.837895e+001 
4387500000  -3.849184e+001  -8.371775e+001 
4390625000  -3.834075e+001  -8.652763e+001 
4393750000  -3.798373e+001  -8.554472e+001 
4396875000  -3.745795e+001  -9.041914e+001 
4400000000  -3.690171e+001  -1.008891e+002 
4403125000  -3.792652e+001  -1.089399e+002 
4406250000  -3.819945e+001  -1.126407e+002 
4409375000  -3.901891e+001  -1.156398e+002 
4412500000  -4.007896e+001  -1.193628e+002 
4415625000  -3.947190e+001  -1.144316e+002 
