!Agilent Technologies,E8363B,MY43030201,A.06.04.32
!Agilent E8363B: A.06.04.32
!Date: Tuesday, November 11, 2014 21:29:00
!Correction: S21(Response(S21)) 
!S1P File: Measurement: S21:
# Hz S  dB   R 50
3000000000  -4.061132e+001  8.719704e+001 
3003125000  -4.199671e+001  8.112408e+001 
3006250000  -4.196060e+001  7.997285e+001 
3009375000  -4.274272e+001  8.364509e+001 
3012500000  -4.156981e+001  7.977016e+001 
3015625000  -4.136571e+001  7.146324e+001 
3018750000  -4.178908e+001  7.294961e+001 
3021875000  -4.036079e+001  7.464037e+001 
3025000000  -3.892852e+001  6.977020e+001 
3028125000  -3.806441e+001  5.970889e+001 
3031250000  -3.699591e+001  4.802908e+001 
3034375000  -3.685822e+001  3.397008e+001 
3037500000  -3.745376e+001  2.379737e+001 
3040625000  -3.865387e+001  1.851743e+001 
3043750000  -3.904296e+001  1.194320e+001 
3046875000  -3.978801e+001  5.634557e+000 
3050000000  -4.090856e+001  5.971552e-001 
3053125000  -4.047559e+001  5.526041e+000 
3056250000  -4.040179e+001  8.158577e+000 
3059375000  -3.964186e+001  5.710933e+000 
3062500000  -3.828087e+001  1.083399e+000 
3065625000  -3.803422e+001  -7.926643e+000 
3068750000  -3.758625e+001  -1.574871e+001 
3071875000  -3.753426e+001  -1.863973e+001 
3075000000  -3.709162e+001  -2.489413e+001 
3078125000  -3.698304e+001  -3.133537e+001 
3081250000  -3.725544e+001  -3.646304e+001 
3084375000  -3.640498e+001  -4.178040e+001 
3087500000  -3.645036e+001  -4.756197e+001 
3090625000  -3.600527e+001  -6.013403e+001 
3093750000  -3.685030e+001  -6.847343e+001 
3096875000  -3.730939e+001  -7.456833e+001 
3100000000  -3.716496e+001  -7.662898e+001 
3103125000  -3.742964e+001  -8.014038e+001 
3106250000  -3.701194e+001  -8.503646e+001 
3109375000  -3.732344e+001  -8.918438e+001 
3112500000  -3.720540e+001  -9.528308e+001 
3115625000  -3.708361e+001  -9.978513e+001 
3118750000  -3.724948e+001  -1.020717e+002 
3121875000  -3.652009e+001  -1.133977e+002 
3125000000  -3.831371e+001  -1.173986e+002 
3128125000  -3.858259e+001  -1.107726e+002 
3131250000  -3.623139e+001  -1.149990e+002 
3134375000  -3.542324e+001  -1.325677e+002 
3137500000  -3.599110e+001  -1.455076e+002 
3140625000  -3.726736e+001  -1.478470e+002 
3143750000  -3.813092e+001  -1.492651e+002 
3146875000  -3.765075e+001  -1.482074e+002 
3150000000  -3.691436e+001  -1.519331e+002 
3153125000  -3.712219e+001  -1.604702e+002 
3156250000  -3.803599e+001  -1.564303e+002 
3159375000  -3.576440e+001  -1.577292e+002 
3162500000  -3.435302e+001  -1.734054e+002 
3165625000  -3.547142e+001  1.740335e+002 
3168750000  -3.552445e+001  1.730144e+002 
3171875000  -3.489903e+001  1.659945e+002 
3175000000  -3.545705e+001  1.558731e+002 
3178125000  -3.509378e+001  1.557932e+002 
3181250000  -3.445990e+001  1.472222e+002 
3184375000  -3.413719e+001  1.344794e+002 
3187500000  -3.541371e+001  1.205590e+002 
3190625000  -3.737710e+001  1.145762e+002 
3193750000  -3.767314e+001  1.195517e+002 
3196875000  -3.746609e+001  1.209585e+002 
3200000000  -3.645735e+001  1.151962e+002 
3203125000  -3.586694e+001  1.075271e+002 
3206250000  -3.615085e+001  9.983070e+001 
3209375000  -3.581545e+001  9.211852e+001 
3212500000  -3.640538e+001  8.485112e+001 
3215625000  -3.586523e+001  8.157944e+001 
3218750000  -3.692209e+001  7.177001e+001 
3221875000  -3.739898e+001  6.452264e+001 
3225000000  -3.710559e+001  6.124206e+001 
3228125000  -3.787338e+001  5.424906e+001 
3231250000  -3.824583e+001  5.143935e+001 
3234375000  -3.797111e+001  4.784282e+001 
3237500000  -3.819372e+001  4.442947e+001 
3240625000  -3.775483e+001  3.928307e+001 
3243750000  -3.768951e+001  2.955234e+001 
3246875000  -3.819887e+001  2.051246e+001 
3250000000  -3.874941e+001  1.740576e+001 
3253125000  -3.903496e+001  1.482943e+001 
3256250000  -3.864114e+001  6.404528e+000 
3259375000  -3.919088e+001  -4.208314e+000 
3262500000  -4.057899e+001  -7.626290e+000 
3265625000  -4.104637e+001  -5.394623e+000 
3268750000  -4.121410e+001  -2.855801e+000 
3271875000  -4.074959e+001  -7.805453e+000 
3275000000  -4.007188e+001  -1.558129e+001 
3278125000  -4.091287e+001  -2.069451e+001 
3281250000  -4.113340e+001  -2.208994e+001 
3284375000  -4.067479e+001  -2.969910e+001 
3287500000  -4.090443e+001  -3.333483e+001 
3290625000  -4.137078e+001  -4.144699e+001 
3293750000  -4.123354e+001  -4.615453e+001 
3296875000  -4.222966e+001  -4.760883e+001 
3300000000  -4.176928e+001  -4.718795e+001 
3303125000  -4.100616e+001  -5.384689e+001 
3306250000  -4.089751e+001  -6.140139e+001 
3309375000  -4.062707e+001  -6.819267e+001 
3312500000  -4.103548e+001  -8.109569e+001 
3315625000  -4.212604e+001  -8.761774e+001 
3318750000  -4.357067e+001  -9.130867e+001 
3321875000  -4.439259e+001  -8.646675e+001 
3325000000  -4.462270e+001  -8.245712e+001 
3328125000  -4.364042e+001  -7.927105e+001 
3331250000  -4.248459e+001  -8.009476e+001 
3334375000  -3.981141e+001  -9.293949e+001 
3337500000  -4.053262e+001  -1.144876e+002 
3340625000  -4.222651e+001  -1.228635e+002 
3343750000  -4.434590e+001  -1.218041e+002 
3346875000  -4.374852e+001  -1.253038e+002 
3350000000  -4.310094e+001  -1.274708e+002 
3353125000  -4.309880e+001  -1.338934e+002 
3356250000  -4.283636e+001  -1.424396e+002 
3359375000  -4.359382e+001  -1.535369e+002 
3362500000  -4.455320e+001  -1.592300e+002 
3365625000  -4.499615e+001  -1.613461e+002 
3368750000  -4.582209e+001  -1.642665e+002 
3371875000  -4.598445e+001  -1.720934e+002 
3375000000  -4.691672e+001  -1.749544e+002 
3378125000  -4.804798e+001  -1.771968e+002 
3381250000  -4.962658e+001  -1.678127e+002 
3384375000  -4.709459e+001  -1.522011e+002 
3387500000  -4.412749e+001  -1.740153e+002 
3390625000  -4.623837e+001  1.710263e+002 
3393750000  -4.738131e+001  1.685936e+002 
3396875000  -4.602869e+001  1.657995e+002 
3400000000  -4.723513e+001  1.563902e+002 
3403125000  -4.672655e+001  1.516829e+002 
3406250000  -4.755077e+001  1.476498e+002 
3409375000  -4.776964e+001  1.406567e+002 
3412500000  -4.917451e+001  1.349794e+002 
3415625000  -5.020772e+001  1.347200e+002 
3418750000  -5.050646e+001  1.340352e+002 
3421875000  -5.107466e+001  1.330684e+002 
3425000000  -5.070030e+001  1.393065e+002 
3428125000  -5.009230e+001  1.320759e+002 
3431250000  -4.986754e+001  1.235856e+002 
3434375000  -5.037484e+001  1.212719e+002 
3437500000  -5.266505e+001  1.175909e+002 
3440625000  -5.223656e+001  1.195847e+002 
3443750000  -5.078559e+001  1.211868e+002 
3446875000  -5.087630e+001  1.146312e+002 
3450000000  -5.063846e+001  1.088693e+002 
3453125000  -5.075355e+001  1.039400e+002 
3456250000  -5.141404e+001  9.684752e+001 
3459375000  -5.334002e+001  1.019812e+002 
3462500000  -5.215501e+001  1.006887e+002 
3465625000  -5.235663e+001  9.365815e+001 
3468750000  -5.210802e+001  9.628835e+001 
3471875000  -5.302697e+001  9.259752e+001 
3475000000  -5.097271e+001  8.938756e+001 
3478125000  -5.132339e+001  7.879646e+001 
3481250000  -5.306098e+001  7.949533e+001 
3484375000  -5.278623e+001  8.580038e+001 
3487500000  -5.214518e+001  7.981619e+001 
3490625000  -5.151688e+001  7.193058e+001 
3493750000  -5.118187e+001  6.976929e+001 
3496875000  -5.090339e+001  6.747347e+001 
3500000000  -5.312684e+001  6.814746e+001 
3503125000  -5.124359e+001  6.116231e+001 
3506250000  -5.062114e+001  5.753514e+001 
3509375000  -4.982798e+001  4.447393e+001 
3512500000  -5.009601e+001  2.988098e+001 
3515625000  -5.147080e+001  2.639265e+001 
3518750000  -5.284376e+001  2.742701e+001 
3521875000  -5.213385e+001  2.488947e+001 
3525000000  -5.394941e+001  1.583413e+001 
3528125000  -5.203420e+001  1.490615e+001 
3531250000  -5.216318e+001  1.629658e+001 
3534375000  -5.346004e+001  6.574350e+000 
3537500000  -5.428107e+001  -1.364231e+001 
3540625000  -5.543563e+001  -2.868952e+000 
3543750000  -5.616500e+001  -4.643002e+000 
3546875000  -5.601503e+001  7.166869e+000 
3550000000  -5.440146e+001  4.271227e+000 
3553125000  -5.474176e+001  -1.110975e+001 
3556250000  -5.614113e+001  -1.536152e+001 
3559375000  -5.630511e+001  -1.122748e+001 
3562500000  -5.659574e+001  -2.346454e+001 
3565625000  -5.654932e+001  -3.061656e+001 
3568750000  -5.822003e+001  -2.081789e+001 
3571875000  -5.862630e+001  -2.665061e+001 
3575000000  -5.861625e+001  -2.391761e+001 
3578125000  -6.085275e+001  -3.072392e+001 
3581250000  -5.845833e+001  -3.048601e+001 
3584375000  -5.727073e+001  -2.060626e+001 
3587500000  -5.738149e+001  -2.368970e+001 
3590625000  -5.806826e+001  -3.908081e+001 
3593750000  -5.805927e+001  -2.618181e+001 
3596875000  -6.096782e+001  -1.329722e+001 
3600000000  -5.661685e+001  -1.617280e+001 
3603125000  -5.870933e+001  -2.572319e+001 
3606250000  -5.835153e+001  -3.001779e+001 
3609375000  -5.849870e+001  -2.802914e+001 
3612500000  -5.816759e+001  -2.733660e+001 
3615625000  -5.907401e+001  -3.156345e+001 
3618750000  -5.728728e+001  -3.098234e+001 
3621875000  -5.704351e+001  -1.949016e+001 
3625000000  -5.827974e+001  -2.989959e+001 
3628125000  -5.681563e+001  -2.300574e+001 
3631250000  -5.611819e+001  -3.472413e+001 
3634375000  -5.629507e+001  -3.025421e+001 
3637500000  -5.513562e+001  -2.202805e+001 
3640625000  -5.476859e+001  -1.964210e+001 
3643750000  -5.211046e+001  -2.902035e+001 
3646875000  -5.219537e+001  -3.631934e+001 
3650000000  -5.263622e+001  -4.248576e+001 
3653125000  -5.175863e+001  -4.524278e+001 
3656250000  -5.250001e+001  -4.594865e+001 
3659375000  -5.186789e+001  -4.353482e+001 
3662500000  -5.040387e+001  -5.040773e+001 
3665625000  -5.030702e+001  -5.832809e+001 
3668750000  -4.850159e+001  -5.825944e+001 
3671875000  -4.730997e+001  -6.285019e+001 
3675000000  -4.722587e+001  -7.648468e+001 
3678125000  -4.713591e+001  -8.092152e+001 
3681250000  -4.641212e+001  -8.416594e+001 
3684375000  -4.683197e+001  -8.698119e+001 
3687500000  -4.690694e+001  -9.536684e+001 
3690625000  -4.674846e+001  -1.003581e+002 
3693750000  -4.748671e+001  -1.023335e+002 
3696875000  -4.656655e+001  -1.021968e+002 
3700000000  -4.527155e+001  -1.069972e+002 
3703125000  -4.519877e+001  -1.143164e+002 
3706250000  -4.643258e+001  -1.114406e+002 
3709375000  -4.474192e+001  -1.150328e+002 
3712500000  -4.365173e+001  -1.191804e+002 
3715625000  -4.211452e+001  -1.297694e+002 
3718750000  -4.202982e+001  -1.346875e+002 
3721875000  -4.137797e+001  -1.436984e+002 
3725000000  -4.170701e+001  -1.510685e+002 
3728125000  -4.141740e+001  -1.566484e+002 
3731250000  -4.057397e+001  -1.603617e+002 
3734375000  -3.999905e+001  -1.672758e+002 
3737500000  -4.083690e+001  -1.768909e+002 
3740625000  -4.096283e+001  1.763858e+002 
3743750000  -4.043603e+001  1.691083e+002 
3746875000  -4.082321e+001  1.646729e+002 
3750000000  -4.105883e+001  1.592341e+002 
3753125000  -4.090068e+001  1.564597e+002 
3756250000  -4.063363e+001  1.515244e+002 
3759375000  -4.043375e+001  1.473524e+002 
3762500000  -4.004628e+001  1.407846e+002 
3765625000  -4.077111e+001  1.362895e+002 
3768750000  -4.035883e+001  1.360322e+002 
3771875000  -3.848155e+001  1.285760e+002 
3775000000  -3.833664e+001  1.180705e+002 
3778125000  -3.885592e+001  1.121339e+002 
3781250000  -3.898031e+001  1.069175e+002 
3784375000  -3.885741e+001  1.007115e+002 
3787500000  -3.859830e+001  9.641378e+001 
3790625000  -3.938131e+001  8.598994e+001 
3793750000  -3.917944e+001  8.320717e+001 
3796875000  -3.848230e+001  7.709488e+001 
3800000000  -3.637959e+001  7.379438e+001 
3803125000  -3.819062e+001  5.909380e+001 
3806250000  -3.884078e+001  5.804350e+001 
3809375000  -3.874825e+001  5.328222e+001 
3812500000  -3.845044e+001  4.388482e+001 
3815625000  -3.955266e+001  3.422009e+001 
3818750000  -4.061457e+001  3.439661e+001 
3821875000  -4.023495e+001  4.295488e+001 
3825000000  -3.834581e+001  3.928174e+001 
3828125000  -3.701419e+001  2.234261e+001 
3831250000  -3.835189e+001  6.992077e+000 
3834375000  -4.025727e+001  8.322756e+000 
3837500000  -4.098333e+001  1.210110e+001 
3840625000  -3.918494e+001  8.514653e+000 
3843750000  -3.848031e+001  -6.410726e+000 
3846875000  -3.995947e+001  -1.428929e+001 
3850000000  -4.097137e+001  -6.911610e+000 
3853125000  -4.002897e+001  -6.941252e+000 
3856250000  -3.966445e+001  -1.428775e+001 
3859375000  -3.880129e+001  -2.142804e+001 
3862500000  -3.865133e+001  -3.222783e+001 
3865625000  -3.910120e+001  -3.731937e+001 
3868750000  -3.874709e+001  -3.859674e+001 
3871875000  -3.819510e+001  -4.420089e+001 
3875000000  -3.847342e+001  -5.462641e+001 
3878125000  -3.974786e+001  -5.876879e+001 
3881250000  -3.919606e+001  -5.850987e+001 
3884375000  -3.914959e+001  -6.459496e+001 
3887500000  -3.910902e+001  -7.118295e+001 
3890625000  -3.961875e+001  -7.580875e+001 
3893750000  -3.970095e+001  -7.854339e+001 
3896875000  -4.016252e+001  -7.978984e+001 
3900000000  -3.992714e+001  -8.291131e+001 
3903125000  -3.942277e+001  -8.889954e+001 
3906250000  -3.893157e+001  -9.411665e+001 
3909375000  -3.831294e+001  -1.010351e+002 
3912500000  -3.894690e+001  -1.100133e+002 
3915625000  -4.037354e+001  -1.093884e+002 
3918750000  -3.994234e+001  -1.119704e+002 
3921875000  -3.950397e+001  -1.162973e+002 
3925000000  -3.860305e+001  -1.207645e+002 
3928125000  -3.837801e+001  -1.310476e+002 
3931250000  -3.892600e+001  -1.379390e+002 
3934375000  -3.967802e+001  -1.387794e+002 
3937500000  -3.994591e+001  -1.413748e+002 
3940625000  -3.999014e+001  -1.429110e+002 
3943750000  -3.924726e+001  -1.464824e+002 
3946875000  -3.847790e+001  -1.534578e+002 
3950000000  -3.943911e+001  -1.627293e+002 
3953125000  -4.016512e+001  -1.622504e+002 
3956250000  -3.892739e+001  -1.632726e+002 
3959375000  -3.792005e+001  -1.686905e+002 
3962500000  -3.780035e+001  -1.784601e+002 
3965625000  -3.799281e+001  1.727703e+002 
3968750000  -3.875714e+001  1.638403e+002 
3971875000  -3.873890e+001  1.597383e+002 
3975000000  -3.840912e+001  1.548640e+002 
3978125000  -3.864898e+001  1.508866e+002 
3981250000  -3.845702e+001  1.439473e+002 
3984375000  -3.910104e+001  1.380245e+002 
3987500000  -3.991707e+001  1.339242e+002 
3990625000  -3.984426e+001  1.327309e+002 
3993750000  -4.021400e+001  1.268264e+002 
3996875000  -4.014161e+001  1.235718e+002 
4000000000  -4.029748e+001  1.184954e+002 
4003125000  -4.143958e+001  1.186872e+002 
4006250000  -3.936173e+001  1.177213e+002 
4009375000  -3.888491e+001  1.039978e+002 
4012500000  -4.013264e+001  9.420308e+001 
4015625000  -4.159494e+001  9.478640e+001 
4018750000  -4.163733e+001  9.633887e+001 
4021875000  -4.092410e+001  9.272360e+001 
4025000000  -4.056079e+001  8.766504e+001 
4028125000  -4.057923e+001  7.820297e+001 
4031250000  -4.129115e+001  7.554772e+001 
4034375000  -4.161520e+001  7.453036e+001 
4037500000  -4.143827e+001  7.629780e+001 
4040625000  -4.105156e+001  7.084615e+001 
4043750000  -4.131154e+001  6.688313e+001 
4046875000  -4.065818e+001  6.460942e+001 
4050000000  -4.093040e+001  5.877576e+001 
4053125000  -4.128281e+001  5.716437e+001 
4056250000  -4.147788e+001  6.087614e+001 
4059375000  -3.966690e+001  5.759900e+001 
4062500000  -3.896737e+001  4.948978e+001 
4065625000  -3.890078e+001  4.481691e+001 
4068750000  -3.848519e+001  3.767932e+001 
4071875000  -3.795660e+001  2.835759e+001 
4075000000  -3.825994e+001  2.130706e+001 
4078125000  -3.892134e+001  1.753747e+001 
4081250000  -3.828775e+001  1.233141e+001 
4084375000  -3.808435e+001  2.604969e+000 
4087500000  -3.878432e+001  -4.500434e+000 
4090625000  -3.931997e+001  -5.362912e+000 
4093750000  -3.884959e+001  -8.839372e+000 
4096875000  -3.900690e+001  -1.900823e+001 
4100000000  -3.954230e+001  -2.593154e+001 
4103125000  -4.065381e+001  -2.430630e+001 
4106250000  -4.029051e+001  -2.089145e+001 
4109375000  -3.928413e+001  -2.222672e+001 
4112500000  -3.883567e+001  -3.198241e+001 
4115625000  -3.931393e+001  -4.164050e+001 
4118750000  -3.926867e+001  -4.399195e+001 
4121875000  -3.901532e+001  -5.200008e+001 
4125000000  -3.995662e+001  -5.808414e+001 
4128125000  -4.101506e+001  -5.744367e+001 
4131250000  -4.003334e+001  -5.026198e+001 
4134375000  -3.782241e+001  -6.127467e+001 
4137500000  -3.812257e+001  -8.164043e+001 
4140625000  -4.013534e+001  -8.695178e+001 
4143750000  -4.148783e+001  -8.200905e+001 
4146875000  -4.091476e+001  -7.606013e+001 
4150000000  -3.959518e+001  -8.613279e+001 
4153125000  -3.991598e+001  -9.380976e+001 
4156250000  -4.155542e+001  -9.884061e+001 
4159375000  -4.121842e+001  -9.186553e+001 
4162500000  -4.022229e+001  -8.767090e+001 
4165625000  -3.889500e+001  -9.827264e+001 
4168750000  -3.860701e+001  -1.080269e+002 
4171875000  -3.856608e+001  -1.178298e+002 
4175000000  -3.919641e+001  -1.229417e+002 
4178125000  -3.956594e+001  -1.251886e+002 
4181250000  -3.944855e+001  -1.276757e+002 
4184375000  -3.951288e+001  -1.333315e+002 
4187500000  -3.984805e+001  -1.382642e+002 
4190625000  -3.940799e+001  -1.457476e+002 
4193750000  -4.056638e+001  -1.506465e+002 
4196875000  -4.161187e+001  -1.519338e+002 
4200000000  -4.265294e+001  -1.463363e+002 
4203125000  -4.138771e+001  -1.327213e+002 
4206250000  -3.773717e+001  -1.413981e+002 
4209375000  -3.738278e+001  -1.657328e+002 
4212500000  -3.944110e+001  -1.735387e+002 
4215625000  -4.034471e+001  -1.663666e+002 
4218750000  -3.849222e+001  -1.640706e+002 
4221875000  -3.681862e+001  -1.753344e+002 
4225000000  -3.811108e+001  1.729991e+002 
4228125000  -3.809053e+001  1.743014e+002 
4231250000  -3.647773e+001  1.660214e+002 
4234375000  -3.638624e+001  1.571247e+002 
4237500000  -3.621465e+001  1.501718e+002 
4240625000  -3.646789e+001  1.413550e+002 
4243750000  -3.751093e+001  1.326201e+002 
4246875000  -3.874951e+001  1.312779e+002 
4250000000  -3.852007e+001  1.302610e+002 
4253125000  -3.836248e+001  1.276664e+002 
4256250000  -3.824287e+001  1.231140e+002 
4259375000  -3.799220e+001  1.179672e+002 
4262500000  -3.780985e+001  1.129278e+002 
4265625000  -3.799403e+001  1.117074e+002 
4268750000  -3.701084e+001  1.040161e+002 
4271875000  -3.689188e+001  9.452378e+001 
4275000000  -3.673481e+001  8.487482e+001 
4278125000  -3.746040e+001  7.378239e+001 
4281250000  -3.939943e+001  7.283913e+001 
4284375000  -3.886330e+001  6.970600e+001 
4287500000  -4.039855e+001  6.850102e+001 
4290625000  -4.070436e+001  7.460132e+001 
4293750000  -3.892328e+001  7.534695e+001 
4296875000  -3.770642e+001  6.487099e+001 
4300000000  -3.937539e+001  5.324643e+001 
4303125000  -3.988339e+001  5.638354e+001 
4306250000  -3.900064e+001  6.058607e+001 
4309375000  -3.773609e+001  5.319624e+001 
4312500000  -3.807200e+001  4.144149e+001 
4315625000  -3.788230e+001  3.462316e+001 
4318750000  -3.879391e+001  2.967496e+001 
4321875000  -3.869979e+001  3.118899e+001 
4325000000  -3.804023e+001  2.940663e+001 
4328125000  -3.729823e+001  1.994038e+001 
4331250000  -3.755309e+001  8.882746e+000 
4334375000  -3.836572e+001  2.655403e+000 
4337500000  -3.948594e+001  1.568945e+000 
4340625000  -3.983306e+001  5.729208e+000 
4343750000  -3.877375e+001  2.771006e+000 
4346875000  -3.835127e+001  -5.060648e+000 
4350000000  -3.850911e+001  -1.233216e+001 
4353125000  -3.892610e+001  -2.005642e+001 
4356250000  -4.063393e+001  -1.592564e+001 
4359375000  -4.025448e+001  -9.235657e-001 
4362500000  -3.710444e+001  -1.174283e+001 
4365625000  -3.629854e+001  -2.875009e+001 
4368750000  -3.710812e+001  -3.760855e+001 
4371875000  -3.812044e+001  -3.841605e+001 
4375000000  -3.770912e+001  -4.160572e+001 
4378125000  -3.715136e+001  -4.959957e+001 
4381250000  -3.733078e+001  -5.758416e+001 
4384375000  -3.717424e+001  -6.606038e+001 
4387500000  -3.824189e+001  -6.993940e+001 
4390625000  -3.870879e+001  -7.242345e+001 
4393750000  -3.819213e+001  -7.130843e+001 
4396875000  -3.752837e+001  -7.656480e+001 
4400000000  -3.692030e+001  -8.526380e+001 
4403125000  -3.793456e+001  -9.370463e+001 
4406250000  -3.834709e+001  -9.833553e+001 
4409375000  -3.864647e+001  -1.027087e+002 
4412500000  -4.019697e+001  -1.043093e+002 
4415625000  -3.964803e+001  -1.009703e+002 
