!Agilent Technologies,E8363B,MY43030201,A.06.04.32
!Agilent E8363B: A.06.04.32
!Date: Tuesday, November 11, 2014 21:27:34
!Correction: S21(Response(S21)) 
!S1P File: Measurement: S21:
# Hz S  dB   R 50
3000000000  -4.072021e+001  9.280643e+001 
3003125000  -4.197857e+001  8.482297e+001 
3006250000  -4.205811e+001  8.321573e+001 
3009375000  -4.279782e+001  8.853087e+001 
3012500000  -4.164903e+001  8.354193e+001 
3015625000  -4.133805e+001  7.691953e+001 
3018750000  -4.179557e+001  7.642368e+001 
3021875000  -4.041653e+001  7.698649e+001 
3025000000  -3.904298e+001  7.396808e+001 
3028125000  -3.815396e+001  6.460572e+001 
3031250000  -3.704428e+001  5.276412e+001 
3034375000  -3.687566e+001  3.840118e+001 
3037500000  -3.749635e+001  2.708056e+001 
3040625000  -3.881046e+001  2.176604e+001 
3043750000  -3.923000e+001  1.682650e+001 
3046875000  -3.968303e+001  1.045760e+001 
3050000000  -4.116000e+001  5.325056e+000 
3053125000  -4.073117e+001  9.267591e+000 
3056250000  -4.037263e+001  1.288792e+001 
3059375000  -3.997335e+001  1.113222e+001 
3062500000  -3.829809e+001  5.716866e+000 
3065625000  -3.806120e+001  -2.823448e+000 
3068750000  -3.752747e+001  -1.090655e+001 
3071875000  -3.767894e+001  -1.322753e+001 
3075000000  -3.718359e+001  -2.041493e+001 
3078125000  -3.707012e+001  -2.620205e+001 
3081250000  -3.731816e+001  -3.169500e+001 
3084375000  -3.646960e+001  -3.729726e+001 
3087500000  -3.653120e+001  -4.295557e+001 
3090625000  -3.601984e+001  -5.540593e+001 
3093750000  -3.676916e+001  -6.379293e+001 
3096875000  -3.740262e+001  -6.961362e+001 
3100000000  -3.728836e+001  -7.230230e+001 
3103125000  -3.761160e+001  -7.579308e+001 
3106250000  -3.716608e+001  -8.058858e+001 
3109375000  -3.739352e+001  -8.479006e+001 
3112500000  -3.735115e+001  -8.992853e+001 
3115625000  -3.718040e+001  -9.529775e+001 
3118750000  -3.727588e+001  -9.771452e+001 
3121875000  -3.658197e+001  -1.087960e+002 
3125000000  -3.828213e+001  -1.121443e+002 
3128125000  -3.860184e+001  -1.044852e+002 
3131250000  -3.617640e+001  -1.108488e+002 
3134375000  -3.530972e+001  -1.278447e+002 
3137500000  -3.605032e+001  -1.415701e+002 
3140625000  -3.739247e+001  -1.434184e+002 
3143750000  -3.826043e+001  -1.453888e+002 
3146875000  -3.781432e+001  -1.436691e+002 
3150000000  -3.683395e+001  -1.469589e+002 
3153125000  -3.718024e+001  -1.556873e+002 
3156250000  -3.801513e+001  -1.520437e+002 
3159375000  -3.591206e+001  -1.527705e+002 
3162500000  -3.436139e+001  -1.685287e+002 
3165625000  -3.535627e+001  1.793453e+002 
3168750000  -3.555228e+001  1.770200e+002 
3171875000  -3.488231e+001  1.703604e+002 
3175000000  -3.554193e+001  1.605929e+002 
3178125000  -3.513988e+001  1.598865e+002 
3181250000  -3.441861e+001  1.516780e+002 
3184375000  -3.412179e+001  1.398218e+002 
3187500000  -3.544122e+001  1.241769e+002 
3190625000  -3.732294e+001  1.179854e+002 
3193750000  -3.763767e+001  1.239221e+002 
3196875000  -3.740876e+001  1.251186e+002 
3200000000  -3.648187e+001  1.205470e+002 
3203125000  -3.592719e+001  1.123442e+002 
3206250000  -3.626771e+001  1.049547e+002 
3209375000  -3.580120e+001  9.782378e+001 
3212500000  -3.631108e+001  9.003963e+001 
3215625000  -3.618354e+001  8.605344e+001 
3218750000  -3.683044e+001  7.607603e+001 
3221875000  -3.741898e+001  6.884334e+001 
3225000000  -3.719754e+001  6.632569e+001 
3228125000  -3.778450e+001  5.926970e+001 
3231250000  -3.842143e+001  5.641508e+001 
3234375000  -3.796605e+001  5.326149e+001 
3237500000  -3.826366e+001  4.961593e+001 
3240625000  -3.754477e+001  4.444460e+001 
3243750000  -3.763635e+001  3.452211e+001 
3246875000  -3.819403e+001  2.541719e+001 
3250000000  -3.878626e+001  2.369001e+001 
3253125000  -3.891989e+001  2.001769e+001 
3256250000  -3.853011e+001  1.100153e+001 
3259375000  -3.915071e+001  7.890834e-001 
3262500000  -4.052631e+001  -1.830591e+000 
3265625000  -4.127044e+001  1.916596e-002 
3268750000  -4.109624e+001  6.357445e-001 
3271875000  -4.065017e+001  -2.681729e+000 
3275000000  -4.020985e+001  -1.060703e+001 
3278125000  -4.080177e+001  -1.609968e+001 
3281250000  -4.110847e+001  -1.633495e+001 
3284375000  -4.066542e+001  -2.353491e+001 
3287500000  -4.096943e+001  -2.774603e+001 
3290625000  -4.133567e+001  -3.634560e+001 
3293750000  -4.120965e+001  -4.075894e+001 
3296875000  -4.235038e+001  -4.089679e+001 
3300000000  -4.196950e+001  -4.189984e+001 
3303125000  -4.086396e+001  -4.722103e+001 
3306250000  -4.088354e+001  -5.573519e+001 
3309375000  -4.067767e+001  -6.202720e+001 
3312500000  -4.085177e+001  -7.534315e+001 
3315625000  -4.198550e+001  -8.405254e+001 
3318750000  -4.349410e+001  -8.609963e+001 
3321875000  -4.497871e+001  -8.306957e+001 
3325000000  -4.493809e+001  -7.592578e+001 
3328125000  -4.422027e+001  -7.944395e+001 
3331250000  -4.262185e+001  -7.322987e+001 
3334375000  -3.999463e+001  -8.791246e+001 
3337500000  -4.030615e+001  -1.075835e+002 
3340625000  -4.213483e+001  -1.205049e+002 
3343750000  -4.399594e+001  -1.166020e+002 
3346875000  -4.372482e+001  -1.180430e+002 
3350000000  -4.297529e+001  -1.202473e+002 
3353125000  -4.308936e+001  -1.288432e+002 
3356250000  -4.262709e+001  -1.374919e+002 
3359375000  -4.312729e+001  -1.473332e+002 
3362500000  -4.447433e+001  -1.533049e+002 
3365625000  -4.446577e+001  -1.576080e+002 
3368750000  -4.561000e+001  -1.626805e+002 
3371875000  -4.576331e+001  -1.636251e+002 
3375000000  -4.727769e+001  -1.668835e+002 
3378125000  -4.809672e+001  -1.717914e+002 
3381250000  -4.972995e+001  -1.637240e+002 
3384375000  -4.636032e+001  -1.425627e+002 
3387500000  -4.420488e+001  -1.680152e+002 
3390625000  -4.584766e+001  1.745090e+002 
3393750000  -4.727012e+001  1.752167e+002 
3396875000  -4.573040e+001  1.737810e+002 
3400000000  -4.595771e+001  1.615452e+002 
3403125000  -4.655563e+001  1.581366e+002 
3406250000  -4.763886e+001  1.521157e+002 
3409375000  -4.763620e+001  1.465887e+002 
3412500000  -4.897363e+001  1.415750e+002 
3415625000  -5.005540e+001  1.425095e+002 
3418750000  -4.997578e+001  1.380122e+002 
3421875000  -5.140763e+001  1.388588e+002 
3425000000  -5.007558e+001  1.445400e+002 
3428125000  -4.981646e+001  1.407908e+002 
3431250000  -4.995859e+001  1.292279e+002 
3434375000  -5.056355e+001  1.234199e+002 
3437500000  -5.161835e+001  1.209712e+002 
3440625000  -5.174313e+001  1.238994e+002 
3443750000  -5.108182e+001  1.291912e+002 
3446875000  -5.085283e+001  1.276186e+002 
3450000000  -4.974215e+001  1.125288e+002 
3453125000  -5.087881e+001  1.081934e+002 
3456250000  -5.155787e+001  1.025243e+002 
3459375000  -5.295591e+001  1.101346e+002 
3462500000  -5.232762e+001  1.184465e+002 
3465625000  -5.074843e+001  1.032835e+002 
3468750000  -5.194962e+001  9.872603e+001 
3471875000  -5.190971e+001  9.964822e+001 
3475000000  -5.023082e+001  9.297708e+001 
3478125000  -5.126005e+001  8.901822e+001 
3481250000  -5.259765e+001  8.611549e+001 
3484375000  -5.238781e+001  8.501636e+001 
3487500000  -5.137580e+001  8.460292e+001 
3490625000  -5.085839e+001  8.123313e+001 
3493750000  -5.069372e+001  6.748742e+001 
3496875000  -5.116928e+001  7.224807e+001 
3500000000  -5.209492e+001  7.395868e+001 
3503125000  -5.087860e+001  6.855672e+001 
3506250000  -5.056510e+001  5.782276e+001 
3509375000  -4.926049e+001  5.204842e+001 
3512500000  -4.951421e+001  3.726895e+001 
3515625000  -5.117360e+001  3.500962e+001 
3518750000  -5.200034e+001  3.239084e+001 
3521875000  -5.155258e+001  2.674161e+001 
3525000000  -5.294059e+001  2.245496e+001 
3528125000  -5.234121e+001  3.076871e+001 
3531250000  -5.065045e+001  1.941765e+001 
3534375000  -5.202897e+001  8.519851e+000 
3537500000  -5.332357e+001  -4.982089e-002 
3540625000  -5.460390e+001  -2.448736e+000 
3543750000  -5.553936e+001  3.595093e+000 
3546875000  -5.561410e+001  7.633420e+000 
3550000000  -5.312265e+001  7.673204e+000 
3553125000  -5.340345e+001  -6.775587e+000 
3556250000  -5.459328e+001  -1.278065e+001 
3559375000  -5.474757e+001  -1.741988e+001 
3562500000  -5.552014e+001  -2.299392e+001 
3565625000  -5.617265e+001  -3.298352e+001 
3568750000  -5.613205e+001  -1.564733e+001 
3571875000  -5.835257e+001  -2.140052e+001 
3575000000  -5.895621e+001  -1.965883e+001 
3578125000  -5.735718e+001  -3.061436e+001 
3581250000  -5.731599e+001  -2.194401e+001 
3584375000  -5.667124e+001  -1.564807e+001 
3587500000  -5.703062e+001  -2.292796e+001 
3590625000  -5.711178e+001  -3.626504e+001 
3593750000  -5.820840e+001  -3.095486e+001 
3596875000  -5.826670e+001  -1.114335e+001 
3600000000  -5.578504e+001  -1.726260e+001 
3603125000  -5.856928e+001  -2.443803e+001 
3606250000  -5.831511e+001  -4.452650e+001 
3609375000  -5.771791e+001  -2.799515e+001 
3612500000  -5.807420e+001  -1.993708e+001 
3615625000  -6.051946e+001  -2.758637e+001 
3618750000  -5.737684e+001  -3.174021e+001 
3621875000  -5.802214e+001  -3.039748e+001 
3625000000  -5.846571e+001  -1.553177e+001 
3628125000  -5.572087e+001  -2.081139e+001 
3631250000  -5.572982e+001  -2.805477e+001 
3634375000  -5.799221e+001  -2.407404e+001 
3637500000  -5.617431e+001  -1.982706e+001 
3640625000  -5.380967e+001  -1.357472e+001 
3643750000  -5.205730e+001  -2.741237e+001 
3646875000  -5.332405e+001  -3.512167e+001 
3650000000  -5.368438e+001  -3.272836e+001 
3653125000  -5.246220e+001  -4.002749e+001 
3656250000  -5.206660e+001  -4.300769e+001 
3659375000  -5.246937e+001  -4.149874e+001 
3662500000  -5.110490e+001  -4.817556e+001 
3665625000  -5.019692e+001  -5.693102e+001 
3668750000  -4.885905e+001  -5.271590e+001 
3671875000  -4.789604e+001  -6.318179e+001 
3675000000  -4.735332e+001  -6.633131e+001 
3678125000  -4.821228e+001  -7.858540e+001 
3681250000  -4.724094e+001  -8.064231e+001 
3684375000  -4.729881e+001  -8.396626e+001 
3687500000  -4.706961e+001  -8.943896e+001 
3690625000  -4.676796e+001  -9.545382e+001 
3693750000  -4.739146e+001  -9.569055e+001 
3696875000  -4.653445e+001  -9.582494e+001 
3700000000  -4.558985e+001  -1.026492e+002 
3703125000  -4.579907e+001  -1.058007e+002 
3706250000  -4.649343e+001  -1.093870e+002 
3709375000  -4.558674e+001  -1.102599e+002 
3712500000  -4.362835e+001  -1.143650e+002 
3715625000  -4.235834e+001  -1.230422e+002 
3718750000  -4.221880e+001  -1.306693e+002 
3721875000  -4.161097e+001  -1.403826e+002 
3725000000  -4.191687e+001  -1.464575e+002 
3728125000  -4.166013e+001  -1.488673e+002 
3731250000  -4.096381e+001  -1.553368e+002 
3734375000  -4.019766e+001  -1.626955e+002 
3737500000  -4.097939e+001  -1.733310e+002 
3740625000  -4.091441e+001  -1.790138e+002 
3743750000  -4.044228e+001  1.764924e+002 
3746875000  -4.087501e+001  1.689497e+002 
3750000000  -4.094927e+001  1.633258e+002 
3753125000  -4.069358e+001  1.615189e+002 
3756250000  -4.086746e+001  1.594673e+002 
3759375000  -4.028688e+001  1.516156e+002 
3762500000  -3.999126e+001  1.447013e+002 
3765625000  -4.066912e+001  1.413129e+002 
3768750000  -4.019548e+001  1.404341e+002 
3771875000  -3.835972e+001  1.327183e+002 
3775000000  -3.833824e+001  1.237440e+002 
3778125000  -3.901394e+001  1.171329e+002 
3781250000  -3.886252e+001  1.124155e+002 
3784375000  -3.894218e+001  1.067756e+002 
3787500000  -3.844126e+001  9.892319e+001 
3790625000  -3.914946e+001  9.205634e+001 
3793750000  -3.918874e+001  8.755264e+001 
3796875000  -3.831348e+001  8.351893e+001 
3800000000  -3.652959e+001  7.922141e+001 
3803125000  -3.834059e+001  6.549516e+001 
3806250000  -3.892348e+001  6.090287e+001 
3809375000  -3.863272e+001  5.795909e+001 
3812500000  -3.840242e+001  4.679309e+001 
3815625000  -3.977279e+001  3.906130e+001 
3818750000  -4.070554e+001  3.845390e+001 
3821875000  -4.021539e+001  4.785774e+001 
3825000000  -3.834404e+001  4.439463e+001 
3828125000  -3.722582e+001  2.848910e+001 
3831250000  -3.805776e+001  1.360329e+001 
3834375000  -4.066993e+001  1.306020e+001 
3837500000  -4.067208e+001  1.533838e+001 
3840625000  -3.918203e+001  1.244044e+001 
3843750000  -3.841651e+001  -8.572470e-001 
3846875000  -3.977593e+001  -9.262790e+000 
3850000000  -4.043241e+001  -3.620854e+000 
3853125000  -4.016245e+001  -1.131390e+000 
3856250000  -3.990580e+001  -1.080050e+001 
3859375000  -3.899538e+001  -1.520222e+001 
3862500000  -3.857530e+001  -2.679271e+001 
3865625000  -3.919244e+001  -3.229335e+001 
3868750000  -3.878796e+001  -3.267342e+001 
3871875000  -3.823154e+001  -3.786550e+001 
3875000000  -3.848583e+001  -4.931031e+001 
3878125000  -3.963028e+001  -5.215623e+001 
3881250000  -3.935458e+001  -5.159292e+001 
3884375000  -3.880853e+001  -5.900136e+001 
3887500000  -3.917701e+001  -6.534882e+001 
3890625000  -3.949174e+001  -6.927666e+001 
3893750000  -3.985558e+001  -7.214111e+001 
3896875000  -3.985000e+001  -7.489427e+001 
3900000000  -3.982685e+001  -7.753156e+001 
3903125000  -3.930746e+001  -8.188866e+001 
3906250000  -3.894334e+001  -8.600785e+001 
3909375000  -3.834359e+001  -9.631340e+001 
3912500000  -3.880389e+001  -1.033876e+002 
3915625000  -4.028536e+001  -1.045539e+002 
3918750000  -4.018060e+001  -1.059331e+002 
3921875000  -3.935958e+001  -1.108347e+002 
3925000000  -3.852126e+001  -1.141668e+002 
3928125000  -3.849582e+001  -1.248008e+002 
3931250000  -3.887882e+001  -1.326873e+002 
3934375000  -3.926885e+001  -1.332658e+002 
3937500000  -3.999637e+001  -1.342561e+002 
3940625000  -4.010170e+001  -1.366017e+002 
3943750000  -3.888450e+001  -1.398703e+002 
3946875000  -3.834058e+001  -1.491127e+002 
3950000000  -3.935936e+001  -1.564529e+002 
3953125000  -3.977928e+001  -1.565733e+002 
3956250000  -3.872343e+001  -1.585567e+002 
3959375000  -3.773371e+001  -1.631382e+002 
3962500000  -3.773334e+001  -1.714974e+002 
3965625000  -3.763071e+001  1.780851e+002 
3968750000  -3.862511e+001  1.702200e+002 
3971875000  -3.896508e+001  1.649167e+002 
3975000000  -3.845790e+001  1.617366e+002 
3978125000  -3.877232e+001  1.579016e+002 
3981250000  -3.865230e+001  1.531720e+002 
3984375000  -3.892620e+001  1.430117e+002 
3987500000  -3.973717e+001  1.400568e+002 
3990625000  -3.992868e+001  1.380824e+002 
3993750000  -4.013535e+001  1.337559e+002 
3996875000  -3.983752e+001  1.285422e+002 
4000000000  -4.055751e+001  1.227600e+002 
4003125000  -4.098130e+001  1.273925e+002 
4006250000  -3.946296e+001  1.252743e+002 
4009375000  -3.873280e+001  1.101373e+002 
4012500000  -4.029206e+001  1.009667e+002 
4015625000  -4.149300e+001  1.020464e+002 
4018750000  -4.146711e+001  1.012310e+002 
4021875000  -4.067163e+001  9.863752e+001 
4025000000  -4.049545e+001  9.204283e+001 
4028125000  -4.039140e+001  8.599838e+001 
4031250000  -4.104039e+001  8.337526e+001 
4034375000  -4.139989e+001  8.020644e+001 
4037500000  -4.112952e+001  8.337721e+001 
4040625000  -4.080075e+001  7.730447e+001 
4043750000  -4.088007e+001  7.506788e+001 
4046875000  -4.039193e+001  7.007909e+001 
4050000000  -4.061736e+001  6.735771e+001 
4053125000  -4.132278e+001  6.246388e+001 
4056250000  -4.140444e+001  6.535789e+001 
4059375000  -3.940274e+001  6.539024e+001 
4062500000  -3.884787e+001  5.661000e+001 
4065625000  -3.898594e+001  5.095842e+001 
4068750000  -3.806936e+001  4.577648e+001 
4071875000  -3.758067e+001  3.519616e+001 
4075000000  -3.814746e+001  2.739642e+001 
4078125000  -3.851567e+001  2.469978e+001 
4081250000  -3.801977e+001  2.034244e+001 
4084375000  -3.763555e+001  1.025716e+001 
4087500000  -3.821571e+001  9.229187e-001 
4090625000  -3.885823e+001  7.725071e-001 
4093750000  -3.845721e+001  -1.535349e+000 
4096875000  -3.834953e+001  -9.839499e+000 
4100000000  -3.923807e+001  -1.882724e+001 
4103125000  -4.014080e+001  -1.729187e+001 
4106250000  -3.997533e+001  -1.384166e+001 
4109375000  -3.884456e+001  -1.822562e+001 
4112500000  -3.834612e+001  -2.639137e+001 
4115625000  -3.882241e+001  -3.353500e+001 
4118750000  -3.884223e+001  -4.030888e+001 
4121875000  -3.864056e+001  -4.640659e+001 
4125000000  -3.944652e+001  -5.143570e+001 
4128125000  -4.037961e+001  -4.981841e+001 
4131250000  -3.948814e+001  -4.278530e+001 
4134375000  -3.746054e+001  -5.389066e+001 
4137500000  -3.776725e+001  -7.516999e+001 
4140625000  -4.011220e+001  -8.303521e+001 
4143750000  -4.074218e+001  -7.632105e+001 
4146875000  -4.021945e+001  -7.044179e+001 
4150000000  -3.939219e+001  -7.904026e+001 
4153125000  -3.989342e+001  -8.830147e+001 
4156250000  -4.075658e+001  -9.271385e+001 
4159375000  -4.105988e+001  -8.677010e+001 
4162500000  -3.960264e+001  -8.204909e+001 
4165625000  -3.850447e+001  -9.068365e+001 
4168750000  -3.818481e+001  -1.012849e+002 
4171875000  -3.793104e+001  -1.117021e+002 
4175000000  -3.905757e+001  -1.168903e+002 
4178125000  -3.931833e+001  -1.200365e+002 
4181250000  -3.928853e+001  -1.236392e+002 
4184375000  -3.921668e+001  -1.252329e+002 
4187500000  -3.921645e+001  -1.306028e+002 
4190625000  -3.921478e+001  -1.395484e+002 
4193750000  -4.012202e+001  -1.431395e+002 
4196875000  -4.081607e+001  -1.467781e+002 
4200000000  -4.205461e+001  -1.399097e+002 
4203125000  -4.082047e+001  -1.281566e+002 
4206250000  -3.726032e+001  -1.349293e+002 
4209375000  -3.696519e+001  -1.584426e+002 
4212500000  -3.915611e+001  -1.665167e+002 
4215625000  -3.977399e+001  -1.585772e+002 
4218750000  -3.785961e+001  -1.569211e+002 
4221875000  -3.605050e+001  -1.688422e+002 
4225000000  -3.715548e+001  1.783687e+002 
4228125000  -3.757599e+001  -1.786772e+002 
4231250000  -3.585050e+001  1.733857e+002 
4234375000  -3.608740e+001  1.620491e+002 
4237500000  -3.570255e+001  1.566839e+002 
4240625000  -3.572042e+001  1.459626e+002 
4243750000  -3.708889e+001  1.388563e+002 
4246875000  -3.802062e+001  1.383212e+002 
4250000000  -3.795124e+001  1.365827e+002 
4253125000  -3.737886e+001  1.349529e+002 
4256250000  -3.745948e+001  1.295901e+002 
4259375000  -3.731961e+001  1.239688e+002 
4262500000  -3.712479e+001  1.188938e+002 
4265625000  -3.749885e+001  1.181686e+002 
4268750000  -3.634751e+001  1.096319e+002 
4271875000  -3.625918e+001  9.997164e+001 
4275000000  -3.603909e+001  9.192184e+001 
4278125000  -3.686008e+001  7.829877e+001 
4281250000  -3.857331e+001  7.792796e+001 
4284375000  -3.843229e+001  7.429839e+001 
4287500000  -3.990042e+001  7.148830e+001 
4290625000  -4.039658e+001  7.957726e+001 
4293750000  -3.823273e+001  8.256596e+001 
4296875000  -3.710325e+001  6.806496e+001 
4300000000  -3.824247e+001  5.749213e+001 
4303125000  -3.918694e+001  6.143799e+001 
4306250000  -3.816305e+001  6.369776e+001 
4309375000  -3.711872e+001  5.700304e+001 
4312500000  -3.744881e+001  4.781396e+001 
4315625000  -3.750359e+001  3.908641e+001 
4318750000  -3.822681e+001  3.510063e+001 
4321875000  -3.798608e+001  3.629996e+001 
4325000000  -3.749452e+001  3.355262e+001 
4328125000  -3.703039e+001  2.407311e+001 
4331250000  -3.700650e+001  1.479296e+001 
4334375000  -3.786090e+001  7.063626e+000 
4337500000  -3.872689e+001  7.031426e+000 
4340625000  -3.935354e+001  8.874550e+000 
4343750000  -3.816642e+001  6.923758e+000 
4346875000  -3.766490e+001  -1.253888e+000 
4350000000  -3.775619e+001  -6.989501e+000 
4353125000  -3.828664e+001  -1.530444e+001 
4356250000  -4.034018e+001  -1.266897e+001 
4359375000  -3.966177e+001  6.454560e-001 
4362500000  -3.644971e+001  -8.018269e+000 
4365625000  -3.545377e+001  -2.329151e+001 
4368750000  -3.665013e+001  -3.425081e+001 
4371875000  -3.719888e+001  -3.426007e+001 
4375000000  -3.694106e+001  -3.801183e+001 
4378125000  -3.653862e+001  -4.487032e+001 
4381250000  -3.661009e+001  -5.259910e+001 
4384375000  -3.661436e+001  -5.981581e+001 
4387500000  -3.780528e+001  -6.768575e+001 
4390625000  -3.806002e+001  -6.693167e+001 
4393750000  -3.739146e+001  -6.624675e+001 
4396875000  -3.673435e+001  -7.136766e+001 
4400000000  -3.620472e+001  -7.981441e+001 
4403125000  -3.694830e+001  -9.171259e+001 
4406250000  -3.757021e+001  -9.402470e+001 
4409375000  -3.797050e+001  -9.619476e+001 
4412500000  -3.873626e+001  -1.025535e+002 
4415625000  -3.904777e+001  -9.847698e+001 
