!Agilent Technologies,E8363B,MY43030201,A.06.04.32
!Agilent E8363B: A.06.04.32
!Date: Tuesday, November 11, 2014 21:30:18
!Correction: S21(Response(S21)) 
!S1P File: Measurement: S21:
# Hz S  dB   R 50
3000000000  -4.062687e+001  8.393464e+001 
3003125000  -4.204091e+001  7.509433e+001 
3006250000  -4.233255e+001  7.413807e+001 
3009375000  -4.263958e+001  7.964352e+001 
3012500000  -4.142519e+001  7.536783e+001 
3015625000  -4.118690e+001  6.967570e+001 
3018750000  -4.178460e+001  6.823708e+001 
3021875000  -4.003210e+001  6.971408e+001 
3025000000  -3.885507e+001  6.721562e+001 
3028125000  -3.795710e+001  5.563644e+001 
3031250000  -3.697633e+001  4.422115e+001 
3034375000  -3.662869e+001  3.075089e+001 
3037500000  -3.752453e+001  1.849593e+001 
3040625000  -3.868738e+001  1.427909e+001 
3043750000  -3.915895e+001  8.188774e+000 
3046875000  -3.970972e+001  1.657451e+000 
3050000000  -4.110064e+001  -3.926721e+000 
3053125000  -4.071481e+001  2.700651e+000 
3056250000  -4.055830e+001  3.924318e+000 
3059375000  -3.978423e+001  2.298503e+000 
3062500000  -3.812317e+001  -1.637313e+000 
3065625000  -3.788951e+001  -1.124459e+001 
3068750000  -3.760954e+001  -2.080153e+001 
3071875000  -3.770912e+001  -2.210141e+001 
3075000000  -3.701997e+001  -2.929298e+001 
3078125000  -3.707087e+001  -3.487685e+001 
3081250000  -3.719200e+001  -4.079731e+001 
3084375000  -3.634925e+001  -4.553877e+001 
3087500000  -3.635782e+001  -5.222660e+001 
3090625000  -3.598329e+001  -6.455708e+001 
3093750000  -3.687043e+001  -7.253780e+001 
3096875000  -3.730285e+001  -7.748269e+001 
3100000000  -3.720248e+001  -8.031915e+001 
3103125000  -3.757299e+001  -8.443869e+001 
3106250000  -3.720402e+001  -8.935799e+001 
3109375000  -3.728094e+001  -9.324063e+001 
3112500000  -3.728386e+001  -9.974181e+001 
3115625000  -3.697197e+001  -1.027311e+002 
3118750000  -3.733991e+001  -1.058871e+002 
3121875000  -3.647300e+001  -1.177148e+002 
3125000000  -3.855983e+001  -1.209349e+002 
3128125000  -3.866560e+001  -1.138824e+002 
3131250000  -3.618214e+001  -1.193175e+002 
3134375000  -3.543653e+001  -1.368099e+002 
3137500000  -3.606616e+001  -1.486418e+002 
3140625000  -3.736097e+001  -1.512924e+002 
3143750000  -3.806490e+001  -1.542423e+002 
3146875000  -3.766784e+001  -1.524855e+002 
3150000000  -3.699779e+001  -1.555979e+002 
3153125000  -3.711257e+001  -1.650832e+002 
3156250000  -3.780373e+001  -1.596740e+002 
3159375000  -3.582336e+001  -1.616973e+002 
3162500000  -3.432152e+001  -1.775656e+002 
3165625000  -3.552889e+001  1.700230e+002 
3168750000  -3.543057e+001  1.686911e+002 
3171875000  -3.488394e+001  1.615091e+002 
3175000000  -3.546757e+001  1.518572e+002 
3178125000  -3.503832e+001  1.510915e+002 
3181250000  -3.443264e+001  1.421068e+002 
3184375000  -3.428810e+001  1.311403e+002 
3187500000  -3.546508e+001  1.161193e+002 
3190625000  -3.721126e+001  1.100376e+002 
3193750000  -3.757980e+001  1.151770e+002 
3196875000  -3.736411e+001  1.178227e+002 
3200000000  -3.627185e+001  1.113761e+002 
3203125000  -3.601571e+001  1.031360e+002 
3206250000  -3.616240e+001  9.583719e+001 
3209375000  -3.575836e+001  8.765540e+001 
3212500000  -3.618599e+001  8.076680e+001 
3215625000  -3.612446e+001  7.826085e+001 
3218750000  -3.676959e+001  6.764978e+001 
3221875000  -3.742772e+001  6.047110e+001 
3225000000  -3.717338e+001  5.705226e+001 
3228125000  -3.776319e+001  4.972010e+001 
3231250000  -3.831508e+001  4.755796e+001 
3234375000  -3.793037e+001  4.393260e+001 
3237500000  -3.802874e+001  3.986007e+001 
3240625000  -3.764046e+001  3.471530e+001 
3243750000  -3.774426e+001  2.489832e+001 
3246875000  -3.823083e+001  1.690504e+001 
3250000000  -3.876004e+001  1.331249e+001 
3253125000  -3.891541e+001  1.074656e+001 
3256250000  -3.860737e+001  1.325560e+000 
3259375000  -3.907271e+001  -8.390386e+000 
3262500000  -4.063728e+001  -1.232219e+001 
3265625000  -4.124346e+001  -7.939325e+000 
3268750000  -4.133315e+001  -9.343855e+000 
3271875000  -4.067981e+001  -1.264299e+001 
3275000000  -4.012903e+001  -2.101457e+001 
3278125000  -4.079573e+001  -2.489478e+001 
3281250000  -4.117256e+001  -2.657433e+001 
3284375000  -4.056933e+001  -3.271680e+001 
3287500000  -4.111834e+001  -3.655132e+001 
3290625000  -4.120486e+001  -4.513844e+001 
3293750000  -4.115599e+001  -5.114661e+001 
3296875000  -4.246552e+001  -5.159404e+001 
3300000000  -4.191628e+001  -5.218827e+001 
3303125000  -4.067422e+001  -5.837284e+001 
3306250000  -4.080443e+001  -6.538950e+001 
3309375000  -4.054427e+001  -7.190344e+001 
3312500000  -4.082323e+001  -8.585037e+001 
3315625000  -4.214366e+001  -9.166667e+001 
3318750000  -4.373281e+001  -9.399968e+001 
3321875000  -4.494761e+001  -9.286296e+001 
3325000000  -4.466400e+001  -8.278381e+001 
3328125000  -4.385546e+001  -8.565660e+001 
3331250000  -4.231773e+001  -8.307214e+001 
3334375000  -3.987857e+001  -9.837929e+001 
3337500000  -4.040737e+001  -1.194483e+002 
3340625000  -4.219442e+001  -1.284579e+002 
3343750000  -4.400711e+001  -1.274350e+002 
3346875000  -4.351820e+001  -1.277813e+002 
3350000000  -4.317952e+001  -1.296730e+002 
3353125000  -4.290139e+001  -1.381149e+002 
3356250000  -4.272847e+001  -1.449231e+002 
3359375000  -4.367705e+001  -1.582430e+002 
3362500000  -4.459297e+001  -1.639098e+002 
3365625000  -4.452088e+001  -1.653299e+002 
3368750000  -4.528529e+001  -1.714993e+002 
3371875000  -4.584001e+001  -1.755650e+002 
3375000000  -4.705960e+001  -1.798976e+002 
3378125000  -4.848886e+001  -1.797390e+002 
3381250000  -4.978612e+001  -1.664808e+002 
3384375000  -4.669576e+001  -1.554572e+002 
3387500000  -4.374796e+001  -1.756023e+002 
3390625000  -4.582384e+001  1.607306e+002 
3393750000  -4.668007e+001  1.623572e+002 
3396875000  -4.587925e+001  1.637945e+002 
3400000000  -4.630870e+001  1.492887e+002 
3403125000  -4.712422e+001  1.477605e+002 
3406250000  -4.794704e+001  1.427471e+002 
3409375000  -4.830783e+001  1.347965e+002 
3412500000  -4.920628e+001  1.309525e+002 
3415625000  -4.988604e+001  1.266876e+002 
3418750000  -4.998955e+001  1.252533e+002 
3421875000  -5.168106e+001  1.308946e+002 
3425000000  -5.034426e+001  1.299610e+002 
3428125000  -5.018795e+001  1.284763e+002 
3431250000  -4.987429e+001  1.152282e+002 
3434375000  -5.038849e+001  1.183039e+002 
3437500000  -5.257254e+001  1.163026e+002 
3440625000  -5.210484e+001  1.200062e+002 
3443750000  -5.031650e+001  1.146667e+002 
3446875000  -5.111601e+001  1.116407e+002 
3450000000  -5.019138e+001  1.034598e+002 
3453125000  -5.125001e+001  9.458482e+001 
3456250000  -5.198431e+001  9.110059e+001 
3459375000  -5.354422e+001  9.818021e+001 
3462500000  -5.256772e+001  9.866402e+001 
3465625000  -5.128405e+001  9.290968e+001 
3468750000  -5.235139e+001  9.062104e+001 
3471875000  -5.224436e+001  9.011585e+001 
3475000000  -5.157285e+001  7.995514e+001 
3478125000  -5.194692e+001  7.393999e+001 
3481250000  -5.219275e+001  7.598863e+001 
3484375000  -5.269699e+001  7.323315e+001 
3487500000  -5.174341e+001  7.159702e+001 
3490625000  -5.069004e+001  6.914428e+001 
3493750000  -5.205348e+001  6.376839e+001 
3496875000  -5.102538e+001  6.038085e+001 
3500000000  -5.201571e+001  6.023598e+001 
3503125000  -5.153670e+001  5.586117e+001 
3506250000  -4.966279e+001  4.922889e+001 
3509375000  -4.919180e+001  3.943077e+001 
3512500000  -5.012506e+001  2.458178e+001 
3515625000  -5.147226e+001  2.413608e+001 
3518750000  -5.241361e+001  1.948203e+001 
3521875000  -5.252265e+001  1.930707e+001 
3525000000  -5.390638e+001  1.290155e+001 
3528125000  -5.257353e+001  1.682146e+001 
3531250000  -5.196712e+001  9.919555e+000 
3534375000  -5.292524e+001  -3.513844e-001 
3537500000  -5.402891e+001  -1.060367e+001 
3540625000  -5.491462e+001  -7.326835e+000 
3543750000  -5.608510e+001  -6.041824e+000 
3546875000  -5.520123e+001  7.356545e-001 
3550000000  -5.288323e+001  -1.894458e+000 
3553125000  -5.390684e+001  -2.346719e+001 
3556250000  -5.540562e+001  -2.119148e+001 
3559375000  -5.573929e+001  -1.696037e+001 
3562500000  -5.610297e+001  -3.537003e+001 
3565625000  -5.834925e+001  -4.433266e+001 
3568750000  -5.714772e+001  -3.450994e+001 
3571875000  -5.891211e+001  -1.809630e+001 
3575000000  -5.834344e+001  -1.989143e+001 
3578125000  -5.892808e+001  -3.389592e+001 
3581250000  -5.879462e+001  -2.621006e+001 
3584375000  -5.868845e+001  -2.061250e+001 
3587500000  -5.863189e+001  -3.758853e+001 
3590625000  -5.731277e+001  -4.404257e+001 
3593750000  -5.955853e+001  -1.638237e+001 
3596875000  -5.791924e+001  -2.459866e+001 
3600000000  -5.909764e+001  -1.218628e+001 
3603125000  -5.740172e+001  -4.421042e+001 
3606250000  -5.931532e+001  -4.085894e+001 
3609375000  -5.654229e+001  -3.805926e+001 
3612500000  -5.666555e+001  -3.871114e+001 
3615625000  -5.752636e+001  -3.714848e+001 
3618750000  -5.839493e+001  -2.802317e+001 
3621875000  -5.589872e+001  -3.919109e+001 
3625000000  -5.725921e+001  -3.065229e+001 
3628125000  -5.486934e+001  -2.755669e+001 
3631250000  -5.653370e+001  -4.487529e+001 
3634375000  -5.623388e+001  -3.332147e+001 
3637500000  -5.569993e+001  -4.203721e+001 
3640625000  -5.317879e+001  -2.365136e+001 
3643750000  -5.278098e+001  -3.111304e+001 
3646875000  -5.261070e+001  -4.414235e+001 
3650000000  -5.193167e+001  -4.650695e+001 
3653125000  -5.201028e+001  -4.731104e+001 
3656250000  -5.186048e+001  -4.957437e+001 
3659375000  -5.202525e+001  -5.012279e+001 
3662500000  -5.066378e+001  -5.583643e+001 
3665625000  -4.941061e+001  -5.725554e+001 
3668750000  -4.778794e+001  -6.301347e+001 
3671875000  -4.728326e+001  -7.157800e+001 
3675000000  -4.691189e+001  -8.239275e+001 
3678125000  -4.724481e+001  -8.315113e+001 
3681250000  -4.652637e+001  -8.850235e+001 
3684375000  -4.674237e+001  -9.193179e+001 
3687500000  -4.648146e+001  -9.890633e+001 
3690625000  -4.640550e+001  -1.049483e+002 
3693750000  -4.689862e+001  -1.075510e+002 
3696875000  -4.683938e+001  -1.056257e+002 
3700000000  -4.544688e+001  -1.129115e+002 
3703125000  -4.575249e+001  -1.191702e+002 
3706250000  -4.633716e+001  -1.205565e+002 
3709375000  -4.507070e+001  -1.163061e+002 
3712500000  -4.358542e+001  -1.258924e+002 
3715625000  -4.204224e+001  -1.322397e+002 
3718750000  -4.191035e+001  -1.398394e+002 
3721875000  -4.121257e+001  -1.500625e+002 
3725000000  -4.167410e+001  -1.566700e+002 
3728125000  -4.170044e+001  -1.593809e+002 
3731250000  -4.063309e+001  -1.655143e+002 
3734375000  -3.990548e+001  -1.727187e+002 
3737500000  -4.102417e+001  1.772962e+002 
3740625000  -4.130405e+001  1.709053e+002 
3743750000  -4.052361e+001  1.672639e+002 
3746875000  -4.075009e+001  1.589404e+002 
3750000000  -4.092345e+001  1.541285e+002 
3753125000  -4.057761e+001  1.499540e+002 
3756250000  -4.082224e+001  1.473439e+002 
3759375000  -4.036109e+001  1.420211e+002 
3762500000  -3.986328e+001  1.361052e+002 
3765625000  -4.047143e+001  1.310096e+002 
3768750000  -4.039963e+001  1.321911e+002 
3771875000  -3.837524e+001  1.234101e+002 
3775000000  -3.840234e+001  1.119731e+002 
3778125000  -3.912718e+001  1.056001e+002 
3781250000  -3.921031e+001  1.021457e+002 
3784375000  -3.869582e+001  9.626103e+001 
3787500000  -3.845947e+001  9.136211e+001 
3790625000  -3.913200e+001  8.015469e+001 
3793750000  -3.895552e+001  7.758719e+001 
3796875000  -3.823471e+001  7.360895e+001 
3800000000  -3.637346e+001  6.939104e+001 
3803125000  -3.798515e+001  5.506455e+001 
3806250000  -3.917951e+001  5.175551e+001 
3809375000  -3.844614e+001  4.863705e+001 
3812500000  -3.837335e+001  3.784096e+001 
3815625000  -3.969170e+001  2.884213e+001 
3818750000  -4.072780e+001  2.823001e+001 
3821875000  -3.997668e+001  3.835490e+001 
3825000000  -3.833003e+001  3.590484e+001 
3828125000  -3.704086e+001  1.740829e+001 
3831250000  -3.818016e+001  1.991811e+000 
3834375000  -4.025148e+001  2.347578e+000 
3837500000  -4.063790e+001  5.719366e+000 
3840625000  -3.921796e+001  3.577813e+000 
3843750000  -3.832965e+001  -1.140612e+001 
3846875000  -4.003554e+001  -1.836818e+001 
3850000000  -4.058263e+001  -1.118697e+001 
3853125000  -4.010034e+001  -1.121730e+001 
3856250000  -3.962024e+001  -1.914831e+001 
3859375000  -3.865494e+001  -2.552492e+001 
3862500000  -3.857860e+001  -3.616033e+001 
3865625000  -3.877137e+001  -4.254688e+001 
3868750000  -3.871392e+001  -4.407990e+001 
3871875000  -3.823207e+001  -5.037405e+001 
3875000000  -3.855926e+001  -6.026426e+001 
3878125000  -3.956204e+001  -6.373484e+001 
3881250000  -3.932363e+001  -6.315285e+001 
3884375000  -3.884188e+001  -6.986650e+001 
3887500000  -3.917232e+001  -7.664759e+001 
3890625000  -3.961988e+001  -8.060041e+001 
3893750000  -3.995915e+001  -8.201184e+001 
3896875000  -3.997182e+001  -8.379587e+001 
3900000000  -3.999056e+001  -9.117602e+001 
3903125000  -3.938863e+001  -9.405906e+001 
3906250000  -3.907117e+001  -9.873897e+001 
3909375000  -3.826855e+001  -1.066223e+002 
3912500000  -3.898542e+001  -1.154953e+002 
3915625000  -4.020995e+001  -1.149222e+002 
3918750000  -3.985719e+001  -1.160617e+002 
3921875000  -3.935091e+001  -1.210064e+002 
3925000000  -3.842107e+001  -1.265860e+002 
3928125000  -3.835839e+001  -1.354950e+002 
3931250000  -3.902834e+001  -1.435609e+002 
3934375000  -3.956951e+001  -1.442323e+002 
3937500000  -4.011121e+001  -1.462660e+002 
3940625000  -4.000886e+001  -1.483008e+002 
3943750000  -3.902862e+001  -1.517183e+002 
3946875000  -3.845617e+001  -1.601575e+002 
3950000000  -3.954752e+001  -1.693974e+002 
3953125000  -4.016887e+001  -1.697278e+002 
3956250000  -3.890663e+001  -1.684852e+002 
3959375000  -3.779622e+001  -1.747990e+002 
3962500000  -3.766315e+001  1.763201e+002 
3965625000  -3.770105e+001  1.678071e+002 
3968750000  -3.865965e+001  1.603638e+002 
3971875000  -3.867972e+001  1.549759e+002 
3975000000  -3.819818e+001  1.514134e+002 
3978125000  -3.837536e+001  1.470821e+002 
3981250000  -3.872661e+001  1.399988e+002 
3984375000  -3.908897e+001  1.308905e+002 
3987500000  -3.954985e+001  1.287060e+002 
3990625000  -4.009325e+001  1.259543e+002 
3993750000  -3.997843e+001  1.231740e+002 
3996875000  -3.998060e+001  1.169461e+002 
4000000000  -4.052398e+001  1.115630e+002 
4003125000  -4.146051e+001  1.152709e+002 
4006250000  -3.931758e+001  1.139514e+002 
4009375000  -3.866555e+001  9.823347e+001 
4012500000  -4.004221e+001  8.969438e+001 
4015625000  -4.151629e+001  9.031032e+001 
4018750000  -4.136663e+001  8.951648e+001 
4021875000  -4.095996e+001  8.675563e+001 
4025000000  -4.056566e+001  8.056161e+001 
4028125000  -4.049495e+001  7.510438e+001 
4031250000  -4.117487e+001  7.126154e+001 
4034375000  -4.149671e+001  7.074651e+001 
4037500000  -4.118354e+001  7.044968e+001 
4040625000  -4.114228e+001  6.710054e+001 
4043750000  -4.124975e+001  6.353068e+001 
4046875000  -4.075010e+001  5.792662e+001 
4050000000  -4.043856e+001  5.296915e+001 
4053125000  -4.123070e+001  5.061134e+001 
4056250000  -4.151640e+001  5.714182e+001 
4059375000  -3.962764e+001  5.317333e+001 
4062500000  -3.895247e+001  4.512878e+001 
4065625000  -3.886178e+001  3.866966e+001 
4068750000  -3.831587e+001  3.303260e+001 
4071875000  -3.796182e+001  2.208287e+001 
4075000000  -3.832412e+001  1.478657e+001 
4078125000  -3.899485e+001  1.254238e+001 
4081250000  -3.819491e+001  7.032179e+000 
4084375000  -3.824038e+001  -2.616577e+000 
4087500000  -3.879325e+001  -9.797330e+000 
4090625000  -3.914860e+001  -1.210952e+001 
4093750000  -3.868661e+001  -1.369215e+001 
4096875000  -3.899132e+001  -2.322376e+001 
4100000000  -3.965973e+001  -3.043005e+001 
4103125000  -4.059575e+001  -2.723039e+001 
4106250000  -4.010508e+001  -2.662433e+001 
4109375000  -3.913158e+001  -3.093781e+001 
4112500000  -3.871058e+001  -3.789651e+001 
4115625000  -3.935114e+001  -4.454474e+001 
4118750000  -3.926966e+001  -4.798894e+001 
4121875000  -3.891528e+001  -5.799316e+001 
4125000000  -3.989383e+001  -6.359848e+001 
4128125000  -4.099854e+001  -6.077723e+001 
4131250000  -3.986597e+001  -5.719580e+001 
4134375000  -3.789785e+001  -6.639628e+001 
4137500000  -3.810836e+001  -8.812785e+001 
4140625000  -4.032982e+001  -9.253257e+001 
4143750000  -4.146567e+001  -8.441908e+001 
4146875000  -4.076903e+001  -8.437441e+001 
4150000000  -3.963007e+001  -9.287067e+001 
4153125000  -4.029961e+001  -9.936915e+001 
4156250000  -4.133673e+001  -1.048844e+002 
4159375000  -4.094231e+001  -9.742184e+001 
4162500000  -3.976494e+001  -9.521756e+001 
4165625000  -3.897109e+001  -1.016352e+002 
4168750000  -3.853032e+001  -1.135662e+002 
4171875000  -3.836666e+001  -1.212750e+002 
4175000000  -3.938820e+001  -1.299125e+002 
4178125000  -3.970615e+001  -1.304626e+002 
4181250000  -3.931462e+001  -1.343028e+002 
4184375000  -3.958858e+001  -1.387747e+002 
4187500000  -3.947081e+001  -1.419308e+002 
4190625000  -3.940628e+001  -1.521968e+002 
4193750000  -4.069668e+001  -1.553968e+002 
4196875000  -4.121505e+001  -1.569433e+002 
4200000000  -4.229628e+001  -1.506006e+002 
4203125000  -4.098536e+001  -1.396076e+002 
4206250000  -3.789029e+001  -1.474604e+002 
4209375000  -3.732487e+001  -1.711636e+002 
4212500000  -3.978069e+001  -1.777479e+002 
4215625000  -4.030476e+001  -1.710813e+002 
4218750000  -3.836853e+001  -1.692924e+002 
4221875000  -3.680313e+001  -1.776924e+002 
4225000000  -3.765184e+001  1.696991e+002 
4228125000  -3.774120e+001  1.698613e+002 
4231250000  -3.624075e+001  1.622464e+002 
4234375000  -3.623908e+001  1.521902e+002 
4237500000  -3.616462e+001  1.462431e+002 
4240625000  -3.631381e+001  1.351562e+002 
4243750000  -3.759654e+001  1.251809e+002 
4246875000  -3.841465e+001  1.247725e+002 
4250000000  -3.837860e+001  1.262798e+002 
4253125000  -3.804670e+001  1.229099e+002 
4256250000  -3.802359e+001  1.185331e+002 
4259375000  -3.774771e+001  1.128653e+002 
4262500000  -3.790502e+001  1.080769e+002 
4265625000  -3.806196e+001  1.062222e+002 
4268750000  -3.701801e+001  9.635035e+001 
4271875000  -3.707453e+001  8.984700e+001 
4275000000  -3.645949e+001  8.088960e+001 
4278125000  -3.780610e+001  6.983796e+001 
4281250000  -3.921497e+001  6.652836e+001 
4284375000  -3.882299e+001  6.265038e+001 
4287500000  -4.006160e+001  6.267214e+001 
4290625000  -4.088388e+001  6.887312e+001 
4293750000  -3.874780e+001  6.955591e+001 
4296875000  -3.787542e+001  5.675980e+001 
4300000000  -3.924444e+001  4.741238e+001 
4303125000  -3.970642e+001  4.981415e+001 
4306250000  -3.871999e+001  5.297438e+001 
4309375000  -3.768639e+001  4.786764e+001 
4312500000  -3.767159e+001  3.682398e+001 
4315625000  -3.808664e+001  2.747509e+001 
4318750000  -3.867637e+001  2.521875e+001 
4321875000  -3.875327e+001  2.299918e+001 
4325000000  -3.803182e+001  2.336300e+001 
4328125000  -3.747246e+001  1.494415e+001 
4331250000  -3.766097e+001  3.979119e+000 
4334375000  -3.847498e+001  -2.918949e+000 
4337500000  -3.952988e+001  -2.896153e+000 
4340625000  -3.963491e+001  7.384561e-001 
4343750000  -3.874276e+001  -2.277200e+000 
4346875000  -3.840075e+001  -1.140186e+001 
4350000000  -3.867043e+001  -1.791968e+001 
4353125000  -3.898985e+001  -2.632280e+001 
4356250000  -4.120832e+001  -2.312684e+001 
4359375000  -4.001657e+001  -1.000312e+001 
4362500000  -3.681466e+001  -1.709402e+001 
4365625000  -3.603703e+001  -3.468928e+001 
4368750000  -3.730441e+001  -4.368227e+001 
4371875000  -3.811416e+001  -4.319496e+001 
4375000000  -3.744943e+001  -4.882629e+001 
4378125000  -3.696868e+001  -5.582206e+001 
4381250000  -3.725403e+001  -6.381653e+001 
4384375000  -3.722416e+001  -7.052000e+001 
4387500000  -3.814256e+001  -7.502039e+001 
4390625000  -3.874486e+001  -7.735007e+001 
4393750000  -3.808062e+001  -7.673505e+001 
4396875000  -3.746739e+001  -8.227889e+001 
4400000000  -3.682814e+001  -9.065068e+001 
4403125000  -3.783687e+001  -1.004772e+002 
4406250000  -3.858219e+001  -1.042160e+002 
4409375000  -3.883046e+001  -1.083851e+002 
4412500000  -3.971318e+001  -1.122468e+002 
4415625000  -3.955249e+001  -1.069405e+002 
