!Agilent Technologies,E8363B,MY43030201,A.06.04.32
!Agilent E8363B: A.06.04.32
!Date: Tuesday, November 11, 2014 21:28:07
!Correction: S21(Response(S21)) 
!S1P File: Measurement: S21:
# Hz S  dB   R 50
3000000000  -4.063364e+001  9.113874e+001 
3003125000  -4.228239e+001  8.311566e+001 
3006250000  -4.206519e+001  8.105092e+001 
3009375000  -4.274896e+001  8.661562e+001 
3012500000  -4.187952e+001  8.204528e+001 
3015625000  -4.135929e+001  7.614885e+001 
3018750000  -4.188027e+001  7.597909e+001 
3021875000  -4.035221e+001  7.642876e+001 
3025000000  -3.896149e+001  7.224570e+001 
3028125000  -3.805532e+001  6.316779e+001 
3031250000  -3.698132e+001  5.186589e+001 
3034375000  -3.681242e+001  3.668601e+001 
3037500000  -3.754557e+001  2.621543e+001 
3040625000  -3.870117e+001  2.226860e+001 
3043750000  -3.906447e+001  1.514039e+001 
3046875000  -3.966777e+001  9.156029e+000 
3050000000  -4.075510e+001  3.661874e+000 
3053125000  -4.064036e+001  9.301259e+000 
3056250000  -4.039633e+001  1.196116e+001 
3059375000  -3.970622e+001  9.613811e+000 
3062500000  -3.838566e+001  4.950184e+000 
3065625000  -3.797430e+001  -5.057980e+000 
3068750000  -3.765650e+001  -1.154003e+001 
3071875000  -3.770568e+001  -1.467968e+001 
3075000000  -3.716929e+001  -2.182318e+001 
3078125000  -3.711370e+001  -2.724448e+001 
3081250000  -3.739363e+001  -3.293710e+001 
3084375000  -3.639840e+001  -3.893739e+001 
3087500000  -3.638890e+001  -4.449691e+001 
3090625000  -3.595340e+001  -5.711843e+001 
3093750000  -3.683752e+001  -6.519141e+001 
3096875000  -3.737230e+001  -7.022469e+001 
3100000000  -3.718754e+001  -7.346350e+001 
3103125000  -3.760608e+001  -7.687663e+001 
3106250000  -3.729793e+001  -8.223634e+001 
3109375000  -3.729414e+001  -8.658907e+001 
3112500000  -3.727976e+001  -9.138190e+001 
3115625000  -3.719157e+001  -9.674367e+001 
3118750000  -3.731393e+001  -9.809947e+001 
3121875000  -3.661107e+001  -1.101235e+002 
3125000000  -3.824977e+001  -1.139517e+002 
3128125000  -3.864631e+001  -1.067954e+002 
3131250000  -3.608579e+001  -1.122209e+002 
3134375000  -3.537489e+001  -1.292080e+002 
3137500000  -3.589394e+001  -1.415409e+002 
3140625000  -3.725058e+001  -1.450366e+002 
3143750000  -3.831220e+001  -1.467655e+002 
3146875000  -3.779656e+001  -1.450285e+002 
3150000000  -3.699300e+001  -1.479550e+002 
3153125000  -3.722324e+001  -1.570598e+002 
3156250000  -3.806031e+001  -1.535269e+002 
3159375000  -3.581653e+001  -1.536077e+002 
3162500000  -3.430828e+001  -1.695866e+002 
3165625000  -3.547792e+001  1.771468e+002 
3168750000  -3.548384e+001  1.763719e+002 
3171875000  -3.496199e+001  1.693473e+002 
3175000000  -3.557131e+001  1.592098e+002 
3178125000  -3.514175e+001  1.595871e+002 
3181250000  -3.443790e+001  1.507936e+002 
3184375000  -3.408582e+001  1.393039e+002 
3187500000  -3.544959e+001  1.235215e+002 
3190625000  -3.740362e+001  1.164673e+002 
3193750000  -3.758422e+001  1.233368e+002 
3196875000  -3.744095e+001  1.251095e+002 
3200000000  -3.638921e+001  1.195232e+002 
3203125000  -3.596597e+001  1.110326e+002 
3206250000  -3.615241e+001  1.031726e+002 
3209375000  -3.585390e+001  9.646678e+001 
3212500000  -3.625033e+001  8.866890e+001 
3215625000  -3.617575e+001  8.533395e+001 
3218750000  -3.675481e+001  7.528677e+001 
3221875000  -3.745262e+001  6.785152e+001 
3225000000  -3.706984e+001  6.470062e+001 
3228125000  -3.765812e+001  5.687644e+001 
3231250000  -3.830099e+001  5.514617e+001 
3234375000  -3.781520e+001  5.289739e+001 
3237500000  -3.808726e+001  4.731509e+001 
3240625000  -3.766921e+001  4.292033e+001 
3243750000  -3.768759e+001  3.179802e+001 
3246875000  -3.823917e+001  2.541969e+001 
3250000000  -3.885983e+001  2.122944e+001 
3253125000  -3.899856e+001  1.761481e+001 
3256250000  -3.858229e+001  9.607278e+000 
3259375000  -3.920974e+001  -6.425131e-001 
3262500000  -4.061786e+001  -3.797737e+000 
3265625000  -4.130972e+001  -8.215587e-001 
3268750000  -4.137360e+001  -4.240792e-001 
3271875000  -4.076283e+001  -4.468180e+000 
3275000000  -4.013182e+001  -1.205303e+001 
3278125000  -4.079456e+001  -1.789023e+001 
3281250000  -4.093053e+001  -1.807435e+001 
3284375000  -4.063748e+001  -2.540668e+001 
3287500000  -4.090190e+001  -2.809838e+001 
3290625000  -4.128905e+001  -3.693639e+001 
3293750000  -4.129679e+001  -4.286288e+001 
3296875000  -4.231615e+001  -4.225193e+001 
3300000000  -4.219970e+001  -4.467589e+001 
3303125000  -4.106522e+001  -4.971101e+001 
3306250000  -4.089172e+001  -5.701429e+001 
3309375000  -4.048714e+001  -6.344202e+001 
3312500000  -4.074282e+001  -7.495715e+001 
3315625000  -4.219229e+001  -8.221989e+001 
3318750000  -4.330087e+001  -8.800546e+001 
3321875000  -4.483179e+001  -8.475130e+001 
3325000000  -4.499298e+001  -7.859612e+001 
3328125000  -4.421657e+001  -8.068178e+001 
3331250000  -4.263303e+001  -7.596384e+001 
3334375000  -4.019501e+001  -8.948086e+001 
3337500000  -4.047819e+001  -1.093480e+002 
3340625000  -4.236052e+001  -1.188916e+002 
3343750000  -4.435649e+001  -1.193831e+002 
3346875000  -4.377931e+001  -1.199021e+002 
3350000000  -4.306131e+001  -1.238003e+002 
3353125000  -4.279995e+001  -1.297800e+002 
3356250000  -4.245675e+001  -1.395916e+002 
3359375000  -4.330003e+001  -1.490029e+002 
3362500000  -4.452450e+001  -1.519865e+002 
3365625000  -4.491555e+001  -1.578050e+002 
3368750000  -4.521194e+001  -1.605942e+002 
3371875000  -4.587366e+001  -1.688459e+002 
3375000000  -4.761370e+001  -1.726520e+002 
3378125000  -4.836624e+001  -1.745701e+002 
3381250000  -4.986254e+001  -1.565414e+002 
3384375000  -4.670433e+001  -1.443974e+002 
3387500000  -4.384418e+001  -1.685727e+002 
3390625000  -4.594342e+001  1.697323e+002 
3393750000  -4.697062e+001  1.730293e+002 
3396875000  -4.593927e+001  1.729840e+002 
3400000000  -4.649649e+001  1.604666e+002 
3403125000  -4.701711e+001  1.533801e+002 
3406250000  -4.739343e+001  1.500382e+002 
3409375000  -4.744498e+001  1.438297e+002 
3412500000  -4.845742e+001  1.365093e+002 
3415625000  -4.987917e+001  1.354610e+002 
3418750000  -5.000704e+001  1.391579e+002 
3421875000  -5.136736e+001  1.440167e+002 
3425000000  -4.951902e+001  1.410317e+002 
3428125000  -4.962363e+001  1.384467e+002 
3431250000  -4.942176e+001  1.281994e+002 
3434375000  -5.001614e+001  1.263410e+002 
3437500000  -5.106651e+001  1.232071e+002 
3440625000  -5.215955e+001  1.226957e+002 
3443750000  -5.006085e+001  1.298179e+002 
3446875000  -5.099940e+001  1.214114e+002 
3450000000  -5.021267e+001  1.136179e+002 
3453125000  -5.089424e+001  1.042757e+002 
3456250000  -5.172307e+001  1.011257e+002 
3459375000  -5.254420e+001  1.014110e+002 
3462500000  -5.217794e+001  1.073641e+002 
3465625000  -5.141801e+001  9.957988e+001 
3468750000  -5.216922e+001  1.010211e+002 
3471875000  -5.146136e+001  9.783379e+001 
3475000000  -5.143106e+001  9.359931e+001 
3478125000  -5.101482e+001  8.164774e+001 
3481250000  -5.132811e+001  8.142749e+001 
3484375000  -5.239463e+001  8.284145e+001 
3487500000  -5.160434e+001  8.412391e+001 
3490625000  -5.080187e+001  7.508258e+001 
3493750000  -5.102478e+001  6.800914e+001 
3496875000  -5.091440e+001  6.691588e+001 
3500000000  -5.201274e+001  6.343119e+001 
3503125000  -5.023395e+001  6.333345e+001 
3506250000  -4.986901e+001  6.447227e+001 
3509375000  -4.943519e+001  4.889501e+001 
3512500000  -5.000882e+001  3.598972e+001 
3515625000  -5.077619e+001  3.041925e+001 
3518750000  -5.210136e+001  3.465667e+001 
3521875000  -5.140409e+001  2.642566e+001 
3525000000  -5.202810e+001  1.843137e+001 
3528125000  -5.223919e+001  2.790040e+001 
3531250000  -5.099057e+001  1.864002e+001 
3534375000  -5.227143e+001  3.945157e+000 
3537500000  -5.306293e+001  -7.245467e+000 
3540625000  -5.422897e+001  -1.037422e+001 
3543750000  -5.556162e+001  6.828087e+000 
3546875000  -5.493901e+001  6.189528e+000 
3550000000  -5.249475e+001  6.410731e+000 
3553125000  -5.202650e+001  -1.552191e+001 
3556250000  -5.513149e+001  -1.503756e+001 
3559375000  -5.568519e+001  -1.357870e+001 
3562500000  -5.521416e+001  -2.835494e+001 
3565625000  -5.592245e+001  -3.297274e+001 
3568750000  -5.583781e+001  -2.333121e+001 
3571875000  -5.627612e+001  -2.057619e+001 
3575000000  -5.840636e+001  -2.207175e+001 
3578125000  -5.765493e+001  -2.842269e+001 
3581250000  -5.853980e+001  -2.957105e+001 
3584375000  -5.861027e+001  -2.382385e+001 
3587500000  -5.762551e+001  -2.613520e+001 
3590625000  -5.992846e+001  -5.529434e+001 
3593750000  -6.152772e+001  -4.197911e+001 
3596875000  -5.884030e+001  -2.695769e+001 
3600000000  -5.735546e+001  -1.861685e+001 
3603125000  -5.799017e+001  -4.151429e+001 
3606250000  -5.794674e+001  -2.711184e+001 
3609375000  -5.988505e+001  -4.061522e+001 
3612500000  -5.781365e+001  -2.870955e+001 
3615625000  -5.842253e+001  -3.884314e+001 
3618750000  -6.028886e+001  -2.509162e+001 
3621875000  -5.746638e+001  -3.104998e+001 
3625000000  -5.619473e+001  -2.858797e+001 
3628125000  -5.780707e+001  -1.824497e+001 
3631250000  -5.709678e+001  -4.062967e+001 
3634375000  -6.075630e+001  -3.553693e+001 
3637500000  -5.552982e+001  -2.306507e+001 
3640625000  -5.377849e+001  -1.635580e+001 
3643750000  -5.370874e+001  -3.170574e+001 
3646875000  -5.291666e+001  -3.805151e+001 
3650000000  -5.378775e+001  -3.640523e+001 
3653125000  -5.226191e+001  -4.158639e+001 
3656250000  -5.253819e+001  -4.184578e+001 
3659375000  -5.283226e+001  -4.548848e+001 
3662500000  -5.043063e+001  -5.158842e+001 
3665625000  -5.062442e+001  -5.159055e+001 
3668750000  -4.799952e+001  -5.120668e+001 
3671875000  -4.754359e+001  -6.502172e+001 
3675000000  -4.772817e+001  -7.014270e+001 
3678125000  -4.751065e+001  -7.967354e+001 
3681250000  -4.668933e+001  -7.940809e+001 
3684375000  -4.747532e+001  -8.429386e+001 
3687500000  -4.710595e+001  -9.266409e+001 
3690625000  -4.683814e+001  -9.903239e+001 
3693750000  -4.717672e+001  -9.778403e+001 
3696875000  -4.640144e+001  -9.680798e+001 
3700000000  -4.564623e+001  -1.053841e+002 
3703125000  -4.553649e+001  -1.125705e+002 
3706250000  -4.604949e+001  -1.113591e+002 
3709375000  -4.477953e+001  -1.122379e+002 
3712500000  -4.403822e+001  -1.163862e+002 
3715625000  -4.234359e+001  -1.229510e+002 
3718750000  -4.170001e+001  -1.317494e+002 
3721875000  -4.144184e+001  -1.403258e+002 
3725000000  -4.189899e+001  -1.482291e+002 
3728125000  -4.150456e+001  -1.519689e+002 
3731250000  -4.075917e+001  -1.565657e+002 
3734375000  -4.028425e+001  -1.630366e+002 
3737500000  -4.104613e+001  -1.738766e+002 
3740625000  -4.110204e+001  -1.785448e+002 
3743750000  -4.070406e+001  1.737210e+002 
3746875000  -4.075677e+001  1.673764e+002 
3750000000  -4.105827e+001  1.631662e+002 
3753125000  -4.048419e+001  1.592023e+002 
3756250000  -4.077085e+001  1.565736e+002 
3759375000  -4.048651e+001  1.517055e+002 
3762500000  -4.018981e+001  1.447301e+002 
3765625000  -4.047737e+001  1.402502e+002 
3768750000  -4.034935e+001  1.400228e+002 
3771875000  -3.837841e+001  1.325062e+002 
3775000000  -3.871288e+001  1.215541e+002 
3778125000  -3.902323e+001  1.147647e+002 
3781250000  -3.911714e+001  1.114632e+002 
3784375000  -3.890540e+001  1.034069e+002 
3787500000  -3.856532e+001  9.833261e+001 
3790625000  -3.923017e+001  8.932021e+001 
3793750000  -3.938801e+001  8.635692e+001 
3796875000  -3.836508e+001  8.284624e+001 
3800000000  -3.643232e+001  7.807414e+001 
3803125000  -3.813679e+001  6.378342e+001 
3806250000  -3.885939e+001  5.901775e+001 
3809375000  -3.847050e+001  5.697140e+001 
3812500000  -3.845699e+001  4.625034e+001 
3815625000  -3.966326e+001  3.693180e+001 
3818750000  -4.073137e+001  3.936829e+001 
3821875000  -4.049006e+001  4.790166e+001 
3825000000  -3.810045e+001  4.439984e+001 
3828125000  -3.713685e+001  2.684046e+001 
3831250000  -3.796420e+001  1.153517e+001 
3834375000  -4.009270e+001  1.029466e+001 
3837500000  -4.105368e+001  1.498671e+001 
3840625000  -3.918755e+001  1.140491e+001 
3843750000  -3.846694e+001  -1.963894e+000 
3846875000  -3.991080e+001  -8.579369e+000 
3850000000  -4.071155e+001  -1.683312e+000 
3853125000  -3.999472e+001  -3.954401e+000 
3856250000  -3.991243e+001  -1.162275e+001 
3859375000  -3.884578e+001  -1.795724e+001 
3862500000  -3.859642e+001  -2.778286e+001 
3865625000  -3.910466e+001  -3.428802e+001 
3868750000  -3.879907e+001  -3.536441e+001 
3871875000  -3.815351e+001  -4.091602e+001 
3875000000  -3.843208e+001  -5.068828e+001 
3878125000  -3.935173e+001  -5.458552e+001 
3881250000  -3.943054e+001  -5.289457e+001 
3884375000  -3.890424e+001  -5.954859e+001 
3887500000  -3.897573e+001  -6.580935e+001 
3890625000  -3.927224e+001  -7.260072e+001 
3893750000  -3.962580e+001  -7.346188e+001 
3896875000  -4.003361e+001  -7.543123e+001 
3900000000  -3.994016e+001  -7.993229e+001 
3903125000  -3.936582e+001  -8.451774e+001 
3906250000  -3.911281e+001  -8.799689e+001 
3909375000  -3.844086e+001  -9.539088e+001 
3912500000  -3.878136e+001  -1.061986e+002 
3915625000  -4.027262e+001  -1.045928e+002 
3918750000  -3.982861e+001  -1.066638e+002 
3921875000  -3.946772e+001  -1.123443e+002 
3925000000  -3.848649e+001  -1.167684e+002 
3928125000  -3.819948e+001  -1.259680e+002 
3931250000  -3.893373e+001  -1.344689e+002 
3934375000  -3.938645e+001  -1.352952e+002 
3937500000  -3.993378e+001  -1.354246e+002 
3940625000  -3.990678e+001  -1.381615e+002 
3943750000  -3.889078e+001  -1.420414e+002 
3946875000  -3.825938e+001  -1.506518e+002 
3950000000  -3.922129e+001  -1.594814e+002 
3953125000  -4.005259e+001  -1.588486e+002 
3956250000  -3.874903e+001  -1.603354e+002 
3959375000  -3.777640e+001  -1.651942e+002 
3962500000  -3.748629e+001  -1.743507e+002 
3965625000  -3.762098e+001  1.773697e+002 
3968750000  -3.858129e+001  1.673622e+002 
3971875000  -3.876162e+001  1.636577e+002 
3975000000  -3.807817e+001  1.596354e+002 
3978125000  -3.839901e+001  1.567523e+002 
3981250000  -3.840950e+001  1.498038e+002 
3984375000  -3.899422e+001  1.427525e+002 
3987500000  -3.985411e+001  1.380607e+002 
3990625000  -3.968232e+001  1.371862e+002 
3993750000  -4.001574e+001  1.314171e+002 
3996875000  -3.983412e+001  1.279133e+002 
4000000000  -4.067859e+001  1.219941e+002 
4003125000  -4.077849e+001  1.257132e+002 
4006250000  -3.952190e+001  1.234037e+002 
4009375000  -3.876303e+001  1.084552e+002 
4012500000  -3.966793e+001  9.978938e+001 
4015625000  -4.130802e+001  9.972725e+001 
4018750000  -4.124615e+001  1.016241e+002 
4021875000  -4.053471e+001  9.976560e+001 
4025000000  -4.062671e+001  9.117547e+001 
4028125000  -4.044147e+001  8.415695e+001 
4031250000  -4.124994e+001  8.073070e+001 
4034375000  -4.136456e+001  7.931242e+001 
4037500000  -4.098338e+001  8.083691e+001 
4040625000  -4.088009e+001  7.646500e+001 
4043750000  -4.093131e+001  7.345701e+001 
4046875000  -4.050445e+001  6.763373e+001 
4050000000  -4.037125e+001  6.561174e+001 
4053125000  -4.113865e+001  6.187331e+001 
4056250000  -4.130821e+001  6.483195e+001 
4059375000  -3.942064e+001  6.256232e+001 
4062500000  -3.875959e+001  5.527211e+001 
4065625000  -3.857785e+001  4.997640e+001 
4068750000  -3.817185e+001  4.292650e+001 
4071875000  -3.741157e+001  3.307609e+001 
4075000000  -3.812713e+001  2.618404e+001 
4078125000  -3.829726e+001  2.157549e+001 
4081250000  -3.800084e+001  1.661784e+001 
4084375000  -3.777528e+001  7.168878e+000 
4087500000  -3.822850e+001  -3.457952e-001 
4090625000  -3.900574e+001  -3.684720e-001 
4093750000  -3.867979e+001  -5.499901e+000 
4096875000  -3.837049e+001  -1.208191e+001 
4100000000  -3.940788e+001  -2.086928e+001 
4103125000  -4.033622e+001  -1.944782e+001 
4106250000  -3.976619e+001  -1.639984e+001 
4109375000  -3.900038e+001  -1.945251e+001 
4112500000  -3.823577e+001  -2.965277e+001 
4115625000  -3.882582e+001  -3.578213e+001 
4118750000  -3.884128e+001  -4.039499e+001 
4121875000  -3.866943e+001  -4.644524e+001 
4125000000  -3.939476e+001  -5.239863e+001 
4128125000  -4.045313e+001  -5.082937e+001 
4131250000  -3.958278e+001  -4.695449e+001 
4134375000  -3.732632e+001  -5.463931e+001 
4137500000  -3.780042e+001  -7.619209e+001 
4140625000  -4.001918e+001  -8.192651e+001 
4143750000  -4.112123e+001  -7.815181e+001 
4146875000  -4.041196e+001  -7.328461e+001 
4150000000  -3.921976e+001  -8.053012e+001 
4153125000  -3.966539e+001  -8.828343e+001 
4156250000  -4.053261e+001  -9.392570e+001 
4159375000  -4.098014e+001  -9.020024e+001 
4162500000  -3.943147e+001  -8.503867e+001 
4165625000  -3.866048e+001  -9.425016e+001 
4168750000  -3.811527e+001  -1.036638e+002 
4171875000  -3.784423e+001  -1.132113e+002 
4175000000  -3.876494e+001  -1.180097e+002 
4178125000  -3.921973e+001  -1.200176e+002 
4181250000  -3.899816e+001  -1.229937e+002 
4184375000  -3.905474e+001  -1.287058e+002 
4187500000  -3.902045e+001  -1.338307e+002 
4190625000  -3.917087e+001  -1.408535e+002 
4193750000  -3.981833e+001  -1.476548e+002 
4196875000  -4.098788e+001  -1.481089e+002 
4200000000  -4.134943e+001  -1.437078e+002 
4203125000  -4.068771e+001  -1.305951e+002 
4206250000  -3.740184e+001  -1.386218e+002 
4209375000  -3.675343e+001  -1.606013e+002 
4212500000  -3.922445e+001  -1.695981e+002 
4215625000  -3.977056e+001  -1.616809e+002 
4218750000  -3.787151e+001  -1.591604e+002 
4221875000  -3.606208e+001  -1.689785e+002 
4225000000  -3.711592e+001  1.766190e+002 
4228125000  -3.771580e+001  -1.799090e+002 
4231250000  -3.582679e+001  1.708014e+002 
4234375000  -3.595419e+001  1.604985e+002 
4237500000  -3.565505e+001  1.555470e+002 
4240625000  -3.587296e+001  1.432703e+002 
4243750000  -3.729453e+001  1.359517e+002 
4246875000  -3.810550e+001  1.351403e+002 
4250000000  -3.767355e+001  1.351901e+002 
4253125000  -3.732731e+001  1.313627e+002 
4256250000  -3.756610e+001  1.275974e+002 
4259375000  -3.708197e+001  1.216577e+002 
4262500000  -3.720206e+001  1.148568e+002 
4265625000  -3.717346e+001  1.145371e+002 
4268750000  -3.630971e+001  1.086104e+002 
4271875000  -3.626627e+001  9.994813e+001 
4275000000  -3.596316e+001  9.054742e+001 
4278125000  -3.670105e+001  7.837523e+001 
4281250000  -3.833080e+001  7.642298e+001 
4284375000  -3.831303e+001  7.334779e+001 
4287500000  -3.983006e+001  7.010835e+001 
4290625000  -4.049420e+001  7.830088e+001 
4293750000  -3.782737e+001  8.105506e+001 
4296875000  -3.734530e+001  6.729047e+001 
4300000000  -3.831793e+001  5.756657e+001 
4303125000  -3.903403e+001  6.003476e+001 
4306250000  -3.819544e+001  6.255027e+001 
4309375000  -3.716973e+001  5.551147e+001 
4312500000  -3.718960e+001  4.360693e+001 
4315625000  -3.743759e+001  3.639161e+001 
4318750000  -3.792117e+001  3.176566e+001 
4321875000  -3.816759e+001  3.203316e+001 
4325000000  -3.746069e+001  3.073793e+001 
4328125000  -3.681482e+001  2.179891e+001 
4331250000  -3.692966e+001  1.215807e+001 
4334375000  -3.768259e+001  6.482624e+000 
4337500000  -3.880784e+001  4.639182e+000 
4340625000  -3.916630e+001  7.788114e+000 
4343750000  -3.834187e+001  5.228426e+000 
4346875000  -3.765507e+001  -3.340292e+000 
4350000000  -3.770267e+001  -1.229778e+001 
4353125000  -3.824982e+001  -1.862608e+001 
4356250000  -4.012473e+001  -1.739619e+001 
4359375000  -3.970119e+001  -3.139833e+000 
4362500000  -3.628197e+001  -1.198539e+001 
4365625000  -3.533039e+001  -2.613013e+001 
4368750000  -3.649369e+001  -3.699236e+001 
4371875000  -3.766236e+001  -3.697931e+001 
4375000000  -3.687836e+001  -3.951311e+001 
4378125000  -3.635555e+001  -4.747458e+001 
4381250000  -3.658692e+001  -5.583023e+001 
4384375000  -3.669487e+001  -6.183352e+001 
4387500000  -3.737164e+001  -7.000136e+001 
4390625000  -3.783315e+001  -7.024442e+001 
4393750000  -3.739009e+001  -7.023183e+001 
4396875000  -3.709894e+001  -7.526794e+001 
4400000000  -3.636691e+001  -8.313099e+001 
4403125000  -3.689639e+001  -9.245573e+001 
4406250000  -3.779762e+001  -9.718963e+001 
4409375000  -3.775842e+001  -1.000478e+002 
4412500000  -3.909518e+001  -1.043704e+002 
4415625000  -3.904448e+001  -9.943434e+001 
