!Agilent Technologies,E8363B,MY43030201,A.06.04.32
!Agilent E8363B: A.06.04.32
!Date: Tuesday, November 11, 2014 21:26:46
!Correction: S21(Response(S21)) 
!S1P File: Measurement: S21:
# Hz S  dB   R 50
3000000000  -4.056363e+001  9.520196e+001 
3003125000  -4.223010e+001  8.812766e+001 
3006250000  -4.210692e+001  8.555532e+001 
3009375000  -4.257961e+001  9.022966e+001 
3012500000  -4.175991e+001  8.623096e+001 
3015625000  -4.140938e+001  7.922932e+001 
3018750000  -4.188425e+001  8.111648e+001 
3021875000  -4.043716e+001  7.941137e+001 
3025000000  -3.915094e+001  7.722965e+001 
3028125000  -3.810871e+001  6.685864e+001 
3031250000  -3.718019e+001  5.516182e+001 
3034375000  -3.675722e+001  4.120154e+001 
3037500000  -3.757852e+001  3.049419e+001 
3040625000  -3.865187e+001  2.535972e+001 
3043750000  -3.933197e+001  1.906992e+001 
3046875000  -3.972823e+001  1.296319e+001 
3050000000  -4.088192e+001  7.001552e+000 
3053125000  -4.068204e+001  1.086912e+001 
3056250000  -4.024763e+001  1.434611e+001 
3059375000  -3.985056e+001  1.317702e+001 
3062500000  -3.816342e+001  7.779943e+000 
3065625000  -3.808796e+001  -9.241813e-001 
3068750000  -3.762323e+001  -8.570656e+000 
3071875000  -3.757267e+001  -9.823112e+000 
3075000000  -3.723694e+001  -1.726531e+001 
3078125000  -3.712645e+001  -2.363083e+001 
3081250000  -3.744275e+001  -2.907837e+001 
3084375000  -3.643259e+001  -3.436129e+001 
3087500000  -3.652676e+001  -3.991019e+001 
3090625000  -3.592034e+001  -5.253645e+001 
3093750000  -3.687962e+001  -6.100588e+001 
3096875000  -3.736901e+001  -6.757321e+001 
3100000000  -3.727486e+001  -7.004334e+001 
3103125000  -3.764349e+001  -7.249947e+001 
3106250000  -3.718629e+001  -7.844271e+001 
3109375000  -3.734511e+001  -8.356657e+001 
3112500000  -3.724885e+001  -8.733584e+001 
3115625000  -3.704530e+001  -9.261868e+001 
3118750000  -3.742197e+001  -9.438200e+001 
3121875000  -3.663753e+001  -1.062843e+002 
3125000000  -3.817527e+001  -1.096091e+002 
3128125000  -3.879299e+001  -1.031281e+002 
3131250000  -3.620509e+001  -1.075795e+002 
3134375000  -3.545683e+001  -1.249060e+002 
3137500000  -3.607865e+001  -1.387472e+002 
3140625000  -3.718882e+001  -1.414170e+002 
3143750000  -3.841376e+001  -1.433083e+002 
3146875000  -3.778642e+001  -1.403229e+002 
3150000000  -3.687007e+001  -1.436045e+002 
3153125000  -3.709139e+001  -1.534986e+002 
3156250000  -3.803920e+001  -1.488120e+002 
3159375000  -3.578651e+001  -1.501099e+002 
3162500000  -3.434236e+001  -1.660207e+002 
3165625000  -3.561378e+001  -1.776199e+002 
3168750000  -3.552446e+001  -1.796546e+002 
3171875000  -3.481534e+001  1.735473e+002 
3175000000  -3.551887e+001  1.641093e+002 
3178125000  -3.522591e+001  1.635655e+002 
3181250000  -3.446117e+001  1.551530e+002 
3184375000  -3.407726e+001  1.424736e+002 
3187500000  -3.535584e+001  1.276004e+002 
3190625000  -3.730295e+001  1.207272e+002 
3193750000  -3.770564e+001  1.267238e+002 
3196875000  -3.761913e+001  1.276844e+002 
3200000000  -3.635300e+001  1.236605e+002 
3203125000  -3.588648e+001  1.153602e+002 
3206250000  -3.639399e+001  1.078037e+002 
3209375000  -3.582154e+001  9.993347e+001 
3212500000  -3.628506e+001  9.306389e+001 
3215625000  -3.592867e+001  8.884180e+001 
3218750000  -3.668215e+001  7.876111e+001 
3221875000  -3.744528e+001  7.306914e+001 
3225000000  -3.714754e+001  7.002872e+001 
3228125000  -3.760905e+001  6.173281e+001 
3231250000  -3.825646e+001  5.853992e+001 
3234375000  -3.807228e+001  5.573854e+001 
3237500000  -3.809619e+001  5.194172e+001 
3240625000  -3.769851e+001  4.731004e+001 
3243750000  -3.768631e+001  3.691621e+001 
3246875000  -3.827985e+001  3.033326e+001 
3250000000  -3.869066e+001  2.677437e+001 
3253125000  -3.905643e+001  2.237382e+001 
3256250000  -3.872170e+001  1.500899e+001 
3259375000  -3.916493e+001  4.066488e+000 
3262500000  -4.070283e+001  -1.978773e-001 
3265625000  -4.122935e+001  2.552530e+000 
3268750000  -4.140246e+001  2.993273e+000 
3271875000  -4.083778e+001  5.954900e-001 
3275000000  -4.026603e+001  -7.119087e+000 
3278125000  -4.079235e+001  -1.372974e+001 
3281250000  -4.099925e+001  -1.401148e+001 
3284375000  -4.068270e+001  -1.994398e+001 
3287500000  -4.104081e+001  -2.629926e+001 
3290625000  -4.125469e+001  -3.122138e+001 
3293750000  -4.109328e+001  -3.896787e+001 
3296875000  -4.253108e+001  -3.926577e+001 
3300000000  -4.180249e+001  -3.950242e+001 
3303125000  -4.089777e+001  -4.467022e+001 
3306250000  -4.078784e+001  -5.092931e+001 
3309375000  -4.042931e+001  -6.015508e+001 
3312500000  -4.092378e+001  -7.281367e+001 
3315625000  -4.194727e+001  -7.856227e+001 
3318750000  -4.321404e+001  -8.328767e+001 
3321875000  -4.454937e+001  -7.996040e+001 
3325000000  -4.481055e+001  -7.453845e+001 
3328125000  -4.422690e+001  -7.443505e+001 
3331250000  -4.228461e+001  -6.938053e+001 
3334375000  -3.983971e+001  -8.452601e+001 
3337500000  -4.037067e+001  -1.051007e+002 
3340625000  -4.209505e+001  -1.136088e+002 
3343750000  -4.374305e+001  -1.154028e+002 
3346875000  -4.343566e+001  -1.165494e+002 
3350000000  -4.296700e+001  -1.173504e+002 
3353125000  -4.279890e+001  -1.247163e+002 
3356250000  -4.247980e+001  -1.360011e+002 
3359375000  -4.339853e+001  -1.446237e+002 
3362500000  -4.446125e+001  -1.493413e+002 
3365625000  -4.467938e+001  -1.541343e+002 
3368750000  -4.527308e+001  -1.590904e+002 
3371875000  -4.553897e+001  -1.619340e+002 
3375000000  -4.721508e+001  -1.676514e+002 
3378125000  -4.841534e+001  -1.678204e+002 
3381250000  -4.984475e+001  -1.584920e+002 
3384375000  -4.673165e+001  -1.442841e+002 
3387500000  -4.409942e+001  -1.637742e+002 
3390625000  -4.589196e+001  1.755175e+002 
3393750000  -4.702462e+001  1.784298e+002 
3396875000  -4.602576e+001  1.784116e+002 
3400000000  -4.593112e+001  1.629149e+002 
3403125000  -4.693896e+001  1.594364e+002 
3406250000  -4.724604e+001  1.574107e+002 
3409375000  -4.781333e+001  1.478491e+002 
3412500000  -4.852380e+001  1.417187e+002 
3415625000  -4.953054e+001  1.405244e+002 
3418750000  -5.031815e+001  1.436383e+002 
3421875000  -5.135771e+001  1.486976e+002 
3425000000  -5.029747e+001  1.434781e+002 
3428125000  -5.011166e+001  1.393359e+002 
3431250000  -4.986941e+001  1.309759e+002 
3434375000  -4.988515e+001  1.285829e+002 
3437500000  -5.045610e+001  1.293784e+002 
3440625000  -5.173841e+001  1.273746e+002 
3443750000  -5.052829e+001  1.314789e+002 
3446875000  -5.090270e+001  1.286545e+002 
3450000000  -4.989000e+001  1.215015e+002 
3453125000  -5.019250e+001  1.113373e+002 
3456250000  -5.185220e+001  1.084840e+002 
3459375000  -5.340230e+001  1.068590e+002 
3462500000  -5.254089e+001  1.110827e+002 
3465625000  -5.150422e+001  1.019093e+002 
3468750000  -5.192767e+001  1.086074e+002 
3471875000  -5.191594e+001  1.042382e+002 
3475000000  -5.055677e+001  9.436717e+001 
3478125000  -5.065296e+001  8.735873e+001 
3481250000  -5.262152e+001  8.940623e+001 
3484375000  -5.266124e+001  9.487727e+001 
3487500000  -5.161879e+001  9.054859e+001 
3490625000  -5.052537e+001  8.222158e+001 
3493750000  -5.187946e+001  6.871453e+001 
3496875000  -5.112249e+001  7.237041e+001 
3500000000  -5.170078e+001  7.621755e+001 
3503125000  -5.029499e+001  6.946172e+001 
3506250000  -5.002957e+001  5.952713e+001 
3509375000  -4.923379e+001  5.283810e+001 
3512500000  -5.005429e+001  4.250720e+001 
3515625000  -5.111273e+001  3.340462e+001 
3518750000  -5.208915e+001  3.776212e+001 
3521875000  -5.225771e+001  2.949142e+001 
3525000000  -5.339274e+001  1.997534e+001 
3528125000  -5.262770e+001  2.976555e+001 
3531250000  -5.100670e+001  2.239400e+001 
3534375000  -5.200749e+001  6.653887e+000 
3537500000  -5.358350e+001  -4.803872e+000 
3540625000  -5.316429e+001  5.768300e+000 
3543750000  -5.545037e+001  5.150548e+000 
3546875000  -5.458286e+001  1.256244e+001 
3550000000  -5.369061e+001  4.603040e+000 
3553125000  -5.429266e+001  -8.557796e+000 
3556250000  -5.515588e+001  -9.382195e+000 
3559375000  -5.560166e+001  -1.422248e+001 
3562500000  -5.517582e+001  -1.943212e+001 
3565625000  -5.559933e+001  -2.860729e+001 
3568750000  -5.568383e+001  -1.625976e+001 
3571875000  -5.645947e+001  -1.965995e+001 
3575000000  -5.779441e+001  -1.014375e+001 
3578125000  -5.861573e+001  -2.633460e+001 
3581250000  -5.676579e+001  -1.410754e+001 
3584375000  -5.711002e+001  -1.480379e+001 
3587500000  -5.756065e+001  -2.928697e+001 
3590625000  -5.671326e+001  -2.878808e+001 
3593750000  -5.898576e+001  -2.897537e+001 
3596875000  -5.865355e+001  -2.128210e+001 
3600000000  -5.785354e+001  -2.322756e+001 
3603125000  -5.975293e+001  -3.120923e+001 
3606250000  -5.703744e+001  -3.059247e+001 
3609375000  -5.859367e+001  -3.043816e+001 
3612500000  -5.801746e+001  -2.544436e+001 
3615625000  -5.991932e+001  -2.189473e+001 
3618750000  -5.803044e+001  -3.046224e+001 
3621875000  -5.930043e+001  -2.652493e+001 
3625000000  -5.758072e+001  -1.686996e+001 
3628125000  -5.714721e+001  -2.544902e+001 
3631250000  -5.777940e+001  -2.865666e+001 
3634375000  -5.714865e+001  -2.975913e+001 
3637500000  -5.578472e+001  -2.236415e+001 
3640625000  -5.410946e+001  -1.677316e+001 
3643750000  -5.326621e+001  -2.366016e+001 
3646875000  -5.260896e+001  -3.810182e+001 
3650000000  -5.434154e+001  -4.263750e+001 
3653125000  -5.282571e+001  -3.998054e+001 
3656250000  -5.183863e+001  -4.177069e+001 
3659375000  -5.178601e+001  -3.784367e+001 
3662500000  -5.059272e+001  -4.433495e+001 
3665625000  -4.984074e+001  -5.079469e+001 
3668750000  -4.761703e+001  -4.999604e+001 
3671875000  -4.769864e+001  -6.037885e+001 
3675000000  -4.776173e+001  -6.367260e+001 
3678125000  -4.800278e+001  -6.763035e+001 
3681250000  -4.685063e+001  -7.325092e+001 
3684375000  -4.702522e+001  -7.784548e+001 
3687500000  -4.747191e+001  -8.545094e+001 
3690625000  -4.686316e+001  -8.944834e+001 
3693750000  -4.721085e+001  -9.396342e+001 
3696875000  -4.636342e+001  -9.247968e+001 
3700000000  -4.576015e+001  -9.807664e+001 
3703125000  -4.515998e+001  -1.041373e+002 
3706250000  -4.610907e+001  -1.082063e+002 
3709375000  -4.482779e+001  -1.061046e+002 
3712500000  -4.338059e+001  -1.118152e+002 
3715625000  -4.250068e+001  -1.200139e+002 
3718750000  -4.197479e+001  -1.269183e+002 
3721875000  -4.126628e+001  -1.354339e+002 
3725000000  -4.159330e+001  -1.423430e+002 
3728125000  -4.168439e+001  -1.455861e+002 
3731250000  -4.102105e+001  -1.515643e+002 
3734375000  -4.012558e+001  -1.587476e+002 
3737500000  -4.097269e+001  -1.701834e+002 
3740625000  -4.101988e+001  -1.762818e+002 
3743750000  -4.086318e+001  1.781882e+002 
3746875000  -4.055882e+001  1.716993e+002 
3750000000  -4.099088e+001  1.672673e+002 
3753125000  -4.055334e+001  1.638642e+002 
3756250000  -4.086066e+001  1.608097e+002 
3759375000  -4.058738e+001  1.565554e+002 
3762500000  -4.001305e+001  1.493078e+002 
3765625000  -4.058752e+001  1.441211e+002 
3768750000  -4.029025e+001  1.447321e+002 
3771875000  -3.855235e+001  1.365977e+002 
3775000000  -3.864542e+001  1.258032e+002 
3778125000  -3.916471e+001  1.199728e+002 
3781250000  -3.895813e+001  1.153841e+002 
3784375000  -3.883707e+001  1.093601e+002 
3787500000  -3.848375e+001  1.033125e+002 
3790625000  -3.922974e+001  9.340257e+001 
3793750000  -3.936739e+001  9.111658e+001 
3796875000  -3.832835e+001  8.717358e+001 
3800000000  -3.653610e+001  8.372255e+001 
3803125000  -3.811248e+001  6.972107e+001 
3806250000  -3.894323e+001  6.526226e+001 
3809375000  -3.876661e+001  6.107233e+001 
3812500000  -3.839061e+001  5.243148e+001 
3815625000  -3.975107e+001  4.311291e+001 
3818750000  -4.037469e+001  4.200258e+001 
3821875000  -4.030112e+001  5.337444e+001 
3825000000  -3.854019e+001  4.852142e+001 
3828125000  -3.722688e+001  3.161961e+001 
3831250000  -3.801930e+001  1.772496e+001 
3834375000  -4.033886e+001  1.615579e+001 
3837500000  -4.064145e+001  1.924018e+001 
3840625000  -3.944982e+001  1.690442e+001 
3843750000  -3.834876e+001  2.673963e+000 
3846875000  -3.969805e+001  -3.655865e+000 
3850000000  -4.107322e+001  8.946485e-001 
3853125000  -3.960071e+001  9.639240e-001 
3856250000  -3.960897e+001  -5.484877e+000 
3859375000  -3.860696e+001  -1.293492e+001 
3862500000  -3.871202e+001  -2.156993e+001 
3865625000  -3.917019e+001  -2.806539e+001 
3868750000  -3.904899e+001  -2.973365e+001 
3871875000  -3.820969e+001  -3.630945e+001 
3875000000  -3.877189e+001  -4.479802e+001 
3878125000  -3.941689e+001  -4.822762e+001 
3881250000  -3.945979e+001  -4.746738e+001 
3884375000  -3.887348e+001  -5.423540e+001 
3887500000  -3.905841e+001  -6.106826e+001 
3890625000  -3.953180e+001  -6.846551e+001 
3893750000  -3.985113e+001  -6.968649e+001 
3896875000  -3.969569e+001  -7.142391e+001 
3900000000  -3.969772e+001  -7.388454e+001 
3903125000  -3.958166e+001  -7.982333e+001 
3906250000  -3.898470e+001  -8.144367e+001 
3909375000  -3.832544e+001  -9.193714e+001 
3912500000  -3.897155e+001  -1.025757e+002 
3915625000  -4.031854e+001  -1.019502e+002 
3918750000  -4.018720e+001  -1.022648e+002 
3921875000  -3.937534e+001  -1.055909e+002 
3925000000  -3.863666e+001  -1.107545e+002 
3928125000  -3.854894e+001  -1.207400e+002 
3931250000  -3.891701e+001  -1.276859e+002 
3934375000  -3.949882e+001  -1.302500e+002 
3937500000  -4.002010e+001  -1.313761e+002 
3940625000  -3.969308e+001  -1.322539e+002 
3943750000  -3.867735e+001  -1.366098e+002 
3946875000  -3.829792e+001  -1.445331e+002 
3950000000  -3.932793e+001  -1.516982e+002 
3953125000  -3.986723e+001  -1.556299e+002 
3956250000  -3.862015e+001  -1.530413e+002 
3959375000  -3.776849e+001  -1.594291e+002 
3962500000  -3.766019e+001  -1.679181e+002 
3965625000  -3.765390e+001  -1.763912e+002 
3968750000  -3.838669e+001  1.740641e+002 
3971875000  -3.908096e+001  1.701040e+002 
3975000000  -3.834468e+001  1.658789e+002 
3978125000  -3.841010e+001  1.625206e+002 
3981250000  -3.830889e+001  1.560630e+002 
3984375000  -3.894412e+001  1.475229e+002 
3987500000  -3.955196e+001  1.431756e+002 
3990625000  -3.994692e+001  1.409498e+002 
3993750000  -3.962886e+001  1.376868e+002 
3996875000  -3.985655e+001  1.321020e+002 
4000000000  -4.036097e+001  1.268586e+002 
4003125000  -4.109469e+001  1.303189e+002 
4006250000  -3.925231e+001  1.280943e+002 
4009375000  -3.855945e+001  1.136054e+002 
4012500000  -3.996455e+001  1.054663e+002 
4015625000  -4.143298e+001  1.046377e+002 
4018750000  -4.144820e+001  1.057176e+002 
4021875000  -4.063899e+001  1.040556e+002 
4025000000  -4.014956e+001  9.660843e+001 
4028125000  -4.029565e+001  9.021922e+001 
4031250000  -4.088594e+001  8.518896e+001 
4034375000  -4.132663e+001  8.619127e+001 
4037500000  -4.117052e+001  8.678969e+001 
4040625000  -4.096957e+001  8.193123e+001 
4043750000  -4.103326e+001  7.883605e+001 
4046875000  -4.053357e+001  7.526724e+001 
4050000000  -4.023810e+001  6.899572e+001 
4053125000  -4.109262e+001  6.797927e+001 
4056250000  -4.115268e+001  7.145499e+001 
4059375000  -3.948529e+001  6.808617e+001 
4062500000  -3.877650e+001  5.856462e+001 
4065625000  -3.872843e+001  5.666699e+001 
4068750000  -3.832884e+001  4.942087e+001 
4071875000  -3.747943e+001  3.741751e+001 
4075000000  -3.822356e+001  3.099676e+001 
4078125000  -3.818909e+001  2.882785e+001 
4081250000  -3.807018e+001  2.260762e+001 
4084375000  -3.799664e+001  1.205139e+001 
4087500000  -3.827911e+001  6.176932e+000 
4090625000  -3.886351e+001  4.454146e+000 
4093750000  -3.840276e+001  2.716846e+000 
4096875000  -3.839349e+001  -7.482382e+000 
4100000000  -3.929470e+001  -1.449010e+001 
4103125000  -3.997676e+001  -1.408900e+001 
4106250000  -3.983719e+001  -1.197362e+001 
4109375000  -3.913203e+001  -1.265068e+001 
4112500000  -3.852298e+001  -2.323394e+001 
4115625000  -3.883921e+001  -2.992644e+001 
4118750000  -3.869467e+001  -3.316826e+001 
4121875000  -3.863955e+001  -4.143681e+001 
4125000000  -3.943757e+001  -4.778125e+001 
4128125000  -4.070718e+001  -4.611595e+001 
4131250000  -3.970871e+001  -3.934370e+001 
4134375000  -3.744651e+001  -5.044288e+001 
4137500000  -3.773390e+001  -7.109900e+001 
4140625000  -4.010083e+001  -7.881429e+001 
4143750000  -4.112366e+001  -7.231400e+001 
4146875000  -4.020830e+001  -6.675696e+001 
4150000000  -3.903545e+001  -7.449258e+001 
4153125000  -3.959928e+001  -8.401884e+001 
4156250000  -4.067559e+001  -8.901776e+001 
4159375000  -4.083652e+001  -8.339157e+001 
4162500000  -3.967378e+001  -8.125594e+001 
4165625000  -3.831213e+001  -8.819881e+001 
4168750000  -3.833461e+001  -9.597633e+001 
4171875000  -3.816353e+001  -1.076796e+002 
4175000000  -3.877277e+001  -1.144672e+002 
4178125000  -3.937289e+001  -1.139742e+002 
4181250000  -3.890547e+001  -1.193330e+002 
4184375000  -3.916784e+001  -1.232418e+002 
4187500000  -3.914346e+001  -1.277099e+002 
4190625000  -3.902613e+001  -1.356612e+002 
4193750000  -3.990296e+001  -1.416080e+002 
4196875000  -4.098692e+001  -1.416091e+002 
4200000000  -4.173971e+001  -1.393099e+002 
4203125000  -4.082754e+001  -1.253452e+002 
4206250000  -3.723088e+001  -1.318320e+002 
4209375000  -3.673523e+001  -1.550629e+002 
4212500000  -3.909464e+001  -1.627379e+002 
4215625000  -3.973465e+001  -1.554453e+002 
4218750000  -3.797366e+001  -1.544116e+002 
4221875000  -3.595337e+001  -1.641327e+002 
4225000000  -3.728329e+001  -1.771370e+002 
4228125000  -3.770295e+001  -1.755379e+002 
4231250000  -3.594354e+001  1.756637e+002 
4234375000  -3.606030e+001  1.667152e+002 
4237500000  -3.567953e+001  1.625287e+002 
4240625000  -3.596362e+001  1.497669e+002 
4243750000  -3.683453e+001  1.419506e+002 
4246875000  -3.773327e+001  1.406211e+002 
4250000000  -3.764819e+001  1.409546e+002 
4253125000  -3.744163e+001  1.371866e+002 
4256250000  -3.746921e+001  1.326894e+002 
4259375000  -3.722383e+001  1.276520e+002 
4262500000  -3.722127e+001  1.215133e+002 
4265625000  -3.747765e+001  1.205906e+002 
4268750000  -3.659160e+001  1.132534e+002 
4271875000  -3.631517e+001  1.041688e+002 
4275000000  -3.575196e+001  9.563726e+001 
4278125000  -3.678196e+001  8.296432e+001 
4281250000  -3.826049e+001  8.197934e+001 
4284375000  -3.833621e+001  7.869885e+001 
4287500000  -3.959955e+001  7.657273e+001 
4290625000  -4.027256e+001  8.351704e+001 
4293750000  -3.830634e+001  8.504586e+001 
4296875000  -3.713477e+001  7.285236e+001 
4300000000  -3.835984e+001  6.063290e+001 
4303125000  -3.875020e+001  6.554936e+001 
4306250000  -3.800148e+001  6.643920e+001 
4309375000  -3.701972e+001  6.043732e+001 
4312500000  -3.733284e+001  5.137603e+001 
4315625000  -3.746926e+001  4.259407e+001 
4318750000  -3.800539e+001  3.895838e+001 
4321875000  -3.810934e+001  3.819667e+001 
4325000000  -3.737666e+001  3.710439e+001 
4328125000  -3.678234e+001  2.772290e+001 
4331250000  -3.721749e+001  1.804388e+001 
4334375000  -3.772361e+001  1.120910e+001 
4337500000  -3.864859e+001  8.413706e+000 
4340625000  -3.914629e+001  1.428158e+001 
4343750000  -3.799490e+001  1.138399e+001 
4346875000  -3.771710e+001  3.692601e+000 
4350000000  -3.752346e+001  -4.804389e+000 
4353125000  -3.805068e+001  -1.253559e+001 
4356250000  -4.016838e+001  -1.151979e+001 
4359375000  -3.982542e+001  2.037406e+000 
4362500000  -3.637157e+001  -4.351323e+000 
4365625000  -3.556801e+001  -2.018593e+001 
4368750000  -3.660682e+001  -2.963208e+001 
4371875000  -3.733350e+001  -3.149104e+001 
4375000000  -3.682896e+001  -3.603799e+001 
4378125000  -3.626191e+001  -4.272119e+001 
4381250000  -3.645428e+001  -5.047617e+001 
4384375000  -3.657004e+001  -5.472145e+001 
4387500000  -3.711258e+001  -6.361245e+001 
4390625000  -3.804955e+001  -6.284475e+001 
4393750000  -3.743047e+001  -6.257309e+001 
4396875000  -3.677275e+001  -6.842317e+001 
4400000000  -3.636962e+001  -7.811633e+001 
4403125000  -3.719619e+001  -8.658054e+001 
4406250000  -3.778604e+001  -8.933076e+001 
4409375000  -3.805185e+001  -9.552062e+001 
4412500000  -3.882002e+001  -9.812048e+001 
4415625000  -3.894068e+001  -9.483115e+001 
