!Agilent Technologies,E8363B,MY43030201,A.06.04.32
!Agilent E8363B: A.06.04.32
!Date: Tuesday, November 11, 2014 21:26:32
!Correction: S21(Response(S21)) 
!S1P File: Measurement: S21:
# Hz S  dB   R 50
3000000000  -4.044831e+001  9.529232e+001 
3003125000  -4.227272e+001  8.805769e+001 
3006250000  -4.210011e+001  8.631019e+001 
3009375000  -4.255421e+001  8.957895e+001 
3012500000  -4.160930e+001  8.658852e+001 
3015625000  -4.132014e+001  7.944547e+001 
3018750000  -4.187923e+001  7.903912e+001 
3021875000  -4.038342e+001  8.117635e+001 
3025000000  -3.903360e+001  7.746714e+001 
3028125000  -3.811558e+001  6.765281e+001 
3031250000  -3.700051e+001  5.579749e+001 
3034375000  -3.677353e+001  4.162554e+001 
3037500000  -3.753984e+001  3.059140e+001 
3040625000  -3.861752e+001  2.518389e+001 
3043750000  -3.916199e+001  1.893297e+001 
3046875000  -3.952628e+001  1.292021e+001 
3050000000  -4.099556e+001  6.535772e+000 
3053125000  -4.074672e+001  1.249806e+001 
3056250000  -4.031860e+001  1.542941e+001 
3059375000  -3.983473e+001  1.421192e+001 
3062500000  -3.844020e+001  8.399157e+000 
3065625000  -3.804912e+001  1.612168e-003 
3068750000  -3.745335e+001  -8.406463e+000 
3071875000  -3.758411e+001  -1.084379e+001 
3075000000  -3.720495e+001  -1.698537e+001 
3078125000  -3.703239e+001  -2.305124e+001 
3081250000  -3.731362e+001  -2.928434e+001 
3084375000  -3.640813e+001  -3.402217e+001 
3087500000  -3.640670e+001  -4.021260e+001 
3090625000  -3.598656e+001  -5.219685e+001 
3093750000  -3.690686e+001  -6.107627e+001 
3096875000  -3.741200e+001  -6.657719e+001 
3100000000  -3.730297e+001  -6.923476e+001 
3103125000  -3.763951e+001  -7.241203e+001 
3106250000  -3.729416e+001  -7.667867e+001 
3109375000  -3.731793e+001  -8.229073e+001 
3112500000  -3.724342e+001  -8.739363e+001 
3115625000  -3.711242e+001  -9.222707e+001 
3118750000  -3.719109e+001  -9.437237e+001 
3121875000  -3.646871e+001  -1.056591e+002 
3125000000  -3.825251e+001  -1.099792e+002 
3128125000  -3.862527e+001  -1.018931e+002 
3131250000  -3.620293e+001  -1.079723e+002 
3134375000  -3.538145e+001  -1.249369e+002 
3137500000  -3.605458e+001  -1.385288e+002 
3140625000  -3.751854e+001  -1.403997e+002 
3143750000  -3.818002e+001  -1.420166e+002 
3146875000  -3.778108e+001  -1.403275e+002 
3150000000  -3.697585e+001  -1.433138e+002 
3153125000  -3.722082e+001  -1.529709e+002 
3156250000  -3.817367e+001  -1.490273e+002 
3159375000  -3.594024e+001  -1.505915e+002 
3162500000  -3.428373e+001  -1.651685e+002 
3165625000  -3.550102e+001  -1.786319e+002 
3168750000  -3.557971e+001  -1.789954e+002 
3171875000  -3.485630e+001  1.732877e+002 
3175000000  -3.558389e+001  1.641425e+002 
3178125000  -3.520070e+001  1.626058e+002 
3181250000  -3.436703e+001  1.549480e+002 
3184375000  -3.401331e+001  1.431619e+002 
3187500000  -3.532707e+001  1.276984e+002 
3190625000  -3.750575e+001  1.206308e+002 
3193750000  -3.757901e+001  1.274126e+002 
3196875000  -3.742978e+001  1.274780e+002 
3200000000  -3.632829e+001  1.237659e+002 
3203125000  -3.590288e+001  1.153035e+002 
3206250000  -3.621444e+001  1.075433e+002 
3209375000  -3.578093e+001  9.940528e+001 
3212500000  -3.623707e+001  9.248930e+001 
3215625000  -3.607413e+001  8.963949e+001 
3218750000  -3.686960e+001  7.905515e+001 
3221875000  -3.742001e+001  7.233292e+001 
3225000000  -3.709930e+001  6.805363e+001 
3228125000  -3.768691e+001  6.101938e+001 
3231250000  -3.828368e+001  5.887659e+001 
3234375000  -3.792798e+001  5.585456e+001 
3237500000  -3.818118e+001  5.185006e+001 
3240625000  -3.779278e+001  4.724121e+001 
3243750000  -3.758036e+001  3.652542e+001 
3246875000  -3.836149e+001  2.957781e+001 
3250000000  -3.890681e+001  2.595209e+001 
3253125000  -3.908555e+001  2.135907e+001 
3256250000  -3.865085e+001  1.356645e+001 
3259375000  -3.911551e+001  4.446754e+000 
3262500000  -4.069663e+001  -2.003635e-001 
3265625000  -4.132950e+001  2.097234e+000 
3268750000  -4.133415e+001  4.331249e+000 
3271875000  -4.081357e+001  -4.997354e-001 
3275000000  -4.009832e+001  -8.340647e+000 
3278125000  -4.093673e+001  -1.434214e+001 
3281250000  -4.106924e+001  -1.449881e+001 
3284375000  -4.073093e+001  -2.137906e+001 
3287500000  -4.091132e+001  -2.400912e+001 
3290625000  -4.145348e+001  -3.275477e+001 
3293750000  -4.111786e+001  -3.872018e+001 
3296875000  -4.250701e+001  -3.959420e+001 
3300000000  -4.207687e+001  -3.954915e+001 
3303125000  -4.101804e+001  -4.615904e+001 
3306250000  -4.112888e+001  -5.286526e+001 
3309375000  -4.058200e+001  -5.987724e+001 
3312500000  -4.077411e+001  -7.202386e+001 
3315625000  -4.206640e+001  -7.866739e+001 
3318750000  -4.353020e+001  -8.421213e+001 
3321875000  -4.532569e+001  -7.868586e+001 
3325000000  -4.495080e+001  -7.506545e+001 
3328125000  -4.414304e+001  -7.437402e+001 
3331250000  -4.254204e+001  -6.968488e+001 
3334375000  -4.001739e+001  -8.531826e+001 
3337500000  -4.035484e+001  -1.055986e+002 
3340625000  -4.237791e+001  -1.176688e+002 
3343750000  -4.407743e+001  -1.167693e+002 
3346875000  -4.382066e+001  -1.188133e+002 
3350000000  -4.325044e+001  -1.187014e+002 
3353125000  -4.291860e+001  -1.256491e+002 
3356250000  -4.284082e+001  -1.348798e+002 
3359375000  -4.337524e+001  -1.438457e+002 
3362500000  -4.447250e+001  -1.510715e+002 
3365625000  -4.476182e+001  -1.561749e+002 
3368750000  -4.539771e+001  -1.587720e+002 
3371875000  -4.576192e+001  -1.627389e+002 
3375000000  -4.736858e+001  -1.663264e+002 
3378125000  -4.841909e+001  -1.695412e+002 
3381250000  -4.971438e+001  -1.580447e+002 
3384375000  -4.715695e+001  -1.460595e+002 
3387500000  -4.380439e+001  -1.618935e+002 
3390625000  -4.595234e+001  1.761474e+002 
3393750000  -4.761444e+001  1.739528e+002 
3396875000  -4.595985e+001  1.775974e+002 
3400000000  -4.621259e+001  1.632829e+002 
3403125000  -4.708957e+001  1.571907e+002 
3406250000  -4.773273e+001  1.555081e+002 
3409375000  -4.784252e+001  1.470831e+002 
3412500000  -4.900058e+001  1.427871e+002 
3415625000  -4.953147e+001  1.400503e+002 
3418750000  -5.058279e+001  1.418206e+002 
3421875000  -5.166420e+001  1.495397e+002 
3425000000  -5.051558e+001  1.440088e+002 
3428125000  -5.014545e+001  1.377460e+002 
3431250000  -5.013880e+001  1.282537e+002 
3434375000  -5.100272e+001  1.268037e+002 
3437500000  -5.192330e+001  1.251316e+002 
3440625000  -5.213416e+001  1.252232e+002 
3443750000  -5.184298e+001  1.302340e+002 
3446875000  -5.103887e+001  1.248574e+002 
3450000000  -5.067334e+001  1.156896e+002 
3453125000  -5.068000e+001  1.065369e+002 
3456250000  -5.332085e+001  1.097495e+002 
3459375000  -5.301147e+001  1.121346e+002 
3462500000  -5.256017e+001  1.165211e+002 
3465625000  -5.173027e+001  1.044116e+002 
3468750000  -5.278189e+001  1.051356e+002 
3471875000  -5.231279e+001  1.038787e+002 
3475000000  -5.170321e+001  9.678535e+001 
3478125000  -5.194209e+001  8.511369e+001 
3481250000  -5.281505e+001  8.622585e+001 
3484375000  -5.329193e+001  9.330221e+001 
3487500000  -5.194196e+001  8.778022e+001 
3490625000  -5.114194e+001  7.822787e+001 
3493750000  -5.179869e+001  7.864764e+001 
3496875000  -5.197878e+001  7.544322e+001 
3500000000  -5.312524e+001  7.158202e+001 
3503125000  -5.127563e+001  7.064085e+001 
3506250000  -5.035982e+001  5.879851e+001 
3509375000  -5.053598e+001  5.412801e+001 
3512500000  -5.066528e+001  4.065219e+001 
3515625000  -5.136575e+001  3.343252e+001 
3518750000  -5.213673e+001  4.215894e+001 
3521875000  -5.275538e+001  2.853863e+001 
3525000000  -5.421855e+001  2.247046e+001 
3528125000  -5.304113e+001  3.210590e+001 
3531250000  -5.197635e+001  2.271465e+001 
3534375000  -5.295184e+001  1.027271e+001 
3537500000  -5.474319e+001  3.238337e+000 
3540625000  -5.492140e+001  1.540280e+000 
3543750000  -5.656602e+001  8.767513e+000 
3546875000  -5.575425e+001  1.531141e+001 
3550000000  -5.383121e+001  1.409950e+001 
3553125000  -5.377748e+001  -1.237302e+001 
3556250000  -5.675351e+001  -1.280033e+001 
3559375000  -5.668321e+001  -9.851365e+000 
3562500000  -5.722103e+001  -2.575039e+001 
3565625000  -5.717096e+001  -2.651135e+001 
3568750000  -5.704118e+001  -2.279220e+001 
3571875000  -5.980956e+001  -1.580637e+001 
3575000000  -5.899933e+001  -1.583103e+001 
3578125000  -5.903296e+001  -1.940134e+001 
3581250000  -5.867093e+001  -1.224286e+001 
3584375000  -5.916739e+001  -4.690505e+000 
3587500000  -5.716305e+001  -5.599044e+000 
3590625000  -5.781957e+001  -2.098264e+001 
3593750000  -6.222070e+001  -2.109748e+001 
3596875000  -5.949596e+001  -5.341866e+000 
3600000000  -5.790588e+001  -1.049887e-002 
3603125000  -5.827367e+001  -2.920976e+001 
3606250000  -5.789697e+001  -2.426212e+001 
3609375000  -5.858801e+001  -1.020816e+001 
3612500000  -5.896843e+001  -1.218831e+001 
3615625000  -5.968406e+001  -2.236810e+001 
3618750000  -5.954235e+001  -7.869415e+000 
3621875000  -5.656526e+001  -1.653639e+001 
3625000000  -5.818451e+001  -1.010507e+001 
3628125000  -5.722822e+001  -1.218356e-001 
3631250000  -5.576377e+001  -2.934573e+001 
3634375000  -5.805720e+001  -2.594493e+001 
3637500000  -5.552027e+001  -1.944575e+001 
3640625000  -5.335575e+001  -1.303921e+001 
3643750000  -5.249057e+001  -1.804219e+001 
3646875000  -5.338464e+001  -3.415726e+001 
3650000000  -5.347430e+001  -3.146024e+001 
3653125000  -5.202583e+001  -3.541951e+001 
3656250000  -5.158839e+001  -3.795336e+001 
3659375000  -5.126663e+001  -4.007253e+001 
3662500000  -5.084238e+001  -4.591864e+001 
3665625000  -5.002162e+001  -4.465915e+001 
3668750000  -4.843960e+001  -4.410318e+001 
3671875000  -4.758686e+001  -5.539517e+001 
3675000000  -4.724747e+001  -6.630532e+001 
3678125000  -4.726908e+001  -7.040215e+001 
3681250000  -4.651186e+001  -7.579926e+001 
3684375000  -4.670359e+001  -8.062701e+001 
3687500000  -4.650227e+001  -8.475044e+001 
3690625000  -4.654082e+001  -9.460808e+001 
3693750000  -4.691391e+001  -9.214362e+001 
3696875000  -4.591722e+001  -9.363325e+001 
3700000000  -4.535207e+001  -1.017966e+002 
3703125000  -4.512799e+001  -1.046860e+002 
3706250000  -4.604498e+001  -1.065142e+002 
3709375000  -4.459214e+001  -1.038208e+002 
3712500000  -4.333313e+001  -1.089341e+002 
3715625000  -4.209787e+001  -1.195764e+002 
3718750000  -4.169607e+001  -1.278746e+002 
3721875000  -4.148660e+001  -1.370067e+002 
3725000000  -4.143692e+001  -1.439025e+002 
3728125000  -4.155500e+001  -1.461051e+002 
3731250000  -4.063480e+001  -1.513766e+002 
3734375000  -3.987769e+001  -1.602054e+002 
3737500000  -4.101419e+001  -1.685105e+002 
3740625000  -4.073658e+001  -1.747202e+002 
3743750000  -4.064144e+001  -1.797949e+002 
3746875000  -4.068506e+001  1.718518e+002 
3750000000  -4.101727e+001  1.661689e+002 
3753125000  -4.072490e+001  1.634824e+002 
3756250000  -4.076519e+001  1.605098e+002 
3759375000  -4.034941e+001  1.560855e+002 
3762500000  -3.998208e+001  1.486404e+002 
3765625000  -4.044784e+001  1.432962e+002 
3768750000  -4.031384e+001  1.450636e+002 
3771875000  -3.854490e+001  1.362296e+002 
3775000000  -3.871940e+001  1.261899e+002 
3778125000  -3.910749e+001  1.200547e+002 
3781250000  -3.909746e+001  1.161298e+002 
3784375000  -3.899884e+001  1.092019e+002 
3787500000  -3.869805e+001  1.036084e+002 
3790625000  -3.911072e+001  9.313450e+001 
3793750000  -3.911261e+001  9.064826e+001 
3796875000  -3.831765e+001  8.744814e+001 
3800000000  -3.637654e+001  8.312331e+001 
3803125000  -3.811385e+001  7.057516e+001 
3806250000  -3.894668e+001  6.619255e+001 
3809375000  -3.878160e+001  6.138149e+001 
3812500000  -3.856565e+001  5.280073e+001 
3815625000  -3.959441e+001  4.480199e+001 
3818750000  -4.060507e+001  4.296185e+001 
3821875000  -4.032420e+001  5.221130e+001 
3825000000  -3.873532e+001  5.049249e+001 
3828125000  -3.731011e+001  3.367510e+001 
3831250000  -3.817858e+001  1.741080e+001 
3834375000  -4.011279e+001  1.599062e+001 
3837500000  -4.060649e+001  1.958611e+001 
3840625000  -3.927663e+001  1.781162e+001 
3843750000  -3.829197e+001  3.981684e+000 
3846875000  -3.982153e+001  -5.010523e+000 
3850000000  -4.099699e+001  -4.733827e-001 
3853125000  -3.995128e+001  2.165314e+000 
3856250000  -3.962537e+001  -5.351976e+000 
3859375000  -3.890123e+001  -1.174399e+001 
3862500000  -3.861047e+001  -2.200092e+001 
3865625000  -3.910925e+001  -2.710569e+001 
3868750000  -3.900475e+001  -2.902710e+001 
3871875000  -3.832058e+001  -3.428943e+001 
3875000000  -3.827015e+001  -4.559734e+001 
3878125000  -3.955777e+001  -4.793556e+001 
3881250000  -3.959681e+001  -4.721891e+001 
3884375000  -3.874418e+001  -5.536021e+001 
3887500000  -3.913519e+001  -6.226449e+001 
3890625000  -3.964081e+001  -6.719563e+001 
3893750000  -3.980121e+001  -6.749287e+001 
3896875000  -3.992217e+001  -7.084032e+001 
3900000000  -4.006770e+001  -7.400800e+001 
3903125000  -3.956594e+001  -8.013648e+001 
3906250000  -3.912315e+001  -8.279887e+001 
3909375000  -3.865568e+001  -9.113290e+001 
3912500000  -3.903391e+001  -1.010454e+002 
3915625000  -4.066054e+001  -1.005060e+002 
3918750000  -4.025348e+001  -1.021424e+002 
3921875000  -3.951967e+001  -1.071450e+002 
3925000000  -3.865054e+001  -1.112269e+002 
3928125000  -3.839833e+001  -1.224201e+002 
3931250000  -3.916676e+001  -1.289993e+002 
3934375000  -3.957241e+001  -1.290573e+002 
3937500000  -3.998046e+001  -1.323100e+002 
3940625000  -4.013141e+001  -1.335510e+002 
3943750000  -3.874631e+001  -1.356359e+002 
3946875000  -3.857423e+001  -1.467262e+002 
3950000000  -3.936890e+001  -1.541768e+002 
3953125000  -4.035122e+001  -1.546386e+002 
3956250000  -3.900661e+001  -1.560216e+002 
3959375000  -3.788517e+001  -1.598101e+002 
3962500000  -3.769501e+001  -1.686376e+002 
3965625000  -3.775428e+001  -1.786015e+002 
3968750000  -3.879346e+001  1.740317e+002 
3971875000  -3.900862e+001  1.685460e+002 
3975000000  -3.847746e+001  1.658892e+002 
3978125000  -3.858530e+001  1.623987e+002 
3981250000  -3.859294e+001  1.550167e+002 
3984375000  -3.917110e+001  1.465568e+002 
3987500000  -3.983001e+001  1.444944e+002 
3990625000  -3.988166e+001  1.398592e+002 
3993750000  -4.017268e+001  1.372744e+002 
3996875000  -4.026719e+001  1.322543e+002 
4000000000  -4.083611e+001  1.274897e+002 
4003125000  -4.130183e+001  1.310164e+002 
4006250000  -3.955756e+001  1.267134e+002 
4009375000  -3.905962e+001  1.134090e+002 
4012500000  -4.024817e+001  1.051323e+002 
4015625000  -4.144849e+001  1.041333e+002 
4018750000  -4.153248e+001  1.050145e+002 
4021875000  -4.109780e+001  1.007372e+002 
4025000000  -4.049163e+001  9.703821e+001 
4028125000  -4.071558e+001  9.180937e+001 
4031250000  -4.127441e+001  8.511118e+001 
4034375000  -4.163444e+001  8.517528e+001 
4037500000  -4.154776e+001  8.656965e+001 
4040625000  -4.106899e+001  8.077250e+001 
4043750000  -4.142164e+001  7.847685e+001 
4046875000  -4.083011e+001  7.417110e+001 
4050000000  -4.048109e+001  7.134959e+001 
4053125000  -4.134318e+001  6.589343e+001 
4056250000  -4.157849e+001  7.014473e+001 
4059375000  -3.997121e+001  6.740331e+001 
4062500000  -3.897882e+001  5.857942e+001 
4065625000  -3.896716e+001  5.533414e+001 
4068750000  -3.814501e+001  4.825945e+001 
4071875000  -3.814371e+001  3.720566e+001 
4075000000  -3.839937e+001  2.992342e+001 
4078125000  -3.891537e+001  2.690034e+001 
4081250000  -3.840603e+001  2.286191e+001 
4084375000  -3.824620e+001  1.222671e+001 
4087500000  -3.879794e+001  5.693949e+000 
4090625000  -3.926320e+001  4.170981e+000 
4093750000  -3.895607e+001  2.041454e+000 
4096875000  -3.876041e+001  -9.261353e+000 
4100000000  -3.950800e+001  -1.419038e+001 
4103125000  -4.060104e+001  -1.260730e+001 
4106250000  -4.008757e+001  -1.125189e+001 
4109375000  -3.940503e+001  -1.312418e+001 
4112500000  -3.853443e+001  -2.313068e+001 
4115625000  -3.914639e+001  -2.986052e+001 
4118750000  -3.890251e+001  -3.534797e+001 
4121875000  -3.914905e+001  -4.285672e+001 
4125000000  -3.976094e+001  -4.770868e+001 
4128125000  -4.106229e+001  -4.610258e+001 
4131250000  -3.994006e+001  -4.170926e+001 
4134375000  -3.775319e+001  -5.052560e+001 
4137500000  -3.818311e+001  -7.187233e+001 
4140625000  -4.051155e+001  -7.745837e+001 
4143750000  -4.170057e+001  -7.020714e+001 
4146875000  -4.079503e+001  -6.817879e+001 
4150000000  -3.976962e+001  -7.513779e+001 
4153125000  -4.014209e+001  -8.280904e+001 
4156250000  -4.098982e+001  -8.896428e+001 
4159375000  -4.111724e+001  -8.246877e+001 
4162500000  -4.009740e+001  -8.242650e+001 
4165625000  -3.916131e+001  -8.764294e+001 
4168750000  -3.863110e+001  -9.712623e+001 
4171875000  -3.874367e+001  -1.074776e+002 
4175000000  -3.952316e+001  -1.127802e+002 
4178125000  -3.993779e+001  -1.152040e+002 
4181250000  -3.978754e+001  -1.183760e+002 
4184375000  -3.938317e+001  -1.236630e+002 
4187500000  -3.964337e+001  -1.277002e+002 
4190625000  -3.948107e+001  -1.348174e+002 
4193750000  -4.035160e+001  -1.389644e+002 
4196875000  -4.139094e+001  -1.423411e+002 
4200000000  -4.258895e+001  -1.368238e+002 
4203125000  -4.176124e+001  -1.246823e+002 
4206250000  -3.793946e+001  -1.305010e+002 
4209375000  -3.735886e+001  -1.552081e+002 
4212500000  -3.969395e+001  -1.650667e+002 
4215625000  -4.030841e+001  -1.577413e+002 
4218750000  -3.853239e+001  -1.547625e+002 
4221875000  -3.664245e+001  -1.636456e+002 
4225000000  -3.827041e+001  -1.761807e+002 
4228125000  -3.816082e+001  -1.755495e+002 
4231250000  -3.651838e+001  1.796669e+002 
4234375000  -3.669878e+001  1.668024e+002 
4237500000  -3.640198e+001  1.610289e+002 
4240625000  -3.668699e+001  1.512717e+002 
4243750000  -3.756472e+001  1.430802e+002 
4246875000  -3.850050e+001  1.407545e+002 
4250000000  -3.855089e+001  1.415829e+002 
4253125000  -3.819025e+001  1.379715e+002 
4256250000  -3.810276e+001  1.344984e+002 
4259375000  -3.764236e+001  1.261973e+002 
4262500000  -3.802112e+001  1.232873e+002 
4265625000  -3.820720e+001  1.198756e+002 
4268750000  -3.725936e+001  1.132215e+002 
4271875000  -3.691282e+001  1.057029e+002 
4275000000  -3.666695e+001  9.695882e+001 
4278125000  -3.781939e+001  8.364908e+001 
4281250000  -3.911667e+001  8.143160e+001 
4284375000  -3.899423e+001  8.075532e+001 
4287500000  -4.019540e+001  7.575250e+001 
4290625000  -4.121621e+001  8.632755e+001 
4293750000  -3.891423e+001  8.632409e+001 
4296875000  -3.802097e+001  7.118903e+001 
4300000000  -3.910547e+001  6.277231e+001 
4303125000  -3.973703e+001  6.446450e+001 
4306250000  -3.885816e+001  6.856074e+001 
4309375000  -3.790998e+001  6.282650e+001 
4312500000  -3.780313e+001  5.177443e+001 
4315625000  -3.820686e+001  4.520201e+001 
4318750000  -3.891430e+001  3.887410e+001 
4321875000  -3.864612e+001  4.012805e+001 
4325000000  -3.824942e+001  3.976587e+001 
4328125000  -3.754975e+001  3.048640e+001 
4331250000  -3.771900e+001  2.005906e+001 
4334375000  -3.850885e+001  1.317765e+001 
4337500000  -3.947737e+001  1.155109e+001 
4340625000  -3.974649e+001  1.453762e+001 
4343750000  -3.896193e+001  1.345410e+001 
4346875000  -3.860316e+001  5.426754e+000 
4350000000  -3.851453e+001  -3.461646e+000 
4353125000  -3.904167e+001  -1.016516e+001 
4356250000  -4.177789e+001  -7.162101e+000 
4359375000  -4.033686e+001  5.980783e+000 
4362500000  -3.711233e+001  2.030466e-001 
4365625000  -3.613472e+001  -1.851763e+001 
4368750000  -3.747048e+001  -2.861371e+001 
4371875000  -3.836507e+001  -3.001217e+001 
4375000000  -3.771378e+001  -3.169707e+001 
4378125000  -3.715722e+001  -3.953974e+001 
4381250000  -3.749855e+001  -4.697202e+001 
4384375000  -3.750235e+001  -5.323006e+001 
4387500000  -3.837490e+001  -6.050836e+001 
4390625000  -3.891920e+001  -6.000312e+001 
4393750000  -3.833600e+001  -6.217924e+001 
4396875000  -3.756047e+001  -6.459995e+001 
4400000000  -3.731100e+001  -7.548242e+001 
4403125000  -3.805925e+001  -8.450053e+001 
4406250000  -3.868039e+001  -8.872937e+001 
4409375000  -3.898058e+001  -9.152177e+001 
4412500000  -4.004488e+001  -9.504525e+001 
4415625000  -3.965067e+001  -9.287129e+001 
