!Agilent Technologies,E8363B,MY43030201,A.06.04.32
!Agilent E8363B: A.06.04.32
!Date: Tuesday, November 11, 2014 21:35:56
!Correction: S21(Response(S21)) 
!S1P File: Measurement: S21:
# Hz S  dB   R 50
3000000000  -4.054621e+001  7.189674e+001 
3003125000  -4.196630e+001  6.483386e+001 
3006250000  -4.209161e+001  6.252769e+001 
3009375000  -4.266537e+001  6.935974e+001 
3012500000  -4.158434e+001  6.387484e+001 
3015625000  -4.141761e+001  5.724261e+001 
3018750000  -4.162370e+001  5.699119e+001 
3021875000  -4.012175e+001  5.785784e+001 
3025000000  -3.885534e+001  5.481728e+001 
3028125000  -3.801593e+001  4.353257e+001 
3031250000  -3.700947e+001  3.249462e+001 
3034375000  -3.667661e+001  1.801467e+001 
3037500000  -3.762226e+001  6.191205e+000 
3040625000  -3.881275e+001  2.241426e+000 
3043750000  -3.908878e+001  -5.426268e+000 
3046875000  -3.980584e+001  -9.177026e+000 
3050000000  -4.085165e+001  -1.432353e+001 
3053125000  -4.054960e+001  -9.789278e+000 
3056250000  -4.059526e+001  -6.791281e+000 
3059375000  -3.984387e+001  -9.803482e+000 
3062500000  -3.805476e+001  -1.407957e+001 
3065625000  -3.791921e+001  -2.345201e+001 
3068750000  -3.744716e+001  -3.124086e+001 
3071875000  -3.766219e+001  -3.379370e+001 
3075000000  -3.699943e+001  -4.024423e+001 
3078125000  -3.702640e+001  -4.684780e+001 
3081250000  -3.729306e+001  -5.309702e+001 
3084375000  -3.639793e+001  -5.762742e+001 
3087500000  -3.649306e+001  -6.420020e+001 
3090625000  -3.597106e+001  -7.712248e+001 
3093750000  -3.699331e+001  -8.460684e+001 
3096875000  -3.726841e+001  -8.919097e+001 
3100000000  -3.718379e+001  -9.289120e+001 
3103125000  -3.754897e+001  -9.638808e+001 
3106250000  -3.720809e+001  -1.020450e+002 
3109375000  -3.716682e+001  -1.059676e+002 
3112500000  -3.730760e+001  -1.115500e+002 
3115625000  -3.716030e+001  -1.161097e+002 
3118750000  -3.712696e+001  -1.182548e+002 
3121875000  -3.657880e+001  -1.300583e+002 
3125000000  -3.846965e+001  -1.321982e+002 
3128125000  -3.863534e+001  -1.245713e+002 
3131250000  -3.601666e+001  -1.311734e+002 
3134375000  -3.547687e+001  -1.490665e+002 
3137500000  -3.605136e+001  -1.616373e+002 
3140625000  -3.748761e+001  -1.636191e+002 
3143750000  -3.816571e+001  -1.666726e+002 
3146875000  -3.762396e+001  -1.636571e+002 
3150000000  -3.681625e+001  -1.684868e+002 
3153125000  -3.715214e+001  -1.765968e+002 
3156250000  -3.794181e+001  -1.718130e+002 
3159375000  -3.560827e+001  -1.742690e+002 
3162500000  -3.424659e+001  1.705491e+002 
3165625000  -3.552974e+001  1.576295e+002 
3168750000  -3.535838e+001  1.565688e+002 
3171875000  -3.494943e+001  1.487128e+002 
3175000000  -3.550232e+001  1.394324e+002 
3178125000  -3.499893e+001  1.387584e+002 
3181250000  -3.436719e+001  1.294810e+002 
3184375000  -3.418639e+001  1.189998e+002 
3187500000  -3.537522e+001  1.038691e+002 
3190625000  -3.729656e+001  9.812991e+001 
3193750000  -3.740662e+001  1.031992e+002 
3196875000  -3.730904e+001  1.036762e+002 
3200000000  -3.613278e+001  9.863492e+001 
3203125000  -3.591619e+001  9.050058e+001 
3206250000  -3.602262e+001  8.350271e+001 
3209375000  -3.564042e+001  7.511857e+001 
3212500000  -3.632450e+001  6.934830e+001 
3215625000  -3.602911e+001  6.586163e+001 
3218750000  -3.700214e+001  5.460386e+001 
3221875000  -3.720728e+001  4.770670e+001 
3225000000  -3.707307e+001  4.388869e+001 
3228125000  -3.782281e+001  3.650251e+001 
3231250000  -3.816454e+001  3.443215e+001 
3234375000  -3.782856e+001  3.154951e+001 
3237500000  -3.791359e+001  2.769955e+001 
3240625000  -3.759258e+001  2.218913e+001 
3243750000  -3.770267e+001  1.274821e+001 
3246875000  -3.816005e+001  4.721901e+000 
3250000000  -3.876182e+001  3.474877e-001 
3253125000  -3.897221e+001  -2.498399e+000 
3256250000  -3.843280e+001  -1.036450e+001 
3259375000  -3.900559e+001  -2.095601e+001 
3262500000  -4.080542e+001  -2.516525e+001 
3265625000  -4.116460e+001  -2.267254e+001 
3268750000  -4.117297e+001  -2.064081e+001 
3271875000  -4.059724e+001  -2.531143e+001 
3275000000  -3.991866e+001  -3.371784e+001 
3278125000  -4.084231e+001  -3.821242e+001 
3281250000  -4.096047e+001  -4.046540e+001 
3284375000  -4.054288e+001  -4.513015e+001 
3287500000  -4.092237e+001  -5.087501e+001 
3290625000  -4.120697e+001  -5.802106e+001 
3293750000  -4.130421e+001  -6.280447e+001 
3296875000  -4.243436e+001  -6.434007e+001 
3300000000  -4.167189e+001  -6.373077e+001 
3303125000  -4.085456e+001  -7.120454e+001 
3306250000  -4.063892e+001  -7.643941e+001 
3309375000  -4.025299e+001  -8.622138e+001 
3312500000  -4.086171e+001  -9.853923e+001 
3315625000  -4.216123e+001  -1.046076e+002 
3318750000  -4.367870e+001  -1.090535e+002 
3321875000  -4.510737e+001  -1.052023e+002 
3325000000  -4.502201e+001  -9.719787e+001 
3328125000  -4.400689e+001  -9.901380e+001 
3331250000  -4.226642e+001  -9.333318e+001 
3334375000  -3.992797e+001  -1.095328e+002 
3337500000  -4.055685e+001  -1.321002e+002 
3340625000  -4.224361e+001  -1.410928e+002 
3343750000  -4.392566e+001  -1.391469e+002 
3346875000  -4.297842e+001  -1.402604e+002 
3350000000  -4.298504e+001  -1.443544e+002 
3353125000  -4.289488e+001  -1.521863e+002 
3356250000  -4.249832e+001  -1.625051e+002 
3359375000  -4.359544e+001  -1.706050e+002 
3362500000  -4.408428e+001  -1.758699e+002 
3365625000  -4.492776e+001  -1.791576e+002 
3368750000  -4.532072e+001  1.748219e+002 
3371875000  -4.580579e+001  1.699929e+002 
3375000000  -4.767478e+001  1.657785e+002 
3378125000  -4.881002e+001  1.698763e+002 
3381250000  -4.968342e+001  1.787751e+002 
3384375000  -4.664964e+001  -1.643749e+002 
3387500000  -4.444954e+001  1.692530e+002 
3390625000  -4.566600e+001  1.526907e+002 
3393750000  -4.720052e+001  1.514381e+002 
3396875000  -4.604741e+001  1.498480e+002 
3400000000  -4.609781e+001  1.346849e+002 
3403125000  -4.706920e+001  1.322226e+002 
3406250000  -4.803611e+001  1.320140e+002 
3409375000  -4.795166e+001  1.190018e+002 
3412500000  -4.929203e+001  1.146882e+002 
3415625000  -4.946666e+001  1.129674e+002 
3418750000  -5.031513e+001  1.166744e+002 
3421875000  -5.098887e+001  1.199422e+002 
3425000000  -5.026687e+001  1.201281e+002 
3428125000  -4.969316e+001  1.124970e+002 
3431250000  -5.002218e+001  1.073329e+002 
3434375000  -5.023841e+001  1.004448e+002 
3437500000  -5.102424e+001  1.003645e+002 
3440625000  -5.191828e+001  1.073192e+002 
3443750000  -5.013588e+001  1.066049e+002 
3446875000  -5.034252e+001  9.707246e+001 
3450000000  -5.047032e+001  8.866065e+001 
3453125000  -5.057850e+001  8.195097e+001 
3456250000  -5.232704e+001  8.569914e+001 
3459375000  -5.304839e+001  8.448776e+001 
3462500000  -5.323149e+001  8.380501e+001 
3465625000  -5.105991e+001  7.785986e+001 
3468750000  -5.146302e+001  7.788205e+001 
3471875000  -5.150048e+001  7.551980e+001 
3475000000  -5.189515e+001  6.731810e+001 
3478125000  -5.147046e+001  5.791369e+001 
3481250000  -5.224744e+001  6.583459e+001 
3484375000  -5.306679e+001  6.421454e+001 
3487500000  -5.172075e+001  6.111451e+001 
3490625000  -5.120531e+001  5.787284e+001 
3493750000  -5.119856e+001  5.040125e+001 
3496875000  -5.153318e+001  4.950243e+001 
3500000000  -5.291725e+001  4.706904e+001 
3503125000  -5.120012e+001  4.558738e+001 
3506250000  -5.003362e+001  3.668724e+001 
3509375000  -4.877689e+001  2.502619e+001 
3512500000  -5.037978e+001  1.105737e+001 
3515625000  -5.160138e+001  7.923418e+000 
3518750000  -5.144282e+001  5.303883e+000 
3521875000  -5.172507e+001  6.980908e-001 
3525000000  -5.452066e+001  -1.973579e+000 
3528125000  -5.304719e+001  9.772027e+000 
3531250000  -5.172440e+001  4.573845e-001 
3534375000  -5.247874e+001  -1.953254e+001 
3537500000  -5.361097e+001  -3.100342e+001 
3540625000  -5.450018e+001  -2.402741e+001 
3543750000  -5.557774e+001  -1.364555e+001 
3546875000  -5.686796e+001  -1.736387e+001 
3550000000  -5.332589e+001  -1.752033e+001 
3553125000  -5.359139e+001  -4.248577e+001 
3556250000  -5.541587e+001  -3.921806e+001 
3559375000  -5.556639e+001  -3.388581e+001 
3562500000  -5.716358e+001  -5.441438e+001 
3565625000  -5.654240e+001  -5.236383e+001 
3568750000  -5.624258e+001  -3.967032e+001 
3571875000  -5.703902e+001  -3.360346e+001 
3575000000  -5.925866e+001  -3.993227e+001 
3578125000  -5.888276e+001  -5.356120e+001 
3581250000  -5.790474e+001  -4.279955e+001 
3584375000  -5.843750e+001  -4.786974e+001 
3587500000  -5.636451e+001  -4.605020e+001 
3590625000  -6.022392e+001  -5.024703e+001 
3593750000  -5.794757e+001  -3.431026e+001 
3596875000  -5.724167e+001  -4.560921e+001 
3600000000  -5.795320e+001  -4.486274e+001 
3603125000  -5.777503e+001  -6.853164e+001 
3606250000  -5.834903e+001  -5.309385e+001 
3609375000  -5.780593e+001  -5.118515e+001 
3612500000  -5.965815e+001  -5.170334e+001 
3615625000  -5.933461e+001  -5.425093e+001 
3618750000  -5.936165e+001  -4.357882e+001 
3621875000  -5.789748e+001  -4.324573e+001 
3625000000  -5.892231e+001  -5.674281e+001 
3628125000  -5.751181e+001  -4.363078e+001 
3631250000  -5.590560e+001  -5.867566e+001 
3634375000  -5.702000e+001  -4.848945e+001 
3637500000  -5.716078e+001  -3.974512e+001 
3640625000  -5.423700e+001  -3.827521e+001 
3643750000  -5.211711e+001  -5.153609e+001 
3646875000  -5.337378e+001  -5.913754e+001 
3650000000  -5.363657e+001  -5.886336e+001 
3653125000  -5.185390e+001  -5.994693e+001 
3656250000  -5.175904e+001  -6.377867e+001 
3659375000  -5.187946e+001  -6.617095e+001 
3662500000  -5.090456e+001  -7.335873e+001 
3665625000  -5.038334e+001  -7.535793e+001 
3668750000  -4.819383e+001  -7.686798e+001 
3671875000  -4.730118e+001  -8.478093e+001 
3675000000  -4.761476e+001  -9.287658e+001 
3678125000  -4.732398e+001  -9.392695e+001 
3681250000  -4.650092e+001  -1.010895e+002 
3684375000  -4.649875e+001  -1.090455e+002 
3687500000  -4.650452e+001  -1.142515e+002 
3690625000  -4.671384e+001  -1.183767e+002 
3693750000  -4.701228e+001  -1.182160e+002 
3696875000  -4.625889e+001  -1.191762e+002 
3700000000  -4.503247e+001  -1.275036e+002 
3703125000  -4.518385e+001  -1.311708e+002 
3706250000  -4.589549e+001  -1.364733e+002 
3709375000  -4.481883e+001  -1.334262e+002 
3712500000  -4.369307e+001  -1.392265e+002 
3715625000  -4.192897e+001  -1.485423e+002 
3718750000  -4.177718e+001  -1.550253e+002 
3721875000  -4.095024e+001  -1.654363e+002 
3725000000  -4.152689e+001  -1.699484e+002 
3728125000  -4.139615e+001  -1.763690e+002 
3731250000  -4.084818e+001  1.798581e+002 
3734375000  -4.002927e+001  1.730220e+002 
3737500000  -4.089720e+001  1.636854e+002 
3740625000  -4.096404e+001  1.586030e+002 
3743750000  -4.039706e+001  1.506543e+002 
3746875000  -4.050871e+001  1.440053e+002 
3750000000  -4.089177e+001  1.395811e+002 
3753125000  -4.067918e+001  1.367226e+002 
3756250000  -4.082662e+001  1.339828e+002 
3759375000  -4.038837e+001  1.269930e+002 
3762500000  -4.013003e+001  1.196891e+002 
3765625000  -4.079827e+001  1.172925e+002 
3768750000  -4.007149e+001  1.169588e+002 
3771875000  -3.847739e+001  1.084533e+002 
3775000000  -3.852516e+001  9.825520e+001 
3778125000  -3.914074e+001  9.137807e+001 
3781250000  -3.890584e+001  8.627531e+001 
3784375000  -3.889371e+001  8.069008e+001 
3787500000  -3.864268e+001  7.609219e+001 
3790625000  -3.913512e+001  6.703010e+001 
3793750000  -3.905090e+001  6.274503e+001 
3796875000  -3.829774e+001  5.868781e+001 
3800000000  -3.633222e+001  5.320592e+001 
3803125000  -3.822505e+001  4.152973e+001 
3806250000  -3.891164e+001  3.645536e+001 
3809375000  -3.858395e+001  3.341362e+001 
3812500000  -3.857457e+001  2.156399e+001 
3815625000  -3.936557e+001  1.347943e+001 
3818750000  -4.064095e+001  1.706345e+001 
3821875000  -4.010880e+001  2.779898e+001 
3825000000  -3.823564e+001  2.043879e+001 
3828125000  -3.704087e+001  2.068542e+000 
3831250000  -3.811114e+001  -1.206187e+001 
3834375000  -4.039673e+001  -1.268743e+001 
3837500000  -4.077101e+001  -1.047166e+001 
3840625000  -3.874611e+001  -1.287506e+001 
3843750000  -3.830519e+001  -2.786263e+001 
3846875000  -3.983482e+001  -3.368404e+001 
3850000000  -4.068692e+001  -2.635150e+001 
3853125000  -3.988997e+001  -2.902268e+001 
3856250000  -3.956605e+001  -3.466612e+001 
3859375000  -3.873419e+001  -4.119788e+001 
3862500000  -3.839669e+001  -5.218118e+001 
3865625000  -3.916965e+001  -5.649320e+001 
3868750000  -3.870668e+001  -5.872327e+001 
3871875000  -3.804362e+001  -6.599872e+001 
3875000000  -3.862314e+001  -7.679182e+001 
3878125000  -3.951440e+001  -7.902977e+001 
3881250000  -3.910727e+001  -7.900216e+001 
3884375000  -3.888182e+001  -8.523063e+001 
3887500000  -3.911194e+001  -9.112151e+001 
3890625000  -3.962231e+001  -9.538563e+001 
3893750000  -3.968647e+001  -9.868616e+001 
3896875000  -3.988602e+001  -1.018616e+002 
3900000000  -3.993499e+001  -1.046393e+002 
3903125000  -3.917148e+001  -1.094263e+002 
3906250000  -3.885140e+001  -1.128697e+002 
3909375000  -3.825883e+001  -1.223051e+002 
3912500000  -3.911450e+001  -1.310961e+002 
3915625000  -4.058033e+001  -1.304894e+002 
3918750000  -4.005150e+001  -1.317753e+002 
3921875000  -3.928254e+001  -1.380226e+002 
3925000000  -3.850542e+001  -1.425796e+002 
3928125000  -3.818949e+001  -1.521468e+002 
3931250000  -3.911033e+001  -1.590424e+002 
3934375000  -3.954412e+001  -1.602379e+002 
3937500000  -4.003620e+001  -1.612362e+002 
3940625000  -3.992564e+001  -1.621827e+002 
3943750000  -3.895279e+001  -1.663277e+002 
3946875000  -3.841108e+001  -1.768413e+002 
3950000000  -3.932945e+001  1.765861e+002 
3953125000  -4.021457e+001  1.760858e+002 
3956250000  -3.878908e+001  1.763260e+002 
3959375000  -3.803029e+001  1.691102e+002 
3962500000  -3.756730e+001  1.600728e+002 
3965625000  -3.774742e+001  1.524404e+002 
3968750000  -3.859805e+001  1.450844e+002 
3971875000  -3.844342e+001  1.380588e+002 
3975000000  -3.825984e+001  1.347595e+002 
3978125000  -3.866851e+001  1.304442e+002 
3981250000  -3.863499e+001  1.238709e+002 
3984375000  -3.915218e+001  1.158920e+002 
3987500000  -3.963530e+001  1.141548e+002 
3990625000  -3.991652e+001  1.114711e+002 
3993750000  -3.972922e+001  1.065137e+002 
3996875000  -3.981524e+001  1.033724e+002 
4000000000  -4.044065e+001  9.661584e+001 
4003125000  -4.070067e+001  1.007146e+002 
4006250000  -3.922876e+001  9.573524e+001 
4009375000  -3.853652e+001  8.212894e+001 
4012500000  -4.045687e+001  7.403860e+001 
4015625000  -4.148421e+001  7.384262e+001 
4018750000  -4.149799e+001  7.441022e+001 
4021875000  -4.063834e+001  7.043534e+001 
4025000000  -4.024959e+001  6.607504e+001 
4028125000  -4.040876e+001  5.822346e+001 
4031250000  -4.119876e+001  5.404008e+001 
4034375000  -4.148383e+001  5.393922e+001 
4037500000  -4.109959e+001  5.274760e+001 
4040625000  -4.095948e+001  4.897352e+001 
4043750000  -4.132270e+001  4.766915e+001 
4046875000  -4.097766e+001  4.211552e+001 
4050000000  -4.056346e+001  3.779250e+001 
4053125000  -4.156207e+001  3.530840e+001 
4056250000  -4.140462e+001  3.960398e+001 
4059375000  -3.957654e+001  3.639802e+001 
4062500000  -3.881108e+001  2.887794e+001 
4065625000  -3.899579e+001  2.334920e+001 
4068750000  -3.833433e+001  1.515350e+001 
4071875000  -3.760221e+001  5.977880e+000 
4075000000  -3.855979e+001  9.246191e-003 
4078125000  -3.875492e+001  -4.974982e+000 
4081250000  -3.833512e+001  -1.034067e+001 
4084375000  -3.812701e+001  -1.941773e+001 
4087500000  -3.863695e+001  -2.702642e+001 
4090625000  -3.921249e+001  -2.766991e+001 
4093750000  -3.869391e+001  -3.080646e+001 
4096875000  -3.867114e+001  -4.010133e+001 
4100000000  -3.989613e+001  -4.667464e+001 
4103125000  -4.071891e+001  -4.361851e+001 
4106250000  -4.024425e+001  -4.099116e+001 
4109375000  -3.908813e+001  -4.595254e+001 
4112500000  -3.865481e+001  -5.446252e+001 
4115625000  -3.934550e+001  -6.246803e+001 
4118750000  -3.891107e+001  -6.722714e+001 
4121875000  -3.908183e+001  -7.420052e+001 
4125000000  -3.998288e+001  -7.969779e+001 
4128125000  -4.095129e+001  -7.719279e+001 
4131250000  -3.969325e+001  -7.358168e+001 
4134375000  -3.769582e+001  -8.222108e+001 
4137500000  -3.811522e+001  -1.024198e+002 
4140625000  -4.048241e+001  -1.095925e+002 
4143750000  -4.105425e+001  -1.035251e+002 
4146875000  -4.078832e+001  -9.849028e+001 
4150000000  -3.945267e+001  -1.066731e+002 
4153125000  -4.001422e+001  -1.172621e+002 
4156250000  -4.136787e+001  -1.197958e+002 
4159375000  -4.111276e+001  -1.132889e+002 
4162500000  -4.006794e+001  -1.101453e+002 
4165625000  -3.882127e+001  -1.192552e+002 
4168750000  -3.854399e+001  -1.291032e+002 
4171875000  -3.839385e+001  -1.392122e+002 
4175000000  -3.945150e+001  -1.455799e+002 
4178125000  -3.959378e+001  -1.478141e+002 
4181250000  -3.952769e+001  -1.518385e+002 
4184375000  -3.952223e+001  -1.556456e+002 
4187500000  -3.924612e+001  -1.602195e+002 
4190625000  -3.945430e+001  -1.682615e+002 
4193750000  -4.077164e+001  -1.740678e+002 
4196875000  -4.135744e+001  -1.745596e+002 
4200000000  -4.239716e+001  -1.688859e+002 
4203125000  -4.079417e+001  -1.551698e+002 
4206250000  -3.758191e+001  -1.661471e+002 
4209375000  -3.724260e+001  1.714672e+002 
4212500000  -3.976508e+001  1.665464e+002 
4215625000  -4.017447e+001  1.719742e+002 
4218750000  -3.829533e+001  1.744847e+002 
4221875000  -3.682092e+001  1.628782e+002 
4225000000  -3.763261e+001  1.511780e+002 
4228125000  -3.768083e+001  1.516335e+002 
4231250000  -3.622059e+001  1.436212e+002 
4234375000  -3.634818e+001  1.343384e+002 
4237500000  -3.608734e+001  1.312592e+002 
4240625000  -3.629766e+001  1.170056e+002 
4243750000  -3.743425e+001  1.085889e+002 
4246875000  -3.842217e+001  1.085976e+002 
4250000000  -3.815858e+001  1.097108e+002 
4253125000  -3.831340e+001  1.061087e+002 
4256250000  -3.785060e+001  1.009706e+002 
4259375000  -3.741866e+001  9.557944e+001 
4262500000  -3.793874e+001  9.132805e+001 
4265625000  -3.786912e+001  8.934255e+001 
4268750000  -3.698942e+001  8.067161e+001 
4271875000  -3.663776e+001  7.313754e+001 
4275000000  -3.658916e+001  6.393745e+001 
4278125000  -3.778156e+001  5.225729e+001 
4281250000  -3.915096e+001  4.965304e+001 
4284375000  -3.875595e+001  4.760300e+001 
4287500000  -4.037561e+001  4.518457e+001 
4290625000  -4.039225e+001  5.353887e+001 
4293750000  -3.854999e+001  5.132725e+001 
4296875000  -3.780746e+001  4.027572e+001 
4300000000  -3.915628e+001  3.069809e+001 
4303125000  -3.968985e+001  3.387639e+001 
4306250000  -3.842764e+001  3.619933e+001 
4309375000  -3.766187e+001  2.996593e+001 
4312500000  -3.753856e+001  1.936661e+001 
4315625000  -3.802792e+001  1.083640e+001 
4318750000  -3.855666e+001  8.242150e+000 
4321875000  -3.875670e+001  7.935929e+000 
4325000000  -3.807342e+001  5.856400e+000 
4328125000  -3.731666e+001  -4.057328e+000 
4331250000  -3.759002e+001  -1.308204e+001 
4334375000  -3.855554e+001  -2.044269e+001 
4337500000  -3.955847e+001  -2.210222e+001 
4340625000  -3.961929e+001  -1.793559e+001 
4343750000  -3.860211e+001  -1.888749e+001 
4346875000  -3.833921e+001  -2.825121e+001 
4350000000  -3.844373e+001  -3.787072e+001 
4353125000  -3.926293e+001  -4.299405e+001 
4356250000  -4.098899e+001  -3.900730e+001 
4359375000  -3.970686e+001  -2.527845e+001 
4362500000  -3.652353e+001  -3.251119e+001 
4365625000  -3.576275e+001  -5.219520e+001 
4368750000  -3.729956e+001  -6.019738e+001 
4371875000  -3.803421e+001  -6.208923e+001 
4375000000  -3.711217e+001  -6.662119e+001 
4378125000  -3.693275e+001  -7.358113e+001 
4381250000  -3.700483e+001  -8.079369e+001 
4384375000  -3.739323e+001  -8.862749e+001 
4387500000  -3.811704e+001  -9.371933e+001 
4390625000  -3.860719e+001  -9.433871e+001 
4393750000  -3.784177e+001  -9.431422e+001 
4396875000  -3.736945e+001  -9.957343e+001 
4400000000  -3.689500e+001  -1.094609e+002 
4403125000  -3.786530e+001  -1.187628e+002 
4406250000  -3.846961e+001  -1.214388e+002 
4409375000  -3.884464e+001  -1.255923e+002 
4412500000  -3.985592e+001  -1.293892e+002 
4415625000  -3.932925e+001  -1.239499e+002 
