!Agilent Technologies,E8363B,MY43030201,A.06.04.32
!Agilent E8363B: A.06.04.32
!Date: Tuesday, November 11, 2014 21:37:26
!Correction: S21(Response(S21)) 
!S1P File: Measurement: S21:
# Hz S  dB   R 50
3000000000  -4.062809e+001  6.959970e+001 
3003125000  -4.223365e+001  6.268359e+001 
3006250000  -4.233567e+001  6.267839e+001 
3009375000  -4.271247e+001  6.789062e+001 
3012500000  -4.144922e+001  6.128958e+001 
3015625000  -4.146335e+001  5.503659e+001 
3018750000  -4.178498e+001  5.639736e+001 
3021875000  -4.016744e+001  5.676984e+001 
3025000000  -3.888367e+001  5.292814e+001 
3028125000  -3.790516e+001  4.203748e+001 
3031250000  -3.704330e+001  3.011024e+001 
3034375000  -3.682730e+001  1.662305e+001 
3037500000  -3.761642e+001  6.427498e+000 
3040625000  -3.884627e+001  1.142004e+000 
3043750000  -3.918212e+001  -5.494550e+000 
3046875000  -3.994611e+001  -1.258602e+001 
3050000000  -4.103053e+001  -1.571195e+001 
3053125000  -4.053492e+001  -1.197445e+001 
3056250000  -4.054804e+001  -7.289869e+000 
3059375000  -3.960261e+001  -1.127744e+001 
3062500000  -3.813210e+001  -1.551314e+001 
3065625000  -3.786620e+001  -2.464254e+001 
3068750000  -3.766037e+001  -3.268654e+001 
3071875000  -3.766568e+001  -3.513372e+001 
3075000000  -3.703962e+001  -4.175504e+001 
3078125000  -3.715814e+001  -4.804363e+001 
3081250000  -3.724490e+001  -5.431877e+001 
3084375000  -3.633263e+001  -5.922677e+001 
3087500000  -3.646283e+001  -6.557346e+001 
3090625000  -3.594675e+001  -7.834076e+001 
3093750000  -3.691623e+001  -8.541559e+001 
3096875000  -3.725917e+001  -9.121554e+001 
3100000000  -3.722015e+001  -9.377577e+001 
3103125000  -3.763531e+001  -9.696227e+001 
3106250000  -3.721449e+001  -1.033023e+002 
3109375000  -3.735390e+001  -1.066207e+002 
3112500000  -3.723745e+001  -1.127806e+002 
3115625000  -3.722915e+001  -1.165261e+002 
3118750000  -3.721609e+001  -1.194526e+002 
3121875000  -3.660640e+001  -1.309116e+002 
3125000000  -3.850986e+001  -1.341969e+002 
3128125000  -3.833845e+001  -1.276992e+002 
3131250000  -3.595532e+001  -1.340553e+002 
3134375000  -3.538038e+001  -1.506360e+002 
3137500000  -3.612973e+001  -1.614101e+002 
3140625000  -3.735706e+001  -1.642387e+002 
3143750000  -3.801315e+001  -1.679965e+002 
3146875000  -3.773550e+001  -1.651324e+002 
3150000000  -3.686927e+001  -1.696468e+002 
3153125000  -3.726340e+001  -1.781460e+002 
3156250000  -3.788517e+001  -1.725332e+002 
3159375000  -3.563890e+001  -1.749566e+002 
3162500000  -3.425401e+001  1.692312e+002 
3165625000  -3.553985e+001  1.557516e+002 
3168750000  -3.524204e+001  1.553579e+002 
3171875000  -3.493544e+001  1.479034e+002 
3175000000  -3.546044e+001  1.391527e+002 
3178125000  -3.499569e+001  1.373487e+002 
3181250000  -3.440997e+001  1.286158e+002 
3184375000  -3.420821e+001  1.177250e+002 
3187500000  -3.541389e+001  1.018889e+002 
3190625000  -3.727625e+001  9.685207e+001 
3193750000  -3.757129e+001  1.021612e+002 
3196875000  -3.740879e+001  1.027320e+002 
3200000000  -3.617374e+001  9.716448e+001 
3203125000  -3.590398e+001  8.927171e+001 
3206250000  -3.609453e+001  8.209224e+001 
3209375000  -3.570966e+001  7.344006e+001 
3212500000  -3.623732e+001  6.751439e+001 
3215625000  -3.609039e+001  6.413036e+001 
3218750000  -3.689292e+001  5.257103e+001 
3221875000  -3.723943e+001  4.551516e+001 
3225000000  -3.700642e+001  4.247870e+001 
3228125000  -3.760831e+001  3.634185e+001 
3231250000  -3.841506e+001  3.356152e+001 
3234375000  -3.783202e+001  3.017736e+001 
3237500000  -3.804626e+001  2.562295e+001 
3240625000  -3.744183e+001  2.108464e+001 
3243750000  -3.759661e+001  1.013831e+001 
3246875000  -3.823992e+001  3.516383e+000 
3250000000  -3.868127e+001  -8.816383e-001 
3253125000  -3.898686e+001  -2.934176e+000 
3256250000  -3.852054e+001  -1.232239e+001 
3259375000  -3.908588e+001  -2.266401e+001 
3262500000  -4.066574e+001  -2.724771e+001 
3265625000  -4.110701e+001  -2.322063e+001 
3268750000  -4.118173e+001  -2.204568e+001 
3271875000  -4.041744e+001  -2.800855e+001 
3275000000  -4.007407e+001  -3.470557e+001 
3278125000  -4.076019e+001  -3.942214e+001 
3281250000  -4.097495e+001  -4.137677e+001 
3284375000  -4.048612e+001  -4.688313e+001 
3287500000  -4.093427e+001  -5.082761e+001 
3290625000  -4.116262e+001  -5.930744e+001 
3293750000  -4.109820e+001  -6.509898e+001 
3296875000  -4.238401e+001  -6.505651e+001 
3300000000  -4.184925e+001  -6.496541e+001 
3303125000  -4.074090e+001  -7.160006e+001 
3306250000  -4.086632e+001  -7.952358e+001 
3309375000  -4.070134e+001  -8.722688e+001 
3312500000  -4.105554e+001  -1.000717e+002 
3315625000  -4.220713e+001  -1.060264e+002 
3318750000  -4.374504e+001  -1.092408e+002 
3321875000  -4.468774e+001  -1.050174e+002 
3325000000  -4.484311e+001  -1.021299e+002 
3328125000  -4.403004e+001  -9.834342e+001 
3331250000  -4.201062e+001  -9.601187e+001 
3334375000  -3.999107e+001  -1.132714e+002 
3337500000  -4.033056e+001  -1.334510e+002 
3340625000  -4.230409e+001  -1.430029e+002 
3343750000  -4.383636e+001  -1.400441e+002 
3346875000  -4.345593e+001  -1.419228e+002 
3350000000  -4.268561e+001  -1.463997e+002 
3353125000  -4.276834e+001  -1.519957e+002 
3356250000  -4.232684e+001  -1.620589e+002 
3359375000  -4.335817e+001  -1.727728e+002 
3362500000  -4.433937e+001  -1.785409e+002 
3365625000  -4.502508e+001  1.771185e+002 
3368750000  -4.533635e+001  1.752360e+002 
3371875000  -4.623670e+001  1.705364e+002 
3375000000  -4.762329e+001  1.668713e+002 
3378125000  -4.755836e+001  1.658672e+002 
3381250000  -4.946519e+001  1.774775e+002 
3384375000  -4.698377e+001  -1.723709e+002 
3387500000  -4.420926e+001  1.715540e+002 
3390625000  -4.595535e+001  1.486641e+002 
3393750000  -4.727202e+001  1.460764e+002 
3396875000  -4.586380e+001  1.465297e+002 
3400000000  -4.632197e+001  1.346395e+002 
3403125000  -4.694464e+001  1.303445e+002 
3406250000  -4.731549e+001  1.283291e+002 
3409375000  -4.839725e+001  1.214293e+002 
3412500000  -4.881211e+001  1.162671e+002 
3415625000  -4.995198e+001  1.156249e+002 
3418750000  -4.988786e+001  1.156086e+002 
3421875000  -5.074043e+001  1.178803e+002 
3425000000  -4.980106e+001  1.195294e+002 
3428125000  -4.959233e+001  1.163030e+002 
3431250000  -5.023697e+001  1.021412e+002 
3434375000  -5.080140e+001  1.003598e+002 
3437500000  -5.164877e+001  9.762336e+001 
3440625000  -5.254970e+001  1.023881e+002 
3443750000  -5.097396e+001  1.046763e+002 
3446875000  -5.101927e+001  9.869572e+001 
3450000000  -4.988463e+001  8.578271e+001 
3453125000  -5.039408e+001  8.004921e+001 
3456250000  -5.203186e+001  7.757790e+001 
3459375000  -5.269743e+001  7.866817e+001 
3462500000  -5.235225e+001  8.659475e+001 
3465625000  -5.106547e+001  7.450053e+001 
3468750000  -5.170910e+001  7.448625e+001 
3471875000  -5.234777e+001  7.304329e+001 
3475000000  -5.076015e+001  6.900928e+001 
3478125000  -5.152323e+001  5.440912e+001 
3481250000  -5.199810e+001  5.956983e+001 
3484375000  -5.194533e+001  6.495805e+001 
3487500000  -5.089111e+001  5.677533e+001 
3490625000  -5.079622e+001  4.961183e+001 
3493750000  -5.147091e+001  4.337106e+001 
3496875000  -5.172735e+001  4.161654e+001 
3500000000  -5.146891e+001  4.784428e+001 
3503125000  -5.085934e+001  4.299657e+001 
3506250000  -5.003336e+001  3.355744e+001 
3509375000  -4.993257e+001  2.343019e+001 
3512500000  -4.961045e+001  1.052512e+001 
3515625000  -5.091371e+001  4.987269e+000 
3518750000  -5.270575e+001  6.345427e+000 
3521875000  -5.264520e+001  -2.069411e+000 
3525000000  -5.350756e+001  -6.513867e+000 
3528125000  -5.271044e+001  7.203641e+000 
3531250000  -5.156531e+001  -7.288538e+000 
3534375000  -5.210130e+001  -1.929526e+001 
3537500000  -5.307501e+001  -3.014307e+001 
3540625000  -5.467347e+001  -3.231171e+001 
3543750000  -5.659764e+001  -1.694383e+001 
3546875000  -5.529321e+001  -1.302608e+001 
3550000000  -5.475499e+001  -2.297810e+001 
3553125000  -5.339531e+001  -3.693674e+001 
3556250000  -5.562326e+001  -3.323481e+001 
3559375000  -5.525659e+001  -3.573961e+001 
3562500000  -5.633293e+001  -5.703502e+001 
3565625000  -5.630461e+001  -5.203049e+001 
3568750000  -5.797387e+001  -4.222780e+001 
3571875000  -5.963555e+001  -4.479772e+001 
3575000000  -5.830109e+001  -5.122282e+001 
3578125000  -5.890410e+001  -5.262359e+001 
3581250000  -5.600753e+001  -4.693471e+001 
3584375000  -5.800543e+001  -4.127159e+001 
3587500000  -5.807859e+001  -5.065815e+001 
3590625000  -5.868768e+001  -5.980605e+001 
3593750000  -5.774015e+001  -4.966354e+001 
3596875000  -5.755853e+001  -4.082085e+001 
3600000000  -5.729714e+001  -4.770989e+001 
3603125000  -5.913465e+001  -6.444990e+001 
3606250000  -5.873416e+001  -6.678408e+001 
3609375000  -5.835991e+001  -5.284750e+001 
3612500000  -5.695658e+001  -5.915302e+001 
3615625000  -5.808516e+001  -5.099019e+001 
3618750000  -6.090223e+001  -4.517760e+001 
3621875000  -5.681412e+001  -5.180378e+001 
3625000000  -5.637450e+001  -4.596679e+001 
3628125000  -5.734366e+001  -4.940342e+001 
3631250000  -5.648600e+001  -4.809934e+001 
3634375000  -5.624918e+001  -4.404152e+001 
3637500000  -5.623495e+001  -3.903127e+001 
3640625000  -5.340571e+001  -4.566785e+001 
3643750000  -5.272618e+001  -5.059475e+001 
3646875000  -5.328402e+001  -6.151608e+001 
3650000000  -5.255672e+001  -5.838763e+001 
3653125000  -5.156437e+001  -6.904449e+001 
3656250000  -5.105596e+001  -6.911073e+001 
3659375000  -5.154468e+001  -6.788499e+001 
3662500000  -5.014853e+001  -7.736572e+001 
3665625000  -5.047894e+001  -7.606285e+001 
3668750000  -4.774290e+001  -7.493732e+001 
3671875000  -4.721545e+001  -8.811092e+001 
3675000000  -4.728463e+001  -9.704357e+001 
3678125000  -4.714920e+001  -9.923232e+001 
3681250000  -4.706135e+001  -1.057903e+002 
3684375000  -4.670529e+001  -1.095228e+002 
3687500000  -4.673286e+001  -1.169072e+002 
3690625000  -4.699254e+001  -1.234720e+002 
3693750000  -4.711870e+001  -1.211460e+002 
3696875000  -4.652588e+001  -1.202340e+002 
3700000000  -4.541628e+001  -1.264106e+002 
3703125000  -4.523240e+001  -1.335460e+002 
3706250000  -4.593904e+001  -1.341119e+002 
3709375000  -4.466769e+001  -1.360144e+002 
3712500000  -4.329115e+001  -1.410933e+002 
3715625000  -4.191719e+001  -1.501703e+002 
3718750000  -4.199315e+001  -1.570354e+002 
3721875000  -4.118559e+001  -1.646406e+002 
3725000000  -4.190216e+001  -1.728387e+002 
3728125000  -4.160714e+001  -1.753674e+002 
3731250000  -4.086423e+001  1.772399e+002 
3734375000  -4.005619e+001  1.707845e+002 
3737500000  -4.099331e+001  1.626155e+002 
3740625000  -4.079828e+001  1.555654e+002 
3743750000  -4.039357e+001  1.505586e+002 
3746875000  -4.055788e+001  1.417982e+002 
3750000000  -4.090924e+001  1.391393e+002 
3753125000  -4.086505e+001  1.341096e+002 
3756250000  -4.042271e+001  1.312410e+002 
3759375000  -4.046676e+001  1.260500e+002 
3762500000  -3.991428e+001  1.192152e+002 
3765625000  -4.065363e+001  1.151275e+002 
3768750000  -3.992482e+001  1.138420e+002 
3771875000  -3.848227e+001  1.071219e+002 
3775000000  -3.860796e+001  9.580573e+001 
3778125000  -3.902565e+001  8.987975e+001 
3781250000  -3.885115e+001  8.615778e+001 
3784375000  -3.885778e+001  7.913654e+001 
3787500000  -3.839660e+001  7.454674e+001 
3790625000  -3.917540e+001  6.547921e+001 
3793750000  -3.907938e+001  6.116083e+001 
3796875000  -3.811633e+001  5.585723e+001 
3800000000  -3.638338e+001  5.324535e+001 
3803125000  -3.804670e+001  3.830756e+001 
3806250000  -3.896901e+001  3.449601e+001 
3809375000  -3.841520e+001  3.098723e+001 
3812500000  -3.850842e+001  2.173991e+001 
3815625000  -3.961580e+001  1.222491e+001 
3818750000  -4.088110e+001  1.370138e+001 
3821875000  -4.041793e+001  2.278476e+001 
3825000000  -3.818131e+001  1.894903e+001 
3828125000  -3.691366e+001  -3.301534e-001 
3831250000  -3.833378e+001  -1.554115e+001 
3834375000  -3.995753e+001  -1.365796e+001 
3837500000  -4.051981e+001  -1.044181e+001 
3840625000  -3.874657e+001  -1.375550e+001 
3843750000  -3.829086e+001  -2.903200e+001 
3846875000  -3.968840e+001  -3.464316e+001 
3850000000  -4.064076e+001  -2.619682e+001 
3853125000  -3.986891e+001  -3.013820e+001 
3856250000  -3.928876e+001  -3.637502e+001 
3859375000  -3.859826e+001  -4.479786e+001 
3862500000  -3.826044e+001  -5.402872e+001 
3865625000  -3.883887e+001  -5.791261e+001 
3868750000  -3.861003e+001  -6.045573e+001 
3871875000  -3.806891e+001  -6.628179e+001 
3875000000  -3.851732e+001  -7.696752e+001 
3878125000  -3.944158e+001  -8.064379e+001 
3881250000  -3.925452e+001  -8.040773e+001 
3884375000  -3.865252e+001  -8.845986e+001 
3887500000  -3.918554e+001  -9.438887e+001 
3890625000  -3.984675e+001  -9.813112e+001 
3893750000  -3.987020e+001  -9.923158e+001 
3896875000  -3.995890e+001  -1.029780e+002 
3900000000  -3.981690e+001  -1.058993e+002 
3903125000  -3.950310e+001  -1.121368e+002 
3906250000  -3.895944e+001  -1.142230e+002 
3909375000  -3.815336e+001  -1.236665e+002 
3912500000  -3.904226e+001  -1.326366e+002 
3915625000  -4.036099e+001  -1.329898e+002 
3918750000  -3.990380e+001  -1.338694e+002 
3921875000  -3.914076e+001  -1.387320e+002 
3925000000  -3.841047e+001  -1.438760e+002 
3928125000  -3.844229e+001  -1.525436e+002 
3931250000  -3.902854e+001  -1.600973e+002 
3934375000  -3.974153e+001  -1.614150e+002 
3937500000  -4.006847e+001  -1.641682e+002 
3940625000  -3.980379e+001  -1.656845e+002 
3943750000  -3.899727e+001  -1.687377e+002 
3946875000  -3.842350e+001  -1.777334e+002 
3950000000  -3.960731e+001  1.740233e+002 
3953125000  -4.004758e+001  1.761829e+002 
3956250000  -3.901390e+001  1.745390e+002 
3959375000  -3.774730e+001  1.679071e+002 
3962500000  -3.765933e+001  1.586423e+002 
3965625000  -3.795198e+001  1.492005e+002 
3968750000  -3.901271e+001  1.404972e+002 
3971875000  -3.835789e+001  1.364984e+002 
3975000000  -3.824228e+001  1.339082e+002 
3978125000  -3.844696e+001  1.293430e+002 
3981250000  -3.840984e+001  1.221331e+002 
3984375000  -3.902407e+001  1.143139e+002 
3987500000  -3.961404e+001  1.124161e+002 
3990625000  -3.977205e+001  1.096278e+002 
3993750000  -3.998175e+001  1.047935e+002 
3996875000  -3.991329e+001  1.006442e+002 
4000000000  -4.071706e+001  9.458015e+001 
4003125000  -4.090091e+001  9.685543e+001 
4006250000  -3.936050e+001  9.578729e+001 
4009375000  -3.860087e+001  7.951495e+001 
4012500000  -4.015552e+001  7.083517e+001 
4015625000  -4.128649e+001  7.107256e+001 
4018750000  -4.139359e+001  7.408889e+001 
4021875000  -4.047819e+001  6.977538e+001 
4025000000  -4.032691e+001  6.298326e+001 
4028125000  -4.034182e+001  5.779127e+001 
4031250000  -4.116688e+001  5.090210e+001 
4034375000  -4.149796e+001  5.338889e+001 
4037500000  -4.086706e+001  5.267235e+001 
4040625000  -4.077164e+001  4.708572e+001 
4043750000  -4.107923e+001  4.351768e+001 
4046875000  -4.079391e+001  3.965399e+001 
4050000000  -4.057730e+001  3.591861e+001 
4053125000  -4.156418e+001  3.250974e+001 
4056250000  -4.140016e+001  3.716771e+001 
4059375000  -3.937254e+001  3.477996e+001 
4062500000  -3.888565e+001  2.569709e+001 
4065625000  -3.888952e+001  2.189817e+001 
4068750000  -3.815262e+001  1.441234e+001 
4071875000  -3.783313e+001  4.951794e+000 
4075000000  -3.853461e+001  -2.163603e+000 
4078125000  -3.864873e+001  -7.212018e+000 
4081250000  -3.811663e+001  -1.047078e+001 
4084375000  -3.817123e+001  -2.128896e+001 
4087500000  -3.872672e+001  -2.758441e+001 
4090625000  -3.926609e+001  -2.941928e+001 
4093750000  -3.871222e+001  -3.151351e+001 
4096875000  -3.858211e+001  -4.351632e+001 
4100000000  -3.960276e+001  -4.721790e+001 
4103125000  -4.040685e+001  -4.565089e+001 
4106250000  -3.995910e+001  -4.457915e+001 
4109375000  -3.891532e+001  -4.818240e+001 
4112500000  -3.861957e+001  -5.706556e+001 
4115625000  -3.925150e+001  -6.163923e+001 
4118750000  -3.909867e+001  -6.896423e+001 
4121875000  -3.896426e+001  -7.504498e+001 
4125000000  -3.978905e+001  -8.279494e+001 
4128125000  -4.083389e+001  -7.812084e+001 
4131250000  -3.977365e+001  -7.312674e+001 
4134375000  -3.777172e+001  -8.420657e+001 
4137500000  -3.837908e+001  -1.046350e+002 
4140625000  -4.020894e+001  -1.106194e+002 
4143750000  -4.126723e+001  -1.046501e+002 
4146875000  -4.062894e+001  -1.019317e+002 
4150000000  -3.966214e+001  -1.078817e+002 
4153125000  -3.986845e+001  -1.189773e+002 
4156250000  -4.128693e+001  -1.215245e+002 
4159375000  -4.111794e+001  -1.142285e+002 
4162500000  -3.981085e+001  -1.135468e+002 
4165625000  -3.878514e+001  -1.208813e+002 
4168750000  -3.846311e+001  -1.308789e+002 
4171875000  -3.821059e+001  -1.419724e+002 
4175000000  -3.914875e+001  -1.454679e+002 
4178125000  -3.950017e+001  -1.491882e+002 
4181250000  -3.932633e+001  -1.530850e+002 
4184375000  -3.959480e+001  -1.575039e+002 
4187500000  -3.936236e+001  -1.646492e+002 
4190625000  -3.946501e+001  -1.714558e+002 
4193750000  -4.071045e+001  -1.740280e+002 
4196875000  -4.137988e+001  -1.759747e+002 
4200000000  -4.252047e+001  -1.708734e+002 
4203125000  -4.086303e+001  -1.564483e+002 
4206250000  -3.752692e+001  -1.656277e+002 
4209375000  -3.749312e+001  1.685936e+002 
4212500000  -3.975441e+001  1.635100e+002 
4215625000  -3.999163e+001  1.702296e+002 
4218750000  -3.834199e+001  1.713825e+002 
4221875000  -3.661979e+001  1.626726e+002 
4225000000  -3.771741e+001  1.504956e+002 
4228125000  -3.763399e+001  1.507508e+002 
4231250000  -3.654000e+001  1.441943e+002 
4234375000  -3.638173e+001  1.331794e+002 
4237500000  -3.599122e+001  1.271223e+002 
4240625000  -3.635599e+001  1.167228e+002 
4243750000  -3.752105e+001  1.082607e+002 
4246875000  -3.844601e+001  1.072724e+002 
4250000000  -3.813664e+001  1.068319e+002 
4253125000  -3.798934e+001  1.053024e+002 
4256250000  -3.794197e+001  9.886891e+001 
4259375000  -3.768126e+001  9.352547e+001 
4262500000  -3.793126e+001  8.988390e+001 
4265625000  -3.781065e+001  8.662282e+001 
4268750000  -3.706283e+001  7.944175e+001 
4271875000  -3.674531e+001  7.191237e+001 
4275000000  -3.658978e+001  6.247491e+001 
4278125000  -3.779182e+001  5.011796e+001 
4281250000  -3.901860e+001  4.776791e+001 
4284375000  -3.887775e+001  4.625457e+001 
4287500000  -4.065041e+001  4.275729e+001 
4290625000  -4.046233e+001  5.129100e+001 
4293750000  -3.862557e+001  5.324097e+001 
4296875000  -3.778687e+001  3.731977e+001 
4300000000  -3.925681e+001  2.918946e+001 
4303125000  -3.976594e+001  3.196107e+001 
4306250000  -3.867890e+001  3.470045e+001 
4309375000  -3.775577e+001  2.765294e+001 
4312500000  -3.757982e+001  1.686179e+001 
4315625000  -3.776031e+001  9.373326e+000 
4318750000  -3.866448e+001  3.631667e+000 
4321875000  -3.856193e+001  6.335007e+000 
4325000000  -3.798579e+001  4.624632e+000 
4328125000  -3.725293e+001  -5.543218e+000 
4331250000  -3.743304e+001  -1.727720e+001 
4334375000  -3.830407e+001  -2.186146e+001 
4337500000  -3.949846e+001  -2.235992e+001 
4340625000  -3.963266e+001  -1.713772e+001 
4343750000  -3.848536e+001  -2.107287e+001 
4346875000  -3.843578e+001  -3.011660e+001 
4350000000  -3.837988e+001  -3.928048e+001 
4353125000  -3.913923e+001  -4.592449e+001 
4356250000  -4.128711e+001  -4.104865e+001 
4359375000  -3.992325e+001  -2.860234e+001 
4362500000  -3.656303e+001  -3.588520e+001 
4365625000  -3.589730e+001  -5.427029e+001 
4368750000  -3.724241e+001  -6.338678e+001 
4371875000  -3.785441e+001  -6.408218e+001 
4375000000  -3.736071e+001  -6.795345e+001 
4378125000  -3.672444e+001  -7.460066e+001 
4381250000  -3.708401e+001  -8.298479e+001 
4384375000  -3.712778e+001  -8.920126e+001 
4387500000  -3.805876e+001  -9.539272e+001 
4390625000  -3.852422e+001  -9.583901e+001 
4393750000  -3.792785e+001  -9.735575e+001 
4396875000  -3.726085e+001  -1.030173e+002 
4400000000  -3.694986e+001  -1.105693e+002 
4403125000  -3.783489e+001  -1.206633e+002 
4406250000  -3.842263e+001  -1.238035e+002 
4409375000  -3.866398e+001  -1.253582e+002 
4412500000  -3.987958e+001  -1.299446e+002 
4415625000  -3.931730e+001  -1.258651e+002 
