!Agilent Technologies,E8363B,MY43030201,A.06.04.32
!Agilent E8363B: A.06.04.32
!Date: Tuesday, November 11, 2014 21:35:49
!Correction: S21(Response(S21)) 
!S1P File: Measurement: S21:
# Hz S  dB   R 50
3000000000  -4.050897e+001  7.206126e+001 
3003125000  -4.231196e+001  6.432288e+001 
3006250000  -4.206111e+001  6.352089e+001 
3009375000  -4.285292e+001  6.835914e+001 
3012500000  -4.160960e+001  6.234771e+001 
3015625000  -4.150109e+001  5.565233e+001 
3018750000  -4.184188e+001  5.781337e+001 
3021875000  -4.014313e+001  5.877191e+001 
3025000000  -3.871444e+001  5.474304e+001 
3028125000  -3.793814e+001  4.378887e+001 
3031250000  -3.700064e+001  3.196164e+001 
3034375000  -3.665748e+001  1.800540e+001 
3037500000  -3.746349e+001  7.143424e+000 
3040625000  -3.884230e+001  2.715094e+000 
3043750000  -3.908591e+001  -4.822410e+000 
3046875000  -4.001345e+001  -1.062720e+001 
3050000000  -4.082906e+001  -1.459520e+001 
3053125000  -4.059325e+001  -9.480565e+000 
3056250000  -4.031142e+001  -6.706845e+000 
3059375000  -3.974967e+001  -8.347587e+000 
3062500000  -3.824524e+001  -1.385752e+001 
3065625000  -3.788844e+001  -2.318289e+001 
3068750000  -3.762217e+001  -3.151405e+001 
3071875000  -3.758245e+001  -3.392278e+001 
3075000000  -3.686465e+001  -4.083218e+001 
3078125000  -3.701253e+001  -4.656744e+001 
3081250000  -3.718401e+001  -5.331418e+001 
3084375000  -3.636085e+001  -5.760295e+001 
3087500000  -3.646317e+001  -6.461356e+001 
3090625000  -3.587690e+001  -7.643789e+001 
3093750000  -3.696866e+001  -8.489087e+001 
3096875000  -3.734031e+001  -8.995267e+001 
3100000000  -3.734289e+001  -9.255835e+001 
3103125000  -3.748172e+001  -9.605232e+001 
3106250000  -3.713505e+001  -1.017267e+002 
3109375000  -3.723056e+001  -1.054553e+002 
3112500000  -3.712576e+001  -1.109765e+002 
3115625000  -3.707872e+001  -1.155849e+002 
3118750000  -3.725560e+001  -1.182142e+002 
3121875000  -3.649920e+001  -1.294767e+002 
3125000000  -3.852010e+001  -1.321140e+002 
3128125000  -3.841701e+001  -1.259049e+002 
3131250000  -3.609986e+001  -1.314721e+002 
3134375000  -3.532081e+001  -1.483833e+002 
3137500000  -3.613281e+001  -1.615753e+002 
3140625000  -3.742375e+001  -1.630633e+002 
3143750000  -3.813630e+001  -1.658987e+002 
3146875000  -3.767026e+001  -1.640845e+002 
3150000000  -3.688943e+001  -1.680146e+002 
3153125000  -3.729963e+001  -1.759958e+002 
3156250000  -3.787105e+001  -1.724054e+002 
3159375000  -3.563702e+001  -1.738801e+002 
3162500000  -3.403572e+001  1.705641e+002 
3165625000  -3.552861e+001  1.575596e+002 
3168750000  -3.537063e+001  1.566098e+002 
3171875000  -3.490596e+001  1.492943e+002 
3175000000  -3.541710e+001  1.403942e+002 
3178125000  -3.493192e+001  1.389233e+002 
3181250000  -3.442598e+001  1.295119e+002 
3184375000  -3.422445e+001  1.192589e+002 
3187500000  -3.534198e+001  1.044567e+002 
3190625000  -3.729659e+001  9.881410e+001 
3193750000  -3.755077e+001  1.033993e+002 
3196875000  -3.725257e+001  1.042993e+002 
3200000000  -3.601139e+001  9.905027e+001 
3203125000  -3.594225e+001  9.059504e+001 
3206250000  -3.613103e+001  8.377705e+001 
3209375000  -3.571597e+001  7.562120e+001 
3212500000  -3.620333e+001  6.923869e+001 
3215625000  -3.587915e+001  6.654807e+001 
3218750000  -3.684025e+001  5.486710e+001 
3221875000  -3.723236e+001  4.837992e+001 
3225000000  -3.706325e+001  4.364872e+001 
3228125000  -3.769691e+001  3.612877e+001 
3231250000  -3.827180e+001  3.449968e+001 
3234375000  -3.787594e+001  3.175763e+001 
3237500000  -3.806062e+001  2.766725e+001 
3240625000  -3.746501e+001  2.217402e+001 
3243750000  -3.756568e+001  1.286935e+001 
3246875000  -3.814733e+001  5.344340e+000 
3250000000  -3.877880e+001  8.512186e-001 
3253125000  -3.911165e+001  -1.283250e+000 
3256250000  -3.856186e+001  -9.548578e+000 
3259375000  -3.908506e+001  -2.081882e+001 
3262500000  -4.069160e+001  -2.412894e+001 
3265625000  -4.112263e+001  -2.112154e+001 
3268750000  -4.122554e+001  -2.066338e+001 
3271875000  -4.044147e+001  -2.564712e+001 
3275000000  -4.014952e+001  -3.470804e+001 
3278125000  -4.079092e+001  -3.706152e+001 
3281250000  -4.110339e+001  -3.921380e+001 
3284375000  -4.051082e+001  -4.607728e+001 
3287500000  -4.079646e+001  -4.881039e+001 
3290625000  -4.119923e+001  -5.715014e+001 
3293750000  -4.128581e+001  -6.268539e+001 
3296875000  -4.254696e+001  -6.379606e+001 
3300000000  -4.152238e+001  -6.461121e+001 
3303125000  -4.099545e+001  -7.044057e+001 
3306250000  -4.064526e+001  -7.627824e+001 
3309375000  -4.032727e+001  -8.552291e+001 
3312500000  -4.094212e+001  -9.766512e+001 
3315625000  -4.225696e+001  -1.031203e+002 
3318750000  -4.395345e+001  -1.082649e+002 
3321875000  -4.504541e+001  -1.047024e+002 
3325000000  -4.510410e+001  -9.780498e+001 
3328125000  -4.397744e+001  -9.810860e+001 
3331250000  -4.173574e+001  -9.499091e+001 
3334375000  -3.961694e+001  -1.115974e+002 
3337500000  -4.052478e+001  -1.328666e+002 
3340625000  -4.214756e+001  -1.422139e+002 
3343750000  -4.435710e+001  -1.398131e+002 
3346875000  -4.324261e+001  -1.407578e+002 
3350000000  -4.315335e+001  -1.433650e+002 
3353125000  -4.295871e+001  -1.521332e+002 
3356250000  -4.250923e+001  -1.596729e+002 
3359375000  -4.325904e+001  -1.695347e+002 
3362500000  -4.418739e+001  -1.772813e+002 
3365625000  -4.471093e+001  1.790969e+002 
3368750000  -4.537090e+001  1.753252e+002 
3371875000  -4.586488e+001  1.723421e+002 
3375000000  -4.725010e+001  1.666249e+002 
3378125000  -4.811318e+001  1.677127e+002 
3381250000  -4.940556e+001  1.771845e+002 
3384375000  -4.642659e+001  -1.688881e+002 
3387500000  -4.367304e+001  1.702420e+002 
3390625000  -4.627491e+001  1.521817e+002 
3393750000  -4.666249e+001  1.500447e+002 
3396875000  -4.591824e+001  1.502170e+002 
3400000000  -4.591312e+001  1.366901e+002 
3403125000  -4.671611e+001  1.344706e+002 
3406250000  -4.759520e+001  1.292331e+002 
3409375000  -4.775364e+001  1.220574e+002 
3412500000  -4.881353e+001  1.150222e+002 
3415625000  -5.026498e+001  1.162701e+002 
3418750000  -5.047756e+001  1.201564e+002 
3421875000  -5.061800e+001  1.232245e+002 
3425000000  -5.009039e+001  1.201932e+002 
3428125000  -4.973434e+001  1.132107e+002 
3431250000  -5.031287e+001  1.052180e+002 
3434375000  -5.017708e+001  1.023527e+002 
3437500000  -5.197720e+001  9.868890e+001 
3440625000  -5.165758e+001  1.051999e+002 
3443750000  -5.054217e+001  1.041259e+002 
3446875000  -5.095024e+001  9.702472e+001 
3450000000  -4.986841e+001  9.312723e+001 
3453125000  -5.031690e+001  8.526123e+001 
3456250000  -5.197316e+001  8.116609e+001 
3459375000  -5.336230e+001  8.513647e+001 
3462500000  -5.315708e+001  8.976978e+001 
3465625000  -5.103259e+001  7.683514e+001 
3468750000  -5.195590e+001  8.030764e+001 
3471875000  -5.214465e+001  7.725636e+001 
3475000000  -5.057182e+001  6.865166e+001 
3478125000  -5.156746e+001  6.158746e+001 
3481250000  -5.215950e+001  6.056160e+001 
3484375000  -5.250484e+001  6.830151e+001 
3487500000  -5.146697e+001  5.963242e+001 
3490625000  -5.108254e+001  4.792081e+001 
3493750000  -5.180189e+001  4.833664e+001 
3496875000  -5.087589e+001  4.725592e+001 
3500000000  -5.259938e+001  4.639600e+001 
3503125000  -5.052480e+001  4.614365e+001 
3506250000  -4.960832e+001  3.288149e+001 
3509375000  -4.997029e+001  2.310017e+001 
3512500000  -5.035553e+001  8.506674e+000 
3515625000  -5.151810e+001  7.697941e+000 
3518750000  -5.274635e+001  7.404789e+000 
3521875000  -5.228171e+001  7.099221e+000 
3525000000  -5.331862e+001  -7.384876e+000 
3528125000  -5.291018e+001  2.274568e+000 
3531250000  -5.161347e+001  -2.613764e+000 
3534375000  -5.266064e+001  -1.785127e+001 
3537500000  -5.382983e+001  -2.612541e+001 
3540625000  -5.405285e+001  -2.516296e+001 
3543750000  -5.487662e+001  -1.524841e+001 
3546875000  -5.567694e+001  -1.729907e+001 
3550000000  -5.473708e+001  -1.846679e+001 
3553125000  -5.418824e+001  -3.811250e+001 
3556250000  -5.482362e+001  -4.149921e+001 
3559375000  -5.565984e+001  -3.780943e+001 
3562500000  -5.614413e+001  -4.704871e+001 
3565625000  -5.757563e+001  -4.308203e+001 
3568750000  -5.638570e+001  -4.544394e+001 
3571875000  -5.850920e+001  -4.550280e+001 
3575000000  -5.952040e+001  -3.546477e+001 
3578125000  -5.847216e+001  -5.147850e+001 
3581250000  -5.790839e+001  -4.247402e+001 
3584375000  -5.803622e+001  -4.644325e+001 
3587500000  -6.056630e+001  -4.233018e+001 
3590625000  -5.989847e+001  -5.120050e+001 
3593750000  -6.103571e+001  -3.947145e+001 
3596875000  -6.114528e+001  -4.255227e+001 
3600000000  -5.879560e+001  -4.123614e+001 
3603125000  -6.027786e+001  -6.284457e+001 
3606250000  -5.655478e+001  -5.348377e+001 
3609375000  -5.838383e+001  -4.794569e+001 
3612500000  -6.001560e+001  -4.665297e+001 
3615625000  -5.961015e+001  -4.991312e+001 
3618750000  -5.921317e+001  -5.208111e+001 
3621875000  -5.955917e+001  -4.091058e+001 
3625000000  -5.977043e+001  -5.253247e+001 
3628125000  -5.699054e+001  -3.663664e+001 
3631250000  -5.748042e+001  -5.188309e+001 
3634375000  -5.686637e+001  -5.176648e+001 
3637500000  -5.545274e+001  -4.729454e+001 
3640625000  -5.432087e+001  -3.840084e+001 
3643750000  -5.279225e+001  -4.729720e+001 
3646875000  -5.291231e+001  -6.037325e+001 
3650000000  -5.429214e+001  -5.964712e+001 
3653125000  -5.201563e+001  -6.464024e+001 
3656250000  -5.220353e+001  -6.289957e+001 
3659375000  -5.146505e+001  -6.695364e+001 
3662500000  -5.055471e+001  -6.820802e+001 
3665625000  -5.014817e+001  -7.191816e+001 
3668750000  -4.854300e+001  -7.412162e+001 
3671875000  -4.766146e+001  -8.811755e+001 
3675000000  -4.752618e+001  -9.562099e+001 
3678125000  -4.737653e+001  -9.708917e+001 
3681250000  -4.648934e+001  -1.008726e+002 
3684375000  -4.703909e+001  -1.055154e+002 
3687500000  -4.699812e+001  -1.126814e+002 
3690625000  -4.670825e+001  -1.175919e+002 
3693750000  -4.728217e+001  -1.230776e+002 
3696875000  -4.593558e+001  -1.196475e+002 
3700000000  -4.487535e+001  -1.291937e+002 
3703125000  -4.536227e+001  -1.336391e+002 
3706250000  -4.560209e+001  -1.357370e+002 
3709375000  -4.474812e+001  -1.339413e+002 
3712500000  -4.359253e+001  -1.390092e+002 
3715625000  -4.175312e+001  -1.493243e+002 
3718750000  -4.175602e+001  -1.559790e+002 
3721875000  -4.155745e+001  -1.634769e+002 
3725000000  -4.176337e+001  -1.708777e+002 
3728125000  -4.159492e+001  -1.736438e+002 
3731250000  -4.088267e+001  1.796911e+002 
3734375000  -4.028260e+001  1.720030e+002 
3737500000  -4.095269e+001  1.633634e+002 
3740625000  -4.110432e+001  1.572253e+002 
3743750000  -4.051854e+001  1.500031e+002 
3746875000  -4.072733e+001  1.449670e+002 
3750000000  -4.084245e+001  1.390280e+002 
3753125000  -4.069827e+001  1.358904e+002 
3756250000  -4.080362e+001  1.329125e+002 
3759375000  -4.040845e+001  1.274213e+002 
3762500000  -4.018818e+001  1.204181e+002 
3765625000  -4.074513e+001  1.155489e+002 
3768750000  -4.002093e+001  1.172074e+002 
3771875000  -3.828549e+001  1.094308e+002 
3775000000  -3.853904e+001  9.791624e+001 
3778125000  -3.889362e+001  9.188233e+001 
3781250000  -3.888887e+001  8.629461e+001 
3784375000  -3.872373e+001  8.219341e+001 
3787500000  -3.841588e+001  7.484074e+001 
3790625000  -3.934367e+001  6.656634e+001 
3793750000  -3.878856e+001  6.326905e+001 
3796875000  -3.807523e+001  5.785528e+001 
3800000000  -3.633417e+001  5.451831e+001 
3803125000  -3.809508e+001  4.130631e+001 
3806250000  -3.871423e+001  3.624626e+001 
3809375000  -3.836337e+001  3.338891e+001 
3812500000  -3.847402e+001  2.441023e+001 
3815625000  -3.979679e+001  1.275021e+001 
3818750000  -4.079748e+001  1.644713e+001 
3821875000  -4.046393e+001  2.549981e+001 
3825000000  -3.821533e+001  1.929860e+001 
3828125000  -3.702520e+001  1.617688e+000 
3831250000  -3.817358e+001  -1.192588e+001 
3834375000  -4.047739e+001  -1.061725e+001 
3837500000  -4.049415e+001  -6.561200e+000 
3840625000  -3.919725e+001  -1.306758e+001 
3843750000  -3.835574e+001  -2.776907e+001 
3846875000  -4.007408e+001  -3.347310e+001 
3850000000  -4.062545e+001  -2.698309e+001 
3853125000  -3.996749e+001  -2.438709e+001 
3856250000  -3.930662e+001  -3.629110e+001 
3859375000  -3.873489e+001  -4.091574e+001 
3862500000  -3.844389e+001  -5.176206e+001 
3865625000  -3.899430e+001  -5.727507e+001 
3868750000  -3.868190e+001  -5.826365e+001 
3871875000  -3.801902e+001  -6.582458e+001 
3875000000  -3.848780e+001  -7.516006e+001 
3878125000  -3.935521e+001  -7.933971e+001 
3881250000  -3.916888e+001  -7.936109e+001 
3884375000  -3.894859e+001  -8.649084e+001 
3887500000  -3.927164e+001  -9.176675e+001 
3890625000  -3.959428e+001  -9.586420e+001 
3893750000  -3.983249e+001  -9.783112e+001 
3896875000  -4.002305e+001  -1.008223e+002 
3900000000  -3.974438e+001  -1.045647e+002 
3903125000  -3.904785e+001  -1.084804e+002 
3906250000  -3.885725e+001  -1.128238e+002 
3909375000  -3.824313e+001  -1.210261e+002 
3912500000  -3.913616e+001  -1.306237e+002 
3915625000  -4.052133e+001  -1.302308e+002 
3918750000  -4.003017e+001  -1.302341e+002 
3921875000  -3.941079e+001  -1.366188e+002 
3925000000  -3.864270e+001  -1.427168e+002 
3928125000  -3.828761e+001  -1.527082e+002 
3931250000  -3.897775e+001  -1.575932e+002 
3934375000  -3.958563e+001  -1.602495e+002 
3937500000  -4.028124e+001  -1.613989e+002 
3940625000  -4.014020e+001  -1.648142e+002 
3943750000  -3.901546e+001  -1.673495e+002 
3946875000  -3.821611e+001  -1.763167e+002 
3950000000  -3.981749e+001  1.763035e+002 
3953125000  -4.008860e+001  1.754106e+002 
3956250000  -3.870816e+001  1.769127e+002 
3959375000  -3.793279e+001  1.705816e+002 
3962500000  -3.766011e+001  1.594006e+002 
3965625000  -3.788774e+001  1.520395e+002 
3968750000  -3.858241e+001  1.440977e+002 
3971875000  -3.862066e+001  1.391636e+002 
3975000000  -3.807962e+001  1.350235e+002 
3978125000  -3.846476e+001  1.300418e+002 
3981250000  -3.866022e+001  1.237057e+002 
3984375000  -3.878453e+001  1.159904e+002 
3987500000  -3.979270e+001  1.134804e+002 
3990625000  -3.996958e+001  1.116383e+002 
3993750000  -4.001297e+001  1.063309e+002 
3996875000  -3.990206e+001  1.024298e+002 
4000000000  -4.069661e+001  9.704232e+001 
4003125000  -4.108142e+001  9.909473e+001 
4006250000  -3.930424e+001  9.636742e+001 
4009375000  -3.854722e+001  8.268368e+001 
4012500000  -3.987297e+001  7.278188e+001 
4015625000  -4.146371e+001  7.389790e+001 
4018750000  -4.129314e+001  7.368705e+001 
4021875000  -4.078370e+001  7.215696e+001 
4025000000  -4.059774e+001  6.432767e+001 
4028125000  -4.050680e+001  5.830019e+001 
4031250000  -4.104993e+001  5.433316e+001 
4034375000  -4.161470e+001  5.460097e+001 
4037500000  -4.075591e+001  5.383305e+001 
4040625000  -4.097876e+001  4.749486e+001 
4043750000  -4.111608e+001  4.801748e+001 
4046875000  -4.075502e+001  4.329938e+001 
4050000000  -4.059027e+001  3.765491e+001 
4053125000  -4.134642e+001  3.665906e+001 
4056250000  -4.183886e+001  4.126371e+001 
4059375000  -3.944667e+001  3.701145e+001 
4062500000  -3.875547e+001  2.908596e+001 
4065625000  -3.881199e+001  2.309735e+001 
4068750000  -3.839412e+001  1.730517e+001 
4071875000  -3.802195e+001  5.359935e+000 
4075000000  -3.845504e+001  -6.110381e-001 
4078125000  -3.870346e+001  -5.245407e+000 
4081250000  -3.829393e+001  -1.019984e+001 
4084375000  -3.797648e+001  -1.938080e+001 
4087500000  -3.884998e+001  -2.572216e+001 
4090625000  -3.933201e+001  -2.756443e+001 
4093750000  -3.860873e+001  -3.010135e+001 
4096875000  -3.898783e+001  -3.949264e+001 
4100000000  -3.998666e+001  -4.841304e+001 
4103125000  -4.063302e+001  -4.346458e+001 
4106250000  -3.987883e+001  -4.304790e+001 
4109375000  -3.928639e+001  -4.633437e+001 
4112500000  -3.878136e+001  -5.450365e+001 
4115625000  -3.924971e+001  -6.218243e+001 
4118750000  -3.910067e+001  -6.628989e+001 
4121875000  -3.898112e+001  -7.341724e+001 
4125000000  -3.996187e+001  -8.024065e+001 
4128125000  -4.100845e+001  -7.856612e+001 
4131250000  -3.992728e+001  -7.321832e+001 
4134375000  -3.771309e+001  -8.317793e+001 
4137500000  -3.822183e+001  -1.036828e+002 
4140625000  -4.055682e+001  -1.088948e+002 
4143750000  -4.173623e+001  -1.023855e+002 
4146875000  -4.040592e+001  -9.933743e+001 
4150000000  -3.973636e+001  -1.075079e+002 
4153125000  -4.015281e+001  -1.150601e+002 
4156250000  -4.112838e+001  -1.201539e+002 
4159375000  -4.110380e+001  -1.152038e+002 
4162500000  -4.010907e+001  -1.116688e+002 
4165625000  -3.856358e+001  -1.211165e+002 
4168750000  -3.850319e+001  -1.300000e+002 
4171875000  -3.835638e+001  -1.394677e+002 
4175000000  -3.951928e+001  -1.456975e+002 
4178125000  -3.994404e+001  -1.445876e+002 
4181250000  -3.940859e+001  -1.524974e+002 
4184375000  -3.950843e+001  -1.557456e+002 
4187500000  -3.953246e+001  -1.598950e+002 
4190625000  -3.969557e+001  -1.693802e+002 
4193750000  -4.065288e+001  -1.725088e+002 
4196875000  -4.156929e+001  -1.721964e+002 
4200000000  -4.246491e+001  -1.633603e+002 
4203125000  -4.087656e+001  -1.553514e+002 
4206250000  -3.748357e+001  -1.656343e+002 
4209375000  -3.746519e+001  1.725972e+002 
4212500000  -3.967993e+001  1.640000e+002 
4215625000  -4.000521e+001  1.726008e+002 
4218750000  -3.844206e+001  1.733644e+002 
4221875000  -3.668760e+001  1.627190e+002 
4225000000  -3.818269e+001  1.511341e+002 
4228125000  -3.771298e+001  1.546391e+002 
4231250000  -3.625353e+001  1.463365e+002 
4234375000  -3.637788e+001  1.343739e+002 
4237500000  -3.629797e+001  1.304563e+002 
4240625000  -3.641004e+001  1.177384e+002 
4243750000  -3.763169e+001  1.106728e+002 
4246875000  -3.814479e+001  1.096946e+002 
4250000000  -3.853591e+001  1.091179e+002 
4253125000  -3.816320e+001  1.072911e+002 
4256250000  -3.814553e+001  1.014480e+002 
4259375000  -3.752291e+001  9.425610e+001 
4262500000  -3.779371e+001  9.115800e+001 
4265625000  -3.790879e+001  8.786037e+001 
4268750000  -3.683381e+001  8.192140e+001 
4271875000  -3.681552e+001  7.269936e+001 
4275000000  -3.659928e+001  6.310452e+001 
4278125000  -3.785139e+001  5.223108e+001 
4281250000  -3.923962e+001  5.158094e+001 
4284375000  -3.875110e+001  4.820517e+001 
4287500000  -4.044090e+001  4.405906e+001 
4290625000  -4.068629e+001  5.304989e+001 
4293750000  -3.885734e+001  5.442146e+001 
4296875000  -3.781361e+001  4.085005e+001 
4300000000  -3.917799e+001  3.056270e+001 
4303125000  -3.981761e+001  3.459363e+001 
4306250000  -3.868151e+001  3.623993e+001 
4309375000  -3.774929e+001  2.985411e+001 
4312500000  -3.763066e+001  1.950765e+001 
4315625000  -3.780093e+001  1.024481e+001 
4318750000  -3.874357e+001  7.223695e+000 
4321875000  -3.855560e+001  8.214483e+000 
4325000000  -3.800451e+001  7.652358e+000 
4328125000  -3.712970e+001  -2.779571e+000 
4331250000  -3.750271e+001  -1.273686e+001 
4334375000  -3.850404e+001  -2.100078e+001 
4337500000  -3.949397e+001  -2.232446e+001 
4340625000  -3.958507e+001  -1.734098e+001 
4343750000  -3.844305e+001  -1.946568e+001 
4346875000  -3.846265e+001  -2.756048e+001 
4350000000  -3.843369e+001  -3.726824e+001 
4353125000  -3.920151e+001  -4.298287e+001 
4356250000  -4.098969e+001  -3.806279e+001 
4359375000  -3.956508e+001  -2.563363e+001 
4362500000  -3.661464e+001  -3.483348e+001 
4365625000  -3.576964e+001  -5.214431e+001 
4368750000  -3.722322e+001  -6.059518e+001 
4371875000  -3.793516e+001  -6.192112e+001 
4375000000  -3.739682e+001  -6.655413e+001 
4378125000  -3.705135e+001  -7.390790e+001 
4381250000  -3.713957e+001  -8.243575e+001 
4384375000  -3.742806e+001  -8.711300e+001 
4387500000  -3.809806e+001  -9.363061e+001 
4390625000  -3.858478e+001  -9.376578e+001 
4393750000  -3.794343e+001  -9.347007e+001 
4396875000  -3.739110e+001  -9.962766e+001 
4400000000  -3.706090e+001  -1.080941e+002 
4403125000  -3.769504e+001  -1.169755e+002 
4406250000  -3.824922e+001  -1.209436e+002 
4409375000  -3.881805e+001  -1.261685e+002 
4412500000  -3.985086e+001  -1.279170e+002 
4415625000  -3.935073e+001  -1.242160e+002 
