!Agilent Technologies,E8363B,MY43030201,A.06.04.32
!Agilent E8363B: A.06.04.32
!Date: Tuesday, November 11, 2014 21:27:36
!Correction: S21(Response(S21)) 
!S1P File: Measurement: S21:
# Hz S  dB   R 50
3000000000  -4.068112e+001  9.217284e+001 
3003125000  -4.219327e+001  8.468596e+001 
3006250000  -4.218384e+001  8.286085e+001 
3009375000  -4.283684e+001  8.884998e+001 
3012500000  -4.172670e+001  8.293307e+001 
3015625000  -4.138963e+001  7.603017e+001 
3018750000  -4.180775e+001  7.580354e+001 
3021875000  -4.042917e+001  7.789416e+001 
3025000000  -3.900300e+001  7.319533e+001 
3028125000  -3.809129e+001  6.477627e+001 
3031250000  -3.702818e+001  5.232314e+001 
3034375000  -3.686468e+001  3.926528e+001 
3037500000  -3.752415e+001  2.723438e+001 
3040625000  -3.871293e+001  2.252154e+001 
3043750000  -3.920835e+001  1.626997e+001 
3046875000  -3.972766e+001  1.072695e+001 
3050000000  -4.105755e+001  4.869850e+000 
3053125000  -4.066589e+001  1.034072e+001 
3056250000  -4.032344e+001  1.251862e+001 
3059375000  -4.013840e+001  1.024230e+001 
3062500000  -3.823022e+001  4.869859e+000 
3065625000  -3.809817e+001  -3.275063e+000 
3068750000  -3.759160e+001  -1.144849e+001 
3071875000  -3.783389e+001  -1.439947e+001 
3075000000  -3.722048e+001  -2.056017e+001 
3078125000  -3.700987e+001  -2.643721e+001 
3081250000  -3.735119e+001  -3.186709e+001 
3084375000  -3.642942e+001  -3.740410e+001 
3087500000  -3.656082e+001  -4.355717e+001 
3090625000  -3.593455e+001  -5.552531e+001 
3093750000  -3.690170e+001  -6.412631e+001 
3096875000  -3.752505e+001  -6.953130e+001 
3100000000  -3.733636e+001  -7.245325e+001 
3103125000  -3.755096e+001  -7.550015e+001 
3106250000  -3.719455e+001  -8.096191e+001 
3109375000  -3.733068e+001  -8.500758e+001 
3112500000  -3.724606e+001  -8.973980e+001 
3115625000  -3.704866e+001  -9.473865e+001 
3118750000  -3.731723e+001  -9.740544e+001 
3121875000  -3.667363e+001  -1.082145e+002 
3125000000  -3.842016e+001  -1.122289e+002 
3128125000  -3.879313e+001  -1.056802e+002 
3131250000  -3.632468e+001  -1.111248e+002 
3134375000  -3.532166e+001  -1.283911e+002 
3137500000  -3.604963e+001  -1.412503e+002 
3140625000  -3.741998e+001  -1.431402e+002 
3143750000  -3.840827e+001  -1.459402e+002 
3146875000  -3.772161e+001  -1.440780e+002 
3150000000  -3.692798e+001  -1.475174e+002 
3153125000  -3.722234e+001  -1.564420e+002 
3156250000  -3.800437e+001  -1.508301e+002 
3159375000  -3.591257e+001  -1.536071e+002 
3162500000  -3.433574e+001  -1.683260e+002 
3165625000  -3.547414e+001  1.785091e+002 
3168750000  -3.552066e+001  1.779785e+002 
3171875000  -3.488596e+001  1.712472e+002 
3175000000  -3.556038e+001  1.603890e+002 
3178125000  -3.511811e+001  1.602293e+002 
3181250000  -3.447979e+001  1.517575e+002 
3184375000  -3.416743e+001  1.398980e+002 
3187500000  -3.534383e+001  1.250028e+002 
3190625000  -3.734204e+001  1.184379e+002 
3193750000  -3.761144e+001  1.238076e+002 
3196875000  -3.739813e+001  1.253634e+002 
3200000000  -3.637384e+001  1.205352e+002 
3203125000  -3.592385e+001  1.121170e+002 
3206250000  -3.637689e+001  1.046804e+002 
3209375000  -3.580267e+001  9.764728e+001 
3212500000  -3.625120e+001  8.989799e+001 
3215625000  -3.609864e+001  8.662305e+001 
3218750000  -3.685498e+001  7.603799e+001 
3221875000  -3.746283e+001  6.983366e+001 
3225000000  -3.713272e+001  6.624483e+001 
3228125000  -3.780573e+001  5.808217e+001 
3231250000  -3.842892e+001  5.578968e+001 
3234375000  -3.792758e+001  5.292328e+001 
3237500000  -3.825235e+001  5.037694e+001 
3240625000  -3.774700e+001  4.356025e+001 
3243750000  -3.759256e+001  3.354168e+001 
3246875000  -3.824467e+001  2.685355e+001 
3250000000  -3.877586e+001  2.274545e+001 
3253125000  -3.913432e+001  1.964970e+001 
3256250000  -3.871050e+001  1.086998e+001 
3259375000  -3.910110e+001  8.926330e-001 
3262500000  -4.053842e+001  -2.645149e+000 
3265625000  -4.119633e+001  -3.979505e-001 
3268750000  -4.126724e+001  1.660299e+000 
3271875000  -4.093073e+001  -2.895984e+000 
3275000000  -4.008532e+001  -1.065314e+001 
3278125000  -4.064559e+001  -1.658546e+001 
3281250000  -4.090818e+001  -1.684352e+001 
3284375000  -4.059884e+001  -2.361355e+001 
3287500000  -4.086003e+001  -2.730561e+001 
3290625000  -4.122008e+001  -3.625105e+001 
3293750000  -4.112732e+001  -3.942740e+001 
3296875000  -4.241328e+001  -4.261035e+001 
3300000000  -4.182427e+001  -4.215688e+001 
3303125000  -4.098921e+001  -4.851386e+001 
3306250000  -4.092525e+001  -5.604477e+001 
3309375000  -4.063578e+001  -6.241624e+001 
3312500000  -4.090955e+001  -7.204745e+001 
3315625000  -4.231566e+001  -8.157331e+001 
3318750000  -4.323599e+001  -8.696356e+001 
3321875000  -4.484322e+001  -8.355714e+001 
3325000000  -4.456965e+001  -7.767471e+001 
3328125000  -4.416985e+001  -7.827339e+001 
3331250000  -4.257420e+001  -7.576852e+001 
3334375000  -3.995345e+001  -8.660826e+001 
3337500000  -4.048069e+001  -1.081793e+002 
3340625000  -4.210378e+001  -1.196297e+002 
3343750000  -4.394482e+001  -1.160732e+002 
3346875000  -4.347441e+001  -1.198619e+002 
3350000000  -4.285362e+001  -1.205898e+002 
3353125000  -4.297670e+001  -1.306556e+002 
3356250000  -4.267310e+001  -1.362594e+002 
3359375000  -4.319767e+001  -1.477904e+002 
3362500000  -4.426682e+001  -1.542607e+002 
3365625000  -4.484304e+001  -1.562028e+002 
3368750000  -4.548343e+001  -1.614135e+002 
3371875000  -4.597186e+001  -1.677165e+002 
3375000000  -4.712278e+001  -1.702289e+002 
3378125000  -4.782470e+001  -1.674642e+002 
3381250000  -4.939078e+001  -1.575864e+002 
3384375000  -4.722852e+001  -1.446258e+002 
3387500000  -4.439301e+001  -1.638093e+002 
3390625000  -4.620908e+001  1.723684e+002 
3393750000  -4.763024e+001  1.725647e+002 
3396875000  -4.589803e+001  1.758201e+002 
3400000000  -4.613909e+001  1.640184e+002 
3403125000  -4.682835e+001  1.541817e+002 
3406250000  -4.762754e+001  1.550034e+002 
3409375000  -4.749101e+001  1.443915e+002 
3412500000  -4.833391e+001  1.405736e+002 
3415625000  -5.007530e+001  1.386726e+002 
3418750000  -4.995522e+001  1.389250e+002 
3421875000  -5.145494e+001  1.440435e+002 
3425000000  -4.968660e+001  1.413229e+002 
3428125000  -5.038421e+001  1.358452e+002 
3431250000  -5.018551e+001  1.275929e+002 
3434375000  -5.057745e+001  1.274718e+002 
3437500000  -5.210920e+001  1.230308e+002 
3440625000  -5.180767e+001  1.251762e+002 
3443750000  -5.089590e+001  1.342404e+002 
3446875000  -5.096579e+001  1.183520e+002 
3450000000  -5.062020e+001  1.145641e+002 
3453125000  -5.077549e+001  1.028042e+002 
3456250000  -5.198876e+001  1.040905e+002 
3459375000  -5.353783e+001  1.072963e+002 
3462500000  -5.215899e+001  1.121917e+002 
3465625000  -5.182408e+001  1.044213e+002 
3468750000  -5.175075e+001  1.033873e+002 
3471875000  -5.207570e+001  9.888321e+001 
3475000000  -5.171103e+001  9.551659e+001 
3478125000  -5.137716e+001  8.459452e+001 
3481250000  -5.217886e+001  8.415440e+001 
3484375000  -5.263895e+001  8.402243e+001 
3487500000  -5.147262e+001  8.636794e+001 
3490625000  -5.032728e+001  7.848812e+001 
3493750000  -5.140280e+001  6.929037e+001 
3496875000  -5.108428e+001  7.200225e+001 
3500000000  -5.184568e+001  6.874422e+001 
3503125000  -5.072118e+001  7.133211e+001 
3506250000  -4.916371e+001  5.931541e+001 
3509375000  -4.920817e+001  5.116936e+001 
3512500000  -4.982165e+001  3.530090e+001 
3515625000  -5.109615e+001  3.766142e+001 
3518750000  -5.185786e+001  3.436589e+001 
3521875000  -5.202505e+001  2.373684e+001 
3525000000  -5.234699e+001  1.624368e+001 
3528125000  -5.196107e+001  2.359925e+001 
3531250000  -5.086879e+001  2.489805e+001 
3534375000  -5.200346e+001  5.610391e+000 
3537500000  -5.379468e+001  -2.682554e+000 
3540625000  -5.415786e+001  -9.453504e+000 
3543750000  -5.576223e+001  1.643977e+000 
3546875000  -5.561891e+001  5.833662e+000 
3550000000  -5.330983e+001  1.124724e+001 
3553125000  -5.256636e+001  -1.522450e+001 
3556250000  -5.511100e+001  -1.701560e+001 
3559375000  -5.545390e+001  -1.095197e+001 
3562500000  -5.570958e+001  -2.526056e+001 
3565625000  -5.687683e+001  -2.641553e+001 
3568750000  -5.659493e+001  -1.452894e+001 
3571875000  -5.740954e+001  -1.518252e+001 
3575000000  -5.836057e+001  -3.042879e+001 
3578125000  -5.854481e+001  -2.161169e+001 
3581250000  -5.757688e+001  -2.960827e+001 
3584375000  -5.929152e+001  -1.298178e+001 
3587500000  -5.733356e+001  -1.626286e+001 
3590625000  -5.805783e+001  -3.135462e+001 
3593750000  -5.876233e+001  -4.348529e+001 
3596875000  -5.760495e+001  -1.420873e+001 
3600000000  -5.846964e+001  -2.144713e+001 
3603125000  -5.899326e+001  -2.324006e+001 
3606250000  -5.778207e+001  -3.287046e+001 
3609375000  -5.934747e+001  -3.615831e+001 
3612500000  -5.791351e+001  -2.307558e+001 
3615625000  -5.905981e+001  -3.570041e+001 
3618750000  -5.855046e+001  -2.642524e+001 
3621875000  -5.769411e+001  -2.575616e+001 
3625000000  -5.886601e+001  -3.280234e+001 
3628125000  -5.597134e+001  -2.920366e+001 
3631250000  -5.659025e+001  -2.432597e+001 
3634375000  -5.746145e+001  -3.999185e+001 
3637500000  -5.618634e+001  -2.074330e+001 
3640625000  -5.445368e+001  -2.031233e+001 
3643750000  -5.452477e+001  -2.708707e+001 
3646875000  -5.283994e+001  -4.128239e+001 
3650000000  -5.425441e+001  -4.235629e+001 
3653125000  -5.177618e+001  -4.380998e+001 
3656250000  -5.129247e+001  -4.967220e+001 
3659375000  -5.174668e+001  -4.732283e+001 
3662500000  -5.064542e+001  -5.199464e+001 
3665625000  -4.992949e+001  -4.940343e+001 
3668750000  -4.817200e+001  -5.553912e+001 
3671875000  -4.768268e+001  -6.159698e+001 
3675000000  -4.720227e+001  -7.207738e+001 
3678125000  -4.772357e+001  -7.350148e+001 
3681250000  -4.711955e+001  -7.889120e+001 
3684375000  -4.703897e+001  -8.350027e+001 
3687500000  -4.672284e+001  -8.798116e+001 
3690625000  -4.748996e+001  -9.403558e+001 
3693750000  -4.710788e+001  -9.352742e+001 
3696875000  -4.657234e+001  -9.609983e+001 
3700000000  -4.560243e+001  -1.038302e+002 
3703125000  -4.569350e+001  -1.089432e+002 
3706250000  -4.585493e+001  -1.116012e+002 
3709375000  -4.500673e+001  -1.130162e+002 
3712500000  -4.374855e+001  -1.129374e+002 
3715625000  -4.226650e+001  -1.241980e+002 
3718750000  -4.185550e+001  -1.300749e+002 
3721875000  -4.159573e+001  -1.404748e+002 
3725000000  -4.187973e+001  -1.462576e+002 
3728125000  -4.153989e+001  -1.484872e+002 
3731250000  -4.087959e+001  -1.556573e+002 
3734375000  -4.039769e+001  -1.624591e+002 
3737500000  -4.095401e+001  -1.738881e+002 
3740625000  -4.103461e+001  -1.790678e+002 
3743750000  -4.066903e+001  1.758667e+002 
3746875000  -4.069884e+001  1.677303e+002 
3750000000  -4.116023e+001  1.632748e+002 
3753125000  -4.064172e+001  1.613446e+002 
3756250000  -4.076349e+001  1.574217e+002 
3759375000  -4.055667e+001  1.533608e+002 
3762500000  -4.004594e+001  1.458451e+002 
3765625000  -4.046511e+001  1.398894e+002 
3768750000  -4.037014e+001  1.405364e+002 
3771875000  -3.861543e+001  1.327470e+002 
3775000000  -3.865881e+001  1.216862e+002 
3778125000  -3.928521e+001  1.169240e+002 
3781250000  -3.890486e+001  1.118510e+002 
3784375000  -3.878204e+001  1.056520e+002 
3787500000  -3.856536e+001  1.000622e+002 
3790625000  -3.918087e+001  9.110596e+001 
3793750000  -3.927109e+001  8.682916e+001 
3796875000  -3.825229e+001  8.360516e+001 
3800000000  -3.648224e+001  7.869545e+001 
3803125000  -3.835202e+001  6.578194e+001 
3806250000  -3.897326e+001  6.143296e+001 
3809375000  -3.846880e+001  5.775840e+001 
3812500000  -3.834883e+001  4.817088e+001 
3815625000  -3.959008e+001  3.852854e+001 
3818750000  -4.072260e+001  3.783854e+001 
3821875000  -4.026737e+001  4.810243e+001 
3825000000  -3.832053e+001  4.571028e+001 
3828125000  -3.729470e+001  2.726145e+001 
3831250000  -3.807479e+001  1.300520e+001 
3834375000  -4.018728e+001  1.229077e+001 
3837500000  -4.047844e+001  1.579419e+001 
3840625000  -3.957686e+001  1.273765e+001 
3843750000  -3.849976e+001  -3.053702e-001 
3846875000  -4.018130e+001  -6.768101e+000 
3850000000  -4.079286e+001  -4.794477e+000 
3853125000  -3.994493e+001  -5.495864e-001 
3856250000  -3.964056e+001  -1.095022e+001 
3859375000  -3.875580e+001  -1.394703e+001 
3862500000  -3.858614e+001  -2.647030e+001 
3865625000  -3.919678e+001  -3.223250e+001 
3868750000  -3.890753e+001  -3.252575e+001 
3871875000  -3.808482e+001  -3.825471e+001 
3875000000  -3.854678e+001  -4.930669e+001 
3878125000  -3.961481e+001  -5.384786e+001 
3881250000  -3.917593e+001  -5.161643e+001 
3884375000  -3.871731e+001  -5.772322e+001 
3887500000  -3.909691e+001  -6.533527e+001 
3890625000  -3.955594e+001  -6.988766e+001 
3893750000  -3.998946e+001  -7.067596e+001 
3896875000  -3.995246e+001  -7.299674e+001 
3900000000  -3.972397e+001  -7.785414e+001 
3903125000  -3.925514e+001  -8.206469e+001 
3906250000  -3.867794e+001  -8.561996e+001 
3909375000  -3.824954e+001  -9.464806e+001 
3912500000  -3.894405e+001  -1.025642e+002 
3915625000  -4.024354e+001  -1.065944e+002 
3918750000  -3.992486e+001  -1.059697e+002 
3921875000  -3.949978e+001  -1.087757e+002 
3925000000  -3.868948e+001  -1.137884e+002 
3928125000  -3.811334e+001  -1.246560e+002 
3931250000  -3.898230e+001  -1.312749e+002 
3934375000  -3.937210e+001  -1.328015e+002 
3937500000  -3.998190e+001  -1.348807e+002 
3940625000  -3.988000e+001  -1.367504e+002 
3943750000  -3.911032e+001  -1.398904e+002 
3946875000  -3.842083e+001  -1.487531e+002 
3950000000  -3.934985e+001  -1.588984e+002 
3953125000  -3.977198e+001  -1.568769e+002 
3956250000  -3.908042e+001  -1.589646e+002 
3959375000  -3.795390e+001  -1.639489e+002 
3962500000  -3.765246e+001  -1.719291e+002 
3965625000  -3.763099e+001  1.778999e+002 
3968750000  -3.883920e+001  1.699685e+002 
3971875000  -3.874811e+001  1.649194e+002 
3975000000  -3.852611e+001  1.621736e+002 
3978125000  -3.860554e+001  1.576838e+002 
3981250000  -3.848616e+001  1.509362e+002 
3984375000  -3.889919e+001  1.445782e+002 
3987500000  -3.965231e+001  1.405638e+002 
3990625000  -4.000439e+001  1.390263e+002 
3993750000  -4.003512e+001  1.332273e+002 
3996875000  -3.984704e+001  1.286027e+002 
4000000000  -4.062698e+001  1.248114e+002 
4003125000  -4.101778e+001  1.266784e+002 
4006250000  -3.936796e+001  1.248171e+002 
4009375000  -3.875616e+001  1.108480e+002 
4012500000  -3.997146e+001  1.016450e+002 
4015625000  -4.128431e+001  1.002676e+002 
4018750000  -4.146626e+001  1.032554e+002 
4021875000  -4.124197e+001  9.945396e+001 
4025000000  -4.035113e+001  9.463394e+001 
4028125000  -4.049771e+001  8.589622e+001 
4031250000  -4.100909e+001  8.408378e+001 
4034375000  -4.148559e+001  8.105521e+001 
4037500000  -4.102004e+001  8.221813e+001 
4040625000  -4.066817e+001  7.893423e+001 
4043750000  -4.121425e+001  7.407456e+001 
4046875000  -4.055042e+001  7.039529e+001 
4050000000  -4.029193e+001  6.645549e+001 
4053125000  -4.086821e+001  6.474986e+001 
4056250000  -4.156245e+001  6.840486e+001 
4059375000  -3.950346e+001  6.549057e+001 
4062500000  -3.872781e+001  5.700817e+001 
4065625000  -3.870962e+001  5.212172e+001 
4068750000  -3.832589e+001  4.537001e+001 
4071875000  -3.779858e+001  3.456220e+001 
4075000000  -3.839716e+001  2.741592e+001 
4078125000  -3.860846e+001  2.396241e+001 
4081250000  -3.801561e+001  1.882722e+001 
4084375000  -3.760430e+001  1.040580e+001 
4087500000  -3.842076e+001  9.005843e-001 
4090625000  -3.901543e+001  1.177453e+000 
4093750000  -3.854324e+001  -1.833271e+000 
4096875000  -3.841175e+001  -1.102677e+001 
4100000000  -3.926822e+001  -1.895642e+001 
4103125000  -4.022816e+001  -1.717008e+001 
4106250000  -3.963782e+001  -1.471192e+001 
4109375000  -3.892137e+001  -1.675822e+001 
4112500000  -3.829689e+001  -2.683396e+001 
4115625000  -3.895596e+001  -3.467929e+001 
4118750000  -3.886115e+001  -3.816858e+001 
4121875000  -3.874945e+001  -4.602091e+001 
4125000000  -3.942332e+001  -5.125121e+001 
4128125000  -4.044621e+001  -5.027613e+001 
4131250000  -3.973327e+001  -4.372954e+001 
4134375000  -3.744343e+001  -5.227641e+001 
4137500000  -3.768837e+001  -7.530387e+001 
4140625000  -3.986987e+001  -8.166373e+001 
4143750000  -4.105346e+001  -7.616866e+001 
4146875000  -4.026433e+001  -7.201479e+001 
4150000000  -3.945251e+001  -7.822790e+001 
4153125000  -3.968328e+001  -8.642923e+001 
4156250000  -4.089483e+001  -9.282998e+001 
4159375000  -4.079570e+001  -8.656030e+001 
4162500000  -3.969418e+001  -8.459087e+001 
4165625000  -3.852283e+001  -9.243745e+001 
4168750000  -3.795922e+001  -1.012287e+002 
4171875000  -3.813293e+001  -1.107169e+002 
4175000000  -3.898877e+001  -1.180612e+002 
4178125000  -3.928706e+001  -1.195176e+002 
4181250000  -3.923510e+001  -1.234677e+002 
4184375000  -3.919405e+001  -1.266199e+002 
4187500000  -3.892046e+001  -1.329040e+002 
4190625000  -3.896434e+001  -1.395429e+002 
4193750000  -4.014991e+001  -1.462947e+002 
4196875000  -4.088020e+001  -1.457590e+002 
4200000000  -4.170338e+001  -1.427326e+002 
4203125000  -4.065337e+001  -1.296284e+002 
4206250000  -3.711581e+001  -1.352034e+002 
4209375000  -3.680961e+001  -1.595249e+002 
4212500000  -3.942778e+001  -1.677039e+002 
4215625000  -3.956078e+001  -1.598918e+002 
4218750000  -3.783311e+001  -1.565236e+002 
4221875000  -3.601249e+001  -1.686813e+002 
4225000000  -3.738458e+001  1.792146e+002 
4228125000  -3.745346e+001  -1.793007e+002 
4231250000  -3.583496e+001  1.734668e+002 
4234375000  -3.599837e+001  1.619097e+002 
4237500000  -3.579581e+001  1.571981e+002 
4240625000  -3.594916e+001  1.472155e+002 
4243750000  -3.694179e+001  1.374394e+002 
4246875000  -3.778949e+001  1.372041e+002 
4250000000  -3.773709e+001  1.372079e+002 
4253125000  -3.748764e+001  1.324638e+002 
4256250000  -3.733372e+001  1.279793e+002 
4259375000  -3.720074e+001  1.232842e+002 
4262500000  -3.731622e+001  1.186080e+002 
4265625000  -3.748955e+001  1.164351e+002 
4268750000  -3.643336e+001  1.091211e+002 
4271875000  -3.647690e+001  1.001279e+002 
4275000000  -3.580231e+001  9.293142e+001 
4278125000  -3.663137e+001  7.885741e+001 
4281250000  -3.839489e+001  7.736720e+001 
4284375000  -3.823078e+001  7.404025e+001 
4287500000  -3.991051e+001  7.196081e+001 
4290625000  -4.016390e+001  7.987953e+001 
4293750000  -3.829415e+001  8.106166e+001 
4296875000  -3.730878e+001  6.813763e+001 
4300000000  -3.849823e+001  5.766105e+001 
4303125000  -3.913639e+001  6.044143e+001 
4306250000  -3.797775e+001  6.425188e+001 
4309375000  -3.727039e+001  5.664861e+001 
4312500000  -3.716484e+001  4.542004e+001 
4315625000  -3.757728e+001  3.918031e+001 
4318750000  -3.798466e+001  3.395616e+001 
4321875000  -3.813975e+001  3.392694e+001 
4325000000  -3.762613e+001  3.382117e+001 
4328125000  -3.700938e+001  2.406781e+001 
4331250000  -3.701386e+001  1.383206e+001 
4334375000  -3.774100e+001  7.094252e+000 
4337500000  -3.890950e+001  5.859248e+000 
4340625000  -3.906506e+001  9.563819e+000 
4343750000  -3.825800e+001  7.811153e+000 
4346875000  -3.770650e+001  -1.618358e+000 
4350000000  -3.784632e+001  -9.163061e+000 
4353125000  -3.815033e+001  -1.711820e+001 
4356250000  -4.038505e+001  -1.409441e+001 
4359375000  -3.978808e+001  -2.306149e+000 
4362500000  -3.611378e+001  -6.484339e+000 
4365625000  -3.556507e+001  -2.440456e+001 
4368750000  -3.688337e+001  -3.367174e+001 
4371875000  -3.748935e+001  -3.451097e+001 
4375000000  -3.690870e+001  -3.705014e+001 
4378125000  -3.651200e+001  -4.522464e+001 
4381250000  -3.664000e+001  -5.231095e+001 
4384375000  -3.662321e+001  -6.046841e+001 
4387500000  -3.740885e+001  -6.664761e+001 
4390625000  -3.788503e+001  -6.678189e+001 
4393750000  -3.748552e+001  -6.639904e+001 
4396875000  -3.663291e+001  -7.228593e+001 
4400000000  -3.629934e+001  -8.120377e+001 
4403125000  -3.722266e+001  -9.165901e+001 
4406250000  -3.769280e+001  -9.384454e+001 
4409375000  -3.780732e+001  -9.869131e+001 
4412500000  -3.882901e+001  -1.013048e+002 
4415625000  -3.912117e+001  -9.760229e+001 
