!Agilent Technologies,E8363B,MY43030201,A.06.04.32
!Agilent E8363B: A.06.04.32
!Date: Tuesday, November 11, 2014 21:32:19
!Correction: S21(Response(S21)) 
!S1P File: Measurement: S21:
# Hz S  dB   R 50
3000000000  -4.054123e+001  7.802901e+001 
3003125000  -4.220155e+001  6.920361e+001 
3006250000  -4.216982e+001  6.882242e+001 
3009375000  -4.271032e+001  7.350748e+001 
3012500000  -4.165411e+001  6.868903e+001 
3015625000  -4.126019e+001  6.285343e+001 
3018750000  -4.169462e+001  6.308520e+001 
3021875000  -4.007773e+001  6.463060e+001 
3025000000  -3.892851e+001  6.047109e+001 
3028125000  -3.786138e+001  4.954097e+001 
3031250000  -3.695082e+001  3.767956e+001 
3034375000  -3.677047e+001  2.398743e+001 
3037500000  -3.744754e+001  1.254578e+001 
3040625000  -3.883358e+001  7.479744e+000 
3043750000  -3.919768e+001  6.160017e-001 
3046875000  -3.983808e+001  -3.984752e+000 
3050000000  -4.097687e+001  -1.028055e+001 
3053125000  -4.049134e+001  -4.780791e+000 
3056250000  -4.042560e+001  -1.649094e+000 
3059375000  -3.964307e+001  -3.729639e+000 
3062500000  -3.824841e+001  -7.458137e+000 
3065625000  -3.783279e+001  -1.836038e+001 
3068750000  -3.749424e+001  -2.651853e+001 
3071875000  -3.771938e+001  -2.744380e+001 
3075000000  -3.692545e+001  -3.444657e+001 
3078125000  -3.702349e+001  -4.138988e+001 
3081250000  -3.719893e+001  -4.730954e+001 
3084375000  -3.630742e+001  -5.188747e+001 
3087500000  -3.639891e+001  -5.906989e+001 
3090625000  -3.586173e+001  -7.040747e+001 
3093750000  -3.700286e+001  -7.869871e+001 
3096875000  -3.732344e+001  -8.359097e+001 
3100000000  -3.729847e+001  -8.739388e+001 
3103125000  -3.746132e+001  -8.991586e+001 
3106250000  -3.712729e+001  -9.536745e+001 
3109375000  -3.725790e+001  -9.918341e+001 
3112500000  -3.714870e+001  -1.053388e+002 
3115625000  -3.720120e+001  -1.091830e+002 
3118750000  -3.726417e+001  -1.121372e+002 
3121875000  -3.653147e+001  -1.239915e+002 
3125000000  -3.845153e+001  -1.274621e+002 
3128125000  -3.861784e+001  -1.197191e+002 
3131250000  -3.605493e+001  -1.253707e+002 
3134375000  -3.544264e+001  -1.436724e+002 
3137500000  -3.618482e+001  -1.547838e+002 
3140625000  -3.745375e+001  -1.576442e+002 
3143750000  -3.811708e+001  -1.608634e+002 
3146875000  -3.756873e+001  -1.580457e+002 
3150000000  -3.688543e+001  -1.625410e+002 
3153125000  -3.718895e+001  -1.711882e+002 
3156250000  -3.788795e+001  -1.662610e+002 
3159375000  -3.573832e+001  -1.677402e+002 
3162500000  -3.420059e+001  1.764383e+002 
3165625000  -3.546450e+001  1.638205e+002 
3168750000  -3.541733e+001  1.628080e+002 
3171875000  -3.492727e+001  1.551594e+002 
3175000000  -3.541764e+001  1.460797e+002 
3178125000  -3.508387e+001  1.449559e+002 
3181250000  -3.436574e+001  1.357301e+002 
3184375000  -3.419231e+001  1.246368e+002 
3187500000  -3.529551e+001  1.103962e+002 
3190625000  -3.726247e+001  1.045129e+002 
3193750000  -3.759063e+001  1.094404e+002 
3196875000  -3.729897e+001  1.109207e+002 
3200000000  -3.622490e+001  1.052036e+002 
3203125000  -3.594342e+001  9.715215e+001 
3206250000  -3.608641e+001  8.925923e+001 
3209375000  -3.577932e+001  8.162997e+001 
3212500000  -3.626584e+001  7.458846e+001 
3215625000  -3.599185e+001  7.201369e+001 
3218750000  -3.686353e+001  6.022850e+001 
3221875000  -3.728103e+001  5.532170e+001 
3225000000  -3.704804e+001  5.018161e+001 
3228125000  -3.774261e+001  4.257396e+001 
3231250000  -3.814360e+001  4.055339e+001 
3234375000  -3.800519e+001  3.741803e+001 
3237500000  -3.799873e+001  3.376880e+001 
3240625000  -3.755869e+001  2.786825e+001 
3243750000  -3.764592e+001  1.817776e+001 
3246875000  -3.815481e+001  1.142998e+001 
3250000000  -3.875096e+001  7.380496e+000 
3253125000  -3.902795e+001  3.841519e+000 
3256250000  -3.857765e+001  -3.605055e+000 
3259375000  -3.916571e+001  -1.455461e+001 
3262500000  -4.057201e+001  -1.808256e+001 
3265625000  -4.107153e+001  -1.598803e+001 
3268750000  -4.132564e+001  -1.506819e+001 
3271875000  -4.061359e+001  -1.806788e+001 
3275000000  -4.014676e+001  -2.666748e+001 
3278125000  -4.091182e+001  -3.360236e+001 
3281250000  -4.100524e+001  -3.258374e+001 
3284375000  -4.052439e+001  -3.977079e+001 
3287500000  -4.078778e+001  -4.397678e+001 
3290625000  -4.130046e+001  -5.180760e+001 
3293750000  -4.116653e+001  -5.753176e+001 
3296875000  -4.260146e+001  -5.848606e+001 
3300000000  -4.182042e+001  -5.809355e+001 
3303125000  -4.086881e+001  -6.430282e+001 
3306250000  -4.086510e+001  -7.052230e+001 
3309375000  -4.048033e+001  -7.965128e+001 
3312500000  -4.108095e+001  -9.058611e+001 
3315625000  -4.207004e+001  -9.910052e+001 
3318750000  -4.369645e+001  -1.023385e+002 
3321875000  -4.505215e+001  -9.948378e+001 
3325000000  -4.496450e+001  -9.262757e+001 
3328125000  -4.399137e+001  -9.536024e+001 
3331250000  -4.237673e+001  -8.887813e+001 
3334375000  -3.969893e+001  -1.052108e+002 
3337500000  -4.044338e+001  -1.251271e+002 
3340625000  -4.224931e+001  -1.356436e+002 
3343750000  -4.422718e+001  -1.344423e+002 
3346875000  -4.339225e+001  -1.345939e+002 
3350000000  -4.325349e+001  -1.385724e+002 
3353125000  -4.298211e+001  -1.438615e+002 
3356250000  -4.245576e+001  -1.535755e+002 
3359375000  -4.338979e+001  -1.642944e+002 
3362500000  -4.446883e+001  -1.688524e+002 
3365625000  -4.469231e+001  -1.736317e+002 
3368750000  -4.569442e+001  -1.772787e+002 
3371875000  -4.609822e+001  1.766331e+002 
3375000000  -4.733606e+001  1.735610e+002 
3378125000  -4.810360e+001  1.726157e+002 
3381250000  -4.935799e+001  -1.765607e+002 
3384375000  -4.663695e+001  -1.623042e+002 
3387500000  -4.424009e+001  1.797859e+002 
3390625000  -4.610701e+001  1.576654e+002 
3393750000  -4.706179e+001  1.596560e+002 
3396875000  -4.607246e+001  1.575356e+002 
3400000000  -4.676063e+001  1.455549e+002 
3403125000  -4.702071e+001  1.400557e+002 
3406250000  -4.789125e+001  1.343269e+002 
3409375000  -4.760527e+001  1.287708e+002 
3412500000  -4.889764e+001  1.252402e+002 
3415625000  -5.029870e+001  1.222568e+002 
3418750000  -4.991996e+001  1.254291e+002 
3421875000  -5.176224e+001  1.289788e+002 
3425000000  -4.966595e+001  1.256118e+002 
3428125000  -5.007571e+001  1.209996e+002 
3431250000  -5.024440e+001  1.081786e+002 
3434375000  -5.061041e+001  1.145330e+002 
3437500000  -5.218619e+001  1.117434e+002 
3440625000  -5.230741e+001  1.121140e+002 
3443750000  -5.066768e+001  1.130882e+002 
3446875000  -5.100786e+001  1.044598e+002 
3450000000  -5.044098e+001  9.749388e+001 
3453125000  -5.062366e+001  8.824387e+001 
3456250000  -5.243869e+001  8.387641e+001 
3459375000  -5.360978e+001  9.230755e+001 
3462500000  -5.332421e+001  9.426054e+001 
3465625000  -5.115276e+001  8.712604e+001 
3468750000  -5.231605e+001  8.459508e+001 
3471875000  -5.237759e+001  8.393845e+001 
3475000000  -5.069096e+001  7.541133e+001 
3478125000  -5.097073e+001  6.566885e+001 
3481250000  -5.221555e+001  6.661835e+001 
3484375000  -5.261107e+001  7.273148e+001 
3487500000  -5.134084e+001  6.537682e+001 
3490625000  -5.164956e+001  5.734183e+001 
3493750000  -5.158235e+001  5.254393e+001 
3496875000  -5.213581e+001  5.936603e+001 
3500000000  -5.290482e+001  5.814949e+001 
3503125000  -5.079266e+001  5.004825e+001 
3506250000  -4.990462e+001  4.819925e+001 
3509375000  -5.045121e+001  2.876771e+001 
3512500000  -5.107798e+001  1.974697e+001 
3515625000  -5.175583e+001  1.297608e+001 
3518750000  -5.214277e+001  1.714782e+001 
3521875000  -5.240037e+001  1.087391e+001 
3525000000  -5.329881e+001  2.690654e+000 
3528125000  -5.272412e+001  1.011634e+001 
3531250000  -5.236568e+001  4.455224e+000 
3534375000  -5.206077e+001  -6.158606e+000 
3537500000  -5.335259e+001  -2.005015e+001 
3540625000  -5.473109e+001  -1.622100e+001 
3543750000  -5.607291e+001  -1.128756e+001 
3546875000  -5.509988e+001  -1.200753e+001 
3550000000  -5.453569e+001  -8.529610e+000 
3553125000  -5.378835e+001  -3.066563e+001 
3556250000  -5.665737e+001  -2.867226e+001 
3559375000  -5.523343e+001  -3.164831e+001 
3562500000  -5.724683e+001  -4.033382e+001 
3565625000  -5.677838e+001  -4.580409e+001 
3568750000  -5.618132e+001  -3.378957e+001 
3571875000  -5.782225e+001  -3.946531e+001 
3575000000  -6.007307e+001  -2.960160e+001 
3578125000  -5.855782e+001  -3.439328e+001 
3581250000  -5.757584e+001  -3.978652e+001 
3584375000  -5.813732e+001  -3.291307e+001 
3587500000  -5.759449e+001  -2.818304e+001 
3590625000  -5.969566e+001  -5.353854e+001 
3593750000  -5.873732e+001  -3.876572e+001 
3596875000  -5.798470e+001  -3.415195e+001 
3600000000  -5.817162e+001  -4.225188e+001 
3603125000  -5.865609e+001  -4.513229e+001 
3606250000  -5.850818e+001  -5.502875e+001 
3609375000  -5.735435e+001  -3.323399e+001 
3612500000  -5.748423e+001  -5.818647e+001 
3615625000  -6.019809e+001  -4.838064e+001 
3618750000  -5.887771e+001  -4.306819e+001 
3621875000  -5.760683e+001  -4.400664e+001 
3625000000  -5.817012e+001  -3.380049e+001 
3628125000  -5.670189e+001  -3.076561e+001 
3631250000  -5.660001e+001  -4.659196e+001 
3634375000  -5.629387e+001  -4.964685e+001 
3637500000  -5.406565e+001  -3.969621e+001 
3640625000  -5.440101e+001  -2.786162e+001 
3643750000  -5.324097e+001  -4.634431e+001 
3646875000  -5.270522e+001  -5.053661e+001 
3650000000  -5.349696e+001  -5.869772e+001 
3653125000  -5.183268e+001  -5.749351e+001 
3656250000  -5.260678e+001  -5.716449e+001 
3659375000  -5.170794e+001  -5.832930e+001 
3662500000  -5.095003e+001  -6.638019e+001 
3665625000  -5.008850e+001  -6.810603e+001 
3668750000  -4.796841e+001  -6.962753e+001 
3671875000  -4.778113e+001  -8.117714e+001 
3675000000  -4.670051e+001  -8.685299e+001 
3678125000  -4.776948e+001  -9.090221e+001 
3681250000  -4.606794e+001  -9.662535e+001 
3684375000  -4.631809e+001  -1.004615e+002 
3687500000  -4.653077e+001  -1.064724e+002 
3690625000  -4.677360e+001  -1.111125e+002 
3693750000  -4.691478e+001  -1.110380e+002 
3696875000  -4.642635e+001  -1.130828e+002 
3700000000  -4.501725e+001  -1.206771e+002 
3703125000  -4.575634e+001  -1.272411e+002 
3706250000  -4.603215e+001  -1.255647e+002 
3709375000  -4.492056e+001  -1.276079e+002 
3712500000  -4.332861e+001  -1.306797e+002 
3715625000  -4.190812e+001  -1.401576e+002 
3718750000  -4.175110e+001  -1.477991e+002 
3721875000  -4.130170e+001  -1.569197e+002 
3725000000  -4.136091e+001  -1.650582e+002 
3728125000  -4.125869e+001  -1.680590e+002 
3731250000  -4.061265e+001  -1.742068e+002 
3734375000  -3.984805e+001  1.777374e+002 
3737500000  -4.098434e+001  1.690650e+002 
3740625000  -4.117038e+001  1.628816e+002 
3743750000  -4.050305e+001  1.574078e+002 
3746875000  -4.048380e+001  1.505630e+002 
3750000000  -4.082174e+001  1.463147e+002 
3753125000  -4.076770e+001  1.433770e+002 
3756250000  -4.052793e+001  1.385028e+002 
3759375000  -4.042852e+001  1.330927e+002 
3762500000  -4.026590e+001  1.284319e+002 
3765625000  -4.097118e+001  1.224702e+002 
3768750000  -4.015816e+001  1.227368e+002 
3771875000  -3.845264e+001  1.174334e+002 
3775000000  -3.839331e+001  1.052460e+002 
3778125000  -3.907894e+001  9.780448e+001 
3781250000  -3.894984e+001  9.336636e+001 
3784375000  -3.861046e+001  8.817893e+001 
3787500000  -3.827929e+001  8.246204e+001 
3790625000  -3.912925e+001  7.219066e+001 
3793750000  -3.919506e+001  6.913721e+001 
3796875000  -3.815448e+001  6.533532e+001 
3800000000  -3.624468e+001  6.155740e+001 
3803125000  -3.803801e+001  4.747747e+001 
3806250000  -3.891527e+001  4.361039e+001 
3809375000  -3.849478e+001  3.991967e+001 
3812500000  -3.853695e+001  3.014956e+001 
3815625000  -3.942644e+001  2.112125e+001 
3818750000  -4.042039e+001  2.210263e+001 
3821875000  -4.005350e+001  3.080831e+001 
3825000000  -3.803969e+001  2.876391e+001 
3828125000  -3.709949e+001  9.045077e+000 
3831250000  -3.811348e+001  -5.027469e+000 
3834375000  -4.031582e+001  -5.047230e+000 
3837500000  -4.094031e+001  -1.122832e+000 
3840625000  -3.893457e+001  -4.667043e+000 
3843750000  -3.822934e+001  -2.111441e+001 
3846875000  -4.000955e+001  -2.693962e+001 
3850000000  -4.071755e+001  -2.062179e+001 
3853125000  -3.986508e+001  -2.071809e+001 
3856250000  -3.960846e+001  -2.815197e+001 
3859375000  -3.869099e+001  -3.564968e+001 
3862500000  -3.875185e+001  -4.523853e+001 
3865625000  -3.892136e+001  -5.014760e+001 
3868750000  -3.867075e+001  -5.000171e+001 
3871875000  -3.784651e+001  -5.920621e+001 
3875000000  -3.851791e+001  -6.868903e+001 
3878125000  -3.950132e+001  -7.135723e+001 
3881250000  -3.926157e+001  -7.175691e+001 
3884375000  -3.874364e+001  -7.753401e+001 
3887500000  -3.904277e+001  -8.431441e+001 
3890625000  -3.943825e+001  -9.045593e+001 
3893750000  -3.987624e+001  -9.234650e+001 
3896875000  -4.032384e+001  -9.221483e+001 
3900000000  -3.972322e+001  -9.716482e+001 
3903125000  -3.926804e+001  -1.012844e+002 
3906250000  -3.901006e+001  -1.060948e+002 
3909375000  -3.807346e+001  -1.141673e+002 
3912500000  -3.900786e+001  -1.235989e+002 
3915625000  -4.044078e+001  -1.224436e+002 
3918750000  -4.010180e+001  -1.233141e+002 
3921875000  -3.932641e+001  -1.291701e+002 
3925000000  -3.851141e+001  -1.350514e+002 
3928125000  -3.828299e+001  -1.448210e+002 
3931250000  -3.909872e+001  -1.502676e+002 
3934375000  -3.958700e+001  -1.520585e+002 
3937500000  -3.996635e+001  -1.533423e+002 
3940625000  -4.010367e+001  -1.565540e+002 
3943750000  -3.897896e+001  -1.589633e+002 
3946875000  -3.850670e+001  -1.673139e+002 
3950000000  -3.953735e+001  -1.764673e+002 
3953125000  -4.011834e+001  -1.745831e+002 
3956250000  -3.874165e+001  -1.750243e+002 
3959375000  -3.780688e+001  1.772756e+002 
3962500000  -3.761044e+001  1.694644e+002 
3965625000  -3.801490e+001  1.600072e+002 
3968750000  -3.864501e+001  1.522461e+002 
3971875000  -3.853370e+001  1.461856e+002 
3975000000  -3.844051e+001  1.421948e+002 
3978125000  -3.849966e+001  1.382631e+002 
3981250000  -3.869999e+001  1.324048e+002 
3984375000  -3.912824e+001  1.247813e+002 
3987500000  -3.967861e+001  1.198188e+002 
3990625000  -3.994023e+001  1.195472e+002 
3993750000  -4.024887e+001  1.140643e+002 
3996875000  -4.002671e+001  1.104706e+002 
4000000000  -4.067172e+001  1.048388e+002 
4003125000  -4.099833e+001  1.056420e+002 
4006250000  -3.931466e+001  1.062165e+002 
4009375000  -3.866448e+001  8.857395e+001 
4012500000  -4.035471e+001  8.233648e+001 
4015625000  -4.158455e+001  8.216048e+001 
4018750000  -4.129712e+001  8.281654e+001 
4021875000  -4.095594e+001  8.020284e+001 
4025000000  -4.068079e+001  7.114763e+001 
4028125000  -4.086728e+001  6.533677e+001 
4031250000  -4.123425e+001  6.072451e+001 
4034375000  -4.179760e+001  6.224582e+001 
4037500000  -4.095531e+001  6.281678e+001 
4040625000  -4.090890e+001  5.826539e+001 
4043750000  -4.108259e+001  5.434147e+001 
4046875000  -4.097699e+001  5.047759e+001 
4050000000  -4.050922e+001  4.337459e+001 
4053125000  -4.141003e+001  4.413460e+001 
4056250000  -4.142332e+001  4.725551e+001 
4059375000  -3.946683e+001  4.507648e+001 
4062500000  -3.898052e+001  3.543261e+001 
4065625000  -3.892641e+001  3.165689e+001 
4068750000  -3.819757e+001  2.483677e+001 
4071875000  -3.786126e+001  1.216346e+001 
4075000000  -3.834801e+001  6.905136e+000 
4078125000  -3.898614e+001  3.911663e+000 
4081250000  -3.821604e+001  -1.900604e+000 
4084375000  -3.802799e+001  -9.568058e+000 
4087500000  -3.867020e+001  -1.919234e+001 
4090625000  -3.927844e+001  -1.838711e+001 
4093750000  -3.891875e+001  -2.179102e+001 
4096875000  -3.877126e+001  -3.167150e+001 
4100000000  -3.972515e+001  -3.735914e+001 
4103125000  -4.065256e+001  -3.583995e+001 
4106250000  -4.019355e+001  -3.491284e+001 
4109375000  -3.914550e+001  -3.929580e+001 
4112500000  -3.869846e+001  -4.829457e+001 
4115625000  -3.953781e+001  -5.427197e+001 
4118750000  -3.906494e+001  -5.828815e+001 
4121875000  -3.893139e+001  -6.570678e+001 
4125000000  -3.981264e+001  -7.368646e+001 
4128125000  -4.083589e+001  -6.979602e+001 
4131250000  -3.989649e+001  -6.503628e+001 
4134375000  -3.767658e+001  -7.371119e+001 
4137500000  -3.821200e+001  -9.512862e+001 
4140625000  -4.073028e+001  -1.036797e+002 
4143750000  -4.177118e+001  -9.752492e+001 
4146875000  -4.062675e+001  -9.270249e+001 
4150000000  -3.959568e+001  -9.875420e+001 
4153125000  -3.980978e+001  -1.089231e+002 
4156250000  -4.113400e+001  -1.105262e+002 
4159375000  -4.124306e+001  -1.051881e+002 
4162500000  -3.960404e+001  -1.049725e+002 
4165625000  -3.895194e+001  -1.117212e+002 
4168750000  -3.857889e+001  -1.218629e+002 
4171875000  -3.847276e+001  -1.304161e+002 
4175000000  -3.935906e+001  -1.382339e+002 
4178125000  -3.973097e+001  -1.379524e+002 
4181250000  -3.947785e+001  -1.424735e+002 
4184375000  -3.942314e+001  -1.479258e+002 
4187500000  -3.963973e+001  -1.520270e+002 
4190625000  -3.944461e+001  -1.583991e+002 
4193750000  -4.045657e+001  -1.643875e+002 
4196875000  -4.134321e+001  -1.660745e+002 
4200000000  -4.280795e+001  -1.583630e+002 
4203125000  -4.111065e+001  -1.471393e+002 
4206250000  -3.751146e+001  -1.572814e+002 
4209375000  -3.731409e+001  1.794969e+002 
4212500000  -3.957351e+001  1.721864e+002 
4215625000  -4.017046e+001  -1.780656e+002 
4218750000  -3.816728e+001  -1.780727e+002 
4221875000  -3.668063e+001  1.714492e+002 
4225000000  -3.814065e+001  1.587306e+002 
4228125000  -3.785571e+001  1.604436e+002 
4231250000  -3.644950e+001  1.530840e+002 
4234375000  -3.640460e+001  1.425057e+002 
4237500000  -3.613097e+001  1.366693e+002 
4240625000  -3.630875e+001  1.268291e+002 
4243750000  -3.739450e+001  1.173715e+002 
4246875000  -3.851012e+001  1.180013e+002 
4250000000  -3.828857e+001  1.168305e+002 
4253125000  -3.795757e+001  1.136651e+002 
4256250000  -3.784486e+001  1.090497e+002 
4259375000  -3.736914e+001  1.029381e+002 
4262500000  -3.773952e+001  1.000012e+002 
4265625000  -3.799109e+001  9.779721e+001 
4268750000  -3.694043e+001  8.946632e+001 
4271875000  -3.697675e+001  7.960030e+001 
4275000000  -3.672782e+001  7.102182e+001 
4278125000  -3.775011e+001  6.084825e+001 
4281250000  -3.919592e+001  5.719938e+001 
4284375000  -3.887414e+001  5.623467e+001 
4287500000  -4.033862e+001  5.240947e+001 
4290625000  -4.044407e+001  6.247721e+001 
4293750000  -3.865368e+001  6.033905e+001 
4296875000  -3.763630e+001  4.735501e+001 
4300000000  -3.875406e+001  3.886673e+001 
4303125000  -4.000223e+001  4.343147e+001 
4306250000  -3.889507e+001  4.371100e+001 
4309375000  -3.777314e+001  3.949790e+001 
4312500000  -3.758479e+001  2.661528e+001 
4315625000  -3.810492e+001  1.893902e+001 
4318750000  -3.856918e+001  1.509526e+001 
4321875000  -3.876069e+001  1.592597e+001 
4325000000  -3.814450e+001  1.514958e+001 
4328125000  -3.730677e+001  4.005499e+000 
4331250000  -3.760047e+001  -4.085286e+000 
4334375000  -3.838312e+001  -1.140265e+001 
4337500000  -3.945058e+001  -1.160151e+001 
4340625000  -3.978634e+001  -8.529369e+000 
4343750000  -3.846715e+001  -1.243312e+001 
4346875000  -3.841270e+001  -2.121030e+001 
4350000000  -3.822395e+001  -2.858401e+001 
4353125000  -3.892227e+001  -3.485970e+001 
4356250000  -4.144790e+001  -3.069855e+001 
4359375000  -3.989883e+001  -1.843800e+001 
4362500000  -3.677613e+001  -2.583609e+001 
4365625000  -3.588905e+001  -4.419367e+001 
4368750000  -3.732294e+001  -5.278503e+001 
4371875000  -3.812722e+001  -5.482631e+001 
4375000000  -3.717048e+001  -5.718094e+001 
4378125000  -3.694072e+001  -6.564906e+001 
4381250000  -3.719605e+001  -7.237204e+001 
4384375000  -3.729136e+001  -8.003017e+001 
4387500000  -3.810441e+001  -8.495206e+001 
4390625000  -3.861286e+001  -8.615389e+001 
4393750000  -3.799892e+001  -8.623347e+001 
4396875000  -3.742139e+001  -9.140397e+001 
4400000000  -3.696969e+001  -1.019315e+002 
4403125000  -3.770270e+001  -1.092964e+002 
4406250000  -3.833144e+001  -1.132733e+002 
4409375000  -3.895154e+001  -1.170523e+002 
4412500000  -3.999873e+001  -1.188969e+002 
4415625000  -3.942580e+001  -1.154487e+002 
