!Agilent Technologies,E8363B,MY43030201,A.06.04.32
!Agilent E8363B: A.06.04.32
!Date: Tuesday, November 11, 2014 21:29:03
!Correction: S21(Response(S21)) 
!S1P File: Measurement: S21:
# Hz S  dB   R 50
3000000000  -4.056474e+001  8.844535e+001 
3003125000  -4.214643e+001  8.063348e+001 
3006250000  -4.242802e+001  7.940520e+001 
3009375000  -4.268262e+001  8.479243e+001 
3012500000  -4.158603e+001  8.000856e+001 
3015625000  -4.151381e+001  7.285097e+001 
3018750000  -4.185984e+001  7.208625e+001 
3021875000  -4.037192e+001  7.330907e+001 
3025000000  -3.898359e+001  7.037017e+001 
3028125000  -3.808144e+001  6.059260e+001 
3031250000  -3.699287e+001  4.827754e+001 
3034375000  -3.686901e+001  3.441296e+001 
3037500000  -3.757591e+001  2.405129e+001 
3040625000  -3.869839e+001  1.861150e+001 
3043750000  -3.916118e+001  1.187075e+001 
3046875000  -3.961008e+001  6.158010e+000 
3050000000  -4.088676e+001  1.557049e+000 
3053125000  -4.069944e+001  5.078891e+000 
3056250000  -4.052773e+001  9.329570e+000 
3059375000  -3.999358e+001  6.650281e+000 
3062500000  -3.826974e+001  1.670352e+000 
3065625000  -3.790662e+001  -6.897570e+000 
3068750000  -3.763953e+001  -1.507394e+001 
3071875000  -3.779421e+001  -1.784402e+001 
3075000000  -3.713165e+001  -2.385802e+001 
3078125000  -3.708405e+001  -3.052269e+001 
3081250000  -3.728959e+001  -3.596032e+001 
3084375000  -3.655093e+001  -4.116346e+001 
3087500000  -3.646169e+001  -4.801701e+001 
3090625000  -3.594345e+001  -5.953321e+001 
3093750000  -3.690401e+001  -6.825986e+001 
3096875000  -3.735538e+001  -7.323205e+001 
3100000000  -3.726700e+001  -7.742639e+001 
3103125000  -3.765590e+001  -7.912394e+001 
3106250000  -3.718488e+001  -8.488558e+001 
3109375000  -3.726061e+001  -9.008331e+001 
3112500000  -3.721371e+001  -9.445531e+001 
3115625000  -3.713004e+001  -9.858556e+001 
3118750000  -3.743924e+001  -1.016237e+002 
3121875000  -3.657960e+001  -1.136285e+002 
3125000000  -3.853535e+001  -1.163786e+002 
3128125000  -3.838044e+001  -1.089010e+002 
3131250000  -3.623978e+001  -1.146853e+002 
3134375000  -3.543989e+001  -1.322409e+002 
3137500000  -3.599002e+001  -1.445269e+002 
3140625000  -3.731622e+001  -1.479254e+002 
3143750000  -3.818486e+001  -1.507237e+002 
3146875000  -3.787292e+001  -1.476983e+002 
3150000000  -3.694596e+001  -1.515137e+002 
3153125000  -3.723129e+001  -1.596116e+002 
3156250000  -3.799705e+001  -1.556089e+002 
3159375000  -3.584073e+001  -1.569668e+002 
3162500000  -3.416698e+001  -1.723938e+002 
3165625000  -3.545446e+001  1.745889e+002 
3168750000  -3.542525e+001  1.722093e+002 
3171875000  -3.482224e+001  1.669008e+002 
3175000000  -3.560786e+001  1.565607e+002 
3178125000  -3.513503e+001  1.557082e+002 
3181250000  -3.433783e+001  1.478051e+002 
3184375000  -3.415191e+001  1.355810e+002 
3187500000  -3.547856e+001  1.210633e+002 
3190625000  -3.732865e+001  1.144497e+002 
3193750000  -3.763431e+001  1.203433e+002 
3196875000  -3.736680e+001  1.218797e+002 
3200000000  -3.625975e+001  1.169973e+002 
3203125000  -3.589637e+001  1.081104e+002 
3206250000  -3.620464e+001  1.002410e+002 
3209375000  -3.575356e+001  9.293687e+001 
3212500000  -3.632641e+001  8.611694e+001 
3215625000  -3.584858e+001  8.197726e+001 
3218750000  -3.693969e+001  7.175629e+001 
3221875000  -3.740007e+001  6.421426e+001 
3225000000  -3.724195e+001  6.127391e+001 
3228125000  -3.781222e+001  5.464067e+001 
3231250000  -3.837221e+001  5.168737e+001 
3234375000  -3.789497e+001  4.849220e+001 
3237500000  -3.807517e+001  4.583815e+001 
3240625000  -3.772044e+001  3.990807e+001 
3243750000  -3.768710e+001  3.070278e+001 
3246875000  -3.820500e+001  2.216902e+001 
3250000000  -3.869316e+001  1.877768e+001 
3253125000  -3.901851e+001  1.705351e+001 
3256250000  -3.862819e+001  6.524605e+000 
3259375000  -3.926727e+001  -3.507536e+000 
3262500000  -4.077035e+001  -9.562561e+000 
3265625000  -4.130658e+001  -4.086106e+000 
3268750000  -4.121628e+001  -3.336550e+000 
3271875000  -4.058354e+001  -7.351920e+000 
3275000000  -4.025201e+001  -1.465861e+001 
3278125000  -4.086862e+001  -2.116200e+001 
3281250000  -4.089193e+001  -2.111420e+001 
3284375000  -4.057058e+001  -2.771383e+001 
3287500000  -4.086686e+001  -3.158929e+001 
3290625000  -4.135043e+001  -3.917836e+001 
3293750000  -4.123205e+001  -4.485191e+001 
3296875000  -4.241836e+001  -4.780323e+001 
3300000000  -4.205909e+001  -4.691979e+001 
3303125000  -4.106283e+001  -5.336279e+001 
3306250000  -4.067201e+001  -5.855964e+001 
3309375000  -4.054686e+001  -6.685780e+001 
3312500000  -4.082286e+001  -7.914567e+001 
3315625000  -4.202427e+001  -8.655453e+001 
3318750000  -4.339381e+001  -9.138046e+001 
3321875000  -4.502862e+001  -8.881631e+001 
3325000000  -4.476822e+001  -8.024150e+001 
3328125000  -4.407421e+001  -7.897438e+001 
3331250000  -4.265768e+001  -7.859190e+001 
3334375000  -3.978135e+001  -9.238229e+001 
3337500000  -4.039527e+001  -1.128947e+002 
3340625000  -4.218309e+001  -1.232492e+002 
3343750000  -4.419650e+001  -1.236699e+002 
3346875000  -4.369823e+001  -1.242341e+002 
3350000000  -4.300352e+001  -1.264470e+002 
3353125000  -4.297706e+001  -1.321296e+002 
3356250000  -4.262035e+001  -1.413503e+002 
3359375000  -4.327312e+001  -1.535542e+002 
3362500000  -4.393943e+001  -1.575055e+002 
3365625000  -4.475198e+001  -1.612309e+002 
3368750000  -4.559266e+001  -1.646224e+002 
3371875000  -4.603952e+001  -1.687446e+002 
3375000000  -4.738588e+001  -1.696949e+002 
3378125000  -4.782772e+001  -1.764499e+002 
3381250000  -4.918019e+001  -1.650526e+002 
3384375000  -4.622853e+001  -1.481796e+002 
3387500000  -4.394024e+001  -1.709553e+002 
3390625000  -4.595214e+001  1.696463e+002 
3393750000  -4.736441e+001  1.707405e+002 
3396875000  -4.619770e+001  1.699799e+002 
3400000000  -4.605626e+001  1.579735e+002 
3403125000  -4.664989e+001  1.535928e+002 
3406250000  -4.810736e+001  1.506673e+002 
3409375000  -4.819497e+001  1.391304e+002 
3412500000  -4.875361e+001  1.372608e+002 
3415625000  -5.003080e+001  1.350117e+002 
3418750000  -5.059476e+001  1.295849e+002 
3421875000  -5.087215e+001  1.397551e+002 
3425000000  -4.994959e+001  1.391985e+002 
3428125000  -5.023037e+001  1.343110e+002 
3431250000  -5.011889e+001  1.252137e+002 
3434375000  -5.043465e+001  1.227599e+002 
3437500000  -5.138179e+001  1.214464e+002 
3440625000  -5.197573e+001  1.235115e+002 
3443750000  -5.055396e+001  1.266602e+002 
3446875000  -5.030523e+001  1.211549e+002 
3450000000  -5.007158e+001  1.109037e+002 
3453125000  -5.121670e+001  1.043803e+002 
3456250000  -5.205725e+001  1.016940e+002 
3459375000  -5.308411e+001  1.014303e+002 
3462500000  -5.251405e+001  1.046429e+002 
3465625000  -5.094854e+001  9.365445e+001 
3468750000  -5.129609e+001  9.338746e+001 
3471875000  -5.160317e+001  9.720149e+001 
3475000000  -5.077029e+001  9.312841e+001 
3478125000  -5.069956e+001  8.306689e+001 
3481250000  -5.188721e+001  8.135146e+001 
3484375000  -5.215370e+001  8.187373e+001 
3487500000  -5.117249e+001  7.991473e+001 
3490625000  -5.052811e+001  7.090805e+001 
3493750000  -5.136062e+001  6.547649e+001 
3496875000  -5.058226e+001  6.579418e+001 
3500000000  -5.223801e+001  6.719130e+001 
3503125000  -5.126881e+001  6.221425e+001 
3506250000  -4.958199e+001  5.559738e+001 
3509375000  -4.937179e+001  4.402256e+001 
3512500000  -4.966562e+001  2.952487e+001 
3515625000  -5.041592e+001  3.072110e+001 
3518750000  -5.205099e+001  2.876900e+001 
3521875000  -5.227026e+001  1.742997e+001 
3525000000  -5.300163e+001  1.567272e+001 
3528125000  -5.193909e+001  2.760603e+001 
3531250000  -5.096584e+001  1.179718e+001 
3534375000  -5.261701e+001  4.549097e+000 
3537500000  -5.262658e+001  -2.585919e+000 
3540625000  -5.473104e+001  -4.491972e+000 
3543750000  -5.575163e+001  2.286157e+000 
3546875000  -5.432099e+001  3.558130e+000 
3550000000  -5.331763e+001  -8.994417e-003 
3553125000  -5.353366e+001  -1.434961e+001 
3556250000  -5.407481e+001  -1.349772e+001 
3559375000  -5.387328e+001  -1.867731e+001 
3562500000  -5.510440e+001  -2.759536e+001 
3565625000  -5.732866e+001  -3.216582e+001 
3568750000  -5.607675e+001  -2.629892e+001 
3571875000  -5.762320e+001  -2.662706e+001 
3575000000  -5.842475e+001  -1.780918e+001 
3578125000  -5.800972e+001  -4.437841e+001 
3581250000  -5.770702e+001  -3.359112e+001 
3584375000  -5.616118e+001  -2.774824e+001 
3587500000  -5.623623e+001  -3.275208e+001 
3590625000  -5.745545e+001  -3.794639e+001 
3593750000  -5.828566e+001  -2.895016e+001 
3596875000  -6.038378e+001  -1.794732e+001 
3600000000  -5.579790e+001  -3.143627e+001 
3603125000  -5.720235e+001  -4.587111e+001 
3606250000  -5.759874e+001  -3.877777e+001 
3609375000  -5.943932e+001  -3.557929e+001 
3612500000  -5.985833e+001  -3.727333e+001 
3615625000  -5.849218e+001  -4.765820e+001 
3618750000  -6.090654e+001  -2.985110e+001 
3621875000  -5.861852e+001  -3.124194e+001 
3625000000  -5.752443e+001  -2.226517e+001 
3628125000  -5.791140e+001  -3.129670e+001 
3631250000  -5.625328e+001  -3.147723e+001 
3634375000  -5.627656e+001  -3.760721e+001 
3637500000  -5.475176e+001  -3.080973e+001 
3640625000  -5.561352e+001  -2.142025e+001 
3643750000  -5.363802e+001  -3.279440e+001 
3646875000  -5.338802e+001  -4.324312e+001 
3650000000  -5.316461e+001  -4.504185e+001 
3653125000  -5.204318e+001  -4.564226e+001 
3656250000  -5.168688e+001  -5.302892e+001 
3659375000  -5.211742e+001  -4.595921e+001 
3662500000  -5.100439e+001  -5.540473e+001 
3665625000  -4.989647e+001  -5.300730e+001 
3668750000  -4.825022e+001  -5.374255e+001 
3671875000  -4.758738e+001  -6.730870e+001 
3675000000  -4.709566e+001  -7.927315e+001 
3678125000  -4.757117e+001  -7.854202e+001 
3681250000  -4.688990e+001  -8.579997e+001 
3684375000  -4.750936e+001  -8.716682e+001 
3687500000  -4.645436e+001  -9.415301e+001 
3690625000  -4.662917e+001  -9.916486e+001 
3693750000  -4.694769e+001  -1.016988e+002 
3696875000  -4.699773e+001  -1.017600e+002 
3700000000  -4.512486e+001  -1.105224e+002 
3703125000  -4.529414e+001  -1.123256e+002 
3706250000  -4.609396e+001  -1.176387e+002 
3709375000  -4.524456e+001  -1.165492e+002 
3712500000  -4.373768e+001  -1.202914e+002 
3715625000  -4.218677e+001  -1.293177e+002 
3718750000  -4.195849e+001  -1.358431e+002 
3721875000  -4.147696e+001  -1.446119e+002 
3725000000  -4.201151e+001  -1.512542e+002 
3728125000  -4.149216e+001  -1.556060e+002 
3731250000  -4.079632e+001  -1.608795e+002 
3734375000  -3.998467e+001  -1.667254e+002 
3737500000  -4.102551e+001  -1.781131e+002 
3740625000  -4.104346e+001  1.765855e+002 
3743750000  -4.058724e+001  1.704603e+002 
3746875000  -4.080471e+001  1.638862e+002 
3750000000  -4.106237e+001  1.608406e+002 
3753125000  -4.058812e+001  1.556763e+002 
3756250000  -4.070985e+001  1.536241e+002 
3759375000  -4.053215e+001  1.478066e+002 
3762500000  -4.029214e+001  1.415779e+002 
3765625000  -4.061768e+001  1.357214e+002 
3768750000  -4.025027e+001  1.362494e+002 
3771875000  -3.833852e+001  1.281119e+002 
3775000000  -3.868276e+001  1.174088e+002 
3778125000  -3.909198e+001  1.107022e+002 
3781250000  -3.895141e+001  1.079135e+002 
3784375000  -3.891199e+001  1.023336e+002 
3787500000  -3.849578e+001  9.685629e+001 
3790625000  -3.907946e+001  8.675656e+001 
3793750000  -3.944749e+001  8.397966e+001 
3796875000  -3.844860e+001  7.894983e+001 
3800000000  -3.641345e+001  7.416953e+001 
3803125000  -3.819456e+001  6.015718e+001 
3806250000  -3.905935e+001  5.694398e+001 
3809375000  -3.866063e+001  5.297810e+001 
3812500000  -3.855188e+001  4.315169e+001 
3815625000  -3.954005e+001  3.536329e+001 
3818750000  -4.062922e+001  3.353379e+001 
3821875000  -4.036170e+001  4.421718e+001 
3825000000  -3.842985e+001  4.210795e+001 
3828125000  -3.693076e+001  2.278163e+001 
3831250000  -3.791987e+001  8.295367e+000 
3834375000  -4.021999e+001  1.009584e+001 
3837500000  -4.072579e+001  1.182363e+001 
3840625000  -3.892304e+001  8.373804e+000 
3843750000  -3.842609e+001  -6.883703e+000 
3846875000  -3.983190e+001  -1.294960e+001 
3850000000  -4.056712e+001  -7.020181e+000 
3853125000  -3.996542e+001  -6.386527e+000 
3856250000  -3.970720e+001  -1.415206e+001 
3859375000  -3.882296e+001  -2.235168e+001 
3862500000  -3.861883e+001  -3.172699e+001 
3865625000  -3.921622e+001  -3.653672e+001 
3868750000  -3.874792e+001  -3.933192e+001 
3871875000  -3.809701e+001  -4.510168e+001 
3875000000  -3.856953e+001  -5.510128e+001 
3878125000  -3.953469e+001  -5.876244e+001 
3881250000  -3.918729e+001  -5.774641e+001 
3884375000  -3.899878e+001  -6.551548e+001 
3887500000  -3.915802e+001  -7.265211e+001 
3890625000  -3.960010e+001  -7.715849e+001 
3893750000  -3.994694e+001  -7.829197e+001 
3896875000  -4.003841e+001  -8.011795e+001 
3900000000  -3.986666e+001  -8.399055e+001 
3903125000  -3.936441e+001  -8.717429e+001 
3906250000  -3.912138e+001  -9.206632e+001 
3909375000  -3.832943e+001  -1.015195e+002 
3912500000  -3.896587e+001  -1.109169e+002 
3915625000  -4.062053e+001  -1.103320e+002 
3918750000  -3.991258e+001  -1.110076e+002 
3921875000  -3.957029e+001  -1.173089e+002 
3925000000  -3.871819e+001  -1.218837e+002 
3928125000  -3.826429e+001  -1.324815e+002 
3931250000  -3.900798e+001  -1.371028e+002 
3934375000  -3.976489e+001  -1.379328e+002 
3937500000  -3.992889e+001  -1.425941e+002 
3940625000  -3.999005e+001  -1.443915e+002 
3943750000  -3.914190e+001  -1.457641e+002 
3946875000  -3.858235e+001  -1.558093e+002 
3950000000  -3.928748e+001  -1.633398e+002 
3953125000  -4.051328e+001  -1.634874e+002 
3956250000  -3.861404e+001  -1.629869e+002 
3959375000  -3.784204e+001  -1.702908e+002 
3962500000  -3.779836e+001  -1.783733e+002 
3965625000  -3.783179e+001  1.720894e+002 
3968750000  -3.892567e+001  1.642702e+002 
3971875000  -3.898569e+001  1.608972e+002 
3975000000  -3.847755e+001  1.554764e+002 
3978125000  -3.843428e+001  1.517973e+002 
3981250000  -3.862802e+001  1.455524e+002 
3984375000  -3.894278e+001  1.360946e+002 
3987500000  -3.970008e+001  1.355313e+002 
3990625000  -4.012939e+001  1.316699e+002 
3993750000  -4.015316e+001  1.280968e+002 
3996875000  -4.001920e+001  1.232577e+002 
4000000000  -4.061198e+001  1.178634e+002 
4003125000  -4.107360e+001  1.198513e+002 
4006250000  -3.931598e+001  1.173524e+002 
4009375000  -3.854868e+001  1.034645e+002 
4012500000  -4.056618e+001  9.548561e+001 
4015625000  -4.149129e+001  9.433250e+001 
4018750000  -4.145173e+001  9.621815e+001 
4021875000  -4.092402e+001  9.181113e+001 
4025000000  -4.073951e+001  8.500246e+001 
4028125000  -4.046383e+001  8.023054e+001 
4031250000  -4.142105e+001  7.444565e+001 
4034375000  -4.155813e+001  7.574198e+001 
4037500000  -4.120477e+001  7.422525e+001 
4040625000  -4.097344e+001  7.068414e+001 
4043750000  -4.128646e+001  6.790189e+001 
4046875000  -4.067801e+001  6.377811e+001 
4050000000  -4.063811e+001  5.867636e+001 
4053125000  -4.113173e+001  5.645140e+001 
4056250000  -4.152290e+001  6.092460e+001 
4059375000  -3.963820e+001  5.879200e+001 
4062500000  -3.887166e+001  4.958770e+001 
4065625000  -3.872884e+001  4.527337e+001 
4068750000  -3.834330e+001  3.626419e+001 
4071875000  -3.775117e+001  2.740787e+001 
4075000000  -3.842463e+001  1.913825e+001 
4078125000  -3.889010e+001  1.674064e+001 
4081250000  -3.840449e+001  1.298302e+001 
4084375000  -3.829601e+001  2.638494e+000 
4087500000  -3.872219e+001  -4.073323e+000 
4090625000  -3.913016e+001  -5.117281e+000 
4093750000  -3.898685e+001  -8.670760e+000 
4096875000  -3.880704e+001  -1.773971e+001 
4100000000  -3.979565e+001  -2.610235e+001 
4103125000  -4.051242e+001  -2.551320e+001 
4106250000  -3.994287e+001  -2.279433e+001 
4109375000  -3.931847e+001  -2.300331e+001 
4112500000  -3.877961e+001  -3.347090e+001 
4115625000  -3.934531e+001  -3.941154e+001 
4118750000  -3.898155e+001  -4.506843e+001 
4121875000  -3.889061e+001  -5.240394e+001 
4125000000  -4.012222e+001  -5.866871e+001 
4128125000  -4.095752e+001  -5.711124e+001 
4131250000  -4.022391e+001  -5.159473e+001 
4134375000  -3.753961e+001  -6.065709e+001 
4137500000  -3.852392e+001  -8.216962e+001 
4140625000  -4.017650e+001  -8.701720e+001 
4143750000  -4.188047e+001  -8.347213e+001 
4146875000  -4.092063e+001  -7.704816e+001 
4150000000  -3.991304e+001  -8.717522e+001 
4153125000  -3.994035e+001  -9.537859e+001 
4156250000  -4.126138e+001  -9.638640e+001 
4159375000  -4.139297e+001  -9.150794e+001 
4162500000  -3.995724e+001  -8.931421e+001 
4165625000  -3.875626e+001  -9.682803e+001 
4168750000  -3.848766e+001  -1.076413e+002 
4171875000  -3.841234e+001  -1.167047e+002 
4175000000  -3.938808e+001  -1.240943e+002 
4178125000  -3.967153e+001  -1.240761e+002 
4181250000  -3.966096e+001  -1.293063e+002 
4184375000  -3.944751e+001  -1.327281e+002 
4187500000  -3.948614e+001  -1.375851e+002 
4190625000  -3.977110e+001  -1.453526e+002 
4193750000  -4.049865e+001  -1.501129e+002 
4196875000  -4.145140e+001  -1.518729e+002 
4200000000  -4.243264e+001  -1.438578e+002 
4203125000  -4.071329e+001  -1.361098e+002 
4206250000  -3.777550e+001  -1.420535e+002 
4209375000  -3.738674e+001  -1.645909e+002 
4212500000  -3.977833e+001  -1.744949e+002 
4215625000  -4.030363e+001  -1.668016e+002 
4218750000  -3.826495e+001  -1.639962e+002 
4221875000  -3.665855e+001  -1.744398e+002 
4225000000  -3.801732e+001  1.722126e+002 
4228125000  -3.786998e+001  1.759688e+002 
4231250000  -3.643314e+001  1.691536e+002 
4234375000  -3.640547e+001  1.558996e+002 
4237500000  -3.638488e+001  1.526323e+002 
4240625000  -3.631588e+001  1.405858e+002 
4243750000  -3.751873e+001  1.317389e+002 
4246875000  -3.841703e+001  1.320621e+002 
4250000000  -3.833012e+001  1.316766e+002 
4253125000  -3.792214e+001  1.277086e+002 
4256250000  -3.788235e+001  1.233576e+002 
4259375000  -3.776754e+001  1.165314e+002 
4262500000  -3.801605e+001  1.138845e+002 
4265625000  -3.784879e+001  1.108383e+002 
4268750000  -3.701302e+001  1.040118e+002 
4271875000  -3.689931e+001  9.604421e+001 
4275000000  -3.656094e+001  8.582555e+001 
4278125000  -3.756691e+001  7.429617e+001 
4281250000  -3.894111e+001  7.262859e+001 
4284375000  -3.860905e+001  7.076956e+001 
4287500000  -4.045151e+001  6.992564e+001 
4290625000  -4.095952e+001  7.312698e+001 
4293750000  -3.881442e+001  7.593734e+001 
4296875000  -3.783866e+001  6.317225e+001 
4300000000  -3.913290e+001  5.302396e+001 
4303125000  -3.992976e+001  5.717578e+001 
4306250000  -3.877713e+001  5.922071e+001 
4309375000  -3.745819e+001  5.395889e+001 
4312500000  -3.770683e+001  4.288471e+001 
4315625000  -3.792124e+001  3.466096e+001 
4318750000  -3.848138e+001  2.961247e+001 
4321875000  -3.847878e+001  2.963182e+001 
4325000000  -3.802108e+001  2.984869e+001 
4328125000  -3.726537e+001  2.073399e+001 
4331250000  -3.738086e+001  9.622653e+000 
4334375000  -3.819899e+001  3.952281e+000 
4337500000  -3.912773e+001  1.067364e+000 
4340625000  -3.949372e+001  6.915127e+000 
4343750000  -3.870126e+001  7.567422e-001 
4346875000  -3.849629e+001  -5.926399e+000 
4350000000  -3.795516e+001  -1.126833e+001 
4353125000  -3.872287e+001  -2.183831e+001 
4356250000  -4.103226e+001  -1.754995e+001 
4359375000  -4.055822e+001  -5.227115e+000 
4362500000  -3.668439e+001  -1.223853e+001 
4365625000  -3.583052e+001  -2.848634e+001 
4368750000  -3.711815e+001  -3.880954e+001 
4371875000  -3.790498e+001  -3.850606e+001 
4375000000  -3.723916e+001  -4.380409e+001 
4378125000  -3.666603e+001  -5.073508e+001 
4381250000  -3.698224e+001  -5.736222e+001 
4384375000  -3.699260e+001  -6.451364e+001 
4387500000  -3.787319e+001  -7.097920e+001 
4390625000  -3.860767e+001  -7.268925e+001 
4393750000  -3.796441e+001  -7.192854e+001 
4396875000  -3.715968e+001  -7.644114e+001 
4400000000  -3.677997e+001  -8.561958e+001 
4403125000  -3.755773e+001  -9.536810e+001 
4406250000  -3.829482e+001  -9.889526e+001 
4409375000  -3.847680e+001  -1.036671e+002 
4412500000  -3.962888e+001  -1.063265e+002 
4415625000  -3.947182e+001  -1.003991e+002 
