!Agilent Technologies,E8363B,MY43030201,A.06.04.32
!Agilent E8363B: A.06.04.32
!Date: Tuesday, November 11, 2014 21:26:23
!Correction: S21(Response(S21)) 
!S1P File: Measurement: S21:
# Hz S  dB   R 50
3000000000  -4.052672e+001  9.564841e+001 
3003125000  -4.214063e+001  8.704433e+001 
3006250000  -4.189414e+001  8.564358e+001 
3009375000  -4.260839e+001  9.083064e+001 
3012500000  -4.154598e+001  8.672520e+001 
3015625000  -4.126639e+001  7.948994e+001 
3018750000  -4.190043e+001  8.018221e+001 
3021875000  -4.028546e+001  8.107298e+001 
3025000000  -3.887323e+001  7.756257e+001 
3028125000  -3.791912e+001  6.779637e+001 
3031250000  -3.696746e+001  5.570548e+001 
3034375000  -3.670640e+001  4.217925e+001 
3037500000  -3.745771e+001  3.080292e+001 
3040625000  -3.874610e+001  2.569097e+001 
3043750000  -3.904723e+001  1.956244e+001 
3046875000  -3.954068e+001  1.289533e+001 
3050000000  -4.103165e+001  8.237695e+000 
3053125000  -4.079078e+001  1.333223e+001 
3056250000  -4.015593e+001  1.628346e+001 
3059375000  -4.009584e+001  1.492580e+001 
3062500000  -3.823933e+001  9.286117e+000 
3065625000  -3.779108e+001  -7.957415e-001 
3068750000  -3.757100e+001  -8.153387e+000 
3071875000  -3.777810e+001  -9.659254e+000 
3075000000  -3.705570e+001  -1.661519e+001 
3078125000  -3.709456e+001  -2.275311e+001 
3081250000  -3.731595e+001  -2.939529e+001 
3084375000  -3.645650e+001  -3.353289e+001 
3087500000  -3.642067e+001  -3.970513e+001 
3090625000  -3.598024e+001  -5.188030e+001 
3093750000  -3.669576e+001  -6.100909e+001 
3096875000  -3.749405e+001  -6.667359e+001 
3100000000  -3.720829e+001  -6.936385e+001 
3103125000  -3.755083e+001  -7.164607e+001 
3106250000  -3.702335e+001  -7.725231e+001 
3109375000  -3.737045e+001  -8.188168e+001 
3112500000  -3.720301e+001  -8.699416e+001 
3115625000  -3.710492e+001  -9.190408e+001 
3118750000  -3.738232e+001  -9.403603e+001 
3121875000  -3.654239e+001  -1.052390e+002 
3125000000  -3.830026e+001  -1.095706e+002 
3128125000  -3.869442e+001  -1.028779e+002 
3131250000  -3.622052e+001  -1.072445e+002 
3134375000  -3.514875e+001  -1.248812e+002 
3137500000  -3.613520e+001  -1.376275e+002 
3140625000  -3.731853e+001  -1.401392e+002 
3143750000  -3.824714e+001  -1.424980e+002 
3146875000  -3.777885e+001  -1.406295e+002 
3150000000  -3.698031e+001  -1.438871e+002 
3153125000  -3.711654e+001  -1.527457e+002 
3156250000  -3.802118e+001  -1.492910e+002 
3159375000  -3.599325e+001  -1.496319e+002 
3162500000  -3.439041e+001  -1.650689e+002 
3165625000  -3.552514e+001  -1.781127e+002 
3168750000  -3.558805e+001  -1.789605e+002 
3171875000  -3.491087e+001  1.742390e+002 
3175000000  -3.552616e+001  1.637783e+002 
3178125000  -3.514918e+001  1.633067e+002 
3181250000  -3.445344e+001  1.548309e+002 
3184375000  -3.409089e+001  1.431230e+002 
3187500000  -3.541848e+001  1.282840e+002 
3190625000  -3.747144e+001  1.219226e+002 
3193750000  -3.772236e+001  1.273283e+002 
3196875000  -3.756261e+001  1.286217e+002 
3200000000  -3.643261e+001  1.238571e+002 
3203125000  -3.577591e+001  1.163439e+002 
3206250000  -3.627848e+001  1.076718e+002 
3209375000  -3.585646e+001  1.008171e+002 
3212500000  -3.623634e+001  9.290546e+001 
3215625000  -3.604156e+001  8.988137e+001 
3218750000  -3.696947e+001  7.957639e+001 
3221875000  -3.745861e+001  7.331598e+001 
3225000000  -3.713488e+001  6.935230e+001 
3228125000  -3.782435e+001  6.161385e+001 
3231250000  -3.833889e+001  5.904076e+001 
3234375000  -3.803003e+001  5.549031e+001 
3237500000  -3.814854e+001  5.274865e+001 
3240625000  -3.774503e+001  4.660220e+001 
3243750000  -3.766197e+001  3.678399e+001 
3246875000  -3.828703e+001  3.003864e+001 
3250000000  -3.874672e+001  2.533966e+001 
3253125000  -3.891231e+001  2.339842e+001 
3256250000  -3.877477e+001  1.434898e+001 
3259375000  -3.916975e+001  4.124303e+000 
3262500000  -4.069441e+001  -6.012653e-001 
3265625000  -4.126317e+001  2.245090e+000 
3268750000  -4.122734e+001  3.666384e+000 
3271875000  -4.082308e+001  1.548002e+000 
3275000000  -4.026331e+001  -7.258931e+000 
3278125000  -4.095201e+001  -1.325654e+001 
3281250000  -4.102641e+001  -1.435543e+001 
3284375000  -4.058099e+001  -2.049253e+001 
3287500000  -4.102422e+001  -2.477501e+001 
3290625000  -4.128863e+001  -3.168152e+001 
3293750000  -4.121700e+001  -3.779757e+001 
3296875000  -4.254949e+001  -3.925713e+001 
3300000000  -4.204536e+001  -3.915962e+001 
3303125000  -4.095363e+001  -4.572660e+001 
3306250000  -4.109156e+001  -5.249213e+001 
3309375000  -4.077892e+001  -6.153557e+001 
3312500000  -4.089806e+001  -7.167562e+001 
3315625000  -4.203385e+001  -8.063958e+001 
3318750000  -4.348667e+001  -8.426198e+001 
3321875000  -4.495301e+001  -8.082822e+001 
3325000000  -4.507140e+001  -7.390643e+001 
3328125000  -4.404615e+001  -7.633372e+001 
3331250000  -4.275268e+001  -6.848866e+001 
3334375000  -4.010903e+001  -8.688912e+001 
3337500000  -4.062834e+001  -1.049023e+002 
3340625000  -4.235105e+001  -1.151822e+002 
3343750000  -4.414746e+001  -1.153660e+002 
3346875000  -4.346619e+001  -1.162837e+002 
3350000000  -4.319210e+001  -1.183555e+002 
3353125000  -4.286967e+001  -1.254288e+002 
3356250000  -4.262990e+001  -1.353895e+002 
3359375000  -4.323874e+001  -1.449172e+002 
3362500000  -4.455476e+001  -1.501875e+002 
3365625000  -4.502809e+001  -1.538902e+002 
3368750000  -4.569696e+001  -1.587006e+002 
3371875000  -4.566618e+001  -1.633694e+002 
3375000000  -4.774398e+001  -1.675375e+002 
3378125000  -4.804039e+001  -1.686165e+002 
3381250000  -4.933834e+001  -1.549993e+002 
3384375000  -4.697136e+001  -1.433202e+002 
3387500000  -4.415040e+001  -1.636111e+002 
3390625000  -4.667237e+001  1.789520e+002 
3393750000  -4.711965e+001  -1.799629e+002 
3396875000  -4.624381e+001  1.744744e+002 
3400000000  -4.612374e+001  1.620030e+002 
3403125000  -4.693551e+001  1.582411e+002 
3406250000  -4.784015e+001  1.566484e+002 
3409375000  -4.812160e+001  1.458056e+002 
3412500000  -4.911595e+001  1.430181e+002 
3415625000  -4.953292e+001  1.418412e+002 
3418750000  -5.053015e+001  1.436501e+002 
3421875000  -5.125578e+001  1.446286e+002 
3425000000  -5.088133e+001  1.428780e+002 
3428125000  -5.001604e+001  1.423356e+002 
3431250000  -5.048359e+001  1.318133e+002 
3434375000  -5.060490e+001  1.261377e+002 
3437500000  -5.195448e+001  1.237672e+002 
3440625000  -5.199246e+001  1.308587e+002 
3443750000  -5.126466e+001  1.280074e+002 
3446875000  -5.107385e+001  1.188887e+002 
3450000000  -5.131515e+001  1.181843e+002 
3453125000  -5.207504e+001  1.143592e+002 
3456250000  -5.311024e+001  1.025466e+002 
3459375000  -5.294279e+001  1.081887e+002 
3462500000  -5.324630e+001  1.149626e+002 
3465625000  -5.201271e+001  1.074067e+002 
3468750000  -5.232571e+001  1.014182e+002 
3471875000  -5.190027e+001  1.009772e+002 
3475000000  -5.175035e+001  9.995738e+001 
3478125000  -5.162649e+001  8.811259e+001 
3481250000  -5.274461e+001  9.015071e+001 
3484375000  -5.255910e+001  9.493945e+001 
3487500000  -5.204660e+001  8.929721e+001 
3490625000  -5.130802e+001  7.687679e+001 
3493750000  -5.174744e+001  7.496858e+001 
3496875000  -5.143433e+001  7.694460e+001 
3500000000  -5.300565e+001  7.854789e+001 
3503125000  -5.149664e+001  7.424564e+001 
3506250000  -5.097699e+001  6.545795e+001 
3509375000  -5.012643e+001  5.555785e+001 
3512500000  -5.098994e+001  4.138688e+001 
3515625000  -5.143238e+001  3.837498e+001 
3518750000  -5.183491e+001  4.006970e+001 
3521875000  -5.151316e+001  3.003789e+001 
3525000000  -5.405163e+001  2.943741e+001 
3528125000  -5.314711e+001  3.210904e+001 
3531250000  -5.241185e+001  2.417895e+001 
3534375000  -5.342543e+001  1.430861e+001 
3537500000  -5.406600e+001  -6.008343e-001 
3540625000  -5.400927e+001  1.351487e+000 
3543750000  -5.626040e+001  1.118041e+001 
3546875000  -5.672454e+001  1.513983e+001 
3550000000  -5.495673e+001  1.809392e+001 
3553125000  -5.439531e+001  -1.400292e+001 
3556250000  -5.570065e+001  -4.719236e+000 
3559375000  -5.755577e+001  -5.404217e-001 
3562500000  -5.684400e+001  -1.922463e+001 
3565625000  -5.840670e+001  -2.549504e+001 
3568750000  -5.752978e+001  -1.052686e+001 
3571875000  -5.761481e+001  -1.420903e+001 
3575000000  -5.895658e+001  7.365212e-001 
3578125000  -5.800473e+001  -2.246074e+001 
3581250000  -5.982608e+001  -1.641206e+001 
3584375000  -5.838427e+001  -4.708209e+000 
3587500000  -5.794859e+001  -7.513520e+000 
3590625000  -5.909866e+001  -1.865016e+001 
3593750000  -6.017671e+001  -5.143224e+000 
3596875000  -5.923740e+001  -1.415500e+001 
3600000000  -5.712965e+001  -1.270416e+000 
3603125000  -5.816659e+001  -2.716681e+001 
3606250000  -5.843402e+001  -2.323336e+001 
3609375000  -5.722324e+001  -1.267100e+001 
3612500000  -5.839941e+001  -1.690080e+001 
3615625000  -5.815112e+001  -3.011132e+001 
3618750000  -5.839939e+001  -1.253461e+001 
3621875000  -5.642525e+001  -1.618091e+001 
3625000000  -5.728635e+001  -1.608249e+001 
3628125000  -5.692254e+001  -1.246711e+001 
3631250000  -5.612078e+001  -2.425438e+001 
3634375000  -5.637444e+001  -2.101982e+001 
3637500000  -5.567265e+001  -1.246675e+001 
3640625000  -5.413519e+001  -7.436745e+000 
3643750000  -5.311842e+001  -1.653506e+001 
3646875000  -5.264803e+001  -3.386429e+001 
3650000000  -5.274648e+001  -3.039712e+001 
3653125000  -5.136113e+001  -3.534437e+001 
3656250000  -5.166090e+001  -3.722430e+001 
3659375000  -5.123963e+001  -4.210067e+001 
3662500000  -5.061489e+001  -4.091462e+001 
3665625000  -4.950188e+001  -4.653559e+001 
3668750000  -4.774490e+001  -4.644041e+001 
3671875000  -4.733079e+001  -5.703522e+001 
3675000000  -4.692904e+001  -6.952074e+001 
3678125000  -4.736560e+001  -7.072379e+001 
3681250000  -4.709533e+001  -7.217087e+001 
3684375000  -4.699767e+001  -7.864112e+001 
3687500000  -4.656453e+001  -8.375983e+001 
3690625000  -4.686959e+001  -9.364909e+001 
3693750000  -4.678954e+001  -9.384568e+001 
3696875000  -4.634149e+001  -9.291515e+001 
3700000000  -4.525909e+001  -9.832416e+001 
3703125000  -4.562186e+001  -1.049341e+002 
3706250000  -4.570341e+001  -1.037537e+002 
3709375000  -4.444498e+001  -1.063111e+002 
3712500000  -4.357363e+001  -1.104017e+002 
3715625000  -4.234836e+001  -1.195569e+002 
3718750000  -4.192186e+001  -1.243854e+002 
3721875000  -4.130788e+001  -1.356077e+002 
3725000000  -4.165998e+001  -1.411486e+002 
3728125000  -4.121514e+001  -1.450621e+002 
3731250000  -4.075936e+001  -1.508777e+002 
3734375000  -4.008019e+001  -1.588071e+002 
3737500000  -4.104254e+001  -1.673726e+002 
3740625000  -4.099346e+001  -1.735247e+002 
3743750000  -4.055164e+001  -1.796672e+002 
3746875000  -4.064660e+001  1.738186e+002 
3750000000  -4.108231e+001  1.693523e+002 
3753125000  -4.085102e+001  1.654761e+002 
3756250000  -4.082901e+001  1.629523e+002 
3759375000  -4.055420e+001  1.570030e+002 
3762500000  -3.987787e+001  1.497159e+002 
3765625000  -4.086424e+001  1.451367e+002 
3768750000  -4.043094e+001  1.452030e+002 
3771875000  -3.846034e+001  1.395129e+002 
3775000000  -3.863974e+001  1.269508e+002 
3778125000  -3.890687e+001  1.215323e+002 
3781250000  -3.916353e+001  1.166882e+002 
3784375000  -3.902325e+001  1.116278e+002 
3787500000  -3.843729e+001  1.053547e+002 
3790625000  -3.919202e+001  9.436002e+001 
3793750000  -3.938709e+001  9.269276e+001 
3796875000  -3.851208e+001  8.760307e+001 
3800000000  -3.662723e+001  8.357397e+001 
3803125000  -3.822118e+001  6.970953e+001 
3806250000  -3.899577e+001  6.710060e+001 
3809375000  -3.859352e+001  6.076733e+001 
3812500000  -3.836288e+001  5.319530e+001 
3815625000  -3.913641e+001  4.397358e+001 
3818750000  -4.046258e+001  4.323981e+001 
3821875000  -4.044980e+001  5.218094e+001 
3825000000  -3.832377e+001  5.028833e+001 
3828125000  -3.726982e+001  3.254961e+001 
3831250000  -3.838307e+001  1.812177e+001 
3834375000  -4.023645e+001  1.774543e+001 
3837500000  -4.103828e+001  2.064146e+001 
3840625000  -3.937714e+001  1.865233e+001 
3843750000  -3.831100e+001  2.731797e+000 
3846875000  -3.993752e+001  -3.320984e+000 
3850000000  -4.078551e+001  1.482981e+000 
3853125000  -4.002288e+001  2.598281e+000 
3856250000  -3.926781e+001  -5.183071e+000 
3859375000  -3.899037e+001  -1.195263e+001 
3862500000  -3.851925e+001  -2.165962e+001 
3865625000  -3.919407e+001  -2.670638e+001 
3868750000  -3.887426e+001  -2.890010e+001 
3871875000  -3.825613e+001  -3.360037e+001 
3875000000  -3.866817e+001  -4.593009e+001 
3878125000  -3.978093e+001  -4.842601e+001 
3881250000  -3.942598e+001  -4.805750e+001 
3884375000  -3.894791e+001  -5.578772e+001 
3887500000  -3.910186e+001  -6.098036e+001 
3890625000  -3.948572e+001  -6.590019e+001 
3893750000  -3.978793e+001  -6.810540e+001 
3896875000  -4.015661e+001  -7.035050e+001 
3900000000  -4.015939e+001  -7.421623e+001 
3903125000  -3.975842e+001  -7.870054e+001 
3906250000  -3.907988e+001  -8.039739e+001 
3909375000  -3.836827e+001  -9.185440e+001 
3912500000  -3.916410e+001  -9.980556e+001 
3915625000  -4.053834e+001  -1.004808e+002 
3918750000  -4.007897e+001  -1.007352e+002 
3921875000  -3.927222e+001  -1.070237e+002 
3925000000  -3.883726e+001  -1.100275e+002 
3928125000  -3.856025e+001  -1.210534e+002 
3931250000  -3.909114e+001  -1.270305e+002 
3934375000  -3.949700e+001  -1.294281e+002 
3937500000  -3.999686e+001  -1.312933e+002 
3940625000  -4.000922e+001  -1.339011e+002 
3943750000  -3.890561e+001  -1.360672e+002 
3946875000  -3.836096e+001  -1.454286e+002 
3950000000  -3.954069e+001  -1.530258e+002 
3953125000  -4.025645e+001  -1.541339e+002 
3956250000  -3.890792e+001  -1.539325e+002 
3959375000  -3.799709e+001  -1.597242e+002 
3962500000  -3.768851e+001  -1.682344e+002 
3965625000  -3.818612e+001  -1.767406e+002 
3968750000  -3.893667e+001  1.755509e+002 
3971875000  -3.912556e+001  1.693856e+002 
3975000000  -3.844923e+001  1.658735e+002 
3978125000  -3.868157e+001  1.616157e+002 
3981250000  -3.864968e+001  1.541259e+002 
3984375000  -3.899857e+001  1.469934e+002 
3987500000  -3.984057e+001  1.436253e+002 
3990625000  -3.987423e+001  1.412485e+002 
3993750000  -4.023137e+001  1.362905e+002 
3996875000  -4.017216e+001  1.330591e+002 
4000000000  -4.099952e+001  1.280789e+002 
4003125000  -4.126915e+001  1.284543e+002 
4006250000  -3.955290e+001  1.288976e+002 
4009375000  -3.885493e+001  1.131329e+002 
4012500000  -4.021773e+001  1.059400e+002 
4015625000  -4.178953e+001  1.053815e+002 
4018750000  -4.145029e+001  1.051354e+002 
4021875000  -4.111116e+001  1.030834e+002 
4025000000  -4.047516e+001  9.530659e+001 
4028125000  -4.086268e+001  9.040530e+001 
4031250000  -4.133059e+001  8.727397e+001 
4034375000  -4.188486e+001  8.502106e+001 
4037500000  -4.153033e+001  8.621799e+001 
4040625000  -4.114594e+001  8.108734e+001 
4043750000  -4.140184e+001  7.958847e+001 
4046875000  -4.073491e+001  7.686436e+001 
4050000000  -4.084255e+001  7.044995e+001 
4053125000  -4.141358e+001  6.782035e+001 
4056250000  -4.177069e+001  7.181736e+001 
4059375000  -3.957444e+001  6.985957e+001 
4062500000  -3.869896e+001  6.154013e+001 
4065625000  -3.905035e+001  5.511484e+001 
4068750000  -3.824345e+001  4.848707e+001 
4071875000  -3.782650e+001  3.807967e+001 
4075000000  -3.868845e+001  3.137013e+001 
4078125000  -3.882499e+001  2.807723e+001 
4081250000  -3.826434e+001  2.294261e+001 
4084375000  -3.826190e+001  1.367868e+001 
4087500000  -3.884047e+001  5.362923e+000 
4090625000  -3.914218e+001  4.813936e+000 
4093750000  -3.895391e+001  1.329042e+000 
4096875000  -3.857196e+001  -7.676142e+000 
4100000000  -3.977554e+001  -1.528194e+001 
4103125000  -4.066241e+001  -1.497000e+001 
4106250000  -4.017242e+001  -1.116117e+001 
4109375000  -3.943390e+001  -1.246562e+001 
4112500000  -3.878940e+001  -2.387903e+001 
4115625000  -3.936988e+001  -3.002712e+001 
4118750000  -3.912914e+001  -3.296838e+001 
4121875000  -3.897404e+001  -4.168379e+001 
4125000000  -3.986347e+001  -4.797179e+001 
4128125000  -4.108497e+001  -4.594955e+001 
4131250000  -4.022612e+001  -4.076299e+001 
4134375000  -3.762378e+001  -4.975660e+001 
4137500000  -3.812415e+001  -7.067870e+001 
4140625000  -4.055777e+001  -7.963928e+001 
4143750000  -4.162334e+001  -7.124733e+001 
4146875000  -4.062395e+001  -6.746286e+001 
4150000000  -4.003372e+001  -7.630845e+001 
4153125000  -4.004967e+001  -8.326690e+001 
4156250000  -4.148308e+001  -8.685499e+001 
4159375000  -4.091669e+001  -8.261813e+001 
4162500000  -4.004249e+001  -8.013776e+001 
4165625000  -3.892610e+001  -8.612449e+001 
4168750000  -3.849321e+001  -9.613957e+001 
4171875000  -3.846499e+001  -1.080254e+002 
4175000000  -3.941030e+001  -1.148568e+002 
4178125000  -3.975911e+001  -1.141021e+002 
4181250000  -3.974067e+001  -1.167463e+002 
4184375000  -3.977712e+001  -1.221801e+002 
4187500000  -3.966601e+001  -1.278263e+002 
4190625000  -3.967884e+001  -1.344621e+002 
4193750000  -4.063042e+001  -1.430110e+002 
4196875000  -4.134699e+001  -1.434282e+002 
4200000000  -4.238227e+001  -1.365835e+002 
4203125000  -4.116502e+001  -1.259135e+002 
4206250000  -3.807949e+001  -1.317551e+002 
4209375000  -3.735788e+001  -1.542844e+002 
4212500000  -3.945801e+001  -1.636529e+002 
4215625000  -4.021189e+001  -1.550022e+002 
4218750000  -3.864523e+001  -1.531429e+002 
4221875000  -3.668287e+001  -1.630926e+002 
4225000000  -3.804571e+001  -1.768268e+002 
4228125000  -3.827542e+001  -1.750111e+002 
4231250000  -3.650325e+001  1.789224e+002 
4234375000  -3.656833e+001  1.672472e+002 
4237500000  -3.625806e+001  1.626310e+002 
4240625000  -3.646704e+001  1.511835e+002 
4243750000  -3.767747e+001  1.423690e+002 
4246875000  -3.861638e+001  1.427622e+002 
4250000000  -3.846573e+001  1.400135e+002 
4253125000  -3.815593e+001  1.391447e+002 
4256250000  -3.820873e+001  1.337766e+002 
4259375000  -3.796965e+001  1.292979e+002 
4262500000  -3.791910e+001  1.246452e+002 
4265625000  -3.830200e+001  1.216356e+002 
4268750000  -3.720958e+001  1.146449e+002 
4271875000  -3.711205e+001  1.052578e+002 
4275000000  -3.660335e+001  9.689935e+001 
4278125000  -3.772273e+001  8.640319e+001 
4281250000  -3.905812e+001  8.336877e+001 
4284375000  -3.899168e+001  8.183839e+001 
4287500000  -4.056904e+001  7.790271e+001 
4290625000  -4.123717e+001  8.551703e+001 
4293750000  -3.867543e+001  8.527745e+001 
4296875000  -3.793574e+001  7.270545e+001 
4300000000  -3.932976e+001  6.402209e+001 
4303125000  -4.020080e+001  6.554540e+001 
4306250000  -3.913894e+001  6.853263e+001 
4309375000  -3.808915e+001  6.227810e+001 
4312500000  -3.791496e+001  5.281827e+001 
4315625000  -3.821500e+001  4.428945e+001 
4318750000  -3.875172e+001  3.989866e+001 
4321875000  -3.906176e+001  4.245061e+001 
4325000000  -3.844394e+001  4.004296e+001 
4328125000  -3.762463e+001  2.994214e+001 
4331250000  -3.783602e+001  2.046292e+001 
4334375000  -3.851772e+001  1.387896e+001 
4337500000  -3.978779e+001  1.319415e+001 
4340625000  -4.014417e+001  1.667400e+001 
4343750000  -3.905236e+001  1.322815e+001 
4346875000  -3.890337e+001  4.300588e+000 
4350000000  -3.860355e+001  -2.810673e+000 
4353125000  -3.909742e+001  -1.024745e+001 
4356250000  -4.116770e+001  -8.312344e+000 
4359375000  -4.053158e+001  5.791088e+000 
4362500000  -3.719168e+001  1.254595e+000 
4365625000  -3.649854e+001  -1.754079e+001 
4368750000  -3.755474e+001  -2.654163e+001 
4371875000  -3.849874e+001  -2.723527e+001 
4375000000  -3.784869e+001  -3.157440e+001 
4378125000  -3.732429e+001  -3.975635e+001 
4381250000  -3.734200e+001  -4.636259e+001 
4384375000  -3.740152e+001  -5.277749e+001 
4387500000  -3.829936e+001  -5.868217e+001 
4390625000  -3.872431e+001  -5.810707e+001 
4393750000  -3.829090e+001  -6.043769e+001 
4396875000  -3.747641e+001  -6.386607e+001 
4400000000  -3.725267e+001  -7.321967e+001 
4403125000  -3.808748e+001  -8.427422e+001 
4406250000  -3.855690e+001  -8.794673e+001 
4409375000  -3.888703e+001  -9.016842e+001 
4412500000  -4.013639e+001  -9.772148e+001 
4415625000  -4.000655e+001  -9.020620e+001 
