!Agilent Technologies,E8363B,MY43030201,A.06.04.32
!Agilent E8363B: A.06.04.32
!Date: Tuesday, November 11, 2014 21:36:41
!Correction: S21(Response(S21)) 
!S1P File: Measurement: S21:
# Hz S  dB   R 50
3000000000  -4.054872e+001  7.155997e+001 
3003125000  -4.221584e+001  6.289675e+001 
3006250000  -4.222912e+001  6.154012e+001 
3009375000  -4.262059e+001  6.786287e+001 
3012500000  -4.135089e+001  6.193926e+001 
3015625000  -4.142252e+001  5.531998e+001 
3018750000  -4.190075e+001  5.782110e+001 
3021875000  -4.024247e+001  5.742729e+001 
3025000000  -3.878526e+001  5.379526e+001 
3028125000  -3.794725e+001  4.285559e+001 
3031250000  -3.703079e+001  3.056160e+001 
3034375000  -3.680705e+001  1.656799e+001 
3037500000  -3.752576e+001  5.643592e+000 
3040625000  -3.883342e+001  8.922107e-001 
3043750000  -3.915279e+001  -5.112484e+000 
3046875000  -4.001934e+001  -1.112276e+001 
3050000000  -4.083166e+001  -1.513683e+001 
3053125000  -4.042541e+001  -1.064706e+001 
3056250000  -4.044925e+001  -7.532117e+000 
3059375000  -3.964903e+001  -1.008223e+001 
3062500000  -3.818088e+001  -1.572663e+001 
3065625000  -3.790313e+001  -2.481145e+001 
3068750000  -3.748066e+001  -3.220984e+001 
3071875000  -3.766609e+001  -3.357348e+001 
3075000000  -3.687197e+001  -4.129717e+001 
3078125000  -3.705607e+001  -4.766628e+001 
3081250000  -3.720745e+001  -5.339764e+001 
3084375000  -3.639236e+001  -5.833324e+001 
3087500000  -3.644315e+001  -6.535715e+001 
3090625000  -3.593322e+001  -7.731847e+001 
3093750000  -3.700053e+001  -8.575101e+001 
3096875000  -3.735048e+001  -9.031554e+001 
3100000000  -3.721354e+001  -9.309518e+001 
3103125000  -3.760311e+001  -9.720836e+001 
3106250000  -3.714840e+001  -1.024491e+002 
3109375000  -3.726152e+001  -1.057455e+002 
3112500000  -3.720667e+001  -1.118441e+002 
3115625000  -3.703487e+001  -1.152366e+002 
3118750000  -3.720862e+001  -1.192788e+002 
3121875000  -3.659139e+001  -1.310986e+002 
3125000000  -3.853771e+001  -1.330341e+002 
3128125000  -3.848888e+001  -1.262802e+002 
3131250000  -3.602615e+001  -1.323811e+002 
3134375000  -3.545378e+001  -1.498202e+002 
3137500000  -3.608113e+001  -1.620093e+002 
3140625000  -3.734093e+001  -1.642724e+002 
3143750000  -3.830073e+001  -1.662270e+002 
3146875000  -3.761914e+001  -1.644942e+002 
3150000000  -3.690316e+001  -1.680920e+002 
3153125000  -3.720576e+001  -1.775444e+002 
3156250000  -3.808450e+001  -1.734984e+002 
3159375000  -3.565280e+001  -1.746227e+002 
3162500000  -3.423296e+001  1.694053e+002 
3165625000  -3.544287e+001  1.580612e+002 
3168750000  -3.534219e+001  1.555320e+002 
3171875000  -3.489879e+001  1.489388e+002 
3175000000  -3.549400e+001  1.385818e+002 
3178125000  -3.499260e+001  1.376039e+002 
3181250000  -3.444311e+001  1.288141e+002 
3184375000  -3.419280e+001  1.185595e+002 
3187500000  -3.547702e+001  1.043619e+002 
3190625000  -3.726461e+001  9.763260e+001 
3193750000  -3.755221e+001  1.026229e+002 
3196875000  -3.737985e+001  1.033851e+002 
3200000000  -3.616879e+001  9.764952e+001 
3203125000  -3.595001e+001  9.037428e+001 
3206250000  -3.605066e+001  8.261601e+001 
3209375000  -3.572892e+001  7.454156e+001 
3212500000  -3.638025e+001  6.855704e+001 
3215625000  -3.605671e+001  6.519373e+001 
3218750000  -3.682573e+001  5.390783e+001 
3221875000  -3.726103e+001  4.661008e+001 
3225000000  -3.701289e+001  4.262525e+001 
3228125000  -3.763366e+001  3.559811e+001 
3231250000  -3.824087e+001  3.326800e+001 
3234375000  -3.788822e+001  3.030169e+001 
3237500000  -3.791720e+001  2.670501e+001 
3240625000  -3.751397e+001  2.173454e+001 
3243750000  -3.771418e+001  1.172978e+001 
3246875000  -3.818337e+001  4.618756e+000 
3250000000  -3.874818e+001  -1.315150e-001 
3253125000  -3.900936e+001  -2.071428e+000 
3256250000  -3.857090e+001  -1.160374e+001 
3259375000  -3.923279e+001  -2.187132e+001 
3262500000  -4.058713e+001  -2.634729e+001 
3265625000  -4.145765e+001  -2.231739e+001 
3268750000  -4.109443e+001  -2.315839e+001 
3271875000  -4.050310e+001  -2.565064e+001 
3275000000  -4.011747e+001  -3.361410e+001 
3278125000  -4.085197e+001  -3.930885e+001 
3281250000  -4.086666e+001  -3.938192e+001 
3284375000  -4.066876e+001  -4.636280e+001 
3287500000  -4.089152e+001  -4.991541e+001 
3290625000  -4.129649e+001  -5.827446e+001 
3293750000  -4.124340e+001  -6.390833e+001 
3296875000  -4.246713e+001  -6.597016e+001 
3300000000  -4.167061e+001  -6.497234e+001 
3303125000  -4.089736e+001  -7.138129e+001 
3306250000  -4.080221e+001  -7.901416e+001 
3309375000  -4.048080e+001  -8.708907e+001 
3312500000  -4.076573e+001  -9.846680e+001 
3315625000  -4.204362e+001  -1.049389e+002 
3318750000  -4.381140e+001  -1.084382e+002 
3321875000  -4.502971e+001  -1.070173e+002 
3325000000  -4.490864e+001  -9.834129e+001 
3328125000  -4.368396e+001  -1.003614e+002 
3331250000  -4.233133e+001  -9.558525e+001 
3334375000  -3.965284e+001  -1.117532e+002 
3337500000  -4.030550e+001  -1.329881e+002 
3340625000  -4.221937e+001  -1.435739e+002 
3343750000  -4.422360e+001  -1.412142e+002 
3346875000  -4.316397e+001  -1.417167e+002 
3350000000  -4.290068e+001  -1.458653e+002 
3353125000  -4.275705e+001  -1.524273e+002 
3356250000  -4.247743e+001  -1.616860e+002 
3359375000  -4.339537e+001  -1.727157e+002 
3362500000  -4.418218e+001  -1.786085e+002 
3365625000  -4.469961e+001  1.781718e+002 
3368750000  -4.551475e+001  1.753929e+002 
3371875000  -4.568391e+001  1.696614e+002 
3375000000  -4.728311e+001  1.665853e+002 
3378125000  -4.809634e+001  1.666277e+002 
3381250000  -4.971885e+001  1.748618e+002 
3384375000  -4.652399e+001  -1.689877e+002 
3387500000  -4.392847e+001  1.688878e+002 
3390625000  -4.616289e+001  1.470690e+002 
3393750000  -4.748512e+001  1.487216e+002 
3396875000  -4.601390e+001  1.500611e+002 
3400000000  -4.619823e+001  1.351013e+002 
3403125000  -4.740611e+001  1.323509e+002 
3406250000  -4.736176e+001  1.261681e+002 
3409375000  -4.797458e+001  1.225480e+002 
3412500000  -4.881601e+001  1.133305e+002 
3415625000  -4.953284e+001  1.176929e+002 
3418750000  -5.046167e+001  1.113721e+002 
3421875000  -5.138163e+001  1.182342e+002 
3425000000  -5.005606e+001  1.169732e+002 
3428125000  -5.020867e+001  1.164326e+002 
3431250000  -5.003289e+001  1.077828e+002 
3434375000  -5.044107e+001  1.016605e+002 
3437500000  -5.242438e+001  9.828405e+001 
3440625000  -5.199998e+001  1.003302e+002 
3443750000  -5.029029e+001  1.079065e+002 
3446875000  -5.058768e+001  9.905582e+001 
3450000000  -5.051700e+001  9.282688e+001 
3453125000  -5.096788e+001  8.294064e+001 
3456250000  -5.179883e+001  7.870451e+001 
3459375000  -5.258524e+001  7.939349e+001 
3462500000  -5.223898e+001  8.940275e+001 
3465625000  -5.027411e+001  7.970152e+001 
3468750000  -5.179199e+001  7.173909e+001 
3471875000  -5.248316e+001  7.294598e+001 
3475000000  -5.122225e+001  7.668321e+001 
3478125000  -5.108498e+001  6.159917e+001 
3481250000  -5.214721e+001  6.209689e+001 
3484375000  -5.219315e+001  6.541792e+001 
3487500000  -5.199743e+001  5.910736e+001 
3490625000  -5.043316e+001  4.935173e+001 
3493750000  -5.204771e+001  4.918027e+001 
3496875000  -5.127754e+001  4.933224e+001 
3500000000  -5.194256e+001  4.588826e+001 
3503125000  -5.113089e+001  4.309481e+001 
3506250000  -4.967681e+001  3.329885e+001 
3509375000  -4.913207e+001  2.369821e+001 
3512500000  -5.077317e+001  9.182198e+000 
3515625000  -5.150486e+001  5.397801e+000 
3518750000  -5.192060e+001  1.082863e+001 
3521875000  -5.157363e+001  -3.970669e-001 
3525000000  -5.320182e+001  -7.638543e-001 
3528125000  -5.250435e+001  -6.245909e+000 
3531250000  -5.158225e+001  -7.814083e-001 
3534375000  -5.292144e+001  -2.218758e+001 
3537500000  -5.364095e+001  -2.515267e+001 
3540625000  -5.404741e+001  -2.102488e+001 
3543750000  -5.532722e+001  -1.632858e+001 
3546875000  -5.649085e+001  -1.544300e+001 
3550000000  -5.287174e+001  -1.954136e+001 
3553125000  -5.360956e+001  -3.994414e+001 
3556250000  -5.470061e+001  -3.662063e+001 
3559375000  -5.578211e+001  -3.902257e+001 
3562500000  -5.468667e+001  -5.246938e+001 
3565625000  -5.682599e+001  -5.708807e+001 
3568750000  -5.672726e+001  -3.627656e+001 
3571875000  -5.902002e+001  -4.122079e+001 
3575000000  -5.845360e+001  -4.274183e+001 
3578125000  -5.734387e+001  -4.474500e+001 
3581250000  -5.892561e+001  -5.270072e+001 
3584375000  -5.765068e+001  -3.749776e+001 
3587500000  -5.909797e+001  -5.135711e+001 
3590625000  -5.928532e+001  -6.091633e+001 
3593750000  -5.749942e+001  -5.053143e+001 
3596875000  -5.825904e+001  -3.754294e+001 
3600000000  -5.819825e+001  -4.010672e+001 
3603125000  -5.780899e+001  -6.027044e+001 
3606250000  -5.790966e+001  -4.452160e+001 
3609375000  -5.864672e+001  -5.045439e+001 
3612500000  -5.993917e+001  -4.806548e+001 
3615625000  -5.913573e+001  -5.025503e+001 
3618750000  -5.945624e+001  -3.669810e+001 
3621875000  -5.743627e+001  -6.104174e+001 
3625000000  -5.895094e+001  -5.250794e+001 
3628125000  -5.548309e+001  -5.317123e+001 
3631250000  -5.681257e+001  -5.514053e+001 
3634375000  -5.701928e+001  -4.648958e+001 
3637500000  -5.574779e+001  -3.901056e+001 
3640625000  -5.550234e+001  -3.925347e+001 
3643750000  -5.285904e+001  -4.503679e+001 
3646875000  -5.337414e+001  -6.148629e+001 
3650000000  -5.301352e+001  -6.934973e+001 
3653125000  -5.196967e+001  -6.476292e+001 
3656250000  -5.266026e+001  -6.471112e+001 
3659375000  -5.135433e+001  -7.067456e+001 
3662500000  -5.001437e+001  -7.649340e+001 
3665625000  -5.017585e+001  -7.715140e+001 
3668750000  -4.784755e+001  -7.666414e+001 
3671875000  -4.706331e+001  -8.525990e+001 
3675000000  -4.708516e+001  -9.279168e+001 
3678125000  -4.729241e+001  -9.690627e+001 
3681250000  -4.655357e+001  -1.046141e+002 
3684375000  -4.721372e+001  -1.088377e+002 
3687500000  -4.718481e+001  -1.134023e+002 
3690625000  -4.674899e+001  -1.209107e+002 
3693750000  -4.724017e+001  -1.226238e+002 
3696875000  -4.634550e+001  -1.196581e+002 
3700000000  -4.527258e+001  -1.295364e+002 
3703125000  -4.562851e+001  -1.347452e+002 
3706250000  -4.589387e+001  -1.343648e+002 
3709375000  -4.473483e+001  -1.325282e+002 
3712500000  -4.360438e+001  -1.415393e+002 
3715625000  -4.196767e+001  -1.495002e+002 
3718750000  -4.176609e+001  -1.568575e+002 
3721875000  -4.124415e+001  -1.661369e+002 
3725000000  -4.170005e+001  -1.712578e+002 
3728125000  -4.163094e+001  -1.764537e+002 
3731250000  -4.044093e+001  1.775882e+002 
3734375000  -3.990275e+001  1.719094e+002 
3737500000  -4.079789e+001  1.638081e+002 
3740625000  -4.073775e+001  1.564099e+002 
3743750000  -4.045451e+001  1.502950e+002 
3746875000  -4.063646e+001  1.420516e+002 
3750000000  -4.105767e+001  1.379435e+002 
3753125000  -4.071349e+001  1.359319e+002 
3756250000  -4.052620e+001  1.330427e+002 
3759375000  -4.048547e+001  1.250655e+002 
3762500000  -4.016062e+001  1.198432e+002 
3765625000  -4.078025e+001  1.159483e+002 
3768750000  -4.015752e+001  1.165806e+002 
3771875000  -3.845617e+001  1.090547e+002 
3775000000  -3.863710e+001  9.647813e+001 
3778125000  -3.900158e+001  8.921326e+001 
3781250000  -3.880991e+001  8.629503e+001 
3784375000  -3.859280e+001  7.969696e+001 
3787500000  -3.849651e+001  7.547614e+001 
3790625000  -3.913850e+001  6.453945e+001 
3793750000  -3.905516e+001  6.206030e+001 
3796875000  -3.812886e+001  5.814699e+001 
3800000000  -3.632056e+001  5.308661e+001 
3803125000  -3.797750e+001  4.061248e+001 
3806250000  -3.894964e+001  3.611849e+001 
3809375000  -3.831536e+001  3.091222e+001 
3812500000  -3.850412e+001  2.181335e+001 
3815625000  -3.957226e+001  1.197697e+001 
3818750000  -4.054022e+001  1.400937e+001 
3821875000  -4.034728e+001  2.379031e+001 
3825000000  -3.819547e+001  2.049495e+001 
3828125000  -3.686157e+001  2.579125e-001 
3831250000  -3.813866e+001  -1.409571e+001 
3834375000  -4.025935e+001  -1.353934e+001 
3837500000  -4.059808e+001  -9.412542e+000 
3840625000  -3.876985e+001  -1.340102e+001 
3843750000  -3.813123e+001  -2.822866e+001 
3846875000  -3.970420e+001  -3.212206e+001 
3850000000  -4.086940e+001  -2.621567e+001 
3853125000  -3.991195e+001  -2.779524e+001 
3856250000  -3.982388e+001  -3.673274e+001 
3859375000  -3.850030e+001  -4.317268e+001 
3862500000  -3.849228e+001  -5.387118e+001 
3865625000  -3.892765e+001  -5.800007e+001 
3868750000  -3.876193e+001  -5.849229e+001 
3871875000  -3.784142e+001  -6.711929e+001 
3875000000  -3.854280e+001  -7.722048e+001 
3878125000  -3.925280e+001  -8.069338e+001 
3881250000  -3.895119e+001  -7.954162e+001 
3884375000  -3.875921e+001  -8.647568e+001 
3887500000  -3.907339e+001  -9.279047e+001 
3890625000  -3.957743e+001  -9.889816e+001 
3893750000  -3.977880e+001  -9.797556e+001 
3896875000  -4.030136e+001  -1.028719e+002 
3900000000  -3.994831e+001  -1.063848e+002 
3903125000  -3.932458e+001  -1.106177e+002 
3906250000  -3.894205e+001  -1.150065e+002 
3909375000  -3.801669e+001  -1.238909e+002 
3912500000  -3.901478e+001  -1.325718e+002 
3915625000  -4.041646e+001  -1.321987e+002 
3918750000  -3.992832e+001  -1.346415e+002 
3921875000  -3.934462e+001  -1.387630e+002 
3925000000  -3.841245e+001  -1.422833e+002 
3928125000  -3.823662e+001  -1.515614e+002 
3931250000  -3.912342e+001  -1.597679e+002 
3934375000  -3.957411e+001  -1.593329e+002 
3937500000  -3.996910e+001  -1.612831e+002 
3940625000  -4.014605e+001  -1.652456e+002 
3943750000  -3.876749e+001  -1.671057e+002 
3946875000  -3.846439e+001  -1.758796e+002 
3950000000  -3.942242e+001  1.738385e+002 
3953125000  -3.993493e+001  1.767390e+002 
3956250000  -3.865207e+001  1.756137e+002 
3959375000  -3.771281e+001  1.694066e+002 
3962500000  -3.792409e+001  1.588978e+002 
3965625000  -3.776948e+001  1.501449e+002 
3968750000  -3.875847e+001  1.440294e+002 
3971875000  -3.862350e+001  1.385878e+002 
3975000000  -3.834265e+001  1.338714e+002 
3978125000  -3.839647e+001  1.304825e+002 
3981250000  -3.850106e+001  1.231979e+002 
3984375000  -3.893797e+001  1.157059e+002 
3987500000  -3.974205e+001  1.127569e+002 
3990625000  -3.988241e+001  1.106177e+002 
3993750000  -3.984717e+001  1.064526e+002 
3996875000  -3.981419e+001  9.949490e+001 
4000000000  -4.063623e+001  9.537608e+001 
4003125000  -4.105260e+001  9.733654e+001 
4006250000  -3.931104e+001  9.479051e+001 
4009375000  -3.866335e+001  8.176243e+001 
4012500000  -4.020256e+001  7.448869e+001 
4015625000  -4.144020e+001  7.261670e+001 
4018750000  -4.107500e+001  7.415459e+001 
4021875000  -4.075560e+001  7.136201e+001 
4025000000  -4.038720e+001  6.371065e+001 
4028125000  -4.056158e+001  5.690565e+001 
4031250000  -4.104983e+001  5.411114e+001 
4034375000  -4.143920e+001  5.381575e+001 
4037500000  -4.121129e+001  5.485765e+001 
4040625000  -4.088495e+001  4.692924e+001 
4043750000  -4.118302e+001  4.535683e+001 
4046875000  -4.113478e+001  4.026004e+001 
4050000000  -4.046523e+001  3.584736e+001 
4053125000  -4.153594e+001  3.353821e+001 
4056250000  -4.115642e+001  3.844232e+001 
4059375000  -3.926300e+001  3.452129e+001 
4062500000  -3.885684e+001  2.744579e+001 
4065625000  -3.875794e+001  2.101906e+001 
4068750000  -3.820527e+001  1.511100e+001 
4071875000  -3.771606e+001  2.978398e+000 
4075000000  -3.840102e+001  -8.638977e-001 
4078125000  -3.867778e+001  -5.415301e+000 
4081250000  -3.835976e+001  -1.004018e+001 
4084375000  -3.824687e+001  -2.019814e+001 
4087500000  -3.868950e+001  -2.665376e+001 
4090625000  -3.927147e+001  -2.767386e+001 
4093750000  -3.857794e+001  -3.063291e+001 
4096875000  -3.867453e+001  -4.034496e+001 
4100000000  -3.945794e+001  -4.790715e+001 
4103125000  -4.069207e+001  -4.594407e+001 
4106250000  -4.002802e+001  -4.360062e+001 
4109375000  -3.915379e+001  -4.741513e+001 
4112500000  -3.902828e+001  -5.700698e+001 
4115625000  -3.959232e+001  -6.224504e+001 
4118750000  -3.893768e+001  -6.696107e+001 
4121875000  -3.890810e+001  -7.395277e+001 
4125000000  -4.003619e+001  -8.095975e+001 
4128125000  -4.089977e+001  -7.836216e+001 
4131250000  -3.982705e+001  -7.364338e+001 
4134375000  -3.753265e+001  -8.425990e+001 
4137500000  -3.821783e+001  -1.039781e+002 
4140625000  -4.057625e+001  -1.101565e+002 
4143750000  -4.134953e+001  -1.026861e+002 
4146875000  -4.057763e+001  -9.929169e+001 
4150000000  -3.963106e+001  -1.082887e+002 
4153125000  -4.013626e+001  -1.164891e+002 
4156250000  -4.106117e+001  -1.172768e+002 
4159375000  -4.094278e+001  -1.161776e+002 
4162500000  -3.987688e+001  -1.134779e+002 
4165625000  -3.868637e+001  -1.202231e+002 
4168750000  -3.852227e+001  -1.307899e+002 
4171875000  -3.843237e+001  -1.420974e+002 
4175000000  -3.933713e+001  -1.460486e+002 
4178125000  -3.955128e+001  -1.476017e+002 
4181250000  -3.923445e+001  -1.516183e+002 
4184375000  -3.946703e+001  -1.585325e+002 
4187500000  -3.949096e+001  -1.620800e+002 
4190625000  -3.930330e+001  -1.687954e+002 
4193750000  -4.071550e+001  -1.732728e+002 
4196875000  -4.150304e+001  -1.746938e+002 
4200000000  -4.258997e+001  -1.666369e+002 
4203125000  -4.093026e+001  -1.552777e+002 
4206250000  -3.739872e+001  -1.665611e+002 
4209375000  -3.720986e+001  1.707710e+002 
4212500000  -3.955393e+001  1.637048e+002 
4215625000  -4.006839e+001  1.713839e+002 
4218750000  -3.822317e+001  1.715113e+002 
4221875000  -3.690059e+001  1.623384e+002 
4225000000  -3.812788e+001  1.514613e+002 
4228125000  -3.759166e+001  1.524412e+002 
4231250000  -3.618940e+001  1.449916e+002 
4234375000  -3.663073e+001  1.330527e+002 
4237500000  -3.623909e+001  1.273711e+002 
4240625000  -3.626873e+001  1.166417e+002 
4243750000  -3.747001e+001  1.091245e+002 
4246875000  -3.838770e+001  1.084452e+002 
4250000000  -3.823619e+001  1.066647e+002 
4253125000  -3.806224e+001  1.049273e+002 
4256250000  -3.809781e+001  1.000350e+002 
4259375000  -3.781754e+001  9.445785e+001 
4262500000  -3.804594e+001  8.965910e+001 
4265625000  -3.782263e+001  8.827205e+001 
4268750000  -3.702044e+001  8.037695e+001 
4271875000  -3.688786e+001  7.171821e+001 
4275000000  -3.650517e+001  6.271114e+001 
4278125000  -3.758928e+001  5.035150e+001 
4281250000  -3.915228e+001  5.065834e+001 
4284375000  -3.903682e+001  4.622343e+001 
4287500000  -4.066787e+001  4.390375e+001 
4290625000  -4.080344e+001  5.135184e+001 
4293750000  -3.873413e+001  5.129125e+001 
4296875000  -3.795249e+001  3.960258e+001 
4300000000  -3.904082e+001  2.939047e+001 
4303125000  -3.974507e+001  3.441586e+001 
4306250000  -3.883637e+001  3.520999e+001 
4309375000  -3.756200e+001  2.748795e+001 
4312500000  -3.796119e+001  1.797579e+001 
4315625000  -3.799376e+001  1.028636e+001 
4318750000  -3.856686e+001  6.178798e+000 
4321875000  -3.874746e+001  6.188692e+000 
4325000000  -3.800683e+001  4.664550e+000 
4328125000  -3.730016e+001  -3.759063e+000 
4331250000  -3.744008e+001  -1.683631e+001 
4334375000  -3.829758e+001  -2.160903e+001 
4337500000  -3.946867e+001  -2.246992e+001 
4340625000  -3.957968e+001  -1.621937e+001 
4343750000  -3.874599e+001  -2.008966e+001 
4346875000  -3.809905e+001  -3.086679e+001 
4350000000  -3.843600e+001  -3.718227e+001 
4353125000  -3.910418e+001  -4.542699e+001 
4356250000  -4.096716e+001  -3.880273e+001 
4359375000  -3.972694e+001  -2.552319e+001 
4362500000  -3.643803e+001  -3.539141e+001 
4365625000  -3.604600e+001  -5.345228e+001 
4368750000  -3.716993e+001  -6.395868e+001 
4371875000  -3.785981e+001  -6.384614e+001 
4375000000  -3.696397e+001  -6.676501e+001 
4378125000  -3.684673e+001  -7.396986e+001 
4381250000  -3.713624e+001  -8.098047e+001 
4384375000  -3.717995e+001  -8.831139e+001 
4387500000  -3.834703e+001  -9.362831e+001 
4390625000  -3.841459e+001  -9.578844e+001 
4393750000  -3.806046e+001  -9.630019e+001 
4396875000  -3.747533e+001  -1.011297e+002 
4400000000  -3.686965e+001  -1.096869e+002 
4403125000  -3.799343e+001  -1.187200e+002 
4406250000  -3.839052e+001  -1.220816e+002 
4409375000  -3.873402e+001  -1.271047e+002 
4412500000  -3.983325e+001  -1.281961e+002 
4415625000  -3.937441e+001  -1.229980e+002 
