!Agilent Technologies,E8363B,MY43030201,A.06.04.32
!Agilent E8363B: A.06.04.32
!Date: Tuesday, November 11, 2014 21:35:27
!Correction: S21(Response(S21)) 
!S1P File: Measurement: S21:
# Hz S  dB   R 50
3000000000  -4.063200e+001  7.236050e+001 
3003125000  -4.207064e+001  6.559788e+001 
3006250000  -4.214555e+001  6.415337e+001 
3009375000  -4.265387e+001  6.886986e+001 
3012500000  -4.156932e+001  6.353886e+001 
3015625000  -4.154094e+001  5.688318e+001 
3018750000  -4.181186e+001  5.635778e+001 
3021875000  -4.038995e+001  5.789201e+001 
3025000000  -3.885439e+001  5.473709e+001 
3028125000  -3.783867e+001  4.372039e+001 
3031250000  -3.689375e+001  3.231872e+001 
3034375000  -3.683398e+001  1.835510e+001 
3037500000  -3.749538e+001  8.948830e+000 
3040625000  -3.870235e+001  2.880417e+000 
3043750000  -3.918981e+001  -4.645902e+000 
3046875000  -3.984991e+001  -9.419849e+000 
3050000000  -4.079628e+001  -1.437613e+001 
3053125000  -4.040228e+001  -8.746695e+000 
3056250000  -4.035355e+001  -6.650198e+000 
3059375000  -3.972268e+001  -8.421087e+000 
3062500000  -3.823945e+001  -1.339517e+001 
3065625000  -3.791884e+001  -2.248664e+001 
3068750000  -3.751492e+001  -3.092887e+001 
3071875000  -3.766061e+001  -3.390542e+001 
3075000000  -3.697945e+001  -3.989637e+001 
3078125000  -3.709956e+001  -4.600745e+001 
3081250000  -3.708518e+001  -5.228555e+001 
3084375000  -3.640801e+001  -5.686884e+001 
3087500000  -3.649239e+001  -6.405657e+001 
3090625000  -3.588134e+001  -7.593597e+001 
3093750000  -3.704103e+001  -8.449634e+001 
3096875000  -3.740809e+001  -8.946867e+001 
3100000000  -3.717924e+001  -9.212997e+001 
3103125000  -3.761959e+001  -9.635803e+001 
3106250000  -3.709883e+001  -1.017527e+002 
3109375000  -3.725641e+001  -1.052300e+002 
3112500000  -3.716920e+001  -1.108835e+002 
3115625000  -3.721319e+001  -1.146888e+002 
3118750000  -3.723230e+001  -1.187555e+002 
3121875000  -3.657357e+001  -1.292638e+002 
3125000000  -3.859497e+001  -1.316706e+002 
3128125000  -3.838002e+001  -1.246459e+002 
3131250000  -3.601683e+001  -1.311825e+002 
3134375000  -3.546502e+001  -1.485963e+002 
3137500000  -3.614112e+001  -1.609773e+002 
3140625000  -3.734401e+001  -1.639145e+002 
3143750000  -3.815843e+001  -1.667986e+002 
3146875000  -3.760207e+001  -1.633577e+002 
3150000000  -3.681836e+001  -1.671311e+002 
3153125000  -3.718507e+001  -1.765834e+002 
3156250000  -3.796762e+001  -1.718618e+002 
3159375000  -3.571445e+001  -1.735577e+002 
3162500000  -3.424014e+001  1.705693e+002 
3165625000  -3.551790e+001  1.580530e+002 
3168750000  -3.534074e+001  1.569153e+002 
3171875000  -3.492201e+001  1.497224e+002 
3175000000  -3.540459e+001  1.403957e+002 
3178125000  -3.501884e+001  1.397150e+002 
3181250000  -3.441275e+001  1.307733e+002 
3184375000  -3.416629e+001  1.195193e+002 
3187500000  -3.546996e+001  1.034818e+002 
3190625000  -3.723507e+001  9.818255e+001 
3193750000  -3.747600e+001  1.028210e+002 
3196875000  -3.733818e+001  1.043223e+002 
3200000000  -3.607617e+001  9.968279e+001 
3203125000  -3.586527e+001  9.116037e+001 
3206250000  -3.610571e+001  8.376789e+001 
3209375000  -3.577174e+001  7.603780e+001 
3212500000  -3.630230e+001  7.018194e+001 
3215625000  -3.605449e+001  6.608929e+001 
3218750000  -3.683206e+001  5.496283e+001 
3221875000  -3.736483e+001  4.832135e+001 
3225000000  -3.694990e+001  4.426450e+001 
3228125000  -3.765798e+001  3.745899e+001 
3231250000  -3.820714e+001  3.556861e+001 
3234375000  -3.787517e+001  3.209436e+001 
3237500000  -3.807095e+001  2.806549e+001 
3240625000  -3.747139e+001  2.246965e+001 
3243750000  -3.756717e+001  1.240312e+001 
3246875000  -3.825710e+001  5.581379e+000 
3250000000  -3.872170e+001  1.908527e+000 
3253125000  -3.894904e+001  -1.433273e+000 
3256250000  -3.846009e+001  -9.094201e+000 
3259375000  -3.901377e+001  -2.131985e+001 
3262500000  -4.060469e+001  -2.482363e+001 
3265625000  -4.112481e+001  -2.310511e+001 
3268750000  -4.116443e+001  -2.146808e+001 
3271875000  -4.049980e+001  -2.460723e+001 
3275000000  -4.012858e+001  -3.382016e+001 
3278125000  -4.088226e+001  -3.757472e+001 
3281250000  -4.099164e+001  -3.904547e+001 
3284375000  -4.043525e+001  -4.426676e+001 
3287500000  -4.103867e+001  -4.813982e+001 
3290625000  -4.127677e+001  -5.664201e+001 
3293750000  -4.150266e+001  -6.204029e+001 
3296875000  -4.240319e+001  -6.303734e+001 
3300000000  -4.171125e+001  -6.400748e+001 
3303125000  -4.090650e+001  -7.142639e+001 
3306250000  -4.084607e+001  -7.685055e+001 
3309375000  -4.047057e+001  -8.455819e+001 
3312500000  -4.104755e+001  -9.758671e+001 
3315625000  -4.239983e+001  -1.039619e+002 
3318750000  -4.360859e+001  -1.071160e+002 
3321875000  -4.517570e+001  -1.045936e+002 
3325000000  -4.532471e+001  -9.814999e+001 
3328125000  -4.403213e+001  -9.519941e+001 
3331250000  -4.199060e+001  -9.651070e+001 
3334375000  -3.974078e+001  -1.107597e+002 
3337500000  -4.026880e+001  -1.318697e+002 
3340625000  -4.235830e+001  -1.392287e+002 
3343750000  -4.421606e+001  -1.408402e+002 
3346875000  -4.336703e+001  -1.428649e+002 
3350000000  -4.324063e+001  -1.442142e+002 
3353125000  -4.275002e+001  -1.521188e+002 
3356250000  -4.250848e+001  -1.607183e+002 
3359375000  -4.350064e+001  -1.716563e+002 
3362500000  -4.444496e+001  -1.753145e+002 
3365625000  -4.488404e+001  -1.792955e+002 
3368750000  -4.526812e+001  1.748597e+002 
3371875000  -4.580517e+001  1.727041e+002 
3375000000  -4.769416e+001  1.688979e+002 
3378125000  -4.837428e+001  1.697594e+002 
3381250000  -4.946236e+001  1.796043e+002 
3384375000  -4.655315e+001  -1.668881e+002 
3387500000  -4.384696e+001  1.699847e+002 
3390625000  -4.612402e+001  1.537186e+002 
3393750000  -4.676953e+001  1.526778e+002 
3396875000  -4.621426e+001  1.521354e+002 
3400000000  -4.622545e+001  1.385233e+002 
3403125000  -4.674338e+001  1.347672e+002 
3406250000  -4.771486e+001  1.323617e+002 
3409375000  -4.760610e+001  1.219067e+002 
3412500000  -4.926770e+001  1.171405e+002 
3415625000  -4.983371e+001  1.135192e+002 
3418750000  -4.987435e+001  1.191798e+002 
3421875000  -5.084097e+001  1.227661e+002 
3425000000  -5.001710e+001  1.175186e+002 
3428125000  -5.021818e+001  1.150593e+002 
3431250000  -5.009837e+001  1.086754e+002 
3434375000  -5.064915e+001  1.046950e+002 
3437500000  -5.139211e+001  1.023538e+002 
3440625000  -5.180906e+001  1.048609e+002 
3443750000  -5.031036e+001  1.073301e+002 
3446875000  -5.110076e+001  9.837218e+001 
3450000000  -4.977691e+001  9.302496e+001 
3453125000  -5.048722e+001  8.195547e+001 
3456250000  -5.227717e+001  8.098738e+001 
3459375000  -5.296890e+001  8.398439e+001 
3462500000  -5.172843e+001  8.629897e+001 
3465625000  -5.133671e+001  7.662736e+001 
3468750000  -5.190115e+001  7.371996e+001 
3471875000  -5.190759e+001  7.512535e+001 
3475000000  -5.106247e+001  6.961124e+001 
3478125000  -5.151029e+001  6.043713e+001 
3481250000  -5.263712e+001  6.020159e+001 
3484375000  -5.287831e+001  6.653333e+001 
3487500000  -5.113243e+001  5.942240e+001 
3490625000  -5.057968e+001  5.726186e+001 
3493750000  -5.149891e+001  4.785575e+001 
3496875000  -5.127725e+001  4.728987e+001 
3500000000  -5.196162e+001  4.354791e+001 
3503125000  -5.070383e+001  4.880492e+001 
3506250000  -5.037241e+001  3.585113e+001 
3509375000  -4.952279e+001  2.498122e+001 
3512500000  -5.042997e+001  1.042508e+001 
3515625000  -5.128035e+001  8.156327e+000 
3518750000  -5.175332e+001  8.355289e+000 
3521875000  -5.262469e+001  -4.268592e+000 
3525000000  -5.286369e+001  -3.326615e+000 
3528125000  -5.262722e+001  2.607626e+000 
3531250000  -5.148986e+001  -1.794170e+000 
3534375000  -5.315721e+001  -1.575652e+001 
3537500000  -5.448682e+001  -2.485739e+001 
3540625000  -5.471673e+001  -2.490056e+001 
3543750000  -5.555756e+001  -2.156859e+001 
3546875000  -5.680121e+001  -1.502589e+001 
3550000000  -5.391107e+001  -1.779744e+001 
3553125000  -5.431476e+001  -2.832019e+001 
3556250000  -5.571702e+001  -3.568775e+001 
3559375000  -5.693435e+001  -3.936468e+001 
3562500000  -5.610393e+001  -5.586046e+001 
3565625000  -5.643966e+001  -4.528402e+001 
3568750000  -5.738181e+001  -3.667504e+001 
3571875000  -5.697211e+001  -3.584758e+001 
3575000000  -5.883545e+001  -4.694156e+001 
3578125000  -6.098916e+001  -4.370110e+001 
3581250000  -5.687255e+001  -4.864062e+001 
3584375000  -5.862429e+001  -2.475142e+001 
3587500000  -5.613295e+001  -3.786672e+001 
3590625000  -5.733427e+001  -5.754348e+001 
3593750000  -6.122963e+001  -4.527782e+001 
3596875000  -5.928966e+001  -5.053704e+001 
3600000000  -5.949540e+001  -3.159717e+001 
3603125000  -5.764315e+001  -5.539219e+001 
3606250000  -5.803339e+001  -4.089280e+001 
3609375000  -5.971922e+001  -5.172969e+001 
3612500000  -6.042837e+001  -5.010966e+001 
3615625000  -5.939848e+001  -4.830836e+001 
3618750000  -5.751720e+001  -4.358377e+001 
3621875000  -5.636424e+001  -5.228562e+001 
3625000000  -5.748158e+001  -3.620071e+001 
3628125000  -5.692721e+001  -3.783934e+001 
3631250000  -5.612882e+001  -4.985448e+001 
3634375000  -5.680035e+001  -4.021152e+001 
3637500000  -5.551825e+001  -4.426577e+001 
3640625000  -5.383144e+001  -4.581520e+001 
3643750000  -5.287172e+001  -5.237980e+001 
3646875000  -5.345229e+001  -6.505873e+001 
3650000000  -5.292582e+001  -6.031166e+001 
3653125000  -5.251948e+001  -6.408480e+001 
3656250000  -5.192971e+001  -6.298716e+001 
3659375000  -5.123548e+001  -6.511230e+001 
3662500000  -5.070084e+001  -6.768970e+001 
3665625000  -5.066317e+001  -7.111031e+001 
3668750000  -4.786207e+001  -7.332301e+001 
3671875000  -4.800029e+001  -8.315836e+001 
3675000000  -4.743007e+001  -9.120532e+001 
3678125000  -4.762792e+001  -9.802843e+001 
3681250000  -4.691174e+001  -1.019493e+002 
3684375000  -4.650084e+001  -1.055062e+002 
3687500000  -4.662954e+001  -1.124704e+002 
3690625000  -4.615618e+001  -1.183452e+002 
3693750000  -4.662360e+001  -1.191386e+002 
3696875000  -4.621080e+001  -1.191320e+002 
3700000000  -4.490448e+001  -1.260853e+002 
3703125000  -4.513671e+001  -1.351851e+002 
3706250000  -4.582026e+001  -1.286495e+002 
3709375000  -4.505931e+001  -1.326699e+002 
3712500000  -4.407944e+001  -1.385514e+002 
3715625000  -4.186029e+001  -1.482255e+002 
3718750000  -4.160328e+001  -1.562966e+002 
3721875000  -4.130956e+001  -1.631462e+002 
3725000000  -4.153996e+001  -1.706663e+002 
3728125000  -4.155684e+001  -1.748098e+002 
3731250000  -4.071235e+001  -1.777024e+002 
3734375000  -4.012885e+001  1.736529e+002 
3737500000  -4.090906e+001  1.646668e+002 
3740625000  -4.095478e+001  1.591582e+002 
3743750000  -4.048381e+001  1.506598e+002 
3746875000  -4.085588e+001  1.446068e+002 
3750000000  -4.096139e+001  1.403742e+002 
3753125000  -4.065664e+001  1.375890e+002 
3756250000  -4.051665e+001  1.337733e+002 
3759375000  -4.039990e+001  1.283935e+002 
3762500000  -4.034731e+001  1.215726e+002 
3765625000  -4.080670e+001  1.164439e+002 
3768750000  -4.003845e+001  1.181888e+002 
3771875000  -3.844735e+001  1.103038e+002 
3775000000  -3.864943e+001  9.900565e+001 
3778125000  -3.909607e+001  9.377357e+001 
3781250000  -3.893662e+001  8.741874e+001 
3784375000  -3.892684e+001  8.123535e+001 
3787500000  -3.844817e+001  7.665623e+001 
3790625000  -3.922608e+001  6.684557e+001 
3793750000  -3.906264e+001  6.352649e+001 
3796875000  -3.810495e+001  5.880520e+001 
3800000000  -3.634702e+001  5.469641e+001 
3803125000  -3.798867e+001  4.075669e+001 
3806250000  -3.888525e+001  3.759417e+001 
3809375000  -3.820803e+001  3.335336e+001 
3812500000  -3.856788e+001  2.315886e+001 
3815625000  -3.956639e+001  1.403297e+001 
3818750000  -4.081298e+001  1.512707e+001 
3821875000  -4.033993e+001  2.495176e+001 
3825000000  -3.823314e+001  2.179043e+001 
3828125000  -3.695020e+001  3.294770e+000 
3831250000  -3.806617e+001  -1.192080e+001 
3834375000  -4.037462e+001  -1.072977e+001 
3837500000  -4.046376e+001  -8.546324e+000 
3840625000  -3.874167e+001  -1.191034e+001 
3843750000  -3.804157e+001  -2.666681e+001 
3846875000  -3.981961e+001  -3.166565e+001 
3850000000  -4.067286e+001  -2.647527e+001 
3853125000  -3.997826e+001  -2.594616e+001 
3856250000  -3.950416e+001  -3.532474e+001 
3859375000  -3.848079e+001  -4.210200e+001 
3862500000  -3.851110e+001  -5.313163e+001 
3865625000  -3.878960e+001  -5.582776e+001 
3868750000  -3.854172e+001  -5.815121e+001 
3871875000  -3.804906e+001  -6.426588e+001 
3875000000  -3.862349e+001  -7.646386e+001 
3878125000  -3.915981e+001  -7.796133e+001 
3881250000  -3.924109e+001  -7.743159e+001 
3884375000  -3.851151e+001  -8.522422e+001 
3887500000  -3.915543e+001  -9.016922e+001 
3890625000  -3.934472e+001  -9.650133e+001 
3893750000  -3.982314e+001  -9.756582e+001 
3896875000  -4.000663e+001  -9.911951e+001 
3900000000  -3.945415e+001  -1.035308e+002 
3903125000  -3.924525e+001  -1.075803e+002 
3906250000  -3.886143e+001  -1.134643e+002 
3909375000  -3.837809e+001  -1.226458e+002 
3912500000  -3.898232e+001  -1.295184e+002 
3915625000  -4.055192e+001  -1.303452e+002 
3918750000  -4.009705e+001  -1.320205e+002 
3921875000  -3.919572e+001  -1.359331e+002 
3925000000  -3.855090e+001  -1.412143e+002 
3928125000  -3.815734e+001  -1.508952e+002 
3931250000  -3.892712e+001  -1.575291e+002 
3934375000  -3.959374e+001  -1.595231e+002 
3937500000  -3.990008e+001  -1.597802e+002 
3940625000  -3.996774e+001  -1.619741e+002 
3943750000  -3.895998e+001  -1.660569e+002 
3946875000  -3.849817e+001  -1.742576e+002 
3950000000  -3.930250e+001  1.757890e+002 
3953125000  -3.990266e+001  1.780015e+002 
3956250000  -3.899944e+001  1.765199e+002 
3959375000  -3.774236e+001  1.703267e+002 
3962500000  -3.750349e+001  1.621709e+002 
3965625000  -3.801868e+001  1.527968e+002 
3968750000  -3.875312e+001  1.450947e+002 
3971875000  -3.841975e+001  1.386487e+002 
3975000000  -3.829292e+001  1.353284e+002 
3978125000  -3.845853e+001  1.297136e+002 
3981250000  -3.852985e+001  1.244172e+002 
3984375000  -3.917344e+001  1.162216e+002 
3987500000  -3.982340e+001  1.139294e+002 
3990625000  -3.978758e+001  1.122025e+002 
3993750000  -3.990582e+001  1.087196e+002 
3996875000  -3.997100e+001  1.018755e+002 
4000000000  -4.057127e+001  9.739653e+001 
4003125000  -4.095964e+001  9.900004e+001 
4006250000  -3.950233e+001  9.720678e+001 
4009375000  -3.856287e+001  8.314041e+001 
4012500000  -4.020137e+001  7.408057e+001 
4015625000  -4.126168e+001  7.604453e+001 
4018750000  -4.117253e+001  7.376524e+001 
4021875000  -4.091272e+001  7.198414e+001 
4025000000  -4.052053e+001  6.521027e+001 
4028125000  -4.064915e+001  5.957194e+001 
4031250000  -4.129958e+001  5.520112e+001 
4034375000  -4.134746e+001  5.485167e+001 
4037500000  -4.106272e+001  5.515448e+001 
4040625000  -4.068087e+001  5.048846e+001 
4043750000  -4.122870e+001  4.686916e+001 
4046875000  -4.059214e+001  4.364820e+001 
4050000000  -4.069722e+001  3.734336e+001 
4053125000  -4.146946e+001  3.672213e+001 
4056250000  -4.123913e+001  4.038537e+001 
4059375000  -3.948523e+001  3.636562e+001 
4062500000  -3.873415e+001  2.896479e+001 
4065625000  -3.885917e+001  2.235345e+001 
4068750000  -3.817166e+001  1.636452e+001 
4071875000  -3.785757e+001  6.536369e+000 
4075000000  -3.850696e+001  -1.684093e-001 
4078125000  -3.868027e+001  -4.776769e+000 
4081250000  -3.843658e+001  -9.467083e+000 
4084375000  -3.834714e+001  -2.046794e+001 
4087500000  -3.857441e+001  -2.522283e+001 
4090625000  -3.925757e+001  -2.663632e+001 
4093750000  -3.874947e+001  -3.111671e+001 
4096875000  -3.851534e+001  -4.034235e+001 
4100000000  -3.974735e+001  -4.458799e+001 
4103125000  -4.061304e+001  -4.485117e+001 
4106250000  -4.017854e+001  -4.254991e+001 
4109375000  -3.899221e+001  -4.352520e+001 
4112500000  -3.857196e+001  -5.460945e+001 
4115625000  -3.953088e+001  -6.098913e+001 
4118750000  -3.921159e+001  -6.553172e+001 
4121875000  -3.917521e+001  -7.427718e+001 
4125000000  -3.991821e+001  -7.947219e+001 
4128125000  -4.079762e+001  -7.710307e+001 
4131250000  -3.962241e+001  -7.265848e+001 
4134375000  -3.751059e+001  -8.121896e+001 
4137500000  -3.822456e+001  -1.030979e+002 
4140625000  -4.036295e+001  -1.090987e+002 
4143750000  -4.145990e+001  -1.032256e+002 
4146875000  -4.055356e+001  -9.869334e+001 
4150000000  -3.939657e+001  -1.078781e+002 
4153125000  -3.986650e+001  -1.152820e+002 
4156250000  -4.106368e+001  -1.197875e+002 
4159375000  -4.113702e+001  -1.135235e+002 
4162500000  -4.003981e+001  -1.104381e+002 
4165625000  -3.863207e+001  -1.211705e+002 
4168750000  -3.862352e+001  -1.290797e+002 
4171875000  -3.822002e+001  -1.397341e+002 
4175000000  -3.933404e+001  -1.449811e+002 
4178125000  -3.937067e+001  -1.455802e+002 
4181250000  -3.937981e+001  -1.499072e+002 
4184375000  -3.940792e+001  -1.554346e+002 
4187500000  -3.948912e+001  -1.597668e+002 
4190625000  -3.944768e+001  -1.683391e+002 
4193750000  -4.072710e+001  -1.725551e+002 
4196875000  -4.158791e+001  -1.726353e+002 
4200000000  -4.241454e+001  -1.676755e+002 
4203125000  -4.092895e+001  -1.560217e+002 
4206250000  -3.740618e+001  -1.637360e+002 
4209375000  -3.710507e+001  1.721577e+002 
4212500000  -3.964759e+001  1.642995e+002 
4215625000  -4.009596e+001  1.716822e+002 
4218750000  -3.863940e+001  1.753513e+002 
4221875000  -3.674535e+001  1.645218e+002 
4225000000  -3.811561e+001  1.537588e+002 
4228125000  -3.787136e+001  1.533077e+002 
4231250000  -3.614992e+001  1.476959e+002 
4234375000  -3.638559e+001  1.349319e+002 
4237500000  -3.632095e+001  1.297410e+002 
4240625000  -3.635721e+001  1.183851e+002 
4243750000  -3.760246e+001  1.110164e+002 
4246875000  -3.838969e+001  1.088896e+002 
4250000000  -3.813659e+001  1.095997e+002 
4253125000  -3.813318e+001  1.076998e+002 
4256250000  -3.813343e+001  1.020102e+002 
4259375000  -3.770859e+001  9.410302e+001 
4262500000  -3.816805e+001  9.085017e+001 
4265625000  -3.805598e+001  8.936391e+001 
4268750000  -3.705408e+001  8.068618e+001 
4271875000  -3.704610e+001  7.325146e+001 
4275000000  -3.661447e+001  6.489821e+001 
4278125000  -3.769731e+001  5.343249e+001 
4281250000  -3.928177e+001  5.065269e+001 
4284375000  -3.887579e+001  4.874099e+001 
4287500000  -4.023380e+001  4.596334e+001 
4290625000  -4.078050e+001  5.403381e+001 
4293750000  -3.847034e+001  5.269888e+001 
4296875000  -3.771900e+001  4.143671e+001 
4300000000  -3.913534e+001  3.214691e+001 
4303125000  -3.999318e+001  3.465676e+001 
4306250000  -3.840084e+001  3.746071e+001 
4309375000  -3.757795e+001  3.094862e+001 
4312500000  -3.763087e+001  2.007623e+001 
4315625000  -3.795328e+001  1.254594e+001 
4318750000  -3.871963e+001  7.031583e+000 
4321875000  -3.846903e+001  7.344656e+000 
4325000000  -3.818042e+001  6.617017e+000 
4328125000  -3.715866e+001  -1.998916e+000 
4331250000  -3.747197e+001  -1.320316e+001 
4334375000  -3.842870e+001  -1.978425e+001 
4337500000  -3.952631e+001  -2.003892e+001 
4340625000  -3.983154e+001  -1.418376e+001 
4343750000  -3.870457e+001  -1.972612e+001 
4346875000  -3.830118e+001  -2.900154e+001 
4350000000  -3.854891e+001  -3.647308e+001 
4353125000  -3.900341e+001  -4.347211e+001 
4356250000  -4.111721e+001  -3.902118e+001 
4359375000  -4.035720e+001  -2.850806e+001 
4362500000  -3.644315e+001  -3.384483e+001 
4365625000  -3.601059e+001  -5.339024e+001 
4368750000  -3.737815e+001  -5.999753e+001 
4371875000  -3.789506e+001  -6.222596e+001 
4375000000  -3.725382e+001  -6.465540e+001 
4378125000  -3.688725e+001  -7.173995e+001 
4381250000  -3.707062e+001  -8.169235e+001 
4384375000  -3.714533e+001  -8.722651e+001 
4387500000  -3.798471e+001  -9.346097e+001 
4390625000  -3.860160e+001  -9.520413e+001 
4393750000  -3.795776e+001  -9.331334e+001 
4396875000  -3.730644e+001  -1.000102e+002 
4400000000  -3.693981e+001  -1.084684e+002 
4403125000  -3.789472e+001  -1.192471e+002 
4406250000  -3.831621e+001  -1.211531e+002 
4409375000  -3.881930e+001  -1.259247e+002 
4412500000  -3.970181e+001  -1.279055e+002 
4415625000  -3.947416e+001  -1.234066e+002 
