!Agilent Technologies,E8363B,MY43030201,A.06.04.32
!Agilent E8363B: A.06.04.32
!Date: Tuesday, November 11, 2014 21:28:58
!Correction: S21(Response(S21)) 
!S1P File: Measurement: S21:
# Hz S  dB   R 50
3000000000  -4.047582e+001  8.848259e+001 
3003125000  -4.213115e+001  8.062781e+001 
3006250000  -4.199946e+001  7.901628e+001 
3009375000  -4.270908e+001  8.431300e+001 
3012500000  -4.146234e+001  8.010300e+001 
3015625000  -4.120357e+001  7.372131e+001 
3018750000  -4.181730e+001  7.205385e+001 
3021875000  -4.014535e+001  7.383021e+001 
3025000000  -3.889567e+001  7.007656e+001 
3028125000  -3.789067e+001  5.980715e+001 
3031250000  -3.699441e+001  4.845052e+001 
3034375000  -3.676025e+001  3.467146e+001 
3037500000  -3.753322e+001  2.433459e+001 
3040625000  -3.871478e+001  1.753815e+001 
3043750000  -3.912557e+001  1.179581e+001 
3046875000  -3.965242e+001  5.687626e+000 
3050000000  -4.084420e+001  -1.210056e-001 
3053125000  -4.068209e+001  5.142988e+000 
3056250000  -4.027137e+001  9.941629e+000 
3059375000  -3.989405e+001  5.847719e+000 
3062500000  -3.824212e+001  1.798594e+000 
3065625000  -3.792730e+001  -7.504017e+000 
3068750000  -3.762713e+001  -1.540691e+001 
3071875000  -3.770464e+001  -1.732512e+001 
3075000000  -3.693691e+001  -2.480249e+001 
3078125000  -3.703998e+001  -3.058641e+001 
3081250000  -3.714768e+001  -3.673405e+001 
3084375000  -3.645931e+001  -4.107233e+001 
3087500000  -3.631568e+001  -4.777208e+001 
3090625000  -3.587547e+001  -5.997822e+001 
3093750000  -3.678278e+001  -6.819395e+001 
3096875000  -3.729977e+001  -7.396905e+001 
3100000000  -3.716924e+001  -7.702563e+001 
3103125000  -3.763324e+001  -8.003086e+001 
3106250000  -3.711975e+001  -8.461350e+001 
3109375000  -3.721830e+001  -8.999172e+001 
3112500000  -3.714213e+001  -9.510793e+001 
3115625000  -3.718830e+001  -9.928705e+001 
3118750000  -3.730966e+001  -1.013609e+002 
3121875000  -3.648206e+001  -1.137902e+002 
3125000000  -3.828949e+001  -1.174207e+002 
3128125000  -3.855146e+001  -1.096015e+002 
3131250000  -3.611665e+001  -1.149544e+002 
3134375000  -3.533324e+001  -1.323379e+002 
3137500000  -3.608621e+001  -1.453481e+002 
3140625000  -3.726672e+001  -1.472423e+002 
3143750000  -3.830395e+001  -1.504710e+002 
3146875000  -3.770351e+001  -1.482215e+002 
3150000000  -3.688794e+001  -1.515853e+002 
3153125000  -3.713452e+001  -1.604206e+002 
3156250000  -3.795554e+001  -1.559605e+002 
3159375000  -3.576038e+001  -1.575342e+002 
3162500000  -3.415588e+001  -1.726489e+002 
3165625000  -3.542002e+001  1.746487e+002 
3168750000  -3.549674e+001  1.737509e+002 
3171875000  -3.494662e+001  1.663013e+002 
3175000000  -3.556594e+001  1.563906e+002 
3178125000  -3.506731e+001  1.557078e+002 
3181250000  -3.439143e+001  1.470972e+002 
3184375000  -3.406273e+001  1.354836e+002 
3187500000  -3.543604e+001  1.196769e+002 
3190625000  -3.733543e+001  1.137374e+002 
3193750000  -3.760209e+001  1.194257e+002 
3196875000  -3.746220e+001  1.210821e+002 
3200000000  -3.627027e+001  1.168614e+002 
3203125000  -3.596446e+001  1.082236e+002 
3206250000  -3.616081e+001  9.990984e+001 
3209375000  -3.576179e+001  9.253740e+001 
3212500000  -3.619772e+001  8.505015e+001 
3215625000  -3.600504e+001  8.260307e+001 
3218750000  -3.677167e+001  7.178132e+001 
3221875000  -3.738321e+001  6.491874e+001 
3225000000  -3.722980e+001  6.041857e+001 
3228125000  -3.768455e+001  5.445228e+001 
3231250000  -3.825134e+001  5.120588e+001 
3234375000  -3.790405e+001  4.864235e+001 
3237500000  -3.810926e+001  4.395175e+001 
3240625000  -3.770928e+001  3.862828e+001 
3243750000  -3.764742e+001  2.876171e+001 
3246875000  -3.835395e+001  2.116700e+001 
3250000000  -3.863355e+001  1.839860e+001 
3253125000  -3.886868e+001  1.522902e+001 
3256250000  -3.877468e+001  7.503023e+000 
3259375000  -3.913582e+001  -3.769484e+000 
3262500000  -4.058514e+001  -7.088555e+000 
3265625000  -4.127843e+001  -5.341311e+000 
3268750000  -4.122965e+001  -4.897148e+000 
3271875000  -4.071772e+001  -8.627626e+000 
3275000000  -4.014347e+001  -1.631212e+001 
3278125000  -4.086130e+001  -2.185460e+001 
3281250000  -4.102201e+001  -2.294718e+001 
3284375000  -4.062933e+001  -2.949906e+001 
3287500000  -4.121458e+001  -3.138030e+001 
3290625000  -4.128621e+001  -3.943723e+001 
3293750000  -4.118992e+001  -4.511251e+001 
3296875000  -4.255823e+001  -4.786126e+001 
3300000000  -4.189464e+001  -4.719663e+001 
3303125000  -4.098864e+001  -5.418505e+001 
3306250000  -4.100470e+001  -6.136720e+001 
3309375000  -4.056287e+001  -6.957243e+001 
3312500000  -4.105836e+001  -8.106655e+001 
3315625000  -4.238967e+001  -8.754884e+001 
3318750000  -4.385796e+001  -9.006164e+001 
3321875000  -4.483083e+001  -8.591870e+001 
3325000000  -4.483199e+001  -8.271177e+001 
3328125000  -4.380611e+001  -8.190996e+001 
3331250000  -4.283767e+001  -7.686687e+001 
3334375000  -3.993552e+001  -9.264487e+001 
3337500000  -4.047509e+001  -1.132390e+002 
3340625000  -4.212908e+001  -1.241362e+002 
3343750000  -4.429741e+001  -1.223802e+002 
3346875000  -4.355682e+001  -1.242611e+002 
3350000000  -4.308825e+001  -1.253715e+002 
3353125000  -4.303422e+001  -1.321824e+002 
3356250000  -4.256505e+001  -1.418792e+002 
3359375000  -4.333601e+001  -1.542296e+002 
3362500000  -4.453348e+001  -1.593635e+002 
3365625000  -4.492601e+001  -1.627230e+002 
3368750000  -4.560306e+001  -1.666215e+002 
3371875000  -4.605873e+001  -1.699589e+002 
3375000000  -4.752701e+001  -1.746237e+002 
3378125000  -4.809578e+001  -1.779414e+002 
3381250000  -4.931438e+001  -1.656471e+002 
3384375000  -4.718666e+001  -1.499547e+002 
3387500000  -4.370696e+001  -1.706393e+002 
3390625000  -4.634327e+001  1.698304e+002 
3393750000  -4.737119e+001  1.681731e+002 
3396875000  -4.646593e+001  1.670637e+002 
3400000000  -4.663976e+001  1.556209e+002 
3403125000  -4.680194e+001  1.500241e+002 
3406250000  -4.826301e+001  1.447257e+002 
3409375000  -4.795843e+001  1.432825e+002 
3412500000  -4.893651e+001  1.362637e+002 
3415625000  -5.033887e+001  1.333173e+002 
3418750000  -5.028933e+001  1.302533e+002 
3421875000  -5.163937e+001  1.373024e+002 
3425000000  -5.103880e+001  1.336040e+002 
3428125000  -5.063361e+001  1.311884e+002 
3431250000  -5.030497e+001  1.240039e+002 
3434375000  -5.137640e+001  1.210294e+002 
3437500000  -5.184262e+001  1.216885e+002 
3440625000  -5.245005e+001  1.210812e+002 
3443750000  -5.104351e+001  1.170407e+002 
3446875000  -5.024916e+001  1.152289e+002 
3450000000  -5.091864e+001  1.124271e+002 
3453125000  -5.091312e+001  1.013956e+002 
3456250000  -5.184923e+001  9.803979e+001 
3459375000  -5.351167e+001  1.008064e+002 
3462500000  -5.213624e+001  1.070598e+002 
3465625000  -5.244608e+001  9.153639e+001 
3468750000  -5.237821e+001  9.818121e+001 
3471875000  -5.197699e+001  9.327754e+001 
3475000000  -5.150294e+001  8.627628e+001 
3478125000  -5.174052e+001  7.852482e+001 
3481250000  -5.250967e+001  7.926185e+001 
3484375000  -5.316199e+001  7.946326e+001 
3487500000  -5.286524e+001  8.017619e+001 
3490625000  -5.164371e+001  7.086934e+001 
3493750000  -5.171004e+001  6.735881e+001 
3496875000  -5.220644e+001  6.301620e+001 
3500000000  -5.300121e+001  6.297221e+001 
3503125000  -5.071363e+001  6.559351e+001 
3506250000  -5.013481e+001  5.332146e+001 
3509375000  -4.964856e+001  4.174911e+001 
3512500000  -5.001927e+001  3.274667e+001 
3515625000  -5.105135e+001  2.763577e+001 
3518750000  -5.235063e+001  3.554800e+001 
3521875000  -5.292537e+001  2.653505e+001 
3525000000  -5.313087e+001  8.394839e+000 
3528125000  -5.189658e+001  2.949895e+001 
3531250000  -5.168196e+001  1.891313e+001 
3534375000  -5.287506e+001  4.093040e+000 
3537500000  -5.397075e+001  -8.849906e+000 
3540625000  -5.493830e+001  -2.438646e+000 
3543750000  -5.584176e+001  2.969098e+000 
3546875000  -5.590702e+001  1.205162e+001 
3550000000  -5.436440e+001  -8.406870e-002 
3553125000  -5.382638e+001  -1.040556e+001 
3556250000  -5.520219e+001  -5.037544e+000 
3559375000  -5.705905e+001  -1.489237e+001 
3562500000  -5.545023e+001  -2.842451e+001 
3565625000  -5.771035e+001  -2.897169e+001 
3568750000  -5.684409e+001  -1.904938e+001 
3571875000  -5.951374e+001  -1.774558e+001 
3575000000  -5.913567e+001  -1.516887e+001 
3578125000  -5.847278e+001  -2.992784e+001 
3581250000  -5.736575e+001  -1.794014e+001 
3584375000  -5.645066e+001  -1.654147e+001 
3587500000  -5.858516e+001  -2.741981e+001 
3590625000  -5.861083e+001  -3.908489e+001 
3593750000  -5.946817e+001  -3.991426e+001 
3596875000  -5.865564e+001  -1.486332e+001 
3600000000  -5.897046e+001  -1.023466e+001 
3603125000  -5.629513e+001  -3.061589e+001 
3606250000  -5.768687e+001  -3.595129e+001 
3609375000  -5.629649e+001  -1.820850e+001 
3612500000  -5.909880e+001  -4.355275e+001 
3615625000  -5.848094e+001  -2.880184e+001 
3618750000  -5.868077e+001  -2.149895e+001 
3621875000  -5.764927e+001  -2.910011e+001 
3625000000  -5.830925e+001  -1.973021e+001 
3628125000  -5.639714e+001  -2.667997e+001 
3631250000  -5.559007e+001  -2.953234e+001 
3634375000  -5.760809e+001  -3.174702e+001 
3637500000  -5.558710e+001  -2.900937e+001 
3640625000  -5.431387e+001  -2.371851e+001 
3643750000  -5.252073e+001  -3.009057e+001 
3646875000  -5.261527e+001  -4.350804e+001 
3650000000  -5.348567e+001  -4.717191e+001 
3653125000  -5.184766e+001  -4.190126e+001 
3656250000  -5.182065e+001  -3.898178e+001 
3659375000  -5.167261e+001  -4.773639e+001 
3662500000  -5.028260e+001  -5.706398e+001 
3665625000  -5.034206e+001  -5.558319e+001 
3668750000  -4.817965e+001  -5.398917e+001 
3671875000  -4.687708e+001  -6.587561e+001 
3675000000  -4.762743e+001  -7.597202e+001 
3678125000  -4.784572e+001  -7.902231e+001 
3681250000  -4.673162e+001  -8.267529e+001 
3684375000  -4.676074e+001  -8.935970e+001 
3687500000  -4.643557e+001  -9.414935e+001 
3690625000  -4.610684e+001  -9.798313e+001 
3693750000  -4.732997e+001  -1.001992e+002 
3696875000  -4.624555e+001  -1.002738e+002 
3700000000  -4.505056e+001  -1.098757e+002 
3703125000  -4.539160e+001  -1.151887e+002 
3706250000  -4.601486e+001  -1.152883e+002 
3709375000  -4.523282e+001  -1.130929e+002 
3712500000  -4.322680e+001  -1.184300e+002 
3715625000  -4.198308e+001  -1.281422e+002 
3718750000  -4.200464e+001  -1.363228e+002 
3721875000  -4.141148e+001  -1.432819e+002 
3725000000  -4.180497e+001  -1.500270e+002 
3728125000  -4.130429e+001  -1.557617e+002 
3731250000  -4.058736e+001  -1.626906e+002 
3734375000  -4.017598e+001  -1.674357e+002 
3737500000  -4.067397e+001  -1.769349e+002 
3740625000  -4.069633e+001  1.763087e+002 
3743750000  -4.069783e+001  1.696854e+002 
3746875000  -4.091624e+001  1.645171e+002 
3750000000  -4.104714e+001  1.585780e+002 
3753125000  -4.067374e+001  1.555740e+002 
3756250000  -4.067322e+001  1.536762e+002 
3759375000  -4.045179e+001  1.472389e+002 
3762500000  -4.015284e+001  1.420495e+002 
3765625000  -4.081255e+001  1.367359e+002 
3768750000  -4.013677e+001  1.356374e+002 
3771875000  -3.856421e+001  1.272875e+002 
3775000000  -3.850530e+001  1.172494e+002 
3778125000  -3.888043e+001  1.111567e+002 
3781250000  -3.898629e+001  1.073187e+002 
3784375000  -3.870087e+001  1.010214e+002 
3787500000  -3.848073e+001  9.623088e+001 
3790625000  -3.938510e+001  8.602527e+001 
3793750000  -3.912836e+001  8.234020e+001 
3796875000  -3.828675e+001  7.821690e+001 
3800000000  -3.662055e+001  7.430063e+001 
3803125000  -3.834704e+001  6.196214e+001 
3806250000  -3.889461e+001  5.630054e+001 
3809375000  -3.854173e+001  5.308725e+001 
3812500000  -3.842765e+001  4.336737e+001 
3815625000  -3.948468e+001  3.449897e+001 
3818750000  -4.056287e+001  3.452909e+001 
3821875000  -3.990358e+001  4.400932e+001 
3825000000  -3.831408e+001  4.085222e+001 
3828125000  -3.711224e+001  2.356049e+001 
3831250000  -3.823312e+001  8.575763e+000 
3834375000  -4.028360e+001  6.906243e+000 
3837500000  -4.093882e+001  1.082862e+001 
3840625000  -3.925563e+001  8.068196e+000 
3843750000  -3.841543e+001  -6.685825e+000 
3846875000  -3.966500e+001  -1.343227e+001 
3850000000  -4.071284e+001  -7.488955e+000 
3853125000  -3.990292e+001  -7.384727e+000 
3856250000  -3.956670e+001  -1.463632e+001 
3859375000  -3.894341e+001  -2.092642e+001 
3862500000  -3.862558e+001  -3.109552e+001 
3865625000  -3.891394e+001  -3.608757e+001 
3868750000  -3.874493e+001  -3.911203e+001 
3871875000  -3.806216e+001  -4.319243e+001 
3875000000  -3.848572e+001  -5.607484e+001 
3878125000  -3.955141e+001  -5.771933e+001 
3881250000  -3.922780e+001  -5.755051e+001 
3884375000  -3.897067e+001  -6.526978e+001 
3887500000  -3.934252e+001  -7.056107e+001 
3890625000  -3.947554e+001  -7.549042e+001 
3893750000  -4.002266e+001  -7.809242e+001 
3896875000  -4.010798e+001  -8.149860e+001 
3900000000  -3.975826e+001  -8.585151e+001 
3903125000  -3.928053e+001  -8.795689e+001 
3906250000  -3.895239e+001  -9.243935e+001 
3909375000  -3.830440e+001  -1.007639e+002 
3912500000  -3.894284e+001  -1.101986e+002 
3915625000  -4.025670e+001  -1.103102e+002 
3918750000  -4.012628e+001  -1.129079e+002 
3921875000  -3.923463e+001  -1.150750e+002 
3925000000  -3.874245e+001  -1.201242e+002 
3928125000  -3.838131e+001  -1.295902e+002 
3931250000  -3.912039e+001  -1.367695e+002 
3934375000  -3.978938e+001  -1.378277e+002 
3937500000  -4.016137e+001  -1.407397e+002 
3940625000  -3.975895e+001  -1.436685e+002 
3943750000  -3.886221e+001  -1.464201e+002 
3946875000  -3.837029e+001  -1.537419e+002 
3950000000  -3.935196e+001  -1.634708e+002 
3953125000  -4.016183e+001  -1.632026e+002 
3956250000  -3.901830e+001  -1.627633e+002 
3959375000  -3.797039e+001  -1.698431e+002 
3962500000  -3.793608e+001  -1.775877e+002 
3965625000  -3.770224e+001  1.722685e+002 
3968750000  -3.878764e+001  1.644767e+002 
3971875000  -3.886602e+001  1.592724e+002 
3975000000  -3.863253e+001  1.568342e+002 
3978125000  -3.867636e+001  1.516555e+002 
3981250000  -3.873976e+001  1.464219e+002 
3984375000  -3.895095e+001  1.387122e+002 
3987500000  -3.958019e+001  1.334061e+002 
3990625000  -3.999613e+001  1.321981e+002 
3993750000  -4.020444e+001  1.295121e+002 
3996875000  -4.007251e+001  1.224675e+002 
4000000000  -4.080827e+001  1.176997e+002 
4003125000  -4.110012e+001  1.186373e+002 
4006250000  -3.929714e+001  1.181361e+002 
4009375000  -3.881414e+001  1.033163e+002 
4012500000  -4.024605e+001  9.497293e+001 
4015625000  -4.169087e+001  9.487454e+001 
4018750000  -4.152807e+001  9.550564e+001 
4021875000  -4.074214e+001  9.457810e+001 
4025000000  -4.086856e+001  8.666204e+001 
4028125000  -4.048335e+001  8.042558e+001 
4031250000  -4.123838e+001  7.668510e+001 
4034375000  -4.144748e+001  7.621196e+001 
4037500000  -4.075104e+001  7.686209e+001 
4040625000  -4.103752e+001  7.224203e+001 
4043750000  -4.104968e+001  6.711540e+001 
4046875000  -4.090646e+001  6.598130e+001 
4050000000  -4.041871e+001  5.952003e+001 
4053125000  -4.152309e+001  5.761322e+001 
4056250000  -4.166776e+001  6.135867e+001 
4059375000  -3.967470e+001  6.054983e+001 
4062500000  -3.886195e+001  5.045606e+001 
4065625000  -3.894180e+001  4.448568e+001 
4068750000  -3.835954e+001  3.888902e+001 
4071875000  -3.777222e+001  2.856222e+001 
4075000000  -3.812274e+001  2.230679e+001 
4078125000  -3.893407e+001  1.704532e+001 
4081250000  -3.825493e+001  1.357404e+001 
4084375000  -3.818499e+001  3.210058e+000 
4087500000  -3.851266e+001  -2.740709e+000 
4090625000  -3.923676e+001  -5.353599e+000 
4093750000  -3.872699e+001  -7.541337e+000 
4096875000  -3.855149e+001  -1.618724e+001 
4100000000  -3.945222e+001  -2.465562e+001 
4103125000  -4.056485e+001  -2.464224e+001 
4106250000  -4.003990e+001  -2.283330e+001 
4109375000  -3.925354e+001  -2.233398e+001 
4112500000  -3.870558e+001  -3.437025e+001 
4115625000  -3.919590e+001  -4.068196e+001 
4118750000  -3.926008e+001  -4.397439e+001 
4121875000  -3.887203e+001  -5.059529e+001 
4125000000  -3.982534e+001  -5.813721e+001 
4128125000  -4.090701e+001  -5.699489e+001 
4131250000  -4.008072e+001  -5.188549e+001 
4134375000  -3.768660e+001  -5.901013e+001 
4137500000  -3.834635e+001  -8.104660e+001 
4140625000  -4.050471e+001  -8.780025e+001 
4143750000  -4.141898e+001  -8.108340e+001 
4146875000  -4.076867e+001  -7.745026e+001 
4150000000  -4.002831e+001  -8.348998e+001 
4153125000  -3.997809e+001  -9.233778e+001 
4156250000  -4.111264e+001  -9.745707e+001 
4159375000  -4.156698e+001  -9.111032e+001 
4162500000  -3.995717e+001  -8.878789e+001 
4165625000  -3.893881e+001  -9.706959e+001 
4168750000  -3.847807e+001  -1.051167e+002 
4171875000  -3.851171e+001  -1.164724e+002 
4175000000  -3.943107e+001  -1.235860e+002 
4178125000  -3.946912e+001  -1.227433e+002 
4181250000  -3.950252e+001  -1.285516e+002 
4184375000  -3.951542e+001  -1.327755e+002 
4187500000  -3.964055e+001  -1.360070e+002 
4190625000  -3.957996e+001  -1.439885e+002 
4193750000  -4.037405e+001  -1.505296e+002 
4196875000  -4.119202e+001  -1.490448e+002 
4200000000  -4.236254e+001  -1.479091e+002 
4203125000  -4.097659e+001  -1.343687e+002 
4206250000  -3.760579e+001  -1.399699e+002 
4209375000  -3.711900e+001  -1.645196e+002 
4212500000  -3.979874e+001  -1.731625e+002 
4215625000  -4.000071e+001  -1.660323e+002 
4218750000  -3.846605e+001  -1.644944e+002 
4221875000  -3.661991e+001  -1.739427e+002 
4225000000  -3.823112e+001  1.728700e+002 
4228125000  -3.777971e+001  1.762440e+002 
4231250000  -3.629250e+001  1.679105e+002 
4234375000  -3.623984e+001  1.577620e+002 
4237500000  -3.627864e+001  1.518880e+002 
4240625000  -3.638409e+001  1.406660e+002 
4243750000  -3.750390e+001  1.338753e+002 
4246875000  -3.838942e+001  1.309729e+002 
4250000000  -3.843491e+001  1.315124e+002 
4253125000  -3.810402e+001  1.295825e+002 
4256250000  -3.801722e+001  1.250556e+002 
4259375000  -3.778183e+001  1.181505e+002 
4262500000  -3.802147e+001  1.137896e+002 
4265625000  -3.809547e+001  1.118543e+002 
4268750000  -3.705708e+001  1.058900e+002 
4271875000  -3.692395e+001  9.531194e+001 
4275000000  -3.642295e+001  8.775674e+001 
4278125000  -3.770595e+001  7.548864e+001 
4281250000  -3.929637e+001  7.345413e+001 
4284375000  -3.872540e+001  7.172155e+001 
4287500000  -4.034730e+001  6.652098e+001 
4290625000  -4.061281e+001  7.576754e+001 
4293750000  -3.866040e+001  7.773261e+001 
4296875000  -3.768328e+001  6.458086e+001 
4300000000  -3.907902e+001  5.368298e+001 
4303125000  -3.979918e+001  5.721412e+001 
4306250000  -3.872814e+001  5.924458e+001 
4309375000  -3.752997e+001  5.296605e+001 
4312500000  -3.761328e+001  4.291163e+001 
4315625000  -3.770725e+001  3.286736e+001 
4318750000  -3.867775e+001  3.060459e+001 
4321875000  -3.872807e+001  3.044194e+001 
4325000000  -3.781292e+001  3.092495e+001 
4328125000  -3.723341e+001  2.160184e+001 
4331250000  -3.751099e+001  9.721253e+000 
4334375000  -3.816768e+001  3.857381e+000 
4337500000  -3.902616e+001  2.543427e+000 
4340625000  -3.953416e+001  5.945681e+000 
4343750000  -3.854938e+001  4.324829e+000 
4346875000  -3.835727e+001  -5.082385e+000 
4350000000  -3.832720e+001  -1.392937e+001 
4353125000  -3.864956e+001  -2.004187e+001 
4356250000  -4.076646e+001  -1.802586e+001 
4359375000  -4.025283e+001  -4.335093e+000 
4362500000  -3.696013e+001  -9.823710e+000 
4365625000  -3.606296e+001  -3.022162e+001 
4368750000  -3.731666e+001  -3.819762e+001 
4371875000  -3.827803e+001  -3.670270e+001 
4375000000  -3.745223e+001  -4.303171e+001 
4378125000  -3.690353e+001  -5.002551e+001 
4381250000  -3.713945e+001  -5.796950e+001 
4384375000  -3.704527e+001  -6.274298e+001 
4387500000  -3.807133e+001  -6.983018e+001 
4390625000  -3.862927e+001  -7.060259e+001 
4393750000  -3.829421e+001  -7.185490e+001 
4396875000  -3.716364e+001  -7.563374e+001 
4400000000  -3.684602e+001  -8.567209e+001 
4403125000  -3.767874e+001  -9.507857e+001 
4406250000  -3.838405e+001  -9.833517e+001 
4409375000  -3.853572e+001  -1.013996e+002 
4412500000  -3.974180e+001  -1.047458e+002 
4415625000  -3.954593e+001  -1.011111e+002 
