!Agilent Technologies,E8363B,MY43030201,A.06.04.32
!Agilent E8363B: A.06.04.32
!Date: Tuesday, November 11, 2014 21:31:18
!Correction: S21(Response(S21)) 
!S1P File: Measurement: S21:
# Hz S  dB   R 50
3000000000  -4.054058e+001  8.089541e+001 
3003125000  -4.210835e+001  7.429232e+001 
3006250000  -4.230415e+001  7.243934e+001 
3009375000  -4.271400e+001  7.694657e+001 
3012500000  -4.149709e+001  7.207108e+001 
3015625000  -4.130835e+001  6.577567e+001 
3018750000  -4.185014e+001  6.611978e+001 
3021875000  -4.028074e+001  6.692210e+001 
3025000000  -3.893605e+001  6.297142e+001 
3028125000  -3.808624e+001  5.280659e+001 
3031250000  -3.689434e+001  4.094848e+001 
3034375000  -3.673304e+001  2.660607e+001 
3037500000  -3.751270e+001  1.646844e+001 
3040625000  -3.880336e+001  1.159026e+001 
3043750000  -3.912996e+001  4.191512e+000 
3046875000  -3.976574e+001  -1.805363e+000 
3050000000  -4.100512e+001  -5.911816e+000 
3053125000  -4.063316e+001  -1.239338e+000 
3056250000  -4.034861e+001  1.451925e+000 
3059375000  -3.967814e+001  -2.486034e-001 
3062500000  -3.818399e+001  -6.021133e+000 
3065625000  -3.809215e+001  -1.566790e+001 
3068750000  -3.756702e+001  -2.231124e+001 
3071875000  -3.758447e+001  -2.465115e+001 
3075000000  -3.704683e+001  -3.182041e+001 
3078125000  -3.714727e+001  -3.817141e+001 
3081250000  -3.733225e+001  -4.450343e+001 
3084375000  -3.630219e+001  -4.892079e+001 
3087500000  -3.645549e+001  -5.544829e+001 
3090625000  -3.591053e+001  -6.724813e+001 
3093750000  -3.688667e+001  -7.523959e+001 
3096875000  -3.731285e+001  -8.099947e+001 
3100000000  -3.732487e+001  -8.471519e+001 
3103125000  -3.757814e+001  -8.766039e+001 
3106250000  -3.709220e+001  -9.328860e+001 
3109375000  -3.736590e+001  -9.634334e+001 
3112500000  -3.710787e+001  -1.021098e+002 
3115625000  -3.711541e+001  -1.068058e+002 
3118750000  -3.718249e+001  -1.086158e+002 
3121875000  -3.658304e+001  -1.200340e+002 
3125000000  -3.841260e+001  -1.239692e+002 
3128125000  -3.851355e+001  -1.163956e+002 
3131250000  -3.608371e+001  -1.228790e+002 
3134375000  -3.533628e+001  -1.408049e+002 
3137500000  -3.616650e+001  -1.526389e+002 
3140625000  -3.724970e+001  -1.552118e+002 
3143750000  -3.811451e+001  -1.573674e+002 
3146875000  -3.758243e+001  -1.554087e+002 
3150000000  -3.673731e+001  -1.585068e+002 
3153125000  -3.713614e+001  -1.684073e+002 
3156250000  -3.804893e+001  -1.626118e+002 
3159375000  -3.569426e+001  -1.649791e+002 
3162500000  -3.419346e+001  -1.798326e+002 
3165625000  -3.547941e+001  1.669324e+002 
3168750000  -3.537928e+001  1.658304e+002 
3171875000  -3.485637e+001  1.586275e+002 
3175000000  -3.538544e+001  1.491792e+002 
3178125000  -3.501272e+001  1.476528e+002 
3181250000  -3.446761e+001  1.400135e+002 
3184375000  -3.414917e+001  1.280053e+002 
3187500000  -3.543231e+001  1.123683e+002 
3190625000  -3.729972e+001  1.066980e+002 
3193750000  -3.754531e+001  1.118493e+002 
3196875000  -3.745141e+001  1.129054e+002 
3200000000  -3.622347e+001  1.081953e+002 
3203125000  -3.584454e+001  1.004163e+002 
3206250000  -3.607653e+001  9.216975e+001 
3209375000  -3.575533e+001  8.409341e+001 
3212500000  -3.628901e+001  7.775894e+001 
3215625000  -3.602180e+001  7.512121e+001 
3218750000  -3.692394e+001  6.412138e+001 
3221875000  -3.729060e+001  5.716729e+001 
3225000000  -3.712682e+001  5.313983e+001 
3228125000  -3.760877e+001  4.574393e+001 
3231250000  -3.839732e+001  4.386069e+001 
3234375000  -3.805914e+001  4.052459e+001 
3237500000  -3.795272e+001  3.707581e+001 
3240625000  -3.746680e+001  3.180903e+001 
3243750000  -3.768229e+001  2.072202e+001 
3246875000  -3.817835e+001  1.411799e+001 
3250000000  -3.890889e+001  1.032603e+001 
3253125000  -3.897409e+001  7.547663e+000 
3256250000  -3.865752e+001  -1.424863e+000 
3259375000  -3.937121e+001  -1.123143e+001 
3262500000  -4.086182e+001  -1.489831e+001 
3265625000  -4.111861e+001  -1.270879e+001 
3268750000  -4.119618e+001  -1.090101e+001 
3271875000  -4.080835e+001  -1.477067e+001 
3275000000  -4.008620e+001  -2.520874e+001 
3278125000  -4.083962e+001  -2.845128e+001 
3281250000  -4.115184e+001  -3.026459e+001 
3284375000  -4.060426e+001  -3.634082e+001 
3287500000  -4.101338e+001  -4.085728e+001 
3290625000  -4.099205e+001  -4.808702e+001 
3293750000  -4.109355e+001  -5.390064e+001 
3296875000  -4.221266e+001  -5.481770e+001 
3300000000  -4.188789e+001  -5.502090e+001 
3303125000  -4.114157e+001  -6.025130e+001 
3306250000  -4.096693e+001  -6.791295e+001 
3309375000  -4.042822e+001  -7.558351e+001 
3312500000  -4.085809e+001  -8.843130e+001 
3315625000  -4.195480e+001  -9.615520e+001 
3318750000  -4.349062e+001  -9.954783e+001 
3321875000  -4.516670e+001  -9.573764e+001 
3325000000  -4.454081e+001  -8.865953e+001 
3328125000  -4.398141e+001  -8.948747e+001 
3331250000  -4.233334e+001  -8.506765e+001 
3334375000  -3.990005e+001  -1.012016e+002 
3337500000  -4.052612e+001  -1.218777e+002 
3340625000  -4.222545e+001  -1.307389e+002 
3343750000  -4.391946e+001  -1.334324e+002 
3346875000  -4.339405e+001  -1.317789e+002 
3350000000  -4.311246e+001  -1.356629e+002 
3353125000  -4.274861e+001  -1.415499e+002 
3356250000  -4.246057e+001  -1.514852e+002 
3359375000  -4.340354e+001  -1.603686e+002 
3362500000  -4.463135e+001  -1.662293e+002 
3365625000  -4.476337e+001  -1.708310e+002 
3368750000  -4.546210e+001  -1.740165e+002 
3371875000  -4.599227e+001  1.774446e+002 
3375000000  -4.773927e+001  1.745505e+002 
3378125000  -4.802099e+001  1.774936e+002 
3381250000  -4.991452e+001  -1.708316e+002 
3384375000  -4.689850e+001  -1.598351e+002 
3387500000  -4.451286e+001  -1.796387e+002 
3390625000  -4.596745e+001  1.630191e+002 
3393750000  -4.732859e+001  1.595767e+002 
3396875000  -4.618791e+001  1.594810e+002 
3400000000  -4.604886e+001  1.491958e+002 
3403125000  -4.683065e+001  1.412076e+002 
3406250000  -4.754727e+001  1.438360e+002 
3409375000  -4.787364e+001  1.331293e+002 
3412500000  -4.913794e+001  1.266882e+002 
3415625000  -4.953242e+001  1.224776e+002 
3418750000  -5.079039e+001  1.246913e+002 
3421875000  -5.089531e+001  1.304762e+002 
3425000000  -4.965358e+001  1.281091e+002 
3428125000  -5.023664e+001  1.223609e+002 
3431250000  -5.003796e+001  1.185765e+002 
3434375000  -5.119212e+001  1.126710e+002 
3437500000  -5.256652e+001  1.139893e+002 
3440625000  -5.234654e+001  1.104013e+002 
3443750000  -4.996375e+001  1.143343e+002 
3446875000  -5.056186e+001  1.131251e+002 
3450000000  -5.021987e+001  9.954153e+001 
3453125000  -5.162934e+001  8.968092e+001 
3456250000  -5.172371e+001  9.012312e+001 
3459375000  -5.321053e+001  9.583743e+001 
3462500000  -5.379193e+001  9.025246e+001 
3465625000  -5.198252e+001  9.157677e+001 
3468750000  -5.184927e+001  8.855413e+001 
3471875000  -5.190162e+001  8.578248e+001 
3475000000  -5.101388e+001  8.153959e+001 
3478125000  -5.171323e+001  6.944048e+001 
3481250000  -5.284383e+001  7.794834e+001 
3484375000  -5.310597e+001  7.529992e+001 
3487500000  -5.092208e+001  6.869849e+001 
3490625000  -5.133902e+001  6.196045e+001 
3493750000  -5.180044e+001  5.900472e+001 
3496875000  -5.148572e+001  5.874213e+001 
3500000000  -5.159953e+001  5.594159e+001 
3503125000  -5.031334e+001  5.922309e+001 
3506250000  -5.001446e+001  4.496743e+001 
3509375000  -4.929766e+001  3.312175e+001 
3512500000  -5.002774e+001  2.319053e+001 
3515625000  -5.109013e+001  1.583550e+001 
3518750000  -5.192555e+001  1.500340e+001 
3521875000  -5.256577e+001  1.120491e+001 
3525000000  -5.247763e+001  6.107163e+000 
3528125000  -5.232152e+001  1.351816e+001 
3531250000  -5.235520e+001  5.247797e+000 
3534375000  -5.247393e+001  -2.863562e+000 
3537500000  -5.322044e+001  -1.686439e+001 
3540625000  -5.477850e+001  -1.105973e+001 
3543750000  -5.703590e+001  -9.419525e+000 
3546875000  -5.612513e+001  -9.163074e+000 
3550000000  -5.445746e+001  -7.422091e+000 
3553125000  -5.411085e+001  -1.458828e+001 
3556250000  -5.685291e+001  -3.219586e+001 
3559375000  -5.561771e+001  -3.522997e+001 
3562500000  -5.753946e+001  -3.555019e+001 
3565625000  -5.689192e+001  -3.487775e+001 
3568750000  -5.748892e+001  -2.296011e+001 
3571875000  -5.958776e+001  -2.728061e+001 
3575000000  -5.985226e+001  -2.890360e+001 
3578125000  -5.903094e+001  -3.318940e+001 
3581250000  -5.877161e+001  -3.759127e+001 
3584375000  -5.776059e+001  -1.651659e+001 
3587500000  -5.728032e+001  -3.247787e+001 
3590625000  -5.886477e+001  -4.461116e+001 
3593750000  -5.888577e+001  -3.749112e+001 
3596875000  -6.032046e+001  -1.848852e+001 
3600000000  -5.685571e+001  -3.094890e+001 
3603125000  -5.742512e+001  -4.570500e+001 
3606250000  -5.836539e+001  -4.020028e+001 
3609375000  -5.844270e+001  -3.267029e+001 
3612500000  -5.987696e+001  -4.257225e+001 
3615625000  -5.968782e+001  -4.617375e+001 
3618750000  -5.920093e+001  -2.826151e+001 
3621875000  -5.772580e+001  -4.042875e+001 
3625000000  -5.657031e+001  -3.683757e+001 
3628125000  -5.635112e+001  -3.734805e+001 
3631250000  -5.760221e+001  -3.576440e+001 
3634375000  -5.670277e+001  -2.950568e+001 
3637500000  -5.575671e+001  -3.768242e+001 
3640625000  -5.381533e+001  -2.559077e+001 
3643750000  -5.288712e+001  -3.273671e+001 
3646875000  -5.384299e+001  -5.077321e+001 
3650000000  -5.343322e+001  -4.808151e+001 
3653125000  -5.264016e+001  -5.421514e+001 
3656250000  -5.176988e+001  -5.170525e+001 
3659375000  -5.123907e+001  -5.859946e+001 
3662500000  -5.089355e+001  -6.110862e+001 
3665625000  -5.001410e+001  -6.254298e+001 
3668750000  -4.770668e+001  -6.619345e+001 
3671875000  -4.755238e+001  -7.659525e+001 
3675000000  -4.712801e+001  -8.219704e+001 
3678125000  -4.677510e+001  -8.856689e+001 
3681250000  -4.679157e+001  -9.094025e+001 
3684375000  -4.662260e+001  -9.740662e+001 
3687500000  -4.709608e+001  -1.018505e+002 
3690625000  -4.620714e+001  -1.089775e+002 
3693750000  -4.683496e+001  -1.061157e+002 
3696875000  -4.635659e+001  -1.109268e+002 
3700000000  -4.541183e+001  -1.185390e+002 
3703125000  -4.531757e+001  -1.218271e+002 
3706250000  -4.594175e+001  -1.254739e+002 
3709375000  -4.508233e+001  -1.237372e+002 
3712500000  -4.356793e+001  -1.264989e+002 
3715625000  -4.199004e+001  -1.391610e+002 
3718750000  -4.167845e+001  -1.451771e+002 
3721875000  -4.162389e+001  -1.532353e+002 
3725000000  -4.160429e+001  -1.603953e+002 
3728125000  -4.150779e+001  -1.654776e+002 
3731250000  -4.071060e+001  -1.708094e+002 
3734375000  -4.021883e+001  -1.767440e+002 
3737500000  -4.082681e+001  1.724701e+002 
3740625000  -4.104917e+001  1.674351e+002 
3743750000  -4.055751e+001  1.612822e+002 
3746875000  -4.082575e+001  1.557957e+002 
3750000000  -4.100396e+001  1.505069e+002 
3753125000  -4.062458e+001  1.457309e+002 
3756250000  -4.070988e+001  1.429272e+002 
3759375000  -4.057348e+001  1.391501e+002 
3762500000  -4.006111e+001  1.308869e+002 
3765625000  -4.057598e+001  1.275683e+002 
3768750000  -4.031345e+001  1.271340e+002 
3771875000  -3.816514e+001  1.191740e+002 
3775000000  -3.847086e+001  1.083779e+002 
3778125000  -3.878932e+001  1.016007e+002 
3781250000  -3.895343e+001  9.679222e+001 
3784375000  -3.882748e+001  9.201604e+001 
3787500000  -3.840779e+001  8.533972e+001 
3790625000  -3.909475e+001  7.681233e+001 
3793750000  -3.917432e+001  7.334081e+001 
3796875000  -3.796404e+001  7.083210e+001 
3800000000  -3.648565e+001  6.516481e+001 
3803125000  -3.804368e+001  5.210760e+001 
3806250000  -3.902552e+001  4.678040e+001 
3809375000  -3.853014e+001  4.227253e+001 
3812500000  -3.848436e+001  3.524104e+001 
3815625000  -3.949511e+001  2.491254e+001 
3818750000  -4.053851e+001  2.634028e+001 
3821875000  -4.023310e+001  3.509100e+001 
3825000000  -3.825972e+001  3.177789e+001 
3828125000  -3.700118e+001  1.190594e+001 
3831250000  -3.845385e+001  -9.348159e-001 
3834375000  -4.029547e+001  -1.987987e+000 
3837500000  -4.054555e+001  2.329125e+000 
3840625000  -3.919267e+001  9.027385e-001 
3843750000  -3.827114e+001  -1.469733e+001 
3846875000  -3.991690e+001  -2.199932e+001 
3850000000  -4.067689e+001  -1.589721e+001 
3853125000  -3.985054e+001  -1.552602e+001 
3856250000  -3.930861e+001  -2.259661e+001 
3859375000  -3.863225e+001  -3.095383e+001 
3862500000  -3.845975e+001  -3.989648e+001 
3865625000  -3.915483e+001  -4.628625e+001 
3868750000  -3.868237e+001  -4.603600e+001 
3871875000  -3.794651e+001  -5.408672e+001 
3875000000  -3.864877e+001  -6.328065e+001 
3878125000  -3.939878e+001  -6.803037e+001 
3881250000  -3.935931e+001  -6.640067e+001 
3884375000  -3.883912e+001  -7.573991e+001 
3887500000  -3.908921e+001  -8.063335e+001 
3890625000  -3.951882e+001  -8.507578e+001 
3893750000  -3.982236e+001  -8.751277e+001 
3896875000  -4.001235e+001  -9.071858e+001 
3900000000  -3.992513e+001  -9.325065e+001 
3903125000  -3.903158e+001  -9.848568e+001 
3906250000  -3.902818e+001  -1.015484e+002 
3909375000  -3.830383e+001  -1.113937e+002 
3912500000  -3.916488e+001  -1.197125e+002 
3915625000  -4.034801e+001  -1.199182e+002 
3918750000  -3.993629e+001  -1.216935e+002 
3921875000  -3.913034e+001  -1.252576e+002 
3925000000  -3.862295e+001  -1.307298e+002 
3928125000  -3.832209e+001  -1.407027e+002 
3931250000  -3.901081e+001  -1.472596e+002 
3934375000  -3.962461e+001  -1.473118e+002 
3937500000  -4.020374e+001  -1.510046e+002 
3940625000  -3.992785e+001  -1.531695e+002 
3943750000  -3.902153e+001  -1.549679e+002 
3946875000  -3.829668e+001  -1.637432e+002 
3950000000  -3.942299e+001  -1.723614e+002 
3953125000  -4.023128e+001  -1.718292e+002 
3956250000  -3.885502e+001  -1.722353e+002 
3959375000  -3.803450e+001  -1.791396e+002 
3962500000  -3.760917e+001  1.725024e+002 
3965625000  -3.793753e+001  1.633374e+002 
3968750000  -3.869120e+001  1.551646e+002 
3971875000  -3.858358e+001  1.497352e+002 
3975000000  -3.850777e+001  1.470477e+002 
3978125000  -3.841212e+001  1.421827e+002 
3981250000  -3.888910e+001  1.346614e+002 
3984375000  -3.877213e+001  1.278021e+002 
3987500000  -3.980943e+001  1.247869e+002 
3990625000  -3.998908e+001  1.220464e+002 
3993750000  -4.002564e+001  1.179106e+002 
3996875000  -3.992886e+001  1.124694e+002 
4000000000  -4.045095e+001  1.108123e+002 
4003125000  -4.127102e+001  1.117581e+002 
4006250000  -3.943159e+001  1.075410e+002 
4009375000  -3.855981e+001  9.321696e+001 
4012500000  -4.026142e+001  8.431693e+001 
4015625000  -4.157410e+001  8.655399e+001 
4018750000  -4.160058e+001  8.718426e+001 
4021875000  -4.079209e+001  8.242380e+001 
4025000000  -4.051652e+001  7.723403e+001 
4028125000  -4.058580e+001  7.147600e+001 
4031250000  -4.111840e+001  6.501625e+001 
4034375000  -4.141399e+001  6.572610e+001 
4037500000  -4.113059e+001  6.618773e+001 
4040625000  -4.102994e+001  6.182142e+001 
4043750000  -4.118849e+001  5.667868e+001 
4046875000  -4.098345e+001  5.524770e+001 
4050000000  -4.090598e+001  5.035924e+001 
4053125000  -4.139462e+001  4.632301e+001 
4056250000  -4.155940e+001  5.100385e+001 
4059375000  -3.962265e+001  4.776382e+001 
4062500000  -3.895239e+001  4.010727e+001 
4065625000  -3.908654e+001  3.598473e+001 
4068750000  -3.817099e+001  2.701300e+001 
4071875000  -3.804673e+001  1.794190e+001 
4075000000  -3.849420e+001  1.102183e+001 
4078125000  -3.886313e+001  7.336767e+000 
4081250000  -3.842876e+001  2.917185e+000 
4084375000  -3.816230e+001  -7.098334e+000 
4087500000  -3.863979e+001  -1.465489e+001 
4090625000  -3.926864e+001  -1.417615e+001 
4093750000  -3.874318e+001  -1.897495e+001 
4096875000  -3.865609e+001  -2.856786e+001 
4100000000  -3.979186e+001  -3.566867e+001 
4103125000  -4.073946e+001  -3.266106e+001 
4106250000  -3.985964e+001  -3.030833e+001 
4109375000  -3.925872e+001  -3.410305e+001 
4112500000  -3.902407e+001  -4.420937e+001 
4115625000  -3.925613e+001  -5.039411e+001 
4118750000  -3.881963e+001  -5.430739e+001 
4121875000  -3.882803e+001  -6.147966e+001 
4125000000  -4.013315e+001  -6.868359e+001 
4128125000  -4.091261e+001  -6.686864e+001 
4131250000  -3.990794e+001  -6.080921e+001 
4134375000  -3.804572e+001  -6.777541e+001 
4137500000  -3.791992e+001  -9.105418e+001 
4140625000  -4.038715e+001  -9.752358e+001 
4143750000  -4.196104e+001  -9.026709e+001 
4146875000  -4.060183e+001  -8.736214e+001 
4150000000  -3.979881e+001  -9.616071e+001 
4153125000  -3.990723e+001  -1.042602e+002 
4156250000  -4.102416e+001  -1.073253e+002 
4159375000  -4.111345e+001  -1.020803e+002 
4162500000  -4.005159e+001  -1.010849e+002 
4165625000  -3.878576e+001  -1.070721e+002 
4168750000  -3.849718e+001  -1.171342e+002 
4171875000  -3.849293e+001  -1.263503e+002 
4175000000  -3.921152e+001  -1.331195e+002 
4178125000  -3.979177e+001  -1.329494e+002 
4181250000  -3.953523e+001  -1.388918e+002 
4184375000  -3.955383e+001  -1.435775e+002 
4187500000  -3.956242e+001  -1.498068e+002 
4190625000  -3.952918e+001  -1.567949e+002 
4193750000  -4.059830e+001  -1.616171e+002 
4196875000  -4.127816e+001  -1.602423e+002 
4200000000  -4.241837e+001  -1.563199e+002 
4203125000  -4.121726e+001  -1.436061e+002 
4206250000  -3.775568e+001  -1.529216e+002 
4209375000  -3.704366e+001  -1.757243e+002 
4212500000  -3.949096e+001  1.752390e+002 
4215625000  -4.005908e+001  -1.770162e+002 
4218750000  -3.834134e+001  -1.738867e+002 
4221875000  -3.684949e+001  1.760450e+002 
4225000000  -3.783340e+001  1.642108e+002 
4228125000  -3.812772e+001  1.639940e+002 
4231250000  -3.638795e+001  1.569867e+002 
4234375000  -3.649105e+001  1.466670e+002 
4237500000  -3.620617e+001  1.421415e+002 
4240625000  -3.641320e+001  1.302612e+002 
4243750000  -3.765331e+001  1.224752e+002 
4246875000  -3.842625e+001  1.213578e+002 
4250000000  -3.833190e+001  1.192585e+002 
4253125000  -3.799402e+001  1.178921e+002 
4256250000  -3.823097e+001  1.145731e+002 
4259375000  -3.758727e+001  1.076286e+002 
4262500000  -3.783961e+001  1.029104e+002 
4265625000  -3.815077e+001  1.009959e+002 
4268750000  -3.699026e+001  9.367986e+001 
4271875000  -3.709344e+001  8.492065e+001 
4275000000  -3.647272e+001  7.627980e+001 
4278125000  -3.775406e+001  6.501492e+001 
4281250000  -3.937166e+001  6.272914e+001 
4284375000  -3.869489e+001  6.080405e+001 
4287500000  -4.045613e+001  5.858820e+001 
4290625000  -4.084956e+001  6.412310e+001 
4293750000  -3.860874e+001  6.569340e+001 
4296875000  -3.768199e+001  5.402934e+001 
4300000000  -3.914199e+001  4.354761e+001 
4303125000  -3.982684e+001  4.468244e+001 
4306250000  -3.879876e+001  4.887263e+001 
4309375000  -3.793320e+001  4.421338e+001 
4312500000  -3.776095e+001  3.142762e+001 
4315625000  -3.802275e+001  2.496517e+001 
4318750000  -3.865358e+001  1.907444e+001 
4321875000  -3.871392e+001  2.085074e+001 
4325000000  -3.808068e+001  1.906804e+001 
4328125000  -3.758994e+001  8.302097e+000 
4331250000  -3.751124e+001  4.258788e-001 
4334375000  -3.834289e+001  -7.094643e+000 
4337500000  -3.943983e+001  -7.952037e+000 
4340625000  -3.952043e+001  -4.440692e+000 
4343750000  -3.879172e+001  -7.603659e+000 
4346875000  -3.830127e+001  -1.612260e+001 
4350000000  -3.843987e+001  -2.502312e+001 
4353125000  -3.900408e+001  -3.236535e+001 
4356250000  -4.111216e+001  -2.907479e+001 
4359375000  -4.006976e+001  -1.283844e+001 
4362500000  -3.668448e+001  -2.164518e+001 
4365625000  -3.596593e+001  -3.924625e+001 
4368750000  -3.731440e+001  -4.945862e+001 
4371875000  -3.823621e+001  -5.064301e+001 
4375000000  -3.725800e+001  -5.426437e+001 
4378125000  -3.705431e+001  -6.142791e+001 
4381250000  -3.707701e+001  -6.838455e+001 
4384375000  -3.724603e+001  -7.596683e+001 
4387500000  -3.819067e+001  -8.208881e+001 
4390625000  -3.860052e+001  -8.091692e+001 
4393750000  -3.818409e+001  -8.157910e+001 
4396875000  -3.735756e+001  -8.770618e+001 
4400000000  -3.693924e+001  -9.708183e+001 
4403125000  -3.801625e+001  -1.056679e+002 
4406250000  -3.839397e+001  -1.082451e+002 
4409375000  -3.897998e+001  -1.129488e+002 
4412500000  -3.996404e+001  -1.158858e+002 
4415625000  -3.954509e+001  -1.120220e+002 
