!Agilent Technologies,E8363B,MY43030201,A.06.04.32
!Agilent E8363B: A.06.04.32
!Date: Tuesday, November 11, 2014 21:32:13
!Correction: S21(Response(S21)) 
!S1P File: Measurement: S21:
# Hz S  dB   R 50
3000000000  -4.057861e+001  7.870243e+001 
3003125000  -4.217134e+001  6.939346e+001 
3006250000  -4.209353e+001  7.039801e+001 
3009375000  -4.269864e+001  7.489940e+001 
3012500000  -4.157616e+001  6.849230e+001 
3015625000  -4.129349e+001  6.350311e+001 
3018750000  -4.190223e+001  6.369881e+001 
3021875000  -4.003724e+001  6.423103e+001 
3025000000  -3.885579e+001  5.895496e+001 
3028125000  -3.796291e+001  4.998685e+001 
3031250000  -3.696810e+001  3.765864e+001 
3034375000  -3.673625e+001  2.407850e+001 
3037500000  -3.756261e+001  1.352729e+001 
3040625000  -3.884404e+001  7.736399e+000 
3043750000  -3.901004e+001  2.026826e+000 
3046875000  -3.965145e+001  -5.001390e+000 
3050000000  -4.078859e+001  -8.740384e+000 
3053125000  -4.048717e+001  -3.496789e+000 
3056250000  -4.026381e+001  -6.797323e-001 
3059375000  -3.979762e+001  -3.415592e+000 
3062500000  -3.816172e+001  -8.036798e+000 
3065625000  -3.782947e+001  -1.777719e+001 
3068750000  -3.745288e+001  -2.480605e+001 
3071875000  -3.761703e+001  -2.750085e+001 
3075000000  -3.692568e+001  -3.418499e+001 
3078125000  -3.701617e+001  -4.016605e+001 
3081250000  -3.724217e+001  -4.700362e+001 
3084375000  -3.624129e+001  -5.176028e+001 
3087500000  -3.648193e+001  -5.850800e+001 
3090625000  -3.591471e+001  -7.110311e+001 
3093750000  -3.693879e+001  -7.853053e+001 
3096875000  -3.734307e+001  -8.482752e+001 
3100000000  -3.722462e+001  -8.725264e+001 
3103125000  -3.753818e+001  -9.030281e+001 
3106250000  -3.719359e+001  -9.554846e+001 
3109375000  -3.720616e+001  -9.937063e+001 
3112500000  -3.730483e+001  -1.045209e+002 
3115625000  -3.721062e+001  -1.092394e+002 
3118750000  -3.714445e+001  -1.128674e+002 
3121875000  -3.649729e+001  -1.233925e+002 
3125000000  -3.844788e+001  -1.271924e+002 
3128125000  -3.857922e+001  -1.190924e+002 
3131250000  -3.606256e+001  -1.255619e+002 
3134375000  -3.531511e+001  -1.431567e+002 
3137500000  -3.622333e+001  -1.547124e+002 
3140625000  -3.735304e+001  -1.574142e+002 
3143750000  -3.818970e+001  -1.596079e+002 
3146875000  -3.758772e+001  -1.584245e+002 
3150000000  -3.686971e+001  -1.618572e+002 
3153125000  -3.705648e+001  -1.705080e+002 
3156250000  -3.794234e+001  -1.658999e+002 
3159375000  -3.562504e+001  -1.679575e+002 
3162500000  -3.421423e+001  1.759822e+002 
3165625000  -3.553840e+001  1.628873e+002 
3168750000  -3.551030e+001  1.627728e+002 
3171875000  -3.489428e+001  1.553705e+002 
3175000000  -3.543594e+001  1.458064e+002 
3178125000  -3.502680e+001  1.450796e+002 
3181250000  -3.444151e+001  1.359013e+002 
3184375000  -3.420023e+001  1.252174e+002 
3187500000  -3.534300e+001  1.107834e+002 
3190625000  -3.716140e+001  1.040674e+002 
3193750000  -3.742982e+001  1.091031e+002 
3196875000  -3.738692e+001  1.107659e+002 
3200000000  -3.624044e+001  1.060251e+002 
3203125000  -3.591179e+001  9.725097e+001 
3206250000  -3.619388e+001  8.923620e+001 
3209375000  -3.576782e+001  8.126495e+001 
3212500000  -3.641837e+001  7.603410e+001 
3215625000  -3.612906e+001  7.186196e+001 
3218750000  -3.680445e+001  6.064783e+001 
3221875000  -3.733691e+001  5.437207e+001 
3225000000  -3.694336e+001  5.028281e+001 
3228125000  -3.786380e+001  4.271835e+001 
3231250000  -3.820098e+001  4.165632e+001 
3234375000  -3.792336e+001  3.853321e+001 
3237500000  -3.800164e+001  3.359215e+001 
3240625000  -3.765773e+001  2.928979e+001 
3243750000  -3.764959e+001  1.831431e+001 
3246875000  -3.824379e+001  1.020736e+001 
3250000000  -3.879928e+001  7.754687e+000 
3253125000  -3.903876e+001  4.246706e+000 
3256250000  -3.871871e+001  -4.430133e+000 
3259375000  -3.897238e+001  -1.496468e+001 
3262500000  -4.073794e+001  -1.860115e+001 
3265625000  -4.118422e+001  -1.570427e+001 
3268750000  -4.115685e+001  -1.455015e+001 
3271875000  -4.060378e+001  -1.961121e+001 
3275000000  -4.010265e+001  -2.676373e+001 
3278125000  -4.080738e+001  -3.187271e+001 
3281250000  -4.096353e+001  -3.259953e+001 
3284375000  -4.071156e+001  -3.962135e+001 
3287500000  -4.089881e+001  -4.355674e+001 
3290625000  -4.125222e+001  -5.087058e+001 
3293750000  -4.114119e+001  -5.714775e+001 
3296875000  -4.243393e+001  -5.793515e+001 
3300000000  -4.191587e+001  -5.767904e+001 
3303125000  -4.089054e+001  -6.477683e+001 
3306250000  -4.080166e+001  -7.322416e+001 
3309375000  -4.054595e+001  -7.877905e+001 
3312500000  -4.087241e+001  -9.055344e+001 
3315625000  -4.237836e+001  -9.733722e+001 
3318750000  -4.387926e+001  -1.024627e+002 
3321875000  -4.481084e+001  -9.928012e+001 
3325000000  -4.451450e+001  -9.172630e+001 
3328125000  -4.370868e+001  -9.137891e+001 
3331250000  -4.245693e+001  -8.917033e+001 
3334375000  -3.989441e+001  -1.057595e+002 
3337500000  -4.043866e+001  -1.248286e+002 
3340625000  -4.216233e+001  -1.332662e+002 
3343750000  -4.430840e+001  -1.329356e+002 
3346875000  -4.339518e+001  -1.364966e+002 
3350000000  -4.309464e+001  -1.384200e+002 
3353125000  -4.259949e+001  -1.455133e+002 
3356250000  -4.254082e+001  -1.531212e+002 
3359375000  -4.336338e+001  -1.634893e+002 
3362500000  -4.437586e+001  -1.708298e+002 
3365625000  -4.472962e+001  -1.739311e+002 
3368750000  -4.533422e+001  -1.785889e+002 
3371875000  -4.596454e+001  1.781913e+002 
3375000000  -4.721947e+001  1.749334e+002 
3378125000  -4.791802e+001  1.722253e+002 
3381250000  -4.973178e+001  -1.791283e+002 
3384375000  -4.653049e+001  -1.620754e+002 
3387500000  -4.397445e+001  1.768734e+002 
3390625000  -4.647266e+001  1.595738e+002 
3393750000  -4.739463e+001  1.596356e+002 
3396875000  -4.581747e+001  1.547200e+002 
3400000000  -4.613253e+001  1.441815e+002 
3403125000  -4.704755e+001  1.371850e+002 
3406250000  -4.757381e+001  1.332086e+002 
3409375000  -4.773120e+001  1.297225e+002 
3412500000  -4.891609e+001  1.203975e+002 
3415625000  -5.018820e+001  1.198337e+002 
3418750000  -4.997134e+001  1.229472e+002 
3421875000  -5.198689e+001  1.286082e+002 
3425000000  -5.059258e+001  1.235832e+002 
3428125000  -5.055443e+001  1.199632e+002 
3431250000  -5.020163e+001  1.077311e+002 
3434375000  -5.088942e+001  1.114356e+002 
3437500000  -5.184333e+001  1.046844e+002 
3440625000  -5.243763e+001  1.123547e+002 
3443750000  -5.032296e+001  1.103274e+002 
3446875000  -5.018860e+001  1.049240e+002 
3450000000  -5.093161e+001  9.907626e+001 
3453125000  -5.075204e+001  8.937180e+001 
3456250000  -5.232075e+001  8.446114e+001 
3459375000  -5.376722e+001  8.838991e+001 
3462500000  -5.145736e+001  9.112209e+001 
3465625000  -5.115326e+001  8.371732e+001 
3468750000  -5.218134e+001  8.280399e+001 
3471875000  -5.291226e+001  8.430927e+001 
3475000000  -5.117794e+001  7.655040e+001 
3478125000  -5.115977e+001  6.933913e+001 
3481250000  -5.272211e+001  6.662680e+001 
3484375000  -5.258046e+001  6.901971e+001 
3487500000  -5.200881e+001  6.980864e+001 
3490625000  -5.118667e+001  5.675601e+001 
3493750000  -5.138810e+001  5.795473e+001 
3496875000  -5.159599e+001  5.752526e+001 
3500000000  -5.261497e+001  5.107837e+001 
3503125000  -5.114419e+001  5.398624e+001 
3506250000  -4.994542e+001  4.376004e+001 
3509375000  -4.958866e+001  3.222561e+001 
3512500000  -5.038859e+001  2.242301e+001 
3515625000  -5.192764e+001  1.709941e+001 
3518750000  -5.198253e+001  1.742204e+001 
3521875000  -5.245842e+001  1.329250e+001 
3525000000  -5.349586e+001  1.320349e+000 
3528125000  -5.302499e+001  7.908564e+000 
3531250000  -5.142702e+001  1.909410e+000 
3534375000  -5.258356e+001  -7.785582e+000 
3537500000  -5.331565e+001  -2.338885e+001 
3540625000  -5.427699e+001  -2.014256e+001 
3543750000  -5.575793e+001  -1.069165e+001 
3546875000  -5.678451e+001  -2.618160e+000 
3550000000  -5.410634e+001  -8.648552e+000 
3553125000  -5.441858e+001  -3.026930e+001 
3556250000  -5.563809e+001  -2.136409e+001 
3559375000  -5.714349e+001  -3.162662e+001 
3562500000  -5.603598e+001  -3.992554e+001 
3565625000  -5.664700e+001  -5.462416e+001 
3568750000  -5.766542e+001  -3.487271e+001 
3571875000  -5.801813e+001  -3.017621e+001 
3575000000  -5.946178e+001  -2.615862e+001 
3578125000  -5.798580e+001  -4.004044e+001 
3581250000  -6.001506e+001  -3.246229e+001 
3584375000  -5.950809e+001  -1.556025e+001 
3587500000  -5.789144e+001  -3.203712e+001 
3590625000  -6.063225e+001  -6.167465e+001 
3593750000  -5.948080e+001  -5.802674e+001 
3596875000  -5.766572e+001  -2.989116e+001 
3600000000  -5.809417e+001  -1.831812e+001 
3603125000  -5.852574e+001  -5.376475e+001 
3606250000  -5.825491e+001  -3.693386e+001 
3609375000  -5.924842e+001  -4.931535e+001 
3612500000  -5.780973e+001  -3.842255e+001 
3615625000  -5.917992e+001  -5.425143e+001 
3618750000  -6.066105e+001  -4.190953e+001 
3621875000  -5.701487e+001  -3.709860e+001 
3625000000  -5.769555e+001  -3.789022e+001 
3628125000  -5.781967e+001  -3.064298e+001 
3631250000  -5.670353e+001  -4.527183e+001 
3634375000  -5.738546e+001  -4.929541e+001 
3637500000  -5.521313e+001  -3.709142e+001 
3640625000  -5.448573e+001  -3.289589e+001 
3643750000  -5.320313e+001  -3.566611e+001 
3646875000  -5.315827e+001  -5.428308e+001 
3650000000  -5.351450e+001  -5.773243e+001 
3653125000  -5.236008e+001  -5.770136e+001 
3656250000  -5.259936e+001  -5.552995e+001 
3659375000  -5.086066e+001  -5.905267e+001 
3662500000  -5.081716e+001  -6.221888e+001 
3665625000  -4.997774e+001  -6.736566e+001 
3668750000  -4.792787e+001  -7.145203e+001 
3671875000  -4.726619e+001  -8.320693e+001 
3675000000  -4.717348e+001  -8.709628e+001 
3678125000  -4.713329e+001  -9.105524e+001 
3681250000  -4.583707e+001  -9.579420e+001 
3684375000  -4.636338e+001  -9.996622e+001 
3687500000  -4.671111e+001  -1.080238e+002 
3690625000  -4.706636e+001  -1.110148e+002 
3693750000  -4.677311e+001  -1.093273e+002 
3696875000  -4.603128e+001  -1.151092e+002 
3700000000  -4.504427e+001  -1.184639e+002 
3703125000  -4.516331e+001  -1.272434e+002 
3706250000  -4.548396e+001  -1.265630e+002 
3709375000  -4.451558e+001  -1.269088e+002 
3712500000  -4.349208e+001  -1.317838e+002 
3715625000  -4.205790e+001  -1.399011e+002 
3718750000  -4.178741e+001  -1.490442e+002 
3721875000  -4.138343e+001  -1.572758e+002 
3725000000  -4.163498e+001  -1.638591e+002 
3728125000  -4.145910e+001  -1.668899e+002 
3731250000  -4.068593e+001  -1.723365e+002 
3734375000  -4.016883e+001  -1.789716e+002 
3737500000  -4.076119e+001  1.685197e+002 
3740625000  -4.099038e+001  1.641971e+002 
3743750000  -4.057348e+001  1.565113e+002 
3746875000  -4.083473e+001  1.510176e+002 
3750000000  -4.099225e+001  1.468127e+002 
3753125000  -4.061770e+001  1.439116e+002 
3756250000  -4.059655e+001  1.405424e+002 
3759375000  -4.045951e+001  1.335312e+002 
3762500000  -4.015592e+001  1.283873e+002 
3765625000  -4.062716e+001  1.235510e+002 
3768750000  -4.008874e+001  1.239415e+002 
3771875000  -3.820201e+001  1.166380e+002 
3775000000  -3.857939e+001  1.039911e+002 
3778125000  -3.902925e+001  9.844776e+001 
3781250000  -3.903160e+001  9.479798e+001 
3784375000  -3.874052e+001  8.906600e+001 
3787500000  -3.870179e+001  8.231950e+001 
3790625000  -3.925607e+001  7.427871e+001 
3793750000  -3.908113e+001  7.018391e+001 
3796875000  -3.820275e+001  6.494517e+001 
3800000000  -3.638296e+001  6.222138e+001 
3803125000  -3.812702e+001  4.868293e+001 
3806250000  -3.910880e+001  4.386522e+001 
3809375000  -3.832840e+001  3.999523e+001 
3812500000  -3.842628e+001  3.177354e+001 
3815625000  -3.965271e+001  2.165866e+001 
3818750000  -4.069057e+001  2.261280e+001 
3821875000  -4.015386e+001  3.162846e+001 
3825000000  -3.821982e+001  2.947905e+001 
3828125000  -3.708281e+001  8.991750e+000 
3831250000  -3.802694e+001  -3.980164e+000 
3834375000  -4.030328e+001  -4.294856e+000 
3837500000  -4.070022e+001  -2.080805e+000 
3840625000  -3.900599e+001  -5.669798e+000 
3843750000  -3.864154e+001  -1.871382e+001 
3846875000  -3.980930e+001  -2.659249e+001 
3850000000  -4.085348e+001  -1.688910e+001 
3853125000  -3.970478e+001  -1.946104e+001 
3856250000  -3.935594e+001  -2.693382e+001 
3859375000  -3.865153e+001  -3.468671e+001 
3862500000  -3.844615e+001  -4.552722e+001 
3865625000  -3.912207e+001  -5.112621e+001 
3868750000  -3.861179e+001  -5.089520e+001 
3871875000  -3.782914e+001  -5.777692e+001 
3875000000  -3.851716e+001  -6.862348e+001 
3878125000  -3.948508e+001  -7.018373e+001 
3881250000  -3.944539e+001  -7.095129e+001 
3884375000  -3.887334e+001  -7.786006e+001 
3887500000  -3.911899e+001  -8.359084e+001 
3890625000  -3.948103e+001  -8.841290e+001 
3893750000  -3.969119e+001  -8.879736e+001 
3896875000  -4.006041e+001  -9.375995e+001 
3900000000  -3.977620e+001  -9.802525e+001 
3903125000  -3.954447e+001  -1.005928e+002 
3906250000  -3.907162e+001  -1.053745e+002 
3909375000  -3.828098e+001  -1.149761e+002 
3912500000  -3.928938e+001  -1.233579e+002 
3915625000  -4.022069e+001  -1.223298e+002 
3918750000  -4.037308e+001  -1.232534e+002 
3921875000  -3.933246e+001  -1.289303e+002 
3925000000  -3.854035e+001  -1.340635e+002 
3928125000  -3.833223e+001  -1.438142e+002 
3931250000  -3.924540e+001  -1.506424e+002 
3934375000  -3.938639e+001  -1.520489e+002 
3937500000  -4.011829e+001  -1.541785e+002 
3940625000  -4.012452e+001  -1.548496e+002 
3943750000  -3.895086e+001  -1.581929e+002 
3946875000  -3.836902e+001  -1.686994e+002 
3950000000  -3.974740e+001  -1.748153e+002 
3953125000  -4.019783e+001  -1.762248e+002 
3956250000  -3.880405e+001  -1.765759e+002 
3959375000  -3.773581e+001  1.776786e+002 
3962500000  -3.772462e+001  1.703304e+002 
3965625000  -3.767319e+001  1.588168e+002 
3968750000  -3.870886e+001  1.516362e+002 
3971875000  -3.877761e+001  1.464600e+002 
3975000000  -3.833296e+001  1.433385e+002 
3978125000  -3.838941e+001  1.386519e+002 
3981250000  -3.877400e+001  1.318699e+002 
3984375000  -3.899846e+001  1.243284e+002 
3987500000  -3.977402e+001  1.205519e+002 
3990625000  -3.990400e+001  1.188666e+002 
3993750000  -3.980466e+001  1.145922e+002 
3996875000  -4.007837e+001  1.110280e+002 
4000000000  -4.070699e+001  1.056932e+002 
4003125000  -4.104529e+001  1.078091e+002 
4006250000  -3.928500e+001  1.053779e+002 
4009375000  -3.860823e+001  9.011385e+001 
4012500000  -4.044158e+001  8.205049e+001 
4015625000  -4.143654e+001  8.248494e+001 
4018750000  -4.146750e+001  8.126071e+001 
4021875000  -4.083767e+001  7.815060e+001 
4025000000  -4.025271e+001  7.252444e+001 
4028125000  -4.057987e+001  6.624505e+001 
4031250000  -4.129150e+001  6.198718e+001 
4034375000  -4.155186e+001  6.224684e+001 
4037500000  -4.105651e+001  6.239602e+001 
4040625000  -4.098806e+001  5.871470e+001 
4043750000  -4.121236e+001  5.443272e+001 
4046875000  -4.086822e+001  5.176791e+001 
4050000000  -4.077467e+001  4.405295e+001 
4053125000  -4.135903e+001  4.318675e+001 
4056250000  -4.132544e+001  4.594658e+001 
4059375000  -3.940200e+001  4.666191e+001 
4062500000  -3.879878e+001  3.761831e+001 
4065625000  -3.914797e+001  3.181623e+001 
4068750000  -3.827092e+001  2.550655e+001 
4071875000  -3.786360e+001  1.345116e+001 
4075000000  -3.821311e+001  6.447881e+000 
4078125000  -3.868280e+001  3.387814e+000 
4081250000  -3.826693e+001  -1.185697e+000 
4084375000  -3.808780e+001  -1.106701e+001 
4087500000  -3.850321e+001  -1.722319e+001 
4090625000  -3.907646e+001  -1.944315e+001 
4093750000  -3.875363e+001  -2.104347e+001 
4096875000  -3.873639e+001  -3.106330e+001 
4100000000  -3.980755e+001  -3.671254e+001 
4103125000  -4.089637e+001  -3.699555e+001 
4106250000  -3.995612e+001  -3.240062e+001 
4109375000  -3.911675e+001  -3.689520e+001 
4112500000  -3.852713e+001  -4.625864e+001 
4115625000  -3.915846e+001  -5.288106e+001 
4118750000  -3.890473e+001  -5.764400e+001 
4121875000  -3.895105e+001  -6.447675e+001 
4125000000  -4.000532e+001  -7.263919e+001 
4128125000  -4.112353e+001  -6.962088e+001 
4131250000  -3.980831e+001  -6.463303e+001 
4134375000  -3.775944e+001  -7.331631e+001 
4137500000  -3.810687e+001  -9.484924e+001 
4140625000  -4.050126e+001  -1.008085e+002 
4143750000  -4.155542e+001  -9.445663e+001 
4146875000  -4.075982e+001  -8.955376e+001 
4150000000  -3.962323e+001  -9.866531e+001 
4153125000  -3.986081e+001  -1.089420e+002 
4156250000  -4.116619e+001  -1.096345e+002 
4159375000  -4.131100e+001  -1.059783e+002 
4162500000  -3.996867e+001  -1.033623e+002 
4165625000  -3.886511e+001  -1.101023e+002 
4168750000  -3.883489e+001  -1.226270e+002 
4171875000  -3.849212e+001  -1.312800e+002 
4175000000  -3.931807e+001  -1.356267e+002 
4178125000  -3.967584e+001  -1.383532e+002 
4181250000  -3.949380e+001  -1.422444e+002 
4184375000  -3.951643e+001  -1.482214e+002 
4187500000  -3.941593e+001  -1.518771e+002 
4190625000  -3.967065e+001  -1.606123e+002 
4193750000  -4.067131e+001  -1.642713e+002 
4196875000  -4.129005e+001  -1.645381e+002 
4200000000  -4.252946e+001  -1.601445e+002 
4203125000  -4.079817e+001  -1.460931e+002 
4206250000  -3.753874e+001  -1.567836e+002 
4209375000  -3.725087e+001  1.798318e+002 
4212500000  -3.960395e+001  1.719867e+002 
4215625000  -3.997069e+001  -1.790090e+002 
4218750000  -3.823451e+001  -1.787702e+002 
4221875000  -3.691939e+001  1.713325e+002 
4225000000  -3.782598e+001  1.612087e+002 
4228125000  -3.801557e+001  1.620822e+002 
4231250000  -3.624357e+001  1.540680e+002 
4234375000  -3.639506e+001  1.425472e+002 
4237500000  -3.604308e+001  1.387583e+002 
4240625000  -3.624537e+001  1.265422e+002 
4243750000  -3.764085e+001  1.191095e+002 
4246875000  -3.850819e+001  1.185319e+002 
4250000000  -3.830587e+001  1.163964e+002 
4253125000  -3.796539e+001  1.147399e+002 
4256250000  -3.832357e+001  1.091287e+002 
4259375000  -3.751961e+001  1.043437e+002 
4262500000  -3.803273e+001  9.953516e+001 
4265625000  -3.780243e+001  9.814183e+001 
4268750000  -3.691775e+001  8.994299e+001 
4271875000  -3.666911e+001  8.226217e+001 
4275000000  -3.662388e+001  7.248143e+001 
4278125000  -3.770007e+001  6.186113e+001 
4281250000  -3.925682e+001  5.874091e+001 
4284375000  -3.856815e+001  5.504086e+001 
4287500000  -4.023025e+001  5.173888e+001 
4290625000  -4.085880e+001  6.066550e+001 
4293750000  -3.881771e+001  6.330235e+001 
4296875000  -3.790905e+001  4.944360e+001 
4300000000  -3.910886e+001  3.813923e+001 
4303125000  -3.976375e+001  4.195089e+001 
4306250000  -3.861037e+001  4.577353e+001 
4309375000  -3.777435e+001  4.085699e+001 
4312500000  -3.776556e+001  2.941867e+001 
4315625000  -3.789472e+001  2.012325e+001 
4318750000  -3.866928e+001  1.575423e+001 
4321875000  -3.868945e+001  1.732944e+001 
4325000000  -3.809782e+001  1.594368e+001 
4328125000  -3.752245e+001  5.381102e+000 
4331250000  -3.746618e+001  -6.804912e+000 
4334375000  -3.855597e+001  -1.211253e+001 
4337500000  -3.948313e+001  -1.171558e+001 
4340625000  -3.981334e+001  -8.637345e+000 
4343750000  -3.843403e+001  -1.199704e+001 
4346875000  -3.844249e+001  -1.969481e+001 
4350000000  -3.847192e+001  -2.736722e+001 
4353125000  -3.861146e+001  -3.438384e+001 
4356250000  -4.104472e+001  -3.167656e+001 
4359375000  -4.023404e+001  -1.816987e+001 
4362500000  -3.654258e+001  -2.435014e+001 
4365625000  -3.618565e+001  -4.347390e+001 
4368750000  -3.736419e+001  -5.277467e+001 
4371875000  -3.782762e+001  -5.122900e+001 
4375000000  -3.745104e+001  -5.724415e+001 
4378125000  -3.687025e+001  -6.425503e+001 
4381250000  -3.709091e+001  -7.368022e+001 
4384375000  -3.720340e+001  -7.843156e+001 
4387500000  -3.816766e+001  -8.446292e+001 
4390625000  -3.852050e+001  -8.529851e+001 
4393750000  -3.826760e+001  -8.473565e+001 
4396875000  -3.735944e+001  -9.115556e+001 
4400000000  -3.698186e+001  -9.983224e+001 
4403125000  -3.785238e+001  -1.107530e+002 
4406250000  -3.837537e+001  -1.114419e+002 
4409375000  -3.881979e+001  -1.171865e+002 
4412500000  -3.992392e+001  -1.186503e+002 
4415625000  -3.950157e+001  -1.144492e+002 
