!Agilent Technologies,E8363B,MY43030201,A.06.04.32
!Agilent E8363B: A.06.04.32
!Date: Tuesday, November 11, 2014 21:37:45
!Correction: S21(Response(S21)) 
!S1P File: Measurement: S21:
# Hz S  dB   R 50
3000000000  -4.065173e+001  7.041936e+001 
3003125000  -4.219418e+001  6.127087e+001 
3006250000  -4.201744e+001  6.239478e+001 
3009375000  -4.266625e+001  6.763356e+001 
3012500000  -4.157706e+001  6.039130e+001 
3015625000  -4.140046e+001  5.599007e+001 
3018750000  -4.168799e+001  5.663864e+001 
3021875000  -4.013769e+001  5.753613e+001 
3025000000  -3.887218e+001  5.242867e+001 
3028125000  -3.786733e+001  4.187442e+001 
3031250000  -3.702962e+001  3.050402e+001 
3034375000  -3.680046e+001  1.599260e+001 
3037500000  -3.760358e+001  5.386801e+000 
3040625000  -3.889933e+001  2.817000e-002 
3043750000  -3.910755e+001  -5.546424e+000 
3046875000  -3.991073e+001  -1.141191e+001 
3050000000  -4.102335e+001  -1.626113e+001 
3053125000  -4.052869e+001  -1.141289e+001 
3056250000  -4.060732e+001  -8.372410e+000 
3059375000  -3.969658e+001  -1.044614e+001 
3062500000  -3.816214e+001  -1.585345e+001 
3065625000  -3.790210e+001  -2.536169e+001 
3068750000  -3.741135e+001  -3.222001e+001 
3071875000  -3.751408e+001  -3.551778e+001 
3075000000  -3.695017e+001  -4.197949e+001 
3078125000  -3.706317e+001  -4.834688e+001 
3081250000  -3.727550e+001  -5.448489e+001 
3084375000  -3.634654e+001  -5.863500e+001 
3087500000  -3.646530e+001  -6.593097e+001 
3090625000  -3.597658e+001  -7.885721e+001 
3093750000  -3.695021e+001  -8.589809e+001 
3096875000  -3.735016e+001  -9.132108e+001 
3100000000  -3.726791e+001  -9.366270e+001 
3103125000  -3.751788e+001  -9.784852e+001 
3106250000  -3.711874e+001  -1.033874e+002 
3109375000  -3.729795e+001  -1.071447e+002 
3112500000  -3.716181e+001  -1.134560e+002 
3115625000  -3.706574e+001  -1.161129e+002 
3118750000  -3.721889e+001  -1.202935e+002 
3121875000  -3.650165e+001  -1.313922e+002 
3125000000  -3.856345e+001  -1.342347e+002 
3128125000  -3.856020e+001  -1.271515e+002 
3131250000  -3.588924e+001  -1.339245e+002 
3134375000  -3.535279e+001  -1.501873e+002 
3137500000  -3.604765e+001  -1.622680e+002 
3140625000  -3.749627e+001  -1.648251e+002 
3143750000  -3.813313e+001  -1.679892e+002 
3146875000  -3.758186e+001  -1.653119e+002 
3150000000  -3.679189e+001  -1.698760e+002 
3153125000  -3.714297e+001  -1.777981e+002 
3156250000  -3.799045e+001  -1.736274e+002 
3159375000  -3.565668e+001  -1.753027e+002 
3162500000  -3.430392e+001  1.691425e+002 
3165625000  -3.543745e+001  1.562775e+002 
3168750000  -3.547008e+001  1.546374e+002 
3171875000  -3.495478e+001  1.475161e+002 
3175000000  -3.544735e+001  1.389731e+002 
3178125000  -3.489196e+001  1.374492e+002 
3181250000  -3.439964e+001  1.288619e+002 
3184375000  -3.410826e+001  1.171031e+002 
3187500000  -3.543826e+001  1.028255e+002 
3190625000  -3.720325e+001  9.657911e+001 
3193750000  -3.750091e+001  1.019107e+002 
3196875000  -3.740129e+001  1.022176e+002 
3200000000  -3.608082e+001  9.744093e+001 
3203125000  -3.594832e+001  8.930222e+001 
3206250000  -3.611914e+001  8.184170e+001 
3209375000  -3.573154e+001  7.447223e+001 
3212500000  -3.616799e+001  6.774369e+001 
3215625000  -3.595181e+001  6.333453e+001 
3218750000  -3.683596e+001  5.321941e+001 
3221875000  -3.709841e+001  4.635885e+001 
3225000000  -3.701295e+001  4.249373e+001 
3228125000  -3.764001e+001  3.467495e+001 
3231250000  -3.822298e+001  3.355029e+001 
3234375000  -3.772916e+001  2.995269e+001 
3237500000  -3.808617e+001  2.607766e+001 
3240625000  -3.745098e+001  2.106585e+001 
3243750000  -3.767310e+001  1.047107e+001 
3246875000  -3.805276e+001  2.826815e+000 
3250000000  -3.873586e+001  8.638595e-002 
3253125000  -3.908378e+001  -2.156620e+000 
3256250000  -3.866394e+001  -1.074421e+001 
3259375000  -3.890676e+001  -2.272902e+001 
3262500000  -4.052955e+001  -2.715598e+001 
3265625000  -4.120404e+001  -2.340964e+001 
3268750000  -4.111391e+001  -2.195145e+001 
3271875000  -4.059713e+001  -2.631591e+001 
3275000000  -4.025958e+001  -3.573801e+001 
3278125000  -4.085072e+001  -3.885692e+001 
3281250000  -4.114783e+001  -4.176077e+001 
3284375000  -4.032545e+001  -4.700930e+001 
3287500000  -4.106919e+001  -5.035952e+001 
3290625000  -4.112789e+001  -5.908045e+001 
3293750000  -4.109016e+001  -6.353533e+001 
3296875000  -4.237101e+001  -6.596324e+001 
3300000000  -4.164160e+001  -6.464449e+001 
3303125000  -4.086303e+001  -7.220499e+001 
3306250000  -4.074546e+001  -7.991286e+001 
3309375000  -4.052201e+001  -8.699045e+001 
3312500000  -4.081036e+001  -9.884277e+001 
3315625000  -4.236761e+001  -1.071370e+002 
3318750000  -4.329893e+001  -1.106181e+002 
3321875000  -4.484367e+001  -1.055692e+002 
3325000000  -4.456761e+001  -9.961822e+001 
3328125000  -4.382855e+001  -9.932637e+001 
3331250000  -4.212546e+001  -9.795019e+001 
3334375000  -3.969323e+001  -1.122342e+002 
3337500000  -4.051652e+001  -1.331701e+002 
3340625000  -4.229940e+001  -1.427828e+002 
3343750000  -4.423227e+001  -1.413670e+002 
3346875000  -4.341872e+001  -1.435354e+002 
3350000000  -4.309272e+001  -1.455083e+002 
3353125000  -4.280957e+001  -1.537199e+002 
3356250000  -4.267038e+001  -1.629630e+002 
3359375000  -4.306364e+001  -1.722390e+002 
3362500000  -4.418491e+001  -1.776247e+002 
3365625000  -4.515023e+001  -1.799884e+002 
3368750000  -4.533710e+001  1.729705e+002 
3371875000  -4.623399e+001  1.706151e+002 
3375000000  -4.700587e+001  1.656581e+002 
3378125000  -4.826394e+001  1.683480e+002 
3381250000  -4.949400e+001  1.777954e+002 
3384375000  -4.672421e+001  -1.711608e+002 
3387500000  -4.373643e+001  1.701930e+002 
3390625000  -4.582904e+001  1.528074e+002 
3393750000  -4.686866e+001  1.513876e+002 
3396875000  -4.625404e+001  1.494893e+002 
3400000000  -4.603198e+001  1.364766e+002 
3403125000  -4.716601e+001  1.322093e+002 
3406250000  -4.784406e+001  1.262818e+002 
3409375000  -4.766495e+001  1.220057e+002 
3412500000  -4.914016e+001  1.153510e+002 
3415625000  -4.951106e+001  1.169727e+002 
3418750000  -5.024321e+001  1.130587e+002 
3421875000  -5.106522e+001  1.146939e+002 
3425000000  -4.973572e+001  1.171409e+002 
3428125000  -4.944051e+001  1.109162e+002 
3431250000  -5.036341e+001  1.022782e+002 
3434375000  -5.007306e+001  9.986774e+001 
3437500000  -5.146824e+001  9.784542e+001 
3440625000  -5.195194e+001  9.947761e+001 
3443750000  -5.075157e+001  1.005061e+002 
3446875000  -5.085915e+001  1.011995e+002 
3450000000  -4.942983e+001  9.249267e+001 
3453125000  -5.044166e+001  8.149792e+001 
3456250000  -5.185378e+001  7.962628e+001 
3459375000  -5.287065e+001  8.241128e+001 
3462500000  -5.222467e+001  8.560477e+001 
3465625000  -5.071597e+001  7.650103e+001 
3468750000  -5.119740e+001  7.518662e+001 
3471875000  -5.217696e+001  7.269196e+001 
3475000000  -5.100419e+001  6.810715e+001 
3478125000  -5.100177e+001  6.060964e+001 
3481250000  -5.220070e+001  5.665050e+001 
3484375000  -5.193275e+001  6.362381e+001 
3487500000  -5.127098e+001  5.883306e+001 
3490625000  -5.043111e+001  4.788761e+001 
3493750000  -5.158480e+001  4.473129e+001 
3496875000  -5.220506e+001  4.752760e+001 
3500000000  -5.317371e+001  4.943885e+001 
3503125000  -5.023501e+001  4.220920e+001 
3506250000  -4.899119e+001  3.292677e+001 
3509375000  -4.944342e+001  2.104391e+001 
3512500000  -4.990194e+001  1.008012e+001 
3515625000  -5.113456e+001  6.837436e+000 
3518750000  -5.261222e+001  1.006237e+001 
3521875000  -5.217761e+001  8.254874e-002 
3525000000  -5.412056e+001  -3.844460e+000 
3528125000  -5.319038e+001  3.524025e+000 
3531250000  -5.142469e+001  -6.896013e+000 
3534375000  -5.207786e+001  -2.081642e+001 
3537500000  -5.389391e+001  -3.002828e+001 
3540625000  -5.492770e+001  -2.071070e+001 
3543750000  -5.598257e+001  -1.739176e+001 
3546875000  -5.459787e+001  -1.592759e+001 
3550000000  -5.375499e+001  -2.009501e+001 
3553125000  -5.323510e+001  -3.747553e+001 
3556250000  -5.567987e+001  -3.925351e+001 
3559375000  -5.515683e+001  -3.266275e+001 
3562500000  -5.513047e+001  -4.585789e+001 
3565625000  -5.649254e+001  -4.918497e+001 
3568750000  -5.739996e+001  -5.002085e+001 
3571875000  -5.768371e+001  -4.238263e+001 
3575000000  -5.894725e+001  -4.577589e+001 
3578125000  -5.921844e+001  -4.996964e+001 
3581250000  -5.893015e+001  -5.533155e+001 
3584375000  -5.868544e+001  -4.037471e+001 
3587500000  -5.601637e+001  -3.856278e+001 
3590625000  -5.972480e+001  -6.643820e+001 
3593750000  -6.066295e+001  -5.271284e+001 
3596875000  -5.802304e+001  -4.425206e+001 
3600000000  -5.744558e+001  -4.789744e+001 
3603125000  -5.942395e+001  -6.511384e+001 
3606250000  -5.865208e+001  -6.088748e+001 
3609375000  -5.896487e+001  -5.106908e+001 
3612500000  -5.851783e+001  -5.929718e+001 
3615625000  -5.736599e+001  -4.848809e+001 
3618750000  -5.844447e+001  -5.498155e+001 
3621875000  -5.666939e+001  -5.319397e+001 
3625000000  -5.866088e+001  -4.187409e+001 
3628125000  -5.626245e+001  -4.724215e+001 
3631250000  -5.642109e+001  -5.633562e+001 
3634375000  -5.723706e+001  -4.471703e+001 
3637500000  -5.597177e+001  -4.791217e+001 
3640625000  -5.365403e+001  -4.054712e+001 
3643750000  -5.267433e+001  -5.567644e+001 
3646875000  -5.302992e+001  -6.611903e+001 
3650000000  -5.341615e+001  -5.952154e+001 
3653125000  -5.195732e+001  -6.661313e+001 
3656250000  -5.278473e+001  -6.538507e+001 
3659375000  -5.153349e+001  -6.522715e+001 
3662500000  -5.073469e+001  -7.385378e+001 
3665625000  -4.921281e+001  -7.533511e+001 
3668750000  -4.827555e+001  -7.794045e+001 
3671875000  -4.733686e+001  -8.903689e+001 
3675000000  -4.714952e+001  -9.679001e+001 
3678125000  -4.685145e+001  -9.797553e+001 
3681250000  -4.669334e+001  -1.064115e+002 
3684375000  -4.691456e+001  -1.097695e+002 
3687500000  -4.648991e+001  -1.163437e+002 
3690625000  -4.643462e+001  -1.207823e+002 
3693750000  -4.706570e+001  -1.224593e+002 
3696875000  -4.607480e+001  -1.206120e+002 
3700000000  -4.530077e+001  -1.282933e+002 
3703125000  -4.553782e+001  -1.368532e+002 
3706250000  -4.590611e+001  -1.317227e+002 
3709375000  -4.518967e+001  -1.365848e+002 
3712500000  -4.314099e+001  -1.385502e+002 
3715625000  -4.227462e+001  -1.491038e+002 
3718750000  -4.178552e+001  -1.572906e+002 
3721875000  -4.136760e+001  -1.646115e+002 
3725000000  -4.170020e+001  -1.732543e+002 
3728125000  -4.146593e+001  -1.756513e+002 
3731250000  -4.084277e+001  1.772989e+002 
3734375000  -4.020047e+001  1.701412e+002 
3737500000  -4.079802e+001  1.618736e+002 
3740625000  -4.096231e+001  1.550912e+002 
3743750000  -4.037357e+001  1.487515e+002 
3746875000  -4.090881e+001  1.423664e+002 
3750000000  -4.098021e+001  1.380855e+002 
3753125000  -4.046737e+001  1.342865e+002 
3756250000  -4.056359e+001  1.311450e+002 
3759375000  -4.049398e+001  1.252107e+002 
3762500000  -3.994042e+001  1.200248e+002 
3765625000  -4.087630e+001  1.145039e+002 
3768750000  -4.025208e+001  1.152515e+002 
3771875000  -3.841500e+001  1.065281e+002 
3775000000  -3.853437e+001  9.598067e+001 
3778125000  -3.903490e+001  8.859610e+001 
3781250000  -3.906283e+001  8.520166e+001 
3784375000  -3.894159e+001  8.032658e+001 
3787500000  -3.855066e+001  7.347382e+001 
3790625000  -3.916412e+001  6.405193e+001 
3793750000  -3.911939e+001  6.186052e+001 
3796875000  -3.815783e+001  5.782123e+001 
3800000000  -3.641915e+001  5.210928e+001 
3803125000  -3.799549e+001  3.867281e+001 
3806250000  -3.869852e+001  3.493816e+001 
3809375000  -3.849123e+001  2.966299e+001 
3812500000  -3.841199e+001  2.054875e+001 
3815625000  -3.979256e+001  1.258559e+001 
3818750000  -4.052200e+001  1.392770e+001 
3821875000  -4.011694e+001  2.410400e+001 
3825000000  -3.807079e+001  1.909614e+001 
3828125000  -3.704578e+001  -6.096154e-001 
3831250000  -3.820897e+001  -1.425937e+001 
3834375000  -4.037218e+001  -1.455044e+001 
3837500000  -4.062545e+001  -1.048309e+001 
3840625000  -3.912926e+001  -1.512959e+001 
3843750000  -3.839718e+001  -2.955334e+001 
3846875000  -3.981728e+001  -3.668411e+001 
3850000000  -4.058347e+001  -2.773080e+001 
3853125000  -3.973846e+001  -2.921818e+001 
3856250000  -3.928990e+001  -3.636944e+001 
3859375000  -3.854037e+001  -4.506517e+001 
3862500000  -3.838743e+001  -5.458704e+001 
3865625000  -3.886431e+001  -5.931267e+001 
3868750000  -3.851237e+001  -6.057881e+001 
3871875000  -3.801816e+001  -6.864293e+001 
3875000000  -3.870954e+001  -7.831268e+001 
3878125000  -3.950373e+001  -8.112752e+001 
3881250000  -3.897638e+001  -7.956350e+001 
3884375000  -3.888818e+001  -8.750298e+001 
3887500000  -3.927924e+001  -9.254909e+001 
3890625000  -3.937523e+001  -9.913122e+001 
3893750000  -3.959712e+001  -1.012736e+002 
3896875000  -3.995561e+001  -1.019158e+002 
3900000000  -3.976682e+001  -1.058148e+002 
3903125000  -3.902074e+001  -1.098510e+002 
3906250000  -3.870436e+001  -1.149673e+002 
3909375000  -3.821360e+001  -1.241138e+002 
3912500000  -3.911131e+001  -1.324924e+002 
3915625000  -4.028532e+001  -1.306357e+002 
3918750000  -3.999356e+001  -1.327014e+002 
3921875000  -3.920201e+001  -1.391956e+002 
3925000000  -3.839662e+001  -1.439214e+002 
3928125000  -3.822785e+001  -1.535449e+002 
3931250000  -3.912276e+001  -1.606246e+002 
3934375000  -3.955729e+001  -1.613036e+002 
3937500000  -3.993928e+001  -1.637029e+002 
3940625000  -3.967685e+001  -1.644905e+002 
3943750000  -3.899239e+001  -1.689376e+002 
3946875000  -3.858666e+001  -1.775300e+002 
3950000000  -3.960754e+001  1.737906e+002 
3953125000  -4.001023e+001  1.753471e+002 
3956250000  -3.880723e+001  1.747234e+002 
3959375000  -3.784672e+001  1.695144e+002 
3962500000  -3.765899e+001  1.588922e+002 
3965625000  -3.799479e+001  1.494158e+002 
3968750000  -3.874008e+001  1.425930e+002 
3971875000  -3.850962e+001  1.380800e+002 
3975000000  -3.834559e+001  1.348866e+002 
3978125000  -3.839477e+001  1.298571e+002 
3981250000  -3.848038e+001  1.215450e+002 
3984375000  -3.911972e+001  1.144705e+002 
3987500000  -3.975196e+001  1.098150e+002 
3990625000  -3.977762e+001  1.095352e+002 
3993750000  -3.991491e+001  1.055964e+002 
3996875000  -4.000925e+001  9.845289e+001 
4000000000  -4.088684e+001  9.626189e+001 
4003125000  -4.102718e+001  9.773086e+001 
4006250000  -3.941118e+001  9.469650e+001 
4009375000  -3.876611e+001  7.964655e+001 
4012500000  -4.045610e+001  7.343201e+001 
4015625000  -4.155223e+001  7.234085e+001 
4018750000  -4.141993e+001  7.314835e+001 
4021875000  -4.091697e+001  6.909853e+001 
4025000000  -4.026110e+001  6.401530e+001 
4028125000  -4.037700e+001  5.668607e+001 
4031250000  -4.120959e+001  5.197301e+001 
4034375000  -4.158144e+001  5.447596e+001 
4037500000  -4.111195e+001  5.177401e+001 
4040625000  -4.089256e+001  4.954389e+001 
4043750000  -4.085202e+001  4.502739e+001 
4046875000  -4.093433e+001  4.030431e+001 
4050000000  -4.068420e+001  3.598970e+001 
4053125000  -4.123609e+001  3.521835e+001 
4056250000  -4.152293e+001  3.878313e+001 
4059375000  -3.908131e+001  3.475340e+001 
4062500000  -3.900836e+001  2.695013e+001 
4065625000  -3.890254e+001  2.107707e+001 
4068750000  -3.827127e+001  1.429442e+001 
4071875000  -3.781318e+001  4.111156e+000 
4075000000  -3.850374e+001  -2.610938e+000 
4078125000  -3.861868e+001  -6.358122e+000 
4081250000  -3.824581e+001  -1.150213e+001 
4084375000  -3.810439e+001  -2.101431e+001 
4087500000  -3.880261e+001  -2.919940e+001 
4090625000  -3.925058e+001  -2.928975e+001 
4093750000  -3.874434e+001  -3.359289e+001 
4096875000  -3.874154e+001  -4.268974e+001 
4100000000  -3.973490e+001  -5.148576e+001 
4103125000  -4.079946e+001  -4.436189e+001 
4106250000  -3.987864e+001  -4.433142e+001 
4109375000  -3.909013e+001  -4.738589e+001 
4112500000  -3.853593e+001  -5.753809e+001 
4115625000  -3.911982e+001  -6.349341e+001 
4118750000  -3.882992e+001  -6.783949e+001 
4121875000  -3.893081e+001  -7.766744e+001 
4125000000  -4.004451e+001  -8.273040e+001 
4128125000  -4.072104e+001  -7.953402e+001 
4131250000  -3.985334e+001  -7.511713e+001 
4134375000  -3.737331e+001  -8.397213e+001 
4137500000  -3.798492e+001  -1.041997e+002 
4140625000  -4.057024e+001  -1.110684e+002 
4143750000  -4.134447e+001  -1.044614e+002 
4146875000  -4.078735e+001  -1.034713e+002 
4150000000  -3.963728e+001  -1.109629e+002 
4153125000  -3.994019e+001  -1.177370e+002 
4156250000  -4.091253e+001  -1.225600e+002 
4159375000  -4.114880e+001  -1.158539e+002 
4162500000  -4.006388e+001  -1.149021e+002 
4165625000  -3.871807e+001  -1.193588e+002 
4168750000  -3.860240e+001  -1.316533e+002 
4171875000  -3.843821e+001  -1.413941e+002 
4175000000  -3.926618e+001  -1.474301e+002 
4178125000  -3.936443e+001  -1.481522e+002 
4181250000  -3.930986e+001  -1.514748e+002 
4184375000  -3.922286e+001  -1.584625e+002 
4187500000  -3.918341e+001  -1.627190e+002 
4190625000  -3.922404e+001  -1.698651e+002 
4193750000  -4.040456e+001  -1.744766e+002 
4196875000  -4.142853e+001  -1.762929e+002 
4200000000  -4.257187e+001  -1.704580e+002 
4203125000  -4.078909e+001  -1.563967e+002 
4206250000  -3.740367e+001  -1.665464e+002 
4209375000  -3.711280e+001  1.699928e+002 
4212500000  -3.973954e+001  1.622571e+002 
4215625000  -4.000653e+001  1.700686e+002 
4218750000  -3.836507e+001  1.713279e+002 
4221875000  -3.634658e+001  1.623704e+002 
4225000000  -3.766605e+001  1.489718e+002 
4228125000  -3.755730e+001  1.493533e+002 
4231250000  -3.643646e+001  1.443138e+002 
4234375000  -3.610355e+001  1.334780e+002 
4237500000  -3.599796e+001  1.270300e+002 
4240625000  -3.621118e+001  1.158491e+002 
4243750000  -3.758133e+001  1.077762e+002 
4246875000  -3.834983e+001  1.067396e+002 
4250000000  -3.820600e+001  1.072156e+002 
4253125000  -3.808612e+001  1.042494e+002 
4256250000  -3.790160e+001  9.861893e+001 
4259375000  -3.751650e+001  9.228252e+001 
4262500000  -3.790049e+001  8.754973e+001 
4265625000  -3.813091e+001  8.770439e+001 
4268750000  -3.676103e+001  7.809641e+001 
4271875000  -3.674869e+001  7.082017e+001 
4275000000  -3.652234e+001  6.102357e+001 
4278125000  -3.765817e+001  4.977113e+001 
4281250000  -3.882384e+001  4.753240e+001 
4284375000  -3.876734e+001  4.452591e+001 
4287500000  -4.008067e+001  4.119725e+001 
4290625000  -4.074537e+001  5.186245e+001 
4293750000  -3.878737e+001  5.050975e+001 
4296875000  -3.778521e+001  3.754567e+001 
4300000000  -3.888205e+001  2.915111e+001 
4303125000  -3.979432e+001  3.206309e+001 
4306250000  -3.863016e+001  3.468473e+001 
4309375000  -3.760719e+001  2.720603e+001 
4312500000  -3.762704e+001  1.513019e+001 
4315625000  -3.775660e+001  9.615935e+000 
4318750000  -3.859062e+001  5.764527e+000 
4321875000  -3.857545e+001  5.266274e+000 
4325000000  -3.811244e+001  3.444211e+000 
4328125000  -3.731204e+001  -6.569598e+000 
4331250000  -3.743980e+001  -1.706256e+001 
4334375000  -3.836837e+001  -2.307053e+001 
4337500000  -3.943162e+001  -2.283425e+001 
4340625000  -3.956482e+001  -1.743127e+001 
4343750000  -3.853292e+001  -2.090741e+001 
4346875000  -3.827490e+001  -3.133992e+001 
4350000000  -3.828672e+001  -3.921642e+001 
4353125000  -3.883942e+001  -4.549387e+001 
4356250000  -4.078885e+001  -4.250115e+001 
4359375000  -3.983055e+001  -2.773778e+001 
4362500000  -3.644442e+001  -3.835216e+001 
4365625000  -3.583646e+001  -5.610474e+001 
4368750000  -3.723755e+001  -6.280364e+001 
4371875000  -3.784477e+001  -6.253025e+001 
4375000000  -3.728298e+001  -6.787223e+001 
4378125000  -3.687542e+001  -7.532854e+001 
4381250000  -3.694362e+001  -8.495538e+001 
4384375000  -3.710836e+001  -9.040749e+001 
4387500000  -3.838184e+001  -9.457329e+001 
4390625000  -3.831736e+001  -9.635549e+001 
4393750000  -3.792459e+001  -9.664931e+001 
4396875000  -3.734124e+001  -1.034567e+002 
4400000000  -3.671111e+001  -1.111229e+002 
4403125000  -3.770834e+001  -1.205274e+002 
4406250000  -3.823659e+001  -1.245668e+002 
4409375000  -3.868404e+001  -1.280946e+002 
4412500000  -3.958792e+001  -1.299795e+002 
4415625000  -3.921119e+001  -1.266354e+002 
