!Agilent Technologies,E8363B,MY43030201,A.06.04.32
!Agilent E8363B: A.06.04.32
!Date: Tuesday, November 11, 2014 21:27:31
!Correction: S21(Response(S21)) 
!S1P File: Measurement: S21:
# Hz S  dB   R 50
3000000000  -4.049334e+001  9.273560e+001 
3003125000  -4.237819e+001  8.501351e+001 
3006250000  -4.217397e+001  8.349859e+001 
3009375000  -4.278248e+001  8.665236e+001 
3012500000  -4.157639e+001  8.294794e+001 
3015625000  -4.138167e+001  7.755708e+001 
3018750000  -4.187822e+001  7.721892e+001 
3021875000  -4.031242e+001  7.775881e+001 
3025000000  -3.914966e+001  7.387447e+001 
3028125000  -3.812751e+001  6.469473e+001 
3031250000  -3.716505e+001  5.269975e+001 
3034375000  -3.684681e+001  3.956300e+001 
3037500000  -3.744209e+001  2.800170e+001 
3040625000  -3.865894e+001  2.278391e+001 
3043750000  -3.913715e+001  1.675626e+001 
3046875000  -3.973430e+001  1.088539e+001 
3050000000  -4.088483e+001  4.536502e+000 
3053125000  -4.071707e+001  1.031331e+001 
3056250000  -4.048521e+001  1.253539e+001 
3059375000  -4.006405e+001  1.099781e+001 
3062500000  -3.827454e+001  6.206960e+000 
3065625000  -3.788842e+001  -3.359239e+000 
3068750000  -3.766540e+001  -1.116175e+001 
3071875000  -3.754071e+001  -1.291467e+001 
3075000000  -3.713028e+001  -1.972654e+001 
3078125000  -3.714176e+001  -2.638371e+001 
3081250000  -3.737395e+001  -3.247828e+001 
3084375000  -3.639722e+001  -3.664688e+001 
3087500000  -3.641775e+001  -4.354970e+001 
3090625000  -3.596420e+001  -5.539769e+001 
3093750000  -3.685953e+001  -6.384465e+001 
3096875000  -3.741669e+001  -6.943925e+001 
3100000000  -3.715985e+001  -7.232738e+001 
3103125000  -3.757329e+001  -7.498392e+001 
3106250000  -3.715152e+001  -8.228955e+001 
3109375000  -3.730969e+001  -8.548166e+001 
3112500000  -3.733418e+001  -9.046966e+001 
3115625000  -3.708310e+001  -9.558865e+001 
3118750000  -3.731379e+001  -9.714391e+001 
3121875000  -3.662128e+001  -1.085906e+002 
3125000000  -3.833265e+001  -1.123974e+002 
3128125000  -3.870353e+001  -1.048221e+002 
3131250000  -3.612349e+001  -1.097839e+002 
3134375000  -3.531134e+001  -1.271709e+002 
3137500000  -3.606473e+001  -1.405136e+002 
3140625000  -3.734604e+001  -1.429646e+002 
3143750000  -3.834806e+001  -1.453754e+002 
3146875000  -3.769159e+001  -1.433699e+002 
3150000000  -3.696397e+001  -1.469663e+002 
3153125000  -3.716014e+001  -1.555541e+002 
3156250000  -3.802531e+001  -1.510039e+002 
3159375000  -3.578558e+001  -1.532552e+002 
3162500000  -3.439433e+001  -1.680932e+002 
3165625000  -3.546896e+001  1.784983e+002 
3168750000  -3.558336e+001  1.776354e+002 
3171875000  -3.499598e+001  1.711109e+002 
3175000000  -3.552492e+001  1.608822e+002 
3178125000  -3.519056e+001  1.603797e+002 
3181250000  -3.444881e+001  1.523862e+002 
3184375000  -3.410884e+001  1.402097e+002 
3187500000  -3.545555e+001  1.248626e+002 
3190625000  -3.733084e+001  1.188321e+002 
3193750000  -3.750029e+001  1.244534e+002 
3196875000  -3.753294e+001  1.249157e+002 
3200000000  -3.632088e+001  1.217265e+002 
3203125000  -3.594251e+001  1.125716e+002 
3206250000  -3.622768e+001  1.051017e+002 
3209375000  -3.579865e+001  9.774757e+001 
3212500000  -3.632728e+001  9.046875e+001 
3215625000  -3.610050e+001  8.668639e+001 
3218750000  -3.691348e+001  7.625961e+001 
3221875000  -3.734834e+001  7.024859e+001 
3225000000  -3.713419e+001  6.597986e+001 
3228125000  -3.782340e+001  5.821136e+001 
3231250000  -3.835457e+001  5.662384e+001 
3234375000  -3.807421e+001  5.371395e+001 
3237500000  -3.806610e+001  4.955400e+001 
3240625000  -3.781130e+001  4.441381e+001 
3243750000  -3.767335e+001  3.403600e+001 
3246875000  -3.811060e+001  2.777674e+001 
3250000000  -3.885501e+001  2.363910e+001 
3253125000  -3.893983e+001  1.962706e+001 
3256250000  -3.866540e+001  1.040249e+001 
3259375000  -3.897482e+001  2.847182e-001 
3262500000  -4.070774e+001  -3.964296e+000 
3265625000  -4.132420e+001  -2.330103e-001 
3268750000  -4.130628e+001  1.737302e+000 
3271875000  -4.063109e+001  -3.693498e+000 
3275000000  -4.011504e+001  -1.017937e+001 
3278125000  -4.076264e+001  -1.636732e+001 
3281250000  -4.097488e+001  -1.669538e+001 
3284375000  -4.067490e+001  -2.284461e+001 
3287500000  -4.095089e+001  -2.704917e+001 
3290625000  -4.144397e+001  -3.431974e+001 
3293750000  -4.110337e+001  -4.040667e+001 
3296875000  -4.245869e+001  -4.141207e+001 
3300000000  -4.201892e+001  -4.046594e+001 
3303125000  -4.085388e+001  -4.852992e+001 
3306250000  -4.076801e+001  -5.459016e+001 
3309375000  -4.053036e+001  -6.243658e+001 
3312500000  -4.076583e+001  -7.361326e+001 
3315625000  -4.195061e+001  -8.076193e+001 
3318750000  -4.350745e+001  -8.569456e+001 
3321875000  -4.468735e+001  -8.285710e+001 
3325000000  -4.469280e+001  -7.634087e+001 
3328125000  -4.413042e+001  -7.471045e+001 
3331250000  -4.264548e+001  -7.449966e+001 
3334375000  -3.983564e+001  -8.713874e+001 
3337500000  -4.052237e+001  -1.068259e+002 
3340625000  -4.207395e+001  -1.179098e+002 
3343750000  -4.388154e+001  -1.175915e+002 
3346875000  -4.342887e+001  -1.194925e+002 
3350000000  -4.315414e+001  -1.220922e+002 
3353125000  -4.300022e+001  -1.279264e+002 
3356250000  -4.233202e+001  -1.374296e+002 
3359375000  -4.347012e+001  -1.458510e+002 
3362500000  -4.425501e+001  -1.535752e+002 
3365625000  -4.496762e+001  -1.543388e+002 
3368750000  -4.553915e+001  -1.607277e+002 
3371875000  -4.552462e+001  -1.648227e+002 
3375000000  -4.710912e+001  -1.674427e+002 
3378125000  -4.782691e+001  -1.664684e+002 
3381250000  -5.007691e+001  -1.610264e+002 
3384375000  -4.623069e+001  -1.452734e+002 
3387500000  -4.419724e+001  -1.639257e+002 
3390625000  -4.579925e+001  1.761779e+002 
3393750000  -4.719980e+001  1.775383e+002 
3396875000  -4.674905e+001  1.740167e+002 
3400000000  -4.637596e+001  1.649269e+002 
3403125000  -4.717135e+001  1.571623e+002 
3406250000  -4.762486e+001  1.544851e+002 
3409375000  -4.803213e+001  1.483708e+002 
3412500000  -4.888653e+001  1.413611e+002 
3415625000  -4.970594e+001  1.349455e+002 
3418750000  -5.019998e+001  1.380427e+002 
3421875000  -5.091383e+001  1.438003e+002 
3425000000  -4.997351e+001  1.399350e+002 
3428125000  -4.978571e+001  1.380429e+002 
3431250000  -5.022729e+001  1.326586e+002 
3434375000  -4.988856e+001  1.264594e+002 
3437500000  -5.183188e+001  1.266505e+002 
3440625000  -5.237102e+001  1.264327e+002 
3443750000  -5.034679e+001  1.268466e+002 
3446875000  -5.061060e+001  1.250531e+002 
3450000000  -5.077640e+001  1.108843e+002 
3453125000  -5.086813e+001  1.058014e+002 
3456250000  -5.147791e+001  1.049156e+002 
3459375000  -5.238851e+001  1.049371e+002 
3462500000  -5.215100e+001  1.025076e+002 
3465625000  -5.112781e+001  1.008125e+002 
3468750000  -5.166020e+001  1.015416e+002 
3471875000  -5.237368e+001  1.035649e+002 
3475000000  -5.085867e+001  9.831771e+001 
3478125000  -5.051307e+001  8.453733e+001 
3481250000  -5.174410e+001  8.740412e+001 
3484375000  -5.232180e+001  8.803948e+001 
3487500000  -5.214902e+001  9.045743e+001 
3490625000  -5.079043e+001  7.889230e+001 
3493750000  -5.096106e+001  6.893919e+001 
3496875000  -5.061517e+001  6.916791e+001 
3500000000  -5.233566e+001  6.570782e+001 
3503125000  -5.142163e+001  6.922836e+001 
3506250000  -4.958090e+001  6.238040e+001 
3509375000  -4.951028e+001  5.301073e+001 
3512500000  -4.945009e+001  3.842730e+001 
3515625000  -5.122983e+001  3.480079e+001 
3518750000  -5.129676e+001  3.186418e+001 
3521875000  -5.186639e+001  2.476798e+001 
3525000000  -5.261932e+001  1.808023e+001 
3528125000  -5.243076e+001  3.222838e+001 
3531250000  -5.138754e+001  2.699144e+001 
3534375000  -5.143247e+001  8.391813e+000 
3537500000  -5.290016e+001  1.067065e+000 
3540625000  -5.409190e+001  -1.512931e+000 
3543750000  -5.462328e+001  4.759741e+000 
3546875000  -5.512343e+001  1.173719e+001 
3550000000  -5.369099e+001  3.993405e+000 
3553125000  -5.367330e+001  -1.311279e+001 
3556250000  -5.438709e+001  -1.391863e+001 
3559375000  -5.486868e+001  -1.681923e+001 
3562500000  -5.634566e+001  -2.209352e+001 
3565625000  -5.745679e+001  -2.991103e+001 
3568750000  -5.675001e+001  -2.313411e+001 
3571875000  -5.641832e+001  -1.491957e+001 
3575000000  -5.949260e+001  -3.320188e+001 
3578125000  -5.950067e+001  -2.563387e+001 
3581250000  -5.844657e+001  -2.702871e+001 
3584375000  -5.744178e+001  -2.371370e+001 
3587500000  -5.733258e+001  -2.083568e+001 
3590625000  -5.782022e+001  -3.683268e+001 
3593750000  -5.810660e+001  -2.891895e+001 
3596875000  -5.911776e+001  -1.595542e+001 
3600000000  -5.860930e+001  -1.585658e+001 
3603125000  -5.794826e+001  -4.304128e+001 
3606250000  -5.762226e+001  -3.714630e+001 
3609375000  -5.939345e+001  -3.368202e+001 
3612500000  -5.813873e+001  -2.608046e+001 
3615625000  -5.805001e+001  -3.602706e+001 
3618750000  -5.893508e+001  -2.510714e+001 
3621875000  -5.581684e+001  -3.357001e+001 
3625000000  -5.854946e+001  -3.054139e+001 
3628125000  -5.683933e+001  -2.608410e+001 
3631250000  -5.575969e+001  -2.043064e+001 
3634375000  -5.677469e+001  -2.708711e+001 
3637500000  -5.564641e+001  -2.917011e+001 
3640625000  -5.565076e+001  -1.807909e+001 
3643750000  -5.274603e+001  -2.886536e+001 
3646875000  -5.348038e+001  -3.698209e+001 
3650000000  -5.312197e+001  -3.990881e+001 
3653125000  -5.276743e+001  -3.727608e+001 
3656250000  -5.177451e+001  -4.099510e+001 
3659375000  -5.190805e+001  -4.170203e+001 
3662500000  -5.132018e+001  -5.344563e+001 
3665625000  -5.042817e+001  -4.670929e+001 
3668750000  -4.859773e+001  -5.208256e+001 
3671875000  -4.714584e+001  -6.454884e+001 
3675000000  -4.812099e+001  -7.311196e+001 
3678125000  -4.776017e+001  -7.640519e+001 
3681250000  -4.665345e+001  -7.633921e+001 
3684375000  -4.694675e+001  -8.368134e+001 
3687500000  -4.699828e+001  -9.124174e+001 
3690625000  -4.720301e+001  -9.812333e+001 
3693750000  -4.708038e+001  -9.212644e+001 
3696875000  -4.646682e+001  -9.452877e+001 
3700000000  -4.518912e+001  -1.023433e+002 
3703125000  -4.532808e+001  -1.078184e+002 
3706250000  -4.639334e+001  -1.086993e+002 
3709375000  -4.478225e+001  -1.097204e+002 
3712500000  -4.403530e+001  -1.158966e+002 
3715625000  -4.240548e+001  -1.230066e+002 
3718750000  -4.214421e+001  -1.293359e+002 
3721875000  -4.156779e+001  -1.401426e+002 
3725000000  -4.181784e+001  -1.465287e+002 
3728125000  -4.158018e+001  -1.499379e+002 
3731250000  -4.118736e+001  -1.554132e+002 
3734375000  -4.031743e+001  -1.637263e+002 
3737500000  -4.069724e+001  -1.714608e+002 
3740625000  -4.085849e+001  -1.778176e+002 
3743750000  -4.044945e+001  1.776737e+002 
3746875000  -4.080318e+001  1.700154e+002 
3750000000  -4.097749e+001  1.642116e+002 
3753125000  -4.078238e+001  1.607300e+002 
3756250000  -4.065826e+001  1.575473e+002 
3759375000  -4.045588e+001  1.523775e+002 
3762500000  -4.009025e+001  1.461367e+002 
3765625000  -4.055360e+001  1.404358e+002 
3768750000  -4.019265e+001  1.414864e+002 
3771875000  -3.864394e+001  1.343923e+002 
3775000000  -3.881408e+001  1.225417e+002 
3778125000  -3.914592e+001  1.155443e+002 
3781250000  -3.915514e+001  1.110780e+002 
3784375000  -3.882567e+001  1.062498e+002 
3787500000  -3.852724e+001  1.007006e+002 
3790625000  -3.915324e+001  9.194081e+001 
3793750000  -3.927789e+001  8.676572e+001 
3796875000  -3.851455e+001  8.330354e+001 
3800000000  -3.654894e+001  8.021181e+001 
3803125000  -3.817013e+001  6.596252e+001 
3806250000  -3.900657e+001  6.189408e+001 
3809375000  -3.861794e+001  5.829356e+001 
3812500000  -3.853637e+001  4.826290e+001 
3815625000  -3.939460e+001  3.997878e+001 
3818750000  -4.062932e+001  3.826060e+001 
3821875000  -4.028986e+001  4.883435e+001 
3825000000  -3.842411e+001  4.590302e+001 
3828125000  -3.719483e+001  2.746465e+001 
3831250000  -3.816766e+001  1.349187e+001 
3834375000  -4.036314e+001  1.298056e+001 
3837500000  -4.080115e+001  1.610166e+001 
3840625000  -3.914233e+001  1.447864e+001 
3843750000  -3.843188e+001  -2.001939e+000 
3846875000  -3.992126e+001  -8.209727e+000 
3850000000  -4.069324e+001  -2.535347e+000 
3853125000  -4.019609e+001  -9.517337e-001 
3856250000  -3.965829e+001  -1.070299e+001 
3859375000  -3.900782e+001  -1.452845e+001 
3862500000  -3.852327e+001  -2.552767e+001 
3865625000  -3.928792e+001  -3.082505e+001 
3868750000  -3.867896e+001  -3.212769e+001 
3871875000  -3.825185e+001  -3.886040e+001 
3875000000  -3.865663e+001  -4.686702e+001 
3878125000  -3.968065e+001  -5.224761e+001 
3881250000  -3.959294e+001  -5.147931e+001 
3884375000  -3.878412e+001  -5.834669e+001 
3887500000  -3.916729e+001  -6.354628e+001 
3890625000  -3.951498e+001  -7.039882e+001 
3893750000  -3.979715e+001  -6.915717e+001 
3896875000  -3.988542e+001  -7.488908e+001 
3900000000  -4.001879e+001  -7.719039e+001 
3903125000  -3.951974e+001  -8.202473e+001 
3906250000  -3.913956e+001  -8.614520e+001 
3909375000  -3.824080e+001  -9.519466e+001 
3912500000  -3.901381e+001  -1.034555e+002 
3915625000  -4.033572e+001  -1.041975e+002 
3918750000  -3.997164e+001  -1.048292e+002 
3921875000  -3.943381e+001  -1.088935e+002 
3925000000  -3.877703e+001  -1.150632e+002 
3928125000  -3.827514e+001  -1.245419e+002 
3931250000  -3.882095e+001  -1.319146e+002 
3934375000  -3.939737e+001  -1.333728e+002 
3937500000  -3.983290e+001  -1.356464e+002 
3940625000  -3.978337e+001  -1.371525e+002 
3943750000  -3.873019e+001  -1.385219e+002 
3946875000  -3.826530e+001  -1.473568e+002 
3950000000  -3.943624e+001  -1.572413e+002 
3953125000  -4.008195e+001  -1.563971e+002 
3956250000  -3.875336e+001  -1.569201e+002 
3959375000  -3.784764e+001  -1.632986e+002 
3962500000  -3.777372e+001  -1.725371e+002 
3965625000  -3.767915e+001  1.788039e+002 
3968750000  -3.835555e+001  1.711075e+002 
3971875000  -3.847894e+001  1.646980e+002 
3975000000  -3.841071e+001  1.618622e+002 
3978125000  -3.853529e+001  1.580986e+002 
3981250000  -3.849799e+001  1.523409e+002 
3984375000  -3.872202e+001  1.439027e+002 
3987500000  -3.941726e+001  1.393075e+002 
3990625000  -3.988054e+001  1.386304e+002 
3993750000  -3.998443e+001  1.331966e+002 
3996875000  -4.013544e+001  1.294000e+002 
4000000000  -4.027030e+001  1.239643e+002 
4003125000  -4.112729e+001  1.268783e+002 
4006250000  -3.959311e+001  1.257154e+002 
4009375000  -3.836466e+001  1.102193e+002 
4012500000  -3.977712e+001  1.014873e+002 
4015625000  -4.139847e+001  1.004337e+002 
4018750000  -4.138139e+001  1.026292e+002 
4021875000  -4.058204e+001  1.005309e+002 
4025000000  -4.034879e+001  9.450743e+001 
4028125000  -4.015411e+001  8.823200e+001 
4031250000  -4.100542e+001  8.016286e+001 
4034375000  -4.172571e+001  8.063730e+001 
4037500000  -4.125798e+001  8.268336e+001 
4040625000  -4.071634e+001  7.622256e+001 
4043750000  -4.095930e+001  7.384473e+001 
4046875000  -4.034666e+001  7.227515e+001 
4050000000  -4.042450e+001  6.654360e+001 
4053125000  -4.129086e+001  6.351162e+001 
4056250000  -4.140936e+001  6.480190e+001 
4059375000  -3.946320e+001  6.523148e+001 
4062500000  -3.865440e+001  5.783985e+001 
4065625000  -3.859547e+001  5.287518e+001 
4068750000  -3.822718e+001  4.387577e+001 
4071875000  -3.781346e+001  3.718541e+001 
4075000000  -3.812056e+001  2.892611e+001 
4078125000  -3.848265e+001  2.422720e+001 
4081250000  -3.785085e+001  1.975494e+001 
4084375000  -3.790077e+001  1.000043e+001 
4087500000  -3.829013e+001  2.213447e+000 
4090625000  -3.894463e+001  1.245014e+000 
4093750000  -3.840473e+001  -1.716197e+000 
4096875000  -3.842250e+001  -1.003725e+001 
4100000000  -3.927011e+001  -1.821563e+001 
4103125000  -4.034148e+001  -1.732697e+001 
4106250000  -3.977056e+001  -1.372828e+001 
4109375000  -3.881106e+001  -1.596942e+001 
4112500000  -3.842601e+001  -2.707863e+001 
4115625000  -3.882154e+001  -3.391717e+001 
4118750000  -3.887741e+001  -3.888474e+001 
4121875000  -3.875916e+001  -4.566081e+001 
4125000000  -3.976036e+001  -5.003192e+001 
4128125000  -4.071019e+001  -4.926690e+001 
4131250000  -3.963976e+001  -4.463259e+001 
4134375000  -3.710548e+001  -5.264880e+001 
4137500000  -3.761494e+001  -7.416127e+001 
4140625000  -3.965698e+001  -8.013326e+001 
4143750000  -4.096099e+001  -7.419588e+001 
4146875000  -4.044469e+001  -7.090911e+001 
4150000000  -3.942242e+001  -7.744916e+001 
4153125000  -3.960571e+001  -8.684567e+001 
4156250000  -4.073727e+001  -9.145780e+001 
4159375000  -4.079661e+001  -8.639634e+001 
4162500000  -3.976437e+001  -8.485309e+001 
4165625000  -3.850813e+001  -9.030528e+001 
4168750000  -3.784958e+001  -1.025453e+002 
4171875000  -3.824670e+001  -1.110828e+002 
4175000000  -3.883226e+001  -1.180711e+002 
4178125000  -3.902380e+001  -1.183381e+002 
4181250000  -3.909153e+001  -1.215601e+002 
4184375000  -3.915170e+001  -1.266966e+002 
4187500000  -3.900670e+001  -1.319033e+002 
4190625000  -3.874132e+001  -1.400738e+002 
4193750000  -4.004257e+001  -1.434982e+002 
4196875000  -4.089532e+001  -1.443654e+002 
4200000000  -4.186178e+001  -1.400689e+002 
4203125000  -4.076965e+001  -1.281091e+002 
4206250000  -3.718826e+001  -1.355669e+002 
4209375000  -3.691220e+001  -1.584557e+002 
4212500000  -3.915002e+001  -1.654513e+002 
4215625000  -3.965824e+001  -1.595387e+002 
4218750000  -3.789223e+001  -1.568911e+002 
4221875000  -3.618792e+001  -1.678785e+002 
4225000000  -3.736864e+001  1.788187e+002 
4228125000  -3.718064e+001  -1.787870e+002 
4231250000  -3.591043e+001  1.748633e+002 
4234375000  -3.580926e+001  1.630814e+002 
4237500000  -3.561827e+001  1.575052e+002 
4240625000  -3.583904e+001  1.466284e+002 
4243750000  -3.709519e+001  1.386176e+002 
4246875000  -3.775989e+001  1.366539e+002 
4250000000  -3.754945e+001  1.367824e+002 
4253125000  -3.730381e+001  1.341474e+002 
4256250000  -3.741280e+001  1.295665e+002 
4259375000  -3.694617e+001  1.237839e+002 
4262500000  -3.714764e+001  1.177743e+002 
4265625000  -3.751540e+001  1.158934e+002 
4268750000  -3.639158e+001  1.112099e+002 
4271875000  -3.620275e+001  1.014072e+002 
4275000000  -3.584004e+001  9.166901e+001 
4278125000  -3.706504e+001  7.768682e+001 
4281250000  -3.852665e+001  7.547418e+001 
4284375000  -3.826892e+001  7.459460e+001 
4287500000  -3.955093e+001  7.049703e+001 
4290625000  -4.028496e+001  8.085831e+001 
4293750000  -3.839773e+001  8.032191e+001 
4296875000  -3.726094e+001  6.917863e+001 
4300000000  -3.856655e+001  5.713724e+001 
4303125000  -3.899095e+001  6.134640e+001 
4306250000  -3.822223e+001  6.294214e+001 
4309375000  -3.696398e+001  5.857713e+001 
4312500000  -3.726540e+001  4.731830e+001 
4315625000  -3.743416e+001  3.799131e+001 
4318750000  -3.812588e+001  3.410538e+001 
4321875000  -3.824249e+001  3.545830e+001 
4325000000  -3.742308e+001  3.361254e+001 
4328125000  -3.661299e+001  2.426848e+001 
4331250000  -3.710248e+001  1.385157e+001 
4334375000  -3.792414e+001  8.215098e+000 
4337500000  -3.868020e+001  6.045403e+000 
4340625000  -3.912824e+001  9.903035e+000 
4343750000  -3.787891e+001  8.604712e+000 
4346875000  -3.781691e+001  1.636722e+000 
4350000000  -3.788970e+001  -6.797544e+000 
4353125000  -3.812274e+001  -1.648779e+001 
4356250000  -3.995857e+001  -1.751181e+001 
4359375000  -3.975002e+001  -2.494494e+000 
4362500000  -3.631006e+001  -7.868474e+000 
4365625000  -3.560295e+001  -2.397287e+001 
4368750000  -3.655542e+001  -3.448518e+001 
4371875000  -3.767057e+001  -3.355887e+001 
4375000000  -3.687187e+001  -3.871591e+001 
4378125000  -3.625343e+001  -4.445753e+001 
4381250000  -3.661236e+001  -5.369828e+001 
4384375000  -3.656972e+001  -6.035039e+001 
4387500000  -3.735535e+001  -6.582270e+001 
4390625000  -3.783639e+001  -6.635129e+001 
4393750000  -3.766436e+001  -6.748676e+001 
4396875000  -3.661234e+001  -7.131167e+001 
4400000000  -3.620528e+001  -7.999262e+001 
4403125000  -3.687250e+001  -9.118760e+001 
4406250000  -3.777353e+001  -9.411630e+001 
4409375000  -3.793591e+001  -9.800415e+001 
4412500000  -3.902651e+001  -1.022916e+002 
4415625000  -3.884966e+001  -9.684982e+001 
