!Agilent Technologies,E8363B,MY43030201,A.06.04.32
!Agilent E8363B: A.06.04.32
!Date: Tuesday, November 11, 2014 21:33:21
!Correction: S21(Response(S21)) 
!S1P File: Measurement: S21:
# Hz S  dB   R 50
3000000000  -4.070189e+001  7.388943e+001 
3003125000  -4.214970e+001  6.599133e+001 
3006250000  -4.228463e+001  6.588347e+001 
3009375000  -4.286708e+001  7.122977e+001 
3012500000  -4.153520e+001  6.539941e+001 
3015625000  -4.136836e+001  5.849298e+001 
3018750000  -4.176274e+001  6.042709e+001 
3021875000  -4.021553e+001  6.005517e+001 
3025000000  -3.886863e+001  5.683963e+001 
3028125000  -3.790987e+001  4.580319e+001 
3031250000  -3.696224e+001  3.461484e+001 
3034375000  -3.671685e+001  2.078447e+001 
3037500000  -3.763298e+001  9.078402e+000 
3040625000  -3.873636e+001  4.127888e+000 
3043750000  -3.923732e+001  -2.530363e+000 
3046875000  -3.985559e+001  -9.039224e+000 
3050000000  -4.086123e+001  -1.370814e+001 
3053125000  -4.045885e+001  -7.907949e+000 
3056250000  -4.048237e+001  -4.876574e+000 
3059375000  -3.964023e+001  -6.542848e+000 
3062500000  -3.829499e+001  -1.132669e+001 
3065625000  -3.787450e+001  -2.112946e+001 
3068750000  -3.744571e+001  -2.903856e+001 
3071875000  -3.758990e+001  -3.144573e+001 
3075000000  -3.695360e+001  -3.888491e+001 
3078125000  -3.711156e+001  -4.488313e+001 
3081250000  -3.713893e+001  -5.050112e+001 
3084375000  -3.624623e+001  -5.462194e+001 
3087500000  -3.646316e+001  -6.163445e+001 
3090625000  -3.593992e+001  -7.406793e+001 
3093750000  -3.691605e+001  -8.181612e+001 
3096875000  -3.736148e+001  -8.739311e+001 
3100000000  -3.723825e+001  -8.995426e+001 
3103125000  -3.753790e+001  -9.433036e+001 
3106250000  -3.722280e+001  -9.878611e+001 
3109375000  -3.736071e+001  -1.035777e+002 
3112500000  -3.719958e+001  -1.090827e+002 
3115625000  -3.708886e+001  -1.129299e+002 
3118750000  -3.719271e+001  -1.158983e+002 
3121875000  -3.657468e+001  -1.270188e+002 
3125000000  -3.853351e+001  -1.311891e+002 
3128125000  -3.864268e+001  -1.221602e+002 
3131250000  -3.602681e+001  -1.290012e+002 
3134375000  -3.545947e+001  -1.462902e+002 
3137500000  -3.609137e+001  -1.581872e+002 
3140625000  -3.730289e+001  -1.614075e+002 
3143750000  -3.813671e+001  -1.641017e+002 
3146875000  -3.763277e+001  -1.621189e+002 
3150000000  -3.687695e+001  -1.658481e+002 
3153125000  -3.720047e+001  -1.743948e+002 
3156250000  -3.791706e+001  -1.698901e+002 
3159375000  -3.565932e+001  -1.717092e+002 
3162500000  -3.422658e+001  1.737179e+002 
3165625000  -3.554987e+001  1.604406e+002 
3168750000  -3.543980e+001  1.588298e+002 
3171875000  -3.500140e+001  1.513136e+002 
3175000000  -3.546294e+001  1.429653e+002 
3178125000  -3.495420e+001  1.410566e+002 
3181250000  -3.438373e+001  1.324798e+002 
3184375000  -3.416679e+001  1.211157e+002 
3187500000  -3.555797e+001  1.067705e+002 
3190625000  -3.729031e+001  1.015354e+002 
3193750000  -3.742860e+001  1.064281e+002 
3196875000  -3.730941e+001  1.069241e+002 
3200000000  -3.619074e+001  1.016824e+002 
3203125000  -3.597008e+001  9.282821e+001 
3206250000  -3.610904e+001  8.534291e+001 
3209375000  -3.576373e+001  7.778137e+001 
3212500000  -3.628006e+001  7.066578e+001 
3215625000  -3.596608e+001  6.727820e+001 
3218750000  -3.686957e+001  5.683964e+001 
3221875000  -3.736492e+001  5.071813e+001 
3225000000  -3.707311e+001  4.711537e+001 
3228125000  -3.765991e+001  3.987245e+001 
3231250000  -3.822616e+001  3.709429e+001 
3234375000  -3.787815e+001  3.416433e+001 
3237500000  -3.807438e+001  3.030657e+001 
3240625000  -3.765988e+001  2.548143e+001 
3243750000  -3.765297e+001  1.413458e+001 
3246875000  -3.813803e+001  7.024946e+000 
3250000000  -3.878141e+001  3.097024e+000 
3253125000  -3.926854e+001  9.496115e-001 
3256250000  -3.856699e+001  -5.984423e+000 
3259375000  -3.909174e+001  -1.938381e+001 
3262500000  -4.055167e+001  -2.197601e+001 
3265625000  -4.109599e+001  -2.043704e+001 
3268750000  -4.132653e+001  -1.825337e+001 
3271875000  -4.042484e+001  -2.385525e+001 
3275000000  -4.023545e+001  -3.027270e+001 
3278125000  -4.102204e+001  -3.544148e+001 
3281250000  -4.103753e+001  -3.765208e+001 
3284375000  -4.061602e+001  -4.384772e+001 
3287500000  -4.080978e+001  -4.781128e+001 
3290625000  -4.130518e+001  -5.520049e+001 
3293750000  -4.125494e+001  -6.062160e+001 
3296875000  -4.229550e+001  -6.253986e+001 
3300000000  -4.180775e+001  -6.101734e+001 
3303125000  -4.084779e+001  -6.826264e+001 
3306250000  -4.062551e+001  -7.509383e+001 
3309375000  -4.049800e+001  -8.323167e+001 
3312500000  -4.115656e+001  -9.542641e+001 
3315625000  -4.230983e+001  -1.024356e+002 
3318750000  -4.360078e+001  -1.051121e+002 
3321875000  -4.466642e+001  -1.038525e+002 
3325000000  -4.485409e+001  -9.537667e+001 
3328125000  -4.378130e+001  -9.780590e+001 
3331250000  -4.213974e+001  -9.358781e+001 
3334375000  -3.977745e+001  -1.089649e+002 
3337500000  -4.021288e+001  -1.279138e+002 
3340625000  -4.229619e+001  -1.388576e+002 
3343750000  -4.388427e+001  -1.382919e+002 
3346875000  -4.322513e+001  -1.374668e+002 
3350000000  -4.309150e+001  -1.405643e+002 
3353125000  -4.285183e+001  -1.490369e+002 
3356250000  -4.237737e+001  -1.574832e+002 
3359375000  -4.322213e+001  -1.671264e+002 
3362500000  -4.422460e+001  -1.741962e+002 
3365625000  -4.479857e+001  -1.758533e+002 
3368750000  -4.539674e+001  1.769394e+002 
3371875000  -4.591373e+001  1.768149e+002 
3375000000  -4.734056e+001  1.705405e+002 
3378125000  -4.818529e+001  1.687854e+002 
3381250000  -5.024894e+001  -1.752491e+002 
3384375000  -4.651271e+001  -1.664965e+002 
3387500000  -4.371199e+001  1.758219e+002 
3390625000  -4.596500e+001  1.544329e+002 
3393750000  -4.735329e+001  1.541435e+002 
3396875000  -4.584584e+001  1.494813e+002 
3400000000  -4.625021e+001  1.427055e+002 
3403125000  -4.697806e+001  1.362691e+002 
3406250000  -4.780525e+001  1.318739e+002 
3409375000  -4.796033e+001  1.249157e+002 
3412500000  -4.941515e+001  1.196039e+002 
3415625000  -4.983302e+001  1.200075e+002 
3418750000  -5.061337e+001  1.175395e+002 
3421875000  -5.063695e+001  1.231130e+002 
3425000000  -4.986871e+001  1.207428e+002 
3428125000  -5.032338e+001  1.154056e+002 
3431250000  -5.011702e+001  1.063644e+002 
3434375000  -5.073014e+001  1.019664e+002 
3437500000  -5.146944e+001  1.049050e+002 
3440625000  -5.192579e+001  1.044324e+002 
3443750000  -5.052865e+001  1.087853e+002 
3446875000  -5.081117e+001  1.012242e+002 
3450000000  -4.965874e+001  9.451698e+001 
3453125000  -5.082063e+001  8.410175e+001 
3456250000  -5.193454e+001  8.262974e+001 
3459375000  -5.370719e+001  8.423930e+001 
3462500000  -5.146124e+001  9.153524e+001 
3465625000  -5.122897e+001  8.094290e+001 
3468750000  -5.191135e+001  8.130377e+001 
3471875000  -5.229933e+001  8.019196e+001 
3475000000  -5.107540e+001  7.035490e+001 
3478125000  -5.080045e+001  6.268781e+001 
3481250000  -5.243242e+001  6.621405e+001 
3484375000  -5.234492e+001  7.012290e+001 
3487500000  -5.110824e+001  6.400623e+001 
3490625000  -5.073985e+001  5.416871e+001 
3493750000  -5.163780e+001  4.912488e+001 
3496875000  -5.091938e+001  4.554756e+001 
3500000000  -5.175239e+001  5.485217e+001 
3503125000  -5.049904e+001  5.044972e+001 
3506250000  -4.955903e+001  4.151716e+001 
3509375000  -4.948716e+001  2.544939e+001 
3512500000  -4.982395e+001  1.871208e+001 
3515625000  -5.138693e+001  1.081088e+001 
3518750000  -5.188902e+001  1.401506e+001 
3521875000  -5.253463e+001  5.978523e-001 
3525000000  -5.294363e+001  -3.668786e+000 
3528125000  -5.296469e+001  4.493132e+000 
3531250000  -5.281794e+001  7.787750e+000 
3534375000  -5.251806e+001  -1.308150e+001 
3537500000  -5.378322e+001  -1.784190e+001 
3540625000  -5.636602e+001  -2.426326e+001 
3543750000  -5.473234e+001  -1.371218e+001 
3546875000  -5.562837e+001  -1.573410e+001 
3550000000  -5.333321e+001  -1.424165e+001 
3553125000  -5.432426e+001  -2.973519e+001 
3556250000  -5.525341e+001  -3.069897e+001 
3559375000  -5.629559e+001  -3.195954e+001 
3562500000  -5.658485e+001  -4.427701e+001 
3565625000  -5.613490e+001  -3.954948e+001 
3568750000  -5.749595e+001  -4.173899e+001 
3571875000  -5.826828e+001  -3.822395e+001 
3575000000  -5.941528e+001  -4.455893e+001 
3578125000  -5.872126e+001  -4.166978e+001 
3581250000  -5.823524e+001  -3.852845e+001 
3584375000  -5.719205e+001  -4.331034e+001 
3587500000  -5.801928e+001  -5.743602e+001 
3590625000  -5.726852e+001  -6.177182e+001 
3593750000  -5.954980e+001  -3.492464e+001 
3596875000  -5.771503e+001  -3.929242e+001 
3600000000  -5.820914e+001  -3.614955e+001 
3603125000  -6.171859e+001  -5.240483e+001 
3606250000  -5.792459e+001  -4.707915e+001 
3609375000  -5.867720e+001  -5.237566e+001 
3612500000  -5.898370e+001  -5.592110e+001 
3615625000  -5.783273e+001  -5.904203e+001 
3618750000  -5.763355e+001  -3.870591e+001 
3621875000  -5.682016e+001  -4.047123e+001 
3625000000  -5.695788e+001  -3.423940e+001 
3628125000  -5.744032e+001  -3.543336e+001 
3631250000  -5.703704e+001  -4.350414e+001 
3634375000  -5.610643e+001  -3.752812e+001 
3637500000  -5.476432e+001  -4.376871e+001 
3640625000  -5.453114e+001  -3.759106e+001 
3643750000  -5.310745e+001  -4.571382e+001 
3646875000  -5.232695e+001  -5.967775e+001 
3650000000  -5.401964e+001  -5.623367e+001 
3653125000  -5.155184e+001  -5.555675e+001 
3656250000  -5.171710e+001  -6.064107e+001 
3659375000  -5.116226e+001  -6.407864e+001 
3662500000  -5.038958e+001  -6.944230e+001 
3665625000  -4.922606e+001  -7.223109e+001 
3668750000  -4.786474e+001  -6.706551e+001 
3671875000  -4.718892e+001  -8.601795e+001 
3675000000  -4.744350e+001  -8.961925e+001 
3678125000  -4.742489e+001  -9.416236e+001 
3681250000  -4.647266e+001  -9.715424e+001 
3684375000  -4.680000e+001  -1.050851e+002 
3687500000  -4.675471e+001  -1.124783e+002 
3690625000  -4.662500e+001  -1.140482e+002 
3693750000  -4.738383e+001  -1.175319e+002 
3696875000  -4.635166e+001  -1.182589e+002 
3700000000  -4.540813e+001  -1.223280e+002 
3703125000  -4.518939e+001  -1.271695e+002 
3706250000  -4.585920e+001  -1.319927e+002 
3709375000  -4.473270e+001  -1.298534e+002 
3712500000  -4.327282e+001  -1.347159e+002 
3715625000  -4.187777e+001  -1.459763e+002 
3718750000  -4.163508e+001  -1.533999e+002 
3721875000  -4.119130e+001  -1.629243e+002 
3725000000  -4.165589e+001  -1.672888e+002 
3728125000  -4.125091e+001  -1.717142e+002 
3731250000  -4.062659e+001  -1.772460e+002 
3734375000  -4.026451e+001  1.759700e+002 
3737500000  -4.087373e+001  1.650718e+002 
3740625000  -4.099472e+001  1.604900e+002 
3743750000  -4.045911e+001  1.531913e+002 
3746875000  -4.083916e+001  1.475269e+002 
3750000000  -4.078159e+001  1.421860e+002 
3753125000  -4.068940e+001  1.385895e+002 
3756250000  -4.087335e+001  1.355844e+002 
3759375000  -4.030767e+001  1.305274e+002 
3762500000  -4.035248e+001  1.245514e+002 
3765625000  -4.072579e+001  1.191444e+002 
3768750000  -4.014713e+001  1.188175e+002 
3771875000  -3.832394e+001  1.141188e+002 
3775000000  -3.847946e+001  1.013291e+002 
3778125000  -3.902311e+001  9.413500e+001 
3781250000  -3.899906e+001  8.995221e+001 
3784375000  -3.884961e+001  8.459797e+001 
3787500000  -3.844794e+001  7.750727e+001 
3790625000  -3.924865e+001  6.874458e+001 
3793750000  -3.910134e+001  6.509589e+001 
3796875000  -3.839404e+001  6.245117e+001 
3800000000  -3.647345e+001  5.658485e+001 
3803125000  -3.808435e+001  4.427903e+001 
3806250000  -3.912362e+001  4.065700e+001 
3809375000  -3.846778e+001  3.561882e+001 
3812500000  -3.823213e+001  2.580732e+001 
3815625000  -3.959534e+001  1.740085e+001 
3818750000  -4.063111e+001  1.778674e+001 
3821875000  -4.022082e+001  2.785854e+001 
3825000000  -3.826838e+001  2.336517e+001 
3828125000  -3.703554e+001  4.654672e+000 
3831250000  -3.810038e+001  -9.453846e+000 
3834375000  -4.046572e+001  -9.094620e+000 
3837500000  -4.058131e+001  -7.508114e+000 
3840625000  -3.922541e+001  -8.895080e+000 
3843750000  -3.820824e+001  -2.462687e+001 
3846875000  -3.991725e+001  -3.092085e+001 
3850000000  -4.073460e+001  -2.440406e+001 
3853125000  -3.984213e+001  -2.375461e+001 
3856250000  -3.932143e+001  -3.062992e+001 
3859375000  -3.857988e+001  -3.914693e+001 
3862500000  -3.857426e+001  -4.781290e+001 
3865625000  -3.896254e+001  -5.459203e+001 
3868750000  -3.846675e+001  -5.615785e+001 
3871875000  -3.796758e+001  -6.374726e+001 
3875000000  -3.854661e+001  -7.227000e+001 
3878125000  -3.948184e+001  -7.516118e+001 
3881250000  -3.929045e+001  -7.560182e+001 
3884375000  -3.866995e+001  -8.262123e+001 
3887500000  -3.916037e+001  -8.906963e+001 
3890625000  -3.923230e+001  -9.315077e+001 
3893750000  -3.978670e+001  -9.554224e+001 
3896875000  -4.022634e+001  -9.849738e+001 
3900000000  -3.951255e+001  -1.017229e+002 
3903125000  -3.937906e+001  -1.069450e+002 
3906250000  -3.890567e+001  -1.103980e+002 
3909375000  -3.823423e+001  -1.197077e+002 
3912500000  -3.903791e+001  -1.284582e+002 
3915625000  -4.026546e+001  -1.293877e+002 
3918750000  -4.011914e+001  -1.293148e+002 
3921875000  -3.935642e+001  -1.338819e+002 
3925000000  -3.853215e+001  -1.383361e+002 
3928125000  -3.829562e+001  -1.490752e+002 
3931250000  -3.908436e+001  -1.548140e+002 
3934375000  -3.963420e+001  -1.560509e+002 
3937500000  -3.996864e+001  -1.583506e+002 
3940625000  -3.985021e+001  -1.593972e+002 
3943750000  -3.905354e+001  -1.630652e+002 
3946875000  -3.844500e+001  -1.729159e+002 
3950000000  -3.985118e+001  1.796124e+002 
3953125000  -4.020544e+001  1.783594e+002 
3956250000  -3.884602e+001  1.798615e+002 
3959375000  -3.773692e+001  1.720207e+002 
3962500000  -3.788160e+001  1.637651e+002 
3965625000  -3.777229e+001  1.548484e+002 
3968750000  -3.860019e+001  1.476941e+002 
3971875000  -3.864749e+001  1.429495e+002 
3975000000  -3.822778e+001  1.384489e+002 
3978125000  -3.857267e+001  1.338660e+002 
3981250000  -3.846358e+001  1.268743e+002 
3984375000  -3.915480e+001  1.199943e+002 
3987500000  -3.977920e+001  1.171405e+002 
3990625000  -4.011015e+001  1.144257e+002 
3993750000  -3.992531e+001  1.097554e+002 
3996875000  -3.994558e+001  1.059642e+002 
4000000000  -4.070528e+001  9.927182e+001 
4003125000  -4.120156e+001  1.034549e+002 
4006250000  -3.922577e+001  9.887276e+001 
4009375000  -3.868159e+001  8.637746e+001 
4012500000  -4.034481e+001  7.797910e+001 
4015625000  -4.126320e+001  7.717062e+001 
4018750000  -4.164841e+001  7.814729e+001 
4021875000  -4.074162e+001  7.484011e+001 
4025000000  -4.048816e+001  6.879205e+001 
4028125000  -4.037391e+001  6.127981e+001 
4031250000  -4.130326e+001  5.942131e+001 
4034375000  -4.120098e+001  5.697738e+001 
4037500000  -4.106208e+001  5.813288e+001 
4040625000  -4.122723e+001  5.265859e+001 
4043750000  -4.113773e+001  5.011826e+001 
4046875000  -4.088930e+001  4.473651e+001 
4050000000  -4.076609e+001  4.241895e+001 
4053125000  -4.122445e+001  3.951408e+001 
4056250000  -4.141286e+001  4.227328e+001 
4059375000  -3.933599e+001  3.815629e+001 
4062500000  -3.876855e+001  3.217116e+001 
4065625000  -3.884183e+001  2.653217e+001 
4068750000  -3.833187e+001  1.860182e+001 
4071875000  -3.808258e+001  7.513363e+000 
4075000000  -3.844405e+001  2.432729e+000 
4078125000  -3.852882e+001  -1.377815e+000 
4081250000  -3.815008e+001  -6.272294e+000 
4084375000  -3.810054e+001  -1.544065e+001 
4087500000  -3.867973e+001  -2.300879e+001 
4090625000  -3.926730e+001  -2.374342e+001 
4093750000  -3.873261e+001  -2.667133e+001 
4096875000  -3.863324e+001  -3.660739e+001 
4100000000  -3.980151e+001  -4.338738e+001 
4103125000  -4.064418e+001  -4.140716e+001 
4106250000  -4.022034e+001  -3.882878e+001 
4109375000  -3.937870e+001  -4.225936e+001 
4112500000  -3.869728e+001  -5.278380e+001 
4115625000  -3.939673e+001  -5.789201e+001 
4118750000  -3.911404e+001  -6.272153e+001 
4121875000  -3.890282e+001  -7.092017e+001 
4125000000  -3.972665e+001  -7.569592e+001 
4128125000  -4.083833e+001  -7.402576e+001 
4131250000  -3.996307e+001  -6.929871e+001 
4134375000  -3.751357e+001  -7.955658e+001 
4137500000  -3.795453e+001  -9.973792e+001 
4140625000  -4.048481e+001  -1.060180e+002 
4143750000  -4.128040e+001  -9.984286e+001 
4146875000  -4.039974e+001  -9.805485e+001 
4150000000  -3.979940e+001  -1.040077e+002 
4153125000  -3.999223e+001  -1.133677e+002 
4156250000  -4.112922e+001  -1.164737e+002 
4159375000  -4.107147e+001  -1.102458e+002 
4162500000  -4.008615e+001  -1.080526e+002 
4165625000  -3.866598e+001  -1.154235e+002 
4168750000  -3.848322e+001  -1.265384e+002 
4171875000  -3.855762e+001  -1.374199e+002 
4175000000  -3.930457e+001  -1.421904e+002 
4178125000  -3.953950e+001  -1.436970e+002 
4181250000  -3.936792e+001  -1.469842e+002 
4184375000  -3.960151e+001  -1.527327e+002 
4187500000  -3.945322e+001  -1.576399e+002 
4190625000  -3.950185e+001  -1.638595e+002 
4193750000  -4.077722e+001  -1.680654e+002 
4196875000  -4.137778e+001  -1.687432e+002 
4200000000  -4.242729e+001  -1.635932e+002 
4203125000  -4.100035e+001  -1.525981e+002 
4206250000  -3.748178e+001  -1.610529e+002 
4209375000  -3.718569e+001  1.747845e+002 
4212500000  -3.951727e+001  1.678187e+002 
4215625000  -4.029787e+001  1.759361e+002 
4218750000  -3.832874e+001  1.777228e+002 
4221875000  -3.680484e+001  1.675656e+002 
4225000000  -3.777067e+001  1.559106e+002 
4228125000  -3.758457e+001  1.551041e+002 
4231250000  -3.617278e+001  1.494124e+002 
4234375000  -3.649151e+001  1.377223e+002 
4237500000  -3.623505e+001  1.330134e+002 
4240625000  -3.639714e+001  1.219906e+002 
4243750000  -3.770263e+001  1.132686e+002 
4246875000  -3.843583e+001  1.124422e+002 
4250000000  -3.820066e+001  1.126664e+002 
4253125000  -3.792802e+001  1.096526e+002 
4256250000  -3.777889e+001  1.041969e+002 
4259375000  -3.769381e+001  9.783202e+001 
4262500000  -3.815891e+001  9.247728e+001 
4265625000  -3.801976e+001  9.278760e+001 
4268750000  -3.682788e+001  8.516425e+001 
4271875000  -3.679155e+001  7.653963e+001 
4275000000  -3.672478e+001  6.728843e+001 
4278125000  -3.773767e+001  5.558527e+001 
4281250000  -3.888640e+001  5.568895e+001 
4284375000  -3.873426e+001  5.055270e+001 
4287500000  -4.009747e+001  4.841447e+001 
4290625000  -4.068607e+001  5.841737e+001 
4293750000  -3.854876e+001  5.745757e+001 
4296875000  -3.788869e+001  4.511049e+001 
4300000000  -3.926815e+001  3.332977e+001 
4303125000  -3.976135e+001  3.834487e+001 
4306250000  -3.839822e+001  4.027673e+001 
4309375000  -3.778064e+001  3.403438e+001 
4312500000  -3.769120e+001  2.401714e+001 
4315625000  -3.796722e+001  1.414020e+001 
4318750000  -3.836418e+001  1.054274e+001 
4321875000  -3.858621e+001  1.252167e+001 
4325000000  -3.794885e+001  1.096698e+001 
4328125000  -3.715711e+001  -3.021219e-001 
4331250000  -3.746381e+001  -1.038251e+001 
4334375000  -3.831174e+001  -1.776171e+001 
4337500000  -3.934223e+001  -1.737689e+001 
4340625000  -3.965027e+001  -1.363977e+001 
4343750000  -3.810925e+001  -1.612186e+001 
4346875000  -3.869305e+001  -2.586147e+001 
4350000000  -3.849695e+001  -3.343422e+001 
4353125000  -3.882742e+001  -4.179204e+001 
4356250000  -4.088057e+001  -3.608945e+001 
4359375000  -3.977376e+001  -2.017227e+001 
4362500000  -3.655631e+001  -2.993069e+001 
4365625000  -3.588956e+001  -4.806090e+001 
4368750000  -3.718396e+001  -5.806508e+001 
4371875000  -3.778017e+001  -5.770330e+001 
4375000000  -3.691607e+001  -6.385137e+001 
4378125000  -3.703334e+001  -7.003000e+001 
4381250000  -3.706230e+001  -7.863313e+001 
4384375000  -3.709320e+001  -8.421926e+001 
4387500000  -3.827942e+001  -9.098463e+001 
4390625000  -3.855254e+001  -9.143530e+001 
4393750000  -3.779178e+001  -9.202089e+001 
4396875000  -3.724416e+001  -9.524744e+001 
4400000000  -3.683995e+001  -1.053096e+002 
4403125000  -3.778775e+001  -1.144758e+002 
4406250000  -3.815876e+001  -1.185092e+002 
4409375000  -3.862144e+001  -1.213843e+002 
4412500000  -3.995717e+001  -1.248246e+002 
4415625000  -3.935723e+001  -1.196991e+002 
