!Agilent Technologies,E8363B,MY43030201,A.06.04.32
!Agilent E8363B: A.06.04.32
!Date: Tuesday, November 11, 2014 21:28:37
!Correction: S21(Response(S21)) 
!S1P File: Measurement: S21:
# Hz S  dB   R 50
3000000000  -4.045202e+001  8.990238e+001 
3003125000  -4.216685e+001  8.284000e+001 
3006250000  -4.210245e+001  8.118204e+001 
3009375000  -4.278132e+001  8.456971e+001 
3012500000  -4.175866e+001  8.051468e+001 
3015625000  -4.138235e+001  7.447631e+001 
3018750000  -4.184746e+001  7.391444e+001 
3021875000  -4.034751e+001  7.591235e+001 
3025000000  -3.896023e+001  7.106004e+001 
3028125000  -3.805168e+001  6.221058e+001 
3031250000  -3.704276e+001  5.029963e+001 
3034375000  -3.673940e+001  3.651454e+001 
3037500000  -3.755355e+001  2.591289e+001 
3040625000  -3.874064e+001  1.931653e+001 
3043750000  -3.907274e+001  1.332805e+001 
3046875000  -3.964634e+001  8.109804e+000 
3050000000  -4.102852e+001  2.431717e+000 
3053125000  -4.054541e+001  6.570560e+000 
3056250000  -4.034343e+001  1.034688e+001 
3059375000  -3.982387e+001  7.638412e+000 
3062500000  -3.826197e+001  1.950894e+000 
3065625000  -3.803404e+001  -6.522755e+000 
3068750000  -3.758423e+001  -1.384573e+001 
3071875000  -3.767757e+001  -1.648027e+001 
3075000000  -3.711535e+001  -2.303797e+001 
3078125000  -3.709869e+001  -2.891577e+001 
3081250000  -3.737871e+001  -3.484623e+001 
3084375000  -3.643539e+001  -3.963349e+001 
3087500000  -3.642548e+001  -4.600346e+001 
3090625000  -3.598344e+001  -5.855991e+001 
3093750000  -3.683067e+001  -6.675806e+001 
3096875000  -3.743451e+001  -7.221835e+001 
3100000000  -3.734505e+001  -7.488602e+001 
3103125000  -3.757354e+001  -7.828356e+001 
3106250000  -3.719833e+001  -8.387077e+001 
3109375000  -3.728690e+001  -8.734052e+001 
3112500000  -3.724222e+001  -9.325309e+001 
3115625000  -3.708323e+001  -9.746582e+001 
3118750000  -3.725428e+001  -9.966136e+001 
3121875000  -3.659905e+001  -1.116563e+002 
3125000000  -3.842838e+001  -1.160276e+002 
3128125000  -3.864888e+001  -1.086560e+002 
3131250000  -3.616755e+001  -1.128829e+002 
3134375000  -3.532090e+001  -1.299449e+002 
3137500000  -3.598046e+001  -1.442208e+002 
3140625000  -3.737518e+001  -1.458251e+002 
3143750000  -3.837917e+001  -1.487945e+002 
3146875000  -3.777958e+001  -1.457404e+002 
3150000000  -3.693711e+001  -1.495900e+002 
3153125000  -3.706428e+001  -1.590750e+002 
3156250000  -3.803001e+001  -1.536476e+002 
3159375000  -3.577443e+001  -1.549528e+002 
3162500000  -3.424280e+001  -1.709376e+002 
3165625000  -3.548970e+001  1.755026e+002 
3168750000  -3.557449e+001  1.748192e+002 
3171875000  -3.492515e+001  1.677692e+002 
3175000000  -3.549715e+001  1.576772e+002 
3178125000  -3.515622e+001  1.567941e+002 
3181250000  -3.443106e+001  1.491237e+002 
3184375000  -3.401941e+001  1.375224e+002 
3187500000  -3.540632e+001  1.228024e+002 
3190625000  -3.738786e+001  1.152476e+002 
3193750000  -3.761396e+001  1.221523e+002 
3196875000  -3.722345e+001  1.229681e+002 
3200000000  -3.643166e+001  1.167099e+002 
3203125000  -3.601449e+001  1.099857e+002 
3206250000  -3.629319e+001  1.022265e+002 
3209375000  -3.572509e+001  9.466368e+001 
3212500000  -3.621953e+001  8.700319e+001 
3215625000  -3.611219e+001  8.434681e+001 
3218750000  -3.677959e+001  7.352656e+001 
3221875000  -3.751460e+001  6.688107e+001 
3225000000  -3.715934e+001  6.319289e+001 
3228125000  -3.776398e+001  5.520663e+001 
3231250000  -3.835602e+001  5.369328e+001 
3234375000  -3.799232e+001  5.084625e+001 
3237500000  -3.811045e+001  4.615948e+001 
3240625000  -3.769923e+001  4.152938e+001 
3243750000  -3.769449e+001  3.050166e+001 
3246875000  -3.828489e+001  2.356608e+001 
3250000000  -3.886121e+001  1.929289e+001 
3253125000  -3.919320e+001  1.757692e+001 
3256250000  -3.873376e+001  8.625328e+000 
3259375000  -3.908867e+001  -1.496631e+000 
3262500000  -4.060436e+001  -5.853081e+000 
3265625000  -4.139367e+001  -3.152292e+000 
3268750000  -4.122793e+001  -3.069666e+000 
3271875000  -4.070819e+001  -4.618705e+000 
3275000000  -4.014623e+001  -1.417461e+001 
3278125000  -4.098388e+001  -1.927898e+001 
3281250000  -4.116795e+001  -2.038245e+001 
3284375000  -4.049407e+001  -2.708686e+001 
3287500000  -4.092637e+001  -2.833585e+001 
3290625000  -4.139977e+001  -3.829432e+001 
3293750000  -4.122585e+001  -4.308120e+001 
3296875000  -4.227075e+001  -4.454092e+001 
3300000000  -4.197736e+001  -4.445836e+001 
3303125000  -4.113940e+001  -5.022666e+001 
3306250000  -4.086264e+001  -5.739151e+001 
3309375000  -4.058464e+001  -6.538050e+001 
3312500000  -4.080057e+001  -7.560851e+001 
3315625000  -4.197928e+001  -8.632744e+001 
3318750000  -4.344113e+001  -8.975165e+001 
3321875000  -4.473499e+001  -8.546922e+001 
3325000000  -4.452381e+001  -7.826855e+001 
3328125000  -4.424522e+001  -8.084601e+001 
3331250000  -4.249107e+001  -7.836810e+001 
3334375000  -3.976460e+001  -9.131767e+001 
3337500000  -4.019048e+001  -1.103345e+002 
3340625000  -4.214799e+001  -1.221591e+002 
3343750000  -4.400358e+001  -1.206319e+002 
3346875000  -4.325724e+001  -1.209629e+002 
3350000000  -4.276871e+001  -1.227779e+002 
3353125000  -4.276596e+001  -1.301980e+002 
3356250000  -4.244675e+001  -1.414400e+002 
3359375000  -4.335032e+001  -1.515343e+002 
3362500000  -4.432416e+001  -1.555831e+002 
3365625000  -4.467495e+001  -1.592740e+002 
3368750000  -4.548314e+001  -1.630425e+002 
3371875000  -4.604052e+001  -1.690930e+002 
3375000000  -4.730399e+001  -1.713614e+002 
3378125000  -4.784776e+001  -1.706271e+002 
3381250000  -4.945882e+001  -1.648315e+002 
3384375000  -4.653051e+001  -1.514715e+002 
3387500000  -4.388352e+001  -1.690164e+002 
3390625000  -4.580162e+001  1.720862e+002 
3393750000  -4.700104e+001  1.716782e+002 
3396875000  -4.599642e+001  1.700527e+002 
3400000000  -4.630985e+001  1.611791e+002 
3403125000  -4.680643e+001  1.527144e+002 
3406250000  -4.754253e+001  1.503821e+002 
3409375000  -4.804190e+001  1.437353e+002 
3412500000  -4.854703e+001  1.397262e+002 
3415625000  -4.976548e+001  1.353372e+002 
3418750000  -5.000074e+001  1.375553e+002 
3421875000  -5.082576e+001  1.394365e+002 
3425000000  -5.013244e+001  1.407390e+002 
3428125000  -4.988896e+001  1.317905e+002 
3431250000  -5.007367e+001  1.307197e+002 
3434375000  -5.071064e+001  1.183408e+002 
3437500000  -5.156952e+001  1.223378e+002 
3440625000  -5.161019e+001  1.195156e+002 
3443750000  -5.013054e+001  1.250619e+002 
3446875000  -5.076708e+001  1.190948e+002 
3450000000  -5.016692e+001  1.177037e+002 
3453125000  -5.086263e+001  1.014958e+002 
3456250000  -5.140953e+001  1.036390e+002 
3459375000  -5.264573e+001  1.048178e+002 
3462500000  -5.247521e+001  1.042557e+002 
3465625000  -5.135294e+001  1.015873e+002 
3468750000  -5.243626e+001  1.006618e+002 
3471875000  -5.175943e+001  9.397546e+001 
3475000000  -5.008392e+001  8.997849e+001 
3478125000  -5.085590e+001  8.816018e+001 
3481250000  -5.319731e+001  7.886376e+001 
3484375000  -5.191690e+001  8.516486e+001 
3487500000  -5.167267e+001  7.827769e+001 
3490625000  -5.081607e+001  7.448512e+001 
3493750000  -5.061804e+001  7.177901e+001 
3496875000  -5.144056e+001  6.683578e+001 
3500000000  -5.159081e+001  6.704379e+001 
3503125000  -5.050213e+001  6.615453e+001 
3506250000  -4.938454e+001  5.854984e+001 
3509375000  -4.946121e+001  4.464111e+001 
3512500000  -4.955125e+001  3.307201e+001 
3515625000  -5.158485e+001  2.689400e+001 
3518750000  -5.232964e+001  2.694109e+001 
3521875000  -5.153050e+001  2.155550e+001 
3525000000  -5.220208e+001  2.037671e+001 
3528125000  -5.304338e+001  2.373100e+001 
3531250000  -5.175266e+001  1.799327e+001 
3534375000  -5.156852e+001  1.382695e+000 
3537500000  -5.296875e+001  -7.489683e+000 
3540625000  -5.478272e+001  -7.229098e+000 
3543750000  -5.471963e+001  -8.967464e+000 
3546875000  -5.511856e+001  7.066383e+000 
3550000000  -5.256855e+001  6.898618e-001 
3553125000  -5.301626e+001  -1.425685e+001 
3556250000  -5.528423e+001  -1.647076e+001 
3559375000  -5.619522e+001  -2.234862e+001 
3562500000  -5.400690e+001  -2.237446e+001 
3565625000  -5.566323e+001  -3.957381e+001 
3568750000  -5.649443e+001  -1.672975e+001 
3571875000  -5.737190e+001  -2.667995e+001 
3575000000  -5.697889e+001  -2.354672e+001 
3578125000  -5.726545e+001  -3.069760e+001 
3581250000  -5.704953e+001  -2.994372e+001 
3584375000  -5.732355e+001  -2.470711e+001 
3587500000  -5.760031e+001  -2.846670e+001 
3590625000  -5.578693e+001  -4.040644e+001 
3593750000  -6.040356e+001  -4.000042e+001 
3596875000  -6.037798e+001  -2.092188e+001 
3600000000  -5.726410e+001  -2.866521e+001 
3603125000  -5.832402e+001  -5.242121e+001 
3606250000  -5.810607e+001  -4.291986e+001 
3609375000  -5.787288e+001  -4.081351e+001 
3612500000  -5.936837e+001  -3.453069e+001 
3615625000  -6.039376e+001  -4.865731e+001 
3618750000  -5.984733e+001  -3.415428e+001 
3621875000  -5.819444e+001  -2.826252e+001 
3625000000  -5.829648e+001  -3.125187e+001 
3628125000  -5.626585e+001  -2.344686e+001 
3631250000  -5.726245e+001  -3.953958e+001 
3634375000  -5.764969e+001  -3.552315e+001 
3637500000  -5.535377e+001  -2.214082e+001 
3640625000  -5.559286e+001  -2.433882e+001 
3643750000  -5.342219e+001  -3.317889e+001 
3646875000  -5.412805e+001  -3.773193e+001 
3650000000  -5.298233e+001  -3.975254e+001 
3653125000  -5.321127e+001  -3.819067e+001 
3656250000  -5.183973e+001  -4.272391e+001 
3659375000  -5.215872e+001  -4.328984e+001 
3662500000  -5.078567e+001  -5.278102e+001 
3665625000  -5.074954e+001  -5.392033e+001 
3668750000  -4.877807e+001  -5.457840e+001 
3671875000  -4.787821e+001  -6.616086e+001 
3675000000  -4.701414e+001  -7.508315e+001 
3678125000  -4.738856e+001  -7.739214e+001 
3681250000  -4.661718e+001  -8.155734e+001 
3684375000  -4.656764e+001  -8.680791e+001 
3687500000  -4.667793e+001  -9.320138e+001 
3690625000  -4.685645e+001  -9.739461e+001 
3693750000  -4.705090e+001  -1.012619e+002 
3696875000  -4.674422e+001  -9.975215e+001 
3700000000  -4.540929e+001  -1.071762e+002 
3703125000  -4.555223e+001  -1.129086e+002 
3706250000  -4.645027e+001  -1.146951e+002 
3709375000  -4.483250e+001  -1.112074e+002 
3712500000  -4.384890e+001  -1.194998e+002 
3715625000  -4.224705e+001  -1.262971e+002 
3718750000  -4.206861e+001  -1.343725e+002 
3721875000  -4.144225e+001  -1.422533e+002 
3725000000  -4.171969e+001  -1.488100e+002 
3728125000  -4.150975e+001  -1.526054e+002 
3731250000  -4.094299e+001  -1.585105e+002 
3734375000  -4.001640e+001  -1.657809e+002 
3737500000  -4.090129e+001  -1.759937e+002 
3740625000  -4.098946e+001  -1.790799e+002 
3743750000  -4.088372e+001  1.723161e+002 
3746875000  -4.057722e+001  1.651922e+002 
3750000000  -4.109858e+001  1.618372e+002 
3753125000  -4.065818e+001  1.581521e+002 
3756250000  -4.071988e+001  1.536430e+002 
3759375000  -4.038923e+001  1.494057e+002 
3762500000  -3.997345e+001  1.423073e+002 
3765625000  -4.070352e+001  1.380335e+002 
3768750000  -4.020604e+001  1.367395e+002 
3771875000  -3.854544e+001  1.296964e+002 
3775000000  -3.859464e+001  1.199908e+002 
3778125000  -3.916388e+001  1.139123e+002 
3781250000  -3.907850e+001  1.088807e+002 
3784375000  -3.883257e+001  1.035563e+002 
3787500000  -3.845091e+001  9.741206e+001 
3790625000  -3.919188e+001  8.726131e+001 
3793750000  -3.933428e+001  8.482874e+001 
3796875000  -3.822023e+001  8.110910e+001 
3800000000  -3.649681e+001  7.664964e+001 
3803125000  -3.829778e+001  6.349353e+001 
3806250000  -3.894928e+001  5.867465e+001 
3809375000  -3.874143e+001  5.397154e+001 
3812500000  -3.848616e+001  4.526547e+001 
3815625000  -3.956798e+001  3.608918e+001 
3818750000  -4.061750e+001  3.634917e+001 
3821875000  -4.053434e+001  4.603307e+001 
3825000000  -3.832463e+001  4.295707e+001 
3828125000  -3.700503e+001  2.444725e+001 
3831250000  -3.810242e+001  9.199114e+000 
3834375000  -4.021231e+001  9.106036e+000 
3837500000  -4.061520e+001  1.420807e+001 
3840625000  -3.913199e+001  1.234364e+001 
3843750000  -3.848114e+001  -5.828052e+000 
3846875000  -3.976229e+001  -1.076806e+001 
3850000000  -4.077587e+001  -5.859262e+000 
3853125000  -4.038147e+001  -6.772605e+000 
3856250000  -3.964470e+001  -1.316301e+001 
3859375000  -3.888679e+001  -1.997520e+001 
3862500000  -3.872725e+001  -3.121276e+001 
3865625000  -3.915918e+001  -3.477280e+001 
3868750000  -3.892641e+001  -3.592709e+001 
3871875000  -3.801247e+001  -4.148411e+001 
3875000000  -3.855944e+001  -5.299187e+001 
3878125000  -3.937166e+001  -5.612685e+001 
3881250000  -3.917911e+001  -5.450803e+001 
3884375000  -3.856345e+001  -6.294228e+001 
3887500000  -3.907048e+001  -6.763562e+001 
3890625000  -3.957009e+001  -7.286646e+001 
3893750000  -3.962912e+001  -7.494083e+001 
3896875000  -4.005260e+001  -7.812125e+001 
3900000000  -3.997070e+001  -8.200549e+001 
3903125000  -3.929620e+001  -8.673293e+001 
3906250000  -3.900401e+001  -9.086620e+001 
3909375000  -3.837233e+001  -9.947682e+001 
3912500000  -3.901568e+001  -1.085212e+002 
3915625000  -4.045834e+001  -1.061582e+002 
3918750000  -4.013061e+001  -1.078384e+002 
3921875000  -3.920380e+001  -1.140391e+002 
3925000000  -3.866758e+001  -1.179708e+002 
3928125000  -3.826056e+001  -1.279180e+002 
3931250000  -3.899666e+001  -1.346543e+002 
3934375000  -3.926798e+001  -1.357365e+002 
3937500000  -4.000212e+001  -1.381672e+002 
3940625000  -4.005300e+001  -1.404648e+002 
3943750000  -3.896743e+001  -1.429400e+002 
3946875000  -3.837609e+001  -1.512936e+002 
3950000000  -3.950005e+001  -1.609650e+002 
3953125000  -3.986747e+001  -1.610010e+002 
3956250000  -3.847741e+001  -1.609808e+002 
3959375000  -3.788423e+001  -1.671526e+002 
3962500000  -3.774970e+001  -1.758868e+002 
3965625000  -3.775260e+001  1.754035e+002 
3968750000  -3.861383e+001  1.669028e+002 
3971875000  -3.857694e+001  1.629347e+002 
3975000000  -3.823755e+001  1.586570e+002 
3978125000  -3.858174e+001  1.543941e+002 
3981250000  -3.857951e+001  1.475147e+002 
3984375000  -3.879163e+001  1.402280e+002 
3987500000  -3.961848e+001  1.383096e+002 
3990625000  -3.988354e+001  1.358583e+002 
3993750000  -3.982098e+001  1.312884e+002 
3996875000  -3.997736e+001  1.249906e+002 
4000000000  -4.036575e+001  1.215819e+002 
4003125000  -4.098262e+001  1.230753e+002 
4006250000  -3.944912e+001  1.221020e+002 
4009375000  -3.863737e+001  1.063584e+002 
4012500000  -3.991764e+001  9.762735e+001 
4015625000  -4.129706e+001  9.755377e+001 
4018750000  -4.161137e+001  9.912184e+001 
4021875000  -4.092242e+001  9.498925e+001 
4025000000  -4.054089e+001  9.080421e+001 
4028125000  -4.042317e+001  8.372213e+001 
4031250000  -4.106008e+001  8.079552e+001 
4034375000  -4.106445e+001  7.839747e+001 
4037500000  -4.084182e+001  7.884496e+001 
4040625000  -4.091048e+001  7.262738e+001 
4043750000  -4.080314e+001  7.020686e+001 
4046875000  -4.094165e+001  6.747128e+001 
4050000000  -4.031688e+001  6.164068e+001 
4053125000  -4.109938e+001  5.904692e+001 
4056250000  -4.110066e+001  6.340735e+001 
4059375000  -3.922754e+001  6.203087e+001 
4062500000  -3.879162e+001  5.419027e+001 
4065625000  -3.873071e+001  4.739153e+001 
4068750000  -3.819421e+001  4.145425e+001 
4071875000  -3.741703e+001  3.098787e+001 
4075000000  -3.816088e+001  2.481845e+001 
4078125000  -3.858096e+001  2.041235e+001 
4081250000  -3.790052e+001  1.614413e+001 
4084375000  -3.793826e+001  5.652379e+000 
4087500000  -3.828745e+001  -8.681276e-001 
4090625000  -3.893502e+001  -4.004944e+000 
4093750000  -3.848916e+001  -5.186110e+000 
4096875000  -3.837159e+001  -1.509876e+001 
4100000000  -3.938332e+001  -2.161545e+001 
4103125000  -4.024886e+001  -1.985285e+001 
4106250000  -3.987085e+001  -1.779761e+001 
4109375000  -3.883083e+001  -2.142602e+001 
4112500000  -3.824232e+001  -3.015115e+001 
4115625000  -3.902975e+001  -3.773162e+001 
4118750000  -3.879707e+001  -4.167663e+001 
4121875000  -3.856138e+001  -4.946181e+001 
4125000000  -3.940203e+001  -5.478111e+001 
4128125000  -4.046848e+001  -5.365812e+001 
4131250000  -3.953732e+001  -4.684659e+001 
4134375000  -3.724135e+001  -5.613347e+001 
4137500000  -3.785266e+001  -7.763746e+001 
4140625000  -3.999640e+001  -8.553036e+001 
4143750000  -4.097610e+001  -7.627512e+001 
4146875000  -4.019069e+001  -7.507072e+001 
4150000000  -3.917023e+001  -8.292355e+001 
4153125000  -3.966891e+001  -9.120390e+001 
4156250000  -4.085795e+001  -9.612727e+001 
4159375000  -4.098605e+001  -8.896458e+001 
4162500000  -3.966272e+001  -8.670925e+001 
4165625000  -3.841729e+001  -9.504039e+001 
4168750000  -3.807998e+001  -1.045117e+002 
4171875000  -3.807864e+001  -1.158512e+002 
4175000000  -3.882259e+001  -1.209877e+002 
4178125000  -3.903288e+001  -1.238051e+002 
4181250000  -3.893557e+001  -1.260504e+002 
4184375000  -3.898770e+001  -1.297087e+002 
4187500000  -3.911166e+001  -1.350764e+002 
4190625000  -3.910914e+001  -1.425477e+002 
4193750000  -4.008639e+001  -1.491004e+002 
4196875000  -4.086572e+001  -1.501599e+002 
4200000000  -4.163228e+001  -1.446627e+002 
4203125000  -4.036504e+001  -1.299939e+002 
4206250000  -3.713140e+001  -1.385909e+002 
4209375000  -3.674771e+001  -1.624997e+002 
4212500000  -3.931946e+001  -1.711760e+002 
4215625000  -3.950150e+001  -1.618208e+002 
4218750000  -3.792739e+001  -1.627650e+002 
4221875000  -3.578460e+001  -1.713629e+002 
4225000000  -3.718364e+001  1.765721e+002 
4228125000  -3.734861e+001  1.781092e+002 
4231250000  -3.564995e+001  1.712486e+002 
4234375000  -3.586973e+001  1.586025e+002 
4237500000  -3.567590e+001  1.528149e+002 
4240625000  -3.601474e+001  1.435889e+002 
4243750000  -3.670876e+001  1.343465e+002 
4246875000  -3.782842e+001  1.342271e+002 
4250000000  -3.750937e+001  1.329196e+002 
4253125000  -3.745902e+001  1.306475e+002 
4256250000  -3.759520e+001  1.248514e+002 
4259375000  -3.703371e+001  1.183139e+002 
4262500000  -3.721841e+001  1.143701e+002 
4265625000  -3.739502e+001  1.122338e+002 
4268750000  -3.656647e+001  1.068313e+002 
4271875000  -3.625996e+001  9.749947e+001 
4275000000  -3.576562e+001  8.813396e+001 
4278125000  -3.690715e+001  7.650739e+001 
4281250000  -3.856007e+001  7.463178e+001 
4284375000  -3.819500e+001  7.076493e+001 
4287500000  -3.955662e+001  6.773699e+001 
4290625000  -4.036438e+001  7.666843e+001 
4293750000  -3.840042e+001  7.722662e+001 
4296875000  -3.706758e+001  6.432930e+001 
4300000000  -3.827609e+001  5.412019e+001 
4303125000  -3.904115e+001  5.795480e+001 
4306250000  -3.808842e+001  6.043299e+001 
4309375000  -3.704080e+001  5.344906e+001 
4312500000  -3.717170e+001  4.218446e+001 
4315625000  -3.742017e+001  3.490110e+001 
4318750000  -3.806881e+001  3.045188e+001 
4321875000  -3.807803e+001  3.039524e+001 
4325000000  -3.737569e+001  2.914087e+001 
4328125000  -3.690478e+001  1.901300e+001 
4331250000  -3.704924e+001  1.051680e+001 
4334375000  -3.758292e+001  3.913976e+000 
4337500000  -3.868738e+001  1.607459e+000 
4340625000  -3.903899e+001  4.869962e+000 
4343750000  -3.793159e+001  3.607855e+000 
4346875000  -3.775032e+001  -5.377065e+000 
4350000000  -3.764952e+001  -1.328443e+001 
4353125000  -3.804500e+001  -2.111025e+001 
4356250000  -4.042528e+001  -1.987656e+001 
4359375000  -3.956375e+001  -3.321983e+000 
4362500000  -3.633477e+001  -9.440442e+000 
4365625000  -3.551635e+001  -2.797253e+001 
4368750000  -3.655342e+001  -3.787584e+001 
4371875000  -3.734977e+001  -3.751703e+001 
4375000000  -3.675913e+001  -4.184721e+001 
4378125000  -3.621333e+001  -4.898061e+001 
4381250000  -3.651127e+001  -5.591366e+001 
4384375000  -3.664450e+001  -6.300177e+001 
4387500000  -3.743097e+001  -7.167419e+001 
4390625000  -3.803055e+001  -7.257707e+001 
4393750000  -3.746339e+001  -7.127906e+001 
4396875000  -3.682793e+001  -7.621389e+001 
4400000000  -3.639153e+001  -8.507722e+001 
4403125000  -3.709800e+001  -9.464125e+001 
4406250000  -3.757257e+001  -9.787907e+001 
4409375000  -3.808929e+001  -1.045927e+002 
4412500000  -3.917870e+001  -1.061407e+002 
4415625000  -3.911148e+001  -1.006676e+002 
