!Agilent Technologies,E8363B,MY43030201,A.06.04.32
!Agilent E8363B: A.06.04.32
!Date: Tuesday, November 11, 2014 21:35:40
!Correction: S21(Response(S21)) 
!S1P File: Measurement: S21:
# Hz S  dB   R 50
3000000000  -4.063603e+001  7.221482e+001 
3003125000  -4.223911e+001  6.452908e+001 
3006250000  -4.217152e+001  6.342367e+001 
3009375000  -4.295942e+001  6.843543e+001 
3012500000  -4.162698e+001  6.378777e+001 
3015625000  -4.137336e+001  5.734975e+001 
3018750000  -4.171238e+001  5.657062e+001 
3021875000  -4.006643e+001  5.874825e+001 
3025000000  -3.892097e+001  5.490475e+001 
3028125000  -3.790106e+001  4.455164e+001 
3031250000  -3.695239e+001  3.181517e+001 
3034375000  -3.682116e+001  1.858195e+001 
3037500000  -3.758268e+001  7.965999e+000 
3040625000  -3.890386e+001  2.670305e+000 
3043750000  -3.906948e+001  -4.021804e+000 
3046875000  -3.981441e+001  -9.538337e+000 
3050000000  -4.097783e+001  -1.699947e+001 
3053125000  -4.055377e+001  -8.473624e+000 
3056250000  -4.050254e+001  -6.479597e+000 
3059375000  -3.970356e+001  -1.079770e+001 
3062500000  -3.818595e+001  -1.374512e+001 
3065625000  -3.776693e+001  -2.262450e+001 
3068750000  -3.767861e+001  -3.093036e+001 
3071875000  -3.759143e+001  -3.288319e+001 
3075000000  -3.689747e+001  -4.066071e+001 
3078125000  -3.707710e+001  -4.679852e+001 
3081250000  -3.721130e+001  -5.266624e+001 
3084375000  -3.632983e+001  -5.755049e+001 
3087500000  -3.650494e+001  -6.474220e+001 
3090625000  -3.595631e+001  -7.636269e+001 
3093750000  -3.688942e+001  -8.411634e+001 
3096875000  -3.718330e+001  -8.938762e+001 
3100000000  -3.708815e+001  -9.195367e+001 
3103125000  -3.745057e+001  -9.664162e+001 
3106250000  -3.709489e+001  -1.015194e+002 
3109375000  -3.722587e+001  -1.051363e+002 
3112500000  -3.715488e+001  -1.108322e+002 
3115625000  -3.722025e+001  -1.157030e+002 
3118750000  -3.735943e+001  -1.180823e+002 
3121875000  -3.651343e+001  -1.299060e+002 
3125000000  -3.859321e+001  -1.321791e+002 
3128125000  -3.859691e+001  -1.248125e+002 
3131250000  -3.603978e+001  -1.313971e+002 
3134375000  -3.537006e+001  -1.492426e+002 
3137500000  -3.605456e+001  -1.610389e+002 
3140625000  -3.730332e+001  -1.634760e+002 
3143750000  -3.818011e+001  -1.661962e+002 
3146875000  -3.759855e+001  -1.634740e+002 
3150000000  -3.679819e+001  -1.676690e+002 
3153125000  -3.721803e+001  -1.760937e+002 
3156250000  -3.778811e+001  -1.717004e+002 
3159375000  -3.560028e+001  -1.737587e+002 
3162500000  -3.413615e+001  1.704409e+002 
3165625000  -3.540786e+001  1.581570e+002 
3168750000  -3.532103e+001  1.568286e+002 
3171875000  -3.484649e+001  1.492334e+002 
3175000000  -3.551023e+001  1.403192e+002 
3178125000  -3.503478e+001  1.385849e+002 
3181250000  -3.441580e+001  1.305790e+002 
3184375000  -3.430355e+001  1.188684e+002 
3187500000  -3.533441e+001  1.038928e+002 
3190625000  -3.719302e+001  9.890621e+001 
3193750000  -3.740245e+001  1.040759e+002 
3196875000  -3.731812e+001  1.039853e+002 
3200000000  -3.613478e+001  9.907986e+001 
3203125000  -3.590715e+001  9.062793e+001 
3206250000  -3.606391e+001  8.407996e+001 
3209375000  -3.586569e+001  7.552382e+001 
3212500000  -3.628811e+001  6.826592e+001 
3215625000  -3.601329e+001  6.612317e+001 
3218750000  -3.673959e+001  5.477397e+001 
3221875000  -3.727660e+001  4.813737e+001 
3225000000  -3.698951e+001  4.444076e+001 
3228125000  -3.771350e+001  3.667683e+001 
3231250000  -3.819319e+001  3.523901e+001 
3234375000  -3.795083e+001  3.158595e+001 
3237500000  -3.813528e+001  2.833266e+001 
3240625000  -3.761053e+001  2.217308e+001 
3243750000  -3.767835e+001  1.285383e+001 
3246875000  -3.814460e+001  4.971316e+000 
3250000000  -3.865736e+001  8.098747e-001 
3253125000  -3.906403e+001  -3.055441e+000 
3256250000  -3.855457e+001  -1.018020e+001 
3259375000  -3.924007e+001  -2.100151e+001 
3262500000  -4.064218e+001  -2.415848e+001 
3265625000  -4.099957e+001  -2.121454e+001 
3268750000  -4.113260e+001  -2.011717e+001 
3271875000  -4.060790e+001  -2.415956e+001 
3275000000  -4.015190e+001  -3.305790e+001 
3278125000  -4.072305e+001  -3.826249e+001 
3281250000  -4.087313e+001  -3.931054e+001 
3284375000  -4.042963e+001  -4.391974e+001 
3287500000  -4.105273e+001  -4.822957e+001 
3290625000  -4.114404e+001  -5.812861e+001 
3293750000  -4.140456e+001  -6.274613e+001 
3296875000  -4.242225e+001  -6.459458e+001 
3300000000  -4.190662e+001  -6.429028e+001 
3303125000  -4.077029e+001  -7.121819e+001 
3306250000  -4.087529e+001  -7.849415e+001 
3309375000  -4.037598e+001  -8.553766e+001 
3312500000  -4.122586e+001  -9.878947e+001 
3315625000  -4.224226e+001  -1.056893e+002 
3318750000  -4.369337e+001  -1.086663e+002 
3321875000  -4.487385e+001  -1.077822e+002 
3325000000  -4.497767e+001  -9.647353e+001 
3328125000  -4.387054e+001  -9.738405e+001 
3331250000  -4.233136e+001  -9.630429e+001 
3334375000  -3.966420e+001  -1.094280e+002 
3337500000  -4.012827e+001  -1.325809e+002 
3340625000  -4.255087e+001  -1.417608e+002 
3343750000  -4.401192e+001  -1.402920e+002 
3346875000  -4.342020e+001  -1.413422e+002 
3350000000  -4.319167e+001  -1.432344e+002 
3353125000  -4.278764e+001  -1.514508e+002 
3356250000  -4.265842e+001  -1.611662e+002 
3359375000  -4.336983e+001  -1.690227e+002 
3362500000  -4.426048e+001  -1.761356e+002 
3365625000  -4.515730e+001  -1.797475e+002 
3368750000  -4.497377e+001  1.755755e+002 
3371875000  -4.589902e+001  1.697305e+002 
3375000000  -4.783163e+001  1.650402e+002 
3378125000  -4.819104e+001  1.652027e+002 
3381250000  -4.951802e+001  -1.749134e+002 
3384375000  -4.644165e+001  -1.696849e+002 
3387500000  -4.340104e+001  1.714243e+002 
3390625000  -4.573627e+001  1.506904e+002 
3393750000  -4.668241e+001  1.519090e+002 
3396875000  -4.587475e+001  1.503216e+002 
3400000000  -4.625648e+001  1.380641e+002 
3403125000  -4.696095e+001  1.318354e+002 
3406250000  -4.742952e+001  1.297227e+002 
3409375000  -4.781360e+001  1.232341e+002 
3412500000  -4.869670e+001  1.158044e+002 
3415625000  -5.062748e+001  1.134334e+002 
3418750000  -5.062400e+001  1.160998e+002 
3421875000  -5.149588e+001  1.215642e+002 
3425000000  -5.027770e+001  1.187905e+002 
3428125000  -5.048470e+001  1.131275e+002 
3431250000  -5.019623e+001  1.055122e+002 
3434375000  -5.086333e+001  1.018247e+002 
3437500000  -5.174848e+001  1.019220e+002 
3440625000  -5.237127e+001  1.046301e+002 
3443750000  -5.036022e+001  1.038228e+002 
3446875000  -5.066720e+001  1.024388e+002 
3450000000  -5.029962e+001  8.790639e+001 
3453125000  -5.067977e+001  8.248506e+001 
3456250000  -5.271313e+001  8.090591e+001 
3459375000  -5.262469e+001  8.479409e+001 
3462500000  -5.193690e+001  8.368669e+001 
3465625000  -5.170365e+001  7.769888e+001 
3468750000  -5.152996e+001  7.842326e+001 
3471875000  -5.162736e+001  7.689015e+001 
3475000000  -5.121056e+001  6.679908e+001 
3478125000  -5.069612e+001  6.165746e+001 
3481250000  -5.245771e+001  6.088282e+001 
3484375000  -5.271425e+001  6.144317e+001 
3487500000  -5.157956e+001  5.672898e+001 
3490625000  -5.123355e+001  5.323492e+001 
3493750000  -5.179686e+001  4.513479e+001 
3496875000  -5.090684e+001  4.801014e+001 
3500000000  -5.223935e+001  4.408303e+001 
3503125000  -5.161148e+001  4.601839e+001 
3506250000  -4.944003e+001  3.554693e+001 
3509375000  -5.002734e+001  2.618098e+001 
3512500000  -5.009216e+001  1.300618e+001 
3515625000  -5.161413e+001  1.198306e+001 
3518750000  -5.164415e+001  8.690708e+000 
3521875000  -5.217757e+001  3.144087e+000 
3525000000  -5.353280e+001  -1.792196e+000 
3528125000  -5.193351e+001  1.241231e+000 
3531250000  -5.154721e+001  -4.128675e+000 
3534375000  -5.239864e+001  -1.343183e+001 
3537500000  -5.317350e+001  -3.383181e+001 
3540625000  -5.550139e+001  -2.534466e+001 
3543750000  -5.583760e+001  -1.516449e+001 
3546875000  -5.502083e+001  -1.504039e+001 
3550000000  -5.377206e+001  -1.881128e+001 
3553125000  -5.344137e+001  -3.203499e+001 
3556250000  -5.518464e+001  -3.568800e+001 
3559375000  -5.525461e+001  -4.053862e+001 
3562500000  -5.494568e+001  -4.996984e+001 
3565625000  -5.727922e+001  -4.990160e+001 
3568750000  -5.643526e+001  -4.345908e+001 
3571875000  -5.769176e+001  -3.584086e+001 
3575000000  -5.805567e+001  -3.445777e+001 
3578125000  -5.949164e+001  -5.761256e+001 
3581250000  -5.757341e+001  -5.064441e+001 
3584375000  -5.722562e+001  -3.771262e+001 
3587500000  -5.786068e+001  -4.003033e+001 
3590625000  -5.999524e+001  -4.991667e+001 
3593750000  -5.914771e+001  -5.556052e+001 
3596875000  -5.901366e+001  -4.786924e+001 
3600000000  -5.743277e+001  -2.978217e+001 
3603125000  -5.760124e+001  -5.679920e+001 
3606250000  -5.992533e+001  -5.215477e+001 
3609375000  -5.764227e+001  -5.547359e+001 
3612500000  -5.905776e+001  -5.229745e+001 
3615625000  -5.972521e+001  -4.824422e+001 
3618750000  -5.978284e+001  -5.434949e+001 
3621875000  -5.765515e+001  -4.965035e+001 
3625000000  -5.713840e+001  -5.280993e+001 
3628125000  -5.685511e+001  -4.089491e+001 
3631250000  -5.692757e+001  -5.184306e+001 
3634375000  -5.647051e+001  -4.641292e+001 
3637500000  -5.538337e+001  -4.944643e+001 
3640625000  -5.479370e+001  -3.876702e+001 
3643750000  -5.341147e+001  -4.744473e+001 
3646875000  -5.317615e+001  -5.984148e+001 
3650000000  -5.374685e+001  -5.844068e+001 
3653125000  -5.270544e+001  -6.259292e+001 
3656250000  -5.192094e+001  -6.622557e+001 
3659375000  -5.154413e+001  -6.733536e+001 
3662500000  -5.040775e+001  -6.929214e+001 
3665625000  -4.991324e+001  -7.003486e+001 
3668750000  -4.775858e+001  -7.849995e+001 
3671875000  -4.677885e+001  -8.535151e+001 
3675000000  -4.767287e+001  -9.306288e+001 
3678125000  -4.724493e+001  -9.593555e+001 
3681250000  -4.637178e+001  -1.015136e+002 
3684375000  -4.699034e+001  -1.059039e+002 
3687500000  -4.688085e+001  -1.146905e+002 
3690625000  -4.668237e+001  -1.189261e+002 
3693750000  -4.724607e+001  -1.187155e+002 
3696875000  -4.627761e+001  -1.189698e+002 
3700000000  -4.482902e+001  -1.258354e+002 
3703125000  -4.533773e+001  -1.334960e+002 
3706250000  -4.608659e+001  -1.336810e+002 
3709375000  -4.485957e+001  -1.349257e+002 
3712500000  -4.349851e+001  -1.398064e+002 
3715625000  -4.207922e+001  -1.494568e+002 
3718750000  -4.168991e+001  -1.542258e+002 
3721875000  -4.119114e+001  -1.649301e+002 
3725000000  -4.184389e+001  -1.714017e+002 
3728125000  -4.148037e+001  -1.737841e+002 
3731250000  -4.059251e+001  1.791166e+002 
3734375000  -4.003028e+001  1.735462e+002 
3737500000  -4.117755e+001  1.642615e+002 
3740625000  -4.051786e+001  1.589562e+002 
3743750000  -4.063933e+001  1.500649e+002 
3746875000  -4.069388e+001  1.444811e+002 
3750000000  -4.104365e+001  1.399659e+002 
3753125000  -4.090226e+001  1.363396e+002 
3756250000  -4.059423e+001  1.327673e+002 
3759375000  -4.038865e+001  1.291544e+002 
3762500000  -4.012344e+001  1.200281e+002 
3765625000  -4.084098e+001  1.184387e+002 
3768750000  -3.999063e+001  1.171576e+002 
3771875000  -3.840311e+001  1.094589e+002 
3775000000  -3.851471e+001  9.874163e+001 
3778125000  -3.891568e+001  9.121877e+001 
3781250000  -3.888505e+001  8.683905e+001 
3784375000  -3.865609e+001  8.195459e+001 
3787500000  -3.873055e+001  7.561263e+001 
3790625000  -3.913404e+001  6.719663e+001 
3793750000  -3.926065e+001  6.285950e+001 
3796875000  -3.850057e+001  5.830857e+001 
3800000000  -3.638657e+001  5.468277e+001 
3803125000  -3.814437e+001  4.077318e+001 
3806250000  -3.874751e+001  3.627330e+001 
3809375000  -3.841616e+001  3.277146e+001 
3812500000  -3.855450e+001  2.387302e+001 
3815625000  -3.948050e+001  1.353951e+001 
3818750000  -4.062595e+001  1.439600e+001 
3821875000  -4.016325e+001  2.385635e+001 
3825000000  -3.814511e+001  2.178105e+001 
3828125000  -3.707585e+001  2.233198e+000 
3831250000  -3.789915e+001  -1.253796e+001 
3834375000  -4.057917e+001  -1.061579e+001 
3837500000  -4.059650e+001  -8.857689e+000 
3840625000  -3.909665e+001  -1.168038e+001 
3843750000  -3.845980e+001  -2.703534e+001 
3846875000  -3.987923e+001  -3.401360e+001 
3850000000  -4.077118e+001  -2.587944e+001 
3853125000  -3.995169e+001  -2.713409e+001 
3856250000  -3.924301e+001  -3.441990e+001 
3859375000  -3.869571e+001  -4.215686e+001 
3862500000  -3.844874e+001  -5.311812e+001 
3865625000  -3.888021e+001  -5.764290e+001 
3868750000  -3.865535e+001  -5.831743e+001 
3871875000  -3.813304e+001  -6.672939e+001 
3875000000  -3.859824e+001  -7.564935e+001 
3878125000  -3.940528e+001  -7.886738e+001 
3881250000  -3.931176e+001  -7.782631e+001 
3884375000  -3.873510e+001  -8.443262e+001 
3887500000  -3.905890e+001  -9.183156e+001 
3890625000  -3.933147e+001  -9.601082e+001 
3893750000  -3.970104e+001  -9.885848e+001 
3896875000  -4.032999e+001  -1.019510e+002 
3900000000  -3.975700e+001  -1.039425e+002 
3903125000  -3.930868e+001  -1.096271e+002 
3906250000  -3.889680e+001  -1.128148e+002 
3909375000  -3.838073e+001  -1.222867e+002 
3912500000  -3.915528e+001  -1.311922e+002 
3915625000  -4.041396e+001  -1.309316e+002 
3918750000  -4.003360e+001  -1.316058e+002 
3921875000  -3.925779e+001  -1.357999e+002 
3925000000  -3.839948e+001  -1.417050e+002 
3928125000  -3.846034e+001  -1.508698e+002 
3931250000  -3.893487e+001  -1.585020e+002 
3934375000  -3.954639e+001  -1.605924e+002 
3937500000  -4.009458e+001  -1.626884e+002 
3940625000  -3.997427e+001  -1.641827e+002 
3943750000  -3.896450e+001  -1.665990e+002 
3946875000  -3.837735e+001  -1.751710e+002 
3950000000  -3.948144e+001  1.753230e+002 
3953125000  -3.999119e+001  1.785736e+002 
3956250000  -3.872160e+001  1.759540e+002 
3959375000  -3.780776e+001  1.691919e+002 
3962500000  -3.762744e+001  1.615069e+002 
3965625000  -3.781191e+001  1.524574e+002 
3968750000  -3.855674e+001  1.445610e+002 
3971875000  -3.842540e+001  1.386707e+002 
3975000000  -3.841600e+001  1.349362e+002 
3978125000  -3.847147e+001  1.310671e+002 
3981250000  -3.831026e+001  1.234698e+002 
3984375000  -3.918439e+001  1.159301e+002 
3987500000  -3.963667e+001  1.127748e+002 
3990625000  -3.994362e+001  1.123847e+002 
3993750000  -3.985431e+001  1.063481e+002 
3996875000  -3.979990e+001  1.013800e+002 
4000000000  -4.075326e+001  9.777423e+001 
4003125000  -4.105931e+001  1.021622e+002 
4006250000  -3.914431e+001  9.682212e+001 
4009375000  -3.880013e+001  8.414824e+001 
4012500000  -4.022810e+001  7.477151e+001 
4015625000  -4.151654e+001  7.473801e+001 
4018750000  -4.151110e+001  7.848048e+001 
4021875000  -4.091121e+001  7.324532e+001 
4025000000  -4.052705e+001  6.593557e+001 
4028125000  -4.061312e+001  5.688201e+001 
4031250000  -4.122340e+001  5.357579e+001 
4034375000  -4.145562e+001  5.323761e+001 
4037500000  -4.102387e+001  5.416751e+001 
4040625000  -4.086002e+001  5.058253e+001 
4043750000  -4.105849e+001  4.645461e+001 
4046875000  -4.072226e+001  4.272712e+001 
4050000000  -4.063246e+001  3.756742e+001 
4053125000  -4.133525e+001  3.594899e+001 
4056250000  -4.142423e+001  3.941232e+001 
4059375000  -3.936396e+001  3.897856e+001 
4062500000  -3.897501e+001  2.868444e+001 
4065625000  -3.877399e+001  2.289900e+001 
4068750000  -3.824891e+001  1.594794e+001 
4071875000  -3.795429e+001  6.477458e+000 
4075000000  -3.831809e+001  -9.153336e-001 
4078125000  -3.868801e+001  -4.145218e+000 
4081250000  -3.813181e+001  -8.864240e+000 
4084375000  -3.820706e+001  -1.864589e+001 
4087500000  -3.858288e+001  -2.485540e+001 
4090625000  -3.916039e+001  -2.583191e+001 
4093750000  -3.870410e+001  -3.091698e+001 
4096875000  -3.873396e+001  -4.053070e+001 
4100000000  -3.961588e+001  -4.760184e+001 
4103125000  -4.063153e+001  -4.451022e+001 
4106250000  -3.990025e+001  -4.008018e+001 
4109375000  -3.915269e+001  -4.426811e+001 
4112500000  -3.853503e+001  -5.393843e+001 
4115625000  -3.936469e+001  -6.159764e+001 
4118750000  -3.910112e+001  -6.696956e+001 
4121875000  -3.891104e+001  -7.471597e+001 
4125000000  -3.983598e+001  -7.891148e+001 
4128125000  -4.101093e+001  -7.671295e+001 
4131250000  -3.987300e+001  -7.286445e+001 
4134375000  -3.777786e+001  -8.378403e+001 
4137500000  -3.843717e+001  -1.025611e+002 
4140625000  -4.033065e+001  -1.090976e+002 
4143750000  -4.140674e+001  -1.018917e+002 
4146875000  -4.047721e+001  -9.871126e+001 
4150000000  -3.934157e+001  -1.068018e+002 
4153125000  -3.985170e+001  -1.168215e+002 
4156250000  -4.136715e+001  -1.201614e+002 
4159375000  -4.095504e+001  -1.135395e+002 
4162500000  -3.996610e+001  -1.121386e+002 
4165625000  -3.868275e+001  -1.188808e+002 
4168750000  -3.852277e+001  -1.287956e+002 
4171875000  -3.835881e+001  -1.384105e+002 
4175000000  -3.932402e+001  -1.463495e+002 
4178125000  -3.951702e+001  -1.463029e+002 
4181250000  -3.946021e+001  -1.497847e+002 
4184375000  -3.948394e+001  -1.546301e+002 
4187500000  -3.959195e+001  -1.599557e+002 
4190625000  -3.941288e+001  -1.669398e+002 
4193750000  -4.058138e+001  -1.724189e+002 
4196875000  -4.138677e+001  -1.733594e+002 
4200000000  -4.246178e+001  -1.669951e+002 
4203125000  -4.092238e+001  -1.553443e+002 
4206250000  -3.728366e+001  -1.646434e+002 
4209375000  -3.736530e+001  1.732733e+002 
4212500000  -3.980122e+001  1.656989e+002 
4215625000  -3.982427e+001  1.737237e+002 
4218750000  -3.802579e+001  1.735951e+002 
4221875000  -3.704130e+001  1.657008e+002 
4225000000  -3.807376e+001  1.541945e+002 
4228125000  -3.771534e+001  1.544769e+002 
4231250000  -3.622607e+001  1.443091e+002 
4234375000  -3.625509e+001  1.334962e+002 
4237500000  -3.616444e+001  1.294682e+002 
4240625000  -3.640194e+001  1.169391e+002 
4243750000  -3.761116e+001  1.098796e+002 
4246875000  -3.856872e+001  1.097039e+002 
4250000000  -3.823886e+001  1.096113e+002 
4253125000  -3.824721e+001  1.074602e+002 
4256250000  -3.803258e+001  1.020192e+002 
4259375000  -3.765028e+001  9.506811e+001 
4262500000  -3.799665e+001  9.161018e+001 
4265625000  -3.805159e+001  8.755846e+001 
4268750000  -3.695042e+001  8.277193e+001 
4271875000  -3.678895e+001  7.219111e+001 
4275000000  -3.650822e+001  6.420892e+001 
4278125000  -3.783641e+001  5.280887e+001 
4281250000  -3.908937e+001  5.129350e+001 
4284375000  -3.879678e+001  4.783445e+001 
4287500000  -4.059665e+001  4.631474e+001 
4290625000  -4.066607e+001  5.368402e+001 
4293750000  -3.867802e+001  5.444213e+001 
4296875000  -3.779257e+001  4.092309e+001 
4300000000  -3.904517e+001  3.101283e+001 
4303125000  -3.969557e+001  3.318494e+001 
4306250000  -3.855458e+001  3.620633e+001 
4309375000  -3.767797e+001  3.109469e+001 
4312500000  -3.750534e+001  1.928500e+001 
4315625000  -3.779729e+001  1.152530e+001 
4318750000  -3.854187e+001  7.681907e+000 
4321875000  -3.876453e+001  8.077068e+000 
4325000000  -3.800672e+001  6.397196e+000 
4328125000  -3.746941e+001  -2.297794e+000 
4331250000  -3.745866e+001  -1.267015e+001 
4334375000  -3.840173e+001  -2.066793e+001 
4337500000  -3.937693e+001  -1.994598e+001 
4340625000  -3.962349e+001  -1.632024e+001 
4343750000  -3.849769e+001  -1.881094e+001 
4346875000  -3.874980e+001  -2.883087e+001 
4350000000  -3.820929e+001  -3.668311e+001 
4353125000  -3.898564e+001  -4.211090e+001 
4356250000  -4.121786e+001  -3.810989e+001 
4359375000  -3.979551e+001  -2.493609e+001 
4362500000  -3.644278e+001  -3.455206e+001 
4365625000  -3.580731e+001  -5.130355e+001 
4368750000  -3.743828e+001  -6.115245e+001 
4371875000  -3.782209e+001  -6.036623e+001 
4375000000  -3.724055e+001  -6.591592e+001 
4378125000  -3.686261e+001  -7.248360e+001 
4381250000  -3.709999e+001  -8.182404e+001 
4384375000  -3.721727e+001  -8.749586e+001 
4387500000  -3.824794e+001  -9.336769e+001 
4390625000  -3.870361e+001  -9.414196e+001 
4393750000  -3.803207e+001  -9.435424e+001 
4396875000  -3.735931e+001  -1.011310e+002 
4400000000  -3.678401e+001  -1.087531e+002 
4403125000  -3.788820e+001  -1.183213e+002 
4406250000  -3.843558e+001  -1.218879e+002 
4409375000  -3.881742e+001  -1.251771e+002 
4412500000  -3.967762e+001  -1.278636e+002 
4415625000  -3.938474e+001  -1.242002e+002 
