!Agilent Technologies,E8363B,MY43030201,A.06.04.32
!Agilent E8363B: A.06.04.32
!Date: Tuesday, November 11, 2014 21:31:33
!Correction: S21(Response(S21)) 
!S1P File: Measurement: S21:
# Hz S  dB   R 50
3000000000  -4.055713e+001  7.978103e+001 
3003125000  -4.220742e+001  7.070670e+001 
3006250000  -4.217053e+001  7.071818e+001 
3009375000  -4.271666e+001  7.647923e+001 
3012500000  -4.146114e+001  7.045446e+001 
3015625000  -4.137472e+001  6.410571e+001 
3018750000  -4.178382e+001  6.550900e+001 
3021875000  -4.013854e+001  6.552170e+001 
3025000000  -3.890709e+001  6.226358e+001 
3028125000  -3.793179e+001  5.131099e+001 
3031250000  -3.704890e+001  3.996555e+001 
3034375000  -3.671921e+001  2.597931e+001 
3037500000  -3.760221e+001  1.598824e+001 
3040625000  -3.866599e+001  1.073892e+001 
3043750000  -3.923801e+001  3.965318e+000 
3046875000  -3.975707e+001  -2.640500e+000 
3050000000  -4.094431e+001  -6.781003e+000 
3053125000  -4.049628e+001  -3.010070e+000 
3056250000  -4.023686e+001  1.607990e+000 
3059375000  -3.985122e+001  -1.928081e+000 
3062500000  -3.804267e+001  -6.004181e+000 
3065625000  -3.781379e+001  -1.565175e+001 
3068750000  -3.763213e+001  -2.320497e+001 
3071875000  -3.760047e+001  -2.572683e+001 
3075000000  -3.705713e+001  -3.339305e+001 
3078125000  -3.705040e+001  -3.881263e+001 
3081250000  -3.720126e+001  -4.500312e+001 
3084375000  -3.630732e+001  -4.966009e+001 
3087500000  -3.654578e+001  -5.695960e+001 
3090625000  -3.595450e+001  -6.855052e+001 
3093750000  -3.685146e+001  -7.668806e+001 
3096875000  -3.733461e+001  -8.145829e+001 
3100000000  -3.715563e+001  -8.485005e+001 
3103125000  -3.754879e+001  -8.828906e+001 
3106250000  -3.716493e+001  -9.400813e+001 
3109375000  -3.735882e+001  -9.751726e+001 
3112500000  -3.714287e+001  -1.028468e+002 
3115625000  -3.712634e+001  -1.067823e+002 
3118750000  -3.725462e+001  -1.098959e+002 
3121875000  -3.658340e+001  -1.217061e+002 
3125000000  -3.843559e+001  -1.254976e+002 
3128125000  -3.859827e+001  -1.180007e+002 
3131250000  -3.627679e+001  -1.241021e+002 
3134375000  -3.534348e+001  -1.404902e+002 
3137500000  -3.604346e+001  -1.526670e+002 
3140625000  -3.746153e+001  -1.563053e+002 
3143750000  -3.813679e+001  -1.580102e+002 
3146875000  -3.757660e+001  -1.557359e+002 
3150000000  -3.690727e+001  -1.601980e+002 
3153125000  -3.713655e+001  -1.692108e+002 
3156250000  -3.807977e+001  -1.636671e+002 
3159375000  -3.569423e+001  -1.655935e+002 
3162500000  -3.422233e+001  1.786908e+002 
3165625000  -3.548703e+001  1.656786e+002 
3168750000  -3.541405e+001  1.647364e+002 
3171875000  -3.481180e+001  1.574195e+002 
3175000000  -3.552755e+001  1.483495e+002 
3178125000  -3.504797e+001  1.467245e+002 
3181250000  -3.440086e+001  1.380109e+002 
3184375000  -3.416580e+001  1.269315e+002 
3187500000  -3.536367e+001  1.125580e+002 
3190625000  -3.728694e+001  1.055489e+002 
3193750000  -3.756809e+001  1.112836e+002 
3196875000  -3.729892e+001  1.129649e+002 
3200000000  -3.627397e+001  1.064986e+002 
3203125000  -3.591657e+001  9.931046e+001 
3206250000  -3.604841e+001  9.181869e+001 
3209375000  -3.575878e+001  8.321870e+001 
3212500000  -3.628973e+001  7.719545e+001 
3215625000  -3.599842e+001  7.296949e+001 
3218750000  -3.680347e+001  6.290116e+001 
3221875000  -3.725724e+001  5.639559e+001 
3225000000  -3.693708e+001  5.228851e+001 
3228125000  -3.777076e+001  4.457127e+001 
3231250000  -3.824792e+001  4.312385e+001 
3234375000  -3.793328e+001  4.043790e+001 
3237500000  -3.816425e+001  3.556315e+001 
3240625000  -3.767703e+001  2.936286e+001 
3243750000  -3.765419e+001  2.127846e+001 
3246875000  -3.820204e+001  1.281832e+001 
3250000000  -3.874017e+001  1.037433e+001 
3253125000  -3.888054e+001  6.217729e+000 
3256250000  -3.873159e+001  -2.498477e+000 
3259375000  -3.923162e+001  -1.307353e+001 
3262500000  -4.064026e+001  -1.643333e+001 
3265625000  -4.113665e+001  -1.381014e+001 
3268750000  -4.129677e+001  -1.334400e+001 
3271875000  -4.051449e+001  -1.665458e+001 
3275000000  -4.011940e+001  -2.388553e+001 
3278125000  -4.084814e+001  -2.976121e+001 
3281250000  -4.100605e+001  -3.102485e+001 
3284375000  -4.054553e+001  -3.694416e+001 
3287500000  -4.091563e+001  -4.043847e+001 
3290625000  -4.126403e+001  -4.886649e+001 
3293750000  -4.132989e+001  -5.554490e+001 
3296875000  -4.247339e+001  -5.634155e+001 
3300000000  -4.193933e+001  -5.502125e+001 
3303125000  -4.093662e+001  -6.330278e+001 
3306250000  -4.087039e+001  -6.940314e+001 
3309375000  -4.050546e+001  -7.697784e+001 
3312500000  -4.093523e+001  -8.933515e+001 
3315625000  -4.217957e+001  -9.673749e+001 
3318750000  -4.329850e+001  -9.914811e+001 
3321875000  -4.516623e+001  -9.464151e+001 
3325000000  -4.462992e+001  -9.036109e+001 
3328125000  -4.416403e+001  -9.325372e+001 
3331250000  -4.229168e+001  -8.611260e+001 
3334375000  -3.976485e+001  -1.026770e+002 
3337500000  -4.030824e+001  -1.223552e+002 
3340625000  -4.206219e+001  -1.341262e+002 
3343750000  -4.416421e+001  -1.310026e+002 
3346875000  -4.318480e+001  -1.313456e+002 
3350000000  -4.313727e+001  -1.362760e+002 
3353125000  -4.300715e+001  -1.428424e+002 
3356250000  -4.237175e+001  -1.515522e+002 
3359375000  -4.328952e+001  -1.624225e+002 
3362500000  -4.448783e+001  -1.673367e+002 
3365625000  -4.479412e+001  -1.710779e+002 
3368750000  -4.507600e+001  -1.769486e+002 
3371875000  -4.577027e+001  -1.789471e+002 
3375000000  -4.748630e+001  1.743121e+002 
3378125000  -4.795039e+001  1.747024e+002 
3381250000  -4.981233e+001  -1.761210e+002 
3384375000  -4.636200e+001  -1.579067e+002 
3387500000  -4.373068e+001  1.782148e+002 
3390625000  -4.658073e+001  1.601685e+002 
3393750000  -4.690669e+001  1.599140e+002 
3396875000  -4.602295e+001  1.573433e+002 
3400000000  -4.606165e+001  1.466879e+002 
3403125000  -4.696297e+001  1.379606e+002 
3406250000  -4.750673e+001  1.393589e+002 
3409375000  -4.809678e+001  1.298011e+002 
3412500000  -4.866372e+001  1.287708e+002 
3415625000  -4.988692e+001  1.231989e+002 
3418750000  -5.023079e+001  1.214818e+002 
3421875000  -5.147664e+001  1.305401e+002 
3425000000  -5.004408e+001  1.288382e+002 
3428125000  -4.960952e+001  1.211627e+002 
3431250000  -5.061471e+001  1.177633e+002 
3434375000  -5.026740e+001  1.150464e+002 
3437500000  -5.173859e+001  1.086824e+002 
3440625000  -5.212178e+001  1.120635e+002 
3443750000  -5.084571e+001  1.150785e+002 
3446875000  -5.103472e+001  1.043758e+002 
3450000000  -5.040539e+001  9.631147e+001 
3453125000  -5.091385e+001  8.750700e+001 
3456250000  -5.192915e+001  9.073672e+001 
3459375000  -5.326075e+001  9.232475e+001 
3462500000  -5.226854e+001  9.063897e+001 
3465625000  -5.114740e+001  8.771090e+001 
3468750000  -5.180182e+001  8.642680e+001 
3471875000  -5.241091e+001  8.440269e+001 
3475000000  -5.157590e+001  8.162911e+001 
3478125000  -5.174575e+001  7.110547e+001 
3481250000  -5.188809e+001  6.951646e+001 
3484375000  -5.301791e+001  7.850346e+001 
3487500000  -5.110064e+001  6.588708e+001 
3490625000  -5.094324e+001  6.108737e+001 
3493750000  -5.161604e+001  5.517505e+001 
3496875000  -5.110792e+001  5.538009e+001 
3500000000  -5.147201e+001  5.913158e+001 
3503125000  -5.113662e+001  5.145595e+001 
3506250000  -4.959124e+001  4.730891e+001 
3509375000  -4.906773e+001  3.430697e+001 
3512500000  -5.017466e+001  1.718005e+001 
3515625000  -5.148215e+001  1.613046e+001 
3518750000  -5.211028e+001  1.250214e+001 
3521875000  -5.270143e+001  1.296075e+001 
3525000000  -5.353336e+001  9.862831e+000 
3528125000  -5.216712e+001  1.235516e+001 
3531250000  -5.141210e+001  2.711160e+000 
3534375000  -5.286776e+001  -6.862157e+000 
3537500000  -5.513147e+001  -1.008256e+001 
3540625000  -5.483085e+001  -1.344354e+001 
3543750000  -5.477615e+001  -8.220557e+000 
3546875000  -5.651278e+001  -4.852075e+000 
3550000000  -5.331352e+001  -1.311550e+001 
3553125000  -5.298935e+001  -2.501963e+001 
3556250000  -5.646240e+001  -1.976007e+001 
3559375000  -5.606919e+001  -2.633081e+001 
3562500000  -5.754902e+001  -3.482172e+001 
3565625000  -5.598882e+001  -3.696872e+001 
3568750000  -5.768754e+001  -2.956526e+001 
3571875000  -5.779066e+001  -3.317755e+001 
3575000000  -6.021037e+001  -2.894809e+001 
3578125000  -6.012859e+001  -3.859910e+001 
3581250000  -5.844836e+001  -2.314525e+001 
3584375000  -5.663098e+001  -3.011111e+001 
3587500000  -5.826212e+001  -3.508495e+001 
3590625000  -5.926189e+001  -3.400940e+001 
3593750000  -6.022339e+001  -3.540126e+001 
3596875000  -5.844808e+001  -2.498234e+001 
3600000000  -5.785728e+001  -2.807780e+001 
3603125000  -5.988311e+001  -4.903515e+001 
3606250000  -5.794977e+001  -5.239319e+001 
3609375000  -5.801646e+001  -3.827536e+001 
3612500000  -5.703512e+001  -4.921324e+001 
3615625000  -5.826002e+001  -4.034875e+001 
3618750000  -5.811203e+001  -3.338799e+001 
3621875000  -5.818494e+001  -3.608270e+001 
3625000000  -5.693583e+001  -3.584827e+001 
3628125000  -5.685553e+001  -3.936162e+001 
3631250000  -5.651410e+001  -4.182138e+001 
3634375000  -5.654674e+001  -3.356491e+001 
3637500000  -5.540955e+001  -4.025185e+001 
3640625000  -5.400924e+001  -3.366933e+001 
3643750000  -5.305715e+001  -3.270998e+001 
3646875000  -5.286783e+001  -5.155178e+001 
3650000000  -5.279649e+001  -4.543044e+001 
3653125000  -5.211439e+001  -5.336788e+001 
3656250000  -5.197286e+001  -5.266148e+001 
3659375000  -5.177672e+001  -5.341867e+001 
3662500000  -5.042547e+001  -6.322315e+001 
3665625000  -4.961889e+001  -6.188055e+001 
3668750000  -4.791023e+001  -6.752269e+001 
3671875000  -4.778872e+001  -7.533215e+001 
3675000000  -4.745162e+001  -8.329391e+001 
3678125000  -4.714671e+001  -8.784814e+001 
3681250000  -4.657815e+001  -9.222478e+001 
3684375000  -4.671938e+001  -9.658175e+001 
3687500000  -4.667947e+001  -1.048177e+002 
3690625000  -4.618398e+001  -1.092560e+002 
3693750000  -4.687293e+001  -1.119051e+002 
3696875000  -4.625065e+001  -1.095144e+002 
3700000000  -4.548364e+001  -1.173552e+002 
3703125000  -4.509261e+001  -1.214335e+002 
3706250000  -4.597580e+001  -1.270535e+002 
3709375000  -4.459650e+001  -1.257556e+002 
3712500000  -4.351676e+001  -1.319607e+002 
3715625000  -4.199765e+001  -1.392615e+002 
3718750000  -4.152152e+001  -1.463523e+002 
3721875000  -4.119407e+001  -1.546076e+002 
3725000000  -4.159249e+001  -1.625161e+002 
3728125000  -4.144932e+001  -1.643562e+002 
3731250000  -4.050561e+001  -1.708898e+002 
3734375000  -3.999175e+001  -1.777100e+002 
3737500000  -4.098579e+001  1.726598e+002 
3740625000  -4.091283e+001  1.663637e+002 
3743750000  -4.044920e+001  1.598372e+002 
3746875000  -4.066320e+001  1.537499e+002 
3750000000  -4.088795e+001  1.490421e+002 
3753125000  -4.078159e+001  1.462403e+002 
3756250000  -4.065767e+001  1.435307e+002 
3759375000  -4.026097e+001  1.372596e+002 
3762500000  -4.027073e+001  1.289610e+002 
3765625000  -4.069404e+001  1.256208e+002 
3768750000  -4.015283e+001  1.262946e+002 
3771875000  -3.857626e+001  1.194582e+002 
3775000000  -3.850087e+001  1.074675e+002 
3778125000  -3.882957e+001  1.013290e+002 
3781250000  -3.899240e+001  9.739336e+001 
3784375000  -3.877839e+001  9.032697e+001 
3787500000  -3.862968e+001  8.479736e+001 
3790625000  -3.926392e+001  7.550762e+001 
3793750000  -3.913887e+001  7.295483e+001 
3796875000  -3.811713e+001  6.851075e+001 
3800000000  -3.653492e+001  6.432090e+001 
3803125000  -3.797569e+001  5.142959e+001 
3806250000  -3.886799e+001  4.645818e+001 
3809375000  -3.860290e+001  4.230226e+001 
3812500000  -3.841313e+001  3.276364e+001 
3815625000  -3.962203e+001  2.391800e+001 
3818750000  -4.070155e+001  2.479366e+001 
3821875000  -4.000355e+001  3.498875e+001 
3825000000  -3.845188e+001  2.971974e+001 
3828125000  -3.685697e+001  1.189993e+001 
3831250000  -3.822051e+001  -3.894951e+000 
3834375000  -4.016121e+001  -2.763618e+000 
3837500000  -4.057762e+001  -2.288307e-002 
3840625000  -3.898917e+001  -1.599623e+000 
3843750000  -3.817045e+001  -1.702917e+001 
3846875000  -4.001774e+001  -2.343912e+001 
3850000000  -4.064921e+001  -1.663991e+001 
3853125000  -3.982607e+001  -1.651617e+001 
3856250000  -3.958105e+001  -2.472433e+001 
3859375000  -3.858664e+001  -3.111655e+001 
3862500000  -3.823807e+001  -4.246218e+001 
3865625000  -3.886404e+001  -4.683881e+001 
3868750000  -3.854679e+001  -4.852313e+001 
3871875000  -3.814702e+001  -5.657305e+001 
3875000000  -3.841023e+001  -6.546344e+001 
3878125000  -3.953305e+001  -6.912901e+001 
3881250000  -3.938595e+001  -6.880463e+001 
3884375000  -3.885008e+001  -7.530152e+001 
3887500000  -3.911551e+001  -8.135680e+001 
3890625000  -3.957454e+001  -8.595794e+001 
3893750000  -3.969509e+001  -8.870860e+001 
3896875000  -3.999691e+001  -9.109827e+001 
3900000000  -3.994231e+001  -9.325670e+001 
3903125000  -3.951447e+001  -9.989381e+001 
3906250000  -3.903136e+001  -1.023600e+002 
3909375000  -3.836092e+001  -1.114290e+002 
3912500000  -3.921283e+001  -1.201495e+002 
3915625000  -4.039725e+001  -1.207798e+002 
3918750000  -3.994795e+001  -1.223032e+002 
3921875000  -3.921891e+001  -1.289673e+002 
3925000000  -3.873848e+001  -1.316196e+002 
3928125000  -3.826728e+001  -1.418322e+002 
3931250000  -3.902569e+001  -1.495201e+002 
3934375000  -3.966953e+001  -1.471882e+002 
3937500000  -3.988097e+001  -1.514340e+002 
3940625000  -4.012445e+001  -1.535354e+002 
3943750000  -3.893040e+001  -1.559536e+002 
3946875000  -3.859235e+001  -1.667020e+002 
3950000000  -3.950164e+001  -1.745093e+002 
3953125000  -4.015889e+001  -1.737591e+002 
3956250000  -3.893902e+001  -1.753058e+002 
3959375000  -3.791956e+001  1.790368e+002 
3962500000  -3.787806e+001  1.726816e+002 
3965625000  -3.768710e+001  1.613606e+002 
3968750000  -3.863409e+001  1.546725e+002 
3971875000  -3.878455e+001  1.495392e+002 
3975000000  -3.829542e+001  1.444576e+002 
3978125000  -3.857178e+001  1.423423e+002 
3981250000  -3.878401e+001  1.344367e+002 
3984375000  -3.900541e+001  1.275551e+002 
3987500000  -3.983786e+001  1.229008e+002 
3990625000  -3.991033e+001  1.232915e+002 
3993750000  -3.994226e+001  1.153747e+002 
3996875000  -4.007696e+001  1.119277e+002 
4000000000  -4.053089e+001  1.057644e+002 
4003125000  -4.125197e+001  1.102806e+002 
4006250000  -3.945982e+001  1.067084e+002 
4009375000  -3.869472e+001  9.244158e+001 
4012500000  -4.027962e+001  8.511602e+001 
4015625000  -4.137295e+001  8.443349e+001 
4018750000  -4.147371e+001  8.438992e+001 
4021875000  -4.062700e+001  8.091349e+001 
4025000000  -4.050177e+001  7.573234e+001 
4028125000  -4.062083e+001  6.961774e+001 
4031250000  -4.140329e+001  6.489796e+001 
4034375000  -4.162044e+001  6.448148e+001 
4037500000  -4.098235e+001  6.310629e+001 
4040625000  -4.104086e+001  5.913704e+001 
4043750000  -4.108922e+001  5.718766e+001 
4046875000  -4.056936e+001  5.449776e+001 
4050000000  -4.079202e+001  4.809008e+001 
4053125000  -4.135812e+001  4.477712e+001 
4056250000  -4.142119e+001  5.021012e+001 
4059375000  -3.978220e+001  4.706795e+001 
4062500000  -3.897792e+001  3.806795e+001 
4065625000  -3.896695e+001  3.404638e+001 
4068750000  -3.849266e+001  2.772102e+001 
4071875000  -3.783892e+001  1.700353e+001 
4075000000  -3.861435e+001  9.338840e+000 
4078125000  -3.907678e+001  6.806457e+000 
4081250000  -3.806274e+001  1.372805e+000 
4084375000  -3.814780e+001  -8.308480e+000 
4087500000  -3.868570e+001  -1.522508e+001 
4090625000  -3.917435e+001  -1.562446e+001 
4093750000  -3.861994e+001  -1.993507e+001 
4096875000  -3.850837e+001  -2.888898e+001 
4100000000  -3.993613e+001  -3.714513e+001 
4103125000  -4.037329e+001  -3.566748e+001 
4106250000  -4.010113e+001  -2.995829e+001 
4109375000  -3.905442e+001  -3.597415e+001 
4112500000  -3.856759e+001  -4.540535e+001 
4115625000  -3.924118e+001  -5.169952e+001 
4118750000  -3.884017e+001  -5.654147e+001 
4121875000  -3.912460e+001  -6.309135e+001 
4125000000  -3.997177e+001  -6.986826e+001 
4128125000  -4.086751e+001  -6.746443e+001 
4131250000  -3.998190e+001  -6.141063e+001 
4134375000  -3.790436e+001  -7.286386e+001 
4137500000  -3.834296e+001  -9.166805e+001 
4140625000  -4.023414e+001  -9.738853e+001 
4143750000  -4.166758e+001  -9.105725e+001 
4146875000  -4.079558e+001  -8.563641e+001 
4150000000  -3.975486e+001  -9.553946e+001 
4153125000  -3.994231e+001  -1.041709e+002 
4156250000  -4.136668e+001  -1.087686e+002 
4159375000  -4.120762e+001  -1.029533e+002 
4162500000  -3.983860e+001  -1.002502e+002 
4165625000  -3.877036e+001  -1.098110e+002 
4168750000  -3.869326e+001  -1.198657e+002 
4171875000  -3.843549e+001  -1.294708e+002 
4175000000  -3.918863e+001  -1.357937e+002 
4178125000  -3.969158e+001  -1.354475e+002 
4181250000  -3.934020e+001  -1.386685e+002 
4184375000  -3.954799e+001  -1.447160e+002 
4187500000  -3.957730e+001  -1.502489e+002 
4190625000  -3.962960e+001  -1.561587e+002 
4193750000  -4.082510e+001  -1.626703e+002 
4196875000  -4.132156e+001  -1.635256e+002 
4200000000  -4.224004e+001  -1.566233e+002 
4203125000  -4.097625e+001  -1.453242e+002 
4206250000  -3.746949e+001  -1.536714e+002 
4209375000  -3.743008e+001  -1.768812e+002 
4212500000  -3.954836e+001  1.766716e+002 
4215625000  -3.998153e+001  -1.770150e+002 
4218750000  -3.838953e+001  -1.741644e+002 
4221875000  -3.675999e+001  1.740702e+002 
4225000000  -3.786552e+001  1.626947e+002 
4228125000  -3.777505e+001  1.635380e+002 
4231250000  -3.641114e+001  1.554879e+002 
4234375000  -3.655543e+001  1.454291e+002 
4237500000  -3.628106e+001  1.408150e+002 
4240625000  -3.652451e+001  1.289899e+002 
4243750000  -3.758601e+001  1.198978e+002 
4246875000  -3.851020e+001  1.185901e+002 
4250000000  -3.841535e+001  1.193332e+002 
4253125000  -3.808946e+001  1.167235e+002 
4256250000  -3.803095e+001  1.113905e+002 
4259375000  -3.760868e+001  1.053435e+002 
4262500000  -3.807994e+001  1.011395e+002 
4265625000  -3.816132e+001  9.991624e+001 
4268750000  -3.718435e+001  9.303161e+001 
4271875000  -3.707948e+001  8.395950e+001 
4275000000  -3.656257e+001  7.570741e+001 
4278125000  -3.765541e+001  6.363177e+001 
4281250000  -3.905164e+001  6.090538e+001 
4284375000  -3.908035e+001  6.019498e+001 
4287500000  -4.038591e+001  5.512018e+001 
4290625000  -4.041819e+001  6.295535e+001 
4293750000  -3.882322e+001  6.497430e+001 
4296875000  -3.765873e+001  5.195621e+001 
4300000000  -3.899664e+001  4.234809e+001 
4303125000  -4.003975e+001  4.723450e+001 
4306250000  -3.889263e+001  4.847184e+001 
4309375000  -3.780010e+001  4.136258e+001 
4312500000  -3.757407e+001  3.082957e+001 
4315625000  -3.792772e+001  2.165091e+001 
4318750000  -3.885835e+001  1.861270e+001 
4321875000  -3.871528e+001  2.032044e+001 
4325000000  -3.818344e+001  1.757392e+001 
4328125000  -3.735260e+001  7.672412e+000 
4331250000  -3.760575e+001  -2.991139e+000 
4334375000  -3.822678e+001  -7.430047e+000 
4337500000  -3.947285e+001  -8.808502e+000 
4340625000  -3.976167e+001  -5.610147e+000 
4343750000  -3.872580e+001  -9.175806e+000 
4346875000  -3.859204e+001  -1.619085e+001 
4350000000  -3.829567e+001  -2.566374e+001 
4353125000  -3.888414e+001  -3.391162e+001 
4356250000  -4.111981e+001  -3.101026e+001 
4359375000  -4.030142e+001  -1.515091e+001 
4362500000  -3.641468e+001  -2.299334e+001 
4365625000  -3.597287e+001  -4.193344e+001 
4368750000  -3.741847e+001  -5.162880e+001 
4371875000  -3.814471e+001  -5.065837e+001 
4375000000  -3.742317e+001  -5.407042e+001 
4378125000  -3.706232e+001  -6.358795e+001 
4381250000  -3.722312e+001  -7.046184e+001 
4384375000  -3.726788e+001  -7.809576e+001 
4387500000  -3.837388e+001  -8.179178e+001 
4390625000  -3.868744e+001  -8.283551e+001 
4393750000  -3.798798e+001  -8.416737e+001 
4396875000  -3.752971e+001  -8.901900e+001 
4400000000  -3.713522e+001  -9.732178e+001 
4403125000  -3.791949e+001  -1.071242e+002 
4406250000  -3.841249e+001  -1.103414e+002 
4409375000  -3.878755e+001  -1.128785e+002 
4412500000  -4.008474e+001  -1.157848e+002 
4415625000  -3.998695e+001  -1.143802e+002 
