!Agilent Technologies,E8363B,MY43030201,A.06.04.32
!Agilent E8363B: A.06.04.32
!Date: Tuesday, November 11, 2014 21:37:31
!Correction: S21(Response(S21)) 
!S1P File: Measurement: S21:
# Hz S  dB   R 50
3000000000  -4.068693e+001  7.078336e+001 
3003125000  -4.205328e+001  6.151057e+001 
3006250000  -4.222647e+001  6.196032e+001 
3009375000  -4.297013e+001  6.761886e+001 
3012500000  -4.162923e+001  6.115119e+001 
3015625000  -4.161175e+001  5.554721e+001 
3018750000  -4.186589e+001  5.525166e+001 
3021875000  -4.026209e+001  5.668600e+001 
3025000000  -3.885678e+001  5.408677e+001 
3028125000  -3.783106e+001  4.177555e+001 
3031250000  -3.702267e+001  2.965011e+001 
3034375000  -3.671432e+001  1.688546e+001 
3037500000  -3.759803e+001  5.950010e+000 
3040625000  -3.869942e+001  2.925449e-001 
3043750000  -3.911914e+001  -6.286120e+000 
3046875000  -3.982838e+001  -1.119505e+001 
3050000000  -4.084846e+001  -1.658961e+001 
3053125000  -4.056054e+001  -1.115738e+001 
3056250000  -4.037598e+001  -8.032483e+000 
3059375000  -3.962749e+001  -1.001813e+001 
3062500000  -3.818730e+001  -1.516391e+001 
3065625000  -3.790096e+001  -2.484476e+001 
3068750000  -3.749104e+001  -3.245086e+001 
3071875000  -3.754221e+001  -3.526067e+001 
3075000000  -3.689376e+001  -4.154374e+001 
3078125000  -3.709762e+001  -4.808180e+001 
3081250000  -3.722037e+001  -5.389772e+001 
3084375000  -3.633566e+001  -5.910771e+001 
3087500000  -3.641773e+001  -6.611416e+001 
3090625000  -3.593893e+001  -7.823736e+001 
3093750000  -3.703639e+001  -8.629440e+001 
3096875000  -3.726327e+001  -9.066279e+001 
3100000000  -3.714560e+001  -9.371990e+001 
3103125000  -3.755910e+001  -9.751525e+001 
3106250000  -3.717770e+001  -1.028489e+002 
3109375000  -3.736880e+001  -1.070216e+002 
3112500000  -3.709027e+001  -1.128175e+002 
3115625000  -3.719659e+001  -1.162313e+002 
3118750000  -3.728666e+001  -1.197276e+002 
3121875000  -3.647755e+001  -1.312766e+002 
3125000000  -3.862513e+001  -1.343732e+002 
3128125000  -3.849997e+001  -1.257610e+002 
3131250000  -3.609225e+001  -1.333120e+002 
3134375000  -3.528809e+001  -1.499901e+002 
3137500000  -3.609692e+001  -1.625894e+002 
3140625000  -3.753125e+001  -1.656653e+002 
3143750000  -3.814536e+001  -1.675642e+002 
3146875000  -3.766468e+001  -1.650735e+002 
3150000000  -3.688871e+001  -1.701556e+002 
3153125000  -3.732910e+001  -1.779702e+002 
3156250000  -3.786156e+001  -1.730625e+002 
3159375000  -3.564572e+001  -1.754763e+002 
3162500000  -3.415751e+001  1.689258e+002 
3165625000  -3.549932e+001  1.559996e+002 
3168750000  -3.543804e+001  1.554933e+002 
3171875000  -3.486621e+001  1.477505e+002 
3175000000  -3.551346e+001  1.386734e+002 
3178125000  -3.505856e+001  1.372726e+002 
3181250000  -3.438853e+001  1.286321e+002 
3184375000  -3.415911e+001  1.177971e+002 
3187500000  -3.537983e+001  1.031485e+002 
3190625000  -3.725738e+001  9.741979e+001 
3193750000  -3.747660e+001  1.017963e+002 
3196875000  -3.736718e+001  1.028411e+002 
3200000000  -3.613268e+001  9.770595e+001 
3203125000  -3.595861e+001  8.952168e+001 
3206250000  -3.609350e+001  8.234792e+001 
3209375000  -3.567398e+001  7.397707e+001 
3212500000  -3.629849e+001  6.794398e+001 
3215625000  -3.607284e+001  6.440764e+001 
3218750000  -3.684320e+001  5.411395e+001 
3221875000  -3.731184e+001  4.662311e+001 
3225000000  -3.710971e+001  4.273914e+001 
3228125000  -3.767422e+001  3.503333e+001 
3231250000  -3.819792e+001  3.356707e+001 
3234375000  -3.775398e+001  3.018894e+001 
3237500000  -3.806731e+001  2.594125e+001 
3240625000  -3.753339e+001  2.020181e+001 
3243750000  -3.758529e+001  1.032134e+001 
3246875000  -3.831378e+001  2.891571e+000 
3250000000  -3.878246e+001  -7.038136e-001 
3253125000  -3.908061e+001  -3.599478e+000 
3256250000  -3.853139e+001  -1.218691e+001 
3259375000  -3.905770e+001  -2.292636e+001 
3262500000  -4.047714e+001  -2.563607e+001 
3265625000  -4.105064e+001  -2.315041e+001 
3268750000  -4.123338e+001  -2.256762e+001 
3271875000  -4.038028e+001  -2.697750e+001 
3275000000  -4.010608e+001  -3.497822e+001 
3278125000  -4.076443e+001  -3.985735e+001 
3281250000  -4.105165e+001  -4.071461e+001 
3284375000  -4.023666e+001  -4.625539e+001 
3287500000  -4.077228e+001  -5.040507e+001 
3290625000  -4.127861e+001  -5.886140e+001 
3293750000  -4.112071e+001  -6.365299e+001 
3296875000  -4.246675e+001  -6.607686e+001 
3300000000  -4.185715e+001  -6.384184e+001 
3303125000  -4.085501e+001  -7.149310e+001 
3306250000  -4.071279e+001  -7.970439e+001 
3309375000  -4.044821e+001  -8.769093e+001 
3312500000  -4.091060e+001  -1.009061e+002 
3315625000  -4.224869e+001  -1.059154e+002 
3318750000  -4.361733e+001  -1.101782e+002 
3321875000  -4.523812e+001  -1.065546e+002 
3325000000  -4.480896e+001  -1.010732e+002 
3328125000  -4.402889e+001  -1.007387e+002 
3331250000  -4.243121e+001  -9.781948e+001 
3334375000  -3.978946e+001  -1.137772e+002 
3337500000  -4.020657e+001  -1.342110e+002 
3340625000  -4.211701e+001  -1.422217e+002 
3343750000  -4.400272e+001  -1.399713e+002 
3346875000  -4.309372e+001  -1.431170e+002 
3350000000  -4.289794e+001  -1.466044e+002 
3353125000  -4.268709e+001  -1.507893e+002 
3356250000  -4.234396e+001  -1.610772e+002 
3359375000  -4.322532e+001  -1.716428e+002 
3362500000  -4.428728e+001  -1.788174e+002 
3365625000  -4.492347e+001  1.774927e+002 
3368750000  -4.519149e+001  1.733142e+002 
3371875000  -4.599033e+001  1.699050e+002 
3375000000  -4.726789e+001  1.634446e+002 
3378125000  -4.764482e+001  1.647270e+002 
3381250000  -4.957499e+001  -1.783354e+002 
3384375000  -4.607442e+001  -1.682986e+002 
3387500000  -4.408957e+001  1.687294e+002 
3390625000  -4.605564e+001  1.505550e+002 
3393750000  -4.684640e+001  1.478591e+002 
3396875000  -4.564296e+001  1.482319e+002 
3400000000  -4.596745e+001  1.371763e+002 
3403125000  -4.723586e+001  1.309608e+002 
3406250000  -4.790457e+001  1.291820e+002 
3409375000  -4.785780e+001  1.187536e+002 
3412500000  -4.884010e+001  1.169669e+002 
3415625000  -4.984627e+001  1.161916e+002 
3418750000  -4.978467e+001  1.161006e+002 
3421875000  -5.126580e+001  1.179315e+002 
3425000000  -4.986694e+001  1.149704e+002 
3428125000  -4.975136e+001  1.173486e+002 
3431250000  -4.974243e+001  1.030346e+002 
3434375000  -5.060400e+001  9.782003e+001 
3437500000  -5.222205e+001  1.003551e+002 
3440625000  -5.133241e+001  1.008116e+002 
3443750000  -5.086991e+001  1.049221e+002 
3446875000  -5.061048e+001  1.002683e+002 
3450000000  -5.043203e+001  9.419505e+001 
3453125000  -5.052953e+001  8.174784e+001 
3456250000  -5.237138e+001  8.035583e+001 
3459375000  -5.301512e+001  8.157952e+001 
3462500000  -5.210996e+001  8.741915e+001 
3465625000  -5.087780e+001  7.728096e+001 
3468750000  -5.193262e+001  7.897594e+001 
3471875000  -5.163469e+001  7.146082e+001 
3475000000  -5.119588e+001  6.935234e+001 
3478125000  -5.121005e+001  5.875187e+001 
3481250000  -5.225012e+001  5.851342e+001 
3484375000  -5.207388e+001  6.361745e+001 
3487500000  -5.128159e+001  5.998991e+001 
3490625000  -5.094778e+001  5.731630e+001 
3493750000  -5.237634e+001  4.416936e+001 
3496875000  -5.098064e+001  4.375114e+001 
3500000000  -5.157133e+001  4.192094e+001 
3503125000  -5.108418e+001  4.453121e+001 
3506250000  -4.985960e+001  3.504670e+001 
3509375000  -4.957375e+001  1.883798e+001 
3512500000  -4.978901e+001  1.145902e+001 
3515625000  -5.074829e+001  6.896857e+000 
3518750000  -5.217463e+001  -2.188051e+000 
3521875000  -5.148663e+001  3.091035e+000 
3525000000  -5.313355e+001  1.238947e-002 
3528125000  -5.202554e+001  6.308071e+000 
3531250000  -5.136812e+001  -4.896047e+000 
3534375000  -5.160849e+001  -1.660690e+001 
3537500000  -5.429219e+001  -3.816095e+001 
3540625000  -5.402412e+001  -2.610023e+001 
3543750000  -5.533796e+001  -2.220204e+001 
3546875000  -5.523300e+001  -2.095764e+001 
3550000000  -5.383194e+001  -1.849769e+001 
3553125000  -5.370160e+001  -3.571671e+001 
3556250000  -5.549095e+001  -3.356836e+001 
3559375000  -5.650887e+001  -3.728976e+001 
3562500000  -5.533784e+001  -4.394669e+001 
3565625000  -5.766704e+001  -4.864108e+001 
3568750000  -5.746704e+001  -3.702343e+001 
3571875000  -5.805223e+001  -4.465873e+001 
3575000000  -5.832866e+001  -4.865582e+001 
3578125000  -5.895580e+001  -4.671535e+001 
3581250000  -5.941533e+001  -4.110702e+001 
3584375000  -5.624709e+001  -3.923448e+001 
3587500000  -5.554245e+001  -5.472600e+001 
3590625000  -5.934642e+001  -6.056702e+001 
3593750000  -5.884618e+001  -4.600705e+001 
3596875000  -5.828175e+001  -3.589997e+001 
3600000000  -5.654551e+001  -4.657500e+001 
3603125000  -5.829380e+001  -5.637023e+001 
3606250000  -5.883989e+001  -5.991191e+001 
3609375000  -5.804090e+001  -5.312195e+001 
3612500000  -5.955070e+001  -5.948896e+001 
3615625000  -5.734285e+001  -6.265195e+001 
3618750000  -6.117557e+001  -4.209269e+001 
3621875000  -5.697351e+001  -4.772383e+001 
3625000000  -5.701909e+001  -5.256943e+001 
3628125000  -5.683360e+001  -4.629131e+001 
3631250000  -5.699345e+001  -4.484549e+001 
3634375000  -5.705832e+001  -5.579195e+001 
3637500000  -5.615307e+001  -4.171974e+001 
3640625000  -5.459436e+001  -4.378950e+001 
3643750000  -5.273225e+001  -4.825624e+001 
3646875000  -5.249632e+001  -6.075606e+001 
3650000000  -5.290132e+001  -6.104556e+001 
3653125000  -5.149707e+001  -6.260312e+001 
3656250000  -5.212269e+001  -6.279849e+001 
3659375000  -5.183217e+001  -6.617517e+001 
3662500000  -5.096806e+001  -7.513009e+001 
3665625000  -5.006713e+001  -7.457758e+001 
3668750000  -4.815820e+001  -7.502064e+001 
3671875000  -4.744098e+001  -8.754974e+001 
3675000000  -4.794696e+001  -9.538990e+001 
3678125000  -4.706116e+001  -9.937083e+001 
3681250000  -4.640337e+001  -1.032690e+002 
3684375000  -4.650484e+001  -1.104891e+002 
3687500000  -4.659984e+001  -1.133819e+002 
3690625000  -4.665054e+001  -1.206158e+002 
3693750000  -4.670524e+001  -1.211370e+002 
3696875000  -4.639513e+001  -1.223917e+002 
3700000000  -4.498459e+001  -1.280728e+002 
3703125000  -4.544350e+001  -1.366509e+002 
3706250000  -4.583179e+001  -1.375051e+002 
3709375000  -4.503231e+001  -1.356957e+002 
3712500000  -4.331530e+001  -1.411288e+002 
3715625000  -4.190551e+001  -1.499408e+002 
3718750000  -4.179293e+001  -1.566577e+002 
3721875000  -4.120579e+001  -1.645711e+002 
3725000000  -4.170351e+001  -1.734090e+002 
3728125000  -4.137376e+001  -1.772272e+002 
3731250000  -4.080390e+001  1.787087e+002 
3734375000  -4.012949e+001  1.727978e+002 
3737500000  -4.101568e+001  1.609800e+002 
3740625000  -4.081995e+001  1.556909e+002 
3743750000  -4.053883e+001  1.471529e+002 
3746875000  -4.062535e+001  1.415983e+002 
3750000000  -4.093822e+001  1.381006e+002 
3753125000  -4.063737e+001  1.341198e+002 
3756250000  -4.072404e+001  1.309050e+002 
3759375000  -4.037930e+001  1.259527e+002 
3762500000  -3.996071e+001  1.193255e+002 
3765625000  -4.094789e+001  1.146204e+002 
3768750000  -4.028088e+001  1.143865e+002 
3771875000  -3.862175e+001  1.076843e+002 
3775000000  -3.844911e+001  9.506474e+001 
3778125000  -3.883044e+001  8.929272e+001 
3781250000  -3.895380e+001  8.618149e+001 
3784375000  -3.880780e+001  7.933587e+001 
3787500000  -3.843990e+001  7.326594e+001 
3790625000  -3.904036e+001  6.511278e+001 
3793750000  -3.938950e+001  6.107584e+001 
3796875000  -3.818580e+001  5.877613e+001 
3800000000  -3.634787e+001  5.231422e+001 
3803125000  -3.814477e+001  3.750864e+001 
3806250000  -3.884608e+001  3.372350e+001 
3809375000  -3.831993e+001  3.264684e+001 
3812500000  -3.846789e+001  2.121066e+001 
3815625000  -3.969024e+001  1.169381e+001 
3818750000  -4.083371e+001  1.312241e+001 
3821875000  -4.017716e+001  2.340298e+001 
3825000000  -3.809461e+001  1.847038e+001 
3828125000  -3.704311e+001  -2.031757e-001 
3831250000  -3.820662e+001  -1.334820e+001 
3834375000  -4.051920e+001  -1.328660e+001 
3837500000  -4.061113e+001  -1.013990e+001 
3840625000  -3.896652e+001  -1.403361e+001 
3843750000  -3.825405e+001  -2.874838e+001 
3846875000  -3.982656e+001  -3.588037e+001 
3850000000  -4.056053e+001  -2.915736e+001 
3853125000  -3.963695e+001  -2.785412e+001 
3856250000  -3.935099e+001  -3.701374e+001 
3859375000  -3.846222e+001  -4.448558e+001 
3862500000  -3.847422e+001  -5.300629e+001 
3865625000  -3.898257e+001  -5.886908e+001 
3868750000  -3.841220e+001  -6.002618e+001 
3871875000  -3.791339e+001  -6.834200e+001 
3875000000  -3.845832e+001  -7.762749e+001 
3878125000  -3.946241e+001  -8.021343e+001 
3881250000  -3.913125e+001  -8.057134e+001 
3884375000  -3.880777e+001  -8.708211e+001 
3887500000  -3.910326e+001  -9.308565e+001 
3890625000  -3.941495e+001  -9.936610e+001 
3893750000  -3.986253e+001  -9.979372e+001 
3896875000  -3.994859e+001  -1.005474e+002 
3900000000  -3.990062e+001  -1.078549e+002 
3903125000  -3.910358e+001  -1.110957e+002 
3906250000  -3.900247e+001  -1.143366e+002 
3909375000  -3.824301e+001  -1.238184e+002 
3912500000  -3.912849e+001  -1.333394e+002 
3915625000  -4.038614e+001  -1.332943e+002 
3918750000  -3.978128e+001  -1.320755e+002 
3921875000  -3.926791e+001  -1.382419e+002 
3925000000  -3.830173e+001  -1.438374e+002 
3928125000  -3.829101e+001  -1.543730e+002 
3931250000  -3.929766e+001  -1.589710e+002 
3934375000  -3.975018e+001  -1.614461e+002 
3937500000  -4.010720e+001  -1.636632e+002 
3940625000  -3.981782e+001  -1.660566e+002 
3943750000  -3.885357e+001  -1.699374e+002 
3946875000  -3.862856e+001  -1.775072e+002 
3950000000  -3.953770e+001  1.734197e+002 
3953125000  -3.993719e+001  1.756646e+002 
3956250000  -3.853869e+001  1.733135e+002 
3959375000  -3.793318e+001  1.692556e+002 
3962500000  -3.765789e+001  1.593669e+002 
3965625000  -3.767902e+001  1.498134e+002 
3968750000  -3.866751e+001  1.427103e+002 
3971875000  -3.866256e+001  1.368527e+002 
3975000000  -3.821860e+001  1.336071e+002 
3978125000  -3.867674e+001  1.285164e+002 
3981250000  -3.871355e+001  1.217981e+002 
3984375000  -3.881922e+001  1.141270e+002 
3987500000  -3.967109e+001  1.126689e+002 
3990625000  -3.978045e+001  1.100736e+002 
3993750000  -3.997226e+001  1.061548e+002 
3996875000  -3.981300e+001  1.001710e+002 
4000000000  -4.080586e+001  9.389761e+001 
4003125000  -4.098421e+001  9.711503e+001 
4006250000  -3.914400e+001  9.553664e+001 
4009375000  -3.835679e+001  8.133854e+001 
4012500000  -4.007784e+001  7.167305e+001 
4015625000  -4.138017e+001  7.170461e+001 
4018750000  -4.124176e+001  7.353157e+001 
4021875000  -4.053502e+001  6.904814e+001 
4025000000  -4.017204e+001  6.222781e+001 
4028125000  -4.053839e+001  5.559827e+001 
4031250000  -4.112343e+001  5.066245e+001 
4034375000  -4.148496e+001  5.014587e+001 
4037500000  -4.104667e+001  5.243290e+001 
4040625000  -4.094847e+001  4.897133e+001 
4043750000  -4.104804e+001  4.446598e+001 
4046875000  -4.072105e+001  4.078865e+001 
4050000000  -4.050910e+001  3.528645e+001 
4053125000  -4.130796e+001  3.388807e+001 
4056250000  -4.129529e+001  3.662052e+001 
4059375000  -3.928517e+001  3.457960e+001 
4062500000  -3.867454e+001  2.503887e+001 
4065625000  -3.880820e+001  2.176897e+001 
4068750000  -3.828485e+001  1.425586e+001 
4071875000  -3.773858e+001  3.593738e+000 
4075000000  -3.852209e+001  -2.402596e+000 
4078125000  -3.890689e+001  -5.685809e+000 
4081250000  -3.823384e+001  -1.229509e+001 
4084375000  -3.795534e+001  -2.142158e+001 
4087500000  -3.871791e+001  -2.870686e+001 
4090625000  -3.921323e+001  -2.842516e+001 
4093750000  -3.885682e+001  -3.183753e+001 
4096875000  -3.868017e+001  -4.224376e+001 
4100000000  -3.986826e+001  -4.885102e+001 
4103125000  -4.071323e+001  -4.661802e+001 
4106250000  -3.967318e+001  -4.431840e+001 
4109375000  -3.919291e+001  -4.752699e+001 
4112500000  -3.868264e+001  -5.636246e+001 
4115625000  -3.934310e+001  -6.311771e+001 
4118750000  -3.892821e+001  -6.673134e+001 
4121875000  -3.892382e+001  -7.566458e+001 
4125000000  -3.999805e+001  -8.247367e+001 
4128125000  -4.090869e+001  -7.788943e+001 
4131250000  -3.968465e+001  -7.400706e+001 
4134375000  -3.762986e+001  -8.390894e+001 
4137500000  -3.819608e+001  -1.060052e+002 
4140625000  -4.041279e+001  -1.124386e+002 
4143750000  -4.138087e+001  -1.050362e+002 
4146875000  -4.068594e+001  -1.013124e+002 
4150000000  -3.952529e+001  -1.086000e+002 
4153125000  -4.015393e+001  -1.181565e+002 
4156250000  -4.123151e+001  -1.209338e+002 
4159375000  -4.090608e+001  -1.167256e+002 
4162500000  -3.987851e+001  -1.148821e+002 
4165625000  -3.882813e+001  -1.218441e+002 
4168750000  -3.863521e+001  -1.319465e+002 
4171875000  -3.848864e+001  -1.416575e+002 
4175000000  -3.936230e+001  -1.490690e+002 
4178125000  -3.960289e+001  -1.496029e+002 
4181250000  -3.935889e+001  -1.520593e+002 
4184375000  -3.945761e+001  -1.562659e+002 
4187500000  -3.943644e+001  -1.626445e+002 
4190625000  -3.947052e+001  -1.698004e+002 
4193750000  -4.072507e+001  -1.758693e+002 
4196875000  -4.146116e+001  -1.754238e+002 
4200000000  -4.252241e+001  -1.679057e+002 
4203125000  -4.116771e+001  -1.575633e+002 
4206250000  -3.736950e+001  -1.653095e+002 
4209375000  -3.740392e+001  1.715601e+002 
4212500000  -3.970969e+001  1.638760e+002 
4215625000  -4.022978e+001  1.691698e+002 
4218750000  -3.787406e+001  1.703537e+002 
4221875000  -3.647820e+001  1.608737e+002 
4225000000  -3.755938e+001  1.502355e+002 
4228125000  -3.775729e+001  1.515040e+002 
4231250000  -3.628556e+001  1.439123e+002 
4234375000  -3.629510e+001  1.314872e+002 
4237500000  -3.601042e+001  1.270044e+002 
4240625000  -3.624143e+001  1.155656e+002 
4243750000  -3.749915e+001  1.085395e+002 
4246875000  -3.863766e+001  1.074865e+002 
4250000000  -3.821492e+001  1.073363e+002 
4253125000  -3.819940e+001  1.045550e+002 
4256250000  -3.800243e+001  9.681438e+001 
4259375000  -3.767815e+001  9.372896e+001 
4262500000  -3.791267e+001  8.836548e+001 
4265625000  -3.789469e+001  8.717385e+001 
4268750000  -3.691423e+001  8.024149e+001 
4271875000  -3.664605e+001  6.895972e+001 
4275000000  -3.664116e+001  6.230006e+001 
4278125000  -3.790737e+001  4.941180e+001 
4281250000  -3.901600e+001  4.878488e+001 
4284375000  -3.871718e+001  4.629352e+001 
4287500000  -4.039892e+001  4.404351e+001 
4290625000  -4.033428e+001  5.124892e+001 
4293750000  -3.867985e+001  5.140384e+001 
4296875000  -3.781064e+001  3.841063e+001 
4300000000  -3.884184e+001  2.980876e+001 
4303125000  -3.978119e+001  3.235982e+001 
4306250000  -3.839082e+001  3.420080e+001 
4309375000  -3.760049e+001  2.860466e+001 
4312500000  -3.757876e+001  1.644060e+001 
4315625000  -3.790653e+001  9.717315e+000 
4318750000  -3.867509e+001  5.253557e+000 
4321875000  -3.840200e+001  5.723581e+000 
4325000000  -3.809749e+001  5.434725e+000 
4328125000  -3.721337e+001  -4.663749e+000 
4331250000  -3.762748e+001  -1.615514e+001 
4334375000  -3.842050e+001  -2.334416e+001 
4337500000  -3.945330e+001  -2.234585e+001 
4340625000  -3.968914e+001  -1.748251e+001 
4343750000  -3.850818e+001  -1.998610e+001 
4346875000  -3.850061e+001  -3.126403e+001 
4350000000  -3.835629e+001  -3.857521e+001 
4353125000  -3.917459e+001  -4.709769e+001 
4356250000  -4.095663e+001  -4.141869e+001 
4359375000  -3.978797e+001  -2.557652e+001 
4362500000  -3.652006e+001  -3.689088e+001 
4365625000  -3.570885e+001  -5.619970e+001 
4368750000  -3.738610e+001  -6.249937e+001 
4371875000  -3.763263e+001  -6.317563e+001 
4375000000  -3.719486e+001  -6.744677e+001 
4378125000  -3.686085e+001  -7.672438e+001 
4381250000  -3.709211e+001  -8.268728e+001 
4384375000  -3.703852e+001  -9.067972e+001 
4387500000  -3.817009e+001  -9.576105e+001 
4390625000  -3.846563e+001  -9.620921e+001 
4393750000  -3.781240e+001  -9.614306e+001 
4396875000  -3.719545e+001  -1.019858e+002 
4400000000  -3.685995e+001  -1.112826e+002 
4403125000  -3.777346e+001  -1.206196e+002 
4406250000  -3.828007e+001  -1.237347e+002 
4409375000  -3.873228e+001  -1.270822e+002 
4412500000  -3.989377e+001  -1.291316e+002 
4415625000  -3.944343e+001  -1.257322e+002 
