!Agilent Technologies,E8363B,MY43030201,A.06.04.32
!Agilent E8363B: A.06.04.32
!Date: Tuesday, November 11, 2014 21:33:33
!Correction: S21(Response(S21)) 
!S1P File: Measurement: S21:
# Hz S  dB   R 50
3000000000  -4.060387e+001  7.410400e+001 
3003125000  -4.222687e+001  6.626240e+001 
3006250000  -4.205147e+001  6.560336e+001 
3009375000  -4.283428e+001  7.074078e+001 
3012500000  -4.134108e+001  6.485484e+001 
3015625000  -4.169573e+001  5.955194e+001 
3018750000  -4.179660e+001  5.897560e+001 
3021875000  -4.012543e+001  6.065217e+001 
3025000000  -3.873149e+001  5.643249e+001 
3028125000  -3.792139e+001  4.534780e+001 
3031250000  -3.698956e+001  3.318263e+001 
3034375000  -3.680385e+001  1.932882e+001 
3037500000  -3.751098e+001  8.758340e+000 
3040625000  -3.872027e+001  3.382363e+000 
3043750000  -3.903882e+001  -2.128280e+000 
3046875000  -3.984040e+001  -8.545488e+000 
3050000000  -4.072549e+001  -1.285767e+001 
3053125000  -4.057700e+001  -7.526330e+000 
3056250000  -4.035213e+001  -5.171659e+000 
3059375000  -3.990269e+001  -7.796256e+000 
3062500000  -3.822394e+001  -1.150772e+001 
3065625000  -3.799425e+001  -2.271269e+001 
3068750000  -3.757021e+001  -2.915517e+001 
3071875000  -3.765042e+001  -3.240081e+001 
3075000000  -3.693107e+001  -3.879572e+001 
3078125000  -3.707560e+001  -4.529270e+001 
3081250000  -3.731074e+001  -5.117918e+001 
3084375000  -3.629395e+001  -5.561519e+001 
3087500000  -3.643496e+001  -6.226328e+001 
3090625000  -3.594999e+001  -7.482523e+001 
3093750000  -3.702523e+001  -8.285005e+001 
3096875000  -3.731677e+001  -8.735839e+001 
3100000000  -3.734220e+001  -9.130016e+001 
3103125000  -3.758314e+001  -9.381289e+001 
3106250000  -3.714547e+001  -9.898330e+001 
3109375000  -3.725895e+001  -1.033461e+002 
3112500000  -3.711972e+001  -1.093625e+002 
3115625000  -3.719957e+001  -1.134343e+002 
3118750000  -3.719120e+001  -1.166398e+002 
3121875000  -3.651663e+001  -1.273575e+002 
3125000000  -3.838582e+001  -1.303729e+002 
3128125000  -3.862210e+001  -1.224437e+002 
3131250000  -3.594537e+001  -1.306468e+002 
3134375000  -3.531412e+001  -1.462492e+002 
3137500000  -3.610097e+001  -1.582234e+002 
3140625000  -3.723405e+001  -1.622439e+002 
3143750000  -3.822689e+001  -1.642555e+002 
3146875000  -3.757227e+001  -1.621194e+002 
3150000000  -3.683223e+001  -1.657386e+002 
3153125000  -3.712680e+001  -1.741399e+002 
3156250000  -3.803580e+001  -1.695830e+002 
3159375000  -3.562408e+001  -1.713523e+002 
3162500000  -3.418248e+001  1.724874e+002 
3165625000  -3.552853e+001  1.602923e+002 
3168750000  -3.537228e+001  1.585164e+002 
3171875000  -3.497691e+001  1.514170e+002 
3175000000  -3.549116e+001  1.425590e+002 
3178125000  -3.506483e+001  1.406767e+002 
3181250000  -3.437676e+001  1.324427e+002 
3184375000  -3.417310e+001  1.212391e+002 
3187500000  -3.554028e+001  1.063478e+002 
3190625000  -3.731818e+001  9.979333e+001 
3193750000  -3.748003e+001  1.047027e+002 
3196875000  -3.737997e+001  1.065370e+002 
3200000000  -3.602543e+001  1.008004e+002 
3203125000  -3.587798e+001  9.268225e+001 
3206250000  -3.607434e+001  8.579418e+001 
3209375000  -3.572594e+001  7.729522e+001 
3212500000  -3.629567e+001  7.063400e+001 
3215625000  -3.609068e+001  6.846263e+001 
3218750000  -3.673389e+001  5.671143e+001 
3221875000  -3.712844e+001  5.041144e+001 
3225000000  -3.690966e+001  4.602357e+001 
3228125000  -3.768372e+001  3.897720e+001 
3231250000  -3.826494e+001  3.751164e+001 
3234375000  -3.799796e+001  3.314588e+001 
3237500000  -3.812149e+001  2.941197e+001 
3240625000  -3.750880e+001  2.461760e+001 
3243750000  -3.755854e+001  1.349802e+001 
3246875000  -3.824317e+001  7.128224e+000 
3250000000  -3.870861e+001  3.582340e+000 
3253125000  -3.912407e+001  7.108939e-001 
3256250000  -3.853189e+001  -8.801218e+000 
3259375000  -3.916860e+001  -1.911866e+001 
3262500000  -4.057875e+001  -2.200068e+001 
3265625000  -4.116082e+001  -2.000375e+001 
3268750000  -4.126822e+001  -1.928249e+001 
3271875000  -4.058133e+001  -2.303210e+001 
3275000000  -4.007866e+001  -3.145926e+001 
3278125000  -4.104121e+001  -3.590530e+001 
3281250000  -4.106202e+001  -3.845213e+001 
3284375000  -4.039793e+001  -4.204610e+001 
3287500000  -4.098829e+001  -4.766501e+001 
3290625000  -4.107970e+001  -5.548014e+001 
3293750000  -4.116698e+001  -6.198134e+001 
3296875000  -4.236523e+001  -6.237569e+001 
3300000000  -4.168982e+001  -6.128841e+001 
3303125000  -4.111135e+001  -6.869997e+001 
3306250000  -4.076764e+001  -7.404261e+001 
3309375000  -4.056459e+001  -8.410933e+001 
3312500000  -4.093801e+001  -9.657750e+001 
3315625000  -4.212343e+001  -1.015221e+002 
3318750000  -4.343792e+001  -1.072716e+002 
3321875000  -4.493399e+001  -1.027293e+002 
3325000000  -4.480273e+001  -9.839235e+001 
3328125000  -4.416406e+001  -9.818073e+001 
3331250000  -4.228556e+001  -9.498923e+001 
3334375000  -3.936242e+001  -1.085427e+002 
3337500000  -4.036561e+001  -1.296505e+002 
3340625000  -4.217828e+001  -1.389000e+002 
3343750000  -4.403587e+001  -1.381629e+002 
3346875000  -4.308007e+001  -1.391134e+002 
3350000000  -4.312207e+001  -1.426585e+002 
3353125000  -4.291362e+001  -1.503279e+002 
3356250000  -4.258342e+001  -1.567076e+002 
3359375000  -4.338649e+001  -1.699273e+002 
3362500000  -4.443515e+001  -1.742311e+002 
3365625000  -4.474759e+001  -1.776210e+002 
3368750000  -4.542273e+001  1.778599e+002 
3371875000  -4.634267e+001  1.743095e+002 
3375000000  -4.749026e+001  1.688911e+002 
3378125000  -4.794263e+001  1.696758e+002 
3381250000  -4.939384e+001  -1.776992e+002 
3384375000  -4.637605e+001  -1.648797e+002 
3387500000  -4.402726e+001  1.740367e+002 
3390625000  -4.645405e+001  1.512911e+002 
3393750000  -4.724635e+001  1.489297e+002 
3396875000  -4.602219e+001  1.530234e+002 
3400000000  -4.596961e+001  1.407712e+002 
3403125000  -4.654016e+001  1.355621e+002 
3406250000  -4.730506e+001  1.306208e+002 
3409375000  -4.777355e+001  1.256328e+002 
3412500000  -4.859504e+001  1.198227e+002 
3415625000  -4.951285e+001  1.184179e+002 
3418750000  -5.043977e+001  1.174495e+002 
3421875000  -5.065990e+001  1.180912e+002 
3425000000  -5.038071e+001  1.198626e+002 
3428125000  -5.061272e+001  1.097869e+002 
3431250000  -4.989207e+001  1.092248e+002 
3434375000  -5.033157e+001  1.038295e+002 
3437500000  -5.191619e+001  1.022635e+002 
3440625000  -5.155703e+001  1.057261e+002 
3443750000  -5.047085e+001  1.028503e+002 
3446875000  -5.076904e+001  1.002720e+002 
3450000000  -4.962146e+001  9.326974e+001 
3453125000  -5.054925e+001  7.885764e+001 
3456250000  -5.158914e+001  8.029540e+001 
3459375000  -5.351502e+001  8.792567e+001 
3462500000  -5.236891e+001  9.133054e+001 
3465625000  -5.152298e+001  7.550504e+001 
3468750000  -5.152897e+001  8.076615e+001 
3471875000  -5.196933e+001  7.172305e+001 
3475000000  -5.130560e+001  7.297598e+001 
3478125000  -5.093211e+001  6.026051e+001 
3481250000  -5.253555e+001  6.733632e+001 
3484375000  -5.268186e+001  6.528342e+001 
3487500000  -5.186394e+001  6.303672e+001 
3490625000  -5.112318e+001  4.902595e+001 
3493750000  -5.089696e+001  4.673025e+001 
3496875000  -5.161160e+001  4.750296e+001 
3500000000  -5.204665e+001  4.883120e+001 
3503125000  -5.061608e+001  4.107117e+001 
3506250000  -4.988311e+001  3.657251e+001 
3509375000  -4.914630e+001  2.595157e+001 
3512500000  -5.003967e+001  1.760123e+001 
3515625000  -5.135704e+001  6.602183e+000 
3518750000  -5.200266e+001  7.859334e+000 
3521875000  -5.249481e+001  -7.005620e-001 
3525000000  -5.362268e+001  1.680936e-001 
3528125000  -5.362671e+001  1.083968e+001 
3531250000  -5.227110e+001  2.139060e+000 
3534375000  -5.243748e+001  -1.615653e+001 
3537500000  -5.418719e+001  -2.536874e+001 
3540625000  -5.454438e+001  -2.618773e+001 
3543750000  -5.481445e+001  -1.606141e+001 
3546875000  -5.532361e+001  -9.378208e+000 
3550000000  -5.298320e+001  -1.597855e+001 
3553125000  -5.300026e+001  -3.369218e+001 
3556250000  -5.485901e+001  -3.484169e+001 
3559375000  -5.639933e+001  -3.906400e+001 
3562500000  -5.672979e+001  -5.775639e+001 
3565625000  -5.653614e+001  -5.036890e+001 
3568750000  -5.811085e+001  -4.606588e+001 
3571875000  -5.813575e+001  -4.053791e+001 
3575000000  -5.932875e+001  -3.685955e+001 
3578125000  -5.807201e+001  -4.240152e+001 
3581250000  -5.923034e+001  -4.770357e+001 
3584375000  -5.778190e+001  -3.911655e+001 
3587500000  -6.028606e+001  -4.234066e+001 
3590625000  -5.798462e+001  -5.277692e+001 
3593750000  -5.811701e+001  -3.443920e+001 
3596875000  -5.834649e+001  -3.442773e+001 
3600000000  -5.730746e+001  -4.178786e+001 
3603125000  -5.909689e+001  -5.160467e+001 
3606250000  -5.952998e+001  -5.133019e+001 
3609375000  -5.901530e+001  -4.375566e+001 
3612500000  -5.839220e+001  -5.305639e+001 
3615625000  -5.773654e+001  -5.785181e+001 
3618750000  -5.891256e+001  -5.166637e+001 
3621875000  -5.818988e+001  -4.390507e+001 
3625000000  -5.568018e+001  -3.796226e+001 
3628125000  -5.693411e+001  -3.319181e+001 
3631250000  -5.765811e+001  -3.916175e+001 
3634375000  -5.501668e+001  -4.354227e+001 
3637500000  -5.536188e+001  -4.592373e+001 
3640625000  -5.395190e+001  -4.132129e+001 
3643750000  -5.275525e+001  -4.932273e+001 
3646875000  -5.274557e+001  -6.063752e+001 
3650000000  -5.254165e+001  -5.890402e+001 
3653125000  -5.255330e+001  -5.821692e+001 
3656250000  -5.136846e+001  -5.766227e+001 
3659375000  -5.155613e+001  -6.887032e+001 
3662500000  -5.071184e+001  -7.301492e+001 
3665625000  -4.945493e+001  -7.125620e+001 
3668750000  -4.819187e+001  -7.271984e+001 
3671875000  -4.708529e+001  -8.535469e+001 
3675000000  -4.747239e+001  -9.569959e+001 
3678125000  -4.732378e+001  -9.333300e+001 
3681250000  -4.664482e+001  -9.857865e+001 
3684375000  -4.679590e+001  -1.028045e+002 
3687500000  -4.646003e+001  -1.099647e+002 
3690625000  -4.680402e+001  -1.176028e+002 
3693750000  -4.740318e+001  -1.179959e+002 
3696875000  -4.628524e+001  -1.164290e+002 
3700000000  -4.525126e+001  -1.243239e+002 
3703125000  -4.568599e+001  -1.298170e+002 
3706250000  -4.559466e+001  -1.324902e+002 
3709375000  -4.466599e+001  -1.308485e+002 
3712500000  -4.353461e+001  -1.374351e+002 
3715625000  -4.178788e+001  -1.449024e+002 
3718750000  -4.194686e+001  -1.542754e+002 
3721875000  -4.146940e+001  -1.631567e+002 
3725000000  -4.158046e+001  -1.671628e+002 
3728125000  -4.122697e+001  -1.725848e+002 
3731250000  -4.080720e+001  -1.776387e+002 
3734375000  -4.015401e+001  1.763505e+002 
3737500000  -4.104235e+001  1.659799e+002 
3740625000  -4.084740e+001  1.599359e+002 
3743750000  -4.053922e+001  1.527725e+002 
3746875000  -4.081658e+001  1.472041e+002 
3750000000  -4.103953e+001  1.402876e+002 
3753125000  -4.053434e+001  1.391706e+002 
3756250000  -4.075537e+001  1.369090e+002 
3759375000  -4.044077e+001  1.305739e+002 
3762500000  -4.006065e+001  1.236158e+002 
3765625000  -4.056227e+001  1.184981e+002 
3768750000  -4.005967e+001  1.200763e+002 
3771875000  -3.838426e+001  1.111915e+002 
3775000000  -3.865432e+001  9.994228e+001 
3778125000  -3.887647e+001  9.455534e+001 
3781250000  -3.895684e+001  9.019534e+001 
3784375000  -3.865113e+001  8.366178e+001 
3787500000  -3.850966e+001  7.692537e+001 
3790625000  -3.908279e+001  6.826524e+001 
3793750000  -3.916454e+001  6.469273e+001 
3796875000  -3.816457e+001  6.237180e+001 
3800000000  -3.638985e+001  5.567625e+001 
3803125000  -3.822333e+001  4.354666e+001 
3806250000  -3.878981e+001  3.857026e+001 
3809375000  -3.848351e+001  3.468225e+001 
3812500000  -3.861172e+001  2.544779e+001 
3815625000  -3.952225e+001  1.571989e+001 
3818750000  -4.067778e+001  1.878476e+001 
3821875000  -4.013459e+001  2.824859e+001 
3825000000  -3.830730e+001  2.354864e+001 
3828125000  -3.688247e+001  3.546039e+000 
3831250000  -3.808772e+001  -1.010321e+001 
3834375000  -4.038832e+001  -1.130576e+001 
3837500000  -4.070168e+001  -5.444714e+000 
3840625000  -3.893454e+001  -8.224083e+000 
3843750000  -3.813985e+001  -2.560274e+001 
3846875000  -4.001195e+001  -3.053374e+001 
3850000000  -4.095145e+001  -2.459904e+001 
3853125000  -3.993243e+001  -2.444918e+001 
3856250000  -3.939662e+001  -3.175323e+001 
3859375000  -3.839095e+001  -3.942913e+001 
3862500000  -3.859114e+001  -4.919084e+001 
3865625000  -3.918525e+001  -5.606260e+001 
3868750000  -3.876786e+001  -5.456694e+001 
3871875000  -3.792165e+001  -6.222129e+001 
3875000000  -3.843790e+001  -7.377377e+001 
3878125000  -3.933718e+001  -7.641074e+001 
3881250000  -3.948930e+001  -7.538036e+001 
3884375000  -3.864857e+001  -8.281322e+001 
3887500000  -3.923303e+001  -8.882922e+001 
3890625000  -3.961089e+001  -9.401256e+001 
3893750000  -3.955387e+001  -9.606108e+001 
3896875000  -4.009539e+001  -9.873463e+001 
3900000000  -3.979441e+001  -1.013580e+002 
3903125000  -3.939159e+001  -1.058995e+002 
3906250000  -3.890856e+001  -1.104741e+002 
3909375000  -3.809995e+001  -1.194463e+002 
3912500000  -3.932346e+001  -1.278875e+002 
3915625000  -4.062249e+001  -1.291565e+002 
3918750000  -3.990049e+001  -1.290312e+002 
3921875000  -3.933617e+001  -1.341264e+002 
3925000000  -3.838654e+001  -1.381905e+002 
3928125000  -3.832505e+001  -1.493229e+002 
3931250000  -3.906075e+001  -1.556179e+002 
3934375000  -3.953101e+001  -1.565270e+002 
3937500000  -4.016444e+001  -1.584545e+002 
3940625000  -3.992991e+001  -1.614522e+002 
3943750000  -3.885323e+001  -1.635151e+002 
3946875000  -3.839438e+001  -1.732427e+002 
3950000000  -3.960744e+001  1.797501e+002 
3953125000  -4.017810e+001  -1.798154e+002 
3956250000  -3.848783e+001  1.796619e+002 
3959375000  -3.772626e+001  1.719949e+002 
3962500000  -3.788112e+001  1.651853e+002 
3965625000  -3.779175e+001  1.563078e+002 
3968750000  -3.879424e+001  1.458973e+002 
3971875000  -3.847113e+001  1.407840e+002 
3975000000  -3.842171e+001  1.373170e+002 
3978125000  -3.840097e+001  1.330919e+002 
3981250000  -3.840924e+001  1.266265e+002 
3984375000  -3.913192e+001  1.180552e+002 
3987500000  -3.975263e+001  1.160503e+002 
3990625000  -3.997472e+001  1.156631e+002 
3993750000  -4.000416e+001  1.093280e+002 
3996875000  -3.991534e+001  1.036188e+002 
4000000000  -4.044877e+001  1.000563e+002 
4003125000  -4.093921e+001  1.018173e+002 
4006250000  -3.934201e+001  9.831052e+001 
4009375000  -3.838724e+001  8.641615e+001 
4012500000  -4.019813e+001  7.565334e+001 
4015625000  -4.156462e+001  7.579585e+001 
4018750000  -4.114840e+001  7.680446e+001 
4021875000  -4.054758e+001  7.339742e+001 
4025000000  -4.028344e+001  6.682764e+001 
4028125000  -4.047908e+001  6.264452e+001 
4031250000  -4.115084e+001  5.656196e+001 
4034375000  -4.151055e+001  5.769570e+001 
4037500000  -4.110027e+001  5.781704e+001 
4040625000  -4.086374e+001  5.043158e+001 
4043750000  -4.108667e+001  4.885055e+001 
4046875000  -4.083002e+001  4.411825e+001 
4050000000  -4.060097e+001  4.010291e+001 
4053125000  -4.136746e+001  3.941281e+001 
4056250000  -4.157006e+001  4.061526e+001 
4059375000  -3.955713e+001  4.055372e+001 
4062500000  -3.889075e+001  3.168566e+001 
4065625000  -3.897147e+001  2.639170e+001 
4068750000  -3.833652e+001  1.889787e+001 
4071875000  -3.772262e+001  8.823413e+000 
4075000000  -3.834390e+001  2.569332e+000 
4078125000  -3.887949e+001  -6.615526e-001 
4081250000  -3.831950e+001  -7.455359e+000 
4084375000  -3.833154e+001  -1.627441e+001 
4087500000  -3.854495e+001  -2.161550e+001 
4090625000  -3.928991e+001  -2.398064e+001 
4093750000  -3.864397e+001  -2.657865e+001 
4096875000  -3.876466e+001  -3.851535e+001 
4100000000  -3.977018e+001  -4.442633e+001 
4103125000  -4.048663e+001  -4.271306e+001 
4106250000  -4.016619e+001  -3.820188e+001 
4109375000  -3.899818e+001  -4.306842e+001 
4112500000  -3.859301e+001  -5.337173e+001 
4115625000  -3.949035e+001  -5.874556e+001 
4118750000  -3.889295e+001  -6.227435e+001 
4121875000  -3.884205e+001  -7.121612e+001 
4125000000  -3.992441e+001  -7.718596e+001 
4128125000  -4.102197e+001  -7.474298e+001 
4131250000  -3.981062e+001  -6.878628e+001 
4134375000  -3.731584e+001  -7.941313e+001 
4137500000  -3.815130e+001  -9.962234e+001 
4140625000  -4.056285e+001  -1.058589e+002 
4143750000  -4.140429e+001  -9.943460e+001 
4146875000  -4.078924e+001  -9.624727e+001 
4150000000  -3.950577e+001  -1.067368e+002 
4153125000  -3.982947e+001  -1.131526e+002 
4156250000  -4.147948e+001  -1.157810e+002 
4159375000  -4.115542e+001  -1.108928e+002 
4162500000  -4.012682e+001  -1.088032e+002 
4165625000  -3.887331e+001  -1.168772e+002 
4168750000  -3.865254e+001  -1.276106e+002 
4171875000  -3.824992e+001  -1.364786e+002 
4175000000  -3.933843e+001  -1.428641e+002 
4178125000  -3.958032e+001  -1.423899e+002 
4181250000  -3.937222e+001  -1.482295e+002 
4184375000  -3.958437e+001  -1.527688e+002 
4187500000  -3.950431e+001  -1.576456e+002 
4190625000  -3.949068e+001  -1.665924e+002 
4193750000  -4.071711e+001  -1.700768e+002 
4196875000  -4.108808e+001  -1.706679e+002 
4200000000  -4.252839e+001  -1.648797e+002 
4203125000  -4.112605e+001  -1.525885e+002 
4206250000  -3.738068e+001  -1.604718e+002 
4209375000  -3.730219e+001  1.732905e+002 
4212500000  -3.975115e+001  1.673901e+002 
4215625000  -4.020726e+001  1.754637e+002 
4218750000  -3.824849e+001  1.761064e+002 
4221875000  -3.676980e+001  1.668531e+002 
4225000000  -3.795943e+001  1.546243e+002 
4228125000  -3.811552e+001  1.549734e+002 
4231250000  -3.620748e+001  1.472797e+002 
4234375000  -3.664082e+001  1.370245e+002 
4237500000  -3.632981e+001  1.306441e+002 
4240625000  -3.621655e+001  1.206819e+002 
4243750000  -3.751705e+001  1.129221e+002 
4246875000  -3.864271e+001  1.144120e+002 
4250000000  -3.844515e+001  1.126905e+002 
4253125000  -3.804966e+001  1.090108e+002 
4256250000  -3.788441e+001  1.034110e+002 
4259375000  -3.767779e+001  9.855096e+001 
4262500000  -3.794159e+001  9.324275e+001 
4265625000  -3.814196e+001  9.221296e+001 
4268750000  -3.690242e+001  8.517442e+001 
4271875000  -3.699752e+001  7.646072e+001 
4275000000  -3.654070e+001  6.701427e+001 
4278125000  -3.767116e+001  5.523455e+001 
4281250000  -3.918719e+001  5.330746e+001 
4284375000  -3.867714e+001  5.059938e+001 
4287500000  -4.022968e+001  4.823910e+001 
4290625000  -4.086945e+001  5.661634e+001 
4293750000  -3.861383e+001  5.610357e+001 
4296875000  -3.808108e+001  4.229507e+001 
4300000000  -3.904570e+001  3.343982e+001 
4303125000  -3.979344e+001  3.863152e+001 
4306250000  -3.826288e+001  4.011385e+001 
4309375000  -3.761533e+001  3.352525e+001 
4312500000  -3.772378e+001  2.367833e+001 
4315625000  -3.793768e+001  1.424683e+001 
4318750000  -3.877338e+001  1.018213e+001 
4321875000  -3.872259e+001  1.150444e+001 
4325000000  -3.804885e+001  9.829750e+000 
4328125000  -3.726013e+001  -1.267321e+000 
4331250000  -3.759703e+001  -1.176216e+001 
4334375000  -3.847021e+001  -1.750162e+001 
4337500000  -3.941346e+001  -1.699368e+001 
4340625000  -3.934425e+001  -1.242482e+001 
4343750000  -3.861640e+001  -1.678568e+001 
4346875000  -3.828664e+001  -2.647083e+001 
4350000000  -3.826585e+001  -3.391658e+001 
4353125000  -3.908577e+001  -4.256039e+001 
4356250000  -4.100759e+001  -3.714295e+001 
4359375000  -3.990407e+001  -2.279597e+001 
4362500000  -3.643346e+001  -3.225103e+001 
4365625000  -3.576274e+001  -4.907265e+001 
4368750000  -3.737666e+001  -5.844147e+001 
4371875000  -3.788500e+001  -5.861898e+001 
4375000000  -3.712876e+001  -6.272419e+001 
4378125000  -3.686689e+001  -7.055663e+001 
4381250000  -3.723779e+001  -7.818983e+001 
4384375000  -3.689690e+001  -8.457362e+001 
4387500000  -3.809146e+001  -9.187003e+001 
4390625000  -3.834518e+001  -9.194164e+001 
4393750000  -3.818781e+001  -9.121453e+001 
4396875000  -3.743533e+001  -9.692663e+001 
4400000000  -3.657679e+001  -1.066036e+002 
4403125000  -3.761483e+001  -1.155728e+002 
4406250000  -3.824197e+001  -1.198792e+002 
4409375000  -3.885385e+001  -1.231335e+002 
4412500000  -3.999355e+001  -1.260240e+002 
4415625000  -3.948071e+001  -1.188178e+002 
