!Agilent Technologies,E8363B,MY43030201,A.06.04.32
!Agilent E8363B: A.06.04.32
!Date: Tuesday, November 11, 2014 21:27:13
!Correction: S21(Response(S21)) 
!S1P File: Measurement: S21:
# Hz S  dB   R 50
3000000000  -4.053436e+001  9.427081e+001 
3003125000  -4.221481e+001  8.450135e+001 
3006250000  -4.214357e+001  8.412452e+001 
3009375000  -4.289022e+001  8.940711e+001 
3012500000  -4.168723e+001  8.534802e+001 
3015625000  -4.121513e+001  7.830284e+001 
3018750000  -4.195045e+001  7.886169e+001 
3021875000  -4.034432e+001  7.886253e+001 
3025000000  -3.900168e+001  7.443973e+001 
3028125000  -3.813691e+001  6.508978e+001 
3031250000  -3.708359e+001  5.372871e+001 
3034375000  -3.665395e+001  4.058436e+001 
3037500000  -3.736741e+001  2.928891e+001 
3040625000  -3.877044e+001  2.413014e+001 
3043750000  -3.921311e+001  1.758282e+001 
3046875000  -3.971471e+001  1.145511e+001 
3050000000  -4.097364e+001  6.521224e+000 
3053125000  -4.063847e+001  1.022894e+001 
3056250000  -4.035121e+001  1.434552e+001 
3059375000  -3.983196e+001  1.165739e+001 
3062500000  -3.833065e+001  7.575607e+000 
3065625000  -3.786594e+001  -2.734956e+000 
3068750000  -3.774986e+001  -9.698033e+000 
3071875000  -3.771750e+001  -1.291609e+001 
3075000000  -3.716779e+001  -1.912996e+001 
3078125000  -3.716396e+001  -2.521675e+001 
3081250000  -3.735783e+001  -3.138891e+001 
3084375000  -3.641798e+001  -3.576636e+001 
3087500000  -3.651964e+001  -4.180684e+001 
3090625000  -3.587078e+001  -5.451986e+001 
3093750000  -3.676588e+001  -6.165319e+001 
3096875000  -3.748241e+001  -6.793285e+001 
3100000000  -3.724095e+001  -7.074744e+001 
3103125000  -3.761003e+001  -7.450183e+001 
3106250000  -3.726220e+001  -7.957022e+001 
3109375000  -3.722292e+001  -8.410624e+001 
3112500000  -3.707963e+001  -8.866529e+001 
3115625000  -3.708764e+001  -9.400071e+001 
3118750000  -3.735590e+001  -9.604080e+001 
3121875000  -3.648771e+001  -1.081196e+002 
3125000000  -3.821762e+001  -1.119451e+002 
3128125000  -3.871226e+001  -1.040942e+002 
3131250000  -3.624699e+001  -1.091975e+002 
3134375000  -3.530386e+001  -1.267020e+002 
3137500000  -3.607040e+001  -1.396689e+002 
3140625000  -3.727171e+001  -1.427474e+002 
3143750000  -3.829037e+001  -1.452453e+002 
3146875000  -3.772225e+001  -1.423264e+002 
3150000000  -3.676153e+001  -1.450600e+002 
3153125000  -3.723538e+001  -1.553120e+002 
3156250000  -3.796143e+001  -1.508651e+002 
3159375000  -3.589998e+001  -1.511846e+002 
3162500000  -3.427106e+001  -1.667016e+002 
3165625000  -3.540290e+001  -1.798838e+002 
3168750000  -3.556840e+001  1.791796e+002 
3171875000  -3.490305e+001  1.710263e+002 
3175000000  -3.541718e+001  1.621226e+002 
3178125000  -3.516040e+001  1.614687e+002 
3181250000  -3.440087e+001  1.534226e+002 
3184375000  -3.410014e+001  1.412567e+002 
3187500000  -3.534187e+001  1.267766e+002 
3190625000  -3.740010e+001  1.191708e+002 
3193750000  -3.766172e+001  1.251165e+002 
3196875000  -3.752104e+001  1.272980e+002 
3200000000  -3.632974e+001  1.217496e+002 
3203125000  -3.599747e+001  1.139671e+002 
3206250000  -3.619840e+001  1.059564e+002 
3209375000  -3.581361e+001  9.884605e+001 
3212500000  -3.623819e+001  9.124211e+001 
3215625000  -3.609583e+001  8.823019e+001 
3218750000  -3.665447e+001  7.687354e+001 
3221875000  -3.753145e+001  7.083611e+001 
3225000000  -3.709888e+001  6.643127e+001 
3228125000  -3.760736e+001  5.957945e+001 
3231250000  -3.822551e+001  5.744416e+001 
3234375000  -3.806386e+001  5.471296e+001 
3237500000  -3.817064e+001  5.015275e+001 
3240625000  -3.766122e+001  4.683278e+001 
3243750000  -3.775933e+001  3.552904e+001 
3246875000  -3.833085e+001  2.834768e+001 
3250000000  -3.878715e+001  2.427991e+001 
3253125000  -3.896270e+001  2.046212e+001 
3256250000  -3.878950e+001  1.191335e+001 
3259375000  -3.896375e+001  2.512126e+000 
3262500000  -4.065205e+001  -1.941624e+000 
3265625000  -4.127077e+001  2.197097e+000 
3268750000  -4.133624e+001  3.674040e-001 
3271875000  -4.067387e+001  -1.560459e+000 
3275000000  -4.006140e+001  -1.034377e+001 
3278125000  -4.072037e+001  -1.472947e+001 
3281250000  -4.098178e+001  -1.509556e+001 
3284375000  -4.061934e+001  -2.257064e+001 
3287500000  -4.086130e+001  -2.664286e+001 
3290625000  -4.120447e+001  -3.325501e+001 
3293750000  -4.118187e+001  -3.861112e+001 
3296875000  -4.255518e+001  -4.108717e+001 
3300000000  -4.190407e+001  -4.131446e+001 
3303125000  -4.089275e+001  -4.683734e+001 
3306250000  -4.083014e+001  -5.497155e+001 
3309375000  -4.047670e+001  -6.103023e+001 
3312500000  -4.085630e+001  -7.319066e+001 
3315625000  -4.204040e+001  -8.129639e+001 
3318750000  -4.358180e+001  -8.473816e+001 
3321875000  -4.505585e+001  -8.340756e+001 
3325000000  -4.477543e+001  -7.721104e+001 
3328125000  -4.433077e+001  -7.601704e+001 
3331250000  -4.247225e+001  -7.187168e+001 
3334375000  -3.979667e+001  -8.672022e+001 
3337500000  -4.054451e+001  -1.072981e+002 
3340625000  -4.195695e+001  -1.164602e+002 
3343750000  -4.378016e+001  -1.181538e+002 
3346875000  -4.341084e+001  -1.169781e+002 
3350000000  -4.306136e+001  -1.196850e+002 
3353125000  -4.291063e+001  -1.277115e+002 
3356250000  -4.241619e+001  -1.345224e+002 
3359375000  -4.336681e+001  -1.471400e+002 
3362500000  -4.422832e+001  -1.530004e+002 
3365625000  -4.477256e+001  -1.558577e+002 
3368750000  -4.537122e+001  -1.602995e+002 
3371875000  -4.571288e+001  -1.638269e+002 
3375000000  -4.769772e+001  -1.672683e+002 
3378125000  -4.798434e+001  -1.684599e+002 
3381250000  -4.939866e+001  -1.631278e+002 
3384375000  -4.669735e+001  -1.411308e+002 
3387500000  -4.396256e+001  -1.641547e+002 
3390625000  -4.581855e+001  1.740955e+002 
3393750000  -4.738584e+001  1.740098e+002 
3396875000  -4.584986e+001  1.756710e+002 
3400000000  -4.617057e+001  1.640386e+002 
3403125000  -4.676182e+001  1.556808e+002 
3406250000  -4.728096e+001  1.548566e+002 
3409375000  -4.782030e+001  1.475034e+002 
3412500000  -4.863885e+001  1.379762e+002 
3415625000  -4.979982e+001  1.433872e+002 
3418750000  -5.010217e+001  1.410880e+002 
3421875000  -5.051709e+001  1.451580e+002 
3425000000  -4.992099e+001  1.419267e+002 
3428125000  -5.029131e+001  1.408455e+002 
3431250000  -5.002521e+001  1.325986e+002 
3434375000  -5.110898e+001  1.291808e+002 
3437500000  -5.114235e+001  1.243483e+002 
3440625000  -5.216877e+001  1.275824e+002 
3443750000  -5.031156e+001  1.285824e+002 
3446875000  -5.024905e+001  1.198380e+002 
3450000000  -4.951102e+001  1.128470e+002 
3453125000  -5.105398e+001  1.070619e+002 
3456250000  -5.177716e+001  1.063933e+002 
3459375000  -5.313526e+001  1.098526e+002 
3462500000  -5.205700e+001  1.117562e+002 
3465625000  -5.149586e+001  1.015884e+002 
3468750000  -5.165365e+001  1.076986e+002 
3471875000  -5.184066e+001  1.016546e+002 
3475000000  -5.187356e+001  9.110426e+001 
3478125000  -5.081588e+001  8.741186e+001 
3481250000  -5.199907e+001  8.461176e+001 
3484375000  -5.242633e+001  9.006297e+001 
3487500000  -5.176315e+001  8.445172e+001 
3490625000  -5.035333e+001  7.960783e+001 
3493750000  -5.111292e+001  7.301648e+001 
3496875000  -5.128077e+001  7.650005e+001 
3500000000  -5.198150e+001  7.010110e+001 
3503125000  -5.096280e+001  6.650395e+001 
3506250000  -4.980608e+001  6.112165e+001 
3509375000  -4.871575e+001  5.189545e+001 
3512500000  -4.918225e+001  3.563016e+001 
3515625000  -5.128238e+001  3.030174e+001 
3518750000  -5.179017e+001  3.322045e+001 
3521875000  -5.185970e+001  2.489279e+001 
3525000000  -5.331097e+001  2.741366e+001 
3528125000  -5.244724e+001  2.387314e+001 
3531250000  -5.114087e+001  2.184079e+001 
3534375000  -5.195187e+001  1.235339e+001 
3537500000  -5.242241e+001  -1.138772e+000 
3540625000  -5.497120e+001  -2.599363e+000 
3543750000  -5.544148e+001  1.064289e+001 
3546875000  -5.618552e+001  7.704892e+000 
3550000000  -5.233135e+001  1.244854e+001 
3553125000  -5.354665e+001  -1.641635e+001 
3556250000  -5.580866e+001  -1.379710e+001 
3559375000  -5.443581e+001  -1.130605e+001 
3562500000  -5.439008e+001  -2.119149e+001 
3565625000  -5.756991e+001  -4.017961e+001 
3568750000  -5.663576e+001  -2.258780e+001 
3571875000  -5.605402e+001  -1.669666e+001 
3575000000  -5.711656e+001  -2.227682e+001 
3578125000  -5.937246e+001  -3.627974e+001 
3581250000  -5.706332e+001  -3.309031e+001 
3584375000  -5.734365e+001  -2.558435e+001 
3587500000  -5.755136e+001  -1.350751e+001 
3590625000  -5.831882e+001  -4.060862e+001 
3593750000  -5.892105e+001  -2.902899e+001 
3596875000  -5.932280e+001  -7.157893e+000 
3600000000  -5.636249e+001  -1.980341e+001 
3603125000  -5.928036e+001  -3.448302e+001 
3606250000  -5.764458e+001  -2.479625e+001 
3609375000  -6.003131e+001  -1.629027e+001 
3612500000  -5.854128e+001  -3.340069e+001 
3615625000  -5.924808e+001  -4.209389e+001 
3618750000  -5.881178e+001  -3.154223e+001 
3621875000  -5.804802e+001  -2.528726e+001 
3625000000  -5.703881e+001  -1.965234e+001 
3628125000  -5.587103e+001  -2.470292e+001 
3631250000  -5.632752e+001  -2.345824e+001 
3634375000  -5.750279e+001  -2.111747e+001 
3637500000  -5.551478e+001  -1.961463e+001 
3640625000  -5.391725e+001  -1.372072e+001 
3643750000  -5.387227e+001  -2.136180e+001 
3646875000  -5.339350e+001  -3.371281e+001 
3650000000  -5.306867e+001  -3.253853e+001 
3653125000  -5.254195e+001  -3.968813e+001 
3656250000  -5.217503e+001  -3.726497e+001 
3659375000  -5.153965e+001  -4.061776e+001 
3662500000  -5.065803e+001  -4.340406e+001 
3665625000  -5.017048e+001  -4.730207e+001 
3668750000  -4.844684e+001  -5.104023e+001 
3671875000  -4.751998e+001  -6.161546e+001 
3675000000  -4.767483e+001  -7.264332e+001 
3678125000  -4.831097e+001  -7.337855e+001 
3681250000  -4.705273e+001  -7.723965e+001 
3684375000  -4.727599e+001  -8.267643e+001 
3687500000  -4.670784e+001  -8.870255e+001 
3690625000  -4.664523e+001  -9.654731e+001 
3693750000  -4.744741e+001  -9.496062e+001 
3696875000  -4.714842e+001  -9.314336e+001 
3700000000  -4.546650e+001  -1.014334e+002 
3703125000  -4.567955e+001  -1.060936e+002 
3706250000  -4.590350e+001  -1.074355e+002 
3709375000  -4.533652e+001  -1.084933e+002 
3712500000  -4.359846e+001  -1.137635e+002 
3715625000  -4.202934e+001  -1.228089e+002 
3718750000  -4.174939e+001  -1.283673e+002 
3721875000  -4.160006e+001  -1.375154e+002 
3725000000  -4.164924e+001  -1.456735e+002 
3728125000  -4.166169e+001  -1.491979e+002 
3731250000  -4.101313e+001  -1.537685e+002 
3734375000  -4.034829e+001  -1.613930e+002 
3737500000  -4.113816e+001  -1.724294e+002 
3740625000  -4.088262e+001  -1.764064e+002 
3743750000  -4.057048e+001  1.766405e+002 
3746875000  -4.075768e+001  1.695771e+002 
3750000000  -4.111608e+001  1.655201e+002 
3753125000  -4.051808e+001  1.637202e+002 
3756250000  -4.075389e+001  1.587122e+002 
3759375000  -4.061258e+001  1.548654e+002 
3762500000  -4.018859e+001  1.467551e+002 
3765625000  -4.066314e+001  1.417564e+002 
3768750000  -4.024194e+001  1.430269e+002 
3771875000  -3.852331e+001  1.343704e+002 
3775000000  -3.847227e+001  1.242985e+002 
3778125000  -3.892445e+001  1.182763e+002 
3781250000  -3.913089e+001  1.119934e+002 
3784375000  -3.881888e+001  1.070025e+002 
3787500000  -3.836972e+001  1.016488e+002 
3790625000  -3.930055e+001  9.338992e+001 
3793750000  -3.924970e+001  8.906226e+001 
3796875000  -3.847712e+001  8.487015e+001 
3800000000  -3.649939e+001  8.110018e+001 
3803125000  -3.796445e+001  6.779021e+001 
3806250000  -3.887577e+001  6.347178e+001 
3809375000  -3.861460e+001  5.857057e+001 
3812500000  -3.849924e+001  5.014570e+001 
3815625000  -3.954229e+001  4.081719e+001 
3818750000  -4.079438e+001  4.092902e+001 
3821875000  -4.018148e+001  4.906639e+001 
3825000000  -3.845499e+001  4.896104e+001 
3828125000  -3.711411e+001  2.938844e+001 
3831250000  -3.816021e+001  1.448543e+001 
3834375000  -4.000996e+001  1.366463e+001 
3837500000  -4.106083e+001  1.732850e+001 
3840625000  -3.928181e+001  1.554923e+001 
3843750000  -3.822484e+001  1.012363e+000 
3846875000  -3.962622e+001  -6.663548e+000 
3850000000  -4.084414e+001  -1.615270e+000 
3853125000  -4.018283e+001  -7.084411e-001 
3856250000  -3.984407e+001  -8.340706e+000 
3859375000  -3.887139e+001  -1.515383e+001 
3862500000  -3.864883e+001  -2.307284e+001 
3865625000  -3.895209e+001  -3.079074e+001 
3868750000  -3.874985e+001  -3.013349e+001 
3871875000  -3.814965e+001  -3.796983e+001 
3875000000  -3.853483e+001  -4.831467e+001 
3878125000  -3.937796e+001  -5.096782e+001 
3881250000  -3.943456e+001  -5.154408e+001 
3884375000  -3.886325e+001  -5.858286e+001 
3887500000  -3.902948e+001  -6.309703e+001 
3890625000  -3.962419e+001  -6.891562e+001 
3893750000  -3.972811e+001  -7.100737e+001 
3896875000  -4.001293e+001  -7.316477e+001 
3900000000  -3.994272e+001  -7.687442e+001 
3903125000  -3.951089e+001  -8.116506e+001 
3906250000  -3.889278e+001  -8.530875e+001 
3909375000  -3.808433e+001  -9.370786e+001 
3912500000  -3.905285e+001  -1.022810e+002 
3915625000  -4.040895e+001  -1.016858e+002 
3918750000  -3.982836e+001  -1.038374e+002 
3921875000  -3.942615e+001  -1.086739e+002 
3925000000  -3.870811e+001  -1.147824e+002 
3928125000  -3.826870e+001  -1.233581e+002 
3931250000  -3.889554e+001  -1.301622e+002 
3934375000  -3.941494e+001  -1.305860e+002 
3937500000  -3.995468e+001  -1.329828e+002 
3940625000  -3.997036e+001  -1.335424e+002 
3943750000  -3.906187e+001  -1.394538e+002 
3946875000  -3.838990e+001  -1.465303e+002 
3950000000  -3.936999e+001  -1.557731e+002 
3953125000  -4.016328e+001  -1.550274e+002 
3956250000  -3.898677e+001  -1.562758e+002 
3959375000  -3.782171e+001  -1.634131e+002 
3962500000  -3.756979e+001  -1.701506e+002 
3965625000  -3.762209e+001  -1.792208e+002 
3968750000  -3.853751e+001  1.709202e+002 
3971875000  -3.885265e+001  1.688165e+002 
3975000000  -3.806181e+001  1.629546e+002 
3978125000  -3.860992e+001  1.595556e+002 
3981250000  -3.843717e+001  1.524926e+002 
3984375000  -3.886260e+001  1.450226e+002 
3987500000  -3.969748e+001  1.423716e+002 
3990625000  -3.954259e+001  1.391514e+002 
3993750000  -3.971738e+001  1.342236e+002 
3996875000  -3.993655e+001  1.292172e+002 
4000000000  -4.051125e+001  1.260131e+002 
4003125000  -4.091252e+001  1.273073e+002 
4006250000  -3.926618e+001  1.275897e+002 
4009375000  -3.869721e+001  1.112480e+002 
4012500000  -3.991844e+001  1.048093e+002 
4015625000  -4.132511e+001  1.020256e+002 
4018750000  -4.127753e+001  1.023177e+002 
4021875000  -4.071874e+001  9.961761e+001 
4025000000  -4.054313e+001  9.551353e+001 
4028125000  -4.044770e+001  8.947617e+001 
4031250000  -4.092616e+001  8.247987e+001 
4034375000  -4.146446e+001  8.256346e+001 
4037500000  -4.077801e+001  8.309505e+001 
4040625000  -4.062125e+001  7.987007e+001 
4043750000  -4.090837e+001  7.693542e+001 
4046875000  -4.081047e+001  7.413970e+001 
4050000000  -4.045134e+001  6.634117e+001 
4053125000  -4.108462e+001  6.400420e+001 
4056250000  -4.135853e+001  6.915440e+001 
4059375000  -3.952495e+001  6.814349e+001 
4062500000  -3.863301e+001  5.885036e+001 
4065625000  -3.878226e+001  5.480748e+001 
4068750000  -3.820934e+001  4.742919e+001 
4071875000  -3.750993e+001  3.642339e+001 
4075000000  -3.798362e+001  2.927298e+001 
4078125000  -3.812450e+001  2.589469e+001 
4081250000  -3.788114e+001  2.097904e+001 
4084375000  -3.787206e+001  1.161475e+001 
4087500000  -3.808566e+001  4.670494e+000 
4090625000  -3.892299e+001  1.751347e+000 
4093750000  -3.844915e+001  -5.734601e-001 
4096875000  -3.816035e+001  -8.774297e+000 
4100000000  -3.929124e+001  -1.674679e+001 
4103125000  -4.021666e+001  -1.538794e+001 
4106250000  -3.964640e+001  -1.341850e+001 
4109375000  -3.904916e+001  -1.560749e+001 
4112500000  -3.853691e+001  -2.370766e+001 
4115625000  -3.898691e+001  -3.207635e+001 
4118750000  -3.875706e+001  -3.674229e+001 
4121875000  -3.873820e+001  -4.367131e+001 
4125000000  -3.955293e+001  -5.022151e+001 
4128125000  -4.055036e+001  -4.844560e+001 
4131250000  -3.959332e+001  -4.147507e+001 
4134375000  -3.727069e+001  -5.120352e+001 
4137500000  -3.805141e+001  -7.227879e+001 
4140625000  -3.994210e+001  -7.897036e+001 
4143750000  -4.125857e+001  -7.511231e+001 
4146875000  -4.016615e+001  -7.020551e+001 
4150000000  -3.938979e+001  -7.797039e+001 
4153125000  -3.978319e+001  -8.684554e+001 
4156250000  -4.077329e+001  -8.787202e+001 
4159375000  -4.077563e+001  -8.427307e+001 
4162500000  -3.974548e+001  -8.260760e+001 
4165625000  -3.866679e+001  -8.812682e+001 
4168750000  -3.814775e+001  -9.826649e+001 
4171875000  -3.816460e+001  -1.098946e+002 
4175000000  -3.871527e+001  -1.169367e+002 
4178125000  -3.919051e+001  -1.160936e+002 
4181250000  -3.904704e+001  -1.196224e+002 
4184375000  -3.901606e+001  -1.263699e+002 
4187500000  -3.916121e+001  -1.308832e+002 
4190625000  -3.900065e+001  -1.371936e+002 
4193750000  -3.989941e+001  -1.421594e+002 
4196875000  -4.090138e+001  -1.438355e+002 
4200000000  -4.176221e+001  -1.421081e+002 
4203125000  -4.073583e+001  -1.268481e+002 
4206250000  -3.730822e+001  -1.337643e+002 
4209375000  -3.673163e+001  -1.573713e+002 
4212500000  -3.887563e+001  -1.640443e+002 
4215625000  -3.957595e+001  -1.582901e+002 
4218750000  -3.790349e+001  -1.554928e+002 
4221875000  -3.609101e+001  -1.673258e+002 
4225000000  -3.755119e+001  -1.797079e+002 
4228125000  -3.731628e+001  -1.766832e+002 
4231250000  -3.587329e+001  1.758511e+002 
4234375000  -3.587654e+001  1.634917e+002 
4237500000  -3.552900e+001  1.588687e+002 
4240625000  -3.600079e+001  1.479187e+002 
4243750000  -3.673598e+001  1.397152e+002 
4246875000  -3.758890e+001  1.399654e+002 
4250000000  -3.771574e+001  1.387137e+002 
4253125000  -3.732611e+001  1.354472e+002 
4256250000  -3.763409e+001  1.307437e+002 
4259375000  -3.712864e+001  1.252606e+002 
4262500000  -3.729085e+001  1.190750e+002 
4265625000  -3.753160e+001  1.183442e+002 
4268750000  -3.643016e+001  1.120224e+002 
4271875000  -3.628697e+001  1.024396e+002 
4275000000  -3.580414e+001  9.316560e+001 
4278125000  -3.672383e+001  8.206749e+001 
4281250000  -3.865590e+001  7.941611e+001 
4284375000  -3.816512e+001  7.705820e+001 
4287500000  -3.937792e+001  7.392982e+001 
4290625000  -4.040379e+001  8.272881e+001 
4293750000  -3.829908e+001  8.373842e+001 
4296875000  -3.718059e+001  7.009686e+001 
4300000000  -3.849699e+001  6.083391e+001 
4303125000  -3.919527e+001  6.299378e+001 
4306250000  -3.825740e+001  6.398439e+001 
4309375000  -3.709628e+001  5.870426e+001 
4312500000  -3.717262e+001  4.698749e+001 
4315625000  -3.755330e+001  4.009129e+001 
4318750000  -3.809211e+001  3.589579e+001 
4321875000  -3.813109e+001  3.675926e+001 
4325000000  -3.768132e+001  3.457754e+001 
4328125000  -3.691953e+001  2.679832e+001 
4331250000  -3.718803e+001  1.569669e+001 
4334375000  -3.784221e+001  8.140392e+000 
4337500000  -3.861855e+001  6.242669e+000 
4340625000  -3.899586e+001  1.229609e+001 
4343750000  -3.817759e+001  9.714439e+000 
4346875000  -3.786799e+001  1.704182e+000 
4350000000  -3.786763e+001  -6.946114e+000 
4353125000  -3.806736e+001  -1.363071e+001 
4356250000  -4.020261e+001  -1.435728e+001 
4359375000  -3.926307e+001  -6.059795e-001 
4362500000  -3.646360e+001  -5.478292e+000 
4365625000  -3.539269e+001  -2.008758e+001 
4368750000  -3.678138e+001  -3.290158e+001 
4371875000  -3.748119e+001  -3.289931e+001 
4375000000  -3.690652e+001  -3.624835e+001 
4378125000  -3.622900e+001  -4.464827e+001 
4381250000  -3.648399e+001  -5.128239e+001 
4384375000  -3.648180e+001  -5.935027e+001 
4387500000  -3.746479e+001  -6.555874e+001 
4390625000  -3.805246e+001  -6.675782e+001 
4393750000  -3.725238e+001  -6.653332e+001 
4396875000  -3.691960e+001  -7.071191e+001 
4400000000  -3.643454e+001  -7.969032e+001 
4403125000  -3.716694e+001  -9.015051e+001 
4406250000  -3.761765e+001  -9.387503e+001 
4409375000  -3.809703e+001  -9.655851e+001 
4412500000  -3.895736e+001  -1.005293e+002 
4415625000  -3.899380e+001  -9.466727e+001 
