!Agilent Technologies,E8363B,MY43030201,A.06.04.32
!Agilent E8363B: A.06.04.32
!Date: Tuesday, November 11, 2014 21:30:20
!Correction: S21(Response(S21)) 
!S1P File: Measurement: S21:
# Hz S  dB   R 50
3000000000  -4.048014e+001  8.486821e+001 
3003125000  -4.236918e+001  7.686486e+001 
3006250000  -4.227010e+001  7.464992e+001 
3009375000  -4.280344e+001  8.002190e+001 
3012500000  -4.159076e+001  7.427538e+001 
3015625000  -4.148010e+001  6.877377e+001 
3018750000  -4.178429e+001  6.926855e+001 
3021875000  -4.031084e+001  7.096050e+001 
3025000000  -3.892678e+001  6.574778e+001 
3028125000  -3.803363e+001  5.667196e+001 
3031250000  -3.707598e+001  4.471820e+001 
3034375000  -3.687854e+001  3.032321e+001 
3037500000  -3.755241e+001  1.990721e+001 
3040625000  -3.890285e+001  1.423209e+001 
3043750000  -3.909689e+001  8.677360e+000 
3046875000  -3.965615e+001  2.881022e+000 
3050000000  -4.107082e+001  -2.659106e+000 
3053125000  -4.053875e+001  1.217932e+000 
3056250000  -4.056259e+001  4.165874e+000 
3059375000  -3.987387e+001  3.149944e+000 
3062500000  -3.823804e+001  -6.965611e-001 
3065625000  -3.790815e+001  -1.177248e+001 
3068750000  -3.765453e+001  -1.941777e+001 
3071875000  -3.758769e+001  -2.117607e+001 
3075000000  -3.714531e+001  -2.757429e+001 
3078125000  -3.704473e+001  -3.501040e+001 
3081250000  -3.729164e+001  -4.085777e+001 
3084375000  -3.629975e+001  -4.455893e+001 
3087500000  -3.643244e+001  -5.121902e+001 
3090625000  -3.598518e+001  -6.390197e+001 
3093750000  -3.685020e+001  -7.169904e+001 
3096875000  -3.742355e+001  -7.743683e+001 
3100000000  -3.724796e+001  -8.036055e+001 
3103125000  -3.756716e+001  -8.364748e+001 
3106250000  -3.711462e+001  -8.846382e+001 
3109375000  -3.736492e+001  -9.332918e+001 
3112500000  -3.719018e+001  -9.850105e+001 
3115625000  -3.699792e+001  -1.028183e+002 
3118750000  -3.724400e+001  -1.055657e+002 
3121875000  -3.653555e+001  -1.168092e+002 
3125000000  -3.820661e+001  -1.201936e+002 
3128125000  -3.853359e+001  -1.128900e+002 
3131250000  -3.618470e+001  -1.182956e+002 
3134375000  -3.528512e+001  -1.360031e+002 
3137500000  -3.598903e+001  -1.473450e+002 
3140625000  -3.730585e+001  -1.514104e+002 
3143750000  -3.814416e+001  -1.527979e+002 
3146875000  -3.772541e+001  -1.518231e+002 
3150000000  -3.697013e+001  -1.546120e+002 
3153125000  -3.725070e+001  -1.634485e+002 
3156250000  -3.787593e+001  -1.590860e+002 
3159375000  -3.567884e+001  -1.611461e+002 
3162500000  -3.417553e+001  -1.763636e+002 
3165625000  -3.537747e+001  1.698289e+002 
3168750000  -3.551361e+001  1.694685e+002 
3171875000  -3.482751e+001  1.621708e+002 
3175000000  -3.546456e+001  1.524509e+002 
3178125000  -3.505198e+001  1.517136e+002 
3181250000  -3.443554e+001  1.435774e+002 
3184375000  -3.426320e+001  1.313247e+002 
3187500000  -3.530561e+001  1.171529e+002 
3190625000  -3.730842e+001  1.114560e+002 
3193750000  -3.754102e+001  1.154776e+002 
3196875000  -3.752658e+001  1.171134e+002 
3200000000  -3.625108e+001  1.121899e+002 
3203125000  -3.594334e+001  1.046071e+002 
3206250000  -3.613231e+001  9.631077e+001 
3209375000  -3.583753e+001  8.868998e+001 
3212500000  -3.625708e+001  8.195219e+001 
3215625000  -3.602759e+001  7.850904e+001 
3218750000  -3.679141e+001  6.714246e+001 
3221875000  -3.733265e+001  6.079612e+001 
3225000000  -3.705355e+001  5.710601e+001 
3228125000  -3.771948e+001  5.006644e+001 
3231250000  -3.824921e+001  4.796065e+001 
3234375000  -3.803960e+001  4.440341e+001 
3237500000  -3.797062e+001  4.115977e+001 
3240625000  -3.759275e+001  3.539584e+001 
3243750000  -3.777842e+001  2.579177e+001 
3246875000  -3.814711e+001  1.848835e+001 
3250000000  -3.873513e+001  1.440632e+001 
3253125000  -3.898018e+001  1.112966e+001 
3256250000  -3.868830e+001  1.556602e+000 
3259375000  -3.918492e+001  -7.550389e+000 
3262500000  -4.070100e+001  -1.136676e+001 
3265625000  -4.127255e+001  -8.787098e+000 
3268750000  -4.109993e+001  -6.315035e+000 
3271875000  -4.049548e+001  -1.158052e+001 
3275000000  -4.015141e+001  -1.836430e+001 
3278125000  -4.085037e+001  -2.487559e+001 
3281250000  -4.099334e+001  -2.524539e+001 
3284375000  -4.043234e+001  -3.188279e+001 
3287500000  -4.091554e+001  -3.480700e+001 
3290625000  -4.118872e+001  -4.346707e+001 
3293750000  -4.108764e+001  -4.968541e+001 
3296875000  -4.235278e+001  -5.145258e+001 
3300000000  -4.177251e+001  -5.124400e+001 
3303125000  -4.090412e+001  -5.725998e+001 
3306250000  -4.077859e+001  -6.324019e+001 
3309375000  -4.051965e+001  -7.167162e+001 
3312500000  -4.073642e+001  -8.409771e+001 
3315625000  -4.198168e+001  -9.139052e+001 
3318750000  -4.338086e+001  -9.569481e+001 
3321875000  -4.508174e+001  -9.172585e+001 
3325000000  -4.460891e+001  -8.273324e+001 
3328125000  -4.395788e+001  -8.477975e+001 
3331250000  -4.249881e+001  -8.259598e+001 
3334375000  -3.971136e+001  -9.633623e+001 
3337500000  -4.054541e+001  -1.187903e+002 
3340625000  -4.197281e+001  -1.258467e+002 
3343750000  -4.399295e+001  -1.244278e+002 
3346875000  -4.324044e+001  -1.277016e+002 
3350000000  -4.300582e+001  -1.287361e+002 
3353125000  -4.269158e+001  -1.370706e+002 
3356250000  -4.245882e+001  -1.449088e+002 
3359375000  -4.333590e+001  -1.555472e+002 
3362500000  -4.433480e+001  -1.634129e+002 
3365625000  -4.464173e+001  -1.669334e+002 
3368750000  -4.509676e+001  -1.680005e+002 
3371875000  -4.567006e+001  -1.747921e+002 
3375000000  -4.741311e+001  -1.769419e+002 
3378125000  -4.800312e+001  -1.791826e+002 
3381250000  -4.928113e+001  -1.699454e+002 
3384375000  -4.658286e+001  -1.505169e+002 
3387500000  -4.389749e+001  -1.724102e+002 
3390625000  -4.605974e+001  1.639647e+002 
3393750000  -4.719870e+001  1.681648e+002 
3396875000  -4.605244e+001  1.646328e+002 
3400000000  -4.610611e+001  1.541849e+002 
3403125000  -4.683232e+001  1.467982e+002 
3406250000  -4.757460e+001  1.418248e+002 
3409375000  -4.768949e+001  1.362265e+002 
3412500000  -4.879138e+001  1.319373e+002 
3415625000  -4.979543e+001  1.300867e+002 
3418750000  -4.973762e+001  1.300736e+002 
3421875000  -5.100121e+001  1.354958e+002 
3425000000  -5.050475e+001  1.290870e+002 
3428125000  -4.963778e+001  1.298999e+002 
3431250000  -4.979515e+001  1.185754e+002 
3434375000  -4.994925e+001  1.141537e+002 
3437500000  -5.113598e+001  1.152229e+002 
3440625000  -5.158383e+001  1.161005e+002 
3443750000  -5.004214e+001  1.214401e+002 
3446875000  -5.030769e+001  1.172974e+002 
3450000000  -4.998719e+001  1.057510e+002 
3453125000  -5.065472e+001  9.281319e+001 
3456250000  -5.166644e+001  9.746712e+001 
3459375000  -5.247763e+001  9.981760e+001 
3462500000  -5.142143e+001  1.023100e+002 
3465625000  -5.130099e+001  9.473932e+001 
3468750000  -5.122233e+001  8.969964e+001 
3471875000  -5.129166e+001  9.154628e+001 
3475000000  -5.022377e+001  8.382703e+001 
3478125000  -5.105500e+001  7.097592e+001 
3481250000  -5.227189e+001  7.793805e+001 
3484375000  -5.174208e+001  8.040951e+001 
3487500000  -5.147532e+001  7.509480e+001 
3490625000  -5.156670e+001  6.496018e+001 
3493750000  -5.112922e+001  5.768462e+001 
3496875000  -5.049545e+001  5.789041e+001 
3500000000  -5.140936e+001  6.237172e+001 
3503125000  -5.067189e+001  6.000426e+001 
3506250000  -4.922975e+001  5.162592e+001 
3509375000  -4.947686e+001  3.769320e+001 
3512500000  -5.011099e+001  2.715908e+001 
3515625000  -5.102584e+001  2.261785e+001 
3518750000  -5.135307e+001  1.940607e+001 
3521875000  -5.140511e+001  1.355467e+001 
3525000000  -5.199037e+001  1.144880e+001 
3528125000  -5.186554e+001  1.815528e+001 
3531250000  -5.155127e+001  1.103330e+001 
3534375000  -5.259095e+001  -1.868918e+000 
3537500000  -5.346410e+001  -8.440207e+000 
3540625000  -5.391098e+001  -1.118621e+001 
3543750000  -5.525748e+001  -3.596559e+000 
3546875000  -5.442449e+001  -8.741711e+000 
3550000000  -5.352403e+001  -7.999023e+000 
3553125000  -5.339664e+001  -2.059284e+001 
3556250000  -5.437531e+001  -2.355988e+001 
3559375000  -5.535558e+001  -2.596124e+001 
3562500000  -5.443461e+001  -3.494614e+001 
3565625000  -5.562414e+001  -3.774780e+001 
3568750000  -5.683187e+001  -3.749270e+001 
3571875000  -5.742868e+001  -3.395573e+001 
3575000000  -5.718510e+001  -2.928242e+001 
3578125000  -5.810383e+001  -3.718333e+001 
3581250000  -5.772508e+001  -3.859668e+001 
3584375000  -5.741552e+001  -3.786904e+001 
3587500000  -5.798063e+001  -3.658742e+001 
3590625000  -5.705454e+001  -4.878261e+001 
3593750000  -5.894199e+001  -4.606955e+001 
3596875000  -5.737858e+001  -1.641055e+001 
3600000000  -5.876632e+001  -2.929888e+001 
3603125000  -5.751909e+001  -4.339614e+001 
3606250000  -5.905593e+001  -4.914475e+001 
3609375000  -5.869781e+001  -3.461957e+001 
3612500000  -5.970607e+001  -4.221159e+001 
3615625000  -5.849545e+001  -4.401527e+001 
3618750000  -5.788100e+001  -3.882172e+001 
3621875000  -5.861443e+001  -3.934586e+001 
3625000000  -5.687652e+001  -3.532115e+001 
3628125000  -5.727068e+001  -2.859673e+001 
3631250000  -5.765995e+001  -4.109662e+001 
3634375000  -5.792798e+001  -2.410378e+001 
3637500000  -5.624416e+001  -2.698086e+001 
3640625000  -5.567628e+001  -2.062718e+001 
3643750000  -5.275222e+001  -3.775449e+001 
3646875000  -5.284393e+001  -5.011182e+001 
3650000000  -5.384120e+001  -4.997072e+001 
3653125000  -5.236644e+001  -4.974400e+001 
3656250000  -5.181317e+001  -4.452694e+001 
3659375000  -5.149320e+001  -5.280536e+001 
3662500000  -5.133615e+001  -5.975110e+001 
3665625000  -5.072966e+001  -5.923134e+001 
3668750000  -4.800918e+001  -6.319354e+001 
3671875000  -4.757747e+001  -7.250111e+001 
3675000000  -4.791483e+001  -8.119125e+001 
3678125000  -4.721064e+001  -8.406612e+001 
3681250000  -4.691163e+001  -8.685690e+001 
3684375000  -4.683038e+001  -9.548369e+001 
3687500000  -4.704274e+001  -9.634615e+001 
3690625000  -4.675356e+001  -1.047312e+002 
3693750000  -4.732098e+001  -1.047628e+002 
3696875000  -4.654551e+001  -1.055574e+002 
3700000000  -4.545359e+001  -1.130635e+002 
3703125000  -4.590115e+001  -1.192359e+002 
3706250000  -4.607855e+001  -1.194066e+002 
3709375000  -4.488215e+001  -1.191626e+002 
3712500000  -4.366700e+001  -1.245950e+002 
3715625000  -4.211737e+001  -1.321363e+002 
3718750000  -4.183059e+001  -1.406591e+002 
3721875000  -4.133100e+001  -1.494536e+002 
3725000000  -4.160080e+001  -1.557404e+002 
3728125000  -4.130291e+001  -1.588639e+002 
3731250000  -4.100543e+001  -1.663131e+002 
3734375000  -4.017287e+001  -1.718449e+002 
3737500000  -4.100344e+001  1.788436e+002 
3740625000  -4.076067e+001  1.721485e+002 
3743750000  -4.044990e+001  1.649310e+002 
3746875000  -4.085977e+001  1.606958e+002 
3750000000  -4.070901e+001  1.534072e+002 
3753125000  -4.069902e+001  1.502983e+002 
3756250000  -4.063762e+001  1.482654e+002 
3759375000  -4.042464e+001  1.442309e+002 
3762500000  -4.009706e+001  1.358588e+002 
3765625000  -4.072991e+001  1.313999e+002 
3768750000  -4.026118e+001  1.317002e+002 
3771875000  -3.856681e+001  1.245680e+002 
3775000000  -3.843668e+001  1.128547e+002 
3778125000  -3.904697e+001  1.065507e+002 
3781250000  -3.886139e+001  1.016609e+002 
3784375000  -3.866159e+001  9.560202e+001 
3787500000  -3.832198e+001  9.137686e+001 
3790625000  -3.925987e+001  8.051875e+001 
3793750000  -3.909185e+001  7.762881e+001 
3796875000  -3.815595e+001  7.384481e+001 
3800000000  -3.650635e+001  6.943559e+001 
3803125000  -3.810439e+001  5.614540e+001 
3806250000  -3.883585e+001  5.110228e+001 
3809375000  -3.870580e+001  4.709480e+001 
3812500000  -3.858954e+001  3.957653e+001 
3815625000  -3.963966e+001  2.881634e+001 
3818750000  -4.048287e+001  3.030569e+001 
3821875000  -4.023757e+001  3.908546e+001 
3825000000  -3.839029e+001  3.557367e+001 
3828125000  -3.695527e+001  1.716887e+001 
3831250000  -3.819166e+001  3.948234e+000 
3834375000  -4.036836e+001  2.089271e+000 
3837500000  -4.077839e+001  6.045345e+000 
3840625000  -3.901748e+001  2.945448e+000 
3843750000  -3.843140e+001  -1.163599e+001 
3846875000  -3.950537e+001  -1.885196e+001 
3850000000  -4.071101e+001  -1.229678e+001 
3853125000  -3.981524e+001  -1.223664e+001 
3856250000  -3.953045e+001  -2.093848e+001 
3859375000  -3.865958e+001  -2.664299e+001 
3862500000  -3.854327e+001  -3.685955e+001 
3865625000  -3.910865e+001  -4.111177e+001 
3868750000  -3.855151e+001  -4.196834e+001 
3871875000  -3.807817e+001  -4.850038e+001 
3875000000  -3.834065e+001  -5.896148e+001 
3878125000  -3.954248e+001  -6.234767e+001 
3881250000  -3.915836e+001  -6.176198e+001 
3884375000  -3.858827e+001  -7.043127e+001 
3887500000  -3.910964e+001  -7.577815e+001 
3890625000  -3.953419e+001  -8.027814e+001 
3893750000  -3.980222e+001  -8.156721e+001 
3896875000  -3.998869e+001  -8.553195e+001 
3900000000  -3.988314e+001  -8.828493e+001 
3903125000  -3.923637e+001  -9.470805e+001 
3906250000  -3.887048e+001  -9.587788e+001 
3909375000  -3.817083e+001  -1.055775e+002 
3912500000  -3.907333e+001  -1.139642e+002 
3915625000  -4.045918e+001  -1.141425e+002 
3918750000  -4.011291e+001  -1.162549e+002 
3921875000  -3.931174e+001  -1.214891e+002 
3925000000  -3.834238e+001  -1.256344e+002 
3928125000  -3.839133e+001  -1.356108e+002 
3931250000  -3.901764e+001  -1.406650e+002 
3934375000  -3.928181e+001  -1.411874e+002 
3937500000  -3.989177e+001  -1.466921e+002 
3940625000  -4.013653e+001  -1.471096e+002 
3943750000  -3.858534e+001  -1.497652e+002 
3946875000  -3.839775e+001  -1.579963e+002 
3950000000  -3.929070e+001  -1.664619e+002 
3953125000  -3.997773e+001  -1.661905e+002 
3956250000  -3.896581e+001  -1.696501e+002 
3959375000  -3.761006e+001  -1.747712e+002 
3962500000  -3.755363e+001  1.791276e+002 
3965625000  -3.755137e+001  1.689064e+002 
3968750000  -3.857131e+001  1.605695e+002 
3971875000  -3.856231e+001  1.550208e+002 
3975000000  -3.821770e+001  1.513304e+002 
3978125000  -3.850638e+001  1.466683e+002 
3981250000  -3.833637e+001  1.410391e+002 
3984375000  -3.891668e+001  1.335871e+002 
3987500000  -3.940758e+001  1.294044e+002 
3990625000  -3.981408e+001  1.296730e+002 
3993750000  -3.990371e+001  1.228973e+002 
3996875000  -3.993459e+001  1.174985e+002 
4000000000  -4.042909e+001  1.136978e+002 
4003125000  -4.094168e+001  1.157280e+002 
4006250000  -3.906361e+001  1.138666e+002 
4009375000  -3.860769e+001  9.999696e+001 
4012500000  -3.991862e+001  9.180569e+001 
4015625000  -4.110130e+001  8.989294e+001 
4018750000  -4.116943e+001  9.072961e+001 
4021875000  -4.068865e+001  8.912884e+001 
4025000000  -3.997882e+001  8.431277e+001 
4028125000  -4.009259e+001  7.670967e+001 
4031250000  -4.083526e+001  7.042196e+001 
4034375000  -4.119201e+001  6.993705e+001 
4037500000  -4.080641e+001  7.064259e+001 
4040625000  -4.077966e+001  6.722997e+001 
4043750000  -4.051676e+001  6.451964e+001 
4046875000  -4.048461e+001  6.057090e+001 
4050000000  -4.046658e+001  5.534446e+001 
4053125000  -4.097295e+001  4.908997e+001 
4056250000  -4.095343e+001  5.557265e+001 
4059375000  -3.937002e+001  5.423862e+001 
4062500000  -3.880299e+001  4.647544e+001 
4065625000  -3.863852e+001  4.170956e+001 
4068750000  -3.788619e+001  3.440105e+001 
4071875000  -3.755841e+001  2.319427e+001 
4075000000  -3.818397e+001  1.713579e+001 
4078125000  -3.834611e+001  1.261133e+001 
4081250000  -3.780918e+001  8.386266e+000 
4084375000  -3.784075e+001  -2.737630e+000 
4087500000  -3.809042e+001  -9.152660e+000 
4090625000  -3.898546e+001  -1.082773e+001 
4093750000  -3.853722e+001  -1.224175e+001 
4096875000  -3.855426e+001  -2.274035e+001 
4100000000  -3.916304e+001  -2.987072e+001 
4103125000  -4.008085e+001  -2.724464e+001 
4106250000  -3.966297e+001  -2.533578e+001 
4109375000  -3.879094e+001  -2.843946e+001 
4112500000  -3.830724e+001  -3.790005e+001 
4115625000  -3.885624e+001  -4.396667e+001 
4118750000  -3.861310e+001  -4.868391e+001 
4121875000  -3.857505e+001  -5.645377e+001 
4125000000  -3.951889e+001  -6.197823e+001 
4128125000  -4.057000e+001  -6.002466e+001 
4131250000  -3.947141e+001  -5.600433e+001 
4134375000  -3.728927e+001  -6.499483e+001 
4137500000  -3.777958e+001  -8.584415e+001 
4140625000  -4.020008e+001  -9.211730e+001 
4143750000  -4.117948e+001  -8.614684e+001 
4146875000  -4.015287e+001  -8.090193e+001 
4150000000  -3.932754e+001  -8.902287e+001 
4153125000  -3.982824e+001  -9.907807e+001 
4156250000  -4.057875e+001  -1.011935e+002 
4159375000  -4.066663e+001  -9.683016e+001 
4162500000  -3.950072e+001  -9.530350e+001 
4165625000  -3.867763e+001  -1.029186e+002 
4168750000  -3.810474e+001  -1.137092e+002 
4171875000  -3.804747e+001  -1.223860e+002 
4175000000  -3.876893e+001  -1.309099e+002 
4178125000  -3.936187e+001  -1.310335e+002 
4181250000  -3.876744e+001  -1.330831e+002 
4184375000  -3.886722e+001  -1.384133e+002 
4187500000  -3.902004e+001  -1.442964e+002 
4190625000  -3.904485e+001  -1.513876e+002 
4193750000  -4.010812e+001  -1.555440e+002 
4196875000  -4.101548e+001  -1.561914e+002 
4200000000  -4.193631e+001  -1.525480e+002 
4203125000  -4.059117e+001  -1.386706e+002 
4206250000  -3.708185e+001  -1.464495e+002 
4209375000  -3.664500e+001  -1.698772e+002 
4212500000  -3.880203e+001  -1.796952e+002 
4215625000  -3.950023e+001  -1.718661e+002 
4218750000  -3.783842e+001  -1.687214e+002 
4221875000  -3.620620e+001  1.796868e+002 
4225000000  -3.718816e+001  1.665218e+002 
4228125000  -3.741560e+001  1.687887e+002 
4231250000  -3.581973e+001  1.624950e+002 
4234375000  -3.589499e+001  1.509191e+002 
4237500000  -3.551468e+001  1.458026e+002 
4240625000  -3.578655e+001  1.353275e+002 
4243750000  -3.705799e+001  1.268198e+002 
4246875000  -3.795382e+001  1.266208e+002 
4250000000  -3.775439e+001  1.263125e+002 
4253125000  -3.763537e+001  1.229781e+002 
4256250000  -3.756196e+001  1.173489e+002 
4259375000  -3.706158e+001  1.124605e+002 
4262500000  -3.739735e+001  1.074664e+002 
4265625000  -3.738689e+001  1.047350e+002 
4268750000  -3.621981e+001  9.787820e+001 
4271875000  -3.622799e+001  8.925207e+001 
4275000000  -3.588910e+001  8.049683e+001 
4278125000  -3.711848e+001  6.870193e+001 
4281250000  -3.843909e+001  6.682420e+001 
4284375000  -3.841943e+001  6.305747e+001 
4287500000  -3.960327e+001  5.992179e+001 
4290625000  -4.017242e+001  6.947092e+001 
4293750000  -3.800431e+001  7.028376e+001 
4296875000  -3.710162e+001  5.901702e+001 
4300000000  -3.831766e+001  4.715429e+001 
4303125000  -3.904599e+001  4.928567e+001 
4306250000  -3.812488e+001  5.287759e+001 
4309375000  -3.697358e+001  4.541723e+001 
4312500000  -3.705371e+001  3.514539e+001 
4315625000  -3.738386e+001  2.803601e+001 
4318750000  -3.804819e+001  2.252092e+001 
4321875000  -3.817920e+001  2.292761e+001 
4325000000  -3.741974e+001  2.108988e+001 
4328125000  -3.694722e+001  1.231811e+001 
4331250000  -3.691325e+001  2.179010e+000 
4334375000  -3.777888e+001  -4.454431e+000 
4337500000  -3.880740e+001  -4.230590e+000 
4340625000  -3.931795e+001  -2.702132e+000 
4343750000  -3.793329e+001  -4.721416e+000 
4346875000  -3.752693e+001  -1.341711e+001 
4350000000  -3.786625e+001  -2.046467e+001 
4353125000  -3.826845e+001  -2.903884e+001 
4356250000  -4.052394e+001  -2.398562e+001 
4359375000  -3.943414e+001  -1.331641e+001 
4362500000  -3.598068e+001  -1.698806e+001 
4365625000  -3.520169e+001  -3.555051e+001 
4368750000  -3.637803e+001  -4.640864e+001 
4371875000  -3.720463e+001  -4.556837e+001 
4375000000  -3.662630e+001  -4.894736e+001 
4378125000  -3.649273e+001  -5.702233e+001 
4381250000  -3.657161e+001  -6.562022e+001 
4384375000  -3.664006e+001  -7.335339e+001 
4387500000  -3.756059e+001  -8.009206e+001 
4390625000  -3.820958e+001  -7.946116e+001 
4393750000  -3.749555e+001  -7.950972e+001 
4396875000  -3.674802e+001  -8.582861e+001 
4400000000  -3.632841e+001  -9.346446e+001 
4403125000  -3.708435e+001  -1.033998e+002 
4406250000  -3.785847e+001  -1.062764e+002 
4409375000  -3.831347e+001  -1.101859e+002 
4412500000  -3.902563e+001  -1.139441e+002 
4415625000  -3.905860e+001  -1.086099e+002 
