!Agilent Technologies,E8363B,MY43030201,A.06.04.32
!Agilent E8363B: A.06.04.32
!Date: Tuesday, November 11, 2014 21:38:43
!Correction: S21(Response(S21)) 
!S1P File: Measurement: S21:
# Hz S  dB   R 50
3000000000  -4.060728e+001  6.835052e+001 
3003125000  -4.223662e+001  6.077172e+001 
3006250000  -4.220037e+001  6.032227e+001 
3009375000  -4.269633e+001  6.579307e+001 
3012500000  -4.128013e+001  5.994561e+001 
3015625000  -4.161428e+001  5.354002e+001 
3018750000  -4.183634e+001  5.557462e+001 
3021875000  -4.022157e+001  5.606554e+001 
3025000000  -3.891992e+001  5.128629e+001 
3028125000  -3.783368e+001  4.098370e+001 
3031250000  -3.690937e+001  2.885510e+001 
3034375000  -3.668417e+001  1.530553e+001 
3037500000  -3.761903e+001  4.929653e+000 
3040625000  -3.879565e+001  -6.349878e-001 
3043750000  -3.922125e+001  -8.248842e+000 
3046875000  -3.976546e+001  -1.237644e+001 
3050000000  -4.091256e+001  -1.651987e+001 
3053125000  -4.052377e+001  -1.182115e+001 
3056250000  -4.051214e+001  -1.016795e+001 
3059375000  -3.959494e+001  -1.091723e+001 
3062500000  -3.833110e+001  -1.706523e+001 
3065625000  -3.793361e+001  -2.681644e+001 
3068750000  -3.757315e+001  -3.462748e+001 
3071875000  -3.760174e+001  -3.630824e+001 
3075000000  -3.693747e+001  -4.355627e+001 
3078125000  -3.709747e+001  -4.953408e+001 
3081250000  -3.711730e+001  -5.552319e+001 
3084375000  -3.635990e+001  -5.992439e+001 
3087500000  -3.639500e+001  -6.704874e+001 
3090625000  -3.597691e+001  -7.936651e+001 
3093750000  -3.690105e+001  -8.718959e+001 
3096875000  -3.743342e+001  -9.206120e+001 
3100000000  -3.726348e+001  -9.508408e+001 
3103125000  -3.754875e+001  -9.953516e+001 
3106250000  -3.723567e+001  -1.038119e+002 
3109375000  -3.728049e+001  -1.083661e+002 
3112500000  -3.716919e+001  -1.138681e+002 
3115625000  -3.719588e+001  -1.185815e+002 
3118750000  -3.723285e+001  -1.208338e+002 
3121875000  -3.657463e+001  -1.322561e+002 
3125000000  -3.852224e+001  -1.348046e+002 
3128125000  -3.842182e+001  -1.281761e+002 
3131250000  -3.609373e+001  -1.354183e+002 
3134375000  -3.530527e+001  -1.513581e+002 
3137500000  -3.604146e+001  -1.638221e+002 
3140625000  -3.730818e+001  -1.660827e+002 
3143750000  -3.804286e+001  -1.691057e+002 
3146875000  -3.770338e+001  -1.666025e+002 
3150000000  -3.695621e+001  -1.714597e+002 
3153125000  -3.733748e+001  -1.787531e+002 
3156250000  -3.789743e+001  -1.743887e+002 
3159375000  -3.566464e+001  -1.762594e+002 
3162500000  -3.426775e+001  1.674348e+002 
3165625000  -3.547099e+001  1.549776e+002 
3168750000  -3.535339e+001  1.536935e+002 
3171875000  -3.484777e+001  1.463871e+002 
3175000000  -3.541882e+001  1.378889e+002 
3178125000  -3.496465e+001  1.359577e+002 
3181250000  -3.451680e+001  1.274304e+002 
3184375000  -3.426953e+001  1.159205e+002 
3187500000  -3.542683e+001  1.022703e+002 
3190625000  -3.731046e+001  9.583601e+001 
3193750000  -3.739486e+001  1.003803e+002 
3196875000  -3.727867e+001  1.020545e+002 
3200000000  -3.611277e+001  9.719631e+001 
3203125000  -3.587521e+001  8.815798e+001 
3206250000  -3.616978e+001  8.029253e+001 
3209375000  -3.579622e+001  7.344353e+001 
3212500000  -3.628795e+001  6.527312e+001 
3215625000  -3.606873e+001  6.271220e+001 
3218750000  -3.667717e+001  5.232108e+001 
3221875000  -3.722599e+001  4.575003e+001 
3225000000  -3.702341e+001  4.162943e+001 
3228125000  -3.765915e+001  3.473381e+001 
3231250000  -3.815513e+001  3.227364e+001 
3234375000  -3.778084e+001  3.012806e+001 
3237500000  -3.789701e+001  2.532506e+001 
3240625000  -3.744173e+001  1.936189e+001 
3243750000  -3.761402e+001  1.035699e+001 
3246875000  -3.827496e+001  8.216895e-001 
3250000000  -3.882864e+001  -2.560800e+000 
3253125000  -3.897758e+001  -5.078269e+000 
3256250000  -3.849794e+001  -1.271875e+001 
3259375000  -3.910623e+001  -2.484445e+001 
3262500000  -4.061812e+001  -2.759045e+001 
3265625000  -4.099669e+001  -2.501168e+001 
3268750000  -4.130883e+001  -2.330225e+001 
3271875000  -4.040856e+001  -2.750923e+001 
3275000000  -4.029366e+001  -3.680510e+001 
3278125000  -4.063451e+001  -4.119599e+001 
3281250000  -4.100577e+001  -4.129252e+001 
3284375000  -4.067229e+001  -4.770937e+001 
3287500000  -4.080202e+001  -5.228556e+001 
3290625000  -4.118598e+001  -5.979312e+001 
3293750000  -4.116814e+001  -6.697686e+001 
3296875000  -4.224902e+001  -6.615558e+001 
3300000000  -4.156428e+001  -6.668028e+001 
3303125000  -4.086039e+001  -7.468282e+001 
3306250000  -4.074144e+001  -8.004321e+001 
3309375000  -4.041558e+001  -8.780469e+001 
3312500000  -4.082450e+001  -1.010506e+002 
3315625000  -4.228955e+001  -1.079870e+002 
3318750000  -4.371605e+001  -1.097195e+002 
3321875000  -4.502133e+001  -1.076352e+002 
3325000000  -4.461667e+001  -9.922393e+001 
3328125000  -4.327683e+001  -1.011140e+002 
3331250000  -4.190398e+001  -9.808401e+001 
3334375000  -3.975196e+001  -1.148789e+002 
3337500000  -4.033508e+001  -1.351067e+002 
3340625000  -4.227072e+001  -1.449924e+002 
3343750000  -4.427234e+001  -1.425095e+002 
3346875000  -4.311966e+001  -1.436144e+002 
3350000000  -4.284937e+001  -1.460085e+002 
3353125000  -4.252364e+001  -1.544355e+002 
3356250000  -4.252906e+001  -1.633443e+002 
3359375000  -4.346708e+001  -1.734280e+002 
3362500000  -4.428687e+001  -1.789233e+002 
3365625000  -4.479254e+001  1.778088e+002 
3368750000  -4.536140e+001  1.718061e+002 
3371875000  -4.604210e+001  1.680478e+002 
3375000000  -4.672342e+001  1.657530e+002 
3378125000  -4.789064e+001  1.665863e+002 
3381250000  -4.961033e+001  1.778293e+002 
3384375000  -4.628741e+001  -1.706113e+002 
3387500000  -4.377473e+001  1.701798e+002 
3390625000  -4.604807e+001  1.492243e+002 
3393750000  -4.674885e+001  1.501328e+002 
3396875000  -4.635704e+001  1.452953e+002 
3400000000  -4.597936e+001  1.362516e+002 
3403125000  -4.701971e+001  1.319283e+002 
3406250000  -4.745251e+001  1.292624e+002 
3409375000  -4.779013e+001  1.215991e+002 
3412500000  -4.858621e+001  1.142525e+002 
3415625000  -4.970361e+001  1.103581e+002 
3418750000  -5.033224e+001  1.142862e+002 
3421875000  -5.136496e+001  1.182203e+002 
3425000000  -5.011555e+001  1.190719e+002 
3428125000  -4.990866e+001  1.154663e+002 
3431250000  -5.023188e+001  1.009759e+002 
3434375000  -5.039339e+001  9.734482e+001 
3437500000  -5.199579e+001  1.009488e+002 
3440625000  -5.235538e+001  9.888156e+001 
3443750000  -5.039343e+001  1.041594e+002 
3446875000  -5.097518e+001  9.529994e+001 
3450000000  -5.095471e+001  8.735556e+001 
3453125000  -5.081864e+001  7.578704e+001 
3456250000  -5.128381e+001  7.339359e+001 
3459375000  -5.351164e+001  8.177612e+001 
3462500000  -5.188716e+001  8.553593e+001 
3465625000  -5.113084e+001  7.409472e+001 
3468750000  -5.283393e+001  7.249104e+001 
3471875000  -5.226534e+001  7.208839e+001 
3475000000  -5.071944e+001  6.746787e+001 
3478125000  -5.090681e+001  5.749039e+001 
3481250000  -5.228918e+001  5.554432e+001 
3484375000  -5.212683e+001  6.157472e+001 
3487500000  -5.158229e+001  5.899059e+001 
3490625000  -5.084196e+001  5.000130e+001 
3493750000  -5.068699e+001  4.394070e+001 
3496875000  -5.193673e+001  4.304477e+001 
3500000000  -5.209190e+001  4.445183e+001 
3503125000  -5.037580e+001  4.342089e+001 
3506250000  -4.950587e+001  3.413715e+001 
3509375000  -4.941381e+001  2.152755e+001 
3512500000  -5.008571e+001  6.907950e+000 
3515625000  -5.087083e+001  1.609721e+000 
3518750000  -5.184534e+001  4.579854e+000 
3521875000  -5.142133e+001  1.656512e+000 
3525000000  -5.294176e+001  -7.375754e+000 
3528125000  -5.279527e+001  -9.402268e-002 
3531250000  -5.128517e+001  -9.652912e+000 
3534375000  -5.306846e+001  -2.065516e+001 
3537500000  -5.330528e+001  -2.821195e+001 
3540625000  -5.437014e+001  -3.005898e+001 
3543750000  -5.532736e+001  -2.187275e+001 
3546875000  -5.443429e+001  -5.545994e+000 
3550000000  -5.380286e+001  -1.873414e+001 
3553125000  -5.372554e+001  -3.263796e+001 
3556250000  -5.461440e+001  -3.560999e+001 
3559375000  -5.462706e+001  -4.079866e+001 
3562500000  -5.527604e+001  -5.052654e+001 
3565625000  -5.764837e+001  -5.225750e+001 
3568750000  -5.698641e+001  -4.308270e+001 
3571875000  -5.782604e+001  -4.646710e+001 
3575000000  -5.917222e+001  -4.060630e+001 
3578125000  -5.826150e+001  -5.193408e+001 
3581250000  -5.604030e+001  -3.514325e+001 
3584375000  -5.703360e+001  -3.928631e+001 
3587500000  -5.614572e+001  -4.724204e+001 
3590625000  -5.789895e+001  -6.728177e+001 
3593750000  -5.917516e+001  -5.148322e+001 
3596875000  -5.749277e+001  -4.239685e+001 
3600000000  -5.716533e+001  -5.012339e+001 
3603125000  -5.870418e+001  -7.315497e+001 
3606250000  -5.859185e+001  -5.657041e+001 
3609375000  -5.817645e+001  -5.389389e+001 
3612500000  -5.692957e+001  -5.895563e+001 
3615625000  -5.952594e+001  -6.035981e+001 
3618750000  -5.927063e+001  -4.771783e+001 
3621875000  -5.789922e+001  -4.830926e+001 
3625000000  -5.768896e+001  -5.379659e+001 
3628125000  -5.665911e+001  -4.975527e+001 
3631250000  -5.541799e+001  -5.350706e+001 
3634375000  -5.590814e+001  -4.398808e+001 
3637500000  -5.635859e+001  -4.514458e+001 
3640625000  -5.405817e+001  -4.726474e+001 
3643750000  -5.290419e+001  -5.351991e+001 
3646875000  -5.307214e+001  -6.077372e+001 
3650000000  -5.335698e+001  -5.549591e+001 
3653125000  -5.218456e+001  -6.709335e+001 
3656250000  -5.216712e+001  -7.058679e+001 
3659375000  -5.191442e+001  -7.146224e+001 
3662500000  -5.070482e+001  -7.240987e+001 
3665625000  -5.016377e+001  -7.734460e+001 
3668750000  -4.885325e+001  -7.761132e+001 
3671875000  -4.690002e+001  -9.236655e+001 
3675000000  -4.697141e+001  -9.782996e+001 
3678125000  -4.779760e+001  -1.025324e+002 
3681250000  -4.666101e+001  -1.065467e+002 
3684375000  -4.652701e+001  -1.098450e+002 
3687500000  -4.640815e+001  -1.181795e+002 
3690625000  -4.707141e+001  -1.213394e+002 
3693750000  -4.758679e+001  -1.246477e+002 
3696875000  -4.644666e+001  -1.225951e+002 
3700000000  -4.533721e+001  -1.293678e+002 
3703125000  -4.503839e+001  -1.370421e+002 
3706250000  -4.614502e+001  -1.368612e+002 
3709375000  -4.468408e+001  -1.344843e+002 
3712500000  -4.317711e+001  -1.431057e+002 
3715625000  -4.212863e+001  -1.523854e+002 
3718750000  -4.172766e+001  -1.594683e+002 
3721875000  -4.116642e+001  -1.680807e+002 
3725000000  -4.179222e+001  -1.731995e+002 
3728125000  -4.118869e+001  -1.778211e+002 
3731250000  -4.056055e+001  1.764669e+002 
3734375000  -4.004324e+001  1.696440e+002 
3737500000  -4.099815e+001  1.605401e+002 
3740625000  -4.094147e+001  1.542535e+002 
3743750000  -4.038820e+001  1.460352e+002 
3746875000  -4.073008e+001  1.402100e+002 
3750000000  -4.097955e+001  1.363436e+002 
3753125000  -4.044693e+001  1.336833e+002 
3756250000  -4.090764e+001  1.296641e+002 
3759375000  -4.052505e+001  1.242074e+002 
3762500000  -4.020510e+001  1.171237e+002 
3765625000  -4.063180e+001  1.123568e+002 
3768750000  -4.008134e+001  1.142198e+002 
3771875000  -3.852688e+001  1.058957e+002 
3775000000  -3.849564e+001  9.360023e+001 
3778125000  -3.900211e+001  8.642707e+001 
3781250000  -3.900965e+001  8.409603e+001 
3784375000  -3.889568e+001  7.721870e+001 
3787500000  -3.839141e+001  7.248746e+001 
3790625000  -3.911909e+001  6.286344e+001 
3793750000  -3.914975e+001  5.899515e+001 
3796875000  -3.799503e+001  5.589857e+001 
3800000000  -3.638966e+001  5.039197e+001 
3803125000  -3.812761e+001  3.771404e+001 
3806250000  -3.879386e+001  3.309911e+001 
3809375000  -3.857378e+001  2.911419e+001 
3812500000  -3.842237e+001  1.988615e+001 
3815625000  -3.949308e+001  1.163107e+001 
3818750000  -4.067484e+001  1.129708e+001 
3821875000  -3.992502e+001  2.236850e+001 
3825000000  -3.824001e+001  1.720722e+001 
3828125000  -3.683622e+001  -2.403097e+000 
3831250000  -3.822237e+001  -1.608886e+001 
3834375000  -4.040468e+001  -1.693037e+001 
3837500000  -4.081453e+001  -1.235439e+001 
3840625000  -3.901865e+001  -1.559465e+001 
3843750000  -3.827982e+001  -3.057166e+001 
3846875000  -4.003463e+001  -3.648447e+001 
3850000000  -4.087901e+001  -2.833083e+001 
3853125000  -4.000614e+001  -2.942579e+001 
3856250000  -3.949895e+001  -3.796582e+001 
3859375000  -3.840685e+001  -4.722647e+001 
3862500000  -3.850566e+001  -5.542183e+001 
3865625000  -3.883229e+001  -6.080392e+001 
3868750000  -3.871785e+001  -6.232043e+001 
3871875000  -3.795677e+001  -6.986915e+001 
3875000000  -3.867329e+001  -7.951471e+001 
3878125000  -3.948870e+001  -8.163837e+001 
3881250000  -3.893042e+001  -8.033096e+001 
3884375000  -3.857105e+001  -8.857473e+001 
3887500000  -3.905129e+001  -9.526493e+001 
3890625000  -3.962731e+001  -9.888315e+001 
3893750000  -3.961232e+001  -1.017438e+002 
3896875000  -4.009503e+001  -1.025016e+002 
3900000000  -3.974458e+001  -1.081379e+002 
3903125000  -3.928783e+001  -1.120021e+002 
3906250000  -3.879100e+001  -1.167426e+002 
3909375000  -3.830157e+001  -1.252197e+002 
3912500000  -3.931412e+001  -1.353000e+002 
3915625000  -4.057198e+001  -1.339245e+002 
3918750000  -4.001913e+001  -1.348006e+002 
3921875000  -3.928323e+001  -1.390345e+002 
3925000000  -3.844811e+001  -1.453059e+002 
3928125000  -3.838191e+001  -1.552797e+002 
3931250000  -3.909174e+001  -1.619188e+002 
3934375000  -3.957764e+001  -1.627925e+002 
3937500000  -4.027655e+001  -1.660846e+002 
3940625000  -3.989584e+001  -1.660065e+002 
3943750000  -3.868112e+001  -1.716384e+002 
3946875000  -3.864397e+001  1.799042e+002 
3950000000  -3.949102e+001  1.707602e+002 
3953125000  -4.009954e+001  1.732279e+002 
3956250000  -3.864483e+001  1.731593e+002 
3959375000  -3.780492e+001  1.674967e+002 
3962500000  -3.775936e+001  1.585956e+002 
3965625000  -3.781006e+001  1.478708e+002 
3968750000  -3.868800e+001  1.409707e+002 
3971875000  -3.850057e+001  1.359115e+002 
3975000000  -3.820646e+001  1.309066e+002 
3978125000  -3.844654e+001  1.280891e+002 
3981250000  -3.850452e+001  1.208130e+002 
3984375000  -3.890551e+001  1.125145e+002 
3987500000  -3.947943e+001  1.095629e+002 
3990625000  -3.973706e+001  1.082772e+002 
3993750000  -3.993808e+001  1.027611e+002 
3996875000  -3.990724e+001  9.873241e+001 
4000000000  -4.071915e+001  9.425108e+001 
4003125000  -4.111451e+001  9.525021e+001 
4006250000  -3.907214e+001  9.403295e+001 
4009375000  -3.856913e+001  8.094061e+001 
4012500000  -4.014637e+001  7.101418e+001 
4015625000  -4.164964e+001  6.961449e+001 
4018750000  -4.103866e+001  7.084061e+001 
4021875000  -4.045420e+001  6.714207e+001 
4025000000  -4.025443e+001  6.083300e+001 
4028125000  -4.026937e+001  5.452035e+001 
4031250000  -4.121378e+001  5.116584e+001 
4034375000  -4.143435e+001  5.005854e+001 
4037500000  -4.105276e+001  4.968278e+001 
4040625000  -4.087613e+001  4.464064e+001 
4043750000  -4.098716e+001  4.503423e+001 
4046875000  -4.076174e+001  3.749561e+001 
4050000000  -4.048825e+001  3.379505e+001 
4053125000  -4.133202e+001  3.270159e+001 
4056250000  -4.145084e+001  3.654388e+001 
4059375000  -3.928537e+001  3.306055e+001 
4062500000  -3.878046e+001  2.367054e+001 
4065625000  -3.884334e+001  1.889367e+001 
4068750000  -3.807642e+001  1.307422e+001 
4071875000  -3.783941e+001  2.355006e+000 
4075000000  -3.849888e+001  -5.856362e+000 
4078125000  -3.865987e+001  -7.303960e+000 
4081250000  -3.817734e+001  -1.285218e+001 
4084375000  -3.801960e+001  -2.285613e+001 
4087500000  -3.868727e+001  -3.002805e+001 
4090625000  -3.916742e+001  -3.136143e+001 
4093750000  -3.855533e+001  -3.338675e+001 
4096875000  -3.879353e+001  -4.521619e+001 
4100000000  -3.969676e+001  -4.944506e+001 
4103125000  -4.064005e+001  -4.847500e+001 
4106250000  -3.997591e+001  -4.471368e+001 
4109375000  -3.882996e+001  -4.975824e+001 
4112500000  -3.876005e+001  -5.631245e+001 
4115625000  -3.927905e+001  -6.449786e+001 
4118750000  -3.890380e+001  -6.959282e+001 
4121875000  -3.884227e+001  -7.692647e+001 
4125000000  -4.005164e+001  -8.371011e+001 
4128125000  -4.067072e+001  -8.023210e+001 
4131250000  -3.974391e+001  -7.758175e+001 
4134375000  -3.764122e+001  -8.477291e+001 
4137500000  -3.824296e+001  -1.064380e+002 
4140625000  -4.039289e+001  -1.123442e+002 
4143750000  -4.150469e+001  -1.055628e+002 
4146875000  -4.065468e+001  -1.043654e+002 
4150000000  -3.957304e+001  -1.104135e+002 
4153125000  -3.976406e+001  -1.186194e+002 
4156250000  -4.119060e+001  -1.215171e+002 
4159375000  -4.113442e+001  -1.164462e+002 
4162500000  -3.983565e+001  -1.171686e+002 
4165625000  -3.891521e+001  -1.238259e+002 
4168750000  -3.831250e+001  -1.329865e+002 
4171875000  -3.839429e+001  -1.428944e+002 
4175000000  -3.905232e+001  -1.482343e+002 
4178125000  -3.968019e+001  -1.482992e+002 
4181250000  -3.936379e+001  -1.554381e+002 
4184375000  -3.944329e+001  -1.587340e+002 
4187500000  -3.939545e+001  -1.626587e+002 
4190625000  -3.947511e+001  -1.715679e+002 
4193750000  -4.048355e+001  -1.757913e+002 
4196875000  -4.123755e+001  -1.766524e+002 
4200000000  -4.256684e+001  -1.705111e+002 
4203125000  -4.063534e+001  -1.570920e+002 
4206250000  -3.719600e+001  -1.689382e+002 
4209375000  -3.702726e+001  1.688041e+002 
4212500000  -3.951413e+001  1.616661e+002 
4215625000  -4.022677e+001  1.705759e+002 
4218750000  -3.805891e+001  1.691152e+002 
4221875000  -3.661183e+001  1.601718e+002 
4225000000  -3.778151e+001  1.487737e+002 
4228125000  -3.765495e+001  1.485723e+002 
4231250000  -3.639650e+001  1.414014e+002 
4234375000  -3.642668e+001  1.316165e+002 
4237500000  -3.590856e+001  1.249340e+002 
4240625000  -3.616159e+001  1.140319e+002 
4243750000  -3.734192e+001  1.053960e+002 
4246875000  -3.844226e+001  1.063141e+002 
4250000000  -3.814787e+001  1.050597e+002 
4253125000  -3.814992e+001  1.019665e+002 
4256250000  -3.783955e+001  9.734949e+001 
4259375000  -3.755667e+001  9.276863e+001 
4262500000  -3.786750e+001  8.648164e+001 
4265625000  -3.786404e+001  8.585362e+001 
4268750000  -3.690742e+001  7.801211e+001 
4271875000  -3.672942e+001  6.795992e+001 
4275000000  -3.659393e+001  6.078000e+001 
4278125000  -3.756139e+001  4.775924e+001 
4281250000  -3.893525e+001  4.640408e+001 
4284375000  -3.888022e+001  4.282908e+001 
4287500000  -4.011436e+001  4.238264e+001 
4290625000  -4.082146e+001  4.830517e+001 
4293750000  -3.871022e+001  5.080130e+001 
4296875000  -3.773435e+001  3.698488e+001 
4300000000  -3.886630e+001  2.629005e+001 
4303125000  -3.970494e+001  3.196451e+001 
4306250000  -3.820994e+001  3.287387e+001 
4309375000  -3.747702e+001  2.795362e+001 
4312500000  -3.760152e+001  1.415809e+001 
4315625000  -3.784966e+001  7.051701e+000 
4318750000  -3.860499e+001  3.829015e+000 
4321875000  -3.841153e+001  5.328213e+000 
4325000000  -3.807772e+001  3.781047e+000 
4328125000  -3.703507e+001  -7.185444e+000 
4331250000  -3.725632e+001  -1.890799e+001 
4334375000  -3.824313e+001  -2.433165e+001 
4337500000  -3.964463e+001  -2.486758e+001 
4340625000  -3.943514e+001  -1.978863e+001 
4343750000  -3.836104e+001  -2.304385e+001 
4346875000  -3.819486e+001  -3.354883e+001 
4350000000  -3.812408e+001  -4.006066e+001 
4353125000  -3.884479e+001  -4.703452e+001 
4356250000  -4.115352e+001  -4.321051e+001 
4359375000  -4.004038e+001  -3.188392e+001 
4362500000  -3.613837e+001  -3.761440e+001 
4365625000  -3.594682e+001  -5.626783e+001 
4368750000  -3.710490e+001  -6.608057e+001 
4371875000  -3.782790e+001  -6.621947e+001 
4375000000  -3.697379e+001  -6.921852e+001 
4378125000  -3.662601e+001  -7.711214e+001 
4381250000  -3.714500e+001  -8.578706e+001 
4384375000  -3.703381e+001  -9.134933e+001 
4387500000  -3.821751e+001  -9.676063e+001 
4390625000  -3.844259e+001  -9.843964e+001 
4393750000  -3.771173e+001  -9.832806e+001 
4396875000  -3.733221e+001  -1.048666e+002 
4400000000  -3.679123e+001  -1.125845e+002 
4403125000  -3.790095e+001  -1.223190e+002 
4406250000  -3.807524e+001  -1.265785e+002 
4409375000  -3.853432e+001  -1.296509e+002 
4412500000  -3.966373e+001  -1.309092e+002 
4415625000  -3.914011e+001  -1.295692e+002 
