!Agilent Technologies,E8363B,MY43030201,A.06.04.32
!Agilent E8363B: A.06.04.32
!Date: Tuesday, November 11, 2014 21:36:17
!Correction: S21(Response(S21)) 
!S1P File: Measurement: S21:
# Hz S  dB   R 50
3000000000  -4.057526e+001  7.116333e+001 
3003125000  -4.235920e+001  6.313661e+001 
3006250000  -4.221206e+001  6.409879e+001 
3009375000  -4.278923e+001  6.817355e+001 
3012500000  -4.145284e+001  6.141256e+001 
3015625000  -4.148177e+001  5.764314e+001 
3018750000  -4.172807e+001  5.837187e+001 
3021875000  -4.012493e+001  5.753078e+001 
3025000000  -3.864963e+001  5.380974e+001 
3028125000  -3.788655e+001  4.286090e+001 
3031250000  -3.699702e+001  3.073259e+001 
3034375000  -3.688748e+001  1.727974e+001 
3037500000  -3.763649e+001  7.203622e+000 
3040625000  -3.873047e+001  1.323862e+000 
3043750000  -3.922291e+001  -4.929595e+000 
3046875000  -3.984018e+001  -9.174360e+000 
3050000000  -4.097117e+001  -1.561766e+001 
3053125000  -4.048352e+001  -1.019051e+001 
3056250000  -4.050494e+001  -7.047415e+000 
3059375000  -3.962632e+001  -9.461533e+000 
3062500000  -3.820213e+001  -1.404842e+001 
3065625000  -3.774751e+001  -2.405661e+001 
3068750000  -3.755996e+001  -3.194286e+001 
3071875000  -3.758742e+001  -3.456914e+001 
3075000000  -3.694690e+001  -4.140211e+001 
3078125000  -3.708990e+001  -4.713202e+001 
3081250000  -3.714496e+001  -5.343926e+001 
3084375000  -3.635773e+001  -5.776515e+001 
3087500000  -3.651831e+001  -6.491492e+001 
3090625000  -3.604367e+001  -7.711083e+001 
3093750000  -3.694892e+001  -8.410540e+001 
3096875000  -3.730241e+001  -8.962516e+001 
3100000000  -3.729368e+001  -9.288608e+001 
3103125000  -3.743903e+001  -9.698496e+001 
3106250000  -3.711873e+001  -1.019342e+002 
3109375000  -3.714912e+001  -1.057115e+002 
3112500000  -3.712592e+001  -1.116920e+002 
3115625000  -3.706900e+001  -1.157875e+002 
3118750000  -3.724667e+001  -1.186452e+002 
3121875000  -3.651227e+001  -1.301088e+002 
3125000000  -3.855345e+001  -1.335477e+002 
3128125000  -3.855893e+001  -1.256456e+002 
3131250000  -3.604170e+001  -1.321639e+002 
3134375000  -3.541793e+001  -1.491102e+002 
3137500000  -3.611299e+001  -1.618549e+002 
3140625000  -3.731185e+001  -1.643776e+002 
3143750000  -3.806744e+001  -1.663254e+002 
3146875000  -3.752475e+001  -1.641566e+002 
3150000000  -3.679496e+001  -1.678209e+002 
3153125000  -3.730453e+001  -1.782295e+002 
3156250000  -3.791374e+001  -1.726998e+002 
3159375000  -3.561963e+001  -1.737889e+002 
3162500000  -3.426672e+001  1.698460e+002 
3165625000  -3.550980e+001  1.570131e+002 
3168750000  -3.539553e+001  1.560881e+002 
3171875000  -3.490256e+001  1.496771e+002 
3175000000  -3.549746e+001  1.412343e+002 
3178125000  -3.502139e+001  1.382438e+002 
3181250000  -3.441306e+001  1.300063e+002 
3184375000  -3.416391e+001  1.180114e+002 
3187500000  -3.550439e+001  1.033076e+002 
3190625000  -3.727281e+001  9.794920e+001 
3193750000  -3.751986e+001  1.025192e+002 
3196875000  -3.730233e+001  1.038777e+002 
3200000000  -3.606154e+001  9.808381e+001 
3203125000  -3.591734e+001  9.032670e+001 
3206250000  -3.610982e+001  8.410788e+001 
3209375000  -3.574395e+001  7.472886e+001 
3212500000  -3.635497e+001  6.804122e+001 
3215625000  -3.599135e+001  6.490827e+001 
3218750000  -3.693242e+001  5.387125e+001 
3221875000  -3.721235e+001  4.735659e+001 
3225000000  -3.695218e+001  4.393793e+001 
3228125000  -3.772372e+001  3.671339e+001 
3231250000  -3.827250e+001  3.417475e+001 
3234375000  -3.782978e+001  3.211091e+001 
3237500000  -3.804607e+001  2.746488e+001 
3240625000  -3.757997e+001  2.157619e+001 
3243750000  -3.769681e+001  1.150118e+001 
3246875000  -3.833145e+001  4.633989e+000 
3250000000  -3.864661e+001  8.348102e-001 
3253125000  -3.901706e+001  -1.492547e+000 
3256250000  -3.843203e+001  -1.103244e+001 
3259375000  -3.917615e+001  -2.111852e+001 
3262500000  -4.071759e+001  -2.462690e+001 
3265625000  -4.111845e+001  -2.079953e+001 
3268750000  -4.112815e+001  -2.071109e+001 
3271875000  -4.032772e+001  -2.583031e+001 
3275000000  -4.016732e+001  -3.424502e+001 
3278125000  -4.077205e+001  -3.770732e+001 
3281250000  -4.100053e+001  -3.943616e+001 
3284375000  -4.051177e+001  -4.613376e+001 
3287500000  -4.096700e+001  -4.986792e+001 
3290625000  -4.111876e+001  -5.817525e+001 
3293750000  -4.123217e+001  -6.264650e+001 
3296875000  -4.226137e+001  -6.446343e+001 
3300000000  -4.167687e+001  -6.265264e+001 
3303125000  -4.070392e+001  -7.241747e+001 
3306250000  -4.065018e+001  -7.732899e+001 
3309375000  -4.038231e+001  -8.548779e+001 
3312500000  -4.094043e+001  -9.816856e+001 
3315625000  -4.214269e+001  -1.046422e+002 
3318750000  -4.379058e+001  -1.097231e+002 
3321875000  -4.490714e+001  -1.045102e+002 
3325000000  -4.493396e+001  -9.848910e+001 
3328125000  -4.393658e+001  -9.726529e+001 
3331250000  -4.216961e+001  -9.619710e+001 
3334375000  -3.970463e+001  -1.104500e+002 
3337500000  -4.044177e+001  -1.323823e+002 
3340625000  -4.225455e+001  -1.423428e+002 
3343750000  -4.399096e+001  -1.391813e+002 
3346875000  -4.328109e+001  -1.423356e+002 
3350000000  -4.315481e+001  -1.452656e+002 
3353125000  -4.276096e+001  -1.509362e+002 
3356250000  -4.248759e+001  -1.600932e+002 
3359375000  -4.345680e+001  -1.713491e+002 
3362500000  -4.432580e+001  -1.773808e+002 
3365625000  -4.502174e+001  -1.782874e+002 
3368750000  -4.520355e+001  1.753996e+002 
3371875000  -4.590352e+001  1.706687e+002 
3375000000  -4.755058e+001  1.656840e+002 
3378125000  -4.809194e+001  1.657744e+002 
3381250000  -4.943742e+001  1.777289e+002 
3384375000  -4.614188e+001  -1.671666e+002 
3387500000  -4.414811e+001  1.693947e+002 
3390625000  -4.626775e+001  1.518120e+002 
3393750000  -4.705929e+001  1.474036e+002 
3396875000  -4.568535e+001  1.498220e+002 
3400000000  -4.613617e+001  1.373263e+002 
3403125000  -4.687782e+001  1.296624e+002 
3406250000  -4.789455e+001  1.263404e+002 
3409375000  -4.781508e+001  1.223244e+002 
3412500000  -4.870367e+001  1.159731e+002 
3415625000  -4.959277e+001  1.139798e+002 
3418750000  -5.036729e+001  1.152190e+002 
3421875000  -5.145555e+001  1.215746e+002 
3425000000  -4.998054e+001  1.170534e+002 
3428125000  -5.002942e+001  1.130433e+002 
3431250000  -4.967791e+001  1.034191e+002 
3434375000  -5.095857e+001  1.003951e+002 
3437500000  -5.197284e+001  1.026855e+002 
3440625000  -5.139530e+001  1.087256e+002 
3443750000  -5.059362e+001  1.035323e+002 
3446875000  -4.997227e+001  9.918551e+001 
3450000000  -5.073095e+001  9.107252e+001 
3453125000  -5.043531e+001  8.607535e+001 
3456250000  -5.160647e+001  7.738264e+001 
3459375000  -5.294973e+001  8.469265e+001 
3462500000  -5.319976e+001  8.741409e+001 
3465625000  -5.183632e+001  7.693119e+001 
3468750000  -5.262457e+001  7.773051e+001 
3471875000  -5.163388e+001  7.367890e+001 
3475000000  -5.105093e+001  6.862862e+001 
3478125000  -5.152683e+001  5.995444e+001 
3481250000  -5.260138e+001  6.648966e+001 
3484375000  -5.284644e+001  6.234094e+001 
3487500000  -5.155260e+001  5.925098e+001 
3490625000  -5.096426e+001  5.073264e+001 
3493750000  -5.102536e+001  5.022647e+001 
3496875000  -5.162255e+001  4.877155e+001 
3500000000  -5.128330e+001  4.290049e+001 
3503125000  -5.078748e+001  4.375504e+001 
3506250000  -4.956230e+001  3.690751e+001 
3509375000  -4.930956e+001  2.194150e+001 
3512500000  -5.008717e+001  1.287357e+001 
3515625000  -5.118624e+001  9.894666e+000 
3518750000  -5.143216e+001  9.792166e+000 
3521875000  -5.240652e+001  -1.386840e+000 
3525000000  -5.332520e+001  -7.649455e+000 
3528125000  -5.211415e+001  -2.904702e+000 
3531250000  -5.176710e+001  -9.345981e-001 
3534375000  -5.263845e+001  -1.097201e+001 
3537500000  -5.390368e+001  -2.464513e+001 
3540625000  -5.380210e+001  -2.150109e+001 
3543750000  -5.560598e+001  -2.798516e+001 
3546875000  -5.500816e+001  -1.455281e+001 
3550000000  -5.374673e+001  -1.794800e+001 
3553125000  -5.354087e+001  -3.976629e+001 
3556250000  -5.509919e+001  -3.552548e+001 
3559375000  -5.506016e+001  -3.736530e+001 
3562500000  -5.651514e+001  -4.426422e+001 
3565625000  -5.637381e+001  -4.883871e+001 
3568750000  -5.776766e+001  -4.629437e+001 
3571875000  -5.639866e+001  -4.354479e+001 
3575000000  -5.954144e+001  -4.300070e+001 
3578125000  -5.891486e+001  -4.039495e+001 
3581250000  -5.796121e+001  -3.750469e+001 
3584375000  -5.661587e+001  -4.577079e+001 
3587500000  -5.589266e+001  -5.026041e+001 
3590625000  -5.839576e+001  -4.898269e+001 
3593750000  -5.892439e+001  -4.597110e+001 
3596875000  -5.820029e+001  -3.583575e+001 
3600000000  -5.626235e+001  -4.502312e+001 
3603125000  -5.859375e+001  -5.913076e+001 
3606250000  -5.912738e+001  -5.501258e+001 
3609375000  -5.874923e+001  -4.490958e+001 
3612500000  -5.740852e+001  -5.719632e+001 
3615625000  -5.896999e+001  -6.279747e+001 
3618750000  -5.905964e+001  -4.224047e+001 
3621875000  -5.727470e+001  -4.263000e+001 
3625000000  -5.686405e+001  -5.482823e+001 
3628125000  -5.601187e+001  -4.769929e+001 
3631250000  -5.547041e+001  -4.902455e+001 
3634375000  -5.705002e+001  -5.018386e+001 
3637500000  -5.521380e+001  -5.762353e+001 
3640625000  -5.408667e+001  -4.465153e+001 
3643750000  -5.256368e+001  -4.944616e+001 
3646875000  -5.297660e+001  -6.285165e+001 
3650000000  -5.312610e+001  -5.724664e+001 
3653125000  -5.237320e+001  -6.399059e+001 
3656250000  -5.290495e+001  -7.576162e+001 
3659375000  -5.195012e+001  -6.094316e+001 
3662500000  -5.042191e+001  -7.305210e+001 
3665625000  -4.989665e+001  -7.028495e+001 
3668750000  -4.757294e+001  -7.595573e+001 
3671875000  -4.704701e+001  -8.899622e+001 
3675000000  -4.756363e+001  -9.496000e+001 
3678125000  -4.724173e+001  -1.003210e+002 
3681250000  -4.718019e+001  -1.028786e+002 
3684375000  -4.699091e+001  -1.079142e+002 
3687500000  -4.697675e+001  -1.129271e+002 
3690625000  -4.650906e+001  -1.193341e+002 
3693750000  -4.719057e+001  -1.178206e+002 
3696875000  -4.589666e+001  -1.203086e+002 
3700000000  -4.512737e+001  -1.259853e+002 
3703125000  -4.531507e+001  -1.344637e+002 
3706250000  -4.578258e+001  -1.341705e+002 
3709375000  -4.523615e+001  -1.354446e+002 
3712500000  -4.362560e+001  -1.411549e+002 
3715625000  -4.233027e+001  -1.491293e+002 
3718750000  -4.204768e+001  -1.550518e+002 
3721875000  -4.118522e+001  -1.646971e+002 
3725000000  -4.192276e+001  -1.717530e+002 
3728125000  -4.151143e+001  -1.754459e+002 
3731250000  -4.085060e+001  1.787618e+002 
3734375000  -4.028390e+001  1.731418e+002 
3737500000  -4.095382e+001  1.619387e+002 
3740625000  -4.087735e+001  1.548158e+002 
3743750000  -4.024790e+001  1.500181e+002 
3746875000  -4.056976e+001  1.429459e+002 
3750000000  -4.090284e+001  1.397029e+002 
3753125000  -4.055716e+001  1.368321e+002 
3756250000  -4.075294e+001  1.318723e+002 
3759375000  -4.044750e+001  1.260690e+002 
3762500000  -4.006976e+001  1.206260e+002 
3765625000  -4.059187e+001  1.164897e+002 
3768750000  -4.004609e+001  1.145059e+002 
3771875000  -3.869049e+001  1.066750e+002 
3775000000  -3.852685e+001  9.630933e+001 
3778125000  -3.913833e+001  9.034021e+001 
3781250000  -3.886494e+001  8.648415e+001 
3784375000  -3.884255e+001  7.846260e+001 
3787500000  -3.868025e+001  7.431078e+001 
3790625000  -3.920539e+001  6.559386e+001 
3793750000  -3.914554e+001  6.251735e+001 
3796875000  -3.817418e+001  5.863656e+001 
3800000000  -3.640662e+001  5.341386e+001 
3803125000  -3.817426e+001  4.094333e+001 
3806250000  -3.901429e+001  3.502007e+001 
3809375000  -3.847571e+001  3.183755e+001 
3812500000  -3.832555e+001  2.216591e+001 
3815625000  -3.952956e+001  1.282844e+001 
3818750000  -4.089685e+001  1.405347e+001 
3821875000  -4.031995e+001  2.454826e+001 
3825000000  -3.786731e+001  2.115565e+001 
3828125000  -3.691387e+001  9.995851e-001 
3831250000  -3.813886e+001  -1.282326e+001 
3834375000  -4.027048e+001  -1.234637e+001 
3837500000  -4.046955e+001  -9.282853e+000 
3840625000  -3.898222e+001  -1.145567e+001 
3843750000  -3.838418e+001  -2.734803e+001 
3846875000  -3.984334e+001  -3.425343e+001 
3850000000  -4.053068e+001  -2.667927e+001 
3853125000  -3.959819e+001  -2.715011e+001 
3856250000  -3.951158e+001  -3.462046e+001 
3859375000  -3.845565e+001  -4.238483e+001 
3862500000  -3.825369e+001  -5.412702e+001 
3865625000  -3.868534e+001  -5.825066e+001 
3868750000  -3.857376e+001  -5.794116e+001 
3871875000  -3.806637e+001  -6.580849e+001 
3875000000  -3.872974e+001  -7.620062e+001 
3878125000  -3.956622e+001  -7.918359e+001 
3881250000  -3.912949e+001  -8.016634e+001 
3884375000  -3.863231e+001  -8.666149e+001 
3887500000  -3.915617e+001  -9.284701e+001 
3890625000  -3.958580e+001  -9.491265e+001 
3893750000  -3.975214e+001  -9.917046e+001 
3896875000  -4.004316e+001  -1.012971e+002 
3900000000  -3.968366e+001  -1.049744e+002 
3903125000  -3.952125e+001  -1.107306e+002 
3906250000  -3.875664e+001  -1.130544e+002 
3909375000  -3.824132e+001  -1.222838e+002 
3912500000  -3.905499e+001  -1.309784e+002 
3915625000  -4.035794e+001  -1.322793e+002 
3918750000  -4.029614e+001  -1.321137e+002 
3921875000  -3.914854e+001  -1.371650e+002 
3925000000  -3.831813e+001  -1.423945e+002 
3928125000  -3.808312e+001  -1.527195e+002 
3931250000  -3.917971e+001  -1.593653e+002 
3934375000  -3.972496e+001  -1.597813e+002 
3937500000  -4.004472e+001  -1.617179e+002 
3940625000  -3.974271e+001  -1.640442e+002 
3943750000  -3.898607e+001  -1.672277e+002 
3946875000  -3.873822e+001  -1.752943e+002 
3950000000  -3.951986e+001  1.760184e+002 
3953125000  -3.996383e+001  1.771585e+002 
3956250000  -3.866931e+001  1.754393e+002 
3959375000  -3.788318e+001  1.681850e+002 
3962500000  -3.762859e+001  1.617785e+002 
3965625000  -3.793012e+001  1.516828e+002 
3968750000  -3.861649e+001  1.438831e+002 
3971875000  -3.873931e+001  1.373699e+002 
3975000000  -3.835129e+001  1.344066e+002 
3978125000  -3.859310e+001  1.315685e+002 
3981250000  -3.851963e+001  1.220048e+002 
3984375000  -3.904016e+001  1.164085e+002 
3987500000  -3.948316e+001  1.122143e+002 
3990625000  -3.995164e+001  1.117891e+002 
3993750000  -4.015431e+001  1.080203e+002 
3996875000  -3.988585e+001  1.021546e+002 
4000000000  -4.045587e+001  9.613113e+001 
4003125000  -4.080667e+001  9.848093e+001 
4006250000  -3.938818e+001  9.704129e+001 
4009375000  -3.854914e+001  8.299611e+001 
4012500000  -4.007943e+001  7.341397e+001 
4015625000  -4.164119e+001  7.369876e+001 
4018750000  -4.126113e+001  7.410868e+001 
4021875000  -4.077748e+001  7.132851e+001 
4025000000  -4.039499e+001  6.487355e+001 
4028125000  -4.047242e+001  5.693308e+001 
4031250000  -4.108178e+001  5.367078e+001 
4034375000  -4.155821e+001  5.471872e+001 
4037500000  -4.094212e+001  5.308489e+001 
4040625000  -4.079886e+001  4.778849e+001 
4043750000  -4.098624e+001  4.555621e+001 
4046875000  -4.112936e+001  4.238554e+001 
4050000000  -4.057030e+001  3.824804e+001 
4053125000  -4.157117e+001  3.452776e+001 
4056250000  -4.133863e+001  3.842936e+001 
4059375000  -3.927740e+001  3.575524e+001 
4062500000  -3.871484e+001  2.644005e+001 
4065625000  -3.901596e+001  2.300314e+001 
4068750000  -3.803313e+001  1.514319e+001 
4071875000  -3.786306e+001  5.697196e+000 
4075000000  -3.855133e+001  -1.837416e+000 
4078125000  -3.868385e+001  -4.507833e+000 
4081250000  -3.795950e+001  -9.326426e+000 
4084375000  -3.801185e+001  -1.911878e+001 
4087500000  -3.858247e+001  -2.667780e+001 
4090625000  -3.928027e+001  -2.849975e+001 
4093750000  -3.875005e+001  -3.116970e+001 
4096875000  -3.860815e+001  -4.047302e+001 
4100000000  -3.951411e+001  -4.755270e+001 
4103125000  -4.051143e+001  -4.521830e+001 
4106250000  -4.029039e+001  -4.083776e+001 
4109375000  -3.919945e+001  -4.513584e+001 
4112500000  -3.869137e+001  -5.597959e+001 
4115625000  -3.925699e+001  -6.158629e+001 
4118750000  -3.900094e+001  -6.540331e+001 
4121875000  -3.899128e+001  -7.439781e+001 
4125000000  -3.980406e+001  -7.967577e+001 
4128125000  -4.082525e+001  -7.897234e+001 
4131250000  -3.959632e+001  -7.287063e+001 
4134375000  -3.762608e+001  -8.310806e+001 
4137500000  -3.838322e+001  -1.035971e+002 
4140625000  -4.058168e+001  -1.114198e+002 
4143750000  -4.136792e+001  -1.053023e+002 
4146875000  -4.044615e+001  -9.993433e+001 
4150000000  -3.977115e+001  -1.084522e+002 
4153125000  -3.991915e+001  -1.145831e+002 
4156250000  -4.133228e+001  -1.204192e+002 
4159375000  -4.123079e+001  -1.154056e+002 
4162500000  -4.004731e+001  -1.107920e+002 
4165625000  -3.905836e+001  -1.197935e+002 
4168750000  -3.832464e+001  -1.301616e+002 
4171875000  -3.856131e+001  -1.400237e+002 
4175000000  -3.936777e+001  -1.463392e+002 
4178125000  -3.971536e+001  -1.467312e+002 
4181250000  -3.928584e+001  -1.502635e+002 
4184375000  -3.946180e+001  -1.559084e+002 
4187500000  -3.928301e+001  -1.605357e+002 
4190625000  -3.944305e+001  -1.674941e+002 
4193750000  -4.065736e+001  -1.730860e+002 
4196875000  -4.168806e+001  -1.744833e+002 
4200000000  -4.272892e+001  -1.663354e+002 
4203125000  -4.067898e+001  -1.569414e+002 
4206250000  -3.729036e+001  -1.636576e+002 
4209375000  -3.741249e+001  1.706230e+002 
4212500000  -3.976735e+001  1.642683e+002 
4215625000  -3.983556e+001  1.706042e+002 
4218750000  -3.835208e+001  1.741424e+002 
4221875000  -3.686240e+001  1.626236e+002 
4225000000  -3.779998e+001  1.527642e+002 
4228125000  -3.743024e+001  1.519587e+002 
4231250000  -3.622998e+001  1.447878e+002 
4234375000  -3.641438e+001  1.346914e+002 
4237500000  -3.615134e+001  1.280529e+002 
4240625000  -3.629059e+001  1.179017e+002 
4243750000  -3.756261e+001  1.095213e+002 
4246875000  -3.872003e+001  1.091343e+002 
4250000000  -3.826259e+001  1.087580e+002 
4253125000  -3.816458e+001  1.055045e+002 
4256250000  -3.830589e+001  1.000287e+002 
4259375000  -3.754077e+001  9.404317e+001 
4262500000  -3.801963e+001  9.164584e+001 
4265625000  -3.797703e+001  8.901434e+001 
4268750000  -3.687557e+001  8.103063e+001 
4271875000  -3.688645e+001  7.002855e+001 
4275000000  -3.676815e+001  6.504828e+001 
4278125000  -3.766023e+001  5.073078e+001 
4281250000  -3.907191e+001  4.942850e+001 
4284375000  -3.884911e+001  4.595684e+001 
4287500000  -4.054598e+001  4.571576e+001 
4290625000  -4.070305e+001  5.455632e+001 
4293750000  -3.867972e+001  5.392101e+001 
4296875000  -3.779062e+001  4.179713e+001 
4300000000  -3.895044e+001  3.100723e+001 
4303125000  -3.963203e+001  3.430517e+001 
4306250000  -3.851139e+001  3.564520e+001 
4309375000  -3.752901e+001  3.020361e+001 
4312500000  -3.755286e+001  1.713176e+001 
4315625000  -3.790285e+001  9.778705e+000 
4318750000  -3.869059e+001  6.843292e+000 
4321875000  -3.858767e+001  7.605347e+000 
4325000000  -3.813388e+001  6.191012e+000 
4328125000  -3.737361e+001  -5.006299e+000 
4331250000  -3.739601e+001  -1.494219e+001 
4334375000  -3.847162e+001  -2.171828e+001 
4337500000  -3.931482e+001  -2.179034e+001 
4340625000  -3.964017e+001  -1.763079e+001 
4343750000  -3.860746e+001  -2.009305e+001 
4346875000  -3.853136e+001  -2.795860e+001 
4350000000  -3.850085e+001  -3.886797e+001 
4353125000  -3.898510e+001  -4.381008e+001 
4356250000  -4.125616e+001  -4.002106e+001 
4359375000  -3.975729e+001  -2.794283e+001 
4362500000  -3.670824e+001  -3.610247e+001 
4365625000  -3.598538e+001  -5.313269e+001 
4368750000  -3.728017e+001  -6.282373e+001 
4371875000  -3.773501e+001  -6.308271e+001 
4375000000  -3.721221e+001  -6.602846e+001 
4378125000  -3.687652e+001  -7.421967e+001 
4381250000  -3.715723e+001  -8.145508e+001 
4384375000  -3.712919e+001  -8.953651e+001 
4387500000  -3.824621e+001  -9.504120e+001 
4390625000  -3.856598e+001  -9.481339e+001 
4393750000  -3.815421e+001  -9.487140e+001 
4396875000  -3.752552e+001  -1.009183e+002 
4400000000  -3.677518e+001  -1.095618e+002 
4403125000  -3.778123e+001  -1.188505e+002 
4406250000  -3.842553e+001  -1.231724e+002 
4409375000  -3.869344e+001  -1.264107e+002 
4412500000  -3.975817e+001  -1.274399e+002 
4415625000  -3.978695e+001  -1.247491e+002 
