!Agilent Technologies,E8363B,MY43030201,A.06.04.32
!Agilent E8363B: A.06.04.32
!Date: Tuesday, November 11, 2014 21:31:58
!Correction: S21(Response(S21)) 
!S1P File: Measurement: S21:
# Hz S  dB   R 50
3000000000  -4.053609e+001  7.848518e+001 
3003125000  -4.232671e+001  7.105852e+001 
3006250000  -4.197414e+001  6.995380e+001 
3009375000  -4.261950e+001  7.546266e+001 
3012500000  -4.157058e+001  6.979070e+001 
3015625000  -4.126745e+001  6.288992e+001 
3018750000  -4.168149e+001  6.477612e+001 
3021875000  -4.034052e+001  6.482275e+001 
3025000000  -3.873063e+001  6.245756e+001 
3028125000  -3.784682e+001  5.088639e+001 
3031250000  -3.691218e+001  3.880100e+001 
3034375000  -3.668037e+001  2.550379e+001 
3037500000  -3.742310e+001  1.330253e+001 
3040625000  -3.871485e+001  8.585806e+000 
3043750000  -3.908859e+001  2.282600e+000 
3046875000  -3.961723e+001  -4.664251e+000 
3050000000  -4.097380e+001  -8.123010e+000 
3053125000  -4.046274e+001  -2.343105e+000 
3056250000  -4.037907e+001  -4.914244e-001 
3059375000  -3.981682e+001  -2.129674e+000 
3062500000  -3.820221e+001  -7.720961e+000 
3065625000  -3.779350e+001  -1.772999e+001 
3068750000  -3.750910e+001  -2.450436e+001 
3071875000  -3.757845e+001  -2.716475e+001 
3075000000  -3.701827e+001  -3.457181e+001 
3078125000  -3.706741e+001  -3.911588e+001 
3081250000  -3.730864e+001  -4.635597e+001 
3084375000  -3.634609e+001  -5.102695e+001 
3087500000  -3.637061e+001  -5.730676e+001 
3090625000  -3.590538e+001  -6.998472e+001 
3093750000  -3.690384e+001  -7.735749e+001 
3096875000  -3.734235e+001  -8.301694e+001 
3100000000  -3.725633e+001  -8.539952e+001 
3103125000  -3.752906e+001  -8.948492e+001 
3106250000  -3.714829e+001  -9.435400e+001 
3109375000  -3.734433e+001  -9.829289e+001 
3112500000  -3.720479e+001  -1.044957e+002 
3115625000  -3.715343e+001  -1.082823e+002 
3118750000  -3.716394e+001  -1.117096e+002 
3121875000  -3.647593e+001  -1.229451e+002 
3125000000  -3.839970e+001  -1.258822e+002 
3128125000  -3.854878e+001  -1.183804e+002 
3131250000  -3.608435e+001  -1.240371e+002 
3134375000  -3.525927e+001  -1.418331e+002 
3137500000  -3.604609e+001  -1.539060e+002 
3140625000  -3.725987e+001  -1.570756e+002 
3143750000  -3.808822e+001  -1.598139e+002 
3146875000  -3.770935e+001  -1.572874e+002 
3150000000  -3.669161e+001  -1.609924e+002 
3153125000  -3.718768e+001  -1.695865e+002 
3156250000  -3.802133e+001  -1.655726e+002 
3159375000  -3.575944e+001  -1.671372e+002 
3162500000  -3.426629e+001  1.776690e+002 
3165625000  -3.554512e+001  1.645040e+002 
3168750000  -3.540603e+001  1.641311e+002 
3171875000  -3.486425e+001  1.567633e+002 
3175000000  -3.541726e+001  1.472809e+002 
3178125000  -3.488056e+001  1.466304e+002 
3181250000  -3.445914e+001  1.367906e+002 
3184375000  -3.413984e+001  1.255682e+002 
3187500000  -3.545999e+001  1.115334e+002 
3190625000  -3.730560e+001  1.045507e+002 
3193750000  -3.757096e+001  1.101240e+002 
3196875000  -3.739834e+001  1.109514e+002 
3200000000  -3.623161e+001  1.057902e+002 
3203125000  -3.584362e+001  9.852518e+001 
3206250000  -3.612265e+001  9.075278e+001 
3209375000  -3.572753e+001  8.309969e+001 
3212500000  -3.631549e+001  7.587396e+001 
3215625000  -3.605758e+001  7.259751e+001 
3218750000  -3.684052e+001  6.243233e+001 
3221875000  -3.735603e+001  5.440596e+001 
3225000000  -3.711308e+001  5.152742e+001 
3228125000  -3.777602e+001  4.479979e+001 
3231250000  -3.815445e+001  4.189402e+001 
3234375000  -3.788079e+001  3.887241e+001 
3237500000  -3.810170e+001  3.461496e+001 
3240625000  -3.763096e+001  2.935746e+001 
3243750000  -3.775744e+001  1.924659e+001 
3246875000  -3.827889e+001  1.199730e+001 
3250000000  -3.883412e+001  8.054217e+000 
3253125000  -3.896692e+001  5.359938e+000 
3256250000  -3.859087e+001  -3.096126e+000 
3259375000  -3.906548e+001  -1.459129e+001 
3262500000  -4.068173e+001  -1.844776e+001 
3265625000  -4.108774e+001  -1.428122e+001 
3268750000  -4.132301e+001  -1.479860e+001 
3271875000  -4.062487e+001  -1.749479e+001 
3275000000  -4.019920e+001  -2.653534e+001 
3278125000  -4.091898e+001  -3.066880e+001 
3281250000  -4.112812e+001  -3.217398e+001 
3284375000  -4.055142e+001  -3.878323e+001 
3287500000  -4.093883e+001  -4.309187e+001 
3290625000  -4.118021e+001  -5.078130e+001 
3293750000  -4.108778e+001  -5.560658e+001 
3296875000  -4.235677e+001  -5.709489e+001 
3300000000  -4.160188e+001  -5.721774e+001 
3303125000  -4.101247e+001  -6.449263e+001 
3306250000  -4.081158e+001  -6.915018e+001 
3309375000  -4.052948e+001  -7.856499e+001 
3312500000  -4.102594e+001  -9.105058e+001 
3315625000  -4.210072e+001  -9.691499e+001 
3318750000  -4.364602e+001  -1.015473e+002 
3321875000  -4.523112e+001  -1.000135e+002 
3325000000  -4.458680e+001  -8.821736e+001 
3328125000  -4.367053e+001  -8.898772e+001 
3331250000  -4.194670e+001  -8.679081e+001 
3334375000  -3.991906e+001  -1.036849e+002 
3337500000  -4.030418e+001  -1.248413e+002 
3340625000  -4.250760e+001  -1.317937e+002 
3343750000  -4.391386e+001  -1.325546e+002 
3346875000  -4.314725e+001  -1.341955e+002 
3350000000  -4.290163e+001  -1.357659e+002 
3353125000  -4.281087e+001  -1.454238e+002 
3356250000  -4.269861e+001  -1.532358e+002 
3359375000  -4.333466e+001  -1.646881e+002 
3362500000  -4.439098e+001  -1.688168e+002 
3365625000  -4.504106e+001  -1.718898e+002 
3368750000  -4.551231e+001  -1.776185e+002 
3371875000  -4.577096e+001  1.775444e+002 
3375000000  -4.759390e+001  1.774210e+002 
3378125000  -4.850264e+001  1.744891e+002 
3381250000  -4.959706e+001  -1.729779e+002 
3384375000  -4.695621e+001  -1.609611e+002 
3387500000  -4.382689e+001  1.767631e+002 
3390625000  -4.645115e+001  1.577546e+002 
3393750000  -4.726139e+001  1.597401e+002 
3396875000  -4.592096e+001  1.556380e+002 
3400000000  -4.582713e+001  1.429954e+002 
3403125000  -4.670923e+001  1.393020e+002 
3406250000  -4.780109e+001  1.360535e+002 
3409375000  -4.777720e+001  1.288798e+002 
3412500000  -4.912129e+001  1.235729e+002 
3415625000  -4.979788e+001  1.213618e+002 
3418750000  -5.000570e+001  1.250146e+002 
3421875000  -5.102647e+001  1.249309e+002 
3425000000  -5.038658e+001  1.243974e+002 
3428125000  -4.983556e+001  1.203027e+002 
3431250000  -5.035698e+001  1.085488e+002 
3434375000  -5.054999e+001  1.044015e+002 
3437500000  -5.128175e+001  1.088575e+002 
3440625000  -5.168932e+001  1.068956e+002 
3443750000  -5.136330e+001  1.132322e+002 
3446875000  -5.078743e+001  1.027729e+002 
3450000000  -5.097319e+001  1.010529e+002 
3453125000  -5.113619e+001  9.316058e+001 
3456250000  -5.194627e+001  8.175485e+001 
3459375000  -5.272832e+001  8.968360e+001 
3462500000  -5.146626e+001  9.520255e+001 
3465625000  -5.090694e+001  8.412404e+001 
3468750000  -5.178059e+001  8.249849e+001 
3471875000  -5.176746e+001  8.256033e+001 
3475000000  -5.154480e+001  7.521637e+001 
3478125000  -5.150684e+001  7.107582e+001 
3481250000  -5.201883e+001  6.806307e+001 
3484375000  -5.296385e+001  7.330326e+001 
3487500000  -5.175679e+001  6.916454e+001 
3490625000  -5.090501e+001  6.059160e+001 
3493750000  -5.128270e+001  5.531853e+001 
3496875000  -5.168379e+001  5.408339e+001 
3500000000  -5.237462e+001  5.762191e+001 
3503125000  -5.098060e+001  5.278984e+001 
3506250000  -4.983244e+001  4.363962e+001 
3509375000  -4.933873e+001  3.162173e+001 
3512500000  -4.973790e+001  1.753599e+001 
3515625000  -5.131746e+001  1.254415e+001 
3518750000  -5.236462e+001  1.845776e+001 
3521875000  -5.277449e+001  1.055613e+001 
3525000000  -5.370672e+001  9.934120e+000 
3528125000  -5.348040e+001  1.278367e+001 
3531250000  -5.231931e+001  7.523897e+000 
3534375000  -5.299273e+001  -8.233347e+000 
3537500000  -5.342847e+001  -1.352113e+001 
3540625000  -5.559980e+001  -2.042994e+001 
3543750000  -5.573310e+001  -7.484484e+000 
3546875000  -5.568976e+001  -7.711705e+000 
3550000000  -5.294716e+001  -1.097039e+001 
3553125000  -5.550606e+001  -2.136949e+001 
3556250000  -5.497413e+001  -2.445043e+001 
3559375000  -5.674300e+001  -2.894930e+001 
3562500000  -5.597984e+001  -3.970458e+001 
3565625000  -5.723443e+001  -3.578238e+001 
3568750000  -5.778394e+001  -4.103763e+001 
3571875000  -5.972315e+001  -3.943451e+001 
3575000000  -5.828826e+001  -2.830452e+001 
3578125000  -5.774392e+001  -3.437411e+001 
3581250000  -5.751914e+001  -3.462037e+001 
3584375000  -5.758975e+001  -2.983258e+001 
3587500000  -5.570411e+001  -2.866684e+001 
3590625000  -5.875045e+001  -4.763572e+001 
3593750000  -5.923735e+001  -2.813309e+001 
3596875000  -6.154585e+001  -1.757875e+001 
3600000000  -5.792124e+001  -3.144968e+001 
3603125000  -5.735436e+001  -4.499504e+001 
3606250000  -5.803749e+001  -4.269696e+001 
3609375000  -5.881644e+001  -2.695972e+001 
3612500000  -5.737587e+001  -4.433235e+001 
3615625000  -5.855375e+001  -4.394237e+001 
3618750000  -5.861512e+001  -3.278065e+001 
3621875000  -5.752033e+001  -3.646198e+001 
3625000000  -5.723687e+001  -3.738736e+001 
3628125000  -5.680916e+001  -3.183425e+001 
3631250000  -5.632005e+001  -3.871275e+001 
3634375000  -5.727827e+001  -4.094736e+001 
3637500000  -5.613235e+001  -3.741768e+001 
3640625000  -5.441626e+001  -2.751926e+001 
3643750000  -5.340826e+001  -4.067316e+001 
3646875000  -5.193361e+001  -4.413038e+001 
3650000000  -5.279400e+001  -5.239581e+001 
3653125000  -5.205256e+001  -4.785146e+001 
3656250000  -5.175311e+001  -5.516040e+001 
3659375000  -5.139087e+001  -5.949479e+001 
3662500000  -5.053719e+001  -6.525997e+001 
3665625000  -5.013682e+001  -6.620867e+001 
3668750000  -4.760889e+001  -6.622292e+001 
3671875000  -4.772485e+001  -7.765041e+001 
3675000000  -4.726266e+001  -9.000904e+001 
3678125000  -4.731643e+001  -9.120790e+001 
3681250000  -4.674987e+001  -9.579936e+001 
3684375000  -4.674548e+001  -1.003672e+002 
3687500000  -4.687733e+001  -1.072705e+002 
3690625000  -4.650817e+001  -1.099632e+002 
3693750000  -4.665470e+001  -1.148103e+002 
3696875000  -4.640956e+001  -1.115044e+002 
3700000000  -4.501273e+001  -1.188769e+002 
3703125000  -4.529229e+001  -1.264636e+002 
3706250000  -4.581339e+001  -1.270910e+002 
3709375000  -4.489006e+001  -1.252793e+002 
3712500000  -4.396945e+001  -1.304255e+002 
3715625000  -4.183293e+001  -1.411683e+002 
3718750000  -4.158519e+001  -1.449723e+002 
3721875000  -4.104909e+001  -1.560522e+002 
3725000000  -4.204667e+001  -1.638999e+002 
3728125000  -4.137357e+001  -1.650220e+002 
3731250000  -4.066368e+001  -1.718606e+002 
3734375000  -4.007055e+001  -1.784500e+002 
3737500000  -4.076401e+001  1.715864e+002 
3740625000  -4.062300e+001  1.647380e+002 
3743750000  -4.029943e+001  1.580943e+002 
3746875000  -4.081664e+001  1.520659e+002 
3750000000  -4.095908e+001  1.480820e+002 
3753125000  -4.082213e+001  1.445056e+002 
3756250000  -4.088393e+001  1.412401e+002 
3759375000  -4.062900e+001  1.357463e+002 
3762500000  -4.009092e+001  1.279608e+002 
3765625000  -4.099903e+001  1.240417e+002 
3768750000  -4.004845e+001  1.247990e+002 
3771875000  -3.839485e+001  1.170094e+002 
3775000000  -3.866340e+001  1.050009e+002 
3778125000  -3.897570e+001  1.008852e+002 
3781250000  -3.876733e+001  9.581934e+001 
3784375000  -3.880738e+001  8.846897e+001 
3787500000  -3.834191e+001  8.345840e+001 
3790625000  -3.904769e+001  7.403663e+001 
3793750000  -3.921501e+001  7.025909e+001 
3796875000  -3.829102e+001  6.770030e+001 
3800000000  -3.642006e+001  6.219447e+001 
3803125000  -3.820400e+001  5.007305e+001 
3806250000  -3.890078e+001  4.332352e+001 
3809375000  -3.838304e+001  4.227370e+001 
3812500000  -3.846227e+001  3.141944e+001 
3815625000  -3.958871e+001  2.073003e+001 
3818750000  -4.079476e+001  2.421894e+001 
3821875000  -4.022744e+001  3.368683e+001 
3825000000  -3.807542e+001  2.865642e+001 
3828125000  -3.718362e+001  1.028571e+001 
3831250000  -3.816465e+001  -2.875677e+000 
3834375000  -4.038363e+001  -4.128598e+000 
3837500000  -4.072595e+001  -7.668713e-001 
3840625000  -3.920071e+001  -3.883623e+000 
3843750000  -3.815185e+001  -1.787082e+001 
3846875000  -3.974570e+001  -2.432238e+001 
3850000000  -4.080066e+001  -1.849984e+001 
3853125000  -3.991318e+001  -1.663559e+001 
3856250000  -3.927937e+001  -2.697944e+001 
3859375000  -3.862463e+001  -3.393770e+001 
3862500000  -3.857340e+001  -4.433999e+001 
3865625000  -3.895966e+001  -4.808268e+001 
3868750000  -3.877038e+001  -5.078698e+001 
3871875000  -3.802034e+001  -5.700644e+001 
3875000000  -3.867586e+001  -6.682658e+001 
3878125000  -3.964648e+001  -6.866881e+001 
3881250000  -3.927848e+001  -6.953036e+001 
3884375000  -3.871419e+001  -7.814602e+001 
3887500000  -3.914116e+001  -8.350729e+001 
3890625000  -3.957725e+001  -8.757581e+001 
3893750000  -3.965359e+001  -8.944423e+001 
3896875000  -3.996333e+001  -9.346082e+001 
3900000000  -3.987950e+001  -9.592433e+001 
3903125000  -3.935540e+001  -1.017452e+002 
3906250000  -3.867310e+001  -1.047278e+002 
3909375000  -3.817940e+001  -1.124122e+002 
3912500000  -3.917560e+001  -1.220990e+002 
3915625000  -4.054789e+001  -1.205634e+002 
3918750000  -4.002847e+001  -1.217552e+002 
3921875000  -3.929033e+001  -1.280413e+002 
3925000000  -3.855614e+001  -1.318796e+002 
3928125000  -3.836963e+001  -1.427521e+002 
3931250000  -3.908324e+001  -1.505280e+002 
3934375000  -3.962531e+001  -1.504879e+002 
3937500000  -4.017166e+001  -1.526005e+002 
3940625000  -4.002097e+001  -1.566878e+002 
3943750000  -3.905962e+001  -1.576538e+002 
3946875000  -3.856352e+001  -1.673154e+002 
3950000000  -3.952463e+001  -1.755632e+002 
3953125000  -3.994144e+001  -1.742050e+002 
3956250000  -3.901623e+001  -1.747265e+002 
3959375000  -3.789642e+001  1.777609e+002 
3962500000  -3.755644e+001  1.695123e+002 
3965625000  -3.798368e+001  1.597575e+002 
3968750000  -3.871893e+001  1.530650e+002 
3971875000  -3.871808e+001  1.473546e+002 
3975000000  -3.843077e+001  1.447749e+002 
3978125000  -3.864642e+001  1.393094e+002 
3981250000  -3.850568e+001  1.336384e+002 
3984375000  -3.902077e+001  1.260323e+002 
3987500000  -3.969408e+001  1.225943e+002 
3990625000  -3.978374e+001  1.208040e+002 
3993750000  -3.984848e+001  1.150409e+002 
3996875000  -4.005257e+001  1.101322e+002 
4000000000  -4.063665e+001  1.066534e+002 
4003125000  -4.113931e+001  1.057646e+002 
4006250000  -3.916318e+001  1.050031e+002 
4009375000  -3.857052e+001  9.141415e+001 
4012500000  -4.032258e+001  8.227283e+001 
4015625000  -4.138399e+001  8.341392e+001 
4018750000  -4.119123e+001  8.353065e+001 
4021875000  -4.069352e+001  8.089165e+001 
4025000000  -4.052822e+001  7.467870e+001 
4028125000  -4.050063e+001  6.745386e+001 
4031250000  -4.132056e+001  6.472336e+001 
4034375000  -4.162344e+001  6.213303e+001 
4037500000  -4.094301e+001  6.463281e+001 
4040625000  -4.112412e+001  5.933693e+001 
4043750000  -4.114416e+001  5.689456e+001 
4046875000  -4.098779e+001  5.119608e+001 
4050000000  -4.070589e+001  4.663640e+001 
4053125000  -4.161423e+001  4.505883e+001 
4056250000  -4.188707e+001  4.729487e+001 
4059375000  -3.937461e+001  4.568058e+001 
4062500000  -3.887966e+001  3.791090e+001 
4065625000  -3.888522e+001  3.442706e+001 
4068750000  -3.836296e+001  2.396827e+001 
4071875000  -3.798290e+001  1.493144e+001 
4075000000  -3.852835e+001  8.190089e+000 
4078125000  -3.870003e+001  5.513701e+000 
4081250000  -3.825398e+001  2.396046e-001 
4084375000  -3.823803e+001  -8.874741e+000 
4087500000  -3.882899e+001  -1.686139e+001 
4090625000  -3.921967e+001  -1.846257e+001 
4093750000  -3.878347e+001  -2.095870e+001 
4096875000  -3.881800e+001  -3.041037e+001 
4100000000  -3.980325e+001  -3.775040e+001 
4103125000  -4.078331e+001  -3.526059e+001 
4106250000  -3.988489e+001  -3.212592e+001 
4109375000  -3.921211e+001  -3.708294e+001 
4112500000  -3.864965e+001  -4.682502e+001 
4115625000  -3.930650e+001  -5.263605e+001 
4118750000  -3.913605e+001  -5.803872e+001 
4121875000  -3.900059e+001  -6.311345e+001 
4125000000  -3.968168e+001  -7.066547e+001 
4128125000  -4.086377e+001  -6.810641e+001 
4131250000  -3.995725e+001  -6.311488e+001 
4134375000  -3.783929e+001  -7.370778e+001 
4137500000  -3.820382e+001  -9.361301e+001 
4140625000  -4.032880e+001  -1.011800e+002 
4143750000  -4.184564e+001  -9.238000e+001 
4146875000  -4.033218e+001  -8.891768e+001 
4150000000  -3.976396e+001  -9.792960e+001 
4153125000  -4.032892e+001  -1.057559e+002 
4156250000  -4.113962e+001  -1.081532e+002 
4159375000  -4.122124e+001  -1.059118e+002 
4162500000  -3.998387e+001  -1.019856e+002 
4165625000  -3.898565e+001  -1.111991e+002 
4168750000  -3.852468e+001  -1.211337e+002 
4171875000  -3.861515e+001  -1.300829e+002 
4175000000  -3.935090e+001  -1.361999e+002 
4178125000  -3.991152e+001  -1.358901e+002 
4181250000  -3.951421e+001  -1.393096e+002 
4184375000  -3.950251e+001  -1.456721e+002 
4187500000  -3.945330e+001  -1.518432e+002 
4190625000  -3.964523e+001  -1.593657e+002 
4193750000  -4.041587e+001  -1.635861e+002 
4196875000  -4.150304e+001  -1.660108e+002 
4200000000  -4.242423e+001  -1.586280e+002 
4203125000  -4.122025e+001  -1.475293e+002 
4206250000  -3.753659e+001  -1.547239e+002 
4209375000  -3.723576e+001  -1.790602e+002 
4212500000  -3.988213e+001  1.761689e+002 
4215625000  -3.979086e+001  -1.791951e+002 
4218750000  -3.827094e+001  -1.763957e+002 
4221875000  -3.665479e+001  1.737591e+002 
4225000000  -3.795932e+001  1.611070e+002 
4228125000  -3.804612e+001  1.608786e+002 
4231250000  -3.647394e+001  1.537596e+002 
4234375000  -3.654782e+001  1.442672e+002 
4237500000  -3.605401e+001  1.384383e+002 
4240625000  -3.638658e+001  1.278037e+002 
4243750000  -3.754969e+001  1.192201e+002 
4246875000  -3.833424e+001  1.193707e+002 
4250000000  -3.840919e+001  1.180396e+002 
4253125000  -3.827714e+001  1.149500e+002 
4256250000  -3.802916e+001  1.105564e+002 
4259375000  -3.758589e+001  1.044187e+002 
4262500000  -3.829172e+001  9.938152e+001 
4265625000  -3.822416e+001  9.773032e+001 
4268750000  -3.690398e+001  9.182146e+001 
4271875000  -3.688680e+001  8.133945e+001 
4275000000  -3.647840e+001  7.440642e+001 
4278125000  -3.766861e+001  6.091763e+001 
4281250000  -3.912251e+001  5.954226e+001 
4284375000  -3.890597e+001  5.721624e+001 
4287500000  -4.044364e+001  5.530564e+001 
4290625000  -4.047923e+001  6.181969e+001 
4293750000  -3.886889e+001  6.379232e+001 
4296875000  -3.769606e+001  4.938896e+001 
4300000000  -3.918965e+001  4.077013e+001 
4303125000  -3.981776e+001  4.465775e+001 
4306250000  -3.883055e+001  4.702641e+001 
4309375000  -3.753887e+001  3.984359e+001 
4312500000  -3.772681e+001  2.948457e+001 
4315625000  -3.810731e+001  2.215071e+001 
4318750000  -3.883992e+001  1.680400e+001 
4321875000  -3.862645e+001  1.729193e+001 
4325000000  -3.797980e+001  1.678972e+001 
4328125000  -3.739712e+001  5.936402e+000 
4331250000  -3.759887e+001  -5.155588e+000 
4334375000  -3.838843e+001  -1.070892e+001 
4337500000  -3.954754e+001  -1.136129e+001 
4340625000  -3.961671e+001  -8.041945e+000 
4343750000  -3.850549e+001  -1.079101e+001 
4346875000  -3.835910e+001  -2.048806e+001 
4350000000  -3.860700e+001  -2.734137e+001 
4353125000  -3.891142e+001  -3.406195e+001 
4356250000  -4.084928e+001  -3.084312e+001 
4359375000  -4.029137e+001  -1.604286e+001 
4362500000  -3.658332e+001  -2.724100e+001 
4365625000  -3.610112e+001  -4.226027e+001 
4368750000  -3.765242e+001  -5.119026e+001 
4371875000  -3.779066e+001  -5.277192e+001 
4375000000  -3.745398e+001  -5.573334e+001 
4378125000  -3.696761e+001  -6.337114e+001 
4381250000  -3.718827e+001  -7.138217e+001 
4384375000  -3.735068e+001  -7.731162e+001 
4387500000  -3.830956e+001  -8.311966e+001 
4390625000  -3.866434e+001  -8.514274e+001 
4393750000  -3.792810e+001  -8.355574e+001 
4396875000  -3.746912e+001  -9.057152e+001 
4400000000  -3.702109e+001  -1.012373e+002 
4403125000  -3.777569e+001  -1.080528e+002 
4406250000  -3.847886e+001  -1.117292e+002 
4409375000  -3.888641e+001  -1.160833e+002 
4412500000  -4.024650e+001  -1.168314e+002 
4415625000  -3.956631e+001  -1.151636e+002 
