!Agilent Technologies,E8363B,MY43030201,A.06.04.32
!Agilent E8363B: A.06.04.32
!Date: Tuesday, November 11, 2014 21:29:09
!Correction: S21(Response(S21)) 
!S1P File: Measurement: S21:
# Hz S  dB   R 50
3000000000  -4.050472e+001  8.701318e+001 
3003125000  -4.214519e+001  7.973660e+001 
3006250000  -4.194690e+001  7.925600e+001 
3009375000  -4.255796e+001  8.334385e+001 
3012500000  -4.150081e+001  7.897154e+001 
3015625000  -4.138439e+001  7.214488e+001 
3018750000  -4.192098e+001  7.160465e+001 
3021875000  -4.024397e+001  7.365846e+001 
3025000000  -3.901461e+001  6.899683e+001 
3028125000  -3.810441e+001  5.904424e+001 
3031250000  -3.704767e+001  4.832663e+001 
3034375000  -3.677454e+001  3.363892e+001 
3037500000  -3.752275e+001  2.270901e+001 
3040625000  -3.858921e+001  1.719466e+001 
3043750000  -3.906635e+001  1.149902e+001 
3046875000  -3.981748e+001  5.154388e+000 
3050000000  -4.113219e+001  6.441554e-001 
3053125000  -4.069222e+001  4.228881e+000 
3056250000  -4.035336e+001  9.069706e+000 
3059375000  -3.987987e+001  6.789437e+000 
3062500000  -3.824313e+001  1.382863e+000 
3065625000  -3.796825e+001  -8.028798e+000 
3068750000  -3.765019e+001  -1.614782e+001 
3071875000  -3.775728e+001  -1.853404e+001 
3075000000  -3.705174e+001  -2.470104e+001 
3078125000  -3.705394e+001  -3.095610e+001 
3081250000  -3.726178e+001  -3.762314e+001 
3084375000  -3.644517e+001  -4.158334e+001 
3087500000  -3.644402e+001  -4.831502e+001 
3090625000  -3.583334e+001  -6.012162e+001 
3093750000  -3.677700e+001  -6.816058e+001 
3096875000  -3.731339e+001  -7.490623e+001 
3100000000  -3.732328e+001  -7.739761e+001 
3103125000  -3.756381e+001  -8.106815e+001 
3106250000  -3.727231e+001  -8.570369e+001 
3109375000  -3.731401e+001  -8.951766e+001 
3112500000  -3.731268e+001  -9.514462e+001 
3115625000  -3.708229e+001  -9.994279e+001 
3118750000  -3.725456e+001  -1.021406e+002 
3121875000  -3.649849e+001  -1.142620e+002 
3125000000  -3.827612e+001  -1.172751e+002 
3128125000  -3.865596e+001  -1.105700e+002 
3131250000  -3.605183e+001  -1.158255e+002 
3134375000  -3.534934e+001  -1.326146e+002 
3137500000  -3.603658e+001  -1.461156e+002 
3140625000  -3.734282e+001  -1.476973e+002 
3143750000  -3.831748e+001  -1.507891e+002 
3146875000  -3.768982e+001  -1.488623e+002 
3150000000  -3.675733e+001  -1.510353e+002 
3153125000  -3.717967e+001  -1.614972e+002 
3156250000  -3.796580e+001  -1.551779e+002 
3159375000  -3.578159e+001  -1.580181e+002 
3162500000  -3.429660e+001  -1.736368e+002 
3165625000  -3.557406e+001  1.732353e+002 
3168750000  -3.547367e+001  1.729777e+002 
3171875000  -3.488840e+001  1.658215e+002 
3175000000  -3.554588e+001  1.564541e+002 
3178125000  -3.503334e+001  1.550705e+002 
3181250000  -3.441459e+001  1.468679e+002 
3184375000  -3.415411e+001  1.347680e+002 
3187500000  -3.529963e+001  1.197580e+002 
3190625000  -3.753843e+001  1.130678e+002 
3193750000  -3.768793e+001  1.193572e+002 
3196875000  -3.741455e+001  1.197806e+002 
3200000000  -3.625270e+001  1.155666e+002 
3203125000  -3.584376e+001  1.076946e+002 
3206250000  -3.615674e+001  9.895972e+001 
3209375000  -3.570446e+001  9.202277e+001 
3212500000  -3.621824e+001  8.495946e+001 
3215625000  -3.604292e+001  8.164570e+001 
3218750000  -3.690012e+001  7.041884e+001 
3221875000  -3.729324e+001  6.413370e+001 
3225000000  -3.725109e+001  5.957234e+001 
3228125000  -3.773605e+001  5.346770e+001 
3231250000  -3.813434e+001  5.109179e+001 
3234375000  -3.800636e+001  4.790905e+001 
3237500000  -3.818564e+001  4.397180e+001 
3240625000  -3.766993e+001  3.842191e+001 
3243750000  -3.770131e+001  2.875367e+001 
3246875000  -3.821636e+001  2.057521e+001 
3250000000  -3.875378e+001  1.733306e+001 
3253125000  -3.921381e+001  1.436898e+001 
3256250000  -3.858743e+001  6.188516e+000 
3259375000  -3.926829e+001  -3.934084e+000 
3262500000  -4.067367e+001  -8.762582e+000 
3265625000  -4.145915e+001  -6.281560e+000 
3268750000  -4.146445e+001  -3.411670e+000 
3271875000  -4.075193e+001  -8.686150e+000 
3275000000  -4.012344e+001  -1.700628e+001 
3278125000  -4.070623e+001  -2.265602e+001 
3281250000  -4.118092e+001  -2.260070e+001 
3284375000  -4.059740e+001  -2.931278e+001 
3287500000  -4.094210e+001  -3.301979e+001 
3290625000  -4.115696e+001  -4.059967e+001 
3293750000  -4.133342e+001  -4.688366e+001 
3296875000  -4.243933e+001  -4.728686e+001 
3300000000  -4.197392e+001  -4.708847e+001 
3303125000  -4.101818e+001  -5.395292e+001 
3306250000  -4.063140e+001  -6.108134e+001 
3309375000  -4.046873e+001  -6.786951e+001 
3312500000  -4.093304e+001  -8.112807e+001 
3315625000  -4.217593e+001  -8.858353e+001 
3318750000  -4.379859e+001  -9.206313e+001 
3321875000  -4.480503e+001  -8.984434e+001 
3325000000  -4.507210e+001  -8.348331e+001 
3328125000  -4.432199e+001  -8.260719e+001 
3331250000  -4.280025e+001  -8.039084e+001 
3334375000  -3.987492e+001  -9.439015e+001 
3337500000  -4.059732e+001  -1.147645e+002 
3340625000  -4.227257e+001  -1.258274e+002 
3343750000  -4.415721e+001  -1.235187e+002 
3346875000  -4.342840e+001  -1.252229e+002 
3350000000  -4.299573e+001  -1.268448e+002 
3353125000  -4.302734e+001  -1.363455e+002 
3356250000  -4.224311e+001  -1.437613e+002 
3359375000  -4.338088e+001  -1.542450e+002 
3362500000  -4.438788e+001  -1.592614e+002 
3365625000  -4.495939e+001  -1.652083e+002 
3368750000  -4.562770e+001  -1.666857e+002 
3371875000  -4.603685e+001  -1.714186e+002 
3375000000  -4.742255e+001  -1.750370e+002 
3378125000  -4.799957e+001  -1.764456e+002 
3381250000  -4.995764e+001  -1.691276e+002 
3384375000  -4.696328e+001  -1.547931e+002 
3387500000  -4.420805e+001  -1.714061e+002 
3390625000  -4.600181e+001  1.687832e+002 
3393750000  -4.722786e+001  1.670890e+002 
3396875000  -4.624203e+001  1.688735e+002 
3400000000  -4.642450e+001  1.578721e+002 
3403125000  -4.702644e+001  1.478588e+002 
3406250000  -4.802360e+001  1.457736e+002 
3409375000  -4.811890e+001  1.430359e+002 
3412500000  -4.911775e+001  1.358204e+002 
3415625000  -4.963986e+001  1.321254e+002 
3418750000  -5.029639e+001  1.328805e+002 
3421875000  -5.111219e+001  1.361836e+002 
3425000000  -5.027182e+001  1.357656e+002 
3428125000  -5.022532e+001  1.338270e+002 
3431250000  -4.990889e+001  1.220964e+002 
3434375000  -5.109812e+001  1.200435e+002 
3437500000  -5.232130e+001  1.146777e+002 
3440625000  -5.229190e+001  1.213209e+002 
3443750000  -5.149570e+001  1.225569e+002 
3446875000  -5.131687e+001  1.181065e+002 
3450000000  -5.070721e+001  1.102348e+002 
3453125000  -5.085165e+001  9.873656e+001 
3456250000  -5.234995e+001  9.983102e+001 
3459375000  -5.299318e+001  9.483092e+001 
3462500000  -5.346597e+001  1.061472e+002 
3465625000  -5.131731e+001  9.505700e+001 
3468750000  -5.222396e+001  1.026702e+002 
3471875000  -5.163673e+001  8.820721e+001 
3475000000  -5.204752e+001  8.664431e+001 
3478125000  -5.178551e+001  7.906003e+001 
3481250000  -5.275634e+001  8.174536e+001 
3484375000  -5.261856e+001  8.090643e+001 
3487500000  -5.210234e+001  7.583071e+001 
3490625000  -5.052690e+001  7.061835e+001 
3493750000  -5.202722e+001  6.890144e+001 
3496875000  -5.129874e+001  6.796987e+001 
3500000000  -5.276916e+001  6.283954e+001 
3503125000  -5.109838e+001  6.150548e+001 
3506250000  -5.005552e+001  5.471490e+001 
3509375000  -4.986367e+001  4.322984e+001 
3512500000  -5.058377e+001  2.569319e+001 
3515625000  -5.124778e+001  2.916023e+001 
3518750000  -5.217547e+001  2.622116e+001 
3521875000  -5.230144e+001  2.389340e+001 
3525000000  -5.408073e+001  1.423834e+001 
3528125000  -5.205904e+001  2.378251e+001 
3531250000  -5.213806e+001  1.460259e+001 
3534375000  -5.270534e+001  8.084798e-001 
3537500000  -5.325399e+001  -4.821519e+000 
3540625000  -5.482158e+001  -5.951128e+000 
3543750000  -5.540639e+001  1.990907e+000 
3546875000  -5.618253e+001  1.600814e+000 
3550000000  -5.501827e+001  1.561113e+000 
3553125000  -5.345164e+001  -1.750400e+001 
3556250000  -5.522542e+001  -1.727725e+001 
3559375000  -5.629716e+001  -1.511031e+001 
3562500000  -5.694147e+001  -2.953377e+001 
3565625000  -5.683160e+001  -2.252794e+001 
3568750000  -5.885021e+001  -1.873349e+001 
3571875000  -5.732106e+001  -1.284506e+001 
3575000000  -5.949971e+001  -2.206704e+001 
3578125000  -6.002893e+001  -3.260237e+001 
3581250000  -5.783047e+001  -2.225393e+001 
3584375000  -5.653679e+001  -1.425243e+001 
3587500000  -5.809199e+001  -3.140791e+001 
3590625000  -5.904001e+001  -3.961899e+001 
3593750000  -5.959654e+001  -3.581273e+001 
3596875000  -6.009821e+001  -1.386817e+001 
3600000000  -5.819170e+001  -8.732069e+000 
3603125000  -5.697313e+001  -2.209046e+001 
3606250000  -5.776598e+001  -3.586770e+001 
3609375000  -5.842424e+001  -2.016487e+001 
3612500000  -5.784100e+001  -3.151522e+001 
3615625000  -5.753981e+001  -4.297018e+001 
3618750000  -5.871744e+001  -1.188188e+001 
3621875000  -5.728226e+001  -3.659728e+001 
3625000000  -5.740961e+001  -3.145315e+001 
3628125000  -5.569289e+001  -1.733932e+001 
3631250000  -5.616509e+001  -3.186083e+001 
3634375000  -5.607006e+001  -2.896046e+001 
3637500000  -5.450336e+001  -2.103472e+001 
3640625000  -5.380717e+001  -2.240223e+001 
3643750000  -5.258620e+001  -2.822082e+001 
3646875000  -5.333133e+001  -3.352331e+001 
3650000000  -5.301165e+001  -4.199280e+001 
3653125000  -5.173392e+001  -4.103072e+001 
3656250000  -5.159874e+001  -4.354689e+001 
3659375000  -5.087531e+001  -4.858784e+001 
3662500000  -5.071472e+001  -5.230504e+001 
3665625000  -5.001503e+001  -5.521757e+001 
3668750000  -4.788637e+001  -5.842562e+001 
3671875000  -4.732268e+001  -6.867899e+001 
3675000000  -4.701756e+001  -7.403133e+001 
3678125000  -4.744638e+001  -7.507409e+001 
3681250000  -4.599979e+001  -8.255055e+001 
3684375000  -4.660990e+001  -8.828290e+001 
3687500000  -4.626876e+001  -9.230492e+001 
3690625000  -4.663051e+001  -1.015399e+002 
3693750000  -4.681315e+001  -1.058031e+002 
3696875000  -4.633084e+001  -1.023570e+002 
3700000000  -4.508522e+001  -1.094945e+002 
3703125000  -4.533189e+001  -1.145107e+002 
3706250000  -4.550328e+001  -1.127796e+002 
3709375000  -4.502454e+001  -1.136433e+002 
3712500000  -4.390799e+001  -1.201976e+002 
3715625000  -4.195797e+001  -1.297727e+002 
3718750000  -4.201015e+001  -1.347489e+002 
3721875000  -4.128886e+001  -1.447739e+002 
3725000000  -4.164019e+001  -1.530190e+002 
3728125000  -4.144942e+001  -1.547005e+002 
3731250000  -4.072355e+001  -1.610350e+002 
3734375000  -4.014465e+001  -1.690275e+002 
3737500000  -4.082470e+001  -1.797194e+002 
3740625000  -4.079904e+001  1.756396e+002 
3743750000  -4.049790e+001  1.689737e+002 
3746875000  -4.068461e+001  1.627106e+002 
3750000000  -4.101406e+001  1.594347e+002 
3753125000  -4.084177e+001  1.551370e+002 
3756250000  -4.083329e+001  1.527815e+002 
3759375000  -4.046489e+001  1.469590e+002 
3762500000  -4.009989e+001  1.388072e+002 
3765625000  -4.089140e+001  1.348801e+002 
3768750000  -4.033815e+001  1.358009e+002 
3771875000  -3.853441e+001  1.277426e+002 
3775000000  -3.864480e+001  1.167621e+002 
3778125000  -3.915467e+001  1.103404e+002 
3781250000  -3.905072e+001  1.053406e+002 
3784375000  -3.884433e+001  9.990666e+001 
3787500000  -3.852769e+001  9.511336e+001 
3790625000  -3.912175e+001  8.577790e+001 
3793750000  -3.907262e+001  8.256726e+001 
3796875000  -3.838801e+001  7.711227e+001 
3800000000  -3.655455e+001  7.328069e+001 
3803125000  -3.809332e+001  5.999298e+001 
3806250000  -3.903740e+001  5.548681e+001 
3809375000  -3.846507e+001  5.197022e+001 
3812500000  -3.832411e+001  4.497379e+001 
3815625000  -3.952194e+001  3.322924e+001 
3818750000  -4.081339e+001  3.606983e+001 
3821875000  -4.009911e+001  4.219952e+001 
3825000000  -3.821822e+001  4.045116e+001 
3828125000  -3.724233e+001  2.216718e+001 
3831250000  -3.795190e+001  7.969585e+000 
3834375000  -4.026896e+001  5.442792e+000 
3837500000  -4.058027e+001  1.168501e+001 
3840625000  -3.936850e+001  8.497198e+000 
3843750000  -3.829495e+001  -6.111006e+000 
3846875000  -3.986969e+001  -1.496507e+001 
3850000000  -4.078024e+001  -6.560406e+000 
3853125000  -3.998538e+001  -7.340216e+000 
3856250000  -3.950336e+001  -1.425397e+001 
3859375000  -3.886766e+001  -2.069600e+001 
3862500000  -3.853962e+001  -3.155239e+001 
3865625000  -3.893064e+001  -3.833161e+001 
3868750000  -3.876546e+001  -3.832495e+001 
3871875000  -3.797950e+001  -4.563805e+001 
3875000000  -3.865993e+001  -5.602594e+001 
3878125000  -3.947015e+001  -6.060428e+001 
3881250000  -3.931105e+001  -5.859656e+001 
3884375000  -3.885845e+001  -6.463053e+001 
3887500000  -3.910622e+001  -7.143826e+001 
3890625000  -3.947235e+001  -7.687769e+001 
3893750000  -3.978113e+001  -7.777348e+001 
3896875000  -3.997195e+001  -8.109886e+001 
3900000000  -3.990973e+001  -8.516875e+001 
3903125000  -3.961003e+001  -9.059444e+001 
3906250000  -3.865482e+001  -9.316606e+001 
3909375000  -3.838417e+001  -1.014711e+002 
3912500000  -3.902409e+001  -1.114325e+002 
3915625000  -4.025222e+001  -1.099900e+002 
3918750000  -3.963203e+001  -1.120931e+002 
3921875000  -3.948095e+001  -1.168755e+002 
3925000000  -3.866270e+001  -1.220632e+002 
3928125000  -3.826084e+001  -1.299839e+002 
3931250000  -3.914724e+001  -1.376349e+002 
3934375000  -3.957880e+001  -1.389983e+002 
3937500000  -4.016887e+001  -1.415787e+002 
3940625000  -3.983600e+001  -1.431331e+002 
3943750000  -3.884486e+001  -1.447043e+002 
3946875000  -3.835527e+001  -1.557232e+002 
3950000000  -3.938097e+001  -1.638656e+002 
3953125000  -4.030027e+001  -1.642380e+002 
3956250000  -3.892953e+001  -1.633228e+002 
3959375000  -3.799311e+001  -1.702188e+002 
3962500000  -3.769902e+001  -1.780360e+002 
3965625000  -3.772414e+001  1.706746e+002 
3968750000  -3.894794e+001  1.632115e+002 
3971875000  -3.852375e+001  1.594363e+002 
3975000000  -3.841459e+001  1.564662e+002 
3978125000  -3.873984e+001  1.515510e+002 
3981250000  -3.852544e+001  1.448535e+002 
3984375000  -3.887941e+001  1.365815e+002 
3987500000  -3.990017e+001  1.332664e+002 
3990625000  -3.989549e+001  1.313914e+002 
3993750000  -3.993470e+001  1.266624e+002 
3996875000  -3.989209e+001  1.222348e+002 
4000000000  -4.079084e+001  1.175215e+002 
4003125000  -4.110723e+001  1.187248e+002 
4006250000  -3.965287e+001  1.176576e+002 
4009375000  -3.878970e+001  1.035896e+002 
4012500000  -4.031450e+001  9.515202e+001 
4015625000  -4.129728e+001  9.151698e+001 
4018750000  -4.135503e+001  9.611945e+001 
4021875000  -4.102615e+001  9.144059e+001 
4025000000  -4.076090e+001  8.596297e+001 
4028125000  -4.129747e+001  7.943916e+001 
4031250000  -4.105993e+001  7.533308e+001 
4034375000  -4.160684e+001  7.477461e+001 
4037500000  -4.098618e+001  7.472197e+001 
4040625000  -4.103251e+001  6.995864e+001 
4043750000  -4.132014e+001  6.951620e+001 
4046875000  -4.078960e+001  6.478927e+001 
4050000000  -4.064047e+001  5.827015e+001 
4053125000  -4.139632e+001  5.497646e+001 
4056250000  -4.221811e+001  5.865072e+001 
4059375000  -3.988665e+001  5.759640e+001 
4062500000  -3.881890e+001  5.026104e+001 
4065625000  -3.893743e+001  4.403258e+001 
4068750000  -3.827403e+001  3.644654e+001 
4071875000  -3.801200e+001  2.772288e+001 
4075000000  -3.848460e+001  1.892951e+001 
4078125000  -3.873959e+001  1.634835e+001 
4081250000  -3.819124e+001  1.242642e+001 
4084375000  -3.809282e+001  1.379066e+000 
4087500000  -3.860146e+001  -5.791478e+000 
4090625000  -3.914285e+001  -6.090720e+000 
4093750000  -3.875586e+001  -1.009893e+001 
4096875000  -3.878056e+001  -1.907438e+001 
4100000000  -3.957351e+001  -2.560234e+001 
4103125000  -4.076664e+001  -2.507769e+001 
4106250000  -4.008061e+001  -2.158325e+001 
4109375000  -3.933353e+001  -2.575126e+001 
4112500000  -3.887530e+001  -3.375408e+001 
4115625000  -3.935143e+001  -3.999081e+001 
4118750000  -3.941721e+001  -4.478542e+001 
4121875000  -3.889717e+001  -5.204442e+001 
4125000000  -3.962502e+001  -5.869801e+001 
4128125000  -4.094955e+001  -5.866700e+001 
4131250000  -4.005287e+001  -5.272610e+001 
4134375000  -3.792997e+001  -6.004502e+001 
4137500000  -3.823701e+001  -8.159109e+001 
4140625000  -4.043276e+001  -8.887584e+001 
4143750000  -4.147520e+001  -8.432822e+001 
4146875000  -4.067400e+001  -7.991093e+001 
4150000000  -3.965327e+001  -8.570016e+001 
4153125000  -4.004140e+001  -9.536584e+001 
4156250000  -4.156758e+001  -9.813104e+001 
4159375000  -4.102557e+001  -9.307590e+001 
4162500000  -4.017661e+001  -9.098080e+001 
4165625000  -3.918394e+001  -9.815683e+001 
4168750000  -3.848829e+001  -1.086753e+002 
4171875000  -3.810976e+001  -1.174241e+002 
4175000000  -3.933141e+001  -1.241862e+002 
4178125000  -3.984959e+001  -1.244599e+002 
4181250000  -3.968007e+001  -1.293029e+002 
4184375000  -3.956853e+001  -1.340212e+002 
4187500000  -3.964347e+001  -1.381956e+002 
4190625000  -3.958534e+001  -1.444992e+002 
4193750000  -4.062577e+001  -1.513973e+002 
4196875000  -4.123239e+001  -1.519596e+002 
4200000000  -4.250654e+001  -1.457262e+002 
4203125000  -4.082950e+001  -1.357725e+002 
4206250000  -3.749831e+001  -1.428594e+002 
4209375000  -3.730324e+001  -1.661124e+002 
4212500000  -3.964310e+001  -1.727317e+002 
4215625000  -4.019347e+001  -1.680387e+002 
4218750000  -3.857088e+001  -1.643311e+002 
4221875000  -3.666489e+001  -1.755412e+002 
4225000000  -3.802436e+001  1.731019e+002 
4228125000  -3.790193e+001  1.743443e+002 
4231250000  -3.679315e+001  1.678952e+002 
4234375000  -3.649652e+001  1.570128e+002 
4237500000  -3.642544e+001  1.507198e+002 
4240625000  -3.631921e+001  1.393763e+002 
4243750000  -3.751333e+001  1.310865e+002 
4246875000  -3.868555e+001  1.306301e+002 
4250000000  -3.825603e+001  1.295335e+002 
4253125000  -3.806552e+001  1.264191e+002 
4256250000  -3.819859e+001  1.231478e+002 
4259375000  -3.776694e+001  1.174962e+002 
4262500000  -3.789709e+001  1.107556e+002 
4265625000  -3.811182e+001  1.114031e+002 
4268750000  -3.700562e+001  1.042577e+002 
4271875000  -3.693429e+001  9.436211e+001 
4275000000  -3.673409e+001  8.643293e+001 
4278125000  -3.777232e+001  7.329330e+001 
4281250000  -3.949371e+001  7.085753e+001 
4284375000  -3.900657e+001  7.031603e+001 
4287500000  -4.030882e+001  6.596928e+001 
4290625000  -4.060693e+001  7.597739e+001 
4293750000  -3.881993e+001  7.573066e+001 
4296875000  -3.778539e+001  6.370173e+001 
4300000000  -3.917048e+001  5.259862e+001 
4303125000  -3.985698e+001  5.501460e+001 
4306250000  -3.896505e+001  5.665496e+001 
4309375000  -3.766059e+001  5.261179e+001 
4312500000  -3.776813e+001  4.081828e+001 
4315625000  -3.802757e+001  3.374026e+001 
4318750000  -3.866607e+001  2.961260e+001 
4321875000  -3.865790e+001  3.039994e+001 
4325000000  -3.791975e+001  2.922139e+001 
4328125000  -3.748830e+001  2.009778e+001 
4331250000  -3.763755e+001  9.553763e+000 
4334375000  -3.860589e+001  2.821377e+000 
4337500000  -3.929204e+001  4.626504e-001 
4340625000  -3.936885e+001  6.716358e+000 
4343750000  -3.849545e+001  2.722180e+000 
4346875000  -3.870824e+001  -6.741464e+000 
4350000000  -3.865044e+001  -1.274749e+001 
4353125000  -3.913408e+001  -2.235209e+001 
4356250000  -4.075733e+001  -1.892787e+001 
4359375000  -4.006879e+001  -6.092333e+000 
4362500000  -3.642641e+001  -1.300379e+001 
4365625000  -3.591954e+001  -3.007081e+001 
4368750000  -3.735074e+001  -3.957989e+001 
4371875000  -3.790007e+001  -3.933273e+001 
4375000000  -3.750901e+001  -4.183318e+001 
4378125000  -3.703517e+001  -5.152705e+001 
4381250000  -3.720577e+001  -5.806427e+001 
4384375000  -3.721616e+001  -6.622684e+001 
4387500000  -3.800936e+001  -7.036299e+001 
4390625000  -3.870291e+001  -7.151929e+001 
4393750000  -3.814954e+001  -7.257530e+001 
4396875000  -3.741257e+001  -7.618694e+001 
4400000000  -3.698820e+001  -8.626398e+001 
4403125000  -3.759664e+001  -9.431007e+001 
4406250000  -3.854654e+001  -9.848714e+001 
4409375000  -3.878820e+001  -1.034195e+002 
4412500000  -3.987132e+001  -1.065342e+002 
4415625000  -3.945833e+001  -1.019319e+002 
