!Agilent Technologies,E8363B,MY43030201,A.06.04.32
!Agilent E8363B: A.06.04.32
!Date: Tuesday, November 11, 2014 21:37:29
!Correction: S21(Response(S21)) 
!S1P File: Measurement: S21:
# Hz S  dB   R 50
3000000000  -4.065006e+001  6.999158e+001 
3003125000  -4.211938e+001  6.285814e+001 
3006250000  -4.220948e+001  6.213713e+001 
3009375000  -4.276524e+001  6.684491e+001 
3012500000  -4.169210e+001  6.129689e+001 
3015625000  -4.162900e+001  5.556168e+001 
3018750000  -4.185253e+001  5.593451e+001 
3021875000  -4.020934e+001  5.606240e+001 
3025000000  -3.870065e+001  5.233765e+001 
3028125000  -3.774394e+001  4.233748e+001 
3031250000  -3.710157e+001  3.023409e+001 
3034375000  -3.672330e+001  1.662335e+001 
3037500000  -3.758093e+001  6.254619e+000 
3040625000  -3.877139e+001  1.385885e-001 
3043750000  -3.905672e+001  -5.924229e+000 
3046875000  -3.989955e+001  -1.269428e+001 
3050000000  -4.087030e+001  -1.680613e+001 
3053125000  -4.063646e+001  -1.036017e+001 
3056250000  -4.051648e+001  -9.461012e+000 
3059375000  -3.953960e+001  -1.118592e+001 
3062500000  -3.825860e+001  -1.531312e+001 
3065625000  -3.770489e+001  -2.507606e+001 
3068750000  -3.762157e+001  -3.286167e+001 
3071875000  -3.768135e+001  -3.565866e+001 
3075000000  -3.689634e+001  -4.261916e+001 
3078125000  -3.712101e+001  -4.798146e+001 
3081250000  -3.717605e+001  -5.488600e+001 
3084375000  -3.628122e+001  -5.881843e+001 
3087500000  -3.641519e+001  -6.683406e+001 
3090625000  -3.598919e+001  -7.778654e+001 
3093750000  -3.696251e+001  -8.608614e+001 
3096875000  -3.725109e+001  -9.067252e+001 
3100000000  -3.714880e+001  -9.457577e+001 
3103125000  -3.749017e+001  -9.795007e+001 
3106250000  -3.721320e+001  -1.033496e+002 
3109375000  -3.729550e+001  -1.062513e+002 
3112500000  -3.724574e+001  -1.132088e+002 
3115625000  -3.711916e+001  -1.165220e+002 
3118750000  -3.716014e+001  -1.198213e+002 
3121875000  -3.657107e+001  -1.311587e+002 
3125000000  -3.850113e+001  -1.339327e+002 
3128125000  -3.837907e+001  -1.269911e+002 
3131250000  -3.606198e+001  -1.336508e+002 
3134375000  -3.529063e+001  -1.505381e+002 
3137500000  -3.600491e+001  -1.619286e+002 
3140625000  -3.729317e+001  -1.643767e+002 
3143750000  -3.808752e+001  -1.674049e+002 
3146875000  -3.751734e+001  -1.655859e+002 
3150000000  -3.691984e+001  -1.686187e+002 
3153125000  -3.728667e+001  -1.778174e+002 
3156250000  -3.791117e+001  -1.733902e+002 
3159375000  -3.565018e+001  -1.759048e+002 
3162500000  -3.414986e+001  1.688337e+002 
3165625000  -3.553493e+001  1.562694e+002 
3168750000  -3.525908e+001  1.550678e+002 
3171875000  -3.495195e+001  1.478828e+002 
3175000000  -3.542413e+001  1.384194e+002 
3178125000  -3.502903e+001  1.367945e+002 
3181250000  -3.431475e+001  1.280150e+002 
3184375000  -3.410474e+001  1.167651e+002 
3187500000  -3.545634e+001  1.028626e+002 
3190625000  -3.722791e+001  9.696872e+001 
3193750000  -3.756873e+001  1.019575e+002 
3196875000  -3.736920e+001  1.033352e+002 
3200000000  -3.613110e+001  9.756693e+001 
3203125000  -3.596751e+001  8.978177e+001 
3206250000  -3.613173e+001  8.211589e+001 
3209375000  -3.579845e+001  7.343317e+001 
3212500000  -3.625678e+001  6.719495e+001 
3215625000  -3.608062e+001  6.504866e+001 
3218750000  -3.675779e+001  5.368116e+001 
3221875000  -3.711880e+001  4.659616e+001 
3225000000  -3.689717e+001  4.197066e+001 
3228125000  -3.768999e+001  3.473951e+001 
3231250000  -3.822911e+001  3.395151e+001 
3234375000  -3.782515e+001  3.045493e+001 
3237500000  -3.803917e+001  2.565724e+001 
3240625000  -3.758014e+001  2.102087e+001 
3243750000  -3.766155e+001  1.120487e+001 
3246875000  -3.822276e+001  3.517575e+000 
3250000000  -3.878848e+001  3.218872e-001 
3253125000  -3.898556e+001  -4.304228e+000 
3256250000  -3.844804e+001  -1.236787e+001 
3259375000  -3.907113e+001  -2.177908e+001 
3262500000  -4.063013e+001  -2.583724e+001 
3265625000  -4.125992e+001  -2.325866e+001 
3268750000  -4.119094e+001  -2.207862e+001 
3271875000  -4.038145e+001  -2.538170e+001 
3275000000  -4.024981e+001  -3.416663e+001 
3278125000  -4.085817e+001  -3.952100e+001 
3281250000  -4.088595e+001  -4.139772e+001 
3284375000  -4.032614e+001  -4.684398e+001 
3287500000  -4.085470e+001  -5.190813e+001 
3290625000  -4.107120e+001  -5.987532e+001 
3293750000  -4.125193e+001  -6.360926e+001 
3296875000  -4.245508e+001  -6.585029e+001 
3300000000  -4.168367e+001  -6.580096e+001 
3303125000  -4.082098e+001  -7.320374e+001 
3306250000  -4.066636e+001  -7.842874e+001 
3309375000  -4.044098e+001  -8.688029e+001 
3312500000  -4.104618e+001  -1.000985e+002 
3315625000  -4.227895e+001  -1.062496e+002 
3318750000  -4.371341e+001  -1.096815e+002 
3321875000  -4.499174e+001  -1.070055e+002 
3325000000  -4.434648e+001  -9.968597e+001 
3328125000  -4.402258e+001  -9.996896e+001 
3331250000  -4.241297e+001  -9.650451e+001 
3334375000  -3.957285e+001  -1.124251e+002 
3337500000  -4.035113e+001  -1.329604e+002 
3340625000  -4.225229e+001  -1.424445e+002 
3343750000  -4.427408e+001  -1.422666e+002 
3346875000  -4.328764e+001  -1.436539e+002 
3350000000  -4.288609e+001  -1.433815e+002 
3353125000  -4.279176e+001  -1.543919e+002 
3356250000  -4.249299e+001  -1.614622e+002 
3359375000  -4.348084e+001  -1.724390e+002 
3362500000  -4.411651e+001  -1.774811e+002 
3365625000  -4.459250e+001  1.786294e+002 
3368750000  -4.530835e+001  1.729713e+002 
3371875000  -4.591411e+001  1.708184e+002 
3375000000  -4.736890e+001  1.638330e+002 
3378125000  -4.819918e+001  1.674432e+002 
3381250000  -4.952467e+001  -1.776794e+002 
3384375000  -4.623073e+001  -1.701134e+002 
3387500000  -4.392842e+001  1.669384e+002 
3390625000  -4.554058e+001  1.534906e+002 
3393750000  -4.691673e+001  1.508439e+002 
3396875000  -4.591920e+001  1.468872e+002 
3400000000  -4.634702e+001  1.361073e+002 
3403125000  -4.648993e+001  1.325688e+002 
3406250000  -4.764098e+001  1.266186e+002 
3409375000  -4.778506e+001  1.216814e+002 
3412500000  -4.902220e+001  1.162347e+002 
3415625000  -4.935574e+001  1.136428e+002 
3418750000  -4.986442e+001  1.130173e+002 
3421875000  -5.154432e+001  1.193086e+002 
3425000000  -5.009679e+001  1.162821e+002 
3428125000  -5.016148e+001  1.129932e+002 
3431250000  -4.989250e+001  1.044461e+002 
3434375000  -5.023069e+001  1.035898e+002 
3437500000  -5.135321e+001  1.030013e+002 
3440625000  -5.143515e+001  1.013315e+002 
3443750000  -5.094914e+001  1.023394e+002 
3446875000  -4.966371e+001  9.817849e+001 
3450000000  -5.014370e+001  8.891985e+001 
3453125000  -5.039820e+001  8.287054e+001 
3456250000  -5.161575e+001  8.278468e+001 
3459375000  -5.374208e+001  7.581932e+001 
3462500000  -5.254629e+001  9.043172e+001 
3465625000  -5.168817e+001  7.904187e+001 
3468750000  -5.248306e+001  8.324857e+001 
3471875000  -5.158537e+001  7.394645e+001 
3475000000  -5.082259e+001  6.777424e+001 
3478125000  -5.123407e+001  6.045409e+001 
3481250000  -5.269337e+001  6.242962e+001 
3484375000  -5.215001e+001  5.744753e+001 
3487500000  -5.117829e+001  5.628734e+001 
3490625000  -5.076743e+001  4.922603e+001 
3493750000  -5.076739e+001  4.950440e+001 
3496875000  -5.104086e+001  4.733110e+001 
3500000000  -5.183360e+001  4.492456e+001 
3503125000  -5.044802e+001  4.021545e+001 
3506250000  -4.919382e+001  3.062724e+001 
3509375000  -4.959485e+001  1.981664e+001 
3512500000  -5.094012e+001  1.442631e+001 
3515625000  -5.117482e+001  3.224601e+000 
3518750000  -5.224343e+001  8.222453e+000 
3521875000  -5.216589e+001  2.125100e+000 
3525000000  -5.345292e+001  -4.094129e+000 
3528125000  -5.168463e+001  6.224891e-001 
3531250000  -5.165544e+001  1.576018e+000 
3534375000  -5.297342e+001  -1.290089e+001 
3537500000  -5.361108e+001  -3.101256e+001 
3540625000  -5.440800e+001  -2.411179e+001 
3543750000  -5.606233e+001  -7.558414e+000 
3546875000  -5.529823e+001  -1.685345e+001 
3550000000  -5.305472e+001  -2.409827e+001 
3553125000  -5.394500e+001  -3.774831e+001 
3556250000  -5.416926e+001  -3.968863e+001 
3559375000  -5.460114e+001  -3.779786e+001 
3562500000  -5.641760e+001  -4.645091e+001 
3565625000  -5.650392e+001  -5.483944e+001 
3568750000  -5.701514e+001  -3.110859e+001 
3571875000  -5.866730e+001  -4.957741e+001 
3575000000  -5.867818e+001  -5.154529e+001 
3578125000  -5.829572e+001  -5.945485e+001 
3581250000  -5.796791e+001  -4.948741e+001 
3584375000  -5.794259e+001  -4.470317e+001 
3587500000  -5.578370e+001  -4.717720e+001 
3590625000  -5.900893e+001  -5.832143e+001 
3593750000  -5.995792e+001  -4.728185e+001 
3596875000  -5.774771e+001  -5.260548e+001 
3600000000  -5.720662e+001  -4.166572e+001 
3603125000  -5.641766e+001  -6.132603e+001 
3606250000  -5.890900e+001  -4.567341e+001 
3609375000  -5.830127e+001  -5.581349e+001 
3612500000  -5.908965e+001  -5.867687e+001 
3615625000  -6.074401e+001  -5.709112e+001 
3618750000  -6.037110e+001  -5.010159e+001 
3621875000  -5.578514e+001  -4.857211e+001 
3625000000  -5.696591e+001  -5.672245e+001 
3628125000  -5.755866e+001  -4.116365e+001 
3631250000  -5.667265e+001  -4.567182e+001 
3634375000  -5.763495e+001  -4.133057e+001 
3637500000  -5.613236e+001  -4.822303e+001 
3640625000  -5.456458e+001  -3.925373e+001 
3643750000  -5.276525e+001  -5.194547e+001 
3646875000  -5.347220e+001  -5.761930e+001 
3650000000  -5.255249e+001  -6.289600e+001 
3653125000  -5.208426e+001  -5.930403e+001 
3656250000  -5.165794e+001  -6.588660e+001 
3659375000  -5.217619e+001  -6.677270e+001 
3662500000  -5.005466e+001  -7.669187e+001 
3665625000  -4.980703e+001  -7.615524e+001 
3668750000  -4.871120e+001  -7.483123e+001 
3671875000  -4.771813e+001  -8.609264e+001 
3675000000  -4.737192e+001  -9.911492e+001 
3678125000  -4.787019e+001  -1.026690e+002 
3681250000  -4.654172e+001  -1.069906e+002 
3684375000  -4.673170e+001  -1.099621e+002 
3687500000  -4.634173e+001  -1.185352e+002 
3690625000  -4.702001e+001  -1.192529e+002 
3693750000  -4.688696e+001  -1.196806e+002 
3696875000  -4.652550e+001  -1.218266e+002 
3700000000  -4.512778e+001  -1.287666e+002 
3703125000  -4.516864e+001  -1.357958e+002 
3706250000  -4.593182e+001  -1.355104e+002 
3709375000  -4.471239e+001  -1.375884e+002 
3712500000  -4.349982e+001  -1.412168e+002 
3715625000  -4.187931e+001  -1.519163e+002 
3718750000  -4.165512e+001  -1.577272e+002 
3721875000  -4.112968e+001  -1.652166e+002 
3725000000  -4.175543e+001  -1.713450e+002 
3728125000  -4.144800e+001  -1.781244e+002 
3731250000  -4.079576e+001  1.778647e+002 
3734375000  -4.009306e+001  1.694054e+002 
3737500000  -4.080941e+001  1.603277e+002 
3740625000  -4.077904e+001  1.546896e+002 
3743750000  -4.075346e+001  1.484429e+002 
3746875000  -4.071408e+001  1.426420e+002 
3750000000  -4.095929e+001  1.367162e+002 
3753125000  -4.056247e+001  1.344032e+002 
3756250000  -4.062313e+001  1.322904e+002 
3759375000  -4.052761e+001  1.250171e+002 
3762500000  -4.004399e+001  1.187402e+002 
3765625000  -4.054743e+001  1.138715e+002 
3768750000  -4.005760e+001  1.141275e+002 
3771875000  -3.857299e+001  1.065238e+002 
3775000000  -3.858726e+001  9.539030e+001 
3778125000  -3.901472e+001  9.022717e+001 
3781250000  -3.899150e+001  8.520100e+001 
3784375000  -3.875954e+001  7.820134e+001 
3787500000  -3.855320e+001  7.368904e+001 
3790625000  -3.923545e+001  6.438910e+001 
3793750000  -3.910473e+001  6.074668e+001 
3796875000  -3.810835e+001  5.564662e+001 
3800000000  -3.637245e+001  5.143229e+001 
3803125000  -3.806690e+001  3.899631e+001 
3806250000  -3.892095e+001  3.619114e+001 
3809375000  -3.839964e+001  3.037503e+001 
3812500000  -3.842939e+001  2.192477e+001 
3815625000  -3.955001e+001  1.165447e+001 
3818750000  -4.066025e+001  1.435781e+001 
3821875000  -4.010158e+001  2.176950e+001 
3825000000  -3.805467e+001  1.941349e+001 
3828125000  -3.695127e+001  -7.253813e-001 
3831250000  -3.801912e+001  -1.476526e+001 
3834375000  -4.028922e+001  -1.333603e+001 
3837500000  -4.080964e+001  -8.930178e+000 
3840625000  -3.887992e+001  -1.442041e+001 
3843750000  -3.811938e+001  -2.965388e+001 
3846875000  -3.991612e+001  -3.536841e+001 
3850000000  -4.053471e+001  -3.027926e+001 
3853125000  -3.972139e+001  -2.756341e+001 
3856250000  -3.938053e+001  -3.625153e+001 
3859375000  -3.837698e+001  -4.362778e+001 
3862500000  -3.847458e+001  -5.478585e+001 
3865625000  -3.890402e+001  -5.889130e+001 
3868750000  -3.845378e+001  -5.966868e+001 
3871875000  -3.785864e+001  -6.872330e+001 
3875000000  -3.845780e+001  -7.735254e+001 
3878125000  -3.933017e+001  -8.054996e+001 
3881250000  -3.908666e+001  -7.989949e+001 
3884375000  -3.882917e+001  -8.810421e+001 
3887500000  -3.923787e+001  -9.530767e+001 
3890625000  -3.966783e+001  -9.666408e+001 
3893750000  -3.965182e+001  -1.001719e+002 
3896875000  -4.001593e+001  -1.030889e+002 
3900000000  -4.004048e+001  -1.069537e+002 
3903125000  -3.921950e+001  -1.103214e+002 
3906250000  -3.899640e+001  -1.148282e+002 
3909375000  -3.809082e+001  -1.245550e+002 
3912500000  -3.915120e+001  -1.320695e+002 
3915625000  -4.044430e+001  -1.320939e+002 
3918750000  -4.004107e+001  -1.337515e+002 
3921875000  -3.922544e+001  -1.378994e+002 
3925000000  -3.848143e+001  -1.427179e+002 
3928125000  -3.834016e+001  -1.546181e+002 
3931250000  -3.905325e+001  -1.595498e+002 
3934375000  -3.947295e+001  -1.616081e+002 
3937500000  -4.012255e+001  -1.633749e+002 
3940625000  -3.981153e+001  -1.650334e+002 
3943750000  -3.875141e+001  -1.686315e+002 
3946875000  -3.865044e+001  -1.779389e+002 
3950000000  -3.931920e+001  1.725964e+002 
3953125000  -3.989737e+001  1.775205e+002 
3956250000  -3.868174e+001  1.741096e+002 
3959375000  -3.790038e+001  1.671567e+002 
3962500000  -3.779773e+001  1.590666e+002 
3965625000  -3.791420e+001  1.493393e+002 
3968750000  -3.859898e+001  1.413803e+002 
3971875000  -3.854964e+001  1.370679e+002 
3975000000  -3.821222e+001  1.329452e+002 
3978125000  -3.868492e+001  1.291606e+002 
3981250000  -3.855692e+001  1.223292e+002 
3984375000  -3.912325e+001  1.154100e+002 
3987500000  -3.971251e+001  1.113249e+002 
3990625000  -3.990064e+001  1.114352e+002 
3993750000  -4.000599e+001  1.049301e+002 
3996875000  -3.985054e+001  1.000860e+002 
4000000000  -4.063536e+001  9.428849e+001 
4003125000  -4.098849e+001  9.575017e+001 
4006250000  -3.938265e+001  9.462253e+001 
4009375000  -3.856897e+001  8.027120e+001 
4012500000  -4.030288e+001  7.189851e+001 
4015625000  -4.128329e+001  7.191044e+001 
4018750000  -4.129404e+001  7.280003e+001 
4021875000  -4.091645e+001  6.974342e+001 
4025000000  -4.036459e+001  6.388786e+001 
4028125000  -4.057389e+001  5.679216e+001 
4031250000  -4.119551e+001  5.259156e+001 
4034375000  -4.168504e+001  5.231511e+001 
4037500000  -4.094969e+001  5.083949e+001 
4040625000  -4.073547e+001  4.872971e+001 
4043750000  -4.109706e+001  4.553931e+001 
4046875000  -4.068408e+001  4.247595e+001 
4050000000  -4.059719e+001  3.716360e+001 
4053125000  -4.143154e+001  3.294745e+001 
4056250000  -4.150212e+001  3.854663e+001 
4059375000  -3.905714e+001  3.473563e+001 
4062500000  -3.854893e+001  2.636912e+001 
4065625000  -3.874295e+001  2.127136e+001 
4068750000  -3.822545e+001  1.308189e+001 
4071875000  -3.763317e+001  3.891426e+000 
4075000000  -3.859930e+001  -3.328969e+000 
4078125000  -3.869779e+001  -5.990511e+000 
4081250000  -3.805898e+001  -1.132689e+001 
4084375000  -3.800179e+001  -2.181990e+001 
4087500000  -3.870667e+001  -2.666628e+001 
4090625000  -3.932349e+001  -2.836409e+001 
4093750000  -3.858498e+001  -3.147816e+001 
4096875000  -3.895020e+001  -4.257794e+001 
4100000000  -3.971495e+001  -4.786605e+001 
4103125000  -4.057770e+001  -4.649797e+001 
4106250000  -3.994886e+001  -4.413224e+001 
4109375000  -3.903455e+001  -4.750153e+001 
4112500000  -3.865060e+001  -5.559247e+001 
4115625000  -3.922738e+001  -6.321742e+001 
4118750000  -3.878184e+001  -6.706478e+001 
4121875000  -3.886269e+001  -7.683035e+001 
4125000000  -3.975264e+001  -8.095728e+001 
4128125000  -4.095564e+001  -7.857828e+001 
4131250000  -3.960836e+001  -7.414040e+001 
4134375000  -3.779807e+001  -8.523722e+001 
4137500000  -3.845327e+001  -1.051965e+002 
4140625000  -4.053151e+001  -1.090534e+002 
4143750000  -4.141565e+001  -1.028259e+002 
4146875000  -4.063939e+001  -9.988757e+001 
4150000000  -3.986061e+001  -1.087476e+002 
4153125000  -4.007442e+001  -1.176170e+002 
4156250000  -4.106854e+001  -1.214479e+002 
4159375000  -4.100079e+001  -1.155008e+002 
4162500000  -3.986937e+001  -1.153907e+002 
4165625000  -3.880166e+001  -1.215784e+002 
4168750000  -3.831815e+001  -1.320651e+002 
4171875000  -3.840026e+001  -1.401770e+002 
4175000000  -3.927708e+001  -1.466702e+002 
4178125000  -3.966801e+001  -1.466934e+002 
4181250000  -3.927205e+001  -1.529060e+002 
4184375000  -3.956728e+001  -1.572128e+002 
4187500000  -3.934245e+001  -1.634771e+002 
4190625000  -3.955184e+001  -1.683823e+002 
4193750000  -4.068600e+001  -1.758634e+002 
4196875000  -4.150245e+001  -1.762067e+002 
4200000000  -4.220850e+001  -1.700686e+002 
4203125000  -4.085343e+001  -1.588273e+002 
4206250000  -3.748961e+001  -1.665289e+002 
4209375000  -3.711636e+001  1.689289e+002 
4212500000  -3.961557e+001  1.622501e+002 
4215625000  -3.999644e+001  1.704654e+002 
4218750000  -3.823723e+001  1.704267e+002 
4221875000  -3.637975e+001  1.622964e+002 
4225000000  -3.790753e+001  1.512090e+002 
4228125000  -3.774314e+001  1.507307e+002 
4231250000  -3.614809e+001  1.439708e+002 
4234375000  -3.623560e+001  1.320312e+002 
4237500000  -3.612160e+001  1.266236e+002 
4240625000  -3.639319e+001  1.155631e+002 
4243750000  -3.751900e+001  1.087247e+002 
4246875000  -3.866455e+001  1.067894e+002 
4250000000  -3.823173e+001  1.068623e+002 
4253125000  -3.816798e+001  1.038459e+002 
4256250000  -3.823839e+001  9.870020e+001 
4259375000  -3.771035e+001  9.320022e+001 
4262500000  -3.790492e+001  8.791903e+001 
4265625000  -3.798703e+001  8.685664e+001 
4268750000  -3.713396e+001  7.898473e+001 
4271875000  -3.659316e+001  7.017973e+001 
4275000000  -3.664709e+001  6.153230e+001 
4278125000  -3.759194e+001  5.016722e+001 
4281250000  -3.908155e+001  4.782050e+001 
4284375000  -3.878847e+001  4.596138e+001 
4287500000  -4.040969e+001  4.459524e+001 
4290625000  -4.045513e+001  5.050406e+001 
4293750000  -3.846456e+001  5.064791e+001 
4296875000  -3.757781e+001  3.940551e+001 
4300000000  -3.908506e+001  2.878816e+001 
4303125000  -3.962370e+001  3.122453e+001 
4306250000  -3.869749e+001  3.400742e+001 
4309375000  -3.766580e+001  2.943196e+001 
4312500000  -3.752481e+001  1.762599e+001 
4315625000  -3.802817e+001  9.224351e+000 
4318750000  -3.845486e+001  5.272211e+000 
4321875000  -3.884329e+001  5.612629e+000 
4325000000  -3.802141e+001  4.744455e+000 
4328125000  -3.713871e+001  -5.263334e+000 
4331250000  -3.731475e+001  -1.645160e+001 
4334375000  -3.820165e+001  -2.218424e+001 
4337500000  -3.947271e+001  -2.358043e+001 
4340625000  -3.962022e+001  -1.734473e+001 
4343750000  -3.835826e+001  -2.129109e+001 
4346875000  -3.814153e+001  -3.142353e+001 
4350000000  -3.833824e+001  -3.950103e+001 
4353125000  -3.898103e+001  -4.628112e+001 
4356250000  -4.127627e+001  -4.073372e+001 
4359375000  -3.971973e+001  -2.829197e+001 
4362500000  -3.627184e+001  -3.609940e+001 
4365625000  -3.569812e+001  -5.453232e+001 
4368750000  -3.709275e+001  -6.237893e+001 
4371875000  -3.795192e+001  -6.364991e+001 
4375000000  -3.710768e+001  -6.781923e+001 
4378125000  -3.684416e+001  -7.512664e+001 
4381250000  -3.694995e+001  -8.410094e+001 
4384375000  -3.721283e+001  -8.976182e+001 
4387500000  -3.792117e+001  -9.583030e+001 
4390625000  -3.841945e+001  -9.807882e+001 
4393750000  -3.784335e+001  -9.727755e+001 
4396875000  -3.715117e+001  -1.017066e+002 
4400000000  -3.685218e+001  -1.110418e+002 
4403125000  -3.790761e+001  -1.193638e+002 
4406250000  -3.829284e+001  -1.250617e+002 
4409375000  -3.855190e+001  -1.287142e+002 
4412500000  -3.992115e+001  -1.283932e+002 
4415625000  -3.928024e+001  -1.255219e+002 
