!Agilent Technologies,E8363B,MY43030201,A.06.04.32
!Agilent E8363B: A.06.04.32
!Date: Tuesday, November 11, 2014 21:28:13
!Correction: S21(Response(S21)) 
!S1P File: Measurement: S21:
# Hz S  dB   R 50
3000000000  -4.061882e+001  9.053234e+001 
3003125000  -4.216887e+001  8.312086e+001 
3006250000  -4.220513e+001  8.030043e+001 
3009375000  -4.279217e+001  8.685926e+001 
3012500000  -4.150762e+001  8.226652e+001 
3015625000  -4.131788e+001  7.474978e+001 
3018750000  -4.181478e+001  7.609821e+001 
3021875000  -4.023249e+001  7.628026e+001 
3025000000  -3.896124e+001  7.312874e+001 
3028125000  -3.801388e+001  6.275779e+001 
3031250000  -3.692501e+001  5.086530e+001 
3034375000  -3.674268e+001  3.701388e+001 
3037500000  -3.744940e+001  2.567041e+001 
3040625000  -3.869990e+001  2.117595e+001 
3043750000  -3.910227e+001  1.410779e+001 
3046875000  -3.965350e+001  7.765892e+000 
3050000000  -4.077982e+001  3.123710e+000 
3053125000  -4.061281e+001  9.241109e+000 
3056250000  -4.051546e+001  1.174409e+001 
3059375000  -3.981463e+001  9.814404e+000 
3062500000  -3.843080e+001  3.919187e+000 
3065625000  -3.806738e+001  -4.913759e+000 
3068750000  -3.768269e+001  -1.269177e+001 
3071875000  -3.760294e+001  -1.532109e+001 
3075000000  -3.720206e+001  -2.038431e+001 
3078125000  -3.706701e+001  -2.780441e+001 
3081250000  -3.734800e+001  -3.375068e+001 
3084375000  -3.648251e+001  -3.897243e+001 
3087500000  -3.652721e+001  -4.517210e+001 
3090625000  -3.595804e+001  -5.678583e+001 
3093750000  -3.680561e+001  -6.543475e+001 
3096875000  -3.731915e+001  -7.190255e+001 
3100000000  -3.728119e+001  -7.420443e+001 
3103125000  -3.752562e+001  -7.672987e+001 
3106250000  -3.707575e+001  -8.243625e+001 
3109375000  -3.726295e+001  -8.647122e+001 
3112500000  -3.729541e+001  -9.178415e+001 
3115625000  -3.708655e+001  -9.699294e+001 
3118750000  -3.728367e+001  -9.861070e+001 
3121875000  -3.657426e+001  -1.103820e+002 
3125000000  -3.842866e+001  -1.142951e+002 
3128125000  -3.859962e+001  -1.072110e+002 
3131250000  -3.616945e+001  -1.118270e+002 
3134375000  -3.532668e+001  -1.302082e+002 
3137500000  -3.610159e+001  -1.419462e+002 
3140625000  -3.735466e+001  -1.455321e+002 
3143750000  -3.841494e+001  -1.476849e+002 
3146875000  -3.766624e+001  -1.450383e+002 
3150000000  -3.699737e+001  -1.482378e+002 
3153125000  -3.728664e+001  -1.572718e+002 
3156250000  -3.785201e+001  -1.523246e+002 
3159375000  -3.583076e+001  -1.544710e+002 
3162500000  -3.429436e+001  -1.695040e+002 
3165625000  -3.543873e+001  1.766129e+002 
3168750000  -3.556067e+001  1.760011e+002 
3171875000  -3.487292e+001  1.689351e+002 
3175000000  -3.564133e+001  1.589511e+002 
3178125000  -3.520438e+001  1.588165e+002 
3181250000  -3.442412e+001  1.507775e+002 
3184375000  -3.411184e+001  1.380851e+002 
3187500000  -3.534733e+001  1.233028e+002 
3190625000  -3.743130e+001  1.171098e+002 
3193750000  -3.774252e+001  1.231248e+002 
3196875000  -3.747350e+001  1.241727e+002 
3200000000  -3.639176e+001  1.195963e+002 
3203125000  -3.585164e+001  1.103814e+002 
3206250000  -3.627722e+001  1.028503e+002 
3209375000  -3.584146e+001  9.521256e+001 
3212500000  -3.624456e+001  8.921417e+001 
3215625000  -3.619988e+001  8.384638e+001 
3218750000  -3.683222e+001  7.460802e+001 
3221875000  -3.723245e+001  6.693199e+001 
3225000000  -3.714417e+001  6.483636e+001 
3228125000  -3.761490e+001  5.645259e+001 
3231250000  -3.836884e+001  5.397136e+001 
3234375000  -3.798903e+001  5.134880e+001 
3237500000  -3.815266e+001  4.754803e+001 
3240625000  -3.777015e+001  4.305492e+001 
3243750000  -3.786208e+001  3.175362e+001 
3246875000  -3.815980e+001  2.459070e+001 
3250000000  -3.862529e+001  2.162160e+001 
3253125000  -3.893434e+001  1.798761e+001 
3256250000  -3.867375e+001  9.238822e+000 
3259375000  -3.911711e+001  -7.993298e-001 
3262500000  -4.066047e+001  -5.331879e+000 
3265625000  -4.121250e+001  -4.172842e-001 
3268750000  -4.109858e+001  -1.877810e+000 
3271875000  -4.079846e+001  -3.867573e+000 
3275000000  -4.009663e+001  -1.159974e+001 
3278125000  -4.084330e+001  -1.674605e+001 
3281250000  -4.102738e+001  -1.878280e+001 
3284375000  -4.064289e+001  -2.465682e+001 
3287500000  -4.096628e+001  -2.901147e+001 
3290625000  -4.128940e+001  -3.685030e+001 
3293750000  -4.111459e+001  -4.257362e+001 
3296875000  -4.249436e+001  -4.325907e+001 
3300000000  -4.193966e+001  -4.341080e+001 
3303125000  -4.104551e+001  -4.986407e+001 
3306250000  -4.073904e+001  -5.656226e+001 
3309375000  -4.066742e+001  -6.504321e+001 
3312500000  -4.083682e+001  -7.724553e+001 
3315625000  -4.186704e+001  -8.384392e+001 
3318750000  -4.322241e+001  -8.691599e+001 
3321875000  -4.478980e+001  -8.437860e+001 
3325000000  -4.471153e+001  -7.975562e+001 
3328125000  -4.409087e+001  -7.818793e+001 
3331250000  -4.246027e+001  -7.616482e+001 
3334375000  -3.982968e+001  -8.920933e+001 
3337500000  -4.032974e+001  -1.095346e+002 
3340625000  -4.198504e+001  -1.200400e+002 
3343750000  -4.403030e+001  -1.184762e+002 
3346875000  -4.361450e+001  -1.189316e+002 
3350000000  -4.303901e+001  -1.217711e+002 
3353125000  -4.298009e+001  -1.303938e+002 
3356250000  -4.264445e+001  -1.398494e+002 
3359375000  -4.318760e+001  -1.488271e+002 
3362500000  -4.438482e+001  -1.554928e+002 
3365625000  -4.448308e+001  -1.600341e+002 
3368750000  -4.529386e+001  -1.622903e+002 
3371875000  -4.565124e+001  -1.664996e+002 
3375000000  -4.779988e+001  -1.728172e+002 
3378125000  -4.766482e+001  -1.699670e+002 
3381250000  -4.925181e+001  -1.599992e+002 
3384375000  -4.678498e+001  -1.456538e+002 
3387500000  -4.386283e+001  -1.654030e+002 
3390625000  -4.627826e+001  1.744339e+002 
3393750000  -4.709536e+001  1.753730e+002 
3396875000  -4.618348e+001  1.747128e+002 
3400000000  -4.597237e+001  1.624805e+002 
3403125000  -4.635629e+001  1.567313e+002 
3406250000  -4.715952e+001  1.528467e+002 
3409375000  -4.750458e+001  1.494453e+002 
3412500000  -4.881765e+001  1.402525e+002 
3415625000  -5.049133e+001  1.380686e+002 
3418750000  -4.997531e+001  1.355644e+002 
3421875000  -5.157171e+001  1.417979e+002 
3425000000  -4.996494e+001  1.408758e+002 
3428125000  -5.005135e+001  1.356436e+002 
3431250000  -4.982742e+001  1.247432e+002 
3434375000  -5.016820e+001  1.229963e+002 
3437500000  -5.087857e+001  1.227839e+002 
3440625000  -5.219500e+001  1.265104e+002 
3443750000  -5.010661e+001  1.265897e+002 
3446875000  -5.044380e+001  1.183675e+002 
3450000000  -5.062492e+001  1.134435e+002 
3453125000  -5.086790e+001  1.035786e+002 
3456250000  -5.139000e+001  1.039595e+002 
3459375000  -5.222131e+001  1.043648e+002 
3462500000  -5.164687e+001  1.070437e+002 
3465625000  -5.072236e+001  9.860692e+001 
3468750000  -5.202432e+001  1.005975e+002 
3471875000  -5.163369e+001  9.283559e+001 
3475000000  -5.155095e+001  8.883973e+001 
3478125000  -5.091046e+001  8.214722e+001 
3481250000  -5.186166e+001  8.713777e+001 
3484375000  -5.246027e+001  8.665228e+001 
3487500000  -5.093876e+001  8.186431e+001 
3490625000  -5.030566e+001  7.293256e+001 
3493750000  -5.118425e+001  6.720291e+001 
3496875000  -5.059189e+001  6.636420e+001 
3500000000  -5.197300e+001  6.640215e+001 
3503125000  -5.008482e+001  6.859206e+001 
3506250000  -4.928916e+001  5.952959e+001 
3509375000  -4.949276e+001  4.798924e+001 
3512500000  -5.023447e+001  3.911208e+001 
3515625000  -5.096530e+001  3.082539e+001 
3518750000  -5.143938e+001  3.207790e+001 
3521875000  -5.168821e+001  2.668142e+001 
3525000000  -5.257925e+001  1.910908e+001 
3528125000  -5.205131e+001  2.149223e+001 
3531250000  -5.135067e+001  2.092871e+001 
3534375000  -5.125733e+001  7.422222e+000 
3537500000  -5.375095e+001  -5.354453e+000 
3540625000  -5.400479e+001  -8.347639e-001 
3543750000  -5.516748e+001  6.803136e+000 
3546875000  -5.467004e+001  3.757749e+000 
3550000000  -5.362777e+001  -1.209613e+000 
3553125000  -5.264266e+001  -1.673024e+001 
3556250000  -5.412149e+001  -1.420516e+001 
3559375000  -5.576527e+001  -1.221523e+001 
3562500000  -5.629963e+001  -3.125454e+001 
3565625000  -5.636639e+001  -3.188860e+001 
3568750000  -5.638164e+001  -2.389454e+001 
3571875000  -5.819863e+001  -2.263191e+001 
3575000000  -5.779781e+001  -3.358230e+001 
3578125000  -5.700212e+001  -2.601098e+001 
3581250000  -5.758746e+001  -2.214813e+001 
3584375000  -5.713000e+001  -2.090503e+001 
3587500000  -5.737046e+001  -3.078895e+001 
3590625000  -5.618534e+001  -4.283696e+001 
3593750000  -5.883226e+001  -4.573770e+001 
3596875000  -5.921354e+001  -1.933414e+001 
3600000000  -5.644551e+001  -2.028770e+001 
3603125000  -5.891491e+001  -3.524615e+001 
3606250000  -5.813958e+001  -4.636627e+001 
3609375000  -5.881988e+001  -3.685419e+001 
3612500000  -6.003439e+001  -3.765459e+001 
3615625000  -5.795301e+001  -4.696570e+001 
3618750000  -6.103756e+001  -3.492422e+001 
3621875000  -5.776877e+001  -4.016535e+001 
3625000000  -5.642618e+001  -2.090597e+001 
3628125000  -5.748254e+001  -2.327843e+001 
3631250000  -5.665451e+001  -2.685782e+001 
3634375000  -5.632809e+001  -3.058611e+001 
3637500000  -5.612119e+001  -2.092390e+001 
3640625000  -5.520270e+001  -2.176481e+001 
3643750000  -5.351962e+001  -2.816284e+001 
3646875000  -5.325355e+001  -3.706318e+001 
3650000000  -5.399351e+001  -4.267998e+001 
3653125000  -5.198504e+001  -4.100920e+001 
3656250000  -5.175891e+001  -4.904669e+001 
3659375000  -5.179205e+001  -4.331161e+001 
3662500000  -5.122263e+001  -5.186507e+001 
3665625000  -5.007952e+001  -5.303437e+001 
3668750000  -4.824585e+001  -5.222261e+001 
3671875000  -4.762001e+001  -6.668421e+001 
3675000000  -4.798426e+001  -7.147781e+001 
3678125000  -4.745644e+001  -7.797131e+001 
3681250000  -4.700921e+001  -8.230360e+001 
3684375000  -4.730651e+001  -8.526615e+001 
3687500000  -4.742363e+001  -9.184152e+001 
3690625000  -4.683061e+001  -9.709414e+001 
3693750000  -4.730690e+001  -9.782884e+001 
3696875000  -4.638696e+001  -9.775864e+001 
3700000000  -4.565131e+001  -1.056162e+002 
3703125000  -4.548701e+001  -1.114861e+002 
3706250000  -4.609707e+001  -1.110284e+002 
3709375000  -4.485569e+001  -1.123130e+002 
3712500000  -4.416389e+001  -1.147237e+002 
3715625000  -4.234288e+001  -1.258696e+002 
3718750000  -4.161159e+001  -1.321460e+002 
3721875000  -4.144193e+001  -1.439986e+002 
3725000000  -4.186877e+001  -1.489810e+002 
3728125000  -4.174228e+001  -1.507289e+002 
3731250000  -4.069326e+001  -1.578610e+002 
3734375000  -4.019911e+001  -1.652608e+002 
3737500000  -4.098885e+001  -1.735453e+002 
3740625000  -4.102637e+001  1.791308e+002 
3743750000  -4.039398e+001  1.750886e+002 
3746875000  -4.080589e+001  1.662144e+002 
3750000000  -4.129667e+001  1.625130e+002 
3753125000  -4.062296e+001  1.603797e+002 
3756250000  -4.064730e+001  1.558123e+002 
3759375000  -4.031656e+001  1.508643e+002 
3762500000  -3.999715e+001  1.431044e+002 
3765625000  -4.073222e+001  1.393688e+002 
3768750000  -4.016337e+001  1.394206e+002 
3771875000  -3.845033e+001  1.311652e+002 
3775000000  -3.869471e+001  1.198671e+002 
3778125000  -3.916044e+001  1.155847e+002 
3781250000  -3.897427e+001  1.113034e+002 
3784375000  -3.879216e+001  1.045050e+002 
3787500000  -3.851056e+001  9.939909e+001 
3790625000  -3.966393e+001  8.864104e+001 
3793750000  -3.930540e+001  8.652686e+001 
3796875000  -3.818861e+001  8.160590e+001 
3800000000  -3.632092e+001  7.774080e+001 
3803125000  -3.806405e+001  6.418893e+001 
3806250000  -3.897354e+001  6.010875e+001 
3809375000  -3.863796e+001  5.434753e+001 
3812500000  -3.824782e+001  4.822311e+001 
3815625000  -3.946087e+001  3.669059e+001 
3818750000  -4.078340e+001  3.784113e+001 
3821875000  -4.038476e+001  4.682525e+001 
3825000000  -3.809554e+001  4.423975e+001 
3828125000  -3.725588e+001  2.550973e+001 
3831250000  -3.825168e+001  1.181308e+001 
3834375000  -4.036492e+001  1.083763e+001 
3837500000  -4.068898e+001  1.413560e+001 
3840625000  -3.907862e+001  1.198489e+001 
3843750000  -3.855280e+001  -3.847533e+000 
3846875000  -3.989327e+001  -9.979352e+000 
3850000000  -4.070213e+001  -2.846740e+000 
3853125000  -4.025713e+001  -4.428555e+000 
3856250000  -3.951886e+001  -1.078208e+001 
3859375000  -3.897587e+001  -1.720822e+001 
3862500000  -3.854438e+001  -2.712879e+001 
3865625000  -3.902798e+001  -3.089716e+001 
3868750000  -3.903122e+001  -3.337328e+001 
3871875000  -3.804864e+001  -3.952153e+001 
3875000000  -3.843002e+001  -5.021051e+001 
3878125000  -3.959275e+001  -5.334145e+001 
3881250000  -3.926161e+001  -5.334510e+001 
3884375000  -3.884191e+001  -6.033551e+001 
3887500000  -3.919161e+001  -6.688671e+001 
3890625000  -3.947261e+001  -7.095749e+001 
3893750000  -3.961813e+001  -7.321852e+001 
3896875000  -3.993270e+001  -7.758099e+001 
3900000000  -3.992692e+001  -7.983996e+001 
3903125000  -3.934430e+001  -8.558040e+001 
3906250000  -3.896269e+001  -8.921400e+001 
3909375000  -3.825856e+001  -9.733556e+001 
3912500000  -3.890427e+001  -1.071879e+002 
3915625000  -4.038081e+001  -1.063993e+002 
3918750000  -4.009149e+001  -1.072990e+002 
3921875000  -3.954817e+001  -1.117042e+002 
3925000000  -3.840747e+001  -1.163278e+002 
3928125000  -3.822684e+001  -1.271644e+002 
3931250000  -3.892186e+001  -1.325954e+002 
3934375000  -3.943684e+001  -1.338030e+002 
3937500000  -3.987073e+001  -1.374998e+002 
3940625000  -3.982177e+001  -1.380339e+002 
3943750000  -3.891808e+001  -1.414619e+002 
3946875000  -3.816380e+001  -1.498497e+002 
3950000000  -3.934323e+001  -1.588390e+002 
3953125000  -3.994469e+001  -1.584149e+002 
3956250000  -3.893635e+001  -1.575863e+002 
3959375000  -3.790968e+001  -1.648900e+002 
3962500000  -3.763366e+001  -1.729259e+002 
3965625000  -3.762694e+001  1.766405e+002 
3968750000  -3.868840e+001  1.694308e+002 
3971875000  -3.860576e+001  1.634695e+002 
3975000000  -3.841415e+001  1.595524e+002 
3978125000  -3.865174e+001  1.558866e+002 
3981250000  -3.852355e+001  1.510106e+002 
3984375000  -3.891868e+001  1.403555e+002 
3987500000  -3.965184e+001  1.378869e+002 
3990625000  -3.987034e+001  1.371670e+002 
3993750000  -3.978102e+001  1.328417e+002 
3996875000  -3.979378e+001  1.275913e+002 
4000000000  -4.073474e+001  1.234563e+002 
4003125000  -4.107874e+001  1.244100e+002 
4006250000  -3.917146e+001  1.223169e+002 
4009375000  -3.829076e+001  1.079164e+002 
4012500000  -4.010337e+001  9.942300e+001 
4015625000  -4.132698e+001  9.858029e+001 
4018750000  -4.118648e+001  9.982355e+001 
4021875000  -4.067085e+001  9.838339e+001 
4025000000  -4.049461e+001  9.112728e+001 
4028125000  -4.055913e+001  8.592616e+001 
4031250000  -4.078059e+001  8.079627e+001 
4034375000  -4.151435e+001  7.836040e+001 
4037500000  -4.105745e+001  7.968737e+001 
4040625000  -4.098569e+001  7.538766e+001 
4043750000  -4.134726e+001  7.417376e+001 
4046875000  -4.051590e+001  6.916782e+001 
4050000000  -4.061337e+001  6.141238e+001 
4053125000  -4.116919e+001  5.954349e+001 
4056250000  -4.127003e+001  6.457180e+001 
4059375000  -3.967650e+001  6.281170e+001 
4062500000  -3.848919e+001  5.451643e+001 
4065625000  -3.883450e+001  5.046067e+001 
4068750000  -3.822322e+001  4.350438e+001 
4071875000  -3.740167e+001  3.224009e+001 
4075000000  -3.801344e+001  2.552514e+001 
4078125000  -3.850377e+001  2.159482e+001 
4081250000  -3.799124e+001  1.799636e+001 
4084375000  -3.771510e+001  7.296421e+000 
4087500000  -3.842419e+001  -2.878340e-001 
4090625000  -3.893191e+001  -8.382544e-001 
4093750000  -3.865723e+001  -4.953216e+000 
4096875000  -3.830199e+001  -1.337384e+001 
4100000000  -3.940841e+001  -2.130140e+001 
4103125000  -4.018974e+001  -1.938112e+001 
4106250000  -3.988014e+001  -1.662377e+001 
4109375000  -3.873023e+001  -1.886992e+001 
4112500000  -3.829830e+001  -2.887927e+001 
4115625000  -3.891924e+001  -3.619050e+001 
4118750000  -3.899627e+001  -3.984339e+001 
4121875000  -3.895105e+001  -4.739751e+001 
4125000000  -3.955912e+001  -5.312717e+001 
4128125000  -4.035038e+001  -5.215316e+001 
4131250000  -3.959869e+001  -4.780293e+001 
4134375000  -3.725050e+001  -5.536898e+001 
4137500000  -3.770885e+001  -7.809206e+001 
4140625000  -4.020061e+001  -8.392583e+001 
4143750000  -4.110949e+001  -7.818192e+001 
4146875000  -4.003388e+001  -7.397619e+001 
4150000000  -3.929921e+001  -8.032343e+001 
4153125000  -3.954202e+001  -8.998778e+001 
4156250000  -4.116532e+001  -9.481983e+001 
4159375000  -4.084743e+001  -8.523004e+001 
4162500000  -3.958636e+001  -8.632949e+001 
4165625000  -3.853767e+001  -9.368428e+001 
4168750000  -3.825029e+001  -1.030890e+002 
4171875000  -3.786578e+001  -1.138489e+002 
4175000000  -3.864302e+001  -1.197092e+002 
4178125000  -3.920868e+001  -1.218229e+002 
4181250000  -3.906089e+001  -1.246005e+002 
4184375000  -3.902580e+001  -1.280148e+002 
4187500000  -3.888723e+001  -1.333825e+002 
4190625000  -3.912820e+001  -1.423148e+002 
4193750000  -4.026800e+001  -1.468903e+002 
4196875000  -4.080862e+001  -1.481022e+002 
4200000000  -4.192342e+001  -1.435082e+002 
4203125000  -4.043254e+001  -1.316755e+002 
4206250000  -3.721669e+001  -1.376469e+002 
4209375000  -3.682751e+001  -1.603505e+002 
4212500000  -3.904594e+001  -1.685274e+002 
4215625000  -3.952328e+001  -1.621537e+002 
4218750000  -3.783035e+001  -1.598817e+002 
4221875000  -3.596278e+001  -1.710778e+002 
4225000000  -3.736281e+001  1.767210e+002 
4228125000  -3.751248e+001  1.783102e+002 
4231250000  -3.592425e+001  1.713791e+002 
4234375000  -3.601643e+001  1.597693e+002 
4237500000  -3.576398e+001  1.556488e+002 
4240625000  -3.610284e+001  1.447418e+002 
4243750000  -3.698363e+001  1.361206e+002 
4246875000  -3.767771e+001  1.343283e+002 
4250000000  -3.779943e+001  1.342875e+002 
4253125000  -3.747365e+001  1.306724e+002 
4256250000  -3.749878e+001  1.267675e+002 
4259375000  -3.738015e+001  1.196510e+002 
4262500000  -3.735298e+001  1.163457e+002 
4265625000  -3.741498e+001  1.136056e+002 
4268750000  -3.632816e+001  1.081872e+002 
4271875000  -3.618959e+001  9.931754e+001 
4275000000  -3.601397e+001  8.867471e+001 
4278125000  -3.672029e+001  7.588464e+001 
4281250000  -3.852254e+001  7.694117e+001 
4284375000  -3.839663e+001  7.353130e+001 
4287500000  -3.995772e+001  7.118222e+001 
4290625000  -4.021852e+001  7.862814e+001 
4293750000  -3.837617e+001  7.877659e+001 
4296875000  -3.721751e+001  6.612592e+001 
4300000000  -3.842467e+001  5.656259e+001 
4303125000  -3.949403e+001  6.008834e+001 
4306250000  -3.819009e+001  6.200532e+001 
4309375000  -3.696287e+001  5.561314e+001 
4312500000  -3.726937e+001  4.612086e+001 
4315625000  -3.741169e+001  3.702909e+001 
4318750000  -3.817193e+001  3.385865e+001 
4321875000  -3.798460e+001  3.409963e+001 
4325000000  -3.748883e+001  3.127244e+001 
4328125000  -3.696884e+001  2.142434e+001 
4331250000  -3.684528e+001  1.200068e+001 
4334375000  -3.763490e+001  6.315388e+000 
4337500000  -3.876494e+001  4.535203e+000 
4340625000  -3.898843e+001  8.568256e+000 
4343750000  -3.793335e+001  5.795952e+000 
4346875000  -3.774240e+001  -2.990168e+000 
4350000000  -3.781411e+001  -1.174805e+001 
4353125000  -3.828859e+001  -1.869040e+001 
4356250000  -4.027939e+001  -1.541185e+001 
4359375000  -3.944751e+001  -3.264180e+000 
4362500000  -3.644714e+001  -1.062857e+001 
4365625000  -3.536716e+001  -2.703542e+001 
4368750000  -3.659942e+001  -3.768347e+001 
4371875000  -3.749079e+001  -3.722915e+001 
4375000000  -3.697988e+001  -3.922762e+001 
4378125000  -3.640391e+001  -4.848178e+001 
4381250000  -3.689882e+001  -5.631133e+001 
4384375000  -3.645015e+001  -6.204842e+001 
4387500000  -3.754380e+001  -6.952417e+001 
4390625000  -3.792494e+001  -7.010667e+001 
4393750000  -3.743901e+001  -6.999331e+001 
4396875000  -3.680157e+001  -7.404365e+001 
4400000000  -3.633909e+001  -8.463826e+001 
4403125000  -3.718128e+001  -9.290060e+001 
4406250000  -3.768502e+001  -9.626950e+001 
4409375000  -3.779133e+001  -1.015248e+002 
4412500000  -3.902150e+001  -1.031499e+002 
4415625000  -3.886742e+001  -1.011585e+002 
