!Agilent Technologies,E8363B,MY43030201,A.06.04.32
!Agilent E8363B: A.06.04.32
!Date: Tuesday, November 11, 2014 21:28:51
!Correction: S21(Response(S21)) 
!S1P File: Measurement: S21:
# Hz S  dB   R 50
3000000000  -4.051680e+001  8.823895e+001 
3003125000  -4.219695e+001  7.970300e+001 
3006250000  -4.229391e+001  7.951299e+001 
3009375000  -4.251636e+001  8.462086e+001 
3012500000  -4.166153e+001  7.970588e+001 
3015625000  -4.123933e+001  7.312412e+001 
3018750000  -4.178847e+001  7.411240e+001 
3021875000  -4.029191e+001  7.439828e+001 
3025000000  -3.879229e+001  7.075131e+001 
3028125000  -3.797418e+001  6.061558e+001 
3031250000  -3.687225e+001  4.876498e+001 
3034375000  -3.675255e+001  3.535756e+001 
3037500000  -3.742254e+001  2.357427e+001 
3040625000  -3.866566e+001  1.876563e+001 
3043750000  -3.906538e+001  1.242070e+001 
3046875000  -3.960969e+001  6.304639e+000 
3050000000  -4.070043e+001  1.236381e+000 
3053125000  -4.056283e+001  7.248559e+000 
3056250000  -4.045529e+001  9.683208e+000 
3059375000  -3.971537e+001  8.813634e+000 
3062500000  -3.825209e+001  6.338490e-001 
3065625000  -3.788281e+001  -7.570914e+000 
3068750000  -3.766306e+001  -1.448378e+001 
3071875000  -3.765681e+001  -1.847561e+001 
3075000000  -3.705797e+001  -2.454536e+001 
3078125000  -3.706956e+001  -3.039964e+001 
3081250000  -3.727873e+001  -3.621831e+001 
3084375000  -3.644073e+001  -4.070016e+001 
3087500000  -3.635684e+001  -4.699306e+001 
3090625000  -3.598017e+001  -5.928796e+001 
3093750000  -3.677570e+001  -6.772356e+001 
3096875000  -3.745885e+001  -7.330025e+001 
3100000000  -3.724052e+001  -7.663961e+001 
3103125000  -3.754258e+001  -7.949623e+001 
3106250000  -3.714109e+001  -8.497910e+001 
3109375000  -3.733830e+001  -8.841875e+001 
3112500000  -3.735392e+001  -9.391093e+001 
3115625000  -3.711127e+001  -9.868062e+001 
3118750000  -3.721538e+001  -1.008890e+002 
3121875000  -3.658805e+001  -1.133250e+002 
3125000000  -3.840095e+001  -1.154147e+002 
3128125000  -3.854129e+001  -1.091270e+002 
3131250000  -3.607400e+001  -1.146609e+002 
3134375000  -3.534330e+001  -1.317086e+002 
3137500000  -3.605527e+001  -1.458038e+002 
3140625000  -3.723473e+001  -1.474729e+002 
3143750000  -3.815129e+001  -1.488311e+002 
3146875000  -3.759787e+001  -1.481852e+002 
3150000000  -3.699305e+001  -1.514205e+002 
3153125000  -3.710641e+001  -1.598975e+002 
3156250000  -3.794194e+001  -1.551386e+002 
3159375000  -3.590301e+001  -1.563178e+002 
3162500000  -3.425410e+001  -1.728416e+002 
3165625000  -3.551770e+001  1.745192e+002 
3168750000  -3.558033e+001  1.736745e+002 
3171875000  -3.499229e+001  1.663721e+002 
3175000000  -3.546729e+001  1.570498e+002 
3178125000  -3.510061e+001  1.558512e+002 
3181250000  -3.439465e+001  1.472673e+002 
3184375000  -3.407808e+001  1.357876e+002 
3187500000  -3.542631e+001  1.211666e+002 
3190625000  -3.721618e+001  1.146766e+002 
3193750000  -3.761378e+001  1.205389e+002 
3196875000  -3.748661e+001  1.217451e+002 
3200000000  -3.631369e+001  1.158725e+002 
3203125000  -3.596726e+001  1.080462e+002 
3206250000  -3.615073e+001  1.011913e+002 
3209375000  -3.578723e+001  9.305650e+001 
3212500000  -3.627575e+001  8.512991e+001 
3215625000  -3.604877e+001  8.180682e+001 
3218750000  -3.716789e+001  7.258807e+001 
3221875000  -3.736522e+001  6.498183e+001 
3225000000  -3.713947e+001  6.136975e+001 
3228125000  -3.782810e+001  5.375240e+001 
3231250000  -3.826823e+001  5.160929e+001 
3234375000  -3.797651e+001  4.855503e+001 
3237500000  -3.809041e+001  4.600012e+001 
3240625000  -3.762745e+001  3.931056e+001 
3243750000  -3.762121e+001  2.995412e+001 
3246875000  -3.814626e+001  2.202789e+001 
3250000000  -3.876852e+001  1.779888e+001 
3253125000  -3.908008e+001  1.558894e+001 
3256250000  -3.869699e+001  5.464641e+000 
3259375000  -3.926955e+001  -4.541037e+000 
3262500000  -4.060270e+001  -7.587891e+000 
3265625000  -4.124012e+001  -4.323432e+000 
3268750000  -4.111612e+001  -3.727674e+000 
3271875000  -4.059831e+001  -7.705158e+000 
3275000000  -4.010667e+001  -1.636011e+001 
3278125000  -4.073636e+001  -2.097942e+001 
3281250000  -4.101273e+001  -2.200724e+001 
3284375000  -4.067127e+001  -2.815317e+001 
3287500000  -4.096665e+001  -3.271679e+001 
3290625000  -4.139446e+001  -4.054475e+001 
3293750000  -4.129244e+001  -4.612666e+001 
3296875000  -4.235229e+001  -4.727427e+001 
3300000000  -4.191232e+001  -4.615122e+001 
3303125000  -4.105051e+001  -5.329521e+001 
3306250000  -4.106068e+001  -6.004240e+001 
3309375000  -4.053625e+001  -6.742197e+001 
3312500000  -4.096452e+001  -8.007368e+001 
3315625000  -4.236060e+001  -8.646246e+001 
3318750000  -4.370285e+001  -9.025833e+001 
3321875000  -4.464095e+001  -9.013277e+001 
3325000000  -4.482046e+001  -8.354357e+001 
3328125000  -4.418102e+001  -8.247441e+001 
3331250000  -4.255366e+001  -7.831185e+001 
3334375000  -4.000672e+001  -9.245323e+001 
3337500000  -4.037571e+001  -1.137191e+002 
3340625000  -4.216174e+001  -1.239927e+002 
3343750000  -4.408780e+001  -1.234773e+002 
3346875000  -4.358313e+001  -1.233882e+002 
3350000000  -4.300635e+001  -1.267593e+002 
3353125000  -4.299918e+001  -1.347807e+002 
3356250000  -4.247667e+001  -1.422779e+002 
3359375000  -4.370341e+001  -1.550886e+002 
3362500000  -4.426243e+001  -1.579131e+002 
3365625000  -4.471762e+001  -1.649071e+002 
3368750000  -4.564984e+001  -1.650905e+002 
3371875000  -4.581668e+001  -1.708920e+002 
3375000000  -4.689290e+001  -1.736269e+002 
3378125000  -4.835329e+001  -1.756744e+002 
3381250000  -4.984675e+001  -1.647437e+002 
3384375000  -4.696104e+001  -1.481438e+002 
3387500000  -4.401003e+001  -1.705501e+002 
3390625000  -4.604900e+001  1.661170e+002 
3393750000  -4.682483e+001  1.706323e+002 
3396875000  -4.590019e+001  1.690425e+002 
3400000000  -4.621602e+001  1.571200e+002 
3403125000  -4.695080e+001  1.525280e+002 
3406250000  -4.777630e+001  1.478045e+002 
3409375000  -4.788816e+001  1.384725e+002 
3412500000  -4.880512e+001  1.322265e+002 
3415625000  -5.025413e+001  1.308769e+002 
3418750000  -5.038729e+001  1.332366e+002 
3421875000  -5.099174e+001  1.357671e+002 
3425000000  -5.042731e+001  1.350130e+002 
3428125000  -5.008983e+001  1.274017e+002 
3431250000  -5.023200e+001  1.222829e+002 
3434375000  -5.092245e+001  1.163822e+002 
3437500000  -5.202134e+001  1.170025e+002 
3440625000  -5.212412e+001  1.216427e+002 
3443750000  -5.080120e+001  1.237030e+002 
3446875000  -5.133173e+001  1.183808e+002 
3450000000  -5.101068e+001  1.138218e+002 
3453125000  -5.080066e+001  1.010254e+002 
3456250000  -5.199059e+001  9.738838e+001 
3459375000  -5.391900e+001  1.068040e+002 
3462500000  -5.305309e+001  1.077001e+002 
3465625000  -5.235289e+001  9.780378e+001 
3468750000  -5.208971e+001  9.815611e+001 
3471875000  -5.234845e+001  9.799192e+001 
3475000000  -5.125359e+001  9.028069e+001 
3478125000  -5.111658e+001  7.638195e+001 
3481250000  -5.193711e+001  8.066342e+001 
3484375000  -5.430691e+001  8.400215e+001 
3487500000  -5.187411e+001  7.882262e+001 
3490625000  -5.045609e+001  7.226807e+001 
3493750000  -5.117948e+001  6.019786e+001 
3496875000  -5.113766e+001  6.677264e+001 
3500000000  -5.219069e+001  7.021545e+001 
3503125000  -5.179733e+001  6.028857e+001 
3506250000  -5.075916e+001  5.357120e+001 
3509375000  -5.025397e+001  4.393317e+001 
3512500000  -5.038512e+001  3.017578e+001 
3515625000  -5.150515e+001  2.755750e+001 
3518750000  -5.205367e+001  2.823299e+001 
3521875000  -5.246434e+001  2.053315e+001 
3525000000  -5.315525e+001  1.728453e+001 
3528125000  -5.240134e+001  1.949382e+001 
3531250000  -5.290195e+001  1.180394e+001 
3534375000  -5.298699e+001  4.703994e+000 
3537500000  -5.424097e+001  -6.771913e+000 
3540625000  -5.489668e+001  -3.910627e+000 
3543750000  -5.586382e+001  -1.809731e+000 
3546875000  -5.633559e+001  1.147878e+001 
3550000000  -5.520138e+001  5.149418e+000 
3553125000  -5.380516e+001  -1.888208e+001 
3556250000  -5.628225e+001  -1.763350e+001 
3559375000  -5.570613e+001  -1.223045e+001 
3562500000  -5.620335e+001  -2.481395e+001 
3565625000  -5.631021e+001  -3.243196e+001 
3568750000  -5.760044e+001  -2.319749e+001 
3571875000  -5.745238e+001  -1.315720e+001 
3575000000  -5.898877e+001  -1.596538e+001 
3578125000  -5.969415e+001  -3.235559e+001 
3581250000  -5.994716e+001  -1.501213e+001 
3584375000  -5.802430e+001  -1.467259e+001 
3587500000  -5.919069e+001  -2.484238e+001 
3590625000  -5.929706e+001  -3.115000e+001 
3593750000  -5.994650e+001  -1.711013e+001 
3596875000  -6.017590e+001  -1.462475e+001 
3600000000  -5.771729e+001  -1.904344e+001 
3603125000  -5.736964e+001  -2.734217e+001 
3606250000  -5.822042e+001  -3.244004e+001 
3609375000  -5.904225e+001  -2.032837e+001 
3612500000  -5.845210e+001  -3.405552e+001 
3615625000  -5.919056e+001  -2.855553e+001 
3618750000  -5.818079e+001  -2.819400e+001 
3621875000  -5.635863e+001  -4.308420e+001 
3625000000  -5.796253e+001  -2.519696e+001 
3628125000  -5.611504e+001  -8.478738e+000 
3631250000  -5.526120e+001  -3.808235e+001 
3634375000  -5.549503e+001  -2.829778e+001 
3637500000  -5.540830e+001  -2.592079e+001 
3640625000  -5.378445e+001  -1.823051e+001 
3643750000  -5.303368e+001  -2.815325e+001 
3646875000  -5.291865e+001  -4.040220e+001 
3650000000  -5.236584e+001  -4.311870e+001 
3653125000  -5.121963e+001  -4.569607e+001 
3656250000  -5.176745e+001  -4.453279e+001 
3659375000  -5.182166e+001  -4.367102e+001 
3662500000  -5.029865e+001  -5.018419e+001 
3665625000  -4.994072e+001  -5.538292e+001 
3668750000  -4.804589e+001  -5.435708e+001 
3671875000  -4.744820e+001  -6.636193e+001 
3675000000  -4.695353e+001  -7.255024e+001 
3678125000  -4.740213e+001  -7.948688e+001 
3681250000  -4.667023e+001  -8.204070e+001 
3684375000  -4.664493e+001  -9.020901e+001 
3687500000  -4.640143e+001  -9.408995e+001 
3690625000  -4.656839e+001  -9.934747e+001 
3693750000  -4.711060e+001  -1.019304e+002 
3696875000  -4.656765e+001  -1.001300e+002 
3700000000  -4.488652e+001  -1.086599e+002 
3703125000  -4.528261e+001  -1.118539e+002 
3706250000  -4.597618e+001  -1.117899e+002 
3709375000  -4.499739e+001  -1.117479e+002 
3712500000  -4.394518e+001  -1.179567e+002 
3715625000  -4.222781e+001  -1.265158e+002 
3718750000  -4.196186e+001  -1.354213e+002 
3721875000  -4.129830e+001  -1.437254e+002 
3725000000  -4.149868e+001  -1.513272e+002 
3728125000  -4.132981e+001  -1.537471e+002 
3731250000  -4.048989e+001  -1.593211e+002 
3734375000  -4.008396e+001  -1.653376e+002 
3737500000  -4.096429e+001  -1.782023e+002 
3740625000  -4.089560e+001  1.766163e+002 
3743750000  -4.066783e+001  1.727538e+002 
3746875000  -4.075985e+001  1.645921e+002 
3750000000  -4.096348e+001  1.595781e+002 
3753125000  -4.059510e+001  1.564903e+002 
3756250000  -4.066523e+001  1.543423e+002 
3759375000  -4.036686e+001  1.484077e+002 
3762500000  -4.000552e+001  1.407570e+002 
3765625000  -4.058054e+001  1.363667e+002 
3768750000  -4.033876e+001  1.358741e+002 
3771875000  -3.840655e+001  1.292384e+002 
3775000000  -3.867820e+001  1.168786e+002 
3778125000  -3.904710e+001  1.110862e+002 
3781250000  -3.910718e+001  1.073589e+002 
3784375000  -3.877113e+001  1.021788e+002 
3787500000  -3.843318e+001  9.545745e+001 
3790625000  -3.907787e+001  8.590351e+001 
3793750000  -3.918602e+001  8.280315e+001 
3796875000  -3.830347e+001  7.861526e+001 
3800000000  -3.640382e+001  7.507092e+001 
3803125000  -3.819056e+001  6.134993e+001 
3806250000  -3.895582e+001  5.672437e+001 
3809375000  -3.860555e+001  5.207489e+001 
3812500000  -3.852171e+001  4.366409e+001 
3815625000  -3.939213e+001  3.315867e+001 
3818750000  -4.080572e+001  3.560962e+001 
3821875000  -4.005271e+001  4.335592e+001 
3825000000  -3.849497e+001  4.256445e+001 
3828125000  -3.731560e+001  2.341035e+001 
3831250000  -3.829094e+001  9.047364e+000 
3834375000  -3.994495e+001  6.305491e+000 
3837500000  -4.091906e+001  1.053998e+001 
3840625000  -3.923104e+001  8.681207e+000 
3843750000  -3.844613e+001  -6.512838e+000 
3846875000  -3.967604e+001  -1.283372e+001 
3850000000  -4.062177e+001  -4.772232e+000 
3853125000  -4.017108e+001  -5.951524e+000 
3856250000  -3.938626e+001  -1.505047e+001 
3859375000  -3.877216e+001  -2.178621e+001 
3862500000  -3.884967e+001  -3.027361e+001 
3865625000  -3.907206e+001  -3.648724e+001 
3868750000  -3.884942e+001  -3.635984e+001 
3871875000  -3.820140e+001  -4.381907e+001 
3875000000  -3.856309e+001  -5.532340e+001 
3878125000  -3.976939e+001  -5.669917e+001 
3881250000  -3.922699e+001  -5.630581e+001 
3884375000  -3.888180e+001  -6.464676e+001 
3887500000  -3.930123e+001  -7.059168e+001 
3890625000  -3.957577e+001  -7.505600e+001 
3893750000  -3.979460e+001  -7.664456e+001 
3896875000  -4.030730e+001  -7.958765e+001 
3900000000  -4.018372e+001  -8.429705e+001 
3903125000  -3.928671e+001  -8.795971e+001 
3906250000  -3.902878e+001  -9.142756e+001 
3909375000  -3.829140e+001  -1.019257e+002 
3912500000  -3.900765e+001  -1.098991e+002 
3915625000  -4.040520e+001  -1.094738e+002 
3918750000  -3.996526e+001  -1.109496e+002 
3921875000  -3.928089e+001  -1.149000e+002 
3925000000  -3.853229e+001  -1.201247e+002 
3928125000  -3.830415e+001  -1.301283e+002 
3931250000  -3.893406e+001  -1.365534e+002 
3934375000  -3.966397e+001  -1.376496e+002 
3937500000  -3.995858e+001  -1.399667e+002 
3940625000  -4.005246e+001  -1.423259e+002 
3943750000  -3.901210e+001  -1.449451e+002 
3946875000  -3.861609e+001  -1.545409e+002 
3950000000  -3.956168e+001  -1.627033e+002 
3953125000  -3.985323e+001  -1.620025e+002 
3956250000  -3.876767e+001  -1.621710e+002 
3959375000  -3.818942e+001  -1.706229e+002 
3962500000  -3.771471e+001  -1.778501e+002 
3965625000  -3.773714e+001  1.735221e+002 
3968750000  -3.849891e+001  1.666614e+002 
3971875000  -3.883909e+001  1.612172e+002 
3975000000  -3.835405e+001  1.566361e+002 
3978125000  -3.870225e+001  1.530016e+002 
3981250000  -3.880496e+001  1.463666e+002 
3984375000  -3.893773e+001  1.379732e+002 
3987500000  -3.968145e+001  1.346467e+002 
3990625000  -3.989990e+001  1.318448e+002 
3993750000  -3.998145e+001  1.277479e+002 
3996875000  -4.006102e+001  1.237719e+002 
4000000000  -4.039384e+001  1.181400e+002 
4003125000  -4.137399e+001  1.194549e+002 
4006250000  -3.965557e+001  1.187960e+002 
4009375000  -3.895579e+001  1.059615e+002 
4012500000  -4.014413e+001  9.679765e+001 
4015625000  -4.113988e+001  9.614545e+001 
4018750000  -4.135132e+001  9.536156e+001 
4021875000  -4.061010e+001  9.165661e+001 
4025000000  -4.075743e+001  8.641835e+001 
4028125000  -4.048560e+001  8.137852e+001 
4031250000  -4.154952e+001  7.690598e+001 
4034375000  -4.156764e+001  7.647244e+001 
4037500000  -4.118906e+001  7.571106e+001 
4040625000  -4.097035e+001  7.032526e+001 
4043750000  -4.144432e+001  6.920580e+001 
4046875000  -4.101634e+001  6.573704e+001 
4050000000  -4.037564e+001  5.926625e+001 
4053125000  -4.149694e+001  5.576114e+001 
4056250000  -4.155042e+001  6.262370e+001 
4059375000  -3.958880e+001  5.888359e+001 
4062500000  -3.899866e+001  5.089592e+001 
4065625000  -3.893472e+001  4.521005e+001 
4068750000  -3.848873e+001  3.893026e+001 
4071875000  -3.799627e+001  2.978489e+001 
4075000000  -3.862184e+001  2.224315e+001 
4078125000  -3.882146e+001  1.695244e+001 
4081250000  -3.838007e+001  1.444232e+001 
4084375000  -3.817726e+001  4.106179e+000 
4087500000  -3.874564e+001  -3.613953e+000 
4090625000  -3.897581e+001  -4.488314e+000 
4093750000  -3.868450e+001  -6.372273e+000 
4096875000  -3.878689e+001  -1.564842e+001 
4100000000  -3.991152e+001  -2.414744e+001 
4103125000  -4.065518e+001  -2.295844e+001 
4106250000  -4.018727e+001  -2.002526e+001 
4109375000  -3.924072e+001  -2.414317e+001 
4112500000  -3.868423e+001  -3.165594e+001 
4115625000  -3.926413e+001  -3.827842e+001 
4118750000  -3.913279e+001  -4.260364e+001 
4121875000  -3.903862e+001  -5.068433e+001 
4125000000  -3.990054e+001  -5.677989e+001 
4128125000  -4.080830e+001  -5.614746e+001 
4131250000  -3.975208e+001  -4.988431e+001 
4134375000  -3.747412e+001  -5.876471e+001 
4137500000  -3.807340e+001  -7.819172e+001 
4140625000  -4.019186e+001  -8.565807e+001 
4143750000  -4.168843e+001  -8.295787e+001 
4146875000  -4.052065e+001  -7.692442e+001 
4150000000  -3.935954e+001  -8.385767e+001 
4153125000  -3.989292e+001  -9.174802e+001 
4156250000  -4.124885e+001  -9.590753e+001 
4159375000  -4.147568e+001  -8.885021e+001 
4162500000  -3.983778e+001  -8.874899e+001 
4165625000  -3.889736e+001  -9.568409e+001 
4168750000  -3.855661e+001  -1.068517e+002 
4171875000  -3.859210e+001  -1.167380e+002 
4175000000  -3.936150e+001  -1.236453e+002 
4178125000  -3.964241e+001  -1.222364e+002 
4181250000  -3.951556e+001  -1.261588e+002 
4184375000  -3.942574e+001  -1.304932e+002 
4187500000  -3.936169e+001  -1.374472e+002 
4190625000  -3.945027e+001  -1.442447e+002 
4193750000  -4.039519e+001  -1.478245e+002 
4196875000  -4.119748e+001  -1.496770e+002 
4200000000  -4.236499e+001  -1.465890e+002 
4203125000  -4.112701e+001  -1.330327e+002 
4206250000  -3.743609e+001  -1.402269e+002 
4209375000  -3.728328e+001  -1.641613e+002 
4212500000  -3.953104e+001  -1.731054e+002 
4215625000  -4.019592e+001  -1.646996e+002 
4218750000  -3.844285e+001  -1.630994e+002 
4221875000  -3.655692e+001  -1.716548e+002 
4225000000  -3.781562e+001  1.761691e+002 
4228125000  -3.808077e+001  1.752145e+002 
4231250000  -3.613369e+001  1.714526e+002 
4234375000  -3.657307e+001  1.589905e+002 
4237500000  -3.627147e+001  1.532675e+002 
4240625000  -3.646616e+001  1.419665e+002 
4243750000  -3.751053e+001  1.330664e+002 
4246875000  -3.826252e+001  1.339618e+002 
4250000000  -3.834824e+001  1.336064e+002 
4253125000  -3.825778e+001  1.281000e+002 
4256250000  -3.807847e+001  1.247620e+002 
4259375000  -3.761979e+001  1.175706e+002 
4262500000  -3.783263e+001  1.141840e+002 
4265625000  -3.788796e+001  1.117666e+002 
4268750000  -3.685809e+001  1.055292e+002 
4271875000  -3.689616e+001  9.641998e+001 
4275000000  -3.655719e+001  8.878743e+001 
4278125000  -3.749731e+001  7.463953e+001 
4281250000  -3.906214e+001  7.340605e+001 
4284375000  -3.860772e+001  7.163430e+001 
4287500000  -4.025942e+001  6.830109e+001 
4290625000  -4.077781e+001  7.457101e+001 
4293750000  -3.865966e+001  7.755614e+001 
4296875000  -3.786882e+001  6.331519e+001 
4300000000  -3.873215e+001  5.450756e+001 
4303125000  -3.955043e+001  5.845238e+001 
4306250000  -3.868304e+001  5.957846e+001 
4309375000  -3.768482e+001  5.465260e+001 
4312500000  -3.792596e+001  4.177817e+001 
4315625000  -3.790398e+001  3.540266e+001 
4318750000  -3.840401e+001  3.056955e+001 
4321875000  -3.849825e+001  3.267429e+001 
4325000000  -3.816938e+001  3.089931e+001 
4328125000  -3.705684e+001  2.105814e+001 
4331250000  -3.734594e+001  9.642505e+000 
4334375000  -3.808607e+001  3.492524e+000 
4337500000  -3.931834e+001  3.951526e+000 
4340625000  -3.972345e+001  8.188923e+000 
4343750000  -3.862479e+001  4.893065e+000 
4346875000  -3.832174e+001  -5.080042e+000 
4350000000  -3.820090e+001  -1.018728e+001 
4353125000  -3.892870e+001  -2.054649e+001 
4356250000  -4.091566e+001  -1.802816e+001 
4359375000  -4.047889e+001  -2.312226e+000 
4362500000  -3.694122e+001  -1.062347e+001 
4365625000  -3.604061e+001  -2.725443e+001 
4368750000  -3.702965e+001  -3.920530e+001 
4371875000  -3.805749e+001  -3.856813e+001 
4375000000  -3.739352e+001  -4.220892e+001 
4378125000  -3.684790e+001  -4.795329e+001 
4381250000  -3.698347e+001  -5.616246e+001 
4384375000  -3.692341e+001  -6.416404e+001 
4387500000  -3.791841e+001  -6.943798e+001 
4390625000  -3.855727e+001  -7.000918e+001 
4393750000  -3.777435e+001  -7.030479e+001 
4396875000  -3.730884e+001  -7.594894e+001 
4400000000  -3.687569e+001  -8.485983e+001 
4403125000  -3.777197e+001  -9.345054e+001 
4406250000  -3.835821e+001  -9.857972e+001 
4409375000  -3.843402e+001  -1.033936e+002 
4412500000  -3.988110e+001  -1.030770e+002 
4415625000  -3.951905e+001  -1.008453e+002 
