!Agilent Technologies,E8363B,MY43030201,A.06.04.32
!Agilent E8363B: A.06.04.32
!Date: Tuesday, November 11, 2014 21:30:26
!Correction: S21(Response(S21)) 
!S1P File: Measurement: S21:
# Hz S  dB   R 50
3000000000  -4.050969e+001  8.412998e+001 
3003125000  -4.229115e+001  7.706833e+001 
3006250000  -4.232013e+001  7.402222e+001 
3009375000  -4.275521e+001  7.943340e+001 
3012500000  -4.165309e+001  7.456133e+001 
3015625000  -4.137288e+001  6.767104e+001 
3018750000  -4.191363e+001  6.830128e+001 
3021875000  -4.025228e+001  6.923988e+001 
3025000000  -3.878286e+001  6.622607e+001 
3028125000  -3.795600e+001  5.674289e+001 
3031250000  -3.696294e+001  4.389279e+001 
3034375000  -3.678099e+001  3.005906e+001 
3037500000  -3.754405e+001  1.987116e+001 
3040625000  -3.874151e+001  1.467020e+001 
3043750000  -3.918143e+001  7.825790e+000 
3046875000  -3.976711e+001  1.432207e+000 
3050000000  -4.097552e+001  -2.191428e+000 
3053125000  -4.066750e+001  2.401366e+000 
3056250000  -4.040324e+001  4.763345e+000 
3059375000  -3.969368e+001  3.295001e+000 
3062500000  -3.830193e+001  -1.749698e+000 
3065625000  -3.790451e+001  -1.153611e+001 
3068750000  -3.743135e+001  -1.952820e+001 
3071875000  -3.776806e+001  -2.214486e+001 
3075000000  -3.704171e+001  -2.809621e+001 
3078125000  -3.704366e+001  -3.432615e+001 
3081250000  -3.731731e+001  -4.046300e+001 
3084375000  -3.646722e+001  -4.574057e+001 
3087500000  -3.635179e+001  -5.230993e+001 
3090625000  -3.597685e+001  -6.416943e+001 
3093750000  -3.691072e+001  -7.219200e+001 
3096875000  -3.734127e+001  -7.751377e+001 
3100000000  -3.724450e+001  -8.021747e+001 
3103125000  -3.750836e+001  -8.388849e+001 
3106250000  -3.703485e+001  -8.959780e+001 
3109375000  -3.733192e+001  -9.289295e+001 
3112500000  -3.727525e+001  -9.896293e+001 
3115625000  -3.702352e+001  -1.029613e+002 
3118750000  -3.730843e+001  -1.060503e+002 
3121875000  -3.653222e+001  -1.168482e+002 
3125000000  -3.843841e+001  -1.199897e+002 
3128125000  -3.856050e+001  -1.128222e+002 
3131250000  -3.615017e+001  -1.192223e+002 
3134375000  -3.528292e+001  -1.361564e+002 
3137500000  -3.613884e+001  -1.502023e+002 
3140625000  -3.726456e+001  -1.515359e+002 
3143750000  -3.810389e+001  -1.541134e+002 
3146875000  -3.768333e+001  -1.506820e+002 
3150000000  -3.683688e+001  -1.551458e+002 
3153125000  -3.712331e+001  -1.642516e+002 
3156250000  -3.800149e+001  -1.594857e+002 
3159375000  -3.573352e+001  -1.619058e+002 
3162500000  -3.427351e+001  -1.771661e+002 
3165625000  -3.546728e+001  1.701414e+002 
3168750000  -3.547609e+001  1.699563e+002 
3171875000  -3.482499e+001  1.615714e+002 
3175000000  -3.548622e+001  1.528888e+002 
3178125000  -3.511459e+001  1.510568e+002 
3181250000  -3.434653e+001  1.428648e+002 
3184375000  -3.405275e+001  1.316065e+002 
3187500000  -3.531681e+001  1.164561e+002 
3190625000  -3.738221e+001  1.104829e+002 
3193750000  -3.760065e+001  1.162157e+002 
3196875000  -3.743119e+001  1.164577e+002 
3200000000  -3.627110e+001  1.115342e+002 
3203125000  -3.593712e+001  1.037203e+002 
3206250000  -3.626919e+001  9.544801e+001 
3209375000  -3.576027e+001  8.778577e+001 
3212500000  -3.625713e+001  8.136173e+001 
3215625000  -3.601752e+001  7.805042e+001 
3218750000  -3.685698e+001  6.732272e+001 
3221875000  -3.736533e+001  6.040214e+001 
3225000000  -3.692894e+001  5.731071e+001 
3228125000  -3.776549e+001  5.010044e+001 
3231250000  -3.831258e+001  4.696479e+001 
3234375000  -3.780584e+001  4.370483e+001 
3237500000  -3.804388e+001  4.028782e+001 
3240625000  -3.754395e+001  3.617604e+001 
3243750000  -3.757577e+001  2.566363e+001 
3246875000  -3.806858e+001  1.756508e+001 
3250000000  -3.884118e+001  1.458995e+001 
3253125000  -3.905307e+001  1.088283e+001 
3256250000  -3.866740e+001  3.290291e+000 
3259375000  -3.911970e+001  -7.919424e+000 
3262500000  -4.074987e+001  -1.268192e+001 
3265625000  -4.126548e+001  -9.546821e+000 
3268750000  -4.101297e+001  -7.095838e+000 
3271875000  -4.059191e+001  -1.154776e+001 
3275000000  -3.995095e+001  -1.939478e+001 
3278125000  -4.071995e+001  -2.509240e+001 
3281250000  -4.107169e+001  -2.623483e+001 
3284375000  -4.066906e+001  -3.255677e+001 
3287500000  -4.100449e+001  -3.621149e+001 
3290625000  -4.123996e+001  -4.269255e+001 
3293750000  -4.101439e+001  -4.878890e+001 
3296875000  -4.235114e+001  -5.042405e+001 
3300000000  -4.178108e+001  -5.004850e+001 
3303125000  -4.071790e+001  -5.737693e+001 
3306250000  -4.097167e+001  -6.295311e+001 
3309375000  -4.056576e+001  -7.258105e+001 
3312500000  -4.075088e+001  -8.397626e+001 
3315625000  -4.211163e+001  -9.126397e+001 
3318750000  -4.369826e+001  -9.535757e+001 
3321875000  -4.492815e+001  -9.265592e+001 
3325000000  -4.458449e+001  -8.636717e+001 
3328125000  -4.371880e+001  -8.574497e+001 
3331250000  -4.235229e+001  -8.329581e+001 
3334375000  -3.972567e+001  -9.708778e+001 
3337500000  -4.035904e+001  -1.168199e+002 
3340625000  -4.237061e+001  -1.279413e+002 
3343750000  -4.404189e+001  -1.265210e+002 
3346875000  -4.321471e+001  -1.264090e+002 
3350000000  -4.298601e+001  -1.300373e+002 
3353125000  -4.266402e+001  -1.385647e+002 
3356250000  -4.263934e+001  -1.462488e+002 
3359375000  -4.327464e+001  -1.563950e+002 
3362500000  -4.415734e+001  -1.610370e+002 
3365625000  -4.444109e+001  -1.653333e+002 
3368750000  -4.527315e+001  -1.681384e+002 
3371875000  -4.565041e+001  -1.734813e+002 
3375000000  -4.745659e+001  -1.797267e+002 
3378125000  -4.778893e+001  -1.794528e+002 
3381250000  -4.961612e+001  -1.649491e+002 
3384375000  -4.636380e+001  -1.520676e+002 
3387500000  -4.386506e+001  -1.763111e+002 
3390625000  -4.612546e+001  1.645159e+002 
3393750000  -4.737982e+001  1.666006e+002 
3396875000  -4.561670e+001  1.653273e+002 
3400000000  -4.557192e+001  1.509023e+002 
3403125000  -4.646654e+001  1.452048e+002 
3406250000  -4.779097e+001  1.449467e+002 
3409375000  -4.786090e+001  1.377783e+002 
3412500000  -4.854323e+001  1.313023e+002 
3415625000  -4.977311e+001  1.282323e+002 
3418750000  -4.980400e+001  1.302805e+002 
3421875000  -5.022938e+001  1.324242e+002 
3425000000  -4.977520e+001  1.343333e+002 
3428125000  -5.004055e+001  1.285021e+002 
3431250000  -4.994103e+001  1.178137e+002 
3434375000  -5.010212e+001  1.151964e+002 
3437500000  -5.132770e+001  1.137367e+002 
3440625000  -5.194677e+001  1.181746e+002 
3443750000  -5.018843e+001  1.161143e+002 
3446875000  -5.044029e+001  1.155807e+002 
3450000000  -4.968404e+001  1.072330e+002 
3453125000  -5.042064e+001  9.354317e+001 
3456250000  -5.127926e+001  9.044117e+001 
3459375000  -5.277047e+001  1.022979e+002 
3462500000  -5.198174e+001  1.024772e+002 
3465625000  -5.143665e+001  9.208272e+001 
3468750000  -5.154244e+001  9.061417e+001 
3471875000  -5.126918e+001  8.739472e+001 
3475000000  -5.098073e+001  8.516381e+001 
3478125000  -5.069046e+001  7.291650e+001 
3481250000  -5.280394e+001  7.500207e+001 
3484375000  -5.263559e+001  7.546143e+001 
3487500000  -5.180595e+001  7.261604e+001 
3490625000  -5.026053e+001  6.604283e+001 
3493750000  -5.076670e+001  5.755966e+001 
3496875000  -5.030675e+001  6.302292e+001 
3500000000  -5.222200e+001  5.846301e+001 
3503125000  -5.064338e+001  5.624257e+001 
3506250000  -4.952893e+001  5.313666e+001 
3509375000  -4.915809e+001  3.718565e+001 
3512500000  -4.937075e+001  2.250403e+001 
3515625000  -5.108925e+001  1.696477e+001 
3518750000  -5.133289e+001  2.274695e+001 
3521875000  -5.124009e+001  2.191951e+001 
3525000000  -5.342259e+001  1.114505e+001 
3528125000  -5.184081e+001  1.312779e+001 
3531250000  -5.103106e+001  1.240890e+001 
3534375000  -5.231800e+001  -4.446582e+000 
3537500000  -5.405308e+001  -1.236939e+001 
3540625000  -5.397555e+001  -1.423030e+001 
3543750000  -5.460354e+001  -6.868769e+000 
3546875000  -5.423534e+001  2.799014e+000 
3550000000  -5.338419e+001  -6.291643e+000 
3553125000  -5.280243e+001  -2.234656e+001 
3556250000  -5.560302e+001  -1.793323e+001 
3559375000  -5.501513e+001  -2.948256e+001 
3562500000  -5.543855e+001  -2.973124e+001 
3565625000  -5.622400e+001  -3.874239e+001 
3568750000  -5.691515e+001  -3.188273e+001 
3571875000  -5.732719e+001  -3.011173e+001 
3575000000  -5.732758e+001  -3.619997e+001 
3578125000  -5.810906e+001  -3.855069e+001 
3581250000  -5.750991e+001  -3.621104e+001 
3584375000  -5.623497e+001  -2.754977e+001 
3587500000  -5.622986e+001  -3.140757e+001 
3590625000  -5.698578e+001  -4.987648e+001 
3593750000  -5.946651e+001  -4.346964e+001 
3596875000  -5.931778e+001  -2.228266e+001 
3600000000  -5.645471e+001  -2.697133e+001 
3603125000  -5.835576e+001  -4.460490e+001 
3606250000  -5.938433e+001  -5.440883e+001 
3609375000  -5.862743e+001  -4.545261e+001 
3612500000  -5.939887e+001  -4.017902e+001 
3615625000  -5.911960e+001  -4.661787e+001 
3618750000  -5.967509e+001  -3.939322e+001 
3621875000  -5.693187e+001  -4.662160e+001 
3625000000  -5.969999e+001  -3.125731e+001 
3628125000  -5.614511e+001  -2.615327e+001 
3631250000  -5.683245e+001  -3.994666e+001 
3634375000  -5.689477e+001  -4.154604e+001 
3637500000  -5.627494e+001  -2.525858e+001 
3640625000  -5.519773e+001  -2.375407e+001 
3643750000  -5.386011e+001  -2.845562e+001 
3646875000  -5.340588e+001  -4.695721e+001 
3650000000  -5.331432e+001  -4.599401e+001 
3653125000  -5.273061e+001  -5.150969e+001 
3656250000  -5.153638e+001  -4.877852e+001 
3659375000  -5.148013e+001  -4.839472e+001 
3662500000  -5.022388e+001  -6.184866e+001 
3665625000  -5.001804e+001  -6.049393e+001 
3668750000  -4.839745e+001  -5.987970e+001 
3671875000  -4.746895e+001  -7.320454e+001 
3675000000  -4.746898e+001  -8.056660e+001 
3678125000  -4.747023e+001  -8.086997e+001 
3681250000  -4.683011e+001  -9.119669e+001 
3684375000  -4.666428e+001  -9.444897e+001 
3687500000  -4.662419e+001  -9.885874e+001 
3690625000  -4.690223e+001  -1.058908e+002 
3693750000  -4.718044e+001  -1.057194e+002 
3696875000  -4.627749e+001  -1.070135e+002 
3700000000  -4.581223e+001  -1.126637e+002 
3703125000  -4.551118e+001  -1.206885e+002 
3706250000  -4.647569e+001  -1.208037e+002 
3709375000  -4.491981e+001  -1.191577e+002 
3712500000  -4.358296e+001  -1.244200e+002 
3715625000  -4.209502e+001  -1.327808e+002 
3718750000  -4.196083e+001  -1.413530e+002 
3721875000  -4.132676e+001  -1.498239e+002 
3725000000  -4.179498e+001  -1.549432e+002 
3728125000  -4.149254e+001  -1.603876e+002 
3731250000  -4.065176e+001  -1.679529e+002 
3734375000  -4.034861e+001  -1.731341e+002 
3737500000  -4.068969e+001  1.777861e+002 
3740625000  -4.103292e+001  1.715905e+002 
3743750000  -4.049218e+001  1.654394e+002 
3746875000  -4.063527e+001  1.589473e+002 
3750000000  -4.107986e+001  1.549611e+002 
3753125000  -4.059919e+001  1.499790e+002 
3756250000  -4.074570e+001  1.482234e+002 
3759375000  -4.042636e+001  1.418437e+002 
3762500000  -4.026432e+001  1.356285e+002 
3765625000  -4.068919e+001  1.294569e+002 
3768750000  -4.008076e+001  1.307794e+002 
3771875000  -3.852654e+001  1.255304e+002 
3775000000  -3.846051e+001  1.121414e+002 
3778125000  -3.914631e+001  1.060011e+002 
3781250000  -3.892207e+001  1.022703e+002 
3784375000  -3.881905e+001  9.622272e+001 
3787500000  -3.852831e+001  9.149664e+001 
3790625000  -3.913143e+001  8.077618e+001 
3793750000  -3.941401e+001  7.729459e+001 
3796875000  -3.832176e+001  7.371290e+001 
3800000000  -3.647647e+001  6.924431e+001 
3803125000  -3.792102e+001  5.529167e+001 
3806250000  -3.895530e+001  5.132589e+001 
3809375000  -3.853952e+001  4.720217e+001 
3812500000  -3.842997e+001  3.698250e+001 
3815625000  -3.956536e+001  2.859360e+001 
3818750000  -4.070372e+001  2.988713e+001 
3821875000  -4.010494e+001  3.934053e+001 
3825000000  -3.808008e+001  3.405414e+001 
3828125000  -3.702124e+001  1.706622e+001 
3831250000  -3.808192e+001  1.963010e+000 
3834375000  -4.035096e+001  2.808991e+000 
3837500000  -4.059239e+001  6.056208e+000 
3840625000  -3.907236e+001  3.129309e+000 
3843750000  -3.822733e+001  -1.252473e+001 
3846875000  -4.016095e+001  -1.952576e+001 
3850000000  -4.085196e+001  -1.317246e+001 
3853125000  -4.012385e+001  -1.240479e+001 
3856250000  -3.944841e+001  -1.858714e+001 
3859375000  -3.860931e+001  -2.688634e+001 
3862500000  -3.842023e+001  -3.821096e+001 
3865625000  -3.881795e+001  -4.054918e+001 
3868750000  -3.893252e+001  -4.281049e+001 
3871875000  -3.784267e+001  -4.973487e+001 
3875000000  -3.848053e+001  -6.022200e+001 
3878125000  -3.936611e+001  -6.169612e+001 
3881250000  -3.915010e+001  -6.375491e+001 
3884375000  -3.859202e+001  -6.960639e+001 
3887500000  -3.914746e+001  -7.558249e+001 
3890625000  -3.953410e+001  -8.090440e+001 
3893750000  -3.969246e+001  -8.176508e+001 
3896875000  -4.006781e+001  -8.458112e+001 
3900000000  -3.988490e+001  -8.856265e+001 
3903125000  -3.939671e+001  -9.319329e+001 
3906250000  -3.881239e+001  -9.639903e+001 
3909375000  -3.821713e+001  -1.059603e+002 
3912500000  -3.886312e+001  -1.164534e+002 
3915625000  -4.030584e+001  -1.152536e+002 
3918750000  -4.004866e+001  -1.149819e+002 
3921875000  -3.937444e+001  -1.197105e+002 
3925000000  -3.858818e+001  -1.258252e+002 
3928125000  -3.840386e+001  -1.360091e+002 
3931250000  -3.905696e+001  -1.434336e+002 
3934375000  -3.940128e+001  -1.428298e+002 
3937500000  -3.994692e+001  -1.464246e+002 
3940625000  -3.965577e+001  -1.474353e+002 
3943750000  -3.897857e+001  -1.507115e+002 
3946875000  -3.826778e+001  -1.592794e+002 
3950000000  -3.937217e+001  -1.688540e+002 
3953125000  -3.988627e+001  -1.666466e+002 
3956250000  -3.874322e+001  -1.676229e+002 
3959375000  -3.786417e+001  -1.731124e+002 
3962500000  -3.744341e+001  1.787093e+002 
3965625000  -3.759097e+001  1.679602e+002 
3968750000  -3.850402e+001  1.588791e+002 
3971875000  -3.864987e+001  1.544816e+002 
3975000000  -3.819797e+001  1.526439e+002 
3978125000  -3.848394e+001  1.486322e+002 
3981250000  -3.829906e+001  1.399380e+002 
3984375000  -3.868066e+001  1.329378e+002 
3987500000  -3.954937e+001  1.298604e+002 
3990625000  -3.981339e+001  1.274030e+002 
3993750000  -3.981625e+001  1.217906e+002 
3996875000  -3.965908e+001  1.180364e+002 
4000000000  -4.060371e+001  1.124484e+002 
4003125000  -4.078305e+001  1.133989e+002 
4006250000  -3.925323e+001  1.125740e+002 
4009375000  -3.838977e+001  9.821194e+001 
4012500000  -3.998970e+001  9.016108e+001 
4015625000  -4.129989e+001  8.910004e+001 
4018750000  -4.123356e+001  9.036532e+001 
4021875000  -4.036417e+001  8.710289e+001 
4025000000  -4.019277e+001  8.172169e+001 
4028125000  -4.048963e+001  7.523460e+001 
4031250000  -4.096877e+001  7.031892e+001 
4034375000  -4.110040e+001  7.021653e+001 
4037500000  -4.102295e+001  7.076505e+001 
4040625000  -4.072219e+001  6.610616e+001 
4043750000  -4.096525e+001  6.215235e+001 
4046875000  -4.035624e+001  5.850640e+001 
4050000000  -4.050061e+001  5.451701e+001 
4053125000  -4.132109e+001  5.139346e+001 
4056250000  -4.127559e+001  5.669561e+001 
4059375000  -3.928133e+001  5.117038e+001 
4062500000  -3.864238e+001  4.498654e+001 
4065625000  -3.851654e+001  4.050365e+001 
4068750000  -3.778277e+001  3.401102e+001 
4071875000  -3.734747e+001  2.297055e+001 
4075000000  -3.811646e+001  1.539581e+001 
4078125000  -3.840630e+001  1.264021e+001 
4081250000  -3.803623e+001  7.276114e+000 
4084375000  -3.745996e+001  -1.789408e+000 
4087500000  -3.842360e+001  -1.099688e+001 
4090625000  -3.901384e+001  -1.103402e+001 
4093750000  -3.848832e+001  -1.212725e+001 
4096875000  -3.846398e+001  -2.293545e+001 
4100000000  -3.905876e+001  -2.962417e+001 
4103125000  -4.003975e+001  -2.973871e+001 
4106250000  -3.967730e+001  -2.508234e+001 
4109375000  -3.874405e+001  -2.889052e+001 
4112500000  -3.832724e+001  -3.875816e+001 
4115625000  -3.903473e+001  -4.605780e+001 
4118750000  -3.878229e+001  -4.917077e+001 
4121875000  -3.855620e+001  -5.646275e+001 
4125000000  -3.940474e+001  -6.176417e+001 
4128125000  -4.048663e+001  -5.928757e+001 
4131250000  -3.924357e+001  -5.409784e+001 
4134375000  -3.731388e+001  -6.327445e+001 
4137500000  -3.752816e+001  -8.574135e+001 
4140625000  -3.984715e+001  -9.224895e+001 
4143750000  -4.120053e+001  -8.590594e+001 
4146875000  -4.005404e+001  -8.288219e+001 
4150000000  -3.909901e+001  -9.060769e+001 
4153125000  -3.954349e+001  -9.961774e+001 
4156250000  -4.068441e+001  -1.020726e+002 
4159375000  -4.084203e+001  -9.763500e+001 
4162500000  -3.963771e+001  -9.431968e+001 
4165625000  -3.836355e+001  -1.021346e+002 
4168750000  -3.807000e+001  -1.117377e+002 
4171875000  -3.785621e+001  -1.221439e+002 
4175000000  -3.893003e+001  -1.295451e+002 
4178125000  -3.919210e+001  -1.293079e+002 
4181250000  -3.873575e+001  -1.338326e+002 
4184375000  -3.910650e+001  -1.386725e+002 
4187500000  -3.881654e+001  -1.424451e+002 
4190625000  -3.900166e+001  -1.512421e+002 
4193750000  -4.001906e+001  -1.558456e+002 
4196875000  -4.090651e+001  -1.566196e+002 
4200000000  -4.185794e+001  -1.539037e+002 
4203125000  -4.046827e+001  -1.394768e+002 
4206250000  -3.715285e+001  -1.467990e+002 
4209375000  -3.676045e+001  -1.712096e+002 
4212500000  -3.900341e+001  -1.787355e+002 
4215625000  -3.960326e+001  -1.716950e+002 
4218750000  -3.768332e+001  -1.697948e+002 
4221875000  -3.612297e+001  1.799310e+002 
4225000000  -3.724866e+001  1.656206e+002 
4228125000  -3.737852e+001  1.690847e+002 
4231250000  -3.586052e+001  1.609533e+002 
4234375000  -3.590815e+001  1.497859e+002 
4237500000  -3.586356e+001  1.448976e+002 
4240625000  -3.584531e+001  1.340090e+002 
4243750000  -3.710781e+001  1.272475e+002 
4246875000  -3.787606e+001  1.250928e+002 
4250000000  -3.777477e+001  1.258908e+002 
4253125000  -3.755373e+001  1.214542e+002 
4256250000  -3.759719e+001  1.183546e+002 
4259375000  -3.701995e+001  1.114652e+002 
4262500000  -3.732599e+001  1.065215e+002 
4265625000  -3.740748e+001  1.062622e+002 
4268750000  -3.647911e+001  9.784380e+001 
4271875000  -3.613281e+001  8.878195e+001 
4275000000  -3.593824e+001  7.976467e+001 
4278125000  -3.712043e+001  6.753926e+001 
4281250000  -3.875369e+001  6.541346e+001 
4284375000  -3.831154e+001  6.372552e+001 
4287500000  -3.975365e+001  6.125561e+001 
4290625000  -4.023423e+001  6.934818e+001 
4293750000  -3.806490e+001  6.827394e+001 
4296875000  -3.713811e+001  5.464438e+001 
4300000000  -3.873165e+001  4.543611e+001 
4303125000  -3.914546e+001  4.932882e+001 
4306250000  -3.810315e+001  5.277346e+001 
4309375000  -3.700539e+001  4.434459e+001 
4312500000  -3.711953e+001  3.552209e+001 
4315625000  -3.731608e+001  2.603123e+001 
4318750000  -3.794468e+001  2.216595e+001 
4321875000  -3.800327e+001  2.368972e+001 
4325000000  -3.747994e+001  2.216917e+001 
4328125000  -3.694154e+001  1.216361e+001 
4331250000  -3.685205e+001  1.418176e+000 
4334375000  -3.766457e+001  -4.254954e+000 
4337500000  -3.872227e+001  -4.885433e+000 
4340625000  -3.903484e+001  -2.506770e+000 
4343750000  -3.799509e+001  -3.818715e+000 
4346875000  -3.766866e+001  -1.290429e+001 
4350000000  -3.743595e+001  -2.221401e+001 
4353125000  -3.832605e+001  -2.997566e+001 
4356250000  -4.026144e+001  -2.737031e+001 
4359375000  -3.956064e+001  -1.379804e+001 
4362500000  -3.623825e+001  -2.022407e+001 
4365625000  -3.533458e+001  -3.690994e+001 
4368750000  -3.658475e+001  -4.808804e+001 
4371875000  -3.717863e+001  -4.688723e+001 
4375000000  -3.684286e+001  -4.939405e+001 
4378125000  -3.639447e+001  -5.812091e+001 
4381250000  -3.669992e+001  -6.627676e+001 
4384375000  -3.660120e+001  -7.325032e+001 
4387500000  -3.744019e+001  -7.987180e+001 
4390625000  -3.822519e+001  -7.959316e+001 
4393750000  -3.749640e+001  -7.851872e+001 
4396875000  -3.688887e+001  -8.484065e+001 
4400000000  -3.635634e+001  -9.386040e+001 
4403125000  -3.704267e+001  -1.041488e+002 
4406250000  -3.764798e+001  -1.067720e+002 
4409375000  -3.788168e+001  -1.130546e+002 
4412500000  -3.891429e+001  -1.142200e+002 
4415625000  -3.907835e+001  -1.116478e+002 
