!Agilent Technologies,E8363B,MY43030201,A.06.04.32
!Agilent E8363B: A.06.04.32
!Date: Tuesday, November 11, 2014 21:27:25
!Correction: S21(Response(S21)) 
!S1P File: Measurement: S21:
# Hz S  dB   R 50
3000000000  -4.056399e+001  9.227102e+001 
3003125000  -4.203924e+001  8.515369e+001 
3006250000  -4.217736e+001  8.354180e+001 
3009375000  -4.280906e+001  8.875701e+001 
3012500000  -4.162336e+001  8.532803e+001 
3015625000  -4.122889e+001  7.712393e+001 
3018750000  -4.189843e+001  7.683243e+001 
3021875000  -4.038121e+001  7.789380e+001 
3025000000  -3.909822e+001  7.326501e+001 
3028125000  -3.802905e+001  6.485679e+001 
3031250000  -3.703133e+001  5.345385e+001 
3034375000  -3.674764e+001  3.925561e+001 
3037500000  -3.744576e+001  2.898050e+001 
3040625000  -3.877411e+001  2.339457e+001 
3043750000  -3.913624e+001  1.655503e+001 
3046875000  -3.959665e+001  1.008876e+001 
3050000000  -4.083142e+001  6.187495e+000 
3053125000  -4.075425e+001  9.078363e+000 
3056250000  -4.027771e+001  1.309837e+001 
3059375000  -3.981602e+001  1.032853e+001 
3062500000  -3.819397e+001  7.018111e+000 
3065625000  -3.796207e+001  -2.440646e+000 
3068750000  -3.767976e+001  -1.074860e+001 
3071875000  -3.766745e+001  -1.225317e+001 
3075000000  -3.707986e+001  -1.936323e+001 
3078125000  -3.712327e+001  -2.581622e+001 
3081250000  -3.725921e+001  -3.190884e+001 
3084375000  -3.638377e+001  -3.675042e+001 
3087500000  -3.648323e+001  -4.254145e+001 
3090625000  -3.599397e+001  -5.544880e+001 
3093750000  -3.670881e+001  -6.316066e+001 
3096875000  -3.747745e+001  -6.927893e+001 
3100000000  -3.719177e+001  -7.239460e+001 
3103125000  -3.757752e+001  -7.547581e+001 
3106250000  -3.725140e+001  -8.036295e+001 
3109375000  -3.733224e+001  -8.380960e+001 
3112500000  -3.724632e+001  -9.009464e+001 
3115625000  -3.711544e+001  -9.444135e+001 
3118750000  -3.722118e+001  -9.712566e+001 
3121875000  -3.658112e+001  -1.089767e+002 
3125000000  -3.830914e+001  -1.129466e+002 
3128125000  -3.863671e+001  -1.041001e+002 
3131250000  -3.620188e+001  -1.094546e+002 
3134375000  -3.541044e+001  -1.259499e+002 
3137500000  -3.611289e+001  -1.403174e+002 
3140625000  -3.730664e+001  -1.426181e+002 
3143750000  -3.823695e+001  -1.443641e+002 
3146875000  -3.779149e+001  -1.432981e+002 
3150000000  -3.696856e+001  -1.460549e+002 
3153125000  -3.719197e+001  -1.559845e+002 
3156250000  -3.793911e+001  -1.510932e+002 
3159375000  -3.582967e+001  -1.521226e+002 
3162500000  -3.426210e+001  -1.683299e+002 
3165625000  -3.541305e+001  1.790011e+002 
3168750000  -3.554298e+001  1.782487e+002 
3171875000  -3.499098e+001  1.707929e+002 
3175000000  -3.538863e+001  1.617057e+002 
3178125000  -3.517743e+001  1.600237e+002 
3181250000  -3.447923e+001  1.529125e+002 
3184375000  -3.414481e+001  1.406094e+002 
3187500000  -3.537912e+001  1.256553e+002 
3190625000  -3.734901e+001  1.184017e+002 
3193750000  -3.760088e+001  1.244227e+002 
3196875000  -3.760241e+001  1.261675e+002 
3200000000  -3.638459e+001  1.206189e+002 
3203125000  -3.586028e+001  1.128459e+002 
3206250000  -3.623989e+001  1.048309e+002 
3209375000  -3.583586e+001  9.824849e+001 
3212500000  -3.629981e+001  9.032134e+001 
3215625000  -3.625786e+001  8.821000e+001 
3218750000  -3.681005e+001  7.671551e+001 
3221875000  -3.747113e+001  6.953058e+001 
3225000000  -3.712725e+001  6.665621e+001 
3228125000  -3.769482e+001  5.953351e+001 
3231250000  -3.843704e+001  5.731113e+001 
3234375000  -3.792984e+001  5.417774e+001 
3237500000  -3.826861e+001  5.009293e+001 
3240625000  -3.760062e+001  4.476410e+001 
3243750000  -3.777121e+001  3.432877e+001 
3246875000  -3.821341e+001  2.738837e+001 
3250000000  -3.874643e+001  2.298470e+001 
3253125000  -3.889002e+001  1.980665e+001 
3256250000  -3.860448e+001  1.263383e+001 
3259375000  -3.923214e+001  1.783024e+000 
3262500000  -4.072975e+001  -2.794871e+000 
3265625000  -4.106905e+001  1.683576e+000 
3268750000  -4.113000e+001  1.377659e+000 
3271875000  -4.076902e+001  -2.106972e+000 
3275000000  -4.007176e+001  -1.011279e+001 
3278125000  -4.080870e+001  -1.541385e+001 
3281250000  -4.106954e+001  -1.619918e+001 
3284375000  -4.065319e+001  -2.378947e+001 
3287500000  -4.099046e+001  -2.825799e+001 
3290625000  -4.144080e+001  -3.415635e+001 
3293750000  -4.118445e+001  -3.963370e+001 
3296875000  -4.256041e+001  -4.309319e+001 
3300000000  -4.194503e+001  -4.044162e+001 
3303125000  -4.102090e+001  -4.800778e+001 
3306250000  -4.086673e+001  -5.480530e+001 
3309375000  -4.054118e+001  -6.203209e+001 
3312500000  -4.070309e+001  -7.549856e+001 
3315625000  -4.206228e+001  -8.178222e+001 
3318750000  -4.336739e+001  -8.557156e+001 
3321875000  -4.487335e+001  -8.315486e+001 
3325000000  -4.447604e+001  -7.760337e+001 
3328125000  -4.402906e+001  -7.810002e+001 
3331250000  -4.275914e+001  -7.290491e+001 
3334375000  -3.996127e+001  -8.693275e+001 
3337500000  -4.050388e+001  -1.080379e+002 
3340625000  -4.215257e+001  -1.176532e+002 
3343750000  -4.417071e+001  -1.162343e+002 
3346875000  -4.358826e+001  -1.181993e+002 
3350000000  -4.303651e+001  -1.214162e+002 
3353125000  -4.297004e+001  -1.275295e+002 
3356250000  -4.254784e+001  -1.353833e+002 
3359375000  -4.345304e+001  -1.462362e+002 
3362500000  -4.444458e+001  -1.531568e+002 
3365625000  -4.477576e+001  -1.558651e+002 
3368750000  -4.537840e+001  -1.595018e+002 
3371875000  -4.586618e+001  -1.635587e+002 
3375000000  -4.691124e+001  -1.689116e+002 
3378125000  -4.768524e+001  -1.686152e+002 
3381250000  -4.938031e+001  -1.578228e+002 
3384375000  -4.696568e+001  -1.448888e+002 
3387500000  -4.348487e+001  -1.644872e+002 
3390625000  -4.622075e+001  1.737461e+002 
3393750000  -4.692293e+001  1.720508e+002 
3396875000  -4.570613e+001  1.756591e+002 
3400000000  -4.594881e+001  1.634400e+002 
3403125000  -4.710903e+001  1.569886e+002 
3406250000  -4.776480e+001  1.540381e+002 
3409375000  -4.805100e+001  1.441610e+002 
3412500000  -4.834906e+001  1.418477e+002 
3415625000  -4.954369e+001  1.415883e+002 
3418750000  -5.065145e+001  1.393285e+002 
3421875000  -5.094264e+001  1.455472e+002 
3425000000  -5.041892e+001  1.357162e+002 
3428125000  -5.008257e+001  1.377143e+002 
3431250000  -5.014080e+001  1.283629e+002 
3434375000  -5.078978e+001  1.316373e+002 
3437500000  -5.237593e+001  1.266326e+002 
3440625000  -5.249549e+001  1.263260e+002 
3443750000  -4.981618e+001  1.283602e+002 
3446875000  -5.073699e+001  1.254395e+002 
3450000000  -5.071635e+001  1.168923e+002 
3453125000  -5.033286e+001  1.047461e+002 
3456250000  -5.203936e+001  1.015739e+002 
3459375000  -5.328431e+001  1.118374e+002 
3462500000  -5.233889e+001  1.089294e+002 
3465625000  -5.196460e+001  1.043582e+002 
3468750000  -5.209953e+001  1.057998e+002 
3471875000  -5.266435e+001  1.051164e+002 
3475000000  -5.110476e+001  9.758684e+001 
3478125000  -5.108677e+001  8.071665e+001 
3481250000  -5.256779e+001  9.436818e+001 
3484375000  -5.314186e+001  8.818423e+001 
3487500000  -5.113313e+001  8.509227e+001 
3490625000  -5.099907e+001  7.794939e+001 
3493750000  -5.080197e+001  7.400426e+001 
3496875000  -5.117842e+001  7.450254e+001 
3500000000  -5.252398e+001  6.986866e+001 
3503125000  -5.101488e+001  7.022039e+001 
3506250000  -5.001159e+001  6.268779e+001 
3509375000  -4.957480e+001  4.980345e+001 
3512500000  -4.986721e+001  3.613737e+001 
3515625000  -5.053443e+001  3.258800e+001 
3518750000  -5.117402e+001  3.537695e+001 
3521875000  -5.149808e+001  2.232257e+001 
3525000000  -5.314418e+001  1.781686e+001 
3528125000  -5.194157e+001  2.933027e+001 
3531250000  -5.119805e+001  2.025748e+001 
3534375000  -5.200915e+001  1.118845e+001 
3537500000  -5.298960e+001  3.295439e-002 
3540625000  -5.332941e+001  -2.397889e+000 
3543750000  -5.557847e+001  3.836301e+000 
3546875000  -5.599933e+001  1.629433e+001 
3550000000  -5.315759e+001  5.363427e+000 
3553125000  -5.258709e+001  -1.157777e+001 
3556250000  -5.344805e+001  -9.165202e+000 
3559375000  -5.546649e+001  -1.424411e+001 
3562500000  -5.506110e+001  -1.859325e+001 
3565625000  -5.647129e+001  -2.379656e+001 
3568750000  -5.682822e+001  -2.472262e+001 
3571875000  -5.615359e+001  -1.524583e+001 
3575000000  -5.956592e+001  -1.845487e+001 
3578125000  -5.873054e+001  -2.527706e+001 
3581250000  -5.857568e+001  -1.810185e+001 
3584375000  -5.765065e+001  -1.346488e+001 
3587500000  -5.648901e+001  -2.251321e+001 
3590625000  -5.800919e+001  -4.632701e+001 
3593750000  -5.886821e+001  -3.232698e+001 
3596875000  -5.930637e+001  -2.419236e+001 
3600000000  -5.701212e+001  -2.662341e+001 
3603125000  -5.733954e+001  -3.724053e+001 
3606250000  -5.815968e+001  -3.081692e+001 
3609375000  -5.772794e+001  -3.095059e+001 
3612500000  -5.814434e+001  -2.651170e+001 
3615625000  -5.847757e+001  -4.124109e+001 
3618750000  -5.876670e+001  -3.440255e+001 
3621875000  -5.680186e+001  -3.290466e+001 
3625000000  -5.702987e+001  -1.674466e+001 
3628125000  -5.577657e+001  -1.602699e+001 
3631250000  -5.730971e+001  -3.000342e+001 
3634375000  -5.648256e+001  -3.050621e+001 
3637500000  -5.641288e+001  -2.433961e+001 
3640625000  -5.476765e+001  -1.933159e+001 
3643750000  -5.373907e+001  -2.641589e+001 
3646875000  -5.331200e+001  -4.026380e+001 
3650000000  -5.417999e+001  -4.062372e+001 
3653125000  -5.211300e+001  -4.364179e+001 
3656250000  -5.218871e+001  -4.649410e+001 
3659375000  -5.187608e+001  -4.768168e+001 
3662500000  -5.095863e+001  -4.707912e+001 
3665625000  -5.085333e+001  -4.922803e+001 
3668750000  -4.819062e+001  -5.461953e+001 
3671875000  -4.787040e+001  -6.164986e+001 
3675000000  -4.793288e+001  -7.010860e+001 
3678125000  -4.768565e+001  -7.166357e+001 
3681250000  -4.682602e+001  -7.952312e+001 
3684375000  -4.712020e+001  -8.465259e+001 
3687500000  -4.707056e+001  -8.967634e+001 
3690625000  -4.681205e+001  -9.566354e+001 
3693750000  -4.706706e+001  -9.595488e+001 
3696875000  -4.688440e+001  -9.788536e+001 
3700000000  -4.585483e+001  -1.018224e+002 
3703125000  -4.573854e+001  -1.079594e+002 
3706250000  -4.548936e+001  -1.118908e+002 
3709375000  -4.514310e+001  -1.082181e+002 
3712500000  -4.385581e+001  -1.141035e+002 
3715625000  -4.230585e+001  -1.217615e+002 
3718750000  -4.184333e+001  -1.295528e+002 
3721875000  -4.158380e+001  -1.389641e+002 
3725000000  -4.186354e+001  -1.449500e+002 
3728125000  -4.138110e+001  -1.493292e+002 
3731250000  -4.054175e+001  -1.545405e+002 
3734375000  -4.006371e+001  -1.620421e+002 
3737500000  -4.104040e+001  -1.731520e+002 
3740625000  -4.114085e+001  -1.780022e+002 
3743750000  -4.052877e+001  1.758696e+002 
3746875000  -4.055500e+001  1.694059e+002 
3750000000  -4.112499e+001  1.654658e+002 
3753125000  -4.071723e+001  1.618714e+002 
3756250000  -4.065310e+001  1.580061e+002 
3759375000  -4.027704e+001  1.540537e+002 
3762500000  -3.996490e+001  1.458465e+002 
3765625000  -4.083514e+001  1.417542e+002 
3768750000  -4.032419e+001  1.428309e+002 
3771875000  -3.858339e+001  1.351051e+002 
3775000000  -3.851736e+001  1.229011e+002 
3778125000  -3.913860e+001  1.152658e+002 
3781250000  -3.893555e+001  1.115802e+002 
3784375000  -3.895904e+001  1.060777e+002 
3787500000  -3.844006e+001  1.013241e+002 
3790625000  -3.919811e+001  9.067822e+001 
3793750000  -3.912392e+001  8.886848e+001 
3796875000  -3.833023e+001  8.466905e+001 
3800000000  -3.646904e+001  7.959385e+001 
3803125000  -3.824619e+001  6.481020e+001 
3806250000  -3.895689e+001  6.087703e+001 
3809375000  -3.860928e+001  5.729782e+001 
3812500000  -3.851214e+001  4.920920e+001 
3815625000  -3.933138e+001  3.963635e+001 
3818750000  -4.073260e+001  3.936678e+001 
3821875000  -4.046045e+001  4.874263e+001 
3825000000  -3.838770e+001  4.698343e+001 
3828125000  -3.719966e+001  2.718837e+001 
3831250000  -3.822718e+001  1.330293e+001 
3834375000  -4.012509e+001  1.226904e+001 
3837500000  -4.087555e+001  1.598848e+001 
3840625000  -3.927747e+001  1.304948e+001 
3843750000  -3.865056e+001  -6.757620e-001 
3846875000  -3.982035e+001  -6.560471e+000 
3850000000  -4.073038e+001  -1.496360e+000 
3853125000  -4.020356e+001  -1.610518e+000 
3856250000  -3.990986e+001  -7.709258e+000 
3859375000  -3.905038e+001  -1.387287e+001 
3862500000  -3.864750e+001  -2.441048e+001 
3865625000  -3.925217e+001  -3.207386e+001 
3868750000  -3.916830e+001  -3.183833e+001 
3871875000  -3.817257e+001  -3.785748e+001 
3875000000  -3.875507e+001  -4.834952e+001 
3878125000  -3.959325e+001  -5.089356e+001 
3881250000  -3.952474e+001  -5.097519e+001 
3884375000  -3.877984e+001  -5.814004e+001 
3887500000  -3.913943e+001  -6.406493e+001 
3890625000  -3.948397e+001  -6.856618e+001 
3893750000  -3.972573e+001  -7.124878e+001 
3896875000  -4.010243e+001  -7.313504e+001 
3900000000  -4.023215e+001  -7.663434e+001 
3903125000  -3.933871e+001  -8.235995e+001 
3906250000  -3.911939e+001  -8.434348e+001 
3909375000  -3.818412e+001  -9.344543e+001 
3912500000  -3.895097e+001  -1.025762e+002 
3915625000  -4.022742e+001  -1.028458e+002 
3918750000  -4.019198e+001  -1.050458e+002 
3921875000  -3.942442e+001  -1.084627e+002 
3925000000  -3.871732e+001  -1.135014e+002 
3928125000  -3.823549e+001  -1.230902e+002 
3931250000  -3.881795e+001  -1.299838e+002 
3934375000  -3.952433e+001  -1.316309e+002 
3937500000  -3.984065e+001  -1.347136e+002 
3940625000  -3.990695e+001  -1.354724e+002 
3943750000  -3.881779e+001  -1.388840e+002 
3946875000  -3.830746e+001  -1.488370e+002 
3950000000  -3.944837e+001  -1.564099e+002 
3953125000  -4.001661e+001  -1.549504e+002 
3956250000  -3.874188e+001  -1.576701e+002 
3959375000  -3.773178e+001  -1.638232e+002 
3962500000  -3.741668e+001  -1.698067e+002 
3965625000  -3.760307e+001  1.797406e+002 
3968750000  -3.843772e+001  1.688774e+002 
3971875000  -3.872287e+001  1.655742e+002 
3975000000  -3.821138e+001  1.610232e+002 
3978125000  -3.840139e+001  1.575471e+002 
3981250000  -3.859735e+001  1.514638e+002 
3984375000  -3.882336e+001  1.438672e+002 
3987500000  -3.984281e+001  1.408512e+002 
3990625000  -3.996509e+001  1.391307e+002 
3993750000  -3.978330e+001  1.343201e+002 
3996875000  -3.997194e+001  1.310661e+002 
4000000000  -4.055966e+001  1.260126e+002 
4003125000  -4.094590e+001  1.267452e+002 
4006250000  -3.955078e+001  1.246672e+002 
4009375000  -3.856894e+001  1.107350e+002 
4012500000  -4.022430e+001  1.043271e+002 
4015625000  -4.148912e+001  9.973724e+001 
4018750000  -4.151139e+001  1.044104e+002 
4021875000  -4.093032e+001  9.930933e+001 
4025000000  -4.071033e+001  9.338956e+001 
4028125000  -4.065881e+001  8.896812e+001 
4031250000  -4.129822e+001  8.225609e+001 
4034375000  -4.181920e+001  8.251358e+001 
4037500000  -4.116044e+001  8.297697e+001 
4040625000  -4.076419e+001  7.939429e+001 
4043750000  -4.111237e+001  7.647194e+001 
4046875000  -4.069130e+001  7.172960e+001 
4050000000  -4.039999e+001  6.773879e+001 
4053125000  -4.113139e+001  6.418800e+001 
4056250000  -4.111233e+001  6.877238e+001 
4059375000  -3.936784e+001  6.458738e+001 
4062500000  -3.866608e+001  5.709032e+001 
4065625000  -3.858686e+001  5.473027e+001 
4068750000  -3.830527e+001  4.657416e+001 
4071875000  -3.764777e+001  3.591758e+001 
4075000000  -3.807156e+001  2.850856e+001 
4078125000  -3.863475e+001  2.623547e+001 
4081250000  -3.796851e+001  2.106462e+001 
4084375000  -3.785592e+001  9.848237e+000 
4087500000  -3.823047e+001  4.014803e+000 
4090625000  -3.898188e+001  1.861712e+000 
4093750000  -3.834145e+001  -6.318001e-001 
4096875000  -3.827737e+001  -1.009988e+001 
4100000000  -3.936482e+001  -1.714175e+001 
4103125000  -4.024345e+001  -1.679399e+001 
4106250000  -3.962982e+001  -1.417963e+001 
4109375000  -3.894059e+001  -1.785066e+001 
4112500000  -3.852840e+001  -2.554762e+001 
4115625000  -3.889958e+001  -3.153858e+001 
4118750000  -3.861143e+001  -3.746373e+001 
4121875000  -3.852428e+001  -4.430587e+001 
4125000000  -3.946534e+001  -5.083479e+001 
4128125000  -4.065970e+001  -4.776257e+001 
4131250000  -3.972120e+001  -4.386367e+001 
4134375000  -3.735195e+001  -5.300771e+001 
4137500000  -3.768076e+001  -7.547868e+001 
4140625000  -4.008091e+001  -8.080238e+001 
4143750000  -4.123215e+001  -7.474598e+001 
4146875000  -4.046889e+001  -7.087904e+001 
4150000000  -3.953017e+001  -7.719794e+001 
4153125000  -3.976658e+001  -8.748442e+001 
4156250000  -4.098649e+001  -9.087644e+001 
4159375000  -4.097740e+001  -8.637624e+001 
4162500000  -3.980385e+001  -8.316809e+001 
4165625000  -3.855314e+001  -9.060046e+001 
4168750000  -3.798991e+001  -1.013630e+002 
4171875000  -3.806538e+001  -1.112005e+002 
4175000000  -3.907651e+001  -1.179587e+002 
4178125000  -3.958825e+001  -1.178401e+002 
4181250000  -3.910371e+001  -1.206011e+002 
4184375000  -3.912804e+001  -1.274158e+002 
4187500000  -3.919210e+001  -1.300701e+002 
4190625000  -3.917136e+001  -1.389312e+002 
4193750000  -4.005635e+001  -1.442050e+002 
4196875000  -4.088058e+001  -1.436311e+002 
4200000000  -4.191515e+001  -1.375397e+002 
4203125000  -4.102761e+001  -1.265440e+002 
4206250000  -3.738300e+001  -1.351986e+002 
4209375000  -3.678051e+001  -1.571134e+002 
4212500000  -3.899514e+001  -1.662286e+002 
4215625000  -3.966899e+001  -1.597967e+002 
4218750000  -3.783453e+001  -1.566030e+002 
4221875000  -3.601529e+001  -1.679170e+002 
4225000000  -3.713994e+001  -1.787387e+002 
4228125000  -3.764752e+001  -1.767403e+002 
4231250000  -3.578939e+001  1.736296e+002 
4234375000  -3.590770e+001  1.633334e+002 
4237500000  -3.566797e+001  1.579675e+002 
4240625000  -3.566715e+001  1.495542e+002 
4243750000  -3.694517e+001  1.406310e+002 
4246875000  -3.781912e+001  1.390303e+002 
4250000000  -3.760353e+001  1.379775e+002 
4253125000  -3.719776e+001  1.351275e+002 
4256250000  -3.742304e+001  1.291213e+002 
4259375000  -3.699371e+001  1.238225e+002 
4262500000  -3.700186e+001  1.191261e+002 
4265625000  -3.737344e+001  1.177554e+002 
4268750000  -3.635583e+001  1.096364e+002 
4271875000  -3.618364e+001  1.009733e+002 
4275000000  -3.588339e+001  9.296617e+001 
4278125000  -3.679877e+001  7.993038e+001 
4281250000  -3.825168e+001  7.764959e+001 
4284375000  -3.813883e+001  7.476144e+001 
4287500000  -3.963498e+001  7.051292e+001 
4290625000  -4.033289e+001  7.917870e+001 
4293750000  -3.810999e+001  8.192679e+001 
4296875000  -3.678837e+001  6.942339e+001 
4300000000  -3.834464e+001  5.724776e+001 
4303125000  -3.920596e+001  6.123879e+001 
4306250000  -3.812132e+001  6.341096e+001 
4309375000  -3.713644e+001  5.579449e+001 
4312500000  -3.708394e+001  4.651660e+001 
4315625000  -3.740190e+001  3.889881e+001 
4318750000  -3.810863e+001  3.400895e+001 
4321875000  -3.811996e+001  3.550267e+001 
4325000000  -3.756332e+001  3.505142e+001 
4328125000  -3.692517e+001  2.501681e+001 
4331250000  -3.703224e+001  1.319346e+001 
4334375000  -3.772411e+001  7.749313e+000 
4337500000  -3.872306e+001  7.304274e+000 
4340625000  -3.908681e+001  1.085808e+001 
4343750000  -3.811094e+001  7.225858e+000 
4346875000  -3.776495e+001  4.850614e-001 
4350000000  -3.783578e+001  -7.732265e+000 
4353125000  -3.801712e+001  -1.557320e+001 
4356250000  -4.011237e+001  -1.296194e+001 
4359375000  -3.973343e+001  1.800645e+000 
4362500000  -3.638007e+001  -3.924407e+000 
4365625000  -3.558675e+001  -2.352262e+001 
4368750000  -3.657496e+001  -3.295759e+001 
4371875000  -3.757065e+001  -3.340217e+001 
4375000000  -3.673148e+001  -3.634362e+001 
4378125000  -3.647738e+001  -4.378279e+001 
4381250000  -3.656013e+001  -5.073143e+001 
4384375000  -3.660547e+001  -5.988552e+001 
4387500000  -3.723517e+001  -6.545620e+001 
4390625000  -3.778716e+001  -6.609717e+001 
4393750000  -3.740634e+001  -6.482738e+001 
4396875000  -3.666682e+001  -7.099616e+001 
4400000000  -3.633703e+001  -8.058744e+001 
4403125000  -3.702198e+001  -9.066088e+001 
4406250000  -3.756006e+001  -9.340913e+001 
4409375000  -3.763469e+001  -9.751662e+001 
4412500000  -3.883557e+001  -1.012235e+002 
4415625000  -3.890965e+001  -9.729288e+001 
