!Agilent Technologies,E8363B,MY43030201,A.06.04.32
!Agilent E8363B: A.06.04.32
!Date: Tuesday, November 11, 2014 21:36:50
!Correction: S21(Response(S21)) 
!S1P File: Measurement: S21:
# Hz S  dB   R 50
3000000000  -4.067486e+001  7.066302e+001 
3003125000  -4.204294e+001  6.272506e+001 
3006250000  -4.229165e+001  6.292532e+001 
3009375000  -4.277644e+001  6.724759e+001 
3012500000  -4.130901e+001  6.100071e+001 
3015625000  -4.126490e+001  5.585392e+001 
3018750000  -4.189363e+001  5.723910e+001 
3021875000  -4.028169e+001  5.730767e+001 
3025000000  -3.875991e+001  5.372849e+001 
3028125000  -3.798676e+001  4.276074e+001 
3031250000  -3.699744e+001  3.119800e+001 
3034375000  -3.679986e+001  1.659950e+001 
3037500000  -3.753991e+001  6.132181e+000 
3040625000  -3.880525e+001  1.062868e+000 
3043750000  -3.919368e+001  -6.403399e+000 
3046875000  -3.978980e+001  -1.127514e+001 
3050000000  -4.086164e+001  -1.536687e+001 
3053125000  -4.045490e+001  -9.774007e+000 
3056250000  -4.036421e+001  -6.910147e+000 
3059375000  -3.971615e+001  -9.746607e+000 
3062500000  -3.825997e+001  -1.399283e+001 
3065625000  -3.778311e+001  -2.481203e+001 
3068750000  -3.765875e+001  -3.240343e+001 
3071875000  -3.759004e+001  -3.460917e+001 
3075000000  -3.692852e+001  -4.111287e+001 
3078125000  -3.713194e+001  -4.743869e+001 
3081250000  -3.726431e+001  -5.320330e+001 
3084375000  -3.629783e+001  -5.831874e+001 
3087500000  -3.653124e+001  -6.605461e+001 
3090625000  -3.593716e+001  -7.782323e+001 
3093750000  -3.696952e+001  -8.492191e+001 
3096875000  -3.733669e+001  -8.996870e+001 
3100000000  -3.724258e+001  -9.330588e+001 
3103125000  -3.754282e+001  -9.765740e+001 
3106250000  -3.715572e+001  -1.028746e+002 
3109375000  -3.733354e+001  -1.057471e+002 
3112500000  -3.706536e+001  -1.122076e+002 
3115625000  -3.717691e+001  -1.160561e+002 
3118750000  -3.724842e+001  -1.197209e+002 
3121875000  -3.649812e+001  -1.303072e+002 
3125000000  -3.851884e+001  -1.333061e+002 
3128125000  -3.844762e+001  -1.265115e+002 
3131250000  -3.588148e+001  -1.328560e+002 
3134375000  -3.534208e+001  -1.492608e+002 
3137500000  -3.619624e+001  -1.610529e+002 
3140625000  -3.740277e+001  -1.643473e+002 
3143750000  -3.801619e+001  -1.678123e+002 
3146875000  -3.766699e+001  -1.653646e+002 
3150000000  -3.690195e+001  -1.689544e+002 
3153125000  -3.725600e+001  -1.767112e+002 
3156250000  -3.790139e+001  -1.733023e+002 
3159375000  -3.561333e+001  -1.744576e+002 
3162500000  -3.413242e+001  1.703046e+002 
3165625000  -3.544019e+001  1.568517e+002 
3168750000  -3.539957e+001  1.547314e+002 
3171875000  -3.486710e+001  1.480062e+002 
3175000000  -3.550741e+001  1.392138e+002 
3178125000  -3.505563e+001  1.374004e+002 
3181250000  -3.438890e+001  1.288448e+002 
3184375000  -3.414316e+001  1.180659e+002 
3187500000  -3.547998e+001  1.035682e+002 
3190625000  -3.714975e+001  9.665826e+001 
3193750000  -3.747239e+001  1.026801e+002 
3196875000  -3.728817e+001  1.031073e+002 
3200000000  -3.613909e+001  9.724361e+001 
3203125000  -3.599096e+001  9.010777e+001 
3206250000  -3.619153e+001  8.171961e+001 
3209375000  -3.579111e+001  7.480965e+001 
3212500000  -3.625305e+001  6.783290e+001 
3215625000  -3.598293e+001  6.487208e+001 
3218750000  -3.680826e+001  5.395745e+001 
3221875000  -3.736563e+001  4.695721e+001 
3225000000  -3.700200e+001  4.231662e+001 
3228125000  -3.770631e+001  3.605717e+001 
3231250000  -3.831965e+001  3.422131e+001 
3234375000  -3.779693e+001  3.114949e+001 
3237500000  -3.803565e+001  2.649298e+001 
3240625000  -3.743300e+001  2.151268e+001 
3243750000  -3.760449e+001  1.090064e+001 
3246875000  -3.818906e+001  3.460645e+000 
3250000000  -3.873262e+001  6.326303e-001 
3253125000  -3.909732e+001  -2.357544e+000 
3256250000  -3.854071e+001  -1.097962e+001 
3259375000  -3.907591e+001  -2.296886e+001 
3262500000  -4.063540e+001  -2.591152e+001 
3265625000  -4.120219e+001  -2.193501e+001 
3268750000  -4.101484e+001  -2.141935e+001 
3271875000  -4.065465e+001  -2.537255e+001 
3275000000  -4.004422e+001  -3.508656e+001 
3278125000  -4.095533e+001  -3.904008e+001 
3281250000  -4.102880e+001  -3.977683e+001 
3284375000  -4.045547e+001  -4.608021e+001 
3287500000  -4.095403e+001  -5.094306e+001 
3290625000  -4.123594e+001  -5.823518e+001 
3293750000  -4.118919e+001  -6.484727e+001 
3296875000  -4.269957e+001  -6.510040e+001 
3300000000  -4.168346e+001  -6.497600e+001 
3303125000  -4.095773e+001  -7.275194e+001 
3306250000  -4.077726e+001  -7.916506e+001 
3309375000  -4.016985e+001  -8.587190e+001 
3312500000  -4.109472e+001  -9.888760e+001 
3315625000  -4.242360e+001  -1.055879e+002 
3318750000  -4.377422e+001  -1.124639e+002 
3321875000  -4.494444e+001  -1.071400e+002 
3325000000  -4.420520e+001  -9.739202e+001 
3328125000  -4.346653e+001  -1.000859e+002 
3331250000  -4.231878e+001  -9.565759e+001 
3334375000  -3.989914e+001  -1.106021e+002 
3337500000  -4.042820e+001  -1.343931e+002 
3340625000  -4.211982e+001  -1.425533e+002 
3343750000  -4.452956e+001  -1.417074e+002 
3346875000  -4.372464e+001  -1.436852e+002 
3350000000  -4.294976e+001  -1.452734e+002 
3353125000  -4.283118e+001  -1.538643e+002 
3356250000  -4.254623e+001  -1.606771e+002 
3359375000  -4.343851e+001  -1.730988e+002 
3362500000  -4.426120e+001  -1.773265e+002 
3365625000  -4.451943e+001  -1.782590e+002 
3368750000  -4.560667e+001  1.741370e+002 
3371875000  -4.600925e+001  1.701878e+002 
3375000000  -4.763706e+001  1.664582e+002 
3378125000  -4.832306e+001  1.664100e+002 
3381250000  -4.979464e+001  1.790673e+002 
3384375000  -4.638583e+001  -1.707757e+002 
3387500000  -4.385657e+001  1.701696e+002 
3390625000  -4.591623e+001  1.512003e+002 
3393750000  -4.729415e+001  1.506823e+002 
3396875000  -4.579165e+001  1.498477e+002 
3400000000  -4.586678e+001  1.386411e+002 
3403125000  -4.690849e+001  1.305395e+002 
3406250000  -4.760228e+001  1.287870e+002 
3409375000  -4.795359e+001  1.228775e+002 
3412500000  -4.870657e+001  1.161809e+002 
3415625000  -4.961317e+001  1.134447e+002 
3418750000  -5.048961e+001  1.142085e+002 
3421875000  -5.124897e+001  1.187311e+002 
3425000000  -5.010469e+001  1.175214e+002 
3428125000  -4.982851e+001  1.144726e+002 
3431250000  -5.016342e+001  1.032542e+002 
3434375000  -5.084145e+001  9.835620e+001 
3437500000  -5.152430e+001  1.003508e+002 
3440625000  -5.265210e+001  1.025513e+002 
3443750000  -5.065668e+001  1.086136e+002 
3446875000  -5.009133e+001  1.032785e+002 
3450000000  -5.021726e+001  8.826718e+001 
3453125000  -5.057289e+001  7.951437e+001 
3456250000  -5.211799e+001  8.116906e+001 
3459375000  -5.351476e+001  8.565102e+001 
3462500000  -5.209342e+001  8.232567e+001 
3465625000  -5.160217e+001  7.861548e+001 
3468750000  -5.184689e+001  7.672854e+001 
3471875000  -5.183046e+001  7.068800e+001 
3475000000  -5.122232e+001  6.652122e+001 
3478125000  -5.127262e+001  6.299036e+001 
3481250000  -5.187566e+001  5.949914e+001 
3484375000  -5.173466e+001  6.071807e+001 
3487500000  -5.125927e+001  6.446217e+001 
3490625000  -5.027527e+001  5.148245e+001 
3493750000  -5.195885e+001  4.451448e+001 
3496875000  -5.107014e+001  4.552876e+001 
3500000000  -5.126104e+001  4.654659e+001 
3503125000  -5.088684e+001  4.412627e+001 
3506250000  -5.039763e+001  3.080933e+001 
3509375000  -4.997558e+001  2.284593e+001 
3512500000  -5.068610e+001  1.216812e+001 
3515625000  -5.142672e+001  1.794475e+000 
3518750000  -5.230658e+001  1.470819e+000 
3521875000  -5.276442e+001  2.416276e-001 
3525000000  -5.376561e+001  -7.251758e+000 
3528125000  -5.267924e+001  3.234684e+000 
3531250000  -5.117041e+001  -5.511119e-001 
3534375000  -5.238108e+001  -2.093087e+001 
3537500000  -5.358626e+001  -2.708918e+001 
3540625000  -5.531001e+001  -2.790142e+001 
3543750000  -5.535435e+001  -1.911502e+001 
3546875000  -5.483868e+001  -8.516332e+000 
3550000000  -5.367200e+001  -1.897390e+001 
3553125000  -5.432538e+001  -3.407949e+001 
3556250000  -5.548744e+001  -3.911294e+001 
3559375000  -5.573833e+001  -3.375009e+001 
3562500000  -5.513243e+001  -4.749775e+001 
3565625000  -5.632961e+001  -5.051671e+001 
3568750000  -5.733941e+001  -4.262480e+001 
3571875000  -5.883204e+001  -4.774849e+001 
3575000000  -5.702567e+001  -5.869636e+001 
3578125000  -5.743874e+001  -4.850393e+001 
3581250000  -5.664988e+001  -4.178247e+001 
3584375000  -5.806601e+001  -3.625826e+001 
3587500000  -5.649462e+001  -4.013315e+001 
3590625000  -5.841119e+001  -6.910854e+001 
3593750000  -5.948067e+001  -5.197309e+001 
3596875000  -5.936029e+001  -4.302506e+001 
3600000000  -5.630550e+001  -3.869542e+001 
3603125000  -5.717324e+001  -5.772938e+001 
3606250000  -5.783649e+001  -5.847176e+001 
3609375000  -5.756983e+001  -5.188962e+001 
3612500000  -5.932231e+001  -4.792193e+001 
3615625000  -5.930307e+001  -5.698534e+001 
3618750000  -5.898177e+001  -5.168802e+001 
3621875000  -5.825479e+001  -4.842390e+001 
3625000000  -5.693850e+001  -4.643327e+001 
3628125000  -5.661806e+001  -4.728247e+001 
3631250000  -5.688530e+001  -5.471335e+001 
3634375000  -5.668401e+001  -3.624578e+001 
3637500000  -5.622209e+001  -5.012755e+001 
3640625000  -5.382546e+001  -3.940429e+001 
3643750000  -5.342387e+001  -5.022337e+001 
3646875000  -5.254314e+001  -5.872255e+001 
3650000000  -5.243570e+001  -6.252592e+001 
3653125000  -5.307507e+001  -6.472306e+001 
3656250000  -5.174335e+001  -6.321809e+001 
3659375000  -5.155925e+001  -6.763573e+001 
3662500000  -5.015184e+001  -7.247302e+001 
3665625000  -5.021228e+001  -7.197607e+001 
3668750000  -4.760360e+001  -7.633789e+001 
3671875000  -4.749422e+001  -8.524513e+001 
3675000000  -4.734963e+001  -9.657929e+001 
3678125000  -4.712996e+001  -9.660316e+001 
3681250000  -4.670612e+001  -1.046601e+002 
3684375000  -4.689816e+001  -1.060115e+002 
3687500000  -4.686423e+001  -1.122500e+002 
3690625000  -4.645116e+001  -1.193548e+002 
3693750000  -4.711692e+001  -1.196542e+002 
3696875000  -4.580118e+001  -1.211059e+002 
3700000000  -4.505284e+001  -1.295412e+002 
3703125000  -4.521043e+001  -1.348116e+002 
3706250000  -4.620876e+001  -1.378675e+002 
3709375000  -4.484161e+001  -1.352030e+002 
3712500000  -4.396907e+001  -1.390953e+002 
3715625000  -4.163134e+001  -1.502859e+002 
3718750000  -4.160000e+001  -1.550252e+002 
3721875000  -4.137264e+001  -1.647109e+002 
3725000000  -4.189125e+001  -1.723154e+002 
3728125000  -4.141451e+001  -1.744703e+002 
3731250000  -4.057537e+001  1.779404e+002 
3734375000  -4.020640e+001  1.711902e+002 
3737500000  -4.107807e+001  1.612525e+002 
3740625000  -4.093770e+001  1.570762e+002 
3743750000  -4.049322e+001  1.485387e+002 
3746875000  -4.085358e+001  1.428120e+002 
3750000000  -4.103846e+001  1.382806e+002 
3753125000  -4.075478e+001  1.354632e+002 
3756250000  -4.062207e+001  1.310981e+002 
3759375000  -4.032888e+001  1.249583e+002 
3762500000  -4.027978e+001  1.191526e+002 
3765625000  -4.090032e+001  1.160782e+002 
3768750000  -4.029632e+001  1.148156e+002 
3771875000  -3.824949e+001  1.081329e+002 
3775000000  -3.856220e+001  9.578629e+001 
3778125000  -3.897910e+001  9.025392e+001 
3781250000  -3.915957e+001  8.629164e+001 
3784375000  -3.862292e+001  8.004995e+001 
3787500000  -3.844540e+001  7.407687e+001 
3790625000  -3.918459e+001  6.441837e+001 
3793750000  -3.905379e+001  6.196242e+001 
3796875000  -3.826291e+001  5.745826e+001 
3800000000  -3.647308e+001  5.295520e+001 
3803125000  -3.801928e+001  4.004884e+001 
3806250000  -3.887821e+001  3.596991e+001 
3809375000  -3.857214e+001  3.129746e+001 
3812500000  -3.846530e+001  2.308806e+001 
3815625000  -3.953644e+001  1.357967e+001 
3818750000  -4.084399e+001  1.292733e+001 
3821875000  -3.991162e+001  2.481551e+001 
3825000000  -3.810841e+001  2.099329e+001 
3828125000  -3.687953e+001  1.207911e+000 
3831250000  -3.811232e+001  -1.113063e+001 
3834375000  -4.060261e+001  -1.648719e+001 
3837500000  -4.061116e+001  -8.568212e+000 
3840625000  -3.889515e+001  -1.189114e+001 
3843750000  -3.826963e+001  -2.874810e+001 
3846875000  -3.991432e+001  -3.557137e+001 
3850000000  -4.074266e+001  -2.704881e+001 
3853125000  -3.979831e+001  -2.852515e+001 
3856250000  -3.954950e+001  -3.475617e+001 
3859375000  -3.853484e+001  -4.234886e+001 
3862500000  -3.831858e+001  -5.332177e+001 
3865625000  -3.900747e+001  -5.903682e+001 
3868750000  -3.863071e+001  -5.936301e+001 
3871875000  -3.782148e+001  -6.641535e+001 
3875000000  -3.855461e+001  -7.755016e+001 
3878125000  -3.939395e+001  -7.822641e+001 
3881250000  -3.900643e+001  -7.898650e+001 
3884375000  -3.876230e+001  -8.562674e+001 
3887500000  -3.931629e+001  -9.386649e+001 
3890625000  -3.945294e+001  -9.792868e+001 
3893750000  -3.982170e+001  -9.904195e+001 
3896875000  -3.996127e+001  -1.021880e+002 
3900000000  -3.988659e+001  -1.066902e+002 
3903125000  -3.906482e+001  -1.117183e+002 
3906250000  -3.894606e+001  -1.143732e+002 
3909375000  -3.823340e+001  -1.224958e+002 
3912500000  -3.893715e+001  -1.319320e+002 
3915625000  -4.052320e+001  -1.315989e+002 
3918750000  -4.006037e+001  -1.351162e+002 
3921875000  -3.894980e+001  -1.373529e+002 
3925000000  -3.843754e+001  -1.432514e+002 
3928125000  -3.831240e+001  -1.518623e+002 
3931250000  -3.898899e+001  -1.595608e+002 
3934375000  -3.970813e+001  -1.597320e+002 
3937500000  -4.016950e+001  -1.631313e+002 
3940625000  -3.988163e+001  -1.648937e+002 
3943750000  -3.889135e+001  -1.677520e+002 
3946875000  -3.844705e+001  -1.774603e+002 
3950000000  -3.957247e+001  1.738186e+002 
3953125000  -4.007178e+001  1.747704e+002 
3956250000  -3.863749e+001  1.763650e+002 
3959375000  -3.788549e+001  1.685064e+002 
3962500000  -3.771972e+001  1.600517e+002 
3965625000  -3.781997e+001  1.509092e+002 
3968750000  -3.843214e+001  1.436986e+002 
3971875000  -3.846586e+001  1.387253e+002 
3975000000  -3.844125e+001  1.336964e+002 
3978125000  -3.844204e+001  1.287889e+002 
3981250000  -3.854232e+001  1.236224e+002 
3984375000  -3.921130e+001  1.153379e+002 
3987500000  -3.981517e+001  1.117411e+002 
3990625000  -4.001232e+001  1.105136e+002 
3993750000  -3.982434e+001  1.056206e+002 
3996875000  -3.996729e+001  1.007662e+002 
4000000000  -4.060583e+001  9.568952e+001 
4003125000  -4.092794e+001  9.976700e+001 
4006250000  -3.915478e+001  9.610483e+001 
4009375000  -3.871358e+001  8.121899e+001 
4012500000  -4.021673e+001  7.285085e+001 
4015625000  -4.144172e+001  7.177238e+001 
4018750000  -4.124598e+001  7.266584e+001 
4021875000  -4.054330e+001  7.071423e+001 
4025000000  -4.040476e+001  6.605065e+001 
4028125000  -4.058273e+001  5.514909e+001 
4031250000  -4.116347e+001  5.301596e+001 
4034375000  -4.165489e+001  5.171891e+001 
4037500000  -4.110021e+001  5.357294e+001 
4040625000  -4.089648e+001  4.896034e+001 
4043750000  -4.120990e+001  4.516542e+001 
4046875000  -4.079612e+001  4.065791e+001 
4050000000  -4.087820e+001  3.568888e+001 
4053125000  -4.139594e+001  3.427333e+001 
4056250000  -4.131076e+001  3.673940e+001 
4059375000  -3.939798e+001  3.581270e+001 
4062500000  -3.867370e+001  2.808570e+001 
4065625000  -3.882890e+001  2.143495e+001 
4068750000  -3.850983e+001  1.395335e+001 
4071875000  -3.801487e+001  4.457908e+000 
4075000000  -3.839063e+001  -2.097194e+000 
4078125000  -3.869520e+001  -7.410318e+000 
4081250000  -3.813580e+001  -1.098844e+001 
4084375000  -3.797243e+001  -1.989809e+001 
4087500000  -3.861676e+001  -2.678533e+001 
4090625000  -3.911892e+001  -2.707604e+001 
4093750000  -3.867009e+001  -3.104514e+001 
4096875000  -3.880085e+001  -4.126814e+001 
4100000000  -3.984733e+001  -4.953709e+001 
4103125000  -4.050364e+001  -4.479741e+001 
4106250000  -4.005887e+001  -4.230704e+001 
4109375000  -3.913897e+001  -4.645040e+001 
4112500000  -3.869531e+001  -5.569874e+001 
4115625000  -3.933075e+001  -6.290391e+001 
4118750000  -3.890660e+001  -6.790449e+001 
4121875000  -3.907214e+001  -7.502579e+001 
4125000000  -4.001140e+001  -8.196354e+001 
4128125000  -4.108951e+001  -7.890942e+001 
4131250000  -3.985043e+001  -7.339117e+001 
4134375000  -3.768917e+001  -8.479848e+001 
4137500000  -3.822154e+001  -1.033699e+002 
4140625000  -4.067960e+001  -1.106530e+002 
4143750000  -4.129411e+001  -1.034072e+002 
4146875000  -4.050530e+001  -1.013475e+002 
4150000000  -3.943174e+001  -1.080795e+002 
4153125000  -3.990550e+001  -1.171492e+002 
4156250000  -4.096461e+001  -1.227242e+002 
4159375000  -4.106153e+001  -1.154271e+002 
4162500000  -4.001845e+001  -1.113951e+002 
4165625000  -3.891043e+001  -1.219762e+002 
4168750000  -3.828708e+001  -1.312630e+002 
4171875000  -3.857582e+001  -1.384779e+002 
4175000000  -3.930453e+001  -1.474447e+002 
4178125000  -3.949135e+001  -1.478412e+002 
4181250000  -3.923241e+001  -1.516172e+002 
4184375000  -3.932833e+001  -1.550602e+002 
4187500000  -3.932849e+001  -1.615112e+002 
4190625000  -3.944165e+001  -1.680417e+002 
4193750000  -4.067310e+001  -1.743996e+002 
4196875000  -4.156309e+001  -1.751911e+002 
4200000000  -4.261833e+001  -1.657214e+002 
4203125000  -4.060506e+001  -1.572649e+002 
4206250000  -3.718898e+001  -1.668372e+002 
4209375000  -3.728696e+001  1.700571e+002 
4212500000  -3.977920e+001  1.620676e+002 
4215625000  -4.023951e+001  1.696290e+002 
4218750000  -3.847298e+001  1.728637e+002 
4221875000  -3.686858e+001  1.625053e+002 
4225000000  -3.812851e+001  1.514782e+002 
4228125000  -3.754353e+001  1.512087e+002 
4231250000  -3.652120e+001  1.431915e+002 
4234375000  -3.626625e+001  1.316886e+002 
4237500000  -3.629771e+001  1.283821e+002 
4240625000  -3.645049e+001  1.164646e+002 
4243750000  -3.765898e+001  1.067047e+002 
4246875000  -3.853867e+001  1.085574e+002 
4250000000  -3.836236e+001  1.085031e+002 
4253125000  -3.800547e+001  1.038861e+002 
4256250000  -3.820787e+001  1.002545e+002 
4259375000  -3.770103e+001  9.260432e+001 
4262500000  -3.802142e+001  8.901393e+001 
4265625000  -3.820689e+001  8.776676e+001 
4268750000  -3.682899e+001  7.952869e+001 
4271875000  -3.671362e+001  7.051012e+001 
4275000000  -3.652216e+001  6.210320e+001 
4278125000  -3.784265e+001  4.988820e+001 
4281250000  -3.897654e+001  4.926417e+001 
4284375000  -3.877039e+001  4.727505e+001 
4287500000  -4.032068e+001  4.383068e+001 
4290625000  -4.065958e+001  5.072028e+001 
4293750000  -3.857147e+001  5.273249e+001 
4296875000  -3.772683e+001  3.798514e+001 
4300000000  -3.909016e+001  2.921440e+001 
4303125000  -3.975605e+001  3.301675e+001 
4306250000  -3.846454e+001  3.455759e+001 
4309375000  -3.765985e+001  2.896341e+001 
4312500000  -3.766437e+001  1.763460e+001 
4315625000  -3.806063e+001  9.149734e+000 
4318750000  -3.871575e+001  5.866601e+000 
4321875000  -3.880451e+001  7.292387e+000 
4325000000  -3.817343e+001  6.303978e+000 
4328125000  -3.745908e+001  -4.650009e+000 
4331250000  -3.745924e+001  -1.466480e+001 
4334375000  -3.843654e+001  -2.189964e+001 
4337500000  -3.962848e+001  -2.358648e+001 
4340625000  -3.978475e+001  -1.873853e+001 
4343750000  -3.847224e+001  -2.218398e+001 
4346875000  -3.828489e+001  -2.916110e+001 
4350000000  -3.852500e+001  -3.764528e+001 
4353125000  -3.914375e+001  -4.590912e+001 
4356250000  -4.132349e+001  -4.296994e+001 
4359375000  -3.957161e+001  -2.598026e+001 
4362500000  -3.642176e+001  -3.501337e+001 
4365625000  -3.595469e+001  -5.327551e+001 
4368750000  -3.718785e+001  -6.497923e+001 
4371875000  -3.807695e+001  -6.292479e+001 
4375000000  -3.738182e+001  -6.809903e+001 
4378125000  -3.696117e+001  -7.539502e+001 
4381250000  -3.695415e+001  -8.323712e+001 
4384375000  -3.721435e+001  -9.067516e+001 
4387500000  -3.826899e+001  -9.491815e+001 
4390625000  -3.842556e+001  -9.620480e+001 
4393750000  -3.790174e+001  -9.472018e+001 
4396875000  -3.744717e+001  -1.012653e+002 
4400000000  -3.695187e+001  -1.109106e+002 
4403125000  -3.782811e+001  -1.211552e+002 
4406250000  -3.845099e+001  -1.227304e+002 
4409375000  -3.883219e+001  -1.280947e+002 
4412500000  -3.981453e+001  -1.293881e+002 
4415625000  -3.923843e+001  -1.257719e+002 
