!Agilent Technologies,E8363B,MY43030201,A.06.04.32
!Agilent E8363B: A.06.04.32
!Date: Tuesday, November 11, 2014 21:28:17
!Correction: S21(Response(S21)) 
!S1P File: Measurement: S21:
# Hz S  dB   R 50
3000000000  -4.053555e+001  9.163723e+001 
3003125000  -4.239005e+001  8.217797e+001 
3006250000  -4.227398e+001  8.203951e+001 
3009375000  -4.262982e+001  8.611676e+001 
3012500000  -4.152319e+001  8.224512e+001 
3015625000  -4.122443e+001  7.483331e+001 
3018750000  -4.170100e+001  7.475751e+001 
3021875000  -4.033190e+001  7.642099e+001 
3025000000  -3.881654e+001  7.265351e+001 
3028125000  -3.820643e+001  6.351873e+001 
3031250000  -3.704996e+001  5.159441e+001 
3034375000  -3.686374e+001  3.684807e+001 
3037500000  -3.752475e+001  2.624360e+001 
3040625000  -3.873887e+001  2.139464e+001 
3043750000  -3.930117e+001  1.372644e+001 
3046875000  -3.959327e+001  9.234900e+000 
3050000000  -4.091740e+001  3.386158e+000 
3053125000  -4.059383e+001  8.365967e+000 
3056250000  -4.036995e+001  1.111195e+001 
3059375000  -3.984827e+001  8.507100e+000 
3062500000  -3.836855e+001  4.092342e+000 
3065625000  -3.800323e+001  -5.048744e+000 
3068750000  -3.767305e+001  -1.262097e+001 
3071875000  -3.771043e+001  -1.649427e+001 
3075000000  -3.722485e+001  -2.223754e+001 
3078125000  -3.709149e+001  -2.808302e+001 
3081250000  -3.737273e+001  -3.433032e+001 
3084375000  -3.645940e+001  -3.921229e+001 
3087500000  -3.648018e+001  -4.516860e+001 
3090625000  -3.602002e+001  -5.724654e+001 
3093750000  -3.674496e+001  -6.562060e+001 
3096875000  -3.733608e+001  -7.186954e+001 
3100000000  -3.709325e+001  -7.490020e+001 
3103125000  -3.763741e+001  -7.711302e+001 
3106250000  -3.709226e+001  -8.274484e+001 
3109375000  -3.730147e+001  -8.686361e+001 
3112500000  -3.717911e+001  -9.204619e+001 
3115625000  -3.709931e+001  -9.606829e+001 
3118750000  -3.720602e+001  -9.923727e+001 
3121875000  -3.653195e+001  -1.108966e+002 
3125000000  -3.834309e+001  -1.141030e+002 
3128125000  -3.855366e+001  -1.074936e+002 
3131250000  -3.610995e+001  -1.121314e+002 
3134375000  -3.536249e+001  -1.299565e+002 
3137500000  -3.610120e+001  -1.419886e+002 
3140625000  -3.725097e+001  -1.448418e+002 
3143750000  -3.836791e+001  -1.465778e+002 
3146875000  -3.775554e+001  -1.448451e+002 
3150000000  -3.702131e+001  -1.488946e+002 
3153125000  -3.712806e+001  -1.570178e+002 
3156250000  -3.796904e+001  -1.539023e+002 
3159375000  -3.591402e+001  -1.546228e+002 
3162500000  -3.435391e+001  -1.702685e+002 
3165625000  -3.558797e+001  1.771720e+002 
3168750000  -3.546893e+001  1.764852e+002 
3171875000  -3.487418e+001  1.691050e+002 
3175000000  -3.550518e+001  1.593111e+002 
3178125000  -3.509975e+001  1.588256e+002 
3181250000  -3.436637e+001  1.502938e+002 
3184375000  -3.404908e+001  1.377553e+002 
3187500000  -3.535879e+001  1.225847e+002 
3190625000  -3.734566e+001  1.167544e+002 
3193750000  -3.752405e+001  1.229749e+002 
3196875000  -3.738486e+001  1.236259e+002 
3200000000  -3.642393e+001  1.187844e+002 
3203125000  -3.593821e+001  1.108837e+002 
3206250000  -3.611433e+001  1.034638e+002 
3209375000  -3.581819e+001  9.511884e+001 
3212500000  -3.629207e+001  8.789436e+001 
3215625000  -3.595193e+001  8.527856e+001 
3218750000  -3.682157e+001  7.474761e+001 
3221875000  -3.745940e+001  6.755232e+001 
3225000000  -3.704691e+001  6.368628e+001 
3228125000  -3.775880e+001  5.671479e+001 
3231250000  -3.836367e+001  5.426465e+001 
3234375000  -3.793761e+001  5.154968e+001 
3237500000  -3.806543e+001  4.773785e+001 
3240625000  -3.765749e+001  4.133463e+001 
3243750000  -3.768210e+001  3.229066e+001 
3246875000  -3.823289e+001  2.473577e+001 
3250000000  -3.876216e+001  2.104264e+001 
3253125000  -3.910477e+001  1.879979e+001 
3256250000  -3.872729e+001  9.255400e+000 
3259375000  -3.911758e+001  -2.962802e-001 
3262500000  -4.076365e+001  -5.259860e+000 
3265625000  -4.130791e+001  -1.946705e+000 
3268750000  -4.116335e+001  -8.690930e-001 
3271875000  -4.069489e+001  -4.855276e+000 
3275000000  -3.999933e+001  -1.263067e+001 
3278125000  -4.074891e+001  -1.802993e+001 
3281250000  -4.094242e+001  -1.884851e+001 
3284375000  -4.058485e+001  -2.615047e+001 
3287500000  -4.110294e+001  -2.993547e+001 
3290625000  -4.159903e+001  -3.545334e+001 
3293750000  -4.147289e+001  -4.129508e+001 
3296875000  -4.246936e+001  -4.312524e+001 
3300000000  -4.173784e+001  -4.379921e+001 
3303125000  -4.095607e+001  -5.070952e+001 
3306250000  -4.096955e+001  -5.665887e+001 
3309375000  -4.053866e+001  -6.517731e+001 
3312500000  -4.098269e+001  -7.687499e+001 
3315625000  -4.196746e+001  -8.400654e+001 
3318750000  -4.372149e+001  -8.823573e+001 
3321875000  -4.458284e+001  -8.466356e+001 
3325000000  -4.517505e+001  -7.926604e+001 
3328125000  -4.414866e+001  -7.882040e+001 
3331250000  -4.277954e+001  -7.677810e+001 
3334375000  -3.996678e+001  -9.037434e+001 
3337500000  -4.045415e+001  -1.095631e+002 
3340625000  -4.204008e+001  -1.220801e+002 
3343750000  -4.403072e+001  -1.190100e+002 
3346875000  -4.369541e+001  -1.205851e+002 
3350000000  -4.318886e+001  -1.228209e+002 
3353125000  -4.277399e+001  -1.306338e+002 
3356250000  -4.263793e+001  -1.389185e+002 
3359375000  -4.339901e+001  -1.475507e+002 
3362500000  -4.440684e+001  -1.552717e+002 
3365625000  -4.463927e+001  -1.597484e+002 
3368750000  -4.550219e+001  -1.636927e+002 
3371875000  -4.555328e+001  -1.676092e+002 
3375000000  -4.707182e+001  -1.728972e+002 
3378125000  -4.794682e+001  -1.730802e+002 
3381250000  -4.945949e+001  -1.614187e+002 
3384375000  -4.673594e+001  -1.466827e+002 
3387500000  -4.359277e+001  -1.653639e+002 
3390625000  -4.587747e+001  1.751645e+002 
3393750000  -4.686850e+001  1.705160e+002 
3396875000  -4.589654e+001  1.724877e+002 
3400000000  -4.587621e+001  1.613571e+002 
3403125000  -4.718056e+001  1.563068e+002 
3406250000  -4.769098e+001  1.529340e+002 
3409375000  -4.764278e+001  1.452556e+002 
3412500000  -4.888523e+001  1.373929e+002 
3415625000  -4.999630e+001  1.359629e+002 
3418750000  -4.988908e+001  1.351185e+002 
3421875000  -5.062599e+001  1.401625e+002 
3425000000  -5.065318e+001  1.399496e+002 
3428125000  -4.919423e+001  1.358924e+002 
3431250000  -4.983857e+001  1.274719e+002 
3434375000  -5.022465e+001  1.269428e+002 
3437500000  -5.145701e+001  1.220293e+002 
3440625000  -5.126495e+001  1.238403e+002 
3443750000  -5.034704e+001  1.289507e+002 
3446875000  -5.023684e+001  1.192923e+002 
3450000000  -5.025241e+001  1.122721e+002 
3453125000  -5.061974e+001  1.023893e+002 
3456250000  -5.136450e+001  1.008071e+002 
3459375000  -5.273188e+001  1.028249e+002 
3462500000  -5.208535e+001  1.050467e+002 
3465625000  -5.093734e+001  1.014442e+002 
3468750000  -5.124163e+001  9.888062e+001 
3471875000  -5.222461e+001  9.517470e+001 
3475000000  -5.081499e+001  9.343716e+001 
3478125000  -5.091242e+001  8.182431e+001 
3481250000  -5.167959e+001  8.206975e+001 
3484375000  -5.166851e+001  8.660363e+001 
3487500000  -5.181424e+001  8.352902e+001 
3490625000  -5.050542e+001  7.420671e+001 
3493750000  -5.153218e+001  6.780718e+001 
3496875000  -5.122536e+001  6.727002e+001 
3500000000  -5.168283e+001  6.311289e+001 
3503125000  -5.080428e+001  6.749079e+001 
3506250000  -5.014162e+001  5.874594e+001 
3509375000  -4.955256e+001  4.459508e+001 
3512500000  -4.995512e+001  3.389189e+001 
3515625000  -5.115776e+001  2.906473e+001 
3518750000  -5.184558e+001  3.120980e+001 
3521875000  -5.155815e+001  2.660066e+001 
3525000000  -5.381583e+001  1.448720e+001 
3528125000  -5.251395e+001  2.677869e+001 
3531250000  -5.246237e+001  1.584942e+001 
3534375000  -5.202402e+001  4.304296e+000 
3537500000  -5.219592e+001  1.381667e-001 
3540625000  -5.399006e+001  -6.322771e+000 
3543750000  -5.615915e+001  -4.669128e-001 
3546875000  -5.518835e+001  9.473482e+000 
3550000000  -5.247965e+001  1.058707e+001 
3553125000  -5.228826e+001  -3.982301e+000 
3556250000  -5.505056e+001  -1.998507e+001 
3559375000  -5.533004e+001  -2.322754e+001 
3562500000  -5.567672e+001  -2.557569e+001 
3565625000  -5.591732e+001  -3.233816e+001 
3568750000  -5.615300e+001  -1.802385e+001 
3571875000  -5.687126e+001  -1.843076e+001 
3575000000  -5.659379e+001  -3.233830e+001 
3578125000  -5.786827e+001  -3.021250e+001 
3581250000  -5.855404e+001  -2.388711e+001 
3584375000  -5.670089e+001  -2.239501e+001 
3587500000  -5.818504e+001  -2.505339e+001 
3590625000  -5.650846e+001  -2.909648e+001 
3593750000  -5.950817e+001  -4.259877e+001 
3596875000  -5.989743e+001  -3.061171e+001 
3600000000  -5.771722e+001  -1.257494e+001 
3603125000  -5.866878e+001  -4.357385e+001 
3606250000  -5.742936e+001  -3.938993e+001 
3609375000  -5.874826e+001  -2.978552e+001 
3612500000  -6.099535e+001  -2.936656e+001 
3615625000  -5.904163e+001  -4.007124e+001 
3618750000  -5.867546e+001  -3.069599e+001 
3621875000  -5.720604e+001  -3.022144e+001 
3625000000  -5.738095e+001  -2.927645e+001 
3628125000  -5.775471e+001  -1.805532e+001 
3631250000  -5.637407e+001  -2.788123e+001 
3634375000  -5.967473e+001  -3.248352e+001 
3637500000  -5.535260e+001  -2.078363e+001 
3640625000  -5.507239e+001  -2.386883e+001 
3643750000  -5.336610e+001  -2.934301e+001 
3646875000  -5.317364e+001  -3.942191e+001 
3650000000  -5.419586e+001  -3.993943e+001 
3653125000  -5.223318e+001  -3.951986e+001 
3656250000  -5.154677e+001  -4.504331e+001 
3659375000  -5.218756e+001  -4.968736e+001 
3662500000  -5.102018e+001  -5.100280e+001 
3665625000  -5.052447e+001  -5.314035e+001 
3668750000  -4.801179e+001  -5.249885e+001 
3671875000  -4.801015e+001  -6.664760e+001 
3675000000  -4.765947e+001  -7.530517e+001 
3678125000  -4.731087e+001  -7.230354e+001 
3681250000  -4.674719e+001  -8.224318e+001 
3684375000  -4.713325e+001  -8.619067e+001 
3687500000  -4.719440e+001  -9.242773e+001 
3690625000  -4.674139e+001  -9.995992e+001 
3693750000  -4.713037e+001  -1.012562e+002 
3696875000  -4.681639e+001  -9.830537e+001 
3700000000  -4.542538e+001  -1.062377e+002 
3703125000  -4.582156e+001  -1.106255e+002 
3706250000  -4.610063e+001  -1.131837e+002 
3709375000  -4.482138e+001  -1.129585e+002 
3712500000  -4.379616e+001  -1.157008e+002 
3715625000  -4.239673e+001  -1.247096e+002 
3718750000  -4.181850e+001  -1.315936e+002 
3721875000  -4.159055e+001  -1.427276e+002 
3725000000  -4.162007e+001  -1.485751e+002 
3728125000  -4.161283e+001  -1.524335e+002 
3731250000  -4.092485e+001  -1.569161e+002 
3734375000  -3.992863e+001  -1.637136e+002 
3737500000  -4.067120e+001  -1.734934e+002 
3740625000  -4.083212e+001  1.788011e+002 
3743750000  -4.067638e+001  1.747572e+002 
3746875000  -4.080598e+001  1.659035e+002 
3750000000  -4.091309e+001  1.633951e+002 
3753125000  -4.069623e+001  1.605542e+002 
3756250000  -4.076583e+001  1.552160e+002 
3759375000  -4.042413e+001  1.508504e+002 
3762500000  -4.015985e+001  1.444380e+002 
3765625000  -4.059826e+001  1.387095e+002 
3768750000  -4.012994e+001  1.387898e+002 
3771875000  -3.854729e+001  1.317076e+002 
3775000000  -3.854424e+001  1.200325e+002 
3778125000  -3.920374e+001  1.135608e+002 
3781250000  -3.898891e+001  1.095563e+002 
3784375000  -3.894533e+001  1.043795e+002 
3787500000  -3.851802e+001  9.733178e+001 
3790625000  -3.913528e+001  8.945222e+001 
3793750000  -3.929268e+001  8.505641e+001 
3796875000  -3.827527e+001  8.070443e+001 
3800000000  -3.651782e+001  7.827854e+001 
3803125000  -3.818773e+001  6.353140e+001 
3806250000  -3.872974e+001  5.948113e+001 
3809375000  -3.870089e+001  5.530638e+001 
3812500000  -3.859489e+001  4.662156e+001 
3815625000  -3.930254e+001  3.731109e+001 
3818750000  -4.067957e+001  3.568626e+001 
3821875000  -4.028017e+001  4.612916e+001 
3825000000  -3.817662e+001  4.335841e+001 
3828125000  -3.743209e+001  2.628863e+001 
3831250000  -3.806663e+001  1.218361e+001 
3834375000  -4.046841e+001  9.702993e+000 
3837500000  -4.056682e+001  1.534210e+001 
3840625000  -3.909407e+001  1.067899e+001 
3843750000  -3.842476e+001  -3.525461e+000 
3846875000  -3.980146e+001  -1.043193e+001 
3850000000  -4.056227e+001  -5.196169e+000 
3853125000  -4.029968e+001  -1.897894e+000 
3856250000  -3.949331e+001  -1.158540e+001 
3859375000  -3.864705e+001  -1.819528e+001 
3862500000  -3.859888e+001  -2.704350e+001 
3865625000  -3.908175e+001  -3.330936e+001 
3868750000  -3.886446e+001  -3.311485e+001 
3871875000  -3.806676e+001  -4.038457e+001 
3875000000  -3.864522e+001  -5.095979e+001 
3878125000  -3.950962e+001  -5.633429e+001 
3881250000  -3.908484e+001  -5.402839e+001 
3884375000  -3.885532e+001  -5.982829e+001 
3887500000  -3.907083e+001  -6.641505e+001 
3890625000  -3.936326e+001  -7.324256e+001 
3893750000  -3.989300e+001  -7.574405e+001 
3896875000  -3.989271e+001  -7.719503e+001 
3900000000  -3.967158e+001  -7.897030e+001 
3903125000  -3.934094e+001  -8.482116e+001 
3906250000  -3.901617e+001  -8.843308e+001 
3909375000  -3.799203e+001  -9.747237e+001 
3912500000  -3.880317e+001  -1.075798e+002 
3915625000  -4.043830e+001  -1.062995e+002 
3918750000  -4.001926e+001  -1.061185e+002 
3921875000  -3.942778e+001  -1.109437e+002 
3925000000  -3.828379e+001  -1.165849e+002 
3928125000  -3.805138e+001  -1.260317e+002 
3931250000  -3.914615e+001  -1.330021e+002 
3934375000  -3.933564e+001  -1.346800e+002 
3937500000  -3.992072e+001  -1.372637e+002 
3940625000  -3.979876e+001  -1.388436e+002 
3943750000  -3.893486e+001  -1.428247e+002 
3946875000  -3.853911e+001  -1.499065e+002 
3950000000  -3.941659e+001  -1.599646e+002 
3953125000  -3.987820e+001  -1.599314e+002 
3956250000  -3.895091e+001  -1.604875e+002 
3959375000  -3.785237e+001  -1.662802e+002 
3962500000  -3.761152e+001  -1.736602e+002 
3965625000  -3.769697e+001  1.780073e+002 
3968750000  -3.880194e+001  1.671900e+002 
3971875000  -3.871240e+001  1.637150e+002 
3975000000  -3.830833e+001  1.601526e+002 
3978125000  -3.822854e+001  1.547220e+002 
3981250000  -3.842038e+001  1.497999e+002 
3984375000  -3.897947e+001  1.408093e+002 
3987500000  -3.977938e+001  1.371630e+002 
3990625000  -4.000988e+001  1.364299e+002 
3993750000  -3.993985e+001  1.303228e+002 
3996875000  -3.992517e+001  1.263569e+002 
4000000000  -4.068008e+001  1.239173e+002 
4003125000  -4.085960e+001  1.249549e+002 
4006250000  -3.925266e+001  1.228480e+002 
4009375000  -3.852918e+001  1.074294e+002 
4012500000  -4.021889e+001  9.798972e+001 
4015625000  -4.140551e+001  9.904939e+001 
4018750000  -4.078831e+001  1.000876e+002 
4021875000  -4.082220e+001  9.466724e+001 
4025000000  -4.053877e+001  9.231111e+001 
4028125000  -4.041547e+001  8.510201e+001 
4031250000  -4.086727e+001  8.075796e+001 
4034375000  -4.147429e+001  7.792828e+001 
4037500000  -4.113919e+001  8.047956e+001 
4040625000  -4.077611e+001  7.640171e+001 
4043750000  -4.071583e+001  7.124495e+001 
4046875000  -4.059354e+001  6.966268e+001 
4050000000  -4.044149e+001  6.197303e+001 
4053125000  -4.074117e+001  5.937282e+001 
4056250000  -4.121949e+001  6.449988e+001 
4059375000  -3.952075e+001  6.032730e+001 
4062500000  -3.880286e+001  5.450885e+001 
4065625000  -3.887685e+001  4.965965e+001 
4068750000  -3.814769e+001  4.456619e+001 
4071875000  -3.735654e+001  3.185254e+001 
4075000000  -3.815300e+001  2.378161e+001 
4078125000  -3.847918e+001  2.185340e+001 
4081250000  -3.786726e+001  1.657389e+001 
4084375000  -3.770137e+001  7.093775e+000 
4087500000  -3.825724e+001  5.042090e-001 
4090625000  -3.902547e+001  -8.325523e-001 
4093750000  -3.833038e+001  -4.495266e+000 
4096875000  -3.851447e+001  -1.323881e+001 
4100000000  -3.920456e+001  -2.147897e+001 
4103125000  -4.040257e+001  -2.093359e+001 
4106250000  -3.969861e+001  -1.604145e+001 
4109375000  -3.896194e+001  -1.963855e+001 
4112500000  -3.832120e+001  -2.985091e+001 
4115625000  -3.904903e+001  -3.652787e+001 
4118750000  -3.885275e+001  -4.006835e+001 
4121875000  -3.868503e+001  -4.732267e+001 
4125000000  -3.933047e+001  -5.331362e+001 
4128125000  -4.047637e+001  -5.336072e+001 
4131250000  -3.977131e+001  -4.684141e+001 
4134375000  -3.742122e+001  -5.649701e+001 
4137500000  -3.763835e+001  -7.761227e+001 
4140625000  -4.004743e+001  -8.441546e+001 
4143750000  -4.114119e+001  -7.747599e+001 
4146875000  -4.019750e+001  -7.505217e+001 
4150000000  -3.961771e+001  -8.147358e+001 
4153125000  -3.951218e+001  -9.030788e+001 
4156250000  -4.086541e+001  -9.377832e+001 
4159375000  -4.095046e+001  -8.865809e+001 
4162500000  -3.973845e+001  -8.712463e+001 
4165625000  -3.846013e+001  -9.198778e+001 
4168750000  -3.810289e+001  -1.036089e+002 
4171875000  -3.794181e+001  -1.137035e+002 
4175000000  -3.918304e+001  -1.202540e+002 
4178125000  -3.905909e+001  -1.201336e+002 
4181250000  -3.937043e+001  -1.222638e+002 
4184375000  -3.937706e+001  -1.282493e+002 
4187500000  -3.940125e+001  -1.343271e+002 
4190625000  -3.932195e+001  -1.408092e+002 
4193750000  -4.044550e+001  -1.458818e+002 
4196875000  -4.128734e+001  -1.496795e+002 
4200000000  -4.229766e+001  -1.424755e+002 
4203125000  -4.117423e+001  -1.301951e+002 
4206250000  -3.758534e+001  -1.390599e+002 
4209375000  -3.714725e+001  -1.616523e+002 
4212500000  -3.967260e+001  -1.692309e+002 
4215625000  -4.022052e+001  -1.617658e+002 
4218750000  -3.807773e+001  -1.614778e+002 
4221875000  -3.643867e+001  -1.717955e+002 
4225000000  -3.786937e+001  1.771132e+002 
4228125000  -3.792679e+001  1.775965e+002 
4231250000  -3.608068e+001  1.706519e+002 
4234375000  -3.585703e+001  1.614267e+002 
4237500000  -3.585412e+001  1.549847e+002 
4240625000  -3.603579e+001  1.449398e+002 
4243750000  -3.702909e+001  1.376269e+002 
4246875000  -3.809838e+001  1.366431e+002 
4250000000  -3.788380e+001  1.348040e+002 
4253125000  -3.783319e+001  1.322397e+002 
4256250000  -3.803384e+001  1.275829e+002 
4259375000  -3.758883e+001  1.204459e+002 
4262500000  -3.736893e+001  1.150686e+002 
4265625000  -3.746117e+001  1.148361e+002 
4268750000  -3.667260e+001  1.092908e+002 
4271875000  -3.623112e+001  9.876766e+001 
4275000000  -3.588578e+001  8.954141e+001 
4278125000  -3.719566e+001  7.923637e+001 
4281250000  -3.908810e+001  7.677605e+001 
4284375000  -3.858729e+001  7.420495e+001 
4287500000  -4.017731e+001  6.984715e+001 
4290625000  -4.062421e+001  7.658465e+001 
4293750000  -3.842451e+001  7.935570e+001 
4296875000  -3.709330e+001  6.678615e+001 
4300000000  -3.855028e+001  5.393800e+001 
4303125000  -3.938047e+001  5.798417e+001 
4306250000  -3.796949e+001  6.107634e+001 
4309375000  -3.698218e+001  5.543964e+001 
4312500000  -3.714798e+001  4.649009e+001 
4315625000  -3.756968e+001  3.661746e+001 
4318750000  -3.841136e+001  3.203099e+001 
4321875000  -3.823795e+001  3.375799e+001 
4325000000  -3.753035e+001  3.182419e+001 
4328125000  -3.672662e+001  2.123437e+001 
4331250000  -3.697600e+001  1.082091e+001 
4334375000  -3.778451e+001  5.030352e+000 
4337500000  -3.888216e+001  4.030741e+000 
4340625000  -3.892347e+001  6.054538e+000 
4343750000  -3.793805e+001  4.479982e+000 
4346875000  -3.771732e+001  -2.766207e+000 
4350000000  -3.768571e+001  -1.217747e+001 
4353125000  -3.798523e+001  -2.042602e+001 
4356250000  -4.058714e+001  -1.854779e+001 
4359375000  -3.951007e+001  -4.705834e+000 
4362500000  -3.618582e+001  -8.885299e+000 
4365625000  -3.564835e+001  -2.661101e+001 
4368750000  -3.649872e+001  -3.590211e+001 
4371875000  -3.754950e+001  -3.784892e+001 
4375000000  -3.707158e+001  -4.097415e+001 
4378125000  -3.625555e+001  -4.908046e+001 
4381250000  -3.660051e+001  -5.596157e+001 
4384375000  -3.671889e+001  -6.410415e+001 
4387500000  -3.760843e+001  -6.890099e+001 
4390625000  -3.801654e+001  -7.065457e+001 
4393750000  -3.758530e+001  -7.003809e+001 
4396875000  -3.682627e+001  -7.605935e+001 
4400000000  -3.636901e+001  -8.399387e+001 
4403125000  -3.718937e+001  -9.481160e+001 
4406250000  -3.784004e+001  -9.666776e+001 
4409375000  -3.798359e+001  -1.002850e+002 
4412500000  -3.900980e+001  -1.054996e+002 
4415625000  -3.909865e+001  -1.001607e+002 
