!Agilent Technologies,E8363B,MY43030201,A.06.04.32
!Agilent E8363B: A.06.04.32
!Date: Tuesday, November 11, 2014 21:31:15
!Correction: S21(Response(S21)) 
!S1P File: Measurement: S21:
# Hz S  dB   R 50
3000000000  -4.066716e+001  8.137650e+001 
3003125000  -4.214541e+001  7.270818e+001 
3006250000  -4.207820e+001  7.221171e+001 
3009375000  -4.272324e+001  7.754317e+001 
3012500000  -4.166391e+001  7.262139e+001 
3015625000  -4.129192e+001  6.623297e+001 
3018750000  -4.188442e+001  6.647565e+001 
3021875000  -4.039338e+001  6.868386e+001 
3025000000  -3.888686e+001  6.250079e+001 
3028125000  -3.808852e+001  5.377442e+001 
3031250000  -3.699142e+001  4.160929e+001 
3034375000  -3.670675e+001  2.811802e+001 
3037500000  -3.758836e+001  1.712647e+001 
3040625000  -3.882775e+001  1.117074e+001 
3043750000  -3.921798e+001  5.144419e+000 
3046875000  -3.995108e+001  -1.582563e+000 
3050000000  -4.098858e+001  -5.288640e+000 
3053125000  -4.059090e+001  -2.363763e+000 
3056250000  -4.043757e+001  2.114263e+000 
3059375000  -3.982055e+001  -7.363168e-001 
3062500000  -3.822763e+001  -4.443223e+000 
3065625000  -3.784285e+001  -1.456866e+001 
3068750000  -3.756529e+001  -2.238264e+001 
3071875000  -3.770135e+001  -2.435214e+001 
3075000000  -3.710262e+001  -3.098436e+001 
3078125000  -3.715946e+001  -3.785976e+001 
3081250000  -3.731165e+001  -4.381026e+001 
3084375000  -3.632423e+001  -4.799929e+001 
3087500000  -3.645848e+001  -5.554603e+001 
3090625000  -3.593280e+001  -6.681802e+001 
3093750000  -3.695955e+001  -7.465924e+001 
3096875000  -3.740706e+001  -8.083213e+001 
3100000000  -3.714032e+001  -8.298908e+001 
3103125000  -3.758279e+001  -8.642586e+001 
3106250000  -3.719113e+001  -9.229346e+001 
3109375000  -3.730687e+001  -9.653338e+001 
3112500000  -3.719089e+001  -1.020555e+002 
3115625000  -3.709908e+001  -1.064213e+002 
3118750000  -3.731193e+001  -1.085505e+002 
3121875000  -3.657103e+001  -1.209180e+002 
3125000000  -3.850500e+001  -1.236994e+002 
3128125000  -3.840191e+001  -1.161478e+002 
3131250000  -3.622216e+001  -1.220594e+002 
3134375000  -3.544698e+001  -1.385377e+002 
3137500000  -3.619807e+001  -1.510531e+002 
3140625000  -3.742751e+001  -1.543572e+002 
3143750000  -3.815615e+001  -1.566178e+002 
3146875000  -3.765842e+001  -1.549156e+002 
3150000000  -3.695928e+001  -1.582736e+002 
3153125000  -3.722769e+001  -1.670069e+002 
3156250000  -3.797313e+001  -1.628274e+002 
3159375000  -3.577207e+001  -1.640876e+002 
3162500000  -3.421830e+001  -1.798656e+002 
3165625000  -3.541423e+001  1.675441e+002 
3168750000  -3.547190e+001  1.664536e+002 
3171875000  -3.498703e+001  1.590117e+002 
3175000000  -3.553881e+001  1.495151e+002 
3178125000  -3.501200e+001  1.482308e+002 
3181250000  -3.440605e+001  1.408228e+002 
3184375000  -3.419361e+001  1.283681e+002 
3187500000  -3.528422e+001  1.135591e+002 
3190625000  -3.729050e+001  1.061704e+002 
3193750000  -3.760497e+001  1.135643e+002 
3196875000  -3.736938e+001  1.133558e+002 
3200000000  -3.605414e+001  1.090413e+002 
3203125000  -3.585083e+001  1.003470e+002 
3206250000  -3.629663e+001  9.303770e+001 
3209375000  -3.575609e+001  8.598086e+001 
3212500000  -3.635490e+001  7.925677e+001 
3215625000  -3.603403e+001  7.566692e+001 
3218750000  -3.693806e+001  6.482948e+001 
3221875000  -3.733075e+001  5.828048e+001 
3225000000  -3.705490e+001  5.375207e+001 
3228125000  -3.777755e+001  4.702480e+001 
3231250000  -3.830234e+001  4.516090e+001 
3234375000  -3.787359e+001  4.176507e+001 
3237500000  -3.805324e+001  3.844180e+001 
3240625000  -3.764077e+001  3.254303e+001 
3243750000  -3.758461e+001  2.278211e+001 
3246875000  -3.805635e+001  1.508981e+001 
3250000000  -3.879712e+001  1.140456e+001 
3253125000  -3.897483e+001  8.702173e+000 
3256250000  -3.861300e+001  -6.050083e-002 
3259375000  -3.918708e+001  -1.073896e+001 
3262500000  -4.070325e+001  -1.489198e+001 
3265625000  -4.103690e+001  -1.091664e+001 
3268750000  -4.118182e+001  -1.023499e+001 
3271875000  -4.041276e+001  -1.517452e+001 
3275000000  -4.003527e+001  -2.230396e+001 
3278125000  -4.072234e+001  -2.776353e+001 
3281250000  -4.115270e+001  -2.816849e+001 
3284375000  -4.060985e+001  -3.516525e+001 
3287500000  -4.095541e+001  -4.054164e+001 
3290625000  -4.116426e+001  -4.726939e+001 
3293750000  -4.128294e+001  -5.176534e+001 
3296875000  -4.240232e+001  -5.416099e+001 
3300000000  -4.175674e+001  -5.366946e+001 
3303125000  -4.112717e+001  -6.111324e+001 
3306250000  -4.066301e+001  -6.796358e+001 
3309375000  -4.051824e+001  -7.432396e+001 
3312500000  -4.093397e+001  -8.668520e+001 
3315625000  -4.218230e+001  -9.310226e+001 
3318750000  -4.366692e+001  -9.697124e+001 
3321875000  -4.499257e+001  -9.426457e+001 
3325000000  -4.487820e+001  -8.995924e+001 
3328125000  -4.372396e+001  -9.074852e+001 
3331250000  -4.205971e+001  -8.526955e+001 
3334375000  -3.980269e+001  -1.009956e+002 
3337500000  -4.034905e+001  -1.211637e+002 
3340625000  -4.204993e+001  -1.306333e+002 
3343750000  -4.396609e+001  -1.292575e+002 
3346875000  -4.336768e+001  -1.299435e+002 
3350000000  -4.318203e+001  -1.337176e+002 
3353125000  -4.293072e+001  -1.408045e+002 
3356250000  -4.253691e+001  -1.494804e+002 
3359375000  -4.342020e+001  -1.587175e+002 
3362500000  -4.413807e+001  -1.661186e+002 
3365625000  -4.479254e+001  -1.674008e+002 
3368750000  -4.533481e+001  -1.741121e+002 
3371875000  -4.576136e+001  -1.762235e+002 
3375000000  -4.713758e+001  1.778936e+002 
3378125000  -4.777643e+001  1.772066e+002 
3381250000  -4.941606e+001  -1.699271e+002 
3384375000  -4.640011e+001  -1.581867e+002 
3387500000  -4.387331e+001  -1.780364e+002 
3390625000  -4.596005e+001  1.583456e+002 
3393750000  -4.714074e+001  1.657703e+002 
3396875000  -4.596708e+001  1.640254e+002 
3400000000  -4.603474e+001  1.491212e+002 
3403125000  -4.689208e+001  1.450998e+002 
3406250000  -4.779847e+001  1.397575e+002 
3409375000  -4.806339e+001  1.332149e+002 
3412500000  -4.880864e+001  1.303504e+002 
3415625000  -5.053120e+001  1.273451e+002 
3418750000  -5.013971e+001  1.324730e+002 
3421875000  -5.145182e+001  1.313815e+002 
3425000000  -4.988671e+001  1.309566e+002 
3428125000  -4.953300e+001  1.243498e+002 
3431250000  -4.971449e+001  1.161083e+002 
3434375000  -5.040090e+001  1.167374e+002 
3437500000  -5.170208e+001  1.194942e+002 
3440625000  -5.135966e+001  1.150261e+002 
3443750000  -5.073947e+001  1.162166e+002 
3446875000  -4.997055e+001  1.089040e+002 
3450000000  -4.926654e+001  9.957187e+001 
3453125000  -5.090977e+001  9.155515e+001 
3456250000  -5.150312e+001  9.234666e+001 
3459375000  -5.251458e+001  9.288638e+001 
3462500000  -5.191429e+001  9.748835e+001 
3465625000  -5.106456e+001  8.780499e+001 
3468750000  -5.165783e+001  8.946644e+001 
3471875000  -5.129087e+001  8.572475e+001 
3475000000  -5.052662e+001  7.927091e+001 
3478125000  -5.051083e+001  6.994169e+001 
3481250000  -5.177504e+001  7.980488e+001 
3484375000  -5.197240e+001  7.856944e+001 
3487500000  -5.075055e+001  7.209564e+001 
3490625000  -5.025144e+001  6.330122e+001 
3493750000  -5.079443e+001  5.790446e+001 
3496875000  -5.151314e+001  5.535560e+001 
3500000000  -5.170056e+001  5.607031e+001 
3503125000  -5.016752e+001  5.273901e+001 
3506250000  -5.024501e+001  4.801041e+001 
3509375000  -4.908688e+001  3.365780e+001 
3512500000  -4.972233e+001  1.948955e+001 
3515625000  -5.121267e+001  2.084365e+001 
3518750000  -5.137541e+001  1.466399e+001 
3521875000  -5.131966e+001  1.164993e+001 
3525000000  -5.279593e+001  5.387391e+000 
3528125000  -5.202753e+001  1.490850e+001 
3531250000  -5.149400e+001  7.661528e+000 
3534375000  -5.178380e+001  -4.823726e+000 
3537500000  -5.325547e+001  -1.727853e+001 
3540625000  -5.372980e+001  -1.677770e+001 
3543750000  -5.559386e+001  -1.413144e+001 
3546875000  -5.472805e+001  -8.964033e-001 
3550000000  -5.333683e+001  -8.780533e+000 
3553125000  -5.378231e+001  -2.054416e+001 
3556250000  -5.460446e+001  -2.938359e+001 
3559375000  -5.588146e+001  -2.283374e+001 
3562500000  -5.515254e+001  -4.356220e+001 
3565625000  -5.752906e+001  -3.905756e+001 
3568750000  -5.729101e+001  -3.192433e+001 
3571875000  -5.703460e+001  -3.311637e+001 
3575000000  -5.892390e+001  -3.570393e+001 
3578125000  -5.956416e+001  -2.800373e+001 
3581250000  -5.679156e+001  -3.964626e+001 
3584375000  -5.820757e+001  -2.474398e+001 
3587500000  -5.618960e+001  -4.681980e+001 
3590625000  -5.662149e+001  -4.761983e+001 
3593750000  -5.886312e+001  -4.300954e+001 
3596875000  -5.643789e+001  -4.836814e+001 
3600000000  -5.626880e+001  -3.334932e+001 
3603125000  -5.855235e+001  -5.584673e+001 
3606250000  -5.970749e+001  -4.949820e+001 
3609375000  -5.784665e+001  -4.480146e+001 
3612500000  -5.966570e+001  -4.369085e+001 
3615625000  -6.024029e+001  -4.793328e+001 
3618750000  -5.858070e+001  -3.874694e+001 
3621875000  -5.730033e+001  -4.115122e+001 
3625000000  -5.693359e+001  -4.382848e+001 
3628125000  -5.667368e+001  -3.927539e+001 
3631250000  -5.721318e+001  -4.008448e+001 
3634375000  -5.676431e+001  -3.451971e+001 
3637500000  -5.718620e+001  -3.207819e+001 
3640625000  -5.513256e+001  -3.020331e+001 
3643750000  -5.405501e+001  -3.771711e+001 
3646875000  -5.294482e+001  -4.728235e+001 
3650000000  -5.324080e+001  -5.105233e+001 
3653125000  -5.214560e+001  -5.773634e+001 
3656250000  -5.261934e+001  -5.129184e+001 
3659375000  -5.153345e+001  -5.819586e+001 
3662500000  -5.104234e+001  -6.314587e+001 
3665625000  -5.000996e+001  -6.351863e+001 
3668750000  -4.925491e+001  -6.340023e+001 
3671875000  -4.755607e+001  -8.002763e+001 
3675000000  -4.754363e+001  -8.250096e+001 
3678125000  -4.752053e+001  -8.734348e+001 
3681250000  -4.675388e+001  -9.283208e+001 
3684375000  -4.681120e+001  -9.325649e+001 
3687500000  -4.697616e+001  -1.013817e+002 
3690625000  -4.684072e+001  -1.103750e+002 
3693750000  -4.725572e+001  -1.081952e+002 
3696875000  -4.615967e+001  -1.073206e+002 
3700000000  -4.560106e+001  -1.178664e+002 
3703125000  -4.531612e+001  -1.214393e+002 
3706250000  -4.596461e+001  -1.237927e+002 
3709375000  -4.492603e+001  -1.219967e+002 
3712500000  -4.379718e+001  -1.274074e+002 
3715625000  -4.224843e+001  -1.374873e+002 
3718750000  -4.210712e+001  -1.430523e+002 
3721875000  -4.124728e+001  -1.547935e+002 
3725000000  -4.196991e+001  -1.604436e+002 
3728125000  -4.141901e+001  -1.633552e+002 
3731250000  -4.070445e+001  -1.690139e+002 
3734375000  -4.047348e+001  -1.759894e+002 
3737500000  -4.076123e+001  1.737142e+002 
3740625000  -4.083524e+001  1.683477e+002 
3743750000  -4.094403e+001  1.615146e+002 
3746875000  -4.090427e+001  1.555157e+002 
3750000000  -4.108290e+001  1.507008e+002 
3753125000  -4.072363e+001  1.466261e+002 
3756250000  -4.089044e+001  1.431118e+002 
3759375000  -4.042402e+001  1.385036e+002 
3762500000  -4.008680e+001  1.317517e+002 
3765625000  -4.067937e+001  1.289582e+002 
3768750000  -4.019502e+001  1.271644e+002 
3771875000  -3.853441e+001  1.185422e+002 
3775000000  -3.852747e+001  1.088902e+002 
3778125000  -3.890909e+001  1.021487e+002 
3781250000  -3.892411e+001  9.877946e+001 
3784375000  -3.895511e+001  9.259265e+001 
3787500000  -3.866302e+001  8.579059e+001 
3790625000  -3.911160e+001  7.738356e+001 
3793750000  -3.934862e+001  7.380441e+001 
3796875000  -3.831283e+001  7.000136e+001 
3800000000  -3.656035e+001  6.602249e+001 
3803125000  -3.799425e+001  5.282615e+001 
3806250000  -3.894255e+001  4.747872e+001 
3809375000  -3.838274e+001  4.393409e+001 
3812500000  -3.854818e+001  3.417641e+001 
3815625000  -3.956190e+001  2.579325e+001 
3818750000  -4.095523e+001  2.753109e+001 
3821875000  -4.011393e+001  3.573426e+001 
3825000000  -3.834191e+001  3.333123e+001 
3828125000  -3.696464e+001  1.190284e+001 
3831250000  -3.810658e+001  2.852202e-001 
3834375000  -4.022567e+001  -2.877195e+000 
3837500000  -4.066323e+001  2.462885e+000 
3840625000  -3.926490e+001  -9.197845e-002 
3843750000  -3.837357e+001  -1.595960e+001 
3846875000  -3.978045e+001  -2.159241e+001 
3850000000  -4.067946e+001  -1.636639e+001 
3853125000  -3.995272e+001  -1.362561e+001 
3856250000  -3.956843e+001  -2.177299e+001 
3859375000  -3.871967e+001  -3.033225e+001 
3862500000  -3.846723e+001  -4.062406e+001 
3865625000  -3.894274e+001  -4.391948e+001 
3868750000  -3.874408e+001  -4.514663e+001 
3871875000  -3.798885e+001  -5.272562e+001 
3875000000  -3.873572e+001  -6.261967e+001 
3878125000  -3.931575e+001  -6.595683e+001 
3881250000  -3.935476e+001  -6.604532e+001 
3884375000  -3.852330e+001  -7.318750e+001 
3887500000  -3.885186e+001  -7.979411e+001 
3890625000  -3.952763e+001  -8.480880e+001 
3893750000  -3.982621e+001  -8.509704e+001 
3896875000  -3.987071e+001  -9.058441e+001 
3900000000  -3.996257e+001  -9.306431e+001 
3903125000  -3.917195e+001  -9.779323e+001 
3906250000  -3.877404e+001  -9.979860e+001 
3909375000  -3.813023e+001  -1.094781e+002 
3912500000  -3.900005e+001  -1.197197e+002 
3915625000  -4.042460e+001  -1.186527e+002 
3918750000  -4.005070e+001  -1.194570e+002 
3921875000  -3.922760e+001  -1.232118e+002 
3925000000  -3.851445e+001  -1.287947e+002 
3928125000  -3.807649e+001  -1.384462e+002 
3931250000  -3.904737e+001  -1.459692e+002 
3934375000  -3.929901e+001  -1.472698e+002 
3937500000  -3.991630e+001  -1.502175e+002 
3940625000  -3.978697e+001  -1.502835e+002 
3943750000  -3.877890e+001  -1.540206e+002 
3946875000  -3.866508e+001  -1.630753e+002 
3950000000  -3.920484e+001  -1.706776e+002 
3953125000  -4.016845e+001  -1.715032e+002 
3956250000  -3.883554e+001  -1.709492e+002 
3959375000  -3.774523e+001  -1.765759e+002 
3962500000  -3.769696e+001  1.745368e+002 
3965625000  -3.770510e+001  1.637697e+002 
3968750000  -3.867956e+001  1.572405e+002 
3971875000  -3.849185e+001  1.508421e+002 
3975000000  -3.840509e+001  1.480738e+002 
3978125000  -3.859663e+001  1.445457e+002 
3981250000  -3.845469e+001  1.363561e+002 
3984375000  -3.892072e+001  1.282800e+002 
3987500000  -3.972080e+001  1.268119e+002 
3990625000  -3.991975e+001  1.241346e+002 
3993750000  -3.987624e+001  1.204265e+002 
3996875000  -3.970750e+001  1.138453e+002 
4000000000  -4.040378e+001  1.110927e+002 
4003125000  -4.093377e+001  1.131699e+002 
4006250000  -3.936577e+001  1.116675e+002 
4009375000  -3.829796e+001  9.619424e+001 
4012500000  -4.009578e+001  8.679706e+001 
4015625000  -4.130852e+001  8.972118e+001 
4018750000  -4.137291e+001  8.669951e+001 
4021875000  -4.071835e+001  8.678467e+001 
4025000000  -4.016936e+001  7.840099e+001 
4028125000  -4.016662e+001  7.162358e+001 
4031250000  -4.093209e+001  6.802112e+001 
4034375000  -4.130294e+001  6.645988e+001 
4037500000  -4.064879e+001  6.705286e+001 
4040625000  -4.108473e+001  6.015677e+001 
4043750000  -4.099434e+001  5.878952e+001 
4046875000  -4.037487e+001  5.498185e+001 
4050000000  -4.038721e+001  5.161585e+001 
4053125000  -4.092890e+001  4.758958e+001 
4056250000  -4.133047e+001  5.169173e+001 
4059375000  -3.919130e+001  4.936646e+001 
4062500000  -3.855996e+001  4.158338e+001 
4065625000  -3.894216e+001  3.615680e+001 
4068750000  -3.798404e+001  3.038024e+001 
4071875000  -3.780170e+001  1.932100e+001 
4075000000  -3.816995e+001  1.117307e+001 
4078125000  -3.849873e+001  7.910233e+000 
4081250000  -3.793223e+001  3.443059e+000 
4084375000  -3.761386e+001  -5.676359e+000 
4087500000  -3.843922e+001  -1.124673e+001 
4090625000  -3.887847e+001  -1.540013e+001 
4093750000  -3.834256e+001  -1.687859e+001 
4096875000  -3.851120e+001  -2.681364e+001 
4100000000  -3.939335e+001  -3.399500e+001 
4103125000  -4.034666e+001  -3.183586e+001 
4106250000  -3.969995e+001  -2.857596e+001 
4109375000  -3.876575e+001  -3.264442e+001 
4112500000  -3.830169e+001  -4.147440e+001 
4115625000  -3.883340e+001  -4.904313e+001 
4118750000  -3.869108e+001  -5.266948e+001 
4121875000  -3.875253e+001  -6.025163e+001 
4125000000  -3.951617e+001  -6.602696e+001 
4128125000  -4.041042e+001  -6.469118e+001 
4131250000  -3.958466e+001  -5.805384e+001 
4134375000  -3.723299e+001  -6.854788e+001 
4137500000  -3.803852e+001  -8.958614e+001 
4140625000  -3.998134e+001  -9.780073e+001 
4143750000  -4.115021e+001  -8.908852e+001 
4146875000  -4.024679e+001  -8.637110e+001 
4150000000  -3.898194e+001  -9.353000e+001 
4153125000  -3.958925e+001  -1.029222e+002 
4156250000  -4.058212e+001  -1.049096e+002 
4159375000  -4.080993e+001  -1.018576e+002 
4162500000  -3.960798e+001  -9.850652e+001 
4165625000  -3.837117e+001  -1.072794e+002 
4168750000  -3.792682e+001  -1.168897e+002 
4171875000  -3.822792e+001  -1.267594e+002 
4175000000  -3.861390e+001  -1.312420e+002 
4178125000  -3.932670e+001  -1.337910e+002 
4181250000  -3.882822e+001  -1.373546e+002 
4184375000  -3.903251e+001  -1.423574e+002 
4187500000  -3.893645e+001  -1.471988e+002 
4190625000  -3.904099e+001  -1.547238e+002 
4193750000  -4.009592e+001  -1.604794e+002 
4196875000  -4.094781e+001  -1.598376e+002 
4200000000  -4.197408e+001  -1.532689e+002 
4203125000  -4.049640e+001  -1.439176e+002 
4206250000  -3.721051e+001  -1.505597e+002 
4209375000  -3.688411e+001  -1.750073e+002 
4212500000  -3.915182e+001  1.786465e+002 
4215625000  -3.947002e+001  -1.756978e+002 
4218750000  -3.784982e+001  -1.737603e+002 
4221875000  -3.585650e+001  1.769156e+002 
4225000000  -3.721691e+001  1.636095e+002 
4228125000  -3.734849e+001  1.655787e+002 
4231250000  -3.583471e+001  1.575187e+002 
4234375000  -3.601719e+001  1.461566e+002 
4237500000  -3.560348e+001  1.426647e+002 
4240625000  -3.602809e+001  1.314543e+002 
4243750000  -3.704964e+001  1.222563e+002 
4246875000  -3.804037e+001  1.208480e+002 
4250000000  -3.760793e+001  1.206422e+002 
4253125000  -3.761586e+001  1.200435e+002 
4256250000  -3.752925e+001  1.145004e+002 
4259375000  -3.718168e+001  1.085025e+002 
4262500000  -3.746724e+001  1.029454e+002 
4265625000  -3.742189e+001  1.001504e+002 
4268750000  -3.623892e+001  9.511774e+001 
4271875000  -3.634821e+001  8.411443e+001 
4275000000  -3.586047e+001  7.684705e+001 
4278125000  -3.704338e+001  6.411136e+001 
4281250000  -3.858695e+001  6.212435e+001 
4284375000  -3.804011e+001  6.077235e+001 
4287500000  -3.960632e+001  5.603889e+001 
4290625000  -4.009395e+001  6.547102e+001 
4293750000  -3.839229e+001  6.553041e+001 
4296875000  -3.725993e+001  5.348859e+001 
4300000000  -3.851503e+001  4.197444e+001 
4303125000  -3.916607e+001  4.701573e+001 
4306250000  -3.817249e+001  4.773044e+001 
4309375000  -3.697341e+001  4.106513e+001 
4312500000  -3.712330e+001  2.955437e+001 
4315625000  -3.730819e+001  2.257790e+001 
4318750000  -3.806507e+001  1.923914e+001 
4321875000  -3.797883e+001  1.951346e+001 
4325000000  -3.749027e+001  1.703313e+001 
4328125000  -3.668374e+001  7.871311e+000 
4331250000  -3.723079e+001  -2.224963e+000 
4334375000  -3.777607e+001  -8.761329e+000 
4337500000  -3.879931e+001  -1.000554e+001 
4340625000  -3.887410e+001  -6.454621e+000 
4343750000  -3.804302e+001  -7.866910e+000 
4346875000  -3.778815e+001  -1.767871e+001 
4350000000  -3.785308e+001  -2.601627e+001 
4353125000  -3.802538e+001  -3.344742e+001 
4356250000  -4.027047e+001  -3.030212e+001 
4359375000  -3.953134e+001  -1.554346e+001 
4362500000  -3.617933e+001  -2.168386e+001 
4365625000  -3.533688e+001  -4.044291e+001 
4368750000  -3.677131e+001  -5.110394e+001 
4371875000  -3.743297e+001  -4.875653e+001 
4375000000  -3.683367e+001  -5.385664e+001 
4378125000  -3.634628e+001  -6.396674e+001 
4381250000  -3.672379e+001  -6.955282e+001 
4384375000  -3.656072e+001  -7.738866e+001 
4387500000  -3.739284e+001  -8.340040e+001 
4390625000  -3.790886e+001  -8.351321e+001 
4393750000  -3.748386e+001  -8.127335e+001 
4396875000  -3.674627e+001  -8.939017e+001 
4400000000  -3.634685e+001  -9.835151e+001 
4403125000  -3.717938e+001  -1.066212e+002 
4406250000  -3.786400e+001  -1.100860e+002 
4409375000  -3.779721e+001  -1.149328e+002 
4412500000  -3.905364e+001  -1.187812e+002 
4415625000  -3.890068e+001  -1.122929e+002 
