!Agilent Technologies,E8363B,MY43030201,A.06.04.32
!Agilent E8363B: A.06.04.32
!Date: Tuesday, November 11, 2014 21:31:52
!Correction: S21(Response(S21)) 
!S1P File: Measurement: S21:
# Hz S  dB   R 50
3000000000  -4.054708e+001  7.928143e+001 
3003125000  -4.204218e+001  7.147187e+001 
3006250000  -4.226094e+001  7.200694e+001 
3009375000  -4.264311e+001  7.446887e+001 
3012500000  -4.144949e+001  7.035559e+001 
3015625000  -4.128979e+001  6.334024e+001 
3018750000  -4.165004e+001  6.443317e+001 
3021875000  -4.023473e+001  6.580800e+001 
3025000000  -3.891154e+001  6.095906e+001 
3028125000  -3.784403e+001  5.074014e+001 
3031250000  -3.689880e+001  3.907510e+001 
3034375000  -3.665422e+001  2.530943e+001 
3037500000  -3.754351e+001  1.394210e+001 
3040625000  -3.866891e+001  9.136875e+000 
3043750000  -3.938295e+001  3.137446e+000 
3046875000  -3.975291e+001  -1.690068e+000 
3050000000  -4.105343e+001  -8.207417e+000 
3053125000  -4.054717e+001  -2.457020e+000 
3056250000  -4.037715e+001  -7.701524e-001 
3059375000  -3.967336e+001  -2.243482e+000 
3062500000  -3.817302e+001  -7.977756e+000 
3065625000  -3.798869e+001  -1.655392e+001 
3068750000  -3.747576e+001  -2.455572e+001 
3071875000  -3.753842e+001  -2.600126e+001 
3075000000  -3.706043e+001  -3.295774e+001 
3078125000  -3.699110e+001  -3.929284e+001 
3081250000  -3.732708e+001  -4.524815e+001 
3084375000  -3.635966e+001  -5.022493e+001 
3087500000  -3.632801e+001  -5.794539e+001 
3090625000  -3.591751e+001  -6.965826e+001 
3093750000  -3.680340e+001  -7.709148e+001 
3096875000  -3.734528e+001  -8.294252e+001 
3100000000  -3.722552e+001  -8.574342e+001 
3103125000  -3.754790e+001  -8.940107e+001 
3106250000  -3.715271e+001  -9.468911e+001 
3109375000  -3.723500e+001  -9.911031e+001 
3112500000  -3.712835e+001  -1.045025e+002 
3115625000  -3.715293e+001  -1.076296e+002 
3118750000  -3.725171e+001  -1.107749e+002 
3121875000  -3.652714e+001  -1.222349e+002 
3125000000  -3.847219e+001  -1.258483e+002 
3128125000  -3.847284e+001  -1.186341e+002 
3131250000  -3.606537e+001  -1.244485e+002 
3134375000  -3.539231e+001  -1.415457e+002 
3137500000  -3.614645e+001  -1.534737e+002 
3140625000  -3.726596e+001  -1.572373e+002 
3143750000  -3.813767e+001  -1.599267e+002 
3146875000  -3.765319e+001  -1.564938e+002 
3150000000  -3.686813e+001  -1.610084e+002 
3153125000  -3.719332e+001  -1.691780e+002 
3156250000  -3.797540e+001  -1.649857e+002 
3159375000  -3.563326e+001  -1.668848e+002 
3162500000  -3.427504e+001  1.778336e+002 
3165625000  -3.544601e+001  1.644472e+002 
3168750000  -3.546867e+001  1.639502e+002 
3171875000  -3.489773e+001  1.568785e+002 
3175000000  -3.539638e+001  1.485284e+002 
3178125000  -3.499717e+001  1.460424e+002 
3181250000  -3.442670e+001  1.374054e+002 
3184375000  -3.415326e+001  1.259766e+002 
3187500000  -3.537981e+001  1.112052e+002 
3190625000  -3.729300e+001  1.038163e+002 
3193750000  -3.763097e+001  1.105800e+002 
3196875000  -3.747476e+001  1.118275e+002 
3200000000  -3.624595e+001  1.058475e+002 
3203125000  -3.595803e+001  9.806382e+001 
3206250000  -3.613639e+001  9.098418e+001 
3209375000  -3.570385e+001  8.247682e+001 
3212500000  -3.635747e+001  7.595538e+001 
3215625000  -3.613772e+001  7.242982e+001 
3218750000  -3.684875e+001  6.183782e+001 
3221875000  -3.724576e+001  5.511839e+001 
3225000000  -3.695119e+001  5.110184e+001 
3228125000  -3.766066e+001  4.386734e+001 
3231250000  -3.814112e+001  4.263227e+001 
3234375000  -3.789702e+001  3.852399e+001 
3237500000  -3.796666e+001  3.484849e+001 
3240625000  -3.761545e+001  2.942492e+001 
3243750000  -3.767881e+001  1.972247e+001 
3246875000  -3.822567e+001  1.197435e+001 
3250000000  -3.867591e+001  8.867294e+000 
3253125000  -3.905274e+001  5.168214e+000 
3256250000  -3.860071e+001  -1.923013e+000 
3259375000  -3.913383e+001  -1.317446e+001 
3262500000  -4.056571e+001  -1.778073e+001 
3265625000  -4.141700e+001  -1.538201e+001 
3268750000  -4.118423e+001  -1.311432e+001 
3271875000  -4.053427e+001  -1.732638e+001 
3275000000  -4.007420e+001  -2.541425e+001 
3278125000  -4.080918e+001  -3.134914e+001 
3281250000  -4.098054e+001  -3.251774e+001 
3284375000  -4.050491e+001  -3.854575e+001 
3287500000  -4.097385e+001  -4.199768e+001 
3290625000  -4.108645e+001  -5.053996e+001 
3293750000  -4.126640e+001  -5.511825e+001 
3296875000  -4.252150e+001  -5.718700e+001 
3300000000  -4.174999e+001  -5.604207e+001 
3303125000  -4.097889e+001  -6.395123e+001 
3306250000  -4.086871e+001  -7.036074e+001 
3309375000  -4.043161e+001  -7.799606e+001 
3312500000  -4.076371e+001  -9.015236e+001 
3315625000  -4.223825e+001  -9.815847e+001 
3318750000  -4.378542e+001  -1.019688e+002 
3321875000  -4.457328e+001  -9.827181e+001 
3325000000  -4.485320e+001  -9.134198e+001 
3328125000  -4.421399e+001  -9.171095e+001 
3331250000  -4.216245e+001  -8.852518e+001 
3334375000  -3.977496e+001  -1.041344e+002 
3337500000  -4.028717e+001  -1.246944e+002 
3340625000  -4.244616e+001  -1.355238e+002 
3343750000  -4.420797e+001  -1.321013e+002 
3346875000  -4.342118e+001  -1.327516e+002 
3350000000  -4.310669e+001  -1.378839e+002 
3353125000  -4.306749e+001  -1.443667e+002 
3356250000  -4.239810e+001  -1.546798e+002 
3359375000  -4.362542e+001  -1.623192e+002 
3362500000  -4.448888e+001  -1.674671e+002 
3365625000  -4.464563e+001  -1.730063e+002 
3368750000  -4.540380e+001  -1.765237e+002 
3371875000  -4.585112e+001  -1.793800e+002 
3375000000  -4.743464e+001  1.747693e+002 
3378125000  -4.834731e+001  1.718267e+002 
3381250000  -4.936518e+001  -1.717645e+002 
3384375000  -4.652309e+001  -1.620663e+002 
3387500000  -4.425971e+001  1.785599e+002 
3390625000  -4.598051e+001  1.579860e+002 
3393750000  -4.680006e+001  1.576362e+002 
3396875000  -4.589075e+001  1.572775e+002 
3400000000  -4.608085e+001  1.459237e+002 
3403125000  -4.678667e+001  1.391865e+002 
3406250000  -4.767961e+001  1.387975e+002 
3409375000  -4.787964e+001  1.326687e+002 
3412500000  -4.878054e+001  1.264564e+002 
3415625000  -5.013473e+001  1.237673e+002 
3418750000  -5.082407e+001  1.228426e+002 
3421875000  -5.133799e+001  1.244881e+002 
3425000000  -4.956546e+001  1.280029e+002 
3428125000  -5.008488e+001  1.257855e+002 
3431250000  -5.014682e+001  1.156331e+002 
3434375000  -5.025689e+001  1.131845e+002 
3437500000  -5.149791e+001  1.105251e+002 
3440625000  -5.196091e+001  1.101536e+002 
3443750000  -5.072425e+001  1.149492e+002 
3446875000  -5.052451e+001  1.056532e+002 
3450000000  -4.990252e+001  1.003705e+002 
3453125000  -5.099967e+001  8.484665e+001 
3456250000  -5.204992e+001  8.357761e+001 
3459375000  -5.264581e+001  9.037432e+001 
3462500000  -5.215628e+001  9.267337e+001 
3465625000  -5.096860e+001  8.207166e+001 
3468750000  -5.271828e+001  8.503107e+001 
3471875000  -5.142670e+001  8.529517e+001 
3475000000  -5.119912e+001  7.556466e+001 
3478125000  -5.129190e+001  6.565057e+001 
3481250000  -5.190997e+001  6.957917e+001 
3484375000  -5.294351e+001  7.071226e+001 
3487500000  -5.164426e+001  6.802463e+001 
3490625000  -5.109738e+001  6.234044e+001 
3493750000  -5.128903e+001  5.563434e+001 
3496875000  -5.152324e+001  5.231384e+001 
3500000000  -5.208428e+001  5.113549e+001 
3503125000  -5.078412e+001  5.330475e+001 
3506250000  -4.977470e+001  4.304646e+001 
3509375000  -4.932811e+001  3.234404e+001 
3512500000  -5.087365e+001  1.538536e+001 
3515625000  -5.192229e+001  1.414869e+001 
3518750000  -5.310744e+001  1.044230e+001 
3521875000  -5.211665e+001  1.222234e+001 
3525000000  -5.436243e+001  6.777298e+000 
3528125000  -5.242474e+001  1.574768e+001 
3531250000  -5.226184e+001  1.555923e+000 
3534375000  -5.303153e+001  -1.059004e+001 
3537500000  -5.441909e+001  -2.251205e+001 
3540625000  -5.607026e+001  -2.055100e+001 
3543750000  -5.663606e+001  -1.282303e+001 
3546875000  -5.660380e+001  -2.800564e+000 
3550000000  -5.342753e+001  -1.223431e+001 
3553125000  -5.291813e+001  -2.300775e+001 
3556250000  -5.609403e+001  -2.394356e+001 
3559375000  -5.599309e+001  -3.225074e+001 
3562500000  -5.654109e+001  -3.320874e+001 
3565625000  -5.620128e+001  -3.302469e+001 
3568750000  -5.836390e+001  -2.917505e+001 
3571875000  -5.725852e+001  -4.374564e+001 
3575000000  -5.821429e+001  -2.768653e+001 
3578125000  -5.824962e+001  -4.002905e+001 
3581250000  -5.697242e+001  -4.311904e+001 
3584375000  -5.798282e+001  -3.045333e+001 
3587500000  -5.850018e+001  -3.961338e+001 
3590625000  -5.812159e+001  -5.159765e+001 
3593750000  -6.037447e+001  -3.973265e+001 
3596875000  -6.059670e+001  -2.333303e+001 
3600000000  -5.813316e+001  -2.243227e+001 
3603125000  -5.691470e+001  -4.820035e+001 
3606250000  -5.833816e+001  -4.836444e+001 
3609375000  -5.792015e+001  -3.122104e+001 
3612500000  -5.789237e+001  -4.321786e+001 
3615625000  -5.894716e+001  -5.002012e+001 
3618750000  -5.893966e+001  -3.506008e+001 
3621875000  -5.707168e+001  -3.972519e+001 
3625000000  -5.884296e+001  -3.117838e+001 
3628125000  -5.778190e+001  -2.979398e+001 
3631250000  -5.619969e+001  -3.224054e+001 
3634375000  -5.596302e+001  -4.011776e+001 
3637500000  -5.503761e+001  -3.262822e+001 
3640625000  -5.430634e+001  -2.837325e+001 
3643750000  -5.314540e+001  -3.244316e+001 
3646875000  -5.288773e+001  -4.644779e+001 
3650000000  -5.276488e+001  -5.392455e+001 
3653125000  -5.295483e+001  -5.252674e+001 
3656250000  -5.159488e+001  -5.908541e+001 
3659375000  -5.206432e+001  -5.561657e+001 
3662500000  -5.090651e+001  -6.403637e+001 
3665625000  -4.972786e+001  -6.599657e+001 
3668750000  -4.822116e+001  -6.795419e+001 
3671875000  -4.731311e+001  -7.535056e+001 
3675000000  -4.718952e+001  -8.413478e+001 
3678125000  -4.760177e+001  -8.672008e+001 
3681250000  -4.687941e+001  -9.798590e+001 
3684375000  -4.662601e+001  -1.037835e+002 
3687500000  -4.640427e+001  -1.045702e+002 
3690625000  -4.671687e+001  -1.116541e+002 
3693750000  -4.719227e+001  -1.112901e+002 
3696875000  -4.596416e+001  -1.113148e+002 
3700000000  -4.474651e+001  -1.195393e+002 
3703125000  -4.554375e+001  -1.246276e+002 
3706250000  -4.568134e+001  -1.277447e+002 
3709375000  -4.496970e+001  -1.238935e+002 
3712500000  -4.356713e+001  -1.296554e+002 
3715625000  -4.214980e+001  -1.384171e+002 
3718750000  -4.175733e+001  -1.459442e+002 
3721875000  -4.125952e+001  -1.559151e+002 
3725000000  -4.171827e+001  -1.615666e+002 
3728125000  -4.149707e+001  -1.671568e+002 
3731250000  -4.070604e+001  -1.704281e+002 
3734375000  -4.015953e+001  -1.784333e+002 
3737500000  -4.074770e+001  1.714510e+002 
3740625000  -4.066870e+001  1.671386e+002 
3743750000  -4.031292e+001  1.595222e+002 
3746875000  -4.072398e+001  1.528455e+002 
3750000000  -4.091256e+001  1.493984e+002 
3753125000  -4.044292e+001  1.444458e+002 
3756250000  -4.076788e+001  1.411312e+002 
3759375000  -4.026810e+001  1.363333e+002 
3762500000  -4.023029e+001  1.295775e+002 
3765625000  -4.056995e+001  1.254273e+002 
3768750000  -3.981350e+001  1.255043e+002 
3771875000  -3.862416e+001  1.164935e+002 
3775000000  -3.847200e+001  1.066828e+002 
3778125000  -3.894827e+001  9.982865e+001 
3781250000  -3.896730e+001  9.448784e+001 
3784375000  -3.889437e+001  8.960899e+001 
3787500000  -3.847558e+001  8.380383e+001 
3790625000  -3.933733e+001  7.624788e+001 
3793750000  -3.911083e+001  7.069290e+001 
3796875000  -3.837669e+001  6.778052e+001 
3800000000  -3.654946e+001  6.317995e+001 
3803125000  -3.811870e+001  5.004575e+001 
3806250000  -3.903991e+001  4.562779e+001 
3809375000  -3.848260e+001  4.145802e+001 
3812500000  -3.846168e+001  3.262949e+001 
3815625000  -3.958236e+001  2.260089e+001 
3818750000  -4.063573e+001  2.236546e+001 
3821875000  -4.010403e+001  3.116410e+001 
3825000000  -3.838379e+001  2.900074e+001 
3828125000  -3.708757e+001  1.086864e+001 
3831250000  -3.803485e+001  -4.368433e+000 
3834375000  -4.042003e+001  -4.590852e+000 
3837500000  -4.074089e+001  6.547592e-001 
3840625000  -3.901365e+001  -4.390480e+000 
3843750000  -3.828569e+001  -1.903439e+001 
3846875000  -3.982270e+001  -2.416334e+001 
3850000000  -4.055148e+001  -1.671589e+001 
3853125000  -3.992296e+001  -1.918084e+001 
3856250000  -3.941700e+001  -2.627428e+001 
3859375000  -3.862539e+001  -3.136595e+001 
3862500000  -3.851501e+001  -4.475093e+001 
3865625000  -3.881837e+001  -4.958768e+001 
3868750000  -3.883838e+001  -4.904754e+001 
3871875000  -3.801645e+001  -5.646115e+001 
3875000000  -3.859497e+001  -6.663583e+001 
3878125000  -3.939154e+001  -7.062363e+001 
3881250000  -3.938710e+001  -7.000620e+001 
3884375000  -3.877068e+001  -7.681233e+001 
3887500000  -3.915613e+001  -8.268462e+001 
3890625000  -3.928727e+001  -8.628394e+001 
3893750000  -3.972103e+001  -9.044762e+001 
3896875000  -4.040543e+001  -9.071171e+001 
3900000000  -4.016520e+001  -9.740206e+001 
3903125000  -3.939927e+001  -1.014071e+002 
3906250000  -3.888622e+001  -1.032298e+002 
3909375000  -3.826341e+001  -1.132567e+002 
3912500000  -3.910485e+001  -1.222769e+002 
3915625000  -4.048816e+001  -1.220499e+002 
3918750000  -4.001104e+001  -1.237972e+002 
3921875000  -3.930064e+001  -1.287495e+002 
3925000000  -3.870143e+001  -1.338045e+002 
3928125000  -3.817437e+001  -1.428349e+002 
3931250000  -3.898957e+001  -1.489908e+002 
3934375000  -3.961684e+001  -1.492068e+002 
3937500000  -4.024222e+001  -1.518564e+002 
3940625000  -3.995752e+001  -1.564858e+002 
3943750000  -3.873104e+001  -1.575047e+002 
3946875000  -3.861855e+001  -1.663232e+002 
3950000000  -3.947688e+001  -1.749117e+002 
3953125000  -3.999014e+001  -1.736338e+002 
3956250000  -3.882285e+001  -1.745948e+002 
3959375000  -3.809558e+001  1.793086e+002 
3962500000  -3.789314e+001  1.717171e+002 
3965625000  -3.783503e+001  1.613917e+002 
3968750000  -3.866642e+001  1.526161e+002 
3971875000  -3.884689e+001  1.474878e+002 
3975000000  -3.831877e+001  1.445971e+002 
3978125000  -3.857359e+001  1.403135e+002 
3981250000  -3.851427e+001  1.335359e+002 
3984375000  -3.905772e+001  1.242462e+002 
3987500000  -3.974497e+001  1.230633e+002 
3990625000  -4.002338e+001  1.202267e+002 
3993750000  -4.021541e+001  1.163906e+002 
3996875000  -3.994036e+001  1.110807e+002 
4000000000  -4.066532e+001  1.077327e+002 
4003125000  -4.094009e+001  1.091802e+002 
4006250000  -3.915666e+001  1.056136e+002 
4009375000  -3.862489e+001  9.201390e+001 
4012500000  -3.997751e+001  8.433171e+001 
4015625000  -4.121385e+001  8.501456e+001 
4018750000  -4.100288e+001  8.459117e+001 
4021875000  -4.064767e+001  7.984634e+001 
4025000000  -4.027061e+001  7.603452e+001 
4028125000  -4.084965e+001  6.929369e+001 
4031250000  -4.156839e+001  6.336126e+001 
4034375000  -4.155651e+001  6.276217e+001 
4037500000  -4.105213e+001  6.468486e+001 
4040625000  -4.088199e+001  5.814423e+001 
4043750000  -4.081306e+001  5.394433e+001 
4046875000  -4.068604e+001  5.302308e+001 
4050000000  -4.081522e+001  4.680826e+001 
4053125000  -4.163750e+001  4.470032e+001 
4056250000  -4.157692e+001  5.085985e+001 
4059375000  -3.970829e+001  4.555496e+001 
4062500000  -3.889586e+001  3.966173e+001 
4065625000  -3.879353e+001  3.320879e+001 
4068750000  -3.834615e+001  2.685218e+001 
4071875000  -3.782732e+001  1.577412e+001 
4075000000  -3.868164e+001  8.199877e+000 
4078125000  -3.884539e+001  3.689206e+000 
4081250000  -3.826542e+001  1.694795e+000 
4084375000  -3.805405e+001  -1.034646e+001 
4087500000  -3.864252e+001  -1.679194e+001 
4090625000  -3.928563e+001  -1.810216e+001 
4093750000  -3.874414e+001  -2.009851e+001 
4096875000  -3.861203e+001  -3.141200e+001 
4100000000  -3.977797e+001  -3.816854e+001 
4103125000  -4.062996e+001  -3.614494e+001 
4106250000  -3.979090e+001  -3.144374e+001 
4109375000  -3.905999e+001  -3.605931e+001 
4112500000  -3.877319e+001  -4.477874e+001 
4115625000  -3.954909e+001  -5.100160e+001 
4118750000  -3.909183e+001  -5.604953e+001 
4121875000  -3.913174e+001  -6.483944e+001 
4125000000  -3.972736e+001  -6.975809e+001 
4128125000  -4.098273e+001  -6.870639e+001 
4131250000  -3.985868e+001  -6.223888e+001 
4134375000  -3.752421e+001  -7.207475e+001 
4137500000  -3.822697e+001  -9.201106e+001 
4140625000  -4.042976e+001  -9.794425e+001 
4143750000  -4.148593e+001  -9.309993e+001 
4146875000  -4.071444e+001  -9.002827e+001 
4150000000  -3.983974e+001  -9.738891e+001 
4153125000  -3.995052e+001  -1.064039e+002 
4156250000  -4.111532e+001  -1.092764e+002 
4159375000  -4.143510e+001  -1.042124e+002 
4162500000  -3.980807e+001  -1.033210e+002 
4165625000  -3.892215e+001  -1.095693e+002 
4168750000  -3.869697e+001  -1.194149e+002 
4171875000  -3.847439e+001  -1.291045e+002 
4175000000  -3.937783e+001  -1.360491e+002 
4178125000  -3.969429e+001  -1.366650e+002 
4181250000  -3.942239e+001  -1.414531e+002 
4184375000  -3.959344e+001  -1.459438e+002 
4187500000  -3.960404e+001  -1.514157e+002 
4190625000  -3.954111e+001  -1.573179e+002 
4193750000  -4.062452e+001  -1.630189e+002 
4196875000  -4.125550e+001  -1.656564e+002 
4200000000  -4.265310e+001  -1.579662e+002 
4203125000  -4.090362e+001  -1.454619e+002 
4206250000  -3.745246e+001  -1.565148e+002 
4209375000  -3.754115e+001  -1.781367e+002 
4212500000  -3.976746e+001  1.758287e+002 
4215625000  -4.006796e+001  -1.787527e+002 
4218750000  -3.823907e+001  -1.764724e+002 
4221875000  -3.697750e+001  1.740389e+002 
4225000000  -3.803544e+001  1.609330e+002 
4228125000  -3.782047e+001  1.642748e+002 
4231250000  -3.637666e+001  1.554041e+002 
4234375000  -3.637257e+001  1.446603e+002 
4237500000  -3.617382e+001  1.387247e+002 
4240625000  -3.643333e+001  1.279094e+002 
4243750000  -3.736162e+001  1.179380e+002 
4246875000  -3.863868e+001  1.191660e+002 
4250000000  -3.844355e+001  1.193741e+002 
4253125000  -3.798378e+001  1.159240e+002 
4256250000  -3.822208e+001  1.121143e+002 
4259375000  -3.786032e+001  1.038527e+002 
4262500000  -3.787281e+001  1.006622e+002 
4265625000  -3.796278e+001  1.000376e+002 
4268750000  -3.701186e+001  9.009696e+001 
4271875000  -3.692495e+001  8.133447e+001 
4275000000  -3.665546e+001  7.513872e+001 
4278125000  -3.800127e+001  6.087685e+001 
4281250000  -3.924268e+001  6.173156e+001 
4284375000  -3.886230e+001  5.774200e+001 
4287500000  -4.021116e+001  5.549371e+001 
4290625000  -4.089674e+001  6.465255e+001 
4293750000  -3.864719e+001  6.348008e+001 
4296875000  -3.774274e+001  5.244685e+001 
4300000000  -3.917617e+001  4.144629e+001 
4303125000  -3.980732e+001  4.464740e+001 
4306250000  -3.889851e+001  4.758498e+001 
4309375000  -3.778978e+001  4.079884e+001 
4312500000  -3.777505e+001  2.981154e+001 
4315625000  -3.801229e+001  2.084375e+001 
4318750000  -3.877658e+001  1.717974e+001 
4321875000  -3.859760e+001  1.817642e+001 
4325000000  -3.811275e+001  1.795520e+001 
4328125000  -3.741003e+001  9.046253e+000 
4331250000  -3.760703e+001  -3.689105e+000 
4334375000  -3.845927e+001  -9.661853e+000 
4337500000  -3.946361e+001  -9.943720e+000 
4340625000  -3.952140e+001  -6.305342e+000 
4343750000  -3.897914e+001  -9.374483e+000 
4346875000  -3.842648e+001  -1.836702e+001 
4350000000  -3.838567e+001  -2.702712e+001 
4353125000  -3.899924e+001  -3.382568e+001 
4356250000  -4.089103e+001  -3.134396e+001 
4359375000  -4.013912e+001  -1.726822e+001 
4362500000  -3.662782e+001  -2.439093e+001 
4365625000  -3.612162e+001  -4.268123e+001 
4368750000  -3.735916e+001  -5.266876e+001 
4371875000  -3.807875e+001  -5.206907e+001 
4375000000  -3.736130e+001  -5.606295e+001 
4378125000  -3.682140e+001  -6.501611e+001 
4381250000  -3.715574e+001  -7.056437e+001 
4384375000  -3.717615e+001  -7.766538e+001 
4387500000  -3.806182e+001  -8.249786e+001 
4390625000  -3.857057e+001  -8.375641e+001 
4393750000  -3.803857e+001  -8.416196e+001 
4396875000  -3.741792e+001  -8.885432e+001 
4400000000  -3.692841e+001  -9.837895e+001 
4403125000  -3.799105e+001  -1.081531e+002 
4406250000  -3.856664e+001  -1.115849e+002 
4409375000  -3.890600e+001  -1.152848e+002 
4412500000  -3.979730e+001  -1.169286e+002 
4415625000  -3.955205e+001  -1.126717e+002 
