!Agilent Technologies,E8363B,MY43030201,A.06.04.32
!Agilent E8363B: A.06.04.32
!Date: Tuesday, November 11, 2014 21:30:21
!Correction: S21(Response(S21)) 
!S1P File: Measurement: S21:
# Hz S  dB   R 50
3000000000  -4.062679e+001  8.507975e+001 
3003125000  -4.214225e+001  7.629021e+001 
3006250000  -4.211651e+001  7.490443e+001 
3009375000  -4.275359e+001  8.044222e+001 
3012500000  -4.149268e+001  7.554594e+001 
3015625000  -4.134091e+001  6.844286e+001 
3018750000  -4.187523e+001  6.905388e+001 
3021875000  -4.033773e+001  7.089769e+001 
3025000000  -3.879844e+001  6.611610e+001 
3028125000  -3.802225e+001  5.646802e+001 
3031250000  -3.702789e+001  4.436094e+001 
3034375000  -3.679337e+001  3.093258e+001 
3037500000  -3.744139e+001  2.029405e+001 
3040625000  -3.875665e+001  1.440457e+001 
3043750000  -3.914413e+001  7.794032e+000 
3046875000  -3.992059e+001  2.734765e+000 
3050000000  -4.087911e+001  -3.210804e+000 
3053125000  -4.089575e+001  2.730032e+000 
3056250000  -4.030454e+001  5.226464e+000 
3059375000  -3.985196e+001  3.180051e+000 
3062500000  -3.824013e+001  -3.232175e+000 
3065625000  -3.793757e+001  -1.134366e+001 
3068750000  -3.759897e+001  -1.895486e+001 
3071875000  -3.764424e+001  -2.197201e+001 
3075000000  -3.724158e+001  -2.871851e+001 
3078125000  -3.711962e+001  -3.424445e+001 
3081250000  -3.725399e+001  -4.015248e+001 
3084375000  -3.625411e+001  -4.537862e+001 
3087500000  -3.639618e+001  -5.171125e+001 
3090625000  -3.600571e+001  -6.363744e+001 
3093750000  -3.683755e+001  -7.143227e+001 
3096875000  -3.735335e+001  -7.839050e+001 
3100000000  -3.721646e+001  -8.078989e+001 
3103125000  -3.748161e+001  -8.370102e+001 
3106250000  -3.713853e+001  -8.940797e+001 
3109375000  -3.715792e+001  -9.318245e+001 
3112500000  -3.717193e+001  -9.852553e+001 
3115625000  -3.706045e+001  -1.021937e+002 
3118750000  -3.732047e+001  -1.056718e+002 
3121875000  -3.666821e+001  -1.174087e+002 
3125000000  -3.837208e+001  -1.206912e+002 
3128125000  -3.833963e+001  -1.129824e+002 
3131250000  -3.620237e+001  -1.191967e+002 
3134375000  -3.525850e+001  -1.358320e+002 
3137500000  -3.597969e+001  -1.481949e+002 
3140625000  -3.731501e+001  -1.518788e+002 
3143750000  -3.827814e+001  -1.541491e+002 
3146875000  -3.773323e+001  -1.515030e+002 
3150000000  -3.693261e+001  -1.545774e+002 
3153125000  -3.716289e+001  -1.639432e+002 
3156250000  -3.814370e+001  -1.591132e+002 
3159375000  -3.574821e+001  -1.616539e+002 
3162500000  -3.404446e+001  -1.770025e+002 
3165625000  -3.539596e+001  1.698593e+002 
3168750000  -3.557415e+001  1.696900e+002 
3171875000  -3.488745e+001  1.615032e+002 
3175000000  -3.548566e+001  1.528394e+002 
3178125000  -3.508034e+001  1.518892e+002 
3181250000  -3.437809e+001  1.431743e+002 
3184375000  -3.410646e+001  1.310826e+002 
3187500000  -3.531130e+001  1.168200e+002 
3190625000  -3.719812e+001  1.102368e+002 
3193750000  -3.745437e+001  1.163000e+002 
3196875000  -3.741162e+001  1.168026e+002 
3200000000  -3.622968e+001  1.118629e+002 
3203125000  -3.592458e+001  1.043365e+002 
3206250000  -3.605737e+001  9.621513e+001 
3209375000  -3.571923e+001  8.885104e+001 
3212500000  -3.629454e+001  8.200206e+001 
3215625000  -3.614918e+001  7.809367e+001 
3218750000  -3.677769e+001  6.754217e+001 
3221875000  -3.733738e+001  6.059681e+001 
3225000000  -3.700640e+001  5.760136e+001 
3228125000  -3.779355e+001  4.976774e+001 
3231250000  -3.825354e+001  4.755855e+001 
3234375000  -3.793571e+001  4.456448e+001 
3237500000  -3.811558e+001  4.134634e+001 
3240625000  -3.766625e+001  3.625102e+001 
3243750000  -3.759253e+001  2.577774e+001 
3246875000  -3.823621e+001  1.820117e+001 
3250000000  -3.873594e+001  1.417212e+001 
3253125000  -3.895552e+001  1.167073e+001 
3256250000  -3.850063e+001  2.786598e+000 
3259375000  -3.898524e+001  -7.861549e+000 
3262500000  -4.058499e+001  -1.167120e+001 
3265625000  -4.118359e+001  -8.661590e+000 
3268750000  -4.104982e+001  -8.014288e+000 
3271875000  -4.050323e+001  -1.037209e+001 
3275000000  -4.009936e+001  -1.894141e+001 
3278125000  -4.090969e+001  -2.522441e+001 
3281250000  -4.091505e+001  -2.442539e+001 
3284375000  -4.044940e+001  -3.084544e+001 
3287500000  -4.080683e+001  -3.550426e+001 
3290625000  -4.117181e+001  -4.335260e+001 
3293750000  -4.105426e+001  -4.898715e+001 
3296875000  -4.252652e+001  -4.956134e+001 
3300000000  -4.180460e+001  -4.960227e+001 
3303125000  -4.087100e+001  -5.762289e+001 
3306250000  -4.094987e+001  -6.343193e+001 
3309375000  -4.069127e+001  -7.148663e+001 
3312500000  -4.077421e+001  -8.329925e+001 
3315625000  -4.188465e+001  -8.977914e+001 
3318750000  -4.357116e+001  -9.531514e+001 
3321875000  -4.483378e+001  -9.012694e+001 
3325000000  -4.430122e+001  -8.430976e+001 
3328125000  -4.384267e+001  -8.480277e+001 
3331250000  -4.222583e+001  -8.226379e+001 
3334375000  -3.975365e+001  -9.783618e+001 
3337500000  -4.025638e+001  -1.174689e+002 
3340625000  -4.201308e+001  -1.265798e+002 
3343750000  -4.423975e+001  -1.253863e+002 
3346875000  -4.311110e+001  -1.282960e+002 
3350000000  -4.296530e+001  -1.284279e+002 
3353125000  -4.281096e+001  -1.364383e+002 
3356250000  -4.238594e+001  -1.457577e+002 
3359375000  -4.323074e+001  -1.561444e+002 
3362500000  -4.409019e+001  -1.618403e+002 
3365625000  -4.469618e+001  -1.652839e+002 
3368750000  -4.526299e+001  -1.713488e+002 
3371875000  -4.570641e+001  -1.763109e+002 
3375000000  -4.760208e+001  -1.779044e+002 
3378125000  -4.760167e+001  1.796021e+002 
3381250000  -4.915212e+001  -1.654269e+002 
3384375000  -4.656466e+001  -1.535322e+002 
3387500000  -4.376050e+001  -1.745180e+002 
3390625000  -4.611567e+001  1.649095e+002 
3393750000  -4.664341e+001  1.639909e+002 
3396875000  -4.578541e+001  1.654980e+002 
3400000000  -4.627572e+001  1.518108e+002 
3403125000  -4.702317e+001  1.500950e+002 
3406250000  -4.762365e+001  1.441709e+002 
3409375000  -4.796605e+001  1.395408e+002 
3412500000  -4.795977e+001  1.298356e+002 
3415625000  -4.989328e+001  1.332926e+002 
3418750000  -5.025389e+001  1.284742e+002 
3421875000  -5.150781e+001  1.370922e+002 
3425000000  -4.977094e+001  1.332493e+002 
3428125000  -4.953974e+001  1.345226e+002 
3431250000  -4.977879e+001  1.196028e+002 
3434375000  -5.067428e+001  1.139181e+002 
3437500000  -5.138750e+001  1.145013e+002 
3440625000  -5.208674e+001  1.182900e+002 
3443750000  -5.037025e+001  1.213466e+002 
3446875000  -4.974551e+001  1.147511e+002 
3450000000  -4.970179e+001  1.084652e+002 
3453125000  -5.074221e+001  9.383299e+001 
3456250000  -5.106579e+001  9.496301e+001 
3459375000  -5.316988e+001  9.697992e+001 
3462500000  -5.182372e+001  1.031786e+002 
3465625000  -5.132343e+001  9.301122e+001 
3468750000  -5.154364e+001  9.146706e+001 
3471875000  -5.139357e+001  8.807848e+001 
3475000000  -5.066670e+001  8.680449e+001 
3478125000  -5.080792e+001  7.317654e+001 
3481250000  -5.218063e+001  7.664845e+001 
3484375000  -5.266531e+001  8.218346e+001 
3487500000  -5.150987e+001  7.497760e+001 
3490625000  -5.049675e+001  6.465857e+001 
3493750000  -5.083564e+001  6.235780e+001 
3496875000  -5.164735e+001  5.938315e+001 
3500000000  -5.174491e+001  6.099326e+001 
3503125000  -5.091433e+001  5.914439e+001 
3506250000  -4.933420e+001  4.809562e+001 
3509375000  -4.947884e+001  3.560278e+001 
3512500000  -4.984218e+001  2.484282e+001 
3515625000  -5.084013e+001  2.458802e+001 
3518750000  -5.130823e+001  2.242428e+001 
3521875000  -5.197600e+001  1.487090e+001 
3525000000  -5.317070e+001  4.866693e+000 
3528125000  -5.221361e+001  1.416737e+001 
3531250000  -5.121541e+001  9.263509e+000 
3534375000  -5.208809e+001  -1.979059e-001 
3537500000  -5.347992e+001  -1.564286e+001 
3540625000  -5.381128e+001  -1.074989e+001 
3543750000  -5.505544e+001  -9.482653e+000 
3546875000  -5.580161e+001  4.465690e+000 
3550000000  -5.399677e+001  1.324469e+000 
3553125000  -5.282713e+001  -2.629996e+001 
3556250000  -5.340257e+001  -2.878748e+001 
3559375000  -5.552979e+001  -2.904568e+001 
3562500000  -5.379093e+001  -3.307023e+001 
3565625000  -5.678680e+001  -3.106696e+001 
3568750000  -5.590272e+001  -3.117995e+001 
3571875000  -5.600587e+001  -2.532948e+001 
3575000000  -5.785406e+001  -3.941988e+001 
3578125000  -5.870390e+001  -3.417958e+001 
3581250000  -5.740469e+001  -2.680208e+001 
3584375000  -5.597166e+001  -2.569795e+001 
3587500000  -5.761435e+001  -3.561478e+001 
3590625000  -5.769983e+001  -4.178033e+001 
3593750000  -6.042422e+001  -3.570947e+001 
3596875000  -5.972615e+001  -2.561781e+001 
3600000000  -5.804525e+001  -3.715627e+001 
3603125000  -5.646027e+001  -4.605137e+001 
3606250000  -5.712397e+001  -5.329639e+001 
3609375000  -5.846187e+001  -3.975955e+001 
3612500000  -5.891996e+001  -4.345292e+001 
3615625000  -5.894664e+001  -4.743582e+001 
3618750000  -5.869889e+001  -3.583978e+001 
3621875000  -5.730558e+001  -3.305669e+001 
3625000000  -5.670823e+001  -2.604967e+001 
3628125000  -5.791320e+001  -2.747702e+001 
3631250000  -5.582935e+001  -3.365692e+001 
3634375000  -5.793352e+001  -4.553870e+001 
3637500000  -5.605365e+001  -3.374607e+001 
3640625000  -5.495660e+001  -3.139575e+001 
3643750000  -5.325443e+001  -3.456976e+001 
3646875000  -5.367691e+001  -5.030046e+001 
3650000000  -5.352883e+001  -4.445638e+001 
3653125000  -5.253653e+001  -4.919059e+001 
3656250000  -5.226387e+001  -5.203952e+001 
3659375000  -5.200432e+001  -5.113069e+001 
3662500000  -5.031292e+001  -6.357232e+001 
3665625000  -5.033707e+001  -5.931144e+001 
3668750000  -4.844557e+001  -5.977295e+001 
3671875000  -4.756764e+001  -7.397297e+001 
3675000000  -4.735444e+001  -7.906036e+001 
3678125000  -4.797577e+001  -8.109998e+001 
3681250000  -4.640440e+001  -8.755028e+001 
3684375000  -4.679345e+001  -9.544883e+001 
3687500000  -4.662553e+001  -1.020678e+002 
3690625000  -4.669057e+001  -1.071441e+002 
3693750000  -4.741839e+001  -1.036332e+002 
3696875000  -4.626860e+001  -1.029185e+002 
3700000000  -4.513821e+001  -1.113427e+002 
3703125000  -4.556370e+001  -1.193758e+002 
3706250000  -4.619051e+001  -1.209089e+002 
3709375000  -4.492643e+001  -1.165630e+002 
3712500000  -4.342965e+001  -1.249276e+002 
3715625000  -4.235733e+001  -1.352694e+002 
3718750000  -4.203960e+001  -1.389098e+002 
3721875000  -4.135680e+001  -1.486238e+002 
3725000000  -4.151643e+001  -1.564765e+002 
3728125000  -4.153548e+001  -1.603365e+002 
3731250000  -4.087256e+001  -1.669523e+002 
3734375000  -4.009387e+001  -1.716791e+002 
3737500000  -4.118736e+001  1.787242e+002 
3740625000  -4.096675e+001  1.720040e+002 
3743750000  -4.045971e+001  1.656661e+002 
3746875000  -4.058823e+001  1.591817e+002 
3750000000  -4.118764e+001  1.536526e+002 
3753125000  -4.061308e+001  1.527984e+002 
3756250000  -4.080381e+001  1.472469e+002 
3759375000  -4.049423e+001  1.427680e+002 
3762500000  -4.002906e+001  1.344012e+002 
3765625000  -4.073626e+001  1.299332e+002 
3768750000  -4.026665e+001  1.317857e+002 
3771875000  -3.856112e+001  1.251709e+002 
3775000000  -3.868216e+001  1.132561e+002 
3778125000  -3.905058e+001  1.058969e+002 
3781250000  -3.884189e+001  1.023481e+002 
3784375000  -3.875686e+001  9.627763e+001 
3787500000  -3.847834e+001  9.043208e+001 
3790625000  -3.923866e+001  8.012814e+001 
3793750000  -3.910830e+001  7.693529e+001 
3796875000  -3.822478e+001  7.323392e+001 
3800000000  -3.651414e+001  6.972917e+001 
3803125000  -3.816617e+001  5.456139e+001 
3806250000  -3.890458e+001  5.079719e+001 
3809375000  -3.850865e+001  4.788755e+001 
3812500000  -3.845261e+001  3.883222e+001 
3815625000  -3.944360e+001  2.872276e+001 
3818750000  -4.069543e+001  2.911749e+001 
3821875000  -4.010579e+001  3.730352e+001 
3825000000  -3.825983e+001  3.721232e+001 
3828125000  -3.727358e+001  1.803810e+001 
3831250000  -3.802244e+001  3.505137e+000 
3834375000  -4.042133e+001  1.763844e+000 
3837500000  -4.081101e+001  6.553316e+000 
3840625000  -3.912884e+001  4.413074e+000 
3843750000  -3.822261e+001  -1.176500e+001 
3846875000  -4.006907e+001  -1.788817e+001 
3850000000  -4.077166e+001  -1.199156e+001 
3853125000  -3.998621e+001  -1.120635e+001 
3856250000  -3.938049e+001  -2.041615e+001 
3859375000  -3.856786e+001  -2.618946e+001 
3862500000  -3.834293e+001  -3.616351e+001 
3865625000  -3.879570e+001  -3.983708e+001 
3868750000  -3.879729e+001  -4.223437e+001 
3871875000  -3.813305e+001  -4.878828e+001 
3875000000  -3.871914e+001  -5.882387e+001 
3878125000  -3.953746e+001  -6.211589e+001 
3881250000  -3.938919e+001  -6.220075e+001 
3884375000  -3.861357e+001  -6.972598e+001 
3887500000  -3.904669e+001  -7.488742e+001 
3890625000  -3.965724e+001  -8.193703e+001 
3893750000  -3.945626e+001  -8.122547e+001 
3896875000  -3.997873e+001  -8.520055e+001 
3900000000  -3.966507e+001  -8.998948e+001 
3903125000  -3.967025e+001  -9.357300e+001 
3906250000  -3.903732e+001  -9.637890e+001 
3909375000  -3.809650e+001  -1.048832e+002 
3912500000  -3.907824e+001  -1.150255e+002 
3915625000  -4.042612e+001  -1.144635e+002 
3918750000  -3.989705e+001  -1.163212e+002 
3921875000  -3.922928e+001  -1.205072e+002 
3925000000  -3.845546e+001  -1.257179e+002 
3928125000  -3.817696e+001  -1.357074e+002 
3931250000  -3.892278e+001  -1.406553e+002 
3934375000  -3.942054e+001  -1.429720e+002 
3937500000  -3.980765e+001  -1.467840e+002 
3940625000  -3.990445e+001  -1.478051e+002 
3943750000  -3.882252e+001  -1.509365e+002 
3946875000  -3.828117e+001  -1.585024e+002 
3950000000  -3.950440e+001  -1.689436e+002 
3953125000  -3.979969e+001  -1.669500e+002 
3956250000  -3.873428e+001  -1.671992e+002 
3959375000  -3.756048e+001  -1.740044e+002 
3962500000  -3.750668e+001  1.772119e+002 
3965625000  -3.773429e+001  1.686443e+002 
3968750000  -3.857351e+001  1.602540e+002 
3971875000  -3.837609e+001  1.550930e+002 
3975000000  -3.828208e+001  1.525321e+002 
3978125000  -3.835300e+001  1.459920e+002 
3981250000  -3.849293e+001  1.403219e+002 
3984375000  -3.881820e+001  1.338406e+002 
3987500000  -3.957917e+001  1.295656e+002 
3990625000  -3.968041e+001  1.276796e+002 
3993750000  -3.975520e+001  1.213453e+002 
3996875000  -3.977600e+001  1.176958e+002 
4000000000  -4.063674e+001  1.135525e+002 
4003125000  -4.115281e+001  1.159437e+002 
4006250000  -3.928111e+001  1.131466e+002 
4009375000  -3.840325e+001  9.903236e+001 
4012500000  -3.984428e+001  8.973392e+001 
4015625000  -4.123192e+001  9.019188e+001 
4018750000  -4.116955e+001  9.159621e+001 
4021875000  -4.068110e+001  8.817264e+001 
4025000000  -4.018855e+001  8.384576e+001 
4028125000  -4.032037e+001  7.525867e+001 
4031250000  -4.105514e+001  7.132157e+001 
4034375000  -4.111005e+001  7.264454e+001 
4037500000  -4.085115e+001  7.068793e+001 
4040625000  -4.065084e+001  6.798347e+001 
4043750000  -4.090049e+001  6.353533e+001 
4046875000  -4.058639e+001  6.018108e+001 
4050000000  -4.061528e+001  5.542898e+001 
4053125000  -4.109073e+001  5.198409e+001 
4056250000  -4.108785e+001  5.566730e+001 
4059375000  -3.933833e+001  5.324966e+001 
4062500000  -3.874896e+001  4.669612e+001 
4065625000  -3.895951e+001  4.089145e+001 
4068750000  -3.802044e+001  3.325302e+001 
4071875000  -3.765755e+001  2.313214e+001 
4075000000  -3.810751e+001  1.689002e+001 
4078125000  -3.850465e+001  1.308166e+001 
4081250000  -3.801495e+001  7.113534e+000 
4084375000  -3.781035e+001  -2.354943e+000 
4087500000  -3.824527e+001  -9.310315e+000 
4090625000  -3.869470e+001  -1.068722e+001 
4093750000  -3.825016e+001  -1.322496e+001 
4096875000  -3.872599e+001  -2.324186e+001 
4100000000  -3.945036e+001  -2.952383e+001 
4103125000  -4.019488e+001  -2.843847e+001 
4106250000  -3.952129e+001  -2.532939e+001 
4109375000  -3.882431e+001  -2.851966e+001 
4112500000  -3.842521e+001  -3.901595e+001 
4115625000  -3.901054e+001  -4.381830e+001 
4118750000  -3.855999e+001  -4.986787e+001 
4121875000  -3.869770e+001  -5.701830e+001 
4125000000  -3.947586e+001  -6.258603e+001 
4128125000  -4.075393e+001  -6.237545e+001 
4131250000  -3.939162e+001  -5.439154e+001 
4134375000  -3.717010e+001  -6.469366e+001 
4137500000  -3.757789e+001  -8.695296e+001 
4140625000  -3.993423e+001  -9.231486e+001 
4143750000  -4.081228e+001  -8.465079e+001 
4146875000  -3.986454e+001  -8.196799e+001 
4150000000  -3.938540e+001  -8.956518e+001 
4153125000  -3.964065e+001  -1.007579e+002 
4156250000  -4.072431e+001  -1.023447e+002 
4159375000  -4.075894e+001  -9.695387e+001 
4162500000  -3.946873e+001  -9.646697e+001 
4165625000  -3.855174e+001  -1.027525e+002 
4168750000  -3.820556e+001  -1.112512e+002 
4171875000  -3.789435e+001  -1.223245e+002 
4175000000  -3.871748e+001  -1.287405e+002 
4178125000  -3.907189e+001  -1.284869e+002 
4181250000  -3.896265e+001  -1.330336e+002 
4184375000  -3.872490e+001  -1.379041e+002 
4187500000  -3.892978e+001  -1.417593e+002 
4190625000  -3.894186e+001  -1.525775e+002 
4193750000  -4.022025e+001  -1.565495e+002 
4196875000  -4.076097e+001  -1.578017e+002 
4200000000  -4.174013e+001  -1.550628e+002 
4203125000  -4.050262e+001  -1.394290e+002 
4206250000  -3.740234e+001  -1.470545e+002 
4209375000  -3.675030e+001  -1.710663e+002 
4212500000  -3.896127e+001  -1.775383e+002 
4215625000  -3.940211e+001  -1.699753e+002 
4218750000  -3.793968e+001  -1.695153e+002 
4221875000  -3.596875e+001  -1.794913e+002 
4225000000  -3.718846e+001  1.671633e+002 
4228125000  -3.756521e+001  1.680941e+002 
4231250000  -3.575825e+001  1.622403e+002 
4234375000  -3.589072e+001  1.513913e+002 
4237500000  -3.566732e+001  1.454382e+002 
4240625000  -3.604137e+001  1.341620e+002 
4243750000  -3.686868e+001  1.262735e+002 
4246875000  -3.774323e+001  1.253488e+002 
4250000000  -3.765552e+001  1.254060e+002 
4253125000  -3.746547e+001  1.223044e+002 
4256250000  -3.743583e+001  1.174581e+002 
4259375000  -3.717635e+001  1.119789e+002 
4262500000  -3.761732e+001  1.078468e+002 
4265625000  -3.734153e+001  1.046077e+002 
4268750000  -3.635194e+001  9.789383e+001 
4271875000  -3.632322e+001  8.966734e+001 
4275000000  -3.599635e+001  8.172270e+001 
4278125000  -3.702281e+001  6.669381e+001 
4281250000  -3.838623e+001  6.575573e+001 
4284375000  -3.817118e+001  6.357544e+001 
4287500000  -3.990872e+001  6.176038e+001 
4290625000  -4.030835e+001  6.948627e+001 
4293750000  -3.815745e+001  6.983443e+001 
4296875000  -3.715679e+001  5.607724e+001 
4300000000  -3.845433e+001  4.706938e+001 
4303125000  -3.925126e+001  5.083958e+001 
4306250000  -3.824258e+001  5.241537e+001 
4309375000  -3.706620e+001  4.374511e+001 
4312500000  -3.687946e+001  3.561774e+001 
4315625000  -3.740405e+001  2.811599e+001 
4318750000  -3.799726e+001  2.354230e+001 
4321875000  -3.797824e+001  2.387764e+001 
4325000000  -3.750986e+001  2.322388e+001 
4328125000  -3.678573e+001  1.183338e+001 
4331250000  -3.694558e+001  1.895662e+000 
4334375000  -3.766732e+001  -4.680117e+000 
4337500000  -3.854525e+001  -5.926145e+000 
4340625000  -3.931977e+001  -1.763383e+000 
4343750000  -3.796515e+001  -4.036581e+000 
4346875000  -3.767059e+001  -1.361197e+001 
4350000000  -3.781933e+001  -1.958887e+001 
4353125000  -3.826466e+001  -3.030456e+001 
4356250000  -4.060758e+001  -2.546971e+001 
4359375000  -3.944308e+001  -1.253417e+001 
4362500000  -3.598048e+001  -1.808295e+001 
4365625000  -3.545005e+001  -3.635147e+001 
4368750000  -3.667684e+001  -4.631662e+001 
4371875000  -3.728393e+001  -4.607365e+001 
4375000000  -3.686564e+001  -5.022176e+001 
4378125000  -3.634256e+001  -5.744488e+001 
4381250000  -3.673274e+001  -6.522227e+001 
4384375000  -3.656646e+001  -7.205697e+001 
4387500000  -3.743767e+001  -7.879400e+001 
4390625000  -3.817492e+001  -7.891778e+001 
4393750000  -3.760219e+001  -7.880325e+001 
4396875000  -3.687841e+001  -8.523419e+001 
4400000000  -3.615857e+001  -9.443335e+001 
4403125000  -3.710336e+001  -1.028239e+002 
4406250000  -3.774568e+001  -1.060036e+002 
4409375000  -3.798633e+001  -1.109179e+002 
4412500000  -3.901775e+001  -1.123153e+002 
4415625000  -3.884122e+001  -1.098263e+002 
