!Agilent Technologies,E8363B,MY43030201,A.06.04.32
!Agilent E8363B: A.06.04.32
!Date: Tuesday, November 11, 2014 21:34:53
!Correction: S21(Response(S21)) 
!S1P File: Measurement: S21:
# Hz S  dB   R 50
3000000000  -4.050309e+001  7.245454e+001 
3003125000  -4.209945e+001  6.479826e+001 
3006250000  -4.209738e+001  6.415350e+001 
3009375000  -4.276698e+001  7.143099e+001 
3012500000  -4.131749e+001  6.392697e+001 
3015625000  -4.163646e+001  5.689218e+001 
3018750000  -4.179676e+001  5.872647e+001 
3021875000  -4.006717e+001  5.926368e+001 
3025000000  -3.881911e+001  5.597273e+001 
3028125000  -3.780624e+001  4.483631e+001 
3031250000  -3.707817e+001  3.279694e+001 
3034375000  -3.680330e+001  1.896378e+001 
3037500000  -3.758351e+001  7.642801e+000 
3040625000  -3.882167e+001  3.322316e+000 
3043750000  -3.909971e+001  -3.332161e+000 
3046875000  -3.990536e+001  -9.667854e+000 
3050000000  -4.103186e+001  -1.301458e+001 
3053125000  -4.050658e+001  -8.158948e+000 
3056250000  -4.055310e+001  -6.462997e+000 
3059375000  -3.974032e+001  -7.288776e+000 
3062500000  -3.818649e+001  -1.246900e+001 
3065625000  -3.803338e+001  -2.394430e+001 
3068750000  -3.743038e+001  -3.011809e+001 
3071875000  -3.763453e+001  -3.327662e+001 
3075000000  -3.693764e+001  -3.919314e+001 
3078125000  -3.711280e+001  -4.520421e+001 
3081250000  -3.726981e+001  -5.212749e+001 
3084375000  -3.640739e+001  -5.688088e+001 
3087500000  -3.639476e+001  -6.384149e+001 
3090625000  -3.597247e+001  -7.598217e+001 
3093750000  -3.707356e+001  -8.371010e+001 
3096875000  -3.740415e+001  -8.874898e+001 
3100000000  -3.725603e+001  -9.175143e+001 
3103125000  -3.753121e+001  -9.562830e+001 
3106250000  -3.728724e+001  -1.000437e+002 
3109375000  -3.728108e+001  -1.037509e+002 
3112500000  -3.711403e+001  -1.101684e+002 
3115625000  -3.728467e+001  -1.145085e+002 
3118750000  -3.717324e+001  -1.184637e+002 
3121875000  -3.660459e+001  -1.283074e+002 
3125000000  -3.849559e+001  -1.321982e+002 
3128125000  -3.868068e+001  -1.246702e+002 
3131250000  -3.607716e+001  -1.308164e+002 
3134375000  -3.531747e+001  -1.483359e+002 
3137500000  -3.607233e+001  -1.597664e+002 
3140625000  -3.726545e+001  -1.636373e+002 
3143750000  -3.814201e+001  -1.651151e+002 
3146875000  -3.759931e+001  -1.632869e+002 
3150000000  -3.692853e+001  -1.673959e+002 
3153125000  -3.722136e+001  -1.752705e+002 
3156250000  -3.788078e+001  -1.709558e+002 
3159375000  -3.566771e+001  -1.731731e+002 
3162500000  -3.424501e+001  1.713503e+002 
3165625000  -3.546117e+001  1.586503e+002 
3168750000  -3.539528e+001  1.577108e+002 
3171875000  -3.495449e+001  1.502999e+002 
3175000000  -3.544057e+001  1.407476e+002 
3178125000  -3.493620e+001  1.397932e+002 
3181250000  -3.445199e+001  1.311262e+002 
3184375000  -3.412016e+001  1.203285e+002 
3187500000  -3.548662e+001  1.045768e+002 
3190625000  -3.712835e+001  9.934476e+001 
3193750000  -3.751241e+001  1.043451e+002 
3196875000  -3.737859e+001  1.046251e+002 
3200000000  -3.606075e+001  1.003444e+002 
3203125000  -3.588293e+001  9.163652e+001 
3206250000  -3.614815e+001  8.367764e+001 
3209375000  -3.570546e+001  7.585127e+001 
3212500000  -3.631799e+001  7.004340e+001 
3215625000  -3.609307e+001  6.696302e+001 
3218750000  -3.674165e+001  5.493546e+001 
3221875000  -3.716886e+001  4.971447e+001 
3225000000  -3.699171e+001  4.519945e+001 
3228125000  -3.758539e+001  3.755126e+001 
3231250000  -3.821933e+001  3.624342e+001 
3234375000  -3.786938e+001  3.262102e+001 
3237500000  -3.791644e+001  2.864041e+001 
3240625000  -3.759489e+001  2.206529e+001 
3243750000  -3.766967e+001  1.252443e+001 
3246875000  -3.811266e+001  4.976099e+000 
3250000000  -3.885905e+001  2.096734e+000 
3253125000  -3.889223e+001  -1.310004e+000 
3256250000  -3.848085e+001  -9.317812e+000 
3259375000  -3.905560e+001  -1.991486e+001 
3262500000  -4.057821e+001  -2.296077e+001 
3265625000  -4.124017e+001  -2.102191e+001 
3268750000  -4.108008e+001  -2.106458e+001 
3271875000  -4.053451e+001  -2.376706e+001 
3275000000  -4.023746e+001  -3.260751e+001 
3278125000  -4.096592e+001  -3.841661e+001 
3281250000  -4.107388e+001  -3.902223e+001 
3284375000  -4.055868e+001  -4.521883e+001 
3287500000  -4.088465e+001  -4.806240e+001 
3290625000  -4.121767e+001  -5.723728e+001 
3293750000  -4.127613e+001  -6.144392e+001 
3296875000  -4.245697e+001  -6.323431e+001 
3300000000  -4.187358e+001  -6.276547e+001 
3303125000  -4.102721e+001  -6.957294e+001 
3306250000  -4.071051e+001  -7.577992e+001 
3309375000  -4.045371e+001  -8.498354e+001 
3312500000  -4.080775e+001  -9.710876e+001 
3315625000  -4.206748e+001  -1.045824e+002 
3318750000  -4.364525e+001  -1.058873e+002 
3321875000  -4.504605e+001  -1.045145e+002 
3325000000  -4.498149e+001  -9.619491e+001 
3328125000  -4.375057e+001  -9.788555e+001 
3331250000  -4.249388e+001  -9.371783e+001 
3334375000  -3.963092e+001  -1.095232e+002 
3337500000  -4.044772e+001  -1.328059e+002 
3340625000  -4.242631e+001  -1.412302e+002 
3343750000  -4.376982e+001  -1.398845e+002 
3346875000  -4.345181e+001  -1.397900e+002 
3350000000  -4.274051e+001  -1.428228e+002 
3353125000  -4.289904e+001  -1.503072e+002 
3356250000  -4.240937e+001  -1.594418e+002 
3359375000  -4.298524e+001  -1.702411e+002 
3362500000  -4.420338e+001  -1.772662e+002 
3365625000  -4.504527e+001  -1.787149e+002 
3368750000  -4.517501e+001  1.761939e+002 
3371875000  -4.589050e+001  1.720983e+002 
3375000000  -4.750568e+001  1.652061e+002 
3378125000  -4.759362e+001  1.660938e+002 
3381250000  -4.988422e+001  -1.778352e+002 
3384375000  -4.662043e+001  -1.683349e+002 
3387500000  -4.414357e+001  1.728983e+002 
3390625000  -4.600588e+001  1.522902e+002 
3393750000  -4.723881e+001  1.519217e+002 
3396875000  -4.607698e+001  1.514937e+002 
3400000000  -4.591523e+001  1.393555e+002 
3403125000  -4.710654e+001  1.369716e+002 
3406250000  -4.775109e+001  1.326339e+002 
3409375000  -4.782118e+001  1.225573e+002 
3412500000  -4.874628e+001  1.170367e+002 
3415625000  -4.986191e+001  1.158377e+002 
3418750000  -4.990969e+001  1.158888e+002 
3421875000  -5.077971e+001  1.210877e+002 
3425000000  -5.026696e+001  1.215626e+002 
3428125000  -5.023516e+001  1.156656e+002 
3431250000  -5.027127e+001  1.077528e+002 
3434375000  -5.099743e+001  1.038105e+002 
3437500000  -5.153919e+001  1.029531e+002 
3440625000  -5.219486e+001  1.063287e+002 
3443750000  -5.038684e+001  1.092762e+002 
3446875000  -5.040566e+001  1.012518e+002 
3450000000  -5.042030e+001  9.254195e+001 
3453125000  -5.051503e+001  8.466960e+001 
3456250000  -5.177269e+001  8.049678e+001 
3459375000  -5.298712e+001  8.323819e+001 
3462500000  -5.249731e+001  8.963079e+001 
3465625000  -5.083018e+001  8.093395e+001 
3468750000  -5.254719e+001  8.124796e+001 
3471875000  -5.175862e+001  7.665870e+001 
3475000000  -5.100734e+001  6.975155e+001 
3478125000  -5.108557e+001  6.102491e+001 
3481250000  -5.307571e+001  6.447471e+001 
3484375000  -5.227598e+001  6.411414e+001 
3487500000  -5.151434e+001  6.310367e+001 
3490625000  -5.021257e+001  5.754337e+001 
3493750000  -5.096016e+001  4.705622e+001 
3496875000  -5.246737e+001  4.868295e+001 
3500000000  -5.195451e+001  4.503221e+001 
3503125000  -5.113492e+001  4.777600e+001 
3506250000  -5.031995e+001  3.957616e+001 
3509375000  -4.975758e+001  2.561711e+001 
3512500000  -4.946597e+001  1.104447e+001 
3515625000  -5.191119e+001  1.111472e+001 
3518750000  -5.187833e+001  1.391403e+001 
3521875000  -5.260626e+001  5.717835e+000 
3525000000  -5.363973e+001  -6.027644e+000 
3528125000  -5.251171e+001  3.479717e+000 
3531250000  -5.188823e+001  3.775030e-001 
3534375000  -5.222285e+001  -1.617152e+001 
3537500000  -5.468938e+001  -2.235988e+001 
3540625000  -5.462218e+001  -2.234398e+001 
3543750000  -5.482578e+001  -1.899771e+001 
3546875000  -5.504486e+001  -1.545730e+001 
3550000000  -5.479101e+001  -1.785037e+001 
3553125000  -5.344373e+001  -3.359122e+001 
3556250000  -5.661995e+001  -3.877690e+001 
3559375000  -5.576825e+001  -3.788411e+001 
3562500000  -5.713929e+001  -4.688040e+001 
3565625000  -5.724426e+001  -5.284369e+001 
3568750000  -5.653252e+001  -3.535559e+001 
3571875000  -5.919169e+001  -2.891160e+001 
3575000000  -5.802941e+001  -4.245791e+001 
3578125000  -6.023159e+001  -4.569255e+001 
3581250000  -5.997307e+001  -3.808950e+001 
3584375000  -5.988765e+001  -3.359895e+001 
3587500000  -6.059312e+001  -4.925914e+001 
3590625000  -5.877652e+001  -5.155771e+001 
3593750000  -6.268365e+001  -4.361555e+001 
3596875000  -5.927554e+001  -2.753733e+001 
3600000000  -5.685350e+001  -3.641787e+001 
3603125000  -5.778911e+001  -5.321577e+001 
3606250000  -5.823600e+001  -5.751345e+001 
3609375000  -5.774362e+001  -4.990156e+001 
3612500000  -5.751559e+001  -5.448504e+001 
3615625000  -5.771222e+001  -5.052662e+001 
3618750000  -5.903463e+001  -3.661713e+001 
3621875000  -5.824207e+001  -4.773858e+001 
3625000000  -5.721502e+001  -3.677830e+001 
3628125000  -5.663256e+001  -5.024319e+001 
3631250000  -5.730094e+001  -5.496138e+001 
3634375000  -5.829602e+001  -4.305263e+001 
3637500000  -5.606133e+001  -4.045548e+001 
3640625000  -5.472763e+001  -4.294152e+001 
3643750000  -5.295569e+001  -5.158274e+001 
3646875000  -5.240079e+001  -6.485223e+001 
3650000000  -5.321545e+001  -5.754866e+001 
3653125000  -5.219434e+001  -6.431214e+001 
3656250000  -5.286760e+001  -6.296742e+001 
3659375000  -5.201679e+001  -6.365689e+001 
3662500000  -5.042299e+001  -7.210486e+001 
3665625000  -4.994658e+001  -7.383591e+001 
3668750000  -4.795959e+001  -7.315192e+001 
3671875000  -4.735767e+001  -8.007706e+001 
3675000000  -4.702854e+001  -9.557530e+001 
3678125000  -4.721125e+001  -9.804495e+001 
3681250000  -4.653953e+001  -1.006099e+002 
3684375000  -4.705903e+001  -1.053017e+002 
3687500000  -4.666452e+001  -1.143781e+002 
3690625000  -4.675660e+001  -1.193677e+002 
3693750000  -4.701366e+001  -1.185656e+002 
3696875000  -4.633488e+001  -1.169131e+002 
3700000000  -4.506771e+001  -1.272812e+002 
3703125000  -4.558288e+001  -1.294281e+002 
3706250000  -4.606694e+001  -1.332058e+002 
3709375000  -4.491300e+001  -1.349586e+002 
3712500000  -4.339095e+001  -1.386695e+002 
3715625000  -4.161151e+001  -1.484291e+002 
3718750000  -4.165502e+001  -1.513139e+002 
3721875000  -4.129382e+001  -1.629701e+002 
3725000000  -4.158366e+001  -1.708076e+002 
3728125000  -4.119629e+001  -1.746474e+002 
3731250000  -4.067973e+001  -1.799072e+002 
3734375000  -4.017640e+001  1.719987e+002 
3737500000  -4.085091e+001  1.620891e+002 
3740625000  -4.069871e+001  1.577596e+002 
3743750000  -4.060527e+001  1.516873e+002 
3746875000  -4.073563e+001  1.459800e+002 
3750000000  -4.093197e+001  1.410682e+002 
3753125000  -4.040491e+001  1.371905e+002 
3756250000  -4.058730e+001  1.329894e+002 
3759375000  -4.032837e+001  1.284944e+002 
3762500000  -4.022246e+001  1.209542e+002 
3765625000  -4.078721e+001  1.176641e+002 
3768750000  -4.016609e+001  1.171913e+002 
3771875000  -3.848458e+001  1.106179e+002 
3775000000  -3.853210e+001  9.957906e+001 
3778125000  -3.916168e+001  9.241565e+001 
3781250000  -3.896236e+001  8.919389e+001 
3784375000  -3.881477e+001  8.259503e+001 
3787500000  -3.860196e+001  7.593584e+001 
3790625000  -3.909781e+001  6.665350e+001 
3793750000  -3.917887e+001  6.417465e+001 
3796875000  -3.833690e+001  6.001484e+001 
3800000000  -3.640567e+001  5.592205e+001 
3803125000  -3.800071e+001  4.189253e+001 
3806250000  -3.900741e+001  3.627976e+001 
3809375000  -3.847445e+001  3.477287e+001 
3812500000  -3.833902e+001  2.397404e+001 
3815625000  -3.939180e+001  1.424906e+001 
3818750000  -4.063931e+001  1.694810e+001 
3821875000  -4.009718e+001  2.634041e+001 
3825000000  -3.858322e+001  2.234948e+001 
3828125000  -3.684091e+001  3.028299e+000 
3831250000  -3.817573e+001  -1.009337e+001 
3834375000  -4.024876e+001  -1.207777e+001 
3837500000  -4.038670e+001  -5.958796e+000 
3840625000  -3.890564e+001  -1.090601e+001 
3843750000  -3.819673e+001  -2.626255e+001 
3846875000  -3.996370e+001  -3.267217e+001 
3850000000  -4.107725e+001  -2.464931e+001 
3853125000  -4.000089e+001  -2.583084e+001 
3856250000  -3.944343e+001  -3.491297e+001 
3859375000  -3.853525e+001  -4.043552e+001 
3862500000  -3.852077e+001  -5.140489e+001 
3865625000  -3.908371e+001  -5.514059e+001 
3868750000  -3.876104e+001  -5.720677e+001 
3871875000  -3.812881e+001  -6.486286e+001 
3875000000  -3.851107e+001  -7.557529e+001 
3878125000  -3.945917e+001  -7.680810e+001 
3881250000  -3.911836e+001  -7.705319e+001 
3884375000  -3.866444e+001  -8.383922e+001 
3887500000  -3.911891e+001  -9.035841e+001 
3890625000  -3.951601e+001  -9.476672e+001 
3893750000  -3.984393e+001  -9.714890e+001 
3896875000  -4.013543e+001  -1.002890e+002 
3900000000  -3.989668e+001  -1.038665e+002 
3903125000  -3.915215e+001  -1.068850e+002 
3906250000  -3.890847e+001  -1.107058e+002 
3909375000  -3.833311e+001  -1.205370e+002 
3912500000  -3.920786e+001  -1.299253e+002 
3915625000  -4.033960e+001  -1.303094e+002 
3918750000  -4.005518e+001  -1.292692e+002 
3921875000  -3.934113e+001  -1.351494e+002 
3925000000  -3.859476e+001  -1.417337e+002 
3928125000  -3.818119e+001  -1.503370e+002 
3931250000  -3.911831e+001  -1.572447e+002 
3934375000  -3.949248e+001  -1.578145e+002 
3937500000  -4.006586e+001  -1.613084e+002 
3940625000  -4.005127e+001  -1.616155e+002 
3943750000  -3.899218e+001  -1.664805e+002 
3946875000  -3.863447e+001  -1.736218e+002 
3950000000  -3.946689e+001  1.780855e+002 
3953125000  -4.006708e+001  1.783651e+002 
3956250000  -3.889769e+001  1.764474e+002 
3959375000  -3.780019e+001  1.707419e+002 
3962500000  -3.774991e+001  1.626924e+002 
3965625000  -3.775366e+001  1.519134e+002 
3968750000  -3.879595e+001  1.446948e+002 
3971875000  -3.848030e+001  1.400143e+002 
3975000000  -3.849511e+001  1.365463e+002 
3978125000  -3.828891e+001  1.316777e+002 
3981250000  -3.861970e+001  1.236962e+002 
3984375000  -3.893649e+001  1.178764e+002 
3987500000  -3.974096e+001  1.140763e+002 
3990625000  -4.023475e+001  1.137619e+002 
3993750000  -3.987419e+001  1.059556e+002 
3996875000  -3.999954e+001  1.030127e+002 
4000000000  -4.056717e+001  9.754375e+001 
4003125000  -4.092877e+001  9.973833e+001 
4006250000  -3.941442e+001  9.816882e+001 
4009375000  -3.897300e+001  8.306721e+001 
4012500000  -4.016799e+001  7.464265e+001 
4015625000  -4.140750e+001  7.567441e+001 
4018750000  -4.133945e+001  7.590895e+001 
4021875000  -4.083867e+001  7.292596e+001 
4025000000  -4.046967e+001  6.621875e+001 
4028125000  -4.048666e+001  6.063798e+001 
4031250000  -4.168835e+001  5.394862e+001 
4034375000  -4.149083e+001  5.533530e+001 
4037500000  -4.094983e+001  5.385883e+001 
4040625000  -4.098520e+001  5.108718e+001 
4043750000  -4.115098e+001  4.948092e+001 
4046875000  -4.096474e+001  4.253690e+001 
4050000000  -4.054662e+001  3.839331e+001 
4053125000  -4.137580e+001  3.794242e+001 
4056250000  -4.136902e+001  3.946812e+001 
4059375000  -3.945403e+001  3.733009e+001 
4062500000  -3.893805e+001  2.888083e+001 
4065625000  -3.895772e+001  2.499193e+001 
4068750000  -3.819928e+001  1.679828e+001 
4071875000  -3.795135e+001  8.043933e+000 
4075000000  -3.839445e+001  1.367290e+000 
4078125000  -3.869408e+001  -3.520149e+000 
4081250000  -3.821645e+001  -7.777345e+000 
4084375000  -3.813713e+001  -1.722124e+001 
4087500000  -3.859193e+001  -2.347028e+001 
4090625000  -3.915486e+001  -2.534834e+001 
4093750000  -3.874008e+001  -2.988853e+001 
4096875000  -3.875125e+001  -4.023265e+001 
4100000000  -3.972903e+001  -4.556709e+001 
4103125000  -4.074497e+001  -4.327977e+001 
4106250000  -4.011708e+001  -4.131857e+001 
4109375000  -3.915705e+001  -4.466041e+001 
4112500000  -3.876205e+001  -5.334996e+001 
4115625000  -3.922696e+001  -5.973608e+001 
4118750000  -3.901147e+001  -6.596766e+001 
4121875000  -3.883452e+001  -7.352313e+001 
4125000000  -3.986169e+001  -7.822847e+001 
4128125000  -4.092747e+001  -7.655044e+001 
4131250000  -3.947103e+001  -7.246106e+001 
4134375000  -3.765476e+001  -8.221600e+001 
4137500000  -3.814154e+001  -1.002851e+002 
4140625000  -4.059348e+001  -1.074177e+002 
4143750000  -4.103123e+001  -1.016640e+002 
4146875000  -4.068551e+001  -9.936770e+001 
4150000000  -3.959330e+001  -1.074791e+002 
4153125000  -3.993058e+001  -1.131047e+002 
4156250000  -4.137009e+001  -1.179745e+002 
4159375000  -4.127081e+001  -1.133139e+002 
4162500000  -4.006036e+001  -1.106318e+002 
4165625000  -3.875200e+001  -1.192064e+002 
4168750000  -3.844363e+001  -1.287995e+002 
4171875000  -3.844734e+001  -1.395255e+002 
4175000000  -3.931409e+001  -1.443964e+002 
4178125000  -3.954779e+001  -1.447919e+002 
4181250000  -3.929718e+001  -1.499203e+002 
4184375000  -3.944944e+001  -1.547116e+002 
4187500000  -3.969580e+001  -1.617023e+002 
4190625000  -3.955176e+001  -1.678611e+002 
4193750000  -4.066806e+001  -1.716090e+002 
4196875000  -4.162156e+001  -1.711943e+002 
4200000000  -4.279571e+001  -1.641361e+002 
4203125000  -4.116613e+001  -1.550583e+002 
4206250000  -3.742292e+001  -1.642862e+002 
4209375000  -3.730906e+001  1.733975e+002 
4212500000  -3.960115e+001  1.652969e+002 
4215625000  -4.001416e+001  1.754487e+002 
4218750000  -3.815986e+001  1.748570e+002 
4221875000  -3.662370e+001  1.645722e+002 
4225000000  -3.787669e+001  1.523067e+002 
4228125000  -3.774569e+001  1.538467e+002 
4231250000  -3.623997e+001  1.459244e+002 
4234375000  -3.635339e+001  1.362337e+002 
4237500000  -3.623152e+001  1.318850e+002 
4240625000  -3.631850e+001  1.197999e+002 
4243750000  -3.771211e+001  1.105165e+002 
4246875000  -3.862637e+001  1.102253e+002 
4250000000  -3.843309e+001  1.117800e+002 
4253125000  -3.819754e+001  1.074822e+002 
4256250000  -3.804500e+001  1.030352e+002 
4259375000  -3.786731e+001  9.609978e+001 
4262500000  -3.783041e+001  9.189639e+001 
4265625000  -3.799130e+001  9.066950e+001 
4268750000  -3.687738e+001  8.222519e+001 
4271875000  -3.687355e+001  7.315977e+001 
4275000000  -3.673110e+001  6.550011e+001 
4278125000  -3.778694e+001  5.394177e+001 
4281250000  -3.903493e+001  5.285913e+001 
4284375000  -3.899637e+001  5.010090e+001 
4287500000  -4.038106e+001  4.506792e+001 
4290625000  -4.076489e+001  5.473775e+001 
4293750000  -3.878525e+001  5.501247e+001 
4296875000  -3.778906e+001  4.165807e+001 
4300000000  -3.914424e+001  3.255720e+001 
4303125000  -3.978003e+001  3.340758e+001 
4306250000  -3.857310e+001  3.779581e+001 
4309375000  -3.769427e+001  3.230120e+001 
4312500000  -3.753416e+001  2.064169e+001 
4315625000  -3.785843e+001  1.197087e+001 
4318750000  -3.880159e+001  8.004365e+000 
4321875000  -3.874757e+001  9.271508e+000 
4325000000  -3.811347e+001  7.973501e+000 
4328125000  -3.739156e+001  -6.928918e-001 
4331250000  -3.762684e+001  -1.185699e+001 
4334375000  -3.843445e+001  -1.974290e+001 
4337500000  -3.959306e+001  -1.952141e+001 
4340625000  -3.973088e+001  -1.519547e+001 
4343750000  -3.857281e+001  -1.702718e+001 
4346875000  -3.835976e+001  -2.714993e+001 
4350000000  -3.847693e+001  -3.474501e+001 
4353125000  -3.895742e+001  -4.136945e+001 
4356250000  -4.130466e+001  -3.776432e+001 
4359375000  -3.974800e+001  -2.611936e+001 
4362500000  -3.629550e+001  -3.277368e+001 
4365625000  -3.576223e+001  -5.151359e+001 
4368750000  -3.724080e+001  -5.976340e+001 
4371875000  -3.796549e+001  -5.959133e+001 
4375000000  -3.745567e+001  -6.336427e+001 
4378125000  -3.691431e+001  -7.250075e+001 
4381250000  -3.708264e+001  -7.984173e+001 
4384375000  -3.724636e+001  -8.569140e+001 
4387500000  -3.827829e+001  -9.317901e+001 
4390625000  -3.848515e+001  -9.197211e+001 
4393750000  -3.798534e+001  -9.366586e+001 
4396875000  -3.736678e+001  -9.771620e+001 
4400000000  -3.694883e+001  -1.071446e+002 
4403125000  -3.804013e+001  -1.166086e+002 
4406250000  -3.839092e+001  -1.210086e+002 
4409375000  -3.860796e+001  -1.247193e+002 
4412500000  -3.983986e+001  -1.263051e+002 
4415625000  -3.968893e+001  -1.219660e+002 
