!Agilent Technologies,E8363B,MY43030201,A.06.04.32
!Agilent E8363B: A.06.04.32
!Date: Tuesday, November 11, 2014 21:30:29
!Correction: S21(Response(S21)) 
!S1P File: Measurement: S21:
# Hz S  dB   R 50
3000000000  -4.068250e+001  8.408959e+001 
3003125000  -4.220956e+001  7.698066e+001 
3006250000  -4.218142e+001  7.552793e+001 
3009375000  -4.265448e+001  8.094335e+001 
3012500000  -4.164022e+001  7.521827e+001 
3015625000  -4.140154e+001  6.828339e+001 
3018750000  -4.200795e+001  6.782990e+001 
3021875000  -4.028793e+001  6.881393e+001 
3025000000  -3.895778e+001  6.606672e+001 
3028125000  -3.808457e+001  5.650486e+001 
3031250000  -3.703113e+001  4.400768e+001 
3034375000  -3.680641e+001  2.974030e+001 
3037500000  -3.754350e+001  1.940162e+001 
3040625000  -3.892652e+001  1.391648e+001 
3043750000  -3.934377e+001  7.262008e+000 
3046875000  -3.971810e+001  5.646294e-001 
3050000000  -4.108416e+001  -3.756645e+000 
3053125000  -4.054971e+001  2.149638e+000 
3056250000  -4.034167e+001  4.768833e+000 
3059375000  -3.966187e+001  3.548889e+000 
3062500000  -3.812993e+001  -2.269027e+000 
3065625000  -3.799663e+001  -1.192663e+001 
3068750000  -3.745512e+001  -1.962436e+001 
3071875000  -3.760446e+001  -2.166718e+001 
3075000000  -3.713552e+001  -2.885187e+001 
3078125000  -3.709311e+001  -3.477094e+001 
3081250000  -3.731593e+001  -4.059929e+001 
3084375000  -3.639632e+001  -4.553554e+001 
3087500000  -3.647213e+001  -5.276151e+001 
3090625000  -3.592975e+001  -6.399557e+001 
3093750000  -3.688831e+001  -7.205517e+001 
3096875000  -3.731799e+001  -7.814605e+001 
3100000000  -3.716140e+001  -8.020543e+001 
3103125000  -3.761070e+001  -8.457979e+001 
3106250000  -3.733896e+001  -8.997942e+001 
3109375000  -3.730209e+001  -9.357071e+001 
3112500000  -3.729416e+001  -9.949780e+001 
3115625000  -3.707577e+001  -1.031141e+002 
3118750000  -3.733229e+001  -1.064118e+002 
3121875000  -3.637469e+001  -1.175877e+002 
3125000000  -3.844390e+001  -1.203160e+002 
3128125000  -3.852543e+001  -1.139208e+002 
3131250000  -3.612127e+001  -1.188117e+002 
3134375000  -3.530379e+001  -1.367597e+002 
3137500000  -3.610497e+001  -1.490869e+002 
3140625000  -3.745436e+001  -1.513467e+002 
3143750000  -3.821941e+001  -1.543336e+002 
3146875000  -3.768567e+001  -1.523297e+002 
3150000000  -3.680352e+001  -1.558995e+002 
3153125000  -3.713091e+001  -1.646657e+002 
3156250000  -3.796922e+001  -1.603045e+002 
3159375000  -3.569649e+001  -1.610828e+002 
3162500000  -3.416962e+001  -1.767527e+002 
3165625000  -3.548848e+001  1.699642e+002 
3168750000  -3.539218e+001  1.689412e+002 
3171875000  -3.491372e+001  1.611889e+002 
3175000000  -3.552731e+001  1.526516e+002 
3178125000  -3.513864e+001  1.509139e+002 
3181250000  -3.441899e+001  1.428370e+002 
3184375000  -3.416769e+001  1.316092e+002 
3187500000  -3.531395e+001  1.169600e+002 
3190625000  -3.719789e+001  1.112242e+002 
3193750000  -3.752765e+001  1.153193e+002 
3196875000  -3.742113e+001  1.165302e+002 
3200000000  -3.622363e+001  1.122695e+002 
3203125000  -3.590242e+001  1.035787e+002 
3206250000  -3.623176e+001  9.541454e+001 
3209375000  -3.581169e+001  8.862883e+001 
3212500000  -3.620581e+001  8.138107e+001 
3215625000  -3.593394e+001  7.843979e+001 
3218750000  -3.680377e+001  6.751019e+001 
3221875000  -3.733479e+001  6.014788e+001 
3225000000  -3.701781e+001  5.627529e+001 
3228125000  -3.774599e+001  4.981350e+001 
3231250000  -3.829908e+001  4.744938e+001 
3234375000  -3.797849e+001  4.427173e+001 
3237500000  -3.815640e+001  4.082077e+001 
3240625000  -3.755709e+001  3.563335e+001 
3243750000  -3.759127e+001  2.554526e+001 
3246875000  -3.816201e+001  1.796891e+001 
3250000000  -3.878167e+001  1.455437e+001 
3253125000  -3.885493e+001  1.052557e+001 
3256250000  -3.863852e+001  2.059946e+000 
3259375000  -3.911670e+001  -6.564757e+000 
3262500000  -4.073658e+001  -1.246833e+001 
3265625000  -4.111874e+001  -8.627316e+000 
3268750000  -4.132470e+001  -7.721620e+000 
3271875000  -4.061595e+001  -1.163136e+001 
3275000000  -4.021468e+001  -1.975260e+001 
3278125000  -4.066431e+001  -2.627582e+001 
3281250000  -4.096953e+001  -2.529960e+001 
3284375000  -4.064320e+001  -3.167069e+001 
3287500000  -4.082901e+001  -3.692491e+001 
3290625000  -4.121540e+001  -4.341012e+001 
3293750000  -4.121890e+001  -4.929510e+001 
3296875000  -4.257783e+001  -5.106779e+001 
3300000000  -4.172855e+001  -5.053312e+001 
3303125000  -4.089614e+001  -5.703217e+001 
3306250000  -4.074056e+001  -6.534515e+001 
3309375000  -4.029861e+001  -7.311565e+001 
3312500000  -4.076851e+001  -8.331944e+001 
3315625000  -4.201765e+001  -8.912029e+001 
3318750000  -4.388739e+001  -9.486101e+001 
3321875000  -4.496629e+001  -9.466578e+001 
3325000000  -4.481685e+001  -8.533326e+001 
3328125000  -4.385582e+001  -8.605239e+001 
3331250000  -4.190703e+001  -8.182434e+001 
3334375000  -3.975142e+001  -9.736835e+001 
3337500000  -4.029615e+001  -1.184378e+002 
3340625000  -4.214931e+001  -1.275491e+002 
3343750000  -4.416609e+001  -1.274100e+002 
3346875000  -4.325648e+001  -1.250755e+002 
3350000000  -4.319253e+001  -1.315970e+002 
3353125000  -4.271343e+001  -1.380162e+002 
3356250000  -4.233138e+001  -1.467811e+002 
3359375000  -4.337747e+001  -1.567348e+002 
3362500000  -4.412371e+001  -1.625696e+002 
3365625000  -4.475264e+001  -1.669898e+002 
3368750000  -4.535012e+001  -1.691560e+002 
3371875000  -4.543741e+001  -1.744569e+002 
3375000000  -4.779805e+001  -1.786566e+002 
3378125000  -4.789626e+001  -1.765020e+002 
3381250000  -4.936132e+001  -1.706055e+002 
3384375000  -4.674399e+001  -1.530778e+002 
3387500000  -4.354777e+001  -1.718540e+002 
3390625000  -4.576171e+001  1.661597e+002 
3393750000  -4.672914e+001  1.631399e+002 
3396875000  -4.569828e+001  1.667207e+002 
3400000000  -4.583295e+001  1.537033e+002 
3403125000  -4.673072e+001  1.469638e+002 
3406250000  -4.777207e+001  1.456153e+002 
3409375000  -4.766334e+001  1.368130e+002 
3412500000  -4.862519e+001  1.266064e+002 
3415625000  -5.000099e+001  1.319400e+002 
3418750000  -5.005271e+001  1.305310e+002 
3421875000  -5.062023e+001  1.352916e+002 
3425000000  -4.970744e+001  1.305327e+002 
3428125000  -5.010236e+001  1.292941e+002 
3431250000  -4.991294e+001  1.227699e+002 
3434375000  -5.002447e+001  1.151716e+002 
3437500000  -5.034632e+001  1.179931e+002 
3440625000  -5.217628e+001  1.159577e+002 
3443750000  -5.039322e+001  1.204881e+002 
3446875000  -4.972407e+001  1.152132e+002 
3450000000  -4.914993e+001  1.096143e+002 
3453125000  -4.960663e+001  9.589072e+001 
3456250000  -5.214085e+001  9.446507e+001 
3459375000  -5.291354e+001  9.650295e+001 
3462500000  -5.140607e+001  9.944474e+001 
3465625000  -5.131493e+001  9.260084e+001 
3468750000  -5.149490e+001  8.986066e+001 
3471875000  -5.136797e+001  8.987992e+001 
3475000000  -5.070802e+001  8.363451e+001 
3478125000  -5.038974e+001  7.577813e+001 
3481250000  -5.229195e+001  7.849514e+001 
3484375000  -5.184746e+001  7.548454e+001 
3487500000  -5.152960e+001  7.526585e+001 
3490625000  -5.040863e+001  6.721520e+001 
3493750000  -5.098754e+001  6.120775e+001 
3496875000  -5.067895e+001  6.214758e+001 
3500000000  -5.151178e+001  5.453553e+001 
3503125000  -5.024694e+001  5.578375e+001 
3506250000  -4.934609e+001  5.006242e+001 
3509375000  -4.929713e+001  3.993729e+001 
3512500000  -4.970806e+001  2.369082e+001 
3515625000  -4.987789e+001  2.052585e+001 
3518750000  -5.152424e+001  2.357252e+001 
3521875000  -5.184064e+001  1.326216e+001 
3525000000  -5.323756e+001  1.511835e+001 
3528125000  -5.133219e+001  2.030149e+001 
3531250000  -5.181469e+001  1.287909e+001 
3534375000  -5.243993e+001  -3.854768e+000 
3537500000  -5.351506e+001  -1.627730e+001 
3540625000  -5.399804e+001  -1.160442e+001 
3543750000  -5.546473e+001  -1.557310e+000 
3546875000  -5.560106e+001  -5.430927e+000 
3550000000  -5.388052e+001  -7.029105e-001 
3553125000  -5.257803e+001  -2.715042e+001 
3556250000  -5.487441e+001  -2.729676e+001 
3559375000  -5.544110e+001  -3.340087e+001 
3562500000  -5.549230e+001  -3.644392e+001 
3565625000  -5.512615e+001  -4.114943e+001 
3568750000  -5.632014e+001  -3.053697e+001 
3571875000  -5.892133e+001  -2.718449e+001 
3575000000  -5.797777e+001  -3.518409e+001 
3578125000  -5.847047e+001  -3.958297e+001 
3581250000  -5.775015e+001  -3.388111e+001 
3584375000  -5.755098e+001  -3.339066e+001 
3587500000  -5.770665e+001  -3.220612e+001 
3590625000  -5.834529e+001  -5.127180e+001 
3593750000  -5.827908e+001  -3.720934e+001 
3596875000  -5.886175e+001  -3.896572e+001 
3600000000  -5.700406e+001  -4.343118e+001 
3603125000  -5.689245e+001  -4.436469e+001 
3606250000  -5.904341e+001  -5.364001e+001 
3609375000  -5.904603e+001  -3.819883e+001 
3612500000  -5.894420e+001  -4.590393e+001 
3615625000  -5.829503e+001  -5.248479e+001 
3618750000  -5.855651e+001  -3.656652e+001 
3621875000  -5.791138e+001  -3.986820e+001 
3625000000  -5.643904e+001  -4.798843e+001 
3628125000  -5.718798e+001  -3.023481e+001 
3631250000  -5.680005e+001  -4.290120e+001 
3634375000  -5.659045e+001  -3.057034e+001 
3637500000  -5.550117e+001  -3.108860e+001 
3640625000  -5.468713e+001  -2.889142e+001 
3643750000  -5.320572e+001  -3.641150e+001 
3646875000  -5.364642e+001  -4.379147e+001 
3650000000  -5.432144e+001  -4.690723e+001 
3653125000  -5.240398e+001  -5.301698e+001 
3656250000  -5.254074e+001  -5.082578e+001 
3659375000  -5.250489e+001  -5.296029e+001 
3662500000  -5.068300e+001  -5.624025e+001 
3665625000  -5.024011e+001  -6.241560e+001 
3668750000  -4.823183e+001  -6.356003e+001 
3671875000  -4.771975e+001  -7.208547e+001 
3675000000  -4.778770e+001  -8.099295e+001 
3678125000  -4.784818e+001  -8.206696e+001 
3681250000  -4.668855e+001  -8.898035e+001 
3684375000  -4.676985e+001  -9.340784e+001 
3687500000  -4.709097e+001  -9.779382e+001 
3690625000  -4.699356e+001  -1.065690e+002 
3693750000  -4.735266e+001  -1.034882e+002 
3696875000  -4.689839e+001  -1.040710e+002 
3700000000  -4.530920e+001  -1.137920e+002 
3703125000  -4.559423e+001  -1.213778e+002 
3706250000  -4.587525e+001  -1.190880e+002 
3709375000  -4.526853e+001  -1.178183e+002 
3712500000  -4.369474e+001  -1.245792e+002 
3715625000  -4.183323e+001  -1.354906e+002 
3718750000  -4.219496e+001  -1.410545e+002 
3721875000  -4.133299e+001  -1.513014e+002 
3725000000  -4.168410e+001  -1.566123e+002 
3728125000  -4.151265e+001  -1.599494e+002 
3731250000  -4.069238e+001  -1.663400e+002 
3734375000  -4.046771e+001  -1.728425e+002 
3737500000  -4.106267e+001  1.753447e+002 
3740625000  -4.100724e+001  1.707336e+002 
3743750000  -4.031636e+001  1.674672e+002 
3746875000  -4.081456e+001  1.564418e+002 
3750000000  -4.115292e+001  1.535812e+002 
3753125000  -4.065988e+001  1.506452e+002 
3756250000  -4.070766e+001  1.468272e+002 
3759375000  -4.026316e+001  1.427525e+002 
3762500000  -3.996799e+001  1.346541e+002 
3765625000  -4.084092e+001  1.302013e+002 
3768750000  -4.021269e+001  1.309010e+002 
3771875000  -3.866257e+001  1.226729e+002 
3775000000  -3.862385e+001  1.118482e+002 
3778125000  -3.924363e+001  1.061843e+002 
3781250000  -3.907349e+001  1.018579e+002 
3784375000  -3.879434e+001  9.586282e+001 
3787500000  -3.850174e+001  8.966330e+001 
3790625000  -3.925879e+001  8.039877e+001 
3793750000  -3.916775e+001  7.659430e+001 
3796875000  -3.840062e+001  7.315201e+001 
3800000000  -3.630783e+001  6.930028e+001 
3803125000  -3.803503e+001  5.354026e+001 
3806250000  -3.914714e+001  5.183149e+001 
3809375000  -3.846970e+001  4.662799e+001 
3812500000  -3.848683e+001  3.828443e+001 
3815625000  -3.951214e+001  2.773295e+001 
3818750000  -4.049520e+001  2.955955e+001 
3821875000  -4.033723e+001  3.788839e+001 
3825000000  -3.811600e+001  3.671941e+001 
3828125000  -3.709696e+001  1.695897e+001 
3831250000  -3.801934e+001  2.402579e+000 
3834375000  -4.030457e+001  1.159425e+000 
3837500000  -4.071897e+001  4.341912e+000 
3840625000  -3.873605e+001  2.534359e+000 
3843750000  -3.831564e+001  -1.178348e+001 
3846875000  -3.970672e+001  -1.781709e+001 
3850000000  -4.079210e+001  -1.258349e+001 
3853125000  -4.001371e+001  -1.231021e+001 
3856250000  -3.973401e+001  -2.047600e+001 
3859375000  -3.861115e+001  -2.489777e+001 
3862500000  -3.832580e+001  -3.703858e+001 
3865625000  -3.901131e+001  -4.192155e+001 
3868750000  -3.860904e+001  -4.358093e+001 
3871875000  -3.792335e+001  -4.881173e+001 
3875000000  -3.840030e+001  -5.958161e+001 
3878125000  -3.936673e+001  -6.281116e+001 
3881250000  -3.929284e+001  -6.076297e+001 
3884375000  -3.874503e+001  -7.099998e+001 
3887500000  -3.888842e+001  -7.548272e+001 
3890625000  -3.951785e+001  -8.147784e+001 
3893750000  -3.962191e+001  -8.257217e+001 
3896875000  -3.998250e+001  -8.533215e+001 
3900000000  -3.981864e+001  -8.992721e+001 
3903125000  -3.951752e+001  -9.314781e+001 
3906250000  -3.876695e+001  -9.623754e+001 
3909375000  -3.806840e+001  -1.064380e+002 
3912500000  -3.892679e+001  -1.144669e+002 
3915625000  -4.034449e+001  -1.136729e+002 
3918750000  -3.995595e+001  -1.161924e+002 
3921875000  -3.934509e+001  -1.226112e+002 
3925000000  -3.850813e+001  -1.278046e+002 
3928125000  -3.834119e+001  -1.352109e+002 
3931250000  -3.896428e+001  -1.422702e+002 
3934375000  -3.951796e+001  -1.445157e+002 
3937500000  -3.988778e+001  -1.468295e+002 
3940625000  -3.990976e+001  -1.481389e+002 
3943750000  -3.886078e+001  -1.515235e+002 
3946875000  -3.808618e+001  -1.597027e+002 
3950000000  -3.945848e+001  -1.680389e+002 
3953125000  -4.007967e+001  -1.666741e+002 
3956250000  -3.856625e+001  -1.670247e+002 
3959375000  -3.779657e+001  -1.740122e+002 
3962500000  -3.739071e+001  1.762906e+002 
3965625000  -3.761502e+001  1.670124e+002 
3968750000  -3.870864e+001  1.589935e+002 
3971875000  -3.859988e+001  1.551277e+002 
3975000000  -3.808817e+001  1.492314e+002 
3978125000  -3.819519e+001  1.457193e+002 
3981250000  -3.849541e+001  1.405531e+002 
3984375000  -3.885772e+001  1.326946e+002 
3987500000  -3.954395e+001  1.291915e+002 
3990625000  -3.991024e+001  1.267109e+002 
3993750000  -3.995474e+001  1.220383e+002 
3996875000  -3.953079e+001  1.183152e+002 
4000000000  -4.036893e+001  1.137406e+002 
4003125000  -4.134095e+001  1.133642e+002 
4006250000  -3.941127e+001  1.133990e+002 
4009375000  -3.861324e+001  9.818868e+001 
4012500000  -3.984005e+001  9.275533e+001 
4015625000  -4.123783e+001  8.934831e+001 
4018750000  -4.138785e+001  9.046489e+001 
4021875000  -4.067043e+001  8.809478e+001 
4025000000  -4.034299e+001  8.132432e+001 
4028125000  -4.008034e+001  7.436267e+001 
4031250000  -4.071153e+001  7.033837e+001 
4034375000  -4.124915e+001  7.048199e+001 
4037500000  -4.099841e+001  7.368296e+001 
4040625000  -4.069704e+001  6.680837e+001 
4043750000  -4.088387e+001  6.365729e+001 
4046875000  -4.047168e+001  5.814994e+001 
4050000000  -4.016402e+001  5.482389e+001 
4053125000  -4.121573e+001  5.211105e+001 
4056250000  -4.121175e+001  5.705269e+001 
4059375000  -3.930992e+001  5.337622e+001 
4062500000  -3.886953e+001  4.636526e+001 
4065625000  -3.850302e+001  4.136447e+001 
4068750000  -3.802370e+001  3.266874e+001 
4071875000  -3.762426e+001  2.432286e+001 
4075000000  -3.813564e+001  1.490940e+001 
4078125000  -3.835917e+001  1.212555e+001 
4081250000  -3.781353e+001  6.929625e+000 
4084375000  -3.796646e+001  -3.192216e+000 
4087500000  -3.834870e+001  -9.850825e+000 
4090625000  -3.884405e+001  -1.108426e+001 
4093750000  -3.833241e+001  -1.452643e+001 
4096875000  -3.844268e+001  -2.384862e+001 
4100000000  -3.933896e+001  -2.988499e+001 
4103125000  -4.037429e+001  -2.765105e+001 
4106250000  -3.971266e+001  -2.629124e+001 
4109375000  -3.885548e+001  -2.931307e+001 
4112500000  -3.838747e+001  -3.790978e+001 
4115625000  -3.910024e+001  -4.468835e+001 
4118750000  -3.871272e+001  -5.079040e+001 
4121875000  -3.867361e+001  -5.722436e+001 
4125000000  -3.946533e+001  -6.309716e+001 
4128125000  -4.039271e+001  -6.061367e+001 
4131250000  -3.944852e+001  -5.671271e+001 
4134375000  -3.722148e+001  -6.405728e+001 
4137500000  -3.779693e+001  -8.633309e+001 
4140625000  -4.005707e+001  -9.314129e+001 
4143750000  -4.104944e+001  -8.792911e+001 
4146875000  -4.001466e+001  -8.209618e+001 
4150000000  -3.938741e+001  -9.146956e+001 
4153125000  -3.966169e+001  -1.002745e+002 
4156250000  -4.082096e+001  -1.011556e+002 
4159375000  -4.082253e+001  -1.002717e+002 
4162500000  -3.943161e+001  -9.554090e+001 
4165625000  -3.838206e+001  -1.035676e+002 
4168750000  -3.818594e+001  -1.115940e+002 
4171875000  -3.794098e+001  -1.222979e+002 
4175000000  -3.895372e+001  -1.302986e+002 
4178125000  -3.894391e+001  -1.307172e+002 
4181250000  -3.900220e+001  -1.334546e+002 
4184375000  -3.920044e+001  -1.403385e+002 
4187500000  -3.923132e+001  -1.443920e+002 
4190625000  -3.878988e+001  -1.530013e+002 
4193750000  -4.023811e+001  -1.580434e+002 
4196875000  -4.084632e+001  -1.561150e+002 
4200000000  -4.220753e+001  -1.503706e+002 
4203125000  -4.061053e+001  -1.422122e+002 
4206250000  -3.738934e+001  -1.483489e+002 
4209375000  -3.704019e+001  -1.720226e+002 
4212500000  -3.907898e+001  -1.791784e+002 
4215625000  -3.971792e+001  -1.723752e+002 
4218750000  -3.790267e+001  -1.692878e+002 
4221875000  -3.609832e+001  1.794360e+002 
4225000000  -3.711360e+001  1.671992e+002 
4228125000  -3.734031e+001  1.694166e+002 
4231250000  -3.580651e+001  1.611594e+002 
4234375000  -3.586554e+001  1.521325e+002 
4237500000  -3.571087e+001  1.459616e+002 
4240625000  -3.593498e+001  1.336705e+002 
4243750000  -3.689989e+001  1.249107e+002 
4246875000  -3.788699e+001  1.259644e+002 
4250000000  -3.779440e+001  1.256138e+002 
4253125000  -3.741787e+001  1.233416e+002 
4256250000  -3.744027e+001  1.179039e+002 
4259375000  -3.705748e+001  1.097145e+002 
4262500000  -3.719627e+001  1.073284e+002 
4265625000  -3.725698e+001  1.045155e+002 
4268750000  -3.649012e+001  9.743504e+001 
4271875000  -3.626428e+001  8.966802e+001 
4275000000  -3.588132e+001  7.940714e+001 
4278125000  -3.698297e+001  6.664700e+001 
4281250000  -3.851199e+001  6.573627e+001 
4284375000  -3.819727e+001  6.253975e+001 
4287500000  -3.987239e+001  5.875839e+001 
4290625000  -3.998127e+001  6.741700e+001 
4293750000  -3.824168e+001  7.003710e+001 
4296875000  -3.726657e+001  5.643209e+001 
4300000000  -3.837396e+001  4.621388e+001 
4303125000  -3.896283e+001  4.835003e+001 
4306250000  -3.815671e+001  5.087669e+001 
4309375000  -3.706826e+001  4.463977e+001 
4312500000  -3.717088e+001  3.298598e+001 
4315625000  -3.752773e+001  2.589039e+001 
4318750000  -3.803084e+001  2.387750e+001 
4321875000  -3.785311e+001  2.279711e+001 
4325000000  -3.735441e+001  2.162744e+001 
4328125000  -3.657187e+001  1.150473e+001 
4331250000  -3.701345e+001  2.095791e+000 
4334375000  -3.744650e+001  -6.643851e+000 
4337500000  -3.870951e+001  -6.523532e+000 
4340625000  -3.879840e+001  -2.322314e+000 
4343750000  -3.800023e+001  -4.844174e+000 
4346875000  -3.796365e+001  -1.338201e+001 
4350000000  -3.749674e+001  -2.147137e+001 
4353125000  -3.812747e+001  -2.930502e+001 
4356250000  -4.036523e+001  -2.724969e+001 
4359375000  -3.953903e+001  -1.137655e+001 
4362500000  -3.616122e+001  -2.178506e+001 
4365625000  -3.555305e+001  -3.678403e+001 
4368750000  -3.644075e+001  -4.813044e+001 
4371875000  -3.738929e+001  -4.772716e+001 
4375000000  -3.670375e+001  -5.126821e+001 
4378125000  -3.658094e+001  -5.976061e+001 
4381250000  -3.665975e+001  -6.646017e+001 
4384375000  -3.656551e+001  -7.276767e+001 
4387500000  -3.755191e+001  -7.946634e+001 
4390625000  -3.810043e+001  -8.033474e+001 
4393750000  -3.744744e+001  -8.006760e+001 
4396875000  -3.664622e+001  -8.495782e+001 
4400000000  -3.633088e+001  -9.448224e+001 
4403125000  -3.724868e+001  -1.046813e+002 
4406250000  -3.757809e+001  -1.070433e+002 
4409375000  -3.771660e+001  -1.102327e+002 
4412500000  -3.898044e+001  -1.143221e+002 
4415625000  -3.888637e+001  -1.103006e+002 
