!Agilent Technologies,E8363B,MY43030201,A.06.04.32
!Agilent E8363B: A.06.04.32
!Date: Tuesday, November 11, 2014 21:34:24
!Correction: S21(Response(S21)) 
!S1P File: Measurement: S21:
# Hz S  dB   R 50
3000000000  -4.059920e+001  7.348196e+001 
3003125000  -4.218283e+001  6.422215e+001 
3006250000  -4.210298e+001  6.485934e+001 
3009375000  -4.273032e+001  6.957121e+001 
3012500000  -4.140726e+001  6.298897e+001 
3015625000  -4.145747e+001  5.777618e+001 
3018750000  -4.180296e+001  5.894925e+001 
3021875000  -4.004974e+001  5.838341e+001 
3025000000  -3.891419e+001  5.653503e+001 
3028125000  -3.783426e+001  4.526405e+001 
3031250000  -3.693796e+001  3.275767e+001 
3034375000  -3.682302e+001  1.937053e+001 
3037500000  -3.765377e+001  8.240724e+000 
3040625000  -3.886491e+001  4.461762e+000 
3043750000  -3.914887e+001  -3.561195e+000 
3046875000  -3.981925e+001  -8.472702e+000 
3050000000  -4.084163e+001  -1.335017e+001 
3053125000  -4.050343e+001  -8.980263e+000 
3056250000  -4.047171e+001  -6.118723e+000 
3059375000  -3.965614e+001  -9.589186e+000 
3062500000  -3.838363e+001  -1.161906e+001 
3065625000  -3.784013e+001  -2.355729e+001 
3068750000  -3.755028e+001  -3.097918e+001 
3071875000  -3.770288e+001  -3.199020e+001 
3075000000  -3.682745e+001  -3.950508e+001 
3078125000  -3.707154e+001  -4.538087e+001 
3081250000  -3.715181e+001  -5.128566e+001 
3084375000  -3.633164e+001  -5.601312e+001 
3087500000  -3.639557e+001  -6.335350e+001 
3090625000  -3.591824e+001  -7.514739e+001 
3093750000  -3.699684e+001  -8.308014e+001 
3096875000  -3.740445e+001  -8.772791e+001 
3100000000  -3.720057e+001  -9.160822e+001 
3103125000  -3.752407e+001  -9.516859e+001 
3106250000  -3.726790e+001  -1.007730e+002 
3109375000  -3.727084e+001  -1.043685e+002 
3112500000  -3.725698e+001  -1.102738e+002 
3115625000  -3.708404e+001  -1.137900e+002 
3118750000  -3.714239e+001  -1.176107e+002 
3121875000  -3.649897e+001  -1.287829e+002 
3125000000  -3.843985e+001  -1.308496e+002 
3128125000  -3.845589e+001  -1.239819e+002 
3131250000  -3.592284e+001  -1.302235e+002 
3134375000  -3.540695e+001  -1.475878e+002 
3137500000  -3.603313e+001  -1.594190e+002 
3140625000  -3.719862e+001  -1.624353e+002 
3143750000  -3.804771e+001  -1.645970e+002 
3146875000  -3.782254e+001  -1.620882e+002 
3150000000  -3.686068e+001  -1.669661e+002 
3153125000  -3.730984e+001  -1.764178e+002 
3156250000  -3.814261e+001  -1.707357e+002 
3159375000  -3.571915e+001  -1.722820e+002 
3162500000  -3.417913e+001  1.719339e+002 
3165625000  -3.553235e+001  1.590205e+002 
3168750000  -3.551202e+001  1.585836e+002 
3171875000  -3.482925e+001  1.508625e+002 
3175000000  -3.547229e+001  1.423428e+002 
3178125000  -3.505153e+001  1.399932e+002 
3181250000  -3.431544e+001  1.321621e+002 
3184375000  -3.423619e+001  1.203967e+002 
3187500000  -3.555288e+001  1.055914e+002 
3190625000  -3.723306e+001  9.978429e+001 
3193750000  -3.749883e+001  1.041136e+002 
3196875000  -3.733720e+001  1.059557e+002 
3200000000  -3.610691e+001  1.003055e+002 
3203125000  -3.590766e+001  9.155565e+001 
3206250000  -3.620906e+001  8.466216e+001 
3209375000  -3.580163e+001  7.602732e+001 
3212500000  -3.616311e+001  7.074114e+001 
3215625000  -3.597364e+001  6.718922e+001 
3218750000  -3.681972e+001  5.677416e+001 
3221875000  -3.726101e+001  5.007793e+001 
3225000000  -3.694552e+001  4.558839e+001 
3228125000  -3.770966e+001  3.889178e+001 
3231250000  -3.829399e+001  3.697435e+001 
3234375000  -3.789047e+001  3.273051e+001 
3237500000  -3.797466e+001  2.952351e+001 
3240625000  -3.757650e+001  2.355731e+001 
3243750000  -3.762723e+001  1.310193e+001 
3246875000  -3.822491e+001  6.550168e+000 
3250000000  -3.877353e+001  2.105010e+000 
3253125000  -3.907535e+001  -6.227960e-002 
3256250000  -3.846875e+001  -9.244134e+000 
3259375000  -3.896518e+001  -1.968662e+001 
3262500000  -4.058178e+001  -2.330599e+001 
3265625000  -4.119332e+001  -1.958361e+001 
3268750000  -4.119981e+001  -1.905117e+001 
3271875000  -4.044017e+001  -2.429530e+001 
3275000000  -4.011813e+001  -3.186677e+001 
3278125000  -4.086325e+001  -3.593966e+001 
3281250000  -4.102497e+001  -3.748925e+001 
3284375000  -4.050565e+001  -4.541587e+001 
3287500000  -4.106578e+001  -4.825161e+001 
3290625000  -4.123683e+001  -5.577039e+001 
3293750000  -4.116375e+001  -6.225494e+001 
3296875000  -4.237567e+001  -6.214829e+001 
3300000000  -4.166677e+001  -6.144893e+001 
3303125000  -4.086179e+001  -7.041312e+001 
3306250000  -4.102715e+001  -7.633754e+001 
3309375000  -4.046689e+001  -8.277979e+001 
3312500000  -4.104712e+001  -9.589111e+001 
3315625000  -4.229903e+001  -1.038528e+002 
3318750000  -4.357739e+001  -1.077293e+002 
3321875000  -4.505226e+001  -1.030411e+002 
3325000000  -4.470116e+001  -9.825420e+001 
3328125000  -4.382855e+001  -9.883613e+001 
3331250000  -4.220060e+001  -9.651517e+001 
3334375000  -3.975938e+001  -1.102665e+002 
3337500000  -4.045475e+001  -1.295400e+002 
3340625000  -4.215887e+001  -1.401100e+002 
3343750000  -4.448707e+001  -1.366939e+002 
3346875000  -4.355579e+001  -1.387338e+002 
3350000000  -4.311099e+001  -1.432684e+002 
3353125000  -4.311731e+001  -1.521782e+002 
3356250000  -4.257469e+001  -1.592905e+002 
3359375000  -4.341310e+001  -1.702918e+002 
3362500000  -4.421977e+001  -1.758141e+002 
3365625000  -4.488449e+001  -1.775006e+002 
3368750000  -4.541802e+001  1.780016e+002 
3371875000  -4.588382e+001  1.728267e+002 
3375000000  -4.697076e+001  1.687890e+002 
3378125000  -4.833966e+001  1.692969e+002 
3381250000  -4.992743e+001  -1.772619e+002 
3384375000  -4.623420e+001  -1.676194e+002 
3387500000  -4.397254e+001  1.721562e+002 
3390625000  -4.589569e+001  1.521916e+002 
3393750000  -4.689352e+001  1.533857e+002 
3396875000  -4.576867e+001  1.512701e+002 
3400000000  -4.605611e+001  1.375077e+002 
3403125000  -4.670380e+001  1.369539e+002 
3406250000  -4.815897e+001  1.297197e+002 
3409375000  -4.727207e+001  1.244342e+002 
3412500000  -4.867861e+001  1.177765e+002 
3415625000  -4.997546e+001  1.150886e+002 
3418750000  -5.034819e+001  1.203586e+002 
3421875000  -5.140373e+001  1.200928e+002 
3425000000  -4.936077e+001  1.177160e+002 
3428125000  -5.007524e+001  1.142860e+002 
3431250000  -4.995039e+001  1.052737e+002 
3434375000  -5.063655e+001  1.029053e+002 
3437500000  -5.178587e+001  1.052553e+002 
3440625000  -5.180236e+001  1.042179e+002 
3443750000  -5.054892e+001  1.059822e+002 
3446875000  -5.074295e+001  9.781538e+001 
3450000000  -5.065123e+001  9.217987e+001 
3453125000  -5.070301e+001  8.283340e+001 
3456250000  -5.272916e+001  8.351666e+001 
3459375000  -5.401181e+001  8.523640e+001 
3462500000  -5.253674e+001  8.645531e+001 
3465625000  -5.151759e+001  7.868850e+001 
3468750000  -5.202394e+001  7.777492e+001 
3471875000  -5.174986e+001  7.565364e+001 
3475000000  -5.074093e+001  7.070451e+001 
3478125000  -5.146090e+001  6.214343e+001 
3481250000  -5.177288e+001  6.638300e+001 
3484375000  -5.219392e+001  5.984602e+001 
3487500000  -5.157154e+001  6.309540e+001 
3490625000  -5.043327e+001  4.996691e+001 
3493750000  -5.150665e+001  4.593921e+001 
3496875000  -5.147001e+001  4.992562e+001 
3500000000  -5.247783e+001  4.866599e+001 
3503125000  -5.023670e+001  4.794130e+001 
3506250000  -4.991767e+001  3.385981e+001 
3509375000  -4.964418e+001  2.566008e+001 
3512500000  -5.074289e+001  1.606490e+001 
3515625000  -5.096886e+001  1.378228e+001 
3518750000  -5.195570e+001  1.855506e+001 
3521875000  -5.205758e+001  4.727474e+000 
3525000000  -5.209711e+001  -3.758471e+000 
3528125000  -5.285923e+001  9.506868e+000 
3531250000  -5.260775e+001  -6.428068e+000 
3534375000  -5.213712e+001  -1.606498e+001 
3537500000  -5.359220e+001  -2.824530e+001 
3540625000  -5.471570e+001  -2.610444e+001 
3543750000  -5.521992e+001  -1.213881e+001 
3546875000  -5.575775e+001  -1.319437e+001 
3550000000  -5.370557e+001  -1.614646e+001 
3553125000  -5.225882e+001  -3.044581e+001 
3556250000  -5.593028e+001  -3.345023e+001 
3559375000  -5.664554e+001  -3.369650e+001 
3562500000  -5.723746e+001  -4.636474e+001 
3565625000  -5.689164e+001  -5.117866e+001 
3568750000  -5.808004e+001  -3.847205e+001 
3571875000  -5.776993e+001  -3.690697e+001 
3575000000  -5.985397e+001  -3.961692e+001 
3578125000  -5.856000e+001  -4.007709e+001 
3581250000  -5.957568e+001  -3.475389e+001 
3584375000  -5.756919e+001  -3.671641e+001 
3587500000  -5.792223e+001  -3.576516e+001 
3590625000  -5.769727e+001  -6.517202e+001 
3593750000  -5.855955e+001  -3.662133e+001 
3596875000  -5.856584e+001  -3.304802e+001 
3600000000  -5.786823e+001  -3.669969e+001 
3603125000  -5.742864e+001  -6.225183e+001 
3606250000  -5.803883e+001  -4.760934e+001 
3609375000  -5.896162e+001  -5.222567e+001 
3612500000  -5.953547e+001  -5.250443e+001 
3615625000  -5.789339e+001  -5.059810e+001 
3618750000  -5.909754e+001  -4.985767e+001 
3621875000  -5.680473e+001  -4.327306e+001 
3625000000  -5.873849e+001  -3.741567e+001 
3628125000  -5.748824e+001  -4.374358e+001 
3631250000  -5.752980e+001  -5.874602e+001 
3634375000  -5.620976e+001  -4.869193e+001 
3637500000  -5.465946e+001  -5.051654e+001 
3640625000  -5.367033e+001  -4.471336e+001 
3643750000  -5.303980e+001  -4.682438e+001 
3646875000  -5.214806e+001  -5.916319e+001 
3650000000  -5.260236e+001  -5.760130e+001 
3653125000  -5.248149e+001  -5.763319e+001 
3656250000  -5.241719e+001  -6.370472e+001 
3659375000  -5.175481e+001  -6.549663e+001 
3662500000  -5.119484e+001  -7.052361e+001 
3665625000  -4.982474e+001  -7.013745e+001 
3668750000  -4.861788e+001  -7.255805e+001 
3671875000  -4.715921e+001  -8.589906e+001 
3675000000  -4.733641e+001  -9.227863e+001 
3678125000  -4.778408e+001  -9.538696e+001 
3681250000  -4.646216e+001  -9.998889e+001 
3684375000  -4.699963e+001  -1.070507e+002 
3687500000  -4.676027e+001  -1.095048e+002 
3690625000  -4.640742e+001  -1.188966e+002 
3693750000  -4.701723e+001  -1.193889e+002 
3696875000  -4.633059e+001  -1.208994e+002 
3700000000  -4.524358e+001  -1.270067e+002 
3703125000  -4.513109e+001  -1.297175e+002 
3706250000  -4.568531e+001  -1.354301e+002 
3709375000  -4.516797e+001  -1.296563e+002 
3712500000  -4.310741e+001  -1.376544e+002 
3715625000  -4.205098e+001  -1.451718e+002 
3718750000  -4.179728e+001  -1.525236e+002 
3721875000  -4.134737e+001  -1.604777e+002 
3725000000  -4.185750e+001  -1.695833e+002 
3728125000  -4.150077e+001  -1.739162e+002 
3731250000  -4.067628e+001  -1.786738e+002 
3734375000  -3.993351e+001  1.756024e+002 
3737500000  -4.100946e+001  1.645361e+002 
3740625000  -4.107983e+001  1.586275e+002 
3743750000  -4.037057e+001  1.522061e+002 
3746875000  -4.046028e+001  1.465261e+002 
3750000000  -4.090084e+001  1.408195e+002 
3753125000  -4.044719e+001  1.379024e+002 
3756250000  -4.079679e+001  1.342507e+002 
3759375000  -4.032924e+001  1.297385e+002 
3762500000  -4.004855e+001  1.218029e+002 
3765625000  -4.063367e+001  1.195001e+002 
3768750000  -4.012117e+001  1.180371e+002 
3771875000  -3.851772e+001  1.099327e+002 
3775000000  -3.836150e+001  9.946794e+001 
3778125000  -3.895607e+001  9.272443e+001 
3781250000  -3.884638e+001  8.760168e+001 
3784375000  -3.870999e+001  8.292096e+001 
3787500000  -3.852098e+001  7.781636e+001 
3790625000  -3.918786e+001  6.762463e+001 
3793750000  -3.897322e+001  6.463345e+001 
3796875000  -3.823936e+001  6.076956e+001 
3800000000  -3.640308e+001  5.593465e+001 
3803125000  -3.800315e+001  4.166499e+001 
3806250000  -3.883244e+001  3.815255e+001 
3809375000  -3.823210e+001  3.321332e+001 
3812500000  -3.834006e+001  2.353129e+001 
3815625000  -3.951923e+001  1.484368e+001 
3818750000  -4.081252e+001  1.673267e+001 
3821875000  -4.062631e+001  2.845701e+001 
3825000000  -3.810921e+001  2.371887e+001 
3828125000  -3.698065e+001  4.061459e+000 
3831250000  -3.830680e+001  -9.879139e+000 
3834375000  -4.057913e+001  -1.148408e+001 
3837500000  -4.043098e+001  -5.792570e+000 
3840625000  -3.926486e+001  -1.137753e+001 
3843750000  -3.839063e+001  -2.496850e+001 
3846875000  -3.986866e+001  -3.247684e+001 
3850000000  -4.048115e+001  -2.486708e+001 
3853125000  -3.995661e+001  -2.469292e+001 
3856250000  -3.943578e+001  -3.225711e+001 
3859375000  -3.853612e+001  -3.981317e+001 
3862500000  -3.826130e+001  -4.953008e+001 
3865625000  -3.897890e+001  -5.516152e+001 
3868750000  -3.850740e+001  -5.654409e+001 
3871875000  -3.806340e+001  -6.242943e+001 
3875000000  -3.865339e+001  -7.397845e+001 
3878125000  -3.957061e+001  -7.732092e+001 
3881250000  -3.918421e+001  -7.658511e+001 
3884375000  -3.869645e+001  -8.521839e+001 
3887500000  -3.915380e+001  -9.003964e+001 
3890625000  -3.965079e+001  -9.517142e+001 
3893750000  -3.971645e+001  -9.545963e+001 
3896875000  -4.000545e+001  -9.996633e+001 
3900000000  -3.970802e+001  -1.048481e+002 
3903125000  -3.933236e+001  -1.078135e+002 
3906250000  -3.879502e+001  -1.107506e+002 
3909375000  -3.822180e+001  -1.191063e+002 
3912500000  -3.908331e+001  -1.292814e+002 
3915625000  -4.038436e+001  -1.286081e+002 
3918750000  -3.991097e+001  -1.310332e+002 
3921875000  -3.917663e+001  -1.352771e+002 
3925000000  -3.838950e+001  -1.406607e+002 
3928125000  -3.823937e+001  -1.493151e+002 
3931250000  -3.915606e+001  -1.560667e+002 
3934375000  -3.966331e+001  -1.567451e+002 
3937500000  -4.012203e+001  -1.605525e+002 
3940625000  -3.991581e+001  -1.637284e+002 
3943750000  -3.867395e+001  -1.651410e+002 
3946875000  -3.843951e+001  -1.740992e+002 
3950000000  -3.981456e+001  1.767382e+002 
3953125000  -3.989137e+001  1.786866e+002 
3956250000  -3.891669e+001  1.768701e+002 
3959375000  -3.799622e+001  1.709951e+002 
3962500000  -3.785357e+001  1.631757e+002 
3965625000  -3.800111e+001  1.527808e+002 
3968750000  -3.859904e+001  1.447644e+002 
3971875000  -3.856988e+001  1.422349e+002 
3975000000  -3.858463e+001  1.352227e+002 
3978125000  -3.836470e+001  1.320478e+002 
3981250000  -3.876871e+001  1.267063e+002 
3984375000  -3.894844e+001  1.193324e+002 
3987500000  -3.989361e+001  1.149804e+002 
3990625000  -3.994722e+001  1.134326e+002 
3993750000  -3.994999e+001  1.072606e+002 
3996875000  -3.997721e+001  1.046783e+002 
4000000000  -4.034975e+001  9.756393e+001 
4003125000  -4.109939e+001  1.009336e+002 
4006250000  -3.928191e+001  9.832749e+001 
4009375000  -3.852722e+001  8.486681e+001 
4012500000  -3.995499e+001  7.510181e+001 
4015625000  -4.145432e+001  7.578188e+001 
4018750000  -4.126028e+001  7.725591e+001 
4021875000  -4.069182e+001  7.184084e+001 
4025000000  -4.033530e+001  6.901127e+001 
4028125000  -4.056312e+001  6.128732e+001 
4031250000  -4.115796e+001  5.601299e+001 
4034375000  -4.167361e+001  5.555219e+001 
4037500000  -4.092394e+001  5.786297e+001 
4040625000  -4.103777e+001  5.092297e+001 
4043750000  -4.126566e+001  4.964734e+001 
4046875000  -4.089458e+001  4.568329e+001 
4050000000  -4.049074e+001  4.094222e+001 
4053125000  -4.145816e+001  3.568933e+001 
4056250000  -4.163514e+001  4.014339e+001 
4059375000  -3.947887e+001  3.838544e+001 
4062500000  -3.904601e+001  2.975844e+001 
4065625000  -3.897250e+001  2.476026e+001 
4068750000  -3.826479e+001  1.846204e+001 
4071875000  -3.783393e+001  7.850180e+000 
4075000000  -3.831425e+001  1.102570e+000 
4078125000  -3.861178e+001  -3.506643e+000 
4081250000  -3.824357e+001  -6.592331e+000 
4084375000  -3.800008e+001  -1.863476e+001 
4087500000  -3.875938e+001  -2.228576e+001 
4090625000  -3.945623e+001  -2.539891e+001 
4093750000  -3.870290e+001  -2.870287e+001 
4096875000  -3.862908e+001  -3.814814e+001 
4100000000  -3.966965e+001  -4.579103e+001 
4103125000  -4.077023e+001  -4.408345e+001 
4106250000  -4.009514e+001  -3.981296e+001 
4109375000  -3.910699e+001  -4.320299e+001 
4112500000  -3.877994e+001  -5.374004e+001 
4115625000  -3.918174e+001  -5.917334e+001 
4118750000  -3.910627e+001  -6.398976e+001 
4121875000  -3.883002e+001  -6.976400e+001 
4125000000  -3.985570e+001  -7.794820e+001 
4128125000  -4.091317e+001  -7.610050e+001 
4131250000  -3.978239e+001  -7.070154e+001 
4134375000  -3.744036e+001  -7.924268e+001 
4137500000  -3.808018e+001  -1.025475e+002 
4140625000  -4.057815e+001  -1.086666e+002 
4143750000  -4.124049e+001  -1.005869e+002 
4146875000  -4.035112e+001  -9.713432e+001 
4150000000  -3.957225e+001  -1.068567e+002 
4153125000  -4.016104e+001  -1.148568e+002 
4156250000  -4.146359e+001  -1.178994e+002 
4159375000  -4.095780e+001  -1.109364e+002 
4162500000  -3.992931e+001  -1.111511e+002 
4165625000  -3.892117e+001  -1.180020e+002 
4168750000  -3.828826e+001  -1.278850e+002 
4171875000  -3.825533e+001  -1.375581e+002 
4175000000  -3.919721e+001  -1.455373e+002 
4178125000  -3.955180e+001  -1.446257e+002 
4181250000  -3.959558e+001  -1.481102e+002 
4184375000  -3.943562e+001  -1.542926e+002 
4187500000  -3.925409e+001  -1.588260e+002 
4190625000  -3.949075e+001  -1.664875e+002 
4193750000  -4.084816e+001  -1.721842e+002 
4196875000  -4.132644e+001  -1.715338e+002 
4200000000  -4.249350e+001  -1.651401e+002 
4203125000  -4.097727e+001  -1.522062e+002 
4206250000  -3.744123e+001  -1.619915e+002 
4209375000  -3.729945e+001  1.753543e+002 
4212500000  -3.984939e+001  1.667999e+002 
4215625000  -3.980393e+001  1.736655e+002 
4218750000  -3.843288e+001  1.749366e+002 
4221875000  -3.657092e+001  1.669430e+002 
4225000000  -3.775004e+001  1.530410e+002 
4228125000  -3.775808e+001  1.549137e+002 
4231250000  -3.642810e+001  1.464724e+002 
4234375000  -3.636006e+001  1.361159e+002 
4237500000  -3.608317e+001  1.317708e+002 
4240625000  -3.632896e+001  1.202970e+002 
4243750000  -3.741486e+001  1.119216e+002 
4246875000  -3.842298e+001  1.111905e+002 
4250000000  -3.832056e+001  1.100175e+002 
4253125000  -3.826551e+001  1.068215e+002 
4256250000  -3.800833e+001  1.040733e+002 
4259375000  -3.760389e+001  9.837695e+001 
4262500000  -3.806811e+001  9.097204e+001 
4265625000  -3.790787e+001  9.105824e+001 
4268750000  -3.693963e+001  8.364603e+001 
4271875000  -3.678374e+001  7.394250e+001 
4275000000  -3.644896e+001  6.429856e+001 
4278125000  -3.775658e+001  5.267634e+001 
4281250000  -3.907592e+001  5.382520e+001 
4284375000  -3.886465e+001  5.073318e+001 
4287500000  -4.065689e+001  4.527089e+001 
4290625000  -4.067345e+001  5.459659e+001 
4293750000  -3.869320e+001  5.593843e+001 
4296875000  -3.771484e+001  4.325484e+001 
4300000000  -3.896061e+001  3.281178e+001 
4303125000  -3.962479e+001  3.561737e+001 
4306250000  -3.865012e+001  3.765662e+001 
4309375000  -3.774322e+001  3.143156e+001 
4312500000  -3.752926e+001  2.119513e+001 
4315625000  -3.785663e+001  1.238009e+001 
4318750000  -3.869561e+001  8.111036e+000 
4321875000  -3.865309e+001  1.078465e+001 
4325000000  -3.806794e+001  6.128798e+000 
4328125000  -3.725422e+001  -1.210416e+000 
4331250000  -3.748130e+001  -1.231933e+001 
4334375000  -3.846329e+001  -1.759328e+001 
4337500000  -3.956250e+001  -2.011732e+001 
4340625000  -3.945247e+001  -1.463284e+001 
4343750000  -3.853609e+001  -1.739750e+001 
4346875000  -3.848809e+001  -2.684862e+001 
4350000000  -3.829854e+001  -3.551514e+001 
4353125000  -3.912746e+001  -4.116492e+001 
4356250000  -4.115170e+001  -3.788227e+001 
4359375000  -4.017103e+001  -2.275624e+001 
4362500000  -3.654379e+001  -3.365496e+001 
4365625000  -3.619268e+001  -5.123611e+001 
4368750000  -3.717879e+001  -5.881281e+001 
4371875000  -3.766518e+001  -5.927518e+001 
4375000000  -3.747404e+001  -6.406714e+001 
4378125000  -3.681951e+001  -7.220753e+001 
4381250000  -3.705456e+001  -7.936378e+001 
4384375000  -3.723821e+001  -8.540753e+001 
4387500000  -3.820020e+001  -9.176127e+001 
4390625000  -3.868557e+001  -9.326667e+001 
4393750000  -3.807219e+001  -9.222908e+001 
4396875000  -3.737770e+001  -9.898856e+001 
4400000000  -3.686541e+001  -1.083999e+002 
4403125000  -3.799164e+001  -1.180688e+002 
4406250000  -3.828992e+001  -1.193199e+002 
4409375000  -3.873904e+001  -1.236029e+002 
4412500000  -3.986081e+001  -1.258164e+002 
4415625000  -3.933357e+001  -1.233925e+002 
