!Agilent Technologies,E8363B,MY43030201,A.06.04.32
!Agilent E8363B: A.06.04.32
!Date: Tuesday, November 11, 2014 21:29:14
!Correction: S21(Response(S21)) 
!S1P File: Measurement: S21:
# Hz S  dB   R 50
3000000000  -4.055143e+001  8.774134e+001 
3003125000  -4.229438e+001  7.843874e+001 
3006250000  -4.202473e+001  7.752463e+001 
3009375000  -4.278261e+001  8.263439e+001 
3012500000  -4.137883e+001  7.724828e+001 
3015625000  -4.134662e+001  7.302446e+001 
3018750000  -4.178487e+001  7.229850e+001 
3021875000  -4.021434e+001  7.220977e+001 
3025000000  -3.868593e+001  6.883327e+001 
3028125000  -3.797200e+001  5.918551e+001 
3031250000  -3.702962e+001  4.724564e+001 
3034375000  -3.673325e+001  3.355113e+001 
3037500000  -3.751686e+001  2.200410e+001 
3040625000  -3.862667e+001  1.725678e+001 
3043750000  -3.900248e+001  1.215357e+001 
3046875000  -3.963577e+001  5.363227e+000 
3050000000  -4.069041e+001  -5.196662e-001 
3053125000  -4.063643e+001  5.466442e+000 
3056250000  -4.050862e+001  6.697247e+000 
3059375000  -3.988968e+001  6.943313e+000 
3062500000  -3.810657e+001  1.080785e+000 
3065625000  -3.796638e+001  -7.805410e+000 
3068750000  -3.754071e+001  -1.632879e+001 
3071875000  -3.766259e+001  -1.879702e+001 
3075000000  -3.703666e+001  -2.529414e+001 
3078125000  -3.702077e+001  -3.170102e+001 
3081250000  -3.728402e+001  -3.753948e+001 
3084375000  -3.634120e+001  -4.214099e+001 
3087500000  -3.644471e+001  -4.837775e+001 
3090625000  -3.591322e+001  -6.096828e+001 
3093750000  -3.681604e+001  -6.888554e+001 
3096875000  -3.736863e+001  -7.362669e+001 
3100000000  -3.716870e+001  -7.785043e+001 
3103125000  -3.763326e+001  -8.070544e+001 
3106250000  -3.714950e+001  -8.577982e+001 
3109375000  -3.733716e+001  -9.005729e+001 
3112500000  -3.711815e+001  -9.584618e+001 
3115625000  -3.713292e+001  -9.969627e+001 
3118750000  -3.725311e+001  -1.029283e+002 
3121875000  -3.650803e+001  -1.146909e+002 
3125000000  -3.839506e+001  -1.174512e+002 
3128125000  -3.859812e+001  -1.093625e+002 
3131250000  -3.604736e+001  -1.161901e+002 
3134375000  -3.525359e+001  -1.328043e+002 
3137500000  -3.613720e+001  -1.458735e+002 
3140625000  -3.751265e+001  -1.488372e+002 
3143750000  -3.818443e+001  -1.502820e+002 
3146875000  -3.774843e+001  -1.481574e+002 
3150000000  -3.689886e+001  -1.517757e+002 
3153125000  -3.716234e+001  -1.617674e+002 
3156250000  -3.795718e+001  -1.572895e+002 
3159375000  -3.578689e+001  -1.580937e+002 
3162500000  -3.421853e+001  -1.739638e+002 
3165625000  -3.549403e+001  1.729154e+002 
3168750000  -3.561064e+001  1.726706e+002 
3171875000  -3.495020e+001  1.653311e+002 
3175000000  -3.548964e+001  1.557214e+002 
3178125000  -3.510382e+001  1.543433e+002 
3181250000  -3.441378e+001  1.459553e+002 
3184375000  -3.410930e+001  1.349781e+002 
3187500000  -3.526968e+001  1.194081e+002 
3190625000  -3.728027e+001  1.127486e+002 
3193750000  -3.756561e+001  1.194461e+002 
3196875000  -3.736623e+001  1.205432e+002 
3200000000  -3.625412e+001  1.149969e+002 
3203125000  -3.584711e+001  1.075252e+002 
3206250000  -3.607370e+001  9.926013e+001 
3209375000  -3.585796e+001  9.139494e+001 
3212500000  -3.618828e+001  8.393877e+001 
3215625000  -3.596866e+001  8.081477e+001 
3218750000  -3.673552e+001  7.070927e+001 
3221875000  -3.740654e+001  6.434061e+001 
3225000000  -3.698156e+001  5.983449e+001 
3228125000  -3.765955e+001  5.256445e+001 
3231250000  -3.836449e+001  5.047893e+001 
3234375000  -3.803605e+001  4.756644e+001 
3237500000  -3.818504e+001  4.418007e+001 
3240625000  -3.766831e+001  3.757058e+001 
3243750000  -3.772657e+001  2.790217e+001 
3246875000  -3.829596e+001  2.157033e+001 
3250000000  -3.877713e+001  1.734156e+001 
3253125000  -3.903984e+001  1.366167e+001 
3256250000  -3.875007e+001  5.853433e+000 
3259375000  -3.925160e+001  -5.465220e+000 
3262500000  -4.081778e+001  -9.229416e+000 
3265625000  -4.118946e+001  -4.580361e+000 
3268750000  -4.141774e+001  -6.036796e+000 
3271875000  -4.078693e+001  -8.139218e+000 
3275000000  -4.010913e+001  -1.721260e+001 
3278125000  -4.086586e+001  -2.139127e+001 
3281250000  -4.113007e+001  -2.330679e+001 
3284375000  -4.051064e+001  -2.890610e+001 
3287500000  -4.091533e+001  -3.467352e+001 
3290625000  -4.110728e+001  -4.250076e+001 
3293750000  -4.129461e+001  -4.516509e+001 
3296875000  -4.238572e+001  -4.710600e+001 
3300000000  -4.187701e+001  -4.676122e+001 
3303125000  -4.093956e+001  -5.460443e+001 
3306250000  -4.067975e+001  -6.153603e+001 
3309375000  -4.062679e+001  -6.864727e+001 
3312500000  -4.082233e+001  -8.107578e+001 
3315625000  -4.205447e+001  -8.796165e+001 
3318750000  -4.340416e+001  -9.206164e+001 
3321875000  -4.509530e+001  -8.843559e+001 
3325000000  -4.503036e+001  -8.178827e+001 
3328125000  -4.395663e+001  -8.391060e+001 
3331250000  -4.259441e+001  -7.844437e+001 
3334375000  -3.986255e+001  -9.438998e+001 
3337500000  -4.042112e+001  -1.151607e+002 
3340625000  -4.201060e+001  -1.262178e+002 
3343750000  -4.437322e+001  -1.238132e+002 
3346875000  -4.350417e+001  -1.252508e+002 
3350000000  -4.320790e+001  -1.274691e+002 
3353125000  -4.279503e+001  -1.353989e+002 
3356250000  -4.249049e+001  -1.425853e+002 
3359375000  -4.319197e+001  -1.539583e+002 
3362500000  -4.441339e+001  -1.594963e+002 
3365625000  -4.490452e+001  -1.632189e+002 
3368750000  -4.554318e+001  -1.679393e+002 
3371875000  -4.585612e+001  -1.712744e+002 
3375000000  -4.737643e+001  -1.771584e+002 
3378125000  -4.829034e+001  -1.742411e+002 
3381250000  -4.968702e+001  -1.689925e+002 
3384375000  -4.677878e+001  -1.526508e+002 
3387500000  -4.404559e+001  -1.726264e+002 
3390625000  -4.571020e+001  1.674324e+002 
3393750000  -4.711594e+001  1.694845e+002 
3396875000  -4.645832e+001  1.644389e+002 
3400000000  -4.628672e+001  1.542721e+002 
3403125000  -4.695250e+001  1.478109e+002 
3406250000  -4.750348e+001  1.462446e+002 
3409375000  -4.807236e+001  1.401816e+002 
3412500000  -4.888382e+001  1.301409e+002 
3415625000  -5.012384e+001  1.290765e+002 
3418750000  -5.024760e+001  1.309041e+002 
3421875000  -5.117217e+001  1.396083e+002 
3425000000  -5.025284e+001  1.346090e+002 
3428125000  -4.988239e+001  1.298844e+002 
3431250000  -5.018372e+001  1.196108e+002 
3434375000  -5.090608e+001  1.158809e+002 
3437500000  -5.219265e+001  1.225469e+002 
3440625000  -5.241008e+001  1.175068e+002 
3443750000  -5.106652e+001  1.219510e+002 
3446875000  -5.084201e+001  1.132817e+002 
3450000000  -5.042891e+001  1.090965e+002 
3453125000  -5.121531e+001  9.652200e+001 
3456250000  -5.223723e+001  9.339931e+001 
3459375000  -5.281253e+001  1.015071e+002 
3462500000  -5.283569e+001  1.008624e+002 
3465625000  -5.179161e+001  9.542864e+001 
3468750000  -5.248061e+001  1.019328e+002 
3471875000  -5.258809e+001  9.551949e+001 
3475000000  -5.193580e+001  9.078284e+001 
3478125000  -5.102560e+001  7.992505e+001 
3481250000  -5.281614e+001  8.290061e+001 
3484375000  -5.286486e+001  8.023703e+001 
3487500000  -5.166494e+001  7.690482e+001 
3490625000  -5.174527e+001  6.920994e+001 
3493750000  -5.158146e+001  6.775267e+001 
3496875000  -5.151696e+001  6.364790e+001 
3500000000  -5.240547e+001  5.750900e+001 
3503125000  -5.160545e+001  5.563805e+001 
3506250000  -5.038087e+001  5.229203e+001 
3509375000  -4.948063e+001  4.233319e+001 
3512500000  -5.024109e+001  3.533865e+001 
3515625000  -5.215954e+001  2.670705e+001 
3518750000  -5.265626e+001  3.003535e+001 
3521875000  -5.251344e+001  1.926933e+001 
3525000000  -5.297256e+001  1.707198e+001 
3528125000  -5.256401e+001  1.992038e+001 
3531250000  -5.134691e+001  1.166409e+001 
3534375000  -5.341837e+001  -1.033280e+000 
3537500000  -5.458094e+001  -9.883432e+000 
3540625000  -5.517825e+001  -7.649797e+000 
3543750000  -5.515479e+001  -5.533732e-001 
3546875000  -5.509808e+001  8.566966e+000 
3550000000  -5.470730e+001  6.645413e-001 
3553125000  -5.421180e+001  -1.179704e+001 
3556250000  -5.619676e+001  -1.837204e+001 
3559375000  -5.563924e+001  -1.486896e+001 
3562500000  -5.686029e+001  -2.906011e+001 
3565625000  -5.670008e+001  -3.440537e+001 
3568750000  -5.736024e+001  -2.061955e+001 
3571875000  -5.822284e+001  -2.040580e+001 
3575000000  -5.876607e+001  -3.051210e+001 
3578125000  -5.938773e+001  -2.197448e+001 
3581250000  -5.768759e+001  -1.789063e+001 
3584375000  -5.802213e+001  -1.213616e+001 
3587500000  -5.731199e+001  -3.250655e+001 
3590625000  -5.859153e+001  -3.501037e+001 
3593750000  -5.926936e+001  -2.323623e+001 
3596875000  -5.702770e+001  -2.069004e+001 
3600000000  -5.893389e+001  -1.940686e+001 
3603125000  -5.703993e+001  -3.636247e+001 
3606250000  -5.902911e+001  -2.676381e+001 
3609375000  -5.705460e+001  -2.946479e+001 
3612500000  -5.879963e+001  -2.476336e+001 
3615625000  -6.130945e+001  -3.543319e+001 
3618750000  -5.807557e+001  -2.506034e+001 
3621875000  -5.710570e+001  -3.079418e+001 
3625000000  -5.792426e+001  -3.061107e+001 
3628125000  -5.645487e+001  -1.823442e+001 
3631250000  -5.511763e+001  -2.816101e+001 
3634375000  -5.701736e+001  -3.539950e+001 
3637500000  -5.545788e+001  -2.909729e+001 
3640625000  -5.350108e+001  -2.250025e+001 
3643750000  -5.294282e+001  -2.839819e+001 
3646875000  -5.201623e+001  -3.565273e+001 
3650000000  -5.231184e+001  -3.800603e+001 
3653125000  -5.162660e+001  -4.334119e+001 
3656250000  -5.176141e+001  -5.002478e+001 
3659375000  -5.116811e+001  -4.778705e+001 
3662500000  -5.029515e+001  -5.519607e+001 
3665625000  -4.958301e+001  -6.095928e+001 
3668750000  -4.822459e+001  -5.834809e+001 
3671875000  -4.675089e+001  -6.636462e+001 
3675000000  -4.727788e+001  -7.494675e+001 
3678125000  -4.752808e+001  -8.104210e+001 
3681250000  -4.649543e+001  -8.211841e+001 
3684375000  -4.684700e+001  -8.882699e+001 
3687500000  -4.645090e+001  -9.549979e+001 
3690625000  -4.643122e+001  -1.045621e+002 
3693750000  -4.665354e+001  -1.009959e+002 
3696875000  -4.607896e+001  -1.022504e+002 
3700000000  -4.488612e+001  -1.124544e+002 
3703125000  -4.532695e+001  -1.163128e+002 
3706250000  -4.614743e+001  -1.142278e+002 
3709375000  -4.505317e+001  -1.169443e+002 
3712500000  -4.359547e+001  -1.210283e+002 
3715625000  -4.208141e+001  -1.291567e+002 
3718750000  -4.193880e+001  -1.356562e+002 
3721875000  -4.122071e+001  -1.451674e+002 
3725000000  -4.185253e+001  -1.543116e+002 
3728125000  -4.138185e+001  -1.565512e+002 
3731250000  -4.086961e+001  -1.636652e+002 
3734375000  -4.018579e+001  -1.681868e+002 
3737500000  -4.073774e+001  -1.784782e+002 
3740625000  -4.094378e+001  1.752744e+002 
3743750000  -4.073926e+001  1.690521e+002 
3746875000  -4.083595e+001  1.625984e+002 
3750000000  -4.086538e+001  1.578558e+002 
3753125000  -4.053674e+001  1.559630e+002 
3756250000  -4.084982e+001  1.508582e+002 
3759375000  -4.016301e+001  1.472396e+002 
3762500000  -3.996712e+001  1.384929e+002 
3765625000  -4.093196e+001  1.358424e+002 
3768750000  -4.034486e+001  1.343254e+002 
3771875000  -3.841352e+001  1.277679e+002 
3775000000  -3.852268e+001  1.155724e+002 
3778125000  -3.902246e+001  1.110842e+002 
3781250000  -3.889625e+001  1.066016e+002 
3784375000  -3.883409e+001  1.007999e+002 
3787500000  -3.849322e+001  9.392152e+001 
3790625000  -3.924389e+001  8.503065e+001 
3793750000  -3.893787e+001  8.231248e+001 
3796875000  -3.833829e+001  7.697794e+001 
3800000000  -3.657590e+001  7.258905e+001 
3803125000  -3.814181e+001  6.015481e+001 
3806250000  -3.894477e+001  5.658928e+001 
3809375000  -3.856611e+001  5.103451e+001 
3812500000  -3.851122e+001  4.329493e+001 
3815625000  -3.937331e+001  3.290121e+001 
3818750000  -4.066761e+001  3.267803e+001 
3821875000  -3.988787e+001  4.309309e+001 
3825000000  -3.841085e+001  3.952922e+001 
3828125000  -3.704465e+001  2.251056e+001 
3831250000  -3.816980e+001  6.535855e+000 
3834375000  -4.038820e+001  7.878287e+000 
3837500000  -4.076382e+001  9.930266e+000 
3840625000  -3.910757e+001  7.777229e+000 
3843750000  -3.830966e+001  -8.089057e+000 
3846875000  -3.997330e+001  -1.281315e+001 
3850000000  -4.101556e+001  -7.539111e+000 
3853125000  -3.986766e+001  -8.025048e+000 
3856250000  -3.951472e+001  -1.643051e+001 
3859375000  -3.872171e+001  -2.171537e+001 
3862500000  -3.878812e+001  -3.178487e+001 
3865625000  -3.909527e+001  -3.929758e+001 
3868750000  -3.865272e+001  -3.874161e+001 
3871875000  -3.803649e+001  -4.658092e+001 
3875000000  -3.834038e+001  -5.643037e+001 
3878125000  -3.940374e+001  -5.845275e+001 
3881250000  -3.922832e+001  -5.921740e+001 
3884375000  -3.871624e+001  -6.723630e+001 
3887500000  -3.918780e+001  -7.241853e+001 
3890625000  -3.967706e+001  -7.667554e+001 
3893750000  -3.985780e+001  -7.995147e+001 
3896875000  -3.995761e+001  -8.343580e+001 
3900000000  -4.001045e+001  -8.708895e+001 
3903125000  -3.930114e+001  -9.012773e+001 
3906250000  -3.874917e+001  -9.293078e+001 
3909375000  -3.825633e+001  -1.011149e+002 
3912500000  -3.916183e+001  -1.107900e+002 
3915625000  -4.050265e+001  -1.116105e+002 
3918750000  -4.022512e+001  -1.119692e+002 
3921875000  -3.949334e+001  -1.170216e+002 
3925000000  -3.868161e+001  -1.220963e+002 
3928125000  -3.825488e+001  -1.301785e+002 
3931250000  -3.917828e+001  -1.383566e+002 
3934375000  -3.949117e+001  -1.398451e+002 
3937500000  -4.015145e+001  -1.427557e+002 
3940625000  -4.000967e+001  -1.438943e+002 
3943750000  -3.905939e+001  -1.470771e+002 
3946875000  -3.863009e+001  -1.566204e+002 
3950000000  -3.941246e+001  -1.664585e+002 
3953125000  -4.029486e+001  -1.631888e+002 
3956250000  -3.892756e+001  -1.636088e+002 
3959375000  -3.816154e+001  -1.696642e+002 
3962500000  -3.774837e+001  1.798264e+002 
3965625000  -3.812484e+001  1.717866e+002 
3968750000  -3.896081e+001  1.639681e+002 
3971875000  -3.876000e+001  1.593291e+002 
3975000000  -3.838738e+001  1.537536e+002 
3978125000  -3.863648e+001  1.504960e+002 
3981250000  -3.868346e+001  1.431777e+002 
3984375000  -3.902160e+001  1.365574e+002 
3987500000  -3.954285e+001  1.339452e+002 
3990625000  -4.009639e+001  1.312245e+002 
3993750000  -4.015027e+001  1.267897e+002 
3996875000  -4.016209e+001  1.216122e+002 
4000000000  -4.087286e+001  1.170241e+002 
4003125000  -4.140334e+001  1.178344e+002 
4006250000  -3.969182e+001  1.178963e+002 
4009375000  -3.866887e+001  1.033772e+002 
4012500000  -4.017574e+001  9.421716e+001 
4015625000  -4.137630e+001  9.484947e+001 
4018750000  -4.143990e+001  9.432310e+001 
4021875000  -4.073146e+001  9.215012e+001 
4025000000  -4.038288e+001  8.579106e+001 
4028125000  -4.062249e+001  7.767068e+001 
4031250000  -4.132148e+001  7.754716e+001 
4034375000  -4.154967e+001  7.483482e+001 
4037500000  -4.118615e+001  7.358170e+001 
4040625000  -4.097558e+001  7.042986e+001 
4043750000  -4.109474e+001  6.664259e+001 
4046875000  -4.109362e+001  6.352765e+001 
4050000000  -4.068292e+001  5.777702e+001 
4053125000  -4.165504e+001  5.707545e+001 
4056250000  -4.162891e+001  6.142762e+001 
4059375000  -3.970236e+001  5.922399e+001 
4062500000  -3.886731e+001  4.824582e+001 
4065625000  -3.895978e+001  4.254338e+001 
4068750000  -3.854604e+001  3.685736e+001 
4071875000  -3.798275e+001  2.712179e+001 
4075000000  -3.856650e+001  2.112626e+001 
4078125000  -3.878995e+001  1.566171e+001 
4081250000  -3.851106e+001  1.145691e+001 
4084375000  -3.840265e+001  1.580167e+000 
4087500000  -3.861139e+001  -4.081630e+000 
4090625000  -3.934757e+001  -6.706046e+000 
4093750000  -3.861417e+001  -8.612704e+000 
4096875000  -3.891214e+001  -1.684069e+001 
4100000000  -3.958582e+001  -2.532537e+001 
4103125000  -4.085239e+001  -2.538834e+001 
4106250000  -4.011280e+001  -2.150602e+001 
4109375000  -3.933826e+001  -2.495436e+001 
4112500000  -3.869407e+001  -3.432601e+001 
4115625000  -3.932188e+001  -4.029277e+001 
4118750000  -3.911758e+001  -4.528960e+001 
4121875000  -3.914851e+001  -5.259962e+001 
4125000000  -3.987090e+001  -5.775221e+001 
4128125000  -4.069736e+001  -5.718916e+001 
4131250000  -3.981026e+001  -5.215579e+001 
4134375000  -3.789621e+001  -6.070778e+001 
4137500000  -3.805756e+001  -8.258054e+001 
4140625000  -4.058825e+001  -8.853217e+001 
4143750000  -4.168581e+001  -8.288307e+001 
4146875000  -4.048308e+001  -7.847343e+001 
4150000000  -3.972216e+001  -8.427348e+001 
4153125000  -4.005630e+001  -9.555354e+001 
4156250000  -4.103944e+001  -9.996955e+001 
4159375000  -4.141378e+001  -9.382767e+001 
4162500000  -4.010575e+001  -8.911391e+001 
4165625000  -3.885707e+001  -9.792332e+001 
4168750000  -3.850713e+001  -1.076033e+002 
4171875000  -3.852826e+001  -1.181984e+002 
4175000000  -3.946651e+001  -1.239294e+002 
4178125000  -3.946413e+001  -1.246475e+002 
4181250000  -3.940835e+001  -1.293103e+002 
4184375000  -3.950175e+001  -1.337839e+002 
4187500000  -3.950164e+001  -1.385923e+002 
4190625000  -3.959598e+001  -1.473772e+002 
4193750000  -4.030534e+001  -1.525182e+002 
4196875000  -4.150324e+001  -1.530561e+002 
4200000000  -4.257059e+001  -1.467843e+002 
4203125000  -4.103047e+001  -1.349189e+002 
4206250000  -3.746644e+001  -1.444399e+002 
4209375000  -3.719650e+001  -1.676240e+002 
4212500000  -3.986400e+001  -1.752355e+002 
4215625000  -4.012443e+001  -1.671682e+002 
4218750000  -3.843101e+001  -1.643049e+002 
4221875000  -3.685331e+001  -1.746953e+002 
4225000000  -3.819469e+001  1.719781e+002 
4228125000  -3.787907e+001  1.733023e+002 
4231250000  -3.647552e+001  1.677922e+002 
4234375000  -3.639414e+001  1.562367e+002 
4237500000  -3.636965e+001  1.507355e+002 
4240625000  -3.644180e+001  1.385762e+002 
4243750000  -3.753955e+001  1.310207e+002 
4246875000  -3.847522e+001  1.301534e+002 
4250000000  -3.829307e+001  1.307016e+002 
4253125000  -3.834906e+001  1.284978e+002 
4256250000  -3.813782e+001  1.232808e+002 
4259375000  -3.771213e+001  1.173563e+002 
4262500000  -3.782782e+001  1.099899e+002 
4265625000  -3.803437e+001  1.104758e+002 
4268750000  -3.700876e+001  1.028663e+002 
4271875000  -3.681580e+001  9.487126e+001 
4275000000  -3.671418e+001  8.689413e+001 
4278125000  -3.787250e+001  7.182595e+001 
4281250000  -3.932627e+001  7.033935e+001 
4284375000  -3.882106e+001  6.996384e+001 
4287500000  -4.031964e+001  6.632584e+001 
4290625000  -4.104785e+001  7.599799e+001 
4293750000  -3.899472e+001  7.600560e+001 
4296875000  -3.812706e+001  6.289714e+001 
4300000000  -3.921542e+001  5.359725e+001 
4303125000  -4.022340e+001  5.629329e+001 
4306250000  -3.891984e+001  5.675567e+001 
4309375000  -3.764099e+001  5.268176e+001 
4312500000  -3.785576e+001  4.239790e+001 
4315625000  -3.821648e+001  3.489208e+001 
4318750000  -3.885219e+001  2.883790e+001 
4321875000  -3.850172e+001  3.042217e+001 
4325000000  -3.821226e+001  2.740556e+001 
4328125000  -3.734211e+001  1.832293e+001 
4331250000  -3.748313e+001  9.427087e+000 
4334375000  -3.846391e+001  2.171266e+000 
4337500000  -3.953481e+001  1.019748e+000 
4340625000  -3.980292e+001  3.677855e+000 
4343750000  -3.870195e+001  2.290090e+000 
4346875000  -3.843161e+001  -5.339174e+000 
4350000000  -3.844912e+001  -1.437249e+001 
4353125000  -3.918330e+001  -2.174007e+001 
4356250000  -4.082942e+001  -1.892224e+001 
4359375000  -4.009231e+001  -7.984542e+000 
4362500000  -3.657672e+001  -1.267331e+001 
4365625000  -3.585229e+001  -3.005956e+001 
4368750000  -3.738440e+001  -4.026539e+001 
4371875000  -3.806240e+001  -3.918060e+001 
4375000000  -3.743850e+001  -4.253341e+001 
4378125000  -3.709974e+001  -5.200294e+001 
4381250000  -3.724697e+001  -5.842744e+001 
4384375000  -3.719685e+001  -6.590792e+001 
4387500000  -3.807418e+001  -7.052908e+001 
4390625000  -3.858217e+001  -7.261397e+001 
4393750000  -3.826667e+001  -7.283405e+001 
4396875000  -3.725815e+001  -7.715134e+001 
4400000000  -3.712240e+001  -8.603035e+001 
4403125000  -3.792822e+001  -9.293810e+001 
4406250000  -3.854581e+001  -9.948294e+001 
4409375000  -3.879721e+001  -1.034845e+002 
4412500000  -3.988547e+001  -1.052581e+002 
4415625000  -3.969888e+001  -1.021837e+002 
