!Agilent Technologies,E8363B,MY43030201,A.06.04.32
!Agilent E8363B: A.06.04.32
!Date: Tuesday, November 11, 2014 21:27:28
!Correction: S21(Response(S21)) 
!S1P File: Measurement: S21:
# Hz S  dB   R 50
3000000000  -4.062078e+001  9.234919e+001 
3003125000  -4.218108e+001  8.303863e+001 
3006250000  -4.218812e+001  8.439003e+001 
3009375000  -4.278605e+001  8.861914e+001 
3012500000  -4.190317e+001  8.422549e+001 
3015625000  -4.141539e+001  7.692104e+001 
3018750000  -4.171837e+001  7.767573e+001 
3021875000  -4.020271e+001  7.760401e+001 
3025000000  -3.913632e+001  7.453762e+001 
3028125000  -3.812991e+001  6.428577e+001 
3031250000  -3.704541e+001  5.256919e+001 
3034375000  -3.680646e+001  3.903021e+001 
3037500000  -3.741184e+001  2.788676e+001 
3040625000  -3.880938e+001  2.307631e+001 
3043750000  -3.930559e+001  1.711237e+001 
3046875000  -3.971595e+001  1.033088e+001 
3050000000  -4.092051e+001  3.227014e+000 
3053125000  -4.060492e+001  9.674625e+000 
3056250000  -4.037114e+001  1.151536e+001 
3059375000  -3.991371e+001  1.083914e+001 
3062500000  -3.811940e+001  5.922654e+000 
3065625000  -3.796313e+001  -3.971543e+000 
3068750000  -3.770388e+001  -1.192291e+001 
3071875000  -3.772687e+001  -1.335627e+001 
3075000000  -3.717326e+001  -1.966049e+001 
3078125000  -3.715418e+001  -2.579571e+001 
3081250000  -3.736983e+001  -3.217611e+001 
3084375000  -3.644289e+001  -3.670801e+001 
3087500000  -3.649677e+001  -4.340589e+001 
3090625000  -3.598594e+001  -5.539773e+001 
3093750000  -3.680327e+001  -6.324031e+001 
3096875000  -3.736396e+001  -6.954729e+001 
3100000000  -3.727222e+001  -7.212318e+001 
3103125000  -3.749417e+001  -7.518004e+001 
3106250000  -3.715854e+001  -8.113406e+001 
3109375000  -3.730386e+001  -8.521175e+001 
3112500000  -3.713898e+001  -9.121825e+001 
3115625000  -3.711771e+001  -9.451402e+001 
3118750000  -3.714268e+001  -9.769522e+001 
3121875000  -3.649620e+001  -1.088000e+002 
3125000000  -3.832217e+001  -1.124332e+002 
3128125000  -3.861840e+001  -1.058001e+002 
3131250000  -3.631241e+001  -1.100370e+002 
3134375000  -3.529424e+001  -1.281675e+002 
3137500000  -3.607100e+001  -1.413508e+002 
3140625000  -3.743741e+001  -1.433444e+002 
3143750000  -3.839117e+001  -1.453529e+002 
3146875000  -3.775904e+001  -1.440182e+002 
3150000000  -3.691821e+001  -1.464267e+002 
3153125000  -3.718419e+001  -1.556461e+002 
3156250000  -3.813129e+001  -1.512465e+002 
3159375000  -3.578585e+001  -1.520289e+002 
3162500000  -3.428093e+001  -1.678836e+002 
3165625000  -3.562934e+001  1.789965e+002 
3168750000  -3.560796e+001  1.775536e+002 
3171875000  -3.496520e+001  1.703248e+002 
3175000000  -3.543044e+001  1.610299e+002 
3178125000  -3.533175e+001  1.607866e+002 
3181250000  -3.444329e+001  1.526675e+002 
3184375000  -3.403450e+001  1.397601e+002 
3187500000  -3.541924e+001  1.246169e+002 
3190625000  -3.737303e+001  1.177535e+002 
3193750000  -3.775702e+001  1.252586e+002 
3196875000  -3.751678e+001  1.264234e+002 
3200000000  -3.629980e+001  1.212919e+002 
3203125000  -3.590513e+001  1.127703e+002 
3206250000  -3.625656e+001  1.052044e+002 
3209375000  -3.592327e+001  9.728567e+001 
3212500000  -3.616935e+001  9.108535e+001 
3215625000  -3.607714e+001  8.710795e+001 
3218750000  -3.691410e+001  7.660623e+001 
3221875000  -3.733481e+001  6.949950e+001 
3225000000  -3.720258e+001  6.684885e+001 
3228125000  -3.772566e+001  5.804514e+001 
3231250000  -3.834070e+001  5.595056e+001 
3234375000  -3.797155e+001  5.375041e+001 
3237500000  -3.810670e+001  4.920893e+001 
3240625000  -3.777102e+001  4.437152e+001 
3243750000  -3.764551e+001  3.381675e+001 
3246875000  -3.827178e+001  2.775450e+001 
3250000000  -3.876013e+001  2.262577e+001 
3253125000  -3.890033e+001  1.986517e+001 
3256250000  -3.869833e+001  1.121591e+001 
3259375000  -3.920813e+001  1.521868e+000 
3262500000  -4.062399e+001  -3.200312e+000 
3265625000  -4.111097e+001  7.115789e-002 
3268750000  -4.112484e+001  -1.907047e-001 
3271875000  -4.073149e+001  -2.267004e+000 
3275000000  -4.004191e+001  -1.098443e+001 
3278125000  -4.102647e+001  -1.654982e+001 
3281250000  -4.096516e+001  -1.633691e+001 
3284375000  -4.070495e+001  -2.302334e+001 
3287500000  -4.093388e+001  -2.819344e+001 
3290625000  -4.142166e+001  -3.460382e+001 
3293750000  -4.110616e+001  -4.144412e+001 
3296875000  -4.225680e+001  -4.168534e+001 
3300000000  -4.209094e+001  -4.197231e+001 
3303125000  -4.120657e+001  -4.703607e+001 
3306250000  -4.072002e+001  -5.498671e+001 
3309375000  -4.068916e+001  -6.303119e+001 
3312500000  -4.105106e+001  -7.622929e+001 
3315625000  -4.206808e+001  -8.203104e+001 
3318750000  -4.358331e+001  -8.700928e+001 
3321875000  -4.521745e+001  -8.393805e+001 
3325000000  -4.518955e+001  -7.987705e+001 
3328125000  -4.394274e+001  -7.752627e+001 
3331250000  -4.266088e+001  -7.321922e+001 
3334375000  -3.999764e+001  -8.908871e+001 
3337500000  -4.039024e+001  -1.088192e+002 
3340625000  -4.227367e+001  -1.187662e+002 
3343750000  -4.409066e+001  -1.170595e+002 
3346875000  -4.359678e+001  -1.193453e+002 
3350000000  -4.285546e+001  -1.207800e+002 
3353125000  -4.300499e+001  -1.273234e+002 
3356250000  -4.244543e+001  -1.374967e+002 
3359375000  -4.357107e+001  -1.467583e+002 
3362500000  -4.424591e+001  -1.521637e+002 
3365625000  -4.469396e+001  -1.578215e+002 
3368750000  -4.536629e+001  -1.607199e+002 
3371875000  -4.613974e+001  -1.636719e+002 
3375000000  -4.756200e+001  -1.693929e+002 
3378125000  -4.811722e+001  -1.699544e+002 
3381250000  -4.902181e+001  -1.615374e+002 
3384375000  -4.643646e+001  -1.435699e+002 
3387500000  -4.347562e+001  -1.640414e+002 
3390625000  -4.634168e+001  1.755060e+002 
3393750000  -4.726851e+001  1.757611e+002 
3396875000  -4.552200e+001  1.744524e+002 
3400000000  -4.593035e+001  1.623104e+002 
3403125000  -4.701391e+001  1.580961e+002 
3406250000  -4.703240e+001  1.544300e+002 
3409375000  -4.788057e+001  1.455997e+002 
3412500000  -4.876767e+001  1.417993e+002 
3415625000  -4.982964e+001  1.366791e+002 
3418750000  -5.071552e+001  1.394816e+002 
3421875000  -5.106304e+001  1.423864e+002 
3425000000  -5.008409e+001  1.412671e+002 
3428125000  -5.016175e+001  1.350669e+002 
3431250000  -4.977474e+001  1.244489e+002 
3434375000  -5.044149e+001  1.299442e+002 
3437500000  -5.127084e+001  1.238351e+002 
3440625000  -5.195802e+001  1.257777e+002 
3443750000  -5.077194e+001  1.263720e+002 
3446875000  -5.074365e+001  1.232469e+002 
3450000000  -5.036006e+001  1.177125e+002 
3453125000  -5.150727e+001  1.061997e+002 
3456250000  -5.231496e+001  1.021008e+002 
3459375000  -5.301641e+001  1.047150e+002 
3462500000  -5.206397e+001  1.095515e+002 
3465625000  -5.132280e+001  9.858965e+001 
3468750000  -5.169714e+001  1.073010e+002 
3471875000  -5.206941e+001  9.983440e+001 
3475000000  -5.075239e+001  9.540312e+001 
3478125000  -5.133312e+001  8.405497e+001 
3481250000  -5.242893e+001  8.421985e+001 
3484375000  -5.232553e+001  8.907360e+001 
3487500000  -5.170610e+001  8.472108e+001 
3490625000  -5.080558e+001  8.013943e+001 
3493750000  -5.083772e+001  7.238433e+001 
3496875000  -5.118354e+001  6.649485e+001 
3500000000  -5.160668e+001  6.892538e+001 
3503125000  -5.081409e+001  7.159349e+001 
3506250000  -5.030424e+001  6.378255e+001 
3509375000  -4.922329e+001  5.644837e+001 
3512500000  -4.923841e+001  3.723061e+001 
3515625000  -5.020403e+001  3.637485e+001 
3518750000  -5.181994e+001  3.588269e+001 
3521875000  -5.126048e+001  2.625452e+001 
3525000000  -5.304696e+001  2.478956e+001 
3528125000  -5.257875e+001  2.905853e+001 
3531250000  -5.136586e+001  1.792537e+001 
3534375000  -5.223732e+001  7.631643e+000 
3537500000  -5.257166e+001  -1.177552e+000 
3540625000  -5.440001e+001  -4.266191e+000 
3543750000  -5.627088e+001  6.627393e+000 
3546875000  -5.500984e+001  4.706672e+000 
3550000000  -5.284771e+001  8.615864e+000 
3553125000  -5.226736e+001  -1.742869e+001 
3556250000  -5.540982e+001  -1.130265e+001 
3559375000  -5.562774e+001  -1.674645e+001 
3562500000  -5.494893e+001  -2.108672e+001 
3565625000  -5.689454e+001  -3.303510e+001 
3568750000  -5.570058e+001  -2.322348e+001 
3571875000  -5.902251e+001  -1.916700e+001 
3575000000  -5.871565e+001  -2.485814e+001 
3578125000  -5.907874e+001  -2.273661e+001 
3581250000  -5.853193e+001  -2.335042e+001 
3584375000  -5.751302e+001  -1.176011e+001 
3587500000  -5.686765e+001  -2.186250e+001 
3590625000  -5.715839e+001  -3.427454e+001 
3593750000  -5.768393e+001  -2.414406e+001 
3596875000  -5.835916e+001  -1.262240e+001 
3600000000  -5.729279e+001  -1.401568e+001 
3603125000  -5.694732e+001  -3.305631e+001 
3606250000  -5.787994e+001  -4.232059e+001 
3609375000  -5.884921e+001  -2.551653e+001 
3612500000  -5.952434e+001  -3.520651e+001 
3615625000  -5.902097e+001  -3.526002e+001 
3618750000  -5.938720e+001  -2.836498e+001 
3621875000  -5.601241e+001  -3.729954e+001 
3625000000  -5.714594e+001  -1.523075e+001 
3628125000  -5.681688e+001  -2.120197e+001 
3631250000  -5.584967e+001  -3.134381e+001 
3634375000  -5.713988e+001  -2.911400e+001 
3637500000  -5.590820e+001  -1.805350e+001 
3640625000  -5.559518e+001  -2.055633e+001 
3643750000  -5.288565e+001  -3.205486e+001 
3646875000  -5.290396e+001  -4.408514e+001 
3650000000  -5.345459e+001  -3.140055e+001 
3653125000  -5.188134e+001  -4.122375e+001 
3656250000  -5.156757e+001  -4.482471e+001 
3659375000  -5.167315e+001  -4.164706e+001 
3662500000  -5.099574e+001  -5.195689e+001 
3665625000  -5.071812e+001  -5.116064e+001 
3668750000  -4.835408e+001  -5.212714e+001 
3671875000  -4.750484e+001  -6.518320e+001 
3675000000  -4.765172e+001  -7.130447e+001 
3678125000  -4.722414e+001  -7.478991e+001 
3681250000  -4.712396e+001  -7.853030e+001 
3684375000  -4.754907e+001  -8.341499e+001 
3687500000  -4.731697e+001  -8.691814e+001 
3690625000  -4.687292e+001  -9.494353e+001 
3693750000  -4.699287e+001  -9.526889e+001 
3696875000  -4.668769e+001  -9.549322e+001 
3700000000  -4.550203e+001  -1.010358e+002 
3703125000  -4.566235e+001  -1.065610e+002 
3706250000  -4.613625e+001  -1.074253e+002 
3709375000  -4.496073e+001  -1.102933e+002 
3712500000  -4.378195e+001  -1.137468e+002 
3715625000  -4.232084e+001  -1.217026e+002 
3718750000  -4.202048e+001  -1.295513e+002 
3721875000  -4.160780e+001  -1.378133e+002 
3725000000  -4.195333e+001  -1.464310e+002 
3728125000  -4.193055e+001  -1.508009e+002 
3731250000  -4.091917e+001  -1.543488e+002 
3734375000  -4.020609e+001  -1.620810e+002 
3737500000  -4.088919e+001  -1.697453e+002 
3740625000  -4.098763e+001  -1.763581e+002 
3743750000  -4.062603e+001  1.772902e+002 
3746875000  -4.089812e+001  1.704585e+002 
3750000000  -4.084605e+001  1.651713e+002 
3753125000  -4.070541e+001  1.627169e+002 
3756250000  -4.090156e+001  1.574908e+002 
3759375000  -4.047387e+001  1.528255e+002 
3762500000  -4.036918e+001  1.459340e+002 
3765625000  -4.066361e+001  1.414355e+002 
3768750000  -4.025100e+001  1.426196e+002 
3771875000  -3.841533e+001  1.338017e+002 
3775000000  -3.856744e+001  1.226375e+002 
3778125000  -3.907925e+001  1.161605e+002 
3781250000  -3.897660e+001  1.122859e+002 
3784375000  -3.877221e+001  1.055898e+002 
3787500000  -3.849222e+001  9.972280e+001 
3790625000  -3.902728e+001  9.030591e+001 
3793750000  -3.925527e+001  8.898668e+001 
3796875000  -3.829735e+001  8.342548e+001 
3800000000  -3.653234e+001  7.907836e+001 
3803125000  -3.822246e+001  6.517853e+001 
3806250000  -3.894151e+001  6.214875e+001 
3809375000  -3.865238e+001  5.778009e+001 
3812500000  -3.861799e+001  4.885862e+001 
3815625000  -3.963642e+001  3.816763e+001 
3818750000  -4.062092e+001  3.973825e+001 
3821875000  -4.047941e+001  4.882891e+001 
3825000000  -3.824964e+001  4.615379e+001 
3828125000  -3.699628e+001  2.794443e+001 
3831250000  -3.834653e+001  1.339801e+001 
3834375000  -4.012700e+001  1.208732e+001 
3837500000  -4.108072e+001  1.464511e+001 
3840625000  -3.933051e+001  1.407958e+001 
3843750000  -3.841109e+001  -5.735117e-002 
3846875000  -3.981097e+001  -7.326163e+000 
3850000000  -4.061261e+001  -6.101248e-001 
3853125000  -4.029390e+001  -1.307653e+000 
3856250000  -3.966632e+001  -7.506187e+000 
3859375000  -3.871809e+001  -1.320879e+001 
3862500000  -3.877608e+001  -2.503376e+001 
3865625000  -3.904944e+001  -3.125558e+001 
3868750000  -3.894742e+001  -3.051010e+001 
3871875000  -3.812303e+001  -3.826786e+001 
3875000000  -3.849595e+001  -4.792949e+001 
3878125000  -3.954893e+001  -5.204218e+001 
3881250000  -3.936936e+001  -5.196882e+001 
3884375000  -3.869404e+001  -5.760153e+001 
3887500000  -3.908104e+001  -6.376632e+001 
3890625000  -3.937829e+001  -6.967898e+001 
3893750000  -3.978825e+001  -7.105267e+001 
3896875000  -3.984327e+001  -7.351771e+001 
3900000000  -3.947316e+001  -7.976204e+001 
3903125000  -3.938314e+001  -8.121651e+001 
3906250000  -3.912412e+001  -8.668874e+001 
3909375000  -3.824863e+001  -9.455974e+001 
3912500000  -3.882527e+001  -1.026439e+002 
3915625000  -4.042694e+001  -1.028962e+002 
3918750000  -4.005928e+001  -1.037255e+002 
3921875000  -3.935591e+001  -1.101207e+002 
3925000000  -3.857552e+001  -1.130646e+002 
3928125000  -3.817141e+001  -1.241917e+002 
3931250000  -3.889630e+001  -1.315069e+002 
3934375000  -3.937960e+001  -1.328434e+002 
3937500000  -3.979707e+001  -1.337792e+002 
3940625000  -3.985261e+001  -1.366672e+002 
3943750000  -3.887040e+001  -1.384685e+002 
3946875000  -3.825328e+001  -1.473459e+002 
3950000000  -3.926915e+001  -1.571533e+002 
3953125000  -3.998381e+001  -1.565117e+002 
3956250000  -3.890599e+001  -1.572926e+002 
3959375000  -3.775354e+001  -1.629490e+002 
3962500000  -3.728821e+001  -1.717839e+002 
3965625000  -3.744778e+001  1.787237e+002 
3968750000  -3.839649e+001  1.705477e+002 
3971875000  -3.874443e+001  1.666898e+002 
3975000000  -3.839596e+001  1.621510e+002 
3978125000  -3.849871e+001  1.580821e+002 
3981250000  -3.856698e+001  1.520440e+002 
3984375000  -3.886564e+001  1.437883e+002 
3987500000  -3.963378e+001  1.412693e+002 
3990625000  -3.982972e+001  1.394668e+002 
3993750000  -3.983028e+001  1.336728e+002 
3996875000  -4.002296e+001  1.285498e+002 
4000000000  -4.059468e+001  1.260574e+002 
4003125000  -4.105743e+001  1.270199e+002 
4006250000  -3.957813e+001  1.244453e+002 
4009375000  -3.863401e+001  1.105818e+002 
4012500000  -4.003550e+001  1.014334e+002 
4015625000  -4.146615e+001  1.009447e+002 
4018750000  -4.138433e+001  1.037366e+002 
4021875000  -4.094983e+001  1.023957e+002 
4025000000  -4.046294e+001  9.319920e+001 
4028125000  -4.025921e+001  8.687593e+001 
4031250000  -4.125656e+001  8.481850e+001 
4034375000  -4.132940e+001  8.229488e+001 
4037500000  -4.098239e+001  8.422965e+001 
4040625000  -4.082724e+001  7.696271e+001 
4043750000  -4.111121e+001  7.401704e+001 
4046875000  -4.083915e+001  7.230593e+001 
4050000000  -4.061041e+001  6.601534e+001 
4053125000  -4.127620e+001  6.376618e+001 
4056250000  -4.102636e+001  6.663477e+001 
4059375000  -3.941193e+001  6.708235e+001 
4062500000  -3.890843e+001  5.993368e+001 
4065625000  -3.892889e+001  5.238047e+001 
4068750000  -3.820065e+001  4.584666e+001 
4071875000  -3.766769e+001  3.616645e+001 
4075000000  -3.800901e+001  2.675924e+001 
4078125000  -3.878998e+001  2.437222e+001 
4081250000  -3.825721e+001  1.845321e+001 
4084375000  -3.807611e+001  9.217546e+000 
4087500000  -3.872231e+001  4.938369e-001 
4090625000  -3.919621e+001  8.891188e-001 
4093750000  -3.891224e+001  -2.032451e+000 
4096875000  -3.863333e+001  -1.212419e+001 
4100000000  -3.969035e+001  -1.952895e+001 
4103125000  -4.056353e+001  -1.914714e+001 
4106250000  -4.013221e+001  -1.485000e+001 
4109375000  -3.917273e+001  -1.697452e+001 
4112500000  -3.879755e+001  -2.763917e+001 
4115625000  -3.933154e+001  -3.471954e+001 
4118750000  -3.895555e+001  -3.945864e+001 
4121875000  -3.892517e+001  -4.662666e+001 
4125000000  -3.995201e+001  -5.423200e+001 
4128125000  -4.102397e+001  -5.131585e+001 
4131250000  -3.997404e+001  -4.585064e+001 
4134375000  -3.782936e+001  -5.489891e+001 
4137500000  -3.810373e+001  -7.728571e+001 
4140625000  -4.041102e+001  -8.274659e+001 
4143750000  -4.155735e+001  -7.729237e+001 
4146875000  -4.089030e+001  -7.310159e+001 
4150000000  -3.993925e+001  -8.017986e+001 
4153125000  -4.017552e+001  -8.940190e+001 
4156250000  -4.167070e+001  -9.186315e+001 
4159375000  -4.143960e+001  -8.796044e+001 
4162500000  -4.009826e+001  -8.559444e+001 
4165625000  -3.914060e+001  -9.046465e+001 
4168750000  -3.871974e+001  -1.021099e+002 
4171875000  -3.856994e+001  -1.112198e+002 
4175000000  -3.937154e+001  -1.168660e+002 
4178125000  -3.987411e+001  -1.199493e+002 
4181250000  -3.959424e+001  -1.240020e+002 
4184375000  -3.968688e+001  -1.272695e+002 
4187500000  -3.960499e+001  -1.326819e+002 
4190625000  -3.954586e+001  -1.392607e+002 
4193750000  -4.070372e+001  -1.447930e+002 
4196875000  -4.151937e+001  -1.459008e+002 
4200000000  -4.259980e+001  -1.408063e+002 
4203125000  -4.123996e+001  -1.283991e+002 
4206250000  -3.785389e+001  -1.357888e+002 
4209375000  -3.723401e+001  -1.576883e+002 
4212500000  -3.960411e+001  -1.665963e+002 
4215625000  -4.047115e+001  -1.611849e+002 
4218750000  -3.862180e+001  -1.586016e+002 
4221875000  -3.674203e+001  -1.690700e+002 
4225000000  -3.790720e+001  1.792812e+002 
4228125000  -3.801011e+001  -1.790391e+002 
4231250000  -3.652027e+001  1.729911e+002 
4234375000  -3.672472e+001  1.629395e+002 
4237500000  -3.620057e+001  1.571770e+002 
4240625000  -3.653546e+001  1.467716e+002 
4243750000  -3.753296e+001  1.384080e+002 
4246875000  -3.860271e+001  1.365050e+002 
4250000000  -3.852196e+001  1.385345e+002 
4253125000  -3.808868e+001  1.340612e+002 
4256250000  -3.807076e+001  1.282773e+002 
4259375000  -3.775686e+001  1.239071e+002 
4262500000  -3.811406e+001  1.195095e+002 
4265625000  -3.813749e+001  1.159356e+002 
4268750000  -3.703839e+001  1.085067e+002 
4271875000  -3.685013e+001  1.010074e+002 
4275000000  -3.665156e+001  9.147167e+001 
4278125000  -3.752135e+001  7.945311e+001 
4281250000  -3.924442e+001  7.778882e+001 
4284375000  -3.902347e+001  7.620823e+001 
4287500000  -4.044271e+001  7.084595e+001 
4290625000  -4.092401e+001  7.899255e+001 
4293750000  -3.897543e+001  8.063190e+001 
4296875000  -3.824678e+001  6.908493e+001 
4300000000  -3.911518e+001  5.725048e+001 
4303125000  -4.003065e+001  6.270679e+001 
4306250000  -3.898964e+001  6.260232e+001 
4309375000  -3.804493e+001  5.789156e+001 
4312500000  -3.783932e+001  4.781466e+001 
4315625000  -3.820238e+001  3.707692e+001 
4318750000  -3.912171e+001  3.608540e+001 
4321875000  -3.913261e+001  3.636156e+001 
4325000000  -3.848140e+001  3.391948e+001 
4328125000  -3.761058e+001  2.571441e+001 
4331250000  -3.805437e+001  1.467156e+001 
4334375000  -3.864856e+001  7.753529e+000 
4337500000  -3.975295e+001  6.436344e+000 
4340625000  -3.985477e+001  1.245341e+001 
4343750000  -3.912046e+001  9.207662e+000 
4346875000  -3.883799e+001  -5.014353e-001 
4350000000  -3.868730e+001  -6.490767e+000 
4353125000  -3.899337e+001  -1.546021e+001 
4356250000  -4.130362e+001  -1.291653e+001 
4359375000  -4.073006e+001  2.633543e-002 
4362500000  -3.703986e+001  -4.524666e+000 
4365625000  -3.642280e+001  -2.258785e+001 
4368750000  -3.756789e+001  -3.141468e+001 
4371875000  -3.835919e+001  -3.267799e+001 
4375000000  -3.770008e+001  -3.616484e+001 
4378125000  -3.719761e+001  -4.309175e+001 
4381250000  -3.740689e+001  -5.121970e+001 
4384375000  -3.758887e+001  -5.796176e+001 
4387500000  -3.828202e+001  -6.365800e+001 
4390625000  -3.910958e+001  -6.366307e+001 
4393750000  -3.823177e+001  -6.509250e+001 
4396875000  -3.747608e+001  -6.875049e+001 
4400000000  -3.724342e+001  -7.932518e+001 
4403125000  -3.817932e+001  -8.994526e+001 
4406250000  -3.856564e+001  -9.245683e+001 
4409375000  -3.882878e+001  -9.737125e+001 
4412500000  -4.001185e+001  -9.897559e+001 
4415625000  -3.956803e+001  -9.537067e+001 
