!Agilent Technologies,E8363B,MY43030201,A.06.04.32
!Agilent E8363B: A.06.04.32
!Date: Tuesday, November 11, 2014 21:31:24
!Correction: S21(Response(S21)) 
!S1P File: Measurement: S21:
# Hz S  dB   R 50
3000000000  -4.046866e+001  8.049276e+001 
3003125000  -4.221340e+001  7.232184e+001 
3006250000  -4.220842e+001  7.067410e+001 
3009375000  -4.277077e+001  7.610674e+001 
3012500000  -4.147983e+001  7.136669e+001 
3015625000  -4.140390e+001  6.580310e+001 
3018750000  -4.174831e+001  6.615291e+001 
3021875000  -4.012838e+001  6.604865e+001 
3025000000  -3.886896e+001  6.202422e+001 
3028125000  -3.796660e+001  5.248664e+001 
3031250000  -3.697339e+001  3.983928e+001 
3034375000  -3.670305e+001  2.693811e+001 
3037500000  -3.744068e+001  1.584233e+001 
3040625000  -3.885047e+001  1.085141e+001 
3043750000  -3.917870e+001  4.112998e+000 
3046875000  -3.975649e+001  -2.194194e+000 
3050000000  -4.062304e+001  -6.126378e+000 
3053125000  -4.059607e+001  -1.868462e+000 
3056250000  -4.063264e+001  8.905792e-001 
3059375000  -3.975701e+001  -9.534811e-001 
3062500000  -3.827657e+001  -6.931428e+000 
3065625000  -3.787481e+001  -1.504309e+001 
3068750000  -3.752723e+001  -2.247656e+001 
3071875000  -3.761105e+001  -2.513023e+001 
3075000000  -3.706025e+001  -3.253183e+001 
3078125000  -3.717542e+001  -3.838843e+001 
3081250000  -3.724356e+001  -4.477044e+001 
3084375000  -3.631135e+001  -4.927379e+001 
3087500000  -3.650280e+001  -5.523372e+001 
3090625000  -3.592943e+001  -6.832243e+001 
3093750000  -3.674116e+001  -7.596323e+001 
3096875000  -3.729727e+001  -8.195044e+001 
3100000000  -3.720876e+001  -8.355316e+001 
3103125000  -3.754269e+001  -8.795898e+001 
3106250000  -3.711660e+001  -9.331815e+001 
3109375000  -3.730604e+001  -9.738015e+001 
3112500000  -3.729019e+001  -1.032621e+002 
3115625000  -3.720334e+001  -1.064228e+002 
3118750000  -3.719493e+001  -1.096087e+002 
3121875000  -3.646169e+001  -1.207974e+002 
3125000000  -3.828272e+001  -1.252496e+002 
3128125000  -3.845505e+001  -1.170662e+002 
3131250000  -3.611316e+001  -1.232488e+002 
3134375000  -3.537137e+001  -1.401654e+002 
3137500000  -3.614760e+001  -1.523118e+002 
3140625000  -3.733021e+001  -1.554249e+002 
3143750000  -3.827596e+001  -1.579209e+002 
3146875000  -3.762803e+001  -1.551675e+002 
3150000000  -3.684830e+001  -1.589530e+002 
3153125000  -3.729235e+001  -1.687463e+002 
3156250000  -3.791126e+001  -1.632845e+002 
3159375000  -3.567806e+001  -1.651266e+002 
3162500000  -3.430333e+001  1.794278e+002 
3165625000  -3.539920e+001  1.665253e+002 
3168750000  -3.542242e+001  1.655314e+002 
3171875000  -3.495778e+001  1.576282e+002 
3175000000  -3.550267e+001  1.493503e+002 
3178125000  -3.502319e+001  1.472784e+002 
3181250000  -3.436483e+001  1.386497e+002 
3184375000  -3.416486e+001  1.272978e+002 
3187500000  -3.539964e+001  1.123617e+002 
3190625000  -3.727428e+001  1.074969e+002 
3193750000  -3.738070e+001  1.114491e+002 
3196875000  -3.750227e+001  1.126738e+002 
3200000000  -3.632284e+001  1.077054e+002 
3203125000  -3.596859e+001  1.000795e+002 
3206250000  -3.616013e+001  9.179256e+001 
3209375000  -3.577000e+001  8.412017e+001 
3212500000  -3.622491e+001  7.694805e+001 
3215625000  -3.601973e+001  7.438353e+001 
3218750000  -3.688877e+001  6.347089e+001 
3221875000  -3.727446e+001  5.654029e+001 
3225000000  -3.705397e+001  5.348902e+001 
3228125000  -3.778189e+001  4.523032e+001 
3231250000  -3.828928e+001  4.350607e+001 
3234375000  -3.798067e+001  4.024901e+001 
3237500000  -3.799651e+001  3.656397e+001 
3240625000  -3.767761e+001  3.083476e+001 
3243750000  -3.760666e+001  2.039806e+001 
3246875000  -3.833554e+001  1.286617e+001 
3250000000  -3.876719e+001  9.676987e+000 
3253125000  -3.902819e+001  6.815136e+000 
3256250000  -3.868775e+001  -2.251853e+000 
3259375000  -3.917878e+001  -1.228802e+001 
3262500000  -4.072042e+001  -1.565012e+001 
3265625000  -4.122839e+001  -1.431018e+001 
3268750000  -4.119853e+001  -1.223355e+001 
3271875000  -4.067424e+001  -1.573480e+001 
3275000000  -4.000853e+001  -2.293962e+001 
3278125000  -4.089621e+001  -3.006511e+001 
3281250000  -4.106456e+001  -3.137712e+001 
3284375000  -4.034247e+001  -3.546995e+001 
3287500000  -4.101381e+001  -4.099644e+001 
3290625000  -4.114139e+001  -4.870186e+001 
3293750000  -4.112493e+001  -5.327973e+001 
3296875000  -4.259407e+001  -5.674598e+001 
3300000000  -4.174765e+001  -5.576217e+001 
3303125000  -4.098944e+001  -6.222012e+001 
3306250000  -4.087920e+001  -7.028292e+001 
3309375000  -4.044289e+001  -7.618051e+001 
3312500000  -4.068875e+001  -8.853331e+001 
3315625000  -4.217686e+001  -9.524039e+001 
3318750000  -4.350906e+001  -9.997424e+001 
3321875000  -4.530121e+001  -9.619647e+001 
3325000000  -4.530875e+001  -9.048733e+001 
3328125000  -4.362194e+001  -9.078552e+001 
3331250000  -4.246246e+001  -8.718147e+001 
3334375000  -3.975222e+001  -1.010340e+002 
3337500000  -4.069808e+001  -1.221089e+002 
3340625000  -4.221045e+001  -1.323663e+002 
3343750000  -4.405047e+001  -1.308591e+002 
3346875000  -4.345150e+001  -1.328013e+002 
3350000000  -4.313322e+001  -1.377452e+002 
3353125000  -4.275089e+001  -1.430363e+002 
3356250000  -4.251535e+001  -1.500177e+002 
3359375000  -4.351994e+001  -1.620440e+002 
3362500000  -4.434712e+001  -1.689915e+002 
3365625000  -4.468168e+001  -1.708056e+002 
3368750000  -4.530037e+001  -1.759937e+002 
3371875000  -4.610519e+001  1.796532e+002 
3375000000  -4.754237e+001  1.773705e+002 
3378125000  -4.781975e+001  1.744794e+002 
3381250000  -4.927971e+001  -1.709223e+002 
3384375000  -4.683827e+001  -1.610033e+002 
3387500000  -4.420062e+001  1.780530e+002 
3390625000  -4.557689e+001  1.579294e+002 
3393750000  -4.698632e+001  1.600535e+002 
3396875000  -4.590842e+001  1.625047e+002 
3400000000  -4.628570e+001  1.483088e+002 
3403125000  -4.700879e+001  1.433335e+002 
3406250000  -4.790394e+001  1.401814e+002 
3409375000  -4.806693e+001  1.314425e+002 
3412500000  -4.840302e+001  1.268506e+002 
3415625000  -4.966384e+001  1.225942e+002 
3418750000  -5.073469e+001  1.282513e+002 
3421875000  -5.112652e+001  1.268621e+002 
3425000000  -5.043950e+001  1.318518e+002 
3428125000  -5.042391e+001  1.247240e+002 
3431250000  -4.989941e+001  1.140959e+002 
3434375000  -5.116494e+001  1.087334e+002 
3437500000  -5.241066e+001  1.091908e+002 
3440625000  -5.180110e+001  1.157944e+002 
3443750000  -5.110826e+001  1.162440e+002 
3446875000  -5.043188e+001  1.080201e+002 
3450000000  -5.094439e+001  1.007683e+002 
3453125000  -5.027845e+001  8.987073e+001 
3456250000  -5.193136e+001  9.074593e+001 
3459375000  -5.369512e+001  9.285963e+001 
3462500000  -5.319727e+001  9.603310e+001 
3465625000  -5.113505e+001  8.482520e+001 
3468750000  -5.204327e+001  8.589576e+001 
3471875000  -5.218299e+001  8.784236e+001 
3475000000  -5.182744e+001  8.090317e+001 
3478125000  -5.131258e+001  7.125780e+001 
3481250000  -5.197872e+001  7.609470e+001 
3484375000  -5.316816e+001  6.907119e+001 
3487500000  -5.144020e+001  7.132237e+001 
3490625000  -5.104684e+001  6.837980e+001 
3493750000  -5.157242e+001  5.547747e+001 
3496875000  -5.168383e+001  6.088520e+001 
3500000000  -5.251897e+001  5.441541e+001 
3503125000  -5.085112e+001  5.961147e+001 
3506250000  -4.990745e+001  4.897172e+001 
3509375000  -4.977616e+001  3.472984e+001 
3512500000  -4.966914e+001  2.443427e+001 
3515625000  -5.076323e+001  1.637986e+001 
3518750000  -5.257016e+001  2.054951e+001 
3521875000  -5.270824e+001  1.248177e+001 
3525000000  -5.301108e+001  7.684395e+000 
3528125000  -5.211149e+001  1.072824e+001 
3531250000  -5.250845e+001  5.072052e+000 
3534375000  -5.301467e+001  -6.760269e+000 
3537500000  -5.379266e+001  -1.907721e+001 
3540625000  -5.502238e+001  -2.383726e+001 
3543750000  -5.528171e+001  -4.760937e+000 
3546875000  -5.611587e+001  3.696159e-001 
3550000000  -5.302303e+001  -3.907767e+000 
3553125000  -5.331495e+001  -2.292042e+001 
3556250000  -5.600842e+001  -3.032189e+001 
3559375000  -5.809274e+001  -2.753873e+001 
3562500000  -5.595647e+001  -2.742159e+001 
3565625000  -5.642385e+001  -4.086124e+001 
3568750000  -5.722419e+001  -2.758961e+001 
3571875000  -5.859875e+001  -3.097783e+001 
3575000000  -5.950751e+001  -3.537977e+001 
3578125000  -5.967179e+001  -3.883068e+001 
3581250000  -5.895552e+001  -3.188217e+001 
3584375000  -5.759174e+001  -2.988720e+001 
3587500000  -5.718394e+001  -4.636009e+001 
3590625000  -5.784546e+001  -5.095696e+001 
3593750000  -6.032524e+001  -3.620910e+001 
3596875000  -5.773726e+001  -2.922217e+001 
3600000000  -5.720031e+001  -2.867724e+001 
3603125000  -5.993694e+001  -4.886670e+001 
3606250000  -6.068682e+001  -4.541510e+001 
3609375000  -5.767716e+001  -2.774132e+001 
3612500000  -5.871396e+001  -3.479667e+001 
3615625000  -5.888895e+001  -4.436335e+001 
3618750000  -6.031965e+001  -3.892244e+001 
3621875000  -5.740292e+001  -4.220692e+001 
3625000000  -5.752075e+001  -3.067149e+001 
3628125000  -5.423648e+001  -3.598211e+001 
3631250000  -5.607572e+001  -4.647522e+001 
3634375000  -5.604610e+001  -3.627168e+001 
3637500000  -5.608248e+001  -2.629383e+001 
3640625000  -5.449777e+001  -2.586540e+001 
3643750000  -5.294844e+001  -3.384366e+001 
3646875000  -5.320681e+001  -4.553428e+001 
3650000000  -5.338663e+001  -5.138558e+001 
3653125000  -5.168007e+001  -5.559727e+001 
3656250000  -5.175061e+001  -5.433737e+001 
3659375000  -5.157137e+001  -5.461067e+001 
3662500000  -5.079177e+001  -5.850680e+001 
3665625000  -4.986678e+001  -6.177116e+001 
3668750000  -4.800760e+001  -6.703473e+001 
3671875000  -4.719270e+001  -7.672235e+001 
3675000000  -4.759638e+001  -8.589167e+001 
3678125000  -4.723231e+001  -8.735222e+001 
3681250000  -4.681019e+001  -9.400061e+001 
3684375000  -4.642272e+001  -9.819450e+001 
3687500000  -4.664956e+001  -1.028699e+002 
3690625000  -4.681859e+001  -1.118512e+002 
3693750000  -4.713169e+001  -1.097425e+002 
3696875000  -4.620318e+001  -1.095255e+002 
3700000000  -4.525375e+001  -1.151563e+002 
3703125000  -4.529138e+001  -1.231258e+002 
3706250000  -4.619397e+001  -1.230064e+002 
3709375000  -4.469195e+001  -1.224129e+002 
3712500000  -4.352826e+001  -1.282862e+002 
3715625000  -4.237954e+001  -1.386552e+002 
3718750000  -4.171342e+001  -1.445197e+002 
3721875000  -4.137928e+001  -1.544191e+002 
3725000000  -4.155501e+001  -1.607646e+002 
3728125000  -4.152818e+001  -1.653642e+002 
3731250000  -4.070324e+001  -1.702186e+002 
3734375000  -4.004342e+001  -1.765039e+002 
3737500000  -4.101483e+001  1.727874e+002 
3740625000  -4.069748e+001  1.669819e+002 
3743750000  -4.070404e+001  1.603694e+002 
3746875000  -4.086701e+001  1.537139e+002 
3750000000  -4.079094e+001  1.514332e+002 
3753125000  -4.047969e+001  1.464892e+002 
3756250000  -4.054296e+001  1.432516e+002 
3759375000  -4.038141e+001  1.383646e+002 
3762500000  -4.007110e+001  1.302446e+002 
3765625000  -4.077659e+001  1.262931e+002 
3768750000  -4.020487e+001  1.259214e+002 
3771875000  -3.854626e+001  1.187850e+002 
3775000000  -3.866475e+001  1.075890e+002 
3778125000  -3.898850e+001  1.019319e+002 
3781250000  -3.886180e+001  9.688358e+001 
3784375000  -3.868043e+001  9.209209e+001 
3787500000  -3.857769e+001  8.459500e+001 
3790625000  -3.891280e+001  7.494852e+001 
3793750000  -3.910055e+001  7.256543e+001 
3796875000  -3.830057e+001  6.888731e+001 
3800000000  -3.647077e+001  6.379436e+001 
3803125000  -3.823520e+001  5.062030e+001 
3806250000  -3.893548e+001  4.803413e+001 
3809375000  -3.841621e+001  4.359987e+001 
3812500000  -3.843178e+001  3.405377e+001 
3815625000  -3.953817e+001  2.433464e+001 
3818750000  -4.082040e+001  2.492364e+001 
3821875000  -4.027294e+001  3.544513e+001 
3825000000  -3.836625e+001  2.963152e+001 
3828125000  -3.698441e+001  1.298195e+001 
3831250000  -3.810645e+001  -1.847468e+000 
3834375000  -4.028511e+001  -3.694833e+000 
3837500000  -4.089365e+001  2.122918e+000 
3840625000  -3.901352e+001  -1.462282e+000 
3843750000  -3.838572e+001  -1.552419e+001 
3846875000  -3.981536e+001  -2.186097e+001 
3850000000  -4.080783e+001  -1.653322e+001 
3853125000  -3.990200e+001  -1.776056e+001 
3856250000  -3.948148e+001  -2.395608e+001 
3859375000  -3.870098e+001  -3.085105e+001 
3862500000  -3.835622e+001  -4.034950e+001 
3865625000  -3.895189e+001  -4.659472e+001 
3868750000  -3.873202e+001  -4.897762e+001 
3871875000  -3.811127e+001  -5.447992e+001 
3875000000  -3.835267e+001  -6.573982e+001 
3878125000  -3.953580e+001  -6.809564e+001 
3881250000  -3.914502e+001  -6.655666e+001 
3884375000  -3.877448e+001  -7.497850e+001 
3887500000  -3.906855e+001  -8.094820e+001 
3890625000  -3.965221e+001  -8.596951e+001 
3893750000  -3.972517e+001  -8.813699e+001 
3896875000  -4.014171e+001  -9.031146e+001 
3900000000  -4.004387e+001  -9.228085e+001 
3903125000  -3.956134e+001  -9.942490e+001 
3906250000  -3.906466e+001  -1.029248e+002 
3909375000  -3.829818e+001  -1.104794e+002 
3912500000  -3.895918e+001  -1.201080e+002 
3915625000  -4.029548e+001  -1.203885e+002 
3918750000  -3.994503e+001  -1.192723e+002 
3921875000  -3.911633e+001  -1.255748e+002 
3925000000  -3.834085e+001  -1.315585e+002 
3928125000  -3.837599e+001  -1.411319e+002 
3931250000  -3.907677e+001  -1.474959e+002 
3934375000  -3.965663e+001  -1.473147e+002 
3937500000  -4.013534e+001  -1.518518e+002 
3940625000  -4.023013e+001  -1.522628e+002 
3943750000  -3.879730e+001  -1.550831e+002 
3946875000  -3.852866e+001  -1.652707e+002 
3950000000  -3.938590e+001  -1.737413e+002 
3953125000  -3.996806e+001  -1.717037e+002 
3956250000  -3.882662e+001  -1.735526e+002 
3959375000  -3.776522e+001  -1.797452e+002 
3962500000  -3.755462e+001  1.716246e+002 
3965625000  -3.773643e+001  1.637094e+002 
3968750000  -3.862481e+001  1.545264e+002 
3971875000  -3.874552e+001  1.506765e+002 
3975000000  -3.843095e+001  1.470218e+002 
3978125000  -3.859121e+001  1.409991e+002 
3981250000  -3.868657e+001  1.360986e+002 
3984375000  -3.909264e+001  1.273798e+002 
3987500000  -3.978549e+001  1.235855e+002 
3990625000  -3.998562e+001  1.222307e+002 
3993750000  -3.988313e+001  1.179403e+002 
3996875000  -3.973180e+001  1.113073e+002 
4000000000  -4.064274e+001  1.077547e+002 
4003125000  -4.137010e+001  1.104943e+002 
4006250000  -3.943824e+001  1.073506e+002 
4009375000  -3.863366e+001  9.287650e+001 
4012500000  -4.007441e+001  8.515787e+001 
4015625000  -4.140434e+001  8.492020e+001 
4018750000  -4.122099e+001  8.674361e+001 
4021875000  -4.070947e+001  8.350327e+001 
4025000000  -4.061414e+001  7.565397e+001 
4028125000  -4.052046e+001  7.027536e+001 
4031250000  -4.128341e+001  6.489719e+001 
4034375000  -4.150921e+001  6.525597e+001 
4037500000  -4.095830e+001  6.699693e+001 
4040625000  -4.098929e+001  6.090065e+001 
4043750000  -4.128292e+001  5.760612e+001 
4046875000  -4.082759e+001  5.021259e+001 
4050000000  -4.030402e+001  4.951183e+001 
4053125000  -4.136037e+001  4.661253e+001 
4056250000  -4.156437e+001  5.131441e+001 
4059375000  -3.986637e+001  4.819060e+001 
4062500000  -3.895557e+001  3.983628e+001 
4065625000  -3.911272e+001  3.364480e+001 
4068750000  -3.824509e+001  2.688313e+001 
4071875000  -3.797812e+001  1.920641e+001 
4075000000  -3.851344e+001  1.061195e+001 
4078125000  -3.883961e+001  7.488954e+000 
4081250000  -3.820689e+001  1.618357e+000 
4084375000  -3.819778e+001  -7.650905e+000 
4087500000  -3.857554e+001  -1.518489e+001 
4090625000  -3.922165e+001  -1.710098e+001 
4093750000  -3.895530e+001  -1.766708e+001 
4096875000  -3.880179e+001  -2.835498e+001 
4100000000  -3.968308e+001  -3.467467e+001 
4103125000  -4.068036e+001  -3.339428e+001 
4106250000  -4.021297e+001  -2.921647e+001 
4109375000  -3.921243e+001  -3.444051e+001 
4112500000  -3.866293e+001  -4.361907e+001 
4115625000  -3.922272e+001  -5.098473e+001 
4118750000  -3.910251e+001  -5.571988e+001 
4121875000  -3.902743e+001  -6.159916e+001 
4125000000  -3.998660e+001  -6.880099e+001 
4128125000  -4.089433e+001  -6.657199e+001 
4131250000  -4.004961e+001  -6.255429e+001 
4134375000  -3.795358e+001  -7.071401e+001 
4137500000  -3.806391e+001  -9.296817e+001 
4140625000  -4.047223e+001  -9.778461e+001 
4143750000  -4.149567e+001  -9.088663e+001 
4146875000  -4.067178e+001  -8.634209e+001 
4150000000  -3.978789e+001  -9.691092e+001 
4153125000  -4.010849e+001  -1.052226e+002 
4156250000  -4.108710e+001  -1.056038e+002 
4159375000  -4.142559e+001  -1.016265e+002 
4162500000  -3.985852e+001  -1.007113e+002 
4165625000  -3.898994e+001  -1.065986e+002 
4168750000  -3.845709e+001  -1.182639e+002 
4171875000  -3.849192e+001  -1.290827e+002 
4175000000  -3.932735e+001  -1.351112e+002 
4178125000  -3.981223e+001  -1.333270e+002 
4181250000  -3.946840e+001  -1.375720e+002 
4184375000  -3.951175e+001  -1.441968e+002 
4187500000  -3.949443e+001  -1.500116e+002 
4190625000  -3.936074e+001  -1.564106e+002 
4193750000  -4.061004e+001  -1.610621e+002 
4196875000  -4.134419e+001  -1.634948e+002 
4200000000  -4.259926e+001  -1.568654e+002 
4203125000  -4.109530e+001  -1.428246e+002 
4206250000  -3.743341e+001  -1.530841e+002 
4209375000  -3.749520e+001  -1.765165e+002 
4212500000  -3.970304e+001  1.753174e+002 
4215625000  -4.035284e+001  -1.775195e+002 
4218750000  -3.847214e+001  -1.750108e+002 
4221875000  -3.677822e+001  1.751097e+002 
4225000000  -3.785146e+001  1.622378e+002 
4228125000  -3.786822e+001  1.661955e+002 
4231250000  -3.636517e+001  1.567724e+002 
4234375000  -3.666964e+001  1.470974e+002 
4237500000  -3.628575e+001  1.412721e+002 
4240625000  -3.643655e+001  1.317168e+002 
4243750000  -3.742943e+001  1.204179e+002 
4246875000  -3.858669e+001  1.196320e+002 
4250000000  -3.842603e+001  1.213789e+002 
4253125000  -3.781976e+001  1.168177e+002 
4256250000  -3.822205e+001  1.130009e+002 
4259375000  -3.772831e+001  1.056167e+002 
4262500000  -3.799505e+001  1.020513e+002 
4265625000  -3.793454e+001  1.016558e+002 
4268750000  -3.707849e+001  9.412826e+001 
4271875000  -3.698550e+001  8.493568e+001 
4275000000  -3.647026e+001  7.611886e+001 
4278125000  -3.769274e+001  6.385088e+001 
4281250000  -3.913425e+001  6.201604e+001 
4284375000  -3.888020e+001  6.004268e+001 
4287500000  -4.007179e+001  5.461622e+001 
4290625000  -4.060102e+001  6.670763e+001 
4293750000  -3.876731e+001  6.431906e+001 
4296875000  -3.780836e+001  5.310439e+001 
4300000000  -3.903688e+001  4.325624e+001 
4303125000  -3.994860e+001  4.616379e+001 
4306250000  -3.884040e+001  4.823820e+001 
4309375000  -3.744865e+001  4.090345e+001 
4312500000  -3.771548e+001  3.224886e+001 
4315625000  -3.810923e+001  2.382144e+001 
4318750000  -3.859134e+001  1.736749e+001 
4321875000  -3.876488e+001  1.957550e+001 
4325000000  -3.787471e+001  1.978048e+001 
4328125000  -3.749310e+001  8.467186e+000 
4331250000  -3.764943e+001  -2.059077e+000 
4334375000  -3.829873e+001  -7.889003e+000 
4337500000  -3.958742e+001  -8.811681e+000 
4340625000  -3.966385e+001  -5.624411e+000 
4343750000  -3.854756e+001  -7.419757e+000 
4346875000  -3.827702e+001  -1.650448e+001 
4350000000  -3.842601e+001  -2.470040e+001 
4353125000  -3.914120e+001  -3.208633e+001 
4356250000  -4.094118e+001  -2.849560e+001 
4359375000  -3.990027e+001  -1.510567e+001 
4362500000  -3.658708e+001  -2.310214e+001 
4365625000  -3.626941e+001  -3.883562e+001 
4368750000  -3.724610e+001  -5.066684e+001 
4371875000  -3.784402e+001  -5.144940e+001 
4375000000  -3.738147e+001  -5.380914e+001 
4378125000  -3.703918e+001  -6.173896e+001 
4381250000  -3.729018e+001  -6.839417e+001 
4384375000  -3.746311e+001  -7.596875e+001 
4387500000  -3.825574e+001  -8.166253e+001 
4390625000  -3.836199e+001  -8.339402e+001 
4393750000  -3.828311e+001  -8.259251e+001 
4396875000  -3.725734e+001  -8.631215e+001 
4400000000  -3.695660e+001  -9.754289e+001 
4403125000  -3.801950e+001  -1.064453e+002 
4406250000  -3.835839e+001  -1.095803e+002 
4409375000  -3.892609e+001  -1.134674e+002 
4412500000  -3.975581e+001  -1.154762e+002 
4415625000  -3.918500e+001  -1.124768e+002 
