!Agilent Technologies,E8363B,MY43030201,A.06.04.32
!Agilent E8363B: A.06.04.32
!Date: Tuesday, November 11, 2014 21:37:13
!Correction: S21(Response(S21)) 
!S1P File: Measurement: S21:
# Hz S  dB   R 50
3000000000  -4.068100e+001  7.114593e+001 
3003125000  -4.210133e+001  6.283659e+001 
3006250000  -4.213788e+001  6.188943e+001 
3009375000  -4.271480e+001  6.663242e+001 
3012500000  -4.149387e+001  6.161045e+001 
3015625000  -4.137738e+001  5.422756e+001 
3018750000  -4.162922e+001  5.552644e+001 
3021875000  -4.018591e+001  5.656957e+001 
3025000000  -3.875106e+001  5.248875e+001 
3028125000  -3.793316e+001  4.211246e+001 
3031250000  -3.688893e+001  3.001362e+001 
3034375000  -3.677238e+001  1.658974e+001 
3037500000  -3.756059e+001  5.332421e+000 
3040625000  -3.880020e+001  7.910497e-002 
3043750000  -3.912540e+001  -5.648633e+000 
3046875000  -3.990257e+001  -1.171848e+001 
3050000000  -4.092110e+001  -1.562069e+001 
3053125000  -4.041331e+001  -1.196989e+001 
3056250000  -4.044538e+001  -9.462504e+000 
3059375000  -3.988548e+001  -1.037413e+001 
3062500000  -3.822563e+001  -1.573036e+001 
3065625000  -3.785287e+001  -2.518598e+001 
3068750000  -3.749363e+001  -3.249828e+001 
3071875000  -3.759619e+001  -3.529470e+001 
3075000000  -3.695533e+001  -4.255454e+001 
3078125000  -3.713785e+001  -4.796270e+001 
3081250000  -3.716879e+001  -5.487286e+001 
3084375000  -3.639662e+001  -5.837675e+001 
3087500000  -3.641935e+001  -6.617265e+001 
3090625000  -3.593269e+001  -7.803844e+001 
3093750000  -3.701165e+001  -8.568761e+001 
3096875000  -3.737170e+001  -9.113758e+001 
3100000000  -3.721143e+001  -9.420583e+001 
3103125000  -3.758924e+001  -9.841869e+001 
3106250000  -3.713905e+001  -1.022088e+002 
3109375000  -3.719224e+001  -1.065731e+002 
3112500000  -3.717768e+001  -1.126437e+002 
3115625000  -3.721428e+001  -1.169513e+002 
3118750000  -3.725329e+001  -1.197965e+002 
3121875000  -3.654963e+001  -1.307704e+002 
3125000000  -3.845187e+001  -1.342310e+002 
3128125000  -3.849931e+001  -1.274691e+002 
3131250000  -3.602809e+001  -1.333043e+002 
3134375000  -3.538204e+001  -1.506530e+002 
3137500000  -3.593539e+001  -1.619868e+002 
3140625000  -3.733344e+001  -1.647242e+002 
3143750000  -3.818589e+001  -1.672130e+002 
3146875000  -3.758622e+001  -1.647902e+002 
3150000000  -3.697735e+001  -1.700430e+002 
3153125000  -3.713949e+001  -1.771761e+002 
3156250000  -3.804827e+001  -1.732910e+002 
3159375000  -3.557006e+001  -1.756325e+002 
3162500000  -3.417359e+001  1.696214e+002 
3165625000  -3.552975e+001  1.560235e+002 
3168750000  -3.534910e+001  1.551141e+002 
3171875000  -3.489423e+001  1.475828e+002 
3175000000  -3.549299e+001  1.396748e+002 
3178125000  -3.498690e+001  1.371506e+002 
3181250000  -3.442207e+001  1.288467e+002 
3184375000  -3.420000e+001  1.177975e+002 
3187500000  -3.535476e+001  1.023283e+002 
3190625000  -3.721510e+001  9.647023e+001 
3193750000  -3.751708e+001  1.014687e+002 
3196875000  -3.729440e+001  1.026140e+002 
3200000000  -3.606236e+001  9.749973e+001 
3203125000  -3.589900e+001  8.933082e+001 
3206250000  -3.609019e+001  8.209866e+001 
3209375000  -3.581997e+001  7.411522e+001 
3212500000  -3.630959e+001  6.778148e+001 
3215625000  -3.607415e+001  6.412183e+001 
3218750000  -3.680989e+001  5.314005e+001 
3221875000  -3.723202e+001  4.768473e+001 
3225000000  -3.697165e+001  4.234691e+001 
3228125000  -3.765949e+001  3.532922e+001 
3231250000  -3.829578e+001  3.331595e+001 
3234375000  -3.798429e+001  2.950820e+001 
3237500000  -3.802794e+001  2.612705e+001 
3240625000  -3.750673e+001  2.113943e+001 
3243750000  -3.766231e+001  1.110948e+001 
3246875000  -3.816032e+001  3.404045e+000 
3250000000  -3.887650e+001  9.692742e-001 
3253125000  -3.888706e+001  -2.344823e+000 
3256250000  -3.850640e+001  -1.151718e+001 
3259375000  -3.923391e+001  -2.316718e+001 
3262500000  -4.049470e+001  -2.594749e+001 
3265625000  -4.125742e+001  -2.535124e+001 
3268750000  -4.102072e+001  -2.205030e+001 
3271875000  -4.049456e+001  -2.517393e+001 
3275000000  -4.012863e+001  -3.446241e+001 
3278125000  -4.085260e+001  -3.861518e+001 
3281250000  -4.109064e+001  -4.011024e+001 
3284375000  -4.064168e+001  -4.556002e+001 
3287500000  -4.099884e+001  -5.137458e+001 
3290625000  -4.128822e+001  -5.767539e+001 
3293750000  -4.129805e+001  -6.412032e+001 
3296875000  -4.234700e+001  -6.650583e+001 
3300000000  -4.176744e+001  -6.648119e+001 
3303125000  -4.106057e+001  -7.128628e+001 
3306250000  -4.073805e+001  -7.937104e+001 
3309375000  -4.047755e+001  -8.736623e+001 
3312500000  -4.085961e+001  -9.910960e+001 
3315625000  -4.247142e+001  -1.062181e+002 
3318750000  -4.337624e+001  -1.101575e+002 
3321875000  -4.509883e+001  -1.045272e+002 
3325000000  -4.488206e+001  -9.847965e+001 
3328125000  -4.361922e+001  -1.011964e+002 
3331250000  -4.201179e+001  -9.535603e+001 
3334375000  -3.964986e+001  -1.133850e+002 
3337500000  -4.046444e+001  -1.330280e+002 
3340625000  -4.229081e+001  -1.434629e+002 
3343750000  -4.400440e+001  -1.419616e+002 
3346875000  -4.324396e+001  -1.430364e+002 
3350000000  -4.306879e+001  -1.461095e+002 
3353125000  -4.268367e+001  -1.532306e+002 
3356250000  -4.234581e+001  -1.629908e+002 
3359375000  -4.325680e+001  -1.709908e+002 
3362500000  -4.424178e+001  -1.782067e+002 
3365625000  -4.464039e+001  1.788591e+002 
3368750000  -4.579103e+001  1.756892e+002 
3371875000  -4.555627e+001  1.702736e+002 
3375000000  -4.717083e+001  1.653396e+002 
3378125000  -4.809848e+001  1.649503e+002 
3381250000  -5.025807e+001  1.779954e+002 
3384375000  -4.603737e+001  -1.714183e+002 
3387500000  -4.373846e+001  1.707736e+002 
3390625000  -4.592329e+001  1.513187e+002 
3393750000  -4.683208e+001  1.497267e+002 
3396875000  -4.602567e+001  1.497897e+002 
3400000000  -4.597792e+001  1.355627e+002 
3403125000  -4.690643e+001  1.322765e+002 
3406250000  -4.811584e+001  1.297094e+002 
3409375000  -4.739736e+001  1.208894e+002 
3412500000  -4.866193e+001  1.155506e+002 
3415625000  -4.967444e+001  1.158889e+002 
3418750000  -5.027048e+001  1.125853e+002 
3421875000  -5.161977e+001  1.153255e+002 
3425000000  -5.006506e+001  1.162131e+002 
3428125000  -5.011682e+001  1.137577e+002 
3431250000  -5.001310e+001  1.067613e+002 
3434375000  -5.048115e+001  9.906413e+001 
3437500000  -5.234254e+001  1.029744e+002 
3440625000  -5.140919e+001  1.015969e+002 
3443750000  -5.034462e+001  1.004271e+002 
3446875000  -5.080847e+001  9.785351e+001 
3450000000  -5.026652e+001  8.956268e+001 
3453125000  -5.157904e+001  8.000381e+001 
3456250000  -5.126395e+001  7.688544e+001 
3459375000  -5.315632e+001  8.432864e+001 
3462500000  -5.178267e+001  8.625276e+001 
3465625000  -5.124150e+001  7.605853e+001 
3468750000  -5.170370e+001  7.160139e+001 
3471875000  -5.147215e+001  7.360587e+001 
3475000000  -5.094707e+001  6.507442e+001 
3478125000  -5.151572e+001  5.593623e+001 
3481250000  -5.281564e+001  6.303026e+001 
3484375000  -5.219700e+001  6.205711e+001 
3487500000  -5.074035e+001  5.764281e+001 
3490625000  -5.110461e+001  4.653192e+001 
3493750000  -5.074293e+001  4.398664e+001 
3496875000  -5.132633e+001  4.891667e+001 
3500000000  -5.199939e+001  4.537426e+001 
3503125000  -5.067569e+001  4.148330e+001 
3506250000  -4.940229e+001  3.504448e+001 
3509375000  -4.943122e+001  2.349804e+001 
3512500000  -5.038422e+001  9.916624e+000 
3515625000  -5.078439e+001  4.436344e+000 
3518750000  -5.172110e+001  8.990733e+000 
3521875000  -5.177186e+001  2.736486e+000 
3525000000  -5.314811e+001  -5.203823e+000 
3528125000  -5.221629e+001  7.042992e+000 
3531250000  -5.064983e+001  -6.035365e+000 
3534375000  -5.272384e+001  -1.857701e+001 
3537500000  -5.299989e+001  -2.961725e+001 
3540625000  -5.554111e+001  -2.398818e+001 
3543750000  -5.683792e+001  -2.168765e+001 
3546875000  -5.547929e+001  -9.838868e+000 
3550000000  -5.467060e+001  -1.891093e+001 
3553125000  -5.408945e+001  -3.420139e+001 
3556250000  -5.570797e+001  -4.103309e+001 
3559375000  -5.558386e+001  -3.560414e+001 
3562500000  -5.680784e+001  -4.878683e+001 
3565625000  -5.658030e+001  -5.898260e+001 
3568750000  -5.661131e+001  -4.021563e+001 
3571875000  -5.880339e+001  -4.636874e+001 
3575000000  -5.762317e+001  -4.341040e+001 
3578125000  -5.874807e+001  -4.941957e+001 
3581250000  -5.877812e+001  -4.175714e+001 
3584375000  -5.798591e+001  -4.770203e+001 
3587500000  -5.666133e+001  -5.724383e+001 
3590625000  -5.778378e+001  -6.784054e+001 
3593750000  -5.798459e+001  -4.767776e+001 
3596875000  -5.733006e+001  -3.469741e+001 
3600000000  -5.844485e+001  -4.623469e+001 
3603125000  -5.836662e+001  -5.427962e+001 
3606250000  -5.925248e+001  -5.228872e+001 
3609375000  -5.994308e+001  -5.046376e+001 
3612500000  -5.966940e+001  -4.994722e+001 
3615625000  -6.086361e+001  -5.469423e+001 
3618750000  -5.917400e+001  -5.644407e+001 
3621875000  -5.756383e+001  -5.213664e+001 
3625000000  -5.877733e+001  -5.037275e+001 
3628125000  -5.694589e+001  -4.875376e+001 
3631250000  -5.619761e+001  -4.543653e+001 
3634375000  -5.640123e+001  -4.997345e+001 
3637500000  -5.532181e+001  -3.420366e+001 
3640625000  -5.457777e+001  -4.645365e+001 
3643750000  -5.293371e+001  -4.856929e+001 
3646875000  -5.370587e+001  -6.061208e+001 
3650000000  -5.301319e+001  -5.779867e+001 
3653125000  -5.196431e+001  -5.932552e+001 
3656250000  -5.226016e+001  -6.560250e+001 
3659375000  -5.133364e+001  -6.718687e+001 
3662500000  -5.046171e+001  -7.162357e+001 
3665625000  -5.051233e+001  -7.400106e+001 
3668750000  -4.849381e+001  -7.347001e+001 
3671875000  -4.725016e+001  -8.662825e+001 
3675000000  -4.713634e+001  -9.875633e+001 
3678125000  -4.707873e+001  -1.011958e+002 
3681250000  -4.696148e+001  -1.059440e+002 
3684375000  -4.722786e+001  -1.083640e+002 
3687500000  -4.659401e+001  -1.139363e+002 
3690625000  -4.663424e+001  -1.243493e+002 
3693750000  -4.718862e+001  -1.191971e+002 
3696875000  -4.629882e+001  -1.223332e+002 
3700000000  -4.514505e+001  -1.299474e+002 
3703125000  -4.523019e+001  -1.341083e+002 
3706250000  -4.559251e+001  -1.325657e+002 
3709375000  -4.506586e+001  -1.363186e+002 
3712500000  -4.350217e+001  -1.410168e+002 
3715625000  -4.183554e+001  -1.487617e+002 
3718750000  -4.176084e+001  -1.569770e+002 
3721875000  -4.143461e+001  -1.652253e+002 
3725000000  -4.171798e+001  -1.722121e+002 
3728125000  -4.147061e+001  -1.770344e+002 
3731250000  -4.072297e+001  1.762265e+002 
3734375000  -4.011896e+001  1.719054e+002 
3737500000  -4.104916e+001  1.615933e+002 
3740625000  -4.084898e+001  1.552057e+002 
3743750000  -4.056758e+001  1.486828e+002 
3746875000  -4.067620e+001  1.427191e+002 
3750000000  -4.092375e+001  1.362686e+002 
3753125000  -4.042859e+001  1.358566e+002 
3756250000  -4.057600e+001  1.311115e+002 
3759375000  -4.059003e+001  1.266278e+002 
3762500000  -4.002417e+001  1.192697e+002 
3765625000  -4.078708e+001  1.142916e+002 
3768750000  -4.021052e+001  1.148954e+002 
3771875000  -3.864712e+001  1.062871e+002 
3775000000  -3.844010e+001  9.670204e+001 
3778125000  -3.899723e+001  8.887077e+001 
3781250000  -3.909608e+001  8.576678e+001 
3784375000  -3.861775e+001  7.880121e+001 
3787500000  -3.846272e+001  7.273926e+001 
3790625000  -3.916360e+001  6.400620e+001 
3793750000  -3.912134e+001  6.162563e+001 
3796875000  -3.826544e+001  5.676813e+001 
3800000000  -3.643761e+001  5.218709e+001 
3803125000  -3.834120e+001  3.978055e+001 
3806250000  -3.907226e+001  3.389115e+001 
3809375000  -3.845402e+001  3.119032e+001 
3812500000  -3.839374e+001  2.229927e+001 
3815625000  -3.968904e+001  1.115897e+001 
3818750000  -4.094827e+001  1.257100e+001 
3821875000  -4.028178e+001  2.350666e+001 
3825000000  -3.813642e+001  1.804150e+001 
3828125000  -3.686912e+001  2.248682e-001 
3831250000  -3.792105e+001  -1.494540e+001 
3834375000  -4.029973e+001  -1.371648e+001 
3837500000  -4.066358e+001  -9.246059e+000 
3840625000  -3.889309e+001  -1.339489e+001 
3843750000  -3.855195e+001  -2.951400e+001 
3846875000  -3.976693e+001  -3.547031e+001 
3850000000  -4.074076e+001  -2.699852e+001 
3853125000  -3.988255e+001  -2.768041e+001 
3856250000  -3.910976e+001  -3.657805e+001 
3859375000  -3.861381e+001  -4.473068e+001 
3862500000  -3.873887e+001  -5.444643e+001 
3865625000  -3.903072e+001  -5.843008e+001 
3868750000  -3.885926e+001  -6.042838e+001 
3871875000  -3.809064e+001  -6.883136e+001 
3875000000  -3.846320e+001  -7.714684e+001 
3878125000  -3.949292e+001  -7.996343e+001 
3881250000  -3.932709e+001  -8.041570e+001 
3884375000  -3.874389e+001  -8.726105e+001 
3887500000  -3.902932e+001  -9.298398e+001 
3890625000  -3.958365e+001  -9.793991e+001 
3893750000  -3.964036e+001  -1.010276e+002 
3896875000  -4.001588e+001  -1.035906e+002 
3900000000  -3.965434e+001  -1.062215e+002 
3903125000  -3.886262e+001  -1.098833e+002 
3906250000  -3.888206e+001  -1.153077e+002 
3909375000  -3.805172e+001  -1.242209e+002 
3912500000  -3.905982e+001  -1.337572e+002 
3915625000  -4.055014e+001  -1.318881e+002 
3918750000  -3.997288e+001  -1.348100e+002 
3921875000  -3.927149e+001  -1.376238e+002 
3925000000  -3.859961e+001  -1.435770e+002 
3928125000  -3.816566e+001  -1.533084e+002 
3931250000  -3.918552e+001  -1.597004e+002 
3934375000  -3.959373e+001  -1.611835e+002 
3937500000  -4.016348e+001  -1.634545e+002 
3940625000  -4.004454e+001  -1.660791e+002 
3943750000  -3.889074e+001  -1.685025e+002 
3946875000  -3.846929e+001  -1.784373e+002 
3950000000  -3.948159e+001  1.742990e+002 
3953125000  -3.996072e+001  1.758036e+002 
3956250000  -3.863449e+001  1.745079e+002 
3959375000  -3.769465e+001  1.683649e+002 
3962500000  -3.785855e+001  1.592578e+002 
3965625000  -3.777421e+001  1.491188e+002 
3968750000  -3.877853e+001  1.428462e+002 
3971875000  -3.851446e+001  1.387085e+002 
3975000000  -3.843856e+001  1.332526e+002 
3978125000  -3.852182e+001  1.295360e+002 
3981250000  -3.852016e+001  1.226304e+002 
3984375000  -3.900789e+001  1.153690e+002 
3987500000  -3.945699e+001  1.113520e+002 
3990625000  -3.984480e+001  1.110306e+002 
3993750000  -3.997436e+001  1.051672e+002 
3996875000  -3.983257e+001  9.849572e+001 
4000000000  -4.066033e+001  9.682722e+001 
4003125000  -4.094382e+001  9.777668e+001 
4006250000  -3.924995e+001  9.392146e+001 
4009375000  -3.835448e+001  8.033171e+001 
4012500000  -4.039950e+001  7.377134e+001 
4015625000  -4.147855e+001  7.071839e+001 
4018750000  -4.140944e+001  7.282993e+001 
4021875000  -4.067860e+001  7.008218e+001 
4025000000  -4.044348e+001  6.403059e+001 
4028125000  -4.048106e+001  5.525186e+001 
4031250000  -4.125571e+001  5.121094e+001 
4034375000  -4.163571e+001  5.211003e+001 
4037500000  -4.114735e+001  5.178017e+001 
4040625000  -4.109039e+001  4.911908e+001 
4043750000  -4.122242e+001  4.549249e+001 
4046875000  -4.060758e+001  4.155709e+001 
4050000000  -4.089518e+001  3.566329e+001 
4053125000  -4.154026e+001  3.536484e+001 
4056250000  -4.170524e+001  3.696056e+001 
4059375000  -3.995551e+001  3.607484e+001 
4062500000  -3.875140e+001  2.770749e+001 
4065625000  -3.901581e+001  2.020695e+001 
4068750000  -3.828155e+001  1.380381e+001 
4071875000  -3.783552e+001  4.762409e+000 
4075000000  -3.839803e+001  -2.658099e+000 
4078125000  -3.877367e+001  -5.868022e+000 
4081250000  -3.810365e+001  -1.079374e+001 
4084375000  -3.805331e+001  -2.108931e+001 
4087500000  -3.860963e+001  -2.875195e+001 
4090625000  -3.916506e+001  -2.940141e+001 
4093750000  -3.864423e+001  -3.353671e+001 
4096875000  -3.870288e+001  -4.133658e+001 
4100000000  -3.983372e+001  -4.907646e+001 
4103125000  -4.069207e+001  -4.605886e+001 
4106250000  -3.987275e+001  -4.253792e+001 
4109375000  -3.917003e+001  -4.819118e+001 
4112500000  -3.851602e+001  -5.539558e+001 
4115625000  -3.934317e+001  -6.522090e+001 
4118750000  -3.890111e+001  -6.837601e+001 
4121875000  -3.882706e+001  -7.523379e+001 
4125000000  -4.008253e+001  -8.185406e+001 
4128125000  -4.082155e+001  -7.977081e+001 
4131250000  -3.992959e+001  -7.502389e+001 
4134375000  -3.772271e+001  -8.379243e+001 
4137500000  -3.827726e+001  -1.054872e+002 
4140625000  -4.056200e+001  -1.111589e+002 
4143750000  -4.181011e+001  -1.033111e+002 
4146875000  -4.034771e+001  -1.016068e+002 
4150000000  -3.964687e+001  -1.079813e+002 
4153125000  -4.010294e+001  -1.176791e+002 
4156250000  -4.117393e+001  -1.200025e+002 
4159375000  -4.117410e+001  -1.158044e+002 
4162500000  -3.997292e+001  -1.124431e+002 
4165625000  -3.880307e+001  -1.218465e+002 
4168750000  -3.855760e+001  -1.317285e+002 
4171875000  -3.827643e+001  -1.420732e+002 
4175000000  -3.916170e+001  -1.484425e+002 
4178125000  -3.969210e+001  -1.476599e+002 
4181250000  -3.934733e+001  -1.534553e+002 
4184375000  -3.934825e+001  -1.580534e+002 
4187500000  -3.947423e+001  -1.619397e+002 
4190625000  -3.959975e+001  -1.697740e+002 
4193750000  -4.066623e+001  -1.749595e+002 
4196875000  -4.143914e+001  -1.759632e+002 
4200000000  -4.268182e+001  -1.674447e+002 
4203125000  -4.115538e+001  -1.575134e+002 
4206250000  -3.751618e+001  -1.659206e+002 
4209375000  -3.746713e+001  1.699269e+002 
4212500000  -3.960836e+001  1.634244e+002 
4215625000  -4.024444e+001  1.717434e+002 
4218750000  -3.829410e+001  1.719067e+002 
4221875000  -3.664524e+001  1.636012e+002 
4225000000  -3.780105e+001  1.497596e+002 
4228125000  -3.789973e+001  1.509512e+002 
4231250000  -3.633992e+001  1.432475e+002 
4234375000  -3.625272e+001  1.333192e+002 
4237500000  -3.622421e+001  1.268540e+002 
4240625000  -3.635361e+001  1.153571e+002 
4243750000  -3.758537e+001  1.079937e+002 
4246875000  -3.858203e+001  1.071000e+002 
4250000000  -3.829431e+001  1.076521e+002 
4253125000  -3.803380e+001  1.036583e+002 
4256250000  -3.780880e+001  1.001589e+002 
4259375000  -3.764488e+001  9.330202e+001 
4262500000  -3.796495e+001  8.805685e+001 
4265625000  -3.780005e+001  8.863809e+001 
4268750000  -3.666791e+001  7.895132e+001 
4271875000  -3.661031e+001  7.065511e+001 
4275000000  -3.649741e+001  6.202279e+001 
4278125000  -3.763073e+001  4.997674e+001 
4281250000  -3.937102e+001  4.713266e+001 
4284375000  -3.894967e+001  4.567107e+001 
4287500000  -4.023981e+001  4.291578e+001 
4290625000  -4.054189e+001  5.035789e+001 
4293750000  -3.844189e+001  5.326878e+001 
4296875000  -3.776261e+001  3.896704e+001 
4300000000  -3.929723e+001  2.922806e+001 
4303125000  -3.951926e+001  3.347764e+001 
4306250000  -3.875067e+001  3.414168e+001 
4309375000  -3.743884e+001  2.938571e+001 
4312500000  -3.761499e+001  1.791989e+001 
4315625000  -3.791470e+001  8.835855e+000 
4318750000  -3.863049e+001  6.265019e+000 
4321875000  -3.856535e+001  5.764570e+000 
4325000000  -3.791278e+001  4.223940e+000 
4328125000  -3.732456e+001  -6.459834e+000 
4331250000  -3.744799e+001  -1.643920e+001 
4334375000  -3.834233e+001  -2.307965e+001 
4337500000  -3.955660e+001  -2.308960e+001 
4340625000  -3.945057e+001  -1.678723e+001 
4343750000  -3.844786e+001  -2.118341e+001 
4346875000  -3.828148e+001  -3.104444e+001 
4350000000  -3.831524e+001  -3.888713e+001 
4353125000  -3.913958e+001  -4.578109e+001 
4356250000  -4.125457e+001  -3.847717e+001 
4359375000  -3.955845e+001  -2.728964e+001 
4362500000  -3.647998e+001  -3.624790e+001 
4365625000  -3.605753e+001  -5.387331e+001 
4368750000  -3.710736e+001  -6.346618e+001 
4371875000  -3.793578e+001  -6.389001e+001 
4375000000  -3.730057e+001  -6.893495e+001 
4378125000  -3.668968e+001  -7.698320e+001 
4381250000  -3.690220e+001  -8.278465e+001 
4384375000  -3.716207e+001  -8.871575e+001 
4387500000  -3.815117e+001  -9.614428e+001 
4390625000  -3.840273e+001  -9.628111e+001 
4393750000  -3.802045e+001  -9.574898e+001 
4396875000  -3.739991e+001  -1.007380e+002 
4400000000  -3.666766e+001  -1.115470e+002 
4403125000  -3.790824e+001  -1.197719e+002 
4406250000  -3.847667e+001  -1.238930e+002 
4409375000  -3.864373e+001  -1.278874e+002 
4412500000  -3.972239e+001  -1.294727e+002 
4415625000  -3.953291e+001  -1.261990e+002 
