!Agilent Technologies,E8363B,MY43030201,A.06.04.32
!Agilent E8363B: A.06.04.32
!Date: Tuesday, November 11, 2014 21:37:02
!Correction: S21(Response(S21)) 
!S1P File: Measurement: S21:
# Hz S  dB   R 50
3000000000  -4.055351e+001  7.113953e+001 
3003125000  -4.226606e+001  6.135482e+001 
3006250000  -4.208288e+001  6.206653e+001 
3009375000  -4.261018e+001  6.749531e+001 
3012500000  -4.133076e+001  6.269712e+001 
3015625000  -4.141909e+001  5.571544e+001 
3018750000  -4.173749e+001  5.636219e+001 
3021875000  -4.014555e+001  5.690995e+001 
3025000000  -3.900101e+001  5.303291e+001 
3028125000  -3.783337e+001  4.278301e+001 
3031250000  -3.697559e+001  3.008477e+001 
3034375000  -3.671749e+001  1.684049e+001 
3037500000  -3.755015e+001  6.184349e+000 
3040625000  -3.904547e+001  1.126488e+000 
3043750000  -3.920553e+001  -5.730597e+000 
3046875000  -3.978145e+001  -1.138012e+001 
3050000000  -4.086644e+001  -1.712458e+001 
3053125000  -4.057854e+001  -1.081790e+001 
3056250000  -4.047586e+001  -7.913043e+000 
3059375000  -3.989546e+001  -1.019722e+001 
3062500000  -3.829679e+001  -1.531071e+001 
3065625000  -3.795190e+001  -2.501441e+001 
3068750000  -3.751807e+001  -3.268396e+001 
3071875000  -3.754503e+001  -3.528022e+001 
3075000000  -3.699209e+001  -4.146848e+001 
3078125000  -3.708435e+001  -4.836887e+001 
3081250000  -3.720228e+001  -5.408875e+001 
3084375000  -3.643791e+001  -5.900592e+001 
3087500000  -3.638962e+001  -6.552637e+001 
3090625000  -3.585949e+001  -7.866972e+001 
3093750000  -3.700164e+001  -8.571678e+001 
3096875000  -3.726815e+001  -9.075176e+001 
3100000000  -3.718935e+001  -9.365982e+001 
3103125000  -3.755793e+001  -9.796802e+001 
3106250000  -3.716621e+001  -1.022919e+002 
3109375000  -3.729744e+001  -1.055622e+002 
3112500000  -3.713951e+001  -1.126541e+002 
3115625000  -3.714980e+001  -1.163195e+002 
3118750000  -3.721049e+001  -1.198706e+002 
3121875000  -3.652608e+001  -1.301895e+002 
3125000000  -3.845984e+001  -1.336839e+002 
3128125000  -3.852862e+001  -1.271460e+002 
3131250000  -3.621866e+001  -1.335724e+002 
3134375000  -3.541686e+001  -1.499760e+002 
3137500000  -3.616158e+001  -1.623297e+002 
3140625000  -3.736983e+001  -1.651120e+002 
3143750000  -3.812742e+001  -1.673183e+002 
3146875000  -3.750343e+001  -1.650640e+002 
3150000000  -3.693352e+001  -1.697747e+002 
3153125000  -3.710493e+001  -1.773152e+002 
3156250000  -3.791891e+001  -1.732680e+002 
3159375000  -3.541929e+001  -1.747188e+002 
3162500000  -3.420765e+001  1.697653e+002 
3165625000  -3.550298e+001  1.564415e+002 
3168750000  -3.532458e+001  1.552171e+002 
3171875000  -3.495334e+001  1.486374e+002 
3175000000  -3.537848e+001  1.392020e+002 
3178125000  -3.491884e+001  1.372183e+002 
3181250000  -3.440939e+001  1.283410e+002 
3184375000  -3.425003e+001  1.180081e+002 
3187500000  -3.553798e+001  1.029420e+002 
3190625000  -3.726789e+001  9.703952e+001 
3193750000  -3.727070e+001  1.022113e+002 
3196875000  -3.722624e+001  1.034185e+002 
3200000000  -3.610217e+001  9.759590e+001 
3203125000  -3.585974e+001  8.972998e+001 
3206250000  -3.620779e+001  8.201410e+001 
3209375000  -3.572544e+001  7.392572e+001 
3212500000  -3.627123e+001  6.711693e+001 
3215625000  -3.599383e+001  6.489983e+001 
3218750000  -3.674871e+001  5.374206e+001 
3221875000  -3.726625e+001  4.694565e+001 
3225000000  -3.698422e+001  4.270813e+001 
3228125000  -3.771520e+001  3.579654e+001 
3231250000  -3.821421e+001  3.311796e+001 
3234375000  -3.793612e+001  3.069891e+001 
3237500000  -3.801192e+001  2.737883e+001 
3240625000  -3.764514e+001  2.095507e+001 
3243750000  -3.777157e+001  1.128936e+001 
3246875000  -3.822607e+001  3.906805e+000 
3250000000  -3.873875e+001  -4.634999e-001 
3253125000  -3.892837e+001  -3.581347e+000 
3256250000  -3.855020e+001  -1.127135e+001 
3259375000  -3.921395e+001  -2.166213e+001 
3262500000  -4.055706e+001  -2.633420e+001 
3265625000  -4.131129e+001  -2.321415e+001 
3268750000  -4.125356e+001  -2.072208e+001 
3271875000  -4.069096e+001  -2.660429e+001 
3275000000  -4.008644e+001  -3.487351e+001 
3278125000  -4.075380e+001  -3.949571e+001 
3281250000  -4.100829e+001  -3.980719e+001 
3284375000  -4.071547e+001  -4.702628e+001 
3287500000  -4.103733e+001  -5.116613e+001 
3290625000  -4.121167e+001  -5.833936e+001 
3293750000  -4.122482e+001  -6.321120e+001 
3296875000  -4.253603e+001  -6.608696e+001 
3300000000  -4.170768e+001  -6.544590e+001 
3303125000  -4.080013e+001  -7.123547e+001 
3306250000  -4.072951e+001  -8.016171e+001 
3309375000  -4.062421e+001  -8.627290e+001 
3312500000  -4.074191e+001  -9.886681e+001 
3315625000  -4.214918e+001  -1.052914e+002 
3318750000  -4.345486e+001  -1.087836e+002 
3321875000  -4.475136e+001  -1.081607e+002 
3325000000  -4.479867e+001  -9.796254e+001 
3328125000  -4.396832e+001  -9.884805e+001 
3331250000  -4.203703e+001  -9.649013e+001 
3334375000  -3.975664e+001  -1.135724e+002 
3337500000  -4.053200e+001  -1.332818e+002 
3340625000  -4.240061e+001  -1.442452e+002 
3343750000  -4.407988e+001  -1.414791e+002 
3346875000  -4.344911e+001  -1.429858e+002 
3350000000  -4.302251e+001  -1.461684e+002 
3353125000  -4.289139e+001  -1.526074e+002 
3356250000  -4.246025e+001  -1.606722e+002 
3359375000  -4.357913e+001  -1.734612e+002 
3362500000  -4.425657e+001  -1.781388e+002 
3365625000  -4.474124e+001  1.775175e+002 
3368750000  -4.537865e+001  1.741902e+002 
3371875000  -4.572905e+001  1.727233e+002 
3375000000  -4.764404e+001  1.654626e+002 
3378125000  -4.843150e+001  1.667240e+002 
3381250000  -4.962368e+001  1.769973e+002 
3384375000  -4.622884e+001  -1.667865e+002 
3387500000  -4.369838e+001  1.669406e+002 
3390625000  -4.624774e+001  1.511335e+002 
3393750000  -4.720034e+001  1.495314e+002 
3396875000  -4.627917e+001  1.475318e+002 
3400000000  -4.598037e+001  1.372104e+002 
3403125000  -4.748881e+001  1.331292e+002 
3406250000  -4.793142e+001  1.283781e+002 
3409375000  -4.775331e+001  1.239594e+002 
3412500000  -4.916228e+001  1.158464e+002 
3415625000  -4.968639e+001  1.109538e+002 
3418750000  -5.016421e+001  1.148680e+002 
3421875000  -5.046751e+001  1.187883e+002 
3425000000  -4.999697e+001  1.167018e+002 
3428125000  -4.981187e+001  1.132269e+002 
3431250000  -5.026040e+001  1.061990e+002 
3434375000  -5.090747e+001  1.011815e+002 
3437500000  -5.176861e+001  1.036777e+002 
3440625000  -5.179216e+001  1.045516e+002 
3443750000  -5.070356e+001  1.032199e+002 
3446875000  -5.040862e+001  9.768613e+001 
3450000000  -5.062438e+001  9.096648e+001 
3453125000  -5.057826e+001  7.755706e+001 
3456250000  -5.188219e+001  8.136425e+001 
3459375000  -5.268002e+001  8.310242e+001 
3462500000  -5.260133e+001  8.662183e+001 
3465625000  -5.082571e+001  7.700318e+001 
3468750000  -5.199554e+001  8.040522e+001 
3471875000  -5.206363e+001  7.134323e+001 
3475000000  -5.120080e+001  7.150076e+001 
3478125000  -5.074024e+001  6.037124e+001 
3481250000  -5.198949e+001  6.373408e+001 
3484375000  -5.194559e+001  6.744221e+001 
3487500000  -5.185752e+001  6.160577e+001 
3490625000  -5.093297e+001  4.928889e+001 
3493750000  -5.114098e+001  4.707118e+001 
3496875000  -5.152315e+001  4.657807e+001 
3500000000  -5.151589e+001  4.539380e+001 
3503125000  -5.049305e+001  4.189228e+001 
3506250000  -5.002568e+001  3.283518e+001 
3509375000  -4.971914e+001  2.641271e+001 
3512500000  -5.011008e+001  7.823737e+000 
3515625000  -5.144638e+001  6.222584e+000 
3518750000  -5.222976e+001  5.935133e+000 
3521875000  -5.288733e+001  -3.383942e+000 
3525000000  -5.457789e+001  -4.200296e+000 
3528125000  -5.241348e+001  1.356389e+000 
3531250000  -5.161013e+001  -6.781004e+000 
3534375000  -5.283314e+001  -2.135241e+001 
3537500000  -5.380856e+001  -3.153259e+001 
3540625000  -5.508781e+001  -3.239288e+001 
3543750000  -5.564957e+001  -1.663590e+001 
3546875000  -5.549537e+001  -1.939141e+001 
3550000000  -5.323992e+001  -2.026751e+001 
3553125000  -5.383227e+001  -3.035151e+001 
3556250000  -5.576283e+001  -4.003204e+001 
3559375000  -5.586090e+001  -3.639187e+001 
3562500000  -5.591069e+001  -5.280522e+001 
3565625000  -5.717175e+001  -5.817991e+001 
3568750000  -5.581111e+001  -4.726442e+001 
3571875000  -5.679894e+001  -5.678760e+001 
3575000000  -5.887045e+001  -2.957033e+001 
3578125000  -5.703123e+001  -5.111479e+001 
3581250000  -5.768169e+001  -4.010124e+001 
3584375000  -5.765901e+001  -3.531042e+001 
3587500000  -5.648525e+001  -5.157581e+001 
3590625000  -5.808976e+001  -6.631316e+001 
3593750000  -5.938203e+001  -4.974113e+001 
3596875000  -5.717969e+001  -3.408324e+001 
3600000000  -5.591100e+001  -4.870485e+001 
3603125000  -5.891837e+001  -5.660227e+001 
3606250000  -5.848535e+001  -5.293119e+001 
3609375000  -5.929784e+001  -3.456007e+001 
3612500000  -5.956312e+001  -6.457571e+001 
3615625000  -5.935489e+001  -6.640587e+001 
3618750000  -5.835249e+001  -5.017495e+001 
3621875000  -5.794246e+001  -4.262549e+001 
3625000000  -5.885040e+001  -5.445287e+001 
3628125000  -5.733086e+001  -3.893388e+001 
3631250000  -5.687794e+001  -5.667342e+001 
3634375000  -5.654441e+001  -5.193577e+001 
3637500000  -5.510102e+001  -4.379375e+001 
3640625000  -5.449129e+001  -4.348521e+001 
3643750000  -5.335958e+001  -4.988881e+001 
3646875000  -5.320736e+001  -6.511465e+001 
3650000000  -5.241601e+001  -6.358536e+001 
3653125000  -5.181883e+001  -6.299913e+001 
3656250000  -5.160930e+001  -6.739394e+001 
3659375000  -5.137460e+001  -6.477367e+001 
3662500000  -5.103362e+001  -7.126296e+001 
3665625000  -4.985142e+001  -7.718692e+001 
3668750000  -4.782167e+001  -7.629431e+001 
3671875000  -4.810899e+001  -8.851595e+001 
3675000000  -4.792183e+001  -9.276405e+001 
3678125000  -4.722993e+001  -9.919968e+001 
3681250000  -4.669644e+001  -1.032446e+002 
3684375000  -4.668043e+001  -1.072882e+002 
3687500000  -4.674878e+001  -1.154833e+002 
3690625000  -4.667450e+001  -1.206031e+002 
3693750000  -4.702499e+001  -1.229678e+002 
3696875000  -4.636840e+001  -1.190649e+002 
3700000000  -4.541808e+001  -1.301563e+002 
3703125000  -4.527594e+001  -1.336559e+002 
3706250000  -4.585656e+001  -1.355736e+002 
3709375000  -4.478812e+001  -1.328711e+002 
3712500000  -4.320380e+001  -1.402220e+002 
3715625000  -4.205920e+001  -1.487237e+002 
3718750000  -4.160261e+001  -1.570959e+002 
3721875000  -4.130828e+001  -1.658283e+002 
3725000000  -4.177223e+001  -1.730020e+002 
3728125000  -4.131688e+001  -1.760198e+002 
3731250000  -4.088208e+001  1.768049e+002 
3734375000  -4.019474e+001  1.724448e+002 
3737500000  -4.080055e+001  1.636944e+002 
3740625000  -4.080927e+001  1.552554e+002 
3743750000  -4.031664e+001  1.497287e+002 
3746875000  -4.084842e+001  1.419234e+002 
3750000000  -4.083369e+001  1.387090e+002 
3753125000  -4.077428e+001  1.351851e+002 
3756250000  -4.074451e+001  1.313967e+002 
3759375000  -4.039990e+001  1.255260e+002 
3762500000  -4.022927e+001  1.196152e+002 
3765625000  -4.061403e+001  1.144757e+002 
3768750000  -4.011813e+001  1.140529e+002 
3771875000  -3.829737e+001  1.070099e+002 
3775000000  -3.859837e+001  9.669006e+001 
3778125000  -3.901263e+001  9.029929e+001 
3781250000  -3.902214e+001  8.613978e+001 
3784375000  -3.883473e+001  7.911464e+001 
3787500000  -3.860854e+001  7.504414e+001 
3790625000  -3.929200e+001  6.413725e+001 
3793750000  -3.914523e+001  6.150594e+001 
3796875000  -3.816285e+001  5.923042e+001 
3800000000  -3.649963e+001  5.195026e+001 
3803125000  -3.805389e+001  3.868077e+001 
3806250000  -3.889222e+001  3.558660e+001 
3809375000  -3.829008e+001  3.100872e+001 
3812500000  -3.862102e+001  2.085825e+001 
3815625000  -3.974777e+001  1.210602e+001 
3818750000  -4.062477e+001  1.435166e+001 
3821875000  -4.050000e+001  2.332693e+001 
3825000000  -3.824571e+001  1.998728e+001 
3828125000  -3.681302e+001  8.244348e-001 
3831250000  -3.809158e+001  -1.314908e+001 
3834375000  -4.040675e+001  -1.351702e+001 
3837500000  -4.038820e+001  -1.078265e+001 
3840625000  -3.870964e+001  -1.355391e+001 
3843750000  -3.835970e+001  -2.819947e+001 
3846875000  -3.972010e+001  -3.431467e+001 
3850000000  -4.082622e+001  -2.733920e+001 
3853125000  -3.966045e+001  -2.922064e+001 
3856250000  -3.930182e+001  -3.474026e+001 
3859375000  -3.863365e+001  -4.447831e+001 
3862500000  -3.846143e+001  -5.415260e+001 
3865625000  -3.883648e+001  -5.936848e+001 
3868750000  -3.859281e+001  -6.045626e+001 
3871875000  -3.771296e+001  -6.759139e+001 
3875000000  -3.853916e+001  -7.693263e+001 
3878125000  -3.949915e+001  -7.815659e+001 
3881250000  -3.911336e+001  -7.962448e+001 
3884375000  -3.882169e+001  -8.695734e+001 
3887500000  -3.885579e+001  -9.311655e+001 
3890625000  -3.948163e+001  -9.840095e+001 
3893750000  -3.985592e+001  -9.850574e+001 
3896875000  -4.002986e+001  -1.017384e+002 
3900000000  -4.005338e+001  -1.061405e+002 
3903125000  -3.942308e+001  -1.110937e+002 
3906250000  -3.898552e+001  -1.140732e+002 
3909375000  -3.809943e+001  -1.233024e+002 
3912500000  -3.912420e+001  -1.331033e+002 
3915625000  -4.024247e+001  -1.320662e+002 
3918750000  -3.989629e+001  -1.326464e+002 
3921875000  -3.906285e+001  -1.379187e+002 
3925000000  -3.857565e+001  -1.438890e+002 
3928125000  -3.825669e+001  -1.543189e+002 
3931250000  -3.910415e+001  -1.603064e+002 
3934375000  -3.956469e+001  -1.600555e+002 
3937500000  -4.012319e+001  -1.628798e+002 
3940625000  -3.978875e+001  -1.645567e+002 
3943750000  -3.906618e+001  -1.683408e+002 
3946875000  -3.844188e+001  -1.778705e+002 
3950000000  -3.948376e+001  1.746466e+002 
3953125000  -4.004115e+001  1.769942e+002 
3956250000  -3.854634e+001  1.742692e+002 
3959375000  -3.776412e+001  1.673869e+002 
3962500000  -3.749602e+001  1.599075e+002 
3965625000  -3.764552e+001  1.493233e+002 
3968750000  -3.862629e+001  1.433315e+002 
3971875000  -3.867235e+001  1.375213e+002 
3975000000  -3.835748e+001  1.334501e+002 
3978125000  -3.847503e+001  1.280925e+002 
3981250000  -3.872718e+001  1.218701e+002 
3984375000  -3.899806e+001  1.151474e+002 
3987500000  -3.958658e+001  1.127527e+002 
3990625000  -4.022948e+001  1.097790e+002 
3993750000  -3.986394e+001  1.047684e+002 
3996875000  -3.979713e+001  1.002954e+002 
4000000000  -4.084764e+001  9.742458e+001 
4003125000  -4.078065e+001  9.687068e+001 
4006250000  -3.923767e+001  9.523961e+001 
4009375000  -3.854757e+001  8.131331e+001 
4012500000  -4.030902e+001  7.407762e+001 
4015625000  -4.130357e+001  7.367136e+001 
4018750000  -4.104158e+001  7.196884e+001 
4021875000  -4.065963e+001  7.097446e+001 
4025000000  -4.041805e+001  6.269209e+001 
4028125000  -4.032895e+001  5.542938e+001 
4031250000  -4.139757e+001  5.266064e+001 
4034375000  -4.157499e+001  5.185445e+001 
4037500000  -4.096949e+001  5.364643e+001 
4040625000  -4.100999e+001  4.793594e+001 
4043750000  -4.111364e+001  4.603270e+001 
4046875000  -4.065230e+001  4.236790e+001 
4050000000  -4.058677e+001  3.504817e+001 
4053125000  -4.163647e+001  3.427716e+001 
4056250000  -4.126416e+001  3.879191e+001 
4059375000  -3.927127e+001  3.483047e+001 
4062500000  -3.875851e+001  2.571848e+001 
4065625000  -3.890514e+001  2.245551e+001 
4068750000  -3.795905e+001  1.472445e+001 
4071875000  -3.789880e+001  4.468550e+000 
4075000000  -3.841211e+001  -1.641462e+000 
4078125000  -3.867022e+001  -6.786728e+000 
4081250000  -3.818419e+001  -1.015101e+001 
4084375000  -3.818436e+001  -2.127900e+001 
4087500000  -3.869874e+001  -2.794092e+001 
4090625000  -3.916888e+001  -2.913977e+001 
4093750000  -3.861332e+001  -3.121322e+001 
4096875000  -3.860972e+001  -4.182635e+001 
4100000000  -3.981704e+001  -4.831012e+001 
4103125000  -4.078363e+001  -4.600213e+001 
4106250000  -3.994386e+001  -4.377660e+001 
4109375000  -3.905505e+001  -4.745181e+001 
4112500000  -3.853385e+001  -5.749664e+001 
4115625000  -3.951114e+001  -6.322682e+001 
4118750000  -3.919898e+001  -6.822655e+001 
4121875000  -3.895552e+001  -7.372520e+001 
4125000000  -4.001723e+001  -8.146544e+001 
4128125000  -4.096659e+001  -7.923807e+001 
4131250000  -3.977111e+001  -7.416216e+001 
4134375000  -3.769331e+001  -8.306358e+001 
4137500000  -3.824763e+001  -1.062816e+002 
4140625000  -4.046730e+001  -1.097286e+002 
4143750000  -4.138432e+001  -1.045930e+002 
4146875000  -4.056548e+001  -9.984341e+001 
4150000000  -3.945343e+001  -1.083536e+002 
4153125000  -3.997010e+001  -1.169705e+002 
4156250000  -4.129053e+001  -1.211713e+002 
4159375000  -4.108020e+001  -1.142584e+002 
4162500000  -3.994155e+001  -1.136302e+002 
4165625000  -3.872987e+001  -1.202768e+002 
4168750000  -3.843536e+001  -1.299557e+002 
4171875000  -3.813779e+001  -1.405560e+002 
4175000000  -3.944284e+001  -1.463863e+002 
4178125000  -3.983900e+001  -1.476034e+002 
4181250000  -3.941267e+001  -1.515533e+002 
4184375000  -3.983459e+001  -1.574375e+002 
4187500000  -3.942616e+001  -1.626513e+002 
4190625000  -3.956402e+001  -1.695135e+002 
4193750000  -4.059053e+001  -1.743500e+002 
4196875000  -4.156879e+001  -1.743040e+002 
4200000000  -4.256799e+001  -1.690926e+002 
4203125000  -4.128979e+001  -1.563539e+002 
4206250000  -3.741570e+001  -1.653910e+002 
4209375000  -3.734072e+001  1.688863e+002 
4212500000  -3.961497e+001  1.638371e+002 
4215625000  -4.014081e+001  1.707870e+002 
4218750000  -3.839153e+001  1.731183e+002 
4221875000  -3.679794e+001  1.628302e+002 
4225000000  -3.811008e+001  1.509116e+002 
4228125000  -3.761204e+001  1.496289e+002 
4231250000  -3.624045e+001  1.427255e+002 
4234375000  -3.645627e+001  1.324721e+002 
4237500000  -3.620102e+001  1.264671e+002 
4240625000  -3.623252e+001  1.153038e+002 
4243750000  -3.757655e+001  1.081801e+002 
4246875000  -3.861044e+001  1.079337e+002 
4250000000  -3.841934e+001  1.091491e+002 
4253125000  -3.815019e+001  1.037625e+002 
4256250000  -3.798063e+001  9.838349e+001 
4259375000  -3.806785e+001  9.272665e+001 
4262500000  -3.794333e+001  8.962608e+001 
4265625000  -3.801425e+001  8.909500e+001 
4268750000  -3.693282e+001  7.950370e+001 
4271875000  -3.674170e+001  7.111665e+001 
4275000000  -3.657423e+001  6.340159e+001 
4278125000  -3.767273e+001  5.079430e+001 
4281250000  -3.907999e+001  4.925399e+001 
4284375000  -3.867742e+001  4.717896e+001 
4287500000  -4.020370e+001  4.239869e+001 
4290625000  -4.059796e+001  5.159931e+001 
4293750000  -3.853944e+001  5.235072e+001 
4296875000  -3.773439e+001  3.911462e+001 
4300000000  -3.925724e+001  2.844711e+001 
4303125000  -3.978014e+001  3.312688e+001 
4306250000  -3.866433e+001  3.435563e+001 
4309375000  -3.776240e+001  2.998371e+001 
4312500000  -3.755412e+001  1.677727e+001 
4315625000  -3.780313e+001  9.137357e+000 
4318750000  -3.870800e+001  5.957581e+000 
4321875000  -3.874802e+001  4.551111e+000 
4325000000  -3.805116e+001  5.538399e+000 
4328125000  -3.719105e+001  -6.283181e+000 
4331250000  -3.746261e+001  -1.582261e+001 
4334375000  -3.805481e+001  -2.253025e+001 
4337500000  -3.948984e+001  -2.245837e+001 
4340625000  -3.959331e+001  -1.866477e+001 
4343750000  -3.851049e+001  -2.179503e+001 
4346875000  -3.836967e+001  -3.110071e+001 
4350000000  -3.820744e+001  -3.951251e+001 
4353125000  -3.900854e+001  -4.620681e+001 
4356250000  -4.110799e+001  -4.192290e+001 
4359375000  -4.019348e+001  -2.663400e+001 
4362500000  -3.639292e+001  -3.625253e+001 
4365625000  -3.590799e+001  -5.352946e+001 
4368750000  -3.724034e+001  -6.483088e+001 
4371875000  -3.773587e+001  -6.420319e+001 
4375000000  -3.708976e+001  -6.718602e+001 
4378125000  -3.699515e+001  -7.586241e+001 
4381250000  -3.710824e+001  -8.185080e+001 
4384375000  -3.715401e+001  -8.902090e+001 
4387500000  -3.806409e+001  -9.527068e+001 
4390625000  -3.843082e+001  -9.569334e+001 
4393750000  -3.786367e+001  -9.710831e+001 
4396875000  -3.708092e+001  -1.016975e+002 
4400000000  -3.693073e+001  -1.108267e+002 
4403125000  -3.788622e+001  -1.202499e+002 
4406250000  -3.822004e+001  -1.226273e+002 
4409375000  -3.881234e+001  -1.268068e+002 
4412500000  -3.963459e+001  -1.298060e+002 
4415625000  -3.949144e+001  -1.262478e+002 
