!Agilent Technologies,E8363B,MY43030201,A.06.04.32
!Agilent E8363B: A.06.04.32
!Date: Tuesday, November 11, 2014 21:26:29
!Correction: S21(Response(S21)) 
!S1P File: Measurement: S21:
# Hz S  dB   R 50
3000000000  -4.057589e+001  9.596918e+001 
3003125000  -4.215786e+001  8.595039e+001 
3006250000  -4.222089e+001  8.724747e+001 
3009375000  -4.284231e+001  8.994325e+001 
3012500000  -4.154818e+001  8.664927e+001 
3015625000  -4.128561e+001  8.099716e+001 
3018750000  -4.167991e+001  8.169383e+001 
3021875000  -4.010670e+001  8.183688e+001 
3025000000  -3.897508e+001  7.683620e+001 
3028125000  -3.793024e+001  6.849544e+001 
3031250000  -3.701662e+001  5.602694e+001 
3034375000  -3.680021e+001  4.170292e+001 
3037500000  -3.735250e+001  3.114939e+001 
3040625000  -3.882003e+001  2.594045e+001 
3043750000  -3.920939e+001  1.980001e+001 
3046875000  -3.974649e+001  1.272800e+001 
3050000000  -4.107822e+001  7.051991e+000 
3053125000  -4.065447e+001  1.279853e+001 
3056250000  -4.042087e+001  1.538559e+001 
3059375000  -3.992339e+001  1.302055e+001 
3062500000  -3.811797e+001  8.133088e+000 
3065625000  -3.801596e+001  -9.617502e-001 
3068750000  -3.776750e+001  -8.661578e+000 
3071875000  -3.769154e+001  -1.074752e+001 
3075000000  -3.712410e+001  -1.583097e+001 
3078125000  -3.704995e+001  -2.359082e+001 
3081250000  -3.733155e+001  -3.007676e+001 
3084375000  -3.640894e+001  -3.418375e+001 
3087500000  -3.650129e+001  -4.004796e+001 
3090625000  -3.597627e+001  -5.208107e+001 
3093750000  -3.681037e+001  -6.056800e+001 
3096875000  -3.729168e+001  -6.599788e+001 
3100000000  -3.733776e+001  -6.985663e+001 
3103125000  -3.754038e+001  -7.236577e+001 
3106250000  -3.716902e+001  -7.692175e+001 
3109375000  -3.740552e+001  -8.265776e+001 
3112500000  -3.726354e+001  -8.781198e+001 
3115625000  -3.713064e+001  -9.166489e+001 
3118750000  -3.735688e+001  -9.425079e+001 
3121875000  -3.656880e+001  -1.061125e+002 
3125000000  -3.818856e+001  -1.096458e+002 
3128125000  -3.864884e+001  -1.024768e+002 
3131250000  -3.625617e+001  -1.074940e+002 
3134375000  -3.536417e+001  -1.239971e+002 
3137500000  -3.603333e+001  -1.384691e+002 
3140625000  -3.739817e+001  -1.410396e+002 
3143750000  -3.818295e+001  -1.425624e+002 
3146875000  -3.774600e+001  -1.401777e+002 
3150000000  -3.686255e+001  -1.438100e+002 
3153125000  -3.726733e+001  -1.535025e+002 
3156250000  -3.794749e+001  -1.480493e+002 
3159375000  -3.600973e+001  -1.497614e+002 
3162500000  -3.425543e+001  -1.654018e+002 
3165625000  -3.557504e+001  -1.785374e+002 
3168750000  -3.556465e+001  -1.791625e+002 
3171875000  -3.489281e+001  1.733572e+002 
3175000000  -3.561344e+001  1.638783e+002 
3178125000  -3.521685e+001  1.641245e+002 
3181250000  -3.451262e+001  1.549801e+002 
3184375000  -3.413429e+001  1.435578e+002 
3187500000  -3.527858e+001  1.273282e+002 
3190625000  -3.731599e+001  1.220686e+002 
3193750000  -3.761292e+001  1.272738e+002 
3196875000  -3.743302e+001  1.293730e+002 
3200000000  -3.633007e+001  1.238012e+002 
3203125000  -3.593967e+001  1.152095e+002 
3206250000  -3.635418e+001  1.078528e+002 
3209375000  -3.585624e+001  1.007007e+002 
3212500000  -3.620325e+001  9.388253e+001 
3215625000  -3.606432e+001  8.934800e+001 
3218750000  -3.684522e+001  7.869617e+001 
3221875000  -3.745122e+001  7.199883e+001 
3225000000  -3.710495e+001  6.850551e+001 
3228125000  -3.773814e+001  6.119326e+001 
3231250000  -3.842427e+001  5.881958e+001 
3234375000  -3.804106e+001  5.645233e+001 
3237500000  -3.815680e+001  5.179493e+001 
3240625000  -3.775121e+001  4.708207e+001 
3243750000  -3.795842e+001  3.661841e+001 
3246875000  -3.825384e+001  2.963401e+001 
3250000000  -3.876736e+001  2.474057e+001 
3253125000  -3.898750e+001  2.257698e+001 
3256250000  -3.865797e+001  1.491023e+001 
3259375000  -3.917591e+001  3.435410e+000 
3262500000  -4.058550e+001  -3.996788e-001 
3265625000  -4.111658e+001  2.529094e+000 
3268750000  -4.123479e+001  3.529222e+000 
3271875000  -4.073202e+001  9.665537e-001 
3275000000  -4.014977e+001  -8.626123e+000 
3278125000  -4.072178e+001  -1.339263e+001 
3281250000  -4.109021e+001  -1.541753e+001 
3284375000  -4.062230e+001  -2.165536e+001 
3287500000  -4.103904e+001  -2.582049e+001 
3290625000  -4.134642e+001  -3.259608e+001 
3293750000  -4.127942e+001  -3.889379e+001 
3296875000  -4.235458e+001  -4.045529e+001 
3300000000  -4.190041e+001  -3.951971e+001 
3303125000  -4.107483e+001  -4.661758e+001 
3306250000  -4.080652e+001  -5.313000e+001 
3309375000  -4.065019e+001  -6.108649e+001 
3312500000  -4.095316e+001  -7.333417e+001 
3315625000  -4.221872e+001  -7.896116e+001 
3318750000  -4.360402e+001  -8.419904e+001 
3321875000  -4.461852e+001  -7.999705e+001 
3325000000  -4.516536e+001  -7.185253e+001 
3328125000  -4.412192e+001  -7.497269e+001 
3331250000  -4.270201e+001  -7.267810e+001 
3334375000  -3.989305e+001  -8.598003e+001 
3337500000  -4.037043e+001  -1.048361e+002 
3340625000  -4.213561e+001  -1.176323e+002 
3343750000  -4.411504e+001  -1.145524e+002 
3346875000  -4.359658e+001  -1.180149e+002 
3350000000  -4.325230e+001  -1.189692e+002 
3353125000  -4.296776e+001  -1.244705e+002 
3356250000  -4.291532e+001  -1.326542e+002 
3359375000  -4.348769e+001  -1.446841e+002 
3362500000  -4.460255e+001  -1.529871e+002 
3365625000  -4.496272e+001  -1.539554e+002 
3368750000  -4.539880e+001  -1.583820e+002 
3371875000  -4.594292e+001  -1.622819e+002 
3375000000  -4.719442e+001  -1.686749e+002 
3378125000  -4.824526e+001  -1.720824e+002 
3381250000  -4.960167e+001  -1.589883e+002 
3384375000  -4.705193e+001  -1.442399e+002 
3387500000  -4.395763e+001  -1.627921e+002 
3390625000  -4.649651e+001  1.758704e+002 
3393750000  -4.715602e+001  1.791664e+002 
3396875000  -4.627184e+001  1.782710e+002 
3400000000  -4.639114e+001  1.640127e+002 
3403125000  -4.699801e+001  1.579036e+002 
3406250000  -4.775752e+001  1.547211e+002 
3409375000  -4.869500e+001  1.504958e+002 
3412500000  -4.876752e+001  1.436002e+002 
3415625000  -5.025513e+001  1.412216e+002 
3418750000  -5.000828e+001  1.393304e+002 
3421875000  -5.174027e+001  1.455577e+002 
3425000000  -5.012501e+001  1.441989e+002 
3428125000  -4.980594e+001  1.390959e+002 
3431250000  -5.008503e+001  1.300764e+002 
3434375000  -5.172747e+001  1.265571e+002 
3437500000  -5.227468e+001  1.242388e+002 
3440625000  -5.217520e+001  1.298078e+002 
3443750000  -5.101457e+001  1.300876e+002 
3446875000  -5.182081e+001  1.253413e+002 
3450000000  -5.102658e+001  1.177418e+002 
3453125000  -5.110011e+001  1.043629e+002 
3456250000  -5.243090e+001  1.057834e+002 
3459375000  -5.321263e+001  1.104762e+002 
3462500000  -5.391348e+001  1.172993e+002 
3465625000  -5.230026e+001  9.944587e+001 
3468750000  -5.223693e+001  1.085663e+002 
3471875000  -5.235369e+001  1.009725e+002 
3475000000  -5.186926e+001  9.559578e+001 
3478125000  -5.143652e+001  8.825919e+001 
3481250000  -5.283727e+001  9.316998e+001 
3484375000  -5.390956e+001  9.646935e+001 
3487500000  -5.208658e+001  8.850453e+001 
3490625000  -5.145980e+001  7.752586e+001 
3493750000  -5.173412e+001  7.157159e+001 
3496875000  -5.178351e+001  7.281831e+001 
3500000000  -5.310485e+001  7.367610e+001 
3503125000  -5.147595e+001  6.779502e+001 
3506250000  -5.041285e+001  6.823031e+001 
3509375000  -4.926203e+001  5.049925e+001 
3512500000  -5.024170e+001  4.043915e+001 
3515625000  -5.152330e+001  3.235999e+001 
3518750000  -5.291101e+001  3.816011e+001 
3521875000  -5.337200e+001  2.698448e+001 
3525000000  -5.319730e+001  2.974983e+001 
3528125000  -5.253108e+001  3.555146e+001 
3531250000  -5.233357e+001  2.469509e+001 
3534375000  -5.311669e+001  6.929243e+000 
3537500000  -5.280408e+001  7.291753e+000 
3540625000  -5.506640e+001  -9.156785e+000 
3543750000  -5.530578e+001  5.245290e+000 
3546875000  -5.582497e+001  2.283062e+001 
3550000000  -5.417074e+001  1.845559e+001 
3553125000  -5.324795e+001  -6.237591e+000 
3556250000  -5.579201e+001  -1.474759e+001 
3559375000  -5.788021e+001  -6.416295e+000 
3562500000  -5.608314e+001  -2.219548e+001 
3565625000  -5.730333e+001  -2.212455e+001 
3568750000  -5.743676e+001  -7.689667e+000 
3571875000  -5.800804e+001  -1.627450e+001 
3575000000  -5.883252e+001  -1.991623e+001 
3578125000  -6.022647e+001  -2.823499e+001 
3581250000  -6.016049e+001  -1.464598e+000 
3584375000  -5.827934e+001  -7.497560e+000 
3587500000  -5.867927e+001  -1.698065e+001 
3590625000  -6.146262e+001  -2.236625e+001 
3593750000  -6.104862e+001  -1.832348e+001 
3596875000  -5.870442e+001  1.483988e+000 
3600000000  -5.823568e+001  -6.364604e+000 
3603125000  -5.990177e+001  -2.513456e+001 
3606250000  -5.733189e+001  -1.862624e+001 
3609375000  -5.681362e+001  -1.904568e+001 
3612500000  -5.724297e+001  -1.905500e+001 
3615625000  -5.865491e+001  -2.751087e+001 
3618750000  -5.956767e+001  -2.233056e+001 
3621875000  -5.732550e+001  -2.713016e+001 
3625000000  -5.669245e+001  -2.551313e+001 
3628125000  -5.605941e+001  -1.357852e+000 
3631250000  -5.521371e+001  -2.402682e+001 
3634375000  -5.563979e+001  -1.603514e+001 
3637500000  -5.513234e+001  -2.111223e+001 
3640625000  -5.320657e+001  -9.223004e+000 
3643750000  -5.292480e+001  -2.192673e+001 
3646875000  -5.230350e+001  -2.969693e+001 
3650000000  -5.221388e+001  -2.849618e+001 
3653125000  -5.151799e+001  -3.593558e+001 
3656250000  -5.104194e+001  -3.717184e+001 
3659375000  -5.145186e+001  -4.114883e+001 
3662500000  -5.081105e+001  -4.452096e+001 
3665625000  -4.991597e+001  -4.548344e+001 
3668750000  -4.777079e+001  -4.718647e+001 
3671875000  -4.711787e+001  -5.792461e+001 
3675000000  -4.745822e+001  -6.521719e+001 
3678125000  -4.781257e+001  -6.733540e+001 
3681250000  -4.659350e+001  -7.693488e+001 
3684375000  -4.682253e+001  -8.115091e+001 
3687500000  -4.691104e+001  -8.377379e+001 
3690625000  -4.674822e+001  -9.117158e+001 
3693750000  -4.700725e+001  -9.175266e+001 
3696875000  -4.633220e+001  -9.541878e+001 
3700000000  -4.540989e+001  -9.933901e+001 
3703125000  -4.525182e+001  -1.045708e+002 
3706250000  -4.587925e+001  -1.089131e+002 
3709375000  -4.481487e+001  -1.040962e+002 
3712500000  -4.367063e+001  -1.102926e+002 
3715625000  -4.227509e+001  -1.197689e+002 
3718750000  -4.189256e+001  -1.253558e+002 
3721875000  -4.142820e+001  -1.357420e+002 
3725000000  -4.162786e+001  -1.420613e+002 
3728125000  -4.156375e+001  -1.455366e+002 
3731250000  -4.071947e+001  -1.515639e+002 
3734375000  -4.000784e+001  -1.602094e+002 
3737500000  -4.091325e+001  -1.677585e+002 
3740625000  -4.094453e+001  -1.730172e+002 
3743750000  -4.049898e+001  1.777236e+002 
3746875000  -4.059027e+001  1.732958e+002 
3750000000  -4.119053e+001  1.682701e+002 
3753125000  -4.043669e+001  1.648162e+002 
3756250000  -4.068487e+001  1.617462e+002 
3759375000  -4.044438e+001  1.574604e+002 
3762500000  -4.009346e+001  1.497937e+002 
3765625000  -4.086012e+001  1.434523e+002 
3768750000  -4.038727e+001  1.445623e+002 
3771875000  -3.853181e+001  1.383664e+002 
3775000000  -3.852299e+001  1.265247e+002 
3778125000  -3.915728e+001  1.209977e+002 
3781250000  -3.903756e+001  1.158482e+002 
3784375000  -3.886974e+001  1.109233e+002 
3787500000  -3.858854e+001  1.046915e+002 
3790625000  -3.912116e+001  9.420448e+001 
3793750000  -3.916936e+001  9.134661e+001 
3796875000  -3.829074e+001  8.740281e+001 
3800000000  -3.665489e+001  8.363448e+001 
3803125000  -3.812359e+001  6.975034e+001 
3806250000  -3.911730e+001  6.566171e+001 
3809375000  -3.861597e+001  6.182639e+001 
3812500000  -3.841919e+001  5.218483e+001 
3815625000  -3.940595e+001  4.346935e+001 
3818750000  -4.068695e+001  4.265329e+001 
3821875000  -4.038255e+001  5.432215e+001 
3825000000  -3.847629e+001  5.036526e+001 
3828125000  -3.732930e+001  3.181415e+001 
3831250000  -3.822100e+001  1.718092e+001 
3834375000  -4.026955e+001  1.438952e+001 
3837500000  -4.073546e+001  1.986830e+001 
3840625000  -3.903736e+001  1.659493e+001 
3843750000  -3.825788e+001  3.855905e+000 
3846875000  -3.987389e+001  -3.040340e+000 
3850000000  -4.074100e+001  2.384992e+000 
3853125000  -4.016619e+001  -9.993041e-002 
3856250000  -3.966164e+001  -5.983212e+000 
3859375000  -3.872687e+001  -1.194296e+001 
3862500000  -3.876612e+001  -2.271088e+001 
3865625000  -3.910810e+001  -2.827615e+001 
3868750000  -3.908167e+001  -2.759724e+001 
3871875000  -3.799393e+001  -3.450950e+001 
3875000000  -3.862984e+001  -4.672215e+001 
3878125000  -3.971580e+001  -4.902021e+001 
3881250000  -3.942708e+001  -4.862347e+001 
3884375000  -3.876211e+001  -5.521466e+001 
3887500000  -3.932093e+001  -6.083986e+001 
3890625000  -3.971419e+001  -6.696098e+001 
3893750000  -3.976911e+001  -6.715343e+001 
3896875000  -4.021595e+001  -7.035606e+001 
3900000000  -4.000454e+001  -7.565337e+001 
3903125000  -3.936226e+001  -7.955064e+001 
3906250000  -3.915627e+001  -8.384358e+001 
3909375000  -3.863730e+001  -9.063406e+001 
3912500000  -3.900492e+001  -1.000563e+002 
3915625000  -4.031918e+001  -9.958575e+001 
3918750000  -4.041421e+001  -1.005568e+002 
3921875000  -3.945821e+001  -1.060034e+002 
3925000000  -3.848164e+001  -1.105664e+002 
3928125000  -3.834825e+001  -1.206681e+002 
3931250000  -3.902773e+001  -1.283078e+002 
3934375000  -3.981624e+001  -1.286102e+002 
3937500000  -3.998722e+001  -1.314413e+002 
3940625000  -4.001486e+001  -1.332646e+002 
3943750000  -3.890044e+001  -1.355434e+002 
3946875000  -3.856054e+001  -1.455205e+002 
3950000000  -3.951620e+001  -1.546547e+002 
3953125000  -4.020018e+001  -1.544393e+002 
3956250000  -3.909092e+001  -1.545657e+002 
3959375000  -3.805156e+001  -1.606307e+002 
3962500000  -3.783139e+001  -1.689857e+002 
3965625000  -3.793216e+001  -1.767688e+002 
3968750000  -3.894325e+001  1.737735e+002 
3971875000  -3.888271e+001  1.695705e+002 
3975000000  -3.860542e+001  1.654770e+002 
3978125000  -3.850584e+001  1.607540e+002 
3981250000  -3.856057e+001  1.540822e+002 
3984375000  -3.925126e+001  1.464268e+002 
3987500000  -3.979346e+001  1.428596e+002 
3990625000  -3.988952e+001  1.427154e+002 
3993750000  -4.009051e+001  1.364301e+002 
3996875000  -4.016344e+001  1.327955e+002 
4000000000  -4.086575e+001  1.278487e+002 
4003125000  -4.114525e+001  1.303977e+002 
4006250000  -3.952588e+001  1.278803e+002 
4009375000  -3.877950e+001  1.140749e+002 
4012500000  -4.041128e+001  1.053003e+002 
4015625000  -4.153350e+001  1.034635e+002 
4018750000  -4.159876e+001  1.045799e+002 
4021875000  -4.108581e+001  1.023379e+002 
4025000000  -4.050920e+001  9.720579e+001 
4028125000  -4.068975e+001  9.035754e+001 
4031250000  -4.109579e+001  8.423326e+001 
4034375000  -4.164105e+001  8.545602e+001 
4037500000  -4.139176e+001  8.579939e+001 
4040625000  -4.095506e+001  8.146102e+001 
4043750000  -4.109207e+001  7.819945e+001 
4046875000  -4.069475e+001  7.444802e+001 
4050000000  -4.072819e+001  6.790260e+001 
4053125000  -4.169103e+001  6.701408e+001 
4056250000  -4.168215e+001  7.021082e+001 
4059375000  -3.944422e+001  6.898412e+001 
4062500000  -3.877027e+001  6.044632e+001 
4065625000  -3.894987e+001  5.432022e+001 
4068750000  -3.840848e+001  4.734581e+001 
4071875000  -3.794982e+001  3.713201e+001 
4075000000  -3.861890e+001  3.097233e+001 
4078125000  -3.863080e+001  2.746684e+001 
4081250000  -3.865100e+001  2.248909e+001 
4084375000  -3.825961e+001  1.433604e+001 
4087500000  -3.867298e+001  5.577951e+000 
4090625000  -3.937773e+001  5.607721e+000 
4093750000  -3.877856e+001  4.099858e+000 
4096875000  -3.903378e+001  -9.032179e+000 
4100000000  -3.963625e+001  -1.518224e+001 
4103125000  -4.078282e+001  -1.171160e+001 
4106250000  -4.004917e+001  -1.046953e+001 
4109375000  -3.933316e+001  -1.418448e+001 
4112500000  -3.879111e+001  -2.375204e+001 
4115625000  -3.956989e+001  -2.897636e+001 
4118750000  -3.934823e+001  -3.415364e+001 
4121875000  -3.916572e+001  -4.333550e+001 
4125000000  -3.989131e+001  -4.759068e+001 
4128125000  -4.096583e+001  -4.665581e+001 
4131250000  -4.015681e+001  -4.009769e+001 
4134375000  -3.770172e+001  -4.917581e+001 
4137500000  -3.795975e+001  -7.227512e+001 
4140625000  -4.059952e+001  -7.832453e+001 
4143750000  -4.152821e+001  -7.051464e+001 
4146875000  -4.088856e+001  -6.727307e+001 
4150000000  -3.969246e+001  -7.629772e+001 
4153125000  -4.022819e+001  -8.228109e+001 
4156250000  -4.126252e+001  -8.769630e+001 
4159375000  -4.119243e+001  -8.279136e+001 
4162500000  -4.027089e+001  -7.947845e+001 
4165625000  -3.893999e+001  -8.631458e+001 
4168750000  -3.874061e+001  -9.922249e+001 
4171875000  -3.849702e+001  -1.083108e+002 
4175000000  -3.955011e+001  -1.132129e+002 
4178125000  -3.978968e+001  -1.142907e+002 
4181250000  -3.975191e+001  -1.180941e+002 
4184375000  -3.972041e+001  -1.233624e+002 
4187500000  -4.001987e+001  -1.277940e+002 
4190625000  -3.949776e+001  -1.365315e+002 
4193750000  -4.047927e+001  -1.397527e+002 
4196875000  -4.149454e+001  -1.412440e+002 
4200000000  -4.220637e+001  -1.361818e+002 
4203125000  -4.158820e+001  -1.254538e+002 
4206250000  -3.758926e+001  -1.306314e+002 
4209375000  -3.706924e+001  -1.542378e+002 
4212500000  -3.962537e+001  -1.640440e+002 
4215625000  -4.028546e+001  -1.550428e+002 
4218750000  -3.843723e+001  -1.539975e+002 
4221875000  -3.661473e+001  -1.630553e+002 
4225000000  -3.808121e+001  -1.765424e+002 
4228125000  -3.817833e+001  -1.748009e+002 
4231250000  -3.644776e+001  1.792779e+002 
4234375000  -3.659267e+001  1.675746e+002 
4237500000  -3.641060e+001  1.630034e+002 
4240625000  -3.663699e+001  1.516221e+002 
4243750000  -3.760104e+001  1.419789e+002 
4246875000  -3.863311e+001  1.428146e+002 
4250000000  -3.819579e+001  1.418135e+002 
4253125000  -3.821581e+001  1.399214e+002 
4256250000  -3.825716e+001  1.333592e+002 
4259375000  -3.760410e+001  1.289854e+002 
4262500000  -3.785883e+001  1.222701e+002 
4265625000  -3.803470e+001  1.199013e+002 
4268750000  -3.705306e+001  1.140508e+002 
4271875000  -3.714087e+001  1.043306e+002 
4275000000  -3.642571e+001  9.654674e+001 
4278125000  -3.762481e+001  8.182163e+001 
4281250000  -3.933602e+001  8.290554e+001 
4284375000  -3.902284e+001  8.178108e+001 
4287500000  -4.049944e+001  7.626023e+001 
4290625000  -4.098344e+001  8.304576e+001 
4293750000  -3.895203e+001  8.696568e+001 
4296875000  -3.795590e+001  7.438986e+001 
4300000000  -3.903278e+001  6.074553e+001 
4303125000  -4.003144e+001  6.634136e+001 
4306250000  -3.897755e+001  6.824318e+001 
4309375000  -3.782824e+001  6.347546e+001 
4312500000  -3.780410e+001  5.320808e+001 
4315625000  -3.809652e+001  4.332936e+001 
4318750000  -3.882205e+001  4.168819e+001 
4321875000  -3.893730e+001  4.033716e+001 
4325000000  -3.817031e+001  3.871136e+001 
4328125000  -3.749255e+001  2.860670e+001 
4331250000  -3.792478e+001  1.842593e+001 
4334375000  -3.859113e+001  1.397218e+001 
4337500000  -3.953017e+001  1.234545e+001 
4340625000  -3.975112e+001  1.683784e+001 
4343750000  -3.876235e+001  1.415031e+001 
4346875000  -3.863092e+001  5.783153e+000 
4350000000  -3.855588e+001  -2.888899e+000 
4353125000  -3.914806e+001  -8.662433e+000 
4356250000  -4.153019e+001  -9.410139e+000 
4359375000  -4.034031e+001  7.105933e+000 
4362500000  -3.712208e+001  -1.657123e+000 
4365625000  -3.611993e+001  -1.797716e+001 
4368750000  -3.758023e+001  -2.771699e+001 
4371875000  -3.868768e+001  -2.848519e+001 
4375000000  -3.758377e+001  -3.107226e+001 
4378125000  -3.735138e+001  -3.973284e+001 
4381250000  -3.739362e+001  -4.712710e+001 
4384375000  -3.750546e+001  -5.216614e+001 
4387500000  -3.845025e+001  -6.052750e+001 
4390625000  -3.879696e+001  -6.093258e+001 
4393750000  -3.827480e+001  -6.026802e+001 
4396875000  -3.771711e+001  -6.601968e+001 
4400000000  -3.728472e+001  -7.602904e+001 
4403125000  -3.806005e+001  -8.306223e+001 
4406250000  -3.888744e+001  -8.565318e+001 
4409375000  -3.878490e+001  -9.256985e+001 
4412500000  -3.998962e+001  -9.521008e+001 
4415625000  -3.962539e+001  -9.064036e+001 
