!Agilent Technologies,E8363B,MY43030201,A.06.04.32
!Agilent E8363B: A.06.04.32
!Date: Tuesday, November 11, 2014 21:29:55
!Correction: S21(Response(S21)) 
!S1P File: Measurement: S21:
# Hz S  dB   R 50
3000000000  -4.051980e+001  8.505671e+001 
3003125000  -4.224194e+001  7.680027e+001 
3006250000  -4.206036e+001  7.608733e+001 
3009375000  -4.277634e+001  8.001886e+001 
3012500000  -4.155429e+001  7.777370e+001 
3015625000  -4.146412e+001  6.996703e+001 
3018750000  -4.189069e+001  6.949663e+001 
3021875000  -4.020159e+001  7.101974e+001 
3025000000  -3.889861e+001  6.767077e+001 
3028125000  -3.788013e+001  5.720060e+001 
3031250000  -3.701326e+001  4.552173e+001 
3034375000  -3.668644e+001  3.067553e+001 
3037500000  -3.758194e+001  1.972886e+001 
3040625000  -3.867541e+001  1.449778e+001 
3043750000  -3.909227e+001  8.985281e+000 
3046875000  -3.988581e+001  2.292431e+000 
3050000000  -4.095118e+001  -2.360621e+000 
3053125000  -4.060607e+001  3.112436e+000 
3056250000  -4.059665e+001  5.434028e+000 
3059375000  -3.974216e+001  3.694977e+000 
3062500000  -3.820716e+001  -1.231590e+000 
3065625000  -3.789080e+001  -1.056745e+001 
3068750000  -3.757516e+001  -1.814584e+001 
3071875000  -3.749065e+001  -2.049320e+001 
3075000000  -3.697206e+001  -2.691003e+001 
3078125000  -3.711819e+001  -3.356374e+001 
3081250000  -3.731553e+001  -3.995242e+001 
3084375000  -3.630834e+001  -4.418801e+001 
3087500000  -3.646137e+001  -5.076365e+001 
3090625000  -3.593553e+001  -6.350841e+001 
3093750000  -3.681508e+001  -7.111349e+001 
3096875000  -3.736358e+001  -7.639751e+001 
3100000000  -3.719177e+001  -8.006361e+001 
3103125000  -3.749604e+001  -8.427443e+001 
3106250000  -3.720658e+001  -8.785260e+001 
3109375000  -3.724444e+001  -9.200469e+001 
3112500000  -3.722801e+001  -9.783992e+001 
3115625000  -3.706430e+001  -1.024335e+002 
3118750000  -3.715291e+001  -1.049365e+002 
3121875000  -3.651352e+001  -1.164526e+002 
3125000000  -3.843766e+001  -1.192894e+002 
3128125000  -3.851987e+001  -1.118787e+002 
3131250000  -3.607173e+001  -1.185882e+002 
3134375000  -3.532476e+001  -1.349857e+002 
3137500000  -3.607981e+001  -1.489131e+002 
3140625000  -3.736166e+001  -1.504899e+002 
3143750000  -3.825578e+001  -1.529639e+002 
3146875000  -3.768058e+001  -1.516064e+002 
3150000000  -3.691323e+001  -1.544274e+002 
3153125000  -3.713014e+001  -1.636946e+002 
3156250000  -3.800915e+001  -1.588652e+002 
3159375000  -3.576808e+001  -1.608792e+002 
3162500000  -3.423745e+001  -1.760529e+002 
3165625000  -3.550636e+001  1.703285e+002 
3168750000  -3.545398e+001  1.693805e+002 
3171875000  -3.494315e+001  1.629840e+002 
3175000000  -3.550467e+001  1.534239e+002 
3178125000  -3.514757e+001  1.522250e+002 
3181250000  -3.450511e+001  1.432247e+002 
3184375000  -3.415630e+001  1.321317e+002 
3187500000  -3.548140e+001  1.170315e+002 
3190625000  -3.731305e+001  1.103730e+002 
3193750000  -3.745736e+001  1.154980e+002 
3196875000  -3.747979e+001  1.177575e+002 
3200000000  -3.620478e+001  1.128382e+002 
3203125000  -3.595188e+001  1.046801e+002 
3206250000  -3.613159e+001  9.721524e+001 
3209375000  -3.577359e+001  8.952128e+001 
3212500000  -3.628138e+001  8.214027e+001 
3215625000  -3.616449e+001  7.823460e+001 
3218750000  -3.681818e+001  6.906145e+001 
3221875000  -3.751080e+001  6.080643e+001 
3225000000  -3.700544e+001  5.764928e+001 
3228125000  -3.782528e+001  4.988167e+001 
3231250000  -3.841415e+001  4.885332e+001 
3234375000  -3.805217e+001  4.604837e+001 
3237500000  -3.807227e+001  4.171357e+001 
3240625000  -3.764483e+001  3.625983e+001 
3243750000  -3.755873e+001  2.599188e+001 
3246875000  -3.814743e+001  1.889079e+001 
3250000000  -3.877938e+001  1.413985e+001 
3253125000  -3.906350e+001  1.149485e+001 
3256250000  -3.868112e+001  2.892582e+000 
3259375000  -3.908918e+001  -7.166519e+000 
3262500000  -4.072192e+001  -1.099659e+001 
3265625000  -4.122637e+001  -8.017136e+000 
3268750000  -4.121630e+001  -9.138632e+000 
3271875000  -4.062392e+001  -1.093557e+001 
3275000000  -4.013274e+001  -1.828156e+001 
3278125000  -4.076530e+001  -2.340206e+001 
3281250000  -4.105259e+001  -2.587676e+001 
3284375000  -4.048120e+001  -3.142240e+001 
3287500000  -4.106540e+001  -3.547541e+001 
3290625000  -4.134457e+001  -4.321663e+001 
3293750000  -4.129058e+001  -4.924061e+001 
3296875000  -4.227262e+001  -4.957523e+001 
3300000000  -4.184765e+001  -5.012479e+001 
3303125000  -4.084019e+001  -5.687730e+001 
3306250000  -4.082299e+001  -6.411794e+001 
3309375000  -4.057801e+001  -7.123936e+001 
3312500000  -4.097583e+001  -8.280314e+001 
3315625000  -4.222400e+001  -9.011495e+001 
3318750000  -4.336038e+001  -9.362110e+001 
3321875000  -4.486447e+001  -9.317778e+001 
3325000000  -4.531537e+001  -8.516947e+001 
3328125000  -4.403284e+001  -8.468259e+001 
3331250000  -4.208450e+001  -8.215852e+001 
3334375000  -3.966214e+001  -9.778526e+001 
3337500000  -4.029599e+001  -1.167307e+002 
3340625000  -4.209636e+001  -1.273043e+002 
3343750000  -4.399949e+001  -1.264139e+002 
3346875000  -4.377249e+001  -1.270202e+002 
3350000000  -4.328014e+001  -1.299424e+002 
3353125000  -4.304284e+001  -1.375105e+002 
3356250000  -4.246327e+001  -1.453305e+002 
3359375000  -4.344949e+001  -1.569258e+002 
3362500000  -4.441642e+001  -1.615351e+002 
3365625000  -4.453726e+001  -1.675812e+002 
3368750000  -4.551982e+001  -1.706384e+002 
3371875000  -4.589490e+001  -1.743516e+002 
3375000000  -4.774331e+001  -1.781243e+002 
3378125000  -4.866077e+001  -1.797459e+002 
3381250000  -4.893578e+001  -1.685590e+002 
3384375000  -4.688004e+001  -1.570083e+002 
3387500000  -4.423781e+001  -1.736420e+002 
3390625000  -4.602716e+001  1.655145e+002 
3393750000  -4.713738e+001  1.654226e+002 
3396875000  -4.633318e+001  1.652406e+002 
3400000000  -4.697631e+001  1.496164e+002 
3403125000  -4.693949e+001  1.458939e+002 
3406250000  -4.767071e+001  1.418780e+002 
3409375000  -4.781276e+001  1.349271e+002 
3412500000  -4.879454e+001  1.323161e+002 
3415625000  -5.005731e+001  1.316970e+002 
3418750000  -5.022582e+001  1.322453e+002 
3421875000  -5.146136e+001  1.328457e+002 
3425000000  -5.015543e+001  1.324687e+002 
3428125000  -5.008975e+001  1.270924e+002 
3431250000  -5.022038e+001  1.169838e+002 
3434375000  -5.038961e+001  1.152294e+002 
3437500000  -5.123228e+001  1.134989e+002 
3440625000  -5.255348e+001  1.183134e+002 
3443750000  -5.066678e+001  1.228202e+002 
3446875000  -5.103652e+001  1.147405e+002 
3450000000  -4.996595e+001  1.041174e+002 
3453125000  -5.146842e+001  9.665279e+001 
3456250000  -5.240645e+001  9.677415e+001 
3459375000  -5.298388e+001  1.004435e+002 
3462500000  -5.209784e+001  1.041757e+002 
3465625000  -5.166680e+001  9.240925e+001 
3468750000  -5.198252e+001  9.674136e+001 
3471875000  -5.162056e+001  8.993967e+001 
3475000000  -5.134590e+001  8.423904e+001 
3478125000  -5.097326e+001  7.389059e+001 
3481250000  -5.228967e+001  7.948455e+001 
3484375000  -5.343686e+001  8.236852e+001 
3487500000  -5.170448e+001  7.722180e+001 
3490625000  -5.095967e+001  7.156886e+001 
3493750000  -5.151417e+001  6.215261e+001 
3496875000  -5.186375e+001  6.619111e+001 
3500000000  -5.267557e+001  6.483451e+001 
3503125000  -5.103081e+001  5.715668e+001 
3506250000  -5.020129e+001  5.614086e+001 
3509375000  -5.014190e+001  4.128376e+001 
3512500000  -5.005816e+001  3.435279e+001 
3515625000  -5.106344e+001  2.187094e+001 
3518750000  -5.318795e+001  2.196461e+001 
3521875000  -5.268311e+001  1.655602e+001 
3525000000  -5.327699e+001  9.478437e+000 
3528125000  -5.349920e+001  2.300823e+001 
3531250000  -5.178353e+001  1.517671e+001 
3534375000  -5.314317e+001  1.607054e+000 
3537500000  -5.359396e+001  -8.593917e+000 
3540625000  -5.483962e+001  -8.823282e+000 
3543750000  -5.510759e+001  -1.230315e+001 
3546875000  -5.692698e+001  1.652306e+000 
3550000000  -5.363215e+001  -6.551921e+000 
3553125000  -5.395453e+001  -2.346261e+001 
3556250000  -5.568388e+001  -1.757568e+001 
3559375000  -5.548247e+001  -1.591145e+001 
3562500000  -5.754163e+001  -3.044305e+001 
3565625000  -5.545024e+001  -3.217946e+001 
3568750000  -5.694372e+001  -2.753042e+001 
3571875000  -5.742551e+001  -2.505405e+001 
3575000000  -6.039468e+001  -2.502828e+001 
3578125000  -6.116508e+001  -3.325378e+001 
3581250000  -5.873926e+001  -2.307616e+001 
3584375000  -5.708195e+001  -2.789881e+001 
3587500000  -5.685190e+001  -2.260991e+001 
3590625000  -5.911416e+001  -4.442192e+001 
3593750000  -5.805367e+001  -2.285105e+001 
3596875000  -5.882700e+001  -1.587946e+001 
3600000000  -5.793567e+001  -1.909361e+001 
3603125000  -5.853315e+001  -3.774770e+001 
3606250000  -5.730302e+001  -3.282144e+001 
3609375000  -5.980745e+001  -2.606742e+001 
3612500000  -5.786137e+001  -2.700258e+001 
3615625000  -6.026437e+001  -3.043735e+001 
3618750000  -5.844116e+001  -3.037978e+001 
3621875000  -5.802925e+001  -3.094845e+001 
3625000000  -5.771397e+001  -3.381368e+001 
3628125000  -5.686765e+001  -1.679359e+001 
3631250000  -5.454330e+001  -2.982836e+001 
3634375000  -5.692795e+001  -3.427670e+001 
3637500000  -5.702096e+001  -1.508192e+001 
3640625000  -5.476996e+001  -2.299205e+001 
3643750000  -5.314287e+001  -3.820659e+001 
3646875000  -5.291751e+001  -5.139461e+001 
3650000000  -5.212440e+001  -4.028526e+001 
3653125000  -5.223926e+001  -4.646947e+001 
3656250000  -5.139817e+001  -4.615530e+001 
3659375000  -5.189295e+001  -5.128226e+001 
3662500000  -5.066473e+001  -5.622775e+001 
3665625000  -5.001576e+001  -5.552756e+001 
3668750000  -4.792977e+001  -6.269922e+001 
3671875000  -4.767448e+001  -6.727366e+001 
3675000000  -4.745100e+001  -7.618864e+001 
3678125000  -4.692891e+001  -8.037752e+001 
3681250000  -4.623280e+001  -8.565825e+001 
3684375000  -4.672735e+001  -9.181146e+001 
3687500000  -4.628098e+001  -9.662862e+001 
3690625000  -4.686327e+001  -1.051968e+002 
3693750000  -4.694788e+001  -1.027947e+002 
3696875000  -4.632901e+001  -1.042271e+002 
3700000000  -4.540023e+001  -1.121517e+002 
3703125000  -4.514411e+001  -1.159523e+002 
3706250000  -4.581330e+001  -1.204868e+002 
3709375000  -4.485744e+001  -1.185039e+002 
3712500000  -4.354345e+001  -1.238884e+002 
3715625000  -4.215638e+001  -1.343629e+002 
3718750000  -4.158146e+001  -1.377413e+002 
3721875000  -4.124276e+001  -1.483285e+002 
3725000000  -4.153097e+001  -1.550161e+002 
3728125000  -4.128064e+001  -1.584341e+002 
3731250000  -4.090153e+001  -1.646032e+002 
3734375000  -4.017753e+001  -1.708698e+002 
3737500000  -4.092145e+001  1.782665e+002 
3740625000  -4.081841e+001  1.725590e+002 
3743750000  -4.046568e+001  1.662042e+002 
3746875000  -4.067143e+001  1.591880e+002 
3750000000  -4.102362e+001  1.556237e+002 
3753125000  -4.063808e+001  1.513810e+002 
3756250000  -4.075026e+001  1.492800e+002 
3759375000  -4.054560e+001  1.441092e+002 
3762500000  -4.009227e+001  1.359390e+002 
3765625000  -4.066062e+001  1.318938e+002 
3768750000  -4.025209e+001  1.330044e+002 
3771875000  -3.856804e+001  1.244632e+002 
3775000000  -3.836922e+001  1.137195e+002 
3778125000  -3.907969e+001  1.069055e+002 
3781250000  -3.903283e+001  1.025500e+002 
3784375000  -3.886537e+001  9.682980e+001 
3787500000  -3.849474e+001  9.204406e+001 
3790625000  -3.912083e+001  8.217548e+001 
3793750000  -3.915073e+001  7.816222e+001 
3796875000  -3.821169e+001  7.551062e+001 
3800000000  -3.635782e+001  7.123354e+001 
3803125000  -3.801297e+001  5.716111e+001 
3806250000  -3.905930e+001  5.241103e+001 
3809375000  -3.862765e+001  4.849097e+001 
3812500000  -3.844691e+001  4.076669e+001 
3815625000  -3.935799e+001  3.028396e+001 
3818750000  -4.057865e+001  3.134885e+001 
3821875000  -4.011833e+001  4.002927e+001 
3825000000  -3.839899e+001  3.592269e+001 
3828125000  -3.705994e+001  1.952753e+001 
3831250000  -3.811901e+001  4.173166e+000 
3834375000  -4.047205e+001  4.522536e+000 
3837500000  -4.061202e+001  7.183437e+000 
3840625000  -3.923659e+001  4.281652e+000 
3843750000  -3.841669e+001  -9.339758e+000 
3846875000  -3.998244e+001  -1.738806e+001 
3850000000  -4.100900e+001  -1.271477e+001 
3853125000  -4.017182e+001  -1.043619e+001 
3856250000  -3.958883e+001  -1.949154e+001 
3859375000  -3.859439e+001  -2.417737e+001 
3862500000  -3.836370e+001  -3.561446e+001 
3865625000  -3.903983e+001  -3.906987e+001 
3868750000  -3.870785e+001  -4.152438e+001 
3871875000  -3.808208e+001  -4.906689e+001 
3875000000  -3.850528e+001  -5.833537e+001 
3878125000  -3.976132e+001  -6.205900e+001 
3881250000  -3.919394e+001  -6.060565e+001 
3884375000  -3.877735e+001  -6.824831e+001 
3887500000  -3.909719e+001  -7.511712e+001 
3890625000  -3.954117e+001  -7.932403e+001 
3893750000  -3.950422e+001  -8.017683e+001 
3896875000  -4.026251e+001  -8.458826e+001 
3900000000  -4.012514e+001  -8.917181e+001 
3903125000  -3.944225e+001  -9.309810e+001 
3906250000  -3.887699e+001  -9.440617e+001 
3909375000  -3.834824e+001  -1.038433e+002 
3912500000  -3.903296e+001  -1.134364e+002 
3915625000  -4.026811e+001  -1.142740e+002 
3918750000  -4.008852e+001  -1.153947e+002 
3921875000  -3.951035e+001  -1.204269e+002 
3925000000  -3.862983e+001  -1.252133e+002 
3928125000  -3.827034e+001  -1.345800e+002 
3931250000  -3.889517e+001  -1.402110e+002 
3934375000  -3.926711e+001  -1.413892e+002 
3937500000  -4.007228e+001  -1.436607e+002 
3940625000  -3.985758e+001  -1.462057e+002 
3943750000  -3.905336e+001  -1.495436e+002 
3946875000  -3.863725e+001  -1.582794e+002 
3950000000  -3.955267e+001  -1.670627e+002 
3953125000  -4.003549e+001  -1.659951e+002 
3956250000  -3.855637e+001  -1.673828e+002 
3959375000  -3.782712e+001  -1.731102e+002 
3962500000  -3.780081e+001  1.781524e+002 
3965625000  -3.783995e+001  1.686216e+002 
3968750000  -3.878608e+001  1.612190e+002 
3971875000  -3.875407e+001  1.557728e+002 
3975000000  -3.839631e+001  1.531055e+002 
3978125000  -3.851111e+001  1.478512e+002 
3981250000  -3.859799e+001  1.413064e+002 
3984375000  -3.915606e+001  1.349363e+002 
3987500000  -3.981967e+001  1.303747e+002 
3990625000  -3.988280e+001  1.288695e+002 
3993750000  -4.001313e+001  1.222450e+002 
3996875000  -4.000237e+001  1.174827e+002 
4000000000  -4.052421e+001  1.153092e+002 
4003125000  -4.114068e+001  1.155877e+002 
4006250000  -3.956863e+001  1.142971e+002 
4009375000  -3.881377e+001  1.004264e+002 
4012500000  -4.032357e+001  9.220227e+001 
4015625000  -4.119202e+001  8.973106e+001 
4018750000  -4.125267e+001  9.254205e+001 
4021875000  -4.078524e+001  8.919430e+001 
4025000000  -4.041250e+001  8.449890e+001 
4028125000  -4.064187e+001  7.689462e+001 
4031250000  -4.151792e+001  7.270000e+001 
4034375000  -4.173999e+001  7.169108e+001 
4037500000  -4.103569e+001  7.445660e+001 
4040625000  -4.097992e+001  6.711145e+001 
4043750000  -4.097613e+001  6.336654e+001 
4046875000  -4.098547e+001  6.073274e+001 
4050000000  -4.042203e+001  5.634529e+001 
4053125000  -4.123270e+001  5.212453e+001 
4056250000  -4.156989e+001  5.593693e+001 
4059375000  -3.951276e+001  5.329202e+001 
4062500000  -3.882086e+001  4.617616e+001 
4065625000  -3.866089e+001  4.015806e+001 
4068750000  -3.826133e+001  3.398705e+001 
4071875000  -3.801964e+001  2.298023e+001 
4075000000  -3.857603e+001  1.775513e+001 
4078125000  -3.874560e+001  1.325391e+001 
4081250000  -3.820315e+001  8.204793e+000 
4084375000  -3.825833e+001  -1.099354e+000 
4087500000  -3.872950e+001  -8.093823e+000 
4090625000  -3.939222e+001  -9.311334e+000 
4093750000  -3.861080e+001  -1.116963e+001 
4096875000  -3.865587e+001  -2.192240e+001 
4100000000  -3.970438e+001  -2.955521e+001 
4103125000  -4.038332e+001  -2.725626e+001 
4106250000  -4.012199e+001  -2.412502e+001 
4109375000  -3.928766e+001  -2.720115e+001 
4112500000  -3.856357e+001  -3.696755e+001 
4115625000  -3.911985e+001  -4.306525e+001 
4118750000  -3.910192e+001  -4.947849e+001 
4121875000  -3.895663e+001  -5.641399e+001 
4125000000  -3.986037e+001  -6.231894e+001 
4128125000  -4.110465e+001  -5.919246e+001 
4131250000  -3.996148e+001  -5.450885e+001 
4134375000  -3.786735e+001  -6.410850e+001 
4137500000  -3.848077e+001  -8.584418e+001 
4140625000  -4.058261e+001  -9.202258e+001 
4143750000  -4.153653e+001  -8.512639e+001 
4146875000  -4.028509e+001  -8.232561e+001 
4150000000  -3.985946e+001  -8.776408e+001 
4153125000  -4.021079e+001  -9.657838e+001 
4156250000  -4.118727e+001  -1.029506e+002 
4159375000  -4.148793e+001  -9.724577e+001 
4162500000  -3.981197e+001  -9.487561e+001 
4165625000  -3.902623e+001  -1.014065e+002 
4168750000  -3.872541e+001  -1.114468e+002 
4171875000  -3.841623e+001  -1.200712e+002 
4175000000  -3.941305e+001  -1.275748e+002 
4178125000  -3.974970e+001  -1.278502e+002 
4181250000  -3.928421e+001  -1.315076e+002 
4184375000  -3.963708e+001  -1.369770e+002 
4187500000  -3.937777e+001  -1.442029e+002 
4190625000  -3.938546e+001  -1.481304e+002 
4193750000  -4.059304e+001  -1.534441e+002 
4196875000  -4.158052e+001  -1.551871e+002 
4200000000  -4.238415e+001  -1.507663e+002 
4203125000  -4.123128e+001  -1.377696e+002 
4206250000  -3.756153e+001  -1.447746e+002 
4209375000  -3.719304e+001  -1.690367e+002 
4212500000  -3.974000e+001  -1.771695e+002 
4215625000  -4.021212e+001  -1.689792e+002 
4218750000  -3.838316e+001  -1.680119e+002 
4221875000  -3.674612e+001  -1.792863e+002 
4225000000  -3.792194e+001  1.712909e+002 
4228125000  -3.785893e+001  1.727437e+002 
4231250000  -3.644369e+001  1.650435e+002 
4234375000  -3.656021e+001  1.533084e+002 
4237500000  -3.590920e+001  1.467873e+002 
4240625000  -3.632855e+001  1.359830e+002 
4243750000  -3.767861e+001  1.278716e+002 
4246875000  -3.870289e+001  1.266181e+002 
4250000000  -3.822814e+001  1.268894e+002 
4253125000  -3.824638e+001  1.245719e+002 
4256250000  -3.799232e+001  1.193754e+002 
4259375000  -3.801102e+001  1.136161e+002 
4262500000  -3.773836e+001  1.074623e+002 
4265625000  -3.796341e+001  1.075839e+002 
4268750000  -3.672614e+001  1.004832e+002 
4271875000  -3.678053e+001  9.077645e+001 
4275000000  -3.643597e+001  8.112095e+001 
4278125000  -3.750315e+001  6.860522e+001 
4281250000  -3.934439e+001  6.986952e+001 
4284375000  -3.900552e+001  6.641019e+001 
4287500000  -4.036661e+001  6.411386e+001 
4290625000  -4.065274e+001  7.175608e+001 
4293750000  -3.876927e+001  7.258784e+001 
4296875000  -3.785050e+001  5.959875e+001 
4300000000  -3.894564e+001  4.867791e+001 
4303125000  -3.990149e+001  5.218964e+001 
4306250000  -3.888359e+001  5.407722e+001 
4309375000  -3.769028e+001  4.808295e+001 
4312500000  -3.755174e+001  3.795991e+001 
4315625000  -3.794375e+001  2.991543e+001 
4318750000  -3.861033e+001  2.443019e+001 
4321875000  -3.879611e+001  2.697060e+001 
4325000000  -3.820857e+001  2.551231e+001 
4328125000  -3.742924e+001  1.544689e+001 
4331250000  -3.749419e+001  6.250864e+000 
4334375000  -3.846561e+001  -6.270258e-001 
4337500000  -3.947484e+001  -3.379163e+000 
4340625000  -3.952987e+001  8.410207e-001 
4343750000  -3.869749e+001  -7.894323e-001 
4346875000  -3.815958e+001  -9.396798e+000 
4350000000  -3.838048e+001  -1.739366e+001 
4353125000  -3.908545e+001  -2.525599e+001 
4356250000  -4.106655e+001  -2.192800e+001 
4359375000  -4.030285e+001  -7.748735e+000 
4362500000  -3.662629e+001  -1.497192e+001 
4365625000  -3.607104e+001  -3.367933e+001 
4368750000  -3.726621e+001  -4.309689e+001 
4371875000  -3.807704e+001  -4.336338e+001 
4375000000  -3.746042e+001  -4.483841e+001 
4378125000  -3.710265e+001  -5.356742e+001 
4381250000  -3.728679e+001  -6.134652e+001 
4384375000  -3.731801e+001  -6.836883e+001 
4387500000  -3.821725e+001  -7.491669e+001 
4390625000  -3.865531e+001  -7.519679e+001 
4393750000  -3.814556e+001  -7.564214e+001 
4396875000  -3.754421e+001  -8.011131e+001 
4400000000  -3.696740e+001  -8.940636e+001 
4403125000  -3.789606e+001  -9.873833e+001 
4406250000  -3.861535e+001  -1.019486e+002 
4409375000  -3.881243e+001  -1.058089e+002 
4412500000  -3.977090e+001  -1.091855e+002 
4415625000  -3.956057e+001  -1.058506e+002 
