!Agilent Technologies,E8363B,MY43030201,A.06.04.32
!Agilent E8363B: A.06.04.32
!Date: Tuesday, November 11, 2014 21:36:56
!Correction: S21(Response(S21)) 
!S1P File: Measurement: S21:
# Hz S  dB   R 50
3000000000  -4.056484e+001  7.089892e+001 
3003125000  -4.224404e+001  6.321478e+001 
3006250000  -4.222022e+001  6.220235e+001 
3009375000  -4.284698e+001  6.753922e+001 
3012500000  -4.160229e+001  6.163734e+001 
3015625000  -4.140697e+001  5.567807e+001 
3018750000  -4.177943e+001  5.677364e+001 
3021875000  -4.018400e+001  5.769640e+001 
3025000000  -3.892220e+001  5.378621e+001 
3028125000  -3.787764e+001  4.140620e+001 
3031250000  -3.686953e+001  3.032817e+001 
3034375000  -3.680478e+001  1.668717e+001 
3037500000  -3.755534e+001  6.024085e+000 
3040625000  -3.891477e+001  8.466917e-001 
3043750000  -3.933495e+001  -5.849407e+000 
3046875000  -3.976836e+001  -1.029094e+001 
3050000000  -4.091227e+001  -1.576860e+001 
3053125000  -4.045031e+001  -1.003462e+001 
3056250000  -4.030525e+001  -7.768322e+000 
3059375000  -3.971599e+001  -9.953712e+000 
3062500000  -3.814884e+001  -1.453313e+001 
3065625000  -3.784817e+001  -2.475274e+001 
3068750000  -3.752163e+001  -3.276183e+001 
3071875000  -3.760415e+001  -3.481538e+001 
3075000000  -3.688731e+001  -4.178423e+001 
3078125000  -3.703561e+001  -4.797871e+001 
3081250000  -3.719885e+001  -5.397876e+001 
3084375000  -3.629586e+001  -5.890056e+001 
3087500000  -3.643329e+001  -6.592686e+001 
3090625000  -3.592587e+001  -7.754811e+001 
3093750000  -3.697280e+001  -8.490398e+001 
3096875000  -3.729663e+001  -9.108321e+001 
3100000000  -3.727837e+001  -9.416232e+001 
3103125000  -3.747462e+001  -9.721927e+001 
3106250000  -3.719691e+001  -1.018444e+002 
3109375000  -3.719329e+001  -1.065762e+002 
3112500000  -3.718571e+001  -1.120292e+002 
3115625000  -3.711174e+001  -1.157963e+002 
3118750000  -3.724039e+001  -1.201337e+002 
3121875000  -3.665186e+001  -1.309391e+002 
3125000000  -3.851445e+001  -1.330853e+002 
3128125000  -3.862899e+001  -1.261937e+002 
3131250000  -3.606389e+001  -1.331405e+002 
3134375000  -3.540023e+001  -1.498931e+002 
3137500000  -3.604417e+001  -1.616493e+002 
3140625000  -3.726068e+001  -1.650905e+002 
3143750000  -3.819170e+001  -1.668351e+002 
3146875000  -3.769746e+001  -1.657854e+002 
3150000000  -3.681758e+001  -1.685010e+002 
3153125000  -3.721206e+001  -1.771991e+002 
3156250000  -3.799144e+001  -1.733790e+002 
3159375000  -3.551866e+001  -1.752203e+002 
3162500000  -3.423257e+001  1.694985e+002 
3165625000  -3.547086e+001  1.569561e+002 
3168750000  -3.547220e+001  1.559990e+002 
3171875000  -3.496077e+001  1.481122e+002 
3175000000  -3.537943e+001  1.388008e+002 
3178125000  -3.490546e+001  1.373097e+002 
3181250000  -3.433913e+001  1.288095e+002 
3184375000  -3.410741e+001  1.179063e+002 
3187500000  -3.551387e+001  1.025275e+002 
3190625000  -3.721033e+001  9.753486e+001 
3193750000  -3.741581e+001  1.029342e+002 
3196875000  -3.733704e+001  1.034505e+002 
3200000000  -3.603755e+001  9.832532e+001 
3203125000  -3.588792e+001  9.024198e+001 
3206250000  -3.611108e+001  8.295494e+001 
3209375000  -3.573386e+001  7.389282e+001 
3212500000  -3.627282e+001  6.776318e+001 
3215625000  -3.594473e+001  6.616684e+001 
3218750000  -3.685843e+001  5.365735e+001 
3221875000  -3.728784e+001  4.724134e+001 
3225000000  -3.710690e+001  4.309129e+001 
3228125000  -3.773575e+001  3.552425e+001 
3231250000  -3.841712e+001  3.402013e+001 
3234375000  -3.793091e+001  3.101289e+001 
3237500000  -3.805558e+001  2.667692e+001 
3240625000  -3.750840e+001  2.082489e+001 
3243750000  -3.762547e+001  1.065916e+001 
3246875000  -3.831258e+001  3.781148e+000 
3250000000  -3.875427e+001  -5.101012e-002 
3253125000  -3.900839e+001  -2.634210e+000 
3256250000  -3.848098e+001  -1.098303e+001 
3259375000  -3.903320e+001  -2.269937e+001 
3262500000  -4.056147e+001  -2.637157e+001 
3265625000  -4.120535e+001  -2.156506e+001 
3268750000  -4.102691e+001  -2.224052e+001 
3271875000  -4.039692e+001  -2.577760e+001 
3275000000  -4.024698e+001  -3.401676e+001 
3278125000  -4.080185e+001  -3.965975e+001 
3281250000  -4.123013e+001  -3.833265e+001 
3284375000  -4.059858e+001  -4.681031e+001 
3287500000  -4.098866e+001  -5.027368e+001 
3290625000  -4.111301e+001  -5.863525e+001 
3293750000  -4.110446e+001  -6.453664e+001 
3296875000  -4.252758e+001  -6.495173e+001 
3300000000  -4.182986e+001  -6.380289e+001 
3303125000  -4.113060e+001  -7.209032e+001 
3306250000  -4.077510e+001  -7.852448e+001 
3309375000  -4.034290e+001  -8.593977e+001 
3312500000  -4.093601e+001  -1.000369e+002 
3315625000  -4.234187e+001  -1.058971e+002 
3318750000  -4.331479e+001  -1.087448e+002 
3321875000  -4.501329e+001  -1.073325e+002 
3325000000  -4.450001e+001  -1.001984e+002 
3328125000  -4.373060e+001  -1.001115e+002 
3331250000  -4.213986e+001  -9.723076e+001 
3334375000  -3.964242e+001  -1.125890e+002 
3337500000  -4.030523e+001  -1.328449e+002 
3340625000  -4.224240e+001  -1.421458e+002 
3343750000  -4.383236e+001  -1.429448e+002 
3346875000  -4.323985e+001  -1.425809e+002 
3350000000  -4.281121e+001  -1.462430e+002 
3353125000  -4.272006e+001  -1.518621e+002 
3356250000  -4.263510e+001  -1.612508e+002 
3359375000  -4.362626e+001  -1.715008e+002 
3362500000  -4.423977e+001  -1.773069e+002 
3365625000  -4.454624e+001  1.769455e+002 
3368750000  -4.550619e+001  1.771027e+002 
3371875000  -4.620438e+001  1.696861e+002 
3375000000  -4.758435e+001  1.678898e+002 
3378125000  -4.828390e+001  1.655146e+002 
3381250000  -4.986267e+001  -1.781140e+002 
3384375000  -4.666740e+001  -1.728278e+002 
3387500000  -4.400979e+001  1.707809e+002 
3390625000  -4.578143e+001  1.487025e+002 
3393750000  -4.716270e+001  1.524023e+002 
3396875000  -4.589967e+001  1.498491e+002 
3400000000  -4.622486e+001  1.391467e+002 
3403125000  -4.678033e+001  1.330899e+002 
3406250000  -4.732664e+001  1.290256e+002 
3409375000  -4.813512e+001  1.207469e+002 
3412500000  -4.860556e+001  1.159958e+002 
3415625000  -5.005477e+001  1.152149e+002 
3418750000  -4.980349e+001  1.150062e+002 
3421875000  -5.116999e+001  1.178753e+002 
3425000000  -4.967357e+001  1.168639e+002 
3428125000  -4.973610e+001  1.168888e+002 
3431250000  -4.985076e+001  1.026836e+002 
3434375000  -5.097047e+001  1.022674e+002 
3437500000  -5.135383e+001  1.037046e+002 
3440625000  -5.190821e+001  9.903865e+001 
3443750000  -5.051488e+001  1.057260e+002 
3446875000  -5.067725e+001  9.733661e+001 
3450000000  -5.029010e+001  9.015942e+001 
3453125000  -5.057624e+001  8.135692e+001 
3456250000  -5.155122e+001  7.963705e+001 
3459375000  -5.340672e+001  8.676835e+001 
3462500000  -5.217358e+001  8.645171e+001 
3465625000  -5.153077e+001  7.974124e+001 
3468750000  -5.149642e+001  7.588251e+001 
3471875000  -5.222604e+001  6.861683e+001 
3475000000  -5.067562e+001  7.056737e+001 
3478125000  -5.088559e+001  6.302940e+001 
3481250000  -5.295788e+001  6.180439e+001 
3484375000  -5.280066e+001  6.382950e+001 
3487500000  -5.160261e+001  5.676605e+001 
3490625000  -5.066519e+001  4.984932e+001 
3493750000  -5.196488e+001  4.879538e+001 
3496875000  -5.168931e+001  4.232122e+001 
3500000000  -5.228015e+001  4.792025e+001 
3503125000  -4.999100e+001  4.030469e+001 
3506250000  -4.990041e+001  3.372904e+001 
3509375000  -4.944126e+001  2.296250e+001 
3512500000  -5.033263e+001  5.488946e+000 
3515625000  -5.203088e+001  4.747335e+000 
3518750000  -5.184361e+001  4.494044e+000 
3521875000  -5.210992e+001  2.536981e+000 
3525000000  -5.343510e+001  -2.078720e+000 
3528125000  -5.164689e+001  2.082467e+000 
3531250000  -5.240519e+001  -2.311758e+000 
3534375000  -5.210349e+001  -1.533681e+001 
3537500000  -5.367068e+001  -2.952794e+001 
3540625000  -5.443535e+001  -2.585369e+001 
3543750000  -5.589069e+001  -1.558916e+001 
3546875000  -5.547176e+001  -6.749561e+000 
3550000000  -5.368315e+001  -2.890531e+001 
3553125000  -5.345107e+001  -3.842123e+001 
3556250000  -5.524842e+001  -3.677609e+001 
3559375000  -5.682611e+001  -3.887175e+001 
3562500000  -5.763190e+001  -4.544470e+001 
3565625000  -5.578442e+001  -4.582126e+001 
3568750000  -5.684802e+001  -4.108325e+001 
3571875000  -5.919686e+001  -4.092724e+001 
3575000000  -5.927919e+001  -4.714354e+001 
3578125000  -5.879705e+001  -4.518631e+001 
3581250000  -5.835171e+001  -4.345341e+001 
3584375000  -5.750455e+001  -3.639292e+001 
3587500000  -5.808943e+001  -4.407753e+001 
3590625000  -6.027419e+001  -5.996867e+001 
3593750000  -5.768910e+001  -4.922135e+001 
3596875000  -5.931374e+001  -3.640532e+001 
3600000000  -5.576723e+001  -4.346884e+001 
3603125000  -5.837662e+001  -6.469062e+001 
3606250000  -5.786283e+001  -6.322017e+001 
3609375000  -5.907507e+001  -4.194853e+001 
3612500000  -5.851471e+001  -6.526869e+001 
3615625000  -5.931380e+001  -5.793406e+001 
3618750000  -5.909084e+001  -5.056688e+001 
3621875000  -5.711141e+001  -4.906922e+001 
3625000000  -5.723089e+001  -5.359760e+001 
3628125000  -5.778019e+001  -5.106789e+001 
3631250000  -5.646508e+001  -5.323195e+001 
3634375000  -5.673034e+001  -3.559034e+001 
3637500000  -5.670042e+001  -4.894786e+001 
3640625000  -5.401421e+001  -4.954736e+001 
3643750000  -5.261237e+001  -4.842554e+001 
3646875000  -5.347778e+001  -6.124297e+001 
3650000000  -5.327903e+001  -5.853941e+001 
3653125000  -5.164482e+001  -6.523289e+001 
3656250000  -5.218876e+001  -6.344061e+001 
3659375000  -5.125528e+001  -6.730566e+001 
3662500000  -5.014430e+001  -7.501532e+001 
3665625000  -5.042571e+001  -7.659939e+001 
3668750000  -4.778119e+001  -7.256413e+001 
3671875000  -4.740747e+001  -9.171182e+001 
3675000000  -4.725330e+001  -9.259071e+001 
3678125000  -4.771302e+001  -9.698549e+001 
3681250000  -4.636364e+001  -1.068726e+002 
3684375000  -4.686057e+001  -1.079138e+002 
3687500000  -4.671913e+001  -1.138371e+002 
3690625000  -4.686796e+001  -1.195284e+002 
3693750000  -4.698148e+001  -1.204045e+002 
3696875000  -4.605901e+001  -1.219798e+002 
3700000000  -4.479903e+001  -1.295863e+002 
3703125000  -4.543768e+001  -1.346642e+002 
3706250000  -4.585304e+001  -1.347583e+002 
3709375000  -4.458709e+001  -1.327387e+002 
3712500000  -4.341875e+001  -1.405627e+002 
3715625000  -4.216415e+001  -1.489944e+002 
3718750000  -4.164693e+001  -1.562636e+002 
3721875000  -4.126207e+001  -1.660334e+002 
3725000000  -4.175704e+001  -1.730660e+002 
3728125000  -4.152285e+001  -1.751709e+002 
3731250000  -4.064956e+001  1.775373e+002 
3734375000  -4.051465e+001  1.714260e+002 
3737500000  -4.107985e+001  1.629798e+002 
3740625000  -4.096707e+001  1.568282e+002 
3743750000  -4.048264e+001  1.493371e+002 
3746875000  -4.045325e+001  1.434455e+002 
3750000000  -4.099172e+001  1.384590e+002 
3753125000  -4.056253e+001  1.353584e+002 
3756250000  -4.044920e+001  1.310043e+002 
3759375000  -4.035534e+001  1.257134e+002 
3762500000  -4.010753e+001  1.205804e+002 
3765625000  -4.064702e+001  1.157426e+002 
3768750000  -4.007611e+001  1.153025e+002 
3771875000  -3.878919e+001  1.074181e+002 
3775000000  -3.859526e+001  9.553808e+001 
3778125000  -3.909612e+001  9.112123e+001 
3781250000  -3.910498e+001  8.677250e+001 
3784375000  -3.894543e+001  7.981165e+001 
3787500000  -3.850328e+001  7.411373e+001 
3790625000  -3.925997e+001  6.461292e+001 
3793750000  -3.903293e+001  6.129630e+001 
3796875000  -3.824173e+001  5.839025e+001 
3800000000  -3.646126e+001  5.283486e+001 
3803125000  -3.825113e+001  3.957206e+001 
3806250000  -3.878268e+001  3.552383e+001 
3809375000  -3.842976e+001  3.069884e+001 
3812500000  -3.865287e+001  2.170316e+001 
3815625000  -3.956899e+001  1.223532e+001 
3818750000  -4.099206e+001  1.366752e+001 
3821875000  -4.018566e+001  2.379174e+001 
3825000000  -3.817873e+001  1.879292e+001 
3828125000  -3.723703e+001  8.553066e-001 
3831250000  -3.804567e+001  -1.361624e+001 
3834375000  -4.058305e+001  -1.342379e+001 
3837500000  -4.079282e+001  -1.160252e+001 
3840625000  -3.897812e+001  -1.296222e+001 
3843750000  -3.825306e+001  -2.746530e+001 
3846875000  -3.963055e+001  -3.447043e+001 
3850000000  -4.090161e+001  -2.734684e+001 
3853125000  -3.956754e+001  -2.685413e+001 
3856250000  -3.946262e+001  -3.619194e+001 
3859375000  -3.852872e+001  -4.376369e+001 
3862500000  -3.833184e+001  -5.280792e+001 
3865625000  -3.877005e+001  -5.874987e+001 
3868750000  -3.863364e+001  -5.924453e+001 
3871875000  -3.785355e+001  -6.734369e+001 
3875000000  -3.844190e+001  -7.798576e+001 
3878125000  -3.935038e+001  -7.923499e+001 
3881250000  -3.911813e+001  -7.983492e+001 
3884375000  -3.867239e+001  -8.651761e+001 
3887500000  -3.875518e+001  -9.330447e+001 
3890625000  -3.965546e+001  -9.935456e+001 
3893750000  -3.956039e+001  -1.001839e+002 
3896875000  -3.985576e+001  -1.025545e+002 
3900000000  -3.971833e+001  -1.085596e+002 
3903125000  -3.928786e+001  -1.099485e+002 
3906250000  -3.902922e+001  -1.146985e+002 
3909375000  -3.802761e+001  -1.233460e+002 
3912500000  -3.931959e+001  -1.326566e+002 
3915625000  -4.044590e+001  -1.314712e+002 
3918750000  -3.989017e+001  -1.342363e+002 
3921875000  -3.933662e+001  -1.378887e+002 
3925000000  -3.845117e+001  -1.433796e+002 
3928125000  -3.831087e+001  -1.527952e+002 
3931250000  -3.900883e+001  -1.595276e+002 
3934375000  -3.960423e+001  -1.614697e+002 
3937500000  -3.996515e+001  -1.629037e+002 
3940625000  -3.994067e+001  -1.651552e+002 
3943750000  -3.904148e+001  -1.688788e+002 
3946875000  -3.853861e+001  -1.761380e+002 
3950000000  -3.949471e+001  1.737440e+002 
3953125000  -4.015384e+001  1.749087e+002 
3956250000  -3.887515e+001  1.753224e+002 
3959375000  -3.756919e+001  1.681977e+002 
3962500000  -3.775253e+001  1.610792e+002 
3965625000  -3.791296e+001  1.510514e+002 
3968750000  -3.866868e+001  1.434069e+002 
3971875000  -3.876418e+001  1.387660e+002 
3975000000  -3.816656e+001  1.325097e+002 
3978125000  -3.835561e+001  1.292724e+002 
3981250000  -3.845214e+001  1.213895e+002 
3984375000  -3.892078e+001  1.152239e+002 
3987500000  -3.976559e+001  1.132450e+002 
3990625000  -3.982145e+001  1.114028e+002 
3993750000  -3.968529e+001  1.053623e+002 
3996875000  -3.968012e+001  9.978729e+001 
4000000000  -4.074135e+001  9.528224e+001 
4003125000  -4.071943e+001  9.815437e+001 
4006250000  -3.926445e+001  9.410477e+001 
4009375000  -3.865287e+001  8.216811e+001 
4012500000  -4.029964e+001  7.324786e+001 
4015625000  -4.140496e+001  7.320587e+001 
4018750000  -4.132895e+001  7.233690e+001 
4021875000  -4.067182e+001  6.913591e+001 
4025000000  -4.025037e+001  6.359104e+001 
4028125000  -4.044502e+001  5.797909e+001 
4031250000  -4.129662e+001  5.222951e+001 
4034375000  -4.121428e+001  5.334470e+001 
4037500000  -4.091917e+001  5.155153e+001 
4040625000  -4.123866e+001  4.824295e+001 
4043750000  -4.098365e+001  4.429283e+001 
4046875000  -4.083151e+001  3.990520e+001 
4050000000  -4.072897e+001  3.673523e+001 
4053125000  -4.147867e+001  3.390866e+001 
4056250000  -4.172099e+001  3.760930e+001 
4059375000  -3.916424e+001  3.589479e+001 
4062500000  -3.876666e+001  2.834427e+001 
4065625000  -3.892870e+001  2.255287e+001 
4068750000  -3.801544e+001  1.568175e+001 
4071875000  -3.759361e+001  4.986759e+000 
4075000000  -3.843103e+001  -2.994761e+000 
4078125000  -3.896450e+001  -6.515902e+000 
4081250000  -3.830077e+001  -1.151725e+001 
4084375000  -3.820669e+001  -2.002679e+001 
4087500000  -3.880544e+001  -2.706918e+001 
4090625000  -3.908026e+001  -2.877675e+001 
4093750000  -3.862077e+001  -3.163531e+001 
4096875000  -3.864227e+001  -4.124914e+001 
4100000000  -3.969769e+001  -4.852756e+001 
4103125000  -4.070671e+001  -4.542208e+001 
4106250000  -3.972927e+001  -4.269458e+001 
4109375000  -3.929770e+001  -4.738512e+001 
4112500000  -3.848382e+001  -5.700908e+001 
4115625000  -3.951236e+001  -6.333999e+001 
4118750000  -3.889333e+001  -6.702385e+001 
4121875000  -3.890255e+001  -7.589223e+001 
4125000000  -3.984258e+001  -8.121243e+001 
4128125000  -4.078168e+001  -7.830060e+001 
4131250000  -3.974265e+001  -7.303891e+001 
4134375000  -3.757948e+001  -8.287698e+001 
4137500000  -3.822523e+001  -1.039079e+002 
4140625000  -4.035082e+001  -1.112632e+002 
4143750000  -4.151439e+001  -1.025536e+002 
4146875000  -4.054203e+001  -1.002952e+002 
4150000000  -3.946624e+001  -1.084944e+002 
4153125000  -4.000187e+001  -1.177905e+002 
4156250000  -4.106860e+001  -1.211904e+002 
4159375000  -4.103785e+001  -1.153017e+002 
4162500000  -4.004622e+001  -1.142533e+002 
4165625000  -3.874141e+001  -1.211224e+002 
4168750000  -3.839527e+001  -1.310027e+002 
4171875000  -3.836037e+001  -1.410797e+002 
4175000000  -3.920227e+001  -1.462326e+002 
4178125000  -3.952120e+001  -1.494341e+002 
4181250000  -3.937091e+001  -1.523431e+002 
4184375000  -3.957075e+001  -1.559504e+002 
4187500000  -3.949954e+001  -1.612289e+002 
4190625000  -3.940721e+001  -1.712135e+002 
4193750000  -4.057235e+001  -1.749725e+002 
4196875000  -4.136261e+001  -1.745295e+002 
4200000000  -4.272513e+001  -1.691894e+002 
4203125000  -4.094217e+001  -1.558136e+002 
4206250000  -3.739057e+001  -1.668819e+002 
4209375000  -3.741568e+001  1.699517e+002 
4212500000  -3.951011e+001  1.637744e+002 
4215625000  -3.990992e+001  1.698506e+002 
4218750000  -3.847896e+001  1.732546e+002 
4221875000  -3.644762e+001  1.633606e+002 
4225000000  -3.762569e+001  1.514696e+002 
4228125000  -3.809149e+001  1.503827e+002 
4231250000  -3.643959e+001  1.445353e+002 
4234375000  -3.661069e+001  1.336822e+002 
4237500000  -3.609412e+001  1.275934e+002 
4240625000  -3.632618e+001  1.168970e+002 
4243750000  -3.746904e+001  1.065953e+002 
4246875000  -3.859546e+001  1.080857e+002 
4250000000  -3.829348e+001  1.085068e+002 
4253125000  -3.830302e+001  1.054164e+002 
4256250000  -3.796239e+001  9.995147e+001 
4259375000  -3.775554e+001  9.398669e+001 
4262500000  -3.782409e+001  8.798158e+001 
4265625000  -3.802326e+001  8.780340e+001 
4268750000  -3.676444e+001  7.942686e+001 
4271875000  -3.690077e+001  7.249332e+001 
4275000000  -3.662750e+001  6.329588e+001 
4278125000  -3.760210e+001  4.975958e+001 
4281250000  -3.904449e+001  4.945440e+001 
4284375000  -3.866834e+001  4.718248e+001 
4287500000  -4.054108e+001  4.289031e+001 
4290625000  -4.058390e+001  5.281261e+001 
4293750000  -3.884925e+001  5.113679e+001 
4296875000  -3.777942e+001  3.779635e+001 
4300000000  -3.937362e+001  2.791206e+001 
4303125000  -3.974056e+001  3.290719e+001 
4306250000  -3.851913e+001  3.387208e+001 
4309375000  -3.759132e+001  2.772744e+001 
4312500000  -3.752933e+001  1.730001e+001 
4315625000  -3.782279e+001  9.855871e+000 
4318750000  -3.874769e+001  5.055032e+000 
4321875000  -3.844333e+001  6.536625e+000 
4325000000  -3.766307e+001  6.510866e+000 
4328125000  -3.740911e+001  -5.453635e+000 
4331250000  -3.747608e+001  -1.551095e+001 
4334375000  -3.838973e+001  -2.229433e+001 
4337500000  -3.967744e+001  -2.178398e+001 
4340625000  -3.926176e+001  -1.872078e+001 
4343750000  -3.846450e+001  -2.055984e+001 
4346875000  -3.810001e+001  -2.942155e+001 
4350000000  -3.829620e+001  -3.786181e+001 
4353125000  -3.883258e+001  -4.503288e+001 
4356250000  -4.100501e+001  -4.278266e+001 
4359375000  -3.958017e+001  -2.607768e+001 
4362500000  -3.647591e+001  -3.581850e+001 
4365625000  -3.589802e+001  -5.281835e+001 
4368750000  -3.722447e+001  -6.198488e+001 
4371875000  -3.787151e+001  -6.333465e+001 
4375000000  -3.715795e+001  -6.704841e+001 
4378125000  -3.682611e+001  -7.567104e+001 
4381250000  -3.712405e+001  -8.321073e+001 
4384375000  -3.722123e+001  -8.895784e+001 
4387500000  -3.817296e+001  -9.548737e+001 
4390625000  -3.846977e+001  -9.580609e+001 
4393750000  -3.806638e+001  -9.498732e+001 
4396875000  -3.750196e+001  -1.026624e+002 
4400000000  -3.698333e+001  -1.110540e+002 
4403125000  -3.796235e+001  -1.203001e+002 
4406250000  -3.837911e+001  -1.223402e+002 
4409375000  -3.862286e+001  -1.284953e+002 
4412500000  -3.986731e+001  -1.287444e+002 
4415625000  -3.932803e+001  -1.255393e+002 
