!Agilent Technologies,E8363B,MY43030201,A.06.04.32
!Agilent E8363B: A.06.04.32
!Date: Tuesday, November 11, 2014 21:27:19
!Correction: S21(Response(S21)) 
!S1P File: Measurement: S21:
# Hz S  dB   R 50
3000000000  -4.054651e+001  9.257757e+001 
3003125000  -4.239464e+001  8.474168e+001 
3006250000  -4.207302e+001  8.369279e+001 
3009375000  -4.280750e+001  8.745423e+001 
3012500000  -4.175409e+001  8.336422e+001 
3015625000  -4.132707e+001  7.704626e+001 
3018750000  -4.187035e+001  7.874689e+001 
3021875000  -4.048444e+001  7.924500e+001 
3025000000  -3.899370e+001  7.473252e+001 
3028125000  -3.811448e+001  6.579124e+001 
3031250000  -3.705167e+001  5.390977e+001 
3034375000  -3.679560e+001  3.964295e+001 
3037500000  -3.745494e+001  2.725209e+001 
3040625000  -3.871192e+001  2.349665e+001 
3043750000  -3.919030e+001  1.777204e+001 
3046875000  -3.962124e+001  1.241664e+001 
3050000000  -4.091840e+001  4.270905e+000 
3053125000  -4.045670e+001  9.653342e+000 
3056250000  -4.043419e+001  1.258143e+001 
3059375000  -3.992859e+001  1.133683e+001 
3062500000  -3.820290e+001  6.311724e+000 
3065625000  -3.801834e+001  -2.768862e+000 
3068750000  -3.765747e+001  -1.107284e+001 
3071875000  -3.777727e+001  -1.234818e+001 
3075000000  -3.717962e+001  -1.928296e+001 
3078125000  -3.713190e+001  -2.632265e+001 
3081250000  -3.738685e+001  -3.184830e+001 
3084375000  -3.643978e+001  -3.559851e+001 
3087500000  -3.657006e+001  -4.253084e+001 
3090625000  -3.587561e+001  -5.427004e+001 
3093750000  -3.678498e+001  -6.327523e+001 
3096875000  -3.736350e+001  -6.893482e+001 
3100000000  -3.727162e+001  -7.172385e+001 
3103125000  -3.762724e+001  -7.514583e+001 
3106250000  -3.716956e+001  -7.933848e+001 
3109375000  -3.733015e+001  -8.452618e+001 
3112500000  -3.722229e+001  -8.933718e+001 
3115625000  -3.709904e+001  -9.369924e+001 
3118750000  -3.726948e+001  -9.749068e+001 
3121875000  -3.657734e+001  -1.078388e+002 
3125000000  -3.838162e+001  -1.129266e+002 
3128125000  -3.870315e+001  -1.056840e+002 
3131250000  -3.626295e+001  -1.094837e+002 
3134375000  -3.531637e+001  -1.266323e+002 
3137500000  -3.598586e+001  -1.397493e+002 
3140625000  -3.739017e+001  -1.429642e+002 
3143750000  -3.830588e+001  -1.442058e+002 
3146875000  -3.780032e+001  -1.434812e+002 
3150000000  -3.697241e+001  -1.455871e+002 
3153125000  -3.708957e+001  -1.560571e+002 
3156250000  -3.805550e+001  -1.498605e+002 
3159375000  -3.589443e+001  -1.525630e+002 
3162500000  -3.438216e+001  -1.672933e+002 
3165625000  -3.560251e+001  1.794991e+002 
3168750000  -3.564034e+001  1.790064e+002 
3171875000  -3.487601e+001  1.713578e+002 
3175000000  -3.553053e+001  1.618182e+002 
3178125000  -3.507191e+001  1.603816e+002 
3181250000  -3.440632e+001  1.534515e+002 
3184375000  -3.402169e+001  1.403806e+002 
3187500000  -3.537192e+001  1.250776e+002 
3190625000  -3.752843e+001  1.193282e+002 
3193750000  -3.760147e+001  1.250872e+002 
3196875000  -3.728898e+001  1.261060e+002 
3200000000  -3.633067e+001  1.217831e+002 
3203125000  -3.594688e+001  1.134873e+002 
3206250000  -3.620339e+001  1.055808e+002 
3209375000  -3.580216e+001  9.803069e+001 
3212500000  -3.625126e+001  9.072421e+001 
3215625000  -3.603337e+001  8.747275e+001 
3218750000  -3.682365e+001  7.699328e+001 
3221875000  -3.740575e+001  7.051585e+001 
3225000000  -3.704983e+001  6.617891e+001 
3228125000  -3.764593e+001  5.894555e+001 
3231250000  -3.843476e+001  5.645296e+001 
3234375000  -3.808605e+001  5.350170e+001 
3237500000  -3.817381e+001  5.016159e+001 
3240625000  -3.771072e+001  4.532446e+001 
3243750000  -3.768137e+001  3.525385e+001 
3246875000  -3.830656e+001  2.766433e+001 
3250000000  -3.879491e+001  2.359326e+001 
3253125000  -3.898814e+001  2.057897e+001 
3256250000  -3.866903e+001  1.284275e+001 
3259375000  -3.936766e+001  2.337768e+000 
3262500000  -4.051352e+001  -1.342412e+000 
3265625000  -4.137316e+001  9.472362e-001 
3268750000  -4.103983e+001  7.786036e-001 
3271875000  -4.072952e+001  -1.277733e+000 
3275000000  -4.003085e+001  -1.012597e+001 
3278125000  -4.070869e+001  -1.527289e+001 
3281250000  -4.108444e+001  -1.633238e+001 
3284375000  -4.056664e+001  -2.225107e+001 
3287500000  -4.096313e+001  -2.637078e+001 
3290625000  -4.133434e+001  -3.580069e+001 
3293750000  -4.122884e+001  -4.048810e+001 
3296875000  -4.230124e+001  -4.151407e+001 
3300000000  -4.186607e+001  -4.186140e+001 
3303125000  -4.086031e+001  -4.723415e+001 
3306250000  -4.087438e+001  -5.517135e+001 
3309375000  -4.067249e+001  -6.203482e+001 
3312500000  -4.102883e+001  -7.266254e+001 
3315625000  -4.191365e+001  -8.021458e+001 
3318750000  -4.333949e+001  -8.506264e+001 
3321875000  -4.472757e+001  -8.434493e+001 
3325000000  -4.492867e+001  -7.637984e+001 
3328125000  -4.399443e+001  -7.946667e+001 
3331250000  -4.246569e+001  -7.387009e+001 
3334375000  -4.001446e+001  -8.704816e+001 
3337500000  -4.048471e+001  -1.065976e+002 
3340625000  -4.206619e+001  -1.181498e+002 
3343750000  -4.422615e+001  -1.169564e+002 
3346875000  -4.346685e+001  -1.196394e+002 
3350000000  -4.290067e+001  -1.210319e+002 
3353125000  -4.311347e+001  -1.271302e+002 
3356250000  -4.261717e+001  -1.359638e+002 
3359375000  -4.360458e+001  -1.475541e+002 
3362500000  -4.413913e+001  -1.528705e+002 
3365625000  -4.468919e+001  -1.562731e+002 
3368750000  -4.530013e+001  -1.582203e+002 
3371875000  -4.552405e+001  -1.637033e+002 
3375000000  -4.755809e+001  -1.662828e+002 
3378125000  -4.778987e+001  -1.711895e+002 
3381250000  -4.893689e+001  -1.603736e+002 
3384375000  -4.686431e+001  -1.443111e+002 
3387500000  -4.398089e+001  -1.637773e+002 
3390625000  -4.625227e+001  1.782465e+002 
3393750000  -4.727535e+001  1.779989e+002 
3396875000  -4.590909e+001  1.750724e+002 
3400000000  -4.586839e+001  1.624791e+002 
3403125000  -4.646533e+001  1.591958e+002 
3406250000  -4.721104e+001  1.530916e+002 
3409375000  -4.799075e+001  1.452591e+002 
3412500000  -4.874487e+001  1.412477e+002 
3415625000  -4.960170e+001  1.404235e+002 
3418750000  -5.001414e+001  1.422653e+002 
3421875000  -5.149730e+001  1.423986e+002 
3425000000  -4.998486e+001  1.427677e+002 
3428125000  -4.969212e+001  1.366237e+002 
3431250000  -4.970488e+001  1.281790e+002 
3434375000  -5.006261e+001  1.254239e+002 
3437500000  -5.167120e+001  1.264370e+002 
3440625000  -5.214792e+001  1.258941e+002 
3443750000  -5.078345e+001  1.313730e+002 
3446875000  -5.025954e+001  1.200530e+002 
3450000000  -5.018428e+001  1.200120e+002 
3453125000  -5.026334e+001  1.034158e+002 
3456250000  -5.195500e+001  1.053839e+002 
3459375000  -5.228851e+001  1.039789e+002 
3462500000  -5.258498e+001  1.080774e+002 
3465625000  -5.195497e+001  1.011014e+002 
3468750000  -5.115876e+001  1.050219e+002 
3471875000  -5.141105e+001  1.003408e+002 
3475000000  -5.118581e+001  9.366734e+001 
3478125000  -5.140567e+001  8.422160e+001 
3481250000  -5.338605e+001  8.481229e+001 
3484375000  -5.242415e+001  8.921108e+001 
3487500000  -5.081564e+001  8.443238e+001 
3490625000  -5.109864e+001  8.141336e+001 
3493750000  -5.105312e+001  7.073556e+001 
3496875000  -5.133568e+001  6.792323e+001 
3500000000  -5.139007e+001  6.916725e+001 
3503125000  -5.076892e+001  7.013242e+001 
3506250000  -4.983706e+001  6.420280e+001 
3509375000  -4.935685e+001  4.835853e+001 
3512500000  -4.975119e+001  3.753816e+001 
3515625000  -5.103759e+001  3.424688e+001 
3518750000  -5.243496e+001  3.357531e+001 
3521875000  -5.142834e+001  2.101382e+001 
3525000000  -5.294243e+001  2.335325e+001 
3528125000  -5.166658e+001  2.488192e+001 
3531250000  -5.112054e+001  2.362475e+001 
3534375000  -5.198452e+001  1.110832e+001 
3537500000  -5.232238e+001  1.004774e+000 
3540625000  -5.402632e+001  -4.783292e+000 
3543750000  -5.461059e+001  6.876811e+000 
3546875000  -5.508879e+001  1.558719e+001 
3550000000  -5.411068e+001  5.922784e+000 
3553125000  -5.311716e+001  -8.396171e+000 
3556250000  -5.484749e+001  -1.357932e+001 
3559375000  -5.570733e+001  -1.621032e+001 
3562500000  -5.518147e+001  -2.219681e+001 
3565625000  -5.582884e+001  -2.629964e+001 
3568750000  -5.718378e+001  -2.821091e+001 
3571875000  -5.757017e+001  -2.602069e+001 
3575000000  -5.856445e+001  -1.781801e+001 
3578125000  -5.891220e+001  -2.767120e+001 
3581250000  -5.873742e+001  -2.749822e+001 
3584375000  -5.734168e+001  -1.465172e+001 
3587500000  -5.699275e+001  -3.175497e+001 
3590625000  -5.825742e+001  -4.596381e+001 
3593750000  -5.979131e+001  -2.033919e+001 
3596875000  -5.822065e+001  -1.579991e+001 
3600000000  -5.664786e+001  -2.282818e+001 
3603125000  -5.908283e+001  -3.916774e+001 
3606250000  -5.947736e+001  -3.711019e+001 
3609375000  -5.784611e+001  -2.798446e+001 
3612500000  -5.896273e+001  -3.048286e+001 
3615625000  -5.822710e+001  -3.175009e+001 
3618750000  -5.922322e+001  -2.974918e+001 
3621875000  -5.920958e+001  -2.714383e+001 
3625000000  -5.670831e+001  -2.615298e+001 
3628125000  -5.769722e+001  -1.089795e+001 
3631250000  -5.632161e+001  -1.983264e+001 
3634375000  -5.554526e+001  -1.998081e+001 
3637500000  -5.568279e+001  -3.338319e+001 
3640625000  -5.482732e+001  -1.803281e+001 
3643750000  -5.346603e+001  -2.654709e+001 
3646875000  -5.336366e+001  -4.086983e+001 
3650000000  -5.306450e+001  -3.829280e+001 
3653125000  -5.350302e+001  -4.439148e+001 
3656250000  -5.208848e+001  -4.240885e+001 
3659375000  -5.173814e+001  -4.696704e+001 
3662500000  -5.122406e+001  -4.963932e+001 
3665625000  -5.023370e+001  -5.096247e+001 
3668750000  -4.871561e+001  -5.134251e+001 
3671875000  -4.780559e+001  -6.031047e+001 
3675000000  -4.797938e+001  -6.922186e+001 
3678125000  -4.750330e+001  -7.065092e+001 
3681250000  -4.703950e+001  -7.856060e+001 
3684375000  -4.723618e+001  -8.089777e+001 
3687500000  -4.689866e+001  -8.717588e+001 
3690625000  -4.698869e+001  -9.302579e+001 
3693750000  -4.761071e+001  -9.809216e+001 
3696875000  -4.706536e+001  -9.702469e+001 
3700000000  -4.534828e+001  -1.058357e+002 
3703125000  -4.523897e+001  -1.116447e+002 
3706250000  -4.617065e+001  -1.076406e+002 
3709375000  -4.541475e+001  -1.100705e+002 
3712500000  -4.396802e+001  -1.118443e+002 
3715625000  -4.230733e+001  -1.225405e+002 
3718750000  -4.214417e+001  -1.281408e+002 
3721875000  -4.153308e+001  -1.378371e+002 
3725000000  -4.233869e+001  -1.445024e+002 
3728125000  -4.169110e+001  -1.497754e+002 
3731250000  -4.085055e+001  -1.534130e+002 
3734375000  -4.026442e+001  -1.609579e+002 
3737500000  -4.108783e+001  -1.695941e+002 
3740625000  -4.105923e+001  -1.762311e+002 
3743750000  -4.075392e+001  1.780552e+002 
3746875000  -4.088963e+001  1.695032e+002 
3750000000  -4.107763e+001  1.654170e+002 
3753125000  -4.058904e+001  1.625432e+002 
3756250000  -4.068975e+001  1.593999e+002 
3759375000  -4.061031e+001  1.539083e+002 
3762500000  -4.012975e+001  1.471811e+002 
3765625000  -4.069632e+001  1.414377e+002 
3768750000  -4.020098e+001  1.422825e+002 
3771875000  -3.864689e+001  1.337899e+002 
3775000000  -3.858669e+001  1.242119e+002 
3778125000  -3.922314e+001  1.182120e+002 
3781250000  -3.914381e+001  1.137906e+002 
3784375000  -3.891103e+001  1.064116e+002 
3787500000  -3.859100e+001  1.009604e+002 
3790625000  -3.913705e+001  9.161419e+001 
3793750000  -3.915114e+001  8.892235e+001 
3796875000  -3.822615e+001  8.377379e+001 
3800000000  -3.656273e+001  8.104287e+001 
3803125000  -3.788871e+001  6.792748e+001 
3806250000  -3.903494e+001  6.257469e+001 
3809375000  -3.853841e+001  5.970483e+001 
3812500000  -3.850277e+001  4.926938e+001 
3815625000  -3.970253e+001  4.047388e+001 
3818750000  -4.065439e+001  4.109274e+001 
3821875000  -4.035077e+001  4.885284e+001 
3825000000  -3.862794e+001  4.759562e+001 
3828125000  -3.708103e+001  2.962599e+001 
3831250000  -3.790763e+001  1.374712e+001 
3834375000  -4.034013e+001  1.323646e+001 
3837500000  -4.066639e+001  1.474780e+001 
3840625000  -3.919214e+001  1.477406e+001 
3843750000  -3.851500e+001  9.277829e-001 
3846875000  -3.994084e+001  -6.737253e+000 
3850000000  -4.096959e+001  -2.284668e+000 
3853125000  -4.012411e+001  -1.466566e-001 
3856250000  -3.978073e+001  -7.756400e+000 
3859375000  -3.895879e+001  -1.518947e+001 
3862500000  -3.861768e+001  -2.616008e+001 
3865625000  -3.937624e+001  -2.925491e+001 
3868750000  -3.895009e+001  -3.130496e+001 
3871875000  -3.807115e+001  -3.779427e+001 
3875000000  -3.861764e+001  -4.807346e+001 
3878125000  -3.961599e+001  -5.055574e+001 
3881250000  -3.935372e+001  -5.059069e+001 
3884375000  -3.895077e+001  -5.698353e+001 
3887500000  -3.915393e+001  -6.326636e+001 
3890625000  -3.932499e+001  -6.863329e+001 
3893750000  -3.976402e+001  -7.181038e+001 
3896875000  -3.980593e+001  -7.218830e+001 
3900000000  -3.983671e+001  -7.827160e+001 
3903125000  -3.942101e+001  -8.101524e+001 
3906250000  -3.906393e+001  -8.414895e+001 
3909375000  -3.823666e+001  -9.410738e+001 
3912500000  -3.903934e+001  -1.032107e+002 
3915625000  -4.053396e+001  -1.028432e+002 
3918750000  -3.992384e+001  -1.038373e+002 
3921875000  -3.934379e+001  -1.086323e+002 
3925000000  -3.852443e+001  -1.136867e+002 
3928125000  -3.819489e+001  -1.229151e+002 
3931250000  -3.892208e+001  -1.303900e+002 
3934375000  -3.921789e+001  -1.304534e+002 
3937500000  -4.011371e+001  -1.346060e+002 
3940625000  -3.998087e+001  -1.355770e+002 
3943750000  -3.897140e+001  -1.377827e+002 
3946875000  -3.822134e+001  -1.474479e+002 
3950000000  -3.912693e+001  -1.549997e+002 
3953125000  -3.992756e+001  -1.552343e+002 
3956250000  -3.882925e+001  -1.557646e+002 
3959375000  -3.794712e+001  -1.612477e+002 
3962500000  -3.754227e+001  -1.702108e+002 
3965625000  -3.765076e+001  1.795886e+002 
3968750000  -3.853571e+001  1.725889e+002 
3971875000  -3.858089e+001  1.663461e+002 
3975000000  -3.836912e+001  1.621662e+002 
3978125000  -3.864383e+001  1.591423e+002 
3981250000  -3.826060e+001  1.519534e+002 
3984375000  -3.895034e+001  1.440560e+002 
3987500000  -3.963187e+001  1.427870e+002 
3990625000  -3.956835e+001  1.408993e+002 
3993750000  -3.998292e+001  1.349365e+002 
3996875000  -4.005562e+001  1.316439e+002 
4000000000  -4.060822e+001  1.252406e+002 
4003125000  -4.116563e+001  1.274622e+002 
4006250000  -3.948194e+001  1.259347e+002 
4009375000  -3.848656e+001  1.130283e+002 
4012500000  -3.993471e+001  1.025588e+002 
4015625000  -4.135329e+001  1.019566e+002 
4018750000  -4.132742e+001  1.044276e+002 
4021875000  -4.063521e+001  1.024704e+002 
4025000000  -4.028395e+001  9.433064e+001 
4028125000  -4.036421e+001  8.832162e+001 
4031250000  -4.104402e+001  8.391875e+001 
4034375000  -4.145837e+001  8.295102e+001 
4037500000  -4.105619e+001  8.360247e+001 
4040625000  -4.079482e+001  7.685786e+001 
4043750000  -4.103925e+001  7.507018e+001 
4046875000  -4.066181e+001  7.377655e+001 
4050000000  -4.032793e+001  6.676803e+001 
4053125000  -4.103106e+001  6.332029e+001 
4056250000  -4.124628e+001  6.715044e+001 
4059375000  -3.965827e+001  6.616652e+001 
4062500000  -3.879480e+001  5.932568e+001 
4065625000  -3.881381e+001  5.493698e+001 
4068750000  -3.825370e+001  4.659568e+001 
4071875000  -3.748427e+001  3.619853e+001 
4075000000  -3.817891e+001  2.993129e+001 
4078125000  -3.857563e+001  2.622357e+001 
4081250000  -3.801891e+001  2.015401e+001 
4084375000  -3.785770e+001  1.023696e+001 
4087500000  -3.850473e+001  4.757044e+000 
4090625000  -3.891457e+001  2.321779e+000 
4093750000  -3.830058e+001  6.865919e-001 
4096875000  -3.834219e+001  -9.778294e+000 
4100000000  -3.934170e+001  -1.789827e+001 
4103125000  -4.036850e+001  -1.578189e+001 
4106250000  -3.955701e+001  -1.315754e+001 
4109375000  -3.873668e+001  -1.649648e+001 
4112500000  -3.840545e+001  -2.655458e+001 
4115625000  -3.898169e+001  -3.195112e+001 
4118750000  -3.882238e+001  -3.657248e+001 
4121875000  -3.864083e+001  -4.350311e+001 
4125000000  -3.954733e+001  -5.202760e+001 
4128125000  -4.066125e+001  -4.712320e+001 
4131250000  -3.980113e+001  -4.151569e+001 
4134375000  -3.722602e+001  -5.291194e+001 
4137500000  -3.760110e+001  -7.259823e+001 
4140625000  -4.008478e+001  -7.963882e+001 
4143750000  -4.088179e+001  -7.480029e+001 
4146875000  -4.011848e+001  -7.235164e+001 
4150000000  -3.926602e+001  -7.675113e+001 
4153125000  -3.962358e+001  -8.625823e+001 
4156250000  -4.092579e+001  -9.101647e+001 
4159375000  -4.081014e+001  -8.421674e+001 
4162500000  -3.967172e+001  -8.379963e+001 
4165625000  -3.853147e+001  -8.996888e+001 
4168750000  -3.802462e+001  -9.940182e+001 
4171875000  -3.801367e+001  -1.102723e+002 
4175000000  -3.876874e+001  -1.168600e+002 
4178125000  -3.935003e+001  -1.179734e+002 
4181250000  -3.906532e+001  -1.209523e+002 
4184375000  -3.902777e+001  -1.256138e+002 
4187500000  -3.904873e+001  -1.303299e+002 
4190625000  -3.886581e+001  -1.381628e+002 
4193750000  -4.007906e+001  -1.426001e+002 
4196875000  -4.109004e+001  -1.456080e+002 
4200000000  -4.158992e+001  -1.416942e+002 
4203125000  -4.103797e+001  -1.275076e+002 
4206250000  -3.755631e+001  -1.334006e+002 
4209375000  -3.701946e+001  -1.576644e+002 
4212500000  -3.901017e+001  -1.659004e+002 
4215625000  -3.971595e+001  -1.575768e+002 
4218750000  -3.788281e+001  -1.563263e+002 
4221875000  -3.588032e+001  -1.665709e+002 
4225000000  -3.722551e+001  -1.797248e+002 
4228125000  -3.731575e+001  -1.775655e+002 
4231250000  -3.579442e+001  1.752858e+002 
4234375000  -3.600524e+001  1.648247e+002 
4237500000  -3.583953e+001  1.591871e+002 
4240625000  -3.580709e+001  1.479827e+002 
4243750000  -3.689785e+001  1.396035e+002 
4246875000  -3.767177e+001  1.382387e+002 
4250000000  -3.765217e+001  1.385923e+002 
4253125000  -3.735593e+001  1.344977e+002 
4256250000  -3.739766e+001  1.310106e+002 
4259375000  -3.705535e+001  1.258435e+002 
4262500000  -3.738016e+001  1.208452e+002 
4265625000  -3.725195e+001  1.177038e+002 
4268750000  -3.660901e+001  1.109932e+002 
4271875000  -3.634119e+001  1.019453e+002 
4275000000  -3.595158e+001  9.369340e+001 
4278125000  -3.706906e+001  8.094196e+001 
4281250000  -3.837423e+001  7.847598e+001 
4284375000  -3.813169e+001  7.436868e+001 
4287500000  -3.959687e+001  7.314774e+001 
4290625000  -4.048970e+001  8.117469e+001 
4293750000  -3.830982e+001  8.293177e+001 
4296875000  -3.720623e+001  7.106896e+001 
4300000000  -3.835842e+001  5.872638e+001 
4303125000  -3.919176e+001  6.254326e+001 
4306250000  -3.815051e+001  6.473631e+001 
4309375000  -3.705603e+001  5.756202e+001 
4312500000  -3.732669e+001  4.649519e+001 
4315625000  -3.747686e+001  4.064552e+001 
4318750000  -3.816939e+001  3.365786e+001 
4321875000  -3.807692e+001  3.672466e+001 
4325000000  -3.748970e+001  3.482255e+001 
4328125000  -3.694287e+001  2.530006e+001 
4331250000  -3.704824e+001  1.385417e+001 
4334375000  -3.779163e+001  8.564308e+000 
4337500000  -3.861380e+001  7.391989e+000 
4340625000  -3.898150e+001  1.169568e+001 
4343750000  -3.806995e+001  8.508895e+000 
4346875000  -3.776514e+001  2.415336e-001 
4350000000  -3.791849e+001  -6.481513e+000 
4353125000  -3.811097e+001  -1.617240e+001 
4356250000  -4.027333e+001  -1.177953e+001 
4359375000  -3.981564e+001  -6.174003e-001 
4362500000  -3.620598e+001  -5.420338e+000 
4365625000  -3.534301e+001  -2.360890e+001 
4368750000  -3.657223e+001  -3.362653e+001 
4371875000  -3.751468e+001  -3.284357e+001 
4375000000  -3.694601e+001  -3.734581e+001 
4378125000  -3.629753e+001  -4.392223e+001 
4381250000  -3.653264e+001  -5.192559e+001 
4384375000  -3.668110e+001  -5.925882e+001 
4387500000  -3.740639e+001  -6.492704e+001 
4390625000  -3.775958e+001  -6.707143e+001 
4393750000  -3.757042e+001  -6.535786e+001 
4396875000  -3.664234e+001  -7.078211e+001 
4400000000  -3.631442e+001  -7.970419e+001 
4403125000  -3.707564e+001  -8.875223e+001 
4406250000  -3.766899e+001  -9.331568e+001 
4409375000  -3.815966e+001  -9.769901e+001 
4412500000  -3.889093e+001  -9.973499e+001 
4415625000  -3.888781e+001  -9.644682e+001 
