!Agilent Technologies,E8363B,MY43030201,A.06.04.32
!Agilent E8363B: A.06.04.32
!Date: Tuesday, November 11, 2014 21:36:47
!Correction: S21(Response(S21)) 
!S1P File: Measurement: S21:
# Hz S  dB   R 50
3000000000  -4.060434e+001  7.100069e+001 
3003125000  -4.218079e+001  6.289632e+001 
3006250000  -4.228415e+001  6.213156e+001 
3009375000  -4.292112e+001  6.716483e+001 
3012500000  -4.145229e+001  6.197454e+001 
3015625000  -4.130889e+001  5.553835e+001 
3018750000  -4.167785e+001  5.628501e+001 
3021875000  -4.008940e+001  5.780282e+001 
3025000000  -3.897937e+001  5.378947e+001 
3028125000  -3.793106e+001  4.242202e+001 
3031250000  -3.696640e+001  3.072931e+001 
3034375000  -3.670322e+001  1.737316e+001 
3037500000  -3.766938e+001  6.127002e+000 
3040625000  -3.877282e+001  9.956368e-001 
3043750000  -3.925517e+001  -5.529736e+000 
3046875000  -3.998618e+001  -1.024945e+001 
3050000000  -4.105822e+001  -1.602261e+001 
3053125000  -4.036481e+001  -1.100175e+001 
3056250000  -4.062274e+001  -9.260080e+000 
3059375000  -3.967111e+001  -9.891524e+000 
3062500000  -3.804766e+001  -1.576534e+001 
3065625000  -3.773727e+001  -2.421647e+001 
3068750000  -3.745032e+001  -3.300140e+001 
3071875000  -3.764808e+001  -3.531504e+001 
3075000000  -3.703552e+001  -4.123646e+001 
3078125000  -3.706740e+001  -4.805934e+001 
3081250000  -3.727720e+001  -5.374650e+001 
3084375000  -3.636456e+001  -5.837930e+001 
3087500000  -3.646216e+001  -6.489422e+001 
3090625000  -3.591484e+001  -7.795139e+001 
3093750000  -3.700155e+001  -8.519940e+001 
3096875000  -3.739064e+001  -9.066898e+001 
3100000000  -3.721203e+001  -9.298090e+001 
3103125000  -3.742041e+001  -9.677744e+001 
3106250000  -3.716471e+001  -1.024761e+002 
3109375000  -3.724911e+001  -1.064233e+002 
3112500000  -3.707608e+001  -1.124590e+002 
3115625000  -3.708317e+001  -1.162710e+002 
3118750000  -3.711484e+001  -1.188916e+002 
3121875000  -3.651435e+001  -1.307373e+002 
3125000000  -3.851891e+001  -1.331404e+002 
3128125000  -3.844159e+001  -1.264730e+002 
3131250000  -3.603280e+001  -1.328549e+002 
3134375000  -3.541355e+001  -1.501138e+002 
3137500000  -3.609438e+001  -1.613723e+002 
3140625000  -3.738484e+001  -1.644156e+002 
3143750000  -3.819947e+001  -1.670940e+002 
3146875000  -3.760317e+001  -1.649604e+002 
3150000000  -3.687542e+001  -1.693911e+002 
3153125000  -3.717324e+001  -1.775299e+002 
3156250000  -3.794590e+001  -1.723475e+002 
3159375000  -3.560695e+001  -1.754881e+002 
3162500000  -3.416675e+001  1.698891e+002 
3165625000  -3.537465e+001  1.569876e+002 
3168750000  -3.540560e+001  1.559224e+002 
3171875000  -3.495521e+001  1.482592e+002 
3175000000  -3.541772e+001  1.390546e+002 
3178125000  -3.495617e+001  1.379017e+002 
3181250000  -3.432482e+001  1.285976e+002 
3184375000  -3.418563e+001  1.177194e+002 
3187500000  -3.541940e+001  1.031597e+002 
3190625000  -3.726320e+001  9.803648e+001 
3193750000  -3.748934e+001  1.039351e+002 
3196875000  -3.737886e+001  1.037269e+002 
3200000000  -3.626738e+001  9.801987e+001 
3203125000  -3.590096e+001  8.970946e+001 
3206250000  -3.613601e+001  8.224503e+001 
3209375000  -3.576150e+001  7.416385e+001 
3212500000  -3.633288e+001  6.780854e+001 
3215625000  -3.607473e+001  6.513280e+001 
3218750000  -3.687672e+001  5.344055e+001 
3221875000  -3.719919e+001  4.748949e+001 
3225000000  -3.695026e+001  4.357718e+001 
3228125000  -3.762605e+001  3.537529e+001 
3231250000  -3.826803e+001  3.441960e+001 
3234375000  -3.785009e+001  3.140672e+001 
3237500000  -3.799024e+001  2.664125e+001 
3240625000  -3.764063e+001  2.081918e+001 
3243750000  -3.783624e+001  1.148148e+001 
3246875000  -3.816727e+001  3.531233e+000 
3250000000  -3.886089e+001  -4.709469e-001 
3253125000  -3.895941e+001  -2.695555e+000 
3256250000  -3.856165e+001  -1.040236e+001 
3259375000  -3.902528e+001  -2.128984e+001 
3262500000  -4.069397e+001  -2.474610e+001 
3265625000  -4.118599e+001  -2.361186e+001 
3268750000  -4.105809e+001  -2.130009e+001 
3271875000  -4.064527e+001  -2.746247e+001 
3275000000  -4.007859e+001  -3.395958e+001 
3278125000  -4.086944e+001  -3.952660e+001 
3281250000  -4.128366e+001  -3.869889e+001 
3284375000  -4.049240e+001  -4.684656e+001 
3287500000  -4.085464e+001  -4.964913e+001 
3290625000  -4.122501e+001  -5.916701e+001 
3293750000  -4.138442e+001  -6.393323e+001 
3296875000  -4.231227e+001  -6.455116e+001 
3300000000  -4.181236e+001  -6.534250e+001 
3303125000  -4.083867e+001  -7.186428e+001 
3306250000  -4.072687e+001  -7.965176e+001 
3309375000  -4.040195e+001  -8.717226e+001 
3312500000  -4.096352e+001  -1.002532e+002 
3315625000  -4.229514e+001  -1.054544e+002 
3318750000  -4.371376e+001  -1.085576e+002 
3321875000  -4.492343e+001  -1.059355e+002 
3325000000  -4.492984e+001  -9.729597e+001 
3328125000  -4.335294e+001  -1.002860e+002 
3331250000  -4.214077e+001  -9.775298e+001 
3334375000  -3.967081e+001  -1.132144e+002 
3337500000  -4.018560e+001  -1.329242e+002 
3340625000  -4.218625e+001  -1.426072e+002 
3343750000  -4.427786e+001  -1.413017e+002 
3346875000  -4.337401e+001  -1.417948e+002 
3350000000  -4.313202e+001  -1.447258e+002 
3353125000  -4.278757e+001  -1.517103e+002 
3356250000  -4.246016e+001  -1.613872e+002 
3359375000  -4.350875e+001  -1.721945e+002 
3362500000  -4.418698e+001  -1.774792e+002 
3365625000  -4.473387e+001  1.787790e+002 
3368750000  -4.550631e+001  1.753454e+002 
3371875000  -4.586621e+001  1.711400e+002 
3375000000  -4.762254e+001  1.678423e+002 
3378125000  -4.816918e+001  1.665544e+002 
3381250000  -4.938300e+001  1.776669e+002 
3384375000  -4.645955e+001  -1.675631e+002 
3387500000  -4.399137e+001  1.716368e+002 
3390625000  -4.603196e+001  1.505054e+002 
3393750000  -4.699318e+001  1.489492e+002 
3396875000  -4.590808e+001  1.474456e+002 
3400000000  -4.611306e+001  1.380789e+002 
3403125000  -4.667108e+001  1.320390e+002 
3406250000  -4.768854e+001  1.278705e+002 
3409375000  -4.816054e+001  1.240330e+002 
3412500000  -4.881691e+001  1.130042e+002 
3415625000  -5.001598e+001  1.146745e+002 
3418750000  -5.032043e+001  1.161661e+002 
3421875000  -5.130568e+001  1.193804e+002 
3425000000  -5.000201e+001  1.165001e+002 
3428125000  -5.052249e+001  1.109100e+002 
3431250000  -5.016971e+001  1.044196e+002 
3434375000  -5.085999e+001  1.028130e+002 
3437500000  -5.221276e+001  1.001321e+002 
3440625000  -5.154344e+001  1.038192e+002 
3443750000  -5.071523e+001  1.032983e+002 
3446875000  -5.006222e+001  9.975511e+001 
3450000000  -5.009329e+001  8.851813e+001 
3453125000  -5.064353e+001  7.833529e+001 
3456250000  -5.186620e+001  7.489435e+001 
3459375000  -5.335462e+001  8.393821e+001 
3462500000  -5.291216e+001  8.562695e+001 
3465625000  -5.130211e+001  7.714756e+001 
3468750000  -5.184956e+001  7.356090e+001 
3471875000  -5.233117e+001  7.424060e+001 
3475000000  -5.118782e+001  7.017746e+001 
3478125000  -5.065466e+001  5.593127e+001 
3481250000  -5.223660e+001  6.448257e+001 
3484375000  -5.223142e+001  6.371278e+001 
3487500000  -5.142093e+001  6.134659e+001 
3490625000  -5.072011e+001  4.946350e+001 
3493750000  -5.138836e+001  4.627850e+001 
3496875000  -5.172320e+001  4.574608e+001 
3500000000  -5.241072e+001  4.262647e+001 
3503125000  -5.061726e+001  4.819527e+001 
3506250000  -4.946161e+001  3.433261e+001 
3509375000  -4.916776e+001  2.486327e+001 
3512500000  -5.033057e+001  1.114176e+001 
3515625000  -5.118081e+001  4.427552e+000 
3518750000  -5.265682e+001  6.949195e+000 
3521875000  -5.267010e+001  9.838115e+000 
3525000000  -5.301279e+001  -5.774285e+000 
3528125000  -5.200900e+001  3.229434e+000 
3531250000  -5.135055e+001  -2.642380e+000 
3534375000  -5.266602e+001  -1.875632e+001 
3537500000  -5.396310e+001  -2.193970e+001 
3540625000  -5.476910e+001  -2.942401e+001 
3543750000  -5.702924e+001  -1.621110e+001 
3546875000  -5.541918e+001  -5.820087e+000 
3550000000  -5.366925e+001  -2.170794e+001 
3553125000  -5.450060e+001  -3.461621e+001 
3556250000  -5.467141e+001  -3.809647e+001 
3559375000  -5.612623e+001  -3.852546e+001 
3562500000  -5.605559e+001  -4.623231e+001 
3565625000  -5.731884e+001  -5.389966e+001 
3568750000  -5.615779e+001  -3.902378e+001 
3571875000  -5.888889e+001  -4.330126e+001 
3575000000  -5.751015e+001  -4.853815e+001 
3578125000  -5.768341e+001  -4.142569e+001 
3581250000  -5.832587e+001  -4.220072e+001 
3584375000  -5.758296e+001  -3.596214e+001 
3587500000  -5.675852e+001  -5.880479e+001 
3590625000  -5.726706e+001  -6.466032e+001 
3593750000  -5.959837e+001  -5.868359e+001 
3596875000  -6.097877e+001  -3.647468e+001 
3600000000  -5.753860e+001  -3.818320e+001 
3603125000  -5.754498e+001  -6.609492e+001 
3606250000  -5.914352e+001  -5.532034e+001 
3609375000  -6.025045e+001  -4.841907e+001 
3612500000  -5.788314e+001  -5.502696e+001 
3615625000  -5.951565e+001  -5.387723e+001 
3618750000  -5.884595e+001  -4.244511e+001 
3621875000  -5.737695e+001  -4.397892e+001 
3625000000  -5.845931e+001  -4.438057e+001 
3628125000  -5.616833e+001  -4.490756e+001 
3631250000  -5.648483e+001  -6.151155e+001 
3634375000  -5.771264e+001  -4.884347e+001 
3637500000  -5.624489e+001  -4.465494e+001 
3640625000  -5.422121e+001  -3.857041e+001 
3643750000  -5.355488e+001  -4.922748e+001 
3646875000  -5.340320e+001  -5.533610e+001 
3650000000  -5.295978e+001  -6.060081e+001 
3653125000  -5.210184e+001  -6.218080e+001 
3656250000  -5.212619e+001  -6.534126e+001 
3659375000  -5.135604e+001  -6.869197e+001 
3662500000  -5.045832e+001  -7.161032e+001 
3665625000  -5.003236e+001  -7.585960e+001 
3668750000  -4.811576e+001  -7.570636e+001 
3671875000  -4.719767e+001  -8.807455e+001 
3675000000  -4.759650e+001  -9.225780e+001 
3678125000  -4.726025e+001  -9.764432e+001 
3681250000  -4.642447e+001  -1.055002e+002 
3684375000  -4.670626e+001  -1.109455e+002 
3687500000  -4.642879e+001  -1.169898e+002 
3690625000  -4.661626e+001  -1.191720e+002 
3693750000  -4.675856e+001  -1.199121e+002 
3696875000  -4.624662e+001  -1.198761e+002 
3700000000  -4.477569e+001  -1.273890e+002 
3703125000  -4.536994e+001  -1.327366e+002 
3706250000  -4.561676e+001  -1.356734e+002 
3709375000  -4.472966e+001  -1.361475e+002 
3712500000  -4.339434e+001  -1.401287e+002 
3715625000  -4.161561e+001  -1.495730e+002 
3718750000  -4.181086e+001  -1.560609e+002 
3721875000  -4.112167e+001  -1.662675e+002 
3725000000  -4.161100e+001  -1.735183e+002 
3728125000  -4.174942e+001  -1.762991e+002 
3731250000  -4.068384e+001  1.768745e+002 
3734375000  -4.004244e+001  1.728219e+002 
3737500000  -4.084997e+001  1.614827e+002 
3740625000  -4.078630e+001  1.544297e+002 
3743750000  -4.031880e+001  1.502623e+002 
3746875000  -4.074199e+001  1.427872e+002 
3750000000  -4.094574e+001  1.371617e+002 
3753125000  -4.065978e+001  1.341613e+002 
3756250000  -4.078147e+001  1.331694e+002 
3759375000  -4.051427e+001  1.267054e+002 
3762500000  -4.031482e+001  1.196138e+002 
3765625000  -4.084619e+001  1.148684e+002 
3768750000  -3.999479e+001  1.143402e+002 
3771875000  -3.843505e+001  1.063025e+002 
3775000000  -3.849252e+001  9.668333e+001 
3778125000  -3.908027e+001  9.029057e+001 
3781250000  -3.894888e+001  8.527548e+001 
3784375000  -3.879067e+001  7.999387e+001 
3787500000  -3.867777e+001  7.444592e+001 
3790625000  -3.902026e+001  6.652124e+001 
3793750000  -3.915467e+001  6.305915e+001 
3796875000  -3.812928e+001  5.842133e+001 
3800000000  -3.634749e+001  5.289671e+001 
3803125000  -3.804574e+001  3.947471e+001 
3806250000  -3.903269e+001  3.508593e+001 
3809375000  -3.862567e+001  3.115425e+001 
3812500000  -3.875926e+001  2.153094e+001 
3815625000  -3.964156e+001  1.241601e+001 
3818750000  -4.068000e+001  1.615472e+001 
3821875000  -3.996583e+001  2.538146e+001 
3825000000  -3.831760e+001  2.054256e+001 
3828125000  -3.701004e+001  7.995753e-001 
3831250000  -3.821522e+001  -1.330516e+001 
3834375000  -4.030267e+001  -1.328985e+001 
3837500000  -4.098956e+001  -1.028751e+001 
3840625000  -3.884725e+001  -1.059305e+001 
3843750000  -3.836415e+001  -2.736131e+001 
3846875000  -3.992928e+001  -3.398238e+001 
3850000000  -4.066130e+001  -2.870557e+001 
3853125000  -3.967327e+001  -2.900933e+001 
3856250000  -3.922216e+001  -3.513056e+001 
3859375000  -3.842808e+001  -4.314437e+001 
3862500000  -3.846304e+001  -5.397737e+001 
3865625000  -3.896815e+001  -5.755561e+001 
3868750000  -3.869993e+001  -6.042879e+001 
3871875000  -3.787859e+001  -6.672712e+001 
3875000000  -3.855311e+001  -7.766949e+001 
3878125000  -3.945491e+001  -7.788054e+001 
3881250000  -3.916874e+001  -8.021059e+001 
3884375000  -3.863765e+001  -8.567824e+001 
3887500000  -3.901450e+001  -9.255106e+001 
3890625000  -3.939866e+001  -9.683087e+001 
3893750000  -3.970510e+001  -9.945982e+001 
3896875000  -4.026493e+001  -1.025573e+002 
3900000000  -4.006411e+001  -1.060431e+002 
3903125000  -3.938539e+001  -1.103287e+002 
3906250000  -3.877765e+001  -1.146817e+002 
3909375000  -3.821166e+001  -1.232180e+002 
3912500000  -3.893744e+001  -1.325339e+002 
3915625000  -4.032109e+001  -1.316119e+002 
3918750000  -4.022660e+001  -1.323095e+002 
3921875000  -3.935870e+001  -1.377018e+002 
3925000000  -3.845572e+001  -1.434324e+002 
3928125000  -3.810437e+001  -1.527234e+002 
3931250000  -3.913784e+001  -1.598034e+002 
3934375000  -3.949623e+001  -1.596042e+002 
3937500000  -3.999908e+001  -1.643653e+002 
3940625000  -3.993467e+001  -1.637301e+002 
3943750000  -3.878810e+001  -1.686445e+002 
3946875000  -3.850460e+001  -1.768558e+002 
3950000000  -3.943440e+001  1.749881e+002 
3953125000  -4.012717e+001  1.759612e+002 
3956250000  -3.905935e+001  1.750962e+002 
3959375000  -3.789604e+001  1.701077e+002 
3962500000  -3.775185e+001  1.589926e+002 
3965625000  -3.806259e+001  1.499038e+002 
3968750000  -3.872621e+001  1.422297e+002 
3971875000  -3.865379e+001  1.363924e+002 
3975000000  -3.835533e+001  1.330028e+002 
3978125000  -3.841407e+001  1.295948e+002 
3981250000  -3.852035e+001  1.222688e+002 
3984375000  -3.881977e+001  1.153482e+002 
3987500000  -3.970890e+001  1.126773e+002 
3990625000  -3.984740e+001  1.097790e+002 
3993750000  -3.980905e+001  1.054849e+002 
3996875000  -3.980302e+001  9.976265e+001 
4000000000  -4.062638e+001  9.557938e+001 
4003125000  -4.108120e+001  9.661485e+001 
4006250000  -3.919915e+001  9.607195e+001 
4009375000  -3.864841e+001  8.148022e+001 
4012500000  -4.019622e+001  7.320570e+001 
4015625000  -4.150687e+001  7.276600e+001 
4018750000  -4.123319e+001  7.505911e+001 
4021875000  -4.059489e+001  7.003772e+001 
4025000000  -4.041800e+001  6.221699e+001 
4028125000  -4.071198e+001  5.572448e+001 
4031250000  -4.134105e+001  5.218964e+001 
4034375000  -4.123974e+001  5.281349e+001 
4037500000  -4.117019e+001  5.282558e+001 
4040625000  -4.081371e+001  4.833495e+001 
4043750000  -4.093772e+001  4.667076e+001 
4046875000  -4.063649e+001  4.102473e+001 
4050000000  -4.066846e+001  3.490456e+001 
4053125000  -4.114134e+001  3.340945e+001 
4056250000  -4.121026e+001  3.949829e+001 
4059375000  -3.907330e+001  3.605031e+001 
4062500000  -3.888447e+001  2.747133e+001 
4065625000  -3.912218e+001  2.195917e+001 
4068750000  -3.820971e+001  1.471271e+001 
4071875000  -3.776287e+001  5.507808e+000 
4075000000  -3.842263e+001  -2.003157e+000 
4078125000  -3.875172e+001  -5.551352e+000 
4081250000  -3.837915e+001  -1.097500e+001 
4084375000  -3.813363e+001  -1.989466e+001 
4087500000  -3.870847e+001  -2.668961e+001 
4090625000  -3.932195e+001  -2.900072e+001 
4093750000  -3.862236e+001  -3.082102e+001 
4096875000  -3.866872e+001  -4.130460e+001 
4100000000  -3.991249e+001  -4.776552e+001 
4103125000  -4.071872e+001  -4.428976e+001 
4106250000  -3.971905e+001  -4.366426e+001 
4109375000  -3.923600e+001  -4.766709e+001 
4112500000  -3.877504e+001  -5.603149e+001 
4115625000  -3.939050e+001  -6.218365e+001 
4118750000  -3.896262e+001  -6.642699e+001 
4121875000  -3.884290e+001  -7.672640e+001 
4125000000  -3.985367e+001  -8.105543e+001 
4128125000  -4.106974e+001  -7.651311e+001 
4131250000  -3.988525e+001  -7.505221e+001 
4134375000  -3.777679e+001  -8.469539e+001 
4137500000  -3.827428e+001  -1.052083e+002 
4140625000  -4.044632e+001  -1.097784e+002 
4143750000  -4.125230e+001  -1.037113e+002 
4146875000  -4.033288e+001  -9.937808e+001 
4150000000  -3.961077e+001  -1.085272e+002 
4153125000  -3.996391e+001  -1.182258e+002 
4156250000  -4.125496e+001  -1.201823e+002 
4159375000  -4.110045e+001  -1.150918e+002 
4162500000  -4.022989e+001  -1.126338e+002 
4165625000  -3.878367e+001  -1.202850e+002 
4168750000  -3.837534e+001  -1.303505e+002 
4171875000  -3.836737e+001  -1.417946e+002 
4175000000  -3.923046e+001  -1.480944e+002 
4178125000  -3.949025e+001  -1.474021e+002 
4181250000  -3.916408e+001  -1.501627e+002 
4184375000  -3.944892e+001  -1.569647e+002 
4187500000  -3.946716e+001  -1.619501e+002 
4190625000  -3.965965e+001  -1.691924e+002 
4193750000  -4.070244e+001  -1.746142e+002 
4196875000  -4.147673e+001  -1.773296e+002 
4200000000  -4.247015e+001  -1.682320e+002 
4203125000  -4.086197e+001  -1.568297e+002 
4206250000  -3.712919e+001  -1.669033e+002 
4209375000  -3.743728e+001  1.703883e+002 
4212500000  -3.982491e+001  1.627336e+002 
4215625000  -4.005724e+001  1.712319e+002 
4218750000  -3.796892e+001  1.725381e+002 
4221875000  -3.687295e+001  1.621818e+002 
4225000000  -3.806260e+001  1.513602e+002 
4228125000  -3.784860e+001  1.513185e+002 
4231250000  -3.616806e+001  1.437191e+002 
4234375000  -3.637213e+001  1.338225e+002 
4237500000  -3.622754e+001  1.283839e+002 
4240625000  -3.635184e+001  1.160380e+002 
4243750000  -3.737885e+001  1.089146e+002 
4246875000  -3.843808e+001  1.082582e+002 
4250000000  -3.839121e+001  1.084729e+002 
4253125000  -3.812189e+001  1.032568e+002 
4256250000  -3.834647e+001  9.894292e+001 
4259375000  -3.782266e+001  9.294824e+001 
4262500000  -3.799631e+001  8.879198e+001 
4265625000  -3.794291e+001  8.680891e+001 
4268750000  -3.666375e+001  7.944527e+001 
4271875000  -3.685934e+001  7.231440e+001 
4275000000  -3.658414e+001  6.174415e+001 
4278125000  -3.768546e+001  5.153929e+001 
4281250000  -3.882143e+001  5.044196e+001 
4284375000  -3.908758e+001  4.719205e+001 
4287500000  -4.066085e+001  4.323033e+001 
4290625000  -4.045374e+001  5.261332e+001 
4293750000  -3.854140e+001  5.220823e+001 
4296875000  -3.764761e+001  3.907589e+001 
4300000000  -3.923895e+001  2.726625e+001 
4303125000  -3.978046e+001  3.168014e+001 
4306250000  -3.858702e+001  3.539877e+001 
4309375000  -3.766124e+001  2.923709e+001 
4312500000  -3.760089e+001  1.686403e+001 
4315625000  -3.798195e+001  8.232316e+000 
4318750000  -3.859417e+001  6.263319e+000 
4321875000  -3.871515e+001  8.033389e+000 
4325000000  -3.781968e+001  5.216606e+000 
4328125000  -3.714223e+001  -5.426289e+000 
4331250000  -3.744792e+001  -1.494358e+001 
4334375000  -3.851582e+001  -2.146309e+001 
4337500000  -3.961420e+001  -2.171809e+001 
4340625000  -3.966120e+001  -1.833765e+001 
4343750000  -3.844186e+001  -1.942978e+001 
4346875000  -3.830860e+001  -2.999447e+001 
4350000000  -3.843626e+001  -3.777895e+001 
4353125000  -3.921737e+001  -4.563339e+001 
4356250000  -4.122189e+001  -3.976908e+001 
4359375000  -3.979011e+001  -2.622149e+001 
4362500000  -3.644338e+001  -3.620573e+001 
4365625000  -3.586195e+001  -5.432500e+001 
4368750000  -3.720804e+001  -6.173282e+001 
4371875000  -3.805038e+001  -6.249077e+001 
4375000000  -3.725342e+001  -6.673762e+001 
4378125000  -3.683289e+001  -7.489893e+001 
4381250000  -3.724047e+001  -8.321893e+001 
4384375000  -3.714748e+001  -9.001278e+001 
4387500000  -3.813040e+001  -9.621368e+001 
4390625000  -3.856636e+001  -9.665291e+001 
4393750000  -3.808229e+001  -9.457883e+001 
4396875000  -3.733317e+001  -1.008958e+002 
4400000000  -3.690668e+001  -1.108662e+002 
4403125000  -3.780451e+001  -1.183422e+002 
4406250000  -3.824860e+001  -1.229237e+002 
4409375000  -3.857104e+001  -1.278639e+002 
4412500000  -3.978525e+001  -1.289351e+002 
4415625000  -3.938234e+001  -1.254211e+002 
