!Agilent Technologies,E8363B,MY43030201,A.06.04.32
!Agilent E8363B: A.06.04.32
!Date: Tuesday, November 11, 2014 21:27:11
!Correction: S21(Response(S21)) 
!S1P File: Measurement: S21:
# Hz S  dB   R 50
3000000000  -4.058256e+001  9.312347e+001 
3003125000  -4.211348e+001  8.621367e+001 
3006250000  -4.213317e+001  8.373421e+001 
3009375000  -4.288581e+001  8.734111e+001 
3012500000  -4.171712e+001  8.571494e+001 
3015625000  -4.124794e+001  7.751669e+001 
3018750000  -4.193596e+001  7.926855e+001 
3021875000  -4.038214e+001  7.918736e+001 
3025000000  -3.904363e+001  7.471256e+001 
3028125000  -3.801258e+001  6.604048e+001 
3031250000  -3.701927e+001  5.424690e+001 
3034375000  -3.681032e+001  4.053274e+001 
3037500000  -3.734322e+001  2.942768e+001 
3040625000  -3.864075e+001  2.468320e+001 
3043750000  -3.928293e+001  1.703749e+001 
3046875000  -3.960878e+001  1.136629e+001 
3050000000  -4.095942e+001  5.808066e+000 
3053125000  -4.074159e+001  1.009248e+001 
3056250000  -4.046453e+001  1.351838e+001 
3059375000  -3.986021e+001  1.223884e+001 
3062500000  -3.833979e+001  7.159122e+000 
3065625000  -3.788071e+001  -1.995491e+000 
3068750000  -3.764264e+001  -9.983318e+000 
3071875000  -3.774623e+001  -1.289688e+001 
3075000000  -3.725961e+001  -1.877074e+001 
3078125000  -3.706774e+001  -2.581832e+001 
3081250000  -3.729842e+001  -3.055809e+001 
3084375000  -3.636262e+001  -3.532742e+001 
3087500000  -3.651753e+001  -4.259173e+001 
3090625000  -3.597819e+001  -5.357918e+001 
3093750000  -3.675879e+001  -6.259849e+001 
3096875000  -3.740235e+001  -6.872852e+001 
3100000000  -3.716014e+001  -7.178488e+001 
3103125000  -3.760717e+001  -7.423907e+001 
3106250000  -3.717144e+001  -7.950407e+001 
3109375000  -3.717262e+001  -8.440501e+001 
3112500000  -3.720381e+001  -8.911773e+001 
3115625000  -3.708929e+001  -9.365973e+001 
3118750000  -3.735175e+001  -9.569933e+001 
3121875000  -3.653183e+001  -1.074108e+002 
3125000000  -3.826476e+001  -1.117405e+002 
3128125000  -3.865841e+001  -1.048525e+002 
3131250000  -3.619951e+001  -1.095003e+002 
3134375000  -3.534832e+001  -1.256425e+002 
3137500000  -3.621914e+001  -1.398928e+002 
3140625000  -3.723363e+001  -1.417857e+002 
3143750000  -3.816544e+001  -1.434622e+002 
3146875000  -3.784414e+001  -1.425648e+002 
3150000000  -3.709269e+001  -1.456948e+002 
3153125000  -3.709633e+001  -1.545470e+002 
3156250000  -3.805882e+001  -1.511180e+002 
3159375000  -3.597536e+001  -1.513358e+002 
3162500000  -3.435728e+001  -1.666453e+002 
3165625000  -3.541843e+001  1.787864e+002 
3168750000  -3.559671e+001  1.785322e+002 
3171875000  -3.479480e+001  1.723131e+002 
3175000000  -3.554137e+001  1.624764e+002 
3178125000  -3.512924e+001  1.616638e+002 
3181250000  -3.453526e+001  1.534537e+002 
3184375000  -3.402197e+001  1.417127e+002 
3187500000  -3.539103e+001  1.266875e+002 
3190625000  -3.738625e+001  1.194442e+002 
3193750000  -3.753316e+001  1.254392e+002 
3196875000  -3.742477e+001  1.269280e+002 
3200000000  -3.645361e+001  1.224817e+002 
3203125000  -3.584439e+001  1.141158e+002 
3206250000  -3.624149e+001  1.061608e+002 
3209375000  -3.581860e+001  9.910249e+001 
3212500000  -3.627319e+001  9.123910e+001 
3215625000  -3.607828e+001  8.781203e+001 
3218750000  -3.684169e+001  7.715289e+001 
3221875000  -3.742370e+001  7.035854e+001 
3225000000  -3.715326e+001  6.636900e+001 
3228125000  -3.775032e+001  6.041699e+001 
3231250000  -3.833772e+001  5.696046e+001 
3234375000  -3.801073e+001  5.464260e+001 
3237500000  -3.813913e+001  5.033034e+001 
3240625000  -3.772424e+001  4.501039e+001 
3243750000  -3.780181e+001  3.592141e+001 
3246875000  -3.828794e+001  2.781014e+001 
3250000000  -3.878455e+001  2.337446e+001 
3253125000  -3.895153e+001  2.055815e+001 
3256250000  -3.869621e+001  1.267092e+001 
3259375000  -3.921959e+001  2.264889e+000 
3262500000  -4.071882e+001  -1.830666e+000 
3265625000  -4.087899e+001  1.833970e+000 
3268750000  -4.128605e+001  5.664022e-001 
3271875000  -4.074437e+001  -1.745337e+000 
3275000000  -4.013343e+001  -8.242118e+000 
3278125000  -4.077535e+001  -1.373678e+001 
3281250000  -4.102589e+001  -1.605712e+001 
3284375000  -4.048681e+001  -2.068967e+001 
3287500000  -4.091224e+001  -2.550193e+001 
3290625000  -4.131230e+001  -3.306076e+001 
3293750000  -4.125095e+001  -4.020834e+001 
3296875000  -4.225639e+001  -3.928574e+001 
3300000000  -4.194600e+001  -4.174833e+001 
3303125000  -4.102961e+001  -4.727155e+001 
3306250000  -4.080848e+001  -5.522290e+001 
3309375000  -4.044973e+001  -6.231874e+001 
3312500000  -4.074610e+001  -7.329451e+001 
3315625000  -4.198317e+001  -8.007404e+001 
3318750000  -4.308760e+001  -8.330689e+001 
3321875000  -4.473709e+001  -8.381336e+001 
3325000000  -4.452115e+001  -7.711748e+001 
3328125000  -4.401016e+001  -7.536688e+001 
3331250000  -4.246843e+001  -7.164210e+001 
3334375000  -3.975774e+001  -8.711465e+001 
3337500000  -4.059789e+001  -1.079958e+002 
3340625000  -4.214240e+001  -1.179030e+002 
3343750000  -4.392736e+001  -1.178110e+002 
3346875000  -4.377372e+001  -1.180363e+002 
3350000000  -4.312584e+001  -1.186999e+002 
3353125000  -4.302672e+001  -1.256766e+002 
3356250000  -4.245844e+001  -1.357834e+002 
3359375000  -4.339980e+001  -1.461197e+002 
3362500000  -4.423693e+001  -1.503441e+002 
3365625000  -4.493740e+001  -1.547969e+002 
3368750000  -4.533187e+001  -1.583194e+002 
3371875000  -4.583861e+001  -1.643184e+002 
3375000000  -4.703310e+001  -1.671256e+002 
3378125000  -4.773411e+001  -1.696547e+002 
3381250000  -4.954062e+001  -1.601384e+002 
3384375000  -4.697269e+001  -1.444864e+002 
3387500000  -4.360671e+001  -1.655066e+002 
3390625000  -4.580022e+001  1.754584e+002 
3393750000  -4.743259e+001  1.767264e+002 
3396875000  -4.570544e+001  1.772261e+002 
3400000000  -4.568817e+001  1.616738e+002 
3403125000  -4.694390e+001  1.573142e+002 
3406250000  -4.745658e+001  1.551466e+002 
3409375000  -4.750377e+001  1.483437e+002 
3412500000  -4.853424e+001  1.398202e+002 
3415625000  -5.019287e+001  1.374079e+002 
3418750000  -5.035641e+001  1.391246e+002 
3421875000  -5.164414e+001  1.468702e+002 
3425000000  -4.998192e+001  1.409350e+002 
3428125000  -5.000013e+001  1.400093e+002 
3431250000  -4.957081e+001  1.276258e+002 
3434375000  -5.093352e+001  1.289357e+002 
3437500000  -5.130078e+001  1.256295e+002 
3440625000  -5.271296e+001  1.297501e+002 
3443750000  -5.093485e+001  1.309987e+002 
3446875000  -5.003190e+001  1.222863e+002 
3450000000  -4.987906e+001  1.112234e+002 
3453125000  -5.111118e+001  1.101356e+002 
3456250000  -5.165678e+001  1.088615e+002 
3459375000  -5.370063e+001  1.039616e+002 
3462500000  -5.220696e+001  1.074723e+002 
3465625000  -5.110914e+001  1.017745e+002 
3468750000  -5.233173e+001  9.902724e+001 
3471875000  -5.226719e+001  1.008099e+002 
3475000000  -5.092608e+001  9.940050e+001 
3478125000  -5.103325e+001  8.884934e+001 
3481250000  -5.278028e+001  8.821015e+001 
3484375000  -5.297457e+001  8.911732e+001 
3487500000  -5.128350e+001  8.658044e+001 
3490625000  -5.030013e+001  7.723132e+001 
3493750000  -5.135270e+001  7.052926e+001 
3496875000  -5.103698e+001  7.110163e+001 
3500000000  -5.170623e+001  6.918510e+001 
3503125000  -5.060723e+001  6.863223e+001 
3506250000  -4.920451e+001  6.084383e+001 
3509375000  -4.982747e+001  5.202374e+001 
3512500000  -4.962995e+001  3.547355e+001 
3515625000  -5.074483e+001  2.941487e+001 
3518750000  -5.175937e+001  3.813203e+001 
3521875000  -5.168700e+001  2.701281e+001 
3525000000  -5.357491e+001  1.840680e+001 
3528125000  -5.365704e+001  3.196735e+001 
3531250000  -5.075679e+001  2.233767e+001 
3534375000  -5.246090e+001  1.233436e+001 
3537500000  -5.269930e+001  3.661743e+000 
3540625000  -5.312968e+001  -5.977757e+000 
3543750000  -5.570473e+001  2.329313e+000 
3546875000  -5.512007e+001  8.515224e+000 
3550000000  -5.268521e+001  1.208156e+001 
3553125000  -5.281347e+001  -1.176584e+001 
3556250000  -5.509726e+001  -1.425762e+001 
3559375000  -5.525274e+001  -1.377776e+001 
3562500000  -5.617456e+001  -1.972950e+001 
3565625000  -5.580394e+001  -3.057727e+001 
3568750000  -5.673296e+001  -2.156172e+001 
3571875000  -5.952865e+001  -7.401289e+000 
3575000000  -5.784141e+001  -2.670547e+001 
3578125000  -5.755796e+001  -3.067375e+001 
3581250000  -5.821785e+001  -1.871486e+001 
3584375000  -5.752387e+001  -4.569949e+000 
3587500000  -5.682988e+001  -2.491828e+001 
3590625000  -5.806475e+001  -4.077647e+001 
3593750000  -5.894416e+001  -1.778705e+001 
3596875000  -5.815998e+001  -1.825501e+001 
3600000000  -5.741282e+001  -9.506096e+000 
3603125000  -5.696033e+001  -2.710310e+001 
3606250000  -5.699474e+001  -2.721346e+001 
3609375000  -5.833216e+001  -1.560830e+001 
3612500000  -5.859388e+001  -2.688280e+001 
3615625000  -5.821376e+001  -4.222965e+001 
3618750000  -5.985954e+001  -2.448513e+001 
3621875000  -5.873500e+001  -3.024728e+001 
3625000000  -5.818828e+001  -2.230792e+001 
3628125000  -5.633142e+001  -1.719918e+001 
3631250000  -5.707282e+001  -3.652944e+001 
3634375000  -5.770935e+001  -1.867308e+001 
3637500000  -5.571490e+001  -2.682512e+001 
3640625000  -5.508134e+001  -1.684807e+001 
3643750000  -5.360754e+001  -2.530366e+001 
3646875000  -5.390578e+001  -3.855750e+001 
3650000000  -5.284265e+001  -4.127924e+001 
3653125000  -5.256524e+001  -3.292981e+001 
3656250000  -5.289473e+001  -4.318594e+001 
3659375000  -5.192595e+001  -4.558679e+001 
3662500000  -5.137025e+001  -4.898862e+001 
3665625000  -5.020743e+001  -4.838261e+001 
3668750000  -4.857485e+001  -5.238472e+001 
3671875000  -4.786251e+001  -5.741901e+001 
3675000000  -4.798944e+001  -6.790247e+001 
3678125000  -4.756187e+001  -7.144740e+001 
3681250000  -4.692020e+001  -7.983934e+001 
3684375000  -4.691999e+001  -8.004185e+001 
3687500000  -4.691362e+001  -8.638649e+001 
3690625000  -4.666240e+001  -9.421325e+001 
3693750000  -4.725409e+001  -9.612835e+001 
3696875000  -4.648761e+001  -9.369839e+001 
3700000000  -4.560851e+001  -1.012320e+002 
3703125000  -4.529924e+001  -1.091531e+002 
3706250000  -4.610035e+001  -1.094170e+002 
3709375000  -4.511072e+001  -1.057984e+002 
3712500000  -4.376769e+001  -1.117476e+002 
3715625000  -4.235253e+001  -1.227548e+002 
3718750000  -4.192148e+001  -1.285284e+002 
3721875000  -4.178109e+001  -1.375640e+002 
3725000000  -4.202431e+001  -1.447469e+002 
3728125000  -4.156771e+001  -1.477878e+002 
3731250000  -4.061863e+001  -1.553546e+002 
3734375000  -3.999883e+001  -1.603780e+002 
3737500000  -4.105708e+001  -1.686477e+002 
3740625000  -4.086636e+001  -1.750636e+002 
3743750000  -4.055977e+001  1.770017e+002 
3746875000  -4.061919e+001  1.699124e+002 
3750000000  -4.115410e+001  1.667342e+002 
3753125000  -4.068567e+001  1.627004e+002 
3756250000  -4.084002e+001  1.591843e+002 
3759375000  -4.064104e+001  1.548596e+002 
3762500000  -4.026217e+001  1.474513e+002 
3765625000  -4.096734e+001  1.429965e+002 
3768750000  -4.028651e+001  1.425520e+002 
3771875000  -3.874263e+001  1.353676e+002 
3775000000  -3.885287e+001  1.246410e+002 
3778125000  -3.892420e+001  1.178782e+002 
3781250000  -3.900304e+001  1.136633e+002 
3784375000  -3.891850e+001  1.080263e+002 
3787500000  -3.868446e+001  1.028716e+002 
3790625000  -3.924830e+001  9.197019e+001 
3793750000  -3.919612e+001  8.887083e+001 
3796875000  -3.844003e+001  8.556463e+001 
3800000000  -3.646051e+001  8.070311e+001 
3803125000  -3.795753e+001  6.808305e+001 
3806250000  -3.893960e+001  6.237388e+001 
3809375000  -3.885308e+001  5.880023e+001 
3812500000  -3.851880e+001  5.067535e+001 
3815625000  -3.967347e+001  4.019632e+001 
3818750000  -4.075430e+001  4.302904e+001 
3821875000  -4.018980e+001  5.033072e+001 
3825000000  -3.858308e+001  4.709232e+001 
3828125000  -3.706380e+001  2.982722e+001 
3831250000  -3.797545e+001  1.484358e+001 
3834375000  -4.029475e+001  1.196958e+001 
3837500000  -4.066890e+001  1.811003e+001 
3840625000  -3.931266e+001  1.582277e+001 
3843750000  -3.846256e+001  1.432896e+000 
3846875000  -3.967238e+001  -7.249132e+000 
3850000000  -4.085045e+001  -8.526047e-001 
3853125000  -4.019197e+001  -1.230582e+000 
3856250000  -3.963057e+001  -7.285236e+000 
3859375000  -3.888911e+001  -1.297270e+001 
3862500000  -3.865192e+001  -2.402299e+001 
3865625000  -3.936230e+001  -2.901624e+001 
3868750000  -3.882266e+001  -2.975358e+001 
3871875000  -3.816818e+001  -3.921932e+001 
3875000000  -3.836012e+001  -4.699985e+001 
3878125000  -3.964919e+001  -5.180694e+001 
3881250000  -3.932600e+001  -5.136160e+001 
3884375000  -3.880407e+001  -5.621728e+001 
3887500000  -3.905985e+001  -6.222538e+001 
3890625000  -3.951085e+001  -6.849774e+001 
3893750000  -3.948096e+001  -7.097323e+001 
3896875000  -3.976073e+001  -7.300946e+001 
3900000000  -3.992231e+001  -7.676714e+001 
3903125000  -3.940988e+001  -8.179759e+001 
3906250000  -3.904076e+001  -8.412083e+001 
3909375000  -3.833941e+001  -9.226077e+001 
3912500000  -3.894940e+001  -1.018476e+002 
3915625000  -4.056897e+001  -1.034217e+002 
3918750000  -4.010827e+001  -1.052772e+002 
3921875000  -3.944524e+001  -1.087695e+002 
3925000000  -3.841013e+001  -1.136162e+002 
3928125000  -3.826279e+001  -1.222238e+002 
3931250000  -3.899876e+001  -1.284591e+002 
3934375000  -3.912402e+001  -1.306503e+002 
3937500000  -3.974158e+001  -1.344539e+002 
3940625000  -4.025407e+001  -1.372008e+002 
3943750000  -3.895809e+001  -1.373581e+002 
3946875000  -3.827513e+001  -1.481622e+002 
3950000000  -3.924767e+001  -1.570475e+002 
3953125000  -4.002093e+001  -1.555065e+002 
3956250000  -3.882127e+001  -1.555673e+002 
3959375000  -3.792416e+001  -1.616422e+002 
3962500000  -3.779471e+001  -1.695654e+002 
3965625000  -3.773727e+001  -1.796594e+002 
3968750000  -3.857300e+001  1.704132e+002 
3971875000  -3.864705e+001  1.679541e+002 
3975000000  -3.817930e+001  1.626508e+002 
3978125000  -3.855091e+001  1.603623e+002 
3981250000  -3.864943e+001  1.533559e+002 
3984375000  -3.884375e+001  1.463712e+002 
3987500000  -3.951365e+001  1.424659e+002 
3990625000  -3.988254e+001  1.397176e+002 
3993750000  -3.985162e+001  1.345506e+002 
3996875000  -3.986810e+001  1.309185e+002 
4000000000  -4.065626e+001  1.271263e+002 
4003125000  -4.119616e+001  1.293041e+002 
4006250000  -3.936321e+001  1.265728e+002 
4009375000  -3.853834e+001  1.116090e+002 
4012500000  -4.006811e+001  1.032035e+002 
4015625000  -4.114299e+001  1.010067e+002 
4018750000  -4.127824e+001  1.050320e+002 
4021875000  -4.071643e+001  1.019885e+002 
4025000000  -4.009129e+001  9.489881e+001 
4028125000  -4.036491e+001  8.789188e+001 
4031250000  -4.082333e+001  8.316894e+001 
4034375000  -4.123296e+001  8.391420e+001 
4037500000  -4.094354e+001  8.429202e+001 
4040625000  -4.091844e+001  8.058815e+001 
4043750000  -4.106941e+001  7.731844e+001 
4046875000  -4.067673e+001  7.330316e+001 
4050000000  -4.069263e+001  6.697614e+001 
4053125000  -4.114017e+001  6.431339e+001 
4056250000  -4.121682e+001  6.761558e+001 
4059375000  -3.934400e+001  6.641866e+001 
4062500000  -3.874378e+001  5.867310e+001 
4065625000  -3.867173e+001  5.376085e+001 
4068750000  -3.803463e+001  4.656321e+001 
4071875000  -3.755648e+001  3.668056e+001 
4075000000  -3.813891e+001  2.772026e+001 
4078125000  -3.840036e+001  2.559503e+001 
4081250000  -3.807204e+001  2.133927e+001 
4084375000  -3.767381e+001  1.290840e+001 
4087500000  -3.839085e+001  3.599838e+000 
4090625000  -3.884143e+001  2.319779e+000 
4093750000  -3.844033e+001  6.009510e-001 
4096875000  -3.841430e+001  -9.368509e+000 
4100000000  -3.916291e+001  -1.829611e+001 
4103125000  -4.031927e+001  -1.633838e+001 
4106250000  -3.958311e+001  -1.059916e+001 
4109375000  -3.876447e+001  -1.491725e+001 
4112500000  -3.826886e+001  -2.568476e+001 
4115625000  -3.901852e+001  -3.221298e+001 
4118750000  -3.869574e+001  -3.613195e+001 
4121875000  -3.871884e+001  -4.425874e+001 
4125000000  -3.944350e+001  -5.077070e+001 
4128125000  -4.057402e+001  -4.796760e+001 
4131250000  -3.980965e+001  -4.234570e+001 
4134375000  -3.735777e+001  -5.083079e+001 
4137500000  -3.779953e+001  -7.223996e+001 
4140625000  -4.001429e+001  -8.100391e+001 
4143750000  -4.148025e+001  -7.383447e+001 
4146875000  -4.044115e+001  -7.022387e+001 
4150000000  -3.925360e+001  -7.552769e+001 
4153125000  -3.955148e+001  -8.694983e+001 
4156250000  -4.074826e+001  -8.975616e+001 
4159375000  -4.037542e+001  -8.495675e+001 
4162500000  -3.930719e+001  -8.278968e+001 
4165625000  -3.850571e+001  -9.048871e+001 
4168750000  -3.773076e+001  -9.870504e+001 
4171875000  -3.798691e+001  -1.087774e+002 
4175000000  -3.870343e+001  -1.159578e+002 
4178125000  -3.924488e+001  -1.179181e+002 
4181250000  -3.894566e+001  -1.208384e+002 
4184375000  -3.906863e+001  -1.245962e+002 
4187500000  -3.894851e+001  -1.290036e+002 
4190625000  -3.907913e+001  -1.369653e+002 
4193750000  -4.009852e+001  -1.435588e+002 
4196875000  -4.091641e+001  -1.452355e+002 
4200000000  -4.174949e+001  -1.397391e+002 
4203125000  -4.085083e+001  -1.272753e+002 
4206250000  -3.720289e+001  -1.337349e+002 
4209375000  -3.676050e+001  -1.570841e+002 
4212500000  -3.892412e+001  -1.653929e+002 
4215625000  -3.947578e+001  -1.570142e+002 
4218750000  -3.803263e+001  -1.563711e+002 
4221875000  -3.603680e+001  -1.661213e+002 
4225000000  -3.712915e+001  -1.794120e+002 
4228125000  -3.744369e+001  -1.781162e+002 
4231250000  -3.607066e+001  1.752829e+002 
4234375000  -3.614305e+001  1.642499e+002 
4237500000  -3.579381e+001  1.579518e+002 
4240625000  -3.594195e+001  1.465095e+002 
4243750000  -3.701570e+001  1.402037e+002 
4246875000  -3.780467e+001  1.403205e+002 
4250000000  -3.775781e+001  1.395770e+002 
4253125000  -3.753409e+001  1.361155e+002 
4256250000  -3.760357e+001  1.310726e+002 
4259375000  -3.711742e+001  1.275799e+002 
4262500000  -3.710749e+001  1.194951e+002 
4265625000  -3.751022e+001  1.182426e+002 
4268750000  -3.653570e+001  1.104835e+002 
4271875000  -3.628006e+001  1.038103e+002 
4275000000  -3.572725e+001  9.431945e+001 
4278125000  -3.701963e+001  8.126357e+001 
4281250000  -3.847081e+001  7.949208e+001 
4284375000  -3.813875e+001  7.713202e+001 
4287500000  -3.967316e+001  7.239941e+001 
4290625000  -4.055450e+001  8.387835e+001 
4293750000  -3.857797e+001  8.227068e+001 
4296875000  -3.712857e+001  7.048968e+001 
4300000000  -3.842229e+001  6.040433e+001 
4303125000  -3.914829e+001  6.317166e+001 
4306250000  -3.800930e+001  6.482551e+001 
4309375000  -3.713373e+001  5.962193e+001 
4312500000  -3.733052e+001  4.816751e+001 
4315625000  -3.730968e+001  4.058255e+001 
4318750000  -3.804108e+001  3.610907e+001 
4321875000  -3.818713e+001  3.562603e+001 
4325000000  -3.758150e+001  3.505449e+001 
4328125000  -3.670224e+001  2.543740e+001 
4331250000  -3.703362e+001  1.459385e+001 
4334375000  -3.748585e+001  8.587259e+000 
4337500000  -3.845336e+001  8.442805e+000 
4340625000  -3.897479e+001  1.265744e+001 
4343750000  -3.808723e+001  8.462081e+000 
4346875000  -3.797301e+001  6.732230e-001 
4350000000  -3.785940e+001  -6.998706e+000 
4353125000  -3.810257e+001  -1.483662e+001 
4356250000  -4.036378e+001  -1.316732e+001 
4359375000  -3.961149e+001  -1.563168e+000 
4362500000  -3.655372e+001  -5.780377e+000 
4365625000  -3.560777e+001  -2.310892e+001 
4368750000  -3.701337e+001  -3.174323e+001 
4371875000  -3.733076e+001  -3.456854e+001 
4375000000  -3.687619e+001  -3.672125e+001 
4378125000  -3.620479e+001  -4.451281e+001 
4381250000  -3.661259e+001  -5.166040e+001 
4384375000  -3.654086e+001  -5.778988e+001 
4387500000  -3.743028e+001  -6.593064e+001 
4390625000  -3.800010e+001  -6.558901e+001 
4393750000  -3.738477e+001  -6.519439e+001 
4396875000  -3.675299e+001  -6.907468e+001 
4400000000  -3.646344e+001  -8.002145e+001 
4403125000  -3.723392e+001  -9.104638e+001 
4406250000  -3.760726e+001  -9.447118e+001 
4409375000  -3.809078e+001  -9.843396e+001 
4412500000  -3.914405e+001  -1.010578e+002 
4415625000  -3.883996e+001  -9.710155e+001 
