!Agilent Technologies,E8363B,MY43030201,A.06.04.32
!Agilent E8363B: A.06.04.32
!Date: Tuesday, November 11, 2014 21:26:56
!Correction: S21(Response(S21)) 
!S1P File: Measurement: S21:
# Hz S  dB   R 50
3000000000  -4.056998e+001  9.443576e+001 
3003125000  -4.216564e+001  8.661284e+001 
3006250000  -4.205109e+001  8.568031e+001 
3009375000  -4.264764e+001  9.055748e+001 
3012500000  -4.179686e+001  8.647900e+001 
3015625000  -4.115402e+001  7.876330e+001 
3018750000  -4.190278e+001  7.932269e+001 
3021875000  -4.057498e+001  8.208181e+001 
3025000000  -3.907133e+001  7.593164e+001 
3028125000  -3.807505e+001  6.737026e+001 
3031250000  -3.711323e+001  5.487691e+001 
3034375000  -3.681546e+001  4.090574e+001 
3037500000  -3.755421e+001  2.996554e+001 
3040625000  -3.869596e+001  2.506238e+001 
3043750000  -3.912101e+001  1.913006e+001 
3046875000  -3.949345e+001  1.266386e+001 
3050000000  -4.091996e+001  6.974626e+000 
3053125000  -4.079819e+001  1.054210e+001 
3056250000  -4.027981e+001  1.624780e+001 
3059375000  -3.992567e+001  1.324180e+001 
3062500000  -3.836362e+001  7.577143e+000 
3065625000  -3.805030e+001  -1.790822e+000 
3068750000  -3.767075e+001  -8.753545e+000 
3071875000  -3.762195e+001  -1.101173e+001 
3075000000  -3.718868e+001  -1.844028e+001 
3078125000  -3.722422e+001  -2.418730e+001 
3081250000  -3.746165e+001  -2.981425e+001 
3084375000  -3.646439e+001  -3.453310e+001 
3087500000  -3.648333e+001  -4.098223e+001 
3090625000  -3.595448e+001  -5.327582e+001 
3093750000  -3.672182e+001  -6.167709e+001 
3096875000  -3.747373e+001  -6.727490e+001 
3100000000  -3.718808e+001  -7.025922e+001 
3103125000  -3.757104e+001  -7.373437e+001 
3106250000  -3.719488e+001  -7.844630e+001 
3109375000  -3.716661e+001  -8.353980e+001 
3112500000  -3.720260e+001  -8.835123e+001 
3115625000  -3.713047e+001  -9.289167e+001 
3118750000  -3.728035e+001  -9.573682e+001 
3121875000  -3.649870e+001  -1.062699e+002 
3125000000  -3.822535e+001  -1.105495e+002 
3128125000  -3.872669e+001  -1.045054e+002 
3131250000  -3.616017e+001  -1.090255e+002 
3134375000  -3.527273e+001  -1.256868e+002 
3137500000  -3.612140e+001  -1.384547e+002 
3140625000  -3.729857e+001  -1.421040e+002 
3143750000  -3.823106e+001  -1.437836e+002 
3146875000  -3.780329e+001  -1.410045e+002 
3150000000  -3.693003e+001  -1.458339e+002 
3153125000  -3.719901e+001  -1.531842e+002 
3156250000  -3.798428e+001  -1.497583e+002 
3159375000  -3.590586e+001  -1.503475e+002 
3162500000  -3.415681e+001  -1.657003e+002 
3165625000  -3.543737e+001  -1.792438e+002 
3168750000  -3.552861e+001  1.797310e+002 
3171875000  -3.492390e+001  1.727222e+002 
3175000000  -3.553687e+001  1.631016e+002 
3178125000  -3.520885e+001  1.625397e+002 
3181250000  -3.437702e+001  1.552787e+002 
3184375000  -3.405085e+001  1.428471e+002 
3187500000  -3.522605e+001  1.265477e+002 
3190625000  -3.739307e+001  1.196930e+002 
3193750000  -3.767000e+001  1.269012e+002 
3196875000  -3.742139e+001  1.275932e+002 
3200000000  -3.635512e+001  1.230910e+002 
3203125000  -3.593964e+001  1.139778e+002 
3206250000  -3.623425e+001  1.074359e+002 
3209375000  -3.575375e+001  9.986833e+001 
3212500000  -3.613478e+001  9.227550e+001 
3215625000  -3.611795e+001  8.852790e+001 
3218750000  -3.689395e+001  7.865495e+001 
3221875000  -3.746088e+001  7.222325e+001 
3225000000  -3.706593e+001  6.821667e+001 
3228125000  -3.766718e+001  6.052769e+001 
3231250000  -3.832199e+001  5.807936e+001 
3234375000  -3.790561e+001  5.554455e+001 
3237500000  -3.823409e+001  5.204002e+001 
3240625000  -3.769026e+001  4.584080e+001 
3243750000  -3.775879e+001  3.642541e+001 
3246875000  -3.836800e+001  2.969263e+001 
3250000000  -3.856306e+001  2.417049e+001 
3253125000  -3.895720e+001  2.196108e+001 
3256250000  -3.869419e+001  1.366496e+001 
3259375000  -3.910070e+001  2.914748e+000 
3262500000  -4.070137e+001  -3.340956e-001 
3265625000  -4.114114e+001  2.733235e+000 
3268750000  -4.139376e+001  3.206405e+000 
3271875000  -4.070233e+001  -7.740312e-001 
3275000000  -4.005304e+001  -8.365016e+000 
3278125000  -4.074747e+001  -1.271686e+001 
3281250000  -4.105910e+001  -1.439014e+001 
3284375000  -4.062040e+001  -2.104156e+001 
3287500000  -4.095472e+001  -2.542638e+001 
3290625000  -4.136576e+001  -3.336818e+001 
3293750000  -4.115696e+001  -3.909093e+001 
3296875000  -4.247268e+001  -3.942662e+001 
3300000000  -4.204706e+001  -3.889088e+001 
3303125000  -4.112445e+001  -4.496447e+001 
3306250000  -4.067114e+001  -5.377473e+001 
3309375000  -4.049120e+001  -6.034766e+001 
3312500000  -4.072689e+001  -7.226334e+001 
3315625000  -4.190311e+001  -7.996872e+001 
3318750000  -4.347930e+001  -8.335205e+001 
3321875000  -4.487209e+001  -8.184615e+001 
3325000000  -4.470990e+001  -7.482698e+001 
3328125000  -4.393682e+001  -7.550513e+001 
3331250000  -4.266269e+001  -7.110598e+001 
3334375000  -3.998987e+001  -8.430018e+001 
3337500000  -4.028799e+001  -1.054695e+002 
3340625000  -4.188413e+001  -1.149857e+002 
3343750000  -4.393886e+001  -1.155143e+002 
3346875000  -4.353603e+001  -1.167531e+002 
3350000000  -4.297228e+001  -1.186139e+002 
3353125000  -4.280159e+001  -1.253462e+002 
3356250000  -4.252491e+001  -1.326392e+002 
3359375000  -4.325644e+001  -1.449633e+002 
3362500000  -4.431364e+001  -1.513908e+002 
3365625000  -4.474129e+001  -1.537734e+002 
3368750000  -4.507053e+001  -1.598410e+002 
3371875000  -4.578683e+001  -1.623103e+002 
3375000000  -4.778278e+001  -1.662220e+002 
3378125000  -4.836642e+001  -1.680839e+002 
3381250000  -5.008047e+001  -1.611973e+002 
3384375000  -4.727686e+001  -1.418064e+002 
3387500000  -4.356500e+001  -1.642149e+002 
3390625000  -4.602539e+001  1.757390e+002 
3393750000  -4.721452e+001  1.753108e+002 
3396875000  -4.587408e+001  1.768818e+002 
3400000000  -4.609433e+001  1.639120e+002 
3403125000  -4.665842e+001  1.615933e+002 
3406250000  -4.731087e+001  1.540979e+002 
3409375000  -4.768840e+001  1.507017e+002 
3412500000  -4.862819e+001  1.440794e+002 
3415625000  -4.967085e+001  1.446121e+002 
3418750000  -4.987624e+001  1.403483e+002 
3421875000  -5.159038e+001  1.489708e+002 
3425000000  -5.005569e+001  1.431582e+002 
3428125000  -4.954057e+001  1.428922e+002 
3431250000  -4.957859e+001  1.340378e+002 
3434375000  -5.082664e+001  1.281070e+002 
3437500000  -5.191497e+001  1.271789e+002 
3440625000  -5.165201e+001  1.282743e+002 
3443750000  -5.066399e+001  1.291877e+002 
3446875000  -5.029144e+001  1.277114e+002 
3450000000  -5.010572e+001  1.188257e+002 
3453125000  -5.022129e+001  1.061800e+002 
3456250000  -5.205706e+001  1.027493e+002 
3459375000  -5.278939e+001  1.024369e+002 
3462500000  -5.337618e+001  1.150862e+002 
3465625000  -5.144282e+001  1.016237e+002 
3468750000  -5.157118e+001  9.986062e+001 
3471875000  -5.158161e+001  1.004691e+002 
3475000000  -5.135270e+001  1.037466e+002 
3478125000  -5.113635e+001  8.344021e+001 
3481250000  -5.203326e+001  8.824508e+001 
3484375000  -5.190287e+001  9.119296e+001 
3487500000  -5.132143e+001  8.993764e+001 
3490625000  -5.070051e+001  7.857878e+001 
3493750000  -5.159908e+001  7.316461e+001 
3496875000  -5.150452e+001  7.456319e+001 
3500000000  -5.140287e+001  7.100742e+001 
3503125000  -5.103854e+001  7.287906e+001 
3506250000  -4.995365e+001  6.415861e+001 
3509375000  -4.924413e+001  4.958419e+001 
3512500000  -4.995754e+001  3.785649e+001 
3515625000  -5.066663e+001  2.930953e+001 
3518750000  -5.216598e+001  3.780254e+001 
3521875000  -5.175434e+001  2.737714e+001 
3525000000  -5.242800e+001  2.989066e+001 
3528125000  -5.208549e+001  2.860893e+001 
3531250000  -5.074376e+001  2.712164e+001 
3534375000  -5.270901e+001  8.921307e+000 
3537500000  -5.308398e+001  -6.837326e+000 
3540625000  -5.425653e+001  -2.342704e+000 
3543750000  -5.432868e+001  3.442967e+000 
3546875000  -5.505412e+001  1.414090e+001 
3550000000  -5.378326e+001  1.313931e+001 
3553125000  -5.222570e+001  -1.017824e+001 
3556250000  -5.445844e+001  -4.718872e+000 
3559375000  -5.382669e+001  -8.749998e+000 
3562500000  -5.471281e+001  -2.149058e+001 
3565625000  -5.559077e+001  -3.128878e+001 
3568750000  -5.586282e+001  -1.031899e+001 
3571875000  -5.796711e+001  -2.192883e+001 
3575000000  -5.789340e+001  -2.602417e+001 
3578125000  -5.846658e+001  -2.735149e+001 
3581250000  -5.618202e+001  -1.994084e+001 
3584375000  -5.692594e+001  -2.309859e+001 
3587500000  -5.622540e+001  -1.836545e+001 
3590625000  -5.811777e+001  -4.295026e+001 
3593750000  -5.885600e+001  -2.295513e+001 
3596875000  -6.108290e+001  -1.314541e+001 
3600000000  -5.711841e+001  -1.073124e+001 
3603125000  -5.871043e+001  -2.729390e+001 
3606250000  -6.133780e+001  -3.394091e+001 
3609375000  -5.800169e+001  -1.654953e+001 
3612500000  -5.924797e+001  -2.343990e+001 
3615625000  -5.948074e+001  -3.360507e+001 
3618750000  -5.921455e+001  -2.834225e+001 
3621875000  -5.706820e+001  -3.130951e+001 
3625000000  -5.795198e+001  -2.857570e+001 
3628125000  -5.773959e+001  -2.623849e+001 
3631250000  -5.670433e+001  -2.851591e+001 
3634375000  -5.810571e+001  -2.420185e+001 
3637500000  -5.641012e+001  -1.899508e+001 
3640625000  -5.484647e+001  -1.441991e+001 
3643750000  -5.303608e+001  -2.695215e+001 
3646875000  -5.461133e+001  -3.452489e+001 
3650000000  -5.344184e+001  -3.856047e+001 
3653125000  -5.189827e+001  -4.236748e+001 
3656250000  -5.231228e+001  -4.003373e+001 
3659375000  -5.212785e+001  -4.362761e+001 
3662500000  -5.051471e+001  -4.681527e+001 
3665625000  -5.007235e+001  -4.705876e+001 
3668750000  -4.841132e+001  -4.865979e+001 
3671875000  -4.738130e+001  -6.176780e+001 
3675000000  -4.776279e+001  -6.642014e+001 
3678125000  -4.746825e+001  -7.276981e+001 
3681250000  -4.659695e+001  -7.643896e+001 
3684375000  -4.699760e+001  -8.143535e+001 
3687500000  -4.698843e+001  -8.368037e+001 
3690625000  -4.647638e+001  -9.446670e+001 
3693750000  -4.741322e+001  -9.534935e+001 
3696875000  -4.688791e+001  -9.678251e+001 
3700000000  -4.567598e+001  -9.949036e+001 
3703125000  -4.579050e+001  -1.090025e+002 
3706250000  -4.650652e+001  -1.076483e+002 
3709375000  -4.480204e+001  -1.069079e+002 
3712500000  -4.396524e+001  -1.115086e+002 
3715625000  -4.217681e+001  -1.206140e+002 
3718750000  -4.199411e+001  -1.273295e+002 
3721875000  -4.149614e+001  -1.357846e+002 
3725000000  -4.194968e+001  -1.447977e+002 
3728125000  -4.156132e+001  -1.475824e+002 
3731250000  -4.063386e+001  -1.539370e+002 
3734375000  -4.016382e+001  -1.605388e+002 
3737500000  -4.089120e+001  -1.692314e+002 
3740625000  -4.107021e+001  -1.762796e+002 
3743750000  -4.058746e+001  1.790025e+002 
3746875000  -4.082992e+001  1.724045e+002 
3750000000  -4.104647e+001  1.664431e+002 
3753125000  -4.067810e+001  1.648841e+002 
3756250000  -4.057122e+001  1.599411e+002 
3759375000  -4.057387e+001  1.565264e+002 
3762500000  -3.993340e+001  1.476454e+002 
3765625000  -4.076724e+001  1.438491e+002 
3768750000  -4.025142e+001  1.443789e+002 
3771875000  -3.860540e+001  1.369312e+002 
3775000000  -3.872695e+001  1.247153e+002 
3778125000  -3.921472e+001  1.198125e+002 
3781250000  -3.906723e+001  1.151864e+002 
3784375000  -3.886175e+001  1.087955e+002 
3787500000  -3.857346e+001  1.019427e+002 
3790625000  -3.928490e+001  9.379919e+001 
3793750000  -3.925129e+001  8.924516e+001 
3796875000  -3.844995e+001  8.687287e+001 
3800000000  -3.638692e+001  8.245503e+001 
3803125000  -3.812352e+001  6.796078e+001 
3806250000  -3.912296e+001  6.459444e+001 
3809375000  -3.862481e+001  6.191197e+001 
3812500000  -3.843446e+001  5.170307e+001 
3815625000  -3.936586e+001  4.132845e+001 
3818750000  -4.034882e+001  4.048629e+001 
3821875000  -4.055206e+001  4.954556e+001 
3825000000  -3.829940e+001  4.795497e+001 
3828125000  -3.705198e+001  3.005205e+001 
3831250000  -3.833241e+001  1.620140e+001 
3834375000  -3.992995e+001  1.389388e+001 
3837500000  -4.078919e+001  1.844608e+001 
3840625000  -3.932825e+001  1.552777e+001 
3843750000  -3.834217e+001  1.617387e+000 
3846875000  -3.960820e+001  -5.178564e+000 
3850000000  -4.106613e+001  -3.981577e-001 
3853125000  -4.036160e+001  1.088645e+000 
3856250000  -3.949271e+001  -9.174992e+000 
3859375000  -3.889874e+001  -1.468453e+001 
3862500000  -3.864755e+001  -2.296866e+001 
3865625000  -3.897958e+001  -2.894636e+001 
3868750000  -3.893785e+001  -2.957448e+001 
3871875000  -3.818809e+001  -3.506795e+001 
3875000000  -3.856290e+001  -4.511286e+001 
3878125000  -3.937527e+001  -4.876876e+001 
3881250000  -3.942910e+001  -4.992177e+001 
3884375000  -3.864577e+001  -5.640359e+001 
3887500000  -3.902106e+001  -6.149325e+001 
3890625000  -3.948959e+001  -6.678584e+001 
3893750000  -3.993533e+001  -6.931573e+001 
3896875000  -3.992172e+001  -7.218484e+001 
3900000000  -3.991436e+001  -7.744469e+001 
3903125000  -3.945646e+001  -7.925288e+001 
3906250000  -3.902560e+001  -8.355338e+001 
3909375000  -3.838109e+001  -9.182590e+001 
3912500000  -3.923617e+001  -1.022523e+002 
3915625000  -4.027786e+001  -1.006737e+002 
3918750000  -4.016551e+001  -1.028087e+002 
3921875000  -3.924736e+001  -1.069977e+002 
3925000000  -3.860490e+001  -1.111747e+002 
3928125000  -3.820890e+001  -1.205510e+002 
3931250000  -3.879022e+001  -1.292914e+002 
3934375000  -3.941923e+001  -1.296985e+002 
3937500000  -3.990163e+001  -1.321871e+002 
3940625000  -4.010635e+001  -1.349268e+002 
3943750000  -3.866188e+001  -1.368311e+002 
3946875000  -3.831983e+001  -1.462147e+002 
3950000000  -3.937175e+001  -1.532060e+002 
3953125000  -3.992973e+001  -1.541933e+002 
3956250000  -3.893279e+001  -1.548347e+002 
3959375000  -3.765466e+001  -1.605369e+002 
3962500000  -3.774653e+001  -1.691962e+002 
3965625000  -3.782749e+001  -1.771278e+002 
3968750000  -3.854493e+001  1.747267e+002 
3971875000  -3.879197e+001  1.687368e+002 
3975000000  -3.847230e+001  1.648664e+002 
3978125000  -3.866971e+001  1.609923e+002 
3981250000  -3.847779e+001  1.541801e+002 
3984375000  -3.895234e+001  1.471672e+002 
3987500000  -3.955670e+001  1.426572e+002 
3990625000  -4.015636e+001  1.406297e+002 
3993750000  -3.999182e+001  1.375665e+002 
3996875000  -3.981353e+001  1.307283e+002 
4000000000  -4.066282e+001  1.269339e+002 
4003125000  -4.120761e+001  1.289239e+002 
4006250000  -3.949873e+001  1.278826e+002 
4009375000  -3.856771e+001  1.156823e+002 
4012500000  -4.008378e+001  1.050097e+002 
4015625000  -4.125119e+001  1.027815e+002 
4018750000  -4.162858e+001  1.053683e+002 
4021875000  -4.051567e+001  1.040359e+002 
4025000000  -4.044476e+001  9.719950e+001 
4028125000  -4.062603e+001  9.082350e+001 
4031250000  -4.099333e+001  8.627330e+001 
4034375000  -4.113926e+001  8.433697e+001 
4037500000  -4.103723e+001  8.530718e+001 
4040625000  -4.078136e+001  8.042577e+001 
4043750000  -4.122055e+001  7.965125e+001 
4046875000  -4.044743e+001  7.360645e+001 
4050000000  -4.043943e+001  6.950432e+001 
4053125000  -4.086989e+001  6.677725e+001 
4056250000  -4.125146e+001  7.042088e+001 
4059375000  -3.934352e+001  6.843241e+001 
4062500000  -3.867373e+001  5.833603e+001 
4065625000  -3.885810e+001  5.365290e+001 
4068750000  -3.806868e+001  4.840336e+001 
4071875000  -3.757874e+001  3.735757e+001 
4075000000  -3.816856e+001  3.082349e+001 
4078125000  -3.836194e+001  2.674818e+001 
4081250000  -3.823165e+001  2.244657e+001 
4084375000  -3.763427e+001  1.356263e+001 
4087500000  -3.813732e+001  5.845738e+000 
4090625000  -3.879077e+001  2.468476e+000 
4093750000  -3.836552e+001  1.432479e+000 
4096875000  -3.843132e+001  -8.498013e+000 
4100000000  -3.925989e+001  -1.634942e+001 
4103125000  -4.012760e+001  -1.588985e+001 
4106250000  -3.974431e+001  -1.237618e+001 
4109375000  -3.874282e+001  -1.322871e+001 
4112500000  -3.834626e+001  -2.474756e+001 
4115625000  -3.895068e+001  -3.081050e+001 
4118750000  -3.881298e+001  -3.569825e+001 
4121875000  -3.873496e+001  -4.174226e+001 
4125000000  -3.964346e+001  -4.985921e+001 
4128125000  -4.039384e+001  -4.771048e+001 
4131250000  -3.970102e+001  -4.270688e+001 
4134375000  -3.733713e+001  -5.111868e+001 
4137500000  -3.754008e+001  -7.229430e+001 
4140625000  -4.016906e+001  -7.901095e+001 
4143750000  -4.112114e+001  -7.314319e+001 
4146875000  -4.041905e+001  -6.927884e+001 
4150000000  -3.950515e+001  -7.467052e+001 
4153125000  -3.944066e+001  -8.530795e+001 
4156250000  -4.054704e+001  -8.920188e+001 
4159375000  -4.063147e+001  -8.322879e+001 
4162500000  -3.959765e+001  -8.109525e+001 
4165625000  -3.845550e+001  -8.871244e+001 
4168750000  -3.829391e+001  -9.881919e+001 
4171875000  -3.800371e+001  -1.080261e+002 
4175000000  -3.890703e+001  -1.128808e+002 
4178125000  -3.924630e+001  -1.148206e+002 
4181250000  -3.899541e+001  -1.188561e+002 
4184375000  -3.912563e+001  -1.233046e+002 
4187500000  -3.905518e+001  -1.284231e+002 
4190625000  -3.895135e+001  -1.368187e+002 
4193750000  -3.982335e+001  -1.413558e+002 
4196875000  -4.092706e+001  -1.425331e+002 
4200000000  -4.176203e+001  -1.398480e+002 
4203125000  -4.078581e+001  -1.291102e+002 
4206250000  -3.695930e+001  -1.336910e+002 
4209375000  -3.678687e+001  -1.571352e+002 
4212500000  -3.907881e+001  -1.637239e+002 
4215625000  -3.959778e+001  -1.552061e+002 
4218750000  -3.792073e+001  -1.547139e+002 
4221875000  -3.609541e+001  -1.668941e+002 
4225000000  -3.714921e+001  -1.797056e+002 
4228125000  -3.754213e+001  -1.776004e+002 
4231250000  -3.577720e+001  1.779234e+002 
4234375000  -3.594130e+001  1.650150e+002 
4237500000  -3.571361e+001  1.604727e+002 
4240625000  -3.575337e+001  1.502816e+002 
4243750000  -3.678608e+001  1.429047e+002 
4246875000  -3.781361e+001  1.397854e+002 
4250000000  -3.786274e+001  1.410487e+002 
4253125000  -3.768355e+001  1.371045e+002 
4256250000  -3.747563e+001  1.304651e+002 
4259375000  -3.715406e+001  1.264413e+002 
4262500000  -3.743203e+001  1.213348e+002 
4265625000  -3.763040e+001  1.203323e+002 
4268750000  -3.650678e+001  1.122989e+002 
4271875000  -3.623108e+001  1.028626e+002 
4275000000  -3.590492e+001  9.567434e+001 
4278125000  -3.693917e+001  8.311844e+001 
4281250000  -3.844853e+001  8.026826e+001 
4284375000  -3.820291e+001  7.714032e+001 
4287500000  -3.952069e+001  7.447691e+001 
4290625000  -4.041899e+001  8.152628e+001 
4293750000  -3.844625e+001  8.478843e+001 
4296875000  -3.726147e+001  7.004456e+001 
4300000000  -3.842425e+001  6.071394e+001 
4303125000  -3.905230e+001  6.497951e+001 
4306250000  -3.809022e+001  6.552477e+001 
4309375000  -3.729412e+001  6.105837e+001 
4312500000  -3.727302e+001  5.013277e+001 
4315625000  -3.744601e+001  4.135574e+001 
4318750000  -3.786713e+001  3.771798e+001 
4321875000  -3.800621e+001  3.752362e+001 
4325000000  -3.750355e+001  3.603894e+001 
4328125000  -3.692581e+001  2.665158e+001 
4331250000  -3.715756e+001  1.730046e+001 
4334375000  -3.783174e+001  9.848380e+000 
4337500000  -3.902328e+001  8.699641e+000 
4340625000  -3.890723e+001  1.223109e+001 
4343750000  -3.824791e+001  1.022825e+001 
4346875000  -3.780288e+001  1.924315e+000 
4350000000  -3.765991e+001  -6.109182e+000 
4353125000  -3.815873e+001  -1.311066e+001 
4356250000  -4.027320e+001  -1.129342e+001 
4359375000  -3.967265e+001  1.853574e+000 
4362500000  -3.632305e+001  -4.856806e+000 
4365625000  -3.554713e+001  -1.954951e+001 
4368750000  -3.672666e+001  -3.184491e+001 
4371875000  -3.725266e+001  -3.094779e+001 
4375000000  -3.664750e+001  -3.433374e+001 
4378125000  -3.639881e+001  -4.313801e+001 
4381250000  -3.655874e+001  -4.924739e+001 
4384375000  -3.651641e+001  -5.876021e+001 
4387500000  -3.744172e+001  -6.312477e+001 
4390625000  -3.788485e+001  -6.542243e+001 
4393750000  -3.744606e+001  -6.321219e+001 
4396875000  -3.675513e+001  -6.977697e+001 
4400000000  -3.627796e+001  -7.856622e+001 
4403125000  -3.715291e+001  -8.782417e+001 
4406250000  -3.770500e+001  -9.132040e+001 
4409375000  -3.805569e+001  -9.526022e+001 
4412500000  -3.885252e+001  -9.896255e+001 
4415625000  -3.913715e+001  -9.548402e+001 
