!Agilent Technologies,E8363B,MY43030201,A.06.04.32
!Agilent E8363B: A.06.04.32
!Date: Tuesday, November 11, 2014 21:26:01
!Correction: S21(Response(S21)) 
!S1P File: Measurement: S21:
# Hz S  dB   R 50
3000000000  -4.053234e+001  9.679348e+001 
3003125000  -4.209328e+001  8.922433e+001 
3006250000  -4.196387e+001  8.677495e+001 
3009375000  -4.266133e+001  9.278976e+001 
3012500000  -4.180309e+001  8.759991e+001 
3015625000  -4.125153e+001  8.143143e+001 
3018750000  -4.199144e+001  8.101353e+001 
3021875000  -4.054318e+001  8.253304e+001 
3025000000  -3.913464e+001  7.797858e+001 
3028125000  -3.810402e+001  6.975140e+001 
3031250000  -3.705090e+001  5.759925e+001 
3034375000  -3.684261e+001  4.384576e+001 
3037500000  -3.754214e+001  3.242086e+001 
3040625000  -3.877000e+001  2.735847e+001 
3043750000  -3.910478e+001  2.065428e+001 
3046875000  -3.958207e+001  1.499465e+001 
3050000000  -4.094228e+001  1.021329e+001 
3053125000  -4.061965e+001  1.433907e+001 
3056250000  -4.033123e+001  1.692491e+001 
3059375000  -3.986351e+001  1.503374e+001 
3062500000  -3.836878e+001  1.119120e+001 
3065625000  -3.803352e+001  1.685853e+000 
3068750000  -3.767716e+001  -6.427533e+000 
3071875000  -3.760072e+001  -9.186821e+000 
3075000000  -3.719078e+001  -1.566055e+001 
3078125000  -3.715370e+001  -2.218444e+001 
3081250000  -3.742592e+001  -2.754676e+001 
3084375000  -3.655001e+001  -3.235855e+001 
3087500000  -3.644608e+001  -3.817022e+001 
3090625000  -3.599390e+001  -5.093797e+001 
3093750000  -3.679038e+001  -5.886808e+001 
3096875000  -3.748860e+001  -6.491133e+001 
3100000000  -3.730039e+001  -6.826899e+001 
3103125000  -3.761314e+001  -7.054246e+001 
3106250000  -3.723665e+001  -7.582997e+001 
3109375000  -3.735877e+001  -7.993826e+001 
3112500000  -3.732510e+001  -8.527515e+001 
3115625000  -3.718446e+001  -9.000900e+001 
3118750000  -3.727262e+001  -9.276982e+001 
3121875000  -3.655233e+001  -1.038341e+002 
3125000000  -3.829097e+001  -1.079722e+002 
3128125000  -3.884750e+001  -1.009497e+002 
3131250000  -3.629289e+001  -1.049550e+002 
3134375000  -3.533484e+001  -1.231247e+002 
3137500000  -3.604346e+001  -1.367159e+002 
3140625000  -3.741114e+001  -1.396410e+002 
3143750000  -3.821864e+001  -1.401509e+002 
3146875000  -3.775915e+001  -1.388863e+002 
3150000000  -3.694363e+001  -1.425435e+002 
3153125000  -3.711323e+001  -1.510521e+002 
3156250000  -3.797676e+001  -1.467649e+002 
3159375000  -3.596953e+001  -1.480061e+002 
3162500000  -3.435472e+001  -1.633556e+002 
3165625000  -3.550578e+001  -1.762155e+002 
3168750000  -3.558014e+001  -1.772349e+002 
3171875000  -3.493952e+001  1.752054e+002 
3175000000  -3.546927e+001  1.659642e+002 
3178125000  -3.517556e+001  1.643775e+002 
3181250000  -3.444891e+001  1.571829e+002 
3184375000  -3.405201e+001  1.452372e+002 
3187500000  -3.538508e+001  1.295991e+002 
3190625000  -3.741659e+001  1.217378e+002 
3193750000  -3.774099e+001  1.282192e+002 
3196875000  -3.751957e+001  1.311674e+002 
3200000000  -3.649932e+001  1.254957e+002 
3203125000  -3.601186e+001  1.171673e+002 
3206250000  -3.622313e+001  1.101469e+002 
3209375000  -3.586190e+001  1.024609e+002 
3212500000  -3.622766e+001  9.426131e+001 
3215625000  -3.597419e+001  9.164412e+001 
3218750000  -3.689818e+001  8.116184e+001 
3221875000  -3.735759e+001  7.354079e+001 
3225000000  -3.712363e+001  7.043013e+001 
3228125000  -3.771560e+001  6.424513e+001 
3231250000  -3.837387e+001  6.084372e+001 
3234375000  -3.791937e+001  5.809225e+001 
3237500000  -3.816203e+001  5.441126e+001 
3240625000  -3.771105e+001  4.876954e+001 
3243750000  -3.775541e+001  3.875890e+001 
3246875000  -3.828553e+001  3.296458e+001 
3250000000  -3.863202e+001  2.803837e+001 
3253125000  -3.914435e+001  2.445728e+001 
3256250000  -3.854949e+001  1.587559e+001 
3259375000  -3.911815e+001  6.309192e+000 
3262500000  -4.065126e+001  9.794747e-001 
3265625000  -4.124982e+001  4.230994e+000 
3268750000  -4.130702e+001  5.473928e+000 
3271875000  -4.099450e+001  2.570535e+000 
3275000000  -4.010389e+001  -4.819103e+000 
3278125000  -4.108174e+001  -1.039684e+001 
3281250000  -4.103005e+001  -1.237451e+001 
3284375000  -4.036788e+001  -1.861662e+001 
3287500000  -4.082510e+001  -2.134343e+001 
3290625000  -4.143480e+001  -3.023705e+001 
3293750000  -4.104729e+001  -3.442602e+001 
3296875000  -4.256905e+001  -3.608659e+001 
3300000000  -4.191590e+001  -3.770901e+001 
3303125000  -4.107931e+001  -4.323865e+001 
3306250000  -4.090557e+001  -5.063371e+001 
3309375000  -4.057255e+001  -5.710759e+001 
3312500000  -4.081559e+001  -6.815390e+001 
3315625000  -4.202103e+001  -7.756802e+001 
3318750000  -4.346025e+001  -7.936021e+001 
3321875000  -4.495627e+001  -7.895809e+001 
3325000000  -4.521371e+001  -7.286308e+001 
3328125000  -4.381414e+001  -7.352307e+001 
3331250000  -4.228236e+001  -6.942110e+001 
3334375000  -4.000390e+001  -8.185750e+001 
3337500000  -4.025486e+001  -1.012380e+002 
3340625000  -4.217232e+001  -1.137947e+002 
3343750000  -4.415426e+001  -1.125122e+002 
3346875000  -4.365754e+001  -1.149876e+002 
3350000000  -4.316282e+001  -1.179859e+002 
3353125000  -4.301466e+001  -1.240675e+002 
3356250000  -4.270331e+001  -1.330105e+002 
3359375000  -4.348851e+001  -1.442748e+002 
3362500000  -4.456084e+001  -1.509422e+002 
3365625000  -4.478875e+001  -1.534310e+002 
3368750000  -4.534769e+001  -1.562969e+002 
3371875000  -4.586464e+001  -1.601589e+002 
3375000000  -4.758008e+001  -1.663625e+002 
3378125000  -4.825167e+001  -1.668626e+002 
3381250000  -4.957185e+001  -1.579407e+002 
3384375000  -4.738629e+001  -1.423075e+002 
3387500000  -4.446511e+001  -1.609344e+002 
3390625000  -4.615849e+001  1.780517e+002 
3393750000  -4.719270e+001  1.771264e+002 
3396875000  -4.633266e+001  1.775493e+002 
3400000000  -4.644247e+001  1.618484e+002 
3403125000  -4.712197e+001  1.634963e+002 
3406250000  -4.725211e+001  1.545913e+002 
3409375000  -4.808266e+001  1.488118e+002 
3412500000  -4.861798e+001  1.405314e+002 
3415625000  -5.039858e+001  1.408100e+002 
3418750000  -5.048100e+001  1.416440e+002 
3421875000  -5.100354e+001  1.449969e+002 
3425000000  -5.056303e+001  1.459854e+002 
3428125000  -5.029558e+001  1.431142e+002 
3431250000  -4.997304e+001  1.310886e+002 
3434375000  -5.058017e+001  1.241832e+002 
3437500000  -5.239540e+001  1.247246e+002 
3440625000  -5.258901e+001  1.284906e+002 
3443750000  -5.137084e+001  1.282861e+002 
3446875000  -5.119709e+001  1.291085e+002 
3450000000  -5.015810e+001  1.194988e+002 
3453125000  -5.095167e+001  1.102688e+002 
3456250000  -5.278776e+001  1.044636e+002 
3459375000  -5.335863e+001  1.084855e+002 
3462500000  -5.313093e+001  1.096893e+002 
3465625000  -5.126472e+001  1.008840e+002 
3468750000  -5.171585e+001  1.084695e+002 
3471875000  -5.223613e+001  1.018159e+002 
3475000000  -5.244633e+001  1.024554e+002 
3478125000  -5.124425e+001  8.897309e+001 
3481250000  -5.237222e+001  9.312460e+001 
3484375000  -5.301708e+001  9.442558e+001 
3487500000  -5.216552e+001  9.154526e+001 
3490625000  -5.152138e+001  7.866301e+001 
3493750000  -5.155456e+001  7.572025e+001 
3496875000  -5.238585e+001  6.951745e+001 
3500000000  -5.268715e+001  8.061807e+001 
3503125000  -5.057370e+001  7.292706e+001 
3506250000  -4.932742e+001  6.849639e+001 
3509375000  -4.956176e+001  5.284589e+001 
3512500000  -5.014372e+001  4.228598e+001 
3515625000  -5.156446e+001  3.352763e+001 
3518750000  -5.299537e+001  4.376790e+001 
3521875000  -5.222120e+001  3.121777e+001 
3525000000  -5.287018e+001  2.648816e+001 
3528125000  -5.299803e+001  2.755279e+001 
3531250000  -5.237113e+001  3.088555e+001 
3534375000  -5.353273e+001  1.166894e+001 
3537500000  -5.396922e+001  5.957291e-001 
3540625000  -5.558418e+001  6.615072e+000 
3543750000  -5.610065e+001  8.859157e+000 
3546875000  -5.566243e+001  2.009032e+001 
3550000000  -5.451814e+001  1.183280e+001 
3553125000  -5.452246e+001  -3.994936e-001 
3556250000  -5.628796e+001  -1.093809e+001 
3559375000  -5.631051e+001  -4.020540e+000 
3562500000  -5.585778e+001  -2.570248e+001 
3565625000  -5.962839e+001  -2.743539e+001 
3568750000  -5.698620e+001  -6.019250e+000 
3571875000  -5.808552e+001  -8.667423e+000 
3575000000  -5.913639e+001  -1.426748e+001 
3578125000  -5.931047e+001  -1.777274e+001 
3581250000  -5.905919e+001  -1.291740e+001 
3584375000  -5.594046e+001  -1.689829e+000 
3587500000  -5.849849e+001  -6.830750e+000 
3590625000  -5.816348e+001  -2.604346e+001 
3593750000  -6.039934e+001  -7.128183e+000 
3596875000  -6.103290e+001  1.126082e+001 
3600000000  -5.742301e+001  -1.475872e+001 
3603125000  -5.936670e+001  -2.689231e+001 
3606250000  -5.903995e+001  -1.813520e+001 
3609375000  -5.620189e+001  -9.937082e+000 
3612500000  -5.749987e+001  -2.078762e+001 
3615625000  -6.093079e+001  -8.796637e+000 
3618750000  -5.872278e+001  -1.752078e+001 
3621875000  -5.777477e+001  -2.025677e+001 
3625000000  -5.640597e+001  -1.227057e+001 
3628125000  -5.744576e+001  -3.803946e+000 
3631250000  -5.534792e+001  -2.088056e+001 
3634375000  -5.655199e+001  -8.825925e+000 
3637500000  -5.488229e+001  -7.923990e+000 
3640625000  -5.323474e+001  -6.189944e+000 
3643750000  -5.304211e+001  -1.740193e+001 
3646875000  -5.178545e+001  -3.097983e+001 
3650000000  -5.293262e+001  -2.903177e+001 
3653125000  -5.210334e+001  -2.998402e+001 
3656250000  -5.115319e+001  -3.108263e+001 
3659375000  -5.058956e+001  -3.885428e+001 
3662500000  -5.048455e+001  -4.593704e+001 
3665625000  -4.964089e+001  -4.431927e+001 
3668750000  -4.809778e+001  -4.676921e+001 
3671875000  -4.642904e+001  -5.255989e+001 
3675000000  -4.742736e+001  -6.831927e+001 
3678125000  -4.697338e+001  -7.137422e+001 
3681250000  -4.632650e+001  -7.180222e+001 
3684375000  -4.637874e+001  -7.985848e+001 
3687500000  -4.661785e+001  -8.289673e+001 
3690625000  -4.701394e+001  -8.914820e+001 
3693750000  -4.696273e+001  -9.041529e+001 
3696875000  -4.636726e+001  -8.903626e+001 
3700000000  -4.519513e+001  -9.741510e+001 
3703125000  -4.565656e+001  -1.012686e+002 
3706250000  -4.575465e+001  -1.028712e+002 
3709375000  -4.459081e+001  -1.057309e+002 
3712500000  -4.329809e+001  -1.094163e+002 
3715625000  -4.223919e+001  -1.204418e+002 
3718750000  -4.210856e+001  -1.230230e+002 
3721875000  -4.139715e+001  -1.334227e+002 
3725000000  -4.162716e+001  -1.399761e+002 
3728125000  -4.142565e+001  -1.462955e+002 
3731250000  -4.074027e+001  -1.502941e+002 
3734375000  -3.994208e+001  -1.575980e+002 
3737500000  -4.077627e+001  -1.670862e+002 
3740625000  -4.082794e+001  -1.732736e+002 
3743750000  -4.061232e+001  -1.781327e+002 
3746875000  -4.057844e+001  1.750848e+002 
3750000000  -4.101399e+001  1.693293e+002 
3753125000  -4.060136e+001  1.669223e+002 
3756250000  -4.065122e+001  1.625208e+002 
3759375000  -4.034049e+001  1.583742e+002 
3762500000  -3.993306e+001  1.515418e+002 
3765625000  -4.088148e+001  1.469907e+002 
3768750000  -4.022932e+001  1.466859e+002 
3771875000  -3.853627e+001  1.392533e+002 
3775000000  -3.842831e+001  1.285287e+002 
3778125000  -3.903870e+001  1.228650e+002 
3781250000  -3.906384e+001  1.163724e+002 
3784375000  -3.900780e+001  1.111209e+002 
3787500000  -3.853404e+001  1.061634e+002 
3790625000  -3.915106e+001  9.606976e+001 
3793750000  -3.925915e+001  9.210630e+001 
3796875000  -3.815879e+001  8.965032e+001 
3800000000  -3.655107e+001  8.490948e+001 
3803125000  -3.812808e+001  7.091903e+001 
3806250000  -3.908955e+001  6.751178e+001 
3809375000  -3.853943e+001  6.275605e+001 
3812500000  -3.846675e+001  5.532471e+001 
3815625000  -3.940969e+001  4.403790e+001 
3818750000  -4.050240e+001  4.551094e+001 
3821875000  -4.046064e+001  5.311813e+001 
3825000000  -3.855684e+001  5.159468e+001 
3828125000  -3.719754e+001  3.503235e+001 
3831250000  -3.815416e+001  1.791509e+001 
3834375000  -4.017434e+001  1.885852e+001 
3837500000  -4.071337e+001  2.165689e+001 
3840625000  -3.939763e+001  1.971112e+001 
3843750000  -3.837603e+001  3.609034e+000 
3846875000  -3.986406e+001  -3.280107e+000 
3850000000  -4.122395e+001  2.923405e+000 
3853125000  -4.012146e+001  5.008907e+000 
3856250000  -3.969012e+001  -5.330366e+000 
3859375000  -3.892207e+001  -1.097952e+001 
3862500000  -3.863454e+001  -2.131580e+001 
3865625000  -3.895638e+001  -2.684585e+001 
3868750000  -3.875627e+001  -2.594568e+001 
3871875000  -3.809344e+001  -3.473894e+001 
3875000000  -3.870867e+001  -4.384016e+001 
3878125000  -3.949450e+001  -4.710248e+001 
3881250000  -3.921595e+001  -4.699930e+001 
3884375000  -3.884753e+001  -5.455661e+001 
3887500000  -3.928160e+001  -6.032342e+001 
3890625000  -3.958223e+001  -6.430330e+001 
3893750000  -3.998180e+001  -6.702458e+001 
3896875000  -3.988294e+001  -6.961390e+001 
3900000000  -3.993292e+001  -7.336887e+001 
3903125000  -3.961399e+001  -7.764814e+001 
3906250000  -3.920560e+001  -8.099364e+001 
3909375000  -3.849561e+001  -8.942128e+001 
3912500000  -3.916663e+001  -1.007260e+002 
3915625000  -4.045755e+001  -9.762751e+001 
3918750000  -3.991425e+001  -9.871407e+001 
3921875000  -3.939112e+001  -1.053064e+002 
3925000000  -3.879218e+001  -1.096382e+002 
3928125000  -3.832684e+001  -1.202698e+002 
3931250000  -3.912724e+001  -1.274328e+002 
3934375000  -3.955349e+001  -1.285950e+002 
3937500000  -4.003248e+001  -1.303783e+002 
3940625000  -4.015655e+001  -1.316960e+002 
3943750000  -3.899979e+001  -1.353881e+002 
3946875000  -3.848685e+001  -1.427222e+002 
3950000000  -3.951426e+001  -1.532774e+002 
3953125000  -4.027497e+001  -1.532886e+002 
3956250000  -3.921839e+001  -1.520384e+002 
3959375000  -3.813367e+001  -1.583439e+002 
3962500000  -3.797462e+001  -1.671062e+002 
3965625000  -3.804908e+001  -1.753293e+002 
3968750000  -3.873475e+001  1.767077e+002 
3971875000  -3.892870e+001  1.710637e+002 
3975000000  -3.853057e+001  1.663017e+002 
3978125000  -3.885904e+001  1.622909e+002 
3981250000  -3.883168e+001  1.567640e+002 
3984375000  -3.944260e+001  1.485030e+002 
3987500000  -3.972298e+001  1.449615e+002 
3990625000  -3.990375e+001  1.432539e+002 
3993750000  -4.031349e+001  1.390752e+002 
3996875000  -4.025921e+001  1.343250e+002 
4000000000  -4.078031e+001  1.290352e+002 
4003125000  -4.110990e+001  1.298596e+002 
4006250000  -3.995313e+001  1.293404e+002 
4009375000  -3.899596e+001  1.142021e+002 
4012500000  -4.017331e+001  1.056116e+002 
4015625000  -4.147362e+001  1.060680e+002 
4018750000  -4.159885e+001  1.065560e+002 
4021875000  -4.090963e+001  1.056067e+002 
4025000000  -4.062020e+001  9.706425e+001 
4028125000  -4.080445e+001  9.028537e+001 
4031250000  -4.118135e+001  8.736926e+001 
4034375000  -4.177356e+001  8.571217e+001 
4037500000  -4.127195e+001  8.743417e+001 
4040625000  -4.120663e+001  8.342811e+001 
4043750000  -4.112930e+001  7.954118e+001 
4046875000  -4.089943e+001  7.624348e+001 
4050000000  -4.076917e+001  6.967529e+001 
4053125000  -4.150286e+001  6.894445e+001 
4056250000  -4.130674e+001  7.124323e+001 
4059375000  -3.942925e+001  7.034393e+001 
4062500000  -3.909992e+001  6.182584e+001 
4065625000  -3.896291e+001  5.471713e+001 
4068750000  -3.866214e+001  4.945913e+001 
4071875000  -3.801004e+001  3.905955e+001 
4075000000  -3.856190e+001  3.211502e+001 
4078125000  -3.884903e+001  2.863962e+001 
4081250000  -3.852788e+001  2.441182e+001 
4084375000  -3.844749e+001  1.508250e+001 
4087500000  -3.867341e+001  7.327536e+000 
4090625000  -3.926269e+001  6.622180e+000 
4093750000  -3.889095e+001  2.466843e+000 
4096875000  -3.873750e+001  -7.032193e+000 
4100000000  -3.961407e+001  -1.331128e+001 
4103125000  -4.062008e+001  -1.410474e+001 
4106250000  -4.000084e+001  -8.992564e+000 
4109375000  -3.917016e+001  -1.316637e+001 
4112500000  -3.887544e+001  -2.234976e+001 
4115625000  -3.930849e+001  -2.984076e+001 
4118750000  -3.930904e+001  -3.203699e+001 
4121875000  -3.879679e+001  -3.994700e+001 
4125000000  -3.992086e+001  -4.622476e+001 
4128125000  -4.098640e+001  -4.586525e+001 
4131250000  -4.014486e+001  -4.011881e+001 
4134375000  -3.790236e+001  -4.840540e+001 
4137500000  -3.805954e+001  -7.073993e+001 
4140625000  -4.061485e+001  -7.529691e+001 
4143750000  -4.165536e+001  -7.097877e+001 
4146875000  -4.094162e+001  -6.792564e+001 
4150000000  -4.022731e+001  -7.580487e+001 
4153125000  -4.019049e+001  -8.395379e+001 
4156250000  -4.118020e+001  -8.730607e+001 
4159375000  -4.143084e+001  -8.000826e+001 
4162500000  -4.023910e+001  -7.850522e+001 
4165625000  -3.894587e+001  -8.567542e+001 
4168750000  -3.866027e+001  -9.602878e+001 
4171875000  -3.867942e+001  -1.059914e+002 
4175000000  -3.936972e+001  -1.123233e+002 
4178125000  -4.009012e+001  -1.130014e+002 
4181250000  -3.937958e+001  -1.158160e+002 
4184375000  -3.967415e+001  -1.229526e+002 
4187500000  -3.941548e+001  -1.255341e+002 
4190625000  -3.948494e+001  -1.347515e+002 
4193750000  -4.089088e+001  -1.407691e+002 
4196875000  -4.114164e+001  -1.403315e+002 
4200000000  -4.236290e+001  -1.359613e+002 
4203125000  -4.173661e+001  -1.226973e+002 
4206250000  -3.780838e+001  -1.294045e+002 
4209375000  -3.759805e+001  -1.539419e+002 
4212500000  -3.985175e+001  -1.613553e+002 
4215625000  -4.046239e+001  -1.525268e+002 
4218750000  -3.847689e+001  -1.537197e+002 
4221875000  -3.686248e+001  -1.630249e+002 
4225000000  -3.828241e+001  -1.744558e+002 
4228125000  -3.820528e+001  -1.725528e+002 
4231250000  -3.640495e+001  1.794128e+002 
4234375000  -3.658950e+001  1.671082e+002 
4237500000  -3.654715e+001  1.634140e+002 
4240625000  -3.647566e+001  1.522244e+002 
4243750000  -3.738937e+001  1.448236e+002 
4246875000  -3.854314e+001  1.423194e+002 
4250000000  -3.841325e+001  1.418049e+002 
4253125000  -3.841257e+001  1.384424e+002 
4256250000  -3.840965e+001  1.350981e+002 
4259375000  -3.774618e+001  1.277417e+002 
4262500000  -3.835085e+001  1.262377e+002 
4265625000  -3.823264e+001  1.223298e+002 
4268750000  -3.710122e+001  1.153906e+002 
4271875000  -3.714241e+001  1.056926e+002 
4275000000  -3.677131e+001  9.796149e+001 
4278125000  -3.789025e+001  8.598792e+001 
4281250000  -3.913918e+001  8.502335e+001 
4284375000  -3.906967e+001  8.202267e+001 
4287500000  -4.032242e+001  7.552817e+001 
4290625000  -4.052709e+001  8.543731e+001 
4293750000  -3.899162e+001  8.873772e+001 
4296875000  -3.794906e+001  7.328078e+001 
4300000000  -3.911031e+001  6.311111e+001 
4303125000  -4.009157e+001  6.546527e+001 
4306250000  -3.913472e+001  7.048219e+001 
4309375000  -3.804070e+001  6.521611e+001 
4312500000  -3.803495e+001  5.292993e+001 
4315625000  -3.826066e+001  4.543223e+001 
4318750000  -3.893260e+001  4.250942e+001 
4321875000  -3.896214e+001  4.203723e+001 
4325000000  -3.858549e+001  3.971502e+001 
4328125000  -3.787375e+001  3.147652e+001 
4331250000  -3.771469e+001  2.283934e+001 
4334375000  -3.868306e+001  1.480969e+001 
4337500000  -3.982872e+001  1.471104e+001 
4340625000  -4.006056e+001  1.993019e+001 
4343750000  -3.911656e+001  1.511365e+001 
4346875000  -3.901559e+001  6.812934e+000 
4350000000  -3.870058e+001  -1.096707e+000 
4353125000  -3.890299e+001  -8.996222e+000 
4356250000  -4.084787e+001  -7.541970e+000 
4359375000  -4.074121e+001  4.945950e+000 
4362500000  -3.727551e+001  6.712567e-001 
4365625000  -3.650717e+001  -1.658780e+001 
4368750000  -3.766800e+001  -2.850431e+001 
4371875000  -3.839881e+001  -2.633500e+001 
4375000000  -3.761943e+001  -3.061982e+001 
4378125000  -3.740989e+001  -3.719773e+001 
4381250000  -3.764140e+001  -4.441877e+001 
4384375000  -3.731597e+001  -5.232004e+001 
4387500000  -3.850817e+001  -5.956406e+001 
4390625000  -3.895367e+001  -6.018706e+001 
4393750000  -3.852229e+001  -5.839493e+001 
4396875000  -3.770404e+001  -6.379416e+001 
4400000000  -3.718170e+001  -7.356157e+001 
4403125000  -3.825092e+001  -8.214854e+001 
4406250000  -3.896478e+001  -8.595648e+001 
4409375000  -3.897913e+001  -8.890258e+001 
4412500000  -3.990063e+001  -9.188577e+001 
4415625000  -3.989322e+001  -8.887158e+001 
4418750000  -3.860688e+001  -8.901035e+001 
