!Agilent Technologies,E8363B,MY43030201,A.06.04.32
!Agilent E8363B: A.06.04.32
!Date: Tuesday, November 11, 2014 21:30:52
!Correction: S21(Response(S21)) 
!S1P File: Measurement: S21:
# Hz S  dB   R 50
3000000000  -4.065282e+001  8.271412e+001 
3003125000  -4.231670e+001  7.499696e+001 
3006250000  -4.218806e+001  7.465323e+001 
3009375000  -4.282001e+001  7.893660e+001 
3012500000  -4.158897e+001  7.347565e+001 
3015625000  -4.132394e+001  6.832169e+001 
3018750000  -4.180323e+001  6.911552e+001 
3021875000  -4.031332e+001  6.869724e+001 
3025000000  -3.878011e+001  6.474956e+001 
3028125000  -3.797048e+001  5.446169e+001 
3031250000  -3.704989e+001  4.293572e+001 
3034375000  -3.681491e+001  2.886500e+001 
3037500000  -3.749356e+001  1.747026e+001 
3040625000  -3.877171e+001  1.280757e+001 
3043750000  -3.920912e+001  6.083076e+000 
3046875000  -3.970287e+001  1.065169e+000 
3050000000  -4.088368e+001  -5.190051e+000 
3053125000  -4.063686e+001  9.440861e-002 
3056250000  -4.036456e+001  2.986351e+000 
3059375000  -4.000811e+001  1.715382e+000 
3062500000  -3.832320e+001  -3.079209e+000 
3065625000  -3.801765e+001  -1.325692e+001 
3068750000  -3.777637e+001  -2.131602e+001 
3071875000  -3.755471e+001  -2.292532e+001 
3075000000  -3.711358e+001  -2.931965e+001 
3078125000  -3.713182e+001  -3.603925e+001 
3081250000  -3.718076e+001  -4.172705e+001 
3084375000  -3.629041e+001  -4.662438e+001 
3087500000  -3.648205e+001  -5.287144e+001 
3090625000  -3.598917e+001  -6.517054e+001 
3093750000  -3.688679e+001  -7.311467e+001 
3096875000  -3.746131e+001  -7.932501e+001 
3100000000  -3.713807e+001  -8.211401e+001 
3103125000  -3.761037e+001  -8.587881e+001 
3106250000  -3.728698e+001  -9.069025e+001 
3109375000  -3.725315e+001  -9.475877e+001 
3112500000  -3.721305e+001  -1.000245e+002 
3115625000  -3.719907e+001  -1.043704e+002 
3118750000  -3.724931e+001  -1.073203e+002 
3121875000  -3.660350e+001  -1.191247e+002 
3125000000  -3.851924e+001  -1.225765e+002 
3128125000  -3.843835e+001  -1.141370e+002 
3131250000  -3.606247e+001  -1.210934e+002 
3134375000  -3.536993e+001  -1.380986e+002 
3137500000  -3.610489e+001  -1.501092e+002 
3140625000  -3.749199e+001  -1.532167e+002 
3143750000  -3.811897e+001  -1.556435e+002 
3146875000  -3.764954e+001  -1.529659e+002 
3150000000  -3.681359e+001  -1.565369e+002 
3153125000  -3.721782e+001  -1.658972e+002 
3156250000  -3.793197e+001  -1.611879e+002 
3159375000  -3.565702e+001  -1.627299e+002 
3162500000  -3.420642e+001  -1.786406e+002 
3165625000  -3.544524e+001  1.680816e+002 
3168750000  -3.562361e+001  1.685703e+002 
3171875000  -3.490984e+001  1.602836e+002 
3175000000  -3.545616e+001  1.513990e+002 
3178125000  -3.501525e+001  1.503485e+002 
3181250000  -3.439172e+001  1.414685e+002 
3184375000  -3.413067e+001  1.299491e+002 
3187500000  -3.539985e+001  1.149437e+002 
3190625000  -3.730679e+001  1.078844e+002 
3193750000  -3.746482e+001  1.143339e+002 
3196875000  -3.736798e+001  1.159910e+002 
3200000000  -3.626598e+001  1.103950e+002 
3203125000  -3.585392e+001  1.017000e+002 
3206250000  -3.611767e+001  9.461521e+001 
3209375000  -3.582089e+001  8.730418e+001 
3212500000  -3.629067e+001  7.966541e+001 
3215625000  -3.613052e+001  7.772813e+001 
3218750000  -3.685372e+001  6.573980e+001 
3221875000  -3.709336e+001  5.893317e+001 
3225000000  -3.697733e+001  5.564294e+001 
3228125000  -3.772781e+001  4.866244e+001 
3231250000  -3.825595e+001  4.655888e+001 
3234375000  -3.795089e+001  4.250140e+001 
3237500000  -3.819081e+001  3.820669e+001 
3240625000  -3.765849e+001  3.477155e+001 
3243750000  -3.767356e+001  2.367388e+001 
3246875000  -3.822182e+001  1.684573e+001 
3250000000  -3.884665e+001  1.349684e+001 
3253125000  -3.882135e+001  8.632445e+000 
3256250000  -3.851043e+001  8.823352e-001 
3259375000  -3.919687e+001  -9.841488e+000 
3262500000  -4.061510e+001  -1.361232e+001 
3265625000  -4.132494e+001  -1.112545e+001 
3268750000  -4.116437e+001  -8.991589e+000 
3271875000  -4.063775e+001  -1.346516e+001 
3275000000  -4.018409e+001  -2.147141e+001 
3278125000  -4.090219e+001  -2.593284e+001 
3281250000  -4.098495e+001  -2.776019e+001 
3284375000  -4.036849e+001  -3.465858e+001 
3287500000  -4.100581e+001  -3.843688e+001 
3290625000  -4.122373e+001  -4.532839e+001 
3293750000  -4.102193e+001  -5.247659e+001 
3296875000  -4.231286e+001  -5.338706e+001 
3300000000  -4.193045e+001  -5.289471e+001 
3303125000  -4.093277e+001  -5.832591e+001 
3306250000  -4.080118e+001  -6.577223e+001 
3309375000  -4.034587e+001  -7.385600e+001 
3312500000  -4.085702e+001  -8.514608e+001 
3315625000  -4.199257e+001  -9.115413e+001 
3318750000  -4.346313e+001  -9.640362e+001 
3321875000  -4.504455e+001  -9.291029e+001 
3325000000  -4.458850e+001  -8.669599e+001 
3328125000  -4.370881e+001  -8.835718e+001 
3331250000  -4.232944e+001  -8.436156e+001 
3334375000  -3.982135e+001  -9.728524e+001 
3337500000  -4.027730e+001  -1.187180e+002 
3340625000  -4.196523e+001  -1.289851e+002 
3343750000  -4.398396e+001  -1.288492e+002 
3346875000  -4.336550e+001  -1.274810e+002 
3350000000  -4.314868e+001  -1.314240e+002 
3353125000  -4.303987e+001  -1.392489e+002 
3356250000  -4.215910e+001  -1.460939e+002 
3359375000  -4.330730e+001  -1.582062e+002 
3362500000  -4.414957e+001  -1.633614e+002 
3365625000  -4.450953e+001  -1.667706e+002 
3368750000  -4.567776e+001  -1.711749e+002 
3371875000  -4.605259e+001  -1.768844e+002 
3375000000  -4.743612e+001  -1.792007e+002 
3378125000  -4.803473e+001  -1.785952e+002 
3381250000  -5.013013e+001  -1.738199e+002 
3384375000  -4.648115e+001  -1.555155e+002 
3387500000  -4.361519e+001  -1.760685e+002 
3390625000  -4.604262e+001  1.641366e+002 
3393750000  -4.699229e+001  1.647717e+002 
3396875000  -4.548528e+001  1.642063e+002 
3400000000  -4.594316e+001  1.519721e+002 
3403125000  -4.667268e+001  1.471721e+002 
3406250000  -4.730700e+001  1.417403e+002 
3409375000  -4.759716e+001  1.373554e+002 
3412500000  -4.848278e+001  1.315187e+002 
3415625000  -4.924926e+001  1.270078e+002 
3418750000  -5.048056e+001  1.288262e+002 
3421875000  -5.121029e+001  1.366802e+002 
3425000000  -4.981061e+001  1.324099e+002 
3428125000  -4.968024e+001  1.228770e+002 
3431250000  -4.916480e+001  1.173814e+002 
3434375000  -5.047622e+001  1.192402e+002 
3437500000  -5.109888e+001  1.144636e+002 
3440625000  -5.171293e+001  1.185606e+002 
3443750000  -4.986200e+001  1.179108e+002 
3446875000  -5.041319e+001  1.131521e+002 
3450000000  -5.000461e+001  1.049204e+002 
3453125000  -5.026889e+001  9.262830e+001 
3456250000  -5.158627e+001  9.558306e+001 
3459375000  -5.274853e+001  1.015991e+002 
3462500000  -5.166917e+001  1.009515e+002 
3465625000  -5.018546e+001  8.996083e+001 
3468750000  -5.156794e+001  8.945040e+001 
3471875000  -5.171018e+001  9.117212e+001 
3475000000  -5.098290e+001  8.169561e+001 
3478125000  -5.031947e+001  7.134631e+001 
3481250000  -5.226639e+001  7.604761e+001 
3484375000  -5.181556e+001  8.044046e+001 
3487500000  -5.126577e+001  7.393787e+001 
3490625000  -5.032708e+001  6.569328e+001 
3493750000  -5.092933e+001  5.478279e+001 
3496875000  -5.060631e+001  5.722381e+001 
3500000000  -5.207874e+001  6.264735e+001 
3503125000  -5.031079e+001  5.592689e+001 
3506250000  -4.910411e+001  5.167299e+001 
3509375000  -4.894645e+001  3.692043e+001 
3512500000  -4.987955e+001  2.370256e+001 
3515625000  -5.060970e+001  2.049030e+001 
3518750000  -5.155159e+001  1.972851e+001 
3521875000  -5.141489e+001  1.166958e+001 
3525000000  -5.346102e+001  8.373820e+000 
3528125000  -5.190569e+001  1.125060e+001 
3531250000  -5.175083e+001  3.032568e+000 
3534375000  -5.217691e+001  -8.025496e+000 
3537500000  -5.283212e+001  -1.625756e+001 
3540625000  -5.436007e+001  -8.040277e+000 
3543750000  -5.501180e+001  -2.514375e+000 
3546875000  -5.563561e+001  -7.174288e+000 
3550000000  -5.297976e+001  -8.617216e+000 
3553125000  -5.275233e+001  -2.226401e+001 
3556250000  -5.457862e+001  -1.192789e+001 
3559375000  -5.608048e+001  -1.917366e+001 
3562500000  -5.512261e+001  -3.989314e+001 
3565625000  -5.654663e+001  -3.522224e+001 
3568750000  -5.623700e+001  -3.641782e+001 
3571875000  -5.745941e+001  -3.053237e+001 
3575000000  -5.882730e+001  -3.077719e+001 
3578125000  -5.785502e+001  -4.493967e+001 
3581250000  -5.931895e+001  -2.545214e+001 
3584375000  -5.749918e+001  -3.171037e+001 
3587500000  -5.616596e+001  -4.165296e+001 
3590625000  -5.912394e+001  -5.267608e+001 
3593750000  -5.828718e+001  -3.917648e+001 
3596875000  -6.024533e+001  -3.694400e+001 
3600000000  -5.671895e+001  -3.929733e+001 
3603125000  -5.742455e+001  -5.810621e+001 
3606250000  -5.878098e+001  -4.573210e+001 
3609375000  -5.735080e+001  -3.999256e+001 
3612500000  -5.901388e+001  -5.694363e+001 
3615625000  -5.837124e+001  -4.435329e+001 
3618750000  -5.929899e+001  -5.177031e+001 
3621875000  -5.827640e+001  -3.932965e+001 
3625000000  -5.918200e+001  -4.528473e+001 
3628125000  -5.693815e+001  -4.351368e+001 
3631250000  -5.690604e+001  -4.935984e+001 
3634375000  -5.757681e+001  -4.013445e+001 
3637500000  -5.669077e+001  -2.646448e+001 
3640625000  -5.507740e+001  -2.191393e+001 
3643750000  -5.258525e+001  -3.609263e+001 
3646875000  -5.382518e+001  -4.884993e+001 
3650000000  -5.312278e+001  -4.963186e+001 
3653125000  -5.205859e+001  -5.539230e+001 
3656250000  -5.170887e+001  -5.578492e+001 
3659375000  -5.207607e+001  -6.135365e+001 
3662500000  -5.120750e+001  -6.174486e+001 
3665625000  -5.053207e+001  -5.916750e+001 
3668750000  -4.958261e+001  -6.385838e+001 
3671875000  -4.779573e+001  -7.418441e+001 
3675000000  -4.764936e+001  -8.064919e+001 
3678125000  -4.827163e+001  -8.574422e+001 
3681250000  -4.664211e+001  -9.007199e+001 
3684375000  -4.748307e+001  -9.154205e+001 
3687500000  -4.678884e+001  -1.029835e+002 
3690625000  -4.683402e+001  -1.074717e+002 
3693750000  -4.721424e+001  -1.062260e+002 
3696875000  -4.656649e+001  -1.071276e+002 
3700000000  -4.543235e+001  -1.132594e+002 
3703125000  -4.545833e+001  -1.188528e+002 
3706250000  -4.594155e+001  -1.208770e+002 
3709375000  -4.471735e+001  -1.205918e+002 
3712500000  -4.417404e+001  -1.270550e+002 
3715625000  -4.221290e+001  -1.349787e+002 
3718750000  -4.191686e+001  -1.415634e+002 
3721875000  -4.124372e+001  -1.526825e+002 
3725000000  -4.201432e+001  -1.584554e+002 
3728125000  -4.152798e+001  -1.628780e+002 
3731250000  -4.088531e+001  -1.685565e+002 
3734375000  -4.023635e+001  -1.752990e+002 
3737500000  -4.079299e+001  1.746195e+002 
3740625000  -4.122120e+001  1.689525e+002 
3743750000  -4.028207e+001  1.625856e+002 
3746875000  -4.056094e+001  1.569135e+002 
3750000000  -4.109276e+001  1.512114e+002 
3753125000  -4.061875e+001  1.495305e+002 
3756250000  -4.078782e+001  1.439919e+002 
3759375000  -4.033270e+001  1.412805e+002 
3762500000  -4.022284e+001  1.332457e+002 
3765625000  -4.081873e+001  1.282946e+002 
3768750000  -4.017381e+001  1.290528e+002 
3771875000  -3.851908e+001  1.227183e+002 
3775000000  -3.857541e+001  1.112185e+002 
3778125000  -3.913357e+001  1.039807e+002 
3781250000  -3.910527e+001  9.986568e+001 
3784375000  -3.871931e+001  9.354505e+001 
3787500000  -3.852283e+001  8.816128e+001 
3790625000  -3.923972e+001  7.833844e+001 
3793750000  -3.913778e+001  7.643725e+001 
3796875000  -3.815525e+001  7.209800e+001 
3800000000  -3.638822e+001  6.824234e+001 
3803125000  -3.801016e+001  5.414702e+001 
3806250000  -3.905812e+001  4.945924e+001 
3809375000  -3.867274e+001  4.597142e+001 
3812500000  -3.844158e+001  3.635711e+001 
3815625000  -3.959377e+001  2.701484e+001 
3818750000  -4.069321e+001  2.677540e+001 
3821875000  -4.028278e+001  3.875854e+001 
3825000000  -3.832957e+001  3.374766e+001 
3828125000  -3.692138e+001  1.492265e+001 
3831250000  -3.811749e+001  1.331251e+000 
3834375000  -4.031454e+001  -3.200773e-001 
3837500000  -4.084282e+001  5.796475e+000 
3840625000  -3.926110e+001  3.683501e-001 
3843750000  -3.843256e+001  -1.362389e+001 
3846875000  -3.972348e+001  -1.984189e+001 
3850000000  -4.063825e+001  -1.363114e+001 
3853125000  -3.996800e+001  -1.358420e+001 
3856250000  -3.955999e+001  -2.242599e+001 
3859375000  -3.881445e+001  -2.815773e+001 
3862500000  -3.865023e+001  -3.863917e+001 
3865625000  -3.898401e+001  -4.361125e+001 
3868750000  -3.871512e+001  -4.360385e+001 
3871875000  -3.803652e+001  -5.057240e+001 
3875000000  -3.849358e+001  -6.048208e+001 
3878125000  -3.948146e+001  -6.618512e+001 
3881250000  -3.925935e+001  -6.526447e+001 
3884375000  -3.868644e+001  -7.100218e+001 
3887500000  -3.918218e+001  -7.685294e+001 
3890625000  -3.946441e+001  -8.153130e+001 
3893750000  -3.944912e+001  -8.473050e+001 
3896875000  -3.985412e+001  -8.686858e+001 
3900000000  -3.972958e+001  -9.049597e+001 
3903125000  -3.931376e+001  -9.376486e+001 
3906250000  -3.906055e+001  -9.713828e+001 
3909375000  -3.829358e+001  -1.085804e+002 
3912500000  -3.898358e+001  -1.177080e+002 
3915625000  -4.023682e+001  -1.162453e+002 
3918750000  -4.025010e+001  -1.196211e+002 
3921875000  -3.936646e+001  -1.222785e+002 
3925000000  -3.850554e+001  -1.273018e+002 
3928125000  -3.826544e+001  -1.379393e+002 
3931250000  -3.894694e+001  -1.438178e+002 
3934375000  -3.934068e+001  -1.469492e+002 
3937500000  -3.984730e+001  -1.478755e+002 
3940625000  -4.005424e+001  -1.490036e+002 
3943750000  -3.878526e+001  -1.517998e+002 
3946875000  -3.833631e+001  -1.614983e+002 
3950000000  -3.934027e+001  -1.698967e+002 
3953125000  -4.004637e+001  -1.681521e+002 
3956250000  -3.862732e+001  -1.694617e+002 
3959375000  -3.772874e+001  -1.766065e+002 
3962500000  -3.748748e+001  1.755294e+002 
3965625000  -3.788765e+001  1.655703e+002 
3968750000  -3.837580e+001  1.596065e+002 
3971875000  -3.861977e+001  1.525830e+002 
3975000000  -3.841747e+001  1.484844e+002 
3978125000  -3.836839e+001  1.447989e+002 
3981250000  -3.860546e+001  1.386816e+002 
3984375000  -3.877999e+001  1.316933e+002 
3987500000  -3.948777e+001  1.272689e+002 
3990625000  -4.000270e+001  1.262033e+002 
3993750000  -3.986607e+001  1.213432e+002 
3996875000  -3.971490e+001  1.178070e+002 
4000000000  -4.038381e+001  1.117849e+002 
4003125000  -4.098047e+001  1.148883e+002 
4006250000  -3.897855e+001  1.119913e+002 
4009375000  -3.863015e+001  9.749432e+001 
4012500000  -4.011601e+001  8.983106e+001 
4015625000  -4.158500e+001  8.994748e+001 
4018750000  -4.116575e+001  9.002037e+001 
4021875000  -4.058508e+001  8.851254e+001 
4025000000  -4.029149e+001  8.094807e+001 
4028125000  -4.035207e+001  7.322781e+001 
4031250000  -4.095243e+001  6.913135e+001 
4034375000  -4.120925e+001  7.025811e+001 
4037500000  -4.089199e+001  7.062461e+001 
4040625000  -4.079421e+001  6.617509e+001 
4043750000  -4.106532e+001  6.063534e+001 
4046875000  -4.077974e+001  5.629184e+001 
4050000000  -4.018469e+001  5.151932e+001 
4053125000  -4.125549e+001  4.988497e+001 
4056250000  -4.133855e+001  5.468900e+001 
4059375000  -3.935362e+001  5.202711e+001 
4062500000  -3.857949e+001  4.370648e+001 
4065625000  -3.877110e+001  3.848947e+001 
4068750000  -3.795802e+001  3.024693e+001 
4071875000  -3.758300e+001  2.158060e+001 
4075000000  -3.803106e+001  1.275482e+001 
4078125000  -3.829893e+001  9.798097e+000 
4081250000  -3.791820e+001  5.536608e+000 
4084375000  -3.765335e+001  -4.408664e+000 
4087500000  -3.821272e+001  -1.124336e+001 
4090625000  -3.886760e+001  -1.240598e+001 
4093750000  -3.842610e+001  -1.412584e+001 
4096875000  -3.843102e+001  -2.498479e+001 
4100000000  -3.907318e+001  -3.190703e+001 
4103125000  -4.026765e+001  -3.084242e+001 
4106250000  -3.979118e+001  -2.730055e+001 
4109375000  -3.858685e+001  -3.019352e+001 
4112500000  -3.805780e+001  -3.988311e+001 
4115625000  -3.904419e+001  -4.644781e+001 
4118750000  -3.885157e+001  -5.236706e+001 
4121875000  -3.874936e+001  -5.907306e+001 
4125000000  -3.969733e+001  -6.565186e+001 
4128125000  -4.031619e+001  -5.998403e+001 
4131250000  -3.927975e+001  -5.868034e+001 
4134375000  -3.730576e+001  -6.761513e+001 
4137500000  -3.763948e+001  -8.748356e+001 
4140625000  -3.973394e+001  -9.325727e+001 
4143750000  -4.103883e+001  -8.795670e+001 
4146875000  -4.015005e+001  -8.418531e+001 
4150000000  -3.909752e+001  -9.250066e+001 
4153125000  -3.930867e+001  -1.010077e+002 
4156250000  -4.071133e+001  -1.046881e+002 
4159375000  -4.070526e+001  -9.868651e+001 
4162500000  -3.967102e+001  -9.574448e+001 
4165625000  -3.845705e+001  -1.066069e+002 
4168750000  -3.807708e+001  -1.135638e+002 
4171875000  -3.788179e+001  -1.259702e+002 
4175000000  -3.898740e+001  -1.313416e+002 
4178125000  -3.904949e+001  -1.327021e+002 
4181250000  -3.894464e+001  -1.356139e+002 
4184375000  -3.910839e+001  -1.420069e+002 
4187500000  -3.908204e+001  -1.468195e+002 
4190625000  -3.894812e+001  -1.534377e+002 
4193750000  -3.993830e+001  -1.595262e+002 
4196875000  -4.099678e+001  -1.586683e+002 
4200000000  -4.193543e+001  -1.518055e+002 
4203125000  -4.040143e+001  -1.405751e+002 
4206250000  -3.712263e+001  -1.494167e+002 
4209375000  -3.685575e+001  -1.728121e+002 
4212500000  -3.926640e+001  -1.788276e+002 
4215625000  -3.939813e+001  -1.731748e+002 
4218750000  -3.790400e+001  -1.715604e+002 
4221875000  -3.598135e+001  1.778606e+002 
4225000000  -3.714756e+001  1.671019e+002 
4228125000  -3.718357e+001  1.674530e+002 
4231250000  -3.575112e+001  1.597496e+002 
4234375000  -3.576326e+001  1.487612e+002 
4237500000  -3.576815e+001  1.422475e+002 
4240625000  -3.586677e+001  1.332487e+002 
4243750000  -3.722458e+001  1.240628e+002 
4246875000  -3.795662e+001  1.238594e+002 
4250000000  -3.778522e+001  1.230556e+002 
4253125000  -3.751870e+001  1.200093e+002 
4256250000  -3.756290e+001  1.158532e+002 
4259375000  -3.703873e+001  1.095546e+002 
4262500000  -3.727746e+001  1.039890e+002 
4265625000  -3.750184e+001  1.024339e+002 
4268750000  -3.650158e+001  9.611807e+001 
4271875000  -3.637846e+001  8.685392e+001 
4275000000  -3.579497e+001  7.750875e+001 
4278125000  -3.677008e+001  6.388971e+001 
4281250000  -3.846080e+001  6.398303e+001 
4284375000  -3.810248e+001  6.078293e+001 
4287500000  -3.947353e+001  5.819144e+001 
4290625000  -4.025673e+001  6.841560e+001 
4293750000  -3.813580e+001  6.668478e+001 
4296875000  -3.716249e+001  5.618133e+001 
4300000000  -3.873309e+001  4.416732e+001 
4303125000  -3.920169e+001  4.865594e+001 
4306250000  -3.786204e+001  5.008297e+001 
4309375000  -3.699895e+001  4.349623e+001 
4312500000  -3.710472e+001  3.395141e+001 
4315625000  -3.736877e+001  2.439128e+001 
4318750000  -3.806853e+001  2.106989e+001 
4321875000  -3.818038e+001  2.152673e+001 
4325000000  -3.754581e+001  1.976942e+001 
4328125000  -3.685343e+001  1.062062e+001 
4331250000  -3.680648e+001  3.770943e-001 
4334375000  -3.768717e+001  -5.934785e+000 
4337500000  -3.885843e+001  -7.880643e+000 
4340625000  -3.903773e+001  -3.409209e+000 
4343750000  -3.801261e+001  -6.048482e+000 
4346875000  -3.773623e+001  -1.412290e+001 
4350000000  -3.772639e+001  -2.312321e+001 
4353125000  -3.820374e+001  -3.136546e+001 
4356250000  -4.055022e+001  -2.725583e+001 
4359375000  -3.905815e+001  -1.358176e+001 
4362500000  -3.632370e+001  -2.167054e+001 
4365625000  -3.552407e+001  -3.793744e+001 
4368750000  -3.671791e+001  -4.888734e+001 
4371875000  -3.736346e+001  -4.831361e+001 
4375000000  -3.671536e+001  -5.132275e+001 
4378125000  -3.631010e+001  -5.925175e+001 
4381250000  -3.648158e+001  -6.810135e+001 
4384375000  -3.633893e+001  -7.312328e+001 
4387500000  -3.756498e+001  -8.100976e+001 
4390625000  -3.794920e+001  -8.121233e+001 
4393750000  -3.730197e+001  -8.128842e+001 
4396875000  -3.662518e+001  -8.575902e+001 
4400000000  -3.644909e+001  -9.486861e+001 
4403125000  -3.706684e+001  -1.053613e+002 
4406250000  -3.771128e+001  -1.080776e+002 
4409375000  -3.780868e+001  -1.143681e+002 
4412500000  -3.893840e+001  -1.169023e+002 
4415625000  -3.883997e+001  -1.111765e+002 
