!Agilent Technologies,E8363B,MY43030201,A.06.04.32
!Agilent E8363B: A.06.04.32
!Date: Tuesday, November 11, 2014 21:35:34
!Correction: S21(Response(S21)) 
!S1P File: Measurement: S21:
# Hz S  dB   R 50
3000000000  -4.061067e+001  7.335139e+001 
3003125000  -4.223209e+001  6.409856e+001 
3006250000  -4.207287e+001  6.325987e+001 
3009375000  -4.282226e+001  6.795009e+001 
3012500000  -4.157557e+001  6.279511e+001 
3015625000  -4.140784e+001  5.788337e+001 
3018750000  -4.187354e+001  5.806878e+001 
3021875000  -4.022702e+001  5.790619e+001 
3025000000  -3.885359e+001  5.485442e+001 
3028125000  -3.791663e+001  4.387717e+001 
3031250000  -3.696579e+001  3.186118e+001 
3034375000  -3.676697e+001  1.846983e+001 
3037500000  -3.764928e+001  8.023321e+000 
3040625000  -3.873629e+001  2.381611e+000 
3043750000  -3.918547e+001  -4.884599e+000 
3046875000  -3.985844e+001  -9.165524e+000 
3050000000  -4.101813e+001  -1.326667e+001 
3053125000  -4.057726e+001  -9.439108e+000 
3056250000  -4.050624e+001  -7.049508e+000 
3059375000  -3.972010e+001  -9.431071e+000 
3062500000  -3.814710e+001  -1.409300e+001 
3065625000  -3.781920e+001  -2.318683e+001 
3068750000  -3.750510e+001  -3.042866e+001 
3071875000  -3.765500e+001  -3.300112e+001 
3075000000  -3.695385e+001  -4.006105e+001 
3078125000  -3.707827e+001  -4.612131e+001 
3081250000  -3.726375e+001  -5.252139e+001 
3084375000  -3.642199e+001  -5.731501e+001 
3087500000  -3.638649e+001  -6.423886e+001 
3090625000  -3.585685e+001  -7.696564e+001 
3093750000  -3.699089e+001  -8.410367e+001 
3096875000  -3.735931e+001  -8.987061e+001 
3100000000  -3.725996e+001  -9.202609e+001 
3103125000  -3.753996e+001  -9.603297e+001 
3106250000  -3.711307e+001  -1.018511e+002 
3109375000  -3.729445e+001  -1.047149e+002 
3112500000  -3.733419e+001  -1.103625e+002 
3115625000  -3.715378e+001  -1.150289e+002 
3118750000  -3.725943e+001  -1.177470e+002 
3121875000  -3.651015e+001  -1.291354e+002 
3125000000  -3.855368e+001  -1.324007e+002 
3128125000  -3.828780e+001  -1.253915e+002 
3131250000  -3.605940e+001  -1.319010e+002 
3134375000  -3.528323e+001  -1.488946e+002 
3137500000  -3.606525e+001  -1.605180e+002 
3140625000  -3.733027e+001  -1.632133e+002 
3143750000  -3.806143e+001  -1.662673e+002 
3146875000  -3.759182e+001  -1.632207e+002 
3150000000  -3.682317e+001  -1.673998e+002 
3153125000  -3.725850e+001  -1.758240e+002 
3156250000  -3.807998e+001  -1.721535e+002 
3159375000  -3.552807e+001  -1.739857e+002 
3162500000  -3.420373e+001  1.708537e+002 
3165625000  -3.534906e+001  1.580061e+002 
3168750000  -3.534249e+001  1.568545e+002 
3171875000  -3.493192e+001  1.494751e+002 
3175000000  -3.547344e+001  1.410022e+002 
3178125000  -3.508485e+001  1.392316e+002 
3181250000  -3.437091e+001  1.304133e+002 
3184375000  -3.413266e+001  1.191750e+002 
3187500000  -3.552024e+001  1.044234e+002 
3190625000  -3.718320e+001  9.865131e+001 
3193750000  -3.754069e+001  1.034072e+002 
3196875000  -3.735300e+001  1.046055e+002 
3200000000  -3.621538e+001  9.825922e+001 
3203125000  -3.584262e+001  9.075999e+001 
3206250000  -3.605976e+001  8.316013e+001 
3209375000  -3.581730e+001  7.514230e+001 
3212500000  -3.622273e+001  6.891549e+001 
3215625000  -3.598162e+001  6.621493e+001 
3218750000  -3.682144e+001  5.468446e+001 
3221875000  -3.718901e+001  4.865006e+001 
3225000000  -3.692973e+001  4.463901e+001 
3228125000  -3.779611e+001  3.753000e+001 
3231250000  -3.824557e+001  3.543112e+001 
3234375000  -3.796048e+001  3.223976e+001 
3237500000  -3.806823e+001  2.778312e+001 
3240625000  -3.755442e+001  2.171286e+001 
3243750000  -3.761363e+001  1.262176e+001 
3246875000  -3.824756e+001  5.702716e+000 
3250000000  -3.877876e+001  1.191689e+000 
3253125000  -3.895259e+001  -2.126653e+000 
3256250000  -3.846164e+001  -1.014455e+001 
3259375000  -3.911429e+001  -2.025910e+001 
3262500000  -4.055068e+001  -2.469985e+001 
3265625000  -4.110429e+001  -2.084414e+001 
3268750000  -4.107500e+001  -2.191489e+001 
3271875000  -4.037037e+001  -2.390236e+001 
3275000000  -4.010482e+001  -3.233888e+001 
3278125000  -4.089620e+001  -3.735468e+001 
3281250000  -4.095685e+001  -3.955701e+001 
3284375000  -4.058147e+001  -4.503915e+001 
3287500000  -4.105190e+001  -4.885438e+001 
3290625000  -4.110680e+001  -5.817380e+001 
3293750000  -4.126708e+001  -6.178928e+001 
3296875000  -4.251781e+001  -6.422830e+001 
3300000000  -4.180762e+001  -6.339203e+001 
3303125000  -4.086052e+001  -7.057425e+001 
3306250000  -4.093348e+001  -7.830267e+001 
3309375000  -4.025768e+001  -8.625784e+001 
3312500000  -4.075331e+001  -9.771334e+001 
3315625000  -4.207952e+001  -1.033230e+002 
3318750000  -4.366745e+001  -1.081057e+002 
3321875000  -4.478019e+001  -1.047040e+002 
3325000000  -4.492810e+001  -9.568929e+001 
3328125000  -4.385249e+001  -9.963783e+001 
3331250000  -4.210453e+001  -9.432306e+001 
3334375000  -3.963549e+001  -1.102135e+002 
3337500000  -4.030707e+001  -1.338679e+002 
3340625000  -4.220610e+001  -1.398986e+002 
3343750000  -4.390825e+001  -1.383062e+002 
3346875000  -4.311943e+001  -1.416055e+002 
3350000000  -4.314886e+001  -1.466726e+002 
3353125000  -4.279038e+001  -1.509721e+002 
3356250000  -4.248397e+001  -1.601563e+002 
3359375000  -4.363225e+001  -1.730669e+002 
3362500000  -4.423215e+001  -1.753350e+002 
3365625000  -4.483296e+001  1.788954e+002 
3368750000  -4.530830e+001  1.750905e+002 
3371875000  -4.564148e+001  1.717398e+002 
3375000000  -4.746684e+001  1.665458e+002 
3378125000  -4.847616e+001  1.659538e+002 
3381250000  -4.978970e+001  1.792048e+002 
3384375000  -4.643378e+001  -1.669629e+002 
3387500000  -4.383334e+001  1.729269e+002 
3390625000  -4.674989e+001  1.511359e+002 
3393750000  -4.703140e+001  1.529050e+002 
3396875000  -4.591114e+001  1.511277e+002 
3400000000  -4.600872e+001  1.389002e+002 
3403125000  -4.688236e+001  1.356263e+002 
3406250000  -4.753684e+001  1.306026e+002 
3409375000  -4.824565e+001  1.197859e+002 
3412500000  -4.893824e+001  1.140206e+002 
3415625000  -5.048275e+001  1.152350e+002 
3418750000  -4.999818e+001  1.190742e+002 
3421875000  -5.126738e+001  1.159474e+002 
3425000000  -4.982491e+001  1.172962e+002 
3428125000  -5.009178e+001  1.154414e+002 
3431250000  -5.017575e+001  1.062032e+002 
3434375000  -5.064486e+001  1.036930e+002 
3437500000  -5.198587e+001  1.034650e+002 
3440625000  -5.223738e+001  1.044107e+002 
3443750000  -5.108976e+001  1.054687e+002 
3446875000  -5.010886e+001  1.049001e+002 
3450000000  -4.992198e+001  9.139582e+001 
3453125000  -5.142101e+001  8.672645e+001 
3456250000  -5.175061e+001  8.204014e+001 
3459375000  -5.370675e+001  8.952091e+001 
3462500000  -5.220330e+001  8.949923e+001 
3465625000  -5.159622e+001  7.487168e+001 
3468750000  -5.169785e+001  7.769711e+001 
3471875000  -5.212971e+001  7.295063e+001 
3475000000  -5.100608e+001  6.584251e+001 
3478125000  -5.118562e+001  5.788495e+001 
3481250000  -5.269157e+001  6.058520e+001 
3484375000  -5.300856e+001  6.041400e+001 
3487500000  -5.110612e+001  5.898292e+001 
3490625000  -5.098872e+001  5.208278e+001 
3493750000  -5.183390e+001  5.117785e+001 
3496875000  -5.159461e+001  5.001009e+001 
3500000000  -5.211509e+001  4.741005e+001 
3503125000  -5.012767e+001  4.793068e+001 
3506250000  -4.994524e+001  4.014732e+001 
3509375000  -4.931803e+001  2.443513e+001 
3512500000  -5.029244e+001  1.540305e+001 
3515625000  -5.148276e+001  4.305155e+000 
3518750000  -5.223555e+001  1.076611e+001 
3521875000  -5.309567e+001  -4.005288e+000 
3525000000  -5.323751e+001  -2.934754e+000 
3528125000  -5.292623e+001  3.877481e-001 
3531250000  -5.107418e+001  -3.350083e+000 
3534375000  -5.301410e+001  -2.104030e+001 
3537500000  -5.347039e+001  -2.645886e+001 
3540625000  -5.473722e+001  -2.492213e+001 
3543750000  -5.558932e+001  -1.318852e+001 
3546875000  -5.438777e+001  -1.264238e+001 
3550000000  -5.343217e+001  -1.670390e+001 
3553125000  -5.472468e+001  -3.994678e+001 
3556250000  -5.638145e+001  -3.919653e+001 
3559375000  -5.795951e+001  -2.557800e+001 
3562500000  -5.625401e+001  -5.019431e+001 
3565625000  -5.644493e+001  -4.248749e+001 
3568750000  -5.698453e+001  -3.678049e+001 
3571875000  -5.755623e+001  -3.011028e+001 
3575000000  -5.810352e+001  -3.859068e+001 
3578125000  -5.999400e+001  -3.875285e+001 
3581250000  -5.797218e+001  -3.493940e+001 
3584375000  -5.720673e+001  -4.500717e+001 
3587500000  -5.785478e+001  -5.007877e+001 
3590625000  -5.732632e+001  -5.261367e+001 
3593750000  -6.174077e+001  -3.629948e+001 
3596875000  -5.806721e+001  -3.881880e+001 
3600000000  -5.673425e+001  -4.477460e+001 
3603125000  -5.798319e+001  -6.769106e+001 
3606250000  -5.964228e+001  -4.157542e+001 
3609375000  -5.941354e+001  -3.812302e+001 
3612500000  -5.966460e+001  -4.877269e+001 
3615625000  -5.951300e+001  -5.805866e+001 
3618750000  -5.968481e+001  -5.356055e+001 
3621875000  -5.699355e+001  -4.434955e+001 
3625000000  -5.777962e+001  -3.842517e+001 
3628125000  -5.679208e+001  -4.176172e+001 
3631250000  -5.702672e+001  -5.383423e+001 
3634375000  -5.727443e+001  -4.537850e+001 
3637500000  -5.471000e+001  -4.756440e+001 
3640625000  -5.372610e+001  -4.290406e+001 
3643750000  -5.354226e+001  -4.498616e+001 
3646875000  -5.341587e+001  -5.640709e+001 
3650000000  -5.302684e+001  -5.827669e+001 
3653125000  -5.220958e+001  -5.969209e+001 
3656250000  -5.173507e+001  -6.306410e+001 
3659375000  -5.231612e+001  -6.840308e+001 
3662500000  -5.092917e+001  -7.271743e+001 
3665625000  -5.003281e+001  -7.093557e+001 
3668750000  -4.757764e+001  -7.169333e+001 
3671875000  -4.753236e+001  -8.952469e+001 
3675000000  -4.695170e+001  -9.420061e+001 
3678125000  -4.741398e+001  -9.653860e+001 
3681250000  -4.640288e+001  -1.029963e+002 
3684375000  -4.626955e+001  -1.063710e+002 
3687500000  -4.685204e+001  -1.163342e+002 
3690625000  -4.652447e+001  -1.183227e+002 
3693750000  -4.729465e+001  -1.201801e+002 
3696875000  -4.635944e+001  -1.198439e+002 
3700000000  -4.504391e+001  -1.242819e+002 
3703125000  -4.556192e+001  -1.320999e+002 
3706250000  -4.612569e+001  -1.321614e+002 
3709375000  -4.446259e+001  -1.339859e+002 
3712500000  -4.353386e+001  -1.383609e+002 
3715625000  -4.203342e+001  -1.479764e+002 
3718750000  -4.174428e+001  -1.545756e+002 
3721875000  -4.149751e+001  -1.651797e+002 
3725000000  -4.164578e+001  -1.708136e+002 
3728125000  -4.158734e+001  -1.747625e+002 
3731250000  -4.063453e+001  -1.799555e+002 
3734375000  -4.014412e+001  1.730630e+002 
3737500000  -4.073498e+001  1.624153e+002 
3740625000  -4.075863e+001  1.589753e+002 
3743750000  -4.044154e+001  1.514100e+002 
3746875000  -4.040017e+001  1.452818e+002 
3750000000  -4.071503e+001  1.394840e+002 
3753125000  -4.076282e+001  1.384721e+002 
3756250000  -4.086082e+001  1.332917e+002 
3759375000  -4.036459e+001  1.286249e+002 
3762500000  -4.017619e+001  1.205609e+002 
3765625000  -4.070329e+001  1.165344e+002 
3768750000  -4.000195e+001  1.168215e+002 
3771875000  -3.864964e+001  1.101398e+002 
3775000000  -3.850000e+001  9.770264e+001 
3778125000  -3.912890e+001  9.087006e+001 
3781250000  -3.892315e+001  8.691963e+001 
3784375000  -3.872920e+001  8.128125e+001 
3787500000  -3.854038e+001  7.572018e+001 
3790625000  -3.902121e+001  6.628232e+001 
3793750000  -3.903246e+001  6.411001e+001 
3796875000  -3.826023e+001  5.885613e+001 
3800000000  -3.636295e+001  5.450967e+001 
3803125000  -3.802824e+001  4.110281e+001 
3806250000  -3.892495e+001  3.713107e+001 
3809375000  -3.841058e+001  3.331588e+001 
3812500000  -3.852969e+001  2.314828e+001 
3815625000  -3.950072e+001  1.355189e+001 
3818750000  -4.086077e+001  1.538961e+001 
3821875000  -4.033335e+001  2.418057e+001 
3825000000  -3.803164e+001  2.171401e+001 
3828125000  -3.694383e+001  1.496921e+000 
3831250000  -3.828802e+001  -1.199016e+001 
3834375000  -4.037271e+001  -1.065690e+001 
3837500000  -4.051078e+001  -8.690691e+000 
3840625000  -3.897029e+001  -1.136273e+001 
3843750000  -3.818608e+001  -2.744471e+001 
3846875000  -4.005838e+001  -3.085307e+001 
3850000000  -4.104800e+001  -2.535247e+001 
3853125000  -3.993276e+001  -2.629605e+001 
3856250000  -3.953415e+001  -3.502510e+001 
3859375000  -3.877720e+001  -4.155158e+001 
3862500000  -3.840598e+001  -5.028190e+001 
3865625000  -3.870860e+001  -5.780027e+001 
3868750000  -3.864457e+001  -5.718565e+001 
3871875000  -3.812400e+001  -6.616139e+001 
3875000000  -3.868003e+001  -7.597219e+001 
3878125000  -3.935738e+001  -7.815149e+001 
3881250000  -3.932324e+001  -7.768273e+001 
3884375000  -3.890045e+001  -8.583203e+001 
3887500000  -3.890407e+001  -8.929553e+001 
3890625000  -3.950595e+001  -9.723071e+001 
3893750000  -3.968700e+001  -9.599985e+001 
3896875000  -4.030112e+001  -1.002940e+002 
3900000000  -3.951921e+001  -1.043496e+002 
3903125000  -3.928761e+001  -1.087513e+002 
3906250000  -3.884018e+001  -1.124036e+002 
3909375000  -3.804283e+001  -1.208022e+002 
3912500000  -3.899323e+001  -1.304920e+002 
3915625000  -4.021990e+001  -1.302779e+002 
3918750000  -4.007347e+001  -1.314233e+002 
3921875000  -3.937537e+001  -1.362661e+002 
3925000000  -3.861914e+001  -1.412090e+002 
3928125000  -3.825618e+001  -1.520360e+002 
3931250000  -3.896704e+001  -1.590207e+002 
3934375000  -3.975239e+001  -1.574420e+002 
3937500000  -3.980235e+001  -1.625201e+002 
3940625000  -4.020405e+001  -1.651697e+002 
3943750000  -3.866324e+001  -1.667984e+002 
3946875000  -3.840260e+001  -1.760710e+002 
3950000000  -3.959632e+001  1.759953e+002 
3953125000  -4.003336e+001  1.787086e+002 
3956250000  -3.880356e+001  1.769888e+002 
3959375000  -3.789956e+001  1.705682e+002 
3962500000  -3.756785e+001  1.607444e+002 
3965625000  -3.791107e+001  1.527448e+002 
3968750000  -3.880778e+001  1.442431e+002 
3971875000  -3.863272e+001  1.388321e+002 
3975000000  -3.833475e+001  1.356769e+002 
3978125000  -3.862553e+001  1.308624e+002 
3981250000  -3.836961e+001  1.255042e+002 
3984375000  -3.896439e+001  1.172906e+002 
3987500000  -3.942585e+001  1.148170e+002 
3990625000  -4.000759e+001  1.112034e+002 
3993750000  -3.988080e+001  1.080557e+002 
3996875000  -3.997044e+001  1.011869e+002 
4000000000  -4.055650e+001  9.684753e+001 
4003125000  -4.075501e+001  1.002142e+002 
4006250000  -3.928799e+001  9.584304e+001 
4009375000  -3.878035e+001  8.255511e+001 
4012500000  -4.032807e+001  7.446626e+001 
4015625000  -4.128952e+001  7.329523e+001 
4018750000  -4.127963e+001  7.396700e+001 
4021875000  -4.070173e+001  7.150164e+001 
4025000000  -4.055518e+001  6.357977e+001 
4028125000  -4.045358e+001  5.852600e+001 
4031250000  -4.142614e+001  5.345394e+001 
4034375000  -4.137645e+001  5.371210e+001 
4037500000  -4.114300e+001  5.534692e+001 
4040625000  -4.091248e+001  4.809637e+001 
4043750000  -4.124048e+001  4.641868e+001 
4046875000  -4.091888e+001  4.277795e+001 
4050000000  -4.056847e+001  3.685291e+001 
4053125000  -4.117718e+001  3.535842e+001 
4056250000  -4.149374e+001  4.090327e+001 
4059375000  -3.945262e+001  3.635206e+001 
4062500000  -3.869480e+001  2.921680e+001 
4065625000  -3.878761e+001  2.328475e+001 
4068750000  -3.813381e+001  1.559672e+001 
4071875000  -3.756609e+001  5.913038e+000 
4075000000  -3.831079e+001  -8.459464e-001 
4078125000  -3.886715e+001  -3.354348e+000 
4081250000  -3.804892e+001  -8.694460e+000 
4084375000  -3.809299e+001  -1.874456e+001 
4087500000  -3.872388e+001  -2.392533e+001 
4090625000  -3.939137e+001  -2.607897e+001 
4093750000  -3.877105e+001  -3.097910e+001 
4096875000  -3.869515e+001  -3.930059e+001 
4100000000  -3.984222e+001  -4.640589e+001 
4103125000  -4.056613e+001  -4.372835e+001 
4106250000  -3.995396e+001  -4.140147e+001 
4109375000  -3.919672e+001  -4.436159e+001 
4112500000  -3.877754e+001  -5.553058e+001 
4115625000  -3.943951e+001  -6.181131e+001 
4118750000  -3.890447e+001  -6.744019e+001 
4121875000  -3.889979e+001  -7.392336e+001 
4125000000  -4.002883e+001  -7.988589e+001 
4128125000  -4.094522e+001  -7.641734e+001 
4131250000  -3.978741e+001  -7.132848e+001 
4134375000  -3.757628e+001  -8.195320e+001 
4137500000  -3.814493e+001  -1.019049e+002 
4140625000  -4.045879e+001  -1.084626e+002 
4143750000  -4.131738e+001  -1.019843e+002 
4146875000  -4.060486e+001  -1.000437e+002 
4150000000  -3.961002e+001  -1.059853e+002 
4153125000  -3.968127e+001  -1.158259e+002 
4156250000  -4.130797e+001  -1.183424e+002 
4159375000  -4.097247e+001  -1.134901e+002 
4162500000  -3.986498e+001  -1.113663e+002 
4165625000  -3.869554e+001  -1.198089e+002 
4168750000  -3.854851e+001  -1.290536e+002 
4171875000  -3.844044e+001  -1.391694e+002 
4175000000  -3.933214e+001  -1.454799e+002 
4178125000  -3.947435e+001  -1.464383e+002 
4181250000  -3.945540e+001  -1.509872e+002 
4184375000  -3.946852e+001  -1.556959e+002 
4187500000  -3.945956e+001  -1.596814e+002 
4190625000  -3.963433e+001  -1.675264e+002 
4193750000  -4.053036e+001  -1.732693e+002 
4196875000  -4.165118e+001  -1.728345e+002 
4200000000  -4.254312e+001  -1.673409e+002 
4203125000  -4.095364e+001  -1.561782e+002 
4206250000  -3.739822e+001  -1.631309e+002 
4209375000  -3.720475e+001  1.720021e+002 
4212500000  -3.967673e+001  1.664989e+002 
4215625000  -4.013801e+001  1.719458e+002 
4218750000  -3.847056e+001  1.757275e+002 
4221875000  -3.666822e+001  1.641977e+002 
4225000000  -3.778680e+001  1.527125e+002 
4228125000  -3.767569e+001  1.518686e+002 
4231250000  -3.626502e+001  1.450255e+002 
4234375000  -3.655672e+001  1.348330e+002 
4237500000  -3.623986e+001  1.288483e+002 
4240625000  -3.619402e+001  1.171924e+002 
4243750000  -3.745866e+001  1.091831e+002 
4246875000  -3.868900e+001  1.088429e+002 
4250000000  -3.832195e+001  1.099633e+002 
4253125000  -3.806838e+001  1.059546e+002 
4256250000  -3.797769e+001  1.015902e+002 
4259375000  -3.758047e+001  9.694932e+001 
4262500000  -3.785286e+001  8.975783e+001 
4265625000  -3.789940e+001  9.003232e+001 
4268750000  -3.693498e+001  8.065250e+001 
4271875000  -3.684914e+001  7.326300e+001 
4275000000  -3.658024e+001  6.431538e+001 
4278125000  -3.751585e+001  5.214514e+001 
4281250000  -3.940905e+001  5.027571e+001 
4284375000  -3.892712e+001  5.012178e+001 
4287500000  -4.039960e+001  4.455089e+001 
4290625000  -4.067991e+001  5.481340e+001 
4293750000  -3.854572e+001  5.251277e+001 
4296875000  -3.777364e+001  4.045774e+001 
4300000000  -3.900394e+001  3.109873e+001 
4303125000  -3.973819e+001  3.387886e+001 
4306250000  -3.864408e+001  3.606134e+001 
4309375000  -3.766473e+001  3.034469e+001 
4312500000  -3.745858e+001  1.883464e+001 
4315625000  -3.799218e+001  1.196643e+001 
4318750000  -3.862112e+001  7.747375e+000 
4321875000  -3.861911e+001  8.684524e+000 
4325000000  -3.788621e+001  7.203759e+000 
4328125000  -3.730140e+001  -2.750821e+000 
4331250000  -3.766569e+001  -1.379603e+001 
4334375000  -3.862198e+001  -2.024468e+001 
4337500000  -3.944044e+001  -2.095712e+001 
4340625000  -3.933216e+001  -1.578859e+001 
4343750000  -3.858582e+001  -2.054567e+001 
4346875000  -3.826509e+001  -2.848276e+001 
4350000000  -3.864975e+001  -3.775224e+001 
4353125000  -3.925576e+001  -4.401606e+001 
4356250000  -4.103741e+001  -3.758828e+001 
4359375000  -4.007595e+001  -2.529773e+001 
4362500000  -3.646219e+001  -3.402048e+001 
4365625000  -3.590554e+001  -5.228495e+001 
4368750000  -3.707595e+001  -5.978014e+001 
4371875000  -3.790319e+001  -6.275501e+001 
4375000000  -3.725388e+001  -6.506622e+001 
4378125000  -3.690691e+001  -7.341742e+001 
4381250000  -3.706316e+001  -8.211801e+001 
4384375000  -3.718504e+001  -8.742396e+001 
4387500000  -3.850755e+001  -9.337051e+001 
4390625000  -3.846836e+001  -9.406166e+001 
4393750000  -3.809838e+001  -9.302181e+001 
4396875000  -3.737529e+001  -9.926707e+001 
4400000000  -3.690841e+001  -1.091240e+002 
4403125000  -3.794971e+001  -1.165007e+002 
4406250000  -3.839781e+001  -1.217481e+002 
4409375000  -3.890232e+001  -1.257458e+002 
4412500000  -3.984546e+001  -1.284690e+002 
4415625000  -3.931102e+001  -1.252876e+002 
