!Agilent Technologies,E8363B,MY43030201,A.06.04.32
!Agilent E8363B: A.06.04.32
!Date: Tuesday, November 11, 2014 21:34:04
!Correction: S21(Response(S21)) 
!S1P File: Measurement: S21:
# Hz S  dB   R 50
3000000000  -4.058571e+001  7.233869e+001 
3003125000  -4.221836e+001  6.467730e+001 
3006250000  -4.249495e+001  6.467307e+001 
3009375000  -4.295247e+001  6.978806e+001 
3012500000  -4.143790e+001  6.396712e+001 
3015625000  -4.140555e+001  5.817525e+001 
3018750000  -4.179623e+001  5.993339e+001 
3021875000  -4.036791e+001  5.859711e+001 
3025000000  -3.894752e+001  5.701094e+001 
3028125000  -3.785787e+001  4.485789e+001 
3031250000  -3.695852e+001  3.287087e+001 
3034375000  -3.673384e+001  1.932247e+001 
3037500000  -3.757537e+001  8.412761e+000 
3040625000  -3.870165e+001  3.474864e+000 
3043750000  -3.939378e+001  -2.588448e+000 
3046875000  -3.981899e+001  -7.429430e+000 
3050000000  -4.104650e+001  -1.277434e+001 
3053125000  -4.057744e+001  -8.026715e+000 
3056250000  -4.041813e+001  -4.173745e+000 
3059375000  -3.971223e+001  -7.506549e+000 
3062500000  -3.816538e+001  -1.203858e+001 
3065625000  -3.784728e+001  -2.215313e+001 
3068750000  -3.764667e+001  -2.935348e+001 
3071875000  -3.767401e+001  -3.245387e+001 
3075000000  -3.700616e+001  -3.852436e+001 
3078125000  -3.718024e+001  -4.492537e+001 
3081250000  -3.720728e+001  -5.058541e+001 
3084375000  -3.638057e+001  -5.593474e+001 
3087500000  -3.637042e+001  -6.252393e+001 
3090625000  -3.588284e+001  -7.524538e+001 
3093750000  -3.690811e+001  -8.279222e+001 
3096875000  -3.742362e+001  -8.846172e+001 
3100000000  -3.729963e+001  -9.055386e+001 
3103125000  -3.765969e+001  -9.447424e+001 
3106250000  -3.718906e+001  -9.964520e+001 
3109375000  -3.729772e+001  -1.035583e+002 
3112500000  -3.704089e+001  -1.095328e+002 
3115625000  -3.704919e+001  -1.133363e+002 
3118750000  -3.715245e+001  -1.181368e+002 
3121875000  -3.660261e+001  -1.281330e+002 
3125000000  -3.848787e+001  -1.299046e+002 
3128125000  -3.848908e+001  -1.247045e+002 
3131250000  -3.612141e+001  -1.310479e+002 
3134375000  -3.544705e+001  -1.467510e+002 
3137500000  -3.590879e+001  -1.592582e+002 
3140625000  -3.731661e+001  -1.626729e+002 
3143750000  -3.824769e+001  -1.642374e+002 
3146875000  -3.749239e+001  -1.624486e+002 
3150000000  -3.682051e+001  -1.663417e+002 
3153125000  -3.738327e+001  -1.749289e+002 
3156250000  -3.800288e+001  -1.696449e+002 
3159375000  -3.564848e+001  -1.718793e+002 
3162500000  -3.416321e+001  1.725488e+002 
3165625000  -3.547837e+001  1.591894e+002 
3168750000  -3.541620e+001  1.577600e+002 
3171875000  -3.497089e+001  1.506748e+002 
3175000000  -3.556047e+001  1.412638e+002 
3178125000  -3.505532e+001  1.401485e+002 
3181250000  -3.437088e+001  1.311297e+002 
3184375000  -3.413541e+001  1.202777e+002 
3187500000  -3.547985e+001  1.061611e+002 
3190625000  -3.732196e+001  9.992707e+001 
3193750000  -3.746904e+001  1.048631e+002 
3196875000  -3.736629e+001  1.052729e+002 
3200000000  -3.607381e+001  1.007881e+002 
3203125000  -3.588315e+001  9.178756e+001 
3206250000  -3.603586e+001  8.495678e+001 
3209375000  -3.569920e+001  7.701974e+001 
3212500000  -3.629420e+001  6.973060e+001 
3215625000  -3.617742e+001  6.784336e+001 
3218750000  -3.697523e+001  5.619153e+001 
3221875000  -3.729577e+001  4.983849e+001 
3225000000  -3.706282e+001  4.620876e+001 
3228125000  -3.774907e+001  3.825269e+001 
3231250000  -3.822236e+001  3.558550e+001 
3234375000  -3.788352e+001  3.289593e+001 
3237500000  -3.810992e+001  3.047209e+001 
3240625000  -3.760903e+001  2.406869e+001 
3243750000  -3.762391e+001  1.314491e+001 
3246875000  -3.816471e+001  7.070328e+000 
3250000000  -3.882851e+001  2.692094e+000 
3253125000  -3.907866e+001  2.053620e+000 
3256250000  -3.850010e+001  -9.671235e+000 
3259375000  -3.900467e+001  -2.050988e+001 
3262500000  -4.058826e+001  -2.240881e+001 
3265625000  -4.124539e+001  -2.079769e+001 
3268750000  -4.115525e+001  -1.945195e+001 
3271875000  -4.067078e+001  -2.272508e+001 
3275000000  -4.010887e+001  -3.288662e+001 
3278125000  -4.086451e+001  -3.633123e+001 
3281250000  -4.092167e+001  -3.659122e+001 
3284375000  -4.050512e+001  -4.459950e+001 
3287500000  -4.102532e+001  -4.964636e+001 
3290625000  -4.125977e+001  -5.640134e+001 
3293750000  -4.120272e+001  -6.172417e+001 
3296875000  -4.238430e+001  -6.192108e+001 
3300000000  -4.175864e+001  -6.316125e+001 
3303125000  -4.105282e+001  -6.908155e+001 
3306250000  -4.063094e+001  -7.621953e+001 
3309375000  -4.055274e+001  -8.376897e+001 
3312500000  -4.089507e+001  -9.708256e+001 
3315625000  -4.259474e+001  -1.035842e+002 
3318750000  -4.384342e+001  -1.068795e+002 
3321875000  -4.475482e+001  -1.039898e+002 
3325000000  -4.462178e+001  -9.857084e+001 
3328125000  -4.371881e+001  -9.775554e+001 
3331250000  -4.208412e+001  -9.523836e+001 
3334375000  -3.964350e+001  -1.090928e+002 
3337500000  -4.038403e+001  -1.309494e+002 
3340625000  -4.234224e+001  -1.412750e+002 
3343750000  -4.403367e+001  -1.381718e+002 
3346875000  -4.327771e+001  -1.389354e+002 
3350000000  -4.309134e+001  -1.413494e+002 
3353125000  -4.294542e+001  -1.512283e+002 
3356250000  -4.266668e+001  -1.582616e+002 
3359375000  -4.336378e+001  -1.696552e+002 
3362500000  -4.423698e+001  -1.728128e+002 
3365625000  -4.463512e+001  -1.770344e+002 
3368750000  -4.523399e+001  1.766649e+002 
3371875000  -4.594421e+001  1.725159e+002 
3375000000  -4.720007e+001  1.688412e+002 
3378125000  -4.809703e+001  1.681134e+002 
3381250000  -4.956198e+001  1.798031e+002 
3384375000  -4.612745e+001  -1.637726e+002 
3387500000  -4.418074e+001  1.728954e+002 
3390625000  -4.528040e+001  1.533882e+002 
3393750000  -4.678342e+001  1.519281e+002 
3396875000  -4.620501e+001  1.538757e+002 
3400000000  -4.594385e+001  1.404032e+002 
3403125000  -4.660241e+001  1.364072e+002 
3406250000  -4.774016e+001  1.309932e+002 
3409375000  -4.770167e+001  1.251437e+002 
3412500000  -4.882319e+001  1.199598e+002 
3415625000  -4.944942e+001  1.168167e+002 
3418750000  -5.010346e+001  1.138427e+002 
3421875000  -5.172096e+001  1.185729e+002 
3425000000  -5.000918e+001  1.229992e+002 
3428125000  -4.984750e+001  1.168373e+002 
3431250000  -4.982206e+001  1.071589e+002 
3434375000  -5.043561e+001  1.045363e+002 
3437500000  -5.117471e+001  1.064879e+002 
3440625000  -5.246931e+001  1.019523e+002 
3443750000  -5.039624e+001  1.083135e+002 
3446875000  -5.055113e+001  1.015327e+002 
3450000000  -5.029643e+001  9.482547e+001 
3453125000  -5.081561e+001  8.388342e+001 
3456250000  -5.239615e+001  7.925226e+001 
3459375000  -5.274894e+001  8.893340e+001 
3462500000  -5.188334e+001  9.146710e+001 
3465625000  -5.120961e+001  7.633856e+001 
3468750000  -5.166742e+001  7.435312e+001 
3471875000  -5.139634e+001  7.668730e+001 
3475000000  -5.087006e+001  6.889566e+001 
3478125000  -5.098310e+001  6.201980e+001 
3481250000  -5.319417e+001  6.849122e+001 
3484375000  -5.247937e+001  6.879683e+001 
3487500000  -5.129519e+001  6.082854e+001 
3490625000  -5.113686e+001  5.709918e+001 
3493750000  -5.143223e+001  4.751519e+001 
3496875000  -5.120630e+001  4.874292e+001 
3500000000  -5.131782e+001  4.872359e+001 
3503125000  -5.116394e+001  4.852743e+001 
3506250000  -4.931309e+001  3.620685e+001 
3509375000  -5.048949e+001  2.531292e+001 
3512500000  -4.994840e+001  1.734124e+001 
3515625000  -5.125958e+001  1.266932e+001 
3518750000  -5.298797e+001  9.898396e+000 
3521875000  -5.229584e+001  -7.362010e-001 
3525000000  -5.329593e+001  6.668251e-001 
3528125000  -5.238271e+001  1.154181e+001 
3531250000  -5.120605e+001  2.631028e+000 
3534375000  -5.270968e+001  -1.260448e+001 
3537500000  -5.406893e+001  -2.588046e+001 
3540625000  -5.477280e+001  -2.569499e+001 
3543750000  -5.634189e+001  -2.231770e+000 
3546875000  -5.583296e+001  -6.200722e+000 
3550000000  -5.348801e+001  -9.215219e+000 
3553125000  -5.387159e+001  -3.020765e+001 
3556250000  -5.491665e+001  -2.951794e+001 
3559375000  -5.455470e+001  -4.165395e+001 
3562500000  -5.507226e+001  -4.176882e+001 
3565625000  -5.715697e+001  -4.872996e+001 
3568750000  -5.761387e+001  -3.718859e+001 
3571875000  -5.672601e+001  -2.937403e+001 
3575000000  -5.785598e+001  -3.128287e+001 
3578125000  -5.709496e+001  -4.365442e+001 
3581250000  -5.725254e+001  -4.037795e+001 
3584375000  -5.722384e+001  -3.439847e+001 
3587500000  -5.895414e+001  -3.590459e+001 
3590625000  -5.881091e+001  -6.025431e+001 
3593750000  -5.963507e+001  -4.924032e+001 
3596875000  -5.932604e+001  -3.071265e+001 
3600000000  -5.657705e+001  -3.453671e+001 
3603125000  -5.789510e+001  -5.441968e+001 
3606250000  -5.876847e+001  -5.519357e+001 
3609375000  -5.791215e+001  -4.676251e+001 
3612500000  -5.806732e+001  -5.053861e+001 
3615625000  -5.949851e+001  -5.597020e+001 
3618750000  -5.940253e+001  -5.073456e+001 
3621875000  -5.732047e+001  -4.931006e+001 
3625000000  -5.726149e+001  -4.244552e+001 
3628125000  -5.677291e+001  -3.297049e+001 
3631250000  -5.739964e+001  -5.119685e+001 
3634375000  -5.713572e+001  -4.092783e+001 
3637500000  -5.552520e+001  -4.316713e+001 
3640625000  -5.467220e+001  -4.045079e+001 
3643750000  -5.276867e+001  -4.317293e+001 
3646875000  -5.294365e+001  -5.407884e+001 
3650000000  -5.252563e+001  -5.869085e+001 
3653125000  -5.318787e+001  -6.417641e+001 
3656250000  -5.163131e+001  -6.771712e+001 
3659375000  -5.121968e+001  -6.114662e+001 
3662500000  -5.001928e+001  -6.884529e+001 
3665625000  -4.968998e+001  -7.102229e+001 
3668750000  -4.830281e+001  -6.938751e+001 
3671875000  -4.713009e+001  -8.270321e+001 
3675000000  -4.713963e+001  -9.139655e+001 
3678125000  -4.786264e+001  -9.491542e+001 
3681250000  -4.610181e+001  -1.038400e+002 
3684375000  -4.657629e+001  -1.080677e+002 
3687500000  -4.647918e+001  -1.107365e+002 
3690625000  -4.693590e+001  -1.175395e+002 
3693750000  -4.752977e+001  -1.171713e+002 
3696875000  -4.649931e+001  -1.193657e+002 
3700000000  -4.572126e+001  -1.240549e+002 
3703125000  -4.512725e+001  -1.317095e+002 
3706250000  -4.627938e+001  -1.360713e+002 
3709375000  -4.449253e+001  -1.327522e+002 
3712500000  -4.342162e+001  -1.368429e+002 
3715625000  -4.211587e+001  -1.455276e+002 
3718750000  -4.209928e+001  -1.538251e+002 
3721875000  -4.142239e+001  -1.620340e+002 
3725000000  -4.188826e+001  -1.699195e+002 
3728125000  -4.134158e+001  -1.724450e+002 
3731250000  -4.077125e+001  -1.789725e+002 
3734375000  -3.995782e+001  1.747992e+002 
3737500000  -4.092634e+001  1.642262e+002 
3740625000  -4.088609e+001  1.595346e+002 
3743750000  -4.058360e+001  1.529986e+002 
3746875000  -4.081770e+001  1.462896e+002 
3750000000  -4.111467e+001  1.399449e+002 
3753125000  -4.047163e+001  1.380847e+002 
3756250000  -4.070996e+001  1.352780e+002 
3759375000  -4.024075e+001  1.289389e+002 
3762500000  -4.018118e+001  1.216755e+002 
3765625000  -4.094257e+001  1.170560e+002 
3768750000  -4.025616e+001  1.179718e+002 
3771875000  -3.838115e+001  1.109670e+002 
3775000000  -3.850459e+001  9.907987e+001 
3778125000  -3.909834e+001  9.233368e+001 
3781250000  -3.905373e+001  8.831362e+001 
3784375000  -3.876974e+001  8.227116e+001 
3787500000  -3.846993e+001  7.712959e+001 
3790625000  -3.896860e+001  6.832412e+001 
3793750000  -3.931267e+001  6.489906e+001 
3796875000  -3.845030e+001  5.972383e+001 
3800000000  -3.645571e+001  5.491821e+001 
3803125000  -3.824869e+001  4.318683e+001 
3806250000  -3.882075e+001  3.696036e+001 
3809375000  -3.844136e+001  3.440073e+001 
3812500000  -3.854291e+001  2.507357e+001 
3815625000  -3.960007e+001  1.621763e+001 
3818750000  -4.076408e+001  1.724534e+001 
3821875000  -4.034319e+001  2.579948e+001 
3825000000  -3.832479e+001  2.242226e+001 
3828125000  -3.687825e+001  4.771707e+000 
3831250000  -3.823122e+001  -1.013544e+001 
3834375000  -4.043049e+001  -1.103906e+001 
3837500000  -4.055656e+001  -6.244281e+000 
3840625000  -3.916603e+001  -1.039548e+001 
3843750000  -3.828612e+001  -2.654509e+001 
3846875000  -3.995366e+001  -3.147755e+001 
3850000000  -4.058687e+001  -2.491518e+001 
3853125000  -3.975140e+001  -2.396417e+001 
3856250000  -3.943985e+001  -3.279467e+001 
3859375000  -3.853344e+001  -4.163758e+001 
3862500000  -3.869401e+001  -5.079379e+001 
3865625000  -3.898057e+001  -5.582351e+001 
3868750000  -3.879929e+001  -5.663790e+001 
3871875000  -3.791378e+001  -6.338894e+001 
3875000000  -3.851034e+001  -7.432895e+001 
3878125000  -3.957348e+001  -7.740028e+001 
3881250000  -3.913612e+001  -7.662653e+001 
3884375000  -3.883725e+001  -8.444257e+001 
3887500000  -3.919224e+001  -8.948807e+001 
3890625000  -3.942028e+001  -9.542225e+001 
3893750000  -3.962833e+001  -9.643169e+001 
3896875000  -4.021574e+001  -1.005925e+002 
3900000000  -3.992285e+001  -1.036020e+002 
3903125000  -3.948897e+001  -1.076301e+002 
3906250000  -3.893071e+001  -1.125604e+002 
3909375000  -3.831830e+001  -1.205517e+002 
3912500000  -3.928881e+001  -1.284376e+002 
3915625000  -4.039221e+001  -1.282753e+002 
3918750000  -3.997724e+001  -1.291597e+002 
3921875000  -3.949853e+001  -1.355909e+002 
3925000000  -3.851365e+001  -1.386707e+002 
3928125000  -3.833476e+001  -1.505867e+002 
3931250000  -3.933251e+001  -1.572182e+002 
3934375000  -3.963356e+001  -1.573758e+002 
3937500000  -3.996074e+001  -1.600190e+002 
3940625000  -3.997939e+001  -1.617584e+002 
3943750000  -3.863366e+001  -1.652265e+002 
3946875000  -3.848453e+001  -1.748457e+002 
3950000000  -3.947976e+001  1.772675e+002 
3953125000  -3.996962e+001  1.778056e+002 
3956250000  -3.890665e+001  1.784926e+002 
3959375000  -3.779436e+001  1.717496e+002 
3962500000  -3.757462e+001  1.625439e+002 
3965625000  -3.779342e+001  1.533314e+002 
3968750000  -3.867549e+001  1.466853e+002 
3971875000  -3.855795e+001  1.414704e+002 
3975000000  -3.816314e+001  1.368876e+002 
3978125000  -3.856359e+001  1.311969e+002 
3981250000  -3.885400e+001  1.263405e+002 
3984375000  -3.900251e+001  1.187633e+002 
3987500000  -3.960585e+001  1.157048e+002 
3990625000  -3.997234e+001  1.121353e+002 
3993750000  -3.996485e+001  1.083540e+002 
3996875000  -3.990935e+001  1.049122e+002 
4000000000  -4.064759e+001  9.973244e+001 
4003125000  -4.098315e+001  1.011437e+002 
4006250000  -3.921914e+001  9.822057e+001 
4009375000  -3.868115e+001  8.582626e+001 
4012500000  -4.037524e+001  7.646648e+001 
4015625000  -4.137007e+001  7.712714e+001 
4018750000  -4.139061e+001  7.499507e+001 
4021875000  -4.066849e+001  7.411993e+001 
4025000000  -4.044593e+001  6.604590e+001 
4028125000  -4.057378e+001  6.119830e+001 
4031250000  -4.132585e+001  5.653434e+001 
4034375000  -4.155584e+001  5.597179e+001 
4037500000  -4.108384e+001  5.747983e+001 
4040625000  -4.108327e+001  5.105791e+001 
4043750000  -4.131079e+001  4.911551e+001 
4046875000  -4.080632e+001  4.462743e+001 
4050000000  -4.055666e+001  4.000249e+001 
4053125000  -4.173199e+001  3.824081e+001 
4056250000  -4.182839e+001  4.169843e+001 
4059375000  -3.954332e+001  3.868326e+001 
4062500000  -3.874915e+001  3.248034e+001 
4065625000  -3.896983e+001  2.467482e+001 
4068750000  -3.828419e+001  1.761926e+001 
4071875000  -3.779403e+001  7.828194e+000 
4075000000  -3.839486e+001  1.258486e+000 
4078125000  -3.882448e+001  -1.970601e+000 
4081250000  -3.815434e+001  -5.937401e+000 
4084375000  -3.802917e+001  -1.796368e+001 
4087500000  -3.869890e+001  -2.267120e+001 
4090625000  -3.951905e+001  -2.536869e+001 
4093750000  -3.861906e+001  -2.729618e+001 
4096875000  -3.863728e+001  -3.758642e+001 
4100000000  -3.966906e+001  -4.572126e+001 
4103125000  -4.087109e+001  -4.224979e+001 
4106250000  -4.004901e+001  -3.779696e+001 
4109375000  -3.917089e+001  -4.335374e+001 
4112500000  -3.859002e+001  -5.271284e+001 
4115625000  -3.929721e+001  -5.914734e+001 
4118750000  -3.901009e+001  -6.376344e+001 
4121875000  -3.891163e+001  -7.170354e+001 
4125000000  -4.017144e+001  -7.799139e+001 
4128125000  -4.112391e+001  -7.564702e+001 
4131250000  -3.975856e+001  -7.022429e+001 
4134375000  -3.769156e+001  -7.968948e+001 
4137500000  -3.803323e+001  -1.010424e+002 
4140625000  -4.079423e+001  -1.063781e+002 
4143750000  -4.148023e+001  -9.912619e+001 
4146875000  -4.070161e+001  -9.707793e+001 
4150000000  -3.958076e+001  -1.069200e+002 
4153125000  -4.014791e+001  -1.135846e+002 
4156250000  -4.112156e+001  -1.174721e+002 
4159375000  -4.104323e+001  -1.111390e+002 
4162500000  -4.010049e+001  -1.111259e+002 
4165625000  -3.850315e+001  -1.177010e+002 
4168750000  -3.832270e+001  -1.284660e+002 
4171875000  -3.832073e+001  -1.359951e+002 
4175000000  -3.932253e+001  -1.453807e+002 
4178125000  -3.953404e+001  -1.443462e+002 
4181250000  -3.929498e+001  -1.493731e+002 
4184375000  -3.944302e+001  -1.540044e+002 
4187500000  -3.944493e+001  -1.589261e+002 
4190625000  -3.942369e+001  -1.644282e+002 
4193750000  -4.057276e+001  -1.703446e+002 
4196875000  -4.146408e+001  -1.713856e+002 
4200000000  -4.273052e+001  -1.654194e+002 
4203125000  -4.078054e+001  -1.516992e+002 
4206250000  -3.739695e+001  -1.618278e+002 
4209375000  -3.758627e+001  1.740216e+002 
4212500000  -3.982924e+001  1.655037e+002 
4215625000  -4.006294e+001  1.759243e+002 
4218750000  -3.813507e+001  1.767374e+002 
4221875000  -3.685189e+001  1.678556e+002 
4225000000  -3.817252e+001  1.542724e+002 
4228125000  -3.732049e+001  1.558637e+002 
4231250000  -3.622972e+001  1.451309e+002 
4234375000  -3.646397e+001  1.371600e+002 
4237500000  -3.625172e+001  1.308880e+002 
4240625000  -3.623874e+001  1.195425e+002 
4243750000  -3.746023e+001  1.121382e+002 
4246875000  -3.842406e+001  1.107285e+002 
4250000000  -3.839714e+001  1.106148e+002 
4253125000  -3.816784e+001  1.074958e+002 
4256250000  -3.791075e+001  1.031663e+002 
4259375000  -3.770012e+001  9.803682e+001 
4262500000  -3.799099e+001  9.294044e+001 
4265625000  -3.785226e+001  9.143385e+001 
4268750000  -3.699642e+001  8.283086e+001 
4271875000  -3.681302e+001  7.325356e+001 
4275000000  -3.680311e+001  6.620509e+001 
4278125000  -3.744188e+001  5.516823e+001 
4281250000  -3.905899e+001  5.323010e+001 
4284375000  -3.873282e+001  4.783468e+001 
4287500000  -4.052762e+001  4.857495e+001 
4290625000  -4.091384e+001  5.579884e+001 
4293750000  -3.880431e+001  5.561174e+001 
4296875000  -3.794485e+001  4.201508e+001 
4300000000  -3.892242e+001  3.263866e+001 
4303125000  -3.956543e+001  3.773753e+001 
4306250000  -3.853571e+001  3.653449e+001 
4309375000  -3.758938e+001  3.324532e+001 
4312500000  -3.762765e+001  2.071021e+001 
4315625000  -3.814949e+001  1.354823e+001 
4318750000  -3.867960e+001  8.676329e+000 
4321875000  -3.864103e+001  1.074886e+001 
4325000000  -3.818300e+001  8.664018e+000 
4328125000  -3.735093e+001  -1.285789e+000 
4331250000  -3.761145e+001  -1.065743e+001 
4334375000  -3.834725e+001  -1.898990e+001 
4337500000  -3.936870e+001  -1.819125e+001 
4340625000  -3.960011e+001  -1.422087e+001 
4343750000  -3.869482e+001  -1.739051e+001 
4346875000  -3.838207e+001  -2.688445e+001 
4350000000  -3.847587e+001  -3.368139e+001 
4353125000  -3.906713e+001  -4.077745e+001 
4356250000  -4.127792e+001  -3.718041e+001 
4359375000  -3.968799e+001  -2.445981e+001 
4362500000  -3.630104e+001  -3.296387e+001 
4365625000  -3.580480e+001  -5.050843e+001 
4368750000  -3.750823e+001  -6.012657e+001 
4371875000  -3.795248e+001  -5.946898e+001 
4375000000  -3.720571e+001  -6.225056e+001 
4378125000  -3.684942e+001  -7.062202e+001 
4381250000  -3.717675e+001  -7.958335e+001 
4384375000  -3.715912e+001  -8.697632e+001 
4387500000  -3.824005e+001  -9.261280e+001 
4390625000  -3.844753e+001  -9.259206e+001 
4393750000  -3.800581e+001  -9.179869e+001 
4396875000  -3.745271e+001  -9.853923e+001 
4400000000  -3.688876e+001  -1.071089e+002 
4403125000  -3.757629e+001  -1.156955e+002 
4406250000  -3.832423e+001  -1.190948e+002 
4409375000  -3.896323e+001  -1.242339e+002 
4412500000  -3.969894e+001  -1.262685e+002 
4415625000  -3.964110e+001  -1.248071e+002 
