!Agilent Technologies,E8363B,MY43030201,A.06.04.32
!Agilent E8363B: A.06.04.32
!Date: Tuesday, November 11, 2014 21:31:50
!Correction: S21(Response(S21)) 
!S1P File: Measurement: S21:
# Hz S  dB   R 50
3000000000  -4.038257e+001  7.901166e+001 
3003125000  -4.231839e+001  7.120753e+001 
3006250000  -4.216548e+001  7.007128e+001 
3009375000  -4.267508e+001  7.592377e+001 
3012500000  -4.160255e+001  7.053290e+001 
3015625000  -4.140794e+001  6.350102e+001 
3018750000  -4.171408e+001  6.414359e+001 
3021875000  -4.006681e+001  6.490110e+001 
3025000000  -3.898737e+001  6.086535e+001 
3028125000  -3.786754e+001  5.153017e+001 
3031250000  -3.694445e+001  3.824516e+001 
3034375000  -3.664027e+001  2.569098e+001 
3037500000  -3.754634e+001  1.433607e+001 
3040625000  -3.873767e+001  9.859026e+000 
3043750000  -3.917389e+001  3.031862e+000 
3046875000  -3.985654e+001  -3.396130e+000 
3050000000  -4.082454e+001  -9.598110e+000 
3053125000  -4.048526e+001  -3.309895e+000 
3056250000  -4.056201e+001  -1.267261e+000 
3059375000  -3.967910e+001  -1.206385e+000 
3062500000  -3.817736e+001  -7.281664e+000 
3065625000  -3.783553e+001  -1.548991e+001 
3068750000  -3.753218e+001  -2.450597e+001 
3071875000  -3.749466e+001  -2.700790e+001 
3075000000  -3.708706e+001  -3.336616e+001 
3078125000  -3.711562e+001  -3.937974e+001 
3081250000  -3.732776e+001  -4.568514e+001 
3084375000  -3.629871e+001  -4.980133e+001 
3087500000  -3.640898e+001  -5.730571e+001 
3090625000  -3.597533e+001  -6.986846e+001 
3093750000  -3.690069e+001  -7.733472e+001 
3096875000  -3.727255e+001  -8.189496e+001 
3100000000  -3.716668e+001  -8.571768e+001 
3103125000  -3.745198e+001  -8.874194e+001 
3106250000  -3.715684e+001  -9.410686e+001 
3109375000  -3.731952e+001  -9.819045e+001 
3112500000  -3.716248e+001  -1.039493e+002 
3115625000  -3.709723e+001  -1.082493e+002 
3118750000  -3.709835e+001  -1.112304e+002 
3121875000  -3.662608e+001  -1.228837e+002 
3125000000  -3.847408e+001  -1.266027e+002 
3128125000  -3.856955e+001  -1.177409e+002 
3131250000  -3.610386e+001  -1.243006e+002 
3134375000  -3.534682e+001  -1.421004e+002 
3137500000  -3.613617e+001  -1.540279e+002 
3140625000  -3.730965e+001  -1.572384e+002 
3143750000  -3.809744e+001  -1.589733e+002 
3146875000  -3.770913e+001  -1.571910e+002 
3150000000  -3.700629e+001  -1.609465e+002 
3153125000  -3.709404e+001  -1.688493e+002 
3156250000  -3.783356e+001  -1.649035e+002 
3159375000  -3.567299e+001  -1.661652e+002 
3162500000  -3.422825e+001  1.780201e+002 
3165625000  -3.552808e+001  1.651661e+002 
3168750000  -3.541539e+001  1.641611e+002 
3171875000  -3.488458e+001  1.559513e+002 
3175000000  -3.543490e+001  1.474460e+002 
3178125000  -3.502153e+001  1.458400e+002 
3181250000  -3.435783e+001  1.374846e+002 
3184375000  -3.414361e+001  1.260172e+002 
3187500000  -3.545055e+001  1.111507e+002 
3190625000  -3.723052e+001  1.058114e+002 
3193750000  -3.754747e+001  1.099069e+002 
3196875000  -3.737609e+001  1.114134e+002 
3200000000  -3.617232e+001  1.056699e+002 
3203125000  -3.587803e+001  9.897176e+001 
3206250000  -3.612923e+001  8.990331e+001 
3209375000  -3.579437e+001  8.283903e+001 
3212500000  -3.623280e+001  7.581074e+001 
3215625000  -3.594281e+001  7.363140e+001 
3218750000  -3.676473e+001  6.197305e+001 
3221875000  -3.729239e+001  5.493458e+001 
3225000000  -3.705411e+001  5.133982e+001 
3228125000  -3.772929e+001  4.397694e+001 
3231250000  -3.828626e+001  4.184182e+001 
3234375000  -3.796136e+001  3.911953e+001 
3237500000  -3.816497e+001  3.534435e+001 
3240625000  -3.761271e+001  2.916185e+001 
3243750000  -3.771141e+001  1.938285e+001 
3246875000  -3.810410e+001  1.266863e+001 
3250000000  -3.863065e+001  7.999902e+000 
3253125000  -3.905525e+001  5.683152e+000 
3256250000  -3.862404e+001  -3.150428e+000 
3259375000  -3.911456e+001  -1.371038e+001 
3262500000  -4.055763e+001  -1.709369e+001 
3265625000  -4.128684e+001  -1.467749e+001 
3268750000  -4.126682e+001  -1.308022e+001 
3271875000  -4.061236e+001  -1.709529e+001 
3275000000  -4.005157e+001  -2.487891e+001 
3278125000  -4.089868e+001  -3.077733e+001 
3281250000  -4.119524e+001  -3.293450e+001 
3284375000  -4.060748e+001  -3.795516e+001 
3287500000  -4.097006e+001  -4.241569e+001 
3290625000  -4.124612e+001  -5.021964e+001 
3293750000  -4.145733e+001  -5.549579e+001 
3296875000  -4.253088e+001  -5.622927e+001 
3300000000  -4.181464e+001  -5.604470e+001 
3303125000  -4.121750e+001  -6.236040e+001 
3306250000  -4.079321e+001  -7.076014e+001 
3309375000  -4.059860e+001  -7.700694e+001 
3312500000  -4.094236e+001  -9.001847e+001 
3315625000  -4.213191e+001  -9.690594e+001 
3318750000  -4.354809e+001  -1.013295e+002 
3321875000  -4.482626e+001  -9.684644e+001 
3325000000  -4.455755e+001  -9.158249e+001 
3328125000  -4.383943e+001  -8.955606e+001 
3331250000  -4.262132e+001  -8.819810e+001 
3334375000  -4.000682e+001  -1.015534e+002 
3337500000  -4.037819e+001  -1.239215e+002 
3340625000  -4.231931e+001  -1.330686e+002 
3343750000  -4.379621e+001  -1.324601e+002 
3346875000  -4.360756e+001  -1.336693e+002 
3350000000  -4.318803e+001  -1.372131e+002 
3353125000  -4.280315e+001  -1.433374e+002 
3356250000  -4.257438e+001  -1.525870e+002 
3359375000  -4.364275e+001  -1.635014e+002 
3362500000  -4.407713e+001  -1.685566e+002 
3365625000  -4.506655e+001  -1.751780e+002 
3368750000  -4.547578e+001  -1.775544e+002 
3371875000  -4.587351e+001  1.774641e+002 
3375000000  -4.693117e+001  1.753190e+002 
3378125000  -4.802717e+001  1.726380e+002 
3381250000  -4.924718e+001  -1.747189e+002 
3384375000  -4.696845e+001  -1.634369e+002 
3387500000  -4.429672e+001  -1.790878e+002 
3390625000  -4.601202e+001  1.564759e+002 
3393750000  -4.720786e+001  1.592365e+002 
3396875000  -4.579131e+001  1.585297e+002 
3400000000  -4.634869e+001  1.472790e+002 
3403125000  -4.717503e+001  1.409386e+002 
3406250000  -4.764078e+001  1.372445e+002 
3409375000  -4.805764e+001  1.284329e+002 
3412500000  -4.892475e+001  1.242081e+002 
3415625000  -4.995335e+001  1.228807e+002 
3418750000  -5.017776e+001  1.279508e+002 
3421875000  -5.136029e+001  1.277674e+002 
3425000000  -5.053583e+001  1.232876e+002 
3428125000  -5.004359e+001  1.206269e+002 
3431250000  -4.999706e+001  1.141211e+002 
3434375000  -5.113405e+001  1.133468e+002 
3437500000  -5.131708e+001  1.046582e+002 
3440625000  -5.191304e+001  1.163861e+002 
3443750000  -5.078301e+001  1.077688e+002 
3446875000  -5.091045e+001  1.062164e+002 
3450000000  -5.065045e+001  1.017273e+002 
3453125000  -5.052485e+001  8.919888e+001 
3456250000  -5.267604e+001  8.453075e+001 
3459375000  -5.371093e+001  9.362126e+001 
3462500000  -5.225777e+001  9.446076e+001 
3465625000  -5.172365e+001  8.498377e+001 
3468750000  -5.209540e+001  8.722946e+001 
3471875000  -5.172548e+001  8.583747e+001 
3475000000  -5.216870e+001  7.965517e+001 
3478125000  -5.153871e+001  6.853905e+001 
3481250000  -5.284591e+001  7.325893e+001 
3484375000  -5.316558e+001  7.292124e+001 
3487500000  -5.225236e+001  6.286716e+001 
3490625000  -5.047285e+001  5.973463e+001 
3493750000  -5.176275e+001  4.864676e+001 
3496875000  -5.202370e+001  5.170803e+001 
3500000000  -5.162495e+001  5.730289e+001 
3503125000  -5.072144e+001  5.393209e+001 
3506250000  -5.000135e+001  3.956268e+001 
3509375000  -5.010622e+001  3.488030e+001 
3512500000  -5.085596e+001  2.228479e+001 
3515625000  -5.133710e+001  1.639140e+001 
3518750000  -5.339183e+001  1.945612e+001 
3521875000  -5.197532e+001  9.129192e+000 
3525000000  -5.454176e+001  6.862251e-002 
3528125000  -5.211032e+001  1.924738e+001 
3531250000  -5.185461e+001  2.012855e+000 
3534375000  -5.289682e+001  -5.311942e+000 
3537500000  -5.449491e+001  -1.812205e+001 
3540625000  -5.452937e+001  -1.928183e+001 
3543750000  -5.574250e+001  -4.265951e+000 
3546875000  -5.478750e+001  -6.445698e+000 
3550000000  -5.345939e+001  -6.760612e+000 
3553125000  -5.320533e+001  -3.226626e+001 
3556250000  -5.515512e+001  -2.658787e+001 
3559375000  -5.615453e+001  -2.733466e+001 
3562500000  -5.508931e+001  -4.306969e+001 
3565625000  -5.689644e+001  -3.519845e+001 
3568750000  -5.676927e+001  -2.786032e+001 
3571875000  -5.976375e+001  -3.229737e+001 
3575000000  -5.842844e+001  -3.937815e+001 
3578125000  -5.926695e+001  -4.556675e+001 
3581250000  -5.739354e+001  -3.923291e+001 
3584375000  -5.976202e+001  -3.228131e+001 
3587500000  -5.929000e+001  -4.433360e+001 
3590625000  -5.775854e+001  -5.516851e+001 
3593750000  -5.724302e+001  -3.297427e+001 
3596875000  -5.853314e+001  -2.100320e+001 
3600000000  -5.619561e+001  -2.844190e+001 
3603125000  -5.724317e+001  -4.876931e+001 
3606250000  -5.825407e+001  -3.214464e+001 
3609375000  -5.815445e+001  -4.239481e+001 
3612500000  -5.661871e+001  -4.184992e+001 
3615625000  -5.877808e+001  -4.522810e+001 
3618750000  -5.922105e+001  -3.909100e+001 
3621875000  -5.758986e+001  -4.034999e+001 
3625000000  -5.781691e+001  -3.465124e+001 
3628125000  -5.694557e+001  -4.074354e+001 
3631250000  -5.720069e+001  -3.837129e+001 
3634375000  -5.655349e+001  -4.524753e+001 
3637500000  -5.567231e+001  -3.574838e+001 
3640625000  -5.437399e+001  -3.280973e+001 
3643750000  -5.274713e+001  -3.992900e+001 
3646875000  -5.323099e+001  -4.084457e+001 
3650000000  -5.303894e+001  -5.073980e+001 
3653125000  -5.189544e+001  -5.354025e+001 
3656250000  -5.163937e+001  -5.611453e+001 
3659375000  -5.094057e+001  -5.890090e+001 
3662500000  -5.084843e+001  -6.294368e+001 
3665625000  -4.960430e+001  -6.451197e+001 
3668750000  -4.786420e+001  -6.656087e+001 
3671875000  -4.741326e+001  -7.942697e+001 
3675000000  -4.725370e+001  -8.736690e+001 
3678125000  -4.711101e+001  -8.697532e+001 
3681250000  -4.610958e+001  -9.472303e+001 
3684375000  -4.648864e+001  -9.969582e+001 
3687500000  -4.668919e+001  -1.059618e+002 
3690625000  -4.689392e+001  -1.095779e+002 
3693750000  -4.695748e+001  -1.102221e+002 
3696875000  -4.655730e+001  -1.111705e+002 
3700000000  -4.510413e+001  -1.177625e+002 
3703125000  -4.603804e+001  -1.264983e+002 
3706250000  -4.632848e+001  -1.261368e+002 
3709375000  -4.489598e+001  -1.271381e+002 
3712500000  -4.356440e+001  -1.329486e+002 
3715625000  -4.192735e+001  -1.385903e+002 
3718750000  -4.185200e+001  -1.449165e+002 
3721875000  -4.126994e+001  -1.557903e+002 
3725000000  -4.156905e+001  -1.638297e+002 
3728125000  -4.124475e+001  -1.670575e+002 
3731250000  -4.067558e+001  -1.721478e+002 
3734375000  -3.997934e+001  -1.780468e+002 
3737500000  -4.090231e+001  1.702947e+002 
3740625000  -4.090882e+001  1.651471e+002 
3743750000  -4.048749e+001  1.598137e+002 
3746875000  -4.060941e+001  1.544899e+002 
3750000000  -4.080861e+001  1.491551e+002 
3753125000  -4.062566e+001  1.456967e+002 
3756250000  -4.058490e+001  1.410556e+002 
3759375000  -4.043645e+001  1.360222e+002 
3762500000  -4.004727e+001  1.298477e+002 
3765625000  -4.071758e+001  1.254325e+002 
3768750000  -4.034232e+001  1.262453e+002 
3771875000  -3.851434e+001  1.181753e+002 
3775000000  -3.847996e+001  1.064795e+002 
3778125000  -3.898161e+001  9.939758e+001 
3781250000  -3.907148e+001  9.619842e+001 
3784375000  -3.868171e+001  8.916701e+001 
3787500000  -3.844581e+001  8.363647e+001 
3790625000  -3.925153e+001  7.388747e+001 
3793750000  -3.912006e+001  7.148199e+001 
3796875000  -3.801078e+001  6.778354e+001 
3800000000  -3.652390e+001  6.274874e+001 
3803125000  -3.806502e+001  5.005142e+001 
3806250000  -3.886724e+001  4.500971e+001 
3809375000  -3.858480e+001  4.075600e+001 
3812500000  -3.871620e+001  3.344872e+001 
3815625000  -3.957617e+001  2.275051e+001 
3818750000  -4.075518e+001  2.403202e+001 
3821875000  -4.009678e+001  3.374270e+001 
3825000000  -3.818727e+001  2.957583e+001 
3828125000  -3.702760e+001  1.111579e+001 
3831250000  -3.798470e+001  -2.303321e+000 
3834375000  -4.036295e+001  -3.443805e+000 
3837500000  -4.073457e+001  -6.286488e-001 
3840625000  -3.911448e+001  -1.736098e+000 
3843750000  -3.823417e+001  -1.889423e+001 
3846875000  -3.985705e+001  -2.346109e+001 
3850000000  -4.069568e+001  -1.717033e+001 
3853125000  -4.004214e+001  -1.785882e+001 
3856250000  -3.946115e+001  -2.619763e+001 
3859375000  -3.874599e+001  -3.427047e+001 
3862500000  -3.887447e+001  -4.269433e+001 
3865625000  -3.895012e+001  -4.998916e+001 
3868750000  -3.867570e+001  -4.778649e+001 
3871875000  -3.776014e+001  -5.594457e+001 
3875000000  -3.875615e+001  -6.649944e+001 
3878125000  -3.938282e+001  -7.006621e+001 
3881250000  -3.924857e+001  -6.999856e+001 
3884375000  -3.870971e+001  -7.622102e+001 
3887500000  -3.919675e+001  -8.152270e+001 
3890625000  -3.973413e+001  -8.651717e+001 
3893750000  -3.981774e+001  -8.814070e+001 
3896875000  -3.992945e+001  -9.086269e+001 
3900000000  -3.992918e+001  -9.347070e+001 
3903125000  -3.926191e+001  -1.004378e+002 
3906250000  -3.887518e+001  -1.027645e+002 
3909375000  -3.825225e+001  -1.124608e+002 
3912500000  -3.896591e+001  -1.226531e+002 
3915625000  -4.067392e+001  -1.218400e+002 
3918750000  -3.994146e+001  -1.235931e+002 
3921875000  -3.943241e+001  -1.282531e+002 
3925000000  -3.858459e+001  -1.325065e+002 
3928125000  -3.825651e+001  -1.423905e+002 
3931250000  -3.898462e+001  -1.493253e+002 
3934375000  -3.966961e+001  -1.500743e+002 
3937500000  -4.006326e+001  -1.517886e+002 
3940625000  -4.021467e+001  -1.559526e+002 
3943750000  -3.882164e+001  -1.577092e+002 
3946875000  -3.860646e+001  -1.662158e+002 
3950000000  -3.953888e+001  -1.766924e+002 
3953125000  -4.005199e+001  -1.734994e+002 
3956250000  -3.887160e+001  -1.749742e+002 
3959375000  -3.764298e+001  1.773688e+002 
3962500000  -3.793020e+001  1.703058e+002 
3965625000  -3.788478e+001  1.595825e+002 
3968750000  -3.880369e+001  1.535636e+002 
3971875000  -3.862066e+001  1.472948e+002 
3975000000  -3.837654e+001  1.440928e+002 
3978125000  -3.857808e+001  1.408160e+002 
3981250000  -3.860998e+001  1.336851e+002 
3984375000  -3.893307e+001  1.251240e+002 
3987500000  -4.006355e+001  1.215703e+002 
3990625000  -3.981264e+001  1.201381e+002 
3993750000  -3.996989e+001  1.149378e+002 
3996875000  -3.988944e+001  1.111187e+002 
4000000000  -4.088840e+001  1.070860e+002 
4003125000  -4.129728e+001  1.083216e+002 
4006250000  -3.899984e+001  1.066557e+002 
4009375000  -3.861478e+001  9.085268e+001 
4012500000  -4.037423e+001  8.284480e+001 
4015625000  -4.142773e+001  8.484061e+001 
4018750000  -4.113797e+001  8.337526e+001 
4021875000  -4.098376e+001  8.053710e+001 
4025000000  -4.045127e+001  7.443772e+001 
4028125000  -4.049776e+001  6.687814e+001 
4031250000  -4.147167e+001  6.468565e+001 
4034375000  -4.138150e+001  6.409681e+001 
4037500000  -4.100881e+001  6.567656e+001 
4040625000  -4.101349e+001  5.738755e+001 
4043750000  -4.140918e+001  5.540623e+001 
4046875000  -4.081663e+001  5.300276e+001 
4050000000  -4.047036e+001  4.703187e+001 
4053125000  -4.159091e+001  4.296687e+001 
4056250000  -4.155484e+001  4.725792e+001 
4059375000  -3.932858e+001  4.590257e+001 
4062500000  -3.864595e+001  3.749503e+001 
4065625000  -3.888322e+001  3.132414e+001 
4068750000  -3.837090e+001  2.684982e+001 
4071875000  -3.782041e+001  1.553337e+001 
4075000000  -3.867944e+001  8.514561e+000 
4078125000  -3.869057e+001  4.944944e+000 
4081250000  -3.818281e+001  -3.198024e-001 
4084375000  -3.808237e+001  -8.055197e+000 
4087500000  -3.867046e+001  -1.588914e+001 
4090625000  -3.921862e+001  -1.705307e+001 
4093750000  -3.871844e+001  -2.085798e+001 
4096875000  -3.863144e+001  -3.000324e+001 
4100000000  -3.979890e+001  -3.768119e+001 
4103125000  -4.060531e+001  -3.534329e+001 
4106250000  -4.005532e+001  -3.309132e+001 
4109375000  -3.913568e+001  -3.493447e+001 
4112500000  -3.869056e+001  -4.442947e+001 
4115625000  -3.931112e+001  -5.054396e+001 
4118750000  -3.910957e+001  -5.644910e+001 
4121875000  -3.918177e+001  -6.338283e+001 
4125000000  -3.971367e+001  -7.103222e+001 
4128125000  -4.087632e+001  -6.810822e+001 
4131250000  -3.978981e+001  -6.249490e+001 
4134375000  -3.776447e+001  -7.212877e+001 
4137500000  -3.826604e+001  -9.434856e+001 
4140625000  -4.041105e+001  -1.018684e+002 
4143750000  -4.145963e+001  -9.198868e+001 
4146875000  -4.048637e+001  -9.089910e+001 
4150000000  -3.964833e+001  -9.689331e+001 
4153125000  -4.009062e+001  -1.058605e+002 
4156250000  -4.145216e+001  -1.088719e+002 
4159375000  -4.113097e+001  -1.039239e+002 
4162500000  -4.007006e+001  -1.018722e+002 
4165625000  -3.862085e+001  -1.116095e+002 
4168750000  -3.860998e+001  -1.205070e+002 
4171875000  -3.855108e+001  -1.286286e+002 
4175000000  -3.928156e+001  -1.360611e+002 
4178125000  -3.956788e+001  -1.365546e+002 
4181250000  -3.941037e+001  -1.401138e+002 
4184375000  -3.943681e+001  -1.468954e+002 
4187500000  -3.955045e+001  -1.520225e+002 
4190625000  -3.956282e+001  -1.569655e+002 
4193750000  -4.063832e+001  -1.628297e+002 
4196875000  -4.139606e+001  -1.635670e+002 
4200000000  -4.254241e+001  -1.587051e+002 
4203125000  -4.088927e+001  -1.450195e+002 
4206250000  -3.747937e+001  -1.565207e+002 
4209375000  -3.724137e+001  -1.795947e+002 
4212500000  -3.944973e+001  1.746413e+002 
4215625000  -4.005222e+001  -1.778154e+002 
4218750000  -3.850828e+001  -1.767761e+002 
4221875000  -3.688028e+001  1.737458e+002 
4225000000  -3.771569e+001  1.605956e+002 
4228125000  -3.773945e+001  1.631760e+002 
4231250000  -3.612322e+001  1.554961e+002 
4234375000  -3.635751e+001  1.434613e+002 
4237500000  -3.618864e+001  1.395290e+002 
4240625000  -3.640503e+001  1.269863e+002 
4243750000  -3.742502e+001  1.197592e+002 
4246875000  -3.867931e+001  1.189109e+002 
4250000000  -3.838316e+001  1.180200e+002 
4253125000  -3.797011e+001  1.150552e+002 
4256250000  -3.802283e+001  1.101635e+002 
4259375000  -3.780593e+001  1.049472e+002 
4262500000  -3.799786e+001  1.000798e+002 
4265625000  -3.816838e+001  9.782150e+001 
4268750000  -3.694743e+001  9.178740e+001 
4271875000  -3.680705e+001  8.329227e+001 
4275000000  -3.689825e+001  7.324406e+001 
4278125000  -3.772673e+001  6.258995e+001 
4281250000  -3.914943e+001  6.076203e+001 
4284375000  -3.887030e+001  5.777321e+001 
4287500000  -4.063729e+001  5.522958e+001 
4290625000  -4.077035e+001  6.309963e+001 
4293750000  -3.878310e+001  6.554897e+001 
4296875000  -3.775283e+001  4.946497e+001 
4300000000  -3.904816e+001  4.019956e+001 
4303125000  -3.974069e+001  4.604977e+001 
4306250000  -3.879140e+001  4.765388e+001 
4309375000  -3.777009e+001  3.990244e+001 
4312500000  -3.779942e+001  3.052690e+001 
4315625000  -3.791734e+001  2.117901e+001 
4318750000  -3.860349e+001  1.769126e+001 
4321875000  -3.857932e+001  1.734945e+001 
4325000000  -3.816719e+001  1.596542e+001 
4328125000  -3.723265e+001  6.612370e+000 
4331250000  -3.745167e+001  -3.997917e+000 
4334375000  -3.829694e+001  -1.077302e+001 
4337500000  -3.937718e+001  -9.712447e+000 
4340625000  -3.987013e+001  -6.385631e+000 
4343750000  -3.881207e+001  -1.014950e+001 
4346875000  -3.871269e+001  -1.715262e+001 
4350000000  -3.830009e+001  -2.514532e+001 
4353125000  -3.883727e+001  -3.246429e+001 
4356250000  -4.115824e+001  -3.116343e+001 
4359375000  -3.982051e+001  -1.511440e+001 
4362500000  -3.687735e+001  -2.253402e+001 
4365625000  -3.607260e+001  -4.274373e+001 
4368750000  -3.724605e+001  -5.042697e+001 
4371875000  -3.821257e+001  -5.147013e+001 
4375000000  -3.725234e+001  -5.574145e+001 
4378125000  -3.685733e+001  -6.383298e+001 
4381250000  -3.709451e+001  -6.994115e+001 
4384375000  -3.716693e+001  -7.748282e+001 
4387500000  -3.804713e+001  -8.212439e+001 
4390625000  -3.873233e+001  -8.418327e+001 
4393750000  -3.800713e+001  -8.411095e+001 
4396875000  -3.766926e+001  -8.920267e+001 
4400000000  -3.701637e+001  -9.854115e+001 
4403125000  -3.787792e+001  -1.079196e+002 
4406250000  -3.843486e+001  -1.118064e+002 
4409375000  -3.883053e+001  -1.142763e+002 
4412500000  -3.991344e+001  -1.165892e+002 
4415625000  -3.954638e+001  -1.145052e+002 
