!Agilent Technologies,E8363B,MY43030201,A.06.04.32
!Agilent E8363B: A.06.04.32
!Date: Tuesday, November 11, 2014 21:29:51
!Correction: S21(Response(S21)) 
!S1P File: Measurement: S21:
# Hz S  dB   R 50
3000000000  -4.055568e+001  8.493182e+001 
3003125000  -4.207618e+001  7.630637e+001 
3006250000  -4.219931e+001  7.693997e+001 
3009375000  -4.280910e+001  8.076149e+001 
3012500000  -4.139680e+001  7.676928e+001 
3015625000  -4.119400e+001  7.128391e+001 
3018750000  -4.173565e+001  7.005696e+001 
3021875000  -4.023939e+001  7.157487e+001 
3025000000  -3.891870e+001  6.762026e+001 
3028125000  -3.785555e+001  5.694236e+001 
3031250000  -3.695022e+001  4.552305e+001 
3034375000  -3.675273e+001  3.118734e+001 
3037500000  -3.735847e+001  2.081608e+001 
3040625000  -3.874997e+001  1.539251e+001 
3043750000  -3.909865e+001  8.231916e+000 
3046875000  -3.968734e+001  2.852910e+000 
3050000000  -4.095476e+001  -9.230155e-001 
3053125000  -4.050604e+001  3.255144e+000 
3056250000  -4.038738e+001  5.787972e+000 
3059375000  -3.976828e+001  3.756244e+000 
3062500000  -3.817859e+001  -2.040379e+000 
3065625000  -3.785168e+001  -1.081936e+001 
3068750000  -3.760152e+001  -1.872437e+001 
3071875000  -3.757042e+001  -2.019030e+001 
3075000000  -3.713511e+001  -2.724489e+001 
3078125000  -3.707962e+001  -3.354367e+001 
3081250000  -3.734698e+001  -3.901170e+001 
3084375000  -3.635977e+001  -4.417181e+001 
3087500000  -3.645114e+001  -5.092955e+001 
3090625000  -3.597140e+001  -6.278774e+001 
3093750000  -3.692387e+001  -7.094035e+001 
3096875000  -3.733688e+001  -7.654152e+001 
3100000000  -3.722101e+001  -8.007928e+001 
3103125000  -3.756813e+001  -8.247630e+001 
3106250000  -3.706585e+001  -8.836563e+001 
3109375000  -3.726125e+001  -9.191553e+001 
3112500000  -3.720206e+001  -9.754842e+001 
3115625000  -3.702409e+001  -1.017621e+002 
3118750000  -3.722746e+001  -1.052156e+002 
3121875000  -3.655877e+001  -1.156597e+002 
3125000000  -3.830065e+001  -1.196699e+002 
3128125000  -3.859430e+001  -1.126611e+002 
3131250000  -3.604343e+001  -1.184036e+002 
3134375000  -3.528056e+001  -1.353878e+002 
3137500000  -3.609586e+001  -1.475881e+002 
3140625000  -3.721182e+001  -1.510120e+002 
3143750000  -3.812548e+001  -1.521188e+002 
3146875000  -3.756289e+001  -1.507475e+002 
3150000000  -3.684539e+001  -1.549029e+002 
3153125000  -3.718882e+001  -1.638411e+002 
3156250000  -3.795107e+001  -1.591628e+002 
3159375000  -3.572676e+001  -1.603947e+002 
3162500000  -3.418634e+001  -1.762188e+002 
3165625000  -3.560645e+001  1.717626e+002 
3168750000  -3.548699e+001  1.704701e+002 
3171875000  -3.486916e+001  1.632716e+002 
3175000000  -3.557187e+001  1.543852e+002 
3178125000  -3.510694e+001  1.531972e+002 
3181250000  -3.435518e+001  1.448187e+002 
3184375000  -3.407880e+001  1.320844e+002 
3187500000  -3.552871e+001  1.172866e+002 
3190625000  -3.732107e+001  1.113892e+002 
3193750000  -3.750166e+001  1.169119e+002 
3196875000  -3.742959e+001  1.183477e+002 
3200000000  -3.635587e+001  1.124876e+002 
3203125000  -3.586949e+001  1.051834e+002 
3206250000  -3.612629e+001  9.733879e+001 
3209375000  -3.575829e+001  8.956451e+001 
3212500000  -3.631989e+001  8.330893e+001 
3215625000  -3.619941e+001  7.806069e+001 
3218750000  -3.695121e+001  6.809797e+001 
3221875000  -3.742594e+001  6.152207e+001 
3225000000  -3.712059e+001  5.824335e+001 
3228125000  -3.769536e+001  5.041330e+001 
3231250000  -3.831516e+001  4.829193e+001 
3234375000  -3.788400e+001  4.565889e+001 
3237500000  -3.809895e+001  4.069862e+001 
3240625000  -3.765298e+001  3.665578e+001 
3243750000  -3.754259e+001  2.701673e+001 
3246875000  -3.821744e+001  1.893524e+001 
3250000000  -3.880540e+001  1.595828e+001 
3253125000  -3.906923e+001  1.137783e+001 
3256250000  -3.871367e+001  4.051351e+000 
3259375000  -3.930570e+001  -6.979840e+000 
3262500000  -4.051848e+001  -1.096382e+001 
3265625000  -4.119621e+001  -8.297475e+000 
3268750000  -4.125236e+001  -6.354754e+000 
3271875000  -4.054353e+001  -1.120390e+001 
3275000000  -4.002378e+001  -1.930297e+001 
3278125000  -4.080732e+001  -2.385859e+001 
3281250000  -4.117720e+001  -2.696256e+001 
3284375000  -4.043674e+001  -3.312271e+001 
3287500000  -4.096662e+001  -3.486372e+001 
3290625000  -4.154214e+001  -4.366006e+001 
3293750000  -4.150103e+001  -4.894809e+001 
3296875000  -4.246758e+001  -4.998933e+001 
3300000000  -4.185603e+001  -4.948258e+001 
3303125000  -4.081413e+001  -5.701390e+001 
3306250000  -4.074962e+001  -6.276298e+001 
3309375000  -4.047787e+001  -7.121868e+001 
3312500000  -4.102525e+001  -8.375330e+001 
3315625000  -4.212580e+001  -9.088943e+001 
3318750000  -4.388555e+001  -9.220535e+001 
3321875000  -4.521602e+001  -9.237080e+001 
3325000000  -4.497305e+001  -8.435259e+001 
3328125000  -4.388354e+001  -8.516346e+001 
3331250000  -4.263258e+001  -8.141385e+001 
3334375000  -3.983016e+001  -9.635940e+001 
3337500000  -4.024396e+001  -1.161649e+002 
3340625000  -4.204775e+001  -1.286634e+002 
3343750000  -4.397812e+001  -1.282056e+002 
3346875000  -4.330230e+001  -1.257317e+002 
3350000000  -4.310804e+001  -1.312283e+002 
3353125000  -4.271738e+001  -1.367516e+002 
3356250000  -4.259146e+001  -1.468334e+002 
3359375000  -4.344357e+001  -1.553875e+002 
3362500000  -4.449725e+001  -1.611577e+002 
3365625000  -4.472853e+001  -1.652697e+002 
3368750000  -4.538733e+001  -1.699718e+002 
3371875000  -4.583011e+001  -1.762131e+002 
3375000000  -4.722725e+001  -1.783204e+002 
3378125000  -4.794070e+001  -1.790967e+002 
3381250000  -4.997512e+001  -1.703643e+002 
3384375000  -4.709665e+001  -1.555302e+002 
3387500000  -4.406802e+001  -1.723904e+002 
3390625000  -4.630008e+001  1.686702e+002 
3393750000  -4.738567e+001  1.657618e+002 
3396875000  -4.609576e+001  1.660527e+002 
3400000000  -4.674145e+001  1.536024e+002 
3403125000  -4.706039e+001  1.452882e+002 
3406250000  -4.745020e+001  1.428791e+002 
3409375000  -4.826366e+001  1.368298e+002 
3412500000  -4.965168e+001  1.279816e+002 
3415625000  -5.046485e+001  1.330816e+002 
3418750000  -4.999430e+001  1.278767e+002 
3421875000  -5.204475e+001  1.356819e+002 
3425000000  -5.027658e+001  1.334756e+002 
3428125000  -4.944317e+001  1.290096e+002 
3431250000  -5.021338e+001  1.210653e+002 
3434375000  -5.123366e+001  1.151054e+002 
3437500000  -5.179388e+001  1.123122e+002 
3440625000  -5.214342e+001  1.210490e+002 
3443750000  -5.074520e+001  1.190750e+002 
3446875000  -5.135041e+001  1.132166e+002 
3450000000  -5.064493e+001  1.072559e+002 
3453125000  -5.079974e+001  9.812443e+001 
3456250000  -5.199989e+001  8.833293e+001 
3459375000  -5.308323e+001  9.270826e+001 
3462500000  -5.318672e+001  9.965714e+001 
3465625000  -5.213675e+001  9.308763e+001 
3468750000  -5.206815e+001  9.410642e+001 
3471875000  -5.143954e+001  9.287669e+001 
3475000000  -5.148636e+001  8.567104e+001 
3478125000  -5.081384e+001  7.902055e+001 
3481250000  -5.261211e+001  8.053239e+001 
3484375000  -5.286317e+001  8.603570e+001 
3487500000  -5.173281e+001  7.613343e+001 
3490625000  -5.128571e+001  6.831657e+001 
3493750000  -5.150499e+001  6.577272e+001 
3496875000  -5.115536e+001  5.732111e+001 
3500000000  -5.339093e+001  6.166121e+001 
3503125000  -5.118678e+001  5.570193e+001 
3506250000  -5.002688e+001  5.309430e+001 
3509375000  -4.963794e+001  4.019761e+001 
3512500000  -5.028581e+001  2.834804e+001 
3515625000  -5.144368e+001  2.268842e+001 
3518750000  -5.199347e+001  2.138330e+001 
3521875000  -5.207653e+001  1.899336e+001 
3525000000  -5.419191e+001  9.002625e+000 
3528125000  -5.334097e+001  1.593960e+001 
3531250000  -5.210173e+001  1.332802e+001 
3534375000  -5.240798e+001  -3.917344e+000 
3537500000  -5.412173e+001  -9.229477e+000 
3540625000  -5.512308e+001  -1.432008e+001 
3543750000  -5.530485e+001  1.974579e+000 
3546875000  -5.640769e+001  2.295778e+000 
3550000000  -5.497924e+001  8.742903e+000 
3553125000  -5.341576e+001  -1.832670e+001 
3556250000  -5.478035e+001  -1.705698e+001 
3559375000  -5.605366e+001  -1.905848e+001 
3562500000  -5.555871e+001  -3.150661e+001 
3565625000  -5.687664e+001  -2.769384e+001 
3568750000  -5.711771e+001  -1.902819e+001 
3571875000  -5.796108e+001  -1.819468e+001 
3575000000  -5.729562e+001  -2.526314e+001 
3578125000  -5.785268e+001  -3.151795e+001 
3581250000  -5.806140e+001  -2.338944e+001 
3584375000  -5.737805e+001  -2.938292e+001 
3587500000  -5.644805e+001  -1.872512e+001 
3590625000  -5.846315e+001  -3.522296e+001 
3593750000  -5.909966e+001  -3.176752e+001 
3596875000  -5.879757e+001  -1.705232e+001 
3600000000  -5.730618e+001  -1.812835e+001 
3603125000  -5.806250e+001  -4.575012e+001 
3606250000  -5.754474e+001  -2.950657e+001 
3609375000  -5.765446e+001  -3.093379e+001 
3612500000  -5.752387e+001  -3.118539e+001 
3615625000  -5.841359e+001  -3.860323e+001 
3618750000  -5.928814e+001  -2.702128e+001 
3621875000  -5.657602e+001  -2.658490e+001 
3625000000  -5.691267e+001  -3.777898e+001 
3628125000  -5.675577e+001  -2.787091e+001 
3631250000  -5.702245e+001  -4.032647e+001 
3634375000  -5.702351e+001  -3.925186e+001 
3637500000  -5.536360e+001  -2.990364e+001 
3640625000  -5.396211e+001  -2.913232e+001 
3643750000  -5.241749e+001  -3.545238e+001 
3646875000  -5.181417e+001  -4.597147e+001 
3650000000  -5.272402e+001  -4.416854e+001 
3653125000  -5.214018e+001  -4.740327e+001 
3656250000  -5.151776e+001  -5.164812e+001 
3659375000  -5.090204e+001  -4.552077e+001 
3662500000  -5.030363e+001  -5.501755e+001 
3665625000  -4.977066e+001  -5.976518e+001 
3668750000  -4.789038e+001  -6.032106e+001 
3671875000  -4.761090e+001  -6.907786e+001 
3675000000  -4.737092e+001  -7.882597e+001 
3678125000  -4.702751e+001  -8.123384e+001 
3681250000  -4.658154e+001  -8.768492e+001 
3684375000  -4.656675e+001  -8.986643e+001 
3687500000  -4.677044e+001  -9.584812e+001 
3690625000  -4.638912e+001  -1.042687e+002 
3693750000  -4.708694e+001  -1.059344e+002 
3696875000  -4.610705e+001  -1.055327e+002 
3700000000  -4.554980e+001  -1.123640e+002 
3703125000  -4.550901e+001  -1.155981e+002 
3706250000  -4.582610e+001  -1.190594e+002 
3709375000  -4.488141e+001  -1.189446e+002 
3712500000  -4.362829e+001  -1.208763e+002 
3715625000  -4.193623e+001  -1.302069e+002 
3718750000  -4.187861e+001  -1.387042e+002 
3721875000  -4.157158e+001  -1.484159e+002 
3725000000  -4.170667e+001  -1.554625e+002 
3728125000  -4.161919e+001  -1.580495e+002 
3731250000  -4.074010e+001  -1.642574e+002 
3734375000  -3.980753e+001  -1.708521e+002 
3737500000  -4.076436e+001  1.788819e+002 
3740625000  -4.117480e+001  1.733830e+002 
3743750000  -4.053175e+001  1.662332e+002 
3746875000  -4.095173e+001  1.617297e+002 
3750000000  -4.098659e+001  1.566707e+002 
3753125000  -4.052908e+001  1.533726e+002 
3756250000  -4.076535e+001  1.501232e+002 
3759375000  -4.041632e+001  1.431245e+002 
3762500000  -4.010799e+001  1.376977e+002 
3765625000  -4.056984e+001  1.322669e+002 
3768750000  -4.001139e+001  1.339495e+002 
3771875000  -3.855783e+001  1.240067e+002 
3775000000  -3.853329e+001  1.135225e+002 
3778125000  -3.889927e+001  1.078704e+002 
3781250000  -3.898825e+001  1.030039e+002 
3784375000  -3.889687e+001  9.727025e+001 
3787500000  -3.832277e+001  9.068312e+001 
3790625000  -3.901714e+001  8.295458e+001 
3793750000  -3.923006e+001  7.797235e+001 
3796875000  -3.830779e+001  7.443421e+001 
3800000000  -3.647216e+001  7.018200e+001 
3803125000  -3.807180e+001  5.686300e+001 
3806250000  -3.895462e+001  5.234960e+001 
3809375000  -3.848808e+001  4.869462e+001 
3812500000  -3.865965e+001  3.991826e+001 
3815625000  -3.960397e+001  2.915928e+001 
3818750000  -4.053065e+001  3.143062e+001 
3821875000  -4.014145e+001  4.191453e+001 
3825000000  -3.834342e+001  3.858540e+001 
3828125000  -3.706194e+001  1.887601e+001 
3831250000  -3.811885e+001  6.442230e+000 
3834375000  -4.039105e+001  4.556017e+000 
3837500000  -4.080136e+001  8.030924e+000 
3840625000  -3.927666e+001  4.862846e+000 
3843750000  -3.834821e+001  -9.510568e+000 
3846875000  -3.945870e+001  -1.534129e+001 
3850000000  -4.108795e+001  -1.201177e+001 
3853125000  -4.001371e+001  -9.893710e+000 
3856250000  -3.937722e+001  -1.782881e+001 
3859375000  -3.854924e+001  -2.526872e+001 
3862500000  -3.860056e+001  -3.622230e+001 
3865625000  -3.917522e+001  -3.940153e+001 
3868750000  -3.880374e+001  -4.271015e+001 
3871875000  -3.795154e+001  -4.875702e+001 
3875000000  -3.863242e+001  -5.933168e+001 
3878125000  -3.933178e+001  -6.188162e+001 
3881250000  -3.923498e+001  -6.104030e+001 
3884375000  -3.873790e+001  -6.839964e+001 
3887500000  -3.907816e+001  -7.466872e+001 
3890625000  -3.931636e+001  -7.824751e+001 
3893750000  -3.987388e+001  -8.006429e+001 
3896875000  -3.996371e+001  -8.327597e+001 
3900000000  -4.008439e+001  -8.713041e+001 
3903125000  -3.939982e+001  -9.180643e+001 
3906250000  -3.914820e+001  -9.754524e+001 
3909375000  -3.826851e+001  -1.034441e+002 
3912500000  -3.913858e+001  -1.146246e+002 
3915625000  -4.036282e+001  -1.129802e+002 
3918750000  -4.013501e+001  -1.134681e+002 
3921875000  -3.955465e+001  -1.198154e+002 
3925000000  -3.872510e+001  -1.239896e+002 
3928125000  -3.831353e+001  -1.347679e+002 
3931250000  -3.918610e+001  -1.419916e+002 
3934375000  -3.937167e+001  -1.419825e+002 
3937500000  -3.991770e+001  -1.443417e+002 
3940625000  -3.997619e+001  -1.471756e+002 
3943750000  -3.891411e+001  -1.496790e+002 
3946875000  -3.849781e+001  -1.580076e+002 
3950000000  -3.960314e+001  -1.674314e+002 
3953125000  -3.986579e+001  -1.666982e+002 
3956250000  -3.887831e+001  -1.670063e+002 
3959375000  -3.788709e+001  -1.725800e+002 
3962500000  -3.762410e+001  1.786716e+002 
3965625000  -3.777195e+001  1.685745e+002 
3968750000  -3.870844e+001  1.618496e+002 
3971875000  -3.874508e+001  1.560321e+002 
3975000000  -3.844728e+001  1.531044e+002 
3978125000  -3.858059e+001  1.482922e+002 
3981250000  -3.872255e+001  1.414905e+002 
3984375000  -3.923208e+001  1.338292e+002 
3987500000  -3.974091e+001  1.325008e+002 
3990625000  -4.012215e+001  1.298516e+002 
3993750000  -4.005065e+001  1.239159e+002 
3996875000  -3.997100e+001  1.185590e+002 
4000000000  -4.065458e+001  1.149469e+002 
4003125000  -4.120689e+001  1.154771e+002 
4006250000  -3.968649e+001  1.139637e+002 
4009375000  -3.869370e+001  1.006427e+002 
4012500000  -4.028599e+001  9.304923e+001 
4015625000  -4.138502e+001  9.262727e+001 
4018750000  -4.131809e+001  9.213998e+001 
4021875000  -4.074252e+001  9.019889e+001 
4025000000  -4.072000e+001  8.506213e+001 
4028125000  -4.055426e+001  7.441714e+001 
4031250000  -4.109298e+001  7.270791e+001 
4034375000  -4.159524e+001  7.087428e+001 
4037500000  -4.100649e+001  7.316061e+001 
4040625000  -4.094115e+001  6.840559e+001 
4043750000  -4.130845e+001  6.530502e+001 
4046875000  -4.068343e+001  6.125695e+001 
4050000000  -4.084609e+001  5.467884e+001 
4053125000  -4.165360e+001  5.353604e+001 
4056250000  -4.138703e+001  5.707421e+001 
4059375000  -3.960539e+001  5.765033e+001 
4062500000  -3.888737e+001  4.813919e+001 
4065625000  -3.885180e+001  4.253182e+001 
4068750000  -3.836446e+001  3.440228e+001 
4071875000  -3.786615e+001  2.338328e+001 
4075000000  -3.843186e+001  1.644778e+001 
4078125000  -3.879118e+001  1.308370e+001 
4081250000  -3.831934e+001  9.966968e+000 
4084375000  -3.820657e+001  -8.125732e-001 
4087500000  -3.859392e+001  -8.089051e+000 
4090625000  -3.918492e+001  -9.673097e+000 
4093750000  -3.883033e+001  -1.174801e+001 
4096875000  -3.874849e+001  -2.094384e+001 
4100000000  -3.964722e+001  -2.925384e+001 
4103125000  -4.068011e+001  -2.697376e+001 
4106250000  -4.012921e+001  -2.275044e+001 
4109375000  -3.903068e+001  -2.701902e+001 
4112500000  -3.871336e+001  -3.645430e+001 
4115625000  -3.934840e+001  -4.332136e+001 
4118750000  -3.910672e+001  -4.844156e+001 
4121875000  -3.894442e+001  -5.614646e+001 
4125000000  -3.996221e+001  -6.159188e+001 
4128125000  -4.083686e+001  -5.976789e+001 
4131250000  -3.992438e+001  -5.519106e+001 
4134375000  -3.764755e+001  -6.423096e+001 
4137500000  -3.796727e+001  -8.499181e+001 
4140625000  -4.030582e+001  -9.100591e+001 
4143750000  -4.106502e+001  -8.632359e+001 
4146875000  -4.076353e+001  -8.102966e+001 
4150000000  -3.958988e+001  -8.832146e+001 
4153125000  -4.002350e+001  -9.694611e+001 
4156250000  -4.122467e+001  -1.019786e+002 
4159375000  -4.129290e+001  -9.393704e+001 
4162500000  -3.994827e+001  -9.460934e+001 
4165625000  -3.911228e+001  -1.019392e+002 
4168750000  -3.851781e+001  -1.105494e+002 
4171875000  -3.847691e+001  -1.215726e+002 
4175000000  -3.929939e+001  -1.273700e+002 
4178125000  -3.971997e+001  -1.284186e+002 
4181250000  -3.964037e+001  -1.332003e+002 
4184375000  -3.944362e+001  -1.368191e+002 
4187500000  -3.974399e+001  -1.414657e+002 
4190625000  -3.948667e+001  -1.496554e+002 
4193750000  -4.056752e+001  -1.548948e+002 
4196875000  -4.145601e+001  -1.535152e+002 
4200000000  -4.229370e+001  -1.503644e+002 
4203125000  -4.117239e+001  -1.361248e+002 
4206250000  -3.742189e+001  -1.457453e+002 
4209375000  -3.716892e+001  -1.687224e+002 
4212500000  -3.971652e+001  -1.762279e+002 
4215625000  -3.988382e+001  -1.702667e+002 
4218750000  -3.848271e+001  -1.672390e+002 
4221875000  -3.666085e+001  -1.779047e+002 
4225000000  -3.782740e+001  1.709215e+002 
4228125000  -3.782272e+001  1.723913e+002 
4231250000  -3.613744e+001  1.636306e+002 
4234375000  -3.642123e+001  1.530160e+002 
4237500000  -3.624291e+001  1.484431e+002 
4240625000  -3.638540e+001  1.373300e+002 
4243750000  -3.755407e+001  1.292130e+002 
4246875000  -3.845823e+001  1.276427e+002 
4250000000  -3.823080e+001  1.271808e+002 
4253125000  -3.840189e+001  1.255414e+002 
4256250000  -3.807413e+001  1.201678e+002 
4259375000  -3.764941e+001  1.146476e+002 
4262500000  -3.803585e+001  1.105373e+002 
4265625000  -3.820736e+001  1.089122e+002 
4268750000  -3.705894e+001  1.003187e+002 
4271875000  -3.695866e+001  9.143577e+001 
4275000000  -3.682546e+001  8.269238e+001 
4278125000  -3.758366e+001  7.058295e+001 
4281250000  -3.931110e+001  6.921526e+001 
4284375000  -3.888254e+001  6.682887e+001 
4287500000  -4.047776e+001  6.172635e+001 
4290625000  -4.086983e+001  7.239989e+001 
4293750000  -3.875674e+001  7.106094e+001 
4296875000  -3.788660e+001  5.773735e+001 
4300000000  -3.933212e+001  4.960989e+001 
4303125000  -3.999829e+001  5.386804e+001 
4306250000  -3.853025e+001  5.554539e+001 
4309375000  -3.785883e+001  5.041497e+001 
4312500000  -3.786708e+001  3.797370e+001 
4315625000  -3.783173e+001  3.025190e+001 
4318750000  -3.838062e+001  2.633406e+001 
4321875000  -3.879815e+001  2.783221e+001 
4325000000  -3.787390e+001  2.470487e+001 
4328125000  -3.748423e+001  1.634230e+001 
4331250000  -3.758749e+001  5.127268e+000 
4334375000  -3.831255e+001  -1.680180e+000 
4337500000  -3.924367e+001  -2.099298e+000 
4340625000  -3.962859e+001  3.307106e+000 
4343750000  -3.851309e+001  -9.369197e-002 
4346875000  -3.864556e+001  -8.880236e+000 
4350000000  -3.832747e+001  -1.443324e+001 
4353125000  -3.901709e+001  -2.386152e+001 
4356250000  -4.114091e+001  -2.259555e+001 
4359375000  -4.003271e+001  -7.917940e+000 
4362500000  -3.677362e+001  -1.488012e+001 
4365625000  -3.601135e+001  -3.404919e+001 
4368750000  -3.731684e+001  -4.287918e+001 
4371875000  -3.792063e+001  -4.026672e+001 
4375000000  -3.731902e+001  -4.595807e+001 
4378125000  -3.687912e+001  -5.446034e+001 
4381250000  -3.721443e+001  -6.165097e+001 
4384375000  -3.730247e+001  -6.795130e+001 
4387500000  -3.812516e+001  -7.381680e+001 
4390625000  -3.865998e+001  -7.511996e+001 
4393750000  -3.820692e+001  -7.374717e+001 
4396875000  -3.743906e+001  -7.955080e+001 
4400000000  -3.715458e+001  -9.010515e+001 
4403125000  -3.776043e+001  -9.889101e+001 
4406250000  -3.838300e+001  -1.031161e+002 
4409375000  -3.878012e+001  -1.073089e+002 
4412500000  -4.002743e+001  -1.083980e+002 
4415625000  -3.935732e+001  -1.060286e+002 
