!Agilent Technologies,E8363B,MY43030201,A.06.04.32
!Agilent E8363B: A.06.04.32
!Date: Tuesday, November 11, 2014 21:29:40
!Correction: S21(Response(S21)) 
!S1P File: Measurement: S21:
# Hz S  dB   R 50
3000000000  -4.057725e+001  8.572733e+001 
3003125000  -4.224999e+001  7.843790e+001 
3006250000  -4.213260e+001  7.633851e+001 
3009375000  -4.279815e+001  8.260391e+001 
3012500000  -4.160509e+001  7.700413e+001 
3015625000  -4.123564e+001  6.988619e+001 
3018750000  -4.188198e+001  7.070667e+001 
3021875000  -4.022290e+001  7.155674e+001 
3025000000  -3.887909e+001  6.772308e+001 
3028125000  -3.798833e+001  5.763214e+001 
3031250000  -3.681214e+001  4.592180e+001 
3034375000  -3.669050e+001  3.155649e+001 
3037500000  -3.749519e+001  2.047653e+001 
3040625000  -3.875782e+001  1.530325e+001 
3043750000  -3.923018e+001  9.134610e+000 
3046875000  -3.968301e+001  3.613672e+000 
3050000000  -4.091541e+001  -1.316745e+000 
3053125000  -4.048347e+001  3.464412e+000 
3056250000  -4.050003e+001  7.429176e+000 
3059375000  -3.984566e+001  3.710940e+000 
3062500000  -3.815659e+001  -6.102708e-001 
3065625000  -3.785152e+001  -1.019745e+001 
3068750000  -3.741446e+001  -1.751970e+001 
3071875000  -3.756450e+001  -1.979471e+001 
3075000000  -3.699534e+001  -2.653547e+001 
3078125000  -3.702515e+001  -3.269796e+001 
3081250000  -3.728045e+001  -3.826134e+001 
3084375000  -3.637494e+001  -4.390340e+001 
3087500000  -3.645319e+001  -4.988831e+001 
3090625000  -3.595675e+001  -6.177371e+001 
3093750000  -3.683146e+001  -7.078797e+001 
3096875000  -3.737528e+001  -7.560064e+001 
3100000000  -3.731165e+001  -7.976141e+001 
3103125000  -3.767983e+001  -8.236620e+001 
3106250000  -3.721104e+001  -8.739499e+001 
3109375000  -3.728843e+001  -9.129707e+001 
3112500000  -3.714498e+001  -9.702128e+001 
3115625000  -3.701884e+001  -1.017573e+002 
3118750000  -3.737912e+001  -1.046030e+002 
3121875000  -3.656194e+001  -1.152967e+002 
3125000000  -3.840934e+001  -1.197365e+002 
3128125000  -3.849117e+001  -1.122841e+002 
3131250000  -3.617273e+001  -1.171070e+002 
3134375000  -3.544306e+001  -1.343804e+002 
3137500000  -3.601071e+001  -1.469532e+002 
3140625000  -3.745906e+001  -1.504119e+002 
3143750000  -3.826361e+001  -1.520781e+002 
3146875000  -3.781756e+001  -1.501656e+002 
3150000000  -3.684908e+001  -1.536394e+002 
3153125000  -3.707989e+001  -1.625001e+002 
3156250000  -3.792402e+001  -1.580786e+002 
3159375000  -3.588537e+001  -1.598959e+002 
3162500000  -3.428452e+001  -1.747307e+002 
3165625000  -3.554476e+001  1.712556e+002 
3168750000  -3.551396e+001  1.701659e+002 
3171875000  -3.496025e+001  1.636952e+002 
3175000000  -3.555008e+001  1.542311e+002 
3178125000  -3.509606e+001  1.528708e+002 
3181250000  -3.437471e+001  1.452301e+002 
3184375000  -3.410387e+001  1.336320e+002 
3187500000  -3.529274e+001  1.179464e+002 
3190625000  -3.724203e+001  1.113560e+002 
3193750000  -3.745789e+001  1.174681e+002 
3196875000  -3.755194e+001  1.187166e+002 
3200000000  -3.632720e+001  1.141530e+002 
3203125000  -3.576579e+001  1.053666e+002 
3206250000  -3.626148e+001  9.799056e+001 
3209375000  -3.573697e+001  8.965107e+001 
3212500000  -3.621303e+001  8.322163e+001 
3215625000  -3.609018e+001  7.936928e+001 
3218750000  -3.684338e+001  6.953355e+001 
3221875000  -3.728402e+001  6.254686e+001 
3225000000  -3.689823e+001  5.880391e+001 
3228125000  -3.777269e+001  5.211076e+001 
3231250000  -3.841881e+001  4.898737e+001 
3234375000  -3.800735e+001  4.574345e+001 
3237500000  -3.819076e+001  4.187311e+001 
3240625000  -3.760595e+001  3.672253e+001 
3243750000  -3.772665e+001  2.663926e+001 
3246875000  -3.835944e+001  1.934460e+001 
3250000000  -3.879423e+001  1.645285e+001 
3253125000  -3.896317e+001  1.249395e+001 
3256250000  -3.852350e+001  4.910622e+000 
3259375000  -3.912531e+001  -6.418573e+000 
3262500000  -4.058995e+001  -1.095004e+001 
3265625000  -4.122216e+001  -7.228211e+000 
3268750000  -4.123459e+001  -6.511064e+000 
3271875000  -4.060796e+001  -1.055879e+001 
3275000000  -4.008772e+001  -1.889562e+001 
3278125000  -4.092487e+001  -2.354053e+001 
3281250000  -4.099057e+001  -2.407244e+001 
3284375000  -4.053037e+001  -3.136428e+001 
3287500000  -4.086283e+001  -3.472407e+001 
3290625000  -4.127766e+001  -4.218759e+001 
3293750000  -4.130624e+001  -4.836034e+001 
3296875000  -4.231259e+001  -4.917231e+001 
3300000000  -4.189007e+001  -4.973693e+001 
3303125000  -4.100085e+001  -5.540807e+001 
3306250000  -4.057740e+001  -6.242876e+001 
3309375000  -4.055430e+001  -6.947895e+001 
3312500000  -4.100000e+001  -8.250863e+001 
3315625000  -4.248318e+001  -8.961147e+001 
3318750000  -4.351680e+001  -9.492352e+001 
3321875000  -4.474530e+001  -8.829022e+001 
3325000000  -4.503113e+001  -8.555973e+001 
3328125000  -4.437670e+001  -8.337774e+001 
3331250000  -4.239002e+001  -8.433378e+001 
3334375000  -3.997147e+001  -9.424520e+001 
3337500000  -4.061456e+001  -1.167896e+002 
3340625000  -4.225317e+001  -1.278999e+002 
3343750000  -4.462801e+001  -1.248102e+002 
3346875000  -4.336509e+001  -1.250249e+002 
3350000000  -4.318147e+001  -1.306699e+002 
3353125000  -4.289516e+001  -1.366772e+002 
3356250000  -4.261825e+001  -1.461708e+002 
3359375000  -4.362844e+001  -1.561044e+002 
3362500000  -4.444832e+001  -1.603732e+002 
3365625000  -4.492455e+001  -1.646992e+002 
3368750000  -4.567226e+001  -1.721747e+002 
3371875000  -4.581144e+001  -1.728450e+002 
3375000000  -4.702628e+001  1.784480e+002 
3378125000  -4.845348e+001  -1.786664e+002 
3381250000  -4.950333e+001  -1.635836e+002 
3384375000  -4.691707e+001  -1.517440e+002 
3387500000  -4.387431e+001  -1.712754e+002 
3390625000  -4.569291e+001  1.668243e+002 
3393750000  -4.733091e+001  1.649504e+002 
3396875000  -4.594711e+001  1.647646e+002 
3400000000  -4.644457e+001  1.520068e+002 
3403125000  -4.710907e+001  1.464414e+002 
3406250000  -4.791435e+001  1.445981e+002 
3409375000  -4.820500e+001  1.366251e+002 
3412500000  -4.838013e+001  1.286191e+002 
3415625000  -4.996031e+001  1.299202e+002 
3418750000  -5.075431e+001  1.269013e+002 
3421875000  -5.132565e+001  1.330240e+002 
3425000000  -5.059603e+001  1.395910e+002 
3428125000  -5.052402e+001  1.311323e+002 
3431250000  -5.017430e+001  1.183622e+002 
3434375000  -5.108546e+001  1.159561e+002 
3437500000  -5.206892e+001  1.161115e+002 
3440625000  -5.226209e+001  1.225921e+002 
3443750000  -5.102782e+001  1.175185e+002 
3446875000  -5.218389e+001  1.130219e+002 
3450000000  -5.085234e+001  1.081416e+002 
3453125000  -5.056618e+001  9.981501e+001 
3456250000  -5.206168e+001  9.463482e+001 
3459375000  -5.296946e+001  9.624940e+001 
3462500000  -5.235612e+001  1.034239e+002 
3465625000  -5.181907e+001  9.122054e+001 
3468750000  -5.284752e+001  8.965697e+001 
3471875000  -5.189648e+001  9.160738e+001 
3475000000  -5.111624e+001  8.757505e+001 
3478125000  -5.152921e+001  7.931395e+001 
3481250000  -5.349216e+001  7.318491e+001 
3484375000  -5.251031e+001  8.027030e+001 
3487500000  -5.204580e+001  7.897839e+001 
3490625000  -5.132302e+001  7.529944e+001 
3493750000  -5.203170e+001  6.334479e+001 
3496875000  -5.105743e+001  6.344650e+001 
3500000000  -5.232827e+001  6.256281e+001 
3503125000  -5.102244e+001  5.901787e+001 
3506250000  -5.052583e+001  5.658170e+001 
3509375000  -5.014745e+001  4.224097e+001 
3512500000  -5.011885e+001  2.822395e+001 
3515625000  -5.141636e+001  2.540777e+001 
3518750000  -5.275884e+001  2.663693e+001 
3521875000  -5.239233e+001  1.857008e+001 
3525000000  -5.455619e+001  1.500181e+001 
3528125000  -5.269038e+001  2.507119e+001 
3531250000  -5.169852e+001  1.340931e+001 
3534375000  -5.221138e+001  -1.052740e+000 
3537500000  -5.315155e+001  -1.116615e+001 
3540625000  -5.538238e+001  -6.343719e+000 
3543750000  -5.574044e+001  -5.004117e+000 
3546875000  -5.658014e+001  4.084067e+000 
3550000000  -5.403046e+001  -4.527661e+000 
3553125000  -5.478319e+001  -1.318875e+001 
3556250000  -5.562027e+001  -1.876546e+001 
3559375000  -5.620360e+001  -2.020737e+001 
3562500000  -5.790056e+001  -3.105319e+001 
3565625000  -5.746565e+001  -3.951532e+001 
3568750000  -5.686249e+001  -3.150169e+001 
3571875000  -5.960751e+001  -2.826570e+001 
3575000000  -5.787953e+001  -2.488349e+001 
3578125000  -5.998743e+001  -3.870033e+001 
3581250000  -5.970404e+001  -1.721762e+001 
3584375000  -5.901653e+001  -2.143606e+001 
3587500000  -5.818900e+001  -2.305879e+001 
3590625000  -5.843283e+001  -4.121372e+001 
3593750000  -6.079374e+001  -1.819756e+001 
3596875000  -5.926905e+001  -1.777951e+001 
3600000000  -5.756030e+001  -3.057729e+001 
3603125000  -5.851495e+001  -2.864898e+001 
3606250000  -5.822831e+001  -3.207817e+001 
3609375000  -5.808751e+001  -3.151463e+001 
3612500000  -5.929831e+001  -2.165959e+001 
3615625000  -5.890942e+001  -4.475013e+001 
3618750000  -5.997750e+001  -2.567882e+001 
3621875000  -5.615506e+001  -2.165798e+001 
3625000000  -5.726628e+001  -2.422576e+001 
3628125000  -5.640800e+001  -2.108331e+001 
3631250000  -5.595216e+001  -3.085526e+001 
3634375000  -5.721408e+001  -3.417985e+001 
3637500000  -5.505302e+001  -2.597109e+001 
3640625000  -5.348966e+001  -2.611943e+001 
3643750000  -5.179514e+001  -3.135904e+001 
3646875000  -5.218159e+001  -3.900211e+001 
3650000000  -5.333760e+001  -3.263139e+001 
3653125000  -5.174498e+001  -4.831806e+001 
3656250000  -5.181635e+001  -5.179364e+001 
3659375000  -5.137177e+001  -5.079433e+001 
3662500000  -5.043756e+001  -5.247410e+001 
3665625000  -5.043056e+001  -6.049958e+001 
3668750000  -4.762712e+001  -5.985676e+001 
3671875000  -4.718409e+001  -6.836105e+001 
3675000000  -4.737048e+001  -7.809653e+001 
3678125000  -4.726813e+001  -8.066013e+001 
3681250000  -4.660238e+001  -8.570711e+001 
3684375000  -4.679523e+001  -9.060130e+001 
3687500000  -4.643376e+001  -9.775964e+001 
3690625000  -4.641287e+001  -1.022485e+002 
3693750000  -4.729957e+001  -1.033619e+002 
3696875000  -4.639974e+001  -1.026386e+002 
3700000000  -4.535942e+001  -1.080318e+002 
3703125000  -4.548122e+001  -1.147639e+002 
3706250000  -4.543694e+001  -1.151965e+002 
3709375000  -4.467472e+001  -1.162320e+002 
3712500000  -4.354987e+001  -1.224201e+002 
3715625000  -4.220701e+001  -1.300672e+002 
3718750000  -4.186773e+001  -1.395959e+002 
3721875000  -4.128307e+001  -1.475899e+002 
3725000000  -4.189109e+001  -1.533515e+002 
3728125000  -4.142677e+001  -1.582951e+002 
3731250000  -4.087062e+001  -1.642477e+002 
3734375000  -4.001921e+001  -1.715728e+002 
3737500000  -4.071248e+001  1.793849e+002 
3740625000  -4.077294e+001  1.738486e+002 
3743750000  -4.042482e+001  1.676421e+002 
3746875000  -4.077640e+001  1.607036e+002 
3750000000  -4.099133e+001  1.569687e+002 
3753125000  -4.043893e+001  1.532768e+002 
3756250000  -4.071510e+001  1.490618e+002 
3759375000  -4.027933e+001  1.443321e+002 
3762500000  -4.000109e+001  1.388292e+002 
3765625000  -4.074553e+001  1.326901e+002 
3768750000  -4.034134e+001  1.325335e+002 
3771875000  -3.840642e+001  1.244626e+002 
3775000000  -3.838072e+001  1.130444e+002 
3778125000  -3.896673e+001  1.074479e+002 
3781250000  -3.910748e+001  1.029727e+002 
3784375000  -3.878722e+001  9.799200e+001 
3787500000  -3.835093e+001  9.104908e+001 
3790625000  -3.924623e+001  8.296767e+001 
3793750000  -3.909837e+001  7.917742e+001 
3796875000  -3.825281e+001  7.660842e+001 
3800000000  -3.638493e+001  7.193382e+001 
3803125000  -3.820007e+001  5.799780e+001 
3806250000  -3.893502e+001  5.418065e+001 
3809375000  -3.866403e+001  4.878505e+001 
3812500000  -3.857275e+001  4.059768e+001 
3815625000  -3.950823e+001  3.169923e+001 
3818750000  -4.103411e+001  3.154034e+001 
3821875000  -4.018723e+001  4.062154e+001 
3825000000  -3.826659e+001  3.845154e+001 
3828125000  -3.708995e+001  1.877086e+001 
3831250000  -3.829147e+001  4.941903e+000 
3834375000  -4.029751e+001  4.357536e+000 
3837500000  -4.075729e+001  8.374878e+000 
3840625000  -3.908704e+001  4.281658e+000 
3843750000  -3.842089e+001  -9.117910e+000 
3846875000  -3.977341e+001  -1.655739e+001 
3850000000  -4.092529e+001  -9.359615e+000 
3853125000  -3.995448e+001  -9.609512e+000 
3856250000  -3.946761e+001  -1.824520e+001 
3859375000  -3.865523e+001  -2.368339e+001 
3862500000  -3.875456e+001  -3.577933e+001 
3865625000  -3.908192e+001  -4.023184e+001 
3868750000  -3.882643e+001  -4.061826e+001 
3871875000  -3.812685e+001  -4.908784e+001 
3875000000  -3.851589e+001  -5.807891e+001 
3878125000  -3.959293e+001  -6.003641e+001 
3881250000  -3.945403e+001  -5.994856e+001 
3884375000  -3.886699e+001  -6.815845e+001 
3887500000  -3.922069e+001  -7.421847e+001 
3890625000  -3.956105e+001  -7.836141e+001 
3893750000  -3.974780e+001  -8.163566e+001 
3896875000  -4.017178e+001  -8.222048e+001 
3900000000  -3.972172e+001  -8.558730e+001 
3903125000  -3.934102e+001  -9.126910e+001 
3906250000  -3.900486e+001  -9.556107e+001 
3909375000  -3.793414e+001  -1.027407e+002 
3912500000  -3.911109e+001  -1.122622e+002 
3915625000  -4.044349e+001  -1.130882e+002 
3918750000  -3.996333e+001  -1.157339e+002 
3921875000  -3.948127e+001  -1.198687e+002 
3925000000  -3.873145e+001  -1.234282e+002 
3928125000  -3.828265e+001  -1.339641e+002 
3931250000  -3.921507e+001  -1.414337e+002 
3934375000  -3.958516e+001  -1.420015e+002 
3937500000  -3.989521e+001  -1.434091e+002 
3940625000  -3.987576e+001  -1.468102e+002 
3943750000  -3.876526e+001  -1.501305e+002 
3946875000  -3.841727e+001  -1.579348e+002 
3950000000  -3.943380e+001  -1.663818e+002 
3953125000  -3.988748e+001  -1.646475e+002 
3956250000  -3.848297e+001  -1.652287e+002 
3959375000  -3.785487e+001  -1.721891e+002 
3962500000  -3.773899e+001  1.785222e+002 
3965625000  -3.784434e+001  1.688909e+002 
3968750000  -3.903431e+001  1.607629e+002 
3971875000  -3.863656e+001  1.576645e+002 
3975000000  -3.835607e+001  1.524382e+002 
3978125000  -3.858147e+001  1.477297e+002 
3981250000  -3.872965e+001  1.412656e+002 
3984375000  -3.905642e+001  1.349867e+002 
3987500000  -3.986246e+001  1.302167e+002 
3990625000  -4.004972e+001  1.306436e+002 
3993750000  -4.020127e+001  1.248112e+002 
3996875000  -4.005595e+001  1.199641e+002 
4000000000  -4.053016e+001  1.158919e+002 
4003125000  -4.117337e+001  1.177084e+002 
4006250000  -3.930784e+001  1.160623e+002 
4009375000  -3.867695e+001  1.008934e+002 
4012500000  -4.018291e+001  9.243276e+001 
4015625000  -4.148064e+001  9.318333e+001 
4018750000  -4.153465e+001  9.172318e+001 
4021875000  -4.102474e+001  8.903673e+001 
4025000000  -4.072142e+001  8.435394e+001 
4028125000  -4.081960e+001  7.668844e+001 
4031250000  -4.143371e+001  7.319848e+001 
4034375000  -4.172553e+001  7.352010e+001 
4037500000  -4.104472e+001  7.271218e+001 
4040625000  -4.078212e+001  6.935484e+001 
4043750000  -4.123091e+001  6.407441e+001 
4046875000  -4.106514e+001  6.297794e+001 
4050000000  -4.053923e+001  5.505396e+001 
4053125000  -4.161782e+001  5.245481e+001 
4056250000  -4.150146e+001  5.747227e+001 
4059375000  -3.971767e+001  5.531662e+001 
4062500000  -3.882247e+001  4.793046e+001 
4065625000  -3.892894e+001  4.225692e+001 
4068750000  -3.838896e+001  3.473835e+001 
4071875000  -3.792443e+001  2.426571e+001 
4075000000  -3.847604e+001  1.859716e+001 
4078125000  -3.882569e+001  1.460231e+001 
4081250000  -3.824059e+001  9.943680e+000 
4084375000  -3.836954e+001  1.375948e+000 
4087500000  -3.879031e+001  -6.596506e+000 
4090625000  -3.912424e+001  -1.008709e+001 
4093750000  -3.875872e+001  -1.185307e+001 
4096875000  -3.866766e+001  -2.128404e+001 
4100000000  -3.954835e+001  -2.838948e+001 
4103125000  -4.066947e+001  -2.725148e+001 
4106250000  -4.010652e+001  -2.169237e+001 
4109375000  -3.938272e+001  -2.714567e+001 
4112500000  -3.884277e+001  -3.663781e+001 
4115625000  -3.943866e+001  -4.186122e+001 
4118750000  -3.905574e+001  -4.730540e+001 
4121875000  -3.893188e+001  -5.453963e+001 
4125000000  -3.994770e+001  -6.139574e+001 
4128125000  -4.077579e+001  -6.031202e+001 
4131250000  -3.995768e+001  -5.569431e+001 
4134375000  -3.782472e+001  -6.408814e+001 
4137500000  -3.814732e+001  -8.439466e+001 
4140625000  -4.032465e+001  -9.027532e+001 
4143750000  -4.162831e+001  -8.410880e+001 
4146875000  -4.081739e+001  -7.836555e+001 
4150000000  -3.978714e+001  -8.852449e+001 
4153125000  -3.996090e+001  -9.728003e+001 
4156250000  -4.125327e+001  -1.000468e+002 
4159375000  -4.104387e+001  -9.610036e+001 
4162500000  -4.018350e+001  -9.236856e+001 
4165625000  -3.870285e+001  -1.000587e+002 
4168750000  -3.860104e+001  -1.102777e+002 
4171875000  -3.863105e+001  -1.188592e+002 
4175000000  -3.922282e+001  -1.269583e+002 
4178125000  -3.976548e+001  -1.269591e+002 
4181250000  -3.938982e+001  -1.302217e+002 
4184375000  -3.970044e+001  -1.377087e+002 
4187500000  -3.983460e+001  -1.407638e+002 
4190625000  -3.941226e+001  -1.482949e+002 
4193750000  -4.049176e+001  -1.535138e+002 
4196875000  -4.142779e+001  -1.566118e+002 
4200000000  -4.269193e+001  -1.513920e+002 
4203125000  -4.112840e+001  -1.374123e+002 
4206250000  -3.764080e+001  -1.451381e+002 
4209375000  -3.718398e+001  -1.683806e+002 
4212500000  -3.978265e+001  -1.775135e+002 
4215625000  -4.021054e+001  -1.686985e+002 
4218750000  -3.864801e+001  -1.695311e+002 
4221875000  -3.652823e+001  -1.781265e+002 
4225000000  -3.789432e+001  1.725456e+002 
4228125000  -3.798973e+001  1.717374e+002 
4231250000  -3.639050e+001  1.646682e+002 
4234375000  -3.654071e+001  1.535618e+002 
4237500000  -3.620222e+001  1.501129e+002 
4240625000  -3.660371e+001  1.372355e+002 
4243750000  -3.756302e+001  1.296477e+002 
4246875000  -3.859155e+001  1.281911e+002 
4250000000  -3.850160e+001  1.278573e+002 
4253125000  -3.816383e+001  1.233579e+002 
4256250000  -3.825515e+001  1.197527e+002 
4259375000  -3.769624e+001  1.161536e+002 
4262500000  -3.790047e+001  1.091893e+002 
4265625000  -3.821755e+001  1.082394e+002 
4268750000  -3.696258e+001  1.027285e+002 
4271875000  -3.670530e+001  9.247955e+001 
4275000000  -3.648802e+001  8.427219e+001 
4278125000  -3.784884e+001  7.145815e+001 
4281250000  -3.935145e+001  7.006435e+001 
4284375000  -3.889618e+001  6.846236e+001 
4287500000  -4.050171e+001  6.374874e+001 
4290625000  -4.102588e+001  7.364901e+001 
4293750000  -3.894336e+001  7.287444e+001 
4296875000  -3.777850e+001  6.037844e+001 
4300000000  -3.914132e+001  4.932094e+001 
4303125000  -3.998727e+001  5.510415e+001 
4306250000  -3.863415e+001  5.659708e+001 
4309375000  -3.789524e+001  5.121119e+001 
4312500000  -3.764575e+001  3.788121e+001 
4315625000  -3.798962e+001  3.198932e+001 
4318750000  -3.866486e+001  2.767219e+001 
4321875000  -3.857813e+001  2.670329e+001 
4325000000  -3.808994e+001  2.517524e+001 
4328125000  -3.760702e+001  1.686101e+001 
4331250000  -3.755378e+001  7.000132e+000 
4334375000  -3.834832e+001  -7.375973e-001 
4337500000  -3.927794e+001  -1.411293e+000 
4340625000  -3.970524e+001  3.732789e+000 
4343750000  -3.871635e+001  -2.666384e-001 
4346875000  -3.862999e+001  -7.763394e+000 
4350000000  -3.854382e+001  -1.716909e+001 
4353125000  -3.917462e+001  -2.415518e+001 
4356250000  -4.125108e+001  -2.346509e+001 
4359375000  -4.008905e+001  -7.339142e+000 
4362500000  -3.679757e+001  -1.459420e+001 
4365625000  -3.608736e+001  -3.095455e+001 
4368750000  -3.715791e+001  -4.288857e+001 
4371875000  -3.813618e+001  -4.137968e+001 
4375000000  -3.753418e+001  -4.530702e+001 
4378125000  -3.708105e+001  -5.304208e+001 
4381250000  -3.735035e+001  -6.076329e+001 
4384375000  -3.730325e+001  -6.779407e+001 
4387500000  -3.809054e+001  -7.199192e+001 
4390625000  -3.868565e+001  -7.386655e+001 
4393750000  -3.826557e+001  -7.425658e+001 
4396875000  -3.756913e+001  -7.919196e+001 
4400000000  -3.700736e+001  -8.737386e+001 
4403125000  -3.800747e+001  -9.736880e+001 
4406250000  -3.871085e+001  -1.015183e+002 
4409375000  -3.867799e+001  -1.057347e+002 
4412500000  -3.964874e+001  -1.070363e+002 
4415625000  -3.947728e+001  -1.027484e+002 
