!Agilent Technologies,E8363B,MY43030201,A.06.04.32
!Agilent E8363B: A.06.04.32
!Date: Tuesday, November 11, 2014 21:37:32
!Correction: S21(Response(S21)) 
!S1P File: Measurement: S21:
# Hz S  dB   R 50
3000000000  -4.059549e+001  6.995795e+001 
3003125000  -4.217519e+001  6.195820e+001 
3006250000  -4.212444e+001  6.312560e+001 
3009375000  -4.280493e+001  6.790511e+001 
3012500000  -4.124628e+001  6.115837e+001 
3015625000  -4.161091e+001  5.505685e+001 
3018750000  -4.184016e+001  5.633892e+001 
3021875000  -4.022073e+001  5.637692e+001 
3025000000  -3.885102e+001  5.260918e+001 
3028125000  -3.790536e+001  4.285618e+001 
3031250000  -3.695764e+001  3.094354e+001 
3034375000  -3.677618e+001  1.648358e+001 
3037500000  -3.766340e+001  5.684449e+000 
3040625000  -3.880204e+001  5.796635e-001 
3043750000  -3.917179e+001  -6.036469e+000 
3046875000  -3.990380e+001  -1.082495e+001 
3050000000  -4.070729e+001  -1.594900e+001 
3053125000  -4.064240e+001  -1.117447e+001 
3056250000  -4.058780e+001  -8.557240e+000 
3059375000  -3.985138e+001  -9.365116e+000 
3062500000  -3.835079e+001  -1.612403e+001 
3065625000  -3.781504e+001  -2.497953e+001 
3068750000  -3.754327e+001  -3.270201e+001 
3071875000  -3.765538e+001  -3.494213e+001 
3075000000  -3.710174e+001  -4.221344e+001 
3078125000  -3.711489e+001  -4.877825e+001 
3081250000  -3.723148e+001  -5.457858e+001 
3084375000  -3.640319e+001  -5.908995e+001 
3087500000  -3.637029e+001  -6.628854e+001 
3090625000  -3.597097e+001  -7.805796e+001 
3093750000  -3.705106e+001  -8.566524e+001 
3096875000  -3.739845e+001  -9.179868e+001 
3100000000  -3.733835e+001  -9.372209e+001 
3103125000  -3.753643e+001  -9.833234e+001 
3106250000  -3.709793e+001  -1.032965e+002 
3109375000  -3.730449e+001  -1.072483e+002 
3112500000  -3.715738e+001  -1.133259e+002 
3115625000  -3.703368e+001  -1.165118e+002 
3118750000  -3.722519e+001  -1.213418e+002 
3121875000  -3.654404e+001  -1.314640e+002 
3125000000  -3.847795e+001  -1.334720e+002 
3128125000  -3.855964e+001  -1.259606e+002 
3131250000  -3.606236e+001  -1.330455e+002 
3134375000  -3.536485e+001  -1.502192e+002 
3137500000  -3.610428e+001  -1.622710e+002 
3140625000  -3.736081e+001  -1.648669e+002 
3143750000  -3.821859e+001  -1.673371e+002 
3146875000  -3.764610e+001  -1.655321e+002 
3150000000  -3.681846e+001  -1.696922e+002 
3153125000  -3.720132e+001  -1.777724e+002 
3156250000  -3.785210e+001  -1.728940e+002 
3159375000  -3.564282e+001  -1.751730e+002 
3162500000  -3.416209e+001  1.694955e+002 
3165625000  -3.549683e+001  1.566660e+002 
3168750000  -3.535197e+001  1.540493e+002 
3171875000  -3.478743e+001  1.474189e+002 
3175000000  -3.548690e+001  1.390915e+002 
3178125000  -3.501454e+001  1.374069e+002 
3181250000  -3.430811e+001  1.284040e+002 
3184375000  -3.419658e+001  1.179365e+002 
3187500000  -3.546296e+001  1.028531e+002 
3190625000  -3.729011e+001  9.702111e+001 
3193750000  -3.765864e+001  1.024363e+002 
3196875000  -3.733892e+001  1.035019e+002 
3200000000  -3.625262e+001  9.769558e+001 
3203125000  -3.590048e+001  8.946820e+001 
3206250000  -3.615176e+001  8.156669e+001 
3209375000  -3.575786e+001  7.388950e+001 
3212500000  -3.634128e+001  6.711523e+001 
3215625000  -3.597367e+001  6.490896e+001 
3218750000  -3.680672e+001  5.327969e+001 
3221875000  -3.725819e+001  4.658765e+001 
3225000000  -3.698123e+001  4.262417e+001 
3228125000  -3.774119e+001  3.503502e+001 
3231250000  -3.820457e+001  3.378214e+001 
3234375000  -3.780972e+001  3.037407e+001 
3237500000  -3.800557e+001  2.587959e+001 
3240625000  -3.749458e+001  2.127336e+001 
3243750000  -3.775320e+001  1.088539e+001 
3246875000  -3.820789e+001  3.778767e+000 
3250000000  -3.869624e+001  2.815962e-002 
3253125000  -3.892289e+001  -3.089700e+000 
3256250000  -3.860572e+001  -1.161584e+001 
3259375000  -3.912959e+001  -2.447915e+001 
3262500000  -4.079765e+001  -2.534188e+001 
3265625000  -4.117318e+001  -2.384198e+001 
3268750000  -4.116606e+001  -2.255196e+001 
3271875000  -4.051703e+001  -2.570214e+001 
3275000000  -4.015859e+001  -3.496108e+001 
3278125000  -4.069440e+001  -3.966996e+001 
3281250000  -4.095915e+001  -4.095900e+001 
3284375000  -4.041482e+001  -4.698061e+001 
3287500000  -4.083133e+001  -5.152678e+001 
3290625000  -4.097734e+001  -5.981940e+001 
3293750000  -4.120964e+001  -6.404985e+001 
3296875000  -4.237530e+001  -6.516627e+001 
3300000000  -4.174836e+001  -6.506496e+001 
3303125000  -4.104433e+001  -7.189905e+001 
3306250000  -4.071180e+001  -7.893054e+001 
3309375000  -4.037820e+001  -8.677947e+001 
3312500000  -4.076699e+001  -9.883006e+001 
3315625000  -4.227591e+001  -1.058602e+002 
3318750000  -4.351540e+001  -1.099335e+002 
3321875000  -4.502603e+001  -1.061968e+002 
3325000000  -4.509293e+001  -9.939501e+001 
3328125000  -4.354325e+001  -1.005576e+002 
3331250000  -4.225425e+001  -9.763596e+001 
3334375000  -3.963822e+001  -1.122419e+002 
3337500000  -4.044759e+001  -1.324621e+002 
3340625000  -4.235142e+001  -1.426548e+002 
3343750000  -4.430221e+001  -1.418472e+002 
3346875000  -4.346532e+001  -1.416020e+002 
3350000000  -4.287606e+001  -1.455694e+002 
3353125000  -4.292586e+001  -1.534753e+002 
3356250000  -4.225617e+001  -1.625343e+002 
3359375000  -4.332961e+001  -1.729147e+002 
3362500000  -4.413555e+001  -1.759741e+002 
3365625000  -4.491038e+001  1.778506e+002 
3368750000  -4.562980e+001  1.753221e+002 
3371875000  -4.587742e+001  1.713771e+002 
3375000000  -4.769635e+001  1.658413e+002 
3378125000  -4.802787e+001  1.673880e+002 
3381250000  -4.980010e+001  -1.778246e+002 
3384375000  -4.684530e+001  -1.681402e+002 
3387500000  -4.367396e+001  1.679061e+002 
3390625000  -4.573334e+001  1.529301e+002 
3393750000  -4.740012e+001  1.474144e+002 
3396875000  -4.579012e+001  1.472896e+002 
3400000000  -4.630516e+001  1.374453e+002 
3403125000  -4.682383e+001  1.337848e+002 
3406250000  -4.730928e+001  1.270474e+002 
3409375000  -4.773404e+001  1.179964e+002 
3412500000  -4.899498e+001  1.154203e+002 
3415625000  -4.990775e+001  1.151001e+002 
3418750000  -5.040779e+001  1.147595e+002 
3421875000  -5.128801e+001  1.168256e+002 
3425000000  -4.996996e+001  1.206254e+002 
3428125000  -4.970701e+001  1.117022e+002 
3431250000  -5.011470e+001  1.035357e+002 
3434375000  -5.119800e+001  1.020004e+002 
3437500000  -5.218153e+001  1.001614e+002 
3440625000  -5.220142e+001  1.003531e+002 
3443750000  -5.013909e+001  1.016423e+002 
3446875000  -5.025425e+001  1.013192e+002 
3450000000  -5.024448e+001  9.052137e+001 
3453125000  -5.099393e+001  8.156782e+001 
3456250000  -5.147383e+001  7.376789e+001 
3459375000  -5.227055e+001  8.370097e+001 
3462500000  -5.240176e+001  8.607786e+001 
3465625000  -5.057117e+001  7.458910e+001 
3468750000  -5.148790e+001  7.571918e+001 
3471875000  -5.173926e+001  7.000687e+001 
3475000000  -5.045036e+001  7.229340e+001 
3478125000  -5.109445e+001  6.093071e+001 
3481250000  -5.257064e+001  5.973512e+001 
3484375000  -5.279043e+001  6.109743e+001 
3487500000  -5.112053e+001  5.887583e+001 
3490625000  -5.054937e+001  5.531547e+001 
3493750000  -5.105787e+001  4.110296e+001 
3496875000  -5.163246e+001  4.796160e+001 
3500000000  -5.214894e+001  4.310839e+001 
3503125000  -5.102869e+001  4.693721e+001 
3506250000  -4.999851e+001  3.663249e+001 
3509375000  -5.001875e+001  2.468604e+001 
3512500000  -5.087467e+001  1.298143e+001 
3515625000  -5.096693e+001  5.282107e+000 
3518750000  -5.196225e+001  5.373209e+000 
3521875000  -5.238657e+001  3.610459e+000 
3525000000  -5.334713e+001  -5.208870e-001 
3528125000  -5.227587e+001  -2.418755e+000 
3531250000  -5.163969e+001  -6.680048e+000 
3534375000  -5.345365e+001  -1.636342e+001 
3537500000  -5.389965e+001  -2.645095e+001 
3540625000  -5.408221e+001  -2.631864e+001 
3543750000  -5.623341e+001  -2.277313e+001 
3546875000  -5.556314e+001  -1.231938e+001 
3550000000  -5.447410e+001  -1.993050e+001 
3553125000  -5.445395e+001  -3.624670e+001 
3556250000  -5.574293e+001  -3.779983e+001 
3559375000  -5.537168e+001  -3.278074e+001 
3562500000  -5.598989e+001  -4.424830e+001 
3565625000  -5.693812e+001  -4.682431e+001 
3568750000  -5.919582e+001  -3.406508e+001 
3571875000  -5.722766e+001  -4.650159e+001 
3575000000  -5.765062e+001  -3.988595e+001 
3578125000  -6.063369e+001  -5.481387e+001 
3581250000  -5.776163e+001  -4.740155e+001 
3584375000  -5.600184e+001  -4.405257e+001 
3587500000  -5.699236e+001  -5.677516e+001 
3590625000  -5.849287e+001  -5.665507e+001 
3593750000  -5.936581e+001  -5.364263e+001 
3596875000  -5.827240e+001  -4.675672e+001 
3600000000  -5.812705e+001  -4.623105e+001 
3603125000  -5.855354e+001  -5.469325e+001 
3606250000  -5.747125e+001  -6.756283e+001 
3609375000  -5.970736e+001  -5.696292e+001 
3612500000  -5.838397e+001  -5.269032e+001 
3615625000  -5.857220e+001  -7.029192e+001 
3618750000  -5.859652e+001  -5.043946e+001 
3621875000  -5.858923e+001  -4.639296e+001 
3625000000  -5.815836e+001  -5.253385e+001 
3628125000  -5.758381e+001  -4.211810e+001 
3631250000  -5.724680e+001  -5.306149e+001 
3634375000  -5.686032e+001  -4.437896e+001 
3637500000  -5.596815e+001  -4.300794e+001 
3640625000  -5.433975e+001  -4.269264e+001 
3643750000  -5.332834e+001  -5.085075e+001 
3646875000  -5.357766e+001  -5.906659e+001 
3650000000  -5.323829e+001  -6.385284e+001 
3653125000  -5.154480e+001  -6.256530e+001 
3656250000  -5.206630e+001  -6.369601e+001 
3659375000  -5.166525e+001  -6.799397e+001 
3662500000  -5.039721e+001  -7.286145e+001 
3665625000  -5.056691e+001  -7.655391e+001 
3668750000  -4.813305e+001  -7.333437e+001 
3671875000  -4.763717e+001  -8.804675e+001 
3675000000  -4.756229e+001  -9.761234e+001 
3678125000  -4.712133e+001  -9.806550e+001 
3681250000  -4.661967e+001  -1.060133e+002 
3684375000  -4.674460e+001  -1.101861e+002 
3687500000  -4.659074e+001  -1.149662e+002 
3690625000  -4.661775e+001  -1.197337e+002 
3693750000  -4.693256e+001  -1.205996e+002 
3696875000  -4.641710e+001  -1.221158e+002 
3700000000  -4.534510e+001  -1.281266e+002 
3703125000  -4.534449e+001  -1.359748e+002 
3706250000  -4.590413e+001  -1.352102e+002 
3709375000  -4.458915e+001  -1.351901e+002 
3712500000  -4.329232e+001  -1.419037e+002 
3715625000  -4.195717e+001  -1.510957e+002 
3718750000  -4.159694e+001  -1.581196e+002 
3721875000  -4.115067e+001  -1.648995e+002 
3725000000  -4.165192e+001  -1.738916e+002 
3728125000  -4.137125e+001  -1.767086e+002 
3731250000  -4.072631e+001  1.770392e+002 
3734375000  -4.007166e+001  1.701504e+002 
3737500000  -4.089884e+001  1.613559e+002 
3740625000  -4.073924e+001  1.540457e+002 
3743750000  -4.046931e+001  1.484898e+002 
3746875000  -4.081559e+001  1.425432e+002 
3750000000  -4.063247e+001  1.385666e+002 
3753125000  -4.079157e+001  1.354952e+002 
3756250000  -4.098682e+001  1.309139e+002 
3759375000  -4.032279e+001  1.246703e+002 
3762500000  -3.991545e+001  1.196388e+002 
3765625000  -4.070098e+001  1.150628e+002 
3768750000  -3.997587e+001  1.156552e+002 
3771875000  -3.844112e+001  1.074594e+002 
3775000000  -3.863955e+001  9.614273e+001 
3778125000  -3.896530e+001  8.936517e+001 
3781250000  -3.913008e+001  8.565514e+001 
3784375000  -3.880403e+001  7.953749e+001 
3787500000  -3.853720e+001  7.357550e+001 
3790625000  -3.896310e+001  6.420421e+001 
3793750000  -3.931002e+001  6.178212e+001 
3796875000  -3.828583e+001  5.748150e+001 
3800000000  -3.648190e+001  5.173846e+001 
3803125000  -3.813209e+001  3.807198e+001 
3806250000  -3.897084e+001  3.515698e+001 
3809375000  -3.852009e+001  3.020787e+001 
3812500000  -3.832837e+001  2.146940e+001 
3815625000  -3.967591e+001  1.271659e+001 
3818750000  -4.054869e+001  1.255484e+001 
3821875000  -4.025573e+001  2.255873e+001 
3825000000  -3.812191e+001  1.830358e+001 
3828125000  -3.680455e+001  1.980232e-001 
3831250000  -3.816156e+001  -1.405521e+001 
3834375000  -4.039708e+001  -1.441886e+001 
3837500000  -4.065912e+001  -1.033015e+001 
3840625000  -3.914785e+001  -1.442195e+001 
3843750000  -3.838962e+001  -2.898401e+001 
3846875000  -3.994296e+001  -3.457829e+001 
3850000000  -4.080558e+001  -2.684885e+001 
3853125000  -3.993958e+001  -2.750154e+001 
3856250000  -3.924464e+001  -3.575444e+001 
3859375000  -3.851240e+001  -4.440257e+001 
3862500000  -3.834027e+001  -5.474634e+001 
3865625000  -3.900638e+001  -6.033723e+001 
3868750000  -3.877008e+001  -6.049286e+001 
3871875000  -3.797364e+001  -6.714838e+001 
3875000000  -3.854246e+001  -7.731938e+001 
3878125000  -3.947202e+001  -7.965006e+001 
3881250000  -3.936477e+001  -7.976814e+001 
3884375000  -3.869169e+001  -8.777884e+001 
3887500000  -3.923685e+001  -9.238322e+001 
3890625000  -3.970307e+001  -9.856526e+001 
3893750000  -3.977788e+001  -9.996608e+001 
3896875000  -4.009233e+001  -1.040713e+002 
3900000000  -3.985386e+001  -1.075459e+002 
3903125000  -3.935694e+001  -1.102215e+002 
3906250000  -3.887253e+001  -1.146331e+002 
3909375000  -3.808283e+001  -1.244750e+002 
3912500000  -3.887192e+001  -1.327241e+002 
3915625000  -4.045763e+001  -1.331921e+002 
3918750000  -3.980931e+001  -1.338166e+002 
3921875000  -3.924426e+001  -1.376129e+002 
3925000000  -3.837230e+001  -1.426445e+002 
3928125000  -3.820744e+001  -1.528295e+002 
3931250000  -3.905352e+001  -1.604007e+002 
3934375000  -3.974099e+001  -1.603780e+002 
3937500000  -3.992090e+001  -1.626312e+002 
3940625000  -3.993350e+001  -1.644451e+002 
3943750000  -3.902410e+001  -1.691872e+002 
3946875000  -3.850121e+001  -1.778205e+002 
3950000000  -3.954597e+001  1.732820e+002 
3953125000  -3.983973e+001  1.762892e+002 
3956250000  -3.860670e+001  1.751563e+002 
3959375000  -3.784465e+001  1.679169e+002 
3962500000  -3.760217e+001  1.575622e+002 
3965625000  -3.777768e+001  1.500204e+002 
3968750000  -3.879642e+001  1.425120e+002 
3971875000  -3.854227e+001  1.381694e+002 
3975000000  -3.847005e+001  1.319301e+002 
3978125000  -3.832967e+001  1.294571e+002 
3981250000  -3.868311e+001  1.231585e+002 
3984375000  -3.890290e+001  1.146324e+002 
3987500000  -3.952296e+001  1.106623e+002 
3990625000  -3.974195e+001  1.104748e+002 
3993750000  -3.983752e+001  1.038934e+002 
3996875000  -3.997678e+001  1.004290e+002 
4000000000  -4.051268e+001  9.546217e+001 
4003125000  -4.115650e+001  9.739622e+001 
4006250000  -3.922713e+001  9.491830e+001 
4009375000  -3.859272e+001  8.050478e+001 
4012500000  -4.038024e+001  7.317647e+001 
4015625000  -4.141342e+001  7.186359e+001 
4018750000  -4.126744e+001  7.467699e+001 
4021875000  -4.059346e+001  6.798802e+001 
4025000000  -4.039285e+001  6.284657e+001 
4028125000  -4.041956e+001  5.509374e+001 
4031250000  -4.114397e+001  5.273926e+001 
4034375000  -4.134894e+001  5.061938e+001 
4037500000  -4.090450e+001  5.178849e+001 
4040625000  -4.075189e+001  4.723654e+001 
4043750000  -4.148520e+001  4.481372e+001 
4046875000  -4.084129e+001  4.021883e+001 
4050000000  -4.056645e+001  3.720642e+001 
4053125000  -4.141862e+001  3.403144e+001 
4056250000  -4.152649e+001  3.742767e+001 
4059375000  -3.914273e+001  3.512642e+001 
4062500000  -3.861143e+001  2.642155e+001 
4065625000  -3.877511e+001  2.103691e+001 
4068750000  -3.813723e+001  1.565179e+001 
4071875000  -3.778644e+001  3.328341e+000 
4075000000  -3.828131e+001  -5.222254e+000 
4078125000  -3.861116e+001  -5.415086e+000 
4081250000  -3.806005e+001  -1.175237e+001 
4084375000  -3.806021e+001  -1.984078e+001 
4087500000  -3.864923e+001  -2.762611e+001 
4090625000  -3.922510e+001  -2.894832e+001 
4093750000  -3.887409e+001  -3.277654e+001 
4096875000  -3.877871e+001  -4.146883e+001 
4100000000  -3.966178e+001  -4.870028e+001 
4103125000  -4.076200e+001  -4.703791e+001 
4106250000  -4.009691e+001  -4.430295e+001 
4109375000  -3.909279e+001  -4.765636e+001 
4112500000  -3.849101e+001  -5.730172e+001 
4115625000  -3.923760e+001  -6.148980e+001 
4118750000  -3.892422e+001  -7.057125e+001 
4121875000  -3.869936e+001  -7.537592e+001 
4125000000  -3.969220e+001  -8.310412e+001 
4128125000  -4.089254e+001  -7.946333e+001 
4131250000  -3.970732e+001  -7.358699e+001 
4134375000  -3.766612e+001  -8.503234e+001 
4137500000  -3.796145e+001  -1.060329e+002 
4140625000  -4.052060e+001  -1.114583e+002 
4143750000  -4.158044e+001  -1.037507e+002 
4146875000  -4.035995e+001  -1.007410e+002 
4150000000  -3.964076e+001  -1.105490e+002 
4153125000  -3.982756e+001  -1.182274e+002 
4156250000  -4.126051e+001  -1.218766e+002 
4159375000  -4.105087e+001  -1.160345e+002 
4162500000  -4.001430e+001  -1.150247e+002 
4165625000  -3.837925e+001  -1.216188e+002 
4168750000  -3.870927e+001  -1.309029e+002 
4171875000  -3.822336e+001  -1.406785e+002 
4175000000  -3.914292e+001  -1.478890e+002 
4178125000  -3.951435e+001  -1.496403e+002 
4181250000  -3.931398e+001  -1.530727e+002 
4184375000  -3.957155e+001  -1.558978e+002 
4187500000  -3.911150e+001  -1.617564e+002 
4190625000  -3.947558e+001  -1.690095e+002 
4193750000  -4.078907e+001  -1.738878e+002 
4196875000  -4.140900e+001  -1.760144e+002 
4200000000  -4.245335e+001  -1.681781e+002 
4203125000  -4.068946e+001  -1.565996e+002 
4206250000  -3.754301e+001  -1.665502e+002 
4209375000  -3.708702e+001  1.703456e+002 
4212500000  -3.979959e+001  1.632180e+002 
4215625000  -4.036988e+001  1.711787e+002 
4218750000  -3.831495e+001  1.728039e+002 
4221875000  -3.668105e+001  1.617945e+002 
4225000000  -3.755944e+001  1.490378e+002 
4228125000  -3.775978e+001  1.512441e+002 
4231250000  -3.616514e+001  1.418204e+002 
4234375000  -3.625915e+001  1.331755e+002 
4237500000  -3.614599e+001  1.265021e+002 
4240625000  -3.653534e+001  1.166511e+002 
4243750000  -3.754724e+001  1.076406e+002 
4246875000  -3.844209e+001  1.071782e+002 
4250000000  -3.805081e+001  1.070766e+002 
4253125000  -3.823135e+001  1.042178e+002 
4256250000  -3.796811e+001  9.957700e+001 
4259375000  -3.771040e+001  9.271968e+001 
4262500000  -3.764826e+001  8.903370e+001 
4265625000  -3.785414e+001  8.761702e+001 
4268750000  -3.682724e+001  7.980550e+001 
4271875000  -3.658022e+001  7.048775e+001 
4275000000  -3.655377e+001  6.378626e+001 
4278125000  -3.754753e+001  4.928886e+001 
4281250000  -3.905225e+001  4.926957e+001 
4284375000  -3.884555e+001  4.493113e+001 
4287500000  -4.023863e+001  4.364344e+001 
4290625000  -4.055244e+001  5.163348e+001 
4293750000  -3.866896e+001  5.320392e+001 
4296875000  -3.752835e+001  4.059439e+001 
4300000000  -3.889216e+001  2.924182e+001 
4303125000  -3.960315e+001  3.276889e+001 
4306250000  -3.835399e+001  3.422954e+001 
4309375000  -3.748233e+001  2.873661e+001 
4312500000  -3.758017e+001  1.627852e+001 
4315625000  -3.766280e+001  9.079544e+000 
4318750000  -3.845671e+001  5.521616e+000 
4321875000  -3.870937e+001  4.522036e+000 
4325000000  -3.804860e+001  4.119103e+000 
4328125000  -3.726384e+001  -6.089458e+000 
4331250000  -3.773318e+001  -1.672361e+001 
4334375000  -3.838488e+001  -2.272834e+001 
4337500000  -3.952546e+001  -2.308184e+001 
4340625000  -3.958062e+001  -1.937264e+001 
4343750000  -3.868645e+001  -2.253464e+001 
4346875000  -3.828949e+001  -3.101282e+001 
4350000000  -3.859129e+001  -3.809764e+001 
4353125000  -3.894552e+001  -4.723894e+001 
4356250000  -4.115467e+001  -4.129412e+001 
4359375000  -4.001719e+001  -2.668696e+001 
4362500000  -3.617456e+001  -3.689712e+001 
4365625000  -3.597062e+001  -5.436998e+001 
4368750000  -3.718745e+001  -6.357667e+001 
4371875000  -3.784081e+001  -6.429641e+001 
4375000000  -3.711257e+001  -6.619161e+001 
4378125000  -3.682793e+001  -7.505128e+001 
4381250000  -3.715443e+001  -8.350439e+001 
4384375000  -3.726338e+001  -9.003845e+001 
4387500000  -3.808235e+001  -9.540034e+001 
4390625000  -3.847448e+001  -9.615760e+001 
4393750000  -3.786213e+001  -9.598222e+001 
4396875000  -3.724149e+001  -1.024843e+002 
4400000000  -3.681077e+001  -1.108402e+002 
4403125000  -3.773395e+001  -1.203001e+002 
4406250000  -3.822114e+001  -1.250632e+002 
4409375000  -3.855769e+001  -1.280478e+002 
4412500000  -3.993597e+001  -1.296471e+002 
4415625000  -3.919204e+001  -1.253949e+002 
