!Agilent Technologies,E8363B,MY43030201,A.06.04.32
!Agilent E8363B: A.06.04.32
!Date: Tuesday, November 11, 2014 21:27:22
!Correction: S21(Response(S21)) 
!S1P File: Measurement: S21:
# Hz S  dB   R 50
3000000000  -4.053460e+001  9.298113e+001 
3003125000  -4.200709e+001  8.370357e+001 
3006250000  -4.218319e+001  8.421021e+001 
3009375000  -4.288436e+001  8.934039e+001 
3012500000  -4.161781e+001  8.472641e+001 
3015625000  -4.116586e+001  7.675105e+001 
3018750000  -4.184017e+001  7.701588e+001 
3021875000  -4.024937e+001  7.730009e+001 
3025000000  -3.910757e+001  7.488488e+001 
3028125000  -3.810436e+001  6.495026e+001 
3031250000  -3.708171e+001  5.330363e+001 
3034375000  -3.686723e+001  3.966744e+001 
3037500000  -3.744474e+001  2.791342e+001 
3040625000  -3.881622e+001  2.243840e+001 
3043750000  -3.920464e+001  1.685038e+001 
3046875000  -3.971322e+001  1.167523e+001 
3050000000  -4.103259e+001  4.427946e+000 
3053125000  -4.064468e+001  1.083351e+001 
3056250000  -4.062544e+001  1.408151e+001 
3059375000  -3.987766e+001  1.073406e+001 
3062500000  -3.827945e+001  6.362610e+000 
3065625000  -3.783948e+001  -2.157971e+000 
3068750000  -3.752293e+001  -1.132239e+001 
3071875000  -3.774467e+001  -1.261044e+001 
3075000000  -3.720519e+001  -2.009047e+001 
3078125000  -3.718968e+001  -2.595707e+001 
3081250000  -3.732645e+001  -3.234878e+001 
3084375000  -3.649550e+001  -3.570502e+001 
3087500000  -3.651218e+001  -4.197648e+001 
3090625000  -3.596745e+001  -5.520295e+001 
3093750000  -3.675909e+001  -6.290521e+001 
3096875000  -3.752512e+001  -6.898594e+001 
3100000000  -3.728095e+001  -7.110825e+001 
3103125000  -3.768099e+001  -7.456897e+001 
3106250000  -3.717409e+001  -8.005824e+001 
3109375000  -3.723981e+001  -8.472355e+001 
3112500000  -3.739759e+001  -9.004782e+001 
3115625000  -3.710241e+001  -9.417245e+001 
3118750000  -3.720348e+001  -9.710287e+001 
3121875000  -3.656278e+001  -1.081043e+002 
3125000000  -3.833734e+001  -1.125505e+002 
3128125000  -3.867307e+001  -1.052634e+002 
3131250000  -3.620613e+001  -1.097374e+002 
3134375000  -3.534016e+001  -1.267728e+002 
3137500000  -3.602830e+001  -1.403543e+002 
3140625000  -3.742432e+001  -1.436655e+002 
3143750000  -3.826014e+001  -1.439913e+002 
3146875000  -3.789040e+001  -1.435950e+002 
3150000000  -3.707897e+001  -1.466093e+002 
3153125000  -3.722164e+001  -1.555084e+002 
3156250000  -3.805080e+001  -1.511004e+002 
3159375000  -3.587047e+001  -1.526098e+002 
3162500000  -3.429452e+001  -1.673736e+002 
3165625000  -3.549043e+001  1.791943e+002 
3168750000  -3.558689e+001  1.777810e+002 
3171875000  -3.503561e+001  1.709343e+002 
3175000000  -3.562991e+001  1.620303e+002 
3178125000  -3.514683e+001  1.609345e+002 
3181250000  -3.436335e+001  1.527762e+002 
3184375000  -3.405882e+001  1.405680e+002 
3187500000  -3.539853e+001  1.254403e+002 
3190625000  -3.735375e+001  1.188281e+002 
3193750000  -3.765900e+001  1.247698e+002 
3196875000  -3.757713e+001  1.261184e+002 
3200000000  -3.638000e+001  1.208469e+002 
3203125000  -3.584200e+001  1.126600e+002 
3206250000  -3.623234e+001  1.056235e+002 
3209375000  -3.582452e+001  9.856213e+001 
3212500000  -3.631711e+001  9.145348e+001 
3215625000  -3.610246e+001  8.780320e+001 
3218750000  -3.685283e+001  7.757594e+001 
3221875000  -3.748320e+001  7.093697e+001 
3225000000  -3.713566e+001  6.628447e+001 
3228125000  -3.756509e+001  5.904233e+001 
3231250000  -3.819463e+001  5.731441e+001 
3234375000  -3.798165e+001  5.410786e+001 
3237500000  -3.802450e+001  4.953040e+001 
3240625000  -3.762223e+001  4.482962e+001 
3243750000  -3.786155e+001  3.434167e+001 
3246875000  -3.814759e+001  2.713755e+001 
3250000000  -3.868214e+001  2.357990e+001 
3253125000  -3.905103e+001  2.038548e+001 
3256250000  -3.848806e+001  1.086371e+001 
3259375000  -3.919972e+001  2.520363e+000 
3262500000  -4.063043e+001  -1.752964e+000 
3265625000  -4.104995e+001  1.719087e+000 
3268750000  -4.118549e+001  1.738561e+000 
3271875000  -4.074508e+001  -2.541958e+000 
3275000000  -4.024512e+001  -1.023405e+001 
3278125000  -4.087745e+001  -1.501269e+001 
3281250000  -4.115073e+001  -1.597241e+001 
3284375000  -4.055220e+001  -2.234633e+001 
3287500000  -4.105640e+001  -2.734558e+001 
3290625000  -4.128574e+001  -3.539285e+001 
3293750000  -4.121115e+001  -4.037424e+001 
3296875000  -4.239534e+001  -4.212472e+001 
3300000000  -4.199358e+001  -4.042158e+001 
3303125000  -4.116182e+001  -4.723925e+001 
3306250000  -4.099680e+001  -5.438307e+001 
3309375000  -4.054840e+001  -6.278175e+001 
3312500000  -4.086695e+001  -7.412148e+001 
3315625000  -4.192480e+001  -8.133570e+001 
3318750000  -4.342638e+001  -8.517188e+001 
3321875000  -4.477321e+001  -8.371823e+001 
3325000000  -4.477879e+001  -7.725903e+001 
3328125000  -4.405243e+001  -7.633443e+001 
3331250000  -4.263227e+001  -7.352523e+001 
3334375000  -3.988187e+001  -8.706594e+001 
3337500000  -4.028774e+001  -1.076228e+002 
3340625000  -4.197734e+001  -1.185845e+002 
3343750000  -4.406296e+001  -1.164223e+002 
3346875000  -4.363257e+001  -1.175934e+002 
3350000000  -4.311086e+001  -1.195642e+002 
3353125000  -4.291731e+001  -1.247917e+002 
3356250000  -4.265092e+001  -1.357503e+002 
3359375000  -4.329217e+001  -1.463082e+002 
3362500000  -4.413102e+001  -1.535147e+002 
3365625000  -4.457261e+001  -1.566374e+002 
3368750000  -4.532248e+001  -1.614953e+002 
3371875000  -4.587895e+001  -1.639391e+002 
3375000000  -4.678605e+001  -1.690750e+002 
3378125000  -4.750319e+001  -1.713201e+002 
3381250000  -4.932992e+001  -1.649233e+002 
3384375000  -4.686499e+001  -1.454181e+002 
3387500000  -4.340863e+001  -1.640704e+002 
3390625000  -4.570439e+001  1.735449e+002 
3393750000  -4.754390e+001  1.766249e+002 
3396875000  -4.621098e+001  1.764020e+002 
3400000000  -4.593659e+001  1.625818e+002 
3403125000  -4.668349e+001  1.603846e+002 
3406250000  -4.709990e+001  1.555733e+002 
3409375000  -4.796307e+001  1.461085e+002 
3412500000  -4.911006e+001  1.416219e+002 
3415625000  -4.954053e+001  1.388251e+002 
3418750000  -4.982986e+001  1.431066e+002 
3421875000  -5.136884e+001  1.467026e+002 
3425000000  -5.056262e+001  1.424092e+002 
3428125000  -4.979617e+001  1.349721e+002 
3431250000  -5.061125e+001  1.304550e+002 
3434375000  -5.083882e+001  1.241901e+002 
3437500000  -5.103225e+001  1.284187e+002 
3440625000  -5.217652e+001  1.247520e+002 
3443750000  -5.093505e+001  1.297947e+002 
3446875000  -5.070461e+001  1.204194e+002 
3450000000  -5.018515e+001  1.154866e+002 
3453125000  -5.122772e+001  1.060262e+002 
3456250000  -5.246448e+001  1.088354e+002 
3459375000  -5.316346e+001  1.073563e+002 
3462500000  -5.222906e+001  1.077089e+002 
3465625000  -5.105544e+001  9.785188e+001 
3468750000  -5.200587e+001  1.012872e+002 
3471875000  -5.209620e+001  9.997901e+001 
3475000000  -5.080866e+001  9.249511e+001 
3478125000  -5.105299e+001  8.619810e+001 
3481250000  -5.235962e+001  8.780976e+001 
3484375000  -5.271492e+001  9.231493e+001 
3487500000  -5.135786e+001  8.301810e+001 
3490625000  -5.064671e+001  7.593579e+001 
3493750000  -5.064033e+001  7.454005e+001 
3496875000  -5.242025e+001  7.124582e+001 
3500000000  -5.208582e+001  7.122702e+001 
3503125000  -5.126432e+001  7.178842e+001 
3506250000  -4.968157e+001  6.531106e+001 
3509375000  -4.951364e+001  5.401411e+001 
3512500000  -4.966645e+001  4.218116e+001 
3515625000  -5.118980e+001  3.515271e+001 
3518750000  -5.115636e+001  3.522396e+001 
3521875000  -5.223254e+001  2.592789e+001 
3525000000  -5.221243e+001  2.204403e+001 
3528125000  -5.266090e+001  2.949419e+001 
3531250000  -5.112703e+001  2.235880e+001 
3534375000  -5.232882e+001  9.174752e+000 
3537500000  -5.207481e+001  -6.138712e+000 
3540625000  -5.415652e+001  -3.657320e+000 
3543750000  -5.402888e+001  4.162577e+000 
3546875000  -5.585468e+001  6.731508e+000 
3550000000  -5.359273e+001  -7.441580e-002 
3553125000  -5.322454e+001  -1.307762e+001 
3556250000  -5.518387e+001  -9.190884e+000 
3559375000  -5.462032e+001  -9.587931e+000 
3562500000  -5.475398e+001  -2.229554e+001 
3565625000  -5.567760e+001  -3.460806e+001 
3568750000  -5.631390e+001  -2.210596e+001 
3571875000  -5.784657e+001  -2.166733e+001 
3575000000  -5.855062e+001  -2.113623e+001 
3578125000  -5.791748e+001  -3.314139e+001 
3581250000  -5.820377e+001  -2.196947e+001 
3584375000  -5.774830e+001  -2.089840e+001 
3587500000  -5.846273e+001  -2.589783e+001 
3590625000  -5.864406e+001  -3.219071e+001 
3593750000  -5.878703e+001  -2.391957e+001 
3596875000  -5.863927e+001  -1.331633e+001 
3600000000  -5.791644e+001  -1.439317e+001 
3603125000  -5.701262e+001  -2.925584e+001 
3606250000  -5.812844e+001  -4.109840e+001 
3609375000  -5.683829e+001  -3.283552e+001 
3612500000  -5.759246e+001  -2.487604e+001 
3615625000  -5.775515e+001  -3.923636e+001 
3618750000  -5.925621e+001  -2.603155e+001 
3621875000  -5.752823e+001  -3.103830e+001 
3625000000  -5.914874e+001  -2.462270e+001 
3628125000  -5.644267e+001  -2.199151e+001 
3631250000  -5.601603e+001  -2.484345e+001 
3634375000  -5.694196e+001  -2.850937e+001 
3637500000  -5.557076e+001  -2.524773e+001 
3640625000  -5.440903e+001  -1.484770e+001 
3643750000  -5.300534e+001  -2.739114e+001 
3646875000  -5.292484e+001  -4.043415e+001 
3650000000  -5.371481e+001  -3.517313e+001 
3653125000  -5.229217e+001  -4.276587e+001 
3656250000  -5.182629e+001  -4.378117e+001 
3659375000  -5.182619e+001  -4.589942e+001 
3662500000  -5.087636e+001  -5.340033e+001 
3665625000  -5.028014e+001  -4.941402e+001 
3668750000  -4.886475e+001  -4.844296e+001 
3671875000  -4.799422e+001  -6.195348e+001 
3675000000  -4.818287e+001  -6.887643e+001 
3678125000  -4.741508e+001  -7.244655e+001 
3681250000  -4.684423e+001  -8.061514e+001 
3684375000  -4.731808e+001  -8.294467e+001 
3687500000  -4.683178e+001  -9.004871e+001 
3690625000  -4.704668e+001  -9.610551e+001 
3693750000  -4.726835e+001  -9.567947e+001 
3696875000  -4.628066e+001  -9.664968e+001 
3700000000  -4.544346e+001  -1.032644e+002 
3703125000  -4.569171e+001  -1.091058e+002 
3706250000  -4.621444e+001  -1.092388e+002 
3709375000  -4.533407e+001  -1.097033e+002 
3712500000  -4.362219e+001  -1.157096e+002 
3715625000  -4.219519e+001  -1.218598e+002 
3718750000  -4.206139e+001  -1.299797e+002 
3721875000  -4.140999e+001  -1.388667e+002 
3725000000  -4.187064e+001  -1.450816e+002 
3728125000  -4.173030e+001  -1.486899e+002 
3731250000  -4.083457e+001  -1.549273e+002 
3734375000  -4.019042e+001  -1.614834e+002 
3737500000  -4.099488e+001  -1.724000e+002 
3740625000  -4.107976e+001  -1.776703e+002 
3743750000  -4.055869e+001  1.769869e+002 
3746875000  -4.050821e+001  1.703334e+002 
3750000000  -4.096058e+001  1.666509e+002 
3753125000  -4.066865e+001  1.616532e+002 
3756250000  -4.049962e+001  1.588204e+002 
3759375000  -4.050604e+001  1.531945e+002 
3762500000  -4.029489e+001  1.453221e+002 
3765625000  -4.075919e+001  1.410310e+002 
3768750000  -4.004153e+001  1.423823e+002 
3771875000  -3.851760e+001  1.344647e+002 
3775000000  -3.848209e+001  1.234708e+002 
3778125000  -3.926248e+001  1.174524e+002 
3781250000  -3.910895e+001  1.129122e+002 
3784375000  -3.872844e+001  1.052399e+002 
3787500000  -3.824738e+001  1.011418e+002 
3790625000  -3.902884e+001  9.199596e+001 
3793750000  -3.922084e+001  8.837511e+001 
3796875000  -3.851936e+001  8.297964e+001 
3800000000  -3.643358e+001  8.045548e+001 
3803125000  -3.822970e+001  6.680714e+001 
3806250000  -3.913165e+001  6.163808e+001 
3809375000  -3.868489e+001  5.814140e+001 
3812500000  -3.833217e+001  4.881521e+001 
3815625000  -3.933016e+001  3.958850e+001 
3818750000  -4.059060e+001  4.179120e+001 
3821875000  -4.051926e+001  4.945203e+001 
3825000000  -3.840352e+001  4.679169e+001 
3828125000  -3.731702e+001  2.832038e+001 
3831250000  -3.821950e+001  1.487759e+001 
3834375000  -4.047927e+001  1.314079e+001 
3837500000  -4.061981e+001  1.524598e+001 
3840625000  -3.906765e+001  1.531422e+001 
3843750000  -3.854667e+001  -1.206687e+000 
3846875000  -4.005119e+001  -6.462121e+000 
3850000000  -4.083083e+001  -1.811745e-001 
3853125000  -4.008856e+001  -6.980205e-001 
3856250000  -3.996336e+001  -7.657632e+000 
3859375000  -3.901003e+001  -1.550795e+001 
3862500000  -3.878701e+001  -2.483631e+001 
3865625000  -3.911181e+001  -2.880337e+001 
3868750000  -3.895801e+001  -3.276822e+001 
3871875000  -3.820456e+001  -3.770615e+001 
3875000000  -3.858535e+001  -4.910673e+001 
3878125000  -3.946142e+001  -5.162845e+001 
3881250000  -3.943315e+001  -4.945695e+001 
3884375000  -3.890995e+001  -5.655980e+001 
3887500000  -3.929273e+001  -6.336713e+001 
3890625000  -3.960837e+001  -6.890278e+001 
3893750000  -3.969194e+001  -7.044906e+001 
3896875000  -3.983603e+001  -7.450224e+001 
3900000000  -3.986221e+001  -7.734229e+001 
3903125000  -3.927847e+001  -8.184611e+001 
3906250000  -3.892971e+001  -8.539709e+001 
3909375000  -3.849894e+001  -9.453267e+001 
3912500000  -3.920542e+001  -1.043528e+002 
3915625000  -4.030611e+001  -1.030879e+002 
3918750000  -3.966311e+001  -1.042891e+002 
3921875000  -3.923903e+001  -1.095409e+002 
3925000000  -3.858297e+001  -1.142653e+002 
3928125000  -3.819248e+001  -1.234842e+002 
3931250000  -3.887392e+001  -1.299895e+002 
3934375000  -3.941753e+001  -1.320188e+002 
3937500000  -3.976817e+001  -1.346672e+002 
3940625000  -3.988012e+001  -1.348586e+002 
3943750000  -3.895096e+001  -1.389694e+002 
3946875000  -3.845712e+001  -1.480628e+002 
3950000000  -3.926473e+001  -1.564449e+002 
3953125000  -3.991764e+001  -1.552121e+002 
3956250000  -3.864317e+001  -1.562088e+002 
3959375000  -3.804806e+001  -1.636952e+002 
3962500000  -3.780535e+001  -1.711258e+002 
3965625000  -3.773869e+001  1.776605e+002 
3968750000  -3.846668e+001  1.713462e+002 
3971875000  -3.879063e+001  1.662408e+002 
3975000000  -3.830173e+001  1.620829e+002 
3978125000  -3.873738e+001  1.584220e+002 
3981250000  -3.848982e+001  1.513969e+002 
3984375000  -3.885740e+001  1.431926e+002 
3987500000  -3.964713e+001  1.406280e+002 
3990625000  -3.989202e+001  1.398055e+002 
3993750000  -3.982014e+001  1.347014e+002 
3996875000  -3.985558e+001  1.311389e+002 
4000000000  -4.082718e+001  1.233213e+002 
4003125000  -4.108664e+001  1.263825e+002 
4006250000  -3.973031e+001  1.260674e+002 
4009375000  -3.855861e+001  1.102140e+002 
4012500000  -4.014917e+001  1.034148e+002 
4015625000  -4.141412e+001  1.015763e+002 
4018750000  -4.143673e+001  1.053762e+002 
4021875000  -4.071119e+001  9.845718e+001 
4025000000  -4.061797e+001  9.547578e+001 
4028125000  -4.051425e+001  8.786666e+001 
4031250000  -4.100660e+001  8.416228e+001 
4034375000  -4.142049e+001  8.102739e+001 
4037500000  -4.102583e+001  8.350210e+001 
4040625000  -4.080631e+001  7.845666e+001 
4043750000  -4.125766e+001  7.654897e+001 
4046875000  -4.070612e+001  7.176559e+001 
4050000000  -4.058223e+001  6.577377e+001 
4053125000  -4.130542e+001  6.496087e+001 
4056250000  -4.166737e+001  6.723166e+001 
4059375000  -3.939243e+001  6.667958e+001 
4062500000  -3.867076e+001  5.747179e+001 
4065625000  -3.875998e+001  5.291722e+001 
4068750000  -3.819593e+001  4.482455e+001 
4071875000  -3.758929e+001  3.573385e+001 
4075000000  -3.812683e+001  2.808485e+001 
4078125000  -3.857324e+001  2.501470e+001 
4081250000  -3.826896e+001  2.142991e+001 
4084375000  -3.783133e+001  1.227318e+001 
4087500000  -3.823948e+001  3.241738e+000 
4090625000  -3.898523e+001  1.484313e+000 
4093750000  -3.843268e+001  -2.318517e-001 
4096875000  -3.837316e+001  -1.035394e+001 
4100000000  -3.933050e+001  -1.983728e+001 
4103125000  -4.016310e+001  -1.617246e+001 
4106250000  -3.982001e+001  -1.258859e+001 
4109375000  -3.888284e+001  -1.629109e+001 
4112500000  -3.842205e+001  -2.636280e+001 
4115625000  -3.907726e+001  -3.274655e+001 
4118750000  -3.869703e+001  -3.703912e+001 
4121875000  -3.862564e+001  -4.473323e+001 
4125000000  -3.944948e+001  -5.032625e+001 
4128125000  -4.055227e+001  -4.828223e+001 
4131250000  -3.955820e+001  -4.312495e+001 
4134375000  -3.740405e+001  -5.227164e+001 
4137500000  -3.752864e+001  -7.394885e+001 
4140625000  -4.004112e+001  -8.187141e+001 
4143750000  -4.108766e+001  -7.551042e+001 
4146875000  -4.041312e+001  -7.081427e+001 
4150000000  -3.922963e+001  -7.906836e+001 
4153125000  -3.969260e+001  -8.646770e+001 
4156250000  -4.084736e+001  -9.173814e+001 
4159375000  -4.071880e+001  -8.701469e+001 
4162500000  -4.013088e+001  -8.160873e+001 
4165625000  -3.857193e+001  -8.944607e+001 
4168750000  -3.812201e+001  -1.005154e+002 
4171875000  -3.803384e+001  -1.087539e+002 
4175000000  -3.895126e+001  -1.168322e+002 
4178125000  -3.932427e+001  -1.183705e+002 
4181250000  -3.897790e+001  -1.214546e+002 
4184375000  -3.918216e+001  -1.264670e+002 
4187500000  -3.909205e+001  -1.298851e+002 
4190625000  -3.899212e+001  -1.378520e+002 
4193750000  -4.000194e+001  -1.434874e+002 
4196875000  -4.094598e+001  -1.444632e+002 
4200000000  -4.179658e+001  -1.409291e+002 
4203125000  -4.094250e+001  -1.271956e+002 
4206250000  -3.748052e+001  -1.340017e+002 
4209375000  -3.682343e+001  -1.585010e+002 
4212500000  -3.904425e+001  -1.657626e+002 
4215625000  -3.963834e+001  -1.582561e+002 
4218750000  -3.775249e+001  -1.564380e+002 
4221875000  -3.591591e+001  -1.672032e+002 
4225000000  -3.738738e+001  1.788203e+002 
4228125000  -3.737882e+001  -1.779709e+002 
4231250000  -3.579466e+001  1.758184e+002 
4234375000  -3.587348e+001  1.647761e+002 
4237500000  -3.565414e+001  1.594781e+002 
4240625000  -3.576109e+001  1.482881e+002 
4243750000  -3.699589e+001  1.392798e+002 
4246875000  -3.802805e+001  1.383195e+002 
4250000000  -3.777594e+001  1.383575e+002 
4253125000  -3.746221e+001  1.360544e+002 
4256250000  -3.730736e+001  1.303108e+002 
4259375000  -3.716499e+001  1.263261e+002 
4262500000  -3.729829e+001  1.172644e+002 
4265625000  -3.739452e+001  1.171132e+002 
4268750000  -3.640345e+001  1.094001e+002 
4271875000  -3.608086e+001  1.006159e+002 
4275000000  -3.587480e+001  9.296153e+001 
4278125000  -3.684593e+001  7.838511e+001 
4281250000  -3.836250e+001  7.709332e+001 
4284375000  -3.827195e+001  7.479923e+001 
4287500000  -3.965146e+001  7.343369e+001 
4290625000  -4.013393e+001  7.941154e+001 
4293750000  -3.825443e+001  8.352312e+001 
4296875000  -3.708009e+001  6.996339e+001 
4300000000  -3.850260e+001  5.792214e+001 
4303125000  -3.933353e+001  6.120564e+001 
4306250000  -3.830358e+001  6.283497e+001 
4309375000  -3.699075e+001  5.792231e+001 
4312500000  -3.730928e+001  4.651742e+001 
4315625000  -3.744071e+001  4.059165e+001 
4318750000  -3.808300e+001  3.596856e+001 
4321875000  -3.831605e+001  3.705621e+001 
4325000000  -3.760024e+001  3.485004e+001 
4328125000  -3.701295e+001  2.404271e+001 
4331250000  -3.701904e+001  1.453944e+001 
4334375000  -3.768622e+001  8.703889e+000 
4337500000  -3.880944e+001  6.416192e+000 
4340625000  -3.927502e+001  1.074025e+001 
4343750000  -3.811440e+001  8.802411e+000 
4346875000  -3.781144e+001  -1.121614e+000 
4350000000  -3.811851e+001  -6.251291e+000 
4353125000  -3.818194e+001  -1.676474e+001 
4356250000  -4.004655e+001  -1.429101e+001 
4359375000  -3.956459e+001  5.348535e-001 
4362500000  -3.655876e+001  -6.160025e+000 
4365625000  -3.558923e+001  -2.280204e+001 
4368750000  -3.678113e+001  -3.474641e+001 
4371875000  -3.748629e+001  -3.363963e+001 
4375000000  -3.681483e+001  -3.589230e+001 
4378125000  -3.643518e+001  -4.380949e+001 
4381250000  -3.666102e+001  -5.280908e+001 
4384375000  -3.651455e+001  -5.779945e+001 
4387500000  -3.740504e+001  -6.420509e+001 
4390625000  -3.801456e+001  -6.666049e+001 
4393750000  -3.729408e+001  -6.605730e+001 
4396875000  -3.680895e+001  -7.159344e+001 
4400000000  -3.631882e+001  -7.978455e+001 
4403125000  -3.717931e+001  -8.980318e+001 
4406250000  -3.774709e+001  -9.360542e+001 
4409375000  -3.767923e+001  -9.779234e+001 
4412500000  -3.891233e+001  -1.012423e+002 
4415625000  -3.898535e+001  -9.568654e+001 
