!Agilent Technologies,E8363B,MY43030201,A.06.04.32
!Agilent E8363B: A.06.04.32
!Date: Tuesday, November 11, 2014 21:36:28
!Correction: S21(Response(S21)) 
!S1P File: Measurement: S21:
# Hz S  dB   R 50
3000000000  -4.057019e+001  7.208358e+001 
3003125000  -4.192852e+001  6.385338e+001 
3006250000  -4.215765e+001  6.434238e+001 
3009375000  -4.276925e+001  6.861584e+001 
3012500000  -4.147970e+001  6.207700e+001 
3015625000  -4.146923e+001  5.623315e+001 
3018750000  -4.193709e+001  5.751338e+001 
3021875000  -4.024395e+001  5.794753e+001 
3025000000  -3.888428e+001  5.343593e+001 
3028125000  -3.787547e+001  4.239255e+001 
3031250000  -3.702925e+001  3.082655e+001 
3034375000  -3.673941e+001  1.716736e+001 
3037500000  -3.767440e+001  6.745111e+000 
3040625000  -3.888417e+001  1.276779e+000 
3043750000  -3.924196e+001  -5.893587e+000 
3046875000  -3.988125e+001  -1.129141e+001 
3050000000  -4.080831e+001  -1.426676e+001 
3053125000  -4.056439e+001  -1.038622e+001 
3056250000  -4.050262e+001  -7.330157e+000 
3059375000  -3.979222e+001  -9.754381e+000 
3062500000  -3.818211e+001  -1.583371e+001 
3065625000  -3.779319e+001  -2.473475e+001 
3068750000  -3.761733e+001  -3.123088e+001 
3071875000  -3.759821e+001  -3.564985e+001 
3075000000  -3.700304e+001  -4.099078e+001 
3078125000  -3.711094e+001  -4.685098e+001 
3081250000  -3.716531e+001  -5.365760e+001 
3084375000  -3.634173e+001  -5.915493e+001 
3087500000  -3.651783e+001  -6.506559e+001 
3090625000  -3.592152e+001  -7.750510e+001 
3093750000  -3.714899e+001  -8.559978e+001 
3096875000  -3.738083e+001  -8.993584e+001 
3100000000  -3.717332e+001  -9.378268e+001 
3103125000  -3.749335e+001  -9.745915e+001 
3106250000  -3.708947e+001  -1.019455e+002 
3109375000  -3.723629e+001  -1.058852e+002 
3112500000  -3.708581e+001  -1.122063e+002 
3115625000  -3.716307e+001  -1.156753e+002 
3118750000  -3.714143e+001  -1.193554e+002 
3121875000  -3.653013e+001  -1.300171e+002 
3125000000  -3.852882e+001  -1.333095e+002 
3128125000  -3.850701e+001  -1.252674e+002 
3131250000  -3.609330e+001  -1.323038e+002 
3134375000  -3.539071e+001  -1.492968e+002 
3137500000  -3.609586e+001  -1.604008e+002 
3140625000  -3.739655e+001  -1.646552e+002 
3143750000  -3.811966e+001  -1.668925e+002 
3146875000  -3.759513e+001  -1.647131e+002 
3150000000  -3.684047e+001  -1.688199e+002 
3153125000  -3.724776e+001  -1.771960e+002 
3156250000  -3.792253e+001  -1.719922e+002 
3159375000  -3.564657e+001  -1.745611e+002 
3162500000  -3.435551e+001  1.699343e+002 
3165625000  -3.550607e+001  1.575669e+002 
3168750000  -3.543397e+001  1.565727e+002 
3171875000  -3.491311e+001  1.486225e+002 
3175000000  -3.541396e+001  1.395878e+002 
3178125000  -3.499529e+001  1.381812e+002 
3181250000  -3.442378e+001  1.294884e+002 
3184375000  -3.425529e+001  1.176820e+002 
3187500000  -3.546390e+001  1.036544e+002 
3190625000  -3.728136e+001  9.769865e+001 
3193750000  -3.740527e+001  1.025020e+002 
3196875000  -3.733996e+001  1.038929e+002 
3200000000  -3.624346e+001  9.853835e+001 
3203125000  -3.594753e+001  9.079539e+001 
3206250000  -3.614112e+001  8.283452e+001 
3209375000  -3.576065e+001  7.415012e+001 
3212500000  -3.630659e+001  6.818567e+001 
3215625000  -3.598957e+001  6.573238e+001 
3218750000  -3.682724e+001  5.402085e+001 
3221875000  -3.734173e+001  4.730505e+001 
3225000000  -3.698582e+001  4.354839e+001 
3228125000  -3.776483e+001  3.633926e+001 
3231250000  -3.818733e+001  3.397606e+001 
3234375000  -3.787959e+001  3.142162e+001 
3237500000  -3.801966e+001  2.612042e+001 
3240625000  -3.751019e+001  2.190564e+001 
3243750000  -3.755186e+001  1.091911e+001 
3246875000  -3.823947e+001  3.854526e+000 
3250000000  -3.883069e+001  -1.628328e-001 
3253125000  -3.905040e+001  -3.507821e+000 
3256250000  -3.856110e+001  -1.131902e+001 
3259375000  -3.912554e+001  -2.149681e+001 
3262500000  -4.061613e+001  -2.605773e+001 
3265625000  -4.116059e+001  -2.146059e+001 
3268750000  -4.113499e+001  -2.102691e+001 
3271875000  -4.061209e+001  -2.557821e+001 
3275000000  -4.001842e+001  -3.398593e+001 
3278125000  -4.103665e+001  -3.804821e+001 
3281250000  -4.100762e+001  -4.029606e+001 
3284375000  -4.051414e+001  -4.611560e+001 
3287500000  -4.090015e+001  -5.083101e+001 
3290625000  -4.104042e+001  -5.777562e+001 
3293750000  -4.117317e+001  -6.275203e+001 
3296875000  -4.234454e+001  -6.411372e+001 
3300000000  -4.188136e+001  -6.440347e+001 
3303125000  -4.064003e+001  -7.057982e+001 
3306250000  -4.065275e+001  -7.879269e+001 
3309375000  -4.078117e+001  -8.584378e+001 
3312500000  -4.092419e+001  -9.865294e+001 
3315625000  -4.215815e+001  -1.065237e+002 
3318750000  -4.344984e+001  -1.089139e+002 
3321875000  -4.533289e+001  -1.052215e+002 
3325000000  -4.503226e+001  -1.003059e+002 
3328125000  -4.368830e+001  -9.984391e+001 
3331250000  -4.198044e+001  -9.517898e+001 
3334375000  -3.978477e+001  -1.103535e+002 
3337500000  -4.060909e+001  -1.320552e+002 
3340625000  -4.232856e+001  -1.426396e+002 
3343750000  -4.387503e+001  -1.411820e+002 
3346875000  -4.313206e+001  -1.418541e+002 
3350000000  -4.296874e+001  -1.439222e+002 
3353125000  -4.290307e+001  -1.523520e+002 
3356250000  -4.242958e+001  -1.582597e+002 
3359375000  -4.342111e+001  -1.730162e+002 
3362500000  -4.434202e+001  -1.776068e+002 
3365625000  -4.473925e+001  1.786385e+002 
3368750000  -4.519945e+001  1.735083e+002 
3371875000  -4.604940e+001  1.709301e+002 
3375000000  -4.724386e+001  1.671012e+002 
3378125000  -4.822378e+001  1.675178e+002 
3381250000  -4.975872e+001  1.798086e+002 
3384375000  -4.700544e+001  -1.692300e+002 
3387500000  -4.403544e+001  1.706078e+002 
3390625000  -4.599677e+001  1.500114e+002 
3393750000  -4.667591e+001  1.537735e+002 
3396875000  -4.570097e+001  1.494521e+002 
3400000000  -4.620835e+001  1.406463e+002 
3403125000  -4.690508e+001  1.311100e+002 
3406250000  -4.768787e+001  1.282772e+002 
3409375000  -4.783834e+001  1.227388e+002 
3412500000  -4.872919e+001  1.153581e+002 
3415625000  -5.002857e+001  1.179140e+002 
3418750000  -5.009124e+001  1.168536e+002 
3421875000  -5.067561e+001  1.191332e+002 
3425000000  -4.977571e+001  1.153914e+002 
3428125000  -5.012236e+001  1.150615e+002 
3431250000  -4.983892e+001  1.070118e+002 
3434375000  -5.076085e+001  1.000692e+002 
3437500000  -5.151357e+001  1.014720e+002 
3440625000  -5.202785e+001  1.017239e+002 
3443750000  -5.134219e+001  1.052161e+002 
3446875000  -5.046885e+001  1.000217e+002 
3450000000  -5.000159e+001  9.262749e+001 
3453125000  -5.081158e+001  7.773905e+001 
3456250000  -5.169034e+001  7.746819e+001 
3459375000  -5.302806e+001  8.298391e+001 
3462500000  -5.218739e+001  8.988321e+001 
3465625000  -5.123619e+001  7.856006e+001 
3468750000  -5.196006e+001  7.806667e+001 
3471875000  -5.170955e+001  7.497284e+001 
3475000000  -5.113146e+001  7.276444e+001 
3478125000  -5.070316e+001  6.228835e+001 
3481250000  -5.291931e+001  6.056069e+001 
3484375000  -5.176922e+001  6.660682e+001 
3487500000  -5.142646e+001  5.824281e+001 
3490625000  -5.102097e+001  5.221922e+001 
3493750000  -5.143310e+001  4.593735e+001 
3496875000  -5.137661e+001  4.745480e+001 
3500000000  -5.084094e+001  4.469844e+001 
3503125000  -5.207947e+001  3.976244e+001 
3506250000  -4.991805e+001  3.686522e+001 
3509375000  -4.907158e+001  2.125312e+001 
3512500000  -5.029630e+001  8.712145e+000 
3515625000  -5.150711e+001  5.021557e+000 
3518750000  -5.192537e+001  2.685563e+000 
3521875000  -5.296466e+001  -1.780967e+000 
3525000000  -5.401083e+001  -4.860209e+000 
3528125000  -5.217789e+001  4.310673e-001 
3531250000  -5.140764e+001  -3.053752e+000 
3534375000  -5.266682e+001  -1.912928e+001 
3537500000  -5.304193e+001  -3.087836e+001 
3540625000  -5.451194e+001  -2.592060e+001 
3543750000  -5.679213e+001  -2.578941e+001 
3546875000  -5.552372e+001  -8.316553e+000 
3550000000  -5.467162e+001  -2.419069e+001 
3553125000  -5.451171e+001  -3.608251e+001 
3556250000  -5.630200e+001  -3.194146e+001 
3559375000  -5.521267e+001  -3.737864e+001 
3562500000  -5.533856e+001  -3.952003e+001 
3565625000  -5.558111e+001  -5.684450e+001 
3568750000  -5.686396e+001  -3.585028e+001 
3571875000  -5.730525e+001  -4.735082e+001 
3575000000  -5.802158e+001  -5.322928e+001 
3578125000  -5.912962e+001  -4.345252e+001 
3581250000  -5.854564e+001  -5.193945e+001 
3584375000  -5.952421e+001  -4.021313e+001 
3587500000  -5.746254e+001  -5.256642e+001 
3590625000  -5.787810e+001  -5.357106e+001 
3593750000  -6.072639e+001  -4.621571e+001 
3596875000  -5.988452e+001  -3.523944e+001 
3600000000  -5.837115e+001  -5.978843e+001 
3603125000  -5.759151e+001  -5.635429e+001 
3606250000  -5.917106e+001  -3.402224e+001 
3609375000  -5.807074e+001  -4.836075e+001 
3612500000  -5.867617e+001  -4.935556e+001 
3615625000  -5.798359e+001  -6.263134e+001 
3618750000  -5.805170e+001  -3.676431e+001 
3621875000  -5.737822e+001  -4.529766e+001 
3625000000  -5.704814e+001  -5.139175e+001 
3628125000  -5.808274e+001  -4.250688e+001 
3631250000  -5.718567e+001  -4.747057e+001 
3634375000  -5.633636e+001  -4.244671e+001 
3637500000  -5.468067e+001  -4.397582e+001 
3640625000  -5.411402e+001  -4.227500e+001 
3643750000  -5.292633e+001  -5.057649e+001 
3646875000  -5.234714e+001  -5.930921e+001 
3650000000  -5.385115e+001  -6.079510e+001 
3653125000  -5.244382e+001  -6.411825e+001 
3656250000  -5.216490e+001  -6.166988e+001 
3659375000  -5.179900e+001  -6.635044e+001 
3662500000  -5.038554e+001  -7.479798e+001 
3665625000  -5.011374e+001  -7.561624e+001 
3668750000  -4.753790e+001  -7.185363e+001 
3671875000  -4.714985e+001  -8.365504e+001 
3675000000  -4.700063e+001  -9.505717e+001 
3678125000  -4.755054e+001  -9.917724e+001 
3681250000  -4.670429e+001  -1.035245e+002 
3684375000  -4.654097e+001  -1.082622e+002 
3687500000  -4.663067e+001  -1.121114e+002 
3690625000  -4.636411e+001  -1.197864e+002 
3693750000  -4.713453e+001  -1.212685e+002 
3696875000  -4.666256e+001  -1.202139e+002 
3700000000  -4.492500e+001  -1.272774e+002 
3703125000  -4.533519e+001  -1.316945e+002 
3706250000  -4.591061e+001  -1.327868e+002 
3709375000  -4.484616e+001  -1.349705e+002 
3712500000  -4.374338e+001  -1.374882e+002 
3715625000  -4.197646e+001  -1.497782e+002 
3718750000  -4.164321e+001  -1.554527e+002 
3721875000  -4.109559e+001  -1.637298e+002 
3725000000  -4.165129e+001  -1.715647e+002 
3728125000  -4.141005e+001  -1.755072e+002 
3731250000  -4.048449e+001  1.791829e+002 
3734375000  -4.021854e+001  1.711252e+002 
3737500000  -4.103081e+001  1.618834e+002 
3740625000  -4.094992e+001  1.570202e+002 
3743750000  -4.027670e+001  1.493256e+002 
3746875000  -4.081533e+001  1.435819e+002 
3750000000  -4.097216e+001  1.396167e+002 
3753125000  -4.065262e+001  1.354534e+002 
3756250000  -4.060294e+001  1.321584e+002 
3759375000  -4.043276e+001  1.271813e+002 
3762500000  -4.050590e+001  1.202911e+002 
3765625000  -4.084821e+001  1.161037e+002 
3768750000  -4.002668e+001  1.162853e+002 
3771875000  -3.832569e+001  1.091128e+002 
3775000000  -3.834336e+001  9.658591e+001 
3778125000  -3.892613e+001  8.997357e+001 
3781250000  -3.900733e+001  8.750656e+001 
3784375000  -3.872720e+001  8.091172e+001 
3787500000  -3.854432e+001  7.505627e+001 
3790625000  -3.916560e+001  6.455636e+001 
3793750000  -3.898487e+001  6.317340e+001 
3796875000  -3.827848e+001  5.871959e+001 
3800000000  -3.642523e+001  5.376700e+001 
3803125000  -3.811916e+001  3.945357e+001 
3806250000  -3.896340e+001  3.703303e+001 
3809375000  -3.832365e+001  3.146662e+001 
3812500000  -3.832935e+001  2.134755e+001 
3815625000  -3.954502e+001  1.245816e+001 
3818750000  -4.107843e+001  1.495345e+001 
3821875000  -4.018850e+001  2.335740e+001 
3825000000  -3.812317e+001  2.124880e+001 
3828125000  -3.691279e+001  4.786159e-001 
3831250000  -3.803152e+001  -1.371610e+001 
3834375000  -4.041484e+001  -1.268882e+001 
3837500000  -4.084047e+001  -1.075810e+001 
3840625000  -3.884785e+001  -1.265178e+001 
3843750000  -3.833562e+001  -2.765796e+001 
3846875000  -4.008381e+001  -3.499337e+001 
3850000000  -4.081724e+001  -2.596723e+001 
3853125000  -4.015063e+001  -2.664961e+001 
3856250000  -3.930527e+001  -3.828432e+001 
3859375000  -3.869447e+001  -4.195938e+001 
3862500000  -3.859700e+001  -5.278486e+001 
3865625000  -3.888799e+001  -5.743214e+001 
3868750000  -3.844476e+001  -5.943343e+001 
3871875000  -3.797375e+001  -6.725100e+001 
3875000000  -3.857834e+001  -7.675027e+001 
3878125000  -3.938768e+001  -7.815832e+001 
3881250000  -3.919423e+001  -8.034630e+001 
3884375000  -3.853364e+001  -8.738966e+001 
3887500000  -3.918156e+001  -9.204501e+001 
3890625000  -3.938498e+001  -9.594566e+001 
3893750000  -3.973661e+001  -9.870676e+001 
3896875000  -4.021890e+001  -1.010119e+002 
3900000000  -3.972389e+001  -1.061437e+002 
3903125000  -3.932511e+001  -1.096573e+002 
3906250000  -3.894894e+001  -1.129251e+002 
3909375000  -3.813918e+001  -1.226518e+002 
3912500000  -3.908039e+001  -1.329863e+002 
3915625000  -4.039571e+001  -1.305638e+002 
3918750000  -3.983464e+001  -1.324436e+002 
3921875000  -3.937885e+001  -1.363609e+002 
3925000000  -3.845024e+001  -1.426900e+002 
3928125000  -3.820156e+001  -1.531491e+002 
3931250000  -3.931644e+001  -1.594952e+002 
3934375000  -3.969936e+001  -1.595668e+002 
3937500000  -3.979343e+001  -1.616642e+002 
3940625000  -3.988776e+001  -1.647302e+002 
3943750000  -3.858159e+001  -1.678890e+002 
3946875000  -3.875064e+001  -1.750144e+002 
3950000000  -3.939197e+001  1.740126e+002 
3953125000  -3.982890e+001  1.763387e+002 
3956250000  -3.858939e+001  1.747757e+002 
3959375000  -3.783076e+001  1.700051e+002 
3962500000  -3.757882e+001  1.607019e+002 
3965625000  -3.795568e+001  1.515421e+002 
3968750000  -3.865737e+001  1.435393e+002 
3971875000  -3.854781e+001  1.386162e+002 
3975000000  -3.842216e+001  1.327143e+002 
3978125000  -3.842707e+001  1.299766e+002 
3981250000  -3.846940e+001  1.222093e+002 
3984375000  -3.914363e+001  1.163351e+002 
3987500000  -3.964199e+001  1.124655e+002 
3990625000  -3.994728e+001  1.110171e+002 
3993750000  -3.989669e+001  1.068497e+002 
3996875000  -3.991317e+001  1.006309e+002 
4000000000  -4.089515e+001  9.605769e+001 
4003125000  -4.103753e+001  9.899348e+001 
4006250000  -3.906675e+001  9.534825e+001 
4009375000  -3.864643e+001  8.115073e+001 
4012500000  -3.989561e+001  7.262781e+001 
4015625000  -4.134178e+001  7.394319e+001 
4018750000  -4.126635e+001  7.337829e+001 
4021875000  -4.087423e+001  7.124938e+001 
4025000000  -4.039806e+001  6.558972e+001 
4028125000  -4.042137e+001  5.745420e+001 
4031250000  -4.121909e+001  5.311952e+001 
4034375000  -4.149408e+001  5.430714e+001 
4037500000  -4.103594e+001  5.381116e+001 
4040625000  -4.064518e+001  4.805976e+001 
4043750000  -4.099982e+001  4.508990e+001 
4046875000  -4.058343e+001  4.149061e+001 
4050000000  -4.049995e+001  3.712433e+001 
4053125000  -4.125898e+001  3.491397e+001 
4056250000  -4.140958e+001  3.991211e+001 
4059375000  -3.921117e+001  3.575727e+001 
4062500000  -3.901453e+001  2.870709e+001 
4065625000  -3.929342e+001  2.332500e+001 
4068750000  -3.858722e+001  1.476520e+001 
4071875000  -3.780612e+001  5.135060e+000 
4075000000  -3.831538e+001  -2.562625e+000 
4078125000  -3.879763e+001  -4.976708e+000 
4081250000  -3.828418e+001  -9.040469e+000 
4084375000  -3.809160e+001  -2.085035e+001 
4087500000  -3.875703e+001  -2.656477e+001 
4090625000  -3.923427e+001  -2.764829e+001 
4093750000  -3.873001e+001  -3.142358e+001 
4096875000  -3.882487e+001  -4.071429e+001 
4100000000  -3.986898e+001  -4.724990e+001 
4103125000  -4.090278e+001  -4.405042e+001 
4106250000  -4.002464e+001  -4.444936e+001 
4109375000  -3.924275e+001  -4.653291e+001 
4112500000  -3.866482e+001  -5.590745e+001 
4115625000  -3.909338e+001  -6.199290e+001 
4118750000  -3.927288e+001  -6.694878e+001 
4121875000  -3.895695e+001  -7.321203e+001 
4125000000  -3.968779e+001  -7.953638e+001 
4128125000  -4.096999e+001  -7.739320e+001 
4131250000  -4.000236e+001  -7.138445e+001 
4134375000  -3.743599e+001  -8.288062e+001 
4137500000  -3.825928e+001  -1.032841e+002 
4140625000  -4.065291e+001  -1.106006e+002 
4143750000  -4.162249e+001  -1.023253e+002 
4146875000  -4.061709e+001  -1.001316e+002 
4150000000  -3.948552e+001  -1.075340e+002 
4153125000  -4.003140e+001  -1.165191e+002 
4156250000  -4.118340e+001  -1.202273e+002 
4159375000  -4.101597e+001  -1.146605e+002 
4162500000  -3.990245e+001  -1.135168e+002 
4165625000  -3.870095e+001  -1.197828e+002 
4168750000  -3.847376e+001  -1.311137e+002 
4171875000  -3.827847e+001  -1.414218e+002 
4175000000  -3.924317e+001  -1.454803e+002 
4178125000  -3.979399e+001  -1.471993e+002 
4181250000  -3.937327e+001  -1.532085e+002 
4184375000  -3.948697e+001  -1.566496e+002 
4187500000  -3.928661e+001  -1.597823e+002 
4190625000  -3.951089e+001  -1.681334e+002 
4193750000  -4.056190e+001  -1.733299e+002 
4196875000  -4.161618e+001  -1.767525e+002 
4200000000  -4.225816e+001  -1.689690e+002 
4203125000  -4.079345e+001  -1.554116e+002 
4206250000  -3.725539e+001  -1.658027e+002 
4209375000  -3.718857e+001  1.705514e+002 
4212500000  -3.979475e+001  1.633303e+002 
4215625000  -4.028259e+001  1.725692e+002 
4218750000  -3.809191e+001  1.725056e+002 
4221875000  -3.655678e+001  1.639506e+002 
4225000000  -3.788461e+001  1.511172e+002 
4228125000  -3.782939e+001  1.514458e+002 
4231250000  -3.609021e+001  1.443338e+002 
4234375000  -3.650268e+001  1.343377e+002 
4237500000  -3.640252e+001  1.286153e+002 
4240625000  -3.630344e+001  1.185107e+002 
4243750000  -3.757095e+001  1.089597e+002 
4246875000  -3.849291e+001  1.101960e+002 
4250000000  -3.822524e+001  1.079734e+002 
4253125000  -3.810994e+001  1.039529e+002 
4256250000  -3.797319e+001  1.003438e+002 
4259375000  -3.772681e+001  9.559812e+001 
4262500000  -3.791260e+001  8.978638e+001 
4265625000  -3.789526e+001  8.896452e+001 
4268750000  -3.707983e+001  8.080534e+001 
4271875000  -3.685499e+001  7.126424e+001 
4275000000  -3.665365e+001  6.201225e+001 
4278125000  -3.754240e+001  5.127353e+001 
4281250000  -3.903309e+001  5.010894e+001 
4284375000  -3.871719e+001  4.839642e+001 
4287500000  -4.029254e+001  4.403482e+001 
4290625000  -4.062156e+001  5.216674e+001 
4293750000  -3.880824e+001  5.167665e+001 
4296875000  -3.758763e+001  3.920838e+001 
4300000000  -3.911150e+001  3.191596e+001 
4303125000  -3.948665e+001  3.380793e+001 
4306250000  -3.895097e+001  3.547543e+001 
4309375000  -3.771643e+001  2.929527e+001 
4312500000  -3.769018e+001  1.735694e+001 
4315625000  -3.793704e+001  9.444496e+000 
4318750000  -3.843914e+001  4.586687e+000 
4321875000  -3.868074e+001  8.274119e+000 
4325000000  -3.802001e+001  5.900732e+000 
4328125000  -3.737624e+001  -5.861620e+000 
4331250000  -3.738993e+001  -1.502735e+001 
4334375000  -3.817220e+001  -2.161046e+001 
4337500000  -3.958026e+001  -2.303798e+001 
4340625000  -3.948109e+001  -1.611145e+001 
4343750000  -3.858119e+001  -2.054900e+001 
4346875000  -3.851855e+001  -2.988376e+001 
4350000000  -3.843365e+001  -3.681525e+001 
4353125000  -3.887235e+001  -4.469229e+001 
4356250000  -4.095557e+001  -3.969751e+001 
4359375000  -3.992627e+001  -2.721495e+001 
4362500000  -3.665008e+001  -3.451501e+001 
4365625000  -3.591430e+001  -5.275698e+001 
4368750000  -3.731460e+001  -6.294763e+001 
4371875000  -3.779174e+001  -6.336315e+001 
4375000000  -3.731044e+001  -6.606561e+001 
4378125000  -3.698875e+001  -7.434586e+001 
4381250000  -3.715201e+001  -8.223891e+001 
4384375000  -3.727557e+001  -8.753316e+001 
4387500000  -3.798006e+001  -9.488647e+001 
4390625000  -3.854870e+001  -9.586047e+001 
4393750000  -3.802227e+001  -9.458175e+001 
4396875000  -3.728419e+001  -1.009026e+002 
4400000000  -3.677060e+001  -1.098381e+002 
4403125000  -3.781028e+001  -1.182735e+002 
4406250000  -3.835964e+001  -1.223685e+002 
4409375000  -3.862092e+001  -1.271267e+002 
4412500000  -3.989817e+001  -1.293675e+002 
4415625000  -3.925695e+001  -1.249785e+002 
