!Agilent Technologies,E8363B,MY43030201,A.06.04.32
!Agilent E8363B: A.06.04.32
!Date: Tuesday, November 11, 2014 21:29:31
!Correction: S21(Response(S21)) 
!S1P File: Measurement: S21:
# Hz S  dB   R 50
3000000000  -4.052714e+001  8.564280e+001 
3003125000  -4.223770e+001  7.821516e+001 
3006250000  -4.197728e+001  7.699607e+001 
3009375000  -4.278267e+001  8.108311e+001 
3012500000  -4.157325e+001  7.920053e+001 
3015625000  -4.145834e+001  7.040689e+001 
3018750000  -4.185126e+001  6.968366e+001 
3021875000  -4.021362e+001  7.068973e+001 
3025000000  -3.899133e+001  6.854765e+001 
3028125000  -3.795684e+001  5.862933e+001 
3031250000  -3.704960e+001  4.668635e+001 
3034375000  -3.679184e+001  3.268331e+001 
3037500000  -3.740176e+001  2.178503e+001 
3040625000  -3.874355e+001  1.615523e+001 
3043750000  -3.904840e+001  9.796026e+000 
3046875000  -3.974216e+001  5.362863e+000 
3050000000  -4.102531e+001  -1.954364e+000 
3053125000  -4.053447e+001  4.381392e+000 
3056250000  -4.042684e+001  6.695429e+000 
3059375000  -3.982769e+001  3.513190e+000 
3062500000  -3.818245e+001  6.707833e-001 
3065625000  -3.801696e+001  -9.109830e+000 
3068750000  -3.757540e+001  -1.745963e+001 
3071875000  -3.761350e+001  -1.980420e+001 
3075000000  -3.708252e+001  -2.584269e+001 
3078125000  -3.700052e+001  -3.178619e+001 
3081250000  -3.727761e+001  -3.930282e+001 
3084375000  -3.635904e+001  -4.275799e+001 
3087500000  -3.630172e+001  -4.938856e+001 
3090625000  -3.590263e+001  -6.115029e+001 
3093750000  -3.679485e+001  -7.023881e+001 
3096875000  -3.728567e+001  -7.549263e+001 
3100000000  -3.734183e+001  -7.894526e+001 
3103125000  -3.746813e+001  -8.204330e+001 
3106250000  -3.717430e+001  -8.663631e+001 
3109375000  -3.721055e+001  -9.061953e+001 
3112500000  -3.716150e+001  -9.677515e+001 
3115625000  -3.711795e+001  -1.018287e+002 
3118750000  -3.725228e+001  -1.033146e+002 
3121875000  -3.653397e+001  -1.152897e+002 
3125000000  -3.834193e+001  -1.186529e+002 
3128125000  -3.868891e+001  -1.118399e+002 
3131250000  -3.614212e+001  -1.167580e+002 
3134375000  -3.526972e+001  -1.353644e+002 
3137500000  -3.607024e+001  -1.469130e+002 
3140625000  -3.727402e+001  -1.502086e+002 
3143750000  -3.823739e+001  -1.520367e+002 
3146875000  -3.760112e+001  -1.500447e+002 
3150000000  -3.696109e+001  -1.534338e+002 
3153125000  -3.722150e+001  -1.622730e+002 
3156250000  -3.801260e+001  -1.577351e+002 
3159375000  -3.572996e+001  -1.593123e+002 
3162500000  -3.424109e+001  -1.750025e+002 
3165625000  -3.544672e+001  1.719277e+002 
3168750000  -3.551123e+001  1.720883e+002 
3171875000  -3.484983e+001  1.642453e+002 
3175000000  -3.544646e+001  1.547368e+002 
3178125000  -3.510805e+001  1.535061e+002 
3181250000  -3.438212e+001  1.456346e+002 
3184375000  -3.417140e+001  1.328042e+002 
3187500000  -3.526626e+001  1.188012e+002 
3190625000  -3.735653e+001  1.119699e+002 
3193750000  -3.746315e+001  1.177405e+002 
3196875000  -3.754984e+001  1.197129e+002 
3200000000  -3.618003e+001  1.140037e+002 
3203125000  -3.576650e+001  1.062542e+002 
3206250000  -3.620039e+001  9.819743e+001 
3209375000  -3.584199e+001  9.058296e+001 
3212500000  -3.626859e+001  8.311201e+001 
3215625000  -3.613167e+001  8.125799e+001 
3218750000  -3.689744e+001  6.868800e+001 
3221875000  -3.741822e+001  6.271135e+001 
3225000000  -3.710846e+001  5.861289e+001 
3228125000  -3.778016e+001  5.136882e+001 
3231250000  -3.848189e+001  4.989622e+001 
3234375000  -3.789139e+001  4.659702e+001 
3237500000  -3.811001e+001  4.188220e+001 
3240625000  -3.761683e+001  3.752647e+001 
3243750000  -3.770279e+001  2.651518e+001 
3246875000  -3.820961e+001  2.002150e+001 
3250000000  -3.872146e+001  1.617962e+001 
3253125000  -3.911479e+001  1.281547e+001 
3256250000  -3.871619e+001  5.459280e+000 
3259375000  -3.922963e+001  -5.628325e+000 
3262500000  -4.085452e+001  -9.966487e+000 
3265625000  -4.139734e+001  -6.458150e+000 
3268750000  -4.118203e+001  -6.542041e+000 
3271875000  -4.071292e+001  -9.134203e+000 
3275000000  -4.013641e+001  -1.784201e+001 
3278125000  -4.080299e+001  -2.331894e+001 
3281250000  -4.119889e+001  -2.450385e+001 
3284375000  -4.039594e+001  -2.998199e+001 
3287500000  -4.094930e+001  -3.517479e+001 
3290625000  -4.125309e+001  -4.257757e+001 
3293750000  -4.115606e+001  -4.715826e+001 
3296875000  -4.249684e+001  -4.905453e+001 
3300000000  -4.220871e+001  -4.656112e+001 
3303125000  -4.091624e+001  -5.614996e+001 
3306250000  -4.080192e+001  -6.268003e+001 
3309375000  -4.044467e+001  -6.991162e+001 
3312500000  -4.078976e+001  -8.251946e+001 
3315625000  -4.213338e+001  -8.940318e+001 
3318750000  -4.333215e+001  -9.417271e+001 
3321875000  -4.521768e+001  -9.021506e+001 
3325000000  -4.493945e+001  -8.275778e+001 
3328125000  -4.396440e+001  -8.423160e+001 
3331250000  -4.243772e+001  -8.165102e+001 
3334375000  -4.008639e+001  -9.387980e+001 
3337500000  -4.046744e+001  -1.157179e+002 
3340625000  -4.207256e+001  -1.260534e+002 
3343750000  -4.448331e+001  -1.265879e+002 
3346875000  -4.324323e+001  -1.266849e+002 
3350000000  -4.331403e+001  -1.277985e+002 
3353125000  -4.317901e+001  -1.377064e+002 
3356250000  -4.267358e+001  -1.426657e+002 
3359375000  -4.332268e+001  -1.550918e+002 
3362500000  -4.425100e+001  -1.606904e+002 
3365625000  -4.498867e+001  -1.638580e+002 
3368750000  -4.547248e+001  -1.693862e+002 
3371875000  -4.564091e+001  -1.731532e+002 
3375000000  -4.765712e+001  -1.775342e+002 
3378125000  -4.821687e+001  -1.763282e+002 
3381250000  -4.996358e+001  -1.650627e+002 
3384375000  -4.665127e+001  -1.543183e+002 
3387500000  -4.462105e+001  -1.744128e+002 
3390625000  -4.648164e+001  1.691193e+002 
3393750000  -4.671156e+001  1.682448e+002 
3396875000  -4.627175e+001  1.683835e+002 
3400000000  -4.597481e+001  1.526506e+002 
3403125000  -4.711360e+001  1.483098e+002 
3406250000  -4.743293e+001  1.448626e+002 
3409375000  -4.793173e+001  1.382025e+002 
3412500000  -4.866658e+001  1.322431e+002 
3415625000  -5.005738e+001  1.259802e+002 
3418750000  -5.050821e+001  1.325236e+002 
3421875000  -5.130660e+001  1.379546e+002 
3425000000  -5.100866e+001  1.332013e+002 
3428125000  -4.987460e+001  1.245436e+002 
3431250000  -4.983054e+001  1.246507e+002 
3434375000  -4.978923e+001  1.158193e+002 
3437500000  -5.209838e+001  1.157892e+002 
3440625000  -5.229710e+001  1.152007e+002 
3443750000  -5.116632e+001  1.235342e+002 
3446875000  -5.057184e+001  1.141072e+002 
3450000000  -5.029687e+001  1.087785e+002 
3453125000  -5.029581e+001  9.812759e+001 
3456250000  -5.269669e+001  9.587553e+001 
3459375000  -5.389534e+001  1.042109e+002 
3462500000  -5.215190e+001  1.010441e+002 
3465625000  -5.177301e+001  9.523969e+001 
3468750000  -5.218929e+001  9.341151e+001 
3471875000  -5.265551e+001  9.476259e+001 
3475000000  -5.177233e+001  8.671725e+001 
3478125000  -5.174282e+001  7.832349e+001 
3481250000  -5.300886e+001  7.686510e+001 
3484375000  -5.207505e+001  8.187486e+001 
3487500000  -5.197540e+001  7.562160e+001 
3490625000  -5.144954e+001  7.311646e+001 
3493750000  -5.157017e+001  6.504804e+001 
3496875000  -5.137117e+001  6.478612e+001 
3500000000  -5.252029e+001  6.329967e+001 
3503125000  -5.055553e+001  6.576287e+001 
3506250000  -4.972000e+001  4.948337e+001 
3509375000  -4.987923e+001  3.995447e+001 
3512500000  -4.985409e+001  3.288796e+001 
3515625000  -5.170783e+001  2.424446e+001 
3518750000  -5.231367e+001  2.670641e+001 
3521875000  -5.186743e+001  2.131853e+001 
3525000000  -5.293731e+001  9.736962e+000 
3528125000  -5.262921e+001  1.776982e+001 
3531250000  -5.201426e+001  1.408310e+001 
3534375000  -5.319548e+001  4.738955e+000 
3537500000  -5.344599e+001  -6.700454e+000 
3540625000  -5.486163e+001  -4.682648e+000 
3543750000  -5.660384e+001  3.346455e+000 
3546875000  -5.618612e+001  7.688406e+000 
3550000000  -5.408921e+001  1.644786e+000 
3553125000  -5.318970e+001  -1.365429e+001 
3556250000  -5.710482e+001  -2.441083e+001 
3559375000  -5.741133e+001  -2.881468e+001 
3562500000  -5.719961e+001  -2.668278e+001 
3565625000  -5.715723e+001  -3.442824e+001 
3568750000  -5.807937e+001  -2.662990e+001 
3571875000  -5.912705e+001  -1.716098e+001 
3575000000  -5.958879e+001  -2.737661e+001 
3578125000  -6.043030e+001  -3.705552e+001 
3581250000  -5.810411e+001  -2.762758e+001 
3584375000  -5.732091e+001  -1.906340e+001 
3587500000  -5.649095e+001  -1.683069e+001 
3590625000  -5.793923e+001  -3.445077e+001 
3593750000  -5.812743e+001  -2.698162e+001 
3596875000  -5.846409e+001  -2.252066e+001 
3600000000  -5.910101e+001  -1.994908e+001 
3603125000  -5.864310e+001  -4.135831e+001 
3606250000  -5.791109e+001  -3.308563e+001 
3609375000  -5.841877e+001  -2.828731e+001 
3612500000  -5.778498e+001  -3.203473e+001 
3615625000  -5.836490e+001  -2.932860e+001 
3618750000  -5.826162e+001  -2.832562e+001 
3621875000  -5.734822e+001  -2.491446e+001 
3625000000  -5.801467e+001  -2.771782e+001 
3628125000  -5.636925e+001  -2.243448e+001 
3631250000  -5.617102e+001  -2.849270e+001 
3634375000  -5.634712e+001  -3.341323e+001 
3637500000  -5.550009e+001  -2.819500e+001 
3640625000  -5.399450e+001  -2.307809e+001 
3643750000  -5.248106e+001  -2.868594e+001 
3646875000  -5.268081e+001  -4.284861e+001 
3650000000  -5.267692e+001  -4.471005e+001 
3653125000  -5.178945e+001  -4.560731e+001 
3656250000  -5.257075e+001  -4.820335e+001 
3659375000  -5.204730e+001  -4.912510e+001 
3662500000  -5.069858e+001  -5.722838e+001 
3665625000  -5.026428e+001  -5.470085e+001 
3668750000  -4.859676e+001  -6.009718e+001 
3671875000  -4.733326e+001  -7.185423e+001 
3675000000  -4.749618e+001  -7.895852e+001 
3678125000  -4.726219e+001  -7.799348e+001 
3681250000  -4.620348e+001  -8.513499e+001 
3684375000  -4.626200e+001  -9.138490e+001 
3687500000  -4.612414e+001  -9.497536e+001 
3690625000  -4.668755e+001  -1.041170e+002 
3693750000  -4.696051e+001  -9.979171e+001 
3696875000  -4.674962e+001  -1.025022e+002 
3700000000  -4.530342e+001  -1.088642e+002 
3703125000  -4.523072e+001  -1.122440e+002 
3706250000  -4.602363e+001  -1.176327e+002 
3709375000  -4.488659e+001  -1.152398e+002 
3712500000  -4.348055e+001  -1.193795e+002 
3715625000  -4.198370e+001  -1.305738e+002 
3718750000  -4.188963e+001  -1.379555e+002 
3721875000  -4.110971e+001  -1.484010e+002 
3725000000  -4.178940e+001  -1.521719e+002 
3728125000  -4.156283e+001  -1.573530e+002 
3731250000  -4.062215e+001  -1.636699e+002 
3734375000  -3.994255e+001  -1.698906e+002 
3737500000  -4.091599e+001  -1.790121e+002 
3740625000  -4.087962e+001  1.736060e+002 
3743750000  -4.074228e+001  1.688130e+002 
3746875000  -4.062831e+001  1.608576e+002 
3750000000  -4.078490e+001  1.575648e+002 
3753125000  -4.049456e+001  1.542333e+002 
3756250000  -4.063445e+001  1.504660e+002 
3759375000  -4.017783e+001  1.462102e+002 
3762500000  -4.010666e+001  1.387185e+002 
3765625000  -4.081813e+001  1.332776e+002 
3768750000  -4.010646e+001  1.344376e+002 
3771875000  -3.832517e+001  1.273328e+002 
3775000000  -3.838670e+001  1.143555e+002 
3778125000  -3.900730e+001  1.099194e+002 
3781250000  -3.892634e+001  1.037592e+002 
3784375000  -3.864139e+001  9.890476e+001 
3787500000  -3.844071e+001  9.343748e+001 
3790625000  -3.896677e+001  8.447221e+001 
3793750000  -3.898573e+001  8.090191e+001 
3796875000  -3.831419e+001  7.636807e+001 
3800000000  -3.648450e+001  7.189585e+001 
3803125000  -3.823518e+001  5.926374e+001 
3806250000  -3.897329e+001  5.444942e+001 
3809375000  -3.850578e+001  5.029567e+001 
3812500000  -3.849533e+001  4.049471e+001 
3815625000  -3.951671e+001  3.234072e+001 
3818750000  -4.066568e+001  3.253563e+001 
3821875000  -4.038890e+001  4.233454e+001 
3825000000  -3.833486e+001  3.739306e+001 
3828125000  -3.696884e+001  1.983654e+001 
3831250000  -3.804155e+001  5.810618e+000 
3834375000  -4.042453e+001  4.221500e+000 
3837500000  -4.031823e+001  7.675529e+000 
3840625000  -3.928067e+001  5.343873e+000 
3843750000  -3.814777e+001  -9.313403e+000 
3846875000  -3.968514e+001  -1.598652e+001 
3850000000  -4.089899e+001  -9.775652e+000 
3853125000  -4.008827e+001  -9.036289e+000 
3856250000  -3.948878e+001  -1.798123e+001 
3859375000  -3.884040e+001  -2.539391e+001 
3862500000  -3.869852e+001  -3.542593e+001 
3865625000  -3.905092e+001  -4.053648e+001 
3868750000  -3.865918e+001  -4.027045e+001 
3871875000  -3.798698e+001  -4.643597e+001 
3875000000  -3.869081e+001  -5.787955e+001 
3878125000  -3.940115e+001  -5.952795e+001 
3881250000  -3.946967e+001  -5.848024e+001 
3884375000  -3.896898e+001  -6.636813e+001 
3887500000  -3.911312e+001  -7.189066e+001 
3890625000  -3.956897e+001  -7.810204e+001 
3893750000  -3.970990e+001  -7.888483e+001 
3896875000  -3.998834e+001  -8.150594e+001 
3900000000  -3.987996e+001  -8.567199e+001 
3903125000  -3.909795e+001  -9.142517e+001 
3906250000  -3.904862e+001  -9.450487e+001 
3909375000  -3.839633e+001  -1.025972e+002 
3912500000  -3.901661e+001  -1.120940e+002 
3915625000  -4.042076e+001  -1.117279e+002 
3918750000  -4.003913e+001  -1.135032e+002 
3921875000  -3.962408e+001  -1.169144e+002 
3925000000  -3.848565e+001  -1.237279e+002 
3928125000  -3.825790e+001  -1.319671e+002 
3931250000  -3.891825e+001  -1.389382e+002 
3934375000  -3.962784e+001  -1.418555e+002 
3937500000  -4.011672e+001  -1.430082e+002 
3940625000  -4.011124e+001  -1.449382e+002 
3943750000  -3.906250e+001  -1.495471e+002 
3946875000  -3.844891e+001  -1.578622e+002 
3950000000  -3.938915e+001  -1.662090e+002 
3953125000  -3.997814e+001  -1.645047e+002 
3956250000  -3.874088e+001  -1.642917e+002 
3959375000  -3.802787e+001  -1.699849e+002 
3962500000  -3.785453e+001  1.799622e+002 
3965625000  -3.780249e+001  1.709993e+002 
3968750000  -3.883427e+001  1.605502e+002 
3971875000  -3.887213e+001  1.585419e+002 
3975000000  -3.840656e+001  1.545589e+002 
3978125000  -3.873153e+001  1.501881e+002 
3981250000  -3.855331e+001  1.406195e+002 
3984375000  -3.910471e+001  1.350232e+002 
3987500000  -3.954836e+001  1.312641e+002 
3990625000  -4.018624e+001  1.306109e+002 
3993750000  -4.007381e+001  1.253123e+002 
3996875000  -4.008845e+001  1.207945e+002 
4000000000  -4.065303e+001  1.155856e+002 
4003125000  -4.099332e+001  1.159352e+002 
4006250000  -3.956807e+001  1.157236e+002 
4009375000  -3.877939e+001  1.027101e+002 
4012500000  -4.023104e+001  9.161259e+001 
4015625000  -4.165876e+001  9.410266e+001 
4018750000  -4.159097e+001  9.530667e+001 
4021875000  -4.097477e+001  8.953603e+001 
4025000000  -4.045671e+001  8.509899e+001 
4028125000  -4.073572e+001  7.862701e+001 
4031250000  -4.150420e+001  7.340654e+001 
4034375000  -4.140334e+001  7.347716e+001 
4037500000  -4.111261e+001  7.345517e+001 
4040625000  -4.096949e+001  6.911632e+001 
4043750000  -4.108895e+001  6.627367e+001 
4046875000  -4.089439e+001  6.280141e+001 
4050000000  -4.060536e+001  5.685275e+001 
4053125000  -4.145481e+001  5.363261e+001 
4056250000  -4.152996e+001  5.806739e+001 
4059375000  -3.936778e+001  5.782032e+001 
4062500000  -3.888475e+001  4.899067e+001 
4065625000  -3.886298e+001  4.265362e+001 
4068750000  -3.849705e+001  3.617702e+001 
4071875000  -3.780768e+001  2.531892e+001 
4075000000  -3.836399e+001  1.704741e+001 
4078125000  -3.881909e+001  1.573995e+001 
4081250000  -3.817739e+001  1.157563e+001 
4084375000  -3.796184e+001  1.587154e+000 
4087500000  -3.860909e+001  -7.070294e+000 
4090625000  -3.927594e+001  -5.592182e+000 
4093750000  -3.887204e+001  -9.676003e+000 
4096875000  -3.880424e+001  -1.878494e+001 
4100000000  -3.957885e+001  -2.788892e+001 
4103125000  -4.058346e+001  -2.719345e+001 
4106250000  -4.033938e+001  -2.203921e+001 
4109375000  -3.939307e+001  -2.488570e+001 
4112500000  -3.870163e+001  -3.424200e+001 
4115625000  -3.923545e+001  -4.208734e+001 
4118750000  -3.903949e+001  -4.717474e+001 
4121875000  -3.902019e+001  -5.262178e+001 
4125000000  -3.994445e+001  -6.041884e+001 
4128125000  -4.100634e+001  -5.911243e+001 
4131250000  -3.994147e+001  -5.361028e+001 
4134375000  -3.788119e+001  -6.193588e+001 
4137500000  -3.808524e+001  -8.317521e+001 
4140625000  -4.049202e+001  -9.092575e+001 
4143750000  -4.163484e+001  -8.273077e+001 
4146875000  -4.055404e+001  -7.917766e+001 
4150000000  -3.980929e+001  -8.814516e+001 
4153125000  -3.998256e+001  -9.567799e+001 
4156250000  -4.114227e+001  -9.934752e+001 
4159375000  -4.117323e+001  -9.356097e+001 
4162500000  -4.007639e+001  -9.224300e+001 
4165625000  -3.882050e+001  -1.006401e+002 
4168750000  -3.887244e+001  -1.083858e+002 
4171875000  -3.852413e+001  -1.196222e+002 
4175000000  -3.931449e+001  -1.258499e+002 
4178125000  -3.937813e+001  -1.271514e+002 
4181250000  -3.967799e+001  -1.307895e+002 
4184375000  -3.961294e+001  -1.350268e+002 
4187500000  -3.955289e+001  -1.391784e+002 
4190625000  -3.941963e+001  -1.475783e+002 
4193750000  -4.071232e+001  -1.531509e+002 
4196875000  -4.120764e+001  -1.536321e+002 
4200000000  -4.274976e+001  -1.490661e+002 
4203125000  -4.107424e+001  -1.362086e+002 
4206250000  -3.782693e+001  -1.426785e+002 
4209375000  -3.720479e+001  -1.687197e+002 
4212500000  -3.964762e+001  -1.745685e+002 
4215625000  -4.013779e+001  -1.688489e+002 
4218750000  -3.853156e+001  -1.657152e+002 
4221875000  -3.680431e+001  -1.770954e+002 
4225000000  -3.804339e+001  1.711909e+002 
4228125000  -3.784402e+001  1.726421e+002 
4231250000  -3.658385e+001  1.648400e+002 
4234375000  -3.664602e+001  1.543537e+002 
4237500000  -3.613913e+001  1.498985e+002 
4240625000  -3.647635e+001  1.374748e+002 
4243750000  -3.742161e+001  1.290805e+002 
4246875000  -3.841949e+001  1.289764e+002 
4250000000  -3.813075e+001  1.306333e+002 
4253125000  -3.821261e+001  1.263396e+002 
4256250000  -3.803473e+001  1.210641e+002 
4259375000  -3.787270e+001  1.137549e+002 
4262500000  -3.788931e+001  1.115350e+002 
4265625000  -3.794698e+001  1.109281e+002 
4268750000  -3.712888e+001  1.026606e+002 
4271875000  -3.689271e+001  9.084083e+001 
4275000000  -3.670683e+001  8.547149e+001 
4278125000  -3.761007e+001  7.167706e+001 
4281250000  -3.902811e+001  6.981528e+001 
4284375000  -3.895112e+001  6.790464e+001 
4287500000  -4.049846e+001  6.388823e+001 
4290625000  -4.073343e+001  7.173817e+001 
4293750000  -3.889068e+001  7.234674e+001 
4296875000  -3.771007e+001  6.118402e+001 
4300000000  -3.939354e+001  5.105075e+001 
4303125000  -3.960349e+001  5.496087e+001 
4306250000  -3.903241e+001  5.849011e+001 
4309375000  -3.807541e+001  5.131668e+001 
4312500000  -3.772257e+001  4.065370e+001 
4315625000  -3.799271e+001  3.228173e+001 
4318750000  -3.863760e+001  2.757162e+001 
4321875000  -3.859250e+001  2.980658e+001 
4325000000  -3.827484e+001  2.787024e+001 
4328125000  -3.743861e+001  1.744095e+001 
4331250000  -3.768177e+001  6.078993e+000 
4334375000  -3.869245e+001  9.569322e-001 
4337500000  -3.936934e+001  -1.889767e+000 
4340625000  -3.952053e+001  4.477136e+000 
4343750000  -3.849874e+001  7.452286e-001 
4346875000  -3.829783e+001  -7.260474e+000 
4350000000  -3.826323e+001  -1.624416e+001 
4353125000  -3.868686e+001  -2.317234e+001 
4356250000  -4.076812e+001  -1.966877e+001 
4359375000  -4.007409e+001  -5.408696e+000 
4362500000  -3.657054e+001  -1.253657e+001 
4365625000  -3.631389e+001  -3.158224e+001 
4368750000  -3.716307e+001  -4.140801e+001 
4371875000  -3.838284e+001  -4.281301e+001 
4375000000  -3.731462e+001  -4.414467e+001 
4378125000  -3.718241e+001  -5.247569e+001 
4381250000  -3.718426e+001  -6.031791e+001 
4384375000  -3.722691e+001  -6.669095e+001 
4387500000  -3.787963e+001  -7.077309e+001 
4390625000  -3.872723e+001  -7.284283e+001 
4393750000  -3.792888e+001  -7.225291e+001 
4396875000  -3.753813e+001  -7.785162e+001 
4400000000  -3.691637e+001  -8.791891e+001 
4403125000  -3.787275e+001  -9.646090e+001 
4406250000  -3.842192e+001  -9.951633e+001 
4409375000  -3.869598e+001  -1.045407e+002 
4412500000  -3.988908e+001  -1.078626e+002 
4415625000  -3.940352e+001  -1.033768e+002 
