!Agilent Technologies,E8363B,MY43030201,A.06.04.32
!Agilent E8363B: A.06.04.32
!Date: Tuesday, November 11, 2014 21:36:06
!Correction: S21(Response(S21)) 
!S1P File: Measurement: S21:
# Hz S  dB   R 50
3000000000  -4.056484e+001  7.110283e+001 
3003125000  -4.213546e+001  6.331152e+001 
3006250000  -4.237865e+001  6.213237e+001 
3009375000  -4.286959e+001  6.833343e+001 
3012500000  -4.145497e+001  6.219719e+001 
3015625000  -4.135627e+001  5.634478e+001 
3018750000  -4.188152e+001  5.722461e+001 
3021875000  -4.020475e+001  5.851019e+001 
3025000000  -3.881045e+001  5.371111e+001 
3028125000  -3.777550e+001  4.372882e+001 
3031250000  -3.697196e+001  3.106177e+001 
3034375000  -3.678925e+001  1.732344e+001 
3037500000  -3.757264e+001  6.957800e+000 
3040625000  -3.877508e+001  1.457596e+000 
3043750000  -3.923487e+001  -6.177835e+000 
3046875000  -3.987128e+001  -1.092751e+001 
3050000000  -4.095085e+001  -1.502659e+001 
3053125000  -4.042249e+001  -1.007475e+001 
3056250000  -4.061910e+001  -6.866405e+000 
3059375000  -3.988815e+001  -1.018857e+001 
3062500000  -3.828944e+001  -1.448497e+001 
3065625000  -3.789702e+001  -2.481239e+001 
3068750000  -3.762637e+001  -3.057730e+001 
3071875000  -3.753637e+001  -3.311190e+001 
3075000000  -3.697487e+001  -4.105938e+001 
3078125000  -3.703697e+001  -4.604091e+001 
3081250000  -3.705251e+001  -5.288438e+001 
3084375000  -3.636749e+001  -5.769414e+001 
3087500000  -3.642005e+001  -6.453309e+001 
3090625000  -3.598339e+001  -7.660796e+001 
3093750000  -3.687358e+001  -8.430344e+001 
3096875000  -3.742231e+001  -8.963672e+001 
3100000000  -3.729925e+001  -9.232182e+001 
3103125000  -3.751286e+001  -9.600367e+001 
3106250000  -3.713257e+001  -1.019961e+002 
3109375000  -3.726714e+001  -1.057873e+002 
3112500000  -3.721693e+001  -1.117436e+002 
3115625000  -3.713625e+001  -1.155603e+002 
3118750000  -3.717291e+001  -1.189520e+002 
3121875000  -3.647285e+001  -1.301495e+002 
3125000000  -3.850134e+001  -1.322231e+002 
3128125000  -3.843650e+001  -1.256321e+002 
3131250000  -3.605997e+001  -1.317724e+002 
3134375000  -3.527859e+001  -1.488668e+002 
3137500000  -3.606907e+001  -1.607404e+002 
3140625000  -3.726556e+001  -1.637683e+002 
3143750000  -3.817017e+001  -1.656947e+002 
3146875000  -3.756852e+001  -1.641500e+002 
3150000000  -3.678975e+001  -1.685881e+002 
3153125000  -3.713462e+001  -1.762917e+002 
3156250000  -3.784574e+001  -1.724507e+002 
3159375000  -3.554742e+001  -1.746605e+002 
3162500000  -3.419617e+001  1.698352e+002 
3165625000  -3.552840e+001  1.575753e+002 
3168750000  -3.537501e+001  1.561886e+002 
3171875000  -3.480822e+001  1.493149e+002 
3175000000  -3.544839e+001  1.395311e+002 
3178125000  -3.489790e+001  1.386785e+002 
3181250000  -3.446745e+001  1.296128e+002 
3184375000  -3.412487e+001  1.184728e+002 
3187500000  -3.542345e+001  1.039413e+002 
3190625000  -3.716473e+001  9.801977e+001 
3193750000  -3.750910e+001  1.023365e+002 
3196875000  -3.748275e+001  1.038726e+002 
3200000000  -3.620189e+001  9.887603e+001 
3203125000  -3.595587e+001  9.100547e+001 
3206250000  -3.608093e+001  8.382261e+001 
3209375000  -3.575658e+001  7.525301e+001 
3212500000  -3.609883e+001  6.844809e+001 
3215625000  -3.608867e+001  6.539204e+001 
3218750000  -3.691131e+001  5.355007e+001 
3221875000  -3.719902e+001  4.780053e+001 
3225000000  -3.703644e+001  4.388214e+001 
3228125000  -3.777134e+001  3.603852e+001 
3231250000  -3.814354e+001  3.474566e+001 
3234375000  -3.779184e+001  3.199206e+001 
3237500000  -3.802164e+001  2.745058e+001 
3240625000  -3.753261e+001  2.300110e+001 
3243750000  -3.769675e+001  1.288078e+001 
3246875000  -3.822324e+001  4.351145e+000 
3250000000  -3.870099e+001  1.048105e+000 
3253125000  -3.916479e+001  -1.975097e+000 
3256250000  -3.844731e+001  -1.060735e+001 
3259375000  -3.918203e+001  -2.165859e+001 
3262500000  -4.058295e+001  -2.467931e+001 
3265625000  -4.124004e+001  -2.284790e+001 
3268750000  -4.110910e+001  -2.095862e+001 
3271875000  -4.049154e+001  -2.513599e+001 
3275000000  -4.014273e+001  -3.493118e+001 
3278125000  -4.084049e+001  -3.877083e+001 
3281250000  -4.107451e+001  -4.014068e+001 
3284375000  -4.066192e+001  -4.428350e+001 
3287500000  -4.086652e+001  -4.895649e+001 
3290625000  -4.114914e+001  -5.764238e+001 
3293750000  -4.121180e+001  -6.334186e+001 
3296875000  -4.246057e+001  -6.305054e+001 
3300000000  -4.167681e+001  -6.456006e+001 
3303125000  -4.103336e+001  -7.028763e+001 
3306250000  -4.059980e+001  -7.815470e+001 
3309375000  -4.055924e+001  -8.587659e+001 
3312500000  -4.094013e+001  -9.763174e+001 
3315625000  -4.232444e+001  -1.032367e+002 
3318750000  -4.360094e+001  -1.066462e+002 
3321875000  -4.527523e+001  -1.062644e+002 
3325000000  -4.458799e+001  -1.003617e+002 
3328125000  -4.351149e+001  -1.008295e+002 
3331250000  -4.222396e+001  -9.712062e+001 
3334375000  -3.985663e+001  -1.115684e+002 
3337500000  -4.029007e+001  -1.320237e+002 
3340625000  -4.197904e+001  -1.421626e+002 
3343750000  -4.400400e+001  -1.407148e+002 
3346875000  -4.331204e+001  -1.406406e+002 
3350000000  -4.307616e+001  -1.447468e+002 
3353125000  -4.270055e+001  -1.519566e+002 
3356250000  -4.252382e+001  -1.602821e+002 
3359375000  -4.381486e+001  -1.719672e+002 
3362500000  -4.412075e+001  -1.750788e+002 
3365625000  -4.464240e+001  1.793539e+002 
3368750000  -4.519041e+001  1.750441e+002 
3371875000  -4.567019e+001  1.724510e+002 
3375000000  -4.748329e+001  1.666775e+002 
3378125000  -4.807034e+001  1.653822e+002 
3381250000  -4.921416e+001  1.784728e+002 
3384375000  -4.648541e+001  -1.693796e+002 
3387500000  -4.393235e+001  1.687804e+002 
3390625000  -4.649866e+001  1.498907e+002 
3393750000  -4.754237e+001  1.502423e+002 
3396875000  -4.624252e+001  1.506801e+002 
3400000000  -4.627230e+001  1.385230e+002 
3403125000  -4.691817e+001  1.341969e+002 
3406250000  -4.760294e+001  1.327287e+002 
3409375000  -4.834198e+001  1.223838e+002 
3412500000  -4.912113e+001  1.177233e+002 
3415625000  -4.987387e+001  1.161087e+002 
3418750000  -5.019734e+001  1.181482e+002 
3421875000  -5.108771e+001  1.161799e+002 
3425000000  -4.996897e+001  1.174552e+002 
3428125000  -4.956793e+001  1.126645e+002 
3431250000  -4.962888e+001  1.053923e+002 
3434375000  -5.029836e+001  1.054488e+002 
3437500000  -5.107076e+001  9.928642e+001 
3440625000  -5.189367e+001  1.048515e+002 
3443750000  -5.008649e+001  1.059640e+002 
3446875000  -5.093686e+001  9.865488e+001 
3450000000  -4.983962e+001  8.649689e+001 
3453125000  -5.085538e+001  7.385320e+001 
3456250000  -5.197660e+001  7.619820e+001 
3459375000  -5.389742e+001  8.253857e+001 
3462500000  -5.271938e+001  8.773799e+001 
3465625000  -5.100959e+001  7.956149e+001 
3468750000  -5.237096e+001  7.578532e+001 
3471875000  -5.151685e+001  7.828673e+001 
3475000000  -5.088418e+001  6.938507e+001 
3478125000  -5.075391e+001  5.917007e+001 
3481250000  -5.208660e+001  6.780747e+001 
3484375000  -5.239968e+001  6.501109e+001 
3487500000  -5.149984e+001  6.078191e+001 
3490625000  -5.040624e+001  5.494170e+001 
3493750000  -5.070830e+001  4.974198e+001 
3496875000  -5.157944e+001  4.500867e+001 
3500000000  -5.226559e+001  4.998930e+001 
3503125000  -5.123553e+001  4.616680e+001 
3506250000  -4.908001e+001  3.512448e+001 
3509375000  -4.940483e+001  2.602203e+001 
3512500000  -5.038374e+001  1.371686e+001 
3515625000  -5.067182e+001  7.458672e+000 
3518750000  -5.240594e+001  6.763667e+000 
3521875000  -5.145364e+001  3.383424e+000 
3525000000  -5.360729e+001  -4.378128e+000 
3528125000  -5.266169e+001  7.014842e+000 
3531250000  -5.212018e+001  -2.043672e+000 
3534375000  -5.339016e+001  -1.880362e+001 
3537500000  -5.423550e+001  -2.968147e+001 
3540625000  -5.478638e+001  -2.021969e+001 
3543750000  -5.411145e+001  -1.667573e+001 
3546875000  -5.512572e+001  -1.307788e+001 
3550000000  -5.356901e+001  -2.107295e+001 
3553125000  -5.410839e+001  -3.316094e+001 
3556250000  -5.546523e+001  -3.123357e+001 
3559375000  -5.587448e+001  -3.528997e+001 
3562500000  -5.606483e+001  -5.388678e+001 
3565625000  -5.559708e+001  -5.434610e+001 
3568750000  -5.861020e+001  -4.321404e+001 
3571875000  -5.802478e+001  -4.147809e+001 
3575000000  -5.748408e+001  -4.031761e+001 
3578125000  -5.800865e+001  -5.232888e+001 
3581250000  -5.693475e+001  -3.811208e+001 
3584375000  -5.730191e+001  -3.606764e+001 
3587500000  -5.629084e+001  -4.015688e+001 
3590625000  -5.837280e+001  -6.802406e+001 
3593750000  -6.020901e+001  -3.823117e+001 
3596875000  -5.978606e+001  -4.361502e+001 
3600000000  -5.782688e+001  -4.968062e+001 
3603125000  -5.788636e+001  -5.198062e+001 
3606250000  -5.846998e+001  -5.821881e+001 
3609375000  -5.743291e+001  -5.046468e+001 
3612500000  -5.759744e+001  -4.408325e+001 
3615625000  -5.813802e+001  -5.788095e+001 
3618750000  -5.883411e+001  -4.538102e+001 
3621875000  -5.759589e+001  -4.905416e+001 
3625000000  -5.781897e+001  -5.355730e+001 
3628125000  -5.627631e+001  -4.463885e+001 
3631250000  -5.575557e+001  -4.784677e+001 
3634375000  -5.601093e+001  -5.263231e+001 
3637500000  -5.647938e+001  -4.029002e+001 
3640625000  -5.466810e+001  -3.538020e+001 
3643750000  -5.324986e+001  -5.235068e+001 
3646875000  -5.242231e+001  -5.575214e+001 
3650000000  -5.322982e+001  -5.653930e+001 
3653125000  -5.131829e+001  -6.406715e+001 
3656250000  -5.265483e+001  -6.267953e+001 
3659375000  -5.174790e+001  -6.441610e+001 
3662500000  -5.023100e+001  -7.335136e+001 
3665625000  -4.972715e+001  -7.620695e+001 
3668750000  -4.787619e+001  -7.492339e+001 
3671875000  -4.775108e+001  -8.501157e+001 
3675000000  -4.782351e+001  -9.626804e+001 
3678125000  -4.724861e+001  -9.520483e+001 
3681250000  -4.664806e+001  -1.046006e+002 
3684375000  -4.722703e+001  -1.059638e+002 
3687500000  -4.660978e+001  -1.165047e+002 
3690625000  -4.634080e+001  -1.198883e+002 
3693750000  -4.679668e+001  -1.194698e+002 
3696875000  -4.613051e+001  -1.209518e+002 
3700000000  -4.495439e+001  -1.263209e+002 
3703125000  -4.570580e+001  -1.337714e+002 
3706250000  -4.578606e+001  -1.341962e+002 
3709375000  -4.490768e+001  -1.337071e+002 
3712500000  -4.362651e+001  -1.382556e+002 
3715625000  -4.215557e+001  -1.458902e+002 
3718750000  -4.174317e+001  -1.565281e+002 
3721875000  -4.119775e+001  -1.647409e+002 
3725000000  -4.172148e+001  -1.692278e+002 
3728125000  -4.136349e+001  -1.748873e+002 
3731250000  -4.061877e+001  1.780235e+002 
3734375000  -4.012869e+001  1.740344e+002 
3737500000  -4.089380e+001  1.621001e+002 
3740625000  -4.128045e+001  1.558899e+002 
3743750000  -4.073727e+001  1.504768e+002 
3746875000  -4.087195e+001  1.442105e+002 
3750000000  -4.089952e+001  1.377515e+002 
3753125000  -4.049685e+001  1.366903e+002 
3756250000  -4.065375e+001  1.319707e+002 
3759375000  -4.034174e+001  1.274520e+002 
3762500000  -4.041370e+001  1.206172e+002 
3765625000  -4.101819e+001  1.163301e+002 
3768750000  -4.006235e+001  1.154449e+002 
3771875000  -3.852097e+001  1.090561e+002 
3775000000  -3.850299e+001  9.737076e+001 
3778125000  -3.908862e+001  9.138379e+001 
3781250000  -3.906531e+001  8.730797e+001 
3784375000  -3.878111e+001  8.109649e+001 
3787500000  -3.846780e+001  7.508486e+001 
3790625000  -3.906877e+001  6.726274e+001 
3793750000  -3.910941e+001  6.324761e+001 
3796875000  -3.816286e+001  5.760946e+001 
3800000000  -3.641308e+001  5.386335e+001 
3803125000  -3.810326e+001  3.963929e+001 
3806250000  -3.883376e+001  3.634684e+001 
3809375000  -3.850265e+001  3.278347e+001 
3812500000  -3.836699e+001  2.232114e+001 
3815625000  -3.940550e+001  1.353126e+001 
3818750000  -4.105844e+001  1.409927e+001 
3821875000  -4.021424e+001  2.652530e+001 
3825000000  -3.810340e+001  1.973669e+001 
3828125000  -3.688700e+001  7.487201e-001 
3831250000  -3.817220e+001  -1.329892e+001 
3834375000  -4.047950e+001  -1.290134e+001 
3837500000  -4.047166e+001  -1.030689e+001 
3840625000  -3.904296e+001  -1.275019e+001 
3843750000  -3.835323e+001  -2.616957e+001 
3846875000  -3.951975e+001  -3.334631e+001 
3850000000  -4.108587e+001  -2.684507e+001 
3853125000  -3.984949e+001  -2.874942e+001 
3856250000  -3.928673e+001  -3.432882e+001 
3859375000  -3.865826e+001  -4.202342e+001 
3862500000  -3.853072e+001  -5.474370e+001 
3865625000  -3.907078e+001  -5.927576e+001 
3868750000  -3.864378e+001  -5.743996e+001 
3871875000  -3.788571e+001  -6.576654e+001 
3875000000  -3.861924e+001  -7.565364e+001 
3878125000  -3.963870e+001  -7.843243e+001 
3881250000  -3.918614e+001  -7.757922e+001 
3884375000  -3.870851e+001  -8.574670e+001 
3887500000  -3.918941e+001  -9.061095e+001 
3890625000  -3.962568e+001  -9.654881e+001 
3893750000  -3.967305e+001  -9.974713e+001 
3896875000  -4.007906e+001  -1.017109e+002 
3900000000  -3.960066e+001  -1.043510e+002 
3903125000  -3.912275e+001  -1.102557e+002 
3906250000  -3.918816e+001  -1.134692e+002 
3909375000  -3.828465e+001  -1.219438e+002 
3912500000  -3.909218e+001  -1.319966e+002 
3915625000  -4.041273e+001  -1.314829e+002 
3918750000  -4.021518e+001  -1.309198e+002 
3921875000  -3.918293e+001  -1.363307e+002 
3925000000  -3.875917e+001  -1.409770e+002 
3928125000  -3.825223e+001  -1.529613e+002 
3931250000  -3.903379e+001  -1.575181e+002 
3934375000  -3.951509e+001  -1.590166e+002 
3937500000  -4.004657e+001  -1.624381e+002 
3940625000  -4.004277e+001  -1.635352e+002 
3943750000  -3.872661e+001  -1.675999e+002 
3946875000  -3.843523e+001  -1.756239e+002 
3950000000  -3.944848e+001  1.754055e+002 
3953125000  -4.009743e+001  1.772154e+002 
3956250000  -3.895106e+001  1.768882e+002 
3959375000  -3.776224e+001  1.706259e+002 
3962500000  -3.756796e+001  1.590042e+002 
3965625000  -3.782322e+001  1.506309e+002 
3968750000  -3.869713e+001  1.434100e+002 
3971875000  -3.861914e+001  1.394941e+002 
3975000000  -3.825868e+001  1.359653e+002 
3978125000  -3.851699e+001  1.300283e+002 
3981250000  -3.845630e+001  1.246863e+002 
3984375000  -3.920765e+001  1.157918e+002 
3987500000  -3.963071e+001  1.132802e+002 
3990625000  -3.962324e+001  1.100879e+002 
3993750000  -3.980950e+001  1.054137e+002 
3996875000  -3.981250e+001  1.015799e+002 
4000000000  -4.062341e+001  9.841222e+001 
4003125000  -4.099457e+001  9.779182e+001 
4006250000  -3.941127e+001  9.484175e+001 
4009375000  -3.860212e+001  8.149871e+001 
4012500000  -4.032595e+001  7.439268e+001 
4015625000  -4.155264e+001  7.279786e+001 
4018750000  -4.131128e+001  7.515861e+001 
4021875000  -4.067183e+001  6.949547e+001 
4025000000  -4.033944e+001  6.520052e+001 
4028125000  -4.041295e+001  5.802069e+001 
4031250000  -4.144247e+001  5.480598e+001 
4034375000  -4.135622e+001  5.385071e+001 
4037500000  -4.088461e+001  5.494278e+001 
4040625000  -4.093500e+001  4.885438e+001 
4043750000  -4.123661e+001  4.606449e+001 
4046875000  -4.062159e+001  4.332082e+001 
4050000000  -4.059259e+001  3.744010e+001 
4053125000  -4.143731e+001  3.528658e+001 
4056250000  -4.137132e+001  3.922674e+001 
4059375000  -3.953793e+001  3.636706e+001 
4062500000  -3.870947e+001  2.833776e+001 
4065625000  -3.885026e+001  2.253571e+001 
4068750000  -3.847506e+001  1.449412e+001 
4071875000  -3.798367e+001  6.850821e+000 
4075000000  -3.844175e+001  -2.733957e+000 
4078125000  -3.864248e+001  -3.419554e+000 
4081250000  -3.832896e+001  -8.197484e+000 
4084375000  -3.811294e+001  -1.878813e+001 
4087500000  -3.859415e+001  -2.615665e+001 
4090625000  -3.924907e+001  -2.742404e+001 
4093750000  -3.875222e+001  -2.989290e+001 
4096875000  -3.854882e+001  -4.144932e+001 
4100000000  -3.944599e+001  -4.773753e+001 
4103125000  -4.112398e+001  -4.381474e+001 
4106250000  -3.994681e+001  -4.207915e+001 
4109375000  -3.934561e+001  -4.519953e+001 
4112500000  -3.858853e+001  -5.457992e+001 
4115625000  -3.942184e+001  -6.155802e+001 
4118750000  -3.890891e+001  -6.684124e+001 
4121875000  -3.894555e+001  -7.513422e+001 
4125000000  -3.992309e+001  -8.196615e+001 
4128125000  -4.095647e+001  -7.813403e+001 
4131250000  -3.957339e+001  -7.204131e+001 
4134375000  -3.753060e+001  -8.246387e+001 
4137500000  -3.810937e+001  -1.043426e+002 
4140625000  -4.034105e+001  -1.100095e+002 
4143750000  -4.164267e+001  -1.016738e+002 
4146875000  -4.056559e+001  -1.003663e+002 
4150000000  -3.972493e+001  -1.074516e+002 
4153125000  -4.010215e+001  -1.170755e+002 
4156250000  -4.143298e+001  -1.215600e+002 
4159375000  -4.108395e+001  -1.122062e+002 
4162500000  -3.998976e+001  -1.110023e+002 
4165625000  -3.893782e+001  -1.207984e+002 
4168750000  -3.842004e+001  -1.296640e+002 
4171875000  -3.816357e+001  -1.412999e+002 
4175000000  -3.916726e+001  -1.464925e+002 
4178125000  -3.947716e+001  -1.463464e+002 
4181250000  -3.933288e+001  -1.523018e+002 
4184375000  -3.972898e+001  -1.555065e+002 
4187500000  -3.959582e+001  -1.619182e+002 
4190625000  -3.962863e+001  -1.681073e+002 
4193750000  -4.066621e+001  -1.718376e+002 
4196875000  -4.119725e+001  -1.722205e+002 
4200000000  -4.236501e+001  -1.667469e+002 
4203125000  -4.116200e+001  -1.557577e+002 
4206250000  -3.765247e+001  -1.644215e+002 
4209375000  -3.719678e+001  1.718613e+002 
4212500000  -3.966260e+001  1.622923e+002 
4215625000  -4.007548e+001  1.736297e+002 
4218750000  -3.838989e+001  1.746582e+002 
4221875000  -3.671904e+001  1.635063e+002 
4225000000  -3.772778e+001  1.503479e+002 
4228125000  -3.773492e+001  1.528064e+002 
4231250000  -3.606529e+001  1.454324e+002 
4234375000  -3.637196e+001  1.349131e+002 
4237500000  -3.629302e+001  1.284865e+002 
4240625000  -3.646996e+001  1.160675e+002 
4243750000  -3.744226e+001  1.099446e+002 
4246875000  -3.846078e+001  1.078886e+002 
4250000000  -3.812074e+001  1.095330e+002 
4253125000  -3.824996e+001  1.054436e+002 
4256250000  -3.785677e+001  1.005463e+002 
4259375000  -3.780302e+001  9.404130e+001 
4262500000  -3.798927e+001  8.949038e+001 
4265625000  -3.794542e+001  8.851951e+001 
4268750000  -3.691721e+001  8.066895e+001 
4271875000  -3.696182e+001  7.133804e+001 
4275000000  -3.672512e+001  6.305309e+001 
4278125000  -3.762462e+001  5.054359e+001 
4281250000  -3.908797e+001  5.127015e+001 
4284375000  -3.883490e+001  4.597591e+001 
4287500000  -4.065111e+001  4.550079e+001 
4290625000  -4.062526e+001  5.276758e+001 
4293750000  -3.845580e+001  5.413728e+001 
4296875000  -3.768721e+001  4.040345e+001 
4300000000  -3.937505e+001  3.201102e+001 
4303125000  -3.988365e+001  3.379475e+001 
4306250000  -3.853426e+001  3.574039e+001 
4309375000  -3.782358e+001  2.895626e+001 
4312500000  -3.763066e+001  1.920141e+001 
4315625000  -3.791553e+001  9.998042e+000 
4318750000  -3.857833e+001  7.299275e+000 
4321875000  -3.858501e+001  7.947977e+000 
4325000000  -3.805699e+001  5.268290e+000 
4328125000  -3.727145e+001  -3.957655e+000 
4331250000  -3.751841e+001  -1.385442e+001 
4334375000  -3.834171e+001  -2.133018e+001 
4337500000  -3.950704e+001  -2.235502e+001 
4340625000  -3.958790e+001  -1.659015e+001 
4343750000  -3.838142e+001  -2.042164e+001 
4346875000  -3.825254e+001  -3.089127e+001 
4350000000  -3.863907e+001  -3.761130e+001 
4353125000  -3.919912e+001  -4.265569e+001 
4356250000  -4.150169e+001  -3.819630e+001 
4359375000  -3.980473e+001  -2.667216e+001 
4362500000  -3.657183e+001  -3.583416e+001 
4365625000  -3.609888e+001  -5.334123e+001 
4368750000  -3.727650e+001  -6.213510e+001 
4371875000  -3.793277e+001  -6.281464e+001 
4375000000  -3.724235e+001  -6.713061e+001 
4378125000  -3.688886e+001  -7.392720e+001 
4381250000  -3.706508e+001  -8.211030e+001 
4384375000  -3.722170e+001  -8.837256e+001 
4387500000  -3.831952e+001  -9.365949e+001 
4390625000  -3.846231e+001  -9.477327e+001 
4393750000  -3.795082e+001  -9.439537e+001 
4396875000  -3.734187e+001  -9.979814e+001 
4400000000  -3.693539e+001  -1.095285e+002 
4403125000  -3.793969e+001  -1.172260e+002 
4406250000  -3.826053e+001  -1.227639e+002 
4409375000  -3.877760e+001  -1.259367e+002 
4412500000  -3.960098e+001  -1.271904e+002 
4415625000  -3.933320e+001  -1.229529e+002 
