!Agilent Technologies,E8363B,MY43030201,A.06.04.32
!Agilent E8363B: A.06.04.32
!Date: Tuesday, November 11, 2014 21:35:37
!Correction: S21(Response(S21)) 
!S1P File: Measurement: S21:
# Hz S  dB   R 50
3000000000  -4.062128e+001  7.187595e+001 
3003125000  -4.225106e+001  6.400883e+001 
3006250000  -4.214766e+001  6.210555e+001 
3009375000  -4.282303e+001  6.937305e+001 
3012500000  -4.133647e+001  6.382470e+001 
3015625000  -4.149120e+001  5.731132e+001 
3018750000  -4.182038e+001  5.852299e+001 
3021875000  -4.027759e+001  5.847456e+001 
3025000000  -3.889615e+001  5.511888e+001 
3028125000  -3.793848e+001  4.439958e+001 
3031250000  -3.688732e+001  3.163789e+001 
3034375000  -3.686815e+001  1.884881e+001 
3037500000  -3.769317e+001  7.101902e+000 
3040625000  -3.883172e+001  1.949819e+000 
3043750000  -3.914576e+001  -4.122594e+000 
3046875000  -3.966227e+001  -1.004264e+001 
3050000000  -4.082108e+001  -1.419491e+001 
3053125000  -4.059094e+001  -9.099221e+000 
3056250000  -4.048240e+001  -5.659605e+000 
3059375000  -3.974717e+001  -1.009745e+001 
3062500000  -3.833529e+001  -1.407936e+001 
3065625000  -3.777729e+001  -2.359930e+001 
3068750000  -3.753538e+001  -3.134452e+001 
3071875000  -3.759510e+001  -3.335560e+001 
3075000000  -3.701646e+001  -4.080796e+001 
3078125000  -3.708343e+001  -4.648099e+001 
3081250000  -3.722260e+001  -5.296870e+001 
3084375000  -3.641310e+001  -5.762973e+001 
3087500000  -3.647617e+001  -6.389520e+001 
3090625000  -3.594190e+001  -7.693360e+001 
3093750000  -3.710292e+001  -8.428078e+001 
3096875000  -3.741750e+001  -8.964942e+001 
3100000000  -3.717588e+001  -9.257875e+001 
3103125000  -3.753717e+001  -9.622713e+001 
3106250000  -3.711689e+001  -1.015477e+002 
3109375000  -3.725268e+001  -1.058615e+002 
3112500000  -3.713393e+001  -1.111862e+002 
3115625000  -3.720156e+001  -1.148035e+002 
3118750000  -3.715925e+001  -1.186936e+002 
3121875000  -3.659372e+001  -1.299771e+002 
3125000000  -3.878171e+001  -1.332070e+002 
3128125000  -3.859290e+001  -1.251668e+002 
3131250000  -3.607869e+001  -1.311193e+002 
3134375000  -3.539893e+001  -1.493325e+002 
3137500000  -3.615467e+001  -1.605936e+002 
3140625000  -3.738295e+001  -1.634725e+002 
3143750000  -3.818467e+001  -1.656255e+002 
3146875000  -3.760625e+001  -1.636793e+002 
3150000000  -3.682762e+001  -1.673548e+002 
3153125000  -3.717862e+001  -1.765180e+002 
3156250000  -3.795546e+001  -1.718408e+002 
3159375000  -3.562030e+001  -1.738274e+002 
3162500000  -3.421654e+001  1.714703e+002 
3165625000  -3.545531e+001  1.583276e+002 
3168750000  -3.538110e+001  1.574313e+002 
3171875000  -3.483382e+001  1.489399e+002 
3175000000  -3.547652e+001  1.407545e+002 
3178125000  -3.494548e+001  1.389484e+002 
3181250000  -3.439160e+001  1.307387e+002 
3184375000  -3.424376e+001  1.194057e+002 
3187500000  -3.545592e+001  1.046828e+002 
3190625000  -3.729119e+001  9.808395e+001 
3193750000  -3.741003e+001  1.037754e+002 
3196875000  -3.738855e+001  1.040535e+002 
3200000000  -3.616019e+001  9.961340e+001 
3203125000  -3.585832e+001  9.094843e+001 
3206250000  -3.618395e+001  8.316035e+001 
3209375000  -3.587252e+001  7.565702e+001 
3212500000  -3.632739e+001  6.875665e+001 
3215625000  -3.599949e+001  6.495058e+001 
3218750000  -3.694418e+001  5.460247e+001 
3221875000  -3.729728e+001  4.893617e+001 
3225000000  -3.700197e+001  4.509216e+001 
3228125000  -3.765323e+001  3.695106e+001 
3231250000  -3.814507e+001  3.493688e+001 
3234375000  -3.781517e+001  3.170697e+001 
3237500000  -3.810873e+001  2.728980e+001 
3240625000  -3.744217e+001  2.194862e+001 
3243750000  -3.756820e+001  1.336454e+001 
3246875000  -3.818859e+001  4.202271e+000 
3250000000  -3.866010e+001  2.081973e+000 
3253125000  -3.895841e+001  -2.121691e+000 
3256250000  -3.846290e+001  -9.560077e+000 
3259375000  -3.918879e+001  -2.146357e+001 
3262500000  -4.068966e+001  -2.492601e+001 
3265625000  -4.103203e+001  -2.029325e+001 
3268750000  -4.089574e+001  -1.985769e+001 
3271875000  -4.058773e+001  -2.390352e+001 
3275000000  -4.007229e+001  -3.252206e+001 
3278125000  -4.080262e+001  -3.738076e+001 
3281250000  -4.103809e+001  -3.994374e+001 
3284375000  -4.060538e+001  -4.496362e+001 
3287500000  -4.090907e+001  -4.805206e+001 
3290625000  -4.124800e+001  -5.747863e+001 
3293750000  -4.145681e+001  -6.258059e+001 
3296875000  -4.227786e+001  -6.355518e+001 
3300000000  -4.174599e+001  -6.360842e+001 
3303125000  -4.093369e+001  -7.089031e+001 
3306250000  -4.067797e+001  -7.788554e+001 
3309375000  -4.057607e+001  -8.550105e+001 
3312500000  -4.082270e+001  -9.693888e+001 
3315625000  -4.225565e+001  -1.048981e+002 
3318750000  -4.364410e+001  -1.107475e+002 
3321875000  -4.489113e+001  -1.064126e+002 
3325000000  -4.471504e+001  -9.608040e+001 
3328125000  -4.409539e+001  -9.695888e+001 
3331250000  -4.204165e+001  -9.681134e+001 
3334375000  -3.981316e+001  -1.102794e+002 
3337500000  -4.040453e+001  -1.325548e+002 
3340625000  -4.221325e+001  -1.414439e+002 
3343750000  -4.409565e+001  -1.398636e+002 
3346875000  -4.331105e+001  -1.413445e+002 
3350000000  -4.294387e+001  -1.434528e+002 
3353125000  -4.289342e+001  -1.526092e+002 
3356250000  -4.265556e+001  -1.594666e+002 
3359375000  -4.374625e+001  -1.717141e+002 
3362500000  -4.419036e+001  -1.772566e+002 
3365625000  -4.469716e+001  -1.799905e+002 
3368750000  -4.523294e+001  1.762045e+002 
3371875000  -4.572824e+001  1.733876e+002 
3375000000  -4.692414e+001  1.653640e+002 
3378125000  -4.835632e+001  1.680327e+002 
3381250000  -5.000584e+001  -1.774267e+002 
3384375000  -4.646978e+001  -1.677174e+002 
3387500000  -4.373921e+001  1.726120e+002 
3390625000  -4.580157e+001  1.509534e+002 
3393750000  -4.685368e+001  1.523457e+002 
3396875000  -4.609717e+001  1.501322e+002 
3400000000  -4.611190e+001  1.407817e+002 
3403125000  -4.666481e+001  1.331646e+002 
3406250000  -4.808374e+001  1.291737e+002 
3409375000  -4.794378e+001  1.223612e+002 
3412500000  -4.927415e+001  1.169784e+002 
3415625000  -4.984208e+001  1.145159e+002 
3418750000  -5.030711e+001  1.210410e+002 
3421875000  -5.135997e+001  1.201900e+002 
3425000000  -5.031444e+001  1.201273e+002 
3428125000  -4.952510e+001  1.131774e+002 
3431250000  -4.961477e+001  1.053357e+002 
3434375000  -5.064193e+001  1.045775e+002 
3437500000  -5.084900e+001  1.016221e+002 
3440625000  -5.133731e+001  1.025360e+002 
3443750000  -5.082563e+001  1.075957e+002 
3446875000  -5.079336e+001  1.008459e+002 
3450000000  -5.012680e+001  8.714538e+001 
3453125000  -5.086828e+001  8.263871e+001 
3456250000  -5.166784e+001  7.913289e+001 
3459375000  -5.360619e+001  8.049535e+001 
3462500000  -5.246180e+001  8.546365e+001 
3465625000  -5.182618e+001  8.148398e+001 
3468750000  -5.197579e+001  7.762320e+001 
3471875000  -5.170807e+001  7.626501e+001 
3475000000  -5.075198e+001  7.151164e+001 
3478125000  -5.117537e+001  6.010770e+001 
3481250000  -5.228198e+001  6.233254e+001 
3484375000  -5.175228e+001  6.729002e+001 
3487500000  -5.192607e+001  6.237678e+001 
3490625000  -5.087319e+001  4.954133e+001 
3493750000  -5.179940e+001  4.036562e+001 
3496875000  -5.160007e+001  4.730288e+001 
3500000000  -5.216465e+001  5.365146e+001 
3503125000  -5.087799e+001  4.492031e+001 
3506250000  -4.936877e+001  3.809423e+001 
3509375000  -4.996819e+001  2.834424e+001 
3512500000  -5.056223e+001  1.386174e+001 
3515625000  -5.161572e+001  6.471520e+000 
3518750000  -5.202642e+001  1.053546e+001 
3521875000  -5.208068e+001  1.875776e+000 
3525000000  -5.353893e+001  -4.858018e-001 
3528125000  -5.191479e+001  2.676504e+000 
3531250000  -5.124572e+001  -4.825988e-001 
3534375000  -5.272904e+001  -1.569348e+001 
3537500000  -5.369326e+001  -2.751947e+001 
3540625000  -5.433719e+001  -3.005989e+001 
3543750000  -5.691592e+001  -1.631287e+001 
3546875000  -5.608805e+001  -1.439537e+001 
3550000000  -5.415104e+001  -2.268957e+001 
3553125000  -5.316073e+001  -4.042051e+001 
3556250000  -5.537107e+001  -2.963259e+001 
3559375000  -5.557065e+001  -3.867617e+001 
3562500000  -5.678103e+001  -4.367866e+001 
3565625000  -5.666739e+001  -5.257204e+001 
3568750000  -5.637638e+001  -2.606121e+001 
3571875000  -5.863306e+001  -3.822021e+001 
3575000000  -5.846528e+001  -4.848338e+001 
3578125000  -6.015649e+001  -5.261549e+001 
3581250000  -5.849052e+001  -3.571151e+001 
3584375000  -5.800522e+001  -4.213980e+001 
3587500000  -5.798641e+001  -2.988842e+001 
3590625000  -5.984843e+001  -6.800307e+001 
3593750000  -5.776741e+001  -4.355180e+001 
3596875000  -5.961557e+001  -3.499171e+001 
3600000000  -5.641106e+001  -4.121435e+001 
3603125000  -5.773159e+001  -6.478609e+001 
3606250000  -5.684903e+001  -4.511089e+001 
3609375000  -5.733113e+001  -5.553583e+001 
3612500000  -5.809617e+001  -5.428232e+001 
3615625000  -5.991974e+001  -6.434521e+001 
3618750000  -5.863410e+001  -4.510499e+001 
3621875000  -5.871471e+001  -4.830635e+001 
3625000000  -5.803404e+001  -4.434152e+001 
3628125000  -5.652963e+001  -3.522935e+001 
3631250000  -5.598387e+001  -4.965641e+001 
3634375000  -5.804895e+001  -3.947135e+001 
3637500000  -5.452139e+001  -4.792724e+001 
3640625000  -5.431811e+001  -3.951395e+001 
3643750000  -5.276514e+001  -5.080584e+001 
3646875000  -5.326418e+001  -5.467429e+001 
3650000000  -5.379919e+001  -6.150483e+001 
3653125000  -5.189003e+001  -6.627944e+001 
3656250000  -5.139789e+001  -6.467941e+001 
3659375000  -5.127265e+001  -6.586340e+001 
3662500000  -5.008229e+001  -6.978002e+001 
3665625000  -5.028537e+001  -6.935838e+001 
3668750000  -4.784007e+001  -7.841855e+001 
3671875000  -4.704203e+001  -8.778729e+001 
3675000000  -4.685965e+001  -9.473941e+001 
3678125000  -4.725840e+001  -9.618374e+001 
3681250000  -4.652300e+001  -1.019194e+002 
3684375000  -4.696213e+001  -1.068536e+002 
3687500000  -4.656269e+001  -1.153547e+002 
3690625000  -4.657856e+001  -1.189852e+002 
3693750000  -4.711630e+001  -1.191189e+002 
3696875000  -4.662096e+001  -1.205141e+002 
3700000000  -4.475445e+001  -1.261369e+002 
3703125000  -4.574592e+001  -1.339865e+002 
3706250000  -4.583994e+001  -1.336050e+002 
3709375000  -4.494016e+001  -1.339434e+002 
3712500000  -4.352605e+001  -1.378257e+002 
3715625000  -4.201509e+001  -1.479403e+002 
3718750000  -4.159180e+001  -1.539737e+002 
3721875000  -4.135065e+001  -1.639488e+002 
3725000000  -4.154213e+001  -1.701328e+002 
3728125000  -4.145410e+001  -1.753198e+002 
3731250000  -4.070898e+001  1.794120e+002 
3734375000  -4.017697e+001  1.739989e+002 
3737500000  -4.088272e+001  1.631379e+002 
3740625000  -4.099081e+001  1.574013e+002 
3743750000  -4.037774e+001  1.518637e+002 
3746875000  -4.050757e+001  1.440199e+002 
3750000000  -4.078940e+001  1.404548e+002 
3753125000  -4.060609e+001  1.366429e+002 
3756250000  -4.076307e+001  1.341539e+002 
3759375000  -4.065024e+001  1.264033e+002 
3762500000  -4.017456e+001  1.210613e+002 
3765625000  -4.080271e+001  1.173394e+002 
3768750000  -4.004331e+001  1.167609e+002 
3771875000  -3.841806e+001  1.088354e+002 
3775000000  -3.844372e+001  9.727554e+001 
3778125000  -3.894428e+001  9.134532e+001 
3781250000  -3.896996e+001  8.764890e+001 
3784375000  -3.888869e+001  8.074162e+001 
3787500000  -3.857925e+001  7.538276e+001 
3790625000  -3.910995e+001  6.667744e+001 
3793750000  -3.910973e+001  6.400151e+001 
3796875000  -3.827587e+001  5.822174e+001 
3800000000  -3.620736e+001  5.362561e+001 
3803125000  -3.811154e+001  4.138111e+001 
3806250000  -3.901020e+001  3.660241e+001 
3809375000  -3.848359e+001  3.327158e+001 
3812500000  -3.847421e+001  2.354562e+001 
3815625000  -3.965167e+001  1.296410e+001 
3818750000  -4.063225e+001  1.685277e+001 
3821875000  -4.040954e+001  2.511189e+001 
3825000000  -3.806435e+001  2.067879e+001 
3828125000  -3.702068e+001  2.986830e+000 
3831250000  -3.813944e+001  -1.324117e+001 
3834375000  -4.043518e+001  -1.217465e+001 
3837500000  -4.059277e+001  -9.565076e+000 
3840625000  -3.888036e+001  -1.174511e+001 
3843750000  -3.820381e+001  -2.626342e+001 
3846875000  -3.998940e+001  -3.300541e+001 
3850000000  -4.074520e+001  -2.609862e+001 
3853125000  -3.971439e+001  -2.548641e+001 
3856250000  -3.944938e+001  -3.525188e+001 
3859375000  -3.845350e+001  -4.205145e+001 
3862500000  -3.840316e+001  -5.326157e+001 
3865625000  -3.906096e+001  -5.909616e+001 
3868750000  -3.846186e+001  -5.803515e+001 
3871875000  -3.785427e+001  -6.499826e+001 
3875000000  -3.852470e+001  -7.459812e+001 
3878125000  -3.934943e+001  -7.815041e+001 
3881250000  -3.920461e+001  -7.935174e+001 
3884375000  -3.874989e+001  -8.583180e+001 
3887500000  -3.894226e+001  -9.145395e+001 
3890625000  -3.944971e+001  -9.595985e+001 
3893750000  -3.982670e+001  -9.846078e+001 
3896875000  -4.032620e+001  -1.003016e+002 
3900000000  -4.002023e+001  -1.039681e+002 
3903125000  -3.940934e+001  -1.077069e+002 
3906250000  -3.896545e+001  -1.124208e+002 
3909375000  -3.829451e+001  -1.223682e+002 
3912500000  -3.921022e+001  -1.306463e+002 
3915625000  -4.028982e+001  -1.291428e+002 
3918750000  -4.010955e+001  -1.318088e+002 
3921875000  -3.894116e+001  -1.354649e+002 
3925000000  -3.854449e+001  -1.414509e+002 
3928125000  -3.826371e+001  -1.515136e+002 
3931250000  -3.880160e+001  -1.590369e+002 
3934375000  -3.964457e+001  -1.577665e+002 
3937500000  -3.998714e+001  -1.608995e+002 
3940625000  -3.987305e+001  -1.638517e+002 
3943750000  -3.902940e+001  -1.656755e+002 
3946875000  -3.844919e+001  -1.752345e+002 
3950000000  -3.943448e+001  1.760815e+002 
3953125000  -4.006033e+001  1.770044e+002 
3956250000  -3.882080e+001  1.770919e+002 
3959375000  -3.776870e+001  1.693929e+002 
3962500000  -3.769741e+001  1.611594e+002 
3965625000  -3.775794e+001  1.520931e+002 
3968750000  -3.880984e+001  1.455399e+002 
3971875000  -3.859259e+001  1.386610e+002 
3975000000  -3.839666e+001  1.341676e+002 
3978125000  -3.864009e+001  1.296725e+002 
3981250000  -3.866495e+001  1.240775e+002 
3984375000  -3.892828e+001  1.153663e+002 
3987500000  -3.955982e+001  1.134623e+002 
3990625000  -3.997844e+001  1.117508e+002 
3993750000  -4.026108e+001  1.068061e+002 
3996875000  -4.000983e+001  1.015229e+002 
4000000000  -4.031893e+001  9.687875e+001 
4003125000  -4.099849e+001  1.002829e+002 
4006250000  -3.940024e+001  9.462547e+001 
4009375000  -3.849858e+001  8.198213e+001 
4012500000  -4.021952e+001  7.612661e+001 
4015625000  -4.143417e+001  7.262674e+001 
4018750000  -4.142106e+001  7.481363e+001 
4021875000  -4.085821e+001  7.130878e+001 
4025000000  -4.040315e+001  6.652227e+001 
4028125000  -4.043925e+001  5.815150e+001 
4031250000  -4.124204e+001  5.515393e+001 
4034375000  -4.137154e+001  5.411599e+001 
4037500000  -4.106036e+001  5.492685e+001 
4040625000  -4.081181e+001  5.015622e+001 
4043750000  -4.106378e+001  4.640332e+001 
4046875000  -4.107804e+001  4.473459e+001 
4050000000  -4.084754e+001  3.675689e+001 
4053125000  -4.149435e+001  3.529533e+001 
4056250000  -4.147275e+001  4.195453e+001 
4059375000  -3.927678e+001  3.729795e+001 
4062500000  -3.865848e+001  2.813948e+001 
4065625000  -3.884927e+001  2.540663e+001 
4068750000  -3.827611e+001  1.643044e+001 
4071875000  -3.777747e+001  5.473336e+000 
4075000000  -3.842506e+001  -6.459572e-001 
4078125000  -3.874460e+001  -5.511124e+000 
4081250000  -3.816742e+001  -8.131103e+000 
4084375000  -3.809447e+001  -1.846377e+001 
4087500000  -3.892088e+001  -2.605523e+001 
4090625000  -3.911015e+001  -2.566171e+001 
4093750000  -3.879097e+001  -3.007061e+001 
4096875000  -3.859729e+001  -3.882380e+001 
4100000000  -3.976458e+001  -4.700771e+001 
4103125000  -4.063527e+001  -4.383511e+001 
4106250000  -3.988864e+001  -4.031450e+001 
4109375000  -3.908148e+001  -4.558872e+001 
4112500000  -3.863470e+001  -5.459583e+001 
4115625000  -3.930430e+001  -6.065513e+001 
4118750000  -3.886926e+001  -6.646293e+001 
4121875000  -3.929222e+001  -7.405550e+001 
4125000000  -3.987764e+001  -7.885120e+001 
4128125000  -4.102247e+001  -7.714730e+001 
4131250000  -3.973595e+001  -7.217863e+001 
4134375000  -3.761077e+001  -8.078442e+001 
4137500000  -3.803560e+001  -1.035499e+002 
4140625000  -4.071693e+001  -1.076979e+002 
4143750000  -4.154258e+001  -1.007928e+002 
4146875000  -4.052513e+001  -9.904571e+001 
4150000000  -3.954267e+001  -1.074785e+002 
4153125000  -4.011724e+001  -1.160525e+002 
4156250000  -4.113398e+001  -1.194563e+002 
4159375000  -4.108188e+001  -1.128431e+002 
4162500000  -4.014215e+001  -1.119792e+002 
4165625000  -3.886693e+001  -1.189899e+002 
4168750000  -3.867160e+001  -1.306733e+002 
4171875000  -3.817501e+001  -1.381422e+002 
4175000000  -3.965152e+001  -1.448349e+002 
4178125000  -3.939224e+001  -1.458336e+002 
4181250000  -3.929908e+001  -1.506105e+002 
4184375000  -3.939793e+001  -1.559743e+002 
4187500000  -3.944902e+001  -1.599513e+002 
4190625000  -3.957673e+001  -1.689526e+002 
4193750000  -4.011310e+001  -1.730890e+002 
4196875000  -4.136597e+001  -1.750999e+002 
4200000000  -4.283611e+001  -1.661503e+002 
4203125000  -4.073055e+001  -1.541353e+002 
4206250000  -3.751466e+001  -1.650901e+002 
4209375000  -3.752132e+001  1.708622e+002 
4212500000  -3.956917e+001  1.641388e+002 
4215625000  -4.012204e+001  1.722853e+002 
4218750000  -3.861658e+001  1.742993e+002 
4221875000  -3.669418e+001  1.642947e+002 
4225000000  -3.781850e+001  1.518508e+002 
4228125000  -3.769177e+001  1.538394e+002 
4231250000  -3.632922e+001  1.453655e+002 
4234375000  -3.626687e+001  1.342905e+002 
4237500000  -3.595639e+001  1.298579e+002 
4240625000  -3.629086e+001  1.190918e+002 
4243750000  -3.752576e+001  1.084764e+002 
4246875000  -3.853397e+001  1.079636e+002 
4250000000  -3.837539e+001  1.090782e+002 
4253125000  -3.834520e+001  1.078130e+002 
4256250000  -3.830936e+001  1.001829e+002 
4259375000  -3.758238e+001  9.511375e+001 
4262500000  -3.816024e+001  9.146265e+001 
4265625000  -3.805595e+001  8.794759e+001 
4268750000  -3.679050e+001  8.119242e+001 
4271875000  -3.681357e+001  7.212617e+001 
4275000000  -3.636351e+001  6.505544e+001 
4278125000  -3.760406e+001  5.190102e+001 
4281250000  -3.933754e+001  5.064841e+001 
4284375000  -3.902201e+001  4.950543e+001 
4287500000  -4.053308e+001  4.409488e+001 
4290625000  -4.050136e+001  5.297023e+001 
4293750000  -3.843195e+001  5.399378e+001 
4296875000  -3.792820e+001  4.099947e+001 
4300000000  -3.908068e+001  3.081049e+001 
4303125000  -3.957032e+001  3.462362e+001 
4306250000  -3.876113e+001  3.744865e+001 
4309375000  -3.775785e+001  3.056167e+001 
4312500000  -3.758235e+001  1.906035e+001 
4315625000  -3.800499e+001  1.007635e+001 
4318750000  -3.882734e+001  7.823096e+000 
4321875000  -3.844057e+001  9.052519e+000 
4325000000  -3.789920e+001  6.311134e+000 
4328125000  -3.732117e+001  -2.937416e+000 
4331250000  -3.750454e+001  -1.415955e+001 
4334375000  -3.832717e+001  -2.111142e+001 
4337500000  -3.944706e+001  -2.029380e+001 
4340625000  -3.954624e+001  -1.560382e+001 
4343750000  -3.870194e+001  -1.889318e+001 
4346875000  -3.838482e+001  -2.822885e+001 
4350000000  -3.859527e+001  -3.739668e+001 
4353125000  -3.926863e+001  -4.365682e+001 
4356250000  -4.134092e+001  -3.895638e+001 
4359375000  -4.011945e+001  -2.373216e+001 
4362500000  -3.666475e+001  -3.404253e+001 
4365625000  -3.578348e+001  -5.353371e+001 
4368750000  -3.725640e+001  -6.160279e+001 
4371875000  -3.804367e+001  -6.193555e+001 
4375000000  -3.703749e+001  -6.565791e+001 
4378125000  -3.680904e+001  -7.425874e+001 
4381250000  -3.713038e+001  -8.060785e+001 
4384375000  -3.721923e+001  -8.690505e+001 
4387500000  -3.832011e+001  -9.234690e+001 
4390625000  -3.840724e+001  -9.576167e+001 
4393750000  -3.803476e+001  -9.337240e+001 
4396875000  -3.719200e+001  -1.002606e+002 
4400000000  -3.683767e+001  -1.093896e+002 
4403125000  -3.788626e+001  -1.180973e+002 
4406250000  -3.852464e+001  -1.214720e+002 
4409375000  -3.895059e+001  -1.261456e+002 
4412500000  -3.986161e+001  -1.289235e+002 
4415625000  -3.953677e+001  -1.244015e+002 
