!Agilent Technologies,E8363B,MY43030201,A.06.04.32
!Agilent E8363B: A.06.04.32
!Date: Tuesday, November 11, 2014 21:37:43
!Correction: S21(Response(S21)) 
!S1P File: Measurement: S21:
# Hz S  dB   R 50
3000000000  -4.074141e+001  6.982247e+001 
3003125000  -4.221679e+001  6.170646e+001 
3006250000  -4.227594e+001  6.179188e+001 
3009375000  -4.283078e+001  6.579896e+001 
3012500000  -4.148962e+001  6.111548e+001 
3015625000  -4.143195e+001  5.463032e+001 
3018750000  -4.191312e+001  5.624184e+001 
3021875000  -4.012531e+001  5.656256e+001 
3025000000  -3.878915e+001  5.239935e+001 
3028125000  -3.791935e+001  4.197871e+001 
3031250000  -3.688834e+001  2.988756e+001 
3034375000  -3.678210e+001  1.565201e+001 
3037500000  -3.761180e+001  6.137750e+000 
3040625000  -3.866425e+001  7.684051e-001 
3043750000  -3.927882e+001  -5.200296e+000 
3046875000  -4.015696e+001  -1.171713e+001 
3050000000  -4.086608e+001  -1.533014e+001 
3053125000  -4.061400e+001  -1.127003e+001 
3056250000  -4.065943e+001  -8.526616e+000 
3059375000  -3.966171e+001  -1.032864e+001 
3062500000  -3.824078e+001  -1.492949e+001 
3065625000  -3.777563e+001  -2.470217e+001 
3068750000  -3.757414e+001  -3.257206e+001 
3071875000  -3.751317e+001  -3.516621e+001 
3075000000  -3.702093e+001  -4.231196e+001 
3078125000  -3.717912e+001  -4.875801e+001 
3081250000  -3.716363e+001  -5.493745e+001 
3084375000  -3.637546e+001  -5.938997e+001 
3087500000  -3.631441e+001  -6.681880e+001 
3090625000  -3.583563e+001  -7.858937e+001 
3093750000  -3.698129e+001  -8.635772e+001 
3096875000  -3.744653e+001  -9.123814e+001 
3100000000  -3.722594e+001  -9.448267e+001 
3103125000  -3.749966e+001  -9.790923e+001 
3106250000  -3.712413e+001  -1.030875e+002 
3109375000  -3.731093e+001  -1.070864e+002 
3112500000  -3.710740e+001  -1.125844e+002 
3115625000  -3.716522e+001  -1.167883e+002 
3118750000  -3.715168e+001  -1.203880e+002 
3121875000  -3.661680e+001  -1.310441e+002 
3125000000  -3.854584e+001  -1.339821e+002 
3128125000  -3.845419e+001  -1.269566e+002 
3131250000  -3.596271e+001  -1.331188e+002 
3134375000  -3.536102e+001  -1.500885e+002 
3137500000  -3.603717e+001  -1.633332e+002 
3140625000  -3.725134e+001  -1.650865e+002 
3143750000  -3.819096e+001  -1.671190e+002 
3146875000  -3.768373e+001  -1.662222e+002 
3150000000  -3.687104e+001  -1.693312e+002 
3153125000  -3.718335e+001  -1.776242e+002 
3156250000  -3.790551e+001  -1.729937e+002 
3159375000  -3.561269e+001  -1.755583e+002 
3162500000  -3.412061e+001  1.689825e+002 
3165625000  -3.540246e+001  1.566928e+002 
3168750000  -3.535789e+001  1.555816e+002 
3171875000  -3.480424e+001  1.477554e+002 
3175000000  -3.541983e+001  1.387409e+002 
3178125000  -3.499240e+001  1.370470e+002 
3181250000  -3.438932e+001  1.287366e+002 
3184375000  -3.426034e+001  1.174057e+002 
3187500000  -3.549596e+001  1.019615e+002 
3190625000  -3.716983e+001  9.677766e+001 
3193750000  -3.744526e+001  1.024039e+002 
3196875000  -3.737000e+001  1.029673e+002 
3200000000  -3.602567e+001  9.766312e+001 
3203125000  -3.586300e+001  8.986714e+001 
3206250000  -3.610441e+001  8.173167e+001 
3209375000  -3.580360e+001  7.347442e+001 
3212500000  -3.635289e+001  6.758781e+001 
3215625000  -3.605904e+001  6.437222e+001 
3218750000  -3.688337e+001  5.276631e+001 
3221875000  -3.708610e+001  4.558308e+001 
3225000000  -3.696283e+001  4.255142e+001 
3228125000  -3.773449e+001  3.448541e+001 
3231250000  -3.808321e+001  3.423043e+001 
3234375000  -3.779547e+001  2.921477e+001 
3237500000  -3.811617e+001  2.661805e+001 
3240625000  -3.761232e+001  2.056924e+001 
3243750000  -3.766275e+001  1.075311e+001 
3246875000  -3.831083e+001  4.243159e+000 
3250000000  -3.882272e+001  -6.101554e-001 
3253125000  -3.883334e+001  -4.031488e+000 
3256250000  -3.829710e+001  -1.146709e+001 
3259375000  -3.924393e+001  -2.250599e+001 
3262500000  -4.062082e+001  -2.664541e+001 
3265625000  -4.105363e+001  -2.341940e+001 
3268750000  -4.111392e+001  -2.263453e+001 
3271875000  -4.048307e+001  -2.571249e+001 
3275000000  -3.999751e+001  -3.521119e+001 
3278125000  -4.088054e+001  -4.001345e+001 
3281250000  -4.086527e+001  -4.084675e+001 
3284375000  -4.049603e+001  -4.657836e+001 
3287500000  -4.100475e+001  -5.132217e+001 
3290625000  -4.108217e+001  -5.910090e+001 
3293750000  -4.119821e+001  -6.542404e+001 
3296875000  -4.263777e+001  -6.707883e+001 
3300000000  -4.166773e+001  -6.480392e+001 
3303125000  -4.099283e+001  -7.219748e+001 
3306250000  -4.066456e+001  -7.831663e+001 
3309375000  -4.056234e+001  -8.562780e+001 
3312500000  -4.092073e+001  -9.949564e+001 
3315625000  -4.218875e+001  -1.066649e+002 
3318750000  -4.376150e+001  -1.095675e+002 
3321875000  -4.506222e+001  -1.056037e+002 
3325000000  -4.464529e+001  -9.933861e+001 
3328125000  -4.362883e+001  -9.932355e+001 
3331250000  -4.229356e+001  -9.742489e+001 
3334375000  -3.970868e+001  -1.115743e+002 
3337500000  -4.049202e+001  -1.337831e+002 
3340625000  -4.234501e+001  -1.427694e+002 
3343750000  -4.365030e+001  -1.417029e+002 
3346875000  -4.328515e+001  -1.440616e+002 
3350000000  -4.298336e+001  -1.467911e+002 
3353125000  -4.252512e+001  -1.523682e+002 
3356250000  -4.238622e+001  -1.626653e+002 
3359375000  -4.334473e+001  -1.714787e+002 
3362500000  -4.439984e+001  -1.771271e+002 
3365625000  -4.478396e+001  1.798356e+002 
3368750000  -4.520464e+001  1.736596e+002 
3371875000  -4.599234e+001  1.703260e+002 
3375000000  -4.750427e+001  1.655116e+002 
3378125000  -4.810199e+001  1.648778e+002 
3381250000  -4.983184e+001  1.775846e+002 
3384375000  -4.654736e+001  -1.653139e+002 
3387500000  -4.399032e+001  1.688570e+002 
3390625000  -4.608092e+001  1.503306e+002 
3393750000  -4.738293e+001  1.495722e+002 
3396875000  -4.600544e+001  1.458768e+002 
3400000000  -4.608139e+001  1.379754e+002 
3403125000  -4.711150e+001  1.322991e+002 
3406250000  -4.722572e+001  1.283118e+002 
3409375000  -4.796556e+001  1.223421e+002 
3412500000  -4.867795e+001  1.148455e+002 
3415625000  -4.975745e+001  1.150478e+002 
3418750000  -4.952557e+001  1.181550e+002 
3421875000  -5.052937e+001  1.204016e+002 
3425000000  -4.978390e+001  1.160132e+002 
3428125000  -4.978597e+001  1.140856e+002 
3431250000  -4.996855e+001  1.034521e+002 
3434375000  -5.100806e+001  9.885881e+001 
3437500000  -5.212423e+001  9.707762e+001 
3440625000  -5.220225e+001  1.039170e+002 
3443750000  -5.077079e+001  1.028806e+002 
3446875000  -4.984374e+001  9.726105e+001 
3450000000  -5.059177e+001  8.794324e+001 
3453125000  -5.075683e+001  8.254312e+001 
3456250000  -5.151608e+001  7.752632e+001 
3459375000  -5.332196e+001  8.129053e+001 
3462500000  -5.212824e+001  8.715786e+001 
3465625000  -5.140837e+001  7.684637e+001 
3468750000  -5.198400e+001  7.786028e+001 
3471875000  -5.205791e+001  7.194466e+001 
3475000000  -5.135940e+001  6.788917e+001 
3478125000  -5.109289e+001  5.513521e+001 
3481250000  -5.222797e+001  5.946589e+001 
3484375000  -5.241394e+001  6.234037e+001 
3487500000  -5.104738e+001  5.922855e+001 
3490625000  -5.041621e+001  5.385046e+001 
3493750000  -5.139699e+001  4.300476e+001 
3496875000  -5.176870e+001  4.569565e+001 
3500000000  -5.181926e+001  4.352164e+001 
3503125000  -5.102951e+001  4.146987e+001 
3506250000  -4.953634e+001  3.556318e+001 
3509375000  -4.958875e+001  2.257750e+001 
3512500000  -4.983805e+001  5.773152e+000 
3515625000  -5.113475e+001  6.790382e+000 
3518750000  -5.180996e+001  5.297206e+000 
3521875000  -5.176042e+001  1.799461e+000 
3525000000  -5.393343e+001  -6.204901e+000 
3528125000  -5.291100e+001  2.390728e-001 
3531250000  -5.113129e+001  -3.576265e+000 
3534375000  -5.254773e+001  -2.012022e+001 
3537500000  -5.296761e+001  -2.487956e+001 
3540625000  -5.421539e+001  -2.558561e+001 
3543750000  -5.483961e+001  -1.762127e+001 
3546875000  -5.612857e+001  -1.034443e+001 
3550000000  -5.300061e+001  -2.404817e+001 
3553125000  -5.367740e+001  -3.712079e+001 
3556250000  -5.634781e+001  -3.469532e+001 
3559375000  -5.580872e+001  -3.536027e+001 
3562500000  -5.580923e+001  -4.528323e+001 
3565625000  -5.826020e+001  -5.880989e+001 
3568750000  -5.723020e+001  -4.209554e+001 
3571875000  -5.783908e+001  -3.872383e+001 
3575000000  -5.762796e+001  -5.206368e+001 
3578125000  -5.779210e+001  -4.598735e+001 
3581250000  -5.801085e+001  -4.446107e+001 
3584375000  -5.844326e+001  -2.749806e+001 
3587500000  -5.737318e+001  -4.347646e+001 
3590625000  -5.830171e+001  -4.722647e+001 
3593750000  -5.842865e+001  -5.196026e+001 
3596875000  -5.836641e+001  -4.655085e+001 
3600000000  -5.685604e+001  -4.250536e+001 
3603125000  -5.938315e+001  -5.535387e+001 
3606250000  -5.895176e+001  -7.122231e+001 
3609375000  -5.984700e+001  -5.514354e+001 
3612500000  -5.808384e+001  -5.711271e+001 
3615625000  -5.858070e+001  -5.953106e+001 
3618750000  -6.003402e+001  -4.911325e+001 
3621875000  -5.772812e+001  -5.429926e+001 
3625000000  -5.761942e+001  -5.300396e+001 
3628125000  -5.642012e+001  -4.625269e+001 
3631250000  -5.564698e+001  -5.384163e+001 
3634375000  -5.831165e+001  -5.028309e+001 
3637500000  -5.580872e+001  -4.936329e+001 
3640625000  -5.432172e+001  -4.605778e+001 
3643750000  -5.307833e+001  -5.282972e+001 
3646875000  -5.349156e+001  -5.880180e+001 
3650000000  -5.259216e+001  -6.659928e+001 
3653125000  -5.267570e+001  -6.443958e+001 
3656250000  -5.221766e+001  -6.260119e+001 
3659375000  -5.206472e+001  -6.677574e+001 
3662500000  -5.115606e+001  -7.415832e+001 
3665625000  -4.921848e+001  -7.706605e+001 
3668750000  -4.793312e+001  -7.757040e+001 
3671875000  -4.722153e+001  -8.603303e+001 
3675000000  -4.703683e+001  -9.395126e+001 
3678125000  -4.706496e+001  -9.762902e+001 
3681250000  -4.682338e+001  -1.108983e+002 
3684375000  -4.662423e+001  -1.109137e+002 
3687500000  -4.620363e+001  -1.161376e+002 
3690625000  -4.634296e+001  -1.202702e+002 
3693750000  -4.673849e+001  -1.217991e+002 
3696875000  -4.638240e+001  -1.215089e+002 
3700000000  -4.552347e+001  -1.285144e+002 
3703125000  -4.537214e+001  -1.359846e+002 
3706250000  -4.577004e+001  -1.363999e+002 
3709375000  -4.443121e+001  -1.345972e+002 
3712500000  -4.398362e+001  -1.405313e+002 
3715625000  -4.193719e+001  -1.488387e+002 
3718750000  -4.181537e+001  -1.577713e+002 
3721875000  -4.176950e+001  -1.656801e+002 
3725000000  -4.165181e+001  -1.715648e+002 
3728125000  -4.148606e+001  -1.770715e+002 
3731250000  -4.065219e+001  1.768989e+002 
3734375000  -4.026302e+001  1.694831e+002 
3737500000  -4.096731e+001  1.602127e+002 
3740625000  -4.076089e+001  1.563216e+002 
3743750000  -4.043954e+001  1.491332e+002 
3746875000  -4.067197e+001  1.425808e+002 
3750000000  -4.095074e+001  1.376735e+002 
3753125000  -4.060987e+001  1.342860e+002 
3756250000  -4.069665e+001  1.316069e+002 
3759375000  -4.052360e+001  1.274501e+002 
3762500000  -4.014690e+001  1.180474e+002 
3765625000  -4.056550e+001  1.147052e+002 
3768750000  -4.017871e+001  1.150008e+002 
3771875000  -3.844302e+001  1.072491e+002 
3775000000  -3.859466e+001  9.485892e+001 
3778125000  -3.906265e+001  8.896708e+001 
3781250000  -3.908398e+001  8.500909e+001 
3784375000  -3.879035e+001  7.912498e+001 
3787500000  -3.845813e+001  7.327979e+001 
3790625000  -3.922606e+001  6.495724e+001 
3793750000  -3.941136e+001  6.034582e+001 
3796875000  -3.831406e+001  5.719585e+001 
3800000000  -3.643060e+001  5.251719e+001 
3803125000  -3.809634e+001  3.900825e+001 
3806250000  -3.883003e+001  3.416594e+001 
3809375000  -3.852088e+001  3.120454e+001 
3812500000  -3.837492e+001  2.052817e+001 
3815625000  -3.964656e+001  1.206750e+001 
3818750000  -4.056088e+001  1.388479e+001 
3821875000  -4.012933e+001  2.216480e+001 
3825000000  -3.829908e+001  1.802546e+001 
3828125000  -3.674274e+001  -1.783602e+000 
3831250000  -3.834726e+001  -1.375786e+001 
3834375000  -4.044578e+001  -1.507010e+001 
3837500000  -4.072358e+001  -9.937061e+000 
3840625000  -3.892032e+001  -1.436071e+001 
3843750000  -3.835077e+001  -2.933923e+001 
3846875000  -3.982443e+001  -3.463033e+001 
3850000000  -4.053182e+001  -2.797442e+001 
3853125000  -3.994714e+001  -2.921309e+001 
3856250000  -3.930236e+001  -3.471893e+001 
3859375000  -3.867273e+001  -4.402233e+001 
3862500000  -3.865345e+001  -5.377373e+001 
3865625000  -3.911031e+001  -6.011548e+001 
3868750000  -3.871781e+001  -6.126506e+001 
3871875000  -3.794975e+001  -6.780277e+001 
3875000000  -3.843883e+001  -7.738731e+001 
3878125000  -3.955457e+001  -7.969669e+001 
3881250000  -3.919226e+001  -8.133702e+001 
3884375000  -3.861010e+001  -8.748501e+001 
3887500000  -3.892567e+001  -9.352126e+001 
3890625000  -3.983359e+001  -9.851989e+001 
3893750000  -3.977876e+001  -1.009779e+002 
3896875000  -3.981693e+001  -1.034569e+002 
3900000000  -3.988731e+001  -1.049078e+002 
3903125000  -3.929183e+001  -1.112793e+002 
3906250000  -3.926903e+001  -1.147615e+002 
3909375000  -3.806110e+001  -1.242733e+002 
3912500000  -3.911302e+001  -1.330743e+002 
3915625000  -4.022709e+001  -1.323201e+002 
3918750000  -4.005693e+001  -1.335450e+002 
3921875000  -3.922852e+001  -1.369869e+002 
3925000000  -3.839331e+001  -1.442056e+002 
3928125000  -3.826598e+001  -1.535007e+002 
3931250000  -3.912788e+001  -1.596440e+002 
3934375000  -3.953487e+001  -1.606902e+002 
3937500000  -4.020673e+001  -1.632302e+002 
3940625000  -3.984633e+001  -1.652891e+002 
3943750000  -3.885357e+001  -1.696318e+002 
3946875000  -3.848650e+001  -1.774636e+002 
3950000000  -3.945530e+001  1.735137e+002 
3953125000  -4.009363e+001  1.764024e+002 
3956250000  -3.855039e+001  1.753830e+002 
3959375000  -3.786054e+001  1.679778e+002 
3962500000  -3.760349e+001  1.604677e+002 
3965625000  -3.786277e+001  1.493419e+002 
3968750000  -3.859327e+001  1.431215e+002 
3971875000  -3.840262e+001  1.372076e+002 
3975000000  -3.827079e+001  1.325978e+002 
3978125000  -3.861544e+001  1.294856e+002 
3981250000  -3.837967e+001  1.232935e+002 
3984375000  -3.873629e+001  1.152294e+002 
3987500000  -3.967018e+001  1.121770e+002 
3990625000  -3.995625e+001  1.101213e+002 
3993750000  -3.979514e+001  1.041131e+002 
3996875000  -3.983432e+001  9.952563e+001 
4000000000  -4.082793e+001  9.490075e+001 
4003125000  -4.112660e+001  9.542757e+001 
4006250000  -3.930754e+001  9.426481e+001 
4009375000  -3.851828e+001  7.832486e+001 
4012500000  -4.024715e+001  7.227321e+001 
4015625000  -4.130420e+001  7.054736e+001 
4018750000  -4.109123e+001  7.172295e+001 
4021875000  -4.054890e+001  6.909698e+001 
4025000000  -4.056874e+001  6.190999e+001 
4028125000  -4.048120e+001  5.715231e+001 
4031250000  -4.130818e+001  5.254512e+001 
4034375000  -4.143904e+001  4.938452e+001 
4037500000  -4.087157e+001  5.180814e+001 
4040625000  -4.082434e+001  4.732343e+001 
4043750000  -4.112943e+001  4.301373e+001 
4046875000  -4.073179e+001  3.984417e+001 
4050000000  -4.062104e+001  3.561599e+001 
4053125000  -4.149811e+001  3.256929e+001 
4056250000  -4.142655e+001  3.633453e+001 
4059375000  -3.927702e+001  3.256394e+001 
4062500000  -3.880957e+001  2.653172e+001 
4065625000  -3.896446e+001  2.187133e+001 
4068750000  -3.817854e+001  1.322793e+001 
4071875000  -3.779277e+001  2.549044e+000 
4075000000  -3.808055e+001  -3.289484e+000 
4078125000  -3.867089e+001  -7.278278e+000 
4081250000  -3.818160e+001  -1.022902e+001 
4084375000  -3.811021e+001  -2.071838e+001 
4087500000  -3.870380e+001  -2.730622e+001 
4090625000  -3.909972e+001  -2.946796e+001 
4093750000  -3.854940e+001  -3.365243e+001 
4096875000  -3.869387e+001  -4.146630e+001 
4100000000  -3.966553e+001  -4.884356e+001 
4103125000  -4.058891e+001  -4.751712e+001 
4106250000  -3.968813e+001  -4.326287e+001 
4109375000  -3.914418e+001  -4.804491e+001 
4112500000  -3.853070e+001  -5.600401e+001 
4115625000  -3.926775e+001  -6.184366e+001 
4118750000  -3.889883e+001  -6.901280e+001 
4121875000  -3.880539e+001  -7.686992e+001 
4125000000  -3.969656e+001  -8.122340e+001 
4128125000  -4.110042e+001  -8.055862e+001 
4131250000  -3.971404e+001  -7.478735e+001 
4134375000  -3.759021e+001  -8.392832e+001 
4137500000  -3.823355e+001  -1.056553e+002 
4140625000  -4.060980e+001  -1.105389e+002 
4143750000  -4.139123e+001  -1.038114e+002 
4146875000  -4.069304e+001  -1.000222e+002 
4150000000  -3.952673e+001  -1.092741e+002 
4153125000  -3.997254e+001  -1.167019e+002 
4156250000  -4.129562e+001  -1.197189e+002 
4159375000  -4.094478e+001  -1.150913e+002 
4162500000  -4.008118e+001  -1.141007e+002 
4165625000  -3.859203e+001  -1.203866e+002 
4168750000  -3.825428e+001  -1.319562e+002 
4171875000  -3.824403e+001  -1.401410e+002 
4175000000  -3.928629e+001  -1.476410e+002 
4178125000  -3.964548e+001  -1.480419e+002 
4181250000  -3.952847e+001  -1.517695e+002 
4184375000  -3.947567e+001  -1.564517e+002 
4187500000  -3.949597e+001  -1.625612e+002 
4190625000  -3.939688e+001  -1.713585e+002 
4193750000  -4.072805e+001  -1.747173e+002 
4196875000  -4.136502e+001  -1.769630e+002 
4200000000  -4.235689e+001  -1.684608e+002 
4203125000  -4.065156e+001  -1.564689e+002 
4206250000  -3.721432e+001  -1.674468e+002 
4209375000  -3.697008e+001  1.701601e+002 
4212500000  -3.973311e+001  1.634158e+002 
4215625000  -3.989304e+001  1.692032e+002 
4218750000  -3.823238e+001  1.707658e+002 
4221875000  -3.668862e+001  1.624092e+002 
4225000000  -3.780423e+001  1.496547e+002 
4228125000  -3.763279e+001  1.485279e+002 
4231250000  -3.641421e+001  1.434383e+002 
4234375000  -3.633247e+001  1.320292e+002 
4237500000  -3.610713e+001  1.266865e+002 
4240625000  -3.628207e+001  1.163920e+002 
4243750000  -3.735417e+001  1.077966e+002 
4246875000  -3.850150e+001  1.067231e+002 
4250000000  -3.852319e+001  1.064975e+002 
4253125000  -3.807174e+001  1.049962e+002 
4256250000  -3.797760e+001  1.002864e+002 
4259375000  -3.764877e+001  9.365613e+001 
4262500000  -3.786211e+001  8.644779e+001 
4265625000  -3.798642e+001  8.750239e+001 
4268750000  -3.683603e+001  8.042496e+001 
4271875000  -3.672877e+001  6.993692e+001 
4275000000  -3.652471e+001  6.233762e+001 
4278125000  -3.771567e+001  5.139122e+001 
4281250000  -3.879276e+001  4.997465e+001 
4284375000  -3.896871e+001  4.562086e+001 
4287500000  -4.035099e+001  4.231589e+001 
4290625000  -4.054943e+001  5.053883e+001 
4293750000  -3.859738e+001  5.126904e+001 
4296875000  -3.770700e+001  3.834698e+001 
4300000000  -3.913628e+001  2.762256e+001 
4303125000  -3.968061e+001  3.306931e+001 
4306250000  -3.862734e+001  3.384314e+001 
4309375000  -3.749689e+001  2.736515e+001 
4312500000  -3.751316e+001  1.699545e+001 
4315625000  -3.772493e+001  7.900935e+000 
4318750000  -3.856524e+001  4.972051e+000 
4321875000  -3.865786e+001  5.323694e+000 
4325000000  -3.781487e+001  4.263812e+000 
4328125000  -3.735671e+001  -6.615060e+000 
4331250000  -3.743785e+001  -1.546918e+001 
4334375000  -3.827718e+001  -2.305273e+001 
4337500000  -3.951247e+001  -2.364753e+001 
4340625000  -3.954147e+001  -1.848889e+001 
4343750000  -3.850373e+001  -2.311784e+001 
4346875000  -3.830061e+001  -3.066322e+001 
4350000000  -3.826495e+001  -3.969448e+001 
4353125000  -3.908751e+001  -4.639437e+001 
4356250000  -4.141552e+001  -3.917464e+001 
4359375000  -3.995159e+001  -2.897276e+001 
4362500000  -3.649284e+001  -3.512964e+001 
4365625000  -3.592006e+001  -5.523947e+001 
4368750000  -3.732371e+001  -6.356354e+001 
4371875000  -3.764319e+001  -6.360885e+001 
4375000000  -3.712069e+001  -6.777424e+001 
4378125000  -3.672538e+001  -7.624479e+001 
4381250000  -3.693992e+001  -8.274712e+001 
4384375000  -3.715557e+001  -8.894106e+001 
4387500000  -3.804958e+001  -9.512407e+001 
4390625000  -3.852034e+001  -9.641700e+001 
4393750000  -3.804344e+001  -9.606703e+001 
4396875000  -3.713929e+001  -1.020280e+002 
4400000000  -3.693824e+001  -1.116241e+002 
4403125000  -3.771210e+001  -1.213463e+002 
4406250000  -3.822820e+001  -1.238716e+002 
4409375000  -3.864946e+001  -1.276910e+002 
4412500000  -3.983580e+001  -1.291932e+002 
4415625000  -3.939732e+001  -1.266755e+002 
