!Agilent Technologies,E8363B,MY43030201,A.06.04.32
!Agilent E8363B: A.06.04.32
!Date: Tuesday, November 11, 2014 21:26:08
!Correction: S21(Response(S21)) 
!S1P File: Measurement: S21:
# Hz S  dB   R 50
3000000000  -4.044699e+001  9.683308e+001 
3003125000  -4.206901e+001  8.907298e+001 
3006250000  -4.226545e+001  8.779798e+001 
3009375000  -4.272728e+001  9.197918e+001 
3012500000  -4.160855e+001  8.897770e+001 
3015625000  -4.101902e+001  8.009551e+001 
3018750000  -4.208053e+001  8.216262e+001 
3021875000  -4.010276e+001  8.129219e+001 
3025000000  -3.900941e+001  7.798109e+001 
3028125000  -3.810270e+001  6.880849e+001 
3031250000  -3.707572e+001  5.659170e+001 
3034375000  -3.664183e+001  4.225901e+001 
3037500000  -3.752941e+001  3.152221e+001 
3040625000  -3.886775e+001  2.649636e+001 
3043750000  -3.911001e+001  1.978032e+001 
3046875000  -3.951444e+001  1.475774e+001 
3050000000  -4.078471e+001  8.439466e+000 
3053125000  -4.053233e+001  1.382702e+001 
3056250000  -4.023666e+001  1.578328e+001 
3059375000  -3.982822e+001  1.422206e+001 
3062500000  -3.824107e+001  9.553713e+000 
3065625000  -3.807749e+001  6.550017e-001 
3068750000  -3.763278e+001  -6.923105e+000 
3071875000  -3.774870e+001  -9.785263e+000 
3075000000  -3.719266e+001  -1.556845e+001 
3078125000  -3.695364e+001  -2.276900e+001 
3081250000  -3.739132e+001  -2.800053e+001 
3084375000  -3.641628e+001  -3.368057e+001 
3087500000  -3.641553e+001  -3.911074e+001 
3090625000  -3.594593e+001  -5.118196e+001 
3093750000  -3.669497e+001  -5.979276e+001 
3096875000  -3.749279e+001  -6.592173e+001 
3100000000  -3.741366e+001  -6.858006e+001 
3103125000  -3.756506e+001  -7.135742e+001 
3106250000  -3.721743e+001  -7.674012e+001 
3109375000  -3.734304e+001  -8.145802e+001 
3112500000  -3.718647e+001  -8.599931e+001 
3115625000  -3.698169e+001  -9.055395e+001 
3118750000  -3.724717e+001  -9.383560e+001 
3121875000  -3.646282e+001  -1.044693e+002 
3125000000  -3.839500e+001  -1.094426e+002 
3128125000  -3.858325e+001  -1.009593e+002 
3131250000  -3.618165e+001  -1.065012e+002 
3134375000  -3.528091e+001  -1.242823e+002 
3137500000  -3.601192e+001  -1.366276e+002 
3140625000  -3.736085e+001  -1.399655e+002 
3143750000  -3.828760e+001  -1.408161e+002 
3146875000  -3.773483e+001  -1.400163e+002 
3150000000  -3.697563e+001  -1.430378e+002 
3153125000  -3.715817e+001  -1.523691e+002 
3156250000  -3.796820e+001  -1.478081e+002 
3159375000  -3.596854e+001  -1.487448e+002 
3162500000  -3.440042e+001  -1.647686e+002 
3165625000  -3.554342e+001  -1.770013e+002 
3168750000  -3.562734e+001  -1.784488e+002 
3171875000  -3.498375e+001  1.750237e+002 
3175000000  -3.558439e+001  1.650912e+002 
3178125000  -3.517675e+001  1.640204e+002 
3181250000  -3.440618e+001  1.560794e+002 
3184375000  -3.401174e+001  1.442992e+002 
3187500000  -3.528646e+001  1.278655e+002 
3190625000  -3.735165e+001  1.221229e+002 
3193750000  -3.773133e+001  1.277857e+002 
3196875000  -3.741707e+001  1.299825e+002 
3200000000  -3.642452e+001  1.253713e+002 
3203125000  -3.590276e+001  1.161475e+002 
3206250000  -3.629454e+001  1.087718e+002 
3209375000  -3.571936e+001  1.008395e+002 
3212500000  -3.627603e+001  9.309503e+001 
3215625000  -3.602024e+001  8.987479e+001 
3218750000  -3.695818e+001  8.026732e+001 
3221875000  -3.746941e+001  7.257117e+001 
3225000000  -3.707372e+001  7.042326e+001 
3228125000  -3.785448e+001  6.334026e+001 
3231250000  -3.845338e+001  6.028081e+001 
3234375000  -3.807380e+001  5.720562e+001 
3237500000  -3.815956e+001  5.229953e+001 
3240625000  -3.774400e+001  4.815515e+001 
3243750000  -3.764459e+001  3.870623e+001 
3246875000  -3.820785e+001  3.042312e+001 
3250000000  -3.881577e+001  2.705610e+001 
3253125000  -3.899352e+001  2.309716e+001 
3256250000  -3.883792e+001  1.577375e+001 
3259375000  -3.924399e+001  4.333373e+000 
3262500000  -4.054911e+001  9.283951e-001 
3265625000  -4.148839e+001  2.357491e+000 
3268750000  -4.125563e+001  3.946258e+000 
3271875000  -4.094492e+001  3.398721e-001 
3275000000  -4.032957e+001  -8.263951e+000 
3278125000  -4.092423e+001  -1.309751e+001 
3281250000  -4.104516e+001  -1.298610e+001 
3284375000  -4.074441e+001  -1.937018e+001 
3287500000  -4.096466e+001  -2.337801e+001 
3290625000  -4.147308e+001  -3.166778e+001 
3293750000  -4.126976e+001  -3.733420e+001 
3296875000  -4.234681e+001  -3.946986e+001 
3300000000  -4.195855e+001  -3.702560e+001 
3303125000  -4.104869e+001  -4.440443e+001 
3306250000  -4.076239e+001  -5.156230e+001 
3309375000  -4.064206e+001  -5.849955e+001 
3312500000  -4.106517e+001  -7.099157e+001 
3315625000  -4.187825e+001  -8.005863e+001 
3318750000  -4.359900e+001  -8.282378e+001 
3321875000  -4.504588e+001  -8.147573e+001 
3325000000  -4.476955e+001  -7.545721e+001 
3328125000  -4.426507e+001  -7.623946e+001 
3331250000  -4.271268e+001  -6.841394e+001 
3334375000  -4.005061e+001  -8.357671e+001 
3337500000  -4.052905e+001  -1.046509e+002 
3340625000  -4.249149e+001  -1.160705e+002 
3343750000  -4.414629e+001  -1.158004e+002 
3346875000  -4.351034e+001  -1.153996e+002 
3350000000  -4.338562e+001  -1.179898e+002 
3353125000  -4.308471e+001  -1.244932e+002 
3356250000  -4.232144e+001  -1.338726e+002 
3359375000  -4.355895e+001  -1.442245e+002 
3362500000  -4.422854e+001  -1.507560e+002 
3365625000  -4.465311e+001  -1.508927e+002 
3368750000  -4.560717e+001  -1.589198e+002 
3371875000  -4.586607e+001  -1.627811e+002 
3375000000  -4.763445e+001  -1.665728e+002 
3378125000  -4.769982e+001  -1.649911e+002 
3381250000  -4.995260e+001  -1.561479e+002 
3384375000  -4.679562e+001  -1.427674e+002 
3387500000  -4.434155e+001  -1.604289e+002 
3390625000  -4.646404e+001  1.760980e+002 
3393750000  -4.712964e+001  1.771792e+002 
3396875000  -4.582998e+001  1.787098e+002 
3400000000  -4.619968e+001  1.623747e+002 
3403125000  -4.699032e+001  1.585974e+002 
3406250000  -4.715713e+001  1.545847e+002 
3409375000  -4.834859e+001  1.487757e+002 
3412500000  -4.868487e+001  1.433698e+002 
3415625000  -4.954850e+001  1.408834e+002 
3418750000  -5.013081e+001  1.404669e+002 
3421875000  -5.183155e+001  1.418100e+002 
3425000000  -5.068658e+001  1.468551e+002 
3428125000  -5.050289e+001  1.412757e+002 
3431250000  -5.025984e+001  1.282000e+002 
3434375000  -5.078900e+001  1.297280e+002 
3437500000  -5.207562e+001  1.259956e+002 
3440625000  -5.273821e+001  1.273489e+002 
3443750000  -5.158619e+001  1.313917e+002 
3446875000  -5.125676e+001  1.267076e+002 
3450000000  -5.076068e+001  1.190251e+002 
3453125000  -5.129090e+001  1.061989e+002 
3456250000  -5.252629e+001  1.037041e+002 
3459375000  -5.317400e+001  1.072687e+002 
3462500000  -5.346471e+001  1.129316e+002 
3465625000  -5.237951e+001  1.022459e+002 
3468750000  -5.182940e+001  1.019820e+002 
3471875000  -5.267004e+001  1.015512e+002 
3475000000  -5.132864e+001  9.936507e+001 
3478125000  -5.190089e+001  9.026481e+001 
3481250000  -5.282890e+001  8.852296e+001 
3484375000  -5.269774e+001  9.127097e+001 
3487500000  -5.286585e+001  8.777077e+001 
3490625000  -5.189632e+001  7.976332e+001 
3493750000  -5.186346e+001  7.064246e+001 
3496875000  -5.184225e+001  8.417879e+001 
3500000000  -5.280999e+001  7.252795e+001 
3503125000  -5.113589e+001  6.997095e+001 
3506250000  -5.007515e+001  6.195132e+001 
3509375000  -4.996254e+001  5.286799e+001 
3512500000  -5.077344e+001  4.106561e+001 
3515625000  -5.231578e+001  3.594254e+001 
3518750000  -5.222678e+001  3.726085e+001 
3521875000  -5.251129e+001  3.021647e+001 
3525000000  -5.272828e+001  2.477571e+001 
3528125000  -5.301760e+001  3.075237e+001 
3531250000  -5.257968e+001  2.442735e+001 
3534375000  -5.206531e+001  1.200493e+001 
3537500000  -5.298147e+001  7.544930e-001 
3540625000  -5.545210e+001  -3.485401e-002 
3543750000  -5.573933e+001  6.150609e+000 
3546875000  -5.614800e+001  1.563099e+001 
3550000000  -5.553136e+001  1.651773e+001 
3553125000  -5.322138e+001  -8.617783e+000 
3556250000  -5.691145e+001  -3.020857e+000 
3559375000  -5.682933e+001  -1.205600e+001 
3562500000  -5.699149e+001  -8.259374e+000 
3565625000  -5.740224e+001  -1.589741e+001 
3568750000  -5.870293e+001  -2.461377e+001 
3571875000  -5.711876e+001  1.741709e+000 
3575000000  -5.867996e+001  -8.901128e+000 
3578125000  -6.126148e+001  -1.632384e+001 
3581250000  -5.901604e+001  -4.838604e+000 
3584375000  -5.905481e+001  3.987940e+000 
3587500000  -5.668084e+001  -1.312197e+001 
3590625000  -6.017178e+001  -2.578363e+001 
3593750000  -5.901474e+001  -1.830731e+001 
3596875000  -5.820724e+001  5.753109e+000 
3600000000  -5.809538e+001  -4.932340e+000 
3603125000  -5.942035e+001  -2.708154e+001 
3606250000  -5.806177e+001  -2.109765e+001 
3609375000  -5.716451e+001  -1.501703e+001 
3612500000  -5.739221e+001  -1.991012e+001 
3615625000  -5.794062e+001  -2.589609e+001 
3618750000  -5.871194e+001  -4.195512e+000 
3621875000  -5.546887e+001  -1.782099e+001 
3625000000  -5.610331e+001  -1.411092e+001 
3628125000  -5.638377e+001  -1.216621e+001 
3631250000  -5.595380e+001  -2.337770e+001 
3634375000  -5.642421e+001  -1.352769e+001 
3637500000  -5.532305e+001  -1.693756e+001 
3640625000  -5.425952e+001  -1.278582e+001 
3643750000  -5.302393e+001  -2.006655e+001 
3646875000  -5.256439e+001  -2.435429e+001 
3650000000  -5.199142e+001  -3.401280e+001 
3653125000  -5.156726e+001  -3.194630e+001 
3656250000  -5.156479e+001  -3.247376e+001 
3659375000  -5.114450e+001  -3.538083e+001 
3662500000  -5.050481e+001  -4.090042e+001 
3665625000  -4.990969e+001  -4.380057e+001 
3668750000  -4.744419e+001  -4.731853e+001 
3671875000  -4.712364e+001  -5.668867e+001 
3675000000  -4.718563e+001  -6.581271e+001 
3678125000  -4.750664e+001  -6.810706e+001 
3681250000  -4.673405e+001  -7.517086e+001 
3684375000  -4.692207e+001  -8.191592e+001 
3687500000  -4.678456e+001  -8.242905e+001 
3690625000  -4.674955e+001  -9.112360e+001 
3693750000  -4.690048e+001  -9.142899e+001 
3696875000  -4.618142e+001  -9.091497e+001 
3700000000  -4.501106e+001  -9.607245e+001 
3703125000  -4.578140e+001  -1.040383e+002 
3706250000  -4.592776e+001  -1.048478e+002 
3709375000  -4.506417e+001  -1.075171e+002 
3712500000  -4.352501e+001  -1.106102e+002 
3715625000  -4.187206e+001  -1.194695e+002 
3718750000  -4.187323e+001  -1.238638e+002 
3721875000  -4.145728e+001  -1.353906e+002 
3725000000  -4.194678e+001  -1.411375e+002 
3728125000  -4.140025e+001  -1.457597e+002 
3731250000  -4.085975e+001  -1.504097e+002 
3734375000  -3.994662e+001  -1.569954e+002 
3737500000  -4.076820e+001  -1.675588e+002 
3740625000  -4.113058e+001  -1.720280e+002 
3743750000  -4.072790e+001  -1.794672e+002 
3746875000  -4.067093e+001  1.744966e+002 
3750000000  -4.116341e+001  1.681580e+002 
3753125000  -4.062149e+001  1.663160e+002 
3756250000  -4.065120e+001  1.629661e+002 
3759375000  -4.028271e+001  1.581491e+002 
3762500000  -3.994572e+001  1.523148e+002 
3765625000  -4.052488e+001  1.452716e+002 
3768750000  -4.032526e+001  1.457019e+002 
3771875000  -3.857790e+001  1.392272e+002 
3775000000  -3.864119e+001  1.279816e+002 
3778125000  -3.917092e+001  1.225142e+002 
3781250000  -3.896095e+001  1.175274e+002 
3784375000  -3.892404e+001  1.109196e+002 
3787500000  -3.842837e+001  1.054902e+002 
3790625000  -3.910443e+001  9.588018e+001 
3793750000  -3.923426e+001  9.297363e+001 
3796875000  -3.831423e+001  8.846624e+001 
3800000000  -3.664244e+001  8.426357e+001 
3803125000  -3.826742e+001  7.093988e+001 
3806250000  -3.875591e+001  6.719585e+001 
3809375000  -3.853876e+001  6.246131e+001 
3812500000  -3.840991e+001  5.465226e+001 
3815625000  -3.943059e+001  4.493783e+001 
3818750000  -4.057521e+001  4.504726e+001 
3821875000  -4.032694e+001  5.481426e+001 
3825000000  -3.841597e+001  5.178866e+001 
3828125000  -3.730281e+001  3.199583e+001 
3831250000  -3.806233e+001  1.888833e+001 
3834375000  -4.004577e+001  1.807366e+001 
3837500000  -4.075497e+001  2.036806e+001 
3840625000  -3.938723e+001  1.850461e+001 
3843750000  -3.832689e+001  4.712906e+000 
3846875000  -3.973138e+001  -2.934270e+000 
3850000000  -4.101017e+001  1.746426e+000 
3853125000  -3.999287e+001  3.342235e+000 
3856250000  -3.992940e+001  -3.983480e+000 
3859375000  -3.904734e+001  -9.230499e+000 
3862500000  -3.886198e+001  -2.018642e+001 
3865625000  -3.913783e+001  -2.462811e+001 
3868750000  -3.887853e+001  -2.806502e+001 
3871875000  -3.809816e+001  -3.498872e+001 
3875000000  -3.837436e+001  -4.435633e+001 
3878125000  -3.963661e+001  -4.850136e+001 
3881250000  -3.935473e+001  -4.823616e+001 
3884375000  -3.898975e+001  -5.499267e+001 
3887500000  -3.929136e+001  -6.028769e+001 
3890625000  -3.954131e+001  -6.495890e+001 
3893750000  -3.976831e+001  -6.635890e+001 
3896875000  -4.005078e+001  -6.895397e+001 
3900000000  -4.007531e+001  -7.342799e+001 
3903125000  -3.943990e+001  -7.791524e+001 
3906250000  -3.916445e+001  -8.059718e+001 
3909375000  -3.835458e+001  -9.022775e+001 
3912500000  -3.918311e+001  -9.916732e+001 
3915625000  -4.033418e+001  -9.919770e+001 
3918750000  -4.005162e+001  -1.000053e+002 
3921875000  -3.928485e+001  -1.057614e+002 
3925000000  -3.870546e+001  -1.105342e+002 
3928125000  -3.830701e+001  -1.192191e+002 
3931250000  -3.917974e+001  -1.259853e+002 
3934375000  -3.952102e+001  -1.274285e+002 
3937500000  -4.014773e+001  -1.314713e+002 
3940625000  -4.014110e+001  -1.334819e+002 
3943750000  -3.901160e+001  -1.353942e+002 
3946875000  -3.845259e+001  -1.434302e+002 
3950000000  -3.941309e+001  -1.538733e+002 
3953125000  -4.032553e+001  -1.539479e+002 
3956250000  -3.898104e+001  -1.523641e+002 
3959375000  -3.805043e+001  -1.601419e+002 
3962500000  -3.798970e+001  -1.672664e+002 
3965625000  -3.772720e+001  -1.764844e+002 
3968750000  -3.885035e+001  1.742664e+002 
3971875000  -3.892535e+001  1.716295e+002 
3975000000  -3.838532e+001  1.657204e+002 
3978125000  -3.863993e+001  1.627220e+002 
3981250000  -3.874708e+001  1.554220e+002 
3984375000  -3.892029e+001  1.473312e+002 
3987500000  -3.981419e+001  1.442132e+002 
3990625000  -3.999900e+001  1.428153e+002 
3993750000  -4.032814e+001  1.367861e+002 
3996875000  -4.028428e+001  1.339111e+002 
4000000000  -4.090829e+001  1.275121e+002 
4003125000  -4.137392e+001  1.300634e+002 
4006250000  -3.976778e+001  1.288799e+002 
4009375000  -3.865495e+001  1.139706e+002 
4012500000  -4.021040e+001  1.059421e+002 
4015625000  -4.162740e+001  1.072509e+002 
4018750000  -4.134995e+001  1.079078e+002 
4021875000  -4.098886e+001  1.033994e+002 
4025000000  -4.071502e+001  9.691430e+001 
4028125000  -4.068800e+001  9.026189e+001 
4031250000  -4.137016e+001  8.720790e+001 
4034375000  -4.192184e+001  8.537016e+001 
4037500000  -4.121210e+001  8.468707e+001 
4040625000  -4.096400e+001  8.077963e+001 
4043750000  -4.134000e+001  7.934741e+001 
4046875000  -4.061073e+001  7.669854e+001 
4050000000  -4.057514e+001  7.010144e+001 
4053125000  -4.150751e+001  6.644933e+001 
4056250000  -4.179904e+001  7.079831e+001 
4059375000  -3.959186e+001  7.047969e+001 
4062500000  -3.901256e+001  6.107781e+001 
4065625000  -3.891369e+001  5.493344e+001 
4068750000  -3.861972e+001  4.947768e+001 
4071875000  -3.792954e+001  3.856804e+001 
4075000000  -3.840273e+001  3.107324e+001 
4078125000  -3.901845e+001  2.809628e+001 
4081250000  -3.848484e+001  2.445854e+001 
4084375000  -3.809644e+001  1.303719e+001 
4087500000  -3.878083e+001  7.338060e+000 
4090625000  -3.920086e+001  5.910041e+000 
4093750000  -3.895731e+001  3.864523e+000 
4096875000  -3.878375e+001  -6.267937e+000 
4100000000  -3.965104e+001  -1.308284e+001 
4103125000  -4.075117e+001  -1.442626e+001 
4106250000  -4.007523e+001  -9.824542e+000 
4109375000  -3.921107e+001  -1.284055e+001 
4112500000  -3.859749e+001  -2.374639e+001 
4115625000  -3.935458e+001  -2.953659e+001 
4118750000  -3.921512e+001  -3.356982e+001 
4121875000  -3.906029e+001  -4.091867e+001 
4125000000  -3.974820e+001  -4.662997e+001 
4128125000  -4.096366e+001  -4.686918e+001 
4131250000  -4.029667e+001  -4.019941e+001 
4134375000  -3.763127e+001  -4.850716e+001 
4137500000  -3.805381e+001  -6.998415e+001 
4140625000  -4.054655e+001  -7.795078e+001 
4143750000  -4.160390e+001  -7.044518e+001 
4146875000  -4.107267e+001  -6.860698e+001 
4150000000  -4.011055e+001  -7.486610e+001 
4153125000  -4.015007e+001  -8.163809e+001 
4156250000  -4.130768e+001  -8.612234e+001 
4159375000  -4.123999e+001  -8.100270e+001 
4162500000  -4.005795e+001  -7.802749e+001 
4165625000  -3.908413e+001  -8.717637e+001 
4168750000  -3.864829e+001  -9.683005e+001 
4171875000  -3.877103e+001  -1.074548e+002 
4175000000  -3.942784e+001  -1.118042e+002 
4178125000  -3.961748e+001  -1.127001e+002 
4181250000  -3.948381e+001  -1.171373e+002 
4184375000  -3.981944e+001  -1.226637e+002 
4187500000  -3.975653e+001  -1.260606e+002 
4190625000  -3.967920e+001  -1.345428e+002 
4193750000  -4.078285e+001  -1.393547e+002 
4196875000  -4.152280e+001  -1.405328e+002 
4200000000  -4.233085e+001  -1.353126e+002 
4203125000  -4.146497e+001  -1.245974e+002 
4206250000  -3.784426e+001  -1.305500e+002 
4209375000  -3.743666e+001  -1.538723e+002 
4212500000  -3.955734e+001  -1.615471e+002 
4215625000  -4.020771e+001  -1.559490e+002 
4218750000  -3.864471e+001  -1.529824e+002 
4221875000  -3.657783e+001  -1.615472e+002 
4225000000  -3.796652e+001  -1.762985e+002 
4228125000  -3.804181e+001  -1.737802e+002 
4231250000  -3.692870e+001  1.793139e+002 
4234375000  -3.664146e+001  1.687383e+002 
4237500000  -3.626250e+001  1.639810e+002 
4240625000  -3.645346e+001  1.513560e+002 
4243750000  -3.747961e+001  1.443149e+002 
4246875000  -3.861470e+001  1.434401e+002 
4250000000  -3.861032e+001  1.423544e+002 
4253125000  -3.830360e+001  1.394189e+002 
4256250000  -3.801185e+001  1.332426e+002 
4259375000  -3.783270e+001  1.291755e+002 
4262500000  -3.809341e+001  1.241671e+002 
4265625000  -3.813505e+001  1.214219e+002 
4268750000  -3.731107e+001  1.143977e+002 
4271875000  -3.692575e+001  1.059810e+002 
4275000000  -3.657954e+001  9.766553e+001 
4278125000  -3.801870e+001  8.500386e+001 
4281250000  -3.941243e+001  8.397002e+001 
4284375000  -3.889428e+001  8.281026e+001 
4287500000  -4.057414e+001  7.842757e+001 
4290625000  -4.124150e+001  8.541647e+001 
4293750000  -3.871787e+001  8.775679e+001 
4296875000  -3.832800e+001  7.393149e+001 
4300000000  -3.929818e+001  6.298543e+001 
4303125000  -4.016972e+001  6.760081e+001 
4306250000  -3.915055e+001  6.856313e+001 
4309375000  -3.806957e+001  6.397063e+001 
4312500000  -3.785102e+001  5.400516e+001 
4315625000  -3.799992e+001  4.509114e+001 
4318750000  -3.872284e+001  4.095052e+001 
4321875000  -3.893361e+001  4.257799e+001 
4325000000  -3.846608e+001  4.139690e+001 
4328125000  -3.765381e+001  3.339230e+001 
4331250000  -3.791751e+001  2.186443e+001 
4334375000  -3.873170e+001  1.411172e+001 
4337500000  -3.966165e+001  1.356217e+001 
4340625000  -4.004516e+001  1.817892e+001 
4343750000  -3.905756e+001  1.413120e+001 
4346875000  -3.888096e+001  6.411939e+000 
4350000000  -3.870284e+001  -1.311022e+000 
4353125000  -3.908675e+001  -9.574565e+000 
4356250000  -4.123641e+001  -6.340164e+000 
4359375000  -4.051906e+001  7.985722e+000 
4362500000  -3.733195e+001  7.102155e-001 
4365625000  -3.639136e+001  -1.613123e+001 
4368750000  -3.751741e+001  -2.644807e+001 
4371875000  -3.836173e+001  -2.774393e+001 
4375000000  -3.788268e+001  -2.993105e+001 
4378125000  -3.735452e+001  -3.768898e+001 
4381250000  -3.740961e+001  -4.623255e+001 
4384375000  -3.750439e+001  -5.255574e+001 
4387500000  -3.865960e+001  -5.708295e+001 
4390625000  -3.892647e+001  -5.930314e+001 
4393750000  -3.820840e+001  -5.892318e+001 
4396875000  -3.782851e+001  -6.337668e+001 
4400000000  -3.713304e+001  -7.321681e+001 
4403125000  -3.816588e+001  -8.194572e+001 
4406250000  -3.864621e+001  -8.783755e+001 
4409375000  -3.903890e+001  -8.995190e+001 
4412500000  -4.035432e+001  -9.300823e+001 
4415625000  -4.018357e+001  -8.784049e+001 
4418750000  -3.863227e+001  -8.733440e+001 
