!Agilent Technologies,E8363B,MY43030201,A.06.04.32
!Agilent E8363B: A.06.04.32
!Date: Tuesday, November 11, 2014 21:36:00
!Correction: S21(Response(S21)) 
!S1P File: Measurement: S21:
# Hz S  dB   R 50
3000000000  -4.061877e+001  7.106754e+001 
3003125000  -4.196418e+001  6.361140e+001 
3006250000  -4.224315e+001  6.439014e+001 
3009375000  -4.270404e+001  6.813979e+001 
3012500000  -4.152505e+001  6.243508e+001 
3015625000  -4.145440e+001  5.684851e+001 
3018750000  -4.180657e+001  5.687707e+001 
3021875000  -4.019777e+001  5.906953e+001 
3025000000  -3.887011e+001  5.390820e+001 
3028125000  -3.786141e+001  4.316254e+001 
3031250000  -3.707591e+001  3.191065e+001 
3034375000  -3.667984e+001  1.832574e+001 
3037500000  -3.750913e+001  6.686469e+000 
3040625000  -3.885651e+001  2.429309e+000 
3043750000  -3.914994e+001  -4.601803e+000 
3046875000  -3.987805e+001  -1.098766e+001 
3050000000  -4.114397e+001  -1.367981e+001 
3053125000  -4.072546e+001  -1.095786e+001 
3056250000  -4.043418e+001  -6.851633e+000 
3059375000  -3.981520e+001  -9.919108e+000 
3062500000  -3.815619e+001  -1.481593e+001 
3065625000  -3.790900e+001  -2.453868e+001 
3068750000  -3.749585e+001  -3.112123e+001 
3071875000  -3.752646e+001  -3.352053e+001 
3075000000  -3.709291e+001  -4.041364e+001 
3078125000  -3.702526e+001  -4.707514e+001 
3081250000  -3.697937e+001  -5.251802e+001 
3084375000  -3.636491e+001  -5.766415e+001 
3087500000  -3.638570e+001  -6.480910e+001 
3090625000  -3.586824e+001  -7.668410e+001 
3093750000  -3.704262e+001  -8.458227e+001 
3096875000  -3.726039e+001  -8.943274e+001 
3100000000  -3.713671e+001  -9.328120e+001 
3103125000  -3.760533e+001  -9.660798e+001 
3106250000  -3.719577e+001  -1.012621e+002 
3109375000  -3.721380e+001  -1.055054e+002 
3112500000  -3.716163e+001  -1.110293e+002 
3115625000  -3.722462e+001  -1.141865e+002 
3118750000  -3.719908e+001  -1.181680e+002 
3121875000  -3.647293e+001  -1.298139e+002 
3125000000  -3.846336e+001  -1.333677e+002 
3128125000  -3.857843e+001  -1.260894e+002 
3131250000  -3.599186e+001  -1.317050e+002 
3134375000  -3.547580e+001  -1.491034e+002 
3137500000  -3.605850e+001  -1.617760e+002 
3140625000  -3.737370e+001  -1.634665e+002 
3143750000  -3.813583e+001  -1.666476e+002 
3146875000  -3.756697e+001  -1.638605e+002 
3150000000  -3.681723e+001  -1.683722e+002 
3153125000  -3.721638e+001  -1.763703e+002 
3156250000  -3.808996e+001  -1.719753e+002 
3159375000  -3.553836e+001  -1.737558e+002 
3162500000  -3.415829e+001  1.702082e+002 
3165625000  -3.547271e+001  1.574791e+002 
3168750000  -3.537421e+001  1.568468e+002 
3171875000  -3.490520e+001  1.495066e+002 
3175000000  -3.548098e+001  1.397883e+002 
3178125000  -3.495872e+001  1.388306e+002 
3181250000  -3.439964e+001  1.302582e+002 
3184375000  -3.416117e+001  1.188026e+002 
3187500000  -3.548127e+001  1.042524e+002 
3190625000  -3.717308e+001  9.747716e+001 
3193750000  -3.737611e+001  1.038431e+002 
3196875000  -3.734854e+001  1.044877e+002 
3200000000  -3.617635e+001  9.862241e+001 
3203125000  -3.585853e+001  9.040526e+001 
3206250000  -3.613372e+001  8.346421e+001 
3209375000  -3.572191e+001  7.558683e+001 
3212500000  -3.629119e+001  6.819402e+001 
3215625000  -3.605760e+001  6.532328e+001 
3218750000  -3.673527e+001  5.483339e+001 
3221875000  -3.716793e+001  4.860068e+001 
3225000000  -3.688309e+001  4.437115e+001 
3228125000  -3.776086e+001  3.588868e+001 
3231250000  -3.817304e+001  3.562704e+001 
3234375000  -3.789541e+001  3.236588e+001 
3237500000  -3.795974e+001  2.746847e+001 
3240625000  -3.752292e+001  2.168814e+001 
3243750000  -3.770653e+001  1.146827e+001 
3246875000  -3.819417e+001  4.244198e+000 
3250000000  -3.877677e+001  2.393047e-001 
3253125000  -3.893547e+001  -2.009161e+000 
3256250000  -3.878963e+001  -1.032173e+001 
3259375000  -3.929767e+001  -2.122628e+001 
3262500000  -4.062348e+001  -2.495634e+001 
3265625000  -4.116295e+001  -2.228802e+001 
3268750000  -4.111219e+001  -2.118851e+001 
3271875000  -4.034924e+001  -2.384095e+001 
3275000000  -4.004314e+001  -3.452037e+001 
3278125000  -4.096351e+001  -3.811086e+001 
3281250000  -4.114693e+001  -3.923048e+001 
3284375000  -4.051368e+001  -4.468600e+001 
3287500000  -4.097784e+001  -4.976921e+001 
3290625000  -4.109642e+001  -5.740900e+001 
3293750000  -4.118002e+001  -6.314970e+001 
3296875000  -4.230757e+001  -6.464386e+001 
3300000000  -4.159488e+001  -6.333370e+001 
3303125000  -4.103412e+001  -7.124238e+001 
3306250000  -4.062900e+001  -7.795729e+001 
3309375000  -4.044705e+001  -8.572770e+001 
3312500000  -4.100665e+001  -9.702541e+001 
3315625000  -4.217958e+001  -1.045696e+002 
3318750000  -4.374267e+001  -1.079340e+002 
3321875000  -4.524308e+001  -1.055277e+002 
3325000000  -4.467760e+001  -9.854771e+001 
3328125000  -4.367286e+001  -9.838172e+001 
3331250000  -4.221867e+001  -9.334534e+001 
3334375000  -3.979844e+001  -1.113222e+002 
3337500000  -4.032783e+001  -1.323692e+002 
3340625000  -4.228040e+001  -1.420797e+002 
3343750000  -4.397902e+001  -1.401111e+002 
3346875000  -4.341006e+001  -1.403977e+002 
3350000000  -4.310296e+001  -1.446142e+002 
3353125000  -4.270465e+001  -1.517414e+002 
3356250000  -4.261224e+001  -1.587062e+002 
3359375000  -4.344345e+001  -1.713641e+002 
3362500000  -4.444468e+001  -1.751967e+002 
3365625000  -4.473880e+001  1.796822e+002 
3368750000  -4.534336e+001  1.742390e+002 
3371875000  -4.585459e+001  1.731124e+002 
3375000000  -4.740083e+001  1.685332e+002 
3378125000  -4.877990e+001  1.666752e+002 
3381250000  -4.947527e+001  1.779092e+002 
3384375000  -4.695432e+001  -1.685713e+002 
3387500000  -4.376236e+001  1.708135e+002 
3390625000  -4.599121e+001  1.515026e+002 
3393750000  -4.706937e+001  1.526068e+002 
3396875000  -4.610494e+001  1.493721e+002 
3400000000  -4.609195e+001  1.392854e+002 
3403125000  -4.682113e+001  1.338320e+002 
3406250000  -4.778261e+001  1.301756e+002 
3409375000  -4.826553e+001  1.218891e+002 
3412500000  -4.876772e+001  1.138602e+002 
3415625000  -4.933828e+001  1.169577e+002 
3418750000  -5.019982e+001  1.153340e+002 
3421875000  -5.133749e+001  1.257915e+002 
3425000000  -5.051357e+001  1.197281e+002 
3428125000  -4.977536e+001  1.143832e+002 
3431250000  -5.002644e+001  9.893015e+001 
3434375000  -5.107514e+001  1.030528e+002 
3437500000  -5.164047e+001  9.998862e+001 
3440625000  -5.122588e+001  9.966722e+001 
3443750000  -5.069370e+001  1.008583e+002 
3446875000  -5.018805e+001  1.008470e+002 
3450000000  -5.008722e+001  9.261832e+001 
3453125000  -5.007908e+001  8.161362e+001 
3456250000  -5.214916e+001  8.222297e+001 
3459375000  -5.374885e+001  8.615630e+001 
3462500000  -5.227181e+001  8.773763e+001 
3465625000  -5.108297e+001  7.820219e+001 
3468750000  -5.197112e+001  7.816573e+001 
3471875000  -5.221771e+001  7.380223e+001 
3475000000  -5.109889e+001  7.140990e+001 
3478125000  -5.159830e+001  5.946964e+001 
3481250000  -5.221595e+001  6.610432e+001 
3484375000  -5.257105e+001  6.530474e+001 
3487500000  -5.139958e+001  5.911159e+001 
3490625000  -5.103279e+001  4.881783e+001 
3493750000  -5.160654e+001  4.873785e+001 
3496875000  -5.185183e+001  5.020631e+001 
3500000000  -5.242978e+001  4.864582e+001 
3503125000  -5.012093e+001  4.518055e+001 
3506250000  -5.014781e+001  3.551377e+001 
3509375000  -4.995105e+001  2.370821e+001 
3512500000  -5.020124e+001  1.025566e+001 
3515625000  -5.162795e+001  1.021718e+001 
3518750000  -5.261997e+001  1.047086e+001 
3521875000  -5.253157e+001  9.181060e-001 
3525000000  -5.350513e+001  3.359986e+000 
3528125000  -5.200453e+001  -2.130649e+000 
3531250000  -5.266673e+001  -2.558752e+000 
3534375000  -5.296463e+001  -1.713211e+001 
3537500000  -5.366997e+001  -2.730369e+001 
3540625000  -5.531017e+001  -2.768246e+001 
3543750000  -5.491859e+001  -2.121901e+001 
3546875000  -5.584947e+001  -9.337645e+000 
3550000000  -5.341549e+001  -1.455165e+001 
3553125000  -5.323791e+001  -3.945263e+001 
3556250000  -5.399888e+001  -3.670651e+001 
3559375000  -5.549230e+001  -3.669813e+001 
3562500000  -5.567367e+001  -4.659680e+001 
3565625000  -5.729405e+001  -4.664037e+001 
3568750000  -5.681440e+001  -3.626558e+001 
3571875000  -5.716082e+001  -3.940939e+001 
3575000000  -5.856894e+001  -3.815775e+001 
3578125000  -6.000957e+001  -4.344577e+001 
3581250000  -5.956195e+001  -4.084848e+001 
3584375000  -6.016904e+001  -3.786412e+001 
3587500000  -5.753571e+001  -5.130011e+001 
3590625000  -5.917424e+001  -6.317273e+001 
3593750000  -5.838244e+001  -5.648287e+001 
3596875000  -6.027981e+001  -3.694976e+001 
3600000000  -5.777883e+001  -3.267360e+001 
3603125000  -5.711213e+001  -4.886158e+001 
3606250000  -5.783329e+001  -5.574345e+001 
3609375000  -5.822127e+001  -4.790021e+001 
3612500000  -5.827752e+001  -6.583725e+001 
3615625000  -5.860719e+001  -4.847417e+001 
3618750000  -5.905645e+001  -4.523879e+001 
3621875000  -5.883699e+001  -4.585599e+001 
3625000000  -5.765313e+001  -4.279394e+001 
3628125000  -5.643110e+001  -3.601839e+001 
3631250000  -5.642353e+001  -4.358054e+001 
3634375000  -5.737809e+001  -4.599124e+001 
3637500000  -5.512662e+001  -4.912989e+001 
3640625000  -5.383966e+001  -3.794725e+001 
3643750000  -5.283964e+001  -4.899192e+001 
3646875000  -5.403949e+001  -6.121504e+001 
3650000000  -5.305557e+001  -5.907590e+001 
3653125000  -5.218762e+001  -6.177632e+001 
3656250000  -5.178875e+001  -6.486021e+001 
3659375000  -5.199312e+001  -6.086009e+001 
3662500000  -5.144915e+001  -7.182996e+001 
3665625000  -4.971223e+001  -7.256764e+001 
3668750000  -4.814225e+001  -7.479871e+001 
3671875000  -4.737074e+001  -8.859151e+001 
3675000000  -4.707013e+001  -9.395862e+001 
3678125000  -4.718661e+001  -9.844598e+001 
3681250000  -4.641720e+001  -1.048197e+002 
3684375000  -4.671355e+001  -1.074035e+002 
3687500000  -4.659614e+001  -1.155194e+002 
3690625000  -4.651140e+001  -1.191204e+002 
3693750000  -4.677488e+001  -1.225836e+002 
3696875000  -4.646595e+001  -1.196920e+002 
3700000000  -4.511698e+001  -1.236692e+002 
3703125000  -4.555170e+001  -1.359096e+002 
3706250000  -4.585075e+001  -1.346606e+002 
3709375000  -4.506834e+001  -1.337368e+002 
3712500000  -4.348199e+001  -1.381384e+002 
3715625000  -4.199772e+001  -1.489728e+002 
3718750000  -4.180573e+001  -1.573866e+002 
3721875000  -4.159470e+001  -1.657906e+002 
3725000000  -4.149610e+001  -1.704599e+002 
3728125000  -4.139531e+001  -1.745371e+002 
3731250000  -4.078429e+001  1.787374e+002 
3734375000  -4.033846e+001  1.703405e+002 
3737500000  -4.104523e+001  1.635658e+002 
3740625000  -4.088026e+001  1.580005e+002 
3743750000  -4.026698e+001  1.515635e+002 
3746875000  -4.083212e+001  1.417647e+002 
3750000000  -4.056419e+001  1.390816e+002 
3753125000  -4.057671e+001  1.358482e+002 
3756250000  -4.060769e+001  1.327129e+002 
3759375000  -4.046347e+001  1.281371e+002 
3762500000  -4.008223e+001  1.206018e+002 
3765625000  -4.078798e+001  1.157409e+002 
3768750000  -4.021488e+001  1.169061e+002 
3771875000  -3.829520e+001  1.075956e+002 
3775000000  -3.848703e+001  9.846332e+001 
3778125000  -3.899395e+001  9.040755e+001 
3781250000  -3.887785e+001  8.648420e+001 
3784375000  -3.880437e+001  7.946334e+001 
3787500000  -3.852643e+001  7.489004e+001 
3790625000  -3.922189e+001  6.595540e+001 
3793750000  -3.899357e+001  6.239956e+001 
3796875000  -3.817558e+001  5.726346e+001 
3800000000  -3.646247e+001  5.430982e+001 
3803125000  -3.820961e+001  4.059418e+001 
3806250000  -3.898959e+001  3.617189e+001 
3809375000  -3.860822e+001  3.203073e+001 
3812500000  -3.841823e+001  2.284506e+001 
3815625000  -3.952938e+001  1.253922e+001 
3818750000  -4.079675e+001  1.563732e+001 
3821875000  -4.023101e+001  2.519489e+001 
3825000000  -3.806583e+001  2.222646e+001 
3828125000  -3.696502e+001  1.358341e+000 
3831250000  -3.807890e+001  -1.153578e+001 
3834375000  -4.042877e+001  -1.449718e+001 
3837500000  -4.078179e+001  -8.372904e+000 
3840625000  -3.887870e+001  -1.180794e+001 
3843750000  -3.808492e+001  -2.665318e+001 
3846875000  -3.986166e+001  -3.374991e+001 
3850000000  -4.087566e+001  -2.907984e+001 
3853125000  -3.985115e+001  -2.588796e+001 
3856250000  -3.945210e+001  -3.454192e+001 
3859375000  -3.868907e+001  -4.348754e+001 
3862500000  -3.836391e+001  -5.284324e+001 
3865625000  -3.903154e+001  -5.734206e+001 
3868750000  -3.855668e+001  -5.826975e+001 
3871875000  -3.790765e+001  -6.728648e+001 
3875000000  -3.860416e+001  -7.445650e+001 
3878125000  -3.943423e+001  -7.619214e+001 
3881250000  -3.900919e+001  -7.956465e+001 
3884375000  -3.863062e+001  -8.702247e+001 
3887500000  -3.900997e+001  -9.174319e+001 
3890625000  -3.942317e+001  -9.680412e+001 
3893750000  -3.958255e+001  -9.816278e+001 
3896875000  -3.997325e+001  -1.019264e+002 
3900000000  -3.985762e+001  -1.028086e+002 
3903125000  -3.935048e+001  -1.089885e+002 
3906250000  -3.866603e+001  -1.127450e+002 
3909375000  -3.826172e+001  -1.229926e+002 
3912500000  -3.882605e+001  -1.313043e+002 
3915625000  -4.047094e+001  -1.308468e+002 
3918750000  -3.990089e+001  -1.320842e+002 
3921875000  -3.932975e+001  -1.360016e+002 
3925000000  -3.861050e+001  -1.426480e+002 
3928125000  -3.834344e+001  -1.527349e+002 
3931250000  -3.911536e+001  -1.591264e+002 
3934375000  -3.958017e+001  -1.595110e+002 
3937500000  -4.011095e+001  -1.613414e+002 
3940625000  -3.985974e+001  -1.636643e+002 
3943750000  -3.863042e+001  -1.662805e+002 
3946875000  -3.853469e+001  -1.766488e+002 
3950000000  -3.958192e+001  1.754610e+002 
3953125000  -4.011127e+001  1.763850e+002 
3956250000  -3.894784e+001  1.748327e+002 
3959375000  -3.789009e+001  1.695464e+002 
3962500000  -3.758870e+001  1.608328e+002 
3965625000  -3.793137e+001  1.524648e+002 
3968750000  -3.879309e+001  1.447234e+002 
3971875000  -3.862491e+001  1.387041e+002 
3975000000  -3.842449e+001  1.345163e+002 
3978125000  -3.849708e+001  1.306735e+002 
3981250000  -3.860947e+001  1.243129e+002 
3984375000  -3.884394e+001  1.158079e+002 
3987500000  -3.954358e+001  1.124091e+002 
3990625000  -3.998137e+001  1.105899e+002 
3993750000  -4.002778e+001  1.088075e+002 
3996875000  -4.013157e+001  1.008069e+002 
4000000000  -4.059957e+001  9.724360e+001 
4003125000  -4.091322e+001  9.855733e+001 
4006250000  -3.911409e+001  9.673946e+001 
4009375000  -3.873507e+001  8.356836e+001 
4012500000  -4.026569e+001  7.266725e+001 
4015625000  -4.136976e+001  7.306457e+001 
4018750000  -4.142477e+001  7.597866e+001 
4021875000  -4.088831e+001  7.033836e+001 
4025000000  -4.042373e+001  6.448293e+001 
4028125000  -4.067548e+001  5.785454e+001 
4031250000  -4.139332e+001  5.415445e+001 
4034375000  -4.138936e+001  5.340540e+001 
4037500000  -4.095775e+001  5.353395e+001 
4040625000  -4.088012e+001  4.976597e+001 
4043750000  -4.113514e+001  4.708318e+001 
4046875000  -4.087017e+001  4.176976e+001 
4050000000  -4.071093e+001  4.015670e+001 
4053125000  -4.171479e+001  3.753633e+001 
4056250000  -4.120780e+001  3.887539e+001 
4059375000  -3.961485e+001  3.602452e+001 
4062500000  -3.873276e+001  3.038367e+001 
4065625000  -3.888574e+001  2.206590e+001 
4068750000  -3.804784e+001  1.627560e+001 
4071875000  -3.790205e+001  5.214783e+000 
4075000000  -3.846769e+001  -1.047684e+000 
4078125000  -3.876395e+001  -5.026437e+000 
4081250000  -3.822582e+001  -9.100601e+000 
4084375000  -3.818102e+001  -1.924338e+001 
4087500000  -3.871655e+001  -2.557595e+001 
4090625000  -3.917896e+001  -2.833788e+001 
4093750000  -3.871989e+001  -3.052114e+001 
4096875000  -3.886332e+001  -4.118240e+001 
4100000000  -3.974461e+001  -4.783449e+001 
4103125000  -4.071872e+001  -4.484964e+001 
4106250000  -3.985254e+001  -4.146275e+001 
4109375000  -3.898098e+001  -4.563248e+001 
4112500000  -3.877233e+001  -5.522499e+001 
4115625000  -3.932772e+001  -6.157364e+001 
4118750000  -3.891746e+001  -6.712714e+001 
4121875000  -3.879698e+001  -7.486607e+001 
4125000000  -4.006374e+001  -8.041047e+001 
4128125000  -4.098579e+001  -7.830247e+001 
4131250000  -3.964989e+001  -7.400432e+001 
4134375000  -3.739110e+001  -8.273576e+001 
4137500000  -3.819737e+001  -1.051837e+002 
4140625000  -4.047433e+001  -1.078090e+002 
4143750000  -4.116239e+001  -1.025089e+002 
4146875000  -4.072799e+001  -9.989529e+001 
4150000000  -3.964075e+001  -1.083887e+002 
4153125000  -3.978242e+001  -1.141667e+002 
4156250000  -4.129162e+001  -1.207884e+002 
4159375000  -4.106966e+001  -1.166333e+002 
4162500000  -3.969212e+001  -1.124857e+002 
4165625000  -3.878748e+001  -1.201766e+002 
4168750000  -3.857276e+001  -1.299479e+002 
4171875000  -3.853621e+001  -1.401169e+002 
4175000000  -3.928381e+001  -1.457193e+002 
4178125000  -3.970396e+001  -1.470479e+002 
4181250000  -3.924864e+001  -1.512021e+002 
4184375000  -3.952187e+001  -1.556561e+002 
4187500000  -3.961340e+001  -1.597483e+002 
4190625000  -3.937807e+001  -1.678522e+002 
4193750000  -4.045070e+001  -1.745849e+002 
4196875000  -4.151644e+001  -1.733283e+002 
4200000000  -4.256054e+001  -1.675891e+002 
4203125000  -4.085966e+001  -1.559436e+002 
4206250000  -3.731813e+001  -1.644141e+002 
4209375000  -3.763009e+001  1.701384e+002 
4212500000  -3.974841e+001  1.651099e+002 
4215625000  -4.003951e+001  1.702251e+002 
4218750000  -3.814834e+001  1.726803e+002 
4221875000  -3.671193e+001  1.634939e+002 
4225000000  -3.796766e+001  1.529001e+002 
4228125000  -3.761650e+001  1.519153e+002 
4231250000  -3.621651e+001  1.451806e+002 
4234375000  -3.618039e+001  1.346104e+002 
4237500000  -3.621689e+001  1.286884e+002 
4240625000  -3.638629e+001  1.168622e+002 
4243750000  -3.750009e+001  1.083184e+002 
4246875000  -3.854867e+001  1.083183e+002 
4250000000  -3.843029e+001  1.085125e+002 
4253125000  -3.822940e+001  1.053951e+002 
4256250000  -3.836613e+001  1.009300e+002 
4259375000  -3.783558e+001  9.465919e+001 
4262500000  -3.800695e+001  9.088036e+001 
4265625000  -3.788193e+001  8.944505e+001 
4268750000  -3.698802e+001  8.052588e+001 
4271875000  -3.689939e+001  7.172725e+001 
4275000000  -3.649439e+001  6.346139e+001 
4278125000  -3.770709e+001  5.117630e+001 
4281250000  -3.923301e+001  5.087794e+001 
4284375000  -3.869855e+001  4.785416e+001 
4287500000  -4.055942e+001  4.420066e+001 
4290625000  -4.052385e+001  5.418650e+001 
4293750000  -3.869756e+001  5.233923e+001 
4296875000  -3.773533e+001  4.051352e+001 
4300000000  -3.913217e+001  3.275871e+001 
4303125000  -3.986780e+001  3.459068e+001 
4306250000  -3.859277e+001  3.575878e+001 
4309375000  -3.767746e+001  2.967601e+001 
4312500000  -3.762960e+001  1.844793e+001 
4315625000  -3.788669e+001  1.125696e+001 
4318750000  -3.836354e+001  7.239061e+000 
4321875000  -3.867871e+001  7.721247e+000 
4325000000  -3.801192e+001  6.598319e+000 
4328125000  -3.723133e+001  -2.803531e+000 
4331250000  -3.756720e+001  -1.387198e+001 
4334375000  -3.842105e+001  -2.082001e+001 
4337500000  -3.939475e+001  -2.079898e+001 
4340625000  -3.940535e+001  -1.651562e+001 
4343750000  -3.886879e+001  -2.085514e+001 
4346875000  -3.852285e+001  -2.911876e+001 
4350000000  -3.841866e+001  -3.822854e+001 
4353125000  -3.916196e+001  -4.369912e+001 
4356250000  -4.102034e+001  -4.030210e+001 
4359375000  -3.986068e+001  -2.490210e+001 
4362500000  -3.660087e+001  -3.511979e+001 
4365625000  -3.591818e+001  -5.278957e+001 
4368750000  -3.705205e+001  -6.072663e+001 
4371875000  -3.785661e+001  -6.145138e+001 
4375000000  -3.729641e+001  -6.579148e+001 
4378125000  -3.667133e+001  -7.356757e+001 
4381250000  -3.706967e+001  -8.165638e+001 
4384375000  -3.721455e+001  -8.675375e+001 
4387500000  -3.833531e+001  -9.469373e+001 
4390625000  -3.861343e+001  -9.635193e+001 
4393750000  -3.805347e+001  -9.428101e+001 
4396875000  -3.731310e+001  -1.014417e+002 
4400000000  -3.684661e+001  -1.091116e+002 
4403125000  -3.779630e+001  -1.182639e+002 
4406250000  -3.827100e+001  -1.206495e+002 
4409375000  -3.874560e+001  -1.258815e+002 
4412500000  -3.977426e+001  -1.291944e+002 
4415625000  -3.929708e+001  -1.237384e+002 
