!Agilent Technologies,E8363B,MY43030201,A.06.04.32
!Agilent E8363B: A.06.04.32
!Date: Tuesday, November 11, 2014 21:33:52
!Correction: S21(Response(S21)) 
!S1P File: Measurement: S21:
# Hz S  dB   R 50
3000000000  -4.056895e+001  7.288577e+001 
3003125000  -4.221491e+001  6.501492e+001 
3006250000  -4.202383e+001  6.507519e+001 
3009375000  -4.287167e+001  7.057705e+001 
3012500000  -4.160188e+001  6.335320e+001 
3015625000  -4.148886e+001  5.851658e+001 
3018750000  -4.166049e+001  6.053437e+001 
3021875000  -4.009752e+001  5.959949e+001 
3025000000  -3.876793e+001  5.512788e+001 
3028125000  -3.789407e+001  4.508062e+001 
3031250000  -3.705317e+001  3.392015e+001 
3034375000  -3.668226e+001  1.990891e+001 
3037500000  -3.759951e+001  8.832128e+000 
3040625000  -3.872480e+001  4.348369e+000 
3043750000  -3.911261e+001  -2.590622e+000 
3046875000  -3.957019e+001  -7.949596e+000 
3050000000  -4.099104e+001  -1.305903e+001 
3053125000  -4.056847e+001  -8.556928e+000 
3056250000  -4.055534e+001  -3.768098e+000 
3059375000  -3.974335e+001  -7.723392e+000 
3062500000  -3.823679e+001  -1.292356e+001 
3065625000  -3.798017e+001  -2.268757e+001 
3068750000  -3.765730e+001  -2.976229e+001 
3071875000  -3.761444e+001  -3.184358e+001 
3075000000  -3.696600e+001  -3.938152e+001 
3078125000  -3.711592e+001  -4.606833e+001 
3081250000  -3.728448e+001  -5.099618e+001 
3084375000  -3.636366e+001  -5.621843e+001 
3087500000  -3.637359e+001  -6.323963e+001 
3090625000  -3.592888e+001  -7.539903e+001 
3093750000  -3.697266e+001  -8.252128e+001 
3096875000  -3.739164e+001  -8.770934e+001 
3100000000  -3.719047e+001  -9.148228e+001 
3103125000  -3.749578e+001  -9.473901e+001 
3106250000  -3.720528e+001  -9.935433e+001 
3109375000  -3.717406e+001  -1.041524e+002 
3112500000  -3.717392e+001  -1.094208e+002 
3115625000  -3.712388e+001  -1.136964e+002 
3118750000  -3.714002e+001  -1.172678e+002 
3121875000  -3.653852e+001  -1.286111e+002 
3125000000  -3.855293e+001  -1.313972e+002 
3128125000  -3.838482e+001  -1.239656e+002 
3131250000  -3.614375e+001  -1.306902e+002 
3134375000  -3.539468e+001  -1.472589e+002 
3137500000  -3.605342e+001  -1.590009e+002 
3140625000  -3.734842e+001  -1.620087e+002 
3143750000  -3.804637e+001  -1.643127e+002 
3146875000  -3.750965e+001  -1.632058e+002 
3150000000  -3.680381e+001  -1.656394e+002 
3153125000  -3.727204e+001  -1.746805e+002 
3156250000  -3.798980e+001  -1.701502e+002 
3159375000  -3.553988e+001  -1.723518e+002 
3162500000  -3.424448e+001  1.725726e+002 
3165625000  -3.545620e+001  1.591067e+002 
3168750000  -3.535939e+001  1.587605e+002 
3171875000  -3.493821e+001  1.504194e+002 
3175000000  -3.541574e+001  1.418386e+002 
3178125000  -3.506276e+001  1.403816e+002 
3181250000  -3.439450e+001  1.315776e+002 
3184375000  -3.427634e+001  1.201860e+002 
3187500000  -3.546273e+001  1.058306e+002 
3190625000  -3.732581e+001  9.889534e+001 
3193750000  -3.747990e+001  1.041348e+002 
3196875000  -3.733520e+001  1.067367e+002 
3200000000  -3.608582e+001  1.003684e+002 
3203125000  -3.588266e+001  9.250448e+001 
3206250000  -3.608537e+001  8.527478e+001 
3209375000  -3.575937e+001  7.741096e+001 
3212500000  -3.623521e+001  7.003062e+001 
3215625000  -3.599557e+001  6.739168e+001 
3218750000  -3.676774e+001  5.591549e+001 
3221875000  -3.723663e+001  4.967287e+001 
3225000000  -3.705418e+001  4.534745e+001 
3228125000  -3.772401e+001  3.885256e+001 
3231250000  -3.830400e+001  3.644971e+001 
3234375000  -3.791204e+001  3.357807e+001 
3237500000  -3.811301e+001  2.904449e+001 
3240625000  -3.757731e+001  2.416622e+001 
3243750000  -3.771992e+001  1.400194e+001 
3246875000  -3.806014e+001  6.223155e+000 
3250000000  -3.888921e+001  2.958616e+000 
3253125000  -3.907467e+001  5.166414e-001 
3256250000  -3.854274e+001  -8.347569e+000 
3259375000  -3.907147e+001  -1.944036e+001 
3262500000  -4.065751e+001  -2.327417e+001 
3265625000  -4.092612e+001  -2.039570e+001 
3268750000  -4.117317e+001  -1.829537e+001 
3271875000  -4.057007e+001  -2.350228e+001 
3275000000  -4.013914e+001  -3.292170e+001 
3278125000  -4.096515e+001  -3.474933e+001 
3281250000  -4.102296e+001  -3.737917e+001 
3284375000  -4.063920e+001  -4.303688e+001 
3287500000  -4.095115e+001  -4.807358e+001 
3290625000  -4.104162e+001  -5.689827e+001 
3293750000  -4.132859e+001  -6.189515e+001 
3296875000  -4.240298e+001  -6.303197e+001 
3300000000  -4.166059e+001  -6.140458e+001 
3303125000  -4.099932e+001  -6.786354e+001 
3306250000  -4.071941e+001  -7.675977e+001 
3309375000  -4.060484e+001  -8.181429e+001 
3312500000  -4.100053e+001  -9.690524e+001 
3315625000  -4.223203e+001  -1.030630e+002 
3318750000  -4.374153e+001  -1.057818e+002 
3321875000  -4.473417e+001  -1.035453e+002 
3325000000  -4.481194e+001  -9.767137e+001 
3328125000  -4.330469e+001  -9.731508e+001 
3331250000  -4.226597e+001  -9.522247e+001 
3334375000  -3.979892e+001  -1.088968e+002 
3337500000  -4.062119e+001  -1.297439e+002 
3340625000  -4.212720e+001  -1.412053e+002 
3343750000  -4.433084e+001  -1.378936e+002 
3346875000  -4.336411e+001  -1.392067e+002 
3350000000  -4.288618e+001  -1.424497e+002 
3353125000  -4.297699e+001  -1.508607e+002 
3356250000  -4.237801e+001  -1.596453e+002 
3359375000  -4.360044e+001  -1.692209e+002 
3362500000  -4.439553e+001  -1.741900e+002 
3365625000  -4.477568e+001  -1.795859e+002 
3368750000  -4.567316e+001  1.769573e+002 
3371875000  -4.577003e+001  1.740507e+002 
3375000000  -4.755696e+001  1.698953e+002 
3378125000  -4.807666e+001  1.704615e+002 
3381250000  -4.955884e+001  -1.771717e+002 
3384375000  -4.605023e+001  -1.672445e+002 
3387500000  -4.360768e+001  1.730652e+002 
3390625000  -4.601410e+001  1.535448e+002 
3393750000  -4.712838e+001  1.539150e+002 
3396875000  -4.596703e+001  1.523354e+002 
3400000000  -4.620024e+001  1.360983e+002 
3403125000  -4.692914e+001  1.353879e+002 
3406250000  -4.787708e+001  1.305301e+002 
3409375000  -4.804070e+001  1.230640e+002 
3412500000  -4.900909e+001  1.172592e+002 
3415625000  -5.020580e+001  1.142226e+002 
3418750000  -5.043241e+001  1.178545e+002 
3421875000  -5.106902e+001  1.201861e+002 
3425000000  -5.009364e+001  1.189799e+002 
3428125000  -4.995419e+001  1.143372e+002 
3431250000  -5.071641e+001  1.091608e+002 
3434375000  -5.040882e+001  1.011235e+002 
3437500000  -5.165136e+001  1.022928e+002 
3440625000  -5.242474e+001  1.103461e+002 
3443750000  -5.077904e+001  1.086789e+002 
3446875000  -5.057810e+001  1.028520e+002 
3450000000  -5.035556e+001  9.007077e+001 
3453125000  -5.083522e+001  8.161781e+001 
3456250000  -5.168741e+001  8.353087e+001 
3459375000  -5.348121e+001  8.601464e+001 
3462500000  -5.139124e+001  8.774556e+001 
3465625000  -5.144709e+001  7.897723e+001 
3468750000  -5.206995e+001  7.766468e+001 
3471875000  -5.263972e+001  7.570277e+001 
3475000000  -5.101262e+001  6.679129e+001 
3478125000  -5.189514e+001  6.481535e+001 
3481250000  -5.216067e+001  6.459932e+001 
3484375000  -5.231490e+001  6.630389e+001 
3487500000  -5.170838e+001  6.216246e+001 
3490625000  -5.026009e+001  5.826053e+001 
3493750000  -5.131769e+001  4.683627e+001 
3496875000  -5.209135e+001  5.046818e+001 
3500000000  -5.248477e+001  4.137265e+001 
3503125000  -5.042090e+001  4.523104e+001 
3506250000  -5.000826e+001  3.438284e+001 
3509375000  -4.988454e+001  2.678976e+001 
3512500000  -5.089821e+001  1.291131e+001 
3515625000  -5.064358e+001  8.130678e+000 
3518750000  -5.174996e+001  4.414656e+000 
3521875000  -5.151114e+001  2.053009e+000 
3525000000  -5.353293e+001  -3.916834e+000 
3528125000  -5.286608e+001  5.712607e+000 
3531250000  -5.206477e+001  -1.763144e+000 
3534375000  -5.218587e+001  -1.622227e+001 
3537500000  -5.425349e+001  -2.430515e+001 
3540625000  -5.494208e+001  -1.958563e+001 
3543750000  -5.621022e+001  -1.270401e+001 
3546875000  -5.541244e+001  -6.450169e+000 
3550000000  -5.344433e+001  -9.922146e+000 
3553125000  -5.276566e+001  -3.867239e+001 
3556250000  -5.607450e+001  -3.691319e+001 
3559375000  -5.543408e+001  -4.208676e+001 
3562500000  -5.675889e+001  -3.785678e+001 
3565625000  -5.687972e+001  -4.221002e+001 
3568750000  -5.790778e+001  -4.238237e+001 
3571875000  -5.835612e+001  -3.707901e+001 
3575000000  -5.774265e+001  -4.381225e+001 
3578125000  -5.979253e+001  -5.303603e+001 
3581250000  -5.784811e+001  -3.757721e+001 
3584375000  -5.737598e+001  -3.144069e+001 
3587500000  -5.773353e+001  -4.202760e+001 
3590625000  -5.850781e+001  -6.679839e+001 
3593750000  -6.037654e+001  -3.849929e+001 
3596875000  -5.932420e+001  -3.894070e+001 
3600000000  -5.697896e+001  -3.875652e+001 
3603125000  -5.907286e+001  -4.692435e+001 
3606250000  -5.816713e+001  -5.591736e+001 
3609375000  -5.721261e+001  -3.889239e+001 
3612500000  -5.779762e+001  -5.259401e+001 
3615625000  -5.896879e+001  -6.187771e+001 
3618750000  -5.923822e+001  -5.017270e+001 
3621875000  -5.957638e+001  -5.395243e+001 
3625000000  -5.789425e+001  -2.909103e+001 
3628125000  -5.646294e+001  -4.393007e+001 
3631250000  -5.608797e+001  -4.975260e+001 
3634375000  -5.556648e+001  -4.802716e+001 
3637500000  -5.657927e+001  -3.869147e+001 
3640625000  -5.382250e+001  -4.000445e+001 
3643750000  -5.339973e+001  -4.873212e+001 
3646875000  -5.296269e+001  -5.089400e+001 
3650000000  -5.319738e+001  -5.745332e+001 
3653125000  -5.220621e+001  -5.974445e+001 
3656250000  -5.171349e+001  -6.404134e+001 
3659375000  -5.145375e+001  -6.317330e+001 
3662500000  -5.042451e+001  -6.820036e+001 
3665625000  -4.989465e+001  -7.356972e+001 
3668750000  -4.780753e+001  -7.123756e+001 
3671875000  -4.799202e+001  -8.514433e+001 
3675000000  -4.755885e+001  -9.181160e+001 
3678125000  -4.739754e+001  -9.822205e+001 
3681250000  -4.695132e+001  -9.929044e+001 
3684375000  -4.679642e+001  -1.066981e+002 
3687500000  -4.682541e+001  -1.113945e+002 
3690625000  -4.678162e+001  -1.183443e+002 
3693750000  -4.734917e+001  -1.152562e+002 
3696875000  -4.659695e+001  -1.174470e+002 
3700000000  -4.545812e+001  -1.260924e+002 
3703125000  -4.503302e+001  -1.288212e+002 
3706250000  -4.592558e+001  -1.319289e+002 
3709375000  -4.463465e+001  -1.309852e+002 
3712500000  -4.330149e+001  -1.376637e+002 
3715625000  -4.215265e+001  -1.453740e+002 
3718750000  -4.205140e+001  -1.528988e+002 
3721875000  -4.119094e+001  -1.622577e+002 
3725000000  -4.168763e+001  -1.684767e+002 
3728125000  -4.159965e+001  -1.719271e+002 
3731250000  -4.076435e+001  -1.781500e+002 
3734375000  -4.022378e+001  1.744794e+002 
3737500000  -4.102972e+001  1.644704e+002 
3740625000  -4.072829e+001  1.586964e+002 
3743750000  -4.031709e+001  1.536353e+002 
3746875000  -4.076513e+001  1.450960e+002 
3750000000  -4.087637e+001  1.418574e+002 
3753125000  -4.066583e+001  1.379635e+002 
3756250000  -4.081725e+001  1.347344e+002 
3759375000  -4.051874e+001  1.290918e+002 
3762500000  -3.991012e+001  1.238957e+002 
3765625000  -4.075695e+001  1.186215e+002 
3768750000  -4.003661e+001  1.181485e+002 
3771875000  -3.852847e+001  1.099879e+002 
3775000000  -3.853331e+001  9.871793e+001 
3778125000  -3.912921e+001  9.278725e+001 
3781250000  -3.922672e+001  8.768865e+001 
3784375000  -3.871862e+001  8.393458e+001 
3787500000  -3.853833e+001  7.773826e+001 
3790625000  -3.918088e+001  6.784580e+001 
3793750000  -3.902485e+001  6.371301e+001 
3796875000  -3.823420e+001  5.996479e+001 
3800000000  -3.634599e+001  5.704990e+001 
3803125000  -3.808218e+001  4.400234e+001 
3806250000  -3.888530e+001  3.895644e+001 
3809375000  -3.843429e+001  3.359576e+001 
3812500000  -3.844827e+001  2.569427e+001 
3815625000  -3.947591e+001  1.622239e+001 
3818750000  -4.080557e+001  1.690507e+001 
3821875000  -4.027590e+001  2.781237e+001 
3825000000  -3.823800e+001  2.309612e+001 
3828125000  -3.710139e+001  3.704450e+000 
3831250000  -3.825403e+001  -1.006593e+001 
3834375000  -4.012412e+001  -1.181277e+001 
3837500000  -4.052178e+001  -6.686661e+000 
3840625000  -3.905365e+001  -9.928642e+000 
3843750000  -3.842110e+001  -2.537608e+001 
3846875000  -3.990095e+001  -3.002817e+001 
3850000000  -4.073841e+001  -2.530462e+001 
3853125000  -3.997811e+001  -2.463387e+001 
3856250000  -3.932484e+001  -3.207437e+001 
3859375000  -3.872108e+001  -4.069598e+001 
3862500000  -3.828114e+001  -5.072869e+001 
3865625000  -3.923995e+001  -5.624595e+001 
3868750000  -3.861732e+001  -5.664235e+001 
3871875000  -3.800769e+001  -6.464664e+001 
3875000000  -3.851608e+001  -7.484473e+001 
3878125000  -3.958462e+001  -7.517388e+001 
3881250000  -3.923193e+001  -7.681029e+001 
3884375000  -3.879929e+001  -8.234016e+001 
3887500000  -3.914484e+001  -8.857441e+001 
3890625000  -3.967926e+001  -9.399846e+001 
3893750000  -3.978124e+001  -9.678851e+001 
3896875000  -4.035442e+001  -9.887457e+001 
3900000000  -3.981957e+001  -1.024122e+002 
3903125000  -3.929466e+001  -1.074603e+002 
3906250000  -3.880898e+001  -1.121937e+002 
3909375000  -3.830574e+001  -1.208605e+002 
3912500000  -3.911382e+001  -1.285506e+002 
3915625000  -4.037404e+001  -1.292672e+002 
3918750000  -4.001965e+001  -1.279834e+002 
3921875000  -3.936212e+001  -1.343368e+002 
3925000000  -3.852008e+001  -1.405880e+002 
3928125000  -3.821291e+001  -1.502299e+002 
3931250000  -3.902567e+001  -1.556355e+002 
3934375000  -3.965338e+001  -1.568324e+002 
3937500000  -4.007949e+001  -1.596025e+002 
3940625000  -3.990736e+001  -1.615280e+002 
3943750000  -3.890891e+001  -1.641793e+002 
3946875000  -3.843463e+001  -1.734103e+002 
3950000000  -3.952106e+001  1.765352e+002 
3953125000  -3.996137e+001  1.796250e+002 
3956250000  -3.864978e+001  1.773710e+002 
3959375000  -3.792495e+001  1.716760e+002 
3962500000  -3.765102e+001  1.630472e+002 
3965625000  -3.781942e+001  1.539855e+002 
3968750000  -3.840350e+001  1.455944e+002 
3971875000  -3.854318e+001  1.416201e+002 
3975000000  -3.830914e+001  1.366759e+002 
3978125000  -3.848105e+001  1.331396e+002 
3981250000  -3.849274e+001  1.268569e+002 
3984375000  -3.889154e+001  1.195026e+002 
3987500000  -3.982610e+001  1.164412e+002 
3990625000  -3.986345e+001  1.135925e+002 
3993750000  -4.008727e+001  1.091205e+002 
3996875000  -4.010175e+001  1.048016e+002 
4000000000  -4.077011e+001  9.948111e+001 
4003125000  -4.096083e+001  1.013851e+002 
4006250000  -3.943792e+001  9.851497e+001 
4009375000  -3.875500e+001  8.441489e+001 
4012500000  -4.044955e+001  7.602995e+001 
4015625000  -4.153857e+001  7.472755e+001 
4018750000  -4.113144e+001  7.811294e+001 
4021875000  -4.070831e+001  7.319579e+001 
4025000000  -4.025528e+001  6.604025e+001 
4028125000  -4.044341e+001  5.975995e+001 
4031250000  -4.140885e+001  5.583301e+001 
4034375000  -4.145861e+001  5.686113e+001 
4037500000  -4.114029e+001  5.627076e+001 
4040625000  -4.097082e+001  5.278865e+001 
4043750000  -4.098064e+001  4.807864e+001 
4046875000  -4.091924e+001  4.348114e+001 
4050000000  -4.048514e+001  4.043304e+001 
4053125000  -4.120174e+001  3.708347e+001 
4056250000  -4.132687e+001  4.291548e+001 
4059375000  -3.917734e+001  3.876233e+001 
4062500000  -3.883029e+001  2.996424e+001 
4065625000  -3.887399e+001  2.606293e+001 
4068750000  -3.818195e+001  1.864462e+001 
4071875000  -3.795994e+001  8.066219e+000 
4075000000  -3.860303e+001  2.194246e+000 
4078125000  -3.850304e+001  -4.803131e-001 
4081250000  -3.796104e+001  -6.444191e+000 
4084375000  -3.798943e+001  -1.588941e+001 
4087500000  -3.857948e+001  -2.443983e+001 
4090625000  -3.917536e+001  -2.594933e+001 
4093750000  -3.879471e+001  -2.835512e+001 
4096875000  -3.880923e+001  -3.692041e+001 
4100000000  -3.974888e+001  -4.487958e+001 
4103125000  -4.060433e+001  -4.172057e+001 
4106250000  -3.985799e+001  -3.993970e+001 
4109375000  -3.914222e+001  -4.361039e+001 
4112500000  -3.862381e+001  -5.239706e+001 
4115625000  -3.928022e+001  -5.804060e+001 
4118750000  -3.894542e+001  -6.296731e+001 
4121875000  -3.885391e+001  -7.019974e+001 
4125000000  -3.989185e+001  -7.917776e+001 
4128125000  -4.070739e+001  -7.509373e+001 
4131250000  -3.973880e+001  -7.024088e+001 
4134375000  -3.772700e+001  -8.121959e+001 
4137500000  -3.823459e+001  -1.024605e+002 
4140625000  -4.058240e+001  -1.078040e+002 
4143750000  -4.128510e+001  -1.013930e+002 
4146875000  -4.050026e+001  -9.643072e+001 
4150000000  -3.943558e+001  -1.041639e+002 
4153125000  -4.011169e+001  -1.130377e+002 
4156250000  -4.144887e+001  -1.148537e+002 
4159375000  -4.120320e+001  -1.126320e+002 
4162500000  -3.994529e+001  -1.099141e+002 
4165625000  -3.881240e+001  -1.182343e+002 
4168750000  -3.822239e+001  -1.268957e+002 
4171875000  -3.824179e+001  -1.364109e+002 
4175000000  -3.941599e+001  -1.415930e+002 
4178125000  -3.979024e+001  -1.437000e+002 
4181250000  -3.925378e+001  -1.482484e+002 
4184375000  -3.939628e+001  -1.518256e+002 
4187500000  -3.943880e+001  -1.589157e+002 
4190625000  -3.957084e+001  -1.659964e+002 
4193750000  -4.060314e+001  -1.706438e+002 
4196875000  -4.122523e+001  -1.724099e+002 
4200000000  -4.229920e+001  -1.656195e+002 
4203125000  -4.083608e+001  -1.531519e+002 
4206250000  -3.754384e+001  -1.632948e+002 
4209375000  -3.719363e+001  1.733361e+002 
4212500000  -3.979398e+001  1.667982e+002 
4215625000  -3.989696e+001  1.740251e+002 
4218750000  -3.811038e+001  1.760864e+002 
4221875000  -3.692638e+001  1.657626e+002 
4225000000  -3.781157e+001  1.537930e+002 
4228125000  -3.775160e+001  1.569417e+002 
4231250000  -3.627589e+001  1.489345e+002 
4234375000  -3.640920e+001  1.367476e+002 
4237500000  -3.614781e+001  1.311060e+002 
4240625000  -3.621187e+001  1.204204e+002 
4243750000  -3.768461e+001  1.118415e+002 
4246875000  -3.848967e+001  1.108043e+002 
4250000000  -3.826097e+001  1.108461e+002 
4253125000  -3.800869e+001  1.090491e+002 
4256250000  -3.815926e+001  1.033453e+002 
4259375000  -3.758077e+001  9.646220e+001 
4262500000  -3.777388e+001  9.274587e+001 
4265625000  -3.785964e+001  9.052126e+001 
4268750000  -3.699974e+001  8.386850e+001 
4271875000  -3.681022e+001  7.365241e+001 
4275000000  -3.668004e+001  6.645589e+001 
4278125000  -3.789571e+001  5.454552e+001 
4281250000  -3.886265e+001  5.334576e+001 
4284375000  -3.899875e+001  5.013812e+001 
4287500000  -4.048082e+001  4.862474e+001 
4290625000  -4.059625e+001  5.652538e+001 
4293750000  -3.868354e+001  5.645501e+001 
4296875000  -3.802472e+001  4.352755e+001 
4300000000  -3.911678e+001  3.250201e+001 
4303125000  -3.950271e+001  3.727102e+001 
4306250000  -3.879891e+001  3.785376e+001 
4309375000  -3.764357e+001  3.217355e+001 
4312500000  -3.742487e+001  2.243944e+001 
4315625000  -3.784497e+001  1.446069e+001 
4318750000  -3.862033e+001  8.934958e+000 
4321875000  -3.862548e+001  9.544805e+000 
4325000000  -3.801521e+001  1.008354e+001 
4328125000  -3.720494e+001  -1.336039e+000 
4331250000  -3.739816e+001  -1.065206e+001 
4334375000  -3.829248e+001  -1.741684e+001 
4337500000  -3.932417e+001  -1.927376e+001 
4340625000  -3.954012e+001  -1.474653e+001 
4343750000  -3.863656e+001  -1.775430e+001 
4346875000  -3.841435e+001  -2.641161e+001 
4350000000  -3.871658e+001  -3.429705e+001 
4353125000  -3.880381e+001  -4.097075e+001 
4356250000  -4.099822e+001  -3.792580e+001 
4359375000  -3.948665e+001  -2.292436e+001 
4362500000  -3.639658e+001  -3.159184e+001 
4365625000  -3.582296e+001  -4.904404e+001 
4368750000  -3.723199e+001  -5.978376e+001 
4371875000  -3.796516e+001  -5.919427e+001 
4375000000  -3.715875e+001  -6.260779e+001 
4378125000  -3.690851e+001  -7.166637e+001 
4381250000  -3.727200e+001  -8.040604e+001 
4384375000  -3.718581e+001  -8.546579e+001 
4387500000  -3.822237e+001  -9.247646e+001 
4390625000  -3.849461e+001  -9.178502e+001 
4393750000  -3.804895e+001  -9.208263e+001 
4396875000  -3.741698e+001  -9.672176e+001 
4400000000  -3.682183e+001  -1.063378e+002 
4403125000  -3.769227e+001  -1.151142e+002 
4406250000  -3.815082e+001  -1.198806e+002 
4409375000  -3.865529e+001  -1.226658e+002 
4412500000  -3.970197e+001  -1.251989e+002 
4415625000  -3.939733e+001  -1.214339e+002 
