!Agilent Technologies,E8363B,MY43030201,A.06.04.32
!Agilent E8363B: A.06.04.32
!Date: Tuesday, November 11, 2014 21:33:18
!Correction: S21(Response(S21)) 
!S1P File: Measurement: S21:
# Hz S  dB   R 50
3000000000  -4.050365e+001  7.484760e+001 
3003125000  -4.204886e+001  6.796303e+001 
3006250000  -4.196997e+001  6.604875e+001 
3009375000  -4.274805e+001  7.058641e+001 
3012500000  -4.145425e+001  6.531750e+001 
3015625000  -4.151786e+001  5.996474e+001 
3018750000  -4.178015e+001  5.950097e+001 
3021875000  -4.029372e+001  6.112708e+001 
3025000000  -3.883425e+001  5.689628e+001 
3028125000  -3.776259e+001  4.634838e+001 
3031250000  -3.694424e+001  3.461835e+001 
3034375000  -3.678619e+001  2.011427e+001 
3037500000  -3.767561e+001  9.566856e+000 
3040625000  -3.863750e+001  3.961665e+000 
3043750000  -3.919770e+001  -1.594182e+000 
3046875000  -4.009675e+001  -8.515688e+000 
3050000000  -4.094586e+001  -1.413392e+001 
3053125000  -4.056231e+001  -7.898496e+000 
3056250000  -4.055478e+001  -5.529576e+000 
3059375000  -3.977631e+001  -6.601219e+000 
3062500000  -3.817715e+001  -1.127059e+001 
3065625000  -3.779396e+001  -2.193665e+001 
3068750000  -3.759814e+001  -2.932305e+001 
3071875000  -3.763182e+001  -3.131329e+001 
3075000000  -3.708665e+001  -3.865302e+001 
3078125000  -3.697595e+001  -4.429515e+001 
3081250000  -3.704132e+001  -4.957808e+001 
3084375000  -3.635584e+001  -5.526078e+001 
3087500000  -3.643743e+001  -6.274971e+001 
3090625000  -3.594816e+001  -7.414842e+001 
3093750000  -3.689809e+001  -8.164680e+001 
3096875000  -3.747288e+001  -8.783562e+001 
3100000000  -3.727922e+001  -9.015910e+001 
3103125000  -3.758733e+001  -9.374146e+001 
3106250000  -3.717715e+001  -9.890367e+001 
3109375000  -3.720215e+001  -1.023350e+002 
3112500000  -3.707884e+001  -1.082767e+002 
3115625000  -3.705653e+001  -1.129464e+002 
3118750000  -3.724164e+001  -1.160598e+002 
3121875000  -3.650164e+001  -1.271928e+002 
3125000000  -3.856241e+001  -1.299764e+002 
3128125000  -3.858458e+001  -1.234741e+002 
3131250000  -3.611589e+001  -1.287804e+002 
3134375000  -3.537694e+001  -1.461375e+002 
3137500000  -3.609723e+001  -1.587523e+002 
3140625000  -3.731813e+001  -1.614520e+002 
3143750000  -3.805360e+001  -1.638850e+002 
3146875000  -3.758496e+001  -1.607191e+002 
3150000000  -3.693699e+001  -1.650264e+002 
3153125000  -3.717192e+001  -1.741177e+002 
3156250000  -3.800632e+001  -1.695938e+002 
3159375000  -3.551005e+001  -1.718466e+002 
3162500000  -3.420918e+001  1.729823e+002 
3165625000  -3.546428e+001  1.602383e+002 
3168750000  -3.539310e+001  1.588308e+002 
3171875000  -3.482229e+001  1.521911e+002 
3175000000  -3.539803e+001  1.432285e+002 
3178125000  -3.502613e+001  1.416158e+002 
3181250000  -3.447245e+001  1.325979e+002 
3184375000  -3.415590e+001  1.213910e+002 
3187500000  -3.536904e+001  1.075250e+002 
3190625000  -3.726711e+001  1.006263e+002 
3193750000  -3.744279e+001  1.053109e+002 
3196875000  -3.745907e+001  1.071748e+002 
3200000000  -3.618847e+001  1.016545e+002 
3203125000  -3.586608e+001  9.346179e+001 
3206250000  -3.604831e+001  8.510429e+001 
3209375000  -3.570836e+001  7.788187e+001 
3212500000  -3.632330e+001  7.086285e+001 
3215625000  -3.599347e+001  6.890678e+001 
3218750000  -3.692454e+001  5.752545e+001 
3221875000  -3.738410e+001  4.983281e+001 
3225000000  -3.704532e+001  4.628472e+001 
3228125000  -3.770901e+001  3.896219e+001 
3231250000  -3.828144e+001  3.678644e+001 
3234375000  -3.797366e+001  3.471624e+001 
3237500000  -3.798611e+001  3.059175e+001 
3240625000  -3.757989e+001  2.518068e+001 
3243750000  -3.770126e+001  1.407548e+001 
3246875000  -3.806692e+001  7.182917e+000 
3250000000  -3.890731e+001  4.644846e+000 
3253125000  -3.903099e+001  1.044479e+000 
3256250000  -3.855793e+001  -7.893053e+000 
3259375000  -3.919078e+001  -1.913585e+001 
3262500000  -4.065520e+001  -2.153865e+001 
3265625000  -4.106739e+001  -2.018225e+001 
3268750000  -4.117244e+001  -1.798174e+001 
3271875000  -4.050480e+001  -2.219638e+001 
3275000000  -4.015807e+001  -3.008480e+001 
3278125000  -4.103322e+001  -3.473201e+001 
3281250000  -4.099266e+001  -3.596793e+001 
3284375000  -4.036121e+001  -4.239330e+001 
3287500000  -4.107837e+001  -4.681935e+001 
3290625000  -4.121806e+001  -5.498955e+001 
3293750000  -4.120399e+001  -5.958551e+001 
3296875000  -4.228118e+001  -6.214115e+001 
3300000000  -4.187035e+001  -6.109070e+001 
3303125000  -4.099263e+001  -6.806039e+001 
3306250000  -4.080066e+001  -7.473351e+001 
3309375000  -4.063641e+001  -8.363043e+001 
3312500000  -4.096975e+001  -9.608290e+001 
3315625000  -4.236931e+001  -1.031312e+002 
3318750000  -4.369277e+001  -1.060363e+002 
3321875000  -4.541856e+001  -1.000575e+002 
3325000000  -4.462573e+001  -9.548833e+001 
3328125000  -4.374854e+001  -9.471019e+001 
3331250000  -4.235662e+001  -9.242034e+001 
3334375000  -3.952286e+001  -1.078441e+002 
3337500000  -4.041921e+001  -1.287902e+002 
3340625000  -4.208647e+001  -1.395910e+002 
3343750000  -4.421746e+001  -1.363541e+002 
3346875000  -4.331657e+001  -1.386388e+002 
3350000000  -4.302225e+001  -1.409303e+002 
3353125000  -4.274100e+001  -1.486915e+002 
3356250000  -4.267385e+001  -1.562432e+002 
3359375000  -4.344925e+001  -1.684012e+002 
3362500000  -4.419300e+001  -1.739453e+002 
3365625000  -4.486870e+001  -1.758701e+002 
3368750000  -4.558701e+001  1.789059e+002 
3371875000  -4.612153e+001  1.730456e+002 
3375000000  -4.737575e+001  1.710907e+002 
3378125000  -4.818263e+001  1.711613e+002 
3381250000  -4.913925e+001  -1.780071e+002 
3384375000  -4.626784e+001  -1.629429e+002 
3387500000  -4.368407e+001  1.734258e+002 
3390625000  -4.592706e+001  1.535433e+002 
3393750000  -4.700896e+001  1.533918e+002 
3396875000  -4.602460e+001  1.528250e+002 
3400000000  -4.623305e+001  1.408438e+002 
3403125000  -4.695023e+001  1.350773e+002 
3406250000  -4.796322e+001  1.351349e+002 
3409375000  -4.834952e+001  1.255208e+002 
3412500000  -4.875204e+001  1.162048e+002 
3415625000  -4.974798e+001  1.191111e+002 
3418750000  -5.061309e+001  1.221475e+002 
3421875000  -5.135616e+001  1.230059e+002 
3425000000  -4.972162e+001  1.225930e+002 
3428125000  -4.984483e+001  1.178910e+002 
3431250000  -4.999791e+001  1.109728e+002 
3434375000  -5.114555e+001  1.021521e+002 
3437500000  -5.156544e+001  1.018205e+002 
3440625000  -5.230233e+001  1.036609e+002 
3443750000  -5.098493e+001  1.093038e+002 
3446875000  -5.065018e+001  1.024395e+002 
3450000000  -5.040535e+001  9.251931e+001 
3453125000  -5.096897e+001  8.368770e+001 
3456250000  -5.193731e+001  8.018316e+001 
3459375000  -5.342825e+001  8.358399e+001 
3462500000  -5.313276e+001  9.016930e+001 
3465625000  -5.143264e+001  7.833508e+001 
3468750000  -5.194941e+001  8.191934e+001 
3471875000  -5.231329e+001  7.855878e+001 
3475000000  -5.086063e+001  7.681759e+001 
3478125000  -5.079787e+001  6.561628e+001 
3481250000  -5.245905e+001  6.659021e+001 
3484375000  -5.273810e+001  6.405680e+001 
3487500000  -5.163076e+001  6.506709e+001 
3490625000  -5.024461e+001  5.270988e+001 
3493750000  -5.096008e+001  4.706542e+001 
3496875000  -5.110613e+001  4.596798e+001 
3500000000  -5.226233e+001  4.886145e+001 
3503125000  -5.039028e+001  4.267011e+001 
3506250000  -4.978703e+001  3.578783e+001 
3509375000  -5.021169e+001  2.419458e+001 
3512500000  -5.013118e+001  1.457059e+001 
3515625000  -5.112784e+001  1.193685e+001 
3518750000  -5.257797e+001  1.430554e+001 
3521875000  -5.201711e+001  5.298961e+000 
3525000000  -5.325635e+001  2.183117e+000 
3528125000  -5.316069e+001  2.482138e+000 
3531250000  -5.166933e+001  2.476969e+000 
3534375000  -5.192442e+001  -1.586757e+001 
3537500000  -5.375914e+001  -2.739557e+001 
3540625000  -5.454339e+001  -1.877269e+001 
3543750000  -5.633442e+001  -1.576783e+001 
3546875000  -5.530742e+001  -7.499142e+000 
3550000000  -5.397367e+001  -1.290377e+001 
3553125000  -5.301758e+001  -3.010076e+001 
3556250000  -5.524499e+001  -3.224371e+001 
3559375000  -5.621002e+001  -2.747406e+001 
3562500000  -5.695367e+001  -4.632753e+001 
3565625000  -5.683399e+001  -4.253585e+001 
3568750000  -5.625509e+001  -3.843383e+001 
3571875000  -5.652962e+001  -3.760695e+001 
3575000000  -5.936341e+001  -3.717620e+001 
3578125000  -5.788632e+001  -3.251963e+001 
3581250000  -5.846340e+001  -3.587228e+001 
3584375000  -5.779663e+001  -4.224672e+001 
3587500000  -5.628844e+001  -4.584058e+001 
3590625000  -5.808971e+001  -5.980021e+001 
3593750000  -6.145213e+001  -3.829942e+001 
3596875000  -5.945431e+001  -2.871686e+001 
3600000000  -5.836023e+001  -3.236777e+001 
3603125000  -5.763734e+001  -5.055731e+001 
3606250000  -5.978922e+001  -5.235365e+001 
3609375000  -5.812931e+001  -4.503955e+001 
3612500000  -5.894347e+001  -3.058311e+001 
3615625000  -5.966372e+001  -5.346765e+001 
3618750000  -5.750420e+001  -4.627620e+001 
3621875000  -5.707034e+001  -4.249436e+001 
3625000000  -5.822733e+001  -4.117506e+001 
3628125000  -5.647357e+001  -3.400549e+001 
3631250000  -5.681461e+001  -4.684103e+001 
3634375000  -5.734217e+001  -4.402503e+001 
3637500000  -5.575042e+001  -4.130609e+001 
3640625000  -5.385094e+001  -3.293251e+001 
3643750000  -5.281313e+001  -4.723057e+001 
3646875000  -5.315143e+001  -5.310544e+001 
3650000000  -5.259303e+001  -5.347284e+001 
3653125000  -5.142880e+001  -6.009339e+001 
3656250000  -5.237903e+001  -6.110157e+001 
3659375000  -5.129997e+001  -6.260394e+001 
3662500000  -4.991350e+001  -7.082408e+001 
3665625000  -5.035330e+001  -6.790230e+001 
3668750000  -4.748987e+001  -6.991179e+001 
3671875000  -4.722423e+001  -8.202834e+001 
3675000000  -4.726987e+001  -9.200865e+001 
3678125000  -4.688647e+001  -9.285731e+001 
3681250000  -4.656435e+001  -1.001603e+002 
3684375000  -4.700008e+001  -1.057313e+002 
3687500000  -4.624133e+001  -1.103243e+002 
3690625000  -4.660562e+001  -1.147764e+002 
3693750000  -4.695340e+001  -1.187017e+002 
3696875000  -4.604864e+001  -1.167843e+002 
3700000000  -4.525306e+001  -1.243078e+002 
3703125000  -4.506319e+001  -1.297571e+002 
3706250000  -4.603252e+001  -1.311972e+002 
3709375000  -4.495639e+001  -1.312254e+002 
3712500000  -4.359542e+001  -1.369730e+002 
3715625000  -4.210593e+001  -1.453442e+002 
3718750000  -4.158706e+001  -1.523579e+002 
3721875000  -4.157483e+001  -1.595651e+002 
3725000000  -4.149124e+001  -1.678732e+002 
3728125000  -4.154117e+001  -1.724633e+002 
3731250000  -4.048471e+001  -1.782565e+002 
3734375000  -4.022731e+001  1.742605e+002 
3737500000  -4.060495e+001  1.655979e+002 
3740625000  -4.088946e+001  1.611856e+002 
3743750000  -4.054403e+001  1.554475e+002 
3746875000  -4.084964e+001  1.468893e+002 
3750000000  -4.099995e+001  1.433391e+002 
3753125000  -4.057982e+001  1.403377e+002 
3756250000  -4.067577e+001  1.347065e+002 
3759375000  -4.063935e+001  1.305268e+002 
3762500000  -3.985456e+001  1.251291e+002 
3765625000  -4.080158e+001  1.206451e+002 
3768750000  -4.002971e+001  1.202704e+002 
3771875000  -3.853432e+001  1.125573e+002 
3775000000  -3.844083e+001  1.012520e+002 
3778125000  -3.908651e+001  9.381897e+001 
3781250000  -3.902423e+001  8.965534e+001 
3784375000  -3.889303e+001  8.396942e+001 
3787500000  -3.853334e+001  7.918786e+001 
3790625000  -3.916755e+001  6.901099e+001 
3793750000  -3.916129e+001  6.571777e+001 
3796875000  -3.816382e+001  6.109196e+001 
3800000000  -3.639822e+001  5.697184e+001 
3803125000  -3.812469e+001  4.481717e+001 
3806250000  -3.890554e+001  3.897033e+001 
3809375000  -3.848022e+001  3.524310e+001 
3812500000  -3.844971e+001  2.656014e+001 
3815625000  -3.959582e+001  1.638581e+001 
3818750000  -4.076016e+001  1.791560e+001 
3821875000  -4.041484e+001  2.877003e+001 
3825000000  -3.807450e+001  2.440836e+001 
3828125000  -3.696730e+001  3.382717e+000 
3831250000  -3.813750e+001  -8.514044e+000 
3834375000  -4.025980e+001  -1.047710e+001 
3837500000  -4.064959e+001  -5.130793e+000 
3840625000  -3.901401e+001  -9.094590e+000 
3843750000  -3.828111e+001  -2.405969e+001 
3846875000  -3.970550e+001  -2.847633e+001 
3850000000  -4.072357e+001  -2.334958e+001 
3853125000  -4.009826e+001  -2.350202e+001 
3856250000  -3.923874e+001  -3.187828e+001 
3859375000  -3.872804e+001  -3.911748e+001 
3862500000  -3.847550e+001  -4.769835e+001 
3865625000  -3.887385e+001  -5.356047e+001 
3868750000  -3.852331e+001  -5.512690e+001 
3871875000  -3.805207e+001  -6.195641e+001 
3875000000  -3.859711e+001  -7.385922e+001 
3878125000  -3.953213e+001  -7.494704e+001 
3881250000  -3.939440e+001  -7.545889e+001 
3884375000  -3.853503e+001  -8.181001e+001 
3887500000  -3.909160e+001  -8.875202e+001 
3890625000  -3.950377e+001  -9.298986e+001 
3893750000  -3.983039e+001  -9.411251e+001 
3896875000  -3.999965e+001  -9.798757e+001 
3900000000  -4.001586e+001  -1.022388e+002 
3903125000  -3.911374e+001  -1.068137e+002 
3906250000  -3.900566e+001  -1.097913e+002 
3909375000  -3.821836e+001  -1.182311e+002 
3912500000  -3.912398e+001  -1.289370e+002 
3915625000  -4.058572e+001  -1.277841e+002 
3918750000  -4.021773e+001  -1.285155e+002 
3921875000  -3.929803e+001  -1.344230e+002 
3925000000  -3.842099e+001  -1.394660e+002 
3928125000  -3.828100e+001  -1.489650e+002 
3931250000  -3.900391e+001  -1.552627e+002 
3934375000  -3.973330e+001  -1.552285e+002 
3937500000  -3.996309e+001  -1.569222e+002 
3940625000  -3.997094e+001  -1.599464e+002 
3943750000  -3.891709e+001  -1.631987e+002 
3946875000  -3.854709e+001  -1.727487e+002 
3950000000  -3.961706e+001  1.777727e+002 
3953125000  -4.017449e+001  1.798827e+002 
3956250000  -3.875406e+001  1.797779e+002 
3959375000  -3.796579e+001  1.734678e+002 
3962500000  -3.772126e+001  1.651438e+002 
3965625000  -3.812310e+001  1.542049e+002 
3968750000  -3.862199e+001  1.466828e+002 
3971875000  -3.850736e+001  1.430245e+002 
3975000000  -3.834828e+001  1.379423e+002 
3978125000  -3.848519e+001  1.353398e+002 
3981250000  -3.857981e+001  1.269027e+002 
3984375000  -3.897902e+001  1.199872e+002 
3987500000  -3.967040e+001  1.154286e+002 
3990625000  -3.997691e+001  1.149451e+002 
3993750000  -4.008731e+001  1.093593e+002 
3996875000  -4.008853e+001  1.058491e+002 
4000000000  -4.049900e+001  9.953536e+001 
4003125000  -4.087810e+001  1.037321e+002 
4006250000  -3.935490e+001  1.004120e+002 
4009375000  -3.861117e+001  8.573637e+001 
4012500000  -4.011430e+001  7.829673e+001 
4015625000  -4.144498e+001  7.634053e+001 
4018750000  -4.141935e+001  7.886693e+001 
4021875000  -4.078955e+001  7.420753e+001 
4025000000  -4.025557e+001  6.960965e+001 
4028125000  -4.064684e+001  6.272338e+001 
4031250000  -4.144430e+001  5.847963e+001 
4034375000  -4.161755e+001  5.815877e+001 
4037500000  -4.110995e+001  5.725166e+001 
4040625000  -4.077736e+001  5.322561e+001 
4043750000  -4.118664e+001  4.991179e+001 
4046875000  -4.090882e+001  4.544902e+001 
4050000000  -4.059327e+001  4.008130e+001 
4053125000  -4.133512e+001  4.111585e+001 
4056250000  -4.128851e+001  4.396727e+001 
4059375000  -3.951594e+001  3.921136e+001 
4062500000  -3.871214e+001  3.312992e+001 
4065625000  -3.879596e+001  2.717423e+001 
4068750000  -3.808860e+001  1.873314e+001 
4071875000  -3.777689e+001  9.887113e+000 
4075000000  -3.849390e+001  3.663610e+000 
4078125000  -3.869766e+001  -1.578545e+000 
4081250000  -3.821549e+001  -6.261809e+000 
4084375000  -3.807053e+001  -1.606636e+001 
4087500000  -3.853513e+001  -2.212734e+001 
4090625000  -3.921311e+001  -2.431034e+001 
4093750000  -3.884155e+001  -2.687167e+001 
4096875000  -3.874315e+001  -3.779542e+001 
4100000000  -3.973711e+001  -4.173441e+001 
4103125000  -4.074829e+001  -4.195392e+001 
4106250000  -4.011815e+001  -3.901506e+001 
4109375000  -3.931866e+001  -4.334180e+001 
4112500000  -3.894898e+001  -5.159201e+001 
4115625000  -3.919497e+001  -5.797801e+001 
4118750000  -3.912814e+001  -6.390958e+001 
4121875000  -3.896888e+001  -7.010206e+001 
4125000000  -3.978321e+001  -7.538498e+001 
4128125000  -4.100344e+001  -7.307101e+001 
4131250000  -3.987642e+001  -6.856973e+001 
4134375000  -3.778277e+001  -8.037965e+001 
4137500000  -3.822305e+001  -9.903905e+001 
4140625000  -4.029647e+001  -1.056931e+002 
4143750000  -4.159606e+001  -9.978257e+001 
4146875000  -4.071123e+001  -9.515225e+001 
4150000000  -3.951212e+001  -1.040760e+002 
4153125000  -3.994369e+001  -1.129001e+002 
4156250000  -4.127055e+001  -1.159908e+002 
4159375000  -4.108028e+001  -1.085693e+002 
4162500000  -3.992402e+001  -1.092533e+002 
4165625000  -3.881340e+001  -1.143026e+002 
4168750000  -3.858043e+001  -1.260060e+002 
4171875000  -3.837069e+001  -1.348903e+002 
4175000000  -3.931454e+001  -1.426112e+002 
4178125000  -3.951650e+001  -1.421938e+002 
4181250000  -3.948370e+001  -1.469023e+002 
4184375000  -3.951355e+001  -1.512328e+002 
4187500000  -3.961598e+001  -1.576840e+002 
4190625000  -3.944875e+001  -1.655418e+002 
4193750000  -4.047617e+001  -1.695525e+002 
4196875000  -4.164489e+001  -1.703967e+002 
4200000000  -4.241993e+001  -1.650473e+002 
4203125000  -4.098574e+001  -1.543689e+002 
4206250000  -3.742019e+001  -1.603938e+002 
4209375000  -3.734252e+001  1.741182e+002 
4212500000  -3.971414e+001  1.701279e+002 
4215625000  -4.007501e+001  1.767810e+002 
4218750000  -3.829140e+001  1.757732e+002 
4221875000  -3.670082e+001  1.663177e+002 
4225000000  -3.789223e+001  1.557296e+002 
4228125000  -3.769753e+001  1.569500e+002 
4231250000  -3.630716e+001  1.501689e+002 
4234375000  -3.655630e+001  1.385393e+002 
4237500000  -3.615705e+001  1.342053e+002 
4240625000  -3.615556e+001  1.221442e+002 
4243750000  -3.752591e+001  1.130326e+002 
4246875000  -3.847663e+001  1.132628e+002 
4250000000  -3.829082e+001  1.120316e+002 
4253125000  -3.804802e+001  1.098320e+002 
4256250000  -3.805162e+001  1.036572e+002 
4259375000  -3.769556e+001  9.855733e+001 
4262500000  -3.787046e+001  9.459974e+001 
4265625000  -3.799183e+001  9.211602e+001 
4268750000  -3.693951e+001  8.603354e+001 
4271875000  -3.673605e+001  7.439368e+001 
4275000000  -3.652819e+001  6.712145e+001 
4278125000  -3.782626e+001  5.624358e+001 
4281250000  -3.926101e+001  5.432944e+001 
4284375000  -3.884435e+001  5.225568e+001 
4287500000  -4.018906e+001  4.977003e+001 
4290625000  -4.052130e+001  5.655840e+001 
4293750000  -3.856438e+001  5.728345e+001 
4296875000  -3.785788e+001  4.408094e+001 
4300000000  -3.909750e+001  3.386751e+001 
4303125000  -3.979227e+001  3.816296e+001 
4306250000  -3.848375e+001  4.016580e+001 
4309375000  -3.747799e+001  3.508012e+001 
4312500000  -3.752167e+001  2.313799e+001 
4315625000  -3.794262e+001  1.407231e+001 
4318750000  -3.837747e+001  1.105223e+001 
4321875000  -3.859666e+001  1.239285e+001 
4325000000  -3.792078e+001  1.020282e+001 
4328125000  -3.715557e+001  5.600600e-001 
4331250000  -3.742608e+001  -9.684055e+000 
4334375000  -3.801669e+001  -1.781599e+001 
4337500000  -3.952468e+001  -1.747259e+001 
4340625000  -3.951707e+001  -1.135547e+001 
4343750000  -3.850598e+001  -1.682006e+001 
4346875000  -3.817105e+001  -2.510466e+001 
4350000000  -3.813467e+001  -3.367100e+001 
4353125000  -3.897824e+001  -3.875920e+001 
4356250000  -4.093202e+001  -3.587860e+001 
4359375000  -3.987492e+001  -2.433556e+001 
4362500000  -3.624733e+001  -2.897242e+001 
4365625000  -3.577707e+001  -4.912935e+001 
4368750000  -3.715144e+001  -5.755512e+001 
4371875000  -3.797018e+001  -5.861587e+001 
4375000000  -3.737653e+001  -6.249583e+001 
4378125000  -3.680705e+001  -7.036669e+001 
4381250000  -3.709451e+001  -7.720467e+001 
4384375000  -3.710799e+001  -8.315237e+001 
4387500000  -3.799824e+001  -9.062861e+001 
4390625000  -3.845448e+001  -9.114658e+001 
4393750000  -3.789764e+001  -9.083967e+001 
4396875000  -3.746099e+001  -9.605093e+001 
4400000000  -3.679636e+001  -1.061882e+002 
4403125000  -3.774857e+001  -1.146712e+002 
4406250000  -3.828676e+001  -1.195106e+002 
4409375000  -3.847174e+001  -1.223138e+002 
4412500000  -3.970655e+001  -1.246358e+002 
4415625000  -3.921646e+001  -1.220743e+002 
