!Agilent Technologies,E8363B,MY43030201,A.06.04.32
!Agilent E8363B: A.06.04.32
!Date: Tuesday, November 11, 2014 21:36:44
!Correction: S21(Response(S21)) 
!S1P File: Measurement: S21:
# Hz S  dB   R 50
3000000000  -4.061817e+001  7.134245e+001 
3003125000  -4.202073e+001  6.302691e+001 
3006250000  -4.222205e+001  6.304455e+001 
3009375000  -4.277872e+001  6.733655e+001 
3012500000  -4.154751e+001  6.134000e+001 
3015625000  -4.136562e+001  5.531033e+001 
3018750000  -4.165411e+001  5.628442e+001 
3021875000  -4.020222e+001  5.815719e+001 
3025000000  -3.885661e+001  5.382324e+001 
3028125000  -3.790559e+001  4.339386e+001 
3031250000  -3.693930e+001  3.055242e+001 
3034375000  -3.677058e+001  1.687469e+001 
3037500000  -3.757394e+001  6.848594e+000 
3040625000  -3.898367e+001  1.366975e+000 
3043750000  -3.918123e+001  -6.280420e+000 
3046875000  -3.994688e+001  -1.132952e+001 
3050000000  -4.112838e+001  -1.533358e+001 
3053125000  -4.046389e+001  -1.127978e+001 
3056250000  -4.042017e+001  -7.674336e+000 
3059375000  -3.970105e+001  -1.038760e+001 
3062500000  -3.828582e+001  -1.498833e+001 
3065625000  -3.785560e+001  -2.515510e+001 
3068750000  -3.750852e+001  -3.220206e+001 
3071875000  -3.771537e+001  -3.470219e+001 
3075000000  -3.711246e+001  -4.146975e+001 
3078125000  -3.711825e+001  -4.787582e+001 
3081250000  -3.724026e+001  -5.289441e+001 
3084375000  -3.618799e+001  -5.834063e+001 
3087500000  -3.641682e+001  -6.632087e+001 
3090625000  -3.593253e+001  -7.763786e+001 
3093750000  -3.693549e+001  -8.526055e+001 
3096875000  -3.737722e+001  -9.041911e+001 
3100000000  -3.714410e+001  -9.335480e+001 
3103125000  -3.746942e+001  -9.734979e+001 
3106250000  -3.726059e+001  -1.024682e+002 
3109375000  -3.721489e+001  -1.059908e+002 
3112500000  -3.711604e+001  -1.114362e+002 
3115625000  -3.710284e+001  -1.156527e+002 
3118750000  -3.716340e+001  -1.198841e+002 
3121875000  -3.654868e+001  -1.315719e+002 
3125000000  -3.855524e+001  -1.338439e+002 
3128125000  -3.847416e+001  -1.263550e+002 
3131250000  -3.599458e+001  -1.321288e+002 
3134375000  -3.538314e+001  -1.497051e+002 
3137500000  -3.617223e+001  -1.620345e+002 
3140625000  -3.739061e+001  -1.651872e+002 
3143750000  -3.818312e+001  -1.674866e+002 
3146875000  -3.754470e+001  -1.646861e+002 
3150000000  -3.690277e+001  -1.689622e+002 
3153125000  -3.713691e+001  -1.774571e+002 
3156250000  -3.777776e+001  -1.730196e+002 
3159375000  -3.563422e+001  -1.750694e+002 
3162500000  -3.411398e+001  1.698871e+002 
3165625000  -3.549040e+001  1.571059e+002 
3168750000  -3.541225e+001  1.561273e+002 
3171875000  -3.490812e+001  1.489140e+002 
3175000000  -3.541405e+001  1.397302e+002 
3178125000  -3.505352e+001  1.383401e+002 
3181250000  -3.441550e+001  1.293808e+002 
3184375000  -3.423052e+001  1.178076e+002 
3187500000  -3.543205e+001  1.029893e+002 
3190625000  -3.723609e+001  9.832829e+001 
3193750000  -3.736973e+001  1.029187e+002 
3196875000  -3.734855e+001  1.027997e+002 
3200000000  -3.615524e+001  9.786429e+001 
3203125000  -3.592155e+001  8.962424e+001 
3206250000  -3.611888e+001  8.294016e+001 
3209375000  -3.570330e+001  7.429582e+001 
3212500000  -3.626084e+001  6.809131e+001 
3215625000  -3.600854e+001  6.507134e+001 
3218750000  -3.681982e+001  5.468581e+001 
3221875000  -3.744596e+001  4.748080e+001 
3225000000  -3.704207e+001  4.301605e+001 
3228125000  -3.771007e+001  3.528207e+001 
3231250000  -3.821298e+001  3.359607e+001 
3234375000  -3.784853e+001  3.042324e+001 
3237500000  -3.802344e+001  2.662472e+001 
3240625000  -3.754568e+001  2.068914e+001 
3243750000  -3.758421e+001  1.091724e+001 
3246875000  -3.812282e+001  3.540815e+000 
3250000000  -3.858905e+001  6.229775e-001 
3253125000  -3.906345e+001  -2.888748e+000 
3256250000  -3.847389e+001  -1.147407e+001 
3259375000  -3.902258e+001  -2.206420e+001 
3262500000  -4.079437e+001  -2.590400e+001 
3265625000  -4.131707e+001  -2.243406e+001 
3268750000  -4.129698e+001  -2.065317e+001 
3271875000  -4.057967e+001  -2.631599e+001 
3275000000  -4.008112e+001  -3.476664e+001 
3278125000  -4.082310e+001  -3.918809e+001 
3281250000  -4.101813e+001  -3.995106e+001 
3284375000  -4.039683e+001  -4.521784e+001 
3287500000  -4.100738e+001  -5.024602e+001 
3290625000  -4.116394e+001  -5.915912e+001 
3293750000  -4.124031e+001  -6.364288e+001 
3296875000  -4.245587e+001  -6.482322e+001 
3300000000  -4.161261e+001  -6.512773e+001 
3303125000  -4.075036e+001  -7.138712e+001 
3306250000  -4.085680e+001  -7.924949e+001 
3309375000  -4.042623e+001  -8.651633e+001 
3312500000  -4.091256e+001  -9.875738e+001 
3315625000  -4.227314e+001  -1.055796e+002 
3318750000  -4.375227e+001  -1.085839e+002 
3321875000  -4.494028e+001  -1.077977e+002 
3325000000  -4.487431e+001  -9.903896e+001 
3328125000  -4.342222e+001  -1.002189e+002 
3331250000  -4.208012e+001  -9.497706e+001 
3334375000  -3.967005e+001  -1.126437e+002 
3337500000  -4.028187e+001  -1.335207e+002 
3340625000  -4.216547e+001  -1.419059e+002 
3343750000  -4.391351e+001  -1.407853e+002 
3346875000  -4.332375e+001  -1.424787e+002 
3350000000  -4.287042e+001  -1.452281e+002 
3353125000  -4.272555e+001  -1.538505e+002 
3356250000  -4.250571e+001  -1.629355e+002 
3359375000  -4.343131e+001  -1.713569e+002 
3362500000  -4.417755e+001  -1.773450e+002 
3365625000  -4.474266e+001  1.787301e+002 
3368750000  -4.520867e+001  1.737737e+002 
3371875000  -4.587572e+001  1.710579e+002 
3375000000  -4.755745e+001  1.667194e+002 
3378125000  -4.842711e+001  1.669493e+002 
3381250000  -4.957492e+001  -1.788200e+002 
3384375000  -4.665875e+001  -1.670545e+002 
3387500000  -4.361605e+001  1.702014e+002 
3390625000  -4.597556e+001  1.504514e+002 
3393750000  -4.713889e+001  1.504456e+002 
3396875000  -4.598228e+001  1.506725e+002 
3400000000  -4.614085e+001  1.362388e+002 
3403125000  -4.705344e+001  1.340909e+002 
3406250000  -4.767941e+001  1.287133e+002 
3409375000  -4.791282e+001  1.195873e+002 
3412500000  -4.824349e+001  1.145162e+002 
3415625000  -4.985445e+001  1.162083e+002 
3418750000  -5.001981e+001  1.145915e+002 
3421875000  -5.140359e+001  1.150906e+002 
3425000000  -5.019343e+001  1.163549e+002 
3428125000  -4.981163e+001  1.150654e+002 
3431250000  -5.028636e+001  1.052751e+002 
3434375000  -5.055766e+001  1.022490e+002 
3437500000  -5.193534e+001  1.004149e+002 
3440625000  -5.161243e+001  1.019547e+002 
3443750000  -5.074844e+001  1.037579e+002 
3446875000  -5.017156e+001  9.692458e+001 
3450000000  -5.044275e+001  8.658479e+001 
3453125000  -5.065150e+001  8.093704e+001 
3456250000  -5.305421e+001  8.317460e+001 
3459375000  -5.292463e+001  8.274363e+001 
3462500000  -5.216451e+001  8.427979e+001 
3465625000  -5.137698e+001  7.519116e+001 
3468750000  -5.190215e+001  7.643505e+001 
3471875000  -5.203220e+001  7.387702e+001 
3475000000  -5.119572e+001  6.792306e+001 
3478125000  -5.120958e+001  6.118594e+001 
3481250000  -5.226108e+001  6.883873e+001 
3484375000  -5.216895e+001  6.281082e+001 
3487500000  -5.141765e+001  6.237482e+001 
3490625000  -5.104866e+001  4.934370e+001 
3493750000  -5.149695e+001  4.198561e+001 
3496875000  -5.077921e+001  4.952686e+001 
3500000000  -5.194833e+001  4.710997e+001 
3503125000  -5.101048e+001  4.755834e+001 
3506250000  -4.940418e+001  3.367454e+001 
3509375000  -4.933625e+001  2.490412e+001 
3512500000  -5.047907e+001  1.183234e+001 
3515625000  -5.168944e+001  4.508751e+000 
3518750000  -5.179432e+001  1.050238e+001 
3521875000  -5.251282e+001  1.838806e+000 
3525000000  -5.340736e+001  -5.910746e+000 
3528125000  -5.301900e+001  2.589398e+000 
3531250000  -5.194054e+001  -8.730380e+000 
3534375000  -5.287243e+001  -1.897665e+001 
3537500000  -5.330210e+001  -2.883233e+001 
3540625000  -5.486325e+001  -2.446978e+001 
3543750000  -5.609109e+001  -1.345937e+001 
3546875000  -5.541523e+001  -1.506058e+001 
3550000000  -5.273037e+001  -1.923452e+001 
3553125000  -5.427713e+001  -3.395815e+001 
3556250000  -5.489660e+001  -3.172098e+001 
3559375000  -5.553239e+001  -3.674149e+001 
3562500000  -5.570937e+001  -4.904717e+001 
3565625000  -5.566728e+001  -6.245399e+001 
3568750000  -5.825639e+001  -4.787222e+001 
3571875000  -5.926538e+001  -4.496493e+001 
3575000000  -5.804445e+001  -5.112402e+001 
3578125000  -6.048704e+001  -4.388118e+001 
3581250000  -5.749223e+001  -4.036655e+001 
3584375000  -5.802534e+001  -5.109224e+001 
3587500000  -5.642128e+001  -4.103785e+001 
3590625000  -5.828005e+001  -6.421117e+001 
3593750000  -5.867557e+001  -3.993967e+001 
3596875000  -5.801497e+001  -3.282043e+001 
3600000000  -5.680860e+001  -4.427847e+001 
3603125000  -5.951515e+001  -6.416911e+001 
3606250000  -5.853480e+001  -5.121276e+001 
3609375000  -5.728505e+001  -4.918020e+001 
3612500000  -5.735447e+001  -3.926078e+001 
3615625000  -5.861779e+001  -5.795203e+001 
3618750000  -6.036071e+001  -3.997179e+001 
3621875000  -5.790641e+001  -4.425630e+001 
3625000000  -5.762820e+001  -5.594312e+001 
3628125000  -5.669372e+001  -4.140380e+001 
3631250000  -5.693444e+001  -5.451807e+001 
3634375000  -5.687349e+001  -4.531853e+001 
3637500000  -5.641397e+001  -3.362740e+001 
3640625000  -5.495251e+001  -4.397563e+001 
3643750000  -5.324247e+001  -5.016472e+001 
3646875000  -5.361411e+001  -5.890770e+001 
3650000000  -5.277266e+001  -6.290892e+001 
3653125000  -5.113443e+001  -6.203905e+001 
3656250000  -5.295295e+001  -7.104308e+001 
3659375000  -5.130859e+001  -6.596989e+001 
3662500000  -5.040209e+001  -7.699296e+001 
3665625000  -4.978397e+001  -7.324162e+001 
3668750000  -4.791032e+001  -7.751226e+001 
3671875000  -4.763239e+001  -9.101707e+001 
3675000000  -4.733820e+001  -9.352605e+001 
3678125000  -4.735863e+001  -9.839375e+001 
3681250000  -4.641528e+001  -1.042190e+002 
3684375000  -4.682804e+001  -1.077806e+002 
3687500000  -4.640199e+001  -1.168946e+002 
3690625000  -4.702115e+001  -1.192120e+002 
3693750000  -4.689912e+001  -1.200343e+002 
3696875000  -4.610812e+001  -1.191478e+002 
3700000000  -4.505679e+001  -1.285245e+002 
3703125000  -4.535185e+001  -1.332458e+002 
3706250000  -4.583815e+001  -1.352914e+002 
3709375000  -4.476912e+001  -1.379405e+002 
3712500000  -4.372986e+001  -1.392821e+002 
3715625000  -4.192380e+001  -1.512645e+002 
3718750000  -4.203012e+001  -1.550244e+002 
3721875000  -4.141813e+001  -1.655738e+002 
3725000000  -4.171949e+001  -1.695871e+002 
3728125000  -4.132822e+001  -1.756721e+002 
3731250000  -4.075270e+001  1.785000e+002 
3734375000  -4.004505e+001  1.698759e+002 
3737500000  -4.088998e+001  1.616479e+002 
3740625000  -4.103869e+001  1.548810e+002 
3743750000  -4.046735e+001  1.509703e+002 
3746875000  -4.081591e+001  1.422352e+002 
3750000000  -4.096368e+001  1.382639e+002 
3753125000  -4.077732e+001  1.362917e+002 
3756250000  -4.078296e+001  1.319291e+002 
3759375000  -4.030217e+001  1.266546e+002 
3762500000  -4.011654e+001  1.190304e+002 
3765625000  -4.083160e+001  1.165364e+002 
3768750000  -3.997217e+001  1.139854e+002 
3771875000  -3.843945e+001  1.067473e+002 
3775000000  -3.850264e+001  9.737705e+001 
3778125000  -3.904609e+001  8.977892e+001 
3781250000  -3.905286e+001  8.688570e+001 
3784375000  -3.886120e+001  8.048721e+001 
3787500000  -3.861187e+001  7.464038e+001 
3790625000  -3.936682e+001  6.639346e+001 
3793750000  -3.918475e+001  6.131168e+001 
3796875000  -3.829890e+001  5.710831e+001 
3800000000  -3.637716e+001  5.236685e+001 
3803125000  -3.808791e+001  3.963231e+001 
3806250000  -3.901472e+001  3.591127e+001 
3809375000  -3.855999e+001  3.151043e+001 
3812500000  -3.836894e+001  2.168686e+001 
3815625000  -3.963916e+001  1.096817e+001 
3818750000  -4.101992e+001  1.493346e+001 
3821875000  -4.037331e+001  2.419039e+001 
3825000000  -3.807735e+001  1.978663e+001 
3828125000  -3.705731e+001  -2.300010e-001 
3831250000  -3.819916e+001  -1.300803e+001 
3834375000  -4.046927e+001  -1.411024e+001 
3837500000  -4.062106e+001  -9.306965e+000 
3840625000  -3.898287e+001  -1.313851e+001 
3843750000  -3.845533e+001  -2.786878e+001 
3846875000  -3.980887e+001  -3.528489e+001 
3850000000  -4.091376e+001  -2.839433e+001 
3853125000  -3.959457e+001  -2.898124e+001 
3856250000  -3.943904e+001  -3.719740e+001 
3859375000  -3.848711e+001  -4.263855e+001 
3862500000  -3.846227e+001  -5.330698e+001 
3865625000  -3.872248e+001  -5.903442e+001 
3868750000  -3.857977e+001  -5.899487e+001 
3871875000  -3.803545e+001  -6.618451e+001 
3875000000  -3.870744e+001  -7.577619e+001 
3878125000  -3.956556e+001  -7.875038e+001 
3881250000  -3.940107e+001  -7.860134e+001 
3884375000  -3.873997e+001  -8.692979e+001 
3887500000  -3.913720e+001  -9.213980e+001 
3890625000  -3.944553e+001  -9.635160e+001 
3893750000  -3.985522e+001  -9.921739e+001 
3896875000  -3.997593e+001  -1.025646e+002 
3900000000  -3.975114e+001  -1.072825e+002 
3903125000  -3.946152e+001  -1.121482e+002 
3906250000  -3.908730e+001  -1.141190e+002 
3909375000  -3.796757e+001  -1.232113e+002 
3912500000  -3.911934e+001  -1.307980e+002 
3915625000  -4.042770e+001  -1.320667e+002 
3918750000  -4.001850e+001  -1.329150e+002 
3921875000  -3.931966e+001  -1.377481e+002 
3925000000  -3.853176e+001  -1.433876e+002 
3928125000  -3.820812e+001  -1.531099e+002 
3931250000  -3.921450e+001  -1.604574e+002 
3934375000  -3.972285e+001  -1.607173e+002 
3937500000  -3.992315e+001  -1.635970e+002 
3940625000  -3.983979e+001  -1.637226e+002 
3943750000  -3.877393e+001  -1.674965e+002 
3946875000  -3.847642e+001  -1.770046e+002 
3950000000  -3.941711e+001  1.758593e+002 
3953125000  -4.017165e+001  1.761129e+002 
3956250000  -3.882421e+001  1.749273e+002 
3959375000  -3.780918e+001  1.682958e+002 
3962500000  -3.752893e+001  1.602046e+002 
3965625000  -3.786802e+001  1.492571e+002 
3968750000  -3.869523e+001  1.439186e+002 
3971875000  -3.880259e+001  1.379194e+002 
3975000000  -3.837006e+001  1.344584e+002 
3978125000  -3.861427e+001  1.296253e+002 
3981250000  -3.857328e+001  1.221812e+002 
3984375000  -3.912396e+001  1.158649e+002 
3987500000  -3.974749e+001  1.107442e+002 
3990625000  -4.000197e+001  1.109856e+002 
3993750000  -3.995222e+001  1.050588e+002 
3996875000  -4.001781e+001  9.968702e+001 
4000000000  -4.084035e+001  9.681110e+001 
4003125000  -4.084372e+001  9.828784e+001 
4006250000  -3.916418e+001  9.460082e+001 
4009375000  -3.887169e+001  8.199102e+001 
4012500000  -4.034993e+001  7.296816e+001 
4015625000  -4.143868e+001  7.296478e+001 
4018750000  -4.108067e+001  7.245094e+001 
4021875000  -4.075759e+001  6.894700e+001 
4025000000  -4.029023e+001  6.269806e+001 
4028125000  -4.009131e+001  5.779814e+001 
4031250000  -4.124924e+001  5.142083e+001 
4034375000  -4.117514e+001  5.230270e+001 
4037500000  -4.108212e+001  5.259046e+001 
4040625000  -4.105833e+001  4.948318e+001 
4043750000  -4.111008e+001  4.414941e+001 
4046875000  -4.076718e+001  4.123691e+001 
4050000000  -4.070695e+001  3.623183e+001 
4053125000  -4.161293e+001  3.587992e+001 
4056250000  -4.131510e+001  3.943787e+001 
4059375000  -3.927581e+001  3.464628e+001 
4062500000  -3.866941e+001  2.759642e+001 
4065625000  -3.896407e+001  2.254602e+001 
4068750000  -3.827538e+001  1.500373e+001 
4071875000  -3.786400e+001  5.246475e+000 
4075000000  -3.847268e+001  -2.629597e+000 
4078125000  -3.863057e+001  -6.887866e+000 
4081250000  -3.814447e+001  -9.325494e+000 
4084375000  -3.811500e+001  -2.026924e+001 
4087500000  -3.868068e+001  -2.887342e+001 
4090625000  -3.915758e+001  -2.813946e+001 
4093750000  -3.870455e+001  -3.065852e+001 
4096875000  -3.870052e+001  -4.132082e+001 
4100000000  -3.971598e+001  -4.715006e+001 
4103125000  -4.049615e+001  -4.516098e+001 
4106250000  -4.010442e+001  -4.463120e+001 
4109375000  -3.917675e+001  -4.726206e+001 
4112500000  -3.864517e+001  -5.591780e+001 
4115625000  -3.927261e+001  -6.213168e+001 
4118750000  -3.907657e+001  -6.699790e+001 
4121875000  -3.889135e+001  -7.387326e+001 
4125000000  -3.997719e+001  -8.281768e+001 
4128125000  -4.093489e+001  -7.879535e+001 
4131250000  -3.964093e+001  -7.510892e+001 
4134375000  -3.757000e+001  -8.462527e+001 
4137500000  -3.828154e+001  -1.045609e+002 
4140625000  -4.063809e+001  -1.096812e+002 
4143750000  -4.181609e+001  -1.031868e+002 
4146875000  -4.063656e+001  -1.010435e+002 
4150000000  -3.970715e+001  -1.071411e+002 
4153125000  -3.996867e+001  -1.177672e+002 
4156250000  -4.113367e+001  -1.204654e+002 
4159375000  -4.102251e+001  -1.157160e+002 
4162500000  -3.989220e+001  -1.146747e+002 
4165625000  -3.870713e+001  -1.214537e+002 
4168750000  -3.854653e+001  -1.288674e+002 
4171875000  -3.828665e+001  -1.399920e+002 
4175000000  -3.921492e+001  -1.455150e+002 
4178125000  -3.949509e+001  -1.482361e+002 
4181250000  -3.901178e+001  -1.519199e+002 
4184375000  -3.943469e+001  -1.572325e+002 
4187500000  -3.964511e+001  -1.610725e+002 
4190625000  -3.935592e+001  -1.687274e+002 
4193750000  -4.038978e+001  -1.738296e+002 
4196875000  -4.155849e+001  -1.745540e+002 
4200000000  -4.245496e+001  -1.679503e+002 
4203125000  -4.102290e+001  -1.558710e+002 
4206250000  -3.749391e+001  -1.669821e+002 
4209375000  -3.724902e+001  1.704130e+002 
4212500000  -3.960331e+001  1.641009e+002 
4215625000  -4.005457e+001  1.714869e+002 
4218750000  -3.812314e+001  1.738739e+002 
4221875000  -3.683214e+001  1.624752e+002 
4225000000  -3.804065e+001  1.501897e+002 
4228125000  -3.790328e+001  1.502545e+002 
4231250000  -3.620080e+001  1.442047e+002 
4234375000  -3.622670e+001  1.330954e+002 
4237500000  -3.612826e+001  1.290964e+002 
4240625000  -3.634140e+001  1.163717e+002 
4243750000  -3.742437e+001  1.085166e+002 
4246875000  -3.841724e+001  1.079835e+002 
4250000000  -3.840085e+001  1.076723e+002 
4253125000  -3.826099e+001  1.056239e+002 
4256250000  -3.811038e+001  9.971782e+001 
4259375000  -3.769805e+001  9.312984e+001 
4262500000  -3.780396e+001  8.980495e+001 
4265625000  -3.801342e+001  8.716650e+001 
4268750000  -3.705610e+001  8.095298e+001 
4271875000  -3.690615e+001  7.009716e+001 
4275000000  -3.669444e+001  6.306001e+001 
4278125000  -3.760938e+001  5.047238e+001 
4281250000  -3.912125e+001  4.761543e+001 
4284375000  -3.897073e+001  4.784515e+001 
4287500000  -4.042736e+001  4.395850e+001 
4290625000  -4.062727e+001  5.322629e+001 
4293750000  -3.862467e+001  5.398038e+001 
4296875000  -3.763079e+001  3.888125e+001 
4300000000  -3.910095e+001  2.827491e+001 
4303125000  -4.013935e+001  3.412969e+001 
4306250000  -3.863134e+001  3.538446e+001 
4309375000  -3.744587e+001  2.917145e+001 
4312500000  -3.748027e+001  1.824215e+001 
4315625000  -3.810349e+001  9.323518e+000 
4318750000  -3.843995e+001  6.127723e+000 
4321875000  -3.855802e+001  7.373388e+000 
4325000000  -3.798418e+001  4.225800e+000 
4328125000  -3.724757e+001  -5.066315e+000 
4331250000  -3.730804e+001  -1.568623e+001 
4334375000  -3.838084e+001  -2.131554e+001 
4337500000  -3.941227e+001  -2.315294e+001 
4340625000  -3.935991e+001  -1.637794e+001 
4343750000  -3.838118e+001  -2.043057e+001 
4346875000  -3.837626e+001  -3.031256e+001 
4350000000  -3.836905e+001  -3.875199e+001 
4353125000  -3.926560e+001  -4.438155e+001 
4356250000  -4.102625e+001  -3.855212e+001 
4359375000  -3.959259e+001  -2.719853e+001 
4362500000  -3.638555e+001  -3.477803e+001 
4365625000  -3.586257e+001  -5.451907e+001 
4368750000  -3.727196e+001  -6.340312e+001 
4371875000  -3.781141e+001  -6.179383e+001 
4375000000  -3.708049e+001  -6.633801e+001 
4378125000  -3.695799e+001  -7.569290e+001 
4381250000  -3.709143e+001  -8.280302e+001 
4384375000  -3.722916e+001  -8.949384e+001 
4387500000  -3.833782e+001  -9.561219e+001 
4390625000  -3.856976e+001  -9.607561e+001 
4393750000  -3.798235e+001  -9.564799e+001 
4396875000  -3.728314e+001  -1.009027e+002 
4400000000  -3.691385e+001  -1.098985e+002 
4403125000  -3.778049e+001  -1.197398e+002 
4406250000  -3.821777e+001  -1.220822e+002 
4409375000  -3.887009e+001  -1.266538e+002 
4412500000  -3.970755e+001  -1.302468e+002 
4415625000  -3.916952e+001  -1.261586e+002 
