!Agilent Technologies,E8363B,MY43030201,A.06.04.32
!Agilent E8363B: A.06.04.32
!Date: Tuesday, November 11, 2014 21:31:25
!Correction: S21(Response(S21)) 
!S1P File: Measurement: S21:
# Hz S  dB   R 50
3000000000  -4.053720e+001  8.049513e+001 
3003125000  -4.220036e+001  7.153039e+001 
3006250000  -4.206035e+001  7.284506e+001 
3009375000  -4.251687e+001  7.507617e+001 
3012500000  -4.161617e+001  7.178867e+001 
3015625000  -4.135887e+001  6.365424e+001 
3018750000  -4.178735e+001  6.494513e+001 
3021875000  -4.028140e+001  6.539588e+001 
3025000000  -3.884114e+001  6.151479e+001 
3028125000  -3.793607e+001  5.179875e+001 
3031250000  -3.710556e+001  4.052105e+001 
3034375000  -3.665565e+001  2.626290e+001 
3037500000  -3.745659e+001  1.534969e+001 
3040625000  -3.885375e+001  9.846288e+000 
3043750000  -3.929740e+001  3.856256e+000 
3046875000  -3.973664e+001  -2.960495e+000 
3050000000  -4.098256e+001  -6.333086e+000 
3053125000  -4.050648e+001  -1.951441e+000 
3056250000  -4.035915e+001  1.872202e+000 
3059375000  -3.981029e+001  -5.021417e-001 
3062500000  -3.810980e+001  -5.014050e+000 
3065625000  -3.784587e+001  -1.521192e+001 
3068750000  -3.746689e+001  -2.339466e+001 
3071875000  -3.772279e+001  -2.520949e+001 
3075000000  -3.701190e+001  -3.175975e+001 
3078125000  -3.705804e+001  -3.834280e+001 
3081250000  -3.734319e+001  -4.415392e+001 
3084375000  -3.640910e+001  -4.956193e+001 
3087500000  -3.638102e+001  -5.591056e+001 
3090625000  -3.596457e+001  -6.833156e+001 
3093750000  -3.684631e+001  -7.514374e+001 
3096875000  -3.738802e+001  -8.199676e+001 
3100000000  -3.729476e+001  -8.398311e+001 
3103125000  -3.748111e+001  -8.780162e+001 
3106250000  -3.717196e+001  -9.304741e+001 
3109375000  -3.734034e+001  -9.715726e+001 
3112500000  -3.716806e+001  -1.034762e+002 
3115625000  -3.715681e+001  -1.066287e+002 
3118750000  -3.717308e+001  -1.099435e+002 
3121875000  -3.668875e+001  -1.214513e+002 
3125000000  -3.862578e+001  -1.251408e+002 
3128125000  -3.862316e+001  -1.172766e+002 
3131250000  -3.619825e+001  -1.232092e+002 
3134375000  -3.530603e+001  -1.401661e+002 
3137500000  -3.602615e+001  -1.532231e+002 
3140625000  -3.735712e+001  -1.554269e+002 
3143750000  -3.804161e+001  -1.577172e+002 
3146875000  -3.753149e+001  -1.555061e+002 
3150000000  -3.688430e+001  -1.588542e+002 
3153125000  -3.719276e+001  -1.686464e+002 
3156250000  -3.791623e+001  -1.632357e+002 
3159375000  -3.579075e+001  -1.652974e+002 
3162500000  -3.415188e+001  1.787535e+002 
3165625000  -3.537728e+001  1.649993e+002 
3168750000  -3.550735e+001  1.650573e+002 
3171875000  -3.485892e+001  1.584805e+002 
3175000000  -3.552728e+001  1.484749e+002 
3178125000  -3.503006e+001  1.472081e+002 
3181250000  -3.449782e+001  1.386664e+002 
3184375000  -3.419140e+001  1.273047e+002 
3187500000  -3.544462e+001  1.135875e+002 
3190625000  -3.736189e+001  1.070192e+002 
3193750000  -3.765658e+001  1.119404e+002 
3196875000  -3.734462e+001  1.134338e+002 
3200000000  -3.618130e+001  1.070284e+002 
3203125000  -3.583148e+001  9.970379e+001 
3206250000  -3.612820e+001  9.184563e+001 
3209375000  -3.567973e+001  8.382674e+001 
3212500000  -3.623244e+001  7.614290e+001 
3215625000  -3.614610e+001  7.452232e+001 
3218750000  -3.686589e+001  6.320161e+001 
3221875000  -3.728289e+001  5.656572e+001 
3225000000  -3.707915e+001  5.317662e+001 
3228125000  -3.779648e+001  4.478042e+001 
3231250000  -3.826768e+001  4.307261e+001 
3234375000  -3.790293e+001  3.956826e+001 
3237500000  -3.812201e+001  3.600162e+001 
3240625000  -3.755175e+001  3.092541e+001 
3243750000  -3.767506e+001  2.121597e+001 
3246875000  -3.824729e+001  1.427926e+001 
3250000000  -3.878772e+001  1.013426e+001 
3253125000  -3.893725e+001  6.568169e+000 
3256250000  -3.867039e+001  -9.989538e-001 
3259375000  -3.914301e+001  -1.357162e+001 
3262500000  -4.081731e+001  -1.556058e+001 
3265625000  -4.135014e+001  -1.233495e+001 
3268750000  -4.123486e+001  -1.120683e+001 
3271875000  -4.059991e+001  -1.587996e+001 
3275000000  -4.011948e+001  -2.530971e+001 
3278125000  -4.074827e+001  -2.943969e+001 
3281250000  -4.109637e+001  -3.005534e+001 
3284375000  -4.058139e+001  -3.762412e+001 
3287500000  -4.092354e+001  -4.072320e+001 
3290625000  -4.125816e+001  -4.917658e+001 
3293750000  -4.125529e+001  -5.376794e+001 
3296875000  -4.255002e+001  -5.607882e+001 
3300000000  -4.186366e+001  -5.671307e+001 
3303125000  -4.081856e+001  -6.137022e+001 
3306250000  -4.099891e+001  -6.877064e+001 
3309375000  -4.056389e+001  -7.683418e+001 
3312500000  -4.072417e+001  -8.905438e+001 
3315625000  -4.231462e+001  -9.555174e+001 
3318750000  -4.361603e+001  -1.002776e+002 
3321875000  -4.491870e+001  -9.695285e+001 
3325000000  -4.488250e+001  -8.965399e+001 
3328125000  -4.398498e+001  -9.225259e+001 
3331250000  -4.242183e+001  -8.632146e+001 
3334375000  -3.981756e+001  -1.026633e+002 
3337500000  -4.039753e+001  -1.241484e+002 
3340625000  -4.220655e+001  -1.315048e+002 
3343750000  -4.394053e+001  -1.296316e+002 
3346875000  -4.335800e+001  -1.327193e+002 
3350000000  -4.303189e+001  -1.336011e+002 
3353125000  -4.295697e+001  -1.423477e+002 
3356250000  -4.258061e+001  -1.511428e+002 
3359375000  -4.348709e+001  -1.617905e+002 
3362500000  -4.433739e+001  -1.676416e+002 
3365625000  -4.477380e+001  -1.713568e+002 
3368750000  -4.566472e+001  -1.756878e+002 
3371875000  -4.581448e+001  1.793977e+002 
3375000000  -4.746062e+001  1.768971e+002 
3378125000  -4.777777e+001  1.769592e+002 
3381250000  -4.943727e+001  -1.735150e+002 
3384375000  -4.665361e+001  -1.598360e+002 
3387500000  -4.366116e+001  1.791189e+002 
3390625000  -4.626708e+001  1.609785e+002 
3393750000  -4.760621e+001  1.591407e+002 
3396875000  -4.604066e+001  1.564981e+002 
3400000000  -4.628959e+001  1.465523e+002 
3403125000  -4.662648e+001  1.408555e+002 
3406250000  -4.790198e+001  1.359841e+002 
3409375000  -4.800771e+001  1.325520e+002 
3412500000  -4.961564e+001  1.219231e+002 
3415625000  -5.062521e+001  1.274349e+002 
3418750000  -4.989964e+001  1.275905e+002 
3421875000  -5.119315e+001  1.268369e+002 
3425000000  -5.024695e+001  1.238495e+002 
3428125000  -5.004893e+001  1.224768e+002 
3431250000  -5.014603e+001  1.128001e+002 
3434375000  -5.120415e+001  1.106197e+002 
3437500000  -5.142495e+001  1.081887e+002 
3440625000  -5.233507e+001  1.147449e+002 
3443750000  -5.002000e+001  1.160638e+002 
3446875000  -5.027013e+001  1.076673e+002 
3450000000  -4.997171e+001  1.007923e+002 
3453125000  -5.053959e+001  9.311959e+001 
3456250000  -5.244197e+001  9.118528e+001 
3459375000  -5.279343e+001  9.242879e+001 
3462500000  -5.272019e+001  1.002323e+002 
3465625000  -5.167414e+001  8.955646e+001 
3468750000  -5.185431e+001  8.582127e+001 
3471875000  -5.184088e+001  8.379980e+001 
3475000000  -5.087866e+001  7.861610e+001 
3478125000  -5.092461e+001  7.538622e+001 
3481250000  -5.278915e+001  7.164059e+001 
3484375000  -5.224565e+001  7.479066e+001 
3487500000  -5.163695e+001  7.174367e+001 
3490625000  -5.099023e+001  6.112419e+001 
3493750000  -5.120347e+001  5.086988e+001 
3496875000  -5.169780e+001  5.577987e+001 
3500000000  -5.236154e+001  5.570941e+001 
3503125000  -5.028152e+001  5.640615e+001 
3506250000  -4.969611e+001  4.522009e+001 
3509375000  -5.004219e+001  3.438340e+001 
3512500000  -4.974940e+001  2.239828e+001 
3515625000  -5.166037e+001  1.409293e+001 
3518750000  -5.220766e+001  1.518122e+001 
3521875000  -5.218792e+001  1.318108e+001 
3525000000  -5.388317e+001  2.442918e+000 
3528125000  -5.222207e+001  1.770210e+001 
3531250000  -5.264420e+001  5.491736e+000 
3534375000  -5.273140e+001  -1.028469e+001 
3537500000  -5.368243e+001  -1.860881e+001 
3540625000  -5.455892e+001  -1.739001e+001 
3543750000  -5.546490e+001  -5.001954e+000 
3546875000  -5.503026e+001  -6.462726e+000 
3550000000  -5.357096e+001  -7.863256e+000 
3553125000  -5.413591e+001  -2.351525e+001 
3556250000  -5.641859e+001  -1.781866e+001 
3559375000  -5.605903e+001  -2.814608e+001 
3562500000  -5.507078e+001  -3.117740e+001 
3565625000  -5.663285e+001  -3.639983e+001 
3568750000  -5.772091e+001  -2.868798e+001 
3571875000  -5.805540e+001  -3.307267e+001 
3575000000  -5.675381e+001  -3.305261e+001 
3578125000  -5.913544e+001  -3.927018e+001 
3581250000  -5.726755e+001  -3.381219e+001 
3584375000  -5.847271e+001  -2.968072e+001 
3587500000  -5.611944e+001  -3.891804e+001 
3590625000  -5.916824e+001  -3.728509e+001 
3593750000  -5.881872e+001  -3.509314e+001 
3596875000  -5.861684e+001  -2.034522e+001 
3600000000  -5.797349e+001  -2.865904e+001 
3603125000  -5.854999e+001  -5.045712e+001 
3606250000  -5.803616e+001  -4.645451e+001 
3609375000  -5.755079e+001  -3.464399e+001 
3612500000  -5.715759e+001  -4.006021e+001 
3615625000  -5.818221e+001  -4.018004e+001 
3618750000  -5.845424e+001  -2.791542e+001 
3621875000  -5.714753e+001  -3.991941e+001 
3625000000  -5.809694e+001  -3.084654e+001 
3628125000  -5.747521e+001  -3.196078e+001 
3631250000  -5.663483e+001  -2.868089e+001 
3634375000  -5.698388e+001  -3.948690e+001 
3637500000  -5.572308e+001  -3.162654e+001 
3640625000  -5.416500e+001  -3.040187e+001 
3643750000  -5.258501e+001  -3.884756e+001 
3646875000  -5.334638e+001  -5.124238e+001 
3650000000  -5.265782e+001  -4.974204e+001 
3653125000  -5.205830e+001  -5.106311e+001 
3656250000  -5.176229e+001  -4.996521e+001 
3659375000  -5.144881e+001  -5.602335e+001 
3662500000  -5.023265e+001  -6.223668e+001 
3665625000  -4.962506e+001  -6.721452e+001 
3668750000  -4.895144e+001  -5.986655e+001 
3671875000  -4.706970e+001  -8.115852e+001 
3675000000  -4.749857e+001  -8.460084e+001 
3678125000  -4.740849e+001  -8.549725e+001 
3681250000  -4.644417e+001  -9.168377e+001 
3684375000  -4.650013e+001  -9.983797e+001 
3687500000  -4.643762e+001  -1.039954e+002 
3690625000  -4.644462e+001  -1.068058e+002 
3693750000  -4.691287e+001  -1.083994e+002 
3696875000  -4.660901e+001  -1.097136e+002 
3700000000  -4.484271e+001  -1.186076e+002 
3703125000  -4.520407e+001  -1.246392e+002 
3706250000  -4.582812e+001  -1.268026e+002 
3709375000  -4.508146e+001  -1.227707e+002 
3712500000  -4.377614e+001  -1.273273e+002 
3715625000  -4.188220e+001  -1.375648e+002 
3718750000  -4.153844e+001  -1.454037e+002 
3721875000  -4.115383e+001  -1.532442e+002 
3725000000  -4.172346e+001  -1.620004e+002 
3728125000  -4.147756e+001  -1.641892e+002 
3731250000  -4.049821e+001  -1.707035e+002 
3734375000  -4.024006e+001  -1.771218e+002 
3737500000  -4.082482e+001  1.718301e+002 
3740625000  -4.101091e+001  1.673311e+002 
3743750000  -4.037713e+001  1.607507e+002 
3746875000  -4.084018e+001  1.548157e+002 
3750000000  -4.100089e+001  1.505524e+002 
3753125000  -4.051421e+001  1.462538e+002 
3756250000  -4.092978e+001  1.416377e+002 
3759375000  -4.029870e+001  1.379736e+002 
3762500000  -4.001144e+001  1.312659e+002 
3765625000  -4.065551e+001  1.269683e+002 
3768750000  -4.006015e+001  1.255561e+002 
3771875000  -3.838547e+001  1.183297e+002 
3775000000  -3.837098e+001  1.087949e+002 
3778125000  -3.877080e+001  1.014657e+002 
3781250000  -3.885482e+001  9.757332e+001 
3784375000  -3.879597e+001  9.070751e+001 
3787500000  -3.863616e+001  8.538262e+001 
3790625000  -3.910865e+001  7.609596e+001 
3793750000  -3.902568e+001  7.307481e+001 
3796875000  -3.827014e+001  6.952267e+001 
3800000000  -3.638184e+001  6.429834e+001 
3803125000  -3.808743e+001  5.004328e+001 
3806250000  -3.902238e+001  4.507681e+001 
3809375000  -3.862272e+001  4.202684e+001 
3812500000  -3.839750e+001  3.447049e+001 
3815625000  -3.971418e+001  2.410010e+001 
3818750000  -4.049419e+001  2.562260e+001 
3821875000  -4.012595e+001  3.493853e+001 
3825000000  -3.832481e+001  3.086456e+001 
3828125000  -3.711099e+001  1.189046e+001 
3831250000  -3.821367e+001  -1.309732e+000 
3834375000  -4.036250e+001  -2.056307e+000 
3837500000  -4.034965e+001  2.021353e+000 
3840625000  -3.906141e+001  -6.668063e-001 
3843750000  -3.840577e+001  -1.716202e+001 
3846875000  -3.984275e+001  -2.299433e+001 
3850000000  -4.082684e+001  -1.770142e+001 
3853125000  -4.014160e+001  -1.584868e+001 
3856250000  -3.950579e+001  -2.375085e+001 
3859375000  -3.864090e+001  -3.065252e+001 
3862500000  -3.850263e+001  -4.104847e+001 
3865625000  -3.889011e+001  -4.679897e+001 
3868750000  -3.867098e+001  -4.688730e+001 
3871875000  -3.804163e+001  -5.448409e+001 
3875000000  -3.851157e+001  -6.483079e+001 
3878125000  -3.960938e+001  -6.828038e+001 
3881250000  -3.933060e+001  -6.642258e+001 
3884375000  -3.860393e+001  -7.605948e+001 
3887500000  -3.936486e+001  -8.032159e+001 
3890625000  -3.958963e+001  -8.632024e+001 
3893750000  -3.992640e+001  -8.936271e+001 
3896875000  -4.007675e+001  -9.164732e+001 
3900000000  -3.976931e+001  -9.460101e+001 
3903125000  -3.950264e+001  -9.894085e+001 
3906250000  -3.891472e+001  -1.033899e+002 
3909375000  -3.831403e+001  -1.109310e+002 
3912500000  -3.932841e+001  -1.215495e+002 
3915625000  -4.044444e+001  -1.195614e+002 
3918750000  -3.990844e+001  -1.196455e+002 
3921875000  -3.916742e+001  -1.248334e+002 
3925000000  -3.863809e+001  -1.300558e+002 
3928125000  -3.826097e+001  -1.422824e+002 
3931250000  -3.893034e+001  -1.468745e+002 
3934375000  -3.952433e+001  -1.491918e+002 
3937500000  -3.986773e+001  -1.510737e+002 
3940625000  -4.023735e+001  -1.532616e+002 
3943750000  -3.894225e+001  -1.567927e+002 
3946875000  -3.852400e+001  -1.661849e+002 
3950000000  -3.963935e+001  -1.741066e+002 
3953125000  -4.013493e+001  -1.728304e+002 
3956250000  -3.894074e+001  -1.735178e+002 
3959375000  -3.774924e+001  1.794621e+002 
3962500000  -3.767438e+001  1.721190e+002 
3965625000  -3.788773e+001  1.620855e+002 
3968750000  -3.878327e+001  1.532595e+002 
3971875000  -3.886960e+001  1.497824e+002 
3975000000  -3.847919e+001  1.466049e+002 
3978125000  -3.864260e+001  1.430113e+002 
3981250000  -3.849874e+001  1.345541e+002 
3984375000  -3.903347e+001  1.282024e+002 
3987500000  -3.977287e+001  1.229611e+002 
3990625000  -3.997138e+001  1.229332e+002 
3993750000  -4.012453e+001  1.166058e+002 
3996875000  -3.996992e+001  1.120217e+002 
4000000000  -4.079552e+001  1.069932e+002 
4003125000  -4.134361e+001  1.114508e+002 
4006250000  -3.937941e+001  1.070680e+002 
4009375000  -3.864415e+001  9.265860e+001 
4012500000  -4.028439e+001  8.514596e+001 
4015625000  -4.129292e+001  8.448811e+001 
4018750000  -4.115799e+001  8.634682e+001 
4021875000  -4.059384e+001  8.218337e+001 
4025000000  -4.048131e+001  7.526060e+001 
4028125000  -4.064921e+001  6.964339e+001 
4031250000  -4.127181e+001  6.484515e+001 
4034375000  -4.124743e+001  6.524793e+001 
4037500000  -4.109811e+001  6.489438e+001 
4040625000  -4.077095e+001  6.243703e+001 
4043750000  -4.109421e+001  5.723059e+001 
4046875000  -4.104920e+001  5.293188e+001 
4050000000  -4.085273e+001  4.924740e+001 
4053125000  -4.118913e+001  4.592993e+001 
4056250000  -4.127116e+001  4.999401e+001 
4059375000  -3.937985e+001  4.741240e+001 
4062500000  -3.898692e+001  3.878678e+001 
4065625000  -3.910515e+001  3.377636e+001 
4068750000  -3.842218e+001  2.746247e+001 
4071875000  -3.794429e+001  1.707573e+001 
4075000000  -3.854201e+001  1.102426e+001 
4078125000  -3.888469e+001  6.617322e+000 
4081250000  -3.825549e+001  1.716047e+000 
4084375000  -3.808284e+001  -7.847445e+000 
4087500000  -3.859875e+001  -1.483978e+001 
4090625000  -3.913956e+001  -1.598332e+001 
4093750000  -3.873613e+001  -1.750825e+001 
4096875000  -3.864351e+001  -2.922714e+001 
4100000000  -3.976698e+001  -3.648243e+001 
4103125000  -4.048562e+001  -3.414325e+001 
4106250000  -3.993885e+001  -3.017367e+001 
4109375000  -3.912329e+001  -3.535169e+001 
4112500000  -3.880400e+001  -4.401550e+001 
4115625000  -3.941811e+001  -5.172784e+001 
4118750000  -3.896320e+001  -5.482898e+001 
4121875000  -3.913338e+001  -6.280597e+001 
4125000000  -3.975022e+001  -6.689739e+001 
4128125000  -4.089108e+001  -6.663985e+001 
4131250000  -3.980655e+001  -6.208603e+001 
4134375000  -3.791947e+001  -7.134068e+001 
4137500000  -3.839278e+001  -8.959691e+001 
4140625000  -4.019112e+001  -9.893623e+001 
4143750000  -4.119621e+001  -9.175539e+001 
4146875000  -4.075175e+001  -8.722042e+001 
4150000000  -3.972196e+001  -9.563395e+001 
4153125000  -3.992804e+001  -1.031784e+002 
4156250000  -4.136691e+001  -1.067448e+002 
4159375000  -4.106241e+001  -1.016012e+002 
4162500000  -4.004385e+001  -1.001068e+002 
4165625000  -3.857264e+001  -1.079349e+002 
4168750000  -3.845749e+001  -1.180698e+002 
4171875000  -3.854641e+001  -1.282914e+002 
4175000000  -3.931021e+001  -1.347799e+002 
4178125000  -3.938094e+001  -1.335644e+002 
4181250000  -3.926056e+001  -1.388640e+002 
4184375000  -3.946365e+001  -1.422264e+002 
4187500000  -3.943951e+001  -1.482959e+002 
4190625000  -3.967551e+001  -1.558118e+002 
4193750000  -4.084576e+001  -1.619751e+002 
4196875000  -4.144913e+001  -1.608524e+002 
4200000000  -4.245611e+001  -1.571976e+002 
4203125000  -4.093717e+001  -1.438015e+002 
4206250000  -3.726525e+001  -1.518570e+002 
4209375000  -3.705640e+001  -1.771623e+002 
4212500000  -3.958053e+001  1.741669e+002 
4215625000  -4.023502e+001  -1.760334e+002 
4218750000  -3.822792e+001  -1.747889e+002 
4221875000  -3.663850e+001  1.755477e+002 
4225000000  -3.773004e+001  1.624038e+002 
4228125000  -3.797688e+001  1.636833e+002 
4231250000  -3.612528e+001  1.564547e+002 
4234375000  -3.653675e+001  1.457606e+002 
4237500000  -3.641422e+001  1.417225e+002 
4240625000  -3.644564e+001  1.290654e+002 
4243750000  -3.744741e+001  1.209686e+002 
4246875000  -3.868081e+001  1.195076e+002 
4250000000  -3.830087e+001  1.198009e+002 
4253125000  -3.818539e+001  1.158104e+002 
4256250000  -3.812553e+001  1.110652e+002 
4259375000  -3.773328e+001  1.071423e+002 
4262500000  -3.813171e+001  1.007332e+002 
4265625000  -3.828416e+001  9.878008e+001 
4268750000  -3.697828e+001  9.376595e+001 
4271875000  -3.669698e+001  8.498124e+001 
4275000000  -3.643659e+001  7.380671e+001 
4278125000  -3.798645e+001  6.340247e+001 
4281250000  -3.926081e+001  6.287566e+001 
4284375000  -3.895848e+001  5.847332e+001 
4287500000  -4.052880e+001  5.553958e+001 
4290625000  -4.093584e+001  6.361855e+001 
4293750000  -3.886354e+001  6.564066e+001 
4296875000  -3.787509e+001  5.168143e+001 
4300000000  -3.919049e+001  4.082393e+001 
4303125000  -3.983512e+001  4.593681e+001 
4306250000  -3.863540e+001  4.730706e+001 
4309375000  -3.778302e+001  4.273765e+001 
4312500000  -3.779021e+001  3.192442e+001 
4315625000  -3.786197e+001  2.361652e+001 
4318750000  -3.875616e+001  1.923668e+001 
4321875000  -3.875248e+001  1.968915e+001 
4325000000  -3.806481e+001  1.856106e+001 
4328125000  -3.729123e+001  8.058201e+000 
4331250000  -3.766692e+001  -1.712605e+000 
4334375000  -3.838894e+001  -8.630526e+000 
4337500000  -3.960646e+001  -8.994149e+000 
4340625000  -3.978624e+001  -4.108351e+000 
4343750000  -3.863307e+001  -8.604926e+000 
4346875000  -3.855414e+001  -1.743078e+001 
4350000000  -3.841773e+001  -2.549157e+001 
4353125000  -3.893163e+001  -3.484082e+001 
4356250000  -4.124444e+001  -2.717631e+001 
4359375000  -4.005715e+001  -1.683854e+001 
4362500000  -3.667912e+001  -2.429183e+001 
4365625000  -3.608009e+001  -3.970726e+001 
4368750000  -3.720531e+001  -4.878710e+001 
4371875000  -3.828562e+001  -5.183292e+001 
4375000000  -3.739249e+001  -5.362012e+001 
4378125000  -3.706474e+001  -6.216973e+001 
4381250000  -3.717759e+001  -6.906828e+001 
4384375000  -3.716974e+001  -7.569677e+001 
4387500000  -3.820226e+001  -8.284898e+001 
4390625000  -3.849149e+001  -8.232436e+001 
4393750000  -3.809685e+001  -8.275815e+001 
4396875000  -3.721585e+001  -8.962827e+001 
4400000000  -3.689304e+001  -9.666331e+001 
4403125000  -3.776058e+001  -1.072504e+002 
4406250000  -3.853048e+001  -1.086265e+002 
4409375000  -3.897355e+001  -1.132504e+002 
4412500000  -4.002382e+001  -1.151039e+002 
4415625000  -3.948911e+001  -1.126898e+002 
