!Agilent Technologies,E8363B,MY43030201,A.06.04.32
!Agilent E8363B: A.06.04.32
!Date: Tuesday, November 11, 2014 21:35:11
!Correction: S21(Response(S21)) 
!S1P File: Measurement: S21:
# Hz S  dB   R 50
3000000000  -4.056869e+001  7.231525e+001 
3003125000  -4.227308e+001  6.394600e+001 
3006250000  -4.218003e+001  6.333886e+001 
3009375000  -4.268559e+001  6.926338e+001 
3012500000  -4.153103e+001  6.251258e+001 
3015625000  -4.136831e+001  5.624508e+001 
3018750000  -4.190707e+001  5.844351e+001 
3021875000  -4.013656e+001  5.835598e+001 
3025000000  -3.881148e+001  5.500275e+001 
3028125000  -3.793396e+001  4.404494e+001 
3031250000  -3.709958e+001  3.343226e+001 
3034375000  -3.680537e+001  1.873087e+001 
3037500000  -3.770255e+001  7.672422e+000 
3040625000  -3.893539e+001  2.433901e+000 
3043750000  -3.920136e+001  -3.647260e+000 
3046875000  -3.994827e+001  -9.375169e+000 
3050000000  -4.099076e+001  -1.467142e+001 
3053125000  -4.047719e+001  -9.111149e+000 
3056250000  -4.071267e+001  -6.807721e+000 
3059375000  -3.977131e+001  -1.014428e+001 
3062500000  -3.828642e+001  -1.304407e+001 
3065625000  -3.782954e+001  -2.280407e+001 
3068750000  -3.753574e+001  -3.106132e+001 
3071875000  -3.765035e+001  -3.294273e+001 
3075000000  -3.698611e+001  -3.923261e+001 
3078125000  -3.711293e+001  -4.604829e+001 
3081250000  -3.722424e+001  -5.174895e+001 
3084375000  -3.629759e+001  -5.716673e+001 
3087500000  -3.649917e+001  -6.379550e+001 
3090625000  -3.588000e+001  -7.533360e+001 
3093750000  -3.696832e+001  -8.422257e+001 
3096875000  -3.738609e+001  -8.838678e+001 
3100000000  -3.704488e+001  -9.163936e+001 
3103125000  -3.761100e+001  -9.570597e+001 
3106250000  -3.719645e+001  -1.010746e+002 
3109375000  -3.723955e+001  -1.049548e+002 
3112500000  -3.712297e+001  -1.097965e+002 
3115625000  -3.717682e+001  -1.145841e+002 
3118750000  -3.724007e+001  -1.179833e+002 
3121875000  -3.664914e+001  -1.293817e+002 
3125000000  -3.868321e+001  -1.322141e+002 
3128125000  -3.843422e+001  -1.241087e+002 
3131250000  -3.612857e+001  -1.308203e+002 
3134375000  -3.532225e+001  -1.479656e+002 
3137500000  -3.617088e+001  -1.606518e+002 
3140625000  -3.731036e+001  -1.632503e+002 
3143750000  -3.816876e+001  -1.654409e+002 
3146875000  -3.761005e+001  -1.625968e+002 
3150000000  -3.686864e+001  -1.676815e+002 
3153125000  -3.724727e+001  -1.755991e+002 
3156250000  -3.781493e+001  -1.717402e+002 
3159375000  -3.565945e+001  -1.733106e+002 
3162500000  -3.423434e+001  1.708014e+002 
3165625000  -3.542778e+001  1.586102e+002 
3168750000  -3.540512e+001  1.571947e+002 
3171875000  -3.492626e+001  1.497741e+002 
3175000000  -3.542500e+001  1.409501e+002 
3178125000  -3.502395e+001  1.394033e+002 
3181250000  -3.442564e+001  1.309598e+002 
3184375000  -3.413303e+001  1.199518e+002 
3187500000  -3.543619e+001  1.045436e+002 
3190625000  -3.708771e+001  9.803627e+001 
3193750000  -3.749462e+001  1.034229e+002 
3196875000  -3.740598e+001  1.039720e+002 
3200000000  -3.619239e+001  9.912556e+001 
3203125000  -3.597991e+001  9.153291e+001 
3206250000  -3.611160e+001  8.396040e+001 
3209375000  -3.576519e+001  7.601878e+001 
3212500000  -3.629817e+001  6.947748e+001 
3215625000  -3.604798e+001  6.714584e+001 
3218750000  -3.677718e+001  5.571144e+001 
3221875000  -3.728859e+001  4.884354e+001 
3225000000  -3.692548e+001  4.451270e+001 
3228125000  -3.778004e+001  3.772057e+001 
3231250000  -3.831859e+001  3.537162e+001 
3234375000  -3.783749e+001  3.252897e+001 
3237500000  -3.801961e+001  2.825548e+001 
3240625000  -3.769131e+001  2.215252e+001 
3243750000  -3.761262e+001  1.268547e+001 
3246875000  -3.815944e+001  5.857328e+000 
3250000000  -3.876455e+001  2.176840e+000 
3253125000  -3.895898e+001  -1.235658e+000 
3256250000  -3.859345e+001  -8.732002e+000 
3259375000  -3.895657e+001  -2.103821e+001 
3262500000  -4.060509e+001  -2.355010e+001 
3265625000  -4.106163e+001  -2.142843e+001 
3268750000  -4.096827e+001  -2.023509e+001 
3271875000  -4.042428e+001  -2.427903e+001 
3275000000  -4.027662e+001  -3.365491e+001 
3278125000  -4.088122e+001  -3.650014e+001 
3281250000  -4.114304e+001  -3.925714e+001 
3284375000  -4.044704e+001  -4.479826e+001 
3287500000  -4.112130e+001  -4.926744e+001 
3290625000  -4.108786e+001  -5.643896e+001 
3293750000  -4.118044e+001  -6.243094e+001 
3296875000  -4.242317e+001  -6.371673e+001 
3300000000  -4.175723e+001  -6.449861e+001 
3303125000  -4.101928e+001  -7.010422e+001 
3306250000  -4.082494e+001  -7.815258e+001 
3309375000  -4.040080e+001  -8.513318e+001 
3312500000  -4.108173e+001  -9.661049e+001 
3315625000  -4.207089e+001  -1.031875e+002 
3318750000  -4.362756e+001  -1.087657e+002 
3321875000  -4.468925e+001  -1.039508e+002 
3325000000  -4.500817e+001  -9.741522e+001 
3328125000  -4.384295e+001  -9.986028e+001 
3331250000  -4.227758e+001  -9.527391e+001 
3334375000  -3.978183e+001  -1.114072e+002 
3337500000  -4.038369e+001  -1.310275e+002 
3340625000  -4.232859e+001  -1.403065e+002 
3343750000  -4.402577e+001  -1.404792e+002 
3346875000  -4.310358e+001  -1.402671e+002 
3350000000  -4.300434e+001  -1.432949e+002 
3353125000  -4.288518e+001  -1.518107e+002 
3356250000  -4.286223e+001  -1.602910e+002 
3359375000  -4.336459e+001  -1.691686e+002 
3362500000  -4.431968e+001  -1.741589e+002 
3365625000  -4.473825e+001  -1.794891e+002 
3368750000  -4.540501e+001  1.750416e+002 
3371875000  -4.585596e+001  1.707368e+002 
3375000000  -4.777706e+001  1.687714e+002 
3378125000  -4.815084e+001  1.662430e+002 
3381250000  -5.048893e+001  -1.773247e+002 
3384375000  -4.641932e+001  -1.670964e+002 
3387500000  -4.392949e+001  1.716185e+002 
3390625000  -4.579662e+001  1.512010e+002 
3393750000  -4.678567e+001  1.509482e+002 
3396875000  -4.623941e+001  1.501006e+002 
3400000000  -4.561532e+001  1.401370e+002 
3403125000  -4.670195e+001  1.338612e+002 
3406250000  -4.800294e+001  1.315803e+002 
3409375000  -4.806109e+001  1.204886e+002 
3412500000  -4.877568e+001  1.184639e+002 
3415625000  -5.003499e+001  1.140625e+002 
3418750000  -5.004362e+001  1.170641e+002 
3421875000  -5.112337e+001  1.196360e+002 
3425000000  -5.009076e+001  1.228939e+002 
3428125000  -5.015936e+001  1.133307e+002 
3431250000  -5.054230e+001  1.078708e+002 
3434375000  -5.070612e+001  1.036749e+002 
3437500000  -5.167885e+001  1.002736e+002 
3440625000  -5.290314e+001  1.104257e+002 
3443750000  -5.067602e+001  1.108616e+002 
3446875000  -5.054306e+001  9.908030e+001 
3450000000  -5.017098e+001  9.513634e+001 
3453125000  -5.041287e+001  8.290295e+001 
3456250000  -5.155944e+001  8.091368e+001 
3459375000  -5.390022e+001  8.721924e+001 
3462500000  -5.296182e+001  8.180418e+001 
3465625000  -5.156824e+001  7.214690e+001 
3468750000  -5.168532e+001  8.024979e+001 
3471875000  -5.158686e+001  7.968816e+001 
3475000000  -5.146369e+001  6.779449e+001 
3478125000  -5.105267e+001  6.242635e+001 
3481250000  -5.251306e+001  6.859928e+001 
3484375000  -5.150000e+001  6.902991e+001 
3487500000  -5.176138e+001  5.994504e+001 
3490625000  -5.086543e+001  4.990757e+001 
3493750000  -5.120531e+001  4.661342e+001 
3496875000  -5.157592e+001  4.928268e+001 
3500000000  -5.160342e+001  5.051150e+001 
3503125000  -5.075985e+001  4.525760e+001 
3506250000  -4.990339e+001  3.432289e+001 
3509375000  -4.999545e+001  2.566250e+001 
3512500000  -5.082676e+001  1.462313e+001 
3515625000  -5.132231e+001  1.362645e+001 
3518750000  -5.142024e+001  9.427752e+000 
3521875000  -5.272373e+001  3.609712e+000 
3525000000  -5.348828e+001  -1.015310e+000 
3528125000  -5.291601e+001  4.479675e+000 
3531250000  -5.187748e+001  4.096827e+000 
3534375000  -5.186555e+001  -1.741939e+001 
3537500000  -5.266557e+001  -3.145120e+001 
3540625000  -5.435565e+001  -2.618104e+001 
3543750000  -5.612534e+001  -1.795144e+001 
3546875000  -5.522832e+001  -6.237909e+000 
3550000000  -5.576236e+001  -2.314127e+001 
3553125000  -5.329842e+001  -3.491436e+001 
3556250000  -5.556110e+001  -3.205105e+001 
3559375000  -5.519500e+001  -3.351794e+001 
3562500000  -5.640162e+001  -5.076142e+001 
3565625000  -5.629418e+001  -5.433963e+001 
3568750000  -5.655937e+001  -3.205454e+001 
3571875000  -5.920650e+001  -3.863449e+001 
3575000000  -5.877608e+001  -4.309393e+001 
3578125000  -5.771928e+001  -5.313739e+001 
3581250000  -5.775611e+001  -4.390265e+001 
3584375000  -5.731354e+001  -3.724115e+001 
3587500000  -5.750354e+001  -4.620976e+001 
3590625000  -5.818280e+001  -5.861267e+001 
3593750000  -6.044937e+001  -4.372290e+001 
3596875000  -5.953382e+001  -3.741278e+001 
3600000000  -5.722317e+001  -4.742719e+001 
3603125000  -5.919413e+001  -5.417272e+001 
3606250000  -5.788577e+001  -6.074790e+001 
3609375000  -5.730045e+001  -4.331667e+001 
3612500000  -5.921683e+001  -5.766635e+001 
3615625000  -5.932277e+001  -5.836805e+001 
3618750000  -5.877552e+001  -4.457287e+001 
3621875000  -5.886786e+001  -4.523430e+001 
3625000000  -5.830351e+001  -5.323741e+001 
3628125000  -5.762056e+001  -3.856985e+001 
3631250000  -5.613395e+001  -4.530599e+001 
3634375000  -5.690534e+001  -3.742694e+001 
3637500000  -5.534785e+001  -4.412787e+001 
3640625000  -5.490783e+001  -4.418529e+001 
3643750000  -5.198281e+001  -4.713491e+001 
3646875000  -5.314371e+001  -6.092069e+001 
3650000000  -5.344542e+001  -6.122319e+001 
3653125000  -5.271119e+001  -6.171164e+001 
3656250000  -5.226990e+001  -5.924741e+001 
3659375000  -5.161336e+001  -6.930472e+001 
3662500000  -5.158117e+001  -7.265508e+001 
3665625000  -4.949136e+001  -7.041122e+001 
3668750000  -4.807673e+001  -7.523512e+001 
3671875000  -4.719456e+001  -8.671036e+001 
3675000000  -4.725844e+001  -9.352514e+001 
3678125000  -4.727197e+001  -9.862864e+001 
3681250000  -4.684795e+001  -1.011896e+002 
3684375000  -4.635477e+001  -1.076383e+002 
3687500000  -4.685896e+001  -1.097225e+002 
3690625000  -4.657569e+001  -1.195248e+002 
3693750000  -4.724049e+001  -1.184245e+002 
3696875000  -4.662574e+001  -1.202652e+002 
3700000000  -4.513889e+001  -1.268430e+002 
3703125000  -4.499725e+001  -1.322508e+002 
3706250000  -4.608493e+001  -1.310926e+002 
3709375000  -4.514663e+001  -1.333412e+002 
3712500000  -4.350121e+001  -1.387216e+002 
3715625000  -4.182170e+001  -1.470205e+002 
3718750000  -4.179717e+001  -1.546613e+002 
3721875000  -4.149045e+001  -1.636811e+002 
3725000000  -4.153228e+001  -1.720717e+002 
3728125000  -4.165453e+001  -1.738876e+002 
3731250000  -4.059074e+001  -1.792901e+002 
3734375000  -4.027464e+001  1.723588e+002 
3737500000  -4.088809e+001  1.626332e+002 
3740625000  -4.093909e+001  1.584346e+002 
3743750000  -4.036793e+001  1.520920e+002 
3746875000  -4.073328e+001  1.467759e+002 
3750000000  -4.078634e+001  1.396903e+002 
3753125000  -4.056423e+001  1.361343e+002 
3756250000  -4.068162e+001  1.336924e+002 
3759375000  -4.052948e+001  1.276250e+002 
3762500000  -4.012121e+001  1.218536e+002 
3765625000  -4.048015e+001  1.180504e+002 
3768750000  -3.997462e+001  1.162693e+002 
3771875000  -3.839526e+001  1.089887e+002 
3775000000  -3.860255e+001  9.696975e+001 
3778125000  -3.908644e+001  9.254146e+001 
3781250000  -3.891601e+001  8.816171e+001 
3784375000  -3.875904e+001  8.228014e+001 
3787500000  -3.861655e+001  7.712347e+001 
3790625000  -3.906396e+001  6.622305e+001 
3793750000  -3.898828e+001  6.495457e+001 
3796875000  -3.820924e+001  5.917864e+001 
3800000000  -3.637845e+001  5.490319e+001 
3803125000  -3.809801e+001  4.301238e+001 
3806250000  -3.891222e+001  3.687775e+001 
3809375000  -3.849977e+001  3.336068e+001 
3812500000  -3.856572e+001  2.478358e+001 
3815625000  -3.934778e+001  1.544927e+001 
3818750000  -4.054823e+001  1.463441e+001 
3821875000  -4.003780e+001  2.607243e+001 
3825000000  -3.831774e+001  2.170973e+001 
3828125000  -3.712927e+001  2.195261e+000 
3831250000  -3.826583e+001  -1.023465e+001 
3834375000  -4.052443e+001  -1.265985e+001 
3837500000  -4.059770e+001  -8.011815e+000 
3840625000  -3.894123e+001  -1.182556e+001 
3843750000  -3.825718e+001  -2.831010e+001 
3846875000  -4.014086e+001  -3.261393e+001 
3850000000  -4.096543e+001  -2.452701e+001 
3853125000  -3.996934e+001  -2.604832e+001 
3856250000  -3.924275e+001  -3.382449e+001 
3859375000  -3.869231e+001  -4.035130e+001 
3862500000  -3.846049e+001  -5.068366e+001 
3865625000  -3.897225e+001  -5.623925e+001 
3868750000  -3.852766e+001  -5.765828e+001 
3871875000  -3.798888e+001  -6.443206e+001 
3875000000  -3.854525e+001  -7.513184e+001 
3878125000  -3.938164e+001  -7.785599e+001 
3881250000  -3.924807e+001  -7.762793e+001 
3884375000  -3.862742e+001  -8.454305e+001 
3887500000  -3.917809e+001  -8.991829e+001 
3890625000  -3.961918e+001  -9.593617e+001 
3893750000  -3.972082e+001  -9.699496e+001 
3896875000  -4.010529e+001  -1.001163e+002 
3900000000  -3.991523e+001  -1.047112e+002 
3903125000  -3.932753e+001  -1.086055e+002 
3906250000  -3.866644e+001  -1.114719e+002 
3909375000  -3.814391e+001  -1.223177e+002 
3912500000  -3.907870e+001  -1.307143e+002 
3915625000  -4.025278e+001  -1.291365e+002 
3918750000  -3.997159e+001  -1.308714e+002 
3921875000  -3.921258e+001  -1.356011e+002 
3925000000  -3.858282e+001  -1.406774e+002 
3928125000  -3.835955e+001  -1.518049e+002 
3931250000  -3.910044e+001  -1.572819e+002 
3934375000  -3.962898e+001  -1.587673e+002 
3937500000  -3.989947e+001  -1.617242e+002 
3940625000  -3.981786e+001  -1.640290e+002 
3943750000  -3.895219e+001  -1.654573e+002 
3946875000  -3.852027e+001  -1.743837e+002 
3950000000  -3.991993e+001  1.756869e+002 
3953125000  -4.003767e+001  1.766772e+002 
3956250000  -3.888413e+001  1.769243e+002 
3959375000  -3.767978e+001  1.702847e+002 
3962500000  -3.765912e+001  1.606724e+002 
3965625000  -3.777563e+001  1.531734e+002 
3968750000  -3.850667e+001  1.449430e+002 
3971875000  -3.855761e+001  1.399246e+002 
3975000000  -3.825686e+001  1.356176e+002 
3978125000  -3.857222e+001  1.306071e+002 
3981250000  -3.864976e+001  1.246113e+002 
3984375000  -3.901390e+001  1.172369e+002 
3987500000  -3.986592e+001  1.122001e+002 
3990625000  -4.012578e+001  1.115516e+002 
3993750000  -3.986170e+001  1.066712e+002 
3996875000  -3.996245e+001  1.020237e+002 
4000000000  -4.062332e+001  9.739297e+001 
4003125000  -4.111292e+001  9.979277e+001 
4006250000  -3.911022e+001  9.591161e+001 
4009375000  -3.879495e+001  8.310060e+001 
4012500000  -4.001123e+001  7.467603e+001 
4015625000  -4.170531e+001  7.454506e+001 
4018750000  -4.118496e+001  7.638244e+001 
4021875000  -4.058831e+001  7.182057e+001 
4025000000  -4.015375e+001  6.582413e+001 
4028125000  -4.023688e+001  5.882434e+001 
4031250000  -4.096041e+001  5.571312e+001 
4034375000  -4.162575e+001  5.434899e+001 
4037500000  -4.109724e+001  5.557846e+001 
4040625000  -4.104438e+001  5.032506e+001 
4043750000  -4.118450e+001  4.727016e+001 
4046875000  -4.092280e+001  4.277714e+001 
4050000000  -4.043295e+001  3.811673e+001 
4053125000  -4.157750e+001  3.666950e+001 
4056250000  -4.156508e+001  3.818528e+001 
4059375000  -3.942470e+001  3.851243e+001 
4062500000  -3.894876e+001  2.943371e+001 
4065625000  -3.898529e+001  2.371868e+001 
4068750000  -3.815995e+001  1.795116e+001 
4071875000  -3.796054e+001  5.756553e+000 
4075000000  -3.837946e+001  -1.088280e+000 
4078125000  -3.882323e+001  -3.906566e+000 
4081250000  -3.822150e+001  -8.473913e+000 
4084375000  -3.823711e+001  -1.884034e+001 
4087500000  -3.882499e+001  -2.467022e+001 
4090625000  -3.926381e+001  -2.630266e+001 
4093750000  -3.853955e+001  -2.932852e+001 
4096875000  -3.862495e+001  -4.066261e+001 
4100000000  -3.970271e+001  -4.591840e+001 
4103125000  -4.060426e+001  -4.373870e+001 
4106250000  -3.993043e+001  -4.136733e+001 
4109375000  -3.908888e+001  -4.457254e+001 
4112500000  -3.874235e+001  -5.394527e+001 
4115625000  -3.943193e+001  -6.196810e+001 
4118750000  -3.909920e+001  -6.616844e+001 
4121875000  -3.913125e+001  -7.300909e+001 
4125000000  -3.979740e+001  -7.970615e+001 
4128125000  -4.096756e+001  -7.586367e+001 
4131250000  -3.976010e+001  -7.245824e+001 
4134375000  -3.771935e+001  -8.095965e+001 
4137500000  -3.843163e+001  -1.022193e+002 
4140625000  -4.080293e+001  -1.082794e+002 
4143750000  -4.159803e+001  -1.016283e+002 
4146875000  -4.026997e+001  -9.847312e+001 
4150000000  -3.957891e+001  -1.079885e+002 
4153125000  -4.017802e+001  -1.155866e+002 
4156250000  -4.169141e+001  -1.191496e+002 
4159375000  -4.082392e+001  -1.124342e+002 
4162500000  -4.023610e+001  -1.083292e+002 
4165625000  -3.869640e+001  -1.171007e+002 
4168750000  -3.823361e+001  -1.299371e+002 
4171875000  -3.821269e+001  -1.388960e+002 
4175000000  -3.955190e+001  -1.446169e+002 
4178125000  -3.981466e+001  -1.451752e+002 
4181250000  -3.942727e+001  -1.502789e+002 
4184375000  -3.972600e+001  -1.539840e+002 
4187500000  -3.956876e+001  -1.600289e+002 
4190625000  -3.938933e+001  -1.657899e+002 
4193750000  -4.039856e+001  -1.706544e+002 
4196875000  -4.136845e+001  -1.720815e+002 
4200000000  -4.271131e+001  -1.645695e+002 
4203125000  -4.079261e+001  -1.537073e+002 
4206250000  -3.739946e+001  -1.634364e+002 
4209375000  -3.772458e+001  1.731656e+002 
4212500000  -3.978223e+001  1.676108e+002 
4215625000  -4.032149e+001  1.718232e+002 
4218750000  -3.826977e+001  1.733882e+002 
4221875000  -3.678769e+001  1.633877e+002 
4225000000  -3.785239e+001  1.532269e+002 
4228125000  -3.755089e+001  1.525840e+002 
4231250000  -3.625910e+001  1.451554e+002 
4234375000  -3.639874e+001  1.356130e+002 
4237500000  -3.620403e+001  1.303519e+002 
4240625000  -3.621477e+001  1.179094e+002 
4243750000  -3.770659e+001  1.095526e+002 
4246875000  -3.851849e+001  1.097576e+002 
4250000000  -3.810336e+001  1.096519e+002 
4253125000  -3.819497e+001  1.071176e+002 
4256250000  -3.800663e+001  1.033935e+002 
4259375000  -3.772453e+001  9.702116e+001 
4262500000  -3.783696e+001  9.101717e+001 
4265625000  -3.788952e+001  8.935567e+001 
4268750000  -3.684896e+001  8.197005e+001 
4271875000  -3.694110e+001  7.291231e+001 
4275000000  -3.647909e+001  6.494615e+001 
4278125000  -3.789390e+001  5.318572e+001 
4281250000  -3.909680e+001  5.023462e+001 
4284375000  -3.856995e+001  4.882154e+001 
4287500000  -4.020572e+001  4.725267e+001 
4290625000  -4.077142e+001  5.289049e+001 
4293750000  -3.891742e+001  5.506980e+001 
4296875000  -3.800984e+001  4.039582e+001 
4300000000  -3.926266e+001  3.229044e+001 
4303125000  -3.975856e+001  3.531941e+001 
4306250000  -3.858110e+001  3.762761e+001 
4309375000  -3.755960e+001  3.337698e+001 
4312500000  -3.764977e+001  1.935840e+001 
4315625000  -3.793446e+001  1.132978e+001 
4318750000  -3.872889e+001  8.745996e+000 
4321875000  -3.849865e+001  8.023517e+000 
4325000000  -3.787096e+001  7.433612e+000 
4328125000  -3.738990e+001  -2.299794e+000 
4331250000  -3.733133e+001  -1.343860e+001 
4334375000  -3.822362e+001  -1.992148e+001 
4337500000  -3.964108e+001  -2.052030e+001 
4340625000  -3.979819e+001  -1.542148e+001 
4343750000  -3.860475e+001  -1.953227e+001 
4346875000  -3.825240e+001  -2.749022e+001 
4350000000  -3.828717e+001  -3.763330e+001 
4353125000  -3.882291e+001  -4.390980e+001 
4356250000  -4.134052e+001  -3.679093e+001 
4359375000  -3.966110e+001  -2.546406e+001 
4362500000  -3.667000e+001  -3.404058e+001 
4365625000  -3.604827e+001  -5.115304e+001 
4368750000  -3.729588e+001  -6.053080e+001 
4371875000  -3.778173e+001  -6.032465e+001 
4375000000  -3.719872e+001  -6.354766e+001 
4378125000  -3.700981e+001  -7.243521e+001 
4381250000  -3.717017e+001  -7.963123e+001 
4384375000  -3.718767e+001  -8.742274e+001 
4387500000  -3.819495e+001  -9.318883e+001 
4390625000  -3.846017e+001  -9.361678e+001 
4393750000  -3.803460e+001  -9.405690e+001 
4396875000  -3.738346e+001  -9.696667e+001 
4400000000  -3.705911e+001  -1.090886e+002 
4403125000  -3.796688e+001  -1.175490e+002 
4406250000  -3.818588e+001  -1.202614e+002 
4409375000  -3.870734e+001  -1.246962e+002 
4412500000  -3.998770e+001  -1.256771e+002 
4415625000  -3.962519e+001  -1.244970e+002 
