!Agilent Technologies,E8363B,MY43030201,A.06.04.32
!Agilent E8363B: A.06.04.32
!Date: Tuesday, November 11, 2014 21:31:59
!Correction: S21(Response(S21)) 
!S1P File: Measurement: S21:
# Hz S  dB   R 50
3000000000  -4.054089e+001  7.811127e+001 
3003125000  -4.216836e+001  7.058965e+001 
3006250000  -4.197228e+001  7.010989e+001 
3009375000  -4.252707e+001  7.456885e+001 
3012500000  -4.162333e+001  6.978500e+001 
3015625000  -4.158765e+001  6.317668e+001 
3018750000  -4.174601e+001  6.457588e+001 
3021875000  -4.026836e+001  6.407867e+001 
3025000000  -3.888545e+001  6.088008e+001 
3028125000  -3.782149e+001  4.970459e+001 
3031250000  -3.692600e+001  3.833625e+001 
3034375000  -3.677672e+001  2.488125e+001 
3037500000  -3.750854e+001  1.378036e+001 
3040625000  -3.878012e+001  8.568472e+000 
3043750000  -3.914689e+001  2.528902e+000 
3046875000  -3.976011e+001  -1.986363e+000 
3050000000  -4.097851e+001  -8.711681e+000 
3053125000  -4.058283e+001  -3.353915e+000 
3056250000  -4.042218e+001  -5.141385e-001 
3059375000  -3.980140e+001  -2.287474e+000 
3062500000  -3.837055e+001  -6.734259e+000 
3065625000  -3.792934e+001  -1.673486e+001 
3068750000  -3.750208e+001  -2.410618e+001 
3071875000  -3.758457e+001  -2.716405e+001 
3075000000  -3.703486e+001  -3.374601e+001 
3078125000  -3.702873e+001  -4.029632e+001 
3081250000  -3.722598e+001  -4.638953e+001 
3084375000  -3.635382e+001  -5.128519e+001 
3087500000  -3.644766e+001  -5.768956e+001 
3090625000  -3.587160e+001  -6.958964e+001 
3093750000  -3.683163e+001  -7.810365e+001 
3096875000  -3.736851e+001  -8.302475e+001 
3100000000  -3.725133e+001  -8.556651e+001 
3103125000  -3.765486e+001  -8.889958e+001 
3106250000  -3.721349e+001  -9.490946e+001 
3109375000  -3.717908e+001  -9.878784e+001 
3112500000  -3.717526e+001  -1.045511e+002 
3115625000  -3.718835e+001  -1.082213e+002 
3118750000  -3.716032e+001  -1.118638e+002 
3121875000  -3.653428e+001  -1.226943e+002 
3125000000  -3.844639e+001  -1.264488e+002 
3128125000  -3.856806e+001  -1.191253e+002 
3131250000  -3.612251e+001  -1.256487e+002 
3134375000  -3.542451e+001  -1.420324e+002 
3137500000  -3.613722e+001  -1.548334e+002 
3140625000  -3.719071e+001  -1.568021e+002 
3143750000  -3.820564e+001  -1.588650e+002 
3146875000  -3.763858e+001  -1.568654e+002 
3150000000  -3.692363e+001  -1.615721e+002 
3153125000  -3.726723e+001  -1.692153e+002 
3156250000  -3.810056e+001  -1.650904e+002 
3159375000  -3.572683e+001  -1.674236e+002 
3162500000  -3.421881e+001  1.771074e+002 
3165625000  -3.551693e+001  1.639953e+002 
3168750000  -3.543101e+001  1.635723e+002 
3171875000  -3.497293e+001  1.562640e+002 
3175000000  -3.552659e+001  1.467584e+002 
3178125000  -3.502766e+001  1.453400e+002 
3181250000  -3.428802e+001  1.377352e+002 
3184375000  -3.413904e+001  1.252579e+002 
3187500000  -3.546929e+001  1.104184e+002 
3190625000  -3.732568e+001  1.053432e+002 
3193750000  -3.751322e+001  1.092485e+002 
3196875000  -3.729999e+001  1.111893e+002 
3200000000  -3.613168e+001  1.055209e+002 
3203125000  -3.597136e+001  9.803162e+001 
3206250000  -3.613091e+001  9.022163e+001 
3209375000  -3.583649e+001  8.130786e+001 
3212500000  -3.625758e+001  7.595010e+001 
3215625000  -3.605198e+001  7.318491e+001 
3218750000  -3.690538e+001  6.126307e+001 
3221875000  -3.736002e+001  5.513649e+001 
3225000000  -3.702842e+001  5.152449e+001 
3228125000  -3.779410e+001  4.333298e+001 
3231250000  -3.817030e+001  4.181560e+001 
3234375000  -3.788850e+001  3.832921e+001 
3237500000  -3.799409e+001  3.476862e+001 
3240625000  -3.765396e+001  2.983009e+001 
3243750000  -3.776220e+001  1.883994e+001 
3246875000  -3.825260e+001  1.193882e+001 
3250000000  -3.880332e+001  7.817202e+000 
3253125000  -3.899131e+001  4.824287e+000 
3256250000  -3.864585e+001  -3.458099e+000 
3259375000  -3.919093e+001  -1.469706e+001 
3262500000  -4.054194e+001  -1.849098e+001 
3265625000  -4.121066e+001  -1.507003e+001 
3268750000  -4.126340e+001  -1.358381e+001 
3271875000  -4.058378e+001  -1.739538e+001 
3275000000  -4.000186e+001  -2.619499e+001 
3278125000  -4.097471e+001  -3.091708e+001 
3281250000  -4.103435e+001  -3.179813e+001 
3284375000  -4.047660e+001  -3.862516e+001 
3287500000  -4.097062e+001  -4.413495e+001 
3290625000  -4.104169e+001  -5.050826e+001 
3293750000  -4.111760e+001  -5.699162e+001 
3296875000  -4.250372e+001  -5.753739e+001 
3300000000  -4.198549e+001  -5.563568e+001 
3303125000  -4.093185e+001  -6.305215e+001 
3306250000  -4.073250e+001  -6.958800e+001 
3309375000  -4.057240e+001  -7.782767e+001 
3312500000  -4.097620e+001  -8.970695e+001 
3315625000  -4.213271e+001  -9.732861e+001 
3318750000  -4.377546e+001  -1.000915e+002 
3321875000  -4.486638e+001  -1.003382e+002 
3325000000  -4.462280e+001  -9.028725e+001 
3328125000  -4.381662e+001  -9.232936e+001 
3331250000  -4.248154e+001  -8.890076e+001 
3334375000  -3.980103e+001  -1.038397e+002 
3337500000  -4.042849e+001  -1.246932e+002 
3340625000  -4.199720e+001  -1.323596e+002 
3343750000  -4.410604e+001  -1.341031e+002 
3346875000  -4.360386e+001  -1.336668e+002 
3350000000  -4.317500e+001  -1.384488e+002 
3353125000  -4.267380e+001  -1.441463e+002 
3356250000  -4.253833e+001  -1.543767e+002 
3359375000  -4.331210e+001  -1.643811e+002 
3362500000  -4.432952e+001  -1.696243e+002 
3365625000  -4.469793e+001  -1.721134e+002 
3368750000  -4.531823e+001  -1.794859e+002 
3371875000  -4.583385e+001  1.799191e+002 
3375000000  -4.746181e+001  1.767289e+002 
3378125000  -4.811233e+001  1.724694e+002 
3381250000  -4.950169e+001  -1.731623e+002 
3384375000  -4.651541e+001  -1.609888e+002 
3387500000  -4.397421e+001  1.767150e+002 
3390625000  -4.604652e+001  1.567148e+002 
3393750000  -4.690052e+001  1.578807e+002 
3396875000  -4.625205e+001  1.585698e+002 
3400000000  -4.587386e+001  1.440639e+002 
3403125000  -4.702190e+001  1.408282e+002 
3406250000  -4.756332e+001  1.295771e+002 
3409375000  -4.811011e+001  1.313468e+002 
3412500000  -4.872069e+001  1.251172e+002 
3415625000  -5.002255e+001  1.232621e+002 
3418750000  -5.045211e+001  1.251321e+002 
3421875000  -5.151346e+001  1.266902e+002 
3425000000  -5.013203e+001  1.226353e+002 
3428125000  -5.099609e+001  1.181877e+002 
3431250000  -5.008612e+001  1.106402e+002 
3434375000  -5.080925e+001  1.109034e+002 
3437500000  -5.245774e+001  1.041337e+002 
3440625000  -5.185499e+001  1.075542e+002 
3443750000  -5.121899e+001  1.087785e+002 
3446875000  -5.076172e+001  1.094561e+002 
3450000000  -5.045153e+001  9.718694e+001 
3453125000  -5.150257e+001  9.045622e+001 
3456250000  -5.177645e+001  8.704293e+001 
3459375000  -5.328006e+001  9.354288e+001 
3462500000  -5.205083e+001  9.185353e+001 
3465625000  -5.141475e+001  8.045247e+001 
3468750000  -5.197802e+001  8.335143e+001 
3471875000  -5.247464e+001  8.473796e+001 
3475000000  -5.141987e+001  7.890238e+001 
3478125000  -5.084740e+001  6.498631e+001 
3481250000  -5.273550e+001  6.808616e+001 
3484375000  -5.234451e+001  7.268019e+001 
3487500000  -5.147949e+001  6.381926e+001 
3490625000  -5.127979e+001  6.359876e+001 
3493750000  -5.151213e+001  5.469360e+001 
3496875000  -5.097720e+001  5.307106e+001 
3500000000  -5.212280e+001  5.354281e+001 
3503125000  -5.094394e+001  4.479142e+001 
3506250000  -5.026998e+001  3.907242e+001 
3509375000  -5.030643e+001  3.153770e+001 
3512500000  -5.020234e+001  1.742274e+001 
3515625000  -5.115993e+001  1.549607e+001 
3518750000  -5.237897e+001  1.624057e+001 
3521875000  -5.238113e+001  1.185624e+001 
3525000000  -5.462641e+001  2.529516e+000 
3528125000  -5.286237e+001  1.364689e+001 
3531250000  -5.137882e+001  4.991007e+000 
3534375000  -5.267586e+001  -8.165294e+000 
3537500000  -5.321198e+001  -1.601771e+001 
3540625000  -5.496785e+001  -1.535025e+001 
3543750000  -5.684855e+001  -7.062765e+000 
3546875000  -5.600029e+001  -7.389251e+000 
3550000000  -5.402887e+001  -6.305215e+000 
3553125000  -5.426666e+001  -2.679784e+001 
3556250000  -5.531016e+001  -2.398641e+001 
3559375000  -5.474153e+001  -2.621566e+001 
3562500000  -5.722543e+001  -3.866225e+001 
3565625000  -5.750639e+001  -3.692433e+001 
3568750000  -5.976348e+001  -3.442135e+001 
3571875000  -5.838036e+001  -3.515204e+001 
3575000000  -5.827708e+001  -3.201523e+001 
3578125000  -5.761454e+001  -4.811551e+001 
3581250000  -5.839975e+001  -2.850323e+001 
3584375000  -5.789520e+001  -2.634121e+001 
3587500000  -5.701245e+001  -5.015720e+001 
3590625000  -5.890263e+001  -5.160018e+001 
3593750000  -6.007916e+001  -4.663151e+001 
3596875000  -5.927250e+001  -2.859764e+001 
3600000000  -5.723963e+001  -3.102009e+001 
3603125000  -5.863593e+001  -4.915049e+001 
3606250000  -6.064815e+001  -5.148735e+001 
3609375000  -5.828764e+001  -3.255681e+001 
3612500000  -5.760075e+001  -3.701358e+001 
3615625000  -5.841756e+001  -4.721391e+001 
3618750000  -5.745230e+001  -4.125233e+001 
3621875000  -5.724871e+001  -4.089790e+001 
3625000000  -5.793673e+001  -3.749642e+001 
3628125000  -5.616203e+001  -3.197915e+001 
3631250000  -5.734317e+001  -3.909775e+001 
3634375000  -5.753066e+001  -3.990856e+001 
3637500000  -5.648159e+001  -4.070115e+001 
3640625000  -5.370707e+001  -2.813384e+001 
3643750000  -5.229028e+001  -4.146743e+001 
3646875000  -5.272010e+001  -5.301849e+001 
3650000000  -5.246281e+001  -5.222649e+001 
3653125000  -5.173672e+001  -5.206747e+001 
3656250000  -5.159661e+001  -5.423387e+001 
3659375000  -5.127332e+001  -6.070834e+001 
3662500000  -5.035313e+001  -6.471316e+001 
3665625000  -4.950774e+001  -6.559305e+001 
3668750000  -4.859764e+001  -6.709863e+001 
3671875000  -4.685622e+001  -8.147017e+001 
3675000000  -4.726411e+001  -8.607162e+001 
3678125000  -4.720105e+001  -8.842449e+001 
3681250000  -4.631972e+001  -9.647043e+001 
3684375000  -4.654920e+001  -9.875605e+001 
3687500000  -4.667233e+001  -1.063970e+002 
3690625000  -4.599136e+001  -1.101242e+002 
3693750000  -4.699719e+001  -1.113875e+002 
3696875000  -4.616334e+001  -1.099547e+002 
3700000000  -4.495855e+001  -1.194581e+002 
3703125000  -4.552048e+001  -1.243220e+002 
3706250000  -4.563576e+001  -1.244545e+002 
3709375000  -4.472385e+001  -1.266229e+002 
3712500000  -4.339023e+001  -1.309509e+002 
3715625000  -4.204068e+001  -1.401248e+002 
3718750000  -4.158879e+001  -1.453259e+002 
3721875000  -4.146503e+001  -1.562641e+002 
3725000000  -4.178434e+001  -1.629884e+002 
3728125000  -4.156185e+001  -1.662409e+002 
3731250000  -4.084222e+001  -1.712606e+002 
3734375000  -4.028656e+001  1.798041e+002 
3737500000  -4.088752e+001  1.712426e+002 
3740625000  -4.089903e+001  1.630100e+002 
3743750000  -4.056136e+001  1.585273e+002 
3746875000  -4.065123e+001  1.534560e+002 
3750000000  -4.130605e+001  1.483568e+002 
3753125000  -4.059603e+001  1.450314e+002 
3756250000  -4.057769e+001  1.409624e+002 
3759375000  -4.034338e+001  1.354302e+002 
3762500000  -4.018306e+001  1.284833e+002 
3765625000  -4.071324e+001  1.248053e+002 
3768750000  -4.009724e+001  1.227658e+002 
3771875000  -3.837898e+001  1.172385e+002 
3775000000  -3.862107e+001  1.055297e+002 
3778125000  -3.913050e+001  1.014334e+002 
3781250000  -3.916240e+001  9.522857e+001 
3784375000  -3.882656e+001  8.901064e+001 
3787500000  -3.854828e+001  8.260701e+001 
3790625000  -3.914651e+001  7.293853e+001 
3793750000  -3.912454e+001  7.093726e+001 
3796875000  -3.827615e+001  6.589429e+001 
3800000000  -3.637312e+001  6.218086e+001 
3803125000  -3.835015e+001  4.904262e+001 
3806250000  -3.896545e+001  4.553639e+001 
3809375000  -3.863298e+001  4.073111e+001 
3812500000  -3.849503e+001  3.230625e+001 
3815625000  -3.952451e+001  2.295784e+001 
3818750000  -4.041353e+001  2.428576e+001 
3821875000  -4.034165e+001  3.372602e+001 
3825000000  -3.812303e+001  2.824302e+001 
3828125000  -3.706274e+001  1.134932e+001 
3831250000  -3.808062e+001  -4.352955e+000 
3834375000  -4.049478e+001  -6.227110e+000 
3837500000  -4.077463e+001  -8.570647e-001 
3840625000  -3.907654e+001  -3.380614e+000 
3843750000  -3.850914e+001  -2.008355e+001 
3846875000  -3.977398e+001  -2.515735e+001 
3850000000  -4.095001e+001  -1.831055e+001 
3853125000  -4.008339e+001  -1.762374e+001 
3856250000  -3.930513e+001  -2.821837e+001 
3859375000  -3.878090e+001  -3.400150e+001 
3862500000  -3.835587e+001  -4.400239e+001 
3865625000  -3.896992e+001  -5.044528e+001 
3868750000  -3.861033e+001  -4.963071e+001 
3871875000  -3.792481e+001  -5.561905e+001 
3875000000  -3.850775e+001  -6.802913e+001 
3878125000  -3.952485e+001  -6.986919e+001 
3881250000  -3.935809e+001  -7.034841e+001 
3884375000  -3.883022e+001  -7.696252e+001 
3887500000  -3.926010e+001  -8.159870e+001 
3890625000  -3.941019e+001  -8.721556e+001 
3893750000  -4.011192e+001  -9.193838e+001 
3896875000  -4.009264e+001  -9.211634e+001 
3900000000  -3.993343e+001  -9.742298e+001 
3903125000  -3.930890e+001  -1.013995e+002 
3906250000  -3.890889e+001  -1.036717e+002 
3909375000  -3.822092e+001  -1.123655e+002 
3912500000  -3.920168e+001  -1.214939e+002 
3915625000  -4.053508e+001  -1.209146e+002 
3918750000  -3.986270e+001  -1.245315e+002 
3921875000  -3.905548e+001  -1.281442e+002 
3925000000  -3.861794e+001  -1.346816e+002 
3928125000  -3.823668e+001  -1.426908e+002 
3931250000  -3.916433e+001  -1.493799e+002 
3934375000  -3.958933e+001  -1.494597e+002 
3937500000  -4.030289e+001  -1.521952e+002 
3940625000  -4.018387e+001  -1.556967e+002 
3943750000  -3.880482e+001  -1.578972e+002 
3946875000  -3.829462e+001  -1.674348e+002 
3950000000  -3.975051e+001  -1.767467e+002 
3953125000  -4.012101e+001  -1.763564e+002 
3956250000  -3.888630e+001  -1.742824e+002 
3959375000  -3.767338e+001  1.791849e+002 
3962500000  -3.756882e+001  1.692670e+002 
3965625000  -3.763594e+001  1.610762e+002 
3968750000  -3.869521e+001  1.516034e+002 
3971875000  -3.895841e+001  1.484460e+002 
3975000000  -3.829967e+001  1.435343e+002 
3978125000  -3.853751e+001  1.400739e+002 
3981250000  -3.844538e+001  1.328976e+002 
3984375000  -3.912080e+001  1.260589e+002 
3987500000  -3.956840e+001  1.219901e+002 
3990625000  -4.010078e+001  1.216520e+002 
3993750000  -3.987953e+001  1.161714e+002 
3996875000  -4.008748e+001  1.102667e+002 
4000000000  -4.076550e+001  1.059829e+002 
4003125000  -4.091023e+001  1.080753e+002 
4006250000  -3.950977e+001  1.060589e+002 
4009375000  -3.868611e+001  9.027131e+001 
4012500000  -4.022890e+001  8.251308e+001 
4015625000  -4.176286e+001  8.209191e+001 
4018750000  -4.132669e+001  8.313710e+001 
4021875000  -4.090173e+001  8.093279e+001 
4025000000  -4.040044e+001  7.403438e+001 
4028125000  -4.080919e+001  6.685593e+001 
4031250000  -4.108860e+001  6.409988e+001 
4034375000  -4.167387e+001  6.236592e+001 
4037500000  -4.127318e+001  6.316569e+001 
4040625000  -4.099997e+001  5.871961e+001 
4043750000  -4.126114e+001  5.434437e+001 
4046875000  -4.110444e+001  5.088516e+001 
4050000000  -4.044262e+001  4.766103e+001 
4053125000  -4.139062e+001  4.376876e+001 
4056250000  -4.135984e+001  4.843795e+001 
4059375000  -3.961732e+001  4.753702e+001 
4062500000  -3.876890e+001  3.754502e+001 
4065625000  -3.883361e+001  3.354979e+001 
4068750000  -3.809821e+001  2.408317e+001 
4071875000  -3.790313e+001  1.628173e+001 
4075000000  -3.826198e+001  6.920920e+000 
4078125000  -3.885488e+001  5.890226e+000 
4081250000  -3.819275e+001  -3.376330e-001 
4084375000  -3.806295e+001  -9.283351e+000 
4087500000  -3.883560e+001  -1.743493e+001 
4090625000  -3.892860e+001  -1.839544e+001 
4093750000  -3.878292e+001  -2.208151e+001 
4096875000  -3.856184e+001  -3.060221e+001 
4100000000  -3.993622e+001  -3.611707e+001 
4103125000  -4.050875e+001  -3.587576e+001 
4106250000  -4.016148e+001  -3.251255e+001 
4109375000  -3.912646e+001  -3.676322e+001 
4112500000  -3.863643e+001  -4.623061e+001 
4115625000  -3.933332e+001  -5.263824e+001 
4118750000  -3.905243e+001  -5.668951e+001 
4121875000  -3.903414e+001  -6.365481e+001 
4125000000  -3.988411e+001  -7.173762e+001 
4128125000  -4.076828e+001  -6.935545e+001 
4131250000  -3.971296e+001  -6.349369e+001 
4134375000  -3.743837e+001  -7.372210e+001 
4137500000  -3.829811e+001  -9.316833e+001 
4140625000  -4.043130e+001  -9.900652e+001 
4143750000  -4.167458e+001  -9.138951e+001 
4146875000  -4.059562e+001  -8.931037e+001 
4150000000  -3.981294e+001  -9.688135e+001 
4153125000  -4.029126e+001  -1.052994e+002 
4156250000  -4.107991e+001  -1.120706e+002 
4159375000  -4.089505e+001  -1.046967e+002 
4162500000  -4.015184e+001  -1.025883e+002 
4165625000  -3.894405e+001  -1.092476e+002 
4168750000  -3.855691e+001  -1.203711e+002 
4171875000  -3.836433e+001  -1.306241e+002 
4175000000  -3.961560e+001  -1.372821e+002 
4178125000  -3.969669e+001  -1.361131e+002 
4181250000  -3.949339e+001  -1.411387e+002 
4184375000  -3.953357e+001  -1.442175e+002 
4187500000  -3.945132e+001  -1.513465e+002 
4190625000  -3.930603e+001  -1.591204e+002 
4193750000  -4.059233e+001  -1.647022e+002 
4196875000  -4.130458e+001  -1.643443e+002 
4200000000  -4.214695e+001  -1.576702e+002 
4203125000  -4.108870e+001  -1.439732e+002 
4206250000  -3.764557e+001  -1.552964e+002 
4209375000  -3.728954e+001  -1.796439e+002 
4212500000  -3.961007e+001  1.731821e+002 
4215625000  -4.001105e+001  -1.791170e+002 
4218750000  -3.817569e+001  -1.762084e+002 
4221875000  -3.658535e+001  1.736256e+002 
4225000000  -3.793235e+001  1.624822e+002 
4228125000  -3.778262e+001  1.614428e+002 
4231250000  -3.628030e+001  1.556446e+002 
4234375000  -3.659361e+001  1.434059e+002 
4237500000  -3.612530e+001  1.394292e+002 
4240625000  -3.636193e+001  1.267693e+002 
4243750000  -3.736921e+001  1.198205e+002 
4246875000  -3.849774e+001  1.188112e+002 
4250000000  -3.813298e+001  1.181366e+002 
4253125000  -3.814983e+001  1.146179e+002 
4256250000  -3.809615e+001  1.101945e+002 
4259375000  -3.800971e+001  1.036365e+002 
4262500000  -3.786600e+001  9.935675e+001 
4265625000  -3.792980e+001  9.895757e+001 
4268750000  -3.685276e+001  8.970547e+001 
4271875000  -3.693340e+001  8.003667e+001 
4275000000  -3.667973e+001  7.460448e+001 
4278125000  -3.796465e+001  6.030343e+001 
4281250000  -3.916167e+001  6.087731e+001 
4284375000  -3.873445e+001  5.788260e+001 
4287500000  -4.042599e+001  5.528302e+001 
4290625000  -4.089336e+001  6.181025e+001 
4293750000  -3.883020e+001  6.287221e+001 
4296875000  -3.787399e+001  4.893167e+001 
4300000000  -3.907367e+001  4.017996e+001 
4303125000  -3.978928e+001  4.384980e+001 
4306250000  -3.884956e+001  4.653635e+001 
4309375000  -3.772570e+001  3.958906e+001 
4312500000  -3.753760e+001  2.962371e+001 
4315625000  -3.805819e+001  1.953291e+001 
4318750000  -3.873648e+001  1.718961e+001 
4321875000  -3.862324e+001  1.659159e+001 
4325000000  -3.799552e+001  1.582021e+001 
4328125000  -3.727668e+001  5.766601e+000 
4331250000  -3.748242e+001  -3.256812e+000 
4334375000  -3.818541e+001  -1.023428e+001 
4337500000  -3.952395e+001  -1.159695e+001 
4340625000  -3.975838e+001  -6.260016e+000 
4343750000  -3.881153e+001  -1.116051e+001 
4346875000  -3.841896e+001  -1.834748e+001 
4350000000  -3.832020e+001  -2.847388e+001 
4353125000  -3.896788e+001  -3.619862e+001 
4356250000  -4.087019e+001  -2.780935e+001 
4359375000  -4.018110e+001  -1.667382e+001 
4362500000  -3.680924e+001  -2.437553e+001 
4365625000  -3.614376e+001  -4.342784e+001 
4368750000  -3.731884e+001  -5.210537e+001 
4371875000  -3.809357e+001  -4.916165e+001 
4375000000  -3.738189e+001  -5.646055e+001 
4378125000  -3.699205e+001  -6.543359e+001 
4381250000  -3.732164e+001  -7.169844e+001 
4384375000  -3.706046e+001  -7.767159e+001 
4387500000  -3.809612e+001  -8.438176e+001 
4390625000  -3.881102e+001  -8.507481e+001 
4393750000  -3.809994e+001  -8.445998e+001 
4396875000  -3.729953e+001  -8.981148e+001 
4400000000  -3.705642e+001  -9.987383e+001 
4403125000  -3.799187e+001  -1.089062e+002 
4406250000  -3.858869e+001  -1.099596e+002 
4409375000  -3.869621e+001  -1.163714e+002 
4412500000  -3.957862e+001  -1.162590e+002 
4415625000  -3.958082e+001  -1.149332e+002 
