!Agilent Technologies,E8363B,MY43030201,A.06.04.32
!Agilent E8363B: A.06.04.32
!Date: Tuesday, November 11, 2014 21:36:02
!Correction: S21(Response(S21)) 
!S1P File: Measurement: S21:
# Hz S  dB   R 50
3000000000  -4.055673e+001  7.193111e+001 
3003125000  -4.218108e+001  6.345339e+001 
3006250000  -4.234502e+001  6.422311e+001 
3009375000  -4.273743e+001  6.893523e+001 
3012500000  -4.152173e+001  6.335841e+001 
3015625000  -4.152778e+001  5.725262e+001 
3018750000  -4.166561e+001  5.911521e+001 
3021875000  -4.033638e+001  5.793305e+001 
3025000000  -3.874963e+001  5.411083e+001 
3028125000  -3.784279e+001  4.415493e+001 
3031250000  -3.700466e+001  3.224060e+001 
3034375000  -3.681831e+001  1.796195e+001 
3037500000  -3.764828e+001  6.262431e+000 
3040625000  -3.877954e+001  2.116258e+000 
3043750000  -3.912170e+001  -5.038427e+000 
3046875000  -3.978851e+001  -1.082492e+001 
3050000000  -4.110622e+001  -1.667060e+001 
3053125000  -4.055329e+001  -1.002274e+001 
3056250000  -4.045217e+001  -7.220105e+000 
3059375000  -3.978706e+001  -9.389209e+000 
3062500000  -3.822309e+001  -1.445498e+001 
3065625000  -3.791685e+001  -2.403164e+001 
3068750000  -3.756577e+001  -3.170627e+001 
3071875000  -3.762212e+001  -3.337693e+001 
3075000000  -3.695608e+001  -4.043489e+001 
3078125000  -3.706708e+001  -4.727043e+001 
3081250000  -3.725471e+001  -5.294898e+001 
3084375000  -3.634475e+001  -5.773528e+001 
3087500000  -3.644087e+001  -6.469215e+001 
3090625000  -3.593865e+001  -7.725786e+001 
3093750000  -3.699421e+001  -8.452666e+001 
3096875000  -3.728067e+001  -8.977140e+001 
3100000000  -3.725116e+001  -9.227970e+001 
3103125000  -3.755880e+001  -9.688828e+001 
3106250000  -3.718627e+001  -1.010710e+002 
3109375000  -3.715084e+001  -1.060071e+002 
3112500000  -3.710847e+001  -1.110658e+002 
3115625000  -3.718405e+001  -1.152669e+002 
3118750000  -3.711468e+001  -1.191798e+002 
3121875000  -3.655795e+001  -1.290796e+002 
3125000000  -3.846366e+001  -1.334008e+002 
3128125000  -3.838277e+001  -1.257390e+002 
3131250000  -3.600253e+001  -1.322322e+002 
3134375000  -3.530083e+001  -1.487698e+002 
3137500000  -3.597631e+001  -1.605189e+002 
3140625000  -3.721944e+001  -1.636058e+002 
3143750000  -3.821955e+001  -1.667180e+002 
3146875000  -3.758918e+001  -1.646907e+002 
3150000000  -3.689067e+001  -1.685014e+002 
3153125000  -3.738412e+001  -1.764648e+002 
3156250000  -3.790795e+001  -1.715525e+002 
3159375000  -3.560993e+001  -1.739994e+002 
3162500000  -3.416182e+001  1.703178e+002 
3165625000  -3.547738e+001  1.578619e+002 
3168750000  -3.537902e+001  1.571380e+002 
3171875000  -3.488573e+001  1.490137e+002 
3175000000  -3.548340e+001  1.402637e+002 
3178125000  -3.500241e+001  1.385360e+002 
3181250000  -3.432387e+001  1.299859e+002 
3184375000  -3.413562e+001  1.187148e+002 
3187500000  -3.543544e+001  1.032699e+002 
3190625000  -3.728930e+001  9.837573e+001 
3193750000  -3.746510e+001  1.035945e+002 
3196875000  -3.731824e+001  1.047527e+002 
3200000000  -3.621106e+001  9.882494e+001 
3203125000  -3.584675e+001  9.117422e+001 
3206250000  -3.605075e+001  8.270155e+001 
3209375000  -3.580898e+001  7.499674e+001 
3212500000  -3.625903e+001  6.829256e+001 
3215625000  -3.604488e+001  6.637524e+001 
3218750000  -3.695848e+001  5.539283e+001 
3221875000  -3.722922e+001  4.854924e+001 
3225000000  -3.695905e+001  4.422849e+001 
3228125000  -3.772067e+001  3.666428e+001 
3231250000  -3.824015e+001  3.502858e+001 
3234375000  -3.793106e+001  3.111651e+001 
3237500000  -3.812144e+001  2.764852e+001 
3240625000  -3.759898e+001  2.254113e+001 
3243750000  -3.771530e+001  1.103720e+001 
3246875000  -3.818464e+001  4.521993e+000 
3250000000  -3.874677e+001  9.167925e-001 
3253125000  -3.908371e+001  -1.704065e+000 
3256250000  -3.848973e+001  -1.144903e+001 
3259375000  -3.909148e+001  -2.084408e+001 
3262500000  -4.060450e+001  -2.389248e+001 
3265625000  -4.114728e+001  -2.254268e+001 
3268750000  -4.130457e+001  -2.262674e+001 
3271875000  -4.050322e+001  -2.437231e+001 
3275000000  -3.998133e+001  -3.305110e+001 
3278125000  -4.084545e+001  -3.755825e+001 
3281250000  -4.113486e+001  -3.960319e+001 
3284375000  -4.061736e+001  -4.682193e+001 
3287500000  -4.098426e+001  -4.860285e+001 
3290625000  -4.106893e+001  -5.780003e+001 
3293750000  -4.084522e+001  -6.298684e+001 
3296875000  -4.249584e+001  -6.542974e+001 
3300000000  -4.156763e+001  -6.366203e+001 
3303125000  -4.097492e+001  -7.120786e+001 
3306250000  -4.073933e+001  -7.815029e+001 
3309375000  -4.040243e+001  -8.561578e+001 
3312500000  -4.094313e+001  -9.951454e+001 
3315625000  -4.209823e+001  -1.060758e+002 
3318750000  -4.373468e+001  -1.077685e+002 
3321875000  -4.461821e+001  -1.065380e+002 
3325000000  -4.484695e+001  -9.918278e+001 
3328125000  -4.363831e+001  -9.974916e+001 
3331250000  -4.230488e+001  -9.649761e+001 
3334375000  -4.005397e+001  -1.121534e+002 
3337500000  -4.054103e+001  -1.317910e+002 
3340625000  -4.218884e+001  -1.415249e+002 
3343750000  -4.418437e+001  -1.413082e+002 
3346875000  -4.334707e+001  -1.404863e+002 
3350000000  -4.297121e+001  -1.440597e+002 
3353125000  -4.275000e+001  -1.523578e+002 
3356250000  -4.234539e+001  -1.596806e+002 
3359375000  -4.356251e+001  -1.703059e+002 
3362500000  -4.424268e+001  -1.762607e+002 
3365625000  -4.481953e+001  -1.797500e+002 
3368750000  -4.548042e+001  1.746722e+002 
3371875000  -4.591393e+001  1.701153e+002 
3375000000  -4.734666e+001  1.689936e+002 
3378125000  -4.803858e+001  1.676596e+002 
3381250000  -4.994304e+001  1.755567e+002 
3384375000  -4.720803e+001  -1.683078e+002 
3387500000  -4.398304e+001  1.726406e+002 
3390625000  -4.573065e+001  1.519343e+002 
3393750000  -4.692043e+001  1.515040e+002 
3396875000  -4.596208e+001  1.498763e+002 
3400000000  -4.605085e+001  1.374825e+002 
3403125000  -4.633987e+001  1.328967e+002 
3406250000  -4.720788e+001  1.300760e+002 
3409375000  -4.779695e+001  1.223098e+002 
3412500000  -4.901244e+001  1.170737e+002 
3415625000  -4.964778e+001  1.179975e+002 
3418750000  -4.975919e+001  1.123700e+002 
3421875000  -5.074118e+001  1.164731e+002 
3425000000  -5.003976e+001  1.163526e+002 
3428125000  -4.983161e+001  1.174865e+002 
3431250000  -4.985080e+001  1.030945e+002 
3434375000  -5.079515e+001  1.040926e+002 
3437500000  -5.117159e+001  1.020291e+002 
3440625000  -5.134251e+001  1.023350e+002 
3443750000  -5.098279e+001  1.073707e+002 
3446875000  -4.967067e+001  9.968162e+001 
3450000000  -5.026720e+001  9.225809e+001 
3453125000  -5.112761e+001  8.329207e+001 
3456250000  -5.207637e+001  7.811336e+001 
3459375000  -5.275774e+001  8.688879e+001 
3462500000  -5.268156e+001  8.921927e+001 
3465625000  -5.192548e+001  7.802322e+001 
3468750000  -5.166892e+001  7.762245e+001 
3471875000  -5.268398e+001  7.726333e+001 
3475000000  -5.096478e+001  7.069241e+001 
3478125000  -5.133837e+001  6.161716e+001 
3481250000  -5.284260e+001  6.000984e+001 
3484375000  -5.267922e+001  6.672225e+001 
3487500000  -5.137844e+001  6.009420e+001 
3490625000  -5.072894e+001  5.318000e+001 
3493750000  -5.182794e+001  4.491600e+001 
3496875000  -5.183068e+001  4.454708e+001 
3500000000  -5.207578e+001  4.325158e+001 
3503125000  -5.171872e+001  4.485528e+001 
3506250000  -4.989271e+001  3.638859e+001 
3509375000  -4.965636e+001  2.540933e+001 
3512500000  -4.987768e+001  1.137978e+001 
3515625000  -5.174151e+001  6.338101e+000 
3518750000  -5.225755e+001  5.438464e+000 
3521875000  -5.193420e+001  4.096203e-001 
3525000000  -5.363629e+001  -1.008007e+001 
3528125000  -5.229980e+001  -2.856046e-001 
3531250000  -5.134683e+001  -7.996500e-001 
3534375000  -5.249590e+001  -1.403591e+001 
3537500000  -5.354870e+001  -2.240986e+001 
3540625000  -5.538541e+001  -2.660676e+001 
3543750000  -5.581545e+001  -2.326263e+001 
3546875000  -5.659341e+001  -8.171490e+000 
3550000000  -5.279230e+001  -1.251394e+001 
3553125000  -5.384542e+001  -3.444865e+001 
3556250000  -5.563160e+001  -2.956713e+001 
3559375000  -5.534818e+001  -3.273145e+001 
3562500000  -5.477406e+001  -4.402530e+001 
3565625000  -5.700635e+001  -5.601764e+001 
3568750000  -5.886229e+001  -3.717492e+001 
3571875000  -5.775908e+001  -4.766034e+001 
3575000000  -5.876865e+001  -4.765543e+001 
3578125000  -5.897734e+001  -5.581072e+001 
3581250000  -5.845076e+001  -4.098970e+001 
3584375000  -5.849561e+001  -4.050047e+001 
3587500000  -5.750113e+001  -4.615553e+001 
3590625000  -5.786352e+001  -5.575683e+001 
3593750000  -5.959282e+001  -5.492971e+001 
3596875000  -5.830859e+001  -3.669678e+001 
3600000000  -5.860698e+001  -4.170478e+001 
3603125000  -5.783209e+001  -6.424715e+001 
3606250000  -5.853804e+001  -5.369154e+001 
3609375000  -5.819205e+001  -4.675603e+001 
3612500000  -5.871518e+001  -5.725080e+001 
3615625000  -5.893409e+001  -6.387722e+001 
3618750000  -5.936126e+001  -4.477202e+001 
3621875000  -5.713230e+001  -5.521021e+001 
3625000000  -5.655196e+001  -5.663820e+001 
3628125000  -5.651186e+001  -3.762489e+001 
3631250000  -5.795879e+001  -5.185141e+001 
3634375000  -5.571368e+001  -5.519325e+001 
3637500000  -5.440047e+001  -4.605698e+001 
3640625000  -5.458146e+001  -4.044633e+001 
3643750000  -5.367291e+001  -4.243733e+001 
3646875000  -5.323349e+001  -6.256876e+001 
3650000000  -5.341077e+001  -6.180976e+001 
3653125000  -5.189925e+001  -6.385832e+001 
3656250000  -5.152960e+001  -6.354259e+001 
3659375000  -5.119772e+001  -6.424258e+001 
3662500000  -5.031955e+001  -7.056466e+001 
3665625000  -5.018598e+001  -7.632478e+001 
3668750000  -4.815319e+001  -7.493866e+001 
3671875000  -4.707061e+001  -9.165540e+001 
3675000000  -4.758679e+001  -9.604115e+001 
3678125000  -4.750155e+001  -9.622189e+001 
3681250000  -4.676997e+001  -1.029998e+002 
3684375000  -4.718945e+001  -1.081167e+002 
3687500000  -4.711169e+001  -1.136361e+002 
3690625000  -4.678966e+001  -1.230967e+002 
3693750000  -4.745322e+001  -1.184944e+002 
3696875000  -4.644675e+001  -1.186965e+002 
3700000000  -4.544486e+001  -1.290592e+002 
3703125000  -4.534500e+001  -1.339592e+002 
3706250000  -4.582659e+001  -1.343958e+002 
3709375000  -4.495709e+001  -1.347042e+002 
3712500000  -4.347992e+001  -1.404420e+002 
3715625000  -4.195353e+001  -1.479789e+002 
3718750000  -4.177628e+001  -1.552453e+002 
3721875000  -4.101686e+001  -1.651758e+002 
3725000000  -4.159843e+001  -1.714114e+002 
3728125000  -4.133276e+001  -1.747200e+002 
3731250000  -4.064209e+001  1.793055e+002 
3734375000  -4.032775e+001  1.720433e+002 
3737500000  -4.092830e+001  1.633452e+002 
3740625000  -4.093850e+001  1.583596e+002 
3743750000  -4.047133e+001  1.501732e+002 
3746875000  -4.057221e+001  1.434718e+002 
3750000000  -4.113665e+001  1.405800e+002 
3753125000  -4.071581e+001  1.358194e+002 
3756250000  -4.067976e+001  1.329198e+002 
3759375000  -4.039101e+001  1.258104e+002 
3762500000  -3.986372e+001  1.196058e+002 
3765625000  -4.080856e+001  1.172209e+002 
3768750000  -4.027768e+001  1.164640e+002 
3771875000  -3.848373e+001  1.085327e+002 
3775000000  -3.837019e+001  9.707375e+001 
3778125000  -3.893161e+001  9.075807e+001 
3781250000  -3.909312e+001  8.622576e+001 
3784375000  -3.868111e+001  8.131123e+001 
3787500000  -3.857631e+001  7.422273e+001 
3790625000  -3.932225e+001  6.602110e+001 
3793750000  -3.923177e+001  6.332788e+001 
3796875000  -3.816597e+001  5.888051e+001 
3800000000  -3.647042e+001  5.391222e+001 
3803125000  -3.826418e+001  4.125868e+001 
3806250000  -3.882573e+001  3.627850e+001 
3809375000  -3.842998e+001  3.239073e+001 
3812500000  -3.841297e+001  2.308357e+001 
3815625000  -3.949074e+001  1.376639e+001 
3818750000  -4.074352e+001  1.624893e+001 
3821875000  -4.026267e+001  2.472061e+001 
3825000000  -3.801866e+001  2.104732e+001 
3828125000  -3.691266e+001  1.050846e+000 
3831250000  -3.814674e+001  -1.361623e+001 
3834375000  -4.052479e+001  -1.194644e+001 
3837500000  -4.059069e+001  -9.583729e+000 
3840625000  -3.907755e+001  -1.282209e+001 
3843750000  -3.827528e+001  -2.794110e+001 
3846875000  -4.001344e+001  -3.316438e+001 
3850000000  -4.040967e+001  -2.808134e+001 
3853125000  -3.996086e+001  -2.619312e+001 
3856250000  -3.926012e+001  -3.523761e+001 
3859375000  -3.849384e+001  -4.378152e+001 
3862500000  -3.835314e+001  -5.225019e+001 
3865625000  -3.912909e+001  -5.714418e+001 
3868750000  -3.851322e+001  -5.759791e+001 
3871875000  -3.798547e+001  -6.553921e+001 
3875000000  -3.857508e+001  -7.518857e+001 
3878125000  -3.940227e+001  -7.934706e+001 
3881250000  -3.908538e+001  -8.000981e+001 
3884375000  -3.868093e+001  -8.453036e+001 
3887500000  -3.924665e+001  -9.238975e+001 
3890625000  -3.970566e+001  -9.622880e+001 
3893750000  -3.949017e+001  -9.879466e+001 
3896875000  -3.997673e+001  -1.019122e+002 
3900000000  -3.991927e+001  -1.044590e+002 
3903125000  -3.927399e+001  -1.086972e+002 
3906250000  -3.880967e+001  -1.124556e+002 
3909375000  -3.825600e+001  -1.219962e+002 
3912500000  -3.893657e+001  -1.298320e+002 
3915625000  -4.042452e+001  -1.315559e+002 
3918750000  -3.983290e+001  -1.321218e+002 
3921875000  -3.918536e+001  -1.372014e+002 
3925000000  -3.834156e+001  -1.434429e+002 
3928125000  -3.832985e+001  -1.513553e+002 
3931250000  -3.911224e+001  -1.577498e+002 
3934375000  -3.928086e+001  -1.608438e+002 
3937500000  -4.018750e+001  -1.616568e+002 
3940625000  -3.997087e+001  -1.637318e+002 
3943750000  -3.897455e+001  -1.673925e+002 
3946875000  -3.849314e+001  -1.772135e+002 
3950000000  -3.946380e+001  1.760271e+002 
3953125000  -3.997815e+001  1.762006e+002 
3956250000  -3.872668e+001  1.750282e+002 
3959375000  -3.787624e+001  1.692544e+002 
3962500000  -3.787287e+001  1.598169e+002 
3965625000  -3.759433e+001  1.523275e+002 
3968750000  -3.846357e+001  1.449676e+002 
3971875000  -3.855661e+001  1.390594e+002 
3975000000  -3.826563e+001  1.347077e+002 
3978125000  -3.856467e+001  1.301870e+002 
3981250000  -3.856113e+001  1.233208e+002 
3984375000  -3.869410e+001  1.166317e+002 
3987500000  -3.967474e+001  1.137081e+002 
3990625000  -3.984036e+001  1.130532e+002 
3993750000  -3.991906e+001  1.041326e+002 
3996875000  -3.980796e+001  1.022907e+002 
4000000000  -4.079332e+001  9.685324e+001 
4003125000  -4.110185e+001  9.910429e+001 
4006250000  -3.909718e+001  9.845168e+001 
4009375000  -3.857341e+001  8.173038e+001 
4012500000  -4.014169e+001  7.337309e+001 
4015625000  -4.134512e+001  7.547295e+001 
4018750000  -4.122536e+001  7.365676e+001 
4021875000  -4.061102e+001  7.099601e+001 
4025000000  -4.039849e+001  6.552447e+001 
4028125000  -4.054582e+001  5.772027e+001 
4031250000  -4.103940e+001  5.155110e+001 
4034375000  -4.167189e+001  5.291652e+001 
4037500000  -4.120564e+001  5.282862e+001 
4040625000  -4.104715e+001  4.992073e+001 
4043750000  -4.103292e+001  4.477066e+001 
4046875000  -4.087984e+001  4.327809e+001 
4050000000  -4.060710e+001  3.698158e+001 
4053125000  -4.134960e+001  3.555561e+001 
4056250000  -4.138955e+001  3.759961e+001 
4059375000  -3.947607e+001  3.887666e+001 
4062500000  -3.883094e+001  2.807729e+001 
4065625000  -3.906813e+001  2.355289e+001 
4068750000  -3.815203e+001  1.504306e+001 
4071875000  -3.770808e+001  5.653378e+000 
4075000000  -3.854012e+001  -8.718128e-001 
4078125000  -3.859160e+001  -4.289562e+000 
4081250000  -3.809253e+001  -9.768673e+000 
4084375000  -3.807953e+001  -1.886645e+001 
4087500000  -3.883489e+001  -2.569071e+001 
4090625000  -3.927947e+001  -2.653564e+001 
4093750000  -3.880523e+001  -3.094685e+001 
4096875000  -3.859005e+001  -3.993436e+001 
4100000000  -3.956166e+001  -4.570291e+001 
4103125000  -4.065670e+001  -4.502139e+001 
4106250000  -4.005133e+001  -4.293297e+001 
4109375000  -3.911815e+001  -4.542717e+001 
4112500000  -3.871367e+001  -5.415936e+001 
4115625000  -3.937429e+001  -6.332463e+001 
4118750000  -3.890725e+001  -6.684286e+001 
4121875000  -3.887701e+001  -7.531059e+001 
4125000000  -3.989725e+001  -8.046158e+001 
4128125000  -4.094044e+001  -7.861179e+001 
4131250000  -3.982624e+001  -7.312004e+001 
4134375000  -3.751503e+001  -8.097734e+001 
4137500000  -3.826191e+001  -1.034012e+002 
4140625000  -4.038509e+001  -1.093524e+002 
4143750000  -4.119459e+001  -1.007864e+002 
4146875000  -4.081958e+001  -1.005977e+002 
4150000000  -3.959503e+001  -1.076877e+002 
4153125000  -4.000966e+001  -1.160445e+002 
4156250000  -4.121965e+001  -1.192216e+002 
4159375000  -4.131411e+001  -1.143295e+002 
4162500000  -3.992308e+001  -1.122139e+002 
4165625000  -3.877966e+001  -1.186116e+002 
4168750000  -3.837855e+001  -1.295047e+002 
4171875000  -3.846357e+001  -1.405602e+002 
4175000000  -3.907567e+001  -1.457540e+002 
4178125000  -3.981864e+001  -1.463033e+002 
4181250000  -3.949951e+001  -1.500766e+002 
4184375000  -3.959827e+001  -1.572085e+002 
4187500000  -3.934982e+001  -1.605615e+002 
4190625000  -3.958792e+001  -1.696514e+002 
4193750000  -4.053890e+001  -1.741396e+002 
4196875000  -4.163273e+001  -1.728906e+002 
4200000000  -4.273883e+001  -1.668937e+002 
4203125000  -4.062762e+001  -1.553036e+002 
4206250000  -3.728223e+001  -1.656334e+002 
4209375000  -3.728312e+001  1.722770e+002 
4212500000  -3.977564e+001  1.648295e+002 
4215625000  -4.003604e+001  1.726625e+002 
4218750000  -3.821382e+001  1.747935e+002 
4221875000  -3.669678e+001  1.625573e+002 
4225000000  -3.773714e+001  1.520565e+002 
4228125000  -3.803747e+001  1.522811e+002 
4231250000  -3.613235e+001  1.449660e+002 
4234375000  -3.625157e+001  1.348084e+002 
4237500000  -3.602920e+001  1.298952e+002 
4240625000  -3.653189e+001  1.176090e+002 
4243750000  -3.755279e+001  1.096881e+002 
4246875000  -3.836833e+001  1.090124e+002 
4250000000  -3.829902e+001  1.097064e+002 
4253125000  -3.828837e+001  1.070845e+002 
4256250000  -3.790528e+001  1.006915e+002 
4259375000  -3.752392e+001  9.573566e+001 
4262500000  -3.802909e+001  8.982811e+001 
4265625000  -3.794623e+001  8.818848e+001 
4268750000  -3.702794e+001  8.015578e+001 
4271875000  -3.692809e+001  7.141213e+001 
4275000000  -3.645351e+001  6.376121e+001 
4278125000  -3.779766e+001  5.139006e+001 
4281250000  -3.912321e+001  4.988361e+001 
4284375000  -3.872998e+001  4.938881e+001 
4287500000  -4.062816e+001  4.408121e+001 
4290625000  -4.057309e+001  5.471506e+001 
4293750000  -3.863812e+001  5.274805e+001 
4296875000  -3.761992e+001  4.010825e+001 
4300000000  -3.925426e+001  3.032284e+001 
4303125000  -3.982736e+001  3.438645e+001 
4306250000  -3.860308e+001  3.728429e+001 
4309375000  -3.769790e+001  2.942961e+001 
4312500000  -3.768135e+001  1.882717e+001 
4315625000  -3.795869e+001  1.022421e+001 
4318750000  -3.864678e+001  7.169429e+000 
4321875000  -3.882794e+001  6.326373e+000 
4325000000  -3.819432e+001  5.312154e+000 
4328125000  -3.740075e+001  -4.422800e+000 
4331250000  -3.761902e+001  -1.345769e+001 
4334375000  -3.817479e+001  -1.974116e+001 
4337500000  -3.957108e+001  -2.333228e+001 
4340625000  -3.970529e+001  -1.701801e+001 
4343750000  -3.851900e+001  -2.022644e+001 
4346875000  -3.842063e+001  -2.969938e+001 
4350000000  -3.834485e+001  -3.681660e+001 
4353125000  -3.925555e+001  -4.397598e+001 
4356250000  -4.106946e+001  -3.975105e+001 
4359375000  -3.958363e+001  -2.533417e+001 
4362500000  -3.650378e+001  -3.531247e+001 
4365625000  -3.593425e+001  -5.167854e+001 
4368750000  -3.722162e+001  -6.232729e+001 
4371875000  -3.786847e+001  -6.153093e+001 
4375000000  -3.726898e+001  -6.524548e+001 
4378125000  -3.696645e+001  -7.464825e+001 
4381250000  -3.696195e+001  -8.253876e+001 
4384375000  -3.716603e+001  -8.817619e+001 
4387500000  -3.828431e+001  -9.316944e+001 
4390625000  -3.855138e+001  -9.405022e+001 
4393750000  -3.809461e+001  -9.507108e+001 
4396875000  -3.717267e+001  -1.002063e+002 
4400000000  -3.682726e+001  -1.101987e+002 
4403125000  -3.783559e+001  -1.195252e+002 
4406250000  -3.832716e+001  -1.228785e+002 
4409375000  -3.863655e+001  -1.263499e+002 
4412500000  -3.980778e+001  -1.273899e+002 
4415625000  -3.909451e+001  -1.244076e+002 
