!Agilent Technologies,E8363B,MY43030201,A.06.04.32
!Agilent E8363B: A.06.04.32
!Date: Tuesday, November 11, 2014 21:35:08
!Correction: S21(Response(S21)) 
!S1P File: Measurement: S21:
# Hz S  dB   R 50
3000000000  -4.053502e+001  7.299051e+001 
3003125000  -4.233497e+001  6.525581e+001 
3006250000  -4.205803e+001  6.430393e+001 
3009375000  -4.271303e+001  6.952543e+001 
3012500000  -4.155252e+001  6.237709e+001 
3015625000  -4.147301e+001  5.761185e+001 
3018750000  -4.183774e+001  5.825477e+001 
3021875000  -4.023929e+001  5.828875e+001 
3025000000  -3.880103e+001  5.518909e+001 
3028125000  -3.784895e+001  4.434311e+001 
3031250000  -3.692783e+001  3.241346e+001 
3034375000  -3.687098e+001  1.853682e+001 
3037500000  -3.758764e+001  7.581308e+000 
3040625000  -3.884048e+001  2.191894e+000 
3043750000  -3.914523e+001  -3.683745e+000 
3046875000  -3.997865e+001  -9.549795e+000 
3050000000  -4.087030e+001  -1.408339e+001 
3053125000  -4.046534e+001  -8.535102e+000 
3056250000  -4.048666e+001  -5.890791e+000 
3059375000  -3.984562e+001  -8.779828e+000 
3062500000  -3.815396e+001  -1.437041e+001 
3065625000  -3.783065e+001  -2.324499e+001 
3068750000  -3.771506e+001  -3.021565e+001 
3071875000  -3.768634e+001  -3.302768e+001 
3075000000  -3.702739e+001  -3.970829e+001 
3078125000  -3.703771e+001  -4.568225e+001 
3081250000  -3.723753e+001  -5.165702e+001 
3084375000  -3.642207e+001  -5.684049e+001 
3087500000  -3.648593e+001  -6.398997e+001 
3090625000  -3.596759e+001  -7.583695e+001 
3093750000  -3.709701e+001  -8.372691e+001 
3096875000  -3.737070e+001  -8.839980e+001 
3100000000  -3.721118e+001  -9.263528e+001 
3103125000  -3.757920e+001  -9.567489e+001 
3106250000  -3.709169e+001  -1.012873e+002 
3109375000  -3.724877e+001  -1.045906e+002 
3112500000  -3.709267e+001  -1.106830e+002 
3115625000  -3.728270e+001  -1.143667e+002 
3118750000  -3.720892e+001  -1.179745e+002 
3121875000  -3.642120e+001  -1.292756e+002 
3125000000  -3.841996e+001  -1.311126e+002 
3128125000  -3.849213e+001  -1.244247e+002 
3131250000  -3.612752e+001  -1.308560e+002 
3134375000  -3.530574e+001  -1.485813e+002 
3137500000  -3.607438e+001  -1.608969e+002 
3140625000  -3.729993e+001  -1.633899e+002 
3143750000  -3.828258e+001  -1.652417e+002 
3146875000  -3.755619e+001  -1.634166e+002 
3150000000  -3.689054e+001  -1.673318e+002 
3153125000  -3.726794e+001  -1.754830e+002 
3156250000  -3.817565e+001  -1.716323e+002 
3159375000  -3.564283e+001  -1.733019e+002 
3162500000  -3.414333e+001  1.711782e+002 
3165625000  -3.545033e+001  1.582740e+002 
3168750000  -3.534123e+001  1.576922e+002 
3171875000  -3.484336e+001  1.503468e+002 
3175000000  -3.542432e+001  1.404597e+002 
3178125000  -3.500442e+001  1.393864e+002 
3181250000  -3.440805e+001  1.304715e+002 
3184375000  -3.414036e+001  1.192738e+002 
3187500000  -3.544666e+001  1.045320e+002 
3190625000  -3.721335e+001  9.892725e+001 
3193750000  -3.747224e+001  1.037580e+002 
3196875000  -3.721216e+001  1.051779e+002 
3200000000  -3.606406e+001  9.973734e+001 
3203125000  -3.582267e+001  9.142103e+001 
3206250000  -3.608009e+001  8.430617e+001 
3209375000  -3.573685e+001  7.569033e+001 
3212500000  -3.623818e+001  6.970525e+001 
3215625000  -3.602544e+001  6.594483e+001 
3218750000  -3.687773e+001  5.507536e+001 
3221875000  -3.721754e+001  4.969479e+001 
3225000000  -3.707994e+001  4.507008e+001 
3228125000  -3.774401e+001  3.720425e+001 
3231250000  -3.822312e+001  3.568554e+001 
3234375000  -3.797056e+001  3.263344e+001 
3237500000  -3.797601e+001  2.813041e+001 
3240625000  -3.755408e+001  2.358414e+001 
3243750000  -3.763195e+001  1.267504e+001 
3246875000  -3.826588e+001  5.563942e+000 
3250000000  -3.874053e+001  8.046294e-001 
3253125000  -3.891632e+001  -1.902368e+000 
3256250000  -3.856018e+001  -9.202984e+000 
3259375000  -3.915674e+001  -2.122624e+001 
3262500000  -4.064489e+001  -2.393472e+001 
3265625000  -4.103537e+001  -2.108816e+001 
3268750000  -4.117556e+001  -1.947945e+001 
3271875000  -4.037451e+001  -2.464569e+001 
3275000000  -4.019163e+001  -3.190130e+001 
3278125000  -4.102255e+001  -3.698262e+001 
3281250000  -4.116372e+001  -3.825813e+001 
3284375000  -4.040949e+001  -4.505688e+001 
3287500000  -4.122435e+001  -5.047577e+001 
3290625000  -4.106348e+001  -5.724897e+001 
3293750000  -4.113990e+001  -6.226198e+001 
3296875000  -4.243132e+001  -6.433192e+001 
3300000000  -4.166920e+001  -6.420901e+001 
3303125000  -4.097503e+001  -7.079348e+001 
3306250000  -4.079081e+001  -7.655982e+001 
3309375000  -4.060890e+001  -8.601711e+001 
3312500000  -4.099184e+001  -9.736684e+001 
3315625000  -4.234824e+001  -1.033649e+002 
3318750000  -4.355733e+001  -1.088237e+002 
3321875000  -4.512016e+001  -1.044801e+002 
3325000000  -4.493867e+001  -9.369816e+001 
3328125000  -4.375895e+001  -9.978061e+001 
3331250000  -4.233208e+001  -9.617215e+001 
3334375000  -3.978729e+001  -1.096095e+002 
3337500000  -4.035805e+001  -1.303274e+002 
3340625000  -4.234024e+001  -1.399539e+002 
3343750000  -4.423270e+001  -1.399017e+002 
3346875000  -4.339538e+001  -1.391720e+002 
3350000000  -4.292996e+001  -1.437127e+002 
3353125000  -4.283461e+001  -1.500158e+002 
3356250000  -4.240727e+001  -1.603236e+002 
3359375000  -4.351231e+001  -1.710746e+002 
3362500000  -4.425489e+001  -1.767928e+002 
3365625000  -4.468174e+001  -1.797006e+002 
3368750000  -4.535495e+001  1.755394e+002 
3371875000  -4.572194e+001  1.732298e+002 
3375000000  -4.794033e+001  1.690653e+002 
3378125000  -4.817847e+001  1.690653e+002 
3381250000  -4.974876e+001  -1.786278e+002 
3384375000  -4.625719e+001  -1.678768e+002 
3387500000  -4.403572e+001  1.726262e+002 
3390625000  -4.639814e+001  1.502714e+002 
3393750000  -4.710246e+001  1.519646e+002 
3396875000  -4.612357e+001  1.501418e+002 
3400000000  -4.603502e+001  1.416364e+002 
3403125000  -4.708662e+001  1.352635e+002 
3406250000  -4.785155e+001  1.279827e+002 
3409375000  -4.766533e+001  1.208233e+002 
3412500000  -4.879400e+001  1.182938e+002 
3415625000  -5.045579e+001  1.115496e+002 
3418750000  -5.014145e+001  1.150831e+002 
3421875000  -5.103884e+001  1.160447e+002 
3425000000  -5.000923e+001  1.188643e+002 
3428125000  -4.959274e+001  1.174817e+002 
3431250000  -5.018188e+001  1.086612e+002 
3434375000  -5.088580e+001  1.035861e+002 
3437500000  -5.140406e+001  1.039122e+002 
3440625000  -5.161701e+001  1.051894e+002 
3443750000  -5.041451e+001  1.082169e+002 
3446875000  -5.067797e+001  9.836860e+001 
3450000000  -4.974709e+001  9.124310e+001 
3453125000  -5.076664e+001  8.300233e+001 
3456250000  -5.200672e+001  8.202241e+001 
3459375000  -5.320379e+001  7.911837e+001 
3462500000  -5.235385e+001  8.768953e+001 
3465625000  -5.053646e+001  7.688941e+001 
3468750000  -5.175471e+001  7.854620e+001 
3471875000  -5.153904e+001  7.368324e+001 
3475000000  -5.087003e+001  7.045466e+001 
3478125000  -5.118484e+001  5.988733e+001 
3481250000  -5.232371e+001  6.408108e+001 
3484375000  -5.239394e+001  6.420715e+001 
3487500000  -5.213071e+001  5.962539e+001 
3490625000  -5.083934e+001  5.270240e+001 
3493750000  -5.133266e+001  4.308403e+001 
3496875000  -5.155951e+001  5.406634e+001 
3500000000  -5.224003e+001  4.676123e+001 
3503125000  -5.056778e+001  4.414638e+001 
3506250000  -4.987988e+001  3.823372e+001 
3509375000  -4.955658e+001  2.339614e+001 
3512500000  -4.986014e+001  1.595338e+001 
3515625000  -5.064122e+001  1.010187e+001 
3518750000  -5.207629e+001  7.310689e+000 
3521875000  -5.310283e+001  8.086554e+000 
3525000000  -5.406319e+001  -5.887914e+000 
3528125000  -5.344407e+001  9.271884e+000 
3531250000  -5.181403e+001  -1.775774e+000 
3534375000  -5.285919e+001  -1.845251e+001 
3537500000  -5.388741e+001  -2.752414e+001 
3540625000  -5.443992e+001  -3.347904e+001 
3543750000  -5.530687e+001  -1.506234e+001 
3546875000  -5.648642e+001  -6.517391e+000 
3550000000  -5.316988e+001  -2.109739e+001 
3553125000  -5.280444e+001  -2.976691e+001 
3556250000  -5.534186e+001  -3.345263e+001 
3559375000  -5.582879e+001  -3.457635e+001 
3562500000  -5.705514e+001  -4.668898e+001 
3565625000  -5.635897e+001  -4.934652e+001 
3568750000  -5.720053e+001  -2.220705e+001 
3571875000  -5.702473e+001  -2.698504e+001 
3575000000  -5.879638e+001  -5.264418e+001 
3578125000  -5.993499e+001  -4.315647e+001 
3581250000  -5.976067e+001  -3.225835e+001 
3584375000  -5.586787e+001  -4.360926e+001 
3587500000  -5.911256e+001  -3.996217e+001 
3590625000  -5.884463e+001  -5.079595e+001 
3593750000  -6.065538e+001  -4.708239e+001 
3596875000  -5.757335e+001  -4.078153e+001 
3600000000  -5.803466e+001  -3.962639e+001 
3603125000  -5.821329e+001  -6.222586e+001 
3606250000  -5.713100e+001  -5.619320e+001 
3609375000  -5.753353e+001  -4.648604e+001 
3612500000  -5.982113e+001  -4.708892e+001 
3615625000  -5.852827e+001  -6.506985e+001 
3618750000  -5.779415e+001  -4.708412e+001 
3621875000  -5.773701e+001  -4.325526e+001 
3625000000  -5.754148e+001  -4.984921e+001 
3628125000  -5.665619e+001  -4.504037e+001 
3631250000  -5.698116e+001  -4.511336e+001 
3634375000  -5.605666e+001  -4.869247e+001 
3637500000  -5.590438e+001  -4.563654e+001 
3640625000  -5.380032e+001  -4.035259e+001 
3643750000  -5.228870e+001  -4.664999e+001 
3646875000  -5.302722e+001  -5.317455e+001 
3650000000  -5.278847e+001  -6.049318e+001 
3653125000  -5.091205e+001  -6.651372e+001 
3656250000  -5.239903e+001  -6.105262e+001 
3659375000  -5.183381e+001  -6.507787e+001 
3662500000  -5.073885e+001  -7.136522e+001 
3665625000  -4.929699e+001  -7.106922e+001 
3668750000  -4.848078e+001  -7.736395e+001 
3671875000  -4.770800e+001  -8.911189e+001 
3675000000  -4.767699e+001  -9.150478e+001 
3678125000  -4.719926e+001  -9.896655e+001 
3681250000  -4.620223e+001  -1.036508e+002 
3684375000  -4.723271e+001  -1.061886e+002 
3687500000  -4.662005e+001  -1.115808e+002 
3690625000  -4.651025e+001  -1.188302e+002 
3693750000  -4.722289e+001  -1.183946e+002 
3696875000  -4.626183e+001  -1.181540e+002 
3700000000  -4.496084e+001  -1.263212e+002 
3703125000  -4.564677e+001  -1.308360e+002 
3706250000  -4.624096e+001  -1.338031e+002 
3709375000  -4.478367e+001  -1.337355e+002 
3712500000  -4.375736e+001  -1.380525e+002 
3715625000  -4.191000e+001  -1.460093e+002 
3718750000  -4.178508e+001  -1.548607e+002 
3721875000  -4.130207e+001  -1.630389e+002 
3725000000  -4.155816e+001  -1.710145e+002 
3728125000  -4.173225e+001  -1.747323e+002 
3731250000  -4.054478e+001  -1.791738e+002 
3734375000  -4.012236e+001  1.725562e+002 
3737500000  -4.087026e+001  1.638551e+002 
3740625000  -4.075235e+001  1.584307e+002 
3743750000  -4.039953e+001  1.521040e+002 
3746875000  -4.069876e+001  1.451927e+002 
3750000000  -4.102675e+001  1.404792e+002 
3753125000  -4.068150e+001  1.365114e+002 
3756250000  -4.065631e+001  1.334685e+002 
3759375000  -4.058293e+001  1.288903e+002 
3762500000  -3.999167e+001  1.221632e+002 
3765625000  -4.097358e+001  1.174367e+002 
3768750000  -4.008060e+001  1.185115e+002 
3771875000  -3.856067e+001  1.100279e+002 
3775000000  -3.849658e+001  9.833093e+001 
3778125000  -3.902641e+001  9.225523e+001 
3781250000  -3.910545e+001  8.770431e+001 
3784375000  -3.879708e+001  8.286842e+001 
3787500000  -3.863660e+001  7.639902e+001 
3790625000  -3.926162e+001  6.685200e+001 
3793750000  -3.925739e+001  6.399806e+001 
3796875000  -3.831593e+001  5.928276e+001 
3800000000  -3.635361e+001  5.468902e+001 
3803125000  -3.820075e+001  4.201510e+001 
3806250000  -3.899727e+001  3.711898e+001 
3809375000  -3.850405e+001  3.356716e+001 
3812500000  -3.844608e+001  2.436915e+001 
3815625000  -3.957734e+001  1.488706e+001 
3818750000  -4.074046e+001  1.715836e+001 
3821875000  -4.002279e+001  2.511355e+001 
3825000000  -3.813916e+001  2.091441e+001 
3828125000  -3.709389e+001  2.005046e+000 
3831250000  -3.828888e+001  -1.196055e+001 
3834375000  -4.046398e+001  -1.116970e+001 
3837500000  -4.059424e+001  -1.021371e+001 
3840625000  -3.910497e+001  -1.167966e+001 
3843750000  -3.848053e+001  -2.619187e+001 
3846875000  -3.985550e+001  -3.137253e+001 
3850000000  -4.080645e+001  -2.623673e+001 
3853125000  -3.970999e+001  -2.642840e+001 
3856250000  -3.936987e+001  -3.421711e+001 
3859375000  -3.843435e+001  -4.138848e+001 
3862500000  -3.838714e+001  -5.139840e+001 
3865625000  -3.896642e+001  -5.667893e+001 
3868750000  -3.865603e+001  -5.678036e+001 
3871875000  -3.819605e+001  -6.626717e+001 
3875000000  -3.845150e+001  -7.495940e+001 
3878125000  -3.932202e+001  -7.823190e+001 
3881250000  -3.931268e+001  -7.796336e+001 
3884375000  -3.868422e+001  -8.440224e+001 
3887500000  -3.926524e+001  -9.092136e+001 
3890625000  -3.944682e+001  -9.651181e+001 
3893750000  -3.977600e+001  -9.819254e+001 
3896875000  -4.006452e+001  -1.003136e+002 
3900000000  -3.988799e+001  -1.043801e+002 
3903125000  -3.931594e+001  -1.074256e+002 
3906250000  -3.874004e+001  -1.118646e+002 
3909375000  -3.817352e+001  -1.199754e+002 
3912500000  -3.894566e+001  -1.314037e+002 
3915625000  -4.036525e+001  -1.305345e+002 
3918750000  -3.982202e+001  -1.309085e+002 
3921875000  -3.937357e+001  -1.354286e+002 
3925000000  -3.855228e+001  -1.415509e+002 
3928125000  -3.825505e+001  -1.510473e+002 
3931250000  -3.893382e+001  -1.577626e+002 
3934375000  -3.939169e+001  -1.596941e+002 
3937500000  -4.019986e+001  -1.616283e+002 
3940625000  -3.998179e+001  -1.638568e+002 
3943750000  -3.890532e+001  -1.659795e+002 
3946875000  -3.857022e+001  -1.761768e+002 
3950000000  -3.969936e+001  1.748356e+002 
3953125000  -3.989447e+001  1.782808e+002 
3956250000  -3.880172e+001  1.774193e+002 
3959375000  -3.782284e+001  1.718353e+002 
3962500000  -3.767923e+001  1.626256e+002 
3965625000  -3.784918e+001  1.521799e+002 
3968750000  -3.861857e+001  1.454777e+002 
3971875000  -3.862405e+001  1.393681e+002 
3975000000  -3.829769e+001  1.359679e+002 
3978125000  -3.840932e+001  1.323587e+002 
3981250000  -3.848063e+001  1.257457e+002 
3984375000  -3.897248e+001  1.171544e+002 
3987500000  -3.962049e+001  1.137367e+002 
3990625000  -3.991475e+001  1.136355e+002 
3993750000  -3.983376e+001  1.058492e+002 
3996875000  -4.014510e+001  1.030565e+002 
4000000000  -4.086644e+001  9.826540e+001 
4003125000  -4.110991e+001  9.917871e+001 
4006250000  -3.912186e+001  9.807605e+001 
4009375000  -3.876988e+001  8.186938e+001 
4012500000  -4.032314e+001  7.589578e+001 
4015625000  -4.149355e+001  7.544653e+001 
4018750000  -4.104939e+001  7.642150e+001 
4021875000  -4.047805e+001  7.027010e+001 
4025000000  -4.049706e+001  6.558524e+001 
4028125000  -4.042316e+001  5.842996e+001 
4031250000  -4.095455e+001  5.468415e+001 
4034375000  -4.119577e+001  5.381021e+001 
4037500000  -4.102252e+001  5.475373e+001 
4040625000  -4.071523e+001  4.995789e+001 
4043750000  -4.142501e+001  4.728262e+001 
4046875000  -4.074189e+001  4.292370e+001 
4050000000  -4.045070e+001  3.858296e+001 
4053125000  -4.158914e+001  3.456273e+001 
4056250000  -4.145758e+001  3.883022e+001 
4059375000  -3.921218e+001  3.830995e+001 
4062500000  -3.872837e+001  2.849159e+001 
4065625000  -3.897888e+001  2.342047e+001 
4068750000  -3.814290e+001  1.664002e+001 
4071875000  -3.776583e+001  6.867185e+000 
4075000000  -3.844552e+001  7.246259e-001 
4078125000  -3.865514e+001  -3.741538e+000 
4081250000  -3.835150e+001  -8.230880e+000 
4084375000  -3.797347e+001  -1.863119e+001 
4087500000  -3.867316e+001  -2.527811e+001 
4090625000  -3.917427e+001  -2.675332e+001 
4093750000  -3.882388e+001  -2.818000e+001 
4096875000  -3.866374e+001  -3.903779e+001 
4100000000  -3.973870e+001  -4.627361e+001 
4103125000  -4.071460e+001  -4.126497e+001 
4106250000  -4.029049e+001  -4.005617e+001 
4109375000  -3.933194e+001  -4.521560e+001 
4112500000  -3.876198e+001  -5.407531e+001 
4115625000  -3.933572e+001  -6.039005e+001 
4118750000  -3.918068e+001  -6.560558e+001 
4121875000  -3.912278e+001  -7.335853e+001 
4125000000  -3.996011e+001  -7.878591e+001 
4128125000  -4.078170e+001  -7.681226e+001 
4131250000  -3.989782e+001  -6.990057e+001 
4134375000  -3.753697e+001  -8.098497e+001 
4137500000  -3.813744e+001  -1.016530e+002 
4140625000  -4.053312e+001  -1.093699e+002 
4143750000  -4.157515e+001  -1.013226e+002 
4146875000  -4.050354e+001  -9.809038e+001 
4150000000  -3.975777e+001  -1.056642e+002 
4153125000  -4.009921e+001  -1.150077e+002 
4156250000  -4.144705e+001  -1.176758e+002 
4159375000  -4.104947e+001  -1.125208e+002 
4162500000  -3.983263e+001  -1.116642e+002 
4165625000  -3.871347e+001  -1.187188e+002 
4168750000  -3.846350e+001  -1.292431e+002 
4171875000  -3.836049e+001  -1.377148e+002 
4175000000  -3.943210e+001  -1.449376e+002 
4178125000  -3.951549e+001  -1.455067e+002 
4181250000  -3.936575e+001  -1.503812e+002 
4184375000  -3.935872e+001  -1.540894e+002 
4187500000  -3.945160e+001  -1.615984e+002 
4190625000  -3.950594e+001  -1.665688e+002 
4193750000  -4.081043e+001  -1.714055e+002 
4196875000  -4.138770e+001  -1.727265e+002 
4200000000  -4.278532e+001  -1.666161e+002 
4203125000  -4.106517e+001  -1.569302e+002 
4206250000  -3.756314e+001  -1.654215e+002 
4209375000  -3.735989e+001  1.717370e+002 
4212500000  -3.976559e+001  1.656889e+002 
4215625000  -4.005708e+001  1.738688e+002 
4218750000  -3.826086e+001  1.741944e+002 
4221875000  -3.667221e+001  1.649312e+002 
4225000000  -3.790845e+001  1.533717e+002 
4228125000  -3.802551e+001  1.536371e+002 
4231250000  -3.623616e+001  1.463979e+002 
4234375000  -3.628893e+001  1.341408e+002 
4237500000  -3.616609e+001  1.305827e+002 
4240625000  -3.633242e+001  1.187094e+002 
4243750000  -3.757917e+001  1.106947e+002 
4246875000  -3.846510e+001  1.114333e+002 
4250000000  -3.841475e+001  1.106032e+002 
4253125000  -3.815748e+001  1.066650e+002 
4256250000  -3.774250e+001  1.045464e+002 
4259375000  -3.774262e+001  9.600228e+001 
4262500000  -3.802274e+001  9.244759e+001 
4265625000  -3.773656e+001  8.989376e+001 
4268750000  -3.703146e+001  8.211818e+001 
4271875000  -3.676428e+001  7.272314e+001 
4275000000  -3.665837e+001  6.619893e+001 
4278125000  -3.775471e+001  5.186518e+001 
4281250000  -3.900513e+001  4.977780e+001 
4284375000  -3.880695e+001  4.978573e+001 
4287500000  -4.027708e+001  4.616611e+001 
4290625000  -4.065805e+001  5.397276e+001 
4293750000  -3.866039e+001  5.376503e+001 
4296875000  -3.761298e+001  4.080129e+001 
4300000000  -3.897474e+001  3.382794e+001 
4303125000  -3.995382e+001  3.673577e+001 
4306250000  -3.864479e+001  3.596014e+001 
4309375000  -3.764593e+001  3.122912e+001 
4312500000  -3.764289e+001  2.014100e+001 
4315625000  -3.791707e+001  1.096876e+001 
4318750000  -3.870908e+001  9.176538e+000 
4321875000  -3.878454e+001  9.805836e+000 
4325000000  -3.819406e+001  7.895722e+000 
4328125000  -3.726209e+001  -3.729503e+000 
4331250000  -3.764043e+001  -1.288342e+001 
4334375000  -3.837240e+001  -1.964797e+001 
4337500000  -3.952559e+001  -1.890154e+001 
4340625000  -3.978733e+001  -1.419375e+001 
4343750000  -3.840625e+001  -1.802555e+001 
4346875000  -3.820475e+001  -2.717290e+001 
4350000000  -3.841383e+001  -3.551844e+001 
4353125000  -3.912576e+001  -4.229198e+001 
4356250000  -4.105340e+001  -3.989484e+001 
4359375000  -3.988092e+001  -2.623796e+001 
4362500000  -3.631383e+001  -3.474918e+001 
4365625000  -3.615417e+001  -5.129903e+001 
4368750000  -3.729811e+001  -6.152618e+001 
4371875000  -3.800552e+001  -6.235718e+001 
4375000000  -3.716707e+001  -6.494084e+001 
4378125000  -3.703392e+001  -7.217071e+001 
4381250000  -3.715915e+001  -8.047131e+001 
4384375000  -3.699076e+001  -8.635234e+001 
4387500000  -3.800448e+001  -9.198590e+001 
4390625000  -3.864145e+001  -9.352793e+001 
4393750000  -3.817794e+001  -9.253917e+001 
4396875000  -3.741247e+001  -9.871347e+001 
4400000000  -3.701201e+001  -1.074454e+002 
4403125000  -3.773065e+001  -1.168433e+002 
4406250000  -3.840088e+001  -1.206492e+002 
4409375000  -3.885943e+001  -1.234418e+002 
4412500000  -4.007711e+001  -1.267165e+002 
4415625000  -3.922746e+001  -1.235023e+002 
