!Agilent Technologies,E8363B,MY43030201,A.06.04.32
!Agilent E8363B: A.06.04.32
!Date: Tuesday, November 11, 2014 21:28:00
!Correction: S21(Response(S21)) 
!S1P File: Measurement: S21:
# Hz S  dB   R 50
3000000000  -4.062947e+001  9.104233e+001 
3003125000  -4.230441e+001  8.193297e+001 
3006250000  -4.204268e+001  8.142687e+001 
3009375000  -4.263430e+001  8.631900e+001 
3012500000  -4.140512e+001  8.272528e+001 
3015625000  -4.149693e+001  7.484348e+001 
3018750000  -4.191415e+001  7.582418e+001 
3021875000  -4.033316e+001  7.592240e+001 
3025000000  -3.914337e+001  7.240167e+001 
3028125000  -3.807673e+001  6.247216e+001 
3031250000  -3.704834e+001  5.116784e+001 
3034375000  -3.686415e+001  3.778978e+001 
3037500000  -3.759256e+001  2.623878e+001 
3040625000  -3.861701e+001  2.185866e+001 
3043750000  -3.929155e+001  1.569979e+001 
3046875000  -3.985984e+001  8.596856e+000 
3050000000  -4.104292e+001  4.105732e+000 
3053125000  -4.056900e+001  8.899620e+000 
3056250000  -4.025443e+001  1.180706e+001 
3059375000  -4.009947e+001  1.039087e+001 
3062500000  -3.843758e+001  4.683566e+000 
3065625000  -3.800399e+001  -4.947329e+000 
3068750000  -3.758339e+001  -1.257164e+001 
3071875000  -3.763868e+001  -1.456044e+001 
3075000000  -3.717731e+001  -2.122860e+001 
3078125000  -3.715730e+001  -2.789540e+001 
3081250000  -3.726250e+001  -3.316295e+001 
3084375000  -3.643190e+001  -3.819413e+001 
3087500000  -3.649697e+001  -4.466320e+001 
3090625000  -3.604877e+001  -5.706601e+001 
3093750000  -3.690514e+001  -6.503944e+001 
3096875000  -3.744674e+001  -7.079120e+001 
3100000000  -3.736636e+001  -7.460654e+001 
3103125000  -3.756282e+001  -7.716747e+001 
3106250000  -3.719510e+001  -8.201556e+001 
3109375000  -3.734032e+001  -8.649912e+001 
3112500000  -3.718164e+001  -9.125148e+001 
3115625000  -3.703512e+001  -9.712057e+001 
3118750000  -3.736123e+001  -9.910130e+001 
3121875000  -3.656667e+001  -1.099176e+002 
3125000000  -3.824332e+001  -1.149937e+002 
3128125000  -3.847623e+001  -1.067744e+002 
3131250000  -3.624931e+001  -1.123010e+002 
3134375000  -3.536748e+001  -1.288259e+002 
3137500000  -3.606440e+001  -1.427808e+002 
3140625000  -3.744349e+001  -1.454017e+002 
3143750000  -3.820205e+001  -1.468979e+002 
3146875000  -3.760489e+001  -1.452250e+002 
3150000000  -3.691450e+001  -1.488200e+002 
3153125000  -3.718068e+001  -1.573302e+002 
3156250000  -3.815001e+001  -1.528838e+002 
3159375000  -3.577381e+001  -1.542978e+002 
3162500000  -3.435344e+001  -1.701846e+002 
3165625000  -3.550488e+001  1.766256e+002 
3168750000  -3.553017e+001  1.762512e+002 
3171875000  -3.496624e+001  1.689944e+002 
3175000000  -3.550378e+001  1.585538e+002 
3178125000  -3.522718e+001  1.585407e+002 
3181250000  -3.442397e+001  1.504065e+002 
3184375000  -3.416354e+001  1.388289e+002 
3187500000  -3.546510e+001  1.231333e+002 
3190625000  -3.748143e+001  1.173732e+002 
3193750000  -3.763289e+001  1.222613e+002 
3196875000  -3.745309e+001  1.244641e+002 
3200000000  -3.640445e+001  1.186172e+002 
3203125000  -3.595996e+001  1.098006e+002 
3206250000  -3.620427e+001  1.030169e+002 
3209375000  -3.588364e+001  9.555463e+001 
3212500000  -3.636260e+001  8.740796e+001 
3215625000  -3.615520e+001  8.419098e+001 
3218750000  -3.685216e+001  7.453757e+001 
3221875000  -3.740227e+001  6.743269e+001 
3225000000  -3.711057e+001  6.436695e+001 
3228125000  -3.786398e+001  5.658150e+001 
3231250000  -3.839801e+001  5.424842e+001 
3234375000  -3.792822e+001  5.193165e+001 
3237500000  -3.805294e+001  4.757012e+001 
3240625000  -3.767646e+001  4.199084e+001 
3243750000  -3.759779e+001  3.288176e+001 
3246875000  -3.823544e+001  2.535707e+001 
3250000000  -3.882473e+001  2.114502e+001 
3253125000  -3.894906e+001  1.844966e+001 
3256250000  -3.864230e+001  1.025480e+001 
3259375000  -3.920564e+001  -9.265767e-001 
3262500000  -4.074332e+001  -5.281160e+000 
3265625000  -4.139053e+001  -2.535528e+000 
3268750000  -4.138945e+001  -2.318177e+000 
3271875000  -4.077513e+001  -4.702261e+000 
3275000000  -4.018361e+001  -1.236761e+001 
3278125000  -4.093410e+001  -1.812354e+001 
3281250000  -4.115213e+001  -1.904154e+001 
3284375000  -4.082063e+001  -2.505377e+001 
3287500000  -4.086465e+001  -2.749427e+001 
3290625000  -4.120396e+001  -3.700212e+001 
3293750000  -4.127496e+001  -4.213981e+001 
3296875000  -4.235614e+001  -4.295307e+001 
3300000000  -4.198280e+001  -4.393251e+001 
3303125000  -4.132364e+001  -5.123071e+001 
3306250000  -4.096404e+001  -5.747763e+001 
3309375000  -4.076176e+001  -6.477003e+001 
3312500000  -4.082730e+001  -7.762432e+001 
3315625000  -4.223523e+001  -8.481898e+001 
3318750000  -4.348021e+001  -8.975769e+001 
3321875000  -4.488830e+001  -8.488305e+001 
3325000000  -4.494581e+001  -7.851418e+001 
3328125000  -4.409651e+001  -7.956198e+001 
3331250000  -4.233966e+001  -7.480551e+001 
3334375000  -4.017592e+001  -8.918407e+001 
3337500000  -4.043390e+001  -1.098826e+002 
3340625000  -4.223613e+001  -1.200348e+002 
3343750000  -4.428638e+001  -1.196252e+002 
3346875000  -4.349324e+001  -1.207619e+002 
3350000000  -4.310955e+001  -1.230127e+002 
3353125000  -4.303178e+001  -1.310370e+002 
3356250000  -4.258741e+001  -1.386157e+002 
3359375000  -4.352338e+001  -1.495718e+002 
3362500000  -4.451838e+001  -1.551556e+002 
3365625000  -4.498624e+001  -1.581951e+002 
3368750000  -4.520185e+001  -1.618502e+002 
3371875000  -4.559827e+001  -1.686469e+002 
3375000000  -4.738495e+001  -1.692228e+002 
3378125000  -4.828465e+001  -1.735277e+002 
3381250000  -4.963557e+001  -1.651048e+002 
3384375000  -4.721209e+001  -1.473787e+002 
3387500000  -4.385036e+001  -1.692502e+002 
3390625000  -4.619397e+001  1.755405e+002 
3393750000  -4.737178e+001  1.745007e+002 
3396875000  -4.592054e+001  1.713112e+002 
3400000000  -4.616092e+001  1.597058e+002 
3403125000  -4.722264e+001  1.549249e+002 
3406250000  -4.790245e+001  1.531848e+002 
3409375000  -4.844889e+001  1.461429e+002 
3412500000  -4.861056e+001  1.379071e+002 
3415625000  -4.985684e+001  1.384292e+002 
3418750000  -5.019574e+001  1.370872e+002 
3421875000  -5.101551e+001  1.405954e+002 
3425000000  -5.107676e+001  1.380946e+002 
3428125000  -5.056342e+001  1.353112e+002 
3431250000  -5.083232e+001  1.280779e+002 
3434375000  -5.117432e+001  1.214631e+002 
3437500000  -5.157897e+001  1.234306e+002 
3440625000  -5.253657e+001  1.279347e+002 
3443750000  -5.137988e+001  1.292509e+002 
3446875000  -5.171893e+001  1.200503e+002 
3450000000  -5.052185e+001  1.136618e+002 
3453125000  -5.154147e+001  1.037946e+002 
3456250000  -5.226143e+001  1.048783e+002 
3459375000  -5.271460e+001  1.084447e+002 
3462500000  -5.247105e+001  1.058293e+002 
3465625000  -5.166792e+001  9.848282e+001 
3468750000  -5.263570e+001  9.927737e+001 
3471875000  -5.234681e+001  9.768229e+001 
3475000000  -5.127026e+001  9.516485e+001 
3478125000  -5.114630e+001  8.485964e+001 
3481250000  -5.270025e+001  8.683388e+001 
3484375000  -5.290683e+001  8.809919e+001 
3487500000  -5.186936e+001  8.555486e+001 
3490625000  -5.046990e+001  7.695470e+001 
3493750000  -5.148434e+001  6.973448e+001 
3496875000  -5.229253e+001  7.102978e+001 
3500000000  -5.123901e+001  7.473985e+001 
3503125000  -5.162465e+001  6.666619e+001 
3506250000  -5.000348e+001  5.715129e+001 
3509375000  -5.013233e+001  5.121912e+001 
3512500000  -5.004118e+001  3.923671e+001 
3515625000  -5.219821e+001  2.543641e+001 
3518750000  -5.263202e+001  3.006627e+001 
3521875000  -5.228154e+001  2.815313e+001 
3525000000  -5.272721e+001  2.018152e+001 
3528125000  -5.387213e+001  1.830330e+001 
3531250000  -5.175301e+001  1.676225e+001 
3534375000  -5.238548e+001  8.363249e+000 
3537500000  -5.422483e+001  -5.768068e+000 
3540625000  -5.494286e+001  -8.898384e+000 
3543750000  -5.528267e+001  2.542800e+000 
3546875000  -5.614737e+001  5.216686e+000 
3550000000  -5.460149e+001  -7.969311e-001 
3553125000  -5.380276e+001  -1.288251e+001 
3556250000  -5.536176e+001  -1.674245e+001 
3559375000  -5.524759e+001  -6.776484e+000 
3562500000  -5.654353e+001  -1.988196e+001 
3565625000  -5.622888e+001  -2.590893e+001 
3568750000  -5.705832e+001  -1.582309e+001 
3571875000  -5.775566e+001  -4.655264e+000 
3575000000  -5.784458e+001  -2.008103e+001 
3578125000  -5.765458e+001  -1.543288e+001 
3581250000  -5.854916e+001  -1.616924e+001 
3584375000  -5.986610e+001  -1.430184e+001 
3587500000  -5.633053e+001  -7.065267e+000 
3590625000  -5.830931e+001  -3.709724e+001 
3593750000  -5.791758e+001  -2.940310e+001 
3596875000  -5.883062e+001  -9.052324e+000 
3600000000  -5.618808e+001  -1.274087e+001 
3603125000  -5.723157e+001  -4.461967e+001 
3606250000  -5.793280e+001  -4.454744e+001 
3609375000  -5.678401e+001  -1.645850e+001 
3612500000  -5.930813e+001  -2.307701e+001 
3615625000  -5.786825e+001  -3.385485e+001 
3618750000  -5.800800e+001  -2.578788e+001 
3621875000  -5.747104e+001  -2.591655e+001 
3625000000  -5.703257e+001  -2.446815e+001 
3628125000  -5.613578e+001  -2.785111e+001 
3631250000  -5.688473e+001  -2.200322e+001 
3634375000  -5.535048e+001  -2.482354e+001 
3637500000  -5.577531e+001  -2.286639e+001 
3640625000  -5.396385e+001  -1.688606e+001 
3643750000  -5.254509e+001  -2.930665e+001 
3646875000  -5.273135e+001  -3.879533e+001 
3650000000  -5.306870e+001  -3.857211e+001 
3653125000  -5.136785e+001  -3.895108e+001 
3656250000  -5.249363e+001  -4.333706e+001 
3659375000  -5.171147e+001  -4.195287e+001 
3662500000  -5.149623e+001  -5.537454e+001 
3665625000  -4.950700e+001  -5.320480e+001 
3668750000  -4.842180e+001  -5.360774e+001 
3671875000  -4.760398e+001  -5.907170e+001 
3675000000  -4.713588e+001  -7.000938e+001 
3678125000  -4.730418e+001  -7.680970e+001 
3681250000  -4.687135e+001  -8.103848e+001 
3684375000  -4.674562e+001  -8.982207e+001 
3687500000  -4.685187e+001  -9.198125e+001 
3690625000  -4.641694e+001  -9.703901e+001 
3693750000  -4.707168e+001  -9.754113e+001 
3696875000  -4.662294e+001  -9.568578e+001 
3700000000  -4.517476e+001  -1.025512e+002 
3703125000  -4.541304e+001  -1.097669e+002 
3706250000  -4.582126e+001  -1.126081e+002 
3709375000  -4.499511e+001  -1.111767e+002 
3712500000  -4.329717e+001  -1.164692e+002 
3715625000  -4.244236e+001  -1.251913e+002 
3718750000  -4.188550e+001  -1.331435e+002 
3721875000  -4.129101e+001  -1.423515e+002 
3725000000  -4.180562e+001  -1.471899e+002 
3728125000  -4.154551e+001  -1.513857e+002 
3731250000  -4.083726e+001  -1.578193e+002 
3734375000  -3.997418e+001  -1.635737e+002 
3737500000  -4.072449e+001  -1.757705e+002 
3740625000  -4.093627e+001  1.798622e+002 
3743750000  -4.063536e+001  1.754576e+002 
3746875000  -4.059006e+001  1.661955e+002 
3750000000  -4.113530e+001  1.625561e+002 
3753125000  -4.077133e+001  1.592889e+002 
3756250000  -4.054686e+001  1.563557e+002 
3759375000  -4.032379e+001  1.502444e+002 
3762500000  -4.003394e+001  1.427485e+002 
3765625000  -4.073856e+001  1.400703e+002 
3768750000  -4.014533e+001  1.386293e+002 
3771875000  -3.847268e+001  1.323599e+002 
3775000000  -3.871907e+001  1.213812e+002 
3778125000  -3.907551e+001  1.142089e+002 
3781250000  -3.896401e+001  1.093613e+002 
3784375000  -3.870838e+001  1.049845e+002 
3787500000  -3.831238e+001  9.829943e+001 
3790625000  -3.909591e+001  8.985017e+001 
3793750000  -3.941035e+001  8.519554e+001 
3796875000  -3.825481e+001  8.238922e+001 
3800000000  -3.629820e+001  7.810832e+001 
3803125000  -3.801702e+001  6.343249e+001 
3806250000  -3.892265e+001  6.091940e+001 
3809375000  -3.856425e+001  5.486604e+001 
3812500000  -3.866624e+001  4.738187e+001 
3815625000  -3.942780e+001  3.678059e+001 
3818750000  -4.080804e+001  3.637762e+001 
3821875000  -4.024924e+001  4.857925e+001 
3825000000  -3.840280e+001  4.679596e+001 
3828125000  -3.729808e+001  2.565130e+001 
3831250000  -3.817093e+001  9.496829e+000 
3834375000  -4.028563e+001  9.440835e+000 
3837500000  -4.068124e+001  1.231232e+001 
3840625000  -3.917426e+001  1.032178e+001 
3843750000  -3.878753e+001  -1.861648e+000 
3846875000  -3.970139e+001  -8.524814e+000 
3850000000  -4.087427e+001  -3.937003e+000 
3853125000  -3.988887e+001  -3.161840e+000 
3856250000  -3.963580e+001  -1.220062e+001 
3859375000  -3.879303e+001  -1.692668e+001 
3862500000  -3.869053e+001  -2.756258e+001 
3865625000  -3.911403e+001  -3.391071e+001 
3868750000  -3.880884e+001  -3.479320e+001 
3871875000  -3.818586e+001  -3.999434e+001 
3875000000  -3.863675e+001  -5.190739e+001 
3878125000  -3.944746e+001  -5.517536e+001 
3881250000  -3.947882e+001  -5.351995e+001 
3884375000  -3.882981e+001  -6.121737e+001 
3887500000  -3.910857e+001  -6.580613e+001 
3890625000  -3.962324e+001  -7.239588e+001 
3893750000  -3.989379e+001  -7.461175e+001 
3896875000  -3.994940e+001  -7.691850e+001 
3900000000  -4.003325e+001  -8.065596e+001 
3903125000  -3.953002e+001  -8.433208e+001 
3906250000  -3.914407e+001  -8.774268e+001 
3909375000  -3.844242e+001  -9.766911e+001 
3912500000  -3.927478e+001  -1.066283e+002 
3915625000  -4.039680e+001  -1.057745e+002 
3918750000  -3.983473e+001  -1.077238e+002 
3921875000  -3.963748e+001  -1.129501e+002 
3925000000  -3.850344e+001  -1.172824e+002 
3928125000  -3.838492e+001  -1.268434e+002 
3931250000  -3.914815e+001  -1.335502e+002 
3934375000  -3.955197e+001  -1.368300e+002 
3937500000  -4.009115e+001  -1.377330e+002 
3940625000  -3.997141e+001  -1.403918e+002 
3943750000  -3.908679e+001  -1.430045e+002 
3946875000  -3.813659e+001  -1.509575e+002 
3950000000  -3.937258e+001  -1.593274e+002 
3953125000  -4.000795e+001  -1.587950e+002 
3956250000  -3.890960e+001  -1.594427e+002 
3959375000  -3.790438e+001  -1.655750e+002 
3962500000  -3.762290e+001  -1.749646e+002 
3965625000  -3.820681e+001  1.760267e+002 
3968750000  -3.870894e+001  1.688638e+002 
3971875000  -3.884504e+001  1.622657e+002 
3975000000  -3.848404e+001  1.596064e+002 
3978125000  -3.856849e+001  1.544819e+002 
3981250000  -3.888669e+001  1.489667e+002 
3984375000  -3.913530e+001  1.423368e+002 
3987500000  -3.976652e+001  1.381002e+002 
3990625000  -4.003276e+001  1.375020e+002 
3993750000  -4.014542e+001  1.311474e+002 
3996875000  -3.997751e+001  1.272318e+002 
4000000000  -4.066060e+001  1.226024e+002 
4003125000  -4.109577e+001  1.226190e+002 
4006250000  -3.972395e+001  1.230678e+002 
4009375000  -3.909790e+001  1.080981e+002 
4012500000  -4.038782e+001  1.007760e+002 
4015625000  -4.157858e+001  9.861078e+001 
4018750000  -4.131025e+001  9.820260e+001 
4021875000  -4.121114e+001  9.809740e+001 
4025000000  -4.041117e+001  9.054010e+001 
4028125000  -4.054582e+001  8.446208e+001 
4031250000  -4.137837e+001  7.954503e+001 
4034375000  -4.121993e+001  8.012197e+001 
4037500000  -4.079581e+001  8.310014e+001 
4040625000  -4.079563e+001  7.635251e+001 
4043750000  -4.088264e+001  7.307101e+001 
4046875000  -4.077464e+001  6.889700e+001 
4050000000  -4.037127e+001  6.373856e+001 
4053125000  -4.097452e+001  6.101396e+001 
4056250000  -4.128872e+001  6.560761e+001 
4059375000  -3.955147e+001  6.484998e+001 
4062500000  -3.865497e+001  5.660040e+001 
4065625000  -3.884146e+001  5.059634e+001 
4068750000  -3.800271e+001  4.382049e+001 
4071875000  -3.753807e+001  3.333197e+001 
4075000000  -3.809749e+001  2.603466e+001 
4078125000  -3.847445e+001  2.278002e+001 
4081250000  -3.816108e+001  1.683977e+001 
4084375000  -3.791368e+001  9.511522e+000 
4087500000  -3.845212e+001  4.699588e-001 
4090625000  -3.906552e+001  -6.190364e-001 
4093750000  -3.838814e+001  -3.456725e+000 
4096875000  -3.822128e+001  -1.264299e+001 
4100000000  -3.948439e+001  -1.966195e+001 
4103125000  -4.028482e+001  -1.980345e+001 
4106250000  -3.959845e+001  -1.727307e+001 
4109375000  -3.877156e+001  -2.092258e+001 
4112500000  -3.825065e+001  -2.944905e+001 
4115625000  -3.902620e+001  -3.420235e+001 
4118750000  -3.878128e+001  -3.961248e+001 
4121875000  -3.859355e+001  -4.686089e+001 
4125000000  -3.953339e+001  -5.468888e+001 
4128125000  -4.035312e+001  -5.280465e+001 
4131250000  -3.949320e+001  -4.547272e+001 
4134375000  -3.731071e+001  -5.447233e+001 
4137500000  -3.760526e+001  -7.501848e+001 
4140625000  -4.022306e+001  -8.293850e+001 
4143750000  -4.096614e+001  -7.602485e+001 
4146875000  -4.021662e+001  -7.489771e+001 
4150000000  -3.937418e+001  -8.050254e+001 
4153125000  -3.963429e+001  -8.755942e+001 
4156250000  -4.086403e+001  -9.353228e+001 
4159375000  -4.059830e+001  -8.856811e+001 
4162500000  -3.940647e+001  -8.525446e+001 
4165625000  -3.854957e+001  -9.271349e+001 
4168750000  -3.811199e+001  -1.038889e+002 
4171875000  -3.807838e+001  -1.112386e+002 
4175000000  -3.880084e+001  -1.195799e+002 
4178125000  -3.918987e+001  -1.201766e+002 
4181250000  -3.897758e+001  -1.244111e+002 
4184375000  -3.910430e+001  -1.285451e+002 
4187500000  -3.907795e+001  -1.323055e+002 
4190625000  -3.911391e+001  -1.413977e+002 
4193750000  -4.006544e+001  -1.462810e+002 
4196875000  -4.101610e+001  -1.470197e+002 
4200000000  -4.169356e+001  -1.420845e+002 
4203125000  -4.063673e+001  -1.297118e+002 
4206250000  -3.721101e+001  -1.381481e+002 
4209375000  -3.681520e+001  -1.620654e+002 
4212500000  -3.909696e+001  -1.679151e+002 
4215625000  -3.956604e+001  -1.621898e+002 
4218750000  -3.783629e+001  -1.585624e+002 
4221875000  -3.609826e+001  -1.699540e+002 
4225000000  -3.728736e+001  1.775815e+002 
4228125000  -3.762054e+001  1.769575e+002 
4231250000  -3.572342e+001  1.722038e+002 
4234375000  -3.604611e+001  1.616960e+002 
4237500000  -3.563683e+001  1.553572e+002 
4240625000  -3.581916e+001  1.441045e+002 
4243750000  -3.701560e+001  1.374970e+002 
4246875000  -3.789614e+001  1.348076e+002 
4250000000  -3.764842e+001  1.353737e+002 
4253125000  -3.760371e+001  1.328683e+002 
4256250000  -3.742294e+001  1.268681e+002 
4259375000  -3.713247e+001  1.210259e+002 
4262500000  -3.726141e+001  1.163479e+002 
4265625000  -3.731602e+001  1.150448e+002 
4268750000  -3.639436e+001  1.079749e+002 
4271875000  -3.629400e+001  9.829401e+001 
4275000000  -3.568060e+001  9.042316e+001 
4278125000  -3.669716e+001  7.658496e+001 
4281250000  -3.867709e+001  7.494981e+001 
4284375000  -3.812355e+001  7.472981e+001 
4287500000  -3.972019e+001  7.025693e+001 
4290625000  -4.030321e+001  8.008405e+001 
4293750000  -3.819579e+001  8.038454e+001 
4296875000  -3.702801e+001  6.662209e+001 
4300000000  -3.868476e+001  5.488389e+001 
4303125000  -3.935849e+001  5.906403e+001 
4306250000  -3.815524e+001  6.204192e+001 
4309375000  -3.694920e+001  5.561272e+001 
4312500000  -3.695034e+001  4.528165e+001 
4315625000  -3.746704e+001  3.666055e+001 
4318750000  -3.795776e+001  3.294317e+001 
4321875000  -3.812030e+001  3.361446e+001 
4325000000  -3.747586e+001  3.129991e+001 
4328125000  -3.685751e+001  2.108361e+001 
4331250000  -3.687122e+001  1.249756e+001 
4334375000  -3.793129e+001  5.789382e+000 
4337500000  -3.871517e+001  5.825379e+000 
4340625000  -3.908344e+001  7.914191e+000 
4343750000  -3.815274e+001  5.574677e+000 
4346875000  -3.774133e+001  -2.199646e+000 
4350000000  -3.760810e+001  -1.088958e+001 
4353125000  -3.808071e+001  -2.048690e+001 
4356250000  -4.059186e+001  -1.599830e+001 
4359375000  -3.935122e+001  -2.896269e+000 
4362500000  -3.619469e+001  -1.080965e+001 
4365625000  -3.542558e+001  -2.706690e+001 
4368750000  -3.689654e+001  -3.498604e+001 
4371875000  -3.748225e+001  -3.736966e+001 
4375000000  -3.694030e+001  -3.989548e+001 
4378125000  -3.633438e+001  -4.825208e+001 
4381250000  -3.673531e+001  -5.458919e+001 
4384375000  -3.653508e+001  -6.337165e+001 
4387500000  -3.753711e+001  -6.963033e+001 
4390625000  -3.793593e+001  -6.881210e+001 
4393750000  -3.756298e+001  -6.924133e+001 
4396875000  -3.679387e+001  -7.357854e+001 
4400000000  -3.620348e+001  -8.367239e+001 
4403125000  -3.704115e+001  -9.317908e+001 
4406250000  -3.778996e+001  -9.572108e+001 
4409375000  -3.788992e+001  -9.957405e+001 
4412500000  -3.905723e+001  -1.026246e+002 
4415625000  -3.902692e+001  -1.006311e+002 
