!Agilent Technologies,E8363B,MY43030201,A.06.04.32
!Agilent E8363B: A.06.04.32
!Date: Tuesday, November 11, 2014 21:30:15
!Correction: S21(Response(S21)) 
!S1P File: Measurement: S21:
# Hz S  dB   R 50
3000000000  -4.049927e+001  8.416500e+001 
3003125000  -4.221926e+001  7.612879e+001 
3006250000  -4.229402e+001  7.519028e+001 
3009375000  -4.252876e+001  7.986636e+001 
3012500000  -4.148029e+001  7.464959e+001 
3015625000  -4.145536e+001  6.926460e+001 
3018750000  -4.172411e+001  6.889805e+001 
3021875000  -4.017321e+001  7.043388e+001 
3025000000  -3.885237e+001  6.592812e+001 
3028125000  -3.786699e+001  5.556620e+001 
3031250000  -3.705228e+001  4.412055e+001 
3034375000  -3.677092e+001  2.987196e+001 
3037500000  -3.743906e+001  1.892709e+001 
3040625000  -3.875002e+001  1.377258e+001 
3043750000  -3.919898e+001  7.918668e+000 
3046875000  -3.969818e+001  1.918613e+000 
3050000000  -4.092720e+001  -3.053443e+000 
3053125000  -4.062342e+001  9.020853e-001 
3056250000  -4.058131e+001  3.822524e+000 
3059375000  -3.974593e+001  2.202710e+000 
3062500000  -3.823880e+001  -2.334863e+000 
3065625000  -3.792323e+001  -1.182720e+001 
3068750000  -3.744549e+001  -1.953529e+001 
3071875000  -3.750005e+001  -2.170951e+001 
3075000000  -3.692513e+001  -2.875301e+001 
3078125000  -3.705874e+001  -3.347176e+001 
3081250000  -3.730322e+001  -3.987883e+001 
3084375000  -3.632402e+001  -4.553493e+001 
3087500000  -3.641348e+001  -5.155252e+001 
3090625000  -3.592507e+001  -6.374509e+001 
3093750000  -3.694485e+001  -7.229282e+001 
3096875000  -3.736178e+001  -7.807771e+001 
3100000000  -3.722549e+001  -8.013680e+001 
3103125000  -3.757323e+001  -8.380904e+001 
3106250000  -3.718132e+001  -8.922163e+001 
3109375000  -3.722144e+001  -9.301266e+001 
3112500000  -3.726852e+001  -9.860183e+001 
3115625000  -3.707158e+001  -1.035657e+002 
3118750000  -3.732232e+001  -1.058916e+002 
3121875000  -3.651959e+001  -1.175776e+002 
3125000000  -3.849164e+001  -1.211658e+002 
3128125000  -3.867243e+001  -1.137867e+002 
3131250000  -3.603494e+001  -1.186424e+002 
3134375000  -3.524038e+001  -1.371080e+002 
3137500000  -3.602759e+001  -1.494998e+002 
3140625000  -3.724709e+001  -1.521793e+002 
3143750000  -3.819019e+001  -1.528190e+002 
3146875000  -3.777674e+001  -1.519483e+002 
3150000000  -3.686111e+001  -1.557083e+002 
3153125000  -3.721040e+001  -1.643903e+002 
3156250000  -3.795631e+001  -1.599499e+002 
3159375000  -3.578834e+001  -1.614775e+002 
3162500000  -3.411324e+001  -1.772818e+002 
3165625000  -3.547911e+001  1.708978e+002 
3168750000  -3.538910e+001  1.690163e+002 
3171875000  -3.490118e+001  1.621880e+002 
3175000000  -3.556537e+001  1.526281e+002 
3178125000  -3.506012e+001  1.512466e+002 
3181250000  -3.446708e+001  1.429681e+002 
3184375000  -3.400512e+001  1.309263e+002 
3187500000  -3.537771e+001  1.166467e+002 
3190625000  -3.724798e+001  1.113958e+002 
3193750000  -3.744085e+001  1.154793e+002 
3196875000  -3.743651e+001  1.165808e+002 
3200000000  -3.623262e+001  1.119430e+002 
3203125000  -3.591419e+001  1.041472e+002 
3206250000  -3.627263e+001  9.592655e+001 
3209375000  -3.588382e+001  8.806493e+001 
3212500000  -3.626700e+001  8.112209e+001 
3215625000  -3.608019e+001  7.788866e+001 
3218750000  -3.688899e+001  6.748746e+001 
3221875000  -3.724462e+001  5.955125e+001 
3225000000  -3.705082e+001  5.710134e+001 
3228125000  -3.776947e+001  4.930399e+001 
3231250000  -3.820168e+001  4.726051e+001 
3234375000  -3.792648e+001  4.406121e+001 
3237500000  -3.811127e+001  4.100423e+001 
3240625000  -3.767976e+001  3.432646e+001 
3243750000  -3.754281e+001  2.499399e+001 
3246875000  -3.810312e+001  1.700126e+001 
3250000000  -3.872771e+001  1.377917e+001 
3253125000  -3.901446e+001  1.199469e+001 
3256250000  -3.863196e+001  2.323442e+000 
3259375000  -3.923955e+001  -8.929918e+000 
3262500000  -4.059400e+001  -1.176010e+001 
3265625000  -4.128203e+001  -8.694577e+000 
3268750000  -4.120047e+001  -8.623180e+000 
3271875000  -4.076441e+001  -1.266473e+001 
3275000000  -4.026829e+001  -2.096132e+001 
3278125000  -4.085018e+001  -2.466074e+001 
3281250000  -4.093929e+001  -2.516677e+001 
3284375000  -4.053727e+001  -3.280397e+001 
3287500000  -4.100895e+001  -3.658247e+001 
3290625000  -4.143606e+001  -4.345125e+001 
3293750000  -4.119297e+001  -5.014104e+001 
3296875000  -4.249509e+001  -5.158449e+001 
3300000000  -4.189381e+001  -5.187944e+001 
3303125000  -4.091581e+001  -5.797109e+001 
3306250000  -4.088110e+001  -6.522018e+001 
3309375000  -4.045046e+001  -7.195123e+001 
3312500000  -4.098264e+001  -8.465485e+001 
3315625000  -4.219226e+001  -9.210502e+001 
3318750000  -4.346979e+001  -9.612385e+001 
3321875000  -4.511435e+001  -9.204465e+001 
3325000000  -4.491267e+001  -8.613937e+001 
3328125000  -4.419620e+001  -8.613076e+001 
3331250000  -4.220496e+001  -8.413561e+001 
3334375000  -3.985614e+001  -9.768137e+001 
3337500000  -4.039616e+001  -1.180301e+002 
3340625000  -4.229721e+001  -1.269457e+002 
3343750000  -4.409268e+001  -1.277107e+002 
3346875000  -4.350340e+001  -1.297122e+002 
3350000000  -4.300154e+001  -1.307745e+002 
3353125000  -4.268847e+001  -1.398021e+002 
3356250000  -4.228159e+001  -1.462596e+002 
3359375000  -4.324368e+001  -1.562855e+002 
3362500000  -4.446673e+001  -1.633200e+002 
3365625000  -4.456727e+001  -1.670739e+002 
3368750000  -4.539701e+001  -1.720974e+002 
3371875000  -4.577287e+001  -1.734576e+002 
3375000000  -4.741062e+001  -1.799220e+002 
3378125000  -4.791103e+001  -1.785951e+002 
3381250000  -4.968521e+001  -1.698521e+002 
3384375000  -4.647469e+001  -1.572507e+002 
3387500000  -4.384277e+001  -1.761174e+002 
3390625000  -4.638307e+001  1.608549e+002 
3393750000  -4.718209e+001  1.664972e+002 
3396875000  -4.616570e+001  1.614389e+002 
3400000000  -4.609057e+001  1.494419e+002 
3403125000  -4.674460e+001  1.463032e+002 
3406250000  -4.705241e+001  1.434105e+002 
3409375000  -4.771408e+001  1.332833e+002 
3412500000  -4.887731e+001  1.281957e+002 
3415625000  -5.015035e+001  1.281207e+002 
3418750000  -5.006429e+001  1.274866e+002 
3421875000  -5.037489e+001  1.306001e+002 
3425000000  -4.999471e+001  1.290836e+002 
3428125000  -5.018129e+001  1.301099e+002 
3431250000  -5.102842e+001  1.168822e+002 
3434375000  -5.034587e+001  1.138886e+002 
3437500000  -5.191522e+001  1.120806e+002 
3440625000  -5.298286e+001  1.146902e+002 
3443750000  -5.125478e+001  1.223960e+002 
3446875000  -5.080280e+001  1.129601e+002 
3450000000  -5.137378e+001  1.032526e+002 
3453125000  -5.080990e+001  9.630125e+001 
3456250000  -5.250121e+001  9.402716e+001 
3459375000  -5.274578e+001  9.954749e+001 
3462500000  -5.149973e+001  9.478001e+001 
3465625000  -5.191166e+001  9.398123e+001 
3468750000  -5.222404e+001  8.838535e+001 
3471875000  -5.173073e+001  9.264605e+001 
3475000000  -5.126529e+001  8.227376e+001 
3478125000  -5.195815e+001  7.833109e+001 
3481250000  -5.256290e+001  7.889874e+001 
3484375000  -5.296842e+001  7.666489e+001 
3487500000  -5.147131e+001  7.290002e+001 
3490625000  -5.174701e+001  7.045885e+001 
3493750000  -5.171817e+001  6.048829e+001 
3496875000  -5.191311e+001  6.326180e+001 
3500000000  -5.278419e+001  6.058666e+001 
3503125000  -5.151124e+001  5.207452e+001 
3506250000  -5.027360e+001  4.698639e+001 
3509375000  -4.916222e+001  4.370301e+001 
3512500000  -5.003356e+001  2.708739e+001 
3515625000  -5.079034e+001  2.165464e+001 
3518750000  -5.231365e+001  2.170622e+001 
3521875000  -5.243108e+001  2.033741e+001 
3525000000  -5.219202e+001  5.728240e+000 
3528125000  -5.294893e+001  1.813656e+001 
3531250000  -5.162893e+001  1.017176e+001 
3534375000  -5.190465e+001  1.213585e+000 
3537500000  -5.399952e+001  -1.609530e+001 
3540625000  -5.461059e+001  -3.514384e+000 
3543750000  -5.639190e+001  -1.117234e+001 
3546875000  -5.589047e+001  6.477258e+000 
3550000000  -5.462560e+001  -4.599845e+000 
3553125000  -5.337085e+001  -2.320771e+001 
3556250000  -5.461597e+001  -1.847647e+001 
3559375000  -5.710800e+001  -1.900556e+001 
3562500000  -5.623157e+001  -3.381379e+001 
3565625000  -5.703941e+001  -3.770704e+001 
3568750000  -5.773633e+001  -2.452903e+001 
3571875000  -6.069732e+001  -2.001234e+001 
3575000000  -5.791684e+001  -2.518858e+001 
3578125000  -5.752182e+001  -2.685302e+001 
3581250000  -5.730121e+001  -2.385128e+001 
3584375000  -5.619627e+001  -1.405774e+001 
3587500000  -5.715103e+001  -3.466394e+001 
3590625000  -5.879728e+001  -5.078088e+001 
3593750000  -5.735313e+001  -3.278141e+001 
3596875000  -5.997651e+001  -2.442846e+001 
3600000000  -5.714427e+001  -2.474176e+001 
3603125000  -5.833995e+001  -3.986758e+001 
3606250000  -5.813019e+001  -4.450919e+001 
3609375000  -5.676391e+001  -2.815138e+001 
3612500000  -5.884455e+001  -3.610735e+001 
3615625000  -5.750830e+001  -3.879858e+001 
3618750000  -5.823746e+001  -2.782353e+001 
3621875000  -5.858260e+001  -2.907537e+001 
3625000000  -5.768261e+001  -3.065143e+001 
3628125000  -5.717464e+001  -2.843377e+001 
3631250000  -5.685971e+001  -3.594847e+001 
3634375000  -5.529522e+001  -2.987403e+001 
3637500000  -5.570858e+001  -2.934978e+001 
3640625000  -5.442871e+001  -2.612203e+001 
3643750000  -5.338172e+001  -2.967258e+001 
3646875000  -5.280015e+001  -4.760616e+001 
3650000000  -5.231334e+001  -4.555712e+001 
3653125000  -5.256311e+001  -4.916138e+001 
3656250000  -5.125914e+001  -5.225762e+001 
3659375000  -5.132748e+001  -5.402536e+001 
3662500000  -5.088092e+001  -5.456108e+001 
3665625000  -4.980779e+001  -6.354234e+001 
3668750000  -4.790628e+001  -6.005893e+001 
3671875000  -4.704596e+001  -7.376347e+001 
3675000000  -4.753591e+001  -7.864751e+001 
3678125000  -4.754686e+001  -8.485621e+001 
3681250000  -4.626321e+001  -8.920363e+001 
3684375000  -4.660426e+001  -9.533257e+001 
3687500000  -4.681133e+001  -9.992776e+001 
3690625000  -4.642214e+001  -1.040704e+002 
3693750000  -4.699191e+001  -9.890706e+001 
3696875000  -4.655187e+001  -1.041519e+002 
3700000000  -4.553521e+001  -1.108521e+002 
3703125000  -4.563999e+001  -1.186405e+002 
3706250000  -4.554402e+001  -1.171780e+002 
3709375000  -4.456900e+001  -1.179501e+002 
3712500000  -4.368259e+001  -1.248195e+002 
3715625000  -4.230891e+001  -1.338037e+002 
3718750000  -4.168223e+001  -1.406539e+002 
3721875000  -4.125088e+001  -1.502847e+002 
3725000000  -4.197073e+001  -1.568845e+002 
3728125000  -4.145950e+001  -1.598085e+002 
3731250000  -4.073523e+001  -1.655740e+002 
3734375000  -3.978782e+001  -1.700484e+002 
3737500000  -4.089724e+001  1.762517e+002 
3740625000  -4.108133e+001  1.729722e+002 
3743750000  -4.057677e+001  1.650130e+002 
3746875000  -4.076036e+001  1.568724e+002 
3750000000  -4.114415e+001  1.539685e+002 
3753125000  -4.070856e+001  1.513816e+002 
3756250000  -4.073172e+001  1.481243e+002 
3759375000  -4.031104e+001  1.419356e+002 
3762500000  -4.006102e+001  1.349995e+002 
3765625000  -4.081354e+001  1.298721e+002 
3768750000  -4.008195e+001  1.311144e+002 
3771875000  -3.850434e+001  1.235361e+002 
3775000000  -3.850586e+001  1.123674e+002 
3778125000  -3.888879e+001  1.059156e+002 
3781250000  -3.881637e+001  1.024060e+002 
3784375000  -3.869754e+001  9.544077e+001 
3787500000  -3.846741e+001  9.071510e+001 
3790625000  -3.900451e+001  8.116013e+001 
3793750000  -3.919159e+001  7.954307e+001 
3796875000  -3.822769e+001  7.367261e+001 
3800000000  -3.644678e+001  6.933852e+001 
3803125000  -3.821638e+001  5.501130e+001 
3806250000  -3.896340e+001  5.092280e+001 
3809375000  -3.846809e+001  4.696477e+001 
3812500000  -3.844077e+001  3.912243e+001 
3815625000  -3.951597e+001  2.836282e+001 
3818750000  -4.063279e+001  2.910169e+001 
3821875000  -4.014541e+001  3.860064e+001 
3825000000  -3.820428e+001  3.644783e+001 
3828125000  -3.698684e+001  1.595214e+001 
3831250000  -3.816718e+001  3.266371e+000 
3834375000  -4.024900e+001  1.860684e+000 
3837500000  -4.071584e+001  4.521106e+000 
3840625000  -3.940585e+001  1.158467e+000 
3843750000  -3.835575e+001  -1.183380e+001 
3846875000  -3.996479e+001  -2.060787e+001 
3850000000  -4.105830e+001  -1.213292e+001 
3853125000  -3.999265e+001  -1.115022e+001 
3856250000  -3.945778e+001  -1.878649e+001 
3859375000  -3.858105e+001  -2.660664e+001 
3862500000  -3.853533e+001  -3.663803e+001 
3865625000  -3.900079e+001  -4.131871e+001 
3868750000  -3.871035e+001  -4.228406e+001 
3871875000  -3.819281e+001  -5.008242e+001 
3875000000  -3.852387e+001  -5.976620e+001 
3878125000  -3.943284e+001  -6.440366e+001 
3881250000  -3.909590e+001  -6.334580e+001 
3884375000  -3.888610e+001  -7.024612e+001 
3887500000  -3.897610e+001  -7.589368e+001 
3890625000  -3.965693e+001  -8.117603e+001 
3893750000  -3.972726e+001  -8.159405e+001 
3896875000  -4.010012e+001  -8.641646e+001 
3900000000  -4.015092e+001  -9.013389e+001 
3903125000  -3.942532e+001  -9.214148e+001 
3906250000  -3.875220e+001  -9.780093e+001 
3909375000  -3.831987e+001  -1.058853e+002 
3912500000  -3.901499e+001  -1.155832e+002 
3915625000  -4.035336e+001  -1.147820e+002 
3918750000  -4.002874e+001  -1.153006e+002 
3921875000  -3.948081e+001  -1.213730e+002 
3925000000  -3.854512e+001  -1.266607e+002 
3928125000  -3.833465e+001  -1.367117e+002 
3931250000  -3.884470e+001  -1.410325e+002 
3934375000  -3.952442e+001  -1.436514e+002 
3937500000  -4.005996e+001  -1.463350e+002 
3940625000  -4.019261e+001  -1.489924e+002 
3943750000  -3.870808e+001  -1.504862e+002 
3946875000  -3.829082e+001  -1.607979e+002 
3950000000  -3.939279e+001  -1.683822e+002 
3953125000  -4.019800e+001  -1.673248e+002 
3956250000  -3.892288e+001  -1.690445e+002 
3959375000  -3.777451e+001  -1.740843e+002 
3962500000  -3.766732e+001  1.771303e+002 
3965625000  -3.782784e+001  1.681492e+002 
3968750000  -3.874142e+001  1.596890e+002 
3971875000  -3.878241e+001  1.549782e+002 
3975000000  -3.868296e+001  1.494872e+002 
3978125000  -3.874458e+001  1.475404e+002 
3981250000  -3.843954e+001  1.394514e+002 
3984375000  -3.891413e+001  1.323199e+002 
3987500000  -3.978635e+001  1.294379e+002 
3990625000  -3.994438e+001  1.272393e+002 
3993750000  -3.996227e+001  1.214716e+002 
3996875000  -3.990226e+001  1.176710e+002 
4000000000  -4.047548e+001  1.133023e+002 
4003125000  -4.111327e+001  1.157753e+002 
4006250000  -3.959924e+001  1.116207e+002 
4009375000  -3.863651e+001  9.800314e+001 
4012500000  -4.029266e+001  9.013059e+001 
4015625000  -4.121864e+001  8.833656e+001 
4018750000  -4.138947e+001  9.002499e+001 
4021875000  -4.093837e+001  8.577560e+001 
4025000000  -4.045515e+001  8.161110e+001 
4028125000  -4.050434e+001  7.559151e+001 
4031250000  -4.126275e+001  7.117311e+001 
4034375000  -4.152752e+001  7.029712e+001 
4037500000  -4.127255e+001  7.181728e+001 
4040625000  -4.116067e+001  6.598347e+001 
4043750000  -4.099399e+001  6.247701e+001 
4046875000  -4.093541e+001  5.961942e+001 
4050000000  -4.074410e+001  5.292457e+001 
4053125000  -4.123468e+001  4.869868e+001 
4056250000  -4.178820e+001  5.719027e+001 
4059375000  -3.968395e+001  5.201605e+001 
4062500000  -3.891974e+001  4.526762e+001 
4065625000  -3.883128e+001  4.055001e+001 
4068750000  -3.832934e+001  3.193986e+001 
4071875000  -3.802958e+001  2.239019e+001 
4075000000  -3.854687e+001  1.565164e+001 
4078125000  -3.882749e+001  1.278677e+001 
4081250000  -3.812258e+001  7.504313e+000 
4084375000  -3.812061e+001  -2.690907e+000 
4087500000  -3.874469e+001  -8.645783e+000 
4090625000  -3.932215e+001  -1.001393e+001 
4093750000  -3.863584e+001  -1.264798e+001 
4096875000  -3.877527e+001  -2.362030e+001 
4100000000  -3.956487e+001  -3.005056e+001 
4103125000  -4.059739e+001  -2.820383e+001 
4106250000  -3.991313e+001  -2.432490e+001 
4109375000  -3.915508e+001  -2.817376e+001 
4112500000  -3.865820e+001  -3.773053e+001 
4115625000  -3.933156e+001  -4.590295e+001 
4118750000  -3.910759e+001  -5.040065e+001 
4121875000  -3.899348e+001  -5.635394e+001 
4125000000  -3.974422e+001  -6.459357e+001 
4128125000  -4.107079e+001  -6.141470e+001 
4131250000  -3.991167e+001  -5.424065e+001 
4134375000  -3.778562e+001  -6.492195e+001 
4137500000  -3.811467e+001  -8.625691e+001 
4140625000  -4.060767e+001  -9.198031e+001 
4143750000  -4.128813e+001  -8.745981e+001 
4146875000  -4.059827e+001  -8.228994e+001 
4150000000  -3.976804e+001  -9.257709e+001 
4153125000  -4.011981e+001  -9.922336e+001 
4156250000  -4.132515e+001  -1.020977e+002 
4159375000  -4.110358e+001  -9.905411e+001 
4162500000  -3.996954e+001  -9.654556e+001 
4165625000  -3.875607e+001  -1.039171e+002 
4168750000  -3.846457e+001  -1.123975e+002 
4171875000  -3.851814e+001  -1.220407e+002 
4175000000  -3.965826e+001  -1.304300e+002 
4178125000  -3.961943e+001  -1.299406e+002 
4181250000  -3.935402e+001  -1.340031e+002 
4184375000  -3.949186e+001  -1.372134e+002 
4187500000  -3.972622e+001  -1.429547e+002 
4190625000  -3.936444e+001  -1.516643e+002 
4193750000  -4.049010e+001  -1.549160e+002 
4196875000  -4.131422e+001  -1.568735e+002 
4200000000  -4.249572e+001  -1.508788e+002 
4203125000  -4.120534e+001  -1.407079e+002 
4206250000  -3.765572e+001  -1.461948e+002 
4209375000  -3.747101e+001  -1.702309e+002 
4212500000  -3.965768e+001  -1.787490e+002 
4215625000  -3.996808e+001  -1.728923e+002 
4218750000  -3.865466e+001  -1.695006e+002 
4221875000  -3.669377e+001  -1.789191e+002 
4225000000  -3.816148e+001  1.685299e+002 
4228125000  -3.795716e+001  1.700403e+002 
4231250000  -3.653020e+001  1.630409e+002 
4234375000  -3.648082e+001  1.521952e+002 
4237500000  -3.602158e+001  1.464428e+002 
4240625000  -3.626912e+001  1.350572e+002 
4243750000  -3.769778e+001  1.280490e+002 
4246875000  -3.869843e+001  1.260164e+002 
4250000000  -3.833915e+001  1.265806e+002 
4253125000  -3.785821e+001  1.211981e+002 
4256250000  -3.815694e+001  1.182014e+002 
4259375000  -3.780287e+001  1.132982e+002 
4262500000  -3.805186e+001  1.074987e+002 
4265625000  -3.792402e+001  1.056162e+002 
4268750000  -3.696203e+001  9.687321e+001 
4271875000  -3.692603e+001  9.062246e+001 
4275000000  -3.657067e+001  7.971018e+001 
4278125000  -3.775845e+001  6.861646e+001 
4281250000  -3.907200e+001  6.708150e+001 
4284375000  -3.902029e+001  6.451022e+001 
4287500000  -4.057754e+001  6.198849e+001 
4290625000  -4.088800e+001  7.011167e+001 
4293750000  -3.900171e+001  7.135069e+001 
4296875000  -3.805334e+001  5.666142e+001 
4300000000  -3.925043e+001  4.846783e+001 
4303125000  -3.982864e+001  5.069666e+001 
4306250000  -3.858840e+001  5.224225e+001 
4309375000  -3.780867e+001  4.731122e+001 
4312500000  -3.768902e+001  3.642330e+001 
4315625000  -3.808172e+001  2.963653e+001 
4318750000  -3.870648e+001  2.312022e+001 
4321875000  -3.885790e+001  2.339523e+001 
4325000000  -3.810470e+001  2.318094e+001 
4328125000  -3.733086e+001  1.478321e+001 
4331250000  -3.770980e+001  3.359131e+000 
4334375000  -3.835482e+001  -2.228782e+000 
4337500000  -3.934189e+001  -4.449419e+000 
4340625000  -3.995112e+001  6.994054e-001 
4343750000  -3.855732e+001  -3.274450e+000 
4346875000  -3.849093e+001  -1.158264e+001 
4350000000  -3.831886e+001  -1.983802e+001 
4353125000  -3.893990e+001  -2.533893e+001 
4356250000  -4.110480e+001  -2.376203e+001 
4359375000  -3.996753e+001  -9.093292e+000 
4362500000  -3.677716e+001  -1.733677e+001 
4365625000  -3.608458e+001  -3.401676e+001 
4368750000  -3.743748e+001  -4.328222e+001 
4371875000  -3.812186e+001  -4.409189e+001 
4375000000  -3.738773e+001  -4.780827e+001 
4378125000  -3.685598e+001  -5.561666e+001 
4381250000  -3.720187e+001  -6.316320e+001 
4384375000  -3.715424e+001  -6.962041e+001 
4387500000  -3.806707e+001  -7.667815e+001 
4390625000  -3.878494e+001  -7.766373e+001 
4393750000  -3.814045e+001  -7.612814e+001 
4396875000  -3.738638e+001  -8.178726e+001 
4400000000  -3.693859e+001  -9.107913e+001 
4403125000  -3.801282e+001  -1.002410e+002 
4406250000  -3.817587e+001  -1.038764e+002 
4409375000  -3.893880e+001  -1.083403e+002 
4412500000  -3.963921e+001  -1.129442e+002 
4415625000  -3.957572e+001  -1.077876e+002 
