!Agilent Technologies,E8363B,MY43030201,A.06.04.32
!Agilent E8363B: A.06.04.32
!Date: Tuesday, November 11, 2014 21:35:00
!Correction: S21(Response(S21)) 
!S1P File: Measurement: S21:
# Hz S  dB   R 50
3000000000  -4.061716e+001  7.252818e+001 
3003125000  -4.210130e+001  6.592715e+001 
3006250000  -4.203531e+001  6.591604e+001 
3009375000  -4.285769e+001  6.876693e+001 
3012500000  -4.145718e+001  6.371086e+001 
3015625000  -4.149755e+001  5.800669e+001 
3018750000  -4.189531e+001  5.825146e+001 
3021875000  -4.033168e+001  5.875986e+001 
3025000000  -3.878259e+001  5.525847e+001 
3028125000  -3.790026e+001  4.393604e+001 
3031250000  -3.696794e+001  3.255855e+001 
3034375000  -3.685156e+001  1.829957e+001 
3037500000  -3.762173e+001  7.987288e+000 
3040625000  -3.885405e+001  3.828593e+000 
3043750000  -3.915405e+001  -3.860080e+000 
3046875000  -3.990393e+001  -9.983592e+000 
3050000000  -4.087766e+001  -1.420307e+001 
3053125000  -4.048520e+001  -9.568362e+000 
3056250000  -4.048404e+001  -5.585835e+000 
3059375000  -3.974807e+001  -8.647062e+000 
3062500000  -3.817553e+001  -1.276661e+001 
3065625000  -3.782505e+001  -2.311620e+001 
3068750000  -3.761646e+001  -2.981786e+001 
3071875000  -3.764595e+001  -3.240842e+001 
3075000000  -3.696969e+001  -3.987745e+001 
3078125000  -3.698070e+001  -4.606318e+001 
3081250000  -3.715224e+001  -5.182184e+001 
3084375000  -3.633664e+001  -5.699715e+001 
3087500000  -3.649521e+001  -6.339894e+001 
3090625000  -3.594916e+001  -7.590804e+001 
3093750000  -3.696791e+001  -8.399134e+001 
3096875000  -3.723907e+001  -8.823850e+001 
3100000000  -3.719144e+001  -9.190179e+001 
3103125000  -3.744085e+001  -9.606700e+001 
3106250000  -3.720984e+001  -1.007825e+002 
3109375000  -3.729243e+001  -1.042494e+002 
3112500000  -3.715646e+001  -1.098886e+002 
3115625000  -3.705835e+001  -1.149347e+002 
3118750000  -3.723367e+001  -1.178110e+002 
3121875000  -3.657792e+001  -1.283541e+002 
3125000000  -3.845725e+001  -1.315601e+002 
3128125000  -3.850983e+001  -1.241874e+002 
3131250000  -3.615661e+001  -1.309345e+002 
3134375000  -3.532745e+001  -1.478109e+002 
3137500000  -3.607688e+001  -1.595327e+002 
3140625000  -3.728103e+001  -1.636951e+002 
3143750000  -3.806861e+001  -1.662166e+002 
3146875000  -3.766188e+001  -1.632552e+002 
3150000000  -3.687611e+001  -1.675461e+002 
3153125000  -3.717202e+001  -1.751454e+002 
3156250000  -3.798594e+001  -1.709743e+002 
3159375000  -3.563486e+001  -1.735831e+002 
3162500000  -3.426423e+001  1.715426e+002 
3165625000  -3.537972e+001  1.586994e+002 
3168750000  -3.542305e+001  1.571585e+002 
3171875000  -3.497771e+001  1.504202e+002 
3175000000  -3.550147e+001  1.413433e+002 
3178125000  -3.495041e+001  1.393899e+002 
3181250000  -3.431914e+001  1.307097e+002 
3184375000  -3.420087e+001  1.195620e+002 
3187500000  -3.550661e+001  1.044213e+002 
3190625000  -3.729931e+001  9.899255e+001 
3193750000  -3.748488e+001  1.047665e+002 
3196875000  -3.726874e+001  1.056857e+002 
3200000000  -3.611911e+001  9.991998e+001 
3203125000  -3.586767e+001  9.183704e+001 
3206250000  -3.617797e+001  8.455740e+001 
3209375000  -3.586231e+001  7.612810e+001 
3212500000  -3.642356e+001  6.930891e+001 
3215625000  -3.610604e+001  6.664674e+001 
3218750000  -3.682931e+001  5.474312e+001 
3221875000  -3.733580e+001  4.790617e+001 
3225000000  -3.704964e+001  4.502214e+001 
3228125000  -3.776585e+001  3.789598e+001 
3231250000  -3.818928e+001  3.532450e+001 
3234375000  -3.794118e+001  3.343943e+001 
3237500000  -3.795174e+001  2.875824e+001 
3240625000  -3.745675e+001  2.334349e+001 
3243750000  -3.763574e+001  1.294942e+001 
3246875000  -3.813414e+001  4.936969e+000 
3250000000  -3.883530e+001  1.733844e+000 
3253125000  -3.895319e+001  -1.640765e+000 
3256250000  -3.861038e+001  -9.507984e+000 
3259375000  -3.921815e+001  -2.086090e+001 
3262500000  -4.080219e+001  -2.446529e+001 
3265625000  -4.106545e+001  -2.289974e+001 
3268750000  -4.132873e+001  -2.011017e+001 
3271875000  -4.038380e+001  -2.294225e+001 
3275000000  -4.017045e+001  -3.375699e+001 
3278125000  -4.087920e+001  -3.676457e+001 
3281250000  -4.100962e+001  -3.892407e+001 
3284375000  -4.052193e+001  -4.405862e+001 
3287500000  -4.097795e+001  -4.821294e+001 
3290625000  -4.127843e+001  -5.723193e+001 
3293750000  -4.138451e+001  -6.283369e+001 
3296875000  -4.247097e+001  -6.497880e+001 
3300000000  -4.174232e+001  -6.289013e+001 
3303125000  -4.087624e+001  -7.039797e+001 
3306250000  -4.086451e+001  -7.655153e+001 
3309375000  -4.048124e+001  -8.523075e+001 
3312500000  -4.103860e+001  -9.734044e+001 
3315625000  -4.209822e+001  -1.040170e+002 
3318750000  -4.381068e+001  -1.088605e+002 
3321875000  -4.491224e+001  -1.063436e+002 
3325000000  -4.490282e+001  -9.568090e+001 
3328125000  -4.385590e+001  -1.002171e+002 
3331250000  -4.215535e+001  -9.550051e+001 
3334375000  -3.957430e+001  -1.109618e+002 
3337500000  -4.052607e+001  -1.301856e+002 
3340625000  -4.212731e+001  -1.415072e+002 
3343750000  -4.399294e+001  -1.395378e+002 
3346875000  -4.353329e+001  -1.392772e+002 
3350000000  -4.320857e+001  -1.437557e+002 
3353125000  -4.310620e+001  -1.528188e+002 
3356250000  -4.251785e+001  -1.585027e+002 
3359375000  -4.337477e+001  -1.713055e+002 
3362500000  -4.422115e+001  -1.739399e+002 
3365625000  -4.470600e+001  1.792007e+002 
3368750000  -4.507040e+001  1.784694e+002 
3371875000  -4.598493e+001  1.723055e+002 
3375000000  -4.749162e+001  1.683053e+002 
3378125000  -4.851229e+001  1.676282e+002 
3381250000  -4.959266e+001  1.784736e+002 
3384375000  -4.630378e+001  -1.669846e+002 
3387500000  -4.391957e+001  1.746406e+002 
3390625000  -4.623454e+001  1.518554e+002 
3393750000  -4.709631e+001  1.520532e+002 
3396875000  -4.576103e+001  1.504071e+002 
3400000000  -4.552647e+001  1.413137e+002 
3403125000  -4.681071e+001  1.352829e+002 
3406250000  -4.772078e+001  1.290692e+002 
3409375000  -4.786736e+001  1.246476e+002 
3412500000  -4.865221e+001  1.212155e+002 
3415625000  -4.976690e+001  1.180639e+002 
3418750000  -5.034608e+001  1.194188e+002 
3421875000  -5.131769e+001  1.171038e+002 
3425000000  -5.035722e+001  1.168751e+002 
3428125000  -5.009350e+001  1.177034e+002 
3431250000  -5.006475e+001  1.031258e+002 
3434375000  -5.024688e+001  1.013236e+002 
3437500000  -5.119211e+001  1.048270e+002 
3440625000  -5.171875e+001  1.010093e+002 
3443750000  -5.004501e+001  1.088194e+002 
3446875000  -4.989239e+001  9.718887e+001 
3450000000  -5.070236e+001  9.730807e+001 
3453125000  -5.067063e+001  7.830389e+001 
3456250000  -5.171803e+001  7.879394e+001 
3459375000  -5.415429e+001  8.366801e+001 
3462500000  -5.151274e+001  9.070416e+001 
3465625000  -5.202522e+001  8.240179e+001 
3468750000  -5.212468e+001  7.768317e+001 
3471875000  -5.196148e+001  7.760983e+001 
3475000000  -5.097094e+001  7.562975e+001 
3478125000  -5.125666e+001  6.190078e+001 
3481250000  -5.285336e+001  6.311737e+001 
3484375000  -5.283279e+001  6.272890e+001 
3487500000  -5.094712e+001  5.956769e+001 
3490625000  -5.061849e+001  5.400854e+001 
3493750000  -5.123885e+001  4.464041e+001 
3496875000  -5.206248e+001  4.787571e+001 
3500000000  -5.221670e+001  5.120637e+001 
3503125000  -5.153184e+001  4.242286e+001 
3506250000  -4.918847e+001  3.456155e+001 
3509375000  -4.984249e+001  2.782654e+001 
3512500000  -5.007689e+001  1.073507e+001 
3515625000  -5.135844e+001  8.500934e+000 
3518750000  -5.245807e+001  1.273478e+001 
3521875000  -5.247436e+001  1.367501e+000 
3525000000  -5.381554e+001  -3.472606e+000 
3528125000  -5.325580e+001  5.474321e+000 
3531250000  -5.186444e+001  -6.542660e+000 
3534375000  -5.272665e+001  -1.717247e+001 
3537500000  -5.333845e+001  -2.663683e+001 
3540625000  -5.433080e+001  -2.603761e+001 
3543750000  -5.691405e+001  -1.647147e+001 
3546875000  -5.505021e+001  -1.331801e+001 
3550000000  -5.307837e+001  -1.670866e+001 
3553125000  -5.350672e+001  -3.163631e+001 
3556250000  -5.654037e+001  -3.349403e+001 
3559375000  -5.582088e+001  -2.999663e+001 
3562500000  -5.609035e+001  -4.699696e+001 
3565625000  -5.616673e+001  -4.432012e+001 
3568750000  -5.782589e+001  -3.853556e+001 
3571875000  -5.754871e+001  -3.962107e+001 
3575000000  -5.987938e+001  -4.569491e+001 
3578125000  -5.794912e+001  -4.836987e+001 
3581250000  -5.881583e+001  -4.299226e+001 
3584375000  -5.693135e+001  -4.452855e+001 
3587500000  -5.855196e+001  -4.778312e+001 
3590625000  -5.930210e+001  -6.504900e+001 
3593750000  -5.949457e+001  -4.279776e+001 
3596875000  -5.804529e+001  -3.044537e+001 
3600000000  -5.695137e+001  -4.409245e+001 
3603125000  -5.790408e+001  -5.838259e+001 
3606250000  -5.812831e+001  -4.581307e+001 
3609375000  -5.778058e+001  -4.678112e+001 
3612500000  -5.888028e+001  -4.940395e+001 
3615625000  -5.834924e+001  -5.273468e+001 
3618750000  -5.773044e+001  -5.038424e+001 
3621875000  -6.056138e+001  -5.598750e+001 
3625000000  -5.830153e+001  -4.550271e+001 
3628125000  -5.792704e+001  -4.869493e+001 
3631250000  -5.581458e+001  -5.040134e+001 
3634375000  -5.709251e+001  -4.562783e+001 
3637500000  -5.523071e+001  -4.102810e+001 
3640625000  -5.343708e+001  -4.337806e+001 
3643750000  -5.256800e+001  -4.334336e+001 
3646875000  -5.322831e+001  -5.190512e+001 
3650000000  -5.273374e+001  -5.861699e+001 
3653125000  -5.160669e+001  -6.591590e+001 
3656250000  -5.258715e+001  -5.780676e+001 
3659375000  -5.126773e+001  -6.469517e+001 
3662500000  -5.074154e+001  -6.490904e+001 
3665625000  -5.007123e+001  -7.484542e+001 
3668750000  -4.780207e+001  -7.595120e+001 
3671875000  -4.770644e+001  -8.439756e+001 
3675000000  -4.735861e+001  -9.145031e+001 
3678125000  -4.704263e+001  -9.607523e+001 
3681250000  -4.662449e+001  -1.033649e+002 
3684375000  -4.690764e+001  -1.068136e+002 
3687500000  -4.615472e+001  -1.122807e+002 
3690625000  -4.712352e+001  -1.170257e+002 
3693750000  -4.698045e+001  -1.167388e+002 
3696875000  -4.671743e+001  -1.180929e+002 
3700000000  -4.515407e+001  -1.247273e+002 
3703125000  -4.527375e+001  -1.311093e+002 
3706250000  -4.568993e+001  -1.342040e+002 
3709375000  -4.497696e+001  -1.342717e+002 
3712500000  -4.364683e+001  -1.373829e+002 
3715625000  -4.209820e+001  -1.482463e+002 
3718750000  -4.189436e+001  -1.532205e+002 
3721875000  -4.140942e+001  -1.650858e+002 
3725000000  -4.188604e+001  -1.714799e+002 
3728125000  -4.143209e+001  -1.732671e+002 
3731250000  -4.044139e+001  -1.792120e+002 
3734375000  -4.009852e+001  1.722761e+002 
3737500000  -4.101193e+001  1.647731e+002 
3740625000  -4.080486e+001  1.584366e+002 
3743750000  -4.058773e+001  1.530887e+002 
3746875000  -4.072470e+001  1.451678e+002 
3750000000  -4.100267e+001  1.398915e+002 
3753125000  -4.051756e+001  1.365743e+002 
3756250000  -4.080111e+001  1.339240e+002 
3759375000  -4.045947e+001  1.276006e+002 
3762500000  -3.996131e+001  1.226776e+002 
3765625000  -4.073808e+001  1.183064e+002 
3768750000  -4.010979e+001  1.168572e+002 
3771875000  -3.836033e+001  1.098255e+002 
3775000000  -3.861818e+001  9.860517e+001 
3778125000  -3.913165e+001  9.178768e+001 
3781250000  -3.888790e+001  8.879030e+001 
3784375000  -3.875546e+001  8.255333e+001 
3787500000  -3.848330e+001  7.715742e+001 
3790625000  -3.916295e+001  6.681456e+001 
3793750000  -3.933024e+001  6.354902e+001 
3796875000  -3.811535e+001  6.000779e+001 
3800000000  -3.632301e+001  5.333650e+001 
3803125000  -3.800178e+001  4.178611e+001 
3806250000  -3.884797e+001  3.802675e+001 
3809375000  -3.844321e+001  3.216363e+001 
3812500000  -3.841037e+001  2.408360e+001 
3815625000  -3.971863e+001  1.492645e+001 
3818750000  -4.063246e+001  1.480679e+001 
3821875000  -3.982655e+001  2.544616e+001 
3825000000  -3.834248e+001  2.136597e+001 
3828125000  -3.702445e+001  2.494312e+000 
3831250000  -3.798200e+001  -1.055826e+001 
3834375000  -4.032151e+001  -1.112728e+001 
3837500000  -4.063582e+001  -8.308504e+000 
3840625000  -3.906266e+001  -1.187289e+001 
3843750000  -3.817348e+001  -2.586773e+001 
3846875000  -3.982869e+001  -3.327694e+001 
3850000000  -4.077742e+001  -2.442629e+001 
3853125000  -3.998934e+001  -2.600922e+001 
3856250000  -3.934127e+001  -3.596886e+001 
3859375000  -3.878236e+001  -4.120242e+001 
3862500000  -3.846740e+001  -5.103089e+001 
3865625000  -3.874277e+001  -5.653061e+001 
3868750000  -3.856306e+001  -5.773560e+001 
3871875000  -3.805810e+001  -6.544672e+001 
3875000000  -3.853734e+001  -7.324703e+001 
3878125000  -3.953275e+001  -7.658435e+001 
3881250000  -3.927137e+001  -7.693774e+001 
3884375000  -3.864006e+001  -8.363857e+001 
3887500000  -3.903425e+001  -8.964417e+001 
3890625000  -3.944079e+001  -9.591106e+001 
3893750000  -3.958537e+001  -9.661041e+001 
3896875000  -3.988657e+001  -9.858400e+001 
3900000000  -3.987200e+001  -1.032242e+002 
3903125000  -3.938873e+001  -1.083999e+002 
3906250000  -3.888443e+001  -1.136418e+002 
3909375000  -3.829507e+001  -1.211404e+002 
3912500000  -3.894207e+001  -1.295023e+002 
3915625000  -4.046992e+001  -1.309803e+002 
3918750000  -3.994804e+001  -1.307659e+002 
3921875000  -3.909118e+001  -1.360947e+002 
3925000000  -3.834290e+001  -1.415992e+002 
3928125000  -3.840604e+001  -1.510696e+002 
3931250000  -3.914906e+001  -1.577792e+002 
3934375000  -3.967221e+001  -1.576298e+002 
3937500000  -4.021413e+001  -1.609870e+002 
3940625000  -3.971622e+001  -1.620603e+002 
3943750000  -3.880106e+001  -1.643416e+002 
3946875000  -3.835905e+001  -1.735785e+002 
3950000000  -3.953200e+001  1.758629e+002 
3953125000  -3.976892e+001  1.773999e+002 
3956250000  -3.885415e+001  1.785815e+002 
3959375000  -3.806157e+001  1.704788e+002 
3962500000  -3.753592e+001  1.616073e+002 
3965625000  -3.786728e+001  1.535256e+002 
3968750000  -3.882425e+001  1.459108e+002 
3971875000  -3.851742e+001  1.402867e+002 
3975000000  -3.846465e+001  1.359658e+002 
3978125000  -3.870407e+001  1.317768e+002 
3981250000  -3.844651e+001  1.245905e+002 
3984375000  -3.908117e+001  1.186100e+002 
3987500000  -3.984298e+001  1.142713e+002 
3990625000  -4.001163e+001  1.123418e+002 
3993750000  -4.000882e+001  1.074503e+002 
3996875000  -3.975461e+001  1.006600e+002 
4000000000  -4.053826e+001  9.894391e+001 
4003125000  -4.100008e+001  1.012530e+002 
4006250000  -3.919597e+001  9.646204e+001 
4009375000  -3.863000e+001  8.375710e+001 
4012500000  -4.017953e+001  7.560275e+001 
4015625000  -4.120507e+001  7.441722e+001 
4018750000  -4.110330e+001  7.448030e+001 
4021875000  -4.078107e+001  7.151646e+001 
4025000000  -4.033739e+001  6.623264e+001 
4028125000  -4.078185e+001  6.013088e+001 
4031250000  -4.102633e+001  5.647403e+001 
4034375000  -4.166820e+001  5.370573e+001 
4037500000  -4.088022e+001  5.583439e+001 
4040625000  -4.077619e+001  4.967459e+001 
4043750000  -4.108846e+001  4.735011e+001 
4046875000  -4.064601e+001  4.470857e+001 
4050000000  -4.057404e+001  3.990361e+001 
4053125000  -4.134468e+001  3.537875e+001 
4056250000  -4.144806e+001  4.040494e+001 
4059375000  -3.961211e+001  3.821465e+001 
4062500000  -3.871111e+001  2.960015e+001 
4065625000  -3.865816e+001  2.400477e+001 
4068750000  -3.828061e+001  1.578576e+001 
4071875000  -3.784334e+001  6.700093e+000 
4075000000  -3.836284e+001  -5.423382e-001 
4078125000  -3.855593e+001  -3.124298e+000 
4081250000  -3.815300e+001  -7.884630e+000 
4084375000  -3.819528e+001  -1.788773e+001 
4087500000  -3.867770e+001  -2.464617e+001 
4090625000  -3.912935e+001  -2.620783e+001 
4093750000  -3.872602e+001  -2.858481e+001 
4096875000  -3.876973e+001  -4.000458e+001 
4100000000  -3.976436e+001  -4.536683e+001 
4103125000  -4.061022e+001  -4.420395e+001 
4106250000  -3.996853e+001  -4.134360e+001 
4109375000  -3.898796e+001  -4.268653e+001 
4112500000  -3.858329e+001  -5.358862e+001 
4115625000  -3.927605e+001  -6.031453e+001 
4118750000  -3.908682e+001  -6.538024e+001 
4121875000  -3.885809e+001  -7.222192e+001 
4125000000  -3.994511e+001  -7.792097e+001 
4128125000  -4.074992e+001  -7.751061e+001 
4131250000  -3.966984e+001  -7.282610e+001 
4134375000  -3.762252e+001  -8.193939e+001 
4137500000  -3.805334e+001  -1.026388e+002 
4140625000  -4.082151e+001  -1.082628e+002 
4143750000  -4.160861e+001  -1.002912e+002 
4146875000  -4.051355e+001  -9.885948e+001 
4150000000  -3.980537e+001  -1.076488e+002 
4153125000  -4.017976e+001  -1.153600e+002 
4156250000  -4.120082e+001  -1.197079e+002 
4159375000  -4.094368e+001  -1.118494e+002 
4162500000  -3.978600e+001  -1.093034e+002 
4165625000  -3.879281e+001  -1.186667e+002 
4168750000  -3.823426e+001  -1.289188e+002 
4171875000  -3.836625e+001  -1.382285e+002 
4175000000  -3.909993e+001  -1.438790e+002 
4178125000  -3.960258e+001  -1.450363e+002 
4181250000  -3.928656e+001  -1.497168e+002 
4184375000  -3.959167e+001  -1.552003e+002 
4187500000  -3.965652e+001  -1.584812e+002 
4190625000  -3.966656e+001  -1.681625e+002 
4193750000  -4.050681e+001  -1.726216e+002 
4196875000  -4.163888e+001  -1.724108e+002 
4200000000  -4.264351e+001  -1.664124e+002 
4203125000  -4.086176e+001  -1.539265e+002 
4206250000  -3.730742e+001  -1.644401e+002 
4209375000  -3.741654e+001  1.734469e+002 
4212500000  -3.967796e+001  1.659037e+002 
4215625000  -4.022800e+001  1.729184e+002 
4218750000  -3.818721e+001  1.751771e+002 
4221875000  -3.667572e+001  1.650712e+002 
4225000000  -3.803797e+001  1.532846e+002 
4228125000  -3.780959e+001  1.538845e+002 
4231250000  -3.628834e+001  1.474590e+002 
4234375000  -3.631196e+001  1.363432e+002 
4237500000  -3.593457e+001  1.299877e+002 
4240625000  -3.641315e+001  1.194039e+002 
4243750000  -3.744128e+001  1.099735e+002 
4246875000  -3.868092e+001  1.091898e+002 
4250000000  -3.823914e+001  1.090422e+002 
4253125000  -3.842017e+001  1.075751e+002 
4256250000  -3.799956e+001  1.033291e+002 
4259375000  -3.770055e+001  9.598013e+001 
4262500000  -3.797473e+001  9.111447e+001 
4265625000  -3.773159e+001  8.893570e+001 
4268750000  -3.688409e+001  8.136649e+001 
4271875000  -3.682180e+001  7.270818e+001 
4275000000  -3.661962e+001  6.398317e+001 
4278125000  -3.794595e+001  5.144905e+001 
4281250000  -3.893477e+001  5.133291e+001 
4284375000  -3.885436e+001  4.853291e+001 
4287500000  -4.059475e+001  4.898629e+001 
4290625000  -4.056817e+001  5.612954e+001 
4293750000  -3.843794e+001  5.570533e+001 
4296875000  -3.770695e+001  4.251419e+001 
4300000000  -3.902108e+001  3.177638e+001 
4303125000  -3.957615e+001  3.541655e+001 
4306250000  -3.866541e+001  3.922049e+001 
4309375000  -3.796741e+001  3.135120e+001 
4312500000  -3.761591e+001  2.093123e+001 
4315625000  -3.793025e+001  1.219552e+001 
4318750000  -3.860881e+001  7.773375e+000 
4321875000  -3.861275e+001  8.148164e+000 
4325000000  -3.796640e+001  8.247674e+000 
4328125000  -3.722274e+001  -2.097082e+000 
4331250000  -3.757311e+001  -1.409992e+001 
4334375000  -3.831859e+001  -1.963407e+001 
4337500000  -3.937999e+001  -2.080377e+001 
4340625000  -3.970224e+001  -1.558821e+001 
4343750000  -3.867760e+001  -1.911842e+001 
4346875000  -3.862838e+001  -2.830072e+001 
4350000000  -3.857528e+001  -3.604432e+001 
4353125000  -3.897377e+001  -4.355161e+001 
4356250000  -4.117260e+001  -3.876893e+001 
4359375000  -3.980836e+001  -2.303831e+001 
4362500000  -3.629037e+001  -3.392640e+001 
4365625000  -3.583239e+001  -5.162334e+001 
4368750000  -3.725028e+001  -5.926294e+001 
4371875000  -3.810455e+001  -5.991136e+001 
4375000000  -3.723118e+001  -6.545259e+001 
4378125000  -3.678495e+001  -7.148593e+001 
4381250000  -3.696882e+001  -8.104493e+001 
4384375000  -3.723806e+001  -8.775919e+001 
4387500000  -3.831617e+001  -9.229471e+001 
4390625000  -3.858490e+001  -9.401615e+001 
4393750000  -3.783537e+001  -9.330928e+001 
4396875000  -3.749711e+001  -9.817683e+001 
4400000000  -3.697914e+001  -1.076162e+002 
4403125000  -3.788138e+001  -1.165258e+002 
4406250000  -3.838652e+001  -1.205554e+002 
4409375000  -3.863552e+001  -1.248140e+002 
4412500000  -3.986473e+001  -1.280363e+002 
4415625000  -3.950714e+001  -1.222799e+002 
