!Agilent Technologies,E8363B,MY43030201,A.06.04.32
!Agilent E8363B: A.06.04.32
!Date: Tuesday, November 11, 2014 21:28:29
!Correction: S21(Response(S21)) 
!S1P File: Measurement: S21:
# Hz S  dB   R 50
3000000000  -4.056031e+001  9.041632e+001 
3003125000  -4.230549e+001  8.253098e+001 
3006250000  -4.228706e+001  8.042191e+001 
3009375000  -4.275888e+001  8.559534e+001 
3012500000  -4.159557e+001  8.151690e+001 
3015625000  -4.135683e+001  7.434628e+001 
3018750000  -4.189806e+001  7.450964e+001 
3021875000  -4.037526e+001  7.582806e+001 
3025000000  -3.905838e+001  7.165205e+001 
3028125000  -3.819471e+001  6.172568e+001 
3031250000  -3.698296e+001  5.114791e+001 
3034375000  -3.674106e+001  3.572315e+001 
3037500000  -3.750991e+001  2.540633e+001 
3040625000  -3.880858e+001  2.066957e+001 
3043750000  -3.921878e+001  1.407503e+001 
3046875000  -3.969690e+001  7.946816e+000 
3050000000  -4.077278e+001  2.350079e+000 
3053125000  -4.054884e+001  7.815288e+000 
3056250000  -4.040444e+001  1.147638e+001 
3059375000  -3.989350e+001  8.380441e+000 
3062500000  -3.813737e+001  3.899110e+000 
3065625000  -3.786327e+001  -5.756080e+000 
3068750000  -3.767746e+001  -1.280262e+001 
3071875000  -3.756208e+001  -1.494078e+001 
3075000000  -3.715168e+001  -2.148217e+001 
3078125000  -3.706174e+001  -2.861518e+001 
3081250000  -3.741875e+001  -3.445404e+001 
3084375000  -3.645765e+001  -3.934203e+001 
3087500000  -3.648788e+001  -4.511374e+001 
3090625000  -3.597646e+001  -5.734728e+001 
3093750000  -3.688764e+001  -6.587698e+001 
3096875000  -3.744254e+001  -7.189866e+001 
3100000000  -3.720533e+001  -7.443822e+001 
3103125000  -3.753923e+001  -7.762514e+001 
3106250000  -3.713899e+001  -8.288726e+001 
3109375000  -3.734602e+001  -8.639799e+001 
3112500000  -3.714637e+001  -9.278924e+001 
3115625000  -3.705013e+001  -9.718119e+001 
3118750000  -3.724929e+001  -9.897784e+001 
3121875000  -3.655367e+001  -1.111646e+002 
3125000000  -3.826345e+001  -1.154084e+002 
3128125000  -3.866781e+001  -1.064699e+002 
3131250000  -3.616613e+001  -1.122661e+002 
3134375000  -3.533537e+001  -1.294867e+002 
3137500000  -3.617834e+001  -1.428758e+002 
3140625000  -3.743679e+001  -1.455440e+002 
3143750000  -3.827931e+001  -1.475699e+002 
3146875000  -3.766495e+001  -1.460505e+002 
3150000000  -3.689190e+001  -1.486269e+002 
3153125000  -3.712371e+001  -1.581667e+002 
3156250000  -3.789026e+001  -1.537730e+002 
3159375000  -3.581424e+001  -1.547775e+002 
3162500000  -3.422756e+001  -1.709532e+002 
3165625000  -3.560894e+001  1.763535e+002 
3168750000  -3.548273e+001  1.758824e+002 
3171875000  -3.496250e+001  1.683835e+002 
3175000000  -3.544252e+001  1.586193e+002 
3178125000  -3.505949e+001  1.578849e+002 
3181250000  -3.437510e+001  1.498001e+002 
3184375000  -3.411953e+001  1.377949e+002 
3187500000  -3.526440e+001  1.226426e+002 
3190625000  -3.727577e+001  1.154836e+002 
3193750000  -3.754873e+001  1.212323e+002 
3196875000  -3.754119e+001  1.235865e+002 
3200000000  -3.639278e+001  1.179029e+002 
3203125000  -3.597938e+001  1.105837e+002 
3206250000  -3.626936e+001  1.026657e+002 
3209375000  -3.574520e+001  9.468816e+001 
3212500000  -3.629576e+001  8.810328e+001 
3215625000  -3.617339e+001  8.439247e+001 
3218750000  -3.697363e+001  7.394141e+001 
3221875000  -3.738183e+001  6.702586e+001 
3225000000  -3.715787e+001  6.428671e+001 
3228125000  -3.777905e+001  5.622749e+001 
3231250000  -3.841160e+001  5.370752e+001 
3234375000  -3.800532e+001  5.093668e+001 
3237500000  -3.815749e+001  4.640440e+001 
3240625000  -3.775977e+001  4.179756e+001 
3243750000  -3.767456e+001  3.223834e+001 
3246875000  -3.832086e+001  2.473700e+001 
3250000000  -3.857789e+001  2.066251e+001 
3253125000  -3.899516e+001  1.702666e+001 
3256250000  -3.888505e+001  9.178350e+000 
3259375000  -3.937490e+001  -1.636910e+000 
3262500000  -4.077603e+001  -5.724146e+000 
3265625000  -4.112015e+001  -3.105150e+000 
3268750000  -4.131821e+001  -7.731062e-001 
3271875000  -4.063031e+001  -5.774229e+000 
3275000000  -4.012634e+001  -1.168581e+001 
3278125000  -4.067820e+001  -1.813953e+001 
3281250000  -4.097166e+001  -1.918458e+001 
3284375000  -4.057853e+001  -2.622853e+001 
3287500000  -4.088969e+001  -2.964760e+001 
3290625000  -4.123448e+001  -3.639141e+001 
3293750000  -4.145363e+001  -4.258456e+001 
3296875000  -4.219378e+001  -4.469710e+001 
3300000000  -4.186327e+001  -4.433195e+001 
3303125000  -4.078591e+001  -4.961200e+001 
3306250000  -4.090548e+001  -5.840445e+001 
3309375000  -4.044022e+001  -6.472398e+001 
3312500000  -4.096342e+001  -7.692179e+001 
3315625000  -4.223593e+001  -8.423079e+001 
3318750000  -4.333500e+001  -8.866451e+001 
3321875000  -4.442765e+001  -8.712167e+001 
3325000000  -4.471357e+001  -7.824907e+001 
3328125000  -4.393553e+001  -7.867647e+001 
3331250000  -4.248051e+001  -7.690015e+001 
3334375000  -3.982054e+001  -8.973118e+001 
3337500000  -4.044214e+001  -1.109027e+002 
3340625000  -4.202775e+001  -1.222213e+002 
3343750000  -4.387585e+001  -1.205511e+002 
3346875000  -4.332295e+001  -1.210020e+002 
3350000000  -4.283064e+001  -1.233358e+002 
3353125000  -4.275926e+001  -1.317000e+002 
3356250000  -4.255725e+001  -1.395519e+002 
3359375000  -4.367152e+001  -1.483259e+002 
3362500000  -4.401921e+001  -1.556808e+002 
3365625000  -4.462676e+001  -1.581721e+002 
3368750000  -4.530500e+001  -1.625517e+002 
3371875000  -4.577607e+001  -1.688836e+002 
3375000000  -4.722145e+001  -1.721006e+002 
3378125000  -4.803898e+001  -1.714732e+002 
3381250000  -5.001647e+001  -1.618798e+002 
3384375000  -4.685160e+001  -1.462010e+002 
3387500000  -4.342643e+001  -1.674794e+002 
3390625000  -4.609053e+001  1.721012e+002 
3393750000  -4.736469e+001  1.690949e+002 
3396875000  -4.582486e+001  1.747919e+002 
3400000000  -4.594717e+001  1.588881e+002 
3403125000  -4.663247e+001  1.550992e+002 
3406250000  -4.736630e+001  1.495159e+002 
3409375000  -4.775597e+001  1.445847e+002 
3412500000  -4.887697e+001  1.370590e+002 
3415625000  -5.006470e+001  1.385405e+002 
3418750000  -5.030360e+001  1.364995e+002 
3421875000  -5.188044e+001  1.443353e+002 
3425000000  -4.970227e+001  1.392095e+002 
3428125000  -4.969465e+001  1.371174e+002 
3431250000  -5.044655e+001  1.230054e+002 
3434375000  -5.087400e+001  1.221195e+002 
3437500000  -5.180900e+001  1.195327e+002 
3440625000  -5.197341e+001  1.262871e+002 
3443750000  -4.976168e+001  1.227625e+002 
3446875000  -5.043341e+001  1.193647e+002 
3450000000  -4.965610e+001  1.152237e+002 
3453125000  -5.040547e+001  1.065745e+002 
3456250000  -5.128547e+001  1.014889e+002 
3459375000  -5.234944e+001  1.015436e+002 
3462500000  -5.268040e+001  1.014470e+002 
3465625000  -5.126249e+001  1.043226e+002 
3468750000  -5.171683e+001  1.010724e+002 
3471875000  -5.127119e+001  9.671606e+001 
3475000000  -5.087968e+001  9.008701e+001 
3478125000  -5.093961e+001  8.530225e+001 
3481250000  -5.177788e+001  8.372867e+001 
3484375000  -5.208931e+001  8.302631e+001 
3487500000  -5.115301e+001  7.940316e+001 
3490625000  -5.058314e+001  7.088705e+001 
3493750000  -5.056648e+001  6.724688e+001 
3496875000  -5.163087e+001  7.028842e+001 
3500000000  -5.200545e+001  6.704922e+001 
3503125000  -5.154673e+001  5.945499e+001 
3506250000  -4.913363e+001  5.867727e+001 
3509375000  -4.929567e+001  4.911366e+001 
3512500000  -4.940759e+001  3.228679e+001 
3515625000  -5.135474e+001  3.037731e+001 
3518750000  -5.154757e+001  2.671996e+001 
3521875000  -5.152505e+001  2.594153e+001 
3525000000  -5.358643e+001  1.141831e+001 
3528125000  -5.223074e+001  2.382596e+001 
3531250000  -5.105846e+001  1.713546e+001 
3534375000  -5.291177e+001  7.135861e+000 
3537500000  -5.279142e+001  -3.573132e+000 
3540625000  -5.459008e+001  -4.008502e+000 
3543750000  -5.628264e+001  -9.874191e-001 
3546875000  -5.440458e+001  7.317696e+000 
3550000000  -5.365975e+001  6.887993e+000 
3553125000  -5.232740e+001  -2.211971e+001 
3556250000  -5.478421e+001  -1.388250e+001 
3559375000  -5.622755e+001  -2.001148e+001 
3562500000  -5.486669e+001  -2.701690e+001 
3565625000  -5.595024e+001  -3.548359e+001 
3568750000  -5.662448e+001  -2.055202e+001 
3571875000  -5.892557e+001  -2.995432e+001 
3575000000  -5.708253e+001  -2.267779e+001 
3578125000  -5.759735e+001  -3.891427e+001 
3581250000  -5.783953e+001  -1.974718e+001 
3584375000  -5.651051e+001  -1.939271e+001 
3587500000  -5.717234e+001  -2.016793e+001 
3590625000  -5.664865e+001  -4.674031e+001 
3593750000  -5.754002e+001  -4.004144e+001 
3596875000  -5.897187e+001  -2.887179e+001 
3600000000  -5.788985e+001  -2.427396e+001 
3603125000  -5.917698e+001  -3.956939e+001 
3606250000  -5.837456e+001  -3.164458e+001 
3609375000  -6.036364e+001  -3.717366e+001 
3612500000  -5.775679e+001  -2.939513e+001 
3615625000  -5.929999e+001  -4.177649e+001 
3618750000  -6.018169e+001  -2.565164e+001 
3621875000  -5.921665e+001  -3.755304e+001 
3625000000  -5.860791e+001  -3.055361e+001 
3628125000  -5.612057e+001  -2.805896e+001 
3631250000  -5.797094e+001  -2.745898e+001 
3634375000  -5.961226e+001  -2.400029e+001 
3637500000  -5.675967e+001  -1.756358e+001 
3640625000  -5.387167e+001  -1.743393e+001 
3643750000  -5.350352e+001  -2.815043e+001 
3646875000  -5.303675e+001  -4.013799e+001 
3650000000  -5.527610e+001  -3.961397e+001 
3653125000  -5.189068e+001  -4.605439e+001 
3656250000  -5.194619e+001  -4.580272e+001 
3659375000  -5.199691e+001  -5.011731e+001 
3662500000  -5.082736e+001  -4.854465e+001 
3665625000  -4.975141e+001  -5.133582e+001 
3668750000  -4.851242e+001  -5.534542e+001 
3671875000  -4.793515e+001  -6.706345e+001 
3675000000  -4.723747e+001  -7.166239e+001 
3678125000  -4.783067e+001  -7.440398e+001 
3681250000  -4.618069e+001  -8.316312e+001 
3684375000  -4.717151e+001  -8.664999e+001 
3687500000  -4.700551e+001  -9.175145e+001 
3690625000  -4.680656e+001  -9.827929e+001 
3693750000  -4.715224e+001  -9.667352e+001 
3696875000  -4.704696e+001  -9.772621e+001 
3700000000  -4.549466e+001  -1.092241e+002 
3703125000  -4.565060e+001  -1.124939e+002 
3706250000  -4.611284e+001  -1.095206e+002 
3709375000  -4.493568e+001  -1.134685e+002 
3712500000  -4.402849e+001  -1.206487e+002 
3715625000  -4.234111e+001  -1.264527e+002 
3718750000  -4.191869e+001  -1.343156e+002 
3721875000  -4.134291e+001  -1.417206e+002 
3725000000  -4.172934e+001  -1.504147e+002 
3728125000  -4.168153e+001  -1.517876e+002 
3731250000  -4.095247e+001  -1.581073e+002 
3734375000  -4.021539e+001  -1.656574e+002 
3737500000  -4.075744e+001  -1.745439e+002 
3740625000  -4.093880e+001  1.785133e+002 
3743750000  -4.071596e+001  1.728137e+002 
3746875000  -4.091039e+001  1.666801e+002 
3750000000  -4.102707e+001  1.624046e+002 
3753125000  -4.074749e+001  1.585689e+002 
3756250000  -4.073140e+001  1.553083e+002 
3759375000  -4.037789e+001  1.502364e+002 
3762500000  -4.023234e+001  1.423330e+002 
3765625000  -4.069839e+001  1.377840e+002 
3768750000  -4.018302e+001  1.381113e+002 
3771875000  -3.844973e+001  1.306249e+002 
3775000000  -3.842199e+001  1.198590e+002 
3778125000  -3.903512e+001  1.127320e+002 
3781250000  -3.888361e+001  1.087944e+002 
3784375000  -3.874597e+001  1.030621e+002 
3787500000  -3.858420e+001  9.779499e+001 
3790625000  -3.935225e+001  8.783595e+001 
3793750000  -3.920192e+001  8.621712e+001 
3796875000  -3.847420e+001  7.999071e+001 
3800000000  -3.653757e+001  7.661340e+001 
3803125000  -3.798264e+001  6.338098e+001 
3806250000  -3.891555e+001  5.866555e+001 
3809375000  -3.841611e+001  5.426383e+001 
3812500000  -3.839954e+001  4.561305e+001 
3815625000  -3.947581e+001  3.646554e+001 
3818750000  -4.070493e+001  3.690389e+001 
3821875000  -4.039857e+001  4.658427e+001 
3825000000  -3.858686e+001  4.306657e+001 
3828125000  -3.718083e+001  2.476703e+001 
3831250000  -3.807086e+001  1.083236e+001 
3834375000  -4.024532e+001  1.049094e+001 
3837500000  -4.056097e+001  1.292399e+001 
3840625000  -3.916282e+001  1.240158e+001 
3843750000  -3.846893e+001  -3.405191e+000 
3846875000  -3.965123e+001  -1.065820e+001 
3850000000  -4.076638e+001  -3.687945e+000 
3853125000  -3.973145e+001  -4.630364e+000 
3856250000  -3.969889e+001  -1.263873e+001 
3859375000  -3.871975e+001  -1.821809e+001 
3862500000  -3.863425e+001  -2.905810e+001 
3865625000  -3.914222e+001  -3.378860e+001 
3868750000  -3.878780e+001  -3.375508e+001 
3871875000  -3.788685e+001  -4.060470e+001 
3875000000  -3.855121e+001  -5.053381e+001 
3878125000  -3.942977e+001  -5.505251e+001 
3881250000  -3.936851e+001  -5.457691e+001 
3884375000  -3.870123e+001  -6.230713e+001 
3887500000  -3.889605e+001  -6.785677e+001 
3890625000  -3.955660e+001  -7.409071e+001 
3893750000  -3.968699e+001  -7.601148e+001 
3896875000  -3.985746e+001  -7.765279e+001 
3900000000  -3.964868e+001  -8.032122e+001 
3903125000  -3.957076e+001  -8.726057e+001 
3906250000  -3.904516e+001  -8.962350e+001 
3909375000  -3.817939e+001  -9.753791e+001 
3912500000  -3.882618e+001  -1.068758e+002 
3915625000  -4.027620e+001  -1.071966e+002 
3918750000  -3.988110e+001  -1.069444e+002 
3921875000  -3.930124e+001  -1.130501e+002 
3925000000  -3.858321e+001  -1.169365e+002 
3928125000  -3.834262e+001  -1.263211e+002 
3931250000  -3.893157e+001  -1.354167e+002 
3934375000  -3.957243e+001  -1.360578e+002 
3937500000  -3.979066e+001  -1.375828e+002 
3940625000  -4.004569e+001  -1.395954e+002 
3943750000  -3.892778e+001  -1.424761e+002 
3946875000  -3.808772e+001  -1.520316e+002 
3950000000  -3.929141e+001  -1.593024e+002 
3953125000  -4.001924e+001  -1.597420e+002 
3956250000  -3.867435e+001  -1.601213e+002 
3959375000  -3.770200e+001  -1.661095e+002 
3962500000  -3.779374e+001  -1.741110e+002 
3965625000  -3.771851e+001  1.753558e+002 
3968750000  -3.839352e+001  1.676796e+002 
3971875000  -3.865390e+001  1.623492e+002 
3975000000  -3.837160e+001  1.580383e+002 
3978125000  -3.854554e+001  1.540468e+002 
3981250000  -3.850871e+001  1.481013e+002 
3984375000  -3.886523e+001  1.406561e+002 
3987500000  -3.976130e+001  1.370307e+002 
3990625000  -3.983250e+001  1.371848e+002 
3993750000  -3.993404e+001  1.312749e+002 
3996875000  -4.002136e+001  1.260178e+002 
4000000000  -4.073536e+001  1.214183e+002 
4003125000  -4.095583e+001  1.235568e+002 
4006250000  -3.961776e+001  1.232453e+002 
4009375000  -3.849046e+001  1.087867e+002 
4012500000  -3.986267e+001  9.796651e+001 
4015625000  -4.129362e+001  9.727459e+001 
4018750000  -4.161914e+001  9.895457e+001 
4021875000  -4.058855e+001  9.663905e+001 
4025000000  -4.020104e+001  8.941239e+001 
4028125000  -4.027439e+001  8.180582e+001 
4031250000  -4.106384e+001  7.886539e+001 
4034375000  -4.130553e+001  7.910618e+001 
4037500000  -4.082331e+001  7.882883e+001 
4040625000  -4.068980e+001  7.467838e+001 
4043750000  -4.091045e+001  7.115082e+001 
4046875000  -4.065754e+001  6.710571e+001 
4050000000  -4.027166e+001  6.369009e+001 
4053125000  -4.106516e+001  6.073229e+001 
4056250000  -4.098213e+001  6.383720e+001 
4059375000  -3.961189e+001  6.216927e+001 
4062500000  -3.873638e+001  5.414190e+001 
4065625000  -3.871348e+001  4.753072e+001 
4068750000  -3.831327e+001  4.390360e+001 
4071875000  -3.749012e+001  3.229143e+001 
4075000000  -3.795012e+001  2.466899e+001 
4078125000  -3.838453e+001  2.110102e+001 
4081250000  -3.792159e+001  1.581665e+001 
4084375000  -3.776323e+001  6.633483e+000 
4087500000  -3.840916e+001  -5.626755e-001 
4090625000  -3.887446e+001  -2.027734e+000 
4093750000  -3.840148e+001  -5.261606e+000 
4096875000  -3.838084e+001  -1.451598e+001 
4100000000  -3.935492e+001  -2.167651e+001 
4103125000  -4.020626e+001  -1.980623e+001 
4106250000  -3.969156e+001  -1.620335e+001 
4109375000  -3.899157e+001  -2.060803e+001 
4112500000  -3.845293e+001  -3.120401e+001 
4115625000  -3.901774e+001  -3.756305e+001 
4118750000  -3.884673e+001  -4.081873e+001 
4121875000  -3.830723e+001  -4.768995e+001 
4125000000  -3.951719e+001  -5.408450e+001 
4128125000  -4.053091e+001  -5.225611e+001 
4131250000  -3.950174e+001  -4.664361e+001 
4134375000  -3.739024e+001  -5.688142e+001 
4137500000  -3.783973e+001  -7.739517e+001 
4140625000  -4.008084e+001  -8.353047e+001 
4143750000  -4.109686e+001  -7.812242e+001 
4146875000  -4.010439e+001  -7.401684e+001 
4150000000  -3.917302e+001  -8.100204e+001 
4153125000  -3.930641e+001  -9.142350e+001 
4156250000  -4.070702e+001  -9.502671e+001 
4159375000  -4.053143e+001  -8.777051e+001 
4162500000  -3.919988e+001  -8.607898e+001 
4165625000  -3.836541e+001  -9.454096e+001 
4168750000  -3.811905e+001  -1.045073e+002 
4171875000  -3.775386e+001  -1.136217e+002 
4175000000  -3.895831e+001  -1.199195e+002 
4178125000  -3.908334e+001  -1.215702e+002 
4181250000  -3.886214e+001  -1.238867e+002 
4184375000  -3.883063e+001  -1.296764e+002 
4187500000  -3.905585e+001  -1.363600e+002 
4190625000  -3.908644e+001  -1.442911e+002 
4193750000  -3.997350e+001  -1.465259e+002 
4196875000  -4.107690e+001  -1.486599e+002 
4200000000  -4.191439e+001  -1.436160e+002 
4203125000  -4.066047e+001  -1.330621e+002 
4206250000  -3.727129e+001  -1.385159e+002 
4209375000  -3.683848e+001  -1.619190e+002 
4212500000  -3.933417e+001  -1.693729e+002 
4215625000  -3.946326e+001  -1.614850e+002 
4218750000  -3.777996e+001  -1.607222e+002 
4221875000  -3.624538e+001  -1.730137e+002 
4225000000  -3.738292e+001  1.772338e+002 
4228125000  -3.755725e+001  1.781655e+002 
4231250000  -3.591411e+001  1.707241e+002 
4234375000  -3.596732e+001  1.596071e+002 
4237500000  -3.550803e+001  1.542408e+002 
4240625000  -3.585352e+001  1.427173e+002 
4243750000  -3.683732e+001  1.345418e+002 
4246875000  -3.794899e+001  1.336669e+002 
4250000000  -3.764009e+001  1.351671e+002 
4253125000  -3.729420e+001  1.301955e+002 
4256250000  -3.743805e+001  1.265659e+002 
4259375000  -3.715127e+001  1.190662e+002 
4262500000  -3.719426e+001  1.151029e+002 
4265625000  -3.732226e+001  1.131018e+002 
4268750000  -3.642909e+001  1.071290e+002 
4271875000  -3.625451e+001  9.687609e+001 
4275000000  -3.610333e+001  9.087674e+001 
4278125000  -3.698677e+001  7.540266e+001 
4281250000  -3.825014e+001  7.499335e+001 
4284375000  -3.815751e+001  7.176944e+001 
4287500000  -3.940831e+001  6.806480e+001 
4290625000  -4.018157e+001  7.643298e+001 
4293750000  -3.803033e+001  7.866509e+001 
4296875000  -3.702954e+001  6.442672e+001 
4300000000  -3.830127e+001  5.667735e+001 
4303125000  -3.914304e+001  5.743546e+001 
4306250000  -3.789774e+001  6.152331e+001 
4309375000  -3.699721e+001  5.458888e+001 
4312500000  -3.724155e+001  4.274249e+001 
4315625000  -3.747627e+001  3.495252e+001 
4318750000  -3.796074e+001  3.094317e+001 
4321875000  -3.797071e+001  3.196045e+001 
4325000000  -3.758147e+001  3.058456e+001 
4328125000  -3.684509e+001  2.128480e+001 
4331250000  -3.695926e+001  1.123119e+001 
4334375000  -3.762459e+001  4.305637e+000 
4337500000  -3.889145e+001  4.027057e+000 
4340625000  -3.902723e+001  7.113112e+000 
4343750000  -3.804657e+001  5.170309e+000 
4346875000  -3.768214e+001  -4.131198e+000 
4350000000  -3.767341e+001  -1.330308e+001 
4353125000  -3.815765e+001  -2.107831e+001 
4356250000  -4.020530e+001  -1.843980e+001 
4359375000  -3.994290e+001  -3.486885e+000 
4362500000  -3.622139e+001  -1.080022e+001 
4365625000  -3.549654e+001  -2.720021e+001 
4368750000  -3.663425e+001  -3.794200e+001 
4371875000  -3.746000e+001  -3.817043e+001 
4375000000  -3.693726e+001  -4.110067e+001 
4378125000  -3.639885e+001  -4.863992e+001 
4381250000  -3.651333e+001  -5.762511e+001 
4384375000  -3.647883e+001  -6.360598e+001 
4387500000  -3.749047e+001  -6.917646e+001 
4390625000  -3.787143e+001  -7.060693e+001 
4393750000  -3.746553e+001  -7.048871e+001 
4396875000  -3.672969e+001  -7.475574e+001 
4400000000  -3.629519e+001  -8.608914e+001 
4403125000  -3.689526e+001  -9.451375e+001 
4406250000  -3.756638e+001  -9.777179e+001 
4409375000  -3.792539e+001  -1.023755e+002 
4412500000  -3.903564e+001  -1.046078e+002 
4415625000  -3.877726e+001  -1.017265e+002 
