!Agilent Technologies,E8363B,MY43030201,A.06.04.32
!Agilent E8363B: A.06.04.32
!Date: Tuesday, November 11, 2014 21:37:12
!Correction: S21(Response(S21)) 
!S1P File: Measurement: S21:
# Hz S  dB   R 50
3000000000  -4.062316e+001  7.105695e+001 
3003125000  -4.218529e+001  6.313260e+001 
3006250000  -4.227940e+001  6.288786e+001 
3009375000  -4.280035e+001  6.657468e+001 
3012500000  -4.145355e+001  6.154951e+001 
3015625000  -4.136100e+001  5.575713e+001 
3018750000  -4.173131e+001  5.682340e+001 
3021875000  -4.017619e+001  5.644611e+001 
3025000000  -3.890270e+001  5.293476e+001 
3028125000  -3.794553e+001  4.286703e+001 
3031250000  -3.688499e+001  3.078379e+001 
3034375000  -3.672345e+001  1.688005e+001 
3037500000  -3.762132e+001  6.178132e+000 
3040625000  -3.886708e+001  2.076993e-001 
3043750000  -3.905503e+001  -5.633941e+000 
3046875000  -4.000438e+001  -1.191932e+001 
3050000000  -4.094752e+001  -1.768874e+001 
3053125000  -4.045984e+001  -9.981360e+000 
3056250000  -4.055152e+001  -8.844069e+000 
3059375000  -3.973780e+001  -1.047852e+001 
3062500000  -3.833539e+001  -1.494488e+001 
3065625000  -3.796279e+001  -2.458053e+001 
3068750000  -3.755096e+001  -3.284081e+001 
3071875000  -3.764784e+001  -3.469166e+001 
3075000000  -3.700324e+001  -4.163636e+001 
3078125000  -3.702239e+001  -4.811213e+001 
3081250000  -3.724285e+001  -5.422016e+001 
3084375000  -3.632785e+001  -5.844326e+001 
3087500000  -3.642834e+001  -6.538507e+001 
3090625000  -3.598114e+001  -7.806447e+001 
3093750000  -3.706774e+001  -8.626361e+001 
3096875000  -3.734771e+001  -9.052253e+001 
3100000000  -3.725009e+001  -9.420136e+001 
3103125000  -3.759895e+001  -9.701860e+001 
3106250000  -3.721910e+001  -1.032068e+002 
3109375000  -3.724004e+001  -1.059305e+002 
3112500000  -3.719360e+001  -1.116908e+002 
3115625000  -3.721748e+001  -1.163056e+002 
3118750000  -3.723847e+001  -1.198178e+002 
3121875000  -3.655464e+001  -1.314890e+002 
3125000000  -3.864802e+001  -1.331347e+002 
3128125000  -3.853305e+001  -1.261172e+002 
3131250000  -3.609202e+001  -1.324514e+002 
3134375000  -3.529597e+001  -1.502975e+002 
3137500000  -3.603321e+001  -1.617146e+002 
3140625000  -3.731067e+001  -1.649459e+002 
3143750000  -3.810250e+001  -1.670008e+002 
3146875000  -3.754199e+001  -1.654581e+002 
3150000000  -3.696386e+001  -1.689092e+002 
3153125000  -3.717496e+001  -1.772347e+002 
3156250000  -3.786435e+001  -1.723828e+002 
3159375000  -3.562109e+001  -1.752999e+002 
3162500000  -3.411033e+001  1.692025e+002 
3165625000  -3.531334e+001  1.568882e+002 
3168750000  -3.545322e+001  1.553481e+002 
3171875000  -3.488359e+001  1.479456e+002 
3175000000  -3.543838e+001  1.386154e+002 
3178125000  -3.501682e+001  1.365211e+002 
3181250000  -3.431152e+001  1.285721e+002 
3184375000  -3.428465e+001  1.180423e+002 
3187500000  -3.539230e+001  1.031269e+002 
3190625000  -3.716898e+001  9.726332e+001 
3193750000  -3.752654e+001  1.009911e+002 
3196875000  -3.723404e+001  1.029391e+002 
3200000000  -3.618725e+001  9.781483e+001 
3203125000  -3.591925e+001  8.974454e+001 
3206250000  -3.607477e+001  8.201874e+001 
3209375000  -3.576064e+001  7.412800e+001 
3212500000  -3.635322e+001  6.727068e+001 
3215625000  -3.603724e+001  6.488536e+001 
3218750000  -3.684593e+001  5.302613e+001 
3221875000  -3.723069e+001  4.663632e+001 
3225000000  -3.707437e+001  4.323840e+001 
3228125000  -3.772384e+001  3.432266e+001 
3231250000  -3.814946e+001  3.355208e+001 
3234375000  -3.783518e+001  2.954320e+001 
3237500000  -3.801222e+001  2.596838e+001 
3240625000  -3.742346e+001  2.025619e+001 
3243750000  -3.756330e+001  1.043030e+001 
3246875000  -3.804449e+001  3.676071e+000 
3250000000  -3.885791e+001  -4.522408e-001 
3253125000  -3.893509e+001  -2.633413e+000 
3256250000  -3.845856e+001  -1.216016e+001 
3259375000  -3.919316e+001  -2.316437e+001 
3262500000  -4.059450e+001  -2.620435e+001 
3265625000  -4.121565e+001  -2.343115e+001 
3268750000  -4.112395e+001  -2.211164e+001 
3271875000  -4.060072e+001  -2.653450e+001 
3275000000  -4.011311e+001  -3.602911e+001 
3278125000  -4.085805e+001  -3.844543e+001 
3281250000  -4.090683e+001  -4.081717e+001 
3284375000  -4.060580e+001  -4.623389e+001 
3287500000  -4.094184e+001  -5.105202e+001 
3290625000  -4.119324e+001  -5.897761e+001 
3293750000  -4.113692e+001  -6.420322e+001 
3296875000  -4.245494e+001  -6.630282e+001 
3300000000  -4.183846e+001  -6.474754e+001 
3303125000  -4.085841e+001  -7.233494e+001 
3306250000  -4.068956e+001  -8.022515e+001 
3309375000  -4.051980e+001  -8.703307e+001 
3312500000  -4.099257e+001  -9.985615e+001 
3315625000  -4.235192e+001  -1.065731e+002 
3318750000  -4.384229e+001  -1.092925e+002 
3321875000  -4.491634e+001  -1.062674e+002 
3325000000  -4.455818e+001  -9.995786e+001 
3328125000  -4.346682e+001  -9.820812e+001 
3331250000  -4.217772e+001  -9.835545e+001 
3334375000  -3.978802e+001  -1.139069e+002 
3337500000  -4.028871e+001  -1.332436e+002 
3340625000  -4.209668e+001  -1.422414e+002 
3343750000  -4.406031e+001  -1.420795e+002 
3346875000  -4.362062e+001  -1.414466e+002 
3350000000  -4.290651e+001  -1.474349e+002 
3353125000  -4.285714e+001  -1.520260e+002 
3356250000  -4.231116e+001  -1.629828e+002 
3359375000  -4.355477e+001  -1.720350e+002 
3362500000  -4.406479e+001  -1.768865e+002 
3365625000  -4.462461e+001  1.785305e+002 
3368750000  -4.513483e+001  1.755540e+002 
3371875000  -4.548521e+001  1.725488e+002 
3375000000  -4.758644e+001  1.643770e+002 
3378125000  -4.752882e+001  1.680708e+002 
3381250000  -4.959118e+001  1.769585e+002 
3384375000  -4.610587e+001  -1.661678e+002 
3387500000  -4.422321e+001  1.687875e+002 
3390625000  -4.592076e+001  1.532134e+002 
3393750000  -4.738523e+001  1.489034e+002 
3396875000  -4.582961e+001  1.475826e+002 
3400000000  -4.584253e+001  1.363944e+002 
3403125000  -4.703059e+001  1.334692e+002 
3406250000  -4.749338e+001  1.259588e+002 
3409375000  -4.798156e+001  1.219659e+002 
3412500000  -4.927687e+001  1.141121e+002 
3415625000  -4.959225e+001  1.103284e+002 
3418750000  -4.967397e+001  1.174319e+002 
3421875000  -5.072984e+001  1.188013e+002 
3425000000  -4.995340e+001  1.208057e+002 
3428125000  -4.987866e+001  1.126052e+002 
3431250000  -4.956783e+001  1.013234e+002 
3434375000  -5.082735e+001  9.730817e+001 
3437500000  -5.138540e+001  9.887139e+001 
3440625000  -5.150840e+001  1.046034e+002 
3443750000  -5.119849e+001  1.075862e+002 
3446875000  -5.063837e+001  9.730120e+001 
3450000000  -4.944303e+001  9.237396e+001 
3453125000  -5.083793e+001  8.037526e+001 
3456250000  -5.167188e+001  8.054978e+001 
3459375000  -5.310236e+001  8.218710e+001 
3462500000  -5.212838e+001  8.371669e+001 
3465625000  -5.109325e+001  7.603117e+001 
3468750000  -5.133410e+001  7.992188e+001 
3471875000  -5.230338e+001  7.335931e+001 
3475000000  -5.103313e+001  7.004075e+001 
3478125000  -5.125415e+001  5.940046e+001 
3481250000  -5.198039e+001  6.196061e+001 
3484375000  -5.330212e+001  6.581488e+001 
3487500000  -5.107058e+001  5.873531e+001 
3490625000  -5.034435e+001  4.730576e+001 
3493750000  -5.160322e+001  4.486653e+001 
3496875000  -5.099648e+001  4.652515e+001 
3500000000  -5.173939e+001  4.295857e+001 
3503125000  -5.074207e+001  4.507637e+001 
3506250000  -4.990509e+001  3.690387e+001 
3509375000  -4.987148e+001  2.622009e+001 
3512500000  -4.992390e+001  1.354525e+001 
3515625000  -5.141032e+001  4.631000e+000 
3518750000  -5.208480e+001  5.115284e+000 
3521875000  -5.200026e+001  2.961542e+000 
3525000000  -5.318081e+001  -3.821759e+000 
3528125000  -5.318419e+001  2.522988e+000 
3531250000  -5.170475e+001  -6.734568e+000 
3534375000  -5.228922e+001  -1.932922e+001 
3537500000  -5.415186e+001  -2.452408e+001 
3540625000  -5.426533e+001  -3.003428e+001 
3543750000  -5.553931e+001  -2.301734e+001 
3546875000  -5.587378e+001  -1.479099e+001 
3550000000  -5.405783e+001  -1.431332e+001 
3553125000  -5.369917e+001  -3.533573e+001 
3556250000  -5.667789e+001  -3.782291e+001 
3559375000  -5.654066e+001  -2.984139e+001 
3562500000  -5.641741e+001  -4.767852e+001 
3565625000  -5.728913e+001  -5.295828e+001 
3568750000  -5.809410e+001  -3.705097e+001 
3571875000  -5.709539e+001  -4.985585e+001 
3575000000  -5.757380e+001  -4.560170e+001 
3578125000  -5.685006e+001  -4.901159e+001 
3581250000  -5.940631e+001  -4.765314e+001 
3584375000  -5.703936e+001  -3.425658e+001 
3587500000  -5.646513e+001  -5.658916e+001 
3590625000  -5.767328e+001  -5.571850e+001 
3593750000  -5.853478e+001  -5.215092e+001 
3596875000  -5.886276e+001  -4.311138e+001 
3600000000  -5.777126e+001  -4.269912e+001 
3603125000  -5.656905e+001  -7.278635e+001 
3606250000  -5.970349e+001  -4.578637e+001 
3609375000  -5.882920e+001  -4.928550e+001 
3612500000  -5.776000e+001  -6.143476e+001 
3615625000  -5.904129e+001  -6.195566e+001 
3618750000  -5.936945e+001  -5.221101e+001 
3621875000  -5.759710e+001  -5.013589e+001 
3625000000  -5.790612e+001  -3.994719e+001 
3628125000  -5.692567e+001  -5.164351e+001 
3631250000  -5.655922e+001  -4.703236e+001 
3634375000  -5.716401e+001  -3.752029e+001 
3637500000  -5.500294e+001  -4.239255e+001 
3640625000  -5.382177e+001  -4.153778e+001 
3643750000  -5.303287e+001  -4.757456e+001 
3646875000  -5.240179e+001  -6.201796e+001 
3650000000  -5.273883e+001  -6.663941e+001 
3653125000  -5.254157e+001  -6.779091e+001 
3656250000  -5.215983e+001  -6.662218e+001 
3659375000  -5.164508e+001  -6.665770e+001 
3662500000  -5.040661e+001  -7.069669e+001 
3665625000  -4.991076e+001  -7.686549e+001 
3668750000  -4.828873e+001  -7.306432e+001 
3671875000  -4.781045e+001  -8.819263e+001 
3675000000  -4.778806e+001  -9.580199e+001 
3678125000  -4.739085e+001  -9.797919e+001 
3681250000  -4.623495e+001  -1.056450e+002 
3684375000  -4.645708e+001  -1.051464e+002 
3687500000  -4.640845e+001  -1.144120e+002 
3690625000  -4.668731e+001  -1.209692e+002 
3693750000  -4.731056e+001  -1.193314e+002 
3696875000  -4.607547e+001  -1.198579e+002 
3700000000  -4.513195e+001  -1.286973e+002 
3703125000  -4.504417e+001  -1.341581e+002 
3706250000  -4.586981e+001  -1.351571e+002 
3709375000  -4.482692e+001  -1.346762e+002 
3712500000  -4.310531e+001  -1.400426e+002 
3715625000  -4.203310e+001  -1.501593e+002 
3718750000  -4.194643e+001  -1.556542e+002 
3721875000  -4.113641e+001  -1.660016e+002 
3725000000  -4.171709e+001  -1.714173e+002 
3728125000  -4.157640e+001  -1.767684e+002 
3731250000  -4.072025e+001  1.779756e+002 
3734375000  -4.023959e+001  1.699899e+002 
3737500000  -4.094634e+001  1.612207e+002 
3740625000  -4.081754e+001  1.550592e+002 
3743750000  -4.066885e+001  1.491694e+002 
3746875000  -4.086800e+001  1.426153e+002 
3750000000  -4.096799e+001  1.383307e+002 
3753125000  -4.040391e+001  1.357565e+002 
3756250000  -4.074701e+001  1.312530e+002 
3759375000  -4.034663e+001  1.257155e+002 
3762500000  -4.031223e+001  1.199379e+002 
3765625000  -4.084518e+001  1.154685e+002 
3768750000  -4.009555e+001  1.154835e+002 
3771875000  -3.845004e+001  1.065248e+002 
3775000000  -3.845912e+001  9.451041e+001 
3778125000  -3.901793e+001  8.865631e+001 
3781250000  -3.896899e+001  8.552477e+001 
3784375000  -3.867430e+001  7.833498e+001 
3787500000  -3.858037e+001  7.510600e+001 
3790625000  -3.910891e+001  6.462333e+001 
3793750000  -3.894250e+001  6.086298e+001 
3796875000  -3.830681e+001  5.669705e+001 
3800000000  -3.649575e+001  5.237790e+001 
3803125000  -3.793312e+001  3.971280e+001 
3806250000  -3.880539e+001  3.395584e+001 
3809375000  -3.849047e+001  3.117106e+001 
3812500000  -3.852406e+001  2.225433e+001 
3815625000  -3.955746e+001  1.251313e+001 
3818750000  -4.062280e+001  1.452759e+001 
3821875000  -3.997696e+001  2.385854e+001 
3825000000  -3.804217e+001  1.827437e+001 
3828125000  -3.721201e+001  -6.849594e-002 
3831250000  -3.796813e+001  -1.219616e+001 
3834375000  -4.050936e+001  -1.484234e+001 
3837500000  -4.069859e+001  -9.639053e+000 
3840625000  -3.895082e+001  -1.389889e+001 
3843750000  -3.833641e+001  -2.817093e+001 
3846875000  -3.993999e+001  -3.546334e+001 
3850000000  -4.063019e+001  -3.048954e+001 
3853125000  -4.003076e+001  -2.904841e+001 
3856250000  -3.943990e+001  -3.531488e+001 
3859375000  -3.833020e+001  -4.425924e+001 
3862500000  -3.862920e+001  -5.274054e+001 
3865625000  -3.897095e+001  -5.879712e+001 
3868750000  -3.865471e+001  -5.983092e+001 
3871875000  -3.794391e+001  -6.890746e+001 
3875000000  -3.856965e+001  -7.775751e+001 
3878125000  -3.953022e+001  -7.917448e+001 
3881250000  -3.931570e+001  -7.975952e+001 
3884375000  -3.856388e+001  -8.758839e+001 
3887500000  -3.936266e+001  -9.358105e+001 
3890625000  -3.946348e+001  -9.743599e+001 
3893750000  -3.977431e+001  -1.002679e+002 
3896875000  -3.993707e+001  -1.028530e+002 
3900000000  -4.002110e+001  -1.065047e+002 
3903125000  -3.941885e+001  -1.115298e+002 
3906250000  -3.875240e+001  -1.130949e+002 
3909375000  -3.833514e+001  -1.243186e+002 
3912500000  -3.907160e+001  -1.338528e+002 
3915625000  -4.052326e+001  -1.313587e+002 
3918750000  -3.983810e+001  -1.325128e+002 
3921875000  -3.926600e+001  -1.371522e+002 
3925000000  -3.849112e+001  -1.454321e+002 
3928125000  -3.837539e+001  -1.531654e+002 
3931250000  -3.901227e+001  -1.598666e+002 
3934375000  -3.971594e+001  -1.608503e+002 
3937500000  -4.016215e+001  -1.634998e+002 
3940625000  -3.972323e+001  -1.656523e+002 
3943750000  -3.875408e+001  -1.700831e+002 
3946875000  -3.830859e+001  -1.781883e+002 
3950000000  -3.938750e+001  1.719036e+002 
3953125000  -4.006808e+001  1.749456e+002 
3956250000  -3.870364e+001  1.755010e+002 
3959375000  -3.768089e+001  1.663699e+002 
3962500000  -3.771977e+001  1.582155e+002 
3965625000  -3.786475e+001  1.505096e+002 
3968750000  -3.883517e+001  1.423395e+002 
3971875000  -3.849376e+001  1.372934e+002 
3975000000  -3.828105e+001  1.338985e+002 
3978125000  -3.843150e+001  1.296170e+002 
3981250000  -3.851319e+001  1.229036e+002 
3984375000  -3.883133e+001  1.137590e+002 
3987500000  -3.976435e+001  1.113394e+002 
3990625000  -4.017315e+001  1.087655e+002 
3993750000  -3.970477e+001  1.048971e+002 
3996875000  -3.983923e+001  1.011092e+002 
4000000000  -4.064029e+001  9.372657e+001 
4003125000  -4.095095e+001  9.924676e+001 
4006250000  -3.913157e+001  9.416354e+001 
4009375000  -3.876823e+001  8.150479e+001 
4012500000  -4.023075e+001  7.206725e+001 
4015625000  -4.147992e+001  7.329808e+001 
4018750000  -4.136686e+001  7.257500e+001 
4021875000  -4.062388e+001  7.039562e+001 
4025000000  -4.022223e+001  6.390437e+001 
4028125000  -4.053629e+001  5.621059e+001 
4031250000  -4.104063e+001  5.218943e+001 
4034375000  -4.154323e+001  5.187650e+001 
4037500000  -4.091389e+001  5.449055e+001 
4040625000  -4.080811e+001  4.753931e+001 
4043750000  -4.102792e+001  4.433370e+001 
4046875000  -4.072300e+001  3.980211e+001 
4050000000  -4.059340e+001  3.685999e+001 
4053125000  -4.164225e+001  3.117244e+001 
4056250000  -4.128667e+001  3.859174e+001 
4059375000  -3.940199e+001  3.640979e+001 
4062500000  -3.886783e+001  2.672076e+001 
4065625000  -3.874085e+001  2.042614e+001 
4068750000  -3.811062e+001  1.542959e+001 
4071875000  -3.775232e+001  3.812797e+000 
4075000000  -3.846825e+001  -2.712199e+000 
4078125000  -3.870039e+001  -5.599557e+000 
4081250000  -3.826587e+001  -1.119416e+001 
4084375000  -3.795543e+001  -2.130747e+001 
4087500000  -3.857285e+001  -2.839713e+001 
4090625000  -3.921692e+001  -2.862485e+001 
4093750000  -3.865258e+001  -3.261032e+001 
4096875000  -3.860085e+001  -4.116386e+001 
4100000000  -3.974334e+001  -4.956052e+001 
4103125000  -4.073934e+001  -4.545234e+001 
4106250000  -3.982353e+001  -4.297118e+001 
4109375000  -3.929443e+001  -4.761576e+001 
4112500000  -3.879002e+001  -5.720912e+001 
4115625000  -3.932507e+001  -6.366680e+001 
4118750000  -3.879320e+001  -6.868782e+001 
4121875000  -3.882065e+001  -7.640434e+001 
4125000000  -3.997696e+001  -8.210443e+001 
4128125000  -4.078928e+001  -7.842725e+001 
4131250000  -3.961528e+001  -7.478716e+001 
4134375000  -3.748170e+001  -8.392702e+001 
4137500000  -3.793912e+001  -1.060309e+002 
4140625000  -4.033905e+001  -1.089441e+002 
4143750000  -4.154613e+001  -1.040830e+002 
4146875000  -4.054683e+001  -1.014006e+002 
4150000000  -3.924106e+001  -1.089253e+002 
4153125000  -4.017915e+001  -1.186260e+002 
4156250000  -4.143549e+001  -1.218698e+002 
4159375000  -4.121945e+001  -1.157302e+002 
4162500000  -4.015098e+001  -1.115076e+002 
4165625000  -3.867099e+001  -1.202579e+002 
4168750000  -3.852435e+001  -1.311255e+002 
4171875000  -3.819595e+001  -1.399962e+002 
4175000000  -3.930968e+001  -1.455752e+002 
4178125000  -3.961739e+001  -1.476974e+002 
4181250000  -3.924471e+001  -1.524749e+002 
4184375000  -3.963916e+001  -1.568728e+002 
4187500000  -3.944182e+001  -1.624346e+002 
4190625000  -3.954181e+001  -1.695912e+002 
4193750000  -4.037569e+001  -1.748722e+002 
4196875000  -4.135107e+001  -1.746419e+002 
4200000000  -4.232392e+001  -1.674664e+002 
4203125000  -4.086597e+001  -1.552136e+002 
4206250000  -3.727011e+001  -1.671119e+002 
4209375000  -3.744462e+001  1.690039e+002 
4212500000  -3.959758e+001  1.643365e+002 
4215625000  -4.000618e+001  1.721883e+002 
4218750000  -3.821774e+001  1.708865e+002 
4221875000  -3.658286e+001  1.615166e+002 
4225000000  -3.802975e+001  1.519789e+002 
4228125000  -3.765847e+001  1.501684e+002 
4231250000  -3.630073e+001  1.422668e+002 
4234375000  -3.640005e+001  1.328188e+002 
4237500000  -3.609509e+001  1.270947e+002 
4240625000  -3.638779e+001  1.163554e+002 
4243750000  -3.759195e+001  1.075427e+002 
4246875000  -3.862122e+001  1.078419e+002 
4250000000  -3.828762e+001  1.075674e+002 
4253125000  -3.815317e+001  1.045458e+002 
4256250000  -3.808289e+001  9.893345e+001 
4259375000  -3.780698e+001  9.470138e+001 
4262500000  -3.775500e+001  8.777350e+001 
4265625000  -3.785813e+001  8.693878e+001 
4268750000  -3.688415e+001  8.056380e+001 
4271875000  -3.679825e+001  6.870934e+001 
4275000000  -3.650132e+001  6.122660e+001 
4278125000  -3.759222e+001  5.173914e+001 
4281250000  -3.890700e+001  4.789565e+001 
4284375000  -3.878374e+001  4.756829e+001 
4287500000  -4.040387e+001  4.324205e+001 
4290625000  -4.064015e+001  5.089312e+001 
4293750000  -3.870429e+001  5.203660e+001 
4296875000  -3.763840e+001  3.777286e+001 
4300000000  -3.924525e+001  2.947016e+001 
4303125000  -3.985923e+001  3.305486e+001 
4306250000  -3.867431e+001  3.466213e+001 
4309375000  -3.754470e+001  2.789108e+001 
4312500000  -3.782241e+001  1.793275e+001 
4315625000  -3.792421e+001  7.904639e+000 
4318750000  -3.866758e+001  5.328314e+000 
4321875000  -3.853382e+001  5.282499e+000 
4325000000  -3.789733e+001  4.384039e+000 
4328125000  -3.712676e+001  -5.889778e+000 
4331250000  -3.745885e+001  -1.548297e+001 
4334375000  -3.833127e+001  -2.227481e+001 
4337500000  -3.945589e+001  -2.126917e+001 
4340625000  -3.948921e+001  -1.719664e+001 
4343750000  -3.863701e+001  -2.210368e+001 
4346875000  -3.832522e+001  -3.036020e+001 
4350000000  -3.846677e+001  -3.910482e+001 
4353125000  -3.904795e+001  -4.402473e+001 
4356250000  -4.087403e+001  -4.015261e+001 
4359375000  -3.980793e+001  -2.691806e+001 
4362500000  -3.631126e+001  -3.764156e+001 
4365625000  -3.561396e+001  -5.357694e+001 
4368750000  -3.714305e+001  -6.124632e+001 
4371875000  -3.806785e+001  -6.424291e+001 
4375000000  -3.715247e+001  -6.680292e+001 
4378125000  -3.699611e+001  -7.557996e+001 
4381250000  -3.728832e+001  -8.423244e+001 
4384375000  -3.711172e+001  -8.928971e+001 
4387500000  -3.812221e+001  -9.659791e+001 
4390625000  -3.845901e+001  -9.606312e+001 
4393750000  -3.799931e+001  -9.712045e+001 
4396875000  -3.721084e+001  -1.020471e+002 
4400000000  -3.679088e+001  -1.119218e+002 
4403125000  -3.796654e+001  -1.208309e+002 
4406250000  -3.838198e+001  -1.229257e+002 
4409375000  -3.864804e+001  -1.260742e+002 
4412500000  -3.995725e+001  -1.304165e+002 
4415625000  -3.930806e+001  -1.257987e+002 
