!Agilent Technologies,E8363B,MY43030201,A.06.04.32
!Agilent E8363B: A.06.04.32
!Date: Tuesday, November 11, 2014 21:35:48
!Correction: S21(Response(S21)) 
!S1P File: Measurement: S21:
# Hz S  dB   R 50
3000000000  -4.067812e+001  7.159697e+001 
3003125000  -4.224646e+001  6.474120e+001 
3006250000  -4.233245e+001  6.406563e+001 
3009375000  -4.276030e+001  6.862331e+001 
3012500000  -4.138315e+001  6.278164e+001 
3015625000  -4.146245e+001  5.667397e+001 
3018750000  -4.190987e+001  5.715545e+001 
3021875000  -4.008475e+001  5.841734e+001 
3025000000  -3.889930e+001  5.458134e+001 
3028125000  -3.793927e+001  4.394921e+001 
3031250000  -3.699762e+001  3.172852e+001 
3034375000  -3.678284e+001  1.767417e+001 
3037500000  -3.756310e+001  7.048817e+000 
3040625000  -3.881040e+001  1.560766e+000 
3043750000  -3.914412e+001  -4.265654e+000 
3046875000  -3.982981e+001  -1.005203e+001 
3050000000  -4.099180e+001  -1.481863e+001 
3053125000  -4.050453e+001  -8.789713e+000 
3056250000  -4.053369e+001  -6.556091e+000 
3059375000  -3.961155e+001  -9.600619e+000 
3062500000  -3.815749e+001  -1.342264e+001 
3065625000  -3.785083e+001  -2.293744e+001 
3068750000  -3.753310e+001  -3.156865e+001 
3071875000  -3.756412e+001  -3.370637e+001 
3075000000  -3.694669e+001  -4.021421e+001 
3078125000  -3.701027e+001  -4.784651e+001 
3081250000  -3.715454e+001  -5.356027e+001 
3084375000  -3.645496e+001  -5.734793e+001 
3087500000  -3.642715e+001  -6.506087e+001 
3090625000  -3.589868e+001  -7.693109e+001 
3093750000  -3.699728e+001  -8.446839e+001 
3096875000  -3.727710e+001  -9.089882e+001 
3100000000  -3.724316e+001  -9.275135e+001 
3103125000  -3.743850e+001  -9.581515e+001 
3106250000  -3.714731e+001  -1.017542e+002 
3109375000  -3.719704e+001  -1.054582e+002 
3112500000  -3.717639e+001  -1.111698e+002 
3115625000  -3.709879e+001  -1.152812e+002 
3118750000  -3.719138e+001  -1.179568e+002 
3121875000  -3.660001e+001  -1.297133e+002 
3125000000  -3.848210e+001  -1.322153e+002 
3128125000  -3.855413e+001  -1.253124e+002 
3131250000  -3.610379e+001  -1.318087e+002 
3134375000  -3.540411e+001  -1.488855e+002 
3137500000  -3.611182e+001  -1.608074e+002 
3140625000  -3.726125e+001  -1.636066e+002 
3143750000  -3.806263e+001  -1.666418e+002 
3146875000  -3.755465e+001  -1.638357e+002 
3150000000  -3.693185e+001  -1.677996e+002 
3153125000  -3.720003e+001  -1.772137e+002 
3156250000  -3.799215e+001  -1.720198e+002 
3159375000  -3.573043e+001  -1.739870e+002 
3162500000  -3.413794e+001  1.701917e+002 
3165625000  -3.543922e+001  1.578784e+002 
3168750000  -3.539013e+001  1.564395e+002 
3171875000  -3.488291e+001  1.494290e+002 
3175000000  -3.548629e+001  1.401177e+002 
3178125000  -3.496807e+001  1.392169e+002 
3181250000  -3.436627e+001  1.302935e+002 
3184375000  -3.420329e+001  1.196487e+002 
3187500000  -3.541389e+001  1.039937e+002 
3190625000  -3.711586e+001  9.820742e+001 
3193750000  -3.732163e+001  1.030811e+002 
3196875000  -3.731754e+001  1.046416e+002 
3200000000  -3.627137e+001  9.880556e+001 
3203125000  -3.588796e+001  9.132367e+001 
3206250000  -3.609760e+001  8.323218e+001 
3209375000  -3.580706e+001  7.543858e+001 
3212500000  -3.619775e+001  6.876872e+001 
3215625000  -3.609510e+001  6.686729e+001 
3218750000  -3.676007e+001  5.427935e+001 
3221875000  -3.723220e+001  4.840697e+001 
3225000000  -3.703345e+001  4.422165e+001 
3228125000  -3.761569e+001  3.643708e+001 
3231250000  -3.818698e+001  3.530349e+001 
3234375000  -3.781368e+001  3.171811e+001 
3237500000  -3.802899e+001  2.762608e+001 
3240625000  -3.746798e+001  2.196735e+001 
3243750000  -3.764445e+001  1.207278e+001 
3246875000  -3.824172e+001  5.741560e+000 
3250000000  -3.879325e+001  1.918433e+000 
3253125000  -3.901812e+001  -1.768440e+000 
3256250000  -3.854247e+001  -9.897731e+000 
3259375000  -3.918396e+001  -2.128872e+001 
3262500000  -4.068081e+001  -2.478582e+001 
3265625000  -4.117353e+001  -2.126403e+001 
3268750000  -4.103176e+001  -2.107195e+001 
3271875000  -4.070734e+001  -2.539325e+001 
3275000000  -4.019410e+001  -3.405954e+001 
3278125000  -4.090609e+001  -3.777371e+001 
3281250000  -4.106399e+001  -3.986589e+001 
3284375000  -4.070568e+001  -4.533274e+001 
3287500000  -4.088518e+001  -4.933207e+001 
3290625000  -4.112043e+001  -5.718795e+001 
3293750000  -4.092373e+001  -6.335318e+001 
3296875000  -4.221887e+001  -6.449925e+001 
3300000000  -4.158511e+001  -6.264437e+001 
3303125000  -4.090581e+001  -7.210346e+001 
3306250000  -4.084532e+001  -7.746124e+001 
3309375000  -4.056067e+001  -8.569676e+001 
3312500000  -4.069362e+001  -9.748100e+001 
3315625000  -4.228762e+001  -1.041650e+002 
3318750000  -4.373325e+001  -1.094733e+002 
3321875000  -4.446466e+001  -1.052572e+002 
3325000000  -4.515030e+001  -9.850583e+001 
3328125000  -4.396183e+001  -9.925172e+001 
3331250000  -4.235657e+001  -9.698613e+001 
3334375000  -3.967529e+001  -1.125430e+002 
3337500000  -4.049885e+001  -1.319458e+002 
3340625000  -4.216863e+001  -1.416332e+002 
3343750000  -4.365964e+001  -1.387952e+002 
3346875000  -4.349069e+001  -1.394472e+002 
3350000000  -4.302777e+001  -1.439560e+002 
3353125000  -4.275163e+001  -1.507065e+002 
3356250000  -4.247521e+001  -1.595181e+002 
3359375000  -4.344642e+001  -1.727998e+002 
3362500000  -4.436976e+001  -1.754917e+002 
3365625000  -4.466776e+001  -1.782790e+002 
3368750000  -4.528855e+001  1.743343e+002 
3371875000  -4.581908e+001  1.732200e+002 
3375000000  -4.733970e+001  1.660826e+002 
3378125000  -4.818977e+001  1.690736e+002 
3381250000  -4.921690e+001  1.776813e+002 
3384375000  -4.697266e+001  -1.697524e+002 
3387500000  -4.383572e+001  1.700289e+002 
3390625000  -4.627033e+001  1.475869e+002 
3393750000  -4.716384e+001  1.533239e+002 
3396875000  -4.621594e+001  1.496278e+002 
3400000000  -4.622459e+001  1.423824e+002 
3403125000  -4.669982e+001  1.350178e+002 
3406250000  -4.792149e+001  1.319011e+002 
3409375000  -4.763884e+001  1.230420e+002 
3412500000  -4.872926e+001  1.157133e+002 
3415625000  -4.911188e+001  1.205290e+002 
3418750000  -4.991740e+001  1.143112e+002 
3421875000  -5.080999e+001  1.250461e+002 
3425000000  -4.996315e+001  1.201380e+002 
3428125000  -4.946210e+001  1.149990e+002 
3431250000  -4.968378e+001  1.046910e+002 
3434375000  -5.040694e+001  1.019316e+002 
3437500000  -5.161416e+001  1.013766e+002 
3440625000  -5.204568e+001  1.053240e+002 
3443750000  -5.036580e+001  1.022100e+002 
3446875000  -5.025198e+001  1.025204e+002 
3450000000  -5.003630e+001  9.225166e+001 
3453125000  -5.099771e+001  8.150600e+001 
3456250000  -5.242337e+001  8.088297e+001 
3459375000  -5.335768e+001  8.712022e+001 
3462500000  -5.203644e+001  8.821270e+001 
3465625000  -5.112471e+001  7.747671e+001 
3468750000  -5.190596e+001  8.114909e+001 
3471875000  -5.168679e+001  7.767920e+001 
3475000000  -5.134840e+001  6.962434e+001 
3478125000  -5.095906e+001  6.162053e+001 
3481250000  -5.267320e+001  6.319563e+001 
3484375000  -5.290089e+001  6.570056e+001 
3487500000  -5.148981e+001  5.628334e+001 
3490625000  -5.063594e+001  4.867387e+001 
3493750000  -5.167804e+001  4.737168e+001 
3496875000  -5.158345e+001  4.936173e+001 
3500000000  -5.156538e+001  4.696567e+001 
3503125000  -5.141642e+001  4.451749e+001 
3506250000  -4.947977e+001  3.654750e+001 
3509375000  -4.919171e+001  2.961534e+001 
3512500000  -5.018195e+001  1.443308e+001 
3515625000  -5.146443e+001  5.386024e+000 
3518750000  -5.206312e+001  7.784684e+000 
3521875000  -5.218505e+001  -6.552328e+000 
3525000000  -5.267918e+001  -5.133125e+000 
3528125000  -5.254384e+001  4.280123e+000 
3531250000  -5.139777e+001  -8.586534e-001 
3534375000  -5.345224e+001  -1.656812e+001 
3537500000  -5.398050e+001  -2.634950e+001 
3540625000  -5.503891e+001  -2.529000e+001 
3543750000  -5.606273e+001  -1.472417e+001 
3546875000  -5.614202e+001  -7.612259e+000 
3550000000  -5.323494e+001  -2.027887e+001 
3553125000  -5.426819e+001  -3.755494e+001 
3556250000  -5.623621e+001  -2.775525e+001 
3559375000  -5.534016e+001  -3.814508e+001 
3562500000  -5.599561e+001  -4.830878e+001 
3565625000  -5.729831e+001  -5.119367e+001 
3568750000  -5.731710e+001  -3.773238e+001 
3571875000  -5.788458e+001  -4.434391e+001 
3575000000  -5.915473e+001  -4.562979e+001 
3578125000  -6.026371e+001  -4.644474e+001 
3581250000  -5.897842e+001  -3.768790e+001 
3584375000  -5.661411e+001  -3.673659e+001 
3587500000  -5.653165e+001  -3.939865e+001 
3590625000  -5.893546e+001  -5.387263e+001 
3593750000  -5.943725e+001  -4.867918e+001 
3596875000  -5.865531e+001  -3.684405e+001 
3600000000  -5.787610e+001  -3.684062e+001 
3603125000  -5.912950e+001  -5.503285e+001 
3606250000  -5.725699e+001  -5.318494e+001 
3609375000  -5.860244e+001  -4.927773e+001 
3612500000  -5.759400e+001  -5.675658e+001 
3615625000  -6.052396e+001  -4.553062e+001 
3618750000  -5.905661e+001  -4.334017e+001 
3621875000  -5.708215e+001  -5.714639e+001 
3625000000  -5.901137e+001  -4.468929e+001 
3628125000  -5.591832e+001  -4.138045e+001 
3631250000  -5.637070e+001  -4.870257e+001 
3634375000  -5.661574e+001  -4.935200e+001 
3637500000  -5.542589e+001  -5.139318e+001 
3640625000  -5.352069e+001  -3.906858e+001 
3643750000  -5.338267e+001  -4.589772e+001 
3646875000  -5.317913e+001  -5.874491e+001 
3650000000  -5.295817e+001  -5.718289e+001 
3653125000  -5.218154e+001  -6.052359e+001 
3656250000  -5.177406e+001  -6.424116e+001 
3659375000  -5.183269e+001  -6.549229e+001 
3662500000  -5.058725e+001  -7.081564e+001 
3665625000  -4.949265e+001  -7.266949e+001 
3668750000  -4.870271e+001  -7.500003e+001 
3671875000  -4.763617e+001  -8.678028e+001 
3675000000  -4.751426e+001  -9.561842e+001 
3678125000  -4.749191e+001  -9.738553e+001 
3681250000  -4.675177e+001  -1.040990e+002 
3684375000  -4.662651e+001  -1.075980e+002 
3687500000  -4.652172e+001  -1.140858e+002 
3690625000  -4.695732e+001  -1.171582e+002 
3693750000  -4.731126e+001  -1.184175e+002 
3696875000  -4.642024e+001  -1.198951e+002 
3700000000  -4.505507e+001  -1.251321e+002 
3703125000  -4.537413e+001  -1.328552e+002 
3706250000  -4.581350e+001  -1.333885e+002 
3709375000  -4.465950e+001  -1.342791e+002 
3712500000  -4.363198e+001  -1.363009e+002 
3715625000  -4.189645e+001  -1.481791e+002 
3718750000  -4.179916e+001  -1.549702e+002 
3721875000  -4.114505e+001  -1.647807e+002 
3725000000  -4.178158e+001  -1.699109e+002 
3728125000  -4.137070e+001  -1.746199e+002 
3731250000  -4.066553e+001  1.799291e+002 
3734375000  -4.021802e+001  1.735153e+002 
3737500000  -4.078307e+001  1.624856e+002 
3740625000  -4.123255e+001  1.574619e+002 
3743750000  -4.054140e+001  1.509840e+002 
3746875000  -4.052356e+001  1.443038e+002 
3750000000  -4.089175e+001  1.394362e+002 
3753125000  -4.049352e+001  1.349265e+002 
3756250000  -4.068821e+001  1.348004e+002 
3759375000  -4.031566e+001  1.267479e+002 
3762500000  -4.042565e+001  1.221587e+002 
3765625000  -4.059053e+001  1.175327e+002 
3768750000  -4.043161e+001  1.164851e+002 
3771875000  -3.843281e+001  1.095055e+002 
3775000000  -3.854692e+001  9.778875e+001 
3778125000  -3.916172e+001  9.066835e+001 
3781250000  -3.901540e+001  8.711926e+001 
3784375000  -3.891168e+001  8.155782e+001 
3787500000  -3.838297e+001  7.681789e+001 
3790625000  -3.900935e+001  6.670101e+001 
3793750000  -3.902560e+001  6.199582e+001 
3796875000  -3.821516e+001  5.861625e+001 
3800000000  -3.643079e+001  5.309936e+001 
3803125000  -3.805410e+001  4.151289e+001 
3806250000  -3.894176e+001  3.675935e+001 
3809375000  -3.853183e+001  3.180019e+001 
3812500000  -3.830869e+001  2.182078e+001 
3815625000  -3.950137e+001  1.223103e+001 
3818750000  -4.075290e+001  1.546761e+001 
3821875000  -4.005562e+001  2.482989e+001 
3825000000  -3.830048e+001  1.969991e+001 
3828125000  -3.693484e+001  1.596609e+000 
3831250000  -3.827274e+001  -1.360399e+001 
3834375000  -4.044055e+001  -1.114367e+001 
3837500000  -4.081455e+001  -9.912194e+000 
3840625000  -3.879458e+001  -1.212341e+001 
3843750000  -3.831577e+001  -2.687707e+001 
3846875000  -3.981041e+001  -3.245617e+001 
3850000000  -4.069173e+001  -2.573414e+001 
3853125000  -4.001245e+001  -2.577827e+001 
3856250000  -3.931249e+001  -3.412682e+001 
3859375000  -3.847532e+001  -4.277696e+001 
3862500000  -3.852628e+001  -5.225479e+001 
3865625000  -3.900628e+001  -5.735516e+001 
3868750000  -3.861892e+001  -5.850505e+001 
3871875000  -3.788359e+001  -6.639677e+001 
3875000000  -3.830653e+001  -7.569685e+001 
3878125000  -3.961848e+001  -7.733157e+001 
3881250000  -3.928541e+001  -7.884555e+001 
3884375000  -3.881013e+001  -8.597977e+001 
3887500000  -3.912702e+001  -9.066135e+001 
3890625000  -3.952753e+001  -9.589426e+001 
3893750000  -3.943697e+001  -9.773446e+001 
3896875000  -4.006889e+001  -1.015677e+002 
3900000000  -3.975010e+001  -1.045085e+002 
3903125000  -3.952609e+001  -1.104031e+002 
3906250000  -3.894976e+001  -1.148912e+002 
3909375000  -3.824959e+001  -1.213669e+002 
3912500000  -3.910496e+001  -1.311895e+002 
3915625000  -4.010505e+001  -1.293925e+002 
3918750000  -4.009538e+001  -1.318365e+002 
3921875000  -3.957145e+001  -1.363466e+002 
3925000000  -3.867593e+001  -1.425787e+002 
3928125000  -3.822843e+001  -1.517286e+002 
3931250000  -3.909121e+001  -1.583546e+002 
3934375000  -3.947134e+001  -1.594756e+002 
3937500000  -4.021905e+001  -1.611949e+002 
3940625000  -3.988898e+001  -1.616926e+002 
3943750000  -3.885655e+001  -1.659241e+002 
3946875000  -3.856413e+001  -1.758557e+002 
3950000000  -3.965867e+001  1.754192e+002 
3953125000  -3.995432e+001  1.766359e+002 
3956250000  -3.896902e+001  1.755786e+002 
3959375000  -3.770365e+001  1.697626e+002 
3962500000  -3.756757e+001  1.607647e+002 
3965625000  -3.792278e+001  1.529855e+002 
3968750000  -3.858552e+001  1.426623e+002 
3971875000  -3.867713e+001  1.379089e+002 
3975000000  -3.838047e+001  1.354766e+002 
3978125000  -3.830402e+001  1.317413e+002 
3981250000  -3.840085e+001  1.230428e+002 
3984375000  -3.902086e+001  1.170448e+002 
3987500000  -3.950666e+001  1.129304e+002 
3990625000  -3.994677e+001  1.115969e+002 
3993750000  -3.982461e+001  1.054976e+002 
3996875000  -3.998103e+001  1.035347e+002 
4000000000  -4.074357e+001  9.789036e+001 
4003125000  -4.095475e+001  9.880750e+001 
4006250000  -3.917864e+001  9.640963e+001 
4009375000  -3.885104e+001  8.303532e+001 
4012500000  -4.021321e+001  7.539288e+001 
4015625000  -4.116123e+001  7.368835e+001 
4018750000  -4.122604e+001  7.411769e+001 
4021875000  -4.054024e+001  7.173249e+001 
4025000000  -4.013655e+001  6.499509e+001 
4028125000  -4.047809e+001  5.728139e+001 
4031250000  -4.128653e+001  5.327719e+001 
4034375000  -4.128170e+001  5.295525e+001 
4037500000  -4.100562e+001  5.532962e+001 
4040625000  -4.084331e+001  4.985692e+001 
4043750000  -4.105108e+001  4.614716e+001 
4046875000  -4.089559e+001  4.285468e+001 
4050000000  -4.053181e+001  3.874555e+001 
4053125000  -4.157899e+001  3.532394e+001 
4056250000  -4.193188e+001  3.894952e+001 
4059375000  -3.947641e+001  3.741931e+001 
4062500000  -3.866973e+001  2.751524e+001 
4065625000  -3.879028e+001  2.337799e+001 
4068750000  -3.837718e+001  1.592245e+001 
4071875000  -3.740717e+001  5.118929e+000 
4075000000  -3.847172e+001  -2.217453e+000 
4078125000  -3.871958e+001  -4.646328e+000 
4081250000  -3.834492e+001  -9.979168e+000 
4084375000  -3.821664e+001  -1.988008e+001 
4087500000  -3.859895e+001  -2.524953e+001 
4090625000  -3.918514e+001  -2.812265e+001 
4093750000  -3.867685e+001  -3.076357e+001 
4096875000  -3.871650e+001  -4.063541e+001 
4100000000  -3.988018e+001  -4.585983e+001 
4103125000  -4.081724e+001  -4.436995e+001 
4106250000  -4.017133e+001  -4.202782e+001 
4109375000  -3.909784e+001  -4.442130e+001 
4112500000  -3.856729e+001  -5.613069e+001 
4115625000  -3.955452e+001  -6.170573e+001 
4118750000  -3.885861e+001  -6.729967e+001 
4121875000  -3.902988e+001  -7.422698e+001 
4125000000  -3.977846e+001  -7.871297e+001 
4128125000  -4.107848e+001  -7.705771e+001 
4131250000  -3.971133e+001  -7.418179e+001 
4134375000  -3.740368e+001  -8.187896e+001 
4137500000  -3.804501e+001  -1.038339e+002 
4140625000  -4.051757e+001  -1.092183e+002 
4143750000  -4.170152e+001  -1.015432e+002 
4146875000  -4.031345e+001  -9.844752e+001 
4150000000  -3.961528e+001  -1.065221e+002 
4153125000  -4.013457e+001  -1.171772e+002 
4156250000  -4.110826e+001  -1.193667e+002 
4159375000  -4.123601e+001  -1.142647e+002 
4162500000  -3.993618e+001  -1.110756e+002 
4165625000  -3.883501e+001  -1.196152e+002 
4168750000  -3.865643e+001  -1.290128e+002 
4171875000  -3.846099e+001  -1.402587e+002 
4175000000  -3.934515e+001  -1.461394e+002 
4178125000  -3.957042e+001  -1.466730e+002 
4181250000  -3.923077e+001  -1.509350e+002 
4184375000  -3.953149e+001  -1.551458e+002 
4187500000  -3.956828e+001  -1.612325e+002 
4190625000  -3.960524e+001  -1.674059e+002 
4193750000  -4.049688e+001  -1.701913e+002 
4196875000  -4.168628e+001  -1.730684e+002 
4200000000  -4.239728e+001  -1.671403e+002 
4203125000  -4.089908e+001  -1.558607e+002 
4206250000  -3.736322e+001  -1.651529e+002 
4209375000  -3.736420e+001  1.707776e+002 
4212500000  -3.956476e+001  1.653728e+002 
4215625000  -4.026944e+001  1.715054e+002 
4218750000  -3.837493e+001  1.752005e+002 
4221875000  -3.677724e+001  1.632247e+002 
4225000000  -3.801427e+001  1.530691e+002 
4228125000  -3.782468e+001  1.511404e+002 
4231250000  -3.621532e+001  1.462591e+002 
4234375000  -3.625887e+001  1.347066e+002 
4237500000  -3.611761e+001  1.292560e+002 
4240625000  -3.616599e+001  1.182429e+002 
4243750000  -3.758738e+001  1.097722e+002 
4246875000  -3.825289e+001  1.089058e+002 
4250000000  -3.840192e+001  1.090118e+002 
4253125000  -3.799487e+001  1.063820e+002 
4256250000  -3.786917e+001  1.013349e+002 
4259375000  -3.765389e+001  9.619927e+001 
4262500000  -3.822136e+001  9.061288e+001 
4265625000  -3.787742e+001  8.910791e+001 
4268750000  -3.691378e+001  8.125134e+001 
4271875000  -3.677962e+001  7.204027e+001 
4275000000  -3.651463e+001  6.400055e+001 
4278125000  -3.754372e+001  5.113786e+001 
4281250000  -3.891360e+001  5.046907e+001 
4284375000  -3.887605e+001  4.658144e+001 
4287500000  -4.036140e+001  4.511099e+001 
4290625000  -4.050734e+001  5.301964e+001 
4293750000  -3.877024e+001  5.507986e+001 
4296875000  -3.771730e+001  3.963321e+001 
4300000000  -3.929892e+001  2.991541e+001 
4303125000  -3.980671e+001  3.633519e+001 
4306250000  -3.860091e+001  3.516901e+001 
4309375000  -3.749534e+001  3.013880e+001 
4312500000  -3.752898e+001  1.888497e+001 
4315625000  -3.819382e+001  1.090964e+001 
4318750000  -3.868153e+001  6.739070e+000 
4321875000  -3.845805e+001  8.426939e+000 
4325000000  -3.792457e+001  6.339888e+000 
4328125000  -3.712971e+001  -2.987795e+000 
4331250000  -3.753490e+001  -1.419478e+001 
4334375000  -3.820724e+001  -2.137712e+001 
4337500000  -3.967493e+001  -2.054333e+001 
4340625000  -3.956652e+001  -1.638402e+001 
4343750000  -3.854069e+001  -2.076968e+001 
4346875000  -3.844393e+001  -3.038541e+001 
4350000000  -3.838573e+001  -3.785876e+001 
4353125000  -3.896903e+001  -4.324224e+001 
4356250000  -4.106052e+001  -3.939371e+001 
4359375000  -4.028986e+001  -2.255658e+001 
4362500000  -3.616405e+001  -3.333251e+001 
4365625000  -3.606378e+001  -5.246584e+001 
4368750000  -3.705635e+001  -6.173445e+001 
4371875000  -3.779816e+001  -6.227967e+001 
4375000000  -3.713329e+001  -6.673473e+001 
4378125000  -3.675764e+001  -7.289484e+001 
4381250000  -3.725448e+001  -8.117046e+001 
4384375000  -3.717762e+001  -8.780823e+001 
4387500000  -3.816447e+001  -9.514949e+001 
4390625000  -3.860867e+001  -9.466687e+001 
4393750000  -3.799599e+001  -9.365391e+001 
4396875000  -3.719344e+001  -9.960267e+001 
4400000000  -3.683613e+001  -1.080280e+002 
4403125000  -3.797976e+001  -1.192355e+002 
4406250000  -3.831834e+001  -1.213977e+002 
4409375000  -3.870819e+001  -1.270721e+002 
4412500000  -3.983929e+001  -1.281784e+002 
4415625000  -3.932851e+001  -1.240388e+002 
