!Agilent Technologies,E8363B,MY43030201,A.06.04.32
!Agilent E8363B: A.06.04.32
!Date: Tuesday, November 11, 2014 21:29:35
!Correction: S21(Response(S21)) 
!S1P File: Measurement: S21:
# Hz S  dB   R 50
3000000000  -4.051231e+001  8.570690e+001 
3003125000  -4.207565e+001  7.838711e+001 
3006250000  -4.222512e+001  7.682858e+001 
3009375000  -4.264916e+001  8.164513e+001 
3012500000  -4.158218e+001  7.777180e+001 
3015625000  -4.116228e+001  7.080408e+001 
3018750000  -4.176286e+001  7.056599e+001 
3021875000  -4.033224e+001  7.102023e+001 
3025000000  -3.905134e+001  6.830975e+001 
3028125000  -3.784940e+001  5.814177e+001 
3031250000  -3.689906e+001  4.612877e+001 
3034375000  -3.670803e+001  3.294006e+001 
3037500000  -3.752073e+001  2.108588e+001 
3040625000  -3.867282e+001  1.607254e+001 
3043750000  -3.925438e+001  9.854177e+000 
3046875000  -3.964481e+001  3.209590e+000 
3050000000  -4.107200e+001  -1.076446e+000 
3053125000  -4.063890e+001  4.267259e+000 
3056250000  -4.035878e+001  6.163755e+000 
3059375000  -4.000746e+001  4.056176e+000 
3062500000  -3.825495e+001  9.335494e-001 
3065625000  -3.777317e+001  -1.037134e+001 
3068750000  -3.768594e+001  -1.745319e+001 
3071875000  -3.758066e+001  -2.052757e+001 
3075000000  -3.711399e+001  -2.646272e+001 
3078125000  -3.709886e+001  -3.293795e+001 
3081250000  -3.720797e+001  -3.894958e+001 
3084375000  -3.639482e+001  -4.360382e+001 
3087500000  -3.641057e+001  -4.978550e+001 
3090625000  -3.595841e+001  -6.152497e+001 
3093750000  -3.679887e+001  -6.991785e+001 
3096875000  -3.741536e+001  -7.539977e+001 
3100000000  -3.723225e+001  -7.877571e+001 
3103125000  -3.766333e+001  -8.258858e+001 
3106250000  -3.718808e+001  -8.715638e+001 
3109375000  -3.727530e+001  -9.103537e+001 
3112500000  -3.724470e+001  -9.704612e+001 
3115625000  -3.699882e+001  -1.007157e+002 
3118750000  -3.722976e+001  -1.043828e+002 
3121875000  -3.646887e+001  -1.153026e+002 
3125000000  -3.836848e+001  -1.185468e+002 
3128125000  -3.861555e+001  -1.115336e+002 
3131250000  -3.612194e+001  -1.177398e+002 
3134375000  -3.540788e+001  -1.344517e+002 
3137500000  -3.608094e+001  -1.465292e+002 
3140625000  -3.728354e+001  -1.495486e+002 
3143750000  -3.821901e+001  -1.517134e+002 
3146875000  -3.772014e+001  -1.502631e+002 
3150000000  -3.689635e+001  -1.524604e+002 
3153125000  -3.727613e+001  -1.623266e+002 
3156250000  -3.793120e+001  -1.589796e+002 
3159375000  -3.571766e+001  -1.591380e+002 
3162500000  -3.411870e+001  -1.749277e+002 
3165625000  -3.543118e+001  1.726349e+002 
3168750000  -3.542960e+001  1.707967e+002 
3171875000  -3.496032e+001  1.637428e+002 
3175000000  -3.551435e+001  1.547699e+002 
3178125000  -3.506126e+001  1.539132e+002 
3181250000  -3.441680e+001  1.446504e+002 
3184375000  -3.408971e+001  1.335979e+002 
3187500000  -3.527996e+001  1.185205e+002 
3190625000  -3.720010e+001  1.118922e+002 
3193750000  -3.750104e+001  1.171575e+002 
3196875000  -3.727166e+001  1.192145e+002 
3200000000  -3.626192e+001  1.130725e+002 
3203125000  -3.583194e+001  1.054581e+002 
3206250000  -3.625728e+001  9.757268e+001 
3209375000  -3.589429e+001  8.973164e+001 
3212500000  -3.632903e+001  8.330872e+001 
3215625000  -3.606911e+001  7.987968e+001 
3218750000  -3.699367e+001  6.995206e+001 
3221875000  -3.739132e+001  6.258136e+001 
3225000000  -3.706733e+001  5.982453e+001 
3228125000  -3.778177e+001  5.189985e+001 
3231250000  -3.833292e+001  4.966172e+001 
3234375000  -3.799490e+001  4.636327e+001 
3237500000  -3.822752e+001  4.234959e+001 
3240625000  -3.764684e+001  3.625748e+001 
3243750000  -3.776419e+001  2.757186e+001 
3246875000  -3.823446e+001  1.931439e+001 
3250000000  -3.882784e+001  1.594322e+001 
3253125000  -3.907634e+001  1.340537e+001 
3256250000  -3.859824e+001  4.041508e+000 
3259375000  -3.904881e+001  -6.302624e+000 
3262500000  -4.059822e+001  -8.324086e+000 
3265625000  -4.131836e+001  -6.478834e+000 
3268750000  -4.141311e+001  -4.312398e+000 
3271875000  -4.078444e+001  -1.000274e+001 
3275000000  -4.019603e+001  -1.798201e+001 
3278125000  -4.073403e+001  -2.364474e+001 
3281250000  -4.117449e+001  -2.230227e+001 
3284375000  -4.061612e+001  -3.130821e+001 
3287500000  -4.098796e+001  -3.329795e+001 
3290625000  -4.127634e+001  -4.248746e+001 
3293750000  -4.133693e+001  -4.780219e+001 
3296875000  -4.250166e+001  -4.869471e+001 
3300000000  -4.169742e+001  -4.815597e+001 
3303125000  -4.092602e+001  -5.524777e+001 
3306250000  -4.085953e+001  -6.213415e+001 
3309375000  -4.046950e+001  -7.034787e+001 
3312500000  -4.089548e+001  -8.127301e+001 
3315625000  -4.209117e+001  -9.036179e+001 
3318750000  -4.369265e+001  -9.476311e+001 
3321875000  -4.498585e+001  -9.205994e+001 
3325000000  -4.487679e+001  -8.694604e+001 
3328125000  -4.409325e+001  -8.673361e+001 
3331250000  -4.243602e+001  -8.205245e+001 
3334375000  -3.992381e+001  -9.597707e+001 
3337500000  -4.062167e+001  -1.172311e+002 
3340625000  -4.237696e+001  -1.249291e+002 
3343750000  -4.411905e+001  -1.276033e+002 
3346875000  -4.370938e+001  -1.273027e+002 
3350000000  -4.308394e+001  -1.273750e+002 
3353125000  -4.303836e+001  -1.368349e+002 
3356250000  -4.271489e+001  -1.446698e+002 
3359375000  -4.338450e+001  -1.564872e+002 
3362500000  -4.441903e+001  -1.606662e+002 
3365625000  -4.488532e+001  -1.648148e+002 
3368750000  -4.545522e+001  -1.688167e+002 
3371875000  -4.577975e+001  -1.717949e+002 
3375000000  -4.761996e+001  -1.781578e+002 
3378125000  -4.793593e+001  -1.760769e+002 
3381250000  -4.935671e+001  -1.682394e+002 
3384375000  -4.685283e+001  -1.551684e+002 
3387500000  -4.394319e+001  -1.733633e+002 
3390625000  -4.612304e+001  1.658431e+002 
3393750000  -4.748995e+001  1.682791e+002 
3396875000  -4.629415e+001  1.656566e+002 
3400000000  -4.607411e+001  1.535075e+002 
3403125000  -4.737077e+001  1.461594e+002 
3406250000  -4.761181e+001  1.439349e+002 
3409375000  -4.820023e+001  1.356001e+002 
3412500000  -4.839633e+001  1.312135e+002 
3415625000  -4.977530e+001  1.275933e+002 
3418750000  -5.021095e+001  1.308535e+002 
3421875000  -5.071894e+001  1.355585e+002 
3425000000  -5.073389e+001  1.310780e+002 
3428125000  -4.994729e+001  1.263436e+002 
3431250000  -5.017407e+001  1.181350e+002 
3434375000  -5.084064e+001  1.156068e+002 
3437500000  -5.231962e+001  1.127336e+002 
3440625000  -5.241552e+001  1.126079e+002 
3443750000  -5.058578e+001  1.244324e+002 
3446875000  -5.104076e+001  1.150137e+002 
3450000000  -5.085146e+001  1.066078e+002 
3453125000  -5.073888e+001  9.797684e+001 
3456250000  -5.243014e+001  9.819263e+001 
3459375000  -5.328091e+001  9.377056e+001 
3462500000  -5.260659e+001  1.013438e+002 
3465625000  -5.219923e+001  9.338657e+001 
3468750000  -5.269668e+001  9.469686e+001 
3471875000  -5.144545e+001  9.335039e+001 
3475000000  -5.159151e+001  8.788424e+001 
3478125000  -5.098077e+001  7.792353e+001 
3481250000  -5.262239e+001  7.066999e+001 
3484375000  -5.235113e+001  8.148219e+001 
3487500000  -5.120476e+001  7.788480e+001 
3490625000  -5.183792e+001  6.999641e+001 
3493750000  -5.134266e+001  6.610112e+001 
3496875000  -5.191323e+001  6.015162e+001 
3500000000  -5.280891e+001  6.373768e+001 
3503125000  -5.153438e+001  6.022493e+001 
3506250000  -4.998619e+001  5.354203e+001 
3509375000  -4.953092e+001  4.399508e+001 
3512500000  -5.095768e+001  2.860572e+001 
3515625000  -5.162072e+001  2.492678e+001 
3518750000  -5.225697e+001  2.921491e+001 
3521875000  -5.156954e+001  2.448401e+001 
3525000000  -5.401324e+001  1.478846e+001 
3528125000  -5.194582e+001  2.350383e+001 
3531250000  -5.200813e+001  1.631974e+001 
3534375000  -5.281940e+001  8.033136e-001 
3537500000  -5.392319e+001  -8.963341e+000 
3540625000  -5.510725e+001  -8.546896e+000 
3543750000  -5.587743e+001  4.982049e+000 
3546875000  -5.490436e+001  3.774643e-001 
3550000000  -5.470735e+001  -6.518414e+000 
3553125000  -5.527604e+001  -1.500989e+001 
3556250000  -5.608907e+001  -1.885827e+001 
3559375000  -5.648601e+001  -2.129083e+001 
3562500000  -5.575614e+001  -2.720389e+001 
3565625000  -5.717130e+001  -2.843476e+001 
3568750000  -5.708400e+001  -1.238329e+001 
3571875000  -5.736715e+001  -2.335734e+001 
3575000000  -5.881794e+001  -1.768884e+001 
3578125000  -5.857543e+001  -2.847374e+001 
3581250000  -5.776466e+001  -3.345951e+001 
3584375000  -5.764137e+001  -1.411926e+001 
3587500000  -5.935319e+001  -2.888272e+001 
3590625000  -5.953698e+001  -3.882539e+001 
3593750000  -5.926582e+001  -3.855427e+001 
3596875000  -5.767344e+001  -2.829878e+001 
3600000000  -5.713522e+001  -1.770239e+001 
3603125000  -5.753493e+001  -3.173542e+001 
3606250000  -5.852230e+001  -4.066575e+001 
3609375000  -5.805191e+001  -3.001674e+001 
3612500000  -5.920000e+001  -3.027529e+001 
3615625000  -5.806894e+001  -3.645318e+001 
3618750000  -5.896608e+001  -3.120476e+001 
3621875000  -5.779326e+001  -3.456109e+001 
3625000000  -5.737307e+001  -3.583344e+001 
3628125000  -5.643789e+001  -2.578344e+001 
3631250000  -5.568581e+001  -2.952887e+001 
3634375000  -5.611223e+001  -3.290488e+001 
3637500000  -5.518263e+001  -2.532384e+001 
3640625000  -5.461970e+001  -2.140529e+001 
3643750000  -5.278218e+001  -3.027043e+001 
3646875000  -5.251491e+001  -3.915577e+001 
3650000000  -5.207140e+001  -4.457067e+001 
3653125000  -5.142130e+001  -4.355759e+001 
3656250000  -5.182269e+001  -5.021212e+001 
3659375000  -5.100687e+001  -5.624009e+001 
3662500000  -5.042365e+001  -5.574442e+001 
3665625000  -4.989125e+001  -5.388358e+001 
3668750000  -4.794197e+001  -6.100491e+001 
3671875000  -4.690313e+001  -6.673300e+001 
3675000000  -4.727568e+001  -8.148507e+001 
3678125000  -4.750311e+001  -8.321249e+001 
3681250000  -4.653130e+001  -8.896633e+001 
3684375000  -4.658474e+001  -8.969703e+001 
3687500000  -4.659547e+001  -9.603630e+001 
3690625000  -4.646072e+001  -1.030961e+002 
3693750000  -4.706209e+001  -1.056819e+002 
3696875000  -4.653426e+001  -1.014311e+002 
3700000000  -4.506897e+001  -1.120612e+002 
3703125000  -4.521208e+001  -1.145653e+002 
3706250000  -4.609554e+001  -1.161117e+002 
3709375000  -4.523881e+001  -1.188717e+002 
3712500000  -4.348223e+001  -1.210550e+002 
3715625000  -4.203182e+001  -1.322587e+002 
3718750000  -4.207730e+001  -1.377554e+002 
3721875000  -4.142191e+001  -1.475555e+002 
3725000000  -4.178814e+001  -1.546728e+002 
3728125000  -4.158567e+001  -1.584555e+002 
3731250000  -4.085002e+001  -1.645552e+002 
3734375000  -4.024026e+001  -1.685357e+002 
3737500000  -4.072200e+001  1.798808e+002 
3740625000  -4.086898e+001  1.737096e+002 
3743750000  -4.063584e+001  1.682100e+002 
3746875000  -4.061673e+001  1.613917e+002 
3750000000  -4.100161e+001  1.573257e+002 
3753125000  -4.058414e+001  1.534606e+002 
3756250000  -4.080120e+001  1.503615e+002 
3759375000  -4.050006e+001  1.451798e+002 
3762500000  -4.008723e+001  1.386351e+002 
3765625000  -4.062995e+001  1.325592e+002 
3768750000  -4.027009e+001  1.340371e+002 
3771875000  -3.831998e+001  1.262882e+002 
3775000000  -3.859431e+001  1.157454e+002 
3778125000  -3.886484e+001  1.093983e+002 
3781250000  -3.911556e+001  1.044005e+002 
3784375000  -3.892306e+001  9.824207e+001 
3787500000  -3.845928e+001  9.400149e+001 
3790625000  -3.907372e+001  8.239329e+001 
3793750000  -3.921329e+001  8.048083e+001 
3796875000  -3.831500e+001  7.551476e+001 
3800000000  -3.629200e+001  7.122779e+001 
3803125000  -3.812230e+001  5.870862e+001 
3806250000  -3.881689e+001  5.370325e+001 
3809375000  -3.855994e+001  5.034496e+001 
3812500000  -3.836994e+001  4.136595e+001 
3815625000  -3.964330e+001  3.082944e+001 
3818750000  -4.082642e+001  3.103214e+001 
3821875000  -3.990968e+001  3.993173e+001 
3825000000  -3.854246e+001  3.859671e+001 
3828125000  -3.720657e+001  1.920475e+001 
3831250000  -3.832892e+001  4.616814e+000 
3834375000  -4.012690e+001  4.228354e+000 
3837500000  -4.064436e+001  9.306828e+000 
3840625000  -3.925468e+001  4.173130e+000 
3843750000  -3.826958e+001  -1.134069e+001 
3846875000  -4.002862e+001  -1.671550e+001 
3850000000  -4.079686e+001  -9.709063e+000 
3853125000  -4.005238e+001  -1.004413e+001 
3856250000  -3.950565e+001  -1.690485e+001 
3859375000  -3.902731e+001  -2.456255e+001 
3862500000  -3.846219e+001  -3.402202e+001 
3865625000  -3.900152e+001  -4.072908e+001 
3868750000  -3.882915e+001  -3.997498e+001 
3871875000  -3.802354e+001  -4.747877e+001 
3875000000  -3.844896e+001  -5.735556e+001 
3878125000  -3.951532e+001  -5.988942e+001 
3881250000  -3.946059e+001  -6.005459e+001 
3884375000  -3.875948e+001  -6.840198e+001 
3887500000  -3.903104e+001  -7.327244e+001 
3890625000  -3.967086e+001  -7.746056e+001 
3893750000  -3.965006e+001  -8.060175e+001 
3896875000  -4.016856e+001  -8.284937e+001 
3900000000  -3.995354e+001  -8.644087e+001 
3903125000  -3.969297e+001  -9.196036e+001 
3906250000  -3.907247e+001  -9.520988e+001 
3909375000  -3.836658e+001  -1.033048e+002 
3912500000  -3.920060e+001  -1.123130e+002 
3915625000  -4.021598e+001  -1.116801e+002 
3918750000  -3.982902e+001  -1.143435e+002 
3921875000  -3.942142e+001  -1.186754e+002 
3925000000  -3.862049e+001  -1.225280e+002 
3928125000  -3.820044e+001  -1.340113e+002 
3931250000  -3.891481e+001  -1.404939e+002 
3934375000  -3.958062e+001  -1.402626e+002 
3937500000  -4.001228e+001  -1.429901e+002 
3940625000  -4.005737e+001  -1.464624e+002 
3943750000  -3.888071e+001  -1.485200e+002 
3946875000  -3.828826e+001  -1.581631e+002 
3950000000  -3.955502e+001  -1.665765e+002 
3953125000  -4.001934e+001  -1.654637e+002 
3956250000  -3.888610e+001  -1.659396e+002 
3959375000  -3.810093e+001  -1.724689e+002 
3962500000  -3.757348e+001  1.798519e+002 
3965625000  -3.797197e+001  1.709978e+002 
3968750000  -3.871217e+001  1.630351e+002 
3971875000  -3.872602e+001  1.578079e+002 
3975000000  -3.851693e+001  1.522290e+002 
3978125000  -3.849295e+001  1.500728e+002 
3981250000  -3.870449e+001  1.424619e+002 
3984375000  -3.901773e+001  1.344307e+002 
3987500000  -3.982983e+001  1.310415e+002 
3990625000  -3.983749e+001  1.294735e+002 
3993750000  -4.012349e+001  1.260173e+002 
3996875000  -4.006520e+001  1.206440e+002 
4000000000  -4.074160e+001  1.169654e+002 
4003125000  -4.119344e+001  1.168266e+002 
4006250000  -3.966563e+001  1.165456e+002 
4009375000  -3.866816e+001  1.021328e+002 
4012500000  -4.007484e+001  9.264114e+001 
4015625000  -4.154979e+001  9.149734e+001 
4018750000  -4.162395e+001  9.238287e+001 
4021875000  -4.094008e+001  8.979777e+001 
4025000000  -4.065291e+001  8.285737e+001 
4028125000  -4.046338e+001  7.789799e+001 
4031250000  -4.116689e+001  7.345439e+001 
4034375000  -4.165012e+001  7.402055e+001 
4037500000  -4.109652e+001  7.100056e+001 
4040625000  -4.081774e+001  6.825230e+001 
4043750000  -4.153159e+001  6.571373e+001 
4046875000  -4.083187e+001  6.214602e+001 
4050000000  -4.078820e+001  5.676546e+001 
4053125000  -4.132104e+001  5.331015e+001 
4056250000  -4.163010e+001  5.865105e+001 
4059375000  -3.949375e+001  5.593953e+001 
4062500000  -3.898476e+001  4.787790e+001 
4065625000  -3.904514e+001  4.198801e+001 
4068750000  -3.837106e+001  3.627440e+001 
4071875000  -3.795882e+001  2.477327e+001 
4075000000  -3.858219e+001  1.748300e+001 
4078125000  -3.884525e+001  1.650366e+001 
4081250000  -3.838310e+001  1.137289e+001 
4084375000  -3.814889e+001  -8.986177e-001 
4087500000  -3.874397e+001  -7.471884e+000 
4090625000  -3.929760e+001  -8.783414e+000 
4093750000  -3.865522e+001  -1.014018e+001 
4096875000  -3.873018e+001  -2.104637e+001 
4100000000  -3.969020e+001  -2.787020e+001 
4103125000  -4.097104e+001  -2.475693e+001 
4106250000  -4.015396e+001  -2.307421e+001 
4109375000  -3.952622e+001  -2.503164e+001 
4112500000  -3.881392e+001  -3.546330e+001 
4115625000  -3.918829e+001  -4.288299e+001 
4118750000  -3.915313e+001  -4.633118e+001 
4121875000  -3.886892e+001  -5.410102e+001 
4125000000  -3.971537e+001  -6.045599e+001 
4128125000  -4.072690e+001  -5.883295e+001 
4131250000  -3.977976e+001  -5.375267e+001 
4134375000  -3.739363e+001  -6.295544e+001 
4137500000  -3.829155e+001  -8.297175e+001 
4140625000  -4.042802e+001  -8.813522e+001 
4143750000  -4.149533e+001  -8.378139e+001 
4146875000  -4.056040e+001  -8.078532e+001 
4150000000  -3.962811e+001  -8.831664e+001 
4153125000  -3.984224e+001  -9.750703e+001 
4156250000  -4.136816e+001  -1.002081e+002 
4159375000  -4.131770e+001  -9.429095e+001 
4162500000  -4.012379e+001  -9.305998e+001 
4165625000  -3.877479e+001  -9.960722e+001 
4168750000  -3.825949e+001  -1.097253e+002 
4171875000  -3.848532e+001  -1.196029e+002 
4175000000  -3.930044e+001  -1.257682e+002 
4178125000  -3.974406e+001  -1.269875e+002 
4181250000  -3.940868e+001  -1.326945e+002 
4184375000  -3.970353e+001  -1.338920e+002 
4187500000  -3.936896e+001  -1.394094e+002 
4190625000  -3.936045e+001  -1.473163e+002 
4193750000  -4.065984e+001  -1.563421e+002 
4196875000  -4.122587e+001  -1.513484e+002 
4200000000  -4.234229e+001  -1.484049e+002 
4203125000  -4.128981e+001  -1.382259e+002 
4206250000  -3.778120e+001  -1.437658e+002 
4209375000  -3.729374e+001  -1.667392e+002 
4212500000  -3.980038e+001  -1.741759e+002 
4215625000  -3.994194e+001  -1.701754e+002 
4218750000  -3.851354e+001  -1.670819e+002 
4221875000  -3.675646e+001  -1.774285e+002 
4225000000  -3.787762e+001  1.719675e+002 
4228125000  -3.797696e+001  1.742562e+002 
4231250000  -3.618480e+001  1.654312e+002 
4234375000  -3.649761e+001  1.541586e+002 
4237500000  -3.644288e+001  1.487220e+002 
4240625000  -3.638468e+001  1.392219e+002 
4243750000  -3.748997e+001  1.308459e+002 
4246875000  -3.853698e+001  1.303251e+002 
4250000000  -3.843116e+001  1.279453e+002 
4253125000  -3.815765e+001  1.268775e+002 
4256250000  -3.808012e+001  1.214554e+002 
4259375000  -3.769059e+001  1.144200e+002 
4262500000  -3.795312e+001  1.095435e+002 
4265625000  -3.797691e+001  1.075676e+002 
4268750000  -3.695961e+001  1.018031e+002 
4271875000  -3.674442e+001  9.216202e+001 
4275000000  -3.670210e+001  8.411162e+001 
4278125000  -3.765956e+001  7.193988e+001 
4281250000  -3.919893e+001  7.052626e+001 
4284375000  -3.885208e+001  6.851785e+001 
4287500000  -4.038181e+001  6.512907e+001 
4290625000  -4.069388e+001  7.317673e+001 
4293750000  -3.887330e+001  7.403745e+001 
4296875000  -3.769103e+001  6.032986e+001 
4300000000  -3.917606e+001  5.158179e+001 
4303125000  -3.979864e+001  5.398031e+001 
4306250000  -3.892174e+001  5.722176e+001 
4309375000  -3.778837e+001  5.083974e+001 
4312500000  -3.756627e+001  4.057718e+001 
4315625000  -3.810393e+001  3.006649e+001 
4318750000  -3.864374e+001  2.798552e+001 
4321875000  -3.858318e+001  2.822940e+001 
4325000000  -3.813340e+001  2.661986e+001 
4328125000  -3.744333e+001  1.746958e+001 
4331250000  -3.766982e+001  6.265106e+000 
4334375000  -3.833257e+001  2.756326e-001 
4337500000  -3.944724e+001  -1.157365e+000 
4340625000  -3.958829e+001  3.487513e+000 
4343750000  -3.884469e+001  2.670034e+000 
4346875000  -3.854562e+001  -8.626678e+000 
4350000000  -3.830210e+001  -1.642610e+001 
4353125000  -3.895206e+001  -2.379843e+001 
4356250000  -4.105507e+001  -1.900441e+001 
4359375000  -4.016338e+001  -8.106839e+000 
4362500000  -3.669278e+001  -1.277714e+001 
4365625000  -3.630613e+001  -3.272955e+001 
4368750000  -3.719400e+001  -4.208762e+001 
4371875000  -3.847916e+001  -4.178328e+001 
4375000000  -3.731463e+001  -4.579472e+001 
4378125000  -3.717015e+001  -5.027731e+001 
4381250000  -3.718316e+001  -5.895790e+001 
4384375000  -3.722852e+001  -6.565993e+001 
4387500000  -3.811198e+001  -7.327415e+001 
4390625000  -3.871432e+001  -7.406847e+001 
4393750000  -3.806752e+001  -7.467422e+001 
4396875000  -3.740473e+001  -7.975593e+001 
4400000000  -3.702162e+001  -8.905492e+001 
4403125000  -3.800070e+001  -9.838621e+001 
4406250000  -3.831321e+001  -1.024139e+002 
4409375000  -3.876118e+001  -1.046859e+002 
4412500000  -3.989886e+001  -1.069974e+002 
4415625000  -3.953558e+001  -1.037202e+002 
