!Agilent Technologies,E8363B,MY43030201,A.06.04.32
!Agilent E8363B: A.06.04.32
!Date: Tuesday, November 11, 2014 21:36:55
!Correction: S21(Response(S21)) 
!S1P File: Measurement: S21:
# Hz S  dB   R 50
3000000000  -4.074582e+001  7.098884e+001 
3003125000  -4.210294e+001  6.297817e+001 
3006250000  -4.215234e+001  6.345883e+001 
3009375000  -4.287882e+001  6.845446e+001 
3012500000  -4.136354e+001  6.243224e+001 
3015625000  -4.157651e+001  5.496443e+001 
3018750000  -4.180328e+001  5.624152e+001 
3021875000  -4.000100e+001  5.694002e+001 
3025000000  -3.892266e+001  5.258532e+001 
3028125000  -3.795488e+001  4.278996e+001 
3031250000  -3.692839e+001  3.043792e+001 
3034375000  -3.680098e+001  1.697539e+001 
3037500000  -3.757479e+001  5.976690e+000 
3040625000  -3.869886e+001  1.461873e+000 
3043750000  -3.929260e+001  -5.259264e+000 
3046875000  -3.992395e+001  -1.044016e+001 
3050000000  -4.083017e+001  -1.582898e+001 
3053125000  -4.046117e+001  -1.079883e+001 
3056250000  -4.051128e+001  -7.714003e+000 
3059375000  -3.975055e+001  -9.641316e+000 
3062500000  -3.819705e+001  -1.554768e+001 
3065625000  -3.798942e+001  -2.507113e+001 
3068750000  -3.756686e+001  -3.240938e+001 
3071875000  -3.773831e+001  -3.549778e+001 
3075000000  -3.701514e+001  -4.222850e+001 
3078125000  -3.708532e+001  -4.828396e+001 
3081250000  -3.723041e+001  -5.366274e+001 
3084375000  -3.633803e+001  -5.885619e+001 
3087500000  -3.645963e+001  -6.554808e+001 
3090625000  -3.587416e+001  -7.744456e+001 
3093750000  -3.710014e+001  -8.551025e+001 
3096875000  -3.727405e+001  -8.995557e+001 
3100000000  -3.722315e+001  -9.263396e+001 
3103125000  -3.748943e+001  -9.792491e+001 
3106250000  -3.715005e+001  -1.027155e+002 
3109375000  -3.714479e+001  -1.059644e+002 
3112500000  -3.720126e+001  -1.125166e+002 
3115625000  -3.716572e+001  -1.164025e+002 
3118750000  -3.722326e+001  -1.198766e+002 
3121875000  -3.659023e+001  -1.302724e+002 
3125000000  -3.852374e+001  -1.339297e+002 
3128125000  -3.845466e+001  -1.269690e+002 
3131250000  -3.609517e+001  -1.323260e+002 
3134375000  -3.538136e+001  -1.494914e+002 
3137500000  -3.622853e+001  -1.626830e+002 
3140625000  -3.721098e+001  -1.639118e+002 
3143750000  -3.812864e+001  -1.668758e+002 
3146875000  -3.754554e+001  -1.654628e+002 
3150000000  -3.688929e+001  -1.688392e+002 
3153125000  -3.730448e+001  -1.785682e+002 
3156250000  -3.779620e+001  -1.732478e+002 
3159375000  -3.560596e+001  -1.754408e+002 
3162500000  -3.428492e+001  1.689960e+002 
3165625000  -3.545875e+001  1.565222e+002 
3168750000  -3.536269e+001  1.553253e+002 
3171875000  -3.495710e+001  1.476818e+002 
3175000000  -3.554035e+001  1.389463e+002 
3178125000  -3.500687e+001  1.378082e+002 
3181250000  -3.433830e+001  1.288436e+002 
3184375000  -3.422209e+001  1.178195e+002 
3187500000  -3.537544e+001  1.026864e+002 
3190625000  -3.711995e+001  9.741604e+001 
3193750000  -3.742692e+001  1.026882e+002 
3196875000  -3.729372e+001  1.030842e+002 
3200000000  -3.623605e+001  9.865512e+001 
3203125000  -3.588968e+001  8.976345e+001 
3206250000  -3.609097e+001  8.255256e+001 
3209375000  -3.568937e+001  7.396366e+001 
3212500000  -3.622977e+001  6.807888e+001 
3215625000  -3.600503e+001  6.615155e+001 
3218750000  -3.679810e+001  5.390097e+001 
3221875000  -3.727608e+001  4.752538e+001 
3225000000  -3.705895e+001  4.331945e+001 
3228125000  -3.778960e+001  3.594086e+001 
3231250000  -3.820035e+001  3.406797e+001 
3234375000  -3.782684e+001  3.020877e+001 
3237500000  -3.803022e+001  2.621725e+001 
3240625000  -3.765344e+001  2.052235e+001 
3243750000  -3.749621e+001  1.111564e+001 
3246875000  -3.828074e+001  3.303074e+000 
3250000000  -3.871307e+001  8.301146e-001 
3253125000  -3.898910e+001  -1.179142e+000 
3256250000  -3.842751e+001  -1.085720e+001 
3259375000  -3.908701e+001  -2.114792e+001 
3262500000  -4.064841e+001  -2.685237e+001 
3265625000  -4.109202e+001  -2.232014e+001 
3268750000  -4.109525e+001  -2.173707e+001 
3271875000  -4.038717e+001  -2.568837e+001 
3275000000  -4.006955e+001  -3.422775e+001 
3278125000  -4.076556e+001  -3.940435e+001 
3281250000  -4.109984e+001  -4.093562e+001 
3284375000  -4.053651e+001  -4.680706e+001 
3287500000  -4.109695e+001  -5.136373e+001 
3290625000  -4.116626e+001  -5.962031e+001 
3293750000  -4.109925e+001  -6.432944e+001 
3296875000  -4.252985e+001  -6.577084e+001 
3300000000  -4.161120e+001  -6.598796e+001 
3303125000  -4.107597e+001  -7.132971e+001 
3306250000  -4.065536e+001  -7.867556e+001 
3309375000  -4.056542e+001  -8.618611e+001 
3312500000  -4.094130e+001  -9.977758e+001 
3315625000  -4.211888e+001  -1.049822e+002 
3318750000  -4.362078e+001  -1.085534e+002 
3321875000  -4.457542e+001  -1.062182e+002 
3325000000  -4.456418e+001  -9.822552e+001 
3328125000  -4.360592e+001  -9.676004e+001 
3331250000  -4.215828e+001  -9.707763e+001 
3334375000  -3.984773e+001  -1.115676e+002 
3337500000  -4.036277e+001  -1.318297e+002 
3340625000  -4.244392e+001  -1.441048e+002 
3343750000  -4.395538e+001  -1.428494e+002 
3346875000  -4.308819e+001  -1.410446e+002 
3350000000  -4.314529e+001  -1.474117e+002 
3353125000  -4.279247e+001  -1.520596e+002 
3356250000  -4.248318e+001  -1.619177e+002 
3359375000  -4.350573e+001  -1.715528e+002 
3362500000  -4.418105e+001  -1.761329e+002 
3365625000  -4.476272e+001  1.776793e+002 
3368750000  -4.536739e+001  1.755609e+002 
3371875000  -4.580526e+001  1.694661e+002 
3375000000  -4.777718e+001  1.683189e+002 
3378125000  -4.814534e+001  1.646693e+002 
3381250000  -4.972669e+001  1.780443e+002 
3384375000  -4.745928e+001  -1.721368e+002 
3387500000  -4.383497e+001  1.674282e+002 
3390625000  -4.608099e+001  1.490806e+002 
3393750000  -4.752233e+001  1.473510e+002 
3396875000  -4.587681e+001  1.514843e+002 
3400000000  -4.628965e+001  1.375837e+002 
3403125000  -4.717911e+001  1.335594e+002 
3406250000  -4.747331e+001  1.275443e+002 
3409375000  -4.781087e+001  1.195992e+002 
3412500000  -4.887372e+001  1.198460e+002 
3415625000  -4.937914e+001  1.160941e+002 
3418750000  -5.009237e+001  1.172772e+002 
3421875000  -5.068226e+001  1.136075e+002 
3425000000  -5.004750e+001  1.194920e+002 
3428125000  -4.962191e+001  1.134983e+002 
3431250000  -4.991892e+001  1.049401e+002 
3434375000  -5.094058e+001  1.014796e+002 
3437500000  -5.075185e+001  1.031589e+002 
3440625000  -5.209972e+001  9.879189e+001 
3443750000  -5.063215e+001  1.027061e+002 
3446875000  -5.083598e+001  9.916458e+001 
3450000000  -5.009452e+001  8.788873e+001 
3453125000  -5.106465e+001  8.156625e+001 
3456250000  -5.183059e+001  8.045957e+001 
3459375000  -5.270641e+001  8.095382e+001 
3462500000  -5.224689e+001  8.694919e+001 
3465625000  -5.150820e+001  8.036652e+001 
3468750000  -5.157241e+001  7.599803e+001 
3471875000  -5.174800e+001  7.875180e+001 
3475000000  -5.078765e+001  6.990356e+001 
3478125000  -5.093075e+001  6.346329e+001 
3481250000  -5.195674e+001  5.789658e+001 
3484375000  -5.231383e+001  6.213749e+001 
3487500000  -5.119522e+001  6.332333e+001 
3490625000  -5.020328e+001  5.182428e+001 
3493750000  -5.221124e+001  4.700540e+001 
3496875000  -5.102417e+001  4.324746e+001 
3500000000  -5.272374e+001  4.680890e+001 
3503125000  -5.048342e+001  3.823586e+001 
3506250000  -4.962575e+001  3.848025e+001 
3509375000  -4.969421e+001  2.399039e+001 
3512500000  -5.081021e+001  1.172815e+001 
3515625000  -5.134892e+001  7.626155e+000 
3518750000  -5.228182e+001  8.123343e+000 
3521875000  -5.309275e+001  -2.756011e+000 
3525000000  -5.355639e+001  -8.311710e+000 
3528125000  -5.246109e+001  5.943021e+000 
3531250000  -5.226328e+001  -4.309299e+000 
3534375000  -5.243747e+001  -1.624018e+001 
3537500000  -5.355021e+001  -2.640261e+001 
3540625000  -5.513903e+001  -2.632108e+001 
3543750000  -5.577110e+001  -1.794012e+001 
3546875000  -5.570893e+001  -1.686891e+001 
3550000000  -5.356218e+001  -2.070343e+001 
3553125000  -5.420285e+001  -3.343263e+001 
3556250000  -5.584596e+001  -3.600974e+001 
3559375000  -5.570392e+001  -3.309555e+001 
3562500000  -5.612466e+001  -5.471600e+001 
3565625000  -5.734029e+001  -4.991020e+001 
3568750000  -5.826895e+001  -4.940037e+001 
3571875000  -5.907822e+001  -3.790073e+001 
3575000000  -5.797385e+001  -5.034712e+001 
3578125000  -5.950512e+001  -4.553560e+001 
3581250000  -5.818010e+001  -4.709756e+001 
3584375000  -5.688341e+001  -4.320028e+001 
3587500000  -5.808366e+001  -4.866274e+001 
3590625000  -5.959103e+001  -7.172449e+001 
3593750000  -5.829585e+001  -5.533292e+001 
3596875000  -5.802253e+001  -3.681941e+001 
3600000000  -5.759770e+001  -4.099235e+001 
3603125000  -5.669978e+001  -6.264243e+001 
3606250000  -5.834984e+001  -5.779600e+001 
3609375000  -5.921505e+001  -6.116119e+001 
3612500000  -5.837230e+001  -5.193657e+001 
3615625000  -5.892017e+001  -5.157594e+001 
3618750000  -6.054193e+001  -4.982125e+001 
3621875000  -5.717829e+001  -5.461704e+001 
3625000000  -5.838746e+001  -3.692823e+001 
3628125000  -5.609216e+001  -4.547570e+001 
3631250000  -5.723774e+001  -5.165085e+001 
3634375000  -5.663272e+001  -4.564566e+001 
3637500000  -5.613716e+001  -5.192943e+001 
3640625000  -5.348512e+001  -4.334946e+001 
3643750000  -5.300791e+001  -4.891280e+001 
3646875000  -5.382236e+001  -6.454073e+001 
3650000000  -5.331266e+001  -6.136121e+001 
3653125000  -5.167082e+001  -6.216079e+001 
3656250000  -5.151910e+001  -6.850169e+001 
3659375000  -5.144669e+001  -6.371862e+001 
3662500000  -5.045755e+001  -7.069933e+001 
3665625000  -4.983657e+001  -7.481599e+001 
3668750000  -4.815945e+001  -7.498788e+001 
3671875000  -4.747976e+001  -8.709918e+001 
3675000000  -4.738255e+001  -9.882071e+001 
3678125000  -4.717073e+001  -9.688575e+001 
3681250000  -4.638266e+001  -1.007268e+002 
3684375000  -4.684099e+001  -1.074439e+002 
3687500000  -4.648832e+001  -1.157458e+002 
3690625000  -4.694901e+001  -1.222282e+002 
3693750000  -4.703944e+001  -1.216640e+002 
3696875000  -4.609281e+001  -1.196970e+002 
3700000000  -4.538752e+001  -1.274771e+002 
3703125000  -4.551349e+001  -1.350579e+002 
3706250000  -4.599600e+001  -1.351871e+002 
3709375000  -4.474564e+001  -1.346817e+002 
3712500000  -4.351068e+001  -1.400785e+002 
3715625000  -4.173115e+001  -1.492516e+002 
3718750000  -4.193842e+001  -1.566705e+002 
3721875000  -4.111095e+001  -1.656607e+002 
3725000000  -4.188328e+001  -1.728135e+002 
3728125000  -4.131597e+001  -1.763727e+002 
3731250000  -4.058121e+001  1.778433e+002 
3734375000  -4.036658e+001  1.712090e+002 
3737500000  -4.101724e+001  1.629777e+002 
3740625000  -4.103424e+001  1.546386e+002 
3743750000  -4.056835e+001  1.478076e+002 
3746875000  -4.070373e+001  1.427668e+002 
3750000000  -4.098022e+001  1.381240e+002 
3753125000  -4.073333e+001  1.350794e+002 
3756250000  -4.067414e+001  1.322819e+002 
3759375000  -4.041230e+001  1.252807e+002 
3762500000  -4.006835e+001  1.191059e+002 
3765625000  -4.076336e+001  1.143109e+002 
3768750000  -4.004121e+001  1.156547e+002 
3771875000  -3.854961e+001  1.074934e+002 
3775000000  -3.852073e+001  9.504386e+001 
3778125000  -3.886587e+001  9.026804e+001 
3781250000  -3.917819e+001  8.559482e+001 
3784375000  -3.878055e+001  8.084921e+001 
3787500000  -3.845868e+001  7.447083e+001 
3790625000  -3.911078e+001  6.498859e+001 
3793750000  -3.915450e+001  6.269893e+001 
3796875000  -3.802802e+001  5.769996e+001 
3800000000  -3.641685e+001  5.266216e+001 
3803125000  -3.800988e+001  3.879634e+001 
3806250000  -3.894965e+001  3.489903e+001 
3809375000  -3.821457e+001  3.162324e+001 
3812500000  -3.854689e+001  2.165075e+001 
3815625000  -3.973120e+001  1.221171e+001 
3818750000  -4.071647e+001  1.414126e+001 
3821875000  -4.018346e+001  2.326540e+001 
3825000000  -3.813456e+001  1.892092e+001 
3828125000  -3.698970e+001  5.770462e-001 
3831250000  -3.811419e+001  -1.370298e+001 
3834375000  -4.043745e+001  -1.406183e+001 
3837500000  -4.079270e+001  -1.025821e+001 
3840625000  -3.897054e+001  -1.457132e+001 
3843750000  -3.832373e+001  -2.793854e+001 
3846875000  -4.013001e+001  -3.432011e+001 
3850000000  -4.063603e+001  -2.732167e+001 
3853125000  -3.997826e+001  -2.877033e+001 
3856250000  -3.949838e+001  -3.521268e+001 
3859375000  -3.853770e+001  -4.377456e+001 
3862500000  -3.862564e+001  -5.405184e+001 
3865625000  -3.899678e+001  -5.790498e+001 
3868750000  -3.862982e+001  -5.891841e+001 
3871875000  -3.804334e+001  -6.808401e+001 
3875000000  -3.854089e+001  -7.573152e+001 
3878125000  -3.948021e+001  -8.085664e+001 
3881250000  -3.908337e+001  -7.915905e+001 
3884375000  -3.904073e+001  -8.835770e+001 
3887500000  -3.907624e+001  -9.348820e+001 
3890625000  -3.930090e+001  -9.651475e+001 
3893750000  -3.986766e+001  -9.970528e+001 
3896875000  -4.008671e+001  -1.024159e+002 
3900000000  -3.998963e+001  -1.054950e+002 
3903125000  -3.955790e+001  -1.107404e+002 
3906250000  -3.884270e+001  -1.130117e+002 
3909375000  -3.813428e+001  -1.231468e+002 
3912500000  -3.909933e+001  -1.320758e+002 
3915625000  -4.019062e+001  -1.336695e+002 
3918750000  -3.998920e+001  -1.338788e+002 
3921875000  -3.910360e+001  -1.384705e+002 
3925000000  -3.847020e+001  -1.438646e+002 
3928125000  -3.825118e+001  -1.526708e+002 
3931250000  -3.919173e+001  -1.586342e+002 
3934375000  -3.968628e+001  -1.612944e+002 
3937500000  -4.010397e+001  -1.637720e+002 
3940625000  -3.994580e+001  -1.645277e+002 
3943750000  -3.894899e+001  -1.667358e+002 
3946875000  -3.837368e+001  -1.777825e+002 
3950000000  -3.962887e+001  1.752366e+002 
3953125000  -4.013984e+001  1.753656e+002 
3956250000  -3.895370e+001  1.763489e+002 
3959375000  -3.771991e+001  1.675200e+002 
3962500000  -3.756701e+001  1.587551e+002 
3965625000  -3.784642e+001  1.508563e+002 
3968750000  -3.887665e+001  1.417020e+002 
3971875000  -3.867473e+001  1.370789e+002 
3975000000  -3.837905e+001  1.329352e+002 
3978125000  -3.856280e+001  1.295294e+002 
3981250000  -3.854940e+001  1.226155e+002 
3984375000  -3.898130e+001  1.163879e+002 
3987500000  -3.964080e+001  1.105869e+002 
3990625000  -3.983345e+001  1.107428e+002 
3993750000  -4.001984e+001  1.053257e+002 
3996875000  -3.991171e+001  1.007271e+002 
4000000000  -4.052846e+001  9.602285e+001 
4003125000  -4.108585e+001  9.870069e+001 
4006250000  -3.926573e+001  9.475757e+001 
4009375000  -3.859485e+001  8.018941e+001 
4012500000  -4.009595e+001  7.376801e+001 
4015625000  -4.172164e+001  7.274525e+001 
4018750000  -4.122237e+001  7.287902e+001 
4021875000  -4.061563e+001  7.017305e+001 
4025000000  -4.025282e+001  6.252318e+001 
4028125000  -4.038911e+001  5.745375e+001 
4031250000  -4.136453e+001  5.195871e+001 
4034375000  -4.127302e+001  5.212688e+001 
4037500000  -4.105749e+001  5.264541e+001 
4040625000  -4.096862e+001  4.847406e+001 
4043750000  -4.085288e+001  4.681104e+001 
4046875000  -4.076438e+001  4.049596e+001 
4050000000  -4.043943e+001  3.664480e+001 
4053125000  -4.127692e+001  3.414282e+001 
4056250000  -4.117609e+001  3.968237e+001 
4059375000  -3.936156e+001  3.477218e+001 
4062500000  -3.898923e+001  2.802763e+001 
4065625000  -3.886829e+001  2.171877e+001 
4068750000  -3.820732e+001  1.472448e+001 
4071875000  -3.804283e+001  4.936244e+000 
4075000000  -3.848457e+001  -2.710747e+000 
4078125000  -3.870482e+001  -5.360003e+000 
4081250000  -3.826365e+001  -1.018088e+001 
4084375000  -3.794020e+001  -2.083852e+001 
4087500000  -3.865556e+001  -2.646932e+001 
4090625000  -3.899366e+001  -2.883262e+001 
4093750000  -3.863624e+001  -3.084225e+001 
4096875000  -3.873040e+001  -4.178687e+001 
4100000000  -3.985925e+001  -4.914117e+001 
4103125000  -4.038062e+001  -4.563833e+001 
4106250000  -3.983698e+001  -4.338562e+001 
4109375000  -3.887428e+001  -4.716359e+001 
4112500000  -3.879493e+001  -5.572273e+001 
4115625000  -3.941288e+001  -6.278682e+001 
4118750000  -3.898664e+001  -6.802454e+001 
4121875000  -3.894623e+001  -7.640463e+001 
4125000000  -3.974693e+001  -8.028024e+001 
4128125000  -4.072312e+001  -8.098309e+001 
4131250000  -3.990619e+001  -7.378840e+001 
4134375000  -3.763819e+001  -8.403059e+001 
4137500000  -3.809296e+001  -1.047371e+002 
4140625000  -4.050903e+001  -1.110735e+002 
4143750000  -4.166970e+001  -1.036010e+002 
4146875000  -4.068602e+001  -9.954729e+001 
4150000000  -3.946991e+001  -1.094607e+002 
4153125000  -3.981590e+001  -1.202127e+002 
4156250000  -4.110810e+001  -1.215286e+002 
4159375000  -4.150110e+001  -1.148352e+002 
4162500000  -3.987038e+001  -1.139272e+002 
4165625000  -3.885592e+001  -1.224942e+002 
4168750000  -3.831808e+001  -1.303903e+002 
4171875000  -3.820709e+001  -1.411288e+002 
4175000000  -3.903797e+001  -1.460720e+002 
4178125000  -3.977132e+001  -1.477093e+002 
4181250000  -3.917185e+001  -1.529414e+002 
4184375000  -3.951593e+001  -1.570696e+002 
4187500000  -3.925544e+001  -1.619890e+002 
4190625000  -3.958064e+001  -1.685056e+002 
4193750000  -4.082164e+001  -1.747925e+002 
4196875000  -4.133135e+001  -1.759846e+002 
4200000000  -4.252241e+001  -1.703469e+002 
4203125000  -4.100395e+001  -1.557896e+002 
4206250000  -3.729160e+001  -1.670457e+002 
4209375000  -3.717153e+001  1.707693e+002 
4212500000  -3.965712e+001  1.638282e+002 
4215625000  -4.002338e+001  1.714799e+002 
4218750000  -3.814191e+001  1.714290e+002 
4221875000  -3.663242e+001  1.624125e+002 
4225000000  -3.794177e+001  1.514434e+002 
4228125000  -3.764809e+001  1.507044e+002 
4231250000  -3.631770e+001  1.441589e+002 
4234375000  -3.630969e+001  1.330014e+002 
4237500000  -3.608642e+001  1.289463e+002 
4240625000  -3.631754e+001  1.161939e+002 
4243750000  -3.747020e+001  1.064889e+002 
4246875000  -3.837180e+001  1.066467e+002 
4250000000  -3.808780e+001  1.065407e+002 
4253125000  -3.798837e+001  1.035724e+002 
4256250000  -3.805982e+001  9.984716e+001 
4259375000  -3.778244e+001  9.380809e+001 
4262500000  -3.785227e+001  8.943615e+001 
4265625000  -3.834226e+001  8.807526e+001 
4268750000  -3.676854e+001  7.916560e+001 
4271875000  -3.678473e+001  7.157690e+001 
4275000000  -3.661716e+001  6.230899e+001 
4278125000  -3.765366e+001  5.115221e+001 
4281250000  -3.903545e+001  4.986220e+001 
4284375000  -3.868878e+001  4.438541e+001 
4287500000  -4.049538e+001  4.357802e+001 
4290625000  -4.061105e+001  5.243615e+001 
4293750000  -3.857224e+001  5.348386e+001 
4296875000  -3.763733e+001  3.916159e+001 
4300000000  -3.931956e+001  2.881552e+001 
4303125000  -4.017985e+001  3.415118e+001 
4306250000  -3.854111e+001  3.402928e+001 
4309375000  -3.755879e+001  2.795787e+001 
4312500000  -3.749106e+001  1.699862e+001 
4315625000  -3.790902e+001  1.079954e+001 
4318750000  -3.876377e+001  5.218308e+000 
4321875000  -3.850534e+001  6.604328e+000 
4325000000  -3.825393e+001  5.215639e+000 
4328125000  -3.730280e+001  -4.858181e+000 
4331250000  -3.739543e+001  -1.641070e+001 
4334375000  -3.839367e+001  -2.335758e+001 
4337500000  -3.930828e+001  -2.283775e+001 
4340625000  -3.950139e+001  -1.796932e+001 
4343750000  -3.856492e+001  -2.100318e+001 
4346875000  -3.852888e+001  -2.964654e+001 
4350000000  -3.854084e+001  -3.869320e+001 
4353125000  -3.889601e+001  -4.482135e+001 
4356250000  -4.131758e+001  -4.050796e+001 
4359375000  -3.995824e+001  -2.778259e+001 
4362500000  -3.656188e+001  -3.422587e+001 
4365625000  -3.580095e+001  -5.313441e+001 
4368750000  -3.734998e+001  -6.162123e+001 
4371875000  -3.790366e+001  -6.291574e+001 
4375000000  -3.749130e+001  -6.668266e+001 
4378125000  -3.679836e+001  -7.418089e+001 
4381250000  -3.693878e+001  -8.252884e+001 
4384375000  -3.711824e+001  -8.848446e+001 
4387500000  -3.840669e+001  -9.592454e+001 
4390625000  -3.876339e+001  -9.662008e+001 
4393750000  -3.806341e+001  -9.576704e+001 
4396875000  -3.744744e+001  -1.008270e+002 
4400000000  -3.709781e+001  -1.110962e+002 
4403125000  -3.785789e+001  -1.206086e+002 
4406250000  -3.821172e+001  -1.229849e+002 
4409375000  -3.883941e+001  -1.280206e+002 
4412500000  -3.978695e+001  -1.296522e+002 
4415625000  -3.953883e+001  -1.253455e+002 
