!Agilent Technologies,E8363B,MY43030201,A.06.04.32
!Agilent E8363B: A.06.04.32
!Date: Tuesday, November 11, 2014 21:37:06
!Correction: S21(Response(S21)) 
!S1P File: Measurement: S21:
# Hz S  dB   R 50
3000000000  -4.059475e+001  7.063315e+001 
3003125000  -4.219030e+001  6.313126e+001 
3006250000  -4.220346e+001  6.209828e+001 
3009375000  -4.274474e+001  6.705435e+001 
3012500000  -4.142698e+001  6.103656e+001 
3015625000  -4.164289e+001  5.405756e+001 
3018750000  -4.171413e+001  5.697729e+001 
3021875000  -4.010854e+001  5.757333e+001 
3025000000  -3.874076e+001  5.263860e+001 
3028125000  -3.787757e+001  4.271148e+001 
3031250000  -3.686844e+001  2.976112e+001 
3034375000  -3.690033e+001  1.720254e+001 
3037500000  -3.765308e+001  5.930305e+000 
3040625000  -3.887067e+001  6.192071e-001 
3043750000  -3.922073e+001  -5.901330e+000 
3046875000  -3.983175e+001  -1.135508e+001 
3050000000  -4.095227e+001  -1.627678e+001 
3053125000  -4.052073e+001  -1.168453e+001 
3056250000  -4.062910e+001  -8.269333e+000 
3059375000  -3.977657e+001  -1.090481e+001 
3062500000  -3.820977e+001  -1.554833e+001 
3065625000  -3.784289e+001  -2.469661e+001 
3068750000  -3.756609e+001  -3.261598e+001 
3071875000  -3.766475e+001  -3.499497e+001 
3075000000  -3.700425e+001  -4.226839e+001 
3078125000  -3.703618e+001  -4.775594e+001 
3081250000  -3.727273e+001  -5.413820e+001 
3084375000  -3.634219e+001  -5.879517e+001 
3087500000  -3.632470e+001  -6.579491e+001 
3090625000  -3.590209e+001  -7.805754e+001 
3093750000  -3.707556e+001  -8.619608e+001 
3096875000  -3.736913e+001  -9.096111e+001 
3100000000  -3.717432e+001  -9.428292e+001 
3103125000  -3.748618e+001  -9.753286e+001 
3106250000  -3.713370e+001  -1.023062e+002 
3109375000  -3.718969e+001  -1.063465e+002 
3112500000  -3.703793e+001  -1.131477e+002 
3115625000  -3.708430e+001  -1.164080e+002 
3118750000  -3.728933e+001  -1.190577e+002 
3121875000  -3.651447e+001  -1.308077e+002 
3125000000  -3.866530e+001  -1.335349e+002 
3128125000  -3.839264e+001  -1.276755e+002 
3131250000  -3.594875e+001  -1.328119e+002 
3134375000  -3.545769e+001  -1.504259e+002 
3137500000  -3.610327e+001  -1.627262e+002 
3140625000  -3.739521e+001  -1.646013e+002 
3143750000  -3.806954e+001  -1.670938e+002 
3146875000  -3.765508e+001  -1.667849e+002 
3150000000  -3.679024e+001  -1.694981e+002 
3153125000  -3.712693e+001  -1.782656e+002 
3156250000  -3.794947e+001  -1.732461e+002 
3159375000  -3.566951e+001  -1.742526e+002 
3162500000  -3.426104e+001  1.694339e+002 
3165625000  -3.537928e+001  1.564117e+002 
3168750000  -3.529879e+001  1.559877e+002 
3171875000  -3.490823e+001  1.483775e+002 
3175000000  -3.541359e+001  1.387075e+002 
3178125000  -3.492419e+001  1.368341e+002 
3181250000  -3.437867e+001  1.286532e+002 
3184375000  -3.416321e+001  1.177525e+002 
3187500000  -3.544288e+001  1.015999e+002 
3190625000  -3.717360e+001  9.642832e+001 
3193750000  -3.740222e+001  1.021473e+002 
3196875000  -3.727988e+001  1.027573e+002 
3200000000  -3.608500e+001  9.821532e+001 
3203125000  -3.584193e+001  8.990649e+001 
3206250000  -3.606208e+001  8.286690e+001 
3209375000  -3.573543e+001  7.499043e+001 
3212500000  -3.637059e+001  6.744336e+001 
3215625000  -3.606099e+001  6.475485e+001 
3218750000  -3.689037e+001  5.327877e+001 
3221875000  -3.719851e+001  4.677542e+001 
3225000000  -3.700056e+001  4.309544e+001 
3228125000  -3.772861e+001  3.600228e+001 
3231250000  -3.828262e+001  3.368429e+001 
3234375000  -3.781064e+001  3.026666e+001 
3237500000  -3.801034e+001  2.670839e+001 
3240625000  -3.744477e+001  2.036540e+001 
3243750000  -3.761473e+001  1.106859e+001 
3246875000  -3.823068e+001  3.397622e+000 
3250000000  -3.877338e+001  2.579129e-001 
3253125000  -3.905385e+001  -3.970622e+000 
3256250000  -3.840978e+001  -1.130137e+001 
3259375000  -3.902364e+001  -2.198455e+001 
3262500000  -4.065276e+001  -2.577971e+001 
3265625000  -4.111068e+001  -2.418081e+001 
3268750000  -4.124986e+001  -2.180836e+001 
3271875000  -4.062744e+001  -2.649034e+001 
3275000000  -4.016927e+001  -3.457047e+001 
3278125000  -4.079259e+001  -3.972065e+001 
3281250000  -4.102572e+001  -4.077605e+001 
3284375000  -4.044213e+001  -4.813069e+001 
3287500000  -4.072990e+001  -5.036516e+001 
3290625000  -4.136164e+001  -5.863038e+001 
3293750000  -4.137528e+001  -6.439901e+001 
3296875000  -4.238412e+001  -6.665134e+001 
3300000000  -4.183448e+001  -6.459659e+001 
3303125000  -4.086990e+001  -7.132072e+001 
3306250000  -4.098465e+001  -7.872752e+001 
3309375000  -4.042377e+001  -8.621610e+001 
3312500000  -4.099799e+001  -9.893646e+001 
3315625000  -4.213259e+001  -1.063274e+002 
3318750000  -4.382947e+001  -1.105289e+002 
3321875000  -4.497601e+001  -1.047691e+002 
3325000000  -4.464655e+001  -9.890186e+001 
3328125000  -4.374178e+001  -1.017967e+002 
3331250000  -4.202959e+001  -9.799696e+001 
3334375000  -3.958348e+001  -1.119561e+002 
3337500000  -4.039309e+001  -1.337767e+002 
3340625000  -4.213313e+001  -1.432367e+002 
3343750000  -4.410660e+001  -1.407454e+002 
3346875000  -4.316793e+001  -1.438020e+002 
3350000000  -4.281458e+001  -1.459768e+002 
3353125000  -4.263563e+001  -1.521407e+002 
3356250000  -4.236013e+001  -1.605693e+002 
3359375000  -4.353614e+001  -1.728235e+002 
3362500000  -4.442070e+001  -1.783036e+002 
3365625000  -4.471390e+001  1.795691e+002 
3368750000  -4.520747e+001  1.744891e+002 
3371875000  -4.607542e+001  1.687581e+002 
3375000000  -4.739725e+001  1.659099e+002 
3378125000  -4.807996e+001  1.668898e+002 
3381250000  -4.950981e+001  1.772930e+002 
3384375000  -4.649968e+001  -1.670625e+002 
3387500000  -4.427139e+001  1.712790e+002 
3390625000  -4.618665e+001  1.495854e+002 
3393750000  -4.716082e+001  1.505677e+002 
3396875000  -4.618618e+001  1.486225e+002 
3400000000  -4.568478e+001  1.375606e+002 
3403125000  -4.685186e+001  1.321935e+002 
3406250000  -4.763030e+001  1.282045e+002 
3409375000  -4.824314e+001  1.235344e+002 
3412500000  -4.878933e+001  1.154779e+002 
3415625000  -4.941603e+001  1.140081e+002 
3418750000  -4.987656e+001  1.125302e+002 
3421875000  -5.098904e+001  1.179500e+002 
3425000000  -4.991969e+001  1.193871e+002 
3428125000  -4.993946e+001  1.142936e+002 
3431250000  -4.978976e+001  1.033098e+002 
3434375000  -5.098700e+001  9.813087e+001 
3437500000  -5.118078e+001  1.046601e+002 
3440625000  -5.207428e+001  1.103268e+002 
3443750000  -5.059704e+001  1.062795e+002 
3446875000  -5.020991e+001  9.732355e+001 
3450000000  -4.990664e+001  8.990684e+001 
3453125000  -5.117923e+001  8.026527e+001 
3456250000  -5.207124e+001  7.585925e+001 
3459375000  -5.375137e+001  7.902679e+001 
3462500000  -5.254564e+001  8.214735e+001 
3465625000  -5.185695e+001  7.633263e+001 
3468750000  -5.180535e+001  7.608174e+001 
3471875000  -5.148920e+001  7.495926e+001 
3475000000  -5.021334e+001  6.871822e+001 
3478125000  -5.100338e+001  6.152397e+001 
3481250000  -5.218221e+001  6.332523e+001 
3484375000  -5.221829e+001  6.013323e+001 
3487500000  -5.188767e+001  6.142185e+001 
3490625000  -5.089497e+001  5.257478e+001 
3493750000  -5.101082e+001  4.441433e+001 
3496875000  -5.192911e+001  4.446269e+001 
3500000000  -5.181670e+001  4.475189e+001 
3503125000  -5.059894e+001  4.013532e+001 
3506250000  -4.974384e+001  3.482433e+001 
3509375000  -4.907083e+001  2.089716e+001 
3512500000  -5.046591e+001  9.067414e+000 
3515625000  -5.114175e+001  7.209471e+000 
3518750000  -5.168233e+001  1.025824e+001 
3521875000  -5.246404e+001  -6.016856e-001 
3525000000  -5.320984e+001  -5.252553e+000 
3528125000  -5.198233e+001  -3.913404e-001 
3531250000  -5.247379e+001  -5.566628e+000 
3534375000  -5.250188e+001  -1.681475e+001 
3537500000  -5.363697e+001  -2.380478e+001 
3540625000  -5.514692e+001  -2.978803e+001 
3543750000  -5.508179e+001  -1.728521e+001 
3546875000  -5.568542e+001  -5.614324e+000 
3550000000  -5.403584e+001  -2.077358e+001 
3553125000  -5.373619e+001  -3.172452e+001 
3556250000  -5.567973e+001  -4.142215e+001 
3559375000  -5.489296e+001  -3.729760e+001 
3562500000  -5.619162e+001  -5.235580e+001 
3565625000  -5.707256e+001  -5.049754e+001 
3568750000  -5.651610e+001  -4.371507e+001 
3571875000  -5.900760e+001  -4.254815e+001 
3575000000  -6.109684e+001  -4.267539e+001 
3578125000  -6.038319e+001  -3.990252e+001 
3581250000  -5.806595e+001  -4.392020e+001 
3584375000  -5.719526e+001  -3.090023e+001 
3587500000  -5.718298e+001  -4.581433e+001 
3590625000  -5.836497e+001  -6.354885e+001 
3593750000  -5.932574e+001  -5.363988e+001 
3596875000  -5.945113e+001  -3.969394e+001 
3600000000  -5.803135e+001  -4.149633e+001 
3603125000  -5.777071e+001  -6.150674e+001 
3606250000  -5.937137e+001  -5.699825e+001 
3609375000  -5.913718e+001  -5.687658e+001 
3612500000  -5.793245e+001  -5.251447e+001 
3615625000  -5.874511e+001  -6.161595e+001 
3618750000  -5.956353e+001  -5.029214e+001 
3621875000  -5.606147e+001  -5.481475e+001 
3625000000  -6.121134e+001  -4.823629e+001 
3628125000  -5.703948e+001  -4.423677e+001 
3631250000  -5.750955e+001  -4.838724e+001 
3634375000  -5.638760e+001  -4.795729e+001 
3637500000  -5.544628e+001  -4.768387e+001 
3640625000  -5.361961e+001  -4.316274e+001 
3643750000  -5.307598e+001  -4.791328e+001 
3646875000  -5.336680e+001  -6.016434e+001 
3650000000  -5.267563e+001  -5.712859e+001 
3653125000  -5.350941e+001  -6.595198e+001 
3656250000  -5.097025e+001  -6.983093e+001 
3659375000  -5.256138e+001  -6.574549e+001 
3662500000  -5.096441e+001  -7.264153e+001 
3665625000  -5.084121e+001  -7.159752e+001 
3668750000  -4.818839e+001  -7.575544e+001 
3671875000  -4.748315e+001  -9.010958e+001 
3675000000  -4.777351e+001  -9.539778e+001 
3678125000  -4.773267e+001  -9.883981e+001 
3681250000  -4.641536e+001  -1.069179e+002 
3684375000  -4.672754e+001  -1.084973e+002 
3687500000  -4.659298e+001  -1.159052e+002 
3690625000  -4.709319e+001  -1.219902e+002 
3693750000  -4.697261e+001  -1.206438e+002 
3696875000  -4.661575e+001  -1.227429e+002 
3700000000  -4.504455e+001  -1.271578e+002 
3703125000  -4.531570e+001  -1.340093e+002 
3706250000  -4.626426e+001  -1.350665e+002 
3709375000  -4.502686e+001  -1.351673e+002 
3712500000  -4.350086e+001  -1.391076e+002 
3715625000  -4.184977e+001  -1.504506e+002 
3718750000  -4.175090e+001  -1.562381e+002 
3721875000  -4.114502e+001  -1.658054e+002 
3725000000  -4.153025e+001  -1.727769e+002 
3728125000  -4.119477e+001  -1.770842e+002 
3731250000  -4.079775e+001  1.773628e+002 
3734375000  -4.018487e+001  1.705254e+002 
3737500000  -4.074909e+001  1.614409e+002 
3740625000  -4.074397e+001  1.545169e+002 
3743750000  -4.049363e+001  1.480097e+002 
3746875000  -4.075684e+001  1.430045e+002 
3750000000  -4.091164e+001  1.387867e+002 
3753125000  -4.070377e+001  1.349202e+002 
3756250000  -4.103888e+001  1.322639e+002 
3759375000  -4.048264e+001  1.254963e+002 
3762500000  -4.020295e+001  1.182646e+002 
3765625000  -4.087982e+001  1.152143e+002 
3768750000  -4.015862e+001  1.163360e+002 
3771875000  -3.820154e+001  1.089934e+002 
3775000000  -3.868480e+001  9.486783e+001 
3778125000  -3.897998e+001  9.083994e+001 
3781250000  -3.886663e+001  8.518234e+001 
3784375000  -3.877615e+001  8.033623e+001 
3787500000  -3.863465e+001  7.425020e+001 
3790625000  -3.918745e+001  6.477628e+001 
3793750000  -3.920419e+001  6.239590e+001 
3796875000  -3.815184e+001  5.689871e+001 
3800000000  -3.644759e+001  5.220872e+001 
3803125000  -3.810904e+001  3.988752e+001 
3806250000  -3.883920e+001  3.484105e+001 
3809375000  -3.862999e+001  3.126327e+001 
3812500000  -3.853810e+001  2.169995e+001 
3815625000  -3.956190e+001  1.222191e+001 
3818750000  -4.066988e+001  1.322542e+001 
3821875000  -4.016600e+001  2.346177e+001 
3825000000  -3.822290e+001  1.966256e+001 
3828125000  -3.702796e+001  -2.436805e-001 
3831250000  -3.820916e+001  -1.341761e+001 
3834375000  -4.044455e+001  -1.465007e+001 
3837500000  -4.052360e+001  -1.169460e+001 
3840625000  -3.885717e+001  -1.363243e+001 
3843750000  -3.837816e+001  -2.875283e+001 
3846875000  -3.968330e+001  -3.431966e+001 
3850000000  -4.091021e+001  -2.762694e+001 
3853125000  -3.975370e+001  -2.714541e+001 
3856250000  -3.944977e+001  -3.620411e+001 
3859375000  -3.840643e+001  -4.359618e+001 
3862500000  -3.843811e+001  -5.469313e+001 
3865625000  -3.881414e+001  -5.703059e+001 
3868750000  -3.863611e+001  -5.955885e+001 
3871875000  -3.785232e+001  -6.758260e+001 
3875000000  -3.842321e+001  -7.771458e+001 
3878125000  -3.953532e+001  -8.111562e+001 
3881250000  -3.917519e+001  -7.937240e+001 
3884375000  -3.850835e+001  -8.665909e+001 
3887500000  -3.905854e+001  -9.408095e+001 
3890625000  -3.942363e+001  -9.781126e+001 
3893750000  -3.967984e+001  -9.924928e+001 
3896875000  -4.019633e+001  -1.021467e+002 
3900000000  -3.988668e+001  -1.067280e+002 
3903125000  -3.930378e+001  -1.103794e+002 
3906250000  -3.905057e+001  -1.127887e+002 
3909375000  -3.831485e+001  -1.222463e+002 
3912500000  -3.882203e+001  -1.318160e+002 
3915625000  -4.046053e+001  -1.316414e+002 
3918750000  -3.994837e+001  -1.336386e+002 
3921875000  -3.921435e+001  -1.396242e+002 
3925000000  -3.868171e+001  -1.444218e+002 
3928125000  -3.834233e+001  -1.527368e+002 
3931250000  -3.904332e+001  -1.606922e+002 
3934375000  -3.928954e+001  -1.608349e+002 
3937500000  -4.003675e+001  -1.620701e+002 
3940625000  -3.997613e+001  -1.637235e+002 
3943750000  -3.898087e+001  -1.692601e+002 
3946875000  -3.841978e+001  -1.774222e+002 
3950000000  -3.958456e+001  1.744753e+002 
3953125000  -3.991006e+001  1.744773e+002 
3956250000  -3.871640e+001  1.739991e+002 
3959375000  -3.770028e+001  1.682324e+002 
3962500000  -3.767218e+001  1.603953e+002 
3965625000  -3.768422e+001  1.488830e+002 
3968750000  -3.868902e+001  1.429710e+002 
3971875000  -3.853255e+001  1.383633e+002 
3975000000  -3.831733e+001  1.343537e+002 
3978125000  -3.851406e+001  1.278810e+002 
3981250000  -3.846377e+001  1.224686e+002 
3984375000  -3.909067e+001  1.142005e+002 
3987500000  -3.971674e+001  1.125696e+002 
3990625000  -3.990922e+001  1.105215e+002 
3993750000  -3.973111e+001  1.050396e+002 
3996875000  -3.998884e+001  1.009383e+002 
4000000000  -4.066288e+001  9.441676e+001 
4003125000  -4.096365e+001  9.858179e+001 
4006250000  -3.891555e+001  9.518312e+001 
4009375000  -3.876352e+001  8.043032e+001 
4012500000  -4.033989e+001  7.285056e+001 
4015625000  -4.143159e+001  7.219157e+001 
4018750000  -4.116568e+001  7.317152e+001 
4021875000  -4.074484e+001  6.762112e+001 
4025000000  -4.033445e+001  6.418193e+001 
4028125000  -4.048827e+001  5.464231e+001 
4031250000  -4.127035e+001  5.337167e+001 
4034375000  -4.147704e+001  5.067344e+001 
4037500000  -4.105959e+001  5.336594e+001 
4040625000  -4.105322e+001  4.791243e+001 
4043750000  -4.095404e+001  4.482369e+001 
4046875000  -4.068721e+001  4.118101e+001 
4050000000  -4.060685e+001  3.709225e+001 
4053125000  -4.161730e+001  3.428387e+001 
4056250000  -4.126677e+001  3.970023e+001 
4059375000  -3.951535e+001  3.514640e+001 
4062500000  -3.876727e+001  2.525714e+001 
4065625000  -3.893319e+001  2.200702e+001 
4068750000  -3.821080e+001  1.393923e+001 
4071875000  -3.783451e+001  3.425770e+000 
4075000000  -3.844750e+001  -2.204061e+000 
4078125000  -3.863538e+001  -5.149277e+000 
4081250000  -3.832075e+001  -1.066997e+001 
4084375000  -3.809451e+001  -2.106446e+001 
4087500000  -3.863948e+001  -2.766106e+001 
4090625000  -3.931674e+001  -2.877900e+001 
4093750000  -3.859965e+001  -3.137963e+001 
4096875000  -3.873386e+001  -4.123944e+001 
4100000000  -3.971721e+001  -4.884419e+001 
4103125000  -4.069545e+001  -4.676177e+001 
4106250000  -4.001239e+001  -4.219661e+001 
4109375000  -3.907664e+001  -4.605120e+001 
4112500000  -3.877768e+001  -5.619407e+001 
4115625000  -3.945726e+001  -6.193643e+001 
4118750000  -3.893404e+001  -6.778769e+001 
4121875000  -3.885302e+001  -7.605775e+001 
4125000000  -3.981337e+001  -8.095340e+001 
4128125000  -4.087630e+001  -7.780801e+001 
4131250000  -3.972849e+001  -7.383877e+001 
4134375000  -3.758466e+001  -8.456010e+001 
4137500000  -3.809377e+001  -1.037394e+002 
4140625000  -4.035192e+001  -1.107015e+002 
4143750000  -4.134358e+001  -1.019995e+002 
4146875000  -4.060117e+001  -1.024648e+002 
4150000000  -3.947373e+001  -1.085970e+002 
4153125000  -3.982514e+001  -1.193597e+002 
4156250000  -4.118757e+001  -1.211489e+002 
4159375000  -4.111423e+001  -1.157090e+002 
4162500000  -4.000532e+001  -1.126824e+002 
4165625000  -3.887142e+001  -1.218048e+002 
4168750000  -3.853247e+001  -1.306307e+002 
4171875000  -3.853064e+001  -1.412647e+002 
4175000000  -3.934871e+001  -1.466845e+002 
4178125000  -3.952913e+001  -1.487618e+002 
4181250000  -3.937501e+001  -1.533163e+002 
4184375000  -3.957888e+001  -1.576953e+002 
4187500000  -3.940949e+001  -1.618766e+002 
4190625000  -3.971365e+001  -1.703766e+002 
4193750000  -4.065058e+001  -1.752582e+002 
4196875000  -4.167091e+001  -1.737171e+002 
4200000000  -4.251392e+001  -1.680799e+002 
4203125000  -4.089854e+001  -1.577807e+002 
4206250000  -3.733815e+001  -1.666658e+002 
4209375000  -3.712841e+001  1.702896e+002 
4212500000  -3.980738e+001  1.633248e+002 
4215625000  -4.011746e+001  1.708500e+002 
4218750000  -3.829084e+001  1.713288e+002 
4221875000  -3.666105e+001  1.632613e+002 
4225000000  -3.796831e+001  1.500316e+002 
4228125000  -3.776279e+001  1.513382e+002 
4231250000  -3.613768e+001  1.437968e+002 
4234375000  -3.636435e+001  1.337011e+002 
4237500000  -3.630081e+001  1.282120e+002 
4240625000  -3.620481e+001  1.155415e+002 
4243750000  -3.754232e+001  1.086133e+002 
4246875000  -3.852872e+001  1.081479e+002 
4250000000  -3.821746e+001  1.095423e+002 
4253125000  -3.801178e+001  1.047855e+002 
4256250000  -3.807621e+001  1.021148e+002 
4259375000  -3.760728e+001  9.226188e+001 
4262500000  -3.791496e+001  8.891235e+001 
4265625000  -3.795066e+001  8.697529e+001 
4268750000  -3.695326e+001  8.042889e+001 
4271875000  -3.694234e+001  7.000378e+001 
4275000000  -3.664147e+001  6.305150e+001 
4278125000  -3.792087e+001  5.085442e+001 
4281250000  -3.894189e+001  4.991072e+001 
4284375000  -3.904778e+001  4.689587e+001 
4287500000  -4.050814e+001  4.504136e+001 
4290625000  -4.037756e+001  5.219463e+001 
4293750000  -3.847484e+001  5.128152e+001 
4296875000  -3.765184e+001  3.801750e+001 
4300000000  -3.916571e+001  2.975022e+001 
4303125000  -3.976208e+001  3.246070e+001 
4306250000  -3.867273e+001  3.552040e+001 
4309375000  -3.761966e+001  2.838878e+001 
4312500000  -3.754379e+001  1.736607e+001 
4315625000  -3.790800e+001  8.488301e+000 
4318750000  -3.838793e+001  6.087977e+000 
4321875000  -3.861011e+001  6.258165e+000 
4325000000  -3.810308e+001  3.934843e+000 
4328125000  -3.723362e+001  -4.987476e+000 
4331250000  -3.736688e+001  -1.510937e+001 
4334375000  -3.836167e+001  -2.163349e+001 
4337500000  -3.935639e+001  -2.177801e+001 
4340625000  -3.982544e+001  -1.639184e+001 
4343750000  -3.855614e+001  -2.254337e+001 
4346875000  -3.799094e+001  -2.948906e+001 
4350000000  -3.827442e+001  -3.858424e+001 
4353125000  -3.890803e+001  -4.602831e+001 
4356250000  -4.111574e+001  -4.003746e+001 
4359375000  -4.007204e+001  -2.621969e+001 
4362500000  -3.648701e+001  -3.553321e+001 
4365625000  -3.580476e+001  -5.328421e+001 
4368750000  -3.713212e+001  -6.296325e+001 
4371875000  -3.822255e+001  -6.430412e+001 
4375000000  -3.719840e+001  -6.757464e+001 
4378125000  -3.679181e+001  -7.568574e+001 
4381250000  -3.724720e+001  -8.374104e+001 
4384375000  -3.723267e+001  -9.025120e+001 
4387500000  -3.802724e+001  -9.523122e+001 
4390625000  -3.840774e+001  -9.625750e+001 
4393750000  -3.785210e+001  -9.625362e+001 
4396875000  -3.732932e+001  -1.020078e+002 
4400000000  -3.678713e+001  -1.108578e+002 
4403125000  -3.773623e+001  -1.202444e+002 
4406250000  -3.828199e+001  -1.234586e+002 
4409375000  -3.878020e+001  -1.275489e+002 
4412500000  -3.956745e+001  -1.308109e+002 
4415625000  -3.927985e+001  -1.270881e+002 
