!Agilent Technologies,E8363B,MY43030201,A.06.04.32
!Agilent E8363B: A.06.04.32
!Date: Tuesday, November 11, 2014 21:27:53
!Correction: S21(Response(S21)) 
!S1P File: Measurement: S21:
# Hz S  dB   R 50
3000000000  -4.051775e+001  9.254314e+001 
3003125000  -4.234775e+001  8.353152e+001 
3006250000  -4.212888e+001  8.332810e+001 
3009375000  -4.267376e+001  8.707478e+001 
3012500000  -4.171552e+001  8.317678e+001 
3015625000  -4.152718e+001  7.591589e+001 
3018750000  -4.192194e+001  7.614753e+001 
3021875000  -4.025326e+001  7.698941e+001 
3025000000  -3.904616e+001  7.250466e+001 
3028125000  -3.812513e+001  6.360054e+001 
3031250000  -3.697802e+001  5.169870e+001 
3034375000  -3.676385e+001  3.834520e+001 
3037500000  -3.742366e+001  2.648608e+001 
3040625000  -3.879960e+001  2.127135e+001 
3043750000  -3.921193e+001  1.454420e+001 
3046875000  -3.972829e+001  1.004418e+001 
3050000000  -4.095804e+001  4.236203e+000 
3053125000  -4.065903e+001  9.245044e+000 
3056250000  -4.030408e+001  1.109981e+001 
3059375000  -3.984693e+001  9.848607e+000 
3062500000  -3.817733e+001  5.334424e+000 
3065625000  -3.793129e+001  -4.763895e+000 
3068750000  -3.779490e+001  -1.207684e+001 
3071875000  -3.766302e+001  -1.456760e+001 
3075000000  -3.719733e+001  -2.060228e+001 
3078125000  -3.715328e+001  -2.670573e+001 
3081250000  -3.738233e+001  -3.298228e+001 
3084375000  -3.652571e+001  -3.748176e+001 
3087500000  -3.650874e+001  -4.381398e+001 
3090625000  -3.602189e+001  -5.657281e+001 
3093750000  -3.675708e+001  -6.473688e+001 
3096875000  -3.736380e+001  -7.023082e+001 
3100000000  -3.736301e+001  -7.342767e+001 
3103125000  -3.758136e+001  -7.632627e+001 
3106250000  -3.723838e+001  -8.213575e+001 
3109375000  -3.722547e+001  -8.607162e+001 
3112500000  -3.730567e+001  -9.094761e+001 
3115625000  -3.705951e+001  -9.681075e+001 
3118750000  -3.723744e+001  -9.815799e+001 
3121875000  -3.662022e+001  -1.102032e+002 
3125000000  -3.824615e+001  -1.136233e+002 
3128125000  -3.868713e+001  -1.060997e+002 
3131250000  -3.620596e+001  -1.122858e+002 
3134375000  -3.535309e+001  -1.279886e+002 
3137500000  -3.605162e+001  -1.412223e+002 
3140625000  -3.730365e+001  -1.448851e+002 
3143750000  -3.826131e+001  -1.463327e+002 
3146875000  -3.780120e+001  -1.448137e+002 
3150000000  -3.688538e+001  -1.478003e+002 
3153125000  -3.720528e+001  -1.568411e+002 
3156250000  -3.803311e+001  -1.534361e+002 
3159375000  -3.588332e+001  -1.531549e+002 
3162500000  -3.425008e+001  -1.696745e+002 
3165625000  -3.554843e+001  1.779229e+002 
3168750000  -3.542414e+001  1.768142e+002 
3171875000  -3.506904e+001  1.697408e+002 
3175000000  -3.558430e+001  1.605905e+002 
3178125000  -3.521232e+001  1.593153e+002 
3181250000  -3.435862e+001  1.515315e+002 
3184375000  -3.400732e+001  1.388463e+002 
3187500000  -3.513100e+001  1.232985e+002 
3190625000  -3.737465e+001  1.159005e+002 
3193750000  -3.762066e+001  1.239011e+002 
3196875000  -3.759561e+001  1.247376e+002 
3200000000  -3.633310e+001  1.189180e+002 
3203125000  -3.588457e+001  1.114457e+002 
3206250000  -3.634946e+001  1.034289e+002 
3209375000  -3.573279e+001  9.681667e+001 
3212500000  -3.626911e+001  8.871942e+001 
3215625000  -3.616171e+001  8.540343e+001 
3218750000  -3.691736e+001  7.518869e+001 
3221875000  -3.743496e+001  6.915073e+001 
3225000000  -3.704095e+001  6.500082e+001 
3228125000  -3.780967e+001  5.799685e+001 
3231250000  -3.829420e+001  5.508530e+001 
3234375000  -3.809050e+001  5.218883e+001 
3237500000  -3.808300e+001  4.803545e+001 
3240625000  -3.769551e+001  4.357256e+001 
3243750000  -3.767206e+001  3.365940e+001 
3246875000  -3.813706e+001  2.604334e+001 
3250000000  -3.881865e+001  2.195886e+001 
3253125000  -3.889725e+001  1.896555e+001 
3256250000  -3.857917e+001  1.010941e+001 
3259375000  -3.922773e+001  -1.622272e+000 
3262500000  -4.071925e+001  -4.364385e+000 
3265625000  -4.137420e+001  -1.117313e+000 
3268750000  -4.106771e+001  -3.349328e-001 
3271875000  -4.063338e+001  -3.286804e+000 
3275000000  -4.012140e+001  -1.199587e+001 
3278125000  -4.079561e+001  -1.683074e+001 
3281250000  -4.117871e+001  -1.665376e+001 
3284375000  -4.054073e+001  -2.243078e+001 
3287500000  -4.085339e+001  -2.830617e+001 
3290625000  -4.132105e+001  -3.600834e+001 
3293750000  -4.119441e+001  -4.093438e+001 
3296875000  -4.237932e+001  -4.214271e+001 
3300000000  -4.194683e+001  -4.261682e+001 
3303125000  -4.105053e+001  -4.926532e+001 
3306250000  -4.094367e+001  -5.671511e+001 
3309375000  -4.062906e+001  -6.287877e+001 
3312500000  -4.090277e+001  -7.630293e+001 
3315625000  -4.228391e+001  -8.299812e+001 
3318750000  -4.327358e+001  -8.685772e+001 
3321875000  -4.461853e+001  -8.453788e+001 
3325000000  -4.474824e+001  -7.704365e+001 
3328125000  -4.399568e+001  -7.864322e+001 
3331250000  -4.250100e+001  -7.597957e+001 
3334375000  -3.979003e+001  -8.715811e+001 
3337500000  -4.046215e+001  -1.096779e+002 
3340625000  -4.207148e+001  -1.202066e+002 
3343750000  -4.405405e+001  -1.187447e+002 
3346875000  -4.363313e+001  -1.195927e+002 
3350000000  -4.307907e+001  -1.218444e+002 
3353125000  -4.271237e+001  -1.276415e+002 
3356250000  -4.224970e+001  -1.380587e+002 
3359375000  -4.326648e+001  -1.490656e+002 
3362500000  -4.432939e+001  -1.543048e+002 
3365625000  -4.494382e+001  -1.575387e+002 
3368750000  -4.543370e+001  -1.615220e+002 
3371875000  -4.575416e+001  -1.673560e+002 
3375000000  -4.709828e+001  -1.710581e+002 
3378125000  -4.782210e+001  -1.722729e+002 
3381250000  -4.910927e+001  -1.638234e+002 
3384375000  -4.695879e+001  -1.467588e+002 
3387500000  -4.438344e+001  -1.652951e+002 
3390625000  -4.593203e+001  1.736986e+002 
3393750000  -4.708766e+001  1.733917e+002 
3396875000  -4.609495e+001  1.747308e+002 
3400000000  -4.570192e+001  1.625942e+002 
3403125000  -4.658492e+001  1.583778e+002 
3406250000  -4.765193e+001  1.545538e+002 
3409375000  -4.837278e+001  1.460154e+002 
3412500000  -4.838175e+001  1.380555e+002 
3415625000  -4.946325e+001  1.399733e+002 
3418750000  -5.010757e+001  1.366655e+002 
3421875000  -5.167787e+001  1.396861e+002 
3425000000  -4.985246e+001  1.407256e+002 
3428125000  -4.961011e+001  1.362817e+002 
3431250000  -5.040169e+001  1.298055e+002 
3434375000  -5.069167e+001  1.273439e+002 
3437500000  -5.196238e+001  1.250514e+002 
3440625000  -5.205052e+001  1.256754e+002 
3443750000  -5.006613e+001  1.260294e+002 
3446875000  -5.116739e+001  1.223569e+002 
3450000000  -4.958260e+001  1.168876e+002 
3453125000  -5.117577e+001  1.059737e+002 
3456250000  -5.232370e+001  1.011420e+002 
3459375000  -5.294287e+001  1.048587e+002 
3462500000  -5.228424e+001  1.079993e+002 
3465625000  -5.088780e+001  1.059514e+002 
3468750000  -5.123616e+001  9.934766e+001 
3471875000  -5.216720e+001  9.629016e+001 
3475000000  -5.104178e+001  9.729457e+001 
3478125000  -5.072541e+001  8.232658e+001 
3481250000  -5.160350e+001  8.183234e+001 
3484375000  -5.257262e+001  9.282439e+001 
3487500000  -5.149669e+001  7.821700e+001 
3490625000  -5.062183e+001  7.343781e+001 
3493750000  -5.074629e+001  6.757868e+001 
3496875000  -5.118695e+001  6.953487e+001 
3500000000  -5.133362e+001  6.910116e+001 
3503125000  -5.042105e+001  6.322003e+001 
3506250000  -4.954072e+001  6.104523e+001 
3509375000  -4.961552e+001  4.931512e+001 
3512500000  -5.024825e+001  3.956303e+001 
3515625000  -5.100574e+001  3.202652e+001 
3518750000  -5.176273e+001  3.437861e+001 
3521875000  -5.137802e+001  2.454497e+001 
3525000000  -5.269049e+001  2.165737e+001 
3528125000  -5.355946e+001  2.669725e+001 
3531250000  -5.138923e+001  1.647306e+001 
3534375000  -5.216925e+001  5.221838e+000 
3537500000  -5.236485e+001  -2.849817e+000 
3540625000  -5.464540e+001  -1.555242e+000 
3543750000  -5.488103e+001  2.240666e+000 
3546875000  -5.560651e+001  1.203173e+001 
3550000000  -5.279261e+001  5.209144e+000 
3553125000  -5.369581e+001  -1.385221e+001 
3556250000  -5.413054e+001  -9.642024e+000 
3559375000  -5.483806e+001  -1.562132e+001 
3562500000  -5.563183e+001  -2.508040e+001 
3565625000  -5.635997e+001  -2.552832e+001 
3568750000  -5.789269e+001  -2.038187e+001 
3571875000  -5.633955e+001  -2.291117e+001 
3575000000  -5.887887e+001  -3.347850e+001 
3578125000  -5.790661e+001  -2.502143e+001 
3581250000  -5.734936e+001  -2.507492e+001 
3584375000  -5.649359e+001  -2.201474e+001 
3587500000  -5.732828e+001  -2.540489e+001 
3590625000  -5.782206e+001  -4.398431e+001 
3593750000  -5.764334e+001  -2.620797e+001 
3596875000  -6.213786e+001  -3.747208e+001 
3600000000  -5.830494e+001  -3.236365e+001 
3603125000  -5.830490e+001  -4.513159e+001 
3606250000  -5.825457e+001  -3.590656e+001 
3609375000  -5.704546e+001  -2.514861e+001 
3612500000  -5.761451e+001  -3.664332e+001 
3615625000  -6.002363e+001  -3.312994e+001 
3618750000  -6.041151e+001  -2.547121e+001 
3621875000  -5.834687e+001  -3.752417e+001 
3625000000  -5.711382e+001  -2.348106e+001 
3628125000  -5.715757e+001  -2.107864e+001 
3631250000  -5.850198e+001  -2.979201e+001 
3634375000  -5.760855e+001  -2.390400e+001 
3637500000  -5.688503e+001  -1.769953e+001 
3640625000  -5.465261e+001  -2.444003e+001 
3643750000  -5.324262e+001  -2.790404e+001 
3646875000  -5.331161e+001  -3.582528e+001 
3650000000  -5.372270e+001  -3.969178e+001 
3653125000  -5.143913e+001  -4.086831e+001 
3656250000  -5.268998e+001  -4.249324e+001 
3659375000  -5.185410e+001  -4.609814e+001 
3662500000  -5.123498e+001  -5.001102e+001 
3665625000  -5.065089e+001  -5.058895e+001 
3668750000  -4.812684e+001  -5.133894e+001 
3671875000  -4.784987e+001  -6.545345e+001 
3675000000  -4.708567e+001  -7.531705e+001 
3678125000  -4.773610e+001  -7.445808e+001 
3681250000  -4.711953e+001  -8.236196e+001 
3684375000  -4.683237e+001  -8.488728e+001 
3687500000  -4.719444e+001  -8.926959e+001 
3690625000  -4.699638e+001  -9.817068e+001 
3693750000  -4.694936e+001  -9.813888e+001 
3696875000  -4.631131e+001  -9.941990e+001 
3700000000  -4.544272e+001  -1.043167e+002 
3703125000  -4.587455e+001  -1.120285e+002 
3706250000  -4.642167e+001  -1.091096e+002 
3709375000  -4.505885e+001  -1.099174e+002 
3712500000  -4.388036e+001  -1.144485e+002 
3715625000  -4.214257e+001  -1.249324e+002 
3718750000  -4.199263e+001  -1.327975e+002 
3721875000  -4.126484e+001  -1.393776e+002 
3725000000  -4.198730e+001  -1.473808e+002 
3728125000  -4.191653e+001  -1.519020e+002 
3731250000  -4.078659e+001  -1.562180e+002 
3734375000  -4.040318e+001  -1.629956e+002 
3737500000  -4.143908e+001  -1.727554e+002 
3740625000  -4.101977e+001  -1.797812e+002 
3743750000  -4.066415e+001  1.735830e+002 
3746875000  -4.077394e+001  1.685816e+002 
3750000000  -4.093840e+001  1.626469e+002 
3753125000  -4.042042e+001  1.618983e+002 
3756250000  -4.077779e+001  1.566766e+002 
3759375000  -4.047246e+001  1.512989e+002 
3762500000  -4.001909e+001  1.431928e+002 
3765625000  -4.081152e+001  1.392718e+002 
3768750000  -4.029166e+001  1.411328e+002 
3771875000  -3.855934e+001  1.320394e+002 
3775000000  -3.858498e+001  1.209698e+002 
3778125000  -3.916611e+001  1.155251e+002 
3781250000  -3.914799e+001  1.099915e+002 
3784375000  -3.884453e+001  1.054716e+002 
3787500000  -3.845749e+001  9.925376e+001 
3790625000  -3.923134e+001  8.917490e+001 
3793750000  -3.915728e+001  8.758422e+001 
3796875000  -3.843394e+001  8.329572e+001 
3800000000  -3.636692e+001  7.944453e+001 
3803125000  -3.805021e+001  6.461613e+001 
3806250000  -3.887726e+001  6.098828e+001 
3809375000  -3.871283e+001  5.689088e+001 
3812500000  -3.858343e+001  4.766974e+001 
3815625000  -3.946473e+001  3.715331e+001 
3818750000  -4.049432e+001  3.704607e+001 
3821875000  -4.030759e+001  4.723896e+001 
3825000000  -3.833612e+001  4.554385e+001 
3828125000  -3.699051e+001  2.574493e+001 
3831250000  -3.800660e+001  1.211723e+001 
3834375000  -4.028526e+001  1.028486e+001 
3837500000  -4.086909e+001  1.520843e+001 
3840625000  -3.937378e+001  1.301787e+001 
3843750000  -3.842937e+001  -2.451498e+000 
3846875000  -3.964331e+001  -8.837654e+000 
3850000000  -4.103180e+001  -2.107105e+000 
3853125000  -3.985252e+001  -2.395126e+000 
3856250000  -3.949659e+001  -1.022405e+001 
3859375000  -3.875421e+001  -1.638608e+001 
3862500000  -3.846300e+001  -2.652278e+001 
3865625000  -3.912834e+001  -3.308971e+001 
3868750000  -3.896643e+001  -3.242476e+001 
3871875000  -3.824994e+001  -3.830511e+001 
3875000000  -3.861680e+001  -5.039424e+001 
3878125000  -3.962281e+001  -5.327627e+001 
3881250000  -3.927980e+001  -5.176104e+001 
3884375000  -3.885105e+001  -5.776406e+001 
3887500000  -3.909763e+001  -6.482828e+001 
3890625000  -3.926854e+001  -7.086365e+001 
3893750000  -3.974320e+001  -7.285622e+001 
3896875000  -4.011884e+001  -7.635404e+001 
3900000000  -4.003951e+001  -8.062295e+001 
3903125000  -3.933132e+001  -8.376587e+001 
3906250000  -3.911085e+001  -8.708040e+001 
3909375000  -3.835958e+001  -9.733247e+001 
3912500000  -3.905254e+001  -1.047794e+002 
3915625000  -4.035139e+001  -1.054709e+002 
3918750000  -3.988115e+001  -1.078464e+002 
3921875000  -3.940886e+001  -1.111184e+002 
3925000000  -3.850734e+001  -1.159768e+002 
3928125000  -3.823246e+001  -1.259247e+002 
3931250000  -3.895359e+001  -1.314169e+002 
3934375000  -3.932679e+001  -1.327865e+002 
3937500000  -3.988651e+001  -1.365017e+002 
3940625000  -3.995919e+001  -1.381683e+002 
3943750000  -3.901683e+001  -1.406400e+002 
3946875000  -3.829507e+001  -1.496366e+002 
3950000000  -3.936062e+001  -1.603654e+002 
3953125000  -3.998423e+001  -1.571998e+002 
3956250000  -3.898224e+001  -1.600997e+002 
3959375000  -3.777960e+001  -1.645824e+002 
3962500000  -3.751126e+001  -1.713365e+002 
3965625000  -3.789855e+001  1.779207e+002 
3968750000  -3.879795e+001  1.705316e+002 
3971875000  -3.888644e+001  1.634888e+002 
3975000000  -3.849744e+001  1.607346e+002 
3978125000  -3.849355e+001  1.562686e+002 
3981250000  -3.835614e+001  1.499071e+002 
3984375000  -3.891758e+001  1.425168e+002 
3987500000  -3.992098e+001  1.395349e+002 
3990625000  -3.997044e+001  1.382944e+002 
3993750000  -4.007681e+001  1.335733e+002 
3996875000  -3.977514e+001  1.277974e+002 
4000000000  -4.052130e+001  1.244951e+002 
4003125000  -4.089044e+001  1.252470e+002 
4006250000  -3.934576e+001  1.248936e+002 
4009375000  -3.839470e+001  1.090328e+002 
4012500000  -4.032657e+001  1.021804e+002 
4015625000  -4.116270e+001  1.016606e+002 
4018750000  -4.123363e+001  1.006029e+002 
4021875000  -4.079287e+001  9.771857e+001 
4025000000  -4.028252e+001  9.225730e+001 
4028125000  -4.034875e+001  8.529726e+001 
4031250000  -4.108952e+001  8.140738e+001 
4034375000  -4.133954e+001  7.973777e+001 
4037500000  -4.104445e+001  8.151488e+001 
4040625000  -4.078310e+001  7.767068e+001 
4043750000  -4.109027e+001  7.421652e+001 
4046875000  -4.081672e+001  7.107533e+001 
4050000000  -4.037249e+001  6.584924e+001 
4053125000  -4.121659e+001  6.111227e+001 
4056250000  -4.141346e+001  6.610783e+001 
4059375000  -3.932915e+001  6.535184e+001 
4062500000  -3.851669e+001  5.562138e+001 
4065625000  -3.870408e+001  5.164463e+001 
4068750000  -3.803095e+001  4.287496e+001 
4071875000  -3.759153e+001  3.405809e+001 
4075000000  -3.801194e+001  2.642293e+001 
4078125000  -3.839208e+001  2.222528e+001 
4081250000  -3.800042e+001  1.909365e+001 
4084375000  -3.763733e+001  7.243259e+000 
4087500000  -3.828772e+001  1.018399e+000 
4090625000  -3.892746e+001  -3.276685e-001 
4093750000  -3.845297e+001  -1.805704e+000 
4096875000  -3.833396e+001  -1.255107e+001 
4100000000  -3.957260e+001  -1.840022e+001 
4103125000  -4.020405e+001  -1.889649e+001 
4106250000  -3.977415e+001  -1.470874e+001 
4109375000  -3.894534e+001  -1.875707e+001 
4112500000  -3.819599e+001  -2.651303e+001 
4115625000  -3.891837e+001  -3.383707e+001 
4118750000  -3.883777e+001  -3.784509e+001 
4121875000  -3.853499e+001  -4.624807e+001 
4125000000  -3.952948e+001  -5.360164e+001 
4128125000  -4.032446e+001  -5.023867e+001 
4131250000  -3.966350e+001  -4.601580e+001 
4134375000  -3.737525e+001  -5.456587e+001 
4137500000  -3.791058e+001  -7.536131e+001 
4140625000  -4.022784e+001  -8.460564e+001 
4143750000  -4.132492e+001  -7.783102e+001 
4146875000  -4.027156e+001  -7.144652e+001 
4150000000  -3.933219e+001  -8.071053e+001 
4153125000  -3.950494e+001  -8.864684e+001 
4156250000  -4.075753e+001  -9.275577e+001 
4159375000  -4.073666e+001  -8.759775e+001 
4162500000  -3.986379e+001  -8.527982e+001 
4165625000  -3.832692e+001  -9.313596e+001 
4168750000  -3.817678e+001  -1.004924e+002 
4171875000  -3.797093e+001  -1.117344e+002 
4175000000  -3.899702e+001  -1.186720e+002 
4178125000  -3.928899e+001  -1.212986e+002 
4181250000  -3.898266e+001  -1.231471e+002 
4184375000  -3.916147e+001  -1.286910e+002 
4187500000  -3.911965e+001  -1.315723e+002 
4190625000  -3.899193e+001  -1.403949e+002 
4193750000  -4.030512e+001  -1.446517e+002 
4196875000  -4.075990e+001  -1.476384e+002 
4200000000  -4.190358e+001  -1.429379e+002 
4203125000  -4.084330e+001  -1.288526e+002 
4206250000  -3.710757e+001  -1.356074e+002 
4209375000  -3.668255e+001  -1.599890e+002 
4212500000  -3.915528e+001  -1.673140e+002 
4215625000  -3.965997e+001  -1.599213e+002 
4218750000  -3.761105e+001  -1.588171e+002 
4221875000  -3.621773e+001  -1.692123e+002 
4225000000  -3.721468e+001  1.780473e+002 
4228125000  -3.731555e+001  -1.798287e+002 
4231250000  -3.584602e+001  1.738842e+002 
4234375000  -3.598282e+001  1.625060e+002 
4237500000  -3.574138e+001  1.564498e+002 
4240625000  -3.595144e+001  1.453805e+002 
4243750000  -3.678319e+001  1.373486e+002 
4246875000  -3.807832e+001  1.377032e+002 
4250000000  -3.778167e+001  1.383867e+002 
4253125000  -3.728156e+001  1.335081e+002 
4256250000  -3.753889e+001  1.279006e+002 
4259375000  -3.717488e+001  1.227728e+002 
4262500000  -3.732406e+001  1.163637e+002 
4265625000  -3.730244e+001  1.168522e+002 
4268750000  -3.629922e+001  1.095749e+002 
4271875000  -3.627166e+001  9.991077e+001 
4275000000  -3.599171e+001  9.078451e+001 
4278125000  -3.700935e+001  7.814865e+001 
4281250000  -3.821588e+001  7.648618e+001 
4284375000  -3.824432e+001  7.410519e+001 
4287500000  -3.975940e+001  6.876178e+001 
4290625000  -4.035951e+001  8.154182e+001 
4293750000  -3.830758e+001  8.077186e+001 
4296875000  -3.704908e+001  6.837395e+001 
4300000000  -3.844193e+001  5.721888e+001 
4303125000  -3.916175e+001  6.149628e+001 
4306250000  -3.804660e+001  6.348666e+001 
4309375000  -3.712899e+001  5.687368e+001 
4312500000  -3.733134e+001  4.456629e+001 
4315625000  -3.749586e+001  3.595103e+001 
4318750000  -3.808695e+001  3.413061e+001 
4321875000  -3.829979e+001  3.518102e+001 
4325000000  -3.736820e+001  3.266628e+001 
4328125000  -3.694540e+001  2.388375e+001 
4331250000  -3.713337e+001  1.325529e+001 
4334375000  -3.775642e+001  7.108789e+000 
4337500000  -3.905253e+001  5.769966e+000 
4340625000  -3.903189e+001  8.395073e+000 
4343750000  -3.816048e+001  6.880110e+000 
4346875000  -3.785596e+001  -8.262209e-001 
4350000000  -3.800781e+001  -9.859142e+000 
4353125000  -3.825703e+001  -1.801481e+001 
4356250000  -4.055887e+001  -1.663953e+001 
4359375000  -3.972637e+001  -2.282073e+000 
4362500000  -3.650708e+001  -9.060128e+000 
4365625000  -3.561972e+001  -2.569285e+001 
4368750000  -3.659647e+001  -3.395093e+001 
4371875000  -3.752813e+001  -3.544757e+001 
4375000000  -3.682206e+001  -3.828542e+001 
4378125000  -3.645377e+001  -4.636817e+001 
4381250000  -3.664155e+001  -5.425070e+001 
4384375000  -3.678136e+001  -6.105742e+001 
4387500000  -3.745026e+001  -6.777039e+001 
4390625000  -3.801243e+001  -6.814526e+001 
4393750000  -3.753255e+001  -6.724529e+001 
4396875000  -3.682004e+001  -7.272486e+001 
4400000000  -3.618318e+001  -8.204149e+001 
4403125000  -3.711074e+001  -9.341479e+001 
4406250000  -3.773872e+001  -9.342809e+001 
4409375000  -3.794452e+001  -1.003350e+002 
4412500000  -3.893624e+001  -1.050417e+002 
4415625000  -3.904776e+001  -9.869056e+001 
