!Agilent Technologies,E8363B,MY43030201,A.06.04.32
!Agilent E8363B: A.06.04.32
!Date: Tuesday, November 11, 2014 21:33:30
!Correction: S21(Response(S21)) 
!S1P File: Measurement: S21:
# Hz S  dB   R 50
3000000000  -4.055481e+001  7.394338e+001 
3003125000  -4.221895e+001  6.662783e+001 
3006250000  -4.223657e+001  6.564684e+001 
3009375000  -4.278034e+001  6.995231e+001 
3012500000  -4.139068e+001  6.591539e+001 
3015625000  -4.137272e+001  5.892315e+001 
3018750000  -4.183044e+001  6.009222e+001 
3021875000  -4.022840e+001  6.006049e+001 
3025000000  -3.880590e+001  5.724873e+001 
3028125000  -3.791561e+001  4.603979e+001 
3031250000  -3.697039e+001  3.405907e+001 
3034375000  -3.665242e+001  1.975035e+001 
3037500000  -3.757204e+001  9.542938e+000 
3040625000  -3.883282e+001  4.110904e+000 
3043750000  -3.904645e+001  -2.515867e+000 
3046875000  -3.986168e+001  -8.100656e+000 
3050000000  -4.092457e+001  -1.246117e+001 
3053125000  -4.043628e+001  -7.290705e+000 
3056250000  -4.035573e+001  -4.884601e+000 
3059375000  -3.968361e+001  -6.869713e+000 
3062500000  -3.844043e+001  -1.202921e+001 
3065625000  -3.799268e+001  -2.179428e+001 
3068750000  -3.767426e+001  -2.904038e+001 
3071875000  -3.760852e+001  -3.195637e+001 
3075000000  -3.693388e+001  -3.824921e+001 
3078125000  -3.722465e+001  -4.462429e+001 
3081250000  -3.714308e+001  -5.075219e+001 
3084375000  -3.639693e+001  -5.569974e+001 
3087500000  -3.650395e+001  -6.259763e+001 
3090625000  -3.589959e+001  -7.412535e+001 
3093750000  -3.698461e+001  -8.286181e+001 
3096875000  -3.735229e+001  -8.845908e+001 
3100000000  -3.720668e+001  -9.100725e+001 
3103125000  -3.758693e+001  -9.405619e+001 
3106250000  -3.711999e+001  -1.000950e+002 
3109375000  -3.714415e+001  -1.028182e+002 
3112500000  -3.705876e+001  -1.092694e+002 
3115625000  -3.714161e+001  -1.137767e+002 
3118750000  -3.725460e+001  -1.164143e+002 
3121875000  -3.655471e+001  -1.284280e+002 
3125000000  -3.853882e+001  -1.312808e+002 
3128125000  -3.841085e+001  -1.229927e+002 
3131250000  -3.604516e+001  -1.294931e+002 
3134375000  -3.543439e+001  -1.469794e+002 
3137500000  -3.600509e+001  -1.591316e+002 
3140625000  -3.733243e+001  -1.614011e+002 
3143750000  -3.814633e+001  -1.637099e+002 
3146875000  -3.755130e+001  -1.615513e+002 
3150000000  -3.685204e+001  -1.655896e+002 
3153125000  -3.720197e+001  -1.743214e+002 
3156250000  -3.783200e+001  -1.700875e+002 
3159375000  -3.567647e+001  -1.719520e+002 
3162500000  -3.421587e+001  1.722466e+002 
3165625000  -3.559245e+001  1.596957e+002 
3168750000  -3.532501e+001  1.594860e+002 
3171875000  -3.497796e+001  1.517489e+002 
3175000000  -3.540131e+001  1.423891e+002 
3178125000  -3.496513e+001  1.410764e+002 
3181250000  -3.439537e+001  1.321734e+002 
3184375000  -3.425040e+001  1.212141e+002 
3187500000  -3.542078e+001  1.060200e+002 
3190625000  -3.725256e+001  9.997260e+001 
3193750000  -3.752169e+001  1.056844e+002 
3196875000  -3.738935e+001  1.058665e+002 
3200000000  -3.609792e+001  1.012722e+002 
3203125000  -3.587264e+001  9.258801e+001 
3206250000  -3.615582e+001  8.539120e+001 
3209375000  -3.578151e+001  7.730970e+001 
3212500000  -3.629174e+001  7.054370e+001 
3215625000  -3.607758e+001  6.872198e+001 
3218750000  -3.685882e+001  5.753418e+001 
3221875000  -3.721892e+001  4.966568e+001 
3225000000  -3.703524e+001  4.636808e+001 
3228125000  -3.782742e+001  3.863270e+001 
3231250000  -3.814073e+001  3.630572e+001 
3234375000  -3.777779e+001  3.384500e+001 
3237500000  -3.810293e+001  2.950626e+001 
3240625000  -3.751334e+001  2.443860e+001 
3243750000  -3.775714e+001  1.377106e+001 
3246875000  -3.829782e+001  6.989047e+000 
3250000000  -3.890718e+001  3.937503e+000 
3253125000  -3.888713e+001  5.333753e-001 
3256250000  -3.839502e+001  -8.486923e+000 
3259375000  -3.915279e+001  -1.878520e+001 
3262500000  -4.071916e+001  -2.338883e+001 
3265625000  -4.135663e+001  -2.027104e+001 
3268750000  -4.127205e+001  -1.918904e+001 
3271875000  -4.058236e+001  -2.365763e+001 
3275000000  -4.013113e+001  -3.112318e+001 
3278125000  -4.080309e+001  -3.621137e+001 
3281250000  -4.094006e+001  -3.759721e+001 
3284375000  -4.064234e+001  -4.268699e+001 
3287500000  -4.089539e+001  -4.798749e+001 
3290625000  -4.113617e+001  -5.550588e+001 
3293750000  -4.117093e+001  -6.182174e+001 
3296875000  -4.243972e+001  -6.246473e+001 
3300000000  -4.190905e+001  -6.057806e+001 
3303125000  -4.087206e+001  -6.766637e+001 
3306250000  -4.082626e+001  -7.541624e+001 
3309375000  -4.029385e+001  -8.364456e+001 
3312500000  -4.095182e+001  -9.636423e+001 
3315625000  -4.215463e+001  -1.002285e+002 
3318750000  -4.342852e+001  -1.067708e+002 
3321875000  -4.470183e+001  -1.002042e+002 
3325000000  -4.482167e+001  -9.587053e+001 
3328125000  -4.386373e+001  -9.637879e+001 
3331250000  -4.228597e+001  -9.436222e+001 
3334375000  -3.972721e+001  -1.088198e+002 
3337500000  -4.036080e+001  -1.283357e+002 
3340625000  -4.216465e+001  -1.390094e+002 
3343750000  -4.393043e+001  -1.385698e+002 
3346875000  -4.333252e+001  -1.410206e+002 
3350000000  -4.297175e+001  -1.432412e+002 
3353125000  -4.299597e+001  -1.511611e+002 
3356250000  -4.270721e+001  -1.583625e+002 
3359375000  -4.328921e+001  -1.686844e+002 
3362500000  -4.448012e+001  -1.739341e+002 
3365625000  -4.477857e+001  -1.795999e+002 
3368750000  -4.525275e+001  1.760133e+002 
3371875000  -4.578176e+001  1.725501e+002 
3375000000  -4.733213e+001  1.733678e+002 
3378125000  -4.842758e+001  1.664350e+002 
3381250000  -4.982023e+001  1.794298e+002 
3384375000  -4.679782e+001  -1.648036e+002 
3387500000  -4.373949e+001  1.754123e+002 
3390625000  -4.616603e+001  1.507269e+002 
3393750000  -4.736176e+001  1.527894e+002 
3396875000  -4.620011e+001  1.525206e+002 
3400000000  -4.658469e+001  1.391480e+002 
3403125000  -4.691325e+001  1.372795e+002 
3406250000  -4.785223e+001  1.294536e+002 
3409375000  -4.788264e+001  1.227938e+002 
3412500000  -4.866600e+001  1.186470e+002 
3415625000  -5.025522e+001  1.181170e+002 
3418750000  -5.027826e+001  1.184402e+002 
3421875000  -5.139267e+001  1.195556e+002 
3425000000  -4.940092e+001  1.212092e+002 
3428125000  -4.969447e+001  1.155087e+002 
3431250000  -5.031790e+001  1.091134e+002 
3434375000  -5.002042e+001  1.041572e+002 
3437500000  -5.105973e+001  1.033051e+002 
3440625000  -5.186419e+001  1.072717e+002 
3443750000  -5.100547e+001  1.094007e+002 
3446875000  -5.062260e+001  1.037965e+002 
3450000000  -5.025485e+001  9.423358e+001 
3453125000  -5.130956e+001  8.347635e+001 
3456250000  -5.127122e+001  8.621864e+001 
3459375000  -5.267404e+001  8.391396e+001 
3462500000  -5.232756e+001  9.086107e+001 
3465625000  -5.204250e+001  7.921436e+001 
3468750000  -5.219327e+001  8.298001e+001 
3471875000  -5.194184e+001  7.864366e+001 
3475000000  -5.082022e+001  7.625908e+001 
3478125000  -5.095440e+001  6.212414e+001 
3481250000  -5.202281e+001  6.609969e+001 
3484375000  -5.264410e+001  6.396108e+001 
3487500000  -5.161655e+001  6.369395e+001 
3490625000  -5.169131e+001  5.628258e+001 
3493750000  -5.114831e+001  4.619305e+001 
3496875000  -5.119215e+001  4.704643e+001 
3500000000  -5.187115e+001  4.532130e+001 
3503125000  -5.094995e+001  5.130515e+001 
3506250000  -4.936384e+001  3.514753e+001 
3509375000  -4.956094e+001  2.190015e+001 
3512500000  -5.013311e+001  1.383143e+001 
3515625000  -5.205901e+001  1.300997e+001 
3518750000  -5.217448e+001  1.565548e+001 
3521875000  -5.212518e+001  7.161226e+000 
3525000000  -5.384715e+001  8.743387e-001 
3528125000  -5.241510e+001  5.889282e+000 
3531250000  -5.276424e+001  -1.318938e+000 
3534375000  -5.258551e+001  -1.339384e+001 
3537500000  -5.355374e+001  -2.413108e+001 
3540625000  -5.499185e+001  -2.105690e+001 
3543750000  -5.640960e+001  -1.263531e+001 
3546875000  -5.602607e+001  -9.767187e+000 
3550000000  -5.359226e+001  -1.478788e+001 
3553125000  -5.429462e+001  -1.887031e+001 
3556250000  -5.512081e+001  -3.243440e+001 
3559375000  -5.552598e+001  -3.308388e+001 
3562500000  -5.649459e+001  -4.776430e+001 
3565625000  -5.804192e+001  -5.089722e+001 
3568750000  -5.810115e+001  -3.761897e+001 
3571875000  -5.879990e+001  -4.027879e+001 
3575000000  -6.011634e+001  -3.529990e+001 
3578125000  -5.765428e+001  -3.266338e+001 
3581250000  -5.752146e+001  -3.936945e+001 
3584375000  -5.819514e+001  -4.402486e+001 
3587500000  -5.804392e+001  -4.879203e+001 
3590625000  -5.811791e+001  -4.918225e+001 
3593750000  -5.922211e+001  -3.680582e+001 
3596875000  -5.866430e+001  -3.566254e+001 
3600000000  -5.758111e+001  -3.763647e+001 
3603125000  -6.047912e+001  -5.474589e+001 
3606250000  -5.868602e+001  -4.887394e+001 
3609375000  -5.792172e+001  -4.020235e+001 
3612500000  -5.885692e+001  -4.532310e+001 
3615625000  -5.784148e+001  -5.692911e+001 
3618750000  -5.772327e+001  -5.354274e+001 
3621875000  -5.717337e+001  -4.869646e+001 
3625000000  -5.579000e+001  -4.667200e+001 
3628125000  -5.638911e+001  -3.842548e+001 
3631250000  -5.721765e+001  -5.185738e+001 
3634375000  -5.692125e+001  -5.372449e+001 
3637500000  -5.542950e+001  -4.442871e+001 
3640625000  -5.350229e+001  -3.515710e+001 
3643750000  -5.244186e+001  -4.618933e+001 
3646875000  -5.255312e+001  -5.340529e+001 
3650000000  -5.364392e+001  -5.321045e+001 
3653125000  -5.195453e+001  -6.550526e+001 
3656250000  -5.228234e+001  -6.158172e+001 
3659375000  -5.068198e+001  -6.124744e+001 
3662500000  -5.036967e+001  -7.010293e+001 
3665625000  -4.973569e+001  -7.094984e+001 
3668750000  -4.836235e+001  -7.224274e+001 
3671875000  -4.760547e+001  -7.944753e+001 
3675000000  -4.770789e+001  -8.771322e+001 
3678125000  -4.768484e+001  -9.784600e+001 
3681250000  -4.684385e+001  -1.004408e+002 
3684375000  -4.614495e+001  -1.077363e+002 
3687500000  -4.656666e+001  -1.114883e+002 
3690625000  -4.670080e+001  -1.158182e+002 
3693750000  -4.706923e+001  -1.164210e+002 
3696875000  -4.599799e+001  -1.180497e+002 
3700000000  -4.508136e+001  -1.264286e+002 
3703125000  -4.574365e+001  -1.305981e+002 
3706250000  -4.580296e+001  -1.319928e+002 
3709375000  -4.511177e+001  -1.310625e+002 
3712500000  -4.369516e+001  -1.360092e+002 
3715625000  -4.195244e+001  -1.437827e+002 
3718750000  -4.181396e+001  -1.519910e+002 
3721875000  -4.142753e+001  -1.640691e+002 
3725000000  -4.177613e+001  -1.727216e+002 
3728125000  -4.135827e+001  -1.732891e+002 
3731250000  -4.050797e+001  -1.776940e+002 
3734375000  -3.997100e+001  1.757183e+002 
3737500000  -4.066395e+001  1.670313e+002 
3740625000  -4.072575e+001  1.609102e+002 
3743750000  -4.042412e+001  1.532178e+002 
3746875000  -4.055248e+001  1.468563e+002 
3750000000  -4.076614e+001  1.429037e+002 
3753125000  -4.050445e+001  1.384405e+002 
3756250000  -4.076149e+001  1.348115e+002 
3759375000  -4.054866e+001  1.289130e+002 
3762500000  -4.015250e+001  1.247874e+002 
3765625000  -4.082512e+001  1.197425e+002 
3768750000  -3.996127e+001  1.189247e+002 
3771875000  -3.850563e+001  1.132398e+002 
3775000000  -3.841312e+001  1.003896e+002 
3778125000  -3.903868e+001  9.386051e+001 
3781250000  -3.893754e+001  9.039787e+001 
3784375000  -3.888746e+001  8.365958e+001 
3787500000  -3.851537e+001  7.768572e+001 
3790625000  -3.907733e+001  6.855536e+001 
3793750000  -3.916737e+001  6.682279e+001 
3796875000  -3.803595e+001  6.105746e+001 
3800000000  -3.634929e+001  5.645484e+001 
3803125000  -3.818825e+001  4.273444e+001 
3806250000  -3.896027e+001  3.903394e+001 
3809375000  -3.842212e+001  3.525609e+001 
3812500000  -3.843544e+001  2.678004e+001 
3815625000  -3.944873e+001  1.617917e+001 
3818750000  -4.081155e+001  1.823497e+001 
3821875000  -4.054377e+001  2.773067e+001 
3825000000  -3.813992e+001  2.386723e+001 
3828125000  -3.690491e+001  5.913479e+000 
3831250000  -3.821212e+001  -9.583076e+000 
3834375000  -4.060516e+001  -1.018770e+001 
3837500000  -4.047773e+001  -6.952688e+000 
3840625000  -3.902684e+001  -9.807716e+000 
3843750000  -3.832750e+001  -2.326574e+001 
3846875000  -3.990725e+001  -3.146622e+001 
3850000000  -4.087592e+001  -2.378526e+001 
3853125000  -3.976768e+001  -2.116981e+001 
3856250000  -3.919634e+001  -3.257127e+001 
3859375000  -3.869038e+001  -4.070294e+001 
3862500000  -3.840854e+001  -4.987806e+001 
3865625000  -3.893396e+001  -5.524782e+001 
3868750000  -3.847888e+001  -5.472356e+001 
3871875000  -3.814688e+001  -6.346004e+001 
3875000000  -3.872771e+001  -7.361382e+001 
3878125000  -3.953883e+001  -7.636472e+001 
3881250000  -3.925015e+001  -7.584043e+001 
3884375000  -3.857908e+001  -8.315446e+001 
3887500000  -3.907952e+001  -8.928367e+001 
3890625000  -3.949817e+001  -9.424632e+001 
3893750000  -3.970313e+001  -9.592947e+001 
3896875000  -4.015473e+001  -9.855042e+001 
3900000000  -3.998865e+001  -1.019009e+002 
3903125000  -3.926450e+001  -1.065790e+002 
3906250000  -3.883034e+001  -1.107166e+002 
3909375000  -3.812139e+001  -1.178593e+002 
3912500000  -3.901055e+001  -1.283611e+002 
3915625000  -4.039330e+001  -1.277395e+002 
3918750000  -4.001983e+001  -1.283969e+002 
3921875000  -3.944259e+001  -1.344022e+002 
3925000000  -3.859233e+001  -1.391701e+002 
3928125000  -3.825723e+001  -1.478404e+002 
3931250000  -3.904615e+001  -1.552978e+002 
3934375000  -3.981199e+001  -1.558889e+002 
3937500000  -4.011839e+001  -1.581107e+002 
3940625000  -4.009420e+001  -1.608150e+002 
3943750000  -3.871408e+001  -1.642959e+002 
3946875000  -3.833868e+001  -1.738184e+002 
3950000000  -3.968480e+001  1.792662e+002 
3953125000  -4.012225e+001  -1.798727e+002 
3956250000  -3.889429e+001  1.798523e+002 
3959375000  -3.808702e+001  1.711252e+002 
3962500000  -3.778165e+001  1.648403e+002 
3965625000  -3.786350e+001  1.532392e+002 
3968750000  -3.851401e+001  1.468570e+002 
3971875000  -3.886235e+001  1.418454e+002 
3975000000  -3.828592e+001  1.382678e+002 
3978125000  -3.841899e+001  1.321946e+002 
3981250000  -3.868541e+001  1.261582e+002 
3984375000  -3.889148e+001  1.192108e+002 
3987500000  -3.958121e+001  1.139411e+002 
3990625000  -3.980939e+001  1.150907e+002 
3993750000  -3.978778e+001  1.084863e+002 
3996875000  -4.013531e+001  1.048796e+002 
4000000000  -4.085440e+001  9.905035e+001 
4003125000  -4.097939e+001  1.020001e+002 
4006250000  -3.923441e+001  9.938489e+001 
4009375000  -3.868850e+001  8.518037e+001 
4012500000  -4.006567e+001  7.702765e+001 
4015625000  -4.170085e+001  7.563541e+001 
4018750000  -4.137720e+001  7.677367e+001 
4021875000  -4.051648e+001  7.270957e+001 
4025000000  -4.019345e+001  6.835302e+001 
4028125000  -4.060549e+001  5.888861e+001 
4031250000  -4.109828e+001  5.655091e+001 
4034375000  -4.144181e+001  5.613615e+001 
4037500000  -4.086875e+001  5.621604e+001 
4040625000  -4.096804e+001  4.946521e+001 
4043750000  -4.111208e+001  4.870938e+001 
4046875000  -4.083867e+001  4.507663e+001 
4050000000  -4.086023e+001  4.156248e+001 
4053125000  -4.149561e+001  3.880425e+001 
4056250000  -4.147421e+001  4.413119e+001 
4059375000  -3.946052e+001  3.953463e+001 
4062500000  -3.865927e+001  2.941615e+001 
4065625000  -3.891151e+001  2.486152e+001 
4068750000  -3.834347e+001  1.888279e+001 
4071875000  -3.805672e+001  1.030758e+001 
4075000000  -3.828012e+001  1.310109e+000 
4078125000  -3.862732e+001  -3.464595e+000 
4081250000  -3.816801e+001  -6.075630e+000 
4084375000  -3.811882e+001  -1.789371e+001 
4087500000  -3.879766e+001  -2.294616e+001 
4090625000  -3.899618e+001  -2.528859e+001 
4093750000  -3.876846e+001  -2.668900e+001 
4096875000  -3.875871e+001  -3.747364e+001 
4100000000  -3.955530e+001  -4.384999e+001 
4103125000  -4.081850e+001  -4.151651e+001 
4106250000  -4.006270e+001  -3.958239e+001 
4109375000  -3.926216e+001  -4.169640e+001 
4112500000  -3.877158e+001  -5.174786e+001 
4115625000  -3.949352e+001  -5.937180e+001 
4118750000  -3.921659e+001  -6.328782e+001 
4121875000  -3.906164e+001  -7.076468e+001 
4125000000  -3.975615e+001  -7.665185e+001 
4128125000  -4.078808e+001  -7.457847e+001 
4131250000  -3.982493e+001  -7.120348e+001 
4134375000  -3.775236e+001  -7.998274e+001 
4137500000  -3.820351e+001  -1.005192e+002 
4140625000  -4.041780e+001  -1.061503e+002 
4143750000  -4.172295e+001  -9.768882e+001 
4146875000  -4.050604e+001  -9.631094e+001 
4150000000  -3.972564e+001  -1.048130e+002 
4153125000  -3.988400e+001  -1.135158e+002 
4156250000  -4.152253e+001  -1.164035e+002 
4159375000  -4.118289e+001  -1.108906e+002 
4162500000  -3.999058e+001  -1.082973e+002 
4165625000  -3.882881e+001  -1.170757e+002 
4168750000  -3.848872e+001  -1.261195e+002 
4171875000  -3.846776e+001  -1.377042e+002 
4175000000  -3.930373e+001  -1.417762e+002 
4178125000  -3.948361e+001  -1.425628e+002 
4181250000  -3.925025e+001  -1.485658e+002 
4184375000  -3.944563e+001  -1.521058e+002 
4187500000  -3.938021e+001  -1.585217e+002 
4190625000  -3.932763e+001  -1.659620e+002 
4193750000  -4.052236e+001  -1.694957e+002 
4196875000  -4.177158e+001  -1.714476e+002 
4200000000  -4.247190e+001  -1.642485e+002 
4203125000  -4.106468e+001  -1.551487e+002 
4206250000  -3.736636e+001  -1.631896e+002 
4209375000  -3.713010e+001  1.737317e+002 
4212500000  -3.949866e+001  1.681172e+002 
4215625000  -3.996373e+001  1.750557e+002 
4218750000  -3.827220e+001  1.761514e+002 
4221875000  -3.679710e+001  1.669652e+002 
4225000000  -3.791814e+001  1.553263e+002 
4228125000  -3.775072e+001  1.536325e+002 
4231250000  -3.625771e+001  1.481235e+002 
4234375000  -3.629888e+001  1.381892e+002 
4237500000  -3.620346e+001  1.325990e+002 
4240625000  -3.623034e+001  1.215688e+002 
4243750000  -3.761152e+001  1.129011e+002 
4246875000  -3.836905e+001  1.127154e+002 
4250000000  -3.825597e+001  1.117412e+002 
4253125000  -3.813446e+001  1.094036e+002 
4256250000  -3.821619e+001  1.046738e+002 
4259375000  -3.779271e+001  9.865257e+001 
4262500000  -3.797599e+001  9.312156e+001 
4265625000  -3.795509e+001  9.234853e+001 
4268750000  -3.677911e+001  8.468790e+001 
4271875000  -3.686855e+001  7.501367e+001 
4275000000  -3.653526e+001  6.789627e+001 
4278125000  -3.778926e+001  5.559846e+001 
4281250000  -3.898313e+001  5.316851e+001 
4284375000  -3.886546e+001  5.091632e+001 
4287500000  -4.029871e+001  4.811282e+001 
4290625000  -4.049598e+001  5.591435e+001 
4293750000  -3.887670e+001  5.704526e+001 
4296875000  -3.781899e+001  4.147601e+001 
4300000000  -3.888645e+001  3.234647e+001 
4303125000  -3.978313e+001  3.743678e+001 
4306250000  -3.851166e+001  3.840680e+001 
4309375000  -3.772260e+001  3.314275e+001 
4312500000  -3.766456e+001  2.338444e+001 
4315625000  -3.795645e+001  1.541061e+001 
4318750000  -3.867555e+001  1.009064e+001 
4321875000  -3.863618e+001  1.165126e+001 
4325000000  -3.786167e+001  1.031715e+001 
4328125000  -3.731722e+001  7.458616e-001 
4331250000  -3.739060e+001  -1.224812e+001 
4334375000  -3.839338e+001  -1.662153e+001 
4337500000  -3.945233e+001  -1.793669e+001 
4340625000  -3.962458e+001  -1.397879e+001 
4343750000  -3.870831e+001  -1.679937e+001 
4346875000  -3.816419e+001  -2.610301e+001 
4350000000  -3.826066e+001  -3.275676e+001 
4353125000  -3.897089e+001  -4.022491e+001 
4356250000  -4.100677e+001  -3.621106e+001 
4359375000  -3.987271e+001  -2.150047e+001 
4362500000  -3.653723e+001  -3.138734e+001 
4365625000  -3.627140e+001  -5.023016e+001 
4368750000  -3.721465e+001  -5.906098e+001 
4371875000  -3.787691e+001  -5.970269e+001 
4375000000  -3.716127e+001  -6.151436e+001 
4378125000  -3.696105e+001  -6.968745e+001 
4381250000  -3.725324e+001  -7.901456e+001 
4384375000  -3.725670e+001  -8.465778e+001 
4387500000  -3.786442e+001  -9.121661e+001 
4390625000  -3.836470e+001  -9.280700e+001 
4393750000  -3.799120e+001  -9.171089e+001 
4396875000  -3.732509e+001  -9.623203e+001 
4400000000  -3.692065e+001  -1.050187e+002 
4403125000  -3.800181e+001  -1.158179e+002 
4406250000  -3.861389e+001  -1.186977e+002 
4409375000  -3.882249e+001  -1.232572e+002 
4412500000  -3.986415e+001  -1.255784e+002 
4415625000  -3.931552e+001  -1.202706e+002 
