!Agilent Technologies,E8363B,MY43030201,A.06.04.32
!Agilent E8363B: A.06.04.32
!Date: Tuesday, November 11, 2014 21:29:52
!Correction: S21(Response(S21)) 
!S1P File: Measurement: S21:
# Hz S  dB   R 50
3000000000  -4.053925e+001  8.520720e+001 
3003125000  -4.204385e+001  7.720203e+001 
3006250000  -4.218803e+001  7.631761e+001 
3009375000  -4.256818e+001  8.163375e+001 
3012500000  -4.148864e+001  7.534848e+001 
3015625000  -4.130374e+001  7.005647e+001 
3018750000  -4.197711e+001  7.016077e+001 
3021875000  -4.012661e+001  7.149179e+001 
3025000000  -3.873948e+001  6.647607e+001 
3028125000  -3.795658e+001  5.715595e+001 
3031250000  -3.689001e+001  4.569389e+001 
3034375000  -3.663818e+001  3.146259e+001 
3037500000  -3.756415e+001  2.109102e+001 
3040625000  -3.873734e+001  1.517433e+001 
3043750000  -3.913820e+001  8.488081e+000 
3046875000  -3.969076e+001  2.641251e+000 
3050000000  -4.080952e+001  -1.882134e+000 
3053125000  -4.049793e+001  4.202244e+000 
3056250000  -4.041813e+001  6.858288e+000 
3059375000  -3.966675e+001  4.454276e+000 
3062500000  -3.834017e+001  -1.657752e+000 
3065625000  -3.796559e+001  -1.102048e+001 
3068750000  -3.763536e+001  -1.810744e+001 
3071875000  -3.764258e+001  -2.116038e+001 
3075000000  -3.713507e+001  -2.712578e+001 
3078125000  -3.710821e+001  -3.367381e+001 
3081250000  -3.728860e+001  -3.962276e+001 
3084375000  -3.639243e+001  -4.448839e+001 
3087500000  -3.640400e+001  -5.099726e+001 
3090625000  -3.586818e+001  -6.333619e+001 
3093750000  -3.683144e+001  -7.093882e+001 
3096875000  -3.738923e+001  -7.705870e+001 
3100000000  -3.717691e+001  -7.944230e+001 
3103125000  -3.762000e+001  -8.267724e+001 
3106250000  -3.722283e+001  -8.832647e+001 
3109375000  -3.730091e+001  -9.182361e+001 
3112500000  -3.724302e+001  -9.692770e+001 
3115625000  -3.702699e+001  -1.020506e+002 
3118750000  -3.719237e+001  -1.051264e+002 
3121875000  -3.645345e+001  -1.158243e+002 
3125000000  -3.851764e+001  -1.206340e+002 
3128125000  -3.862350e+001  -1.127561e+002 
3131250000  -3.619848e+001  -1.172615e+002 
3134375000  -3.527654e+001  -1.351708e+002 
3137500000  -3.614148e+001  -1.482852e+002 
3140625000  -3.745672e+001  -1.512624e+002 
3143750000  -3.813155e+001  -1.521745e+002 
3146875000  -3.765498e+001  -1.505807e+002 
3150000000  -3.683202e+001  -1.547819e+002 
3153125000  -3.714762e+001  -1.634812e+002 
3156250000  -3.800260e+001  -1.589094e+002 
3159375000  -3.598830e+001  -1.606774e+002 
3162500000  -3.416896e+001  -1.757405e+002 
3165625000  -3.544872e+001  1.712983e+002 
3168750000  -3.547936e+001  1.701431e+002 
3171875000  -3.478113e+001  1.630766e+002 
3175000000  -3.550121e+001  1.535112e+002 
3178125000  -3.501611e+001  1.523769e+002 
3181250000  -3.445219e+001  1.444488e+002 
3184375000  -3.409024e+001  1.315087e+002 
3187500000  -3.545788e+001  1.170651e+002 
3190625000  -3.722559e+001  1.109680e+002 
3193750000  -3.760634e+001  1.162805e+002 
3196875000  -3.741125e+001  1.192585e+002 
3200000000  -3.622720e+001  1.121511e+002 
3203125000  -3.589109e+001  1.049783e+002 
3206250000  -3.623174e+001  9.768808e+001 
3209375000  -3.579705e+001  8.980026e+001 
3212500000  -3.633416e+001  8.201175e+001 
3215625000  -3.609415e+001  7.886981e+001 
3218750000  -3.674377e+001  6.797659e+001 
3221875000  -3.742713e+001  6.140401e+001 
3225000000  -3.699925e+001  5.750127e+001 
3228125000  -3.782381e+001  5.123486e+001 
3231250000  -3.832665e+001  4.813370e+001 
3234375000  -3.789975e+001  4.441315e+001 
3237500000  -3.812967e+001  4.134845e+001 
3240625000  -3.761543e+001  3.622441e+001 
3243750000  -3.759299e+001  2.640654e+001 
3246875000  -3.818847e+001  1.943858e+001 
3250000000  -3.875618e+001  1.594424e+001 
3253125000  -3.897635e+001  1.204004e+001 
3256250000  -3.857878e+001  3.860099e+000 
3259375000  -3.922433e+001  -7.285039e+000 
3262500000  -4.085077e+001  -1.184270e+001 
3265625000  -4.116790e+001  -8.218762e+000 
3268750000  -4.123790e+001  -6.749623e+000 
3271875000  -4.052628e+001  -1.203829e+001 
3275000000  -4.020815e+001  -1.848581e+001 
3278125000  -4.092635e+001  -2.336256e+001 
3281250000  -4.122912e+001  -2.477439e+001 
3284375000  -4.038935e+001  -3.092394e+001 
3287500000  -4.094435e+001  -3.533345e+001 
3290625000  -4.149901e+001  -4.327666e+001 
3293750000  -4.133310e+001  -4.805069e+001 
3296875000  -4.224733e+001  -5.012815e+001 
3300000000  -4.196207e+001  -4.976204e+001 
3303125000  -4.096457e+001  -5.715596e+001 
3306250000  -4.079733e+001  -6.311557e+001 
3309375000  -4.071306e+001  -7.142145e+001 
3312500000  -4.107719e+001  -8.274216e+001 
3315625000  -4.213625e+001  -9.194091e+001 
3318750000  -4.366572e+001  -9.362387e+001 
3321875000  -4.497559e+001  -9.214220e+001 
3325000000  -4.500694e+001  -8.470859e+001 
3328125000  -4.413012e+001  -8.534158e+001 
3331250000  -4.258776e+001  -8.174206e+001 
3334375000  -3.998071e+001  -9.754104e+001 
3337500000  -4.049192e+001  -1.161060e+002 
3340625000  -4.229448e+001  -1.279043e+002 
3343750000  -4.421235e+001  -1.275817e+002 
3346875000  -4.338550e+001  -1.268970e+002 
3350000000  -4.316280e+001  -1.314929e+002 
3353125000  -4.306785e+001  -1.380703e+002 
3356250000  -4.287770e+001  -1.457929e+002 
3359375000  -4.383282e+001  -1.549802e+002 
3362500000  -4.417802e+001  -1.614675e+002 
3365625000  -4.499423e+001  -1.655243e+002 
3368750000  -4.548563e+001  -1.694091e+002 
3371875000  -4.571809e+001  -1.746337e+002 
3375000000  -4.726818e+001  -1.784827e+002 
3378125000  -4.829677e+001  1.781036e+002 
3381250000  -4.954456e+001  -1.672059e+002 
3384375000  -4.680717e+001  -1.542231e+002 
3387500000  -4.410431e+001  -1.738014e+002 
3390625000  -4.571638e+001  1.686346e+002 
3393750000  -4.699945e+001  1.636077e+002 
3396875000  -4.639989e+001  1.640696e+002 
3400000000  -4.622874e+001  1.529685e+002 
3403125000  -4.717877e+001  1.459482e+002 
3406250000  -4.784316e+001  1.437390e+002 
3409375000  -4.782102e+001  1.353388e+002 
3412500000  -4.920531e+001  1.281483e+002 
3415625000  -5.026840e+001  1.312530e+002 
3418750000  -5.055371e+001  1.308824e+002 
3421875000  -5.189883e+001  1.328500e+002 
3425000000  -5.056499e+001  1.287885e+002 
3428125000  -4.991575e+001  1.259658e+002 
3431250000  -5.022868e+001  1.185391e+002 
3434375000  -5.055791e+001  1.166036e+002 
3437500000  -5.193148e+001  1.166964e+002 
3440625000  -5.247157e+001  1.193833e+002 
3443750000  -5.063770e+001  1.211279e+002 
3446875000  -5.133252e+001  1.085160e+002 
3450000000  -5.052240e+001  1.072601e+002 
3453125000  -5.108911e+001  9.804947e+001 
3456250000  -5.172675e+001  9.447952e+001 
3459375000  -5.339499e+001  1.009109e+002 
3462500000  -5.315200e+001  1.033618e+002 
3465625000  -5.158768e+001  8.960223e+001 
3468750000  -5.185416e+001  8.966206e+001 
3471875000  -5.149372e+001  9.012961e+001 
3475000000  -5.142851e+001  8.357613e+001 
3478125000  -5.194423e+001  7.155510e+001 
3481250000  -5.326038e+001  8.114325e+001 
3484375000  -5.321535e+001  8.446029e+001 
3487500000  -5.148380e+001  8.094357e+001 
3490625000  -5.108602e+001  6.914185e+001 
3493750000  -5.177068e+001  5.959065e+001 
3496875000  -5.155200e+001  6.614709e+001 
3500000000  -5.180677e+001  5.920165e+001 
3503125000  -5.187559e+001  6.266438e+001 
3506250000  -5.045054e+001  4.976946e+001 
3509375000  -4.968282e+001  4.301519e+001 
3512500000  -5.045642e+001  2.576753e+001 
3515625000  -5.132348e+001  2.408056e+001 
3518750000  -5.215866e+001  2.588316e+001 
3521875000  -5.360640e+001  1.963515e+001 
3525000000  -5.300179e+001  7.048938e+000 
3528125000  -5.218825e+001  1.678585e+001 
3531250000  -5.200604e+001  9.116633e+000 
3534375000  -5.269956e+001  1.442134e+000 
3537500000  -5.332306e+001  -1.116357e+001 
3540625000  -5.395684e+001  -5.241058e+000 
3543750000  -5.494336e+001  -4.992177e+000 
3546875000  -5.618423e+001  -2.266811e+000 
3550000000  -5.361024e+001  4.551364e-001 
3553125000  -5.305089e+001  -1.551850e+001 
3556250000  -5.690891e+001  -1.821562e+001 
3559375000  -5.551005e+001  -2.032312e+001 
3562500000  -5.617336e+001  -3.672340e+001 
3565625000  -5.635582e+001  -3.356080e+001 
3568750000  -5.771518e+001  -1.840810e+001 
3571875000  -5.694711e+001  -2.330655e+001 
3575000000  -5.729408e+001  -1.855708e+001 
3578125000  -5.814315e+001  -2.848814e+001 
3581250000  -5.746421e+001  -3.224447e+001 
3584375000  -5.736471e+001  -2.264481e+001 
3587500000  -5.748971e+001  -3.343944e+001 
3590625000  -5.944604e+001  -3.772335e+001 
3593750000  -5.924790e+001  -3.227950e+001 
3596875000  -5.976053e+001  -1.465133e+001 
3600000000  -5.768167e+001  -3.046357e+001 
3603125000  -5.898652e+001  -3.794322e+001 
3606250000  -5.797720e+001  -3.284745e+001 
3609375000  -5.696625e+001  -3.154469e+001 
3612500000  -5.803060e+001  -3.020724e+001 
3615625000  -5.933363e+001  -3.939518e+001 
3618750000  -5.962644e+001  -2.967775e+001 
3621875000  -5.692633e+001  -3.132139e+001 
3625000000  -5.878564e+001  -3.576608e+001 
3628125000  -5.580045e+001  -2.321444e+001 
3631250000  -5.606413e+001  -3.200566e+001 
3634375000  -5.615279e+001  -3.569204e+001 
3637500000  -5.600600e+001  -3.217582e+001 
3640625000  -5.422354e+001  -2.658689e+001 
3643750000  -5.212251e+001  -3.509219e+001 
3646875000  -5.240633e+001  -4.688468e+001 
3650000000  -5.269233e+001  -4.683798e+001 
3653125000  -5.175725e+001  -4.714384e+001 
3656250000  -5.175447e+001  -4.918731e+001 
3659375000  -5.169181e+001  -5.429279e+001 
3662500000  -5.096663e+001  -5.583705e+001 
3665625000  -4.947697e+001  -5.965971e+001 
3668750000  -4.754519e+001  -5.955969e+001 
3671875000  -4.763660e+001  -7.191238e+001 
3675000000  -4.724625e+001  -8.162267e+001 
3678125000  -4.756740e+001  -8.187248e+001 
3681250000  -4.632715e+001  -8.697429e+001 
3684375000  -4.684405e+001  -9.191925e+001 
3687500000  -4.663196e+001  -9.613171e+001 
3690625000  -4.630626e+001  -1.023282e+002 
3693750000  -4.683086e+001  -1.039333e+002 
3696875000  -4.638914e+001  -1.042086e+002 
3700000000  -4.549281e+001  -1.089866e+002 
3703125000  -4.508675e+001  -1.150847e+002 
3706250000  -4.609948e+001  -1.196333e+002 
3709375000  -4.519412e+001  -1.177474e+002 
3712500000  -4.338911e+001  -1.251955e+002 
3715625000  -4.208568e+001  -1.329218e+002 
3718750000  -4.206413e+001  -1.382433e+002 
3721875000  -4.137172e+001  -1.476003e+002 
3725000000  -4.162730e+001  -1.562715e+002 
3728125000  -4.149697e+001  -1.591853e+002 
3731250000  -4.099570e+001  -1.645758e+002 
3734375000  -4.024366e+001  -1.716845e+002 
3737500000  -4.095226e+001  1.779798e+002 
3740625000  -4.100196e+001  1.725871e+002 
3743750000  -4.042252e+001  1.659962e+002 
3746875000  -4.048869e+001  1.596582e+002 
3750000000  -4.091935e+001  1.561700e+002 
3753125000  -4.062811e+001  1.530046e+002 
3756250000  -4.064999e+001  1.490347e+002 
3759375000  -4.074706e+001  1.434152e+002 
3762500000  -4.000464e+001  1.366722e+002 
3765625000  -4.058327e+001  1.323873e+002 
3768750000  -4.031904e+001  1.334199e+002 
3771875000  -3.837275e+001  1.257682e+002 
3775000000  -3.846997e+001  1.136951e+002 
3778125000  -3.902018e+001  1.068999e+002 
3781250000  -3.920863e+001  1.025390e+002 
3784375000  -3.869403e+001  9.742849e+001 
3787500000  -3.850136e+001  9.178145e+001 
3790625000  -3.929611e+001  8.170649e+001 
3793750000  -3.922804e+001  7.865971e+001 
3796875000  -3.825255e+001  7.446529e+001 
3800000000  -3.638711e+001  7.066393e+001 
3803125000  -3.814932e+001  5.790569e+001 
3806250000  -3.891479e+001  5.289406e+001 
3809375000  -3.859404e+001  4.965145e+001 
3812500000  -3.841673e+001  3.894606e+001 
3815625000  -3.952666e+001  3.082125e+001 
3818750000  -4.075116e+001  2.965441e+001 
3821875000  -4.014832e+001  3.923818e+001 
3825000000  -3.833368e+001  3.801857e+001 
3828125000  -3.702904e+001  1.825327e+001 
3831250000  -3.822678e+001  4.260466e+000 
3834375000  -4.036658e+001  3.504248e+000 
3837500000  -4.092832e+001  7.833389e+000 
3840625000  -3.888985e+001  3.158150e+000 
3843750000  -3.848938e+001  -8.262304e+000 
3846875000  -3.998690e+001  -1.655946e+001 
3850000000  -4.051695e+001  -1.077007e+001 
3853125000  -3.980727e+001  -9.653424e+000 
3856250000  -3.935082e+001  -1.869680e+001 
3859375000  -3.870291e+001  -2.400801e+001 
3862500000  -3.867573e+001  -3.621793e+001 
3865625000  -3.902325e+001  -3.969179e+001 
3868750000  -3.874757e+001  -4.200691e+001 
3871875000  -3.812212e+001  -4.899328e+001 
3875000000  -3.851420e+001  -5.911956e+001 
3878125000  -3.980785e+001  -6.100562e+001 
3881250000  -3.917125e+001  -5.989097e+001 
3884375000  -3.902504e+001  -6.887400e+001 
3887500000  -3.913322e+001  -7.465942e+001 
3890625000  -3.963671e+001  -7.807600e+001 
3893750000  -3.998479e+001  -8.141234e+001 
3896875000  -3.993380e+001  -8.385265e+001 
3900000000  -3.984777e+001  -8.882307e+001 
3903125000  -3.944764e+001  -9.251484e+001 
3906250000  -3.918103e+001  -9.631855e+001 
3909375000  -3.827713e+001  -1.051280e+002 
3912500000  -3.902707e+001  -1.133734e+002 
3915625000  -4.023686e+001  -1.133746e+002 
3918750000  -4.000592e+001  -1.138147e+002 
3921875000  -3.928683e+001  -1.188789e+002 
3925000000  -3.850718e+001  -1.245679e+002 
3928125000  -3.819997e+001  -1.343950e+002 
3931250000  -3.911093e+001  -1.400460e+002 
3934375000  -3.971134e+001  -1.426951e+002 
3937500000  -3.987196e+001  -1.453827e+002 
3940625000  -4.011324e+001  -1.478235e+002 
3943750000  -3.889549e+001  -1.509593e+002 
3946875000  -3.841999e+001  -1.572867e+002 
3950000000  -3.971212e+001  -1.680203e+002 
3953125000  -3.990646e+001  -1.665147e+002 
3956250000  -3.907046e+001  -1.665056e+002 
3959375000  -3.823999e+001  -1.733891e+002 
3962500000  -3.771833e+001  1.779800e+002 
3965625000  -3.798734e+001  1.688947e+002 
3968750000  -3.900851e+001  1.600165e+002 
3971875000  -3.855719e+001  1.548303e+002 
3975000000  -3.849120e+001  1.528955e+002 
3978125000  -3.875430e+001  1.474577e+002 
3981250000  -3.873824e+001  1.404969e+002 
3984375000  -3.912499e+001  1.333936e+002 
3987500000  -3.991693e+001  1.302773e+002 
3990625000  -4.000146e+001  1.287159e+002 
3993750000  -4.004937e+001  1.244454e+002 
3996875000  -4.022010e+001  1.193955e+002 
4000000000  -4.077997e+001  1.165336e+002 
4003125000  -4.101449e+001  1.182954e+002 
4006250000  -3.943272e+001  1.140053e+002 
4009375000  -3.906627e+001  9.905681e+001 
4012500000  -4.032787e+001  9.020786e+001 
4015625000  -4.113992e+001  9.095470e+001 
4018750000  -4.152861e+001  9.164181e+001 
4021875000  -4.096393e+001  9.027479e+001 
4025000000  -4.068443e+001  8.265611e+001 
4028125000  -4.047268e+001  7.773847e+001 
4031250000  -4.129832e+001  7.303631e+001 
4034375000  -4.155980e+001  7.161205e+001 
4037500000  -4.107370e+001  7.208201e+001 
4040625000  -4.091965e+001  6.824152e+001 
4043750000  -4.127925e+001  6.368538e+001 
4046875000  -4.090702e+001  5.803967e+001 
4050000000  -4.070285e+001  5.650193e+001 
4053125000  -4.107160e+001  5.343645e+001 
4056250000  -4.113631e+001  5.580041e+001 
4059375000  -3.943252e+001  5.433983e+001 
4062500000  -3.889862e+001  4.740954e+001 
4065625000  -3.891806e+001  4.209498e+001 
4068750000  -3.846954e+001  3.552617e+001 
4071875000  -3.798918e+001  2.434571e+001 
4075000000  -3.846027e+001  1.632950e+001 
4078125000  -3.874558e+001  1.302901e+001 
4081250000  -3.820123e+001  9.288595e+000 
4084375000  -3.817295e+001  -1.644201e+000 
4087500000  -3.874994e+001  -5.719712e+000 
4090625000  -3.919151e+001  -9.460039e+000 
4093750000  -3.873684e+001  -1.213401e+001 
4096875000  -3.859943e+001  -2.240679e+001 
4100000000  -3.966177e+001  -2.764945e+001 
4103125000  -4.081121e+001  -2.512029e+001 
4106250000  -3.998839e+001  -2.450765e+001 
4109375000  -3.921487e+001  -2.688575e+001 
4112500000  -3.856683e+001  -3.699213e+001 
4115625000  -3.933239e+001  -4.311122e+001 
4118750000  -3.907327e+001  -4.817560e+001 
4121875000  -3.895692e+001  -5.501255e+001 
4125000000  -3.989140e+001  -6.196632e+001 
4128125000  -4.115646e+001  -6.077792e+001 
4131250000  -3.974890e+001  -5.509614e+001 
4134375000  -3.771584e+001  -6.522695e+001 
4137500000  -3.840079e+001  -8.394143e+001 
4140625000  -4.043400e+001  -9.057092e+001 
4143750000  -4.181258e+001  -8.474103e+001 
4146875000  -4.052590e+001  -8.080114e+001 
4150000000  -3.965295e+001  -8.785743e+001 
4153125000  -4.013795e+001  -9.731181e+001 
4156250000  -4.130435e+001  -1.018809e+002 
4159375000  -4.123101e+001  -9.593459e+001 
4162500000  -4.009138e+001  -9.466897e+001 
4165625000  -3.893395e+001  -1.023337e+002 
4168750000  -3.849409e+001  -1.106001e+002 
4171875000  -3.855568e+001  -1.203667e+002 
4175000000  -3.909008e+001  -1.284397e+002 
4178125000  -3.990088e+001  -1.284526e+002 
4181250000  -3.940942e+001  -1.320520e+002 
4184375000  -3.973291e+001  -1.360689e+002 
4187500000  -3.973492e+001  -1.407384e+002 
4190625000  -3.950772e+001  -1.491385e+002 
4193750000  -4.062262e+001  -1.543683e+002 
4196875000  -4.143886e+001  -1.559323e+002 
4200000000  -4.243447e+001  -1.521962e+002 
4203125000  -4.125715e+001  -1.398776e+002 
4206250000  -3.772977e+001  -1.472116e+002 
4209375000  -3.748363e+001  -1.680290e+002 
4212500000  -3.956947e+001  -1.758555e+002 
4215625000  -4.033506e+001  -1.701166e+002 
4218750000  -3.831430e+001  -1.675449e+002 
4221875000  -3.674381e+001  -1.771304e+002 
4225000000  -3.790299e+001  1.707826e+002 
4228125000  -3.772300e+001  1.709072e+002 
4231250000  -3.624641e+001  1.653248e+002 
4234375000  -3.632867e+001  1.539402e+002 
4237500000  -3.614429e+001  1.477850e+002 
4240625000  -3.653099e+001  1.382241e+002 
4243750000  -3.748204e+001  1.282370e+002 
4246875000  -3.836352e+001  1.267144e+002 
4250000000  -3.838403e+001  1.295742e+002 
4253125000  -3.801716e+001  1.244776e+002 
4256250000  -3.801204e+001  1.192351e+002 
4259375000  -3.751942e+001  1.141044e+002 
4262500000  -3.787386e+001  1.102692e+002 
4265625000  -3.785839e+001  1.080864e+002 
4268750000  -3.691584e+001  9.874310e+001 
4271875000  -3.686322e+001  8.994764e+001 
4275000000  -3.651033e+001  8.361919e+001 
4278125000  -3.778938e+001  6.987002e+001 
4281250000  -3.886163e+001  6.840761e+001 
4284375000  -3.885405e+001  6.684937e+001 
4287500000  -4.009189e+001  6.354324e+001 
4290625000  -4.087639e+001  7.126125e+001 
4293750000  -3.860368e+001  7.029365e+001 
4296875000  -3.785024e+001  6.033760e+001 
4300000000  -3.891055e+001  4.827374e+001 
4303125000  -3.987567e+001  5.219156e+001 
4306250000  -3.869538e+001  5.445756e+001 
4309375000  -3.782805e+001  4.874212e+001 
4312500000  -3.759358e+001  3.642212e+001 
4315625000  -3.802053e+001  3.021705e+001 
4318750000  -3.865411e+001  2.581379e+001 
4321875000  -3.870935e+001  2.662907e+001 
4325000000  -3.831445e+001  2.406864e+001 
4328125000  -3.732559e+001  1.610063e+001 
4331250000  -3.753484e+001  5.266489e+000 
4334375000  -3.826094e+001  -2.460381e-001 
4337500000  -3.940001e+001  -7.603759e-001 
4340625000  -3.994646e+001  2.711101e+000 
4343750000  -3.883407e+001  -1.455214e-001 
4346875000  -3.835537e+001  -1.003018e+001 
4350000000  -3.839162e+001  -1.710925e+001 
4353125000  -3.875216e+001  -2.484381e+001 
4356250000  -4.102988e+001  -2.143635e+001 
4359375000  -4.075105e+001  -6.161995e+000 
4362500000  -3.690103e+001  -1.464472e+001 
4365625000  -3.609908e+001  -3.418880e+001 
4368750000  -3.740588e+001  -4.359799e+001 
4371875000  -3.808592e+001  -4.143534e+001 
4375000000  -3.755859e+001  -4.582027e+001 
4378125000  -3.701160e+001  -5.488940e+001 
4381250000  -3.709947e+001  -6.171358e+001 
4384375000  -3.731980e+001  -6.870139e+001 
4387500000  -3.841449e+001  -7.551940e+001 
4390625000  -3.850789e+001  -7.579785e+001 
4393750000  -3.810885e+001  -7.500798e+001 
4396875000  -3.727684e+001  -8.051207e+001 
4400000000  -3.710047e+001  -8.962274e+001 
4403125000  -3.793295e+001  -9.966223e+001 
4406250000  -3.835520e+001  -1.026438e+002 
4409375000  -3.876477e+001  -1.053841e+002 
4412500000  -3.975859e+001  -1.093795e+002 
4415625000  -3.990383e+001  -1.063103e+002 
