!Agilent Technologies,E8363B,MY43030201,A.06.04.32
!Agilent E8363B: A.06.04.32
!Date: Tuesday, November 11, 2014 21:30:16
!Correction: S21(Response(S21)) 
!S1P File: Measurement: S21:
# Hz S  dB   R 50
3000000000  -4.047961e+001  8.405872e+001 
3003125000  -4.215986e+001  7.638657e+001 
3006250000  -4.212802e+001  7.637883e+001 
3009375000  -4.279192e+001  8.127838e+001 
3012500000  -4.149168e+001  7.634704e+001 
3015625000  -4.127467e+001  6.868351e+001 
3018750000  -4.186113e+001  6.877897e+001 
3021875000  -4.027996e+001  6.988144e+001 
3025000000  -3.886051e+001  6.585414e+001 
3028125000  -3.788196e+001  5.682243e+001 
3031250000  -3.707610e+001  4.445419e+001 
3034375000  -3.678915e+001  3.038773e+001 
3037500000  -3.748424e+001  1.915656e+001 
3040625000  -3.865483e+001  1.338262e+001 
3043750000  -3.920608e+001  8.164395e+000 
3046875000  -3.959927e+001  3.538180e+000 
3050000000  -4.091354e+001  -2.701227e+000 
3053125000  -4.044569e+001  1.938543e+000 
3056250000  -4.038488e+001  3.659904e+000 
3059375000  -3.981289e+001  3.286278e+000 
3062500000  -3.822737e+001  -2.434206e+000 
3065625000  -3.787801e+001  -1.106057e+001 
3068750000  -3.749643e+001  -2.003284e+001 
3071875000  -3.761901e+001  -2.171132e+001 
3075000000  -3.704468e+001  -2.851987e+001 
3078125000  -3.702583e+001  -3.469452e+001 
3081250000  -3.727721e+001  -4.081028e+001 
3084375000  -3.631234e+001  -4.564801e+001 
3087500000  -3.632129e+001  -5.201896e+001 
3090625000  -3.586852e+001  -6.408467e+001 
3093750000  -3.690657e+001  -7.296956e+001 
3096875000  -3.733515e+001  -7.784049e+001 
3100000000  -3.723235e+001  -8.079615e+001 
3103125000  -3.756473e+001  -8.461298e+001 
3106250000  -3.722472e+001  -8.932762e+001 
3109375000  -3.722634e+001  -9.312765e+001 
3112500000  -3.708759e+001  -9.925420e+001 
3115625000  -3.713791e+001  -1.037937e+002 
3118750000  -3.727961e+001  -1.057407e+002 
3121875000  -3.652153e+001  -1.179353e+002 
3125000000  -3.830322e+001  -1.209651e+002 
3128125000  -3.860895e+001  -1.136428e+002 
3131250000  -3.626423e+001  -1.191182e+002 
3134375000  -3.528312e+001  -1.367077e+002 
3137500000  -3.599166e+001  -1.489033e+002 
3140625000  -3.728172e+001  -1.515385e+002 
3143750000  -3.829454e+001  -1.538901e+002 
3146875000  -3.770517e+001  -1.521586e+002 
3150000000  -3.692125e+001  -1.550050e+002 
3153125000  -3.712613e+001  -1.651904e+002 
3156250000  -3.812268e+001  -1.601262e+002 
3159375000  -3.578355e+001  -1.615192e+002 
3162500000  -3.426205e+001  -1.773942e+002 
3165625000  -3.543151e+001  1.705018e+002 
3168750000  -3.539478e+001  1.687125e+002 
3171875000  -3.499944e+001  1.618432e+002 
3175000000  -3.554804e+001  1.525696e+002 
3178125000  -3.501899e+001  1.516980e+002 
3181250000  -3.435069e+001  1.430749e+002 
3184375000  -3.414333e+001  1.309384e+002 
3187500000  -3.540775e+001  1.174380e+002 
3190625000  -3.739044e+001  1.099076e+002 
3193750000  -3.746091e+001  1.156940e+002 
3196875000  -3.739133e+001  1.162452e+002 
3200000000  -3.624351e+001  1.117631e+002 
3203125000  -3.582750e+001  1.045340e+002 
3206250000  -3.612380e+001  9.494080e+001 
3209375000  -3.580760e+001  8.844394e+001 
3212500000  -3.626972e+001  8.091121e+001 
3215625000  -3.595287e+001  7.841737e+001 
3218750000  -3.694660e+001  6.683198e+001 
3221875000  -3.730027e+001  6.013621e+001 
3225000000  -3.712970e+001  5.673344e+001 
3228125000  -3.769132e+001  4.832346e+001 
3231250000  -3.823552e+001  4.745891e+001 
3234375000  -3.785085e+001  4.426122e+001 
3237500000  -3.808430e+001  4.028159e+001 
3240625000  -3.766118e+001  3.557162e+001 
3243750000  -3.778623e+001  2.377874e+001 
3246875000  -3.825167e+001  1.755206e+001 
3250000000  -3.891005e+001  1.382042e+001 
3253125000  -3.906863e+001  1.022402e+001 
3256250000  -3.857369e+001  2.681027e+000 
3259375000  -3.907434e+001  -7.503274e+000 
3262500000  -4.070373e+001  -1.297978e+001 
3265625000  -4.139777e+001  -9.220355e+000 
3268750000  -4.127422e+001  -7.973211e+000 
3271875000  -4.069191e+001  -1.145287e+001 
3275000000  -4.021331e+001  -2.078776e+001 
3278125000  -4.089779e+001  -2.544468e+001 
3281250000  -4.096501e+001  -2.761224e+001 
3284375000  -4.069183e+001  -3.288154e+001 
3287500000  -4.086655e+001  -3.624489e+001 
3290625000  -4.116301e+001  -4.443428e+001 
3293750000  -4.134304e+001  -5.037989e+001 
3296875000  -4.232888e+001  -5.156399e+001 
3300000000  -4.192051e+001  -5.091500e+001 
3303125000  -4.090375e+001  -5.668860e+001 
3306250000  -4.086490e+001  -6.520687e+001 
3309375000  -4.059978e+001  -7.296190e+001 
3312500000  -4.093680e+001  -8.478622e+001 
3315625000  -4.222913e+001  -9.184328e+001 
3318750000  -4.397570e+001  -9.650134e+001 
3321875000  -4.494824e+001  -9.424110e+001 
3325000000  -4.486306e+001  -8.521379e+001 
3328125000  -4.375248e+001  -8.839367e+001 
3331250000  -4.210177e+001  -8.394260e+001 
3334375000  -4.008097e+001  -9.957140e+001 
3337500000  -4.033879e+001  -1.174430e+002 
3340625000  -4.208255e+001  -1.286243e+002 
3343750000  -4.432889e+001  -1.283163e+002 
3346875000  -4.358620e+001  -1.294463e+002 
3350000000  -4.334018e+001  -1.314683e+002 
3353125000  -4.289507e+001  -1.388898e+002 
3356250000  -4.251234e+001  -1.474173e+002 
3359375000  -4.353198e+001  -1.563219e+002 
3362500000  -4.428725e+001  -1.642509e+002 
3365625000  -4.458249e+001  -1.657594e+002 
3368750000  -4.558173e+001  -1.724874e+002 
3371875000  -4.605713e+001  -1.769411e+002 
3375000000  -4.729798e+001  -1.792930e+002 
3378125000  -4.810128e+001  -1.780372e+002 
3381250000  -4.933546e+001  -1.672645e+002 
3384375000  -4.672424e+001  -1.527704e+002 
3387500000  -4.427674e+001  -1.768901e+002 
3390625000  -4.587362e+001  1.659049e+002 
3393750000  -4.723841e+001  1.633793e+002 
3396875000  -4.624244e+001  1.616822e+002 
3400000000  -4.640453e+001  1.504716e+002 
3403125000  -4.699696e+001  1.448324e+002 
3406250000  -4.749880e+001  1.387578e+002 
3409375000  -4.771223e+001  1.368651e+002 
3412500000  -4.909305e+001  1.297805e+002 
3415625000  -4.943149e+001  1.266804e+002 
3418750000  -4.977731e+001  1.279209e+002 
3421875000  -5.187075e+001  1.337287e+002 
3425000000  -5.017068e+001  1.334502e+002 
3428125000  -4.983366e+001  1.236755e+002 
3431250000  -4.993466e+001  1.191144e+002 
3434375000  -5.159152e+001  1.178723e+002 
3437500000  -5.154486e+001  1.116929e+002 
3440625000  -5.231298e+001  1.177877e+002 
3443750000  -5.153024e+001  1.191849e+002 
3446875000  -5.100235e+001  1.124857e+002 
3450000000  -5.093804e+001  1.006619e+002 
3453125000  -5.090855e+001  9.176361e+001 
3456250000  -5.237560e+001  9.466026e+001 
3459375000  -5.324549e+001  1.001782e+002 
3462500000  -5.343605e+001  1.012553e+002 
3465625000  -5.194613e+001  9.010883e+001 
3468750000  -5.299752e+001  9.704878e+001 
3471875000  -5.207034e+001  9.185260e+001 
3475000000  -5.118053e+001  8.389348e+001 
3478125000  -5.133903e+001  7.837907e+001 
3481250000  -5.212745e+001  7.814820e+001 
3484375000  -5.302436e+001  8.302072e+001 
3487500000  -5.122197e+001  7.584157e+001 
3490625000  -5.135743e+001  6.910267e+001 
3493750000  -5.209020e+001  6.080215e+001 
3496875000  -5.128475e+001  6.285915e+001 
3500000000  -5.215855e+001  6.188691e+001 
3503125000  -5.087061e+001  6.034325e+001 
3506250000  -5.014323e+001  5.361331e+001 
3509375000  -4.961475e+001  3.938852e+001 
3512500000  -5.009171e+001  2.608693e+001 
3515625000  -5.148393e+001  2.375164e+001 
3518750000  -5.245911e+001  2.490458e+001 
3521875000  -5.255174e+001  1.822400e+001 
3525000000  -5.283389e+001  8.665624e+000 
3528125000  -5.253998e+001  1.548927e+001 
3531250000  -5.221251e+001  9.224553e+000 
3534375000  -5.256684e+001  2.063322e+000 
3537500000  -5.349065e+001  -1.112192e+001 
3540625000  -5.444804e+001  -1.511966e+001 
3543750000  -5.628171e+001  -6.705573e+000 
3546875000  -5.674148e+001  5.950273e+000 
3550000000  -5.348395e+001  -5.462293e+000 
3553125000  -5.422969e+001  -1.647341e+001 
3556250000  -5.471532e+001  -1.749639e+001 
3559375000  -5.570131e+001  -1.653323e+001 
3562500000  -5.617902e+001  -2.671017e+001 
3565625000  -5.578917e+001  -2.768381e+001 
3568750000  -5.761962e+001  -2.859877e+001 
3571875000  -5.723613e+001  -2.844508e+001 
3575000000  -5.827959e+001  -2.953130e+001 
3578125000  -5.873701e+001  -2.588742e+001 
3581250000  -5.891481e+001  -2.018487e+001 
3584375000  -5.762095e+001  -2.900612e+001 
3587500000  -5.793150e+001  -2.424271e+001 
3590625000  -5.900277e+001  -4.536159e+001 
3593750000  -5.996111e+001  -3.576101e+001 
3596875000  -5.871881e+001  -7.658054e+000 
3600000000  -5.653539e+001  -1.844120e+001 
3603125000  -5.788719e+001  -3.766584e+001 
3606250000  -5.753597e+001  -4.245470e+001 
3609375000  -5.863784e+001  -3.532723e+001 
3612500000  -5.892349e+001  -3.515715e+001 
3615625000  -5.793868e+001  -4.059600e+001 
3618750000  -5.871593e+001  -3.511326e+001 
3621875000  -5.650017e+001  -2.829020e+001 
3625000000  -5.812046e+001  -2.833924e+001 
3628125000  -5.684481e+001  -3.322533e+001 
3631250000  -5.701871e+001  -3.281658e+001 
3634375000  -5.666320e+001  -2.730098e+001 
3637500000  -5.481665e+001  -3.539804e+001 
3640625000  -5.324553e+001  -2.251571e+001 
3643750000  -5.361245e+001  -3.393565e+001 
3646875000  -5.278016e+001  -4.009368e+001 
3650000000  -5.265964e+001  -4.519020e+001 
3653125000  -5.152030e+001  -4.898009e+001 
3656250000  -5.148666e+001  -5.377691e+001 
3659375000  -5.132336e+001  -5.494229e+001 
3662500000  -5.029465e+001  -5.508109e+001 
3665625000  -4.944070e+001  -6.215156e+001 
3668750000  -4.785712e+001  -6.076004e+001 
3671875000  -4.756665e+001  -7.448136e+001 
3675000000  -4.717806e+001  -8.079468e+001 
3678125000  -4.711662e+001  -8.237016e+001 
3681250000  -4.657421e+001  -8.600733e+001 
3684375000  -4.683566e+001  -9.434401e+001 
3687500000  -4.660729e+001  -9.819820e+001 
3690625000  -4.674060e+001  -1.055707e+002 
3693750000  -4.752219e+001  -1.077802e+002 
3696875000  -4.642871e+001  -1.031503e+002 
3700000000  -4.560181e+001  -1.130901e+002 
3703125000  -4.521453e+001  -1.181751e+002 
3706250000  -4.618551e+001  -1.208748e+002 
3709375000  -4.498315e+001  -1.201087e+002 
3712500000  -4.345232e+001  -1.241591e+002 
3715625000  -4.217202e+001  -1.346784e+002 
3718750000  -4.166240e+001  -1.404789e+002 
3721875000  -4.128452e+001  -1.511119e+002 
3725000000  -4.187796e+001  -1.550143e+002 
3728125000  -4.147353e+001  -1.600309e+002 
3731250000  -4.054152e+001  -1.655640e+002 
3734375000  -4.008570e+001  -1.744691e+002 
3737500000  -4.052205e+001  1.775807e+002 
3740625000  -4.089249e+001  1.714939e+002 
3743750000  -4.085017e+001  1.671416e+002 
3746875000  -4.065808e+001  1.593281e+002 
3750000000  -4.102561e+001  1.525224e+002 
3753125000  -4.069638e+001  1.503419e+002 
3756250000  -4.068683e+001  1.476755e+002 
3759375000  -4.021195e+001  1.425823e+002 
3762500000  -3.995093e+001  1.347211e+002 
3765625000  -4.089957e+001  1.309097e+002 
3768750000  -4.044736e+001  1.316834e+002 
3771875000  -3.834747e+001  1.246957e+002 
3775000000  -3.839626e+001  1.117748e+002 
3778125000  -3.898933e+001  1.052981e+002 
3781250000  -3.898575e+001  1.016987e+002 
3784375000  -3.875311e+001  9.672801e+001 
3787500000  -3.843949e+001  8.981657e+001 
3790625000  -3.912601e+001  8.245979e+001 
3793750000  -3.907120e+001  7.800154e+001 
3796875000  -3.818584e+001  7.333237e+001 
3800000000  -3.642738e+001  7.001396e+001 
3803125000  -3.797818e+001  5.524125e+001 
3806250000  -3.887076e+001  5.021420e+001 
3809375000  -3.865475e+001  4.637532e+001 
3812500000  -3.841487e+001  3.767036e+001 
3815625000  -3.950388e+001  2.854862e+001 
3818750000  -4.067648e+001  2.961497e+001 
3821875000  -4.042157e+001  3.957991e+001 
3825000000  -3.840804e+001  3.597086e+001 
3828125000  -3.716400e+001  1.795375e+001 
3831250000  -3.814245e+001  1.919446e+000 
3834375000  -4.012329e+001  6.756788e-001 
3837500000  -4.074633e+001  6.793421e+000 
3840625000  -3.895384e+001  4.473292e+000 
3843750000  -3.844637e+001  -1.308844e+001 
3846875000  -3.992207e+001  -1.961721e+001 
3850000000  -4.069896e+001  -1.221807e+001 
3853125000  -3.985569e+001  -1.231833e+001 
3856250000  -3.968731e+001  -1.836820e+001 
3859375000  -3.882581e+001  -2.635696e+001 
3862500000  -3.861463e+001  -3.647770e+001 
3865625000  -3.908964e+001  -4.185373e+001 
3868750000  -3.868986e+001  -4.242253e+001 
3871875000  -3.828236e+001  -4.985864e+001 
3875000000  -3.847150e+001  -6.072552e+001 
3878125000  -3.949714e+001  -6.209946e+001 
3881250000  -3.937842e+001  -6.220295e+001 
3884375000  -3.882242e+001  -7.063946e+001 
3887500000  -3.890565e+001  -7.509772e+001 
3890625000  -3.956593e+001  -7.975372e+001 
3893750000  -3.989381e+001  -8.309509e+001 
3896875000  -3.998859e+001  -8.670264e+001 
3900000000  -4.020091e+001  -8.801466e+001 
3903125000  -3.949711e+001  -9.425883e+001 
3906250000  -3.917424e+001  -9.764725e+001 
3909375000  -3.828755e+001  -1.079865e+002 
3912500000  -3.912334e+001  -1.155919e+002 
3915625000  -4.047458e+001  -1.155079e+002 
3918750000  -3.989565e+001  -1.167713e+002 
3921875000  -3.932154e+001  -1.204952e+002 
3925000000  -3.866335e+001  -1.280500e+002 
3928125000  -3.829113e+001  -1.352274e+002 
3931250000  -3.908778e+001  -1.417495e+002 
3934375000  -3.947318e+001  -1.436355e+002 
3937500000  -4.005446e+001  -1.479739e+002 
3940625000  -4.004824e+001  -1.478311e+002 
3943750000  -3.910863e+001  -1.504496e+002 
3946875000  -3.833206e+001  -1.578610e+002 
3950000000  -3.943361e+001  -1.686602e+002 
3953125000  -3.994846e+001  -1.686648e+002 
3956250000  -3.886866e+001  -1.688264e+002 
3959375000  -3.784766e+001  -1.745761e+002 
3962500000  -3.761795e+001  1.753749e+002 
3965625000  -3.794282e+001  1.679723e+002 
3968750000  -3.886040e+001  1.591451e+002 
3971875000  -3.864771e+001  1.551349e+002 
3975000000  -3.845982e+001  1.509868e+002 
3978125000  -3.871368e+001  1.461641e+002 
3981250000  -3.853850e+001  1.393376e+002 
3984375000  -3.911945e+001  1.344309e+002 
3987500000  -3.994784e+001  1.281471e+002 
3990625000  -3.976251e+001  1.291447e+002 
3993750000  -4.005045e+001  1.237570e+002 
3996875000  -3.993979e+001  1.184308e+002 
4000000000  -4.049097e+001  1.118674e+002 
4003125000  -4.116005e+001  1.137850e+002 
4006250000  -3.947789e+001  1.130386e+002 
4009375000  -3.852475e+001  9.829463e+001 
4012500000  -4.009859e+001  9.082386e+001 
4015625000  -4.147112e+001  9.004681e+001 
4018750000  -4.139109e+001  9.187974e+001 
4021875000  -4.072798e+001  8.828378e+001 
4025000000  -4.055697e+001  8.204755e+001 
4028125000  -4.060347e+001  7.417371e+001 
4031250000  -4.152467e+001  6.926374e+001 
4034375000  -4.156305e+001  7.001630e+001 
4037500000  -4.128506e+001  7.139803e+001 
4040625000  -4.095139e+001  6.514732e+001 
4043750000  -4.131796e+001  6.345398e+001 
4046875000  -4.075773e+001  5.796762e+001 
4050000000  -4.069988e+001  5.296198e+001 
4053125000  -4.152795e+001  4.806741e+001 
4056250000  -4.167296e+001  5.564809e+001 
4059375000  -3.947761e+001  5.373976e+001 
4062500000  -3.889502e+001  4.552967e+001 
4065625000  -3.899449e+001  3.878366e+001 
4068750000  -3.819546e+001  3.323374e+001 
4071875000  -3.807330e+001  2.266783e+001 
4075000000  -3.819542e+001  1.615665e+001 
4078125000  -3.864322e+001  1.187678e+001 
4081250000  -3.834227e+001  6.380367e+000 
4084375000  -3.834197e+001  -1.544881e+000 
4087500000  -3.861224e+001  -8.235499e+000 
4090625000  -3.927319e+001  -1.196507e+001 
4093750000  -3.888858e+001  -1.285612e+001 
4096875000  -3.872491e+001  -2.273563e+001 
4100000000  -3.988156e+001  -3.039839e+001 
4103125000  -4.076925e+001  -2.914187e+001 
4106250000  -4.008506e+001  -2.488596e+001 
4109375000  -3.934158e+001  -2.883364e+001 
4112500000  -3.897653e+001  -3.886343e+001 
4115625000  -3.924886e+001  -4.572701e+001 
4118750000  -3.887378e+001  -4.930781e+001 
4121875000  -3.878959e+001  -5.579091e+001 
4125000000  -3.978729e+001  -6.418860e+001 
4128125000  -4.091923e+001  -6.028559e+001 
4131250000  -3.973499e+001  -5.641767e+001 
4134375000  -3.757773e+001  -6.617370e+001 
4137500000  -3.818861e+001  -8.660725e+001 
4140625000  -4.067685e+001  -9.314961e+001 
4143750000  -4.143601e+001  -8.851887e+001 
4146875000  -4.073809e+001  -8.172981e+001 
4150000000  -3.970844e+001  -8.992505e+001 
4153125000  -3.998116e+001  -9.930060e+001 
4156250000  -4.126189e+001  -1.048171e+002 
4159375000  -4.088893e+001  -9.674765e+001 
4162500000  -4.007217e+001  -9.432417e+001 
4165625000  -3.921674e+001  -1.007792e+002 
4168750000  -3.857039e+001  -1.129085e+002 
4171875000  -3.842162e+001  -1.225420e+002 
4175000000  -3.924955e+001  -1.300106e+002 
4178125000  -3.970317e+001  -1.300504e+002 
4181250000  -3.972125e+001  -1.320075e+002 
4184375000  -3.948497e+001  -1.380331e+002 
4187500000  -3.956074e+001  -1.436422e+002 
4190625000  -3.957304e+001  -1.510704e+002 
4193750000  -4.072875e+001  -1.542612e+002 
4196875000  -4.136535e+001  -1.579206e+002 
4200000000  -4.249218e+001  -1.510335e+002 
4203125000  -4.125792e+001  -1.390218e+002 
4206250000  -3.770895e+001  -1.466159e+002 
4209375000  -3.726299e+001  -1.696839e+002 
4212500000  -3.993940e+001  -1.777659e+002 
4215625000  -4.031132e+001  -1.713066e+002 
4218750000  -3.816498e+001  -1.699196e+002 
4221875000  -3.689947e+001  1.799090e+002 
4225000000  -3.770760e+001  1.688779e+002 
4228125000  -3.791740e+001  1.703579e+002 
4231250000  -3.613970e+001  1.612360e+002 
4234375000  -3.644348e+001  1.509663e+002 
4237500000  -3.603027e+001  1.460183e+002 
4240625000  -3.646892e+001  1.364629e+002 
4243750000  -3.744268e+001  1.274213e+002 
4246875000  -3.829709e+001  1.275460e+002 
4250000000  -3.829102e+001  1.258568e+002 
4253125000  -3.810629e+001  1.233867e+002 
4256250000  -3.827010e+001  1.164945e+002 
4259375000  -3.779177e+001  1.127692e+002 
4262500000  -3.807660e+001  1.082821e+002 
4265625000  -3.802100e+001  1.055243e+002 
4268750000  -3.682154e+001  9.888615e+001 
4271875000  -3.705618e+001  8.892761e+001 
4275000000  -3.667094e+001  8.150516e+001 
4278125000  -3.790584e+001  6.965977e+001 
4281250000  -3.935794e+001  6.755168e+001 
4284375000  -3.892188e+001  6.389064e+001 
4287500000  -4.034173e+001  6.028089e+001 
4290625000  -4.078768e+001  7.002613e+001 
4293750000  -3.849162e+001  7.070296e+001 
4296875000  -3.783907e+001  5.659793e+001 
4300000000  -3.935251e+001  4.784674e+001 
4303125000  -3.971760e+001  4.828962e+001 
4306250000  -3.889351e+001  5.298480e+001 
4309375000  -3.786111e+001  4.840307e+001 
4312500000  -3.783116e+001  3.572458e+001 
4315625000  -3.810815e+001  2.895614e+001 
4318750000  -3.873204e+001  2.377366e+001 
4321875000  -3.876394e+001  2.469323e+001 
4325000000  -3.821035e+001  2.296225e+001 
4328125000  -3.750910e+001  1.367332e+001 
4331250000  -3.764380e+001  3.986268e+000 
4334375000  -3.819583e+001  -2.570483e+000 
4337500000  -3.965062e+001  -2.448448e+000 
4340625000  -3.973138e+001  4.986326e-001 
4343750000  -3.862229e+001  -3.769718e+000 
4346875000  -3.849644e+001  -1.021498e+001 
4350000000  -3.826131e+001  -1.972792e+001 
4353125000  -3.857269e+001  -2.736277e+001 
4356250000  -4.129567e+001  -2.531055e+001 
4359375000  -4.020637e+001  -1.062299e+001 
4362500000  -3.672179e+001  -1.808787e+001 
4365625000  -3.619801e+001  -3.394210e+001 
4368750000  -3.727408e+001  -4.373122e+001 
4371875000  -3.788726e+001  -4.473524e+001 
4375000000  -3.761765e+001  -4.716397e+001 
4378125000  -3.692181e+001  -5.539748e+001 
4381250000  -3.720507e+001  -6.171243e+001 
4384375000  -3.728635e+001  -7.075788e+001 
4387500000  -3.837996e+001  -7.753619e+001 
4390625000  -3.874664e+001  -7.508205e+001 
4393750000  -3.815441e+001  -7.709683e+001 
4396875000  -3.725038e+001  -8.181098e+001 
4400000000  -3.699107e+001  -9.077074e+001 
4403125000  -3.776390e+001  -1.002648e+002 
4406250000  -3.862192e+001  -1.023655e+002 
4409375000  -3.871161e+001  -1.089680e+002 
4412500000  -3.939696e+001  -1.110627e+002 
4415625000  -3.971471e+001  -1.075630e+002 
