!Agilent Technologies,E8363B,MY43030201,A.06.04.32
!Agilent E8363B: A.06.04.32
!Date: Tuesday, November 11, 2014 21:31:47
!Correction: S21(Response(S21)) 
!S1P File: Measurement: S21:
# Hz S  dB   R 50
3000000000  -4.049154e+001  7.927879e+001 
3003125000  -4.211869e+001  7.084230e+001 
3006250000  -4.204062e+001  7.050020e+001 
3009375000  -4.251456e+001  7.515899e+001 
3012500000  -4.159615e+001  6.894527e+001 
3015625000  -4.144654e+001  6.358071e+001 
3018750000  -4.170294e+001  6.444498e+001 
3021875000  -4.029476e+001  6.523392e+001 
3025000000  -3.880693e+001  6.097955e+001 
3028125000  -3.784490e+001  5.166799e+001 
3031250000  -3.688609e+001  3.851026e+001 
3034375000  -3.670904e+001  2.489442e+001 
3037500000  -3.756789e+001  1.460118e+001 
3040625000  -3.870679e+001  9.118711e+000 
3043750000  -3.926548e+001  4.254681e+000 
3046875000  -3.967726e+001  -2.733038e+000 
3050000000  -4.105939e+001  -9.059062e+000 
3053125000  -4.053635e+001  -4.097622e+000 
3056250000  -4.053967e+001  2.547931e-001 
3059375000  -3.977625e+001  -1.152982e+000 
3062500000  -3.813049e+001  -6.508062e+000 
3065625000  -3.782279e+001  -1.601895e+001 
3068750000  -3.756289e+001  -2.478912e+001 
3071875000  -3.749714e+001  -2.718707e+001 
3075000000  -3.705260e+001  -3.281422e+001 
3078125000  -3.708751e+001  -3.974630e+001 
3081250000  -3.715485e+001  -4.634788e+001 
3084375000  -3.634834e+001  -5.061178e+001 
3087500000  -3.647615e+001  -5.642824e+001 
3090625000  -3.582155e+001  -6.949982e+001 
3093750000  -3.687038e+001  -7.727607e+001 
3096875000  -3.740193e+001  -8.237013e+001 
3100000000  -3.729469e+001  -8.579991e+001 
3103125000  -3.749206e+001  -8.882149e+001 
3106250000  -3.718639e+001  -9.422948e+001 
3109375000  -3.725705e+001  -9.805008e+001 
3112500000  -3.719307e+001  -1.041480e+002 
3115625000  -3.703395e+001  -1.084443e+002 
3118750000  -3.721704e+001  -1.111213e+002 
3121875000  -3.640969e+001  -1.230439e+002 
3125000000  -3.847943e+001  -1.255745e+002 
3128125000  -3.850060e+001  -1.183051e+002 
3131250000  -3.608143e+001  -1.242965e+002 
3134375000  -3.536264e+001  -1.409400e+002 
3137500000  -3.594427e+001  -1.549531e+002 
3140625000  -3.725532e+001  -1.565311e+002 
3143750000  -3.815907e+001  -1.590944e+002 
3146875000  -3.770264e+001  -1.563036e+002 
3150000000  -3.685142e+001  -1.604991e+002 
3153125000  -3.716856e+001  -1.695290e+002 
3156250000  -3.786216e+001  -1.647588e+002 
3159375000  -3.560038e+001  -1.669068e+002 
3162500000  -3.424848e+001  1.780587e+002 
3165625000  -3.547458e+001  1.654134e+002 
3168750000  -3.532481e+001  1.641498e+002 
3171875000  -3.484388e+001  1.563612e+002 
3175000000  -3.553769e+001  1.477287e+002 
3178125000  -3.497656e+001  1.465759e+002 
3181250000  -3.439251e+001  1.375100e+002 
3184375000  -3.417487e+001  1.258049e+002 
3187500000  -3.551284e+001  1.105510e+002 
3190625000  -3.730628e+001  1.052290e+002 
3193750000  -3.746690e+001  1.102725e+002 
3196875000  -3.749595e+001  1.116855e+002 
3200000000  -3.621004e+001  1.068891e+002 
3203125000  -3.588612e+001  9.792120e+001 
3206250000  -3.604828e+001  9.082397e+001 
3209375000  -3.581381e+001  8.312441e+001 
3212500000  -3.624986e+001  7.622245e+001 
3215625000  -3.607708e+001  7.363853e+001 
3218750000  -3.685527e+001  6.221748e+001 
3221875000  -3.708821e+001  5.568636e+001 
3225000000  -3.696481e+001  5.196259e+001 
3228125000  -3.783841e+001  4.394526e+001 
3231250000  -3.835557e+001  4.232349e+001 
3234375000  -3.791831e+001  3.920813e+001 
3237500000  -3.807014e+001  3.489316e+001 
3240625000  -3.743826e+001  2.973185e+001 
3243750000  -3.756107e+001  1.927561e+001 
3246875000  -3.818211e+001  1.167154e+001 
3250000000  -3.870474e+001  8.974627e+000 
3253125000  -3.910878e+001  5.917128e+000 
3256250000  -3.859069e+001  -2.818204e+000 
3259375000  -3.913551e+001  -1.348317e+001 
3262500000  -4.074408e+001  -1.667508e+001 
3265625000  -4.115815e+001  -1.394926e+001 
3268750000  -4.114981e+001  -1.461955e+001 
3271875000  -4.046398e+001  -1.677771e+001 
3275000000  -4.025914e+001  -2.609378e+001 
3278125000  -4.080608e+001  -3.097444e+001 
3281250000  -4.115432e+001  -3.199442e+001 
3284375000  -4.035962e+001  -3.983688e+001 
3287500000  -4.101445e+001  -4.046063e+001 
3290625000  -4.113050e+001  -4.941483e+001 
3293750000  -4.111655e+001  -5.461727e+001 
3296875000  -4.246783e+001  -5.547625e+001 
3300000000  -4.202385e+001  -5.577789e+001 
3303125000  -4.087154e+001  -6.279506e+001 
3306250000  -4.080681e+001  -7.131880e+001 
3309375000  -4.052946e+001  -7.836305e+001 
3312500000  -4.107663e+001  -9.078758e+001 
3315625000  -4.210545e+001  -9.658710e+001 
3318750000  -4.357434e+001  -1.008507e+002 
3321875000  -4.521206e+001  -9.731508e+001 
3325000000  -4.482940e+001  -9.044581e+001 
3328125000  -4.399443e+001  -9.071114e+001 
3331250000  -4.225252e+001  -8.855518e+001 
3334375000  -3.972052e+001  -1.054783e+002 
3337500000  -4.025561e+001  -1.262890e+002 
3340625000  -4.234171e+001  -1.325722e+002 
3343750000  -4.416908e+001  -1.318418e+002 
3346875000  -4.339632e+001  -1.342200e+002 
3350000000  -4.295183e+001  -1.356655e+002 
3353125000  -4.296741e+001  -1.424070e+002 
3356250000  -4.256413e+001  -1.518802e+002 
3359375000  -4.336943e+001  -1.650590e+002 
3362500000  -4.455583e+001  -1.686839e+002 
3365625000  -4.490730e+001  -1.731838e+002 
3368750000  -4.561916e+001  -1.760306e+002 
3371875000  -4.587856e+001  1.786761e+002 
3375000000  -4.763570e+001  1.717877e+002 
3378125000  -4.849370e+001  1.757282e+002 
3381250000  -4.943008e+001  -1.719383e+002 
3384375000  -4.666129e+001  -1.615731e+002 
3387500000  -4.398118e+001  1.778138e+002 
3390625000  -4.594476e+001  1.559523e+002 
3393750000  -4.699752e+001  1.604272e+002 
3396875000  -4.596562e+001  1.580747e+002 
3400000000  -4.578855e+001  1.460257e+002 
3403125000  -4.656928e+001  1.416577e+002 
3406250000  -4.786088e+001  1.330480e+002 
3409375000  -4.787543e+001  1.271180e+002 
3412500000  -4.900538e+001  1.239785e+002 
3415625000  -5.007816e+001  1.241100e+002 
3418750000  -5.031546e+001  1.261098e+002 
3421875000  -5.138202e+001  1.283512e+002 
3425000000  -4.998626e+001  1.265314e+002 
3428125000  -4.992279e+001  1.178291e+002 
3431250000  -5.029190e+001  1.149780e+002 
3434375000  -5.112265e+001  1.137016e+002 
3437500000  -5.168147e+001  1.079394e+002 
3440625000  -5.203519e+001  1.047106e+002 
3443750000  -4.986274e+001  1.107301e+002 
3446875000  -5.086461e+001  1.082901e+002 
3450000000  -5.018906e+001  9.768250e+001 
3453125000  -5.119484e+001  9.509052e+001 
3456250000  -5.239544e+001  8.787511e+001 
3459375000  -5.320094e+001  8.617554e+001 
3462500000  -5.261619e+001  9.560608e+001 
3465625000  -5.172511e+001  8.953952e+001 
3468750000  -5.210273e+001  8.720934e+001 
3471875000  -5.206604e+001  8.314764e+001 
3475000000  -5.150294e+001  7.613754e+001 
3478125000  -5.112517e+001  7.289710e+001 
3481250000  -5.260469e+001  7.129913e+001 
3484375000  -5.265533e+001  7.512444e+001 
3487500000  -5.171723e+001  7.135516e+001 
3490625000  -5.099745e+001  6.469465e+001 
3493750000  -5.116030e+001  5.316346e+001 
3496875000  -5.135522e+001  5.655643e+001 
3500000000  -5.217250e+001  5.068863e+001 
3503125000  -5.118028e+001  5.515430e+001 
3506250000  -4.966217e+001  3.957618e+001 
3509375000  -5.042781e+001  3.443691e+001 
3512500000  -5.032474e+001  1.895758e+001 
3515625000  -5.064730e+001  1.768698e+001 
3518750000  -5.214183e+001  1.896141e+001 
3521875000  -5.232573e+001  1.090113e+001 
3525000000  -5.353861e+001  6.917343e+000 
3528125000  -5.219773e+001  1.257895e+001 
3531250000  -5.151969e+001  4.311008e+000 
3534375000  -5.329444e+001  -1.241266e+001 
3537500000  -5.380641e+001  -1.134307e+001 
3540625000  -5.445546e+001  -1.817117e+001 
3543750000  -5.602145e+001  -8.535130e+000 
3546875000  -5.567103e+001  -5.056565e+000 
3550000000  -5.480028e+001  -6.567811e+000 
3553125000  -5.372238e+001  -2.738488e+001 
3556250000  -5.486227e+001  -1.762013e+001 
3559375000  -5.662786e+001  -2.256834e+001 
3562500000  -5.668532e+001  -3.317028e+001 
3565625000  -5.646907e+001  -5.389810e+001 
3568750000  -5.793399e+001  -3.091947e+001 
3571875000  -5.800392e+001  -3.136674e+001 
3575000000  -5.946654e+001  -2.727462e+001 
3578125000  -5.698658e+001  -3.243680e+001 
3581250000  -5.707846e+001  -4.121790e+001 
3584375000  -5.835025e+001  -2.375775e+001 
3587500000  -5.812419e+001  -3.510630e+001 
3590625000  -5.877900e+001  -4.283744e+001 
3593750000  -5.913232e+001  -4.516243e+001 
3596875000  -5.987632e+001  -3.230994e+001 
3600000000  -5.762127e+001  -2.861714e+001 
3603125000  -5.742581e+001  -4.508318e+001 
3606250000  -5.823405e+001  -4.777135e+001 
3609375000  -5.875228e+001  -4.316646e+001 
3612500000  -5.855914e+001  -4.949276e+001 
3615625000  -5.953018e+001  -4.728420e+001 
3618750000  -5.945753e+001  -4.018741e+001 
3621875000  -5.726277e+001  -3.410661e+001 
3625000000  -5.968780e+001  -4.265247e+001 
3628125000  -5.674773e+001  -3.297558e+001 
3631250000  -5.672222e+001  -3.642078e+001 
3634375000  -5.662548e+001  -4.187063e+001 
3637500000  -5.510027e+001  -3.951915e+001 
3640625000  -5.454490e+001  -3.136734e+001 
3643750000  -5.290605e+001  -3.796179e+001 
3646875000  -5.290968e+001  -5.341213e+001 
3650000000  -5.247379e+001  -5.068925e+001 
3653125000  -5.128322e+001  -5.322112e+001 
3656250000  -5.196577e+001  -5.869452e+001 
3659375000  -5.094885e+001  -5.750848e+001 
3662500000  -4.981174e+001  -6.175663e+001 
3665625000  -4.906893e+001  -6.474125e+001 
3668750000  -4.780367e+001  -6.842222e+001 
3671875000  -4.719289e+001  -7.722445e+001 
3675000000  -4.753519e+001  -8.415596e+001 
3678125000  -4.706588e+001  -8.474520e+001 
3681250000  -4.665445e+001  -9.592528e+001 
3684375000  -4.664312e+001  -9.934290e+001 
3687500000  -4.627083e+001  -1.031936e+002 
3690625000  -4.689660e+001  -1.116988e+002 
3693750000  -4.693991e+001  -1.103737e+002 
3696875000  -4.621255e+001  -1.097685e+002 
3700000000  -4.546397e+001  -1.173679e+002 
3703125000  -4.547454e+001  -1.238810e+002 
3706250000  -4.556699e+001  -1.253239e+002 
3709375000  -4.465908e+001  -1.236452e+002 
3712500000  -4.326597e+001  -1.309565e+002 
3715625000  -4.225666e+001  -1.392816e+002 
3718750000  -4.186732e+001  -1.467832e+002 
3721875000  -4.121276e+001  -1.551446e+002 
3725000000  -4.157747e+001  -1.624427e+002 
3728125000  -4.132505e+001  -1.664025e+002 
3731250000  -4.057088e+001  -1.716719e+002 
3734375000  -4.021368e+001  -1.780150e+002 
3737500000  -4.109868e+001  1.719878e+002 
3740625000  -4.106225e+001  1.670974e+002 
3743750000  -4.045431e+001  1.598579e+002 
3746875000  -4.071306e+001  1.517780e+002 
3750000000  -4.093187e+001  1.490952e+002 
3753125000  -4.069112e+001  1.455221e+002 
3756250000  -4.070613e+001  1.413143e+002 
3759375000  -4.035692e+001  1.361365e+002 
3762500000  -4.035861e+001  1.294045e+002 
3765625000  -4.084961e+001  1.261198e+002 
3768750000  -4.008784e+001  1.255890e+002 
3771875000  -3.853572e+001  1.170791e+002 
3775000000  -3.839778e+001  1.071832e+002 
3778125000  -3.895385e+001  1.009747e+002 
3781250000  -3.896075e+001  9.671738e+001 
3784375000  -3.880753e+001  9.021202e+001 
3787500000  -3.863400e+001  8.450450e+001 
3790625000  -3.932241e+001  7.501778e+001 
3793750000  -3.917588e+001  7.256846e+001 
3796875000  -3.832226e+001  6.738608e+001 
3800000000  -3.633053e+001  6.343377e+001 
3803125000  -3.807932e+001  4.973154e+001 
3806250000  -3.884819e+001  4.506786e+001 
3809375000  -3.836871e+001  4.131778e+001 
3812500000  -3.848476e+001  3.027949e+001 
3815625000  -3.962226e+001  2.270014e+001 
3818750000  -4.077319e+001  2.546349e+001 
3821875000  -4.026769e+001  3.318243e+001 
3825000000  -3.815461e+001  2.981656e+001 
3828125000  -3.708074e+001  1.100773e+001 
3831250000  -3.815700e+001  -2.639832e+000 
3834375000  -4.005733e+001  -5.054227e+000 
3837500000  -4.090644e+001  -8.649573e-001 
3840625000  -3.878391e+001  -2.796283e+000 
3843750000  -3.806925e+001  -1.809776e+001 
3846875000  -3.954842e+001  -2.688110e+001 
3850000000  -4.073302e+001  -2.066592e+001 
3853125000  -3.976799e+001  -1.719147e+001 
3856250000  -3.938450e+001  -2.587294e+001 
3859375000  -3.876451e+001  -3.319390e+001 
3862500000  -3.838848e+001  -4.433411e+001 
3865625000  -3.889019e+001  -4.804891e+001 
3868750000  -3.858426e+001  -4.680994e+001 
3871875000  -3.796676e+001  -5.576733e+001 
3875000000  -3.840408e+001  -6.611749e+001 
3878125000  -3.946660e+001  -6.991311e+001 
3881250000  -3.926523e+001  -6.996701e+001 
3884375000  -3.867195e+001  -7.712579e+001 
3887500000  -3.905956e+001  -8.181799e+001 
3890625000  -3.940920e+001  -8.622794e+001 
3893750000  -3.996669e+001  -8.906625e+001 
3896875000  -4.007220e+001  -9.092230e+001 
3900000000  -4.001664e+001  -9.746706e+001 
3903125000  -3.949642e+001  -9.891753e+001 
3906250000  -3.893203e+001  -1.029436e+002 
3909375000  -3.810685e+001  -1.126384e+002 
3912500000  -3.905904e+001  -1.214468e+002 
3915625000  -4.025454e+001  -1.200234e+002 
3918750000  -4.008508e+001  -1.225259e+002 
3921875000  -3.923450e+001  -1.286399e+002 
3925000000  -3.869162e+001  -1.321868e+002 
3928125000  -3.839017e+001  -1.413916e+002 
3931250000  -3.914602e+001  -1.480517e+002 
3934375000  -3.951954e+001  -1.510704e+002 
3937500000  -4.010617e+001  -1.513416e+002 
3940625000  -3.977633e+001  -1.535591e+002 
3943750000  -3.880132e+001  -1.574598e+002 
3946875000  -3.831992e+001  -1.663790e+002 
3950000000  -3.980927e+001  -1.750362e+002 
3953125000  -3.985437e+001  -1.734436e+002 
3956250000  -3.888785e+001  -1.730524e+002 
3959375000  -3.793105e+001  1.783809e+002 
3962500000  -3.771973e+001  1.718347e+002 
3965625000  -3.816174e+001  1.610400e+002 
3968750000  -3.862864e+001  1.529862e+002 
3971875000  -3.855445e+001  1.492506e+002 
3975000000  -3.842982e+001  1.439980e+002 
3978125000  -3.871687e+001  1.419616e+002 
3981250000  -3.861356e+001  1.341864e+002 
3984375000  -3.906741e+001  1.255246e+002 
3987500000  -3.977284e+001  1.212293e+002 
3990625000  -4.001398e+001  1.212063e+002 
3993750000  -4.005285e+001  1.154851e+002 
3996875000  -3.974483e+001  1.118463e+002 
4000000000  -4.070150e+001  1.068892e+002 
4003125000  -4.108216e+001  1.085939e+002 
4006250000  -3.935706e+001  1.045891e+002 
4009375000  -3.876635e+001  9.242743e+001 
4012500000  -4.040677e+001  8.249810e+001 
4015625000  -4.139697e+001  8.425686e+001 
4018750000  -4.131283e+001  8.343941e+001 
4021875000  -4.068413e+001  8.084494e+001 
4025000000  -4.034347e+001  7.584364e+001 
4028125000  -4.051735e+001  6.888563e+001 
4031250000  -4.139327e+001  6.399483e+001 
4034375000  -4.150220e+001  6.432611e+001 
4037500000  -4.122725e+001  6.542526e+001 
4040625000  -4.095005e+001  6.034369e+001 
4043750000  -4.105280e+001  5.660915e+001 
4046875000  -4.114446e+001  5.145876e+001 
4050000000  -4.074077e+001  4.666364e+001 
4053125000  -4.115685e+001  4.472013e+001 
4056250000  -4.157499e+001  5.051927e+001 
4059375000  -3.946066e+001  4.612875e+001 
4062500000  -3.911563e+001  3.921221e+001 
4065625000  -3.896877e+001  3.281508e+001 
4068750000  -3.821951e+001  2.701738e+001 
4071875000  -3.788729e+001  1.579442e+001 
4075000000  -3.829254e+001  7.882539e+000 
4078125000  -3.898957e+001  6.871817e+000 
4081250000  -3.824219e+001  -9.261701e-001 
4084375000  -3.830877e+001  -8.714534e+000 
4087500000  -3.871819e+001  -1.510657e+001 
4090625000  -3.904933e+001  -1.746802e+001 
4093750000  -3.864304e+001  -1.905107e+001 
4096875000  -3.879443e+001  -3.083865e+001 
4100000000  -3.952135e+001  -3.615826e+001 
4103125000  -4.074463e+001  -3.482071e+001 
4106250000  -3.996988e+001  -3.362786e+001 
4109375000  -3.913217e+001  -3.516293e+001 
4112500000  -3.865609e+001  -4.546251e+001 
4115625000  -3.920332e+001  -5.200356e+001 
4118750000  -3.932681e+001  -5.610349e+001 
4121875000  -3.897267e+001  -6.378287e+001 
4125000000  -3.996361e+001  -7.098157e+001 
4128125000  -4.082188e+001  -6.671973e+001 
4131250000  -3.983375e+001  -6.338688e+001 
4134375000  -3.764576e+001  -7.189424e+001 
4137500000  -3.828891e+001  -9.277432e+001 
4140625000  -4.052855e+001  -9.928544e+001 
4143750000  -4.136782e+001  -9.376330e+001 
4146875000  -4.069383e+001  -8.960526e+001 
4150000000  -3.952084e+001  -9.757403e+001 
4153125000  -4.012634e+001  -1.061387e+002 
4156250000  -4.140675e+001  -1.106213e+002 
4159375000  -4.137573e+001  -1.046291e+002 
4162500000  -3.998798e+001  -1.019349e+002 
4165625000  -3.891472e+001  -1.096401e+002 
4168750000  -3.865662e+001  -1.192526e+002 
4171875000  -3.865099e+001  -1.282054e+002 
4175000000  -3.945683e+001  -1.355779e+002 
4178125000  -3.975003e+001  -1.362537e+002 
4181250000  -3.928008e+001  -1.425740e+002 
4184375000  -3.943885e+001  -1.448395e+002 
4187500000  -3.955492e+001  -1.515310e+002 
4190625000  -3.943898e+001  -1.568195e+002 
4193750000  -4.033301e+001  -1.622195e+002 
4196875000  -4.155691e+001  -1.624932e+002 
4200000000  -4.251401e+001  -1.588083e+002 
4203125000  -4.109506e+001  -1.461156e+002 
4206250000  -3.741661e+001  -1.552349e+002 
4209375000  -3.723594e+001  -1.790862e+002 
4212500000  -3.983172e+001  1.739647e+002 
4215625000  -3.997386e+001  -1.780419e+002 
4218750000  -3.826040e+001  -1.773729e+002 
4221875000  -3.681204e+001  1.729528e+002 
4225000000  -3.800585e+001  1.617744e+002 
4228125000  -3.787615e+001  1.634022e+002 
4231250000  -3.614786e+001  1.552891e+002 
4234375000  -3.647229e+001  1.446638e+002 
4237500000  -3.621487e+001  1.385168e+002 
4240625000  -3.626128e+001  1.278569e+002 
4243750000  -3.742613e+001  1.192782e+002 
4246875000  -3.840456e+001  1.188319e+002 
4250000000  -3.836165e+001  1.188147e+002 
4253125000  -3.830566e+001  1.174047e+002 
4256250000  -3.807771e+001  1.116652e+002 
4259375000  -3.789085e+001  1.056971e+002 
4262500000  -3.811817e+001  1.013368e+002 
4265625000  -3.809301e+001  9.837096e+001 
4268750000  -3.704167e+001  9.127299e+001 
4271875000  -3.678117e+001  8.283283e+001 
4275000000  -3.667614e+001  7.366249e+001 
4278125000  -3.781169e+001  6.189452e+001 
4281250000  -3.899628e+001  5.986921e+001 
4284375000  -3.905305e+001  5.824627e+001 
4287500000  -4.026408e+001  5.429298e+001 
4290625000  -4.070763e+001  6.350747e+001 
4293750000  -3.895967e+001  6.357379e+001 
4296875000  -3.767826e+001  5.186181e+001 
4300000000  -3.940259e+001  3.996172e+001 
4303125000  -3.964563e+001  4.474910e+001 
4306250000  -3.853030e+001  4.677460e+001 
4309375000  -3.751945e+001  4.022549e+001 
4312500000  -3.781681e+001  2.948184e+001 
4315625000  -3.793110e+001  2.144748e+001 
4318750000  -3.888679e+001  1.771953e+001 
4321875000  -3.881933e+001  1.877864e+001 
4325000000  -3.788294e+001  1.762304e+001 
4328125000  -3.739296e+001  6.901812e+000 
4331250000  -3.754694e+001  -3.614884e+000 
4334375000  -3.842935e+001  -9.944280e+000 
4337500000  -3.966891e+001  -1.012644e+001 
4340625000  -3.979472e+001  -7.789236e+000 
4343750000  -3.838798e+001  -1.002466e+001 
4346875000  -3.831292e+001  -1.911143e+001 
4350000000  -3.843904e+001  -2.552360e+001 
4353125000  -3.888848e+001  -3.540237e+001 
4356250000  -4.143505e+001  -3.104670e+001 
4359375000  -4.009291e+001  -1.514270e+001 
4362500000  -3.688311e+001  -2.389722e+001 
4365625000  -3.583995e+001  -4.146048e+001 
4368750000  -3.730469e+001  -5.103136e+001 
4371875000  -3.831034e+001  -4.958561e+001 
4375000000  -3.734382e+001  -5.634236e+001 
4378125000  -3.714630e+001  -6.323048e+001 
4381250000  -3.717081e+001  -7.114524e+001 
4384375000  -3.715439e+001  -7.758902e+001 
4387500000  -3.823941e+001  -8.347277e+001 
4390625000  -3.866496e+001  -8.304794e+001 
4393750000  -3.806456e+001  -8.377150e+001 
4396875000  -3.739507e+001  -8.853491e+001 
4400000000  -3.693962e+001  -9.831724e+001 
4403125000  -3.801222e+001  -1.082896e+002 
4406250000  -3.843381e+001  -1.121748e+002 
4409375000  -3.878245e+001  -1.159075e+002 
4412500000  -3.990645e+001  -1.161553e+002 
4415625000  -3.961179e+001  -1.139447e+002 
