!Agilent Technologies,E8363B,MY43030201,A.06.04.32
!Agilent E8363B: A.06.04.32
!Date: Tuesday, November 11, 2014 21:27:14
!Correction: S21(Response(S21)) 
!S1P File: Measurement: S21:
# Hz S  dB   R 50
3000000000  -4.057839e+001  9.377792e+001 
3003125000  -4.217871e+001  8.482941e+001 
3006250000  -4.205350e+001  8.451422e+001 
3009375000  -4.261806e+001  8.928508e+001 
3012500000  -4.165450e+001  8.484756e+001 
3015625000  -4.138048e+001  7.762743e+001 
3018750000  -4.184297e+001  7.790761e+001 
3021875000  -4.044875e+001  7.894437e+001 
3025000000  -3.914048e+001  7.470522e+001 
3028125000  -3.811072e+001  6.645498e+001 
3031250000  -3.703299e+001  5.362490e+001 
3034375000  -3.695557e+001  4.040638e+001 
3037500000  -3.755977e+001  2.883700e+001 
3040625000  -3.868665e+001  2.324662e+001 
3043750000  -3.918986e+001  1.730145e+001 
3046875000  -3.960355e+001  1.225480e+001 
3050000000  -4.095514e+001  5.823008e+000 
3053125000  -4.072710e+001  1.155293e+001 
3056250000  -4.047562e+001  1.356741e+001 
3059375000  -3.988740e+001  1.188105e+001 
3062500000  -3.830850e+001  6.774233e+000 
3065625000  -3.793004e+001  -2.156222e+000 
3068750000  -3.764228e+001  -9.828120e+000 
3071875000  -3.770594e+001  -1.202739e+001 
3075000000  -3.713606e+001  -1.820107e+001 
3078125000  -3.708753e+001  -2.496673e+001 
3081250000  -3.738235e+001  -3.154403e+001 
3084375000  -3.634726e+001  -3.609973e+001 
3087500000  -3.644298e+001  -4.185814e+001 
3090625000  -3.597530e+001  -5.438920e+001 
3093750000  -3.677771e+001  -6.259541e+001 
3096875000  -3.746592e+001  -6.871696e+001 
3100000000  -3.718478e+001  -7.189276e+001 
3103125000  -3.751717e+001  -7.481783e+001 
3106250000  -3.721964e+001  -7.964632e+001 
3109375000  -3.721495e+001  -8.428130e+001 
3112500000  -3.726972e+001  -8.917842e+001 
3115625000  -3.705326e+001  -9.355998e+001 
3118750000  -3.736000e+001  -9.607150e+001 
3121875000  -3.649025e+001  -1.081021e+002 
3125000000  -3.828703e+001  -1.116109e+002 
3128125000  -3.874028e+001  -1.041399e+002 
3131250000  -3.622917e+001  -1.099012e+002 
3134375000  -3.520399e+001  -1.261626e+002 
3137500000  -3.598159e+001  -1.396728e+002 
3140625000  -3.730975e+001  -1.433893e+002 
3143750000  -3.824227e+001  -1.444032e+002 
3146875000  -3.775294e+001  -1.422004e+002 
3150000000  -3.689837e+001  -1.456940e+002 
3153125000  -3.712347e+001  -1.540284e+002 
3156250000  -3.801352e+001  -1.501175e+002 
3159375000  -3.585381e+001  -1.519109e+002 
3162500000  -3.421419e+001  -1.672199e+002 
3165625000  -3.537711e+001  -1.792309e+002 
3168750000  -3.551302e+001  1.786730e+002 
3171875000  -3.498934e+001  1.713345e+002 
3175000000  -3.549210e+001  1.622233e+002 
3178125000  -3.521065e+001  1.615624e+002 
3181250000  -3.434728e+001  1.531118e+002 
3184375000  -3.413470e+001  1.408997e+002 
3187500000  -3.526949e+001  1.260135e+002 
3190625000  -3.734801e+001  1.196084e+002 
3193750000  -3.758070e+001  1.251978e+002 
3196875000  -3.750079e+001  1.264494e+002 
3200000000  -3.639063e+001  1.219458e+002 
3203125000  -3.604141e+001  1.127335e+002 
3206250000  -3.618761e+001  1.061664e+002 
3209375000  -3.579161e+001  9.841588e+001 
3212500000  -3.622193e+001  9.197861e+001 
3215625000  -3.609844e+001  8.779260e+001 
3218750000  -3.689735e+001  7.764671e+001 
3221875000  -3.734748e+001  7.057077e+001 
3225000000  -3.714563e+001  6.741870e+001 
3228125000  -3.768801e+001  5.970956e+001 
3231250000  -3.821981e+001  5.722108e+001 
3234375000  -3.797923e+001  5.510212e+001 
3237500000  -3.816688e+001  5.065116e+001 
3240625000  -3.770279e+001  4.425421e+001 
3243750000  -3.757366e+001  3.576904e+001 
3246875000  -3.827242e+001  2.844131e+001 
3250000000  -3.872497e+001  2.406808e+001 
3253125000  -3.904025e+001  2.142730e+001 
3256250000  -3.879660e+001  1.260686e+001 
3259375000  -3.914334e+001  2.078406e+000 
3262500000  -4.062386e+001  -2.713260e+000 
3265625000  -4.117480e+001  5.591961e-001 
3268750000  -4.113109e+001  1.063063e+000 
3271875000  -4.086476e+001  -9.341208e-001 
3275000000  -4.028625e+001  -8.760406e+000 
3278125000  -4.089232e+001  -1.529933e+001 
3281250000  -4.111318e+001  -1.640798e+001 
3284375000  -4.068064e+001  -2.233036e+001 
3287500000  -4.115430e+001  -2.673581e+001 
3290625000  -4.119030e+001  -3.278125e+001 
3293750000  -4.118848e+001  -3.911230e+001 
3296875000  -4.237270e+001  -4.110017e+001 
3300000000  -4.200015e+001  -4.152897e+001 
3303125000  -4.102952e+001  -4.761007e+001 
3306250000  -4.082919e+001  -5.453954e+001 
3309375000  -4.070708e+001  -6.143533e+001 
3312500000  -4.082668e+001  -7.323733e+001 
3315625000  -4.210417e+001  -8.148747e+001 
3318750000  -4.354838e+001  -8.413223e+001 
3321875000  -4.473169e+001  -8.255138e+001 
3325000000  -4.483002e+001  -7.463861e+001 
3328125000  -4.375073e+001  -7.780556e+001 
3331250000  -4.253448e+001  -7.091022e+001 
3334375000  -3.986870e+001  -8.610651e+001 
3337500000  -4.038242e+001  -1.081112e+002 
3340625000  -4.220335e+001  -1.166186e+002 
3343750000  -4.419249e+001  -1.170062e+002 
3346875000  -4.366079e+001  -1.188452e+002 
3350000000  -4.305746e+001  -1.198720e+002 
3353125000  -4.262787e+001  -1.265180e+002 
3356250000  -4.219500e+001  -1.351650e+002 
3359375000  -4.346084e+001  -1.471641e+002 
3362500000  -4.407018e+001  -1.523082e+002 
3365625000  -4.484952e+001  -1.561632e+002 
3368750000  -4.545939e+001  -1.591979e+002 
3371875000  -4.526871e+001  -1.645920e+002 
3375000000  -4.705525e+001  -1.665042e+002 
3378125000  -4.809611e+001  -1.699509e+002 
3381250000  -4.968047e+001  -1.581680e+002 
3384375000  -4.671156e+001  -1.423691e+002 
3387500000  -4.386484e+001  -1.648409e+002 
3390625000  -4.604768e+001  1.760347e+002 
3393750000  -4.728973e+001  1.766715e+002 
3396875000  -4.551121e+001  1.782048e+002 
3400000000  -4.573753e+001  1.631386e+002 
3403125000  -4.661668e+001  1.579459e+002 
3406250000  -4.747551e+001  1.516828e+002 
3409375000  -4.771254e+001  1.453869e+002 
3412500000  -4.863609e+001  1.406102e+002 
3415625000  -4.978304e+001  1.397701e+002 
3418750000  -4.981644e+001  1.392745e+002 
3421875000  -5.119712e+001  1.440708e+002 
3425000000  -5.018341e+001  1.460090e+002 
3428125000  -5.027180e+001  1.401390e+002 
3431250000  -4.974808e+001  1.294587e+002 
3434375000  -5.075947e+001  1.242223e+002 
3437500000  -5.067527e+001  1.226042e+002 
3440625000  -5.175994e+001  1.289864e+002 
3443750000  -5.016259e+001  1.296276e+002 
3446875000  -5.050632e+001  1.217454e+002 
3450000000  -5.133259e+001  1.137298e+002 
3453125000  -5.098370e+001  1.074806e+002 
3456250000  -5.089591e+001  1.071670e+002 
3459375000  -5.268188e+001  1.074614e+002 
3462500000  -5.223209e+001  1.096202e+002 
3465625000  -5.234572e+001  1.022027e+002 
3468750000  -5.190474e+001  1.087471e+002 
3471875000  -5.177847e+001  9.984961e+001 
3475000000  -5.087688e+001  9.302441e+001 
3478125000  -5.121326e+001  8.649943e+001 
3481250000  -5.214703e+001  8.616460e+001 
3484375000  -5.223352e+001  8.751463e+001 
3487500000  -5.115582e+001  8.630582e+001 
3490625000  -5.070588e+001  7.894281e+001 
3493750000  -5.205784e+001  7.067400e+001 
3496875000  -5.032877e+001  7.547006e+001 
3500000000  -5.165669e+001  7.190928e+001 
3503125000  -5.128112e+001  7.109069e+001 
3506250000  -4.971598e+001  6.354861e+001 
3509375000  -4.952237e+001  5.253772e+001 
3512500000  -4.968053e+001  3.670803e+001 
3515625000  -5.113627e+001  3.490908e+001 
3518750000  -5.146112e+001  3.884888e+001 
3521875000  -5.157747e+001  2.939911e+001 
3525000000  -5.302853e+001  1.586154e+001 
3528125000  -5.129478e+001  2.598627e+001 
3531250000  -5.082642e+001  1.890839e+001 
3534375000  -5.160718e+001  5.444466e+000 
3537500000  -5.307239e+001  -2.661998e+000 
3540625000  -5.371875e+001  -2.632516e+000 
3543750000  -5.604216e+001  1.525529e+001 
3546875000  -5.444963e+001  1.390681e+001 
3550000000  -5.278398e+001  8.712497e+000 
3553125000  -5.272314e+001  -1.133982e+001 
3556250000  -5.543884e+001  -3.913502e+000 
3559375000  -5.458269e+001  -1.372509e+001 
3562500000  -5.545038e+001  -2.913839e+001 
3565625000  -5.617003e+001  -3.208800e+001 
3568750000  -5.733389e+001  -1.454561e+001 
3571875000  -5.682668e+001  -2.019238e+001 
3575000000  -5.760593e+001  -1.418676e+001 
3578125000  -5.866788e+001  -1.983858e+001 
3581250000  -5.678303e+001  -2.062709e+001 
3584375000  -5.698945e+001  -1.700448e+001 
3587500000  -5.765305e+001  -2.807294e+001 
3590625000  -5.641713e+001  -3.302483e+001 
3593750000  -5.972332e+001  -2.225784e+001 
3596875000  -5.899568e+001  -1.157772e+001 
3600000000  -5.723917e+001  -1.719247e+001 
3603125000  -5.751917e+001  -3.129858e+001 
3606250000  -5.876648e+001  -3.039262e+001 
3609375000  -5.590055e+001  -2.601084e+001 
3612500000  -5.866648e+001  -3.325373e+001 
3615625000  -5.822317e+001  -2.071489e+001 
3618750000  -5.918015e+001  -1.917044e+001 
3621875000  -5.772807e+001  -2.084367e+001 
3625000000  -5.800243e+001  -3.066443e+001 
3628125000  -5.847747e+001  -2.247077e+001 
3631250000  -5.668179e+001  -3.358370e+001 
3634375000  -5.872445e+001  -2.219618e+001 
3637500000  -5.715821e+001  -2.341133e+001 
3640625000  -5.498393e+001  -1.760956e+001 
3643750000  -5.462903e+001  -1.862231e+001 
3646875000  -5.318797e+001  -3.602279e+001 
3650000000  -5.396228e+001  -3.484624e+001 
3653125000  -5.255476e+001  -3.868344e+001 
3656250000  -5.328507e+001  -3.944592e+001 
3659375000  -5.127090e+001  -3.943924e+001 
3662500000  -5.098391e+001  -5.248641e+001 
3665625000  -5.047697e+001  -5.374452e+001 
3668750000  -4.864813e+001  -5.353167e+001 
3671875000  -4.799414e+001  -6.173384e+001 
3675000000  -4.769611e+001  -7.070110e+001 
3678125000  -4.843096e+001  -7.390224e+001 
3681250000  -4.663331e+001  -7.779179e+001 
3684375000  -4.715931e+001  -8.086373e+001 
3687500000  -4.673551e+001  -8.740166e+001 
3690625000  -4.677230e+001  -9.211922e+001 
3693750000  -4.720474e+001  -9.500426e+001 
3696875000  -4.640050e+001  -9.634774e+001 
3700000000  -4.561632e+001  -1.022434e+002 
3703125000  -4.585077e+001  -1.092832e+002 
3706250000  -4.606338e+001  -1.062911e+002 
3709375000  -4.507047e+001  -1.098646e+002 
3712500000  -4.337975e+001  -1.132452e+002 
3715625000  -4.226988e+001  -1.222048e+002 
3718750000  -4.206113e+001  -1.277418e+002 
3721875000  -4.158503e+001  -1.389444e+002 
3725000000  -4.192386e+001  -1.449581e+002 
3728125000  -4.174226e+001  -1.476613e+002 
3731250000  -4.090626e+001  -1.540312e+002 
3734375000  -4.015067e+001  -1.609133e+002 
3737500000  -4.078410e+001  -1.726579e+002 
3740625000  -4.109682e+001  -1.753807e+002 
3743750000  -4.060461e+001  1.763276e+002 
3746875000  -4.061476e+001  1.701888e+002 
3750000000  -4.104364e+001  1.670316e+002 
3753125000  -4.072044e+001  1.617188e+002 
3756250000  -4.076736e+001  1.592925e+002 
3759375000  -4.037309e+001  1.539791e+002 
3762500000  -3.994777e+001  1.469359e+002 
3765625000  -4.060259e+001  1.439723e+002 
3768750000  -4.039985e+001  1.423255e+002 
3771875000  -3.858477e+001  1.357847e+002 
3775000000  -3.866722e+001  1.233375e+002 
3778125000  -3.904106e+001  1.184123e+002 
3781250000  -3.897375e+001  1.132698e+002 
3784375000  -3.891827e+001  1.065994e+002 
3787500000  -3.848899e+001  1.016321e+002 
3790625000  -3.947165e+001  9.155032e+001 
3793750000  -3.917544e+001  8.804863e+001 
3796875000  -3.826915e+001  8.436833e+001 
3800000000  -3.655843e+001  8.081541e+001 
3803125000  -3.825858e+001  6.697353e+001 
3806250000  -3.883717e+001  6.285829e+001 
3809375000  -3.857340e+001  5.967523e+001 
3812500000  -3.858809e+001  5.107733e+001 
3815625000  -3.955630e+001  3.977415e+001 
3818750000  -4.075251e+001  4.059516e+001 
3821875000  -4.051854e+001  5.057340e+001 
3825000000  -3.844530e+001  4.695739e+001 
3828125000  -3.719253e+001  2.869384e+001 
3831250000  -3.807766e+001  1.441800e+001 
3834375000  -4.044915e+001  1.219128e+001 
3837500000  -4.080027e+001  1.846784e+001 
3840625000  -3.940731e+001  1.364674e+001 
3843750000  -3.843637e+001  8.491661e-001 
3846875000  -3.983506e+001  -7.326594e+000 
3850000000  -4.090467e+001  -4.157151e-001 
3853125000  -4.029840e+001  -1.316105e+000 
3856250000  -3.985846e+001  -7.312184e+000 
3859375000  -3.895333e+001  -1.521585e+001 
3862500000  -3.878922e+001  -2.519400e+001 
3865625000  -3.932287e+001  -3.019308e+001 
3868750000  -3.886213e+001  -3.099632e+001 
3871875000  -3.845672e+001  -3.754803e+001 
3875000000  -3.865755e+001  -4.697412e+001 
3878125000  -3.930152e+001  -5.021498e+001 
3881250000  -3.942883e+001  -4.955011e+001 
3884375000  -3.895232e+001  -5.692167e+001 
3887500000  -3.912601e+001  -6.346096e+001 
3890625000  -3.957712e+001  -6.859937e+001 
3893750000  -3.993964e+001  -6.936166e+001 
3896875000  -3.991825e+001  -7.224361e+001 
3900000000  -3.988836e+001  -7.506085e+001 
3903125000  -3.949820e+001  -8.160948e+001 
3906250000  -3.901127e+001  -8.411472e+001 
3909375000  -3.822750e+001  -9.353998e+001 
3912500000  -3.891654e+001  -1.030288e+002 
3915625000  -4.036379e+001  -1.042538e+002 
3918750000  -3.976907e+001  -1.042685e+002 
3921875000  -3.915799e+001  -1.080815e+002 
3925000000  -3.880272e+001  -1.126880e+002 
3928125000  -3.815200e+001  -1.229083e+002 
3931250000  -3.901906e+001  -1.295752e+002 
3934375000  -3.915325e+001  -1.310098e+002 
3937500000  -3.978930e+001  -1.339700e+002 
3940625000  -3.984878e+001  -1.388043e+002 
3943750000  -3.884963e+001  -1.383156e+002 
3946875000  -3.840632e+001  -1.479743e+002 
3950000000  -3.932924e+001  -1.550171e+002 
3953125000  -4.009781e+001  -1.553570e+002 
3956250000  -3.880829e+001  -1.552284e+002 
3959375000  -3.790879e+001  -1.615306e+002 
3962500000  -3.761951e+001  -1.709621e+002 
3965625000  -3.768452e+001  -1.791846e+002 
3968750000  -3.835664e+001  1.720311e+002 
3971875000  -3.877581e+001  1.679425e+002 
3975000000  -3.844028e+001  1.647188e+002 
3978125000  -3.847882e+001  1.588892e+002 
3981250000  -3.849231e+001  1.514403e+002 
3984375000  -3.884690e+001  1.449870e+002 
3987500000  -3.976318e+001  1.424024e+002 
3990625000  -4.009633e+001  1.401403e+002 
3993750000  -3.988843e+001  1.363374e+002 
3996875000  -4.007018e+001  1.315413e+002 
4000000000  -4.056421e+001  1.262781e+002 
4003125000  -4.132914e+001  1.265478e+002 
4006250000  -3.959229e+001  1.261176e+002 
4009375000  -3.877635e+001  1.132461e+002 
4012500000  -3.991700e+001  1.027274e+002 
4015625000  -4.156108e+001  1.020144e+002 
4018750000  -4.116169e+001  1.044433e+002 
4021875000  -4.078156e+001  1.017664e+002 
4025000000  -4.055238e+001  9.590457e+001 
4028125000  -4.033176e+001  8.888312e+001 
4031250000  -4.087811e+001  8.297260e+001 
4034375000  -4.120193e+001  8.272198e+001 
4037500000  -4.106956e+001  8.403777e+001 
4040625000  -4.067540e+001  8.107949e+001 
4043750000  -4.089543e+001  7.772937e+001 
4046875000  -4.083125e+001  7.377431e+001 
4050000000  -4.043723e+001  6.692545e+001 
4053125000  -4.085372e+001  6.414569e+001 
4056250000  -4.162674e+001  7.118784e+001 
4059375000  -3.992808e+001  6.651733e+001 
4062500000  -3.876256e+001  5.910145e+001 
4065625000  -3.866377e+001  5.273729e+001 
4068750000  -3.828909e+001  4.609847e+001 
4071875000  -3.778575e+001  3.695465e+001 
4075000000  -3.807101e+001  2.865564e+001 
4078125000  -3.832460e+001  2.528822e+001 
4081250000  -3.796540e+001  2.166281e+001 
4084375000  -3.767713e+001  1.086257e+001 
4087500000  -3.834277e+001  3.317667e+000 
4090625000  -3.904838e+001  3.167652e+000 
4093750000  -3.832642e+001  2.331998e-001 
4096875000  -3.855447e+001  -9.967975e+000 
4100000000  -3.932716e+001  -1.682850e+001 
4103125000  -4.042760e+001  -1.793866e+001 
4106250000  -3.980397e+001  -1.254153e+001 
4109375000  -3.898419e+001  -1.618242e+001 
4112500000  -3.827551e+001  -2.537162e+001 
4115625000  -3.892920e+001  -3.205956e+001 
4118750000  -3.878609e+001  -3.528132e+001 
4121875000  -3.876093e+001  -4.285467e+001 
4125000000  -3.952384e+001  -5.163355e+001 
4128125000  -4.062923e+001  -4.788062e+001 
4131250000  -3.984049e+001  -4.245844e+001 
4134375000  -3.718899e+001  -5.178605e+001 
4137500000  -3.770461e+001  -7.486580e+001 
4140625000  -3.975379e+001  -8.047009e+001 
4143750000  -4.131126e+001  -7.402747e+001 
4146875000  -4.032717e+001  -7.047054e+001 
4150000000  -3.958821e+001  -7.728225e+001 
4153125000  -3.960551e+001  -8.405396e+001 
4156250000  -4.088297e+001  -8.954687e+001 
4159375000  -4.116623e+001  -8.377541e+001 
4162500000  -3.967694e+001  -8.235864e+001 
4165625000  -3.817032e+001  -9.071023e+001 
4168750000  -3.822444e+001  -9.994397e+001 
4171875000  -3.809993e+001  -1.102544e+002 
4175000000  -3.878382e+001  -1.158774e+002 
4178125000  -3.921839e+001  -1.165419e+002 
4181250000  -3.895525e+001  -1.204739e+002 
4184375000  -3.914007e+001  -1.273220e+002 
4187500000  -3.906161e+001  -1.297442e+002 
4190625000  -3.925858e+001  -1.384087e+002 
4193750000  -4.006956e+001  -1.441701e+002 
4196875000  -4.074706e+001  -1.425021e+002 
4200000000  -4.175303e+001  -1.407299e+002 
4203125000  -4.064958e+001  -1.285198e+002 
4206250000  -3.711677e+001  -1.356199e+002 
4209375000  -3.667071e+001  -1.580404e+002 
4212500000  -3.915316e+001  -1.653285e+002 
4215625000  -3.957897e+001  -1.576809e+002 
4218750000  -3.770711e+001  -1.552271e+002 
4221875000  -3.611220e+001  -1.674176e+002 
4225000000  -3.735535e+001  1.787422e+002 
4228125000  -3.733057e+001  -1.766001e+002 
4231250000  -3.599437e+001  1.770818e+002 
4234375000  -3.577710e+001  1.652968e+002 
4237500000  -3.569475e+001  1.591174e+002 
4240625000  -3.590887e+001  1.471396e+002 
4243750000  -3.690032e+001  1.402633e+002 
4246875000  -3.775110e+001  1.388777e+002 
4250000000  -3.765890e+001  1.391890e+002 
4253125000  -3.759889e+001  1.346376e+002 
4256250000  -3.770668e+001  1.322213e+002 
4259375000  -3.690210e+001  1.254884e+002 
4262500000  -3.710309e+001  1.185150e+002 
4265625000  -3.745369e+001  1.169246e+002 
4268750000  -3.648819e+001  1.109324e+002 
4271875000  -3.609539e+001  1.024383e+002 
4275000000  -3.592153e+001  9.241175e+001 
4278125000  -3.698122e+001  7.972002e+001 
4281250000  -3.840682e+001  7.957738e+001 
4284375000  -3.808486e+001  7.615919e+001 
4287500000  -3.975990e+001  7.361382e+001 
4290625000  -4.012508e+001  8.035185e+001 
4293750000  -3.798862e+001  8.520000e+001 
4296875000  -3.710952e+001  7.046585e+001 
4300000000  -3.854491e+001  5.978535e+001 
4303125000  -3.919124e+001  6.131808e+001 
4306250000  -3.835139e+001  6.516954e+001 
4309375000  -3.697085e+001  5.797992e+001 
4312500000  -3.704294e+001  4.775943e+001 
4315625000  -3.742138e+001  3.956729e+001 
4318750000  -3.822954e+001  3.615113e+001 
4321875000  -3.809866e+001  3.606374e+001 
4325000000  -3.749668e+001  3.453208e+001 
4328125000  -3.701111e+001  2.531548e+001 
4331250000  -3.705612e+001  1.508601e+001 
4334375000  -3.788462e+001  8.800283e+000 
4337500000  -3.879554e+001  6.623743e+000 
4340625000  -3.899161e+001  1.106583e+001 
4343750000  -3.814325e+001  9.171286e+000 
4346875000  -3.792774e+001  1.722662e+000 
4350000000  -3.763842e+001  -7.341453e+000 
4353125000  -3.811690e+001  -1.455486e+001 
4356250000  -3.989199e+001  -1.451843e+001 
4359375000  -3.967849e+001  1.472524e+000 
4362500000  -3.612564e+001  -5.109906e+000 
4365625000  -3.555427e+001  -2.254516e+001 
4368750000  -3.666679e+001  -3.171237e+001 
4371875000  -3.761559e+001  -3.362379e+001 
4375000000  -3.689888e+001  -3.556885e+001 
4378125000  -3.644608e+001  -4.436926e+001 
4381250000  -3.646031e+001  -5.269659e+001 
4384375000  -3.657055e+001  -5.723856e+001 
4387500000  -3.736161e+001  -6.438726e+001 
4390625000  -3.826141e+001  -6.456274e+001 
4393750000  -3.742310e+001  -6.701292e+001 
4396875000  -3.676097e+001  -7.081293e+001 
4400000000  -3.619335e+001  -7.996546e+001 
4403125000  -3.695546e+001  -8.892732e+001 
4406250000  -3.774023e+001  -9.401343e+001 
4409375000  -3.791428e+001  -9.635460e+001 
4412500000  -3.890668e+001  -1.007257e+002 
4415625000  -3.886314e+001  -9.483379e+001 
