!Agilent Technologies,E8363B,MY43030201,A.06.04.32
!Agilent E8363B: A.06.04.32
!Date: Tuesday, November 11, 2014 21:34:57
!Correction: S21(Response(S21)) 
!S1P File: Measurement: S21:
# Hz S  dB   R 50
3000000000  -4.043967e+001  7.256989e+001 
3003125000  -4.224622e+001  6.321530e+001 
3006250000  -4.215028e+001  6.463869e+001 
3009375000  -4.276632e+001  6.768386e+001 
3012500000  -4.146972e+001  6.389554e+001 
3015625000  -4.140875e+001  5.798231e+001 
3018750000  -4.192036e+001  5.697293e+001 
3021875000  -4.030729e+001  5.873705e+001 
3025000000  -3.887414e+001  5.526530e+001 
3028125000  -3.780912e+001  4.422372e+001 
3031250000  -3.701884e+001  3.294707e+001 
3034375000  -3.684780e+001  1.925731e+001 
3037500000  -3.755844e+001  8.132239e+000 
3040625000  -3.884212e+001  2.977483e+000 
3043750000  -3.933718e+001  -4.475825e+000 
3046875000  -3.976098e+001  -9.652082e+000 
3050000000  -4.093018e+001  -1.334275e+001 
3053125000  -4.053193e+001  -8.993961e+000 
3056250000  -4.054886e+001  -4.963962e+000 
3059375000  -3.985633e+001  -8.110795e+000 
3062500000  -3.829318e+001  -1.344460e+001 
3065625000  -3.788110e+001  -2.325921e+001 
3068750000  -3.742071e+001  -3.043531e+001 
3071875000  -3.765195e+001  -3.295810e+001 
3075000000  -3.703938e+001  -4.014100e+001 
3078125000  -3.704797e+001  -4.648824e+001 
3081250000  -3.727929e+001  -5.170144e+001 
3084375000  -3.636549e+001  -5.654715e+001 
3087500000  -3.654395e+001  -6.386188e+001 
3090625000  -3.591144e+001  -7.531356e+001 
3093750000  -3.694068e+001  -8.369663e+001 
3096875000  -3.736529e+001  -8.929823e+001 
3100000000  -3.728897e+001  -9.133907e+001 
3103125000  -3.762122e+001  -9.532619e+001 
3106250000  -3.716051e+001  -1.003469e+002 
3109375000  -3.725177e+001  -1.042209e+002 
3112500000  -3.718784e+001  -1.109896e+002 
3115625000  -3.703431e+001  -1.144902e+002 
3118750000  -3.716587e+001  -1.177819e+002 
3121875000  -3.660722e+001  -1.290185e+002 
3125000000  -3.851112e+001  -1.316599e+002 
3128125000  -3.839538e+001  -1.247874e+002 
3131250000  -3.602845e+001  -1.311282e+002 
3134375000  -3.543925e+001  -1.474905e+002 
3137500000  -3.603369e+001  -1.591341e+002 
3140625000  -3.734171e+001  -1.627403e+002 
3143750000  -3.817629e+001  -1.655927e+002 
3146875000  -3.751815e+001  -1.625154e+002 
3150000000  -3.690452e+001  -1.667183e+002 
3153125000  -3.718667e+001  -1.759053e+002 
3156250000  -3.796923e+001  -1.710017e+002 
3159375000  -3.567850e+001  -1.730271e+002 
3162500000  -3.414933e+001  1.712942e+002 
3165625000  -3.556711e+001  1.582321e+002 
3168750000  -3.545818e+001  1.581471e+002 
3171875000  -3.483241e+001  1.501111e+002 
3175000000  -3.548849e+001  1.407797e+002 
3178125000  -3.506097e+001  1.394204e+002 
3181250000  -3.442349e+001  1.310513e+002 
3184375000  -3.417360e+001  1.199473e+002 
3187500000  -3.535960e+001  1.043414e+002 
3190625000  -3.728635e+001  9.827207e+001 
3193750000  -3.750589e+001  1.041782e+002 
3196875000  -3.744890e+001  1.059200e+002 
3200000000  -3.610074e+001  1.002802e+002 
3203125000  -3.587444e+001  9.133816e+001 
3206250000  -3.607706e+001  8.429634e+001 
3209375000  -3.571309e+001  7.645088e+001 
3212500000  -3.637035e+001  7.018797e+001 
3215625000  -3.602305e+001  6.680756e+001 
3218750000  -3.688957e+001  5.581444e+001 
3221875000  -3.720589e+001  4.933735e+001 
3225000000  -3.700709e+001  4.493344e+001 
3228125000  -3.758532e+001  3.791733e+001 
3231250000  -3.828296e+001  3.559829e+001 
3234375000  -3.780006e+001  3.254727e+001 
3237500000  -3.801542e+001  2.872348e+001 
3240625000  -3.753454e+001  2.333624e+001 
3243750000  -3.773475e+001  1.281657e+001 
3246875000  -3.816517e+001  5.199505e+000 
3250000000  -3.874140e+001  1.349806e+000 
3253125000  -3.896256e+001  -6.694168e-001 
3256250000  -3.866996e+001  -8.837813e+000 
3259375000  -3.913797e+001  -2.101247e+001 
3262500000  -4.058407e+001  -2.443482e+001 
3265625000  -4.107476e+001  -1.987760e+001 
3268750000  -4.120296e+001  -1.968540e+001 
3271875000  -4.067833e+001  -2.406705e+001 
3275000000  -4.013146e+001  -3.128394e+001 
3278125000  -4.075663e+001  -3.674295e+001 
3281250000  -4.098520e+001  -3.904589e+001 
3284375000  -4.061480e+001  -4.484003e+001 
3287500000  -4.111807e+001  -4.804653e+001 
3290625000  -4.112442e+001  -5.676979e+001 
3293750000  -4.104653e+001  -6.110354e+001 
3296875000  -4.243186e+001  -6.455495e+001 
3300000000  -4.181596e+001  -6.308794e+001 
3303125000  -4.071875e+001  -6.992370e+001 
3306250000  -4.076106e+001  -7.723712e+001 
3309375000  -4.046306e+001  -8.385959e+001 
3312500000  -4.095295e+001  -9.798768e+001 
3315625000  -4.228294e+001  -1.024795e+002 
3318750000  -4.369971e+001  -1.085390e+002 
3321875000  -4.500928e+001  -1.030143e+002 
3325000000  -4.478337e+001  -9.839700e+001 
3328125000  -4.376651e+001  -9.724264e+001 
3331250000  -4.202053e+001  -9.736716e+001 
3334375000  -3.990439e+001  -1.105632e+002 
3337500000  -4.054549e+001  -1.311783e+002 
3340625000  -4.225354e+001  -1.405580e+002 
3343750000  -4.405611e+001  -1.382853e+002 
3346875000  -4.344451e+001  -1.414155e+002 
3350000000  -4.294136e+001  -1.433152e+002 
3353125000  -4.272057e+001  -1.518409e+002 
3356250000  -4.269550e+001  -1.601691e+002 
3359375000  -4.341309e+001  -1.705712e+002 
3362500000  -4.442722e+001  -1.736396e+002 
3365625000  -4.466997e+001  -1.798057e+002 
3368750000  -4.549202e+001  1.736596e+002 
3371875000  -4.573470e+001  1.718640e+002 
3375000000  -4.763834e+001  1.694910e+002 
3378125000  -4.867036e+001  1.661064e+002 
3381250000  -4.940215e+001  1.788137e+002 
3384375000  -4.624861e+001  -1.685574e+002 
3387500000  -4.427351e+001  1.715933e+002 
3390625000  -4.653833e+001  1.545551e+002 
3393750000  -4.689824e+001  1.525480e+002 
3396875000  -4.578822e+001  1.518255e+002 
3400000000  -4.634702e+001  1.422200e+002 
3403125000  -4.699411e+001  1.336665e+002 
3406250000  -4.791859e+001  1.316949e+002 
3409375000  -4.794620e+001  1.251732e+002 
3412500000  -4.869401e+001  1.210042e+002 
3415625000  -4.973168e+001  1.179111e+002 
3418750000  -5.086189e+001  1.191239e+002 
3421875000  -5.091696e+001  1.250948e+002 
3425000000  -4.966120e+001  1.189011e+002 
3428125000  -4.972357e+001  1.132591e+002 
3431250000  -4.999339e+001  1.083253e+002 
3434375000  -5.040836e+001  1.067889e+002 
3437500000  -5.140959e+001  1.036318e+002 
3440625000  -5.221459e+001  1.019991e+002 
3443750000  -5.012857e+001  1.072446e+002 
3446875000  -5.017625e+001  9.864066e+001 
3450000000  -4.965947e+001  9.080043e+001 
3453125000  -5.058215e+001  7.948811e+001 
3456250000  -5.214570e+001  7.978913e+001 
3459375000  -5.378261e+001  9.358657e+001 
3462500000  -5.241581e+001  8.662588e+001 
3465625000  -5.172102e+001  7.928917e+001 
3468750000  -5.149372e+001  8.148514e+001 
3471875000  -5.200912e+001  7.705994e+001 
3475000000  -5.083529e+001  7.080183e+001 
3478125000  -5.122793e+001  5.954954e+001 
3481250000  -5.277155e+001  6.420586e+001 
3484375000  -5.286549e+001  6.365400e+001 
3487500000  -5.189284e+001  6.289481e+001 
3490625000  -5.042596e+001  5.391975e+001 
3493750000  -5.142291e+001  4.813899e+001 
3496875000  -5.055524e+001  4.978688e+001 
3500000000  -5.221459e+001  5.146400e+001 
3503125000  -5.114608e+001  4.545845e+001 
3506250000  -4.991672e+001  4.004804e+001 
3509375000  -4.999896e+001  2.205355e+001 
3512500000  -5.053477e+001  1.461931e+001 
3515625000  -5.141588e+001  1.049698e+001 
3518750000  -5.202666e+001  1.373449e+001 
3521875000  -5.248856e+001  3.481722e+000 
3525000000  -5.407983e+001  3.780157e+000 
3528125000  -5.183143e+001  7.421389e+000 
3531250000  -5.150934e+001  -5.021631e-001 
3534375000  -5.202219e+001  -1.615022e+001 
3537500000  -5.536044e+001  -2.400856e+001 
3540625000  -5.435066e+001  -3.150904e+001 
3543750000  -5.522843e+001  -1.856216e+001 
3546875000  -5.549208e+001  -1.085896e+001 
3550000000  -5.489553e+001  -1.139956e+001 
3553125000  -5.398374e+001  -3.394576e+001 
3556250000  -5.476732e+001  -3.805151e+001 
3559375000  -5.482172e+001  -2.450781e+001 
3562500000  -5.771952e+001  -4.919686e+001 
3565625000  -5.685207e+001  -4.209266e+001 
3568750000  -5.601086e+001  -3.672981e+001 
3571875000  -5.824311e+001  -3.344736e+001 
3575000000  -5.873580e+001  -4.695413e+001 
3578125000  -5.854202e+001  -4.763073e+001 
3581250000  -5.760480e+001  -3.999665e+001 
3584375000  -5.678914e+001  -4.656577e+001 
3587500000  -5.818459e+001  -4.114680e+001 
3590625000  -5.822573e+001  -6.283808e+001 
3593750000  -5.899164e+001  -4.606403e+001 
3596875000  -5.914970e+001  -3.448050e+001 
3600000000  -5.810112e+001  -4.489405e+001 
3603125000  -5.813431e+001  -4.965269e+001 
3606250000  -5.798382e+001  -5.601847e+001 
3609375000  -5.829118e+001  -5.361482e+001 
3612500000  -5.872205e+001  -5.774619e+001 
3615625000  -5.982966e+001  -4.680901e+001 
3618750000  -5.854831e+001  -5.058492e+001 
3621875000  -5.801160e+001  -5.031563e+001 
3625000000  -5.847498e+001  -4.721622e+001 
3628125000  -5.667471e+001  -4.625125e+001 
3631250000  -5.663879e+001  -4.941177e+001 
3634375000  -5.639374e+001  -4.866176e+001 
3637500000  -5.534396e+001  -4.558545e+001 
3640625000  -5.444883e+001  -3.192158e+001 
3643750000  -5.301458e+001  -4.857558e+001 
3646875000  -5.288606e+001  -5.493934e+001 
3650000000  -5.279929e+001  -6.351341e+001 
3653125000  -5.242740e+001  -6.194880e+001 
3656250000  -5.116751e+001  -6.014124e+001 
3659375000  -5.117024e+001  -6.955845e+001 
3662500000  -5.075063e+001  -6.900804e+001 
3665625000  -4.985492e+001  -7.048358e+001 
3668750000  -4.783620e+001  -7.163488e+001 
3671875000  -4.743273e+001  -8.450419e+001 
3675000000  -4.776215e+001  -9.254114e+001 
3678125000  -4.744279e+001  -1.006984e+002 
3681250000  -4.668314e+001  -1.010741e+002 
3684375000  -4.670504e+001  -1.043926e+002 
3687500000  -4.646060e+001  -1.115918e+002 
3690625000  -4.664835e+001  -1.189294e+002 
3693750000  -4.721127e+001  -1.178708e+002 
3696875000  -4.648756e+001  -1.201333e+002 
3700000000  -4.509995e+001  -1.273883e+002 
3703125000  -4.521612e+001  -1.325555e+002 
3706250000  -4.577971e+001  -1.327609e+002 
3709375000  -4.500889e+001  -1.321971e+002 
3712500000  -4.327730e+001  -1.394801e+002 
3715625000  -4.185422e+001  -1.461290e+002 
3718750000  -4.198838e+001  -1.547791e+002 
3721875000  -4.138416e+001  -1.612454e+002 
3725000000  -4.174485e+001  -1.684716e+002 
3728125000  -4.129366e+001  -1.734194e+002 
3731250000  -4.064994e+001  1.799381e+002 
3734375000  -4.013718e+001  1.730977e+002 
3737500000  -4.071894e+001  1.646445e+002 
3740625000  -4.098870e+001  1.581678e+002 
3743750000  -4.036535e+001  1.515735e+002 
3746875000  -4.085505e+001  1.451551e+002 
3750000000  -4.082973e+001  1.403509e+002 
3753125000  -4.079261e+001  1.383648e+002 
3756250000  -4.052252e+001  1.327072e+002 
3759375000  -4.038089e+001  1.286491e+002 
3762500000  -3.993356e+001  1.230637e+002 
3765625000  -4.056915e+001  1.174143e+002 
3768750000  -3.998639e+001  1.168954e+002 
3771875000  -3.851399e+001  1.091439e+002 
3775000000  -3.860082e+001  9.842166e+001 
3778125000  -3.891909e+001  9.185182e+001 
3781250000  -3.896090e+001  8.631523e+001 
3784375000  -3.869684e+001  8.229321e+001 
3787500000  -3.850282e+001  7.718047e+001 
3790625000  -3.905878e+001  6.701987e+001 
3793750000  -3.910801e+001  6.487231e+001 
3796875000  -3.826563e+001  5.982705e+001 
3800000000  -3.639542e+001  5.491578e+001 
3803125000  -3.787293e+001  4.232151e+001 
3806250000  -3.885610e+001  3.643716e+001 
3809375000  -3.838482e+001  3.318162e+001 
3812500000  -3.843328e+001  2.363545e+001 
3815625000  -3.960992e+001  1.466009e+001 
3818750000  -4.068961e+001  1.481988e+001 
3821875000  -4.015868e+001  2.552367e+001 
3825000000  -3.802480e+001  2.188418e+001 
3828125000  -3.701796e+001  1.296831e+000 
3831250000  -3.815608e+001  -1.165804e+001 
3834375000  -4.041424e+001  -1.171578e+001 
3837500000  -4.081793e+001  -8.787741e+000 
3840625000  -3.878816e+001  -1.061156e+001 
3843750000  -3.830839e+001  -2.662807e+001 
3846875000  -3.987989e+001  -3.178393e+001 
3850000000  -4.074519e+001  -2.560261e+001 
3853125000  -3.986588e+001  -2.576365e+001 
3856250000  -3.934632e+001  -3.407994e+001 
3859375000  -3.861830e+001  -4.102632e+001 
3862500000  -3.829519e+001  -5.232222e+001 
3865625000  -3.909471e+001  -5.589876e+001 
3868750000  -3.870937e+001  -5.654871e+001 
3871875000  -3.808076e+001  -6.417210e+001 
3875000000  -3.847216e+001  -7.533992e+001 
3878125000  -3.928791e+001  -7.771047e+001 
3881250000  -3.925853e+001  -7.644209e+001 
3884375000  -3.865088e+001  -8.464158e+001 
3887500000  -3.895691e+001  -9.163118e+001 
3890625000  -3.952214e+001  -9.571857e+001 
3893750000  -3.967195e+001  -9.625565e+001 
3896875000  -3.999223e+001  -9.966550e+001 
3900000000  -3.987360e+001  -1.042120e+002 
3903125000  -3.925457e+001  -1.082729e+002 
3906250000  -3.896806e+001  -1.126598e+002 
3909375000  -3.826644e+001  -1.207796e+002 
3912500000  -3.887801e+001  -1.290552e+002 
3915625000  -4.020796e+001  -1.282817e+002 
3918750000  -4.000249e+001  -1.312605e+002 
3921875000  -3.915397e+001  -1.352579e+002 
3925000000  -3.852374e+001  -1.401743e+002 
3928125000  -3.805020e+001  -1.516745e+002 
3931250000  -3.904774e+001  -1.582001e+002 
3934375000  -3.953833e+001  -1.598068e+002 
3937500000  -3.991173e+001  -1.611242e+002 
3940625000  -3.986206e+001  -1.619847e+002 
3943750000  -3.892125e+001  -1.647693e+002 
3946875000  -3.864285e+001  -1.750694e+002 
3950000000  -3.950172e+001  1.766235e+002 
3953125000  -3.998788e+001  1.778057e+002 
3956250000  -3.877756e+001  1.774316e+002 
3959375000  -3.788313e+001  1.697828e+002 
3962500000  -3.758599e+001  1.619625e+002 
3965625000  -3.786992e+001  1.538014e+002 
3968750000  -3.852724e+001  1.449291e+002 
3971875000  -3.859095e+001  1.407062e+002 
3975000000  -3.851736e+001  1.358844e+002 
3978125000  -3.868721e+001  1.339025e+002 
3981250000  -3.856647e+001  1.256887e+002 
3984375000  -3.886839e+001  1.167908e+002 
3987500000  -3.969290e+001  1.140398e+002 
3990625000  -3.996081e+001  1.145469e+002 
3993750000  -3.979297e+001  1.068763e+002 
3996875000  -4.009599e+001  1.049899e+002 
4000000000  -4.089570e+001  9.668925e+001 
4003125000  -4.100241e+001  1.015088e+002 
4006250000  -3.917925e+001  9.778268e+001 
4009375000  -3.862993e+001  8.326981e+001 
4012500000  -4.019765e+001  7.472712e+001 
4015625000  -4.151717e+001  7.468066e+001 
4018750000  -4.133397e+001  7.760249e+001 
4021875000  -4.072935e+001  7.247591e+001 
4025000000  -4.042822e+001  6.720882e+001 
4028125000  -4.079133e+001  5.884837e+001 
4031250000  -4.158641e+001  5.588507e+001 
4034375000  -4.145950e+001  5.492715e+001 
4037500000  -4.094707e+001  5.439429e+001 
4040625000  -4.108218e+001  4.974254e+001 
4043750000  -4.083418e+001  4.721843e+001 
4046875000  -4.061164e+001  4.383435e+001 
4050000000  -4.040091e+001  3.856151e+001 
4053125000  -4.144680e+001  3.670126e+001 
4056250000  -4.140298e+001  4.192286e+001 
4059375000  -3.954047e+001  3.877403e+001 
4062500000  -3.870569e+001  2.796246e+001 
4065625000  -3.879395e+001  2.401343e+001 
4068750000  -3.815858e+001  1.755157e+001 
4071875000  -3.757312e+001  7.115220e+000 
4075000000  -3.818477e+001  -4.901475e-001 
4078125000  -3.872962e+001  -3.768259e+000 
4081250000  -3.825644e+001  -8.071068e+000 
4084375000  -3.822490e+001  -1.719027e+001 
4087500000  -3.866420e+001  -2.438080e+001 
4090625000  -3.914716e+001  -2.507634e+001 
4093750000  -3.886439e+001  -2.798339e+001 
4096875000  -3.875349e+001  -3.897144e+001 
4100000000  -4.006472e+001  -4.548049e+001 
4103125000  -4.071050e+001  -4.267755e+001 
4106250000  -3.991435e+001  -4.177536e+001 
4109375000  -3.922293e+001  -4.654553e+001 
4112500000  -3.875625e+001  -5.387649e+001 
4115625000  -3.914919e+001  -6.032339e+001 
4118750000  -3.910796e+001  -6.571062e+001 
4121875000  -3.914711e+001  -7.150489e+001 
4125000000  -4.004546e+001  -7.867635e+001 
4128125000  -4.069283e+001  -7.663950e+001 
4131250000  -3.971976e+001  -7.013663e+001 
4134375000  -3.765086e+001  -8.192383e+001 
4137500000  -3.828425e+001  -1.017482e+002 
4140625000  -4.060277e+001  -1.070920e+002 
4143750000  -4.151913e+001  -1.002870e+002 
4146875000  -4.070173e+001  -9.912715e+001 
4150000000  -3.997183e+001  -1.047474e+002 
4153125000  -4.024018e+001  -1.159505e+002 
4156250000  -4.126968e+001  -1.176199e+002 
4159375000  -4.140214e+001  -1.124245e+002 
4162500000  -3.997356e+001  -1.106638e+002 
4165625000  -3.896354e+001  -1.191290e+002 
4168750000  -3.847441e+001  -1.302962e+002 
4171875000  -3.832208e+001  -1.390822e+002 
4175000000  -3.926711e+001  -1.446611e+002 
4178125000  -3.991067e+001  -1.449440e+002 
4181250000  -3.947151e+001  -1.489560e+002 
4184375000  -3.943662e+001  -1.540964e+002 
4187500000  -3.945665e+001  -1.603955e+002 
4190625000  -3.956842e+001  -1.682669e+002 
4193750000  -4.054884e+001  -1.720760e+002 
4196875000  -4.149966e+001  -1.721386e+002 
4200000000  -4.268974e+001  -1.676632e+002 
4203125000  -4.063339e+001  -1.537913e+002 
4206250000  -3.738883e+001  -1.634170e+002 
4209375000  -3.705714e+001  1.741338e+002 
4212500000  -3.967065e+001  1.654059e+002 
4215625000  -4.019380e+001  1.743416e+002 
4218750000  -3.827929e+001  1.744972e+002 
4221875000  -3.679953e+001  1.645596e+002 
4225000000  -3.752017e+001  1.529011e+002 
4228125000  -3.780800e+001  1.544791e+002 
4231250000  -3.622631e+001  1.473551e+002 
4234375000  -3.627733e+001  1.363045e+002 
4237500000  -3.604939e+001  1.303892e+002 
4240625000  -3.626248e+001  1.195134e+002 
4243750000  -3.758759e+001  1.103088e+002 
4246875000  -3.850698e+001  1.106207e+002 
4250000000  -3.821607e+001  1.106658e+002 
4253125000  -3.805037e+001  1.087051e+002 
4256250000  -3.806134e+001  1.042356e+002 
4259375000  -3.758491e+001  9.567240e+001 
4262500000  -3.812577e+001  9.150592e+001 
4265625000  -3.810007e+001  9.017806e+001 
4268750000  -3.709362e+001  8.191852e+001 
4271875000  -3.691925e+001  7.284966e+001 
4275000000  -3.659906e+001  6.634358e+001 
4278125000  -3.792553e+001  5.199602e+001 
4281250000  -3.905022e+001  5.156923e+001 
4284375000  -3.879057e+001  4.886397e+001 
4287500000  -4.020148e+001  4.515567e+001 
4290625000  -4.064961e+001  5.487432e+001 
4293750000  -3.873994e+001  5.386716e+001 
4296875000  -3.756015e+001  4.063699e+001 
4300000000  -3.897944e+001  3.308092e+001 
4303125000  -3.963914e+001  3.555922e+001 
4306250000  -3.863876e+001  3.903364e+001 
4309375000  -3.774901e+001  3.188398e+001 
4312500000  -3.766230e+001  1.964918e+001 
4315625000  -3.795356e+001  1.212786e+001 
4318750000  -3.867431e+001  8.140967e+000 
4321875000  -3.851079e+001  9.393934e+000 
4325000000  -3.791092e+001  7.973999e+000 
4328125000  -3.716557e+001  -1.583343e+000 
4331250000  -3.741330e+001  -1.302541e+001 
4334375000  -3.833908e+001  -1.901479e+001 
4337500000  -3.959019e+001  -2.030377e+001 
4340625000  -3.962397e+001  -1.478631e+001 
4343750000  -3.858209e+001  -1.967684e+001 
4346875000  -3.841328e+001  -2.671457e+001 
4350000000  -3.841677e+001  -3.742496e+001 
4353125000  -3.889857e+001  -4.242594e+001 
4356250000  -4.114663e+001  -3.717446e+001 
4359375000  -4.007132e+001  -2.478706e+001 
4362500000  -3.658227e+001  -3.326049e+001 
4365625000  -3.603470e+001  -5.006878e+001 
4368750000  -3.736816e+001  -5.977967e+001 
4371875000  -3.762515e+001  -6.041496e+001 
4375000000  -3.708287e+001  -6.451077e+001 
4378125000  -3.685502e+001  -7.366599e+001 
4381250000  -3.701287e+001  -8.136696e+001 
4384375000  -3.715356e+001  -8.692512e+001 
4387500000  -3.807373e+001  -9.391972e+001 
4390625000  -3.850821e+001  -9.352743e+001 
4393750000  -3.808891e+001  -9.339760e+001 
4396875000  -3.725148e+001  -9.943896e+001 
4400000000  -3.680538e+001  -1.084605e+002 
4403125000  -3.793438e+001  -1.185093e+002 
4406250000  -3.840136e+001  -1.205420e+002 
4409375000  -3.877122e+001  -1.225222e+002 
4412500000  -3.963458e+001  -1.273465e+002 
4415625000  -3.939296e+001  -1.240725e+002 
