!Agilent Technologies,E8363B,MY43030201,A.06.04.32
!Agilent E8363B: A.06.04.32
!Date: Tuesday, November 11, 2014 21:38:08
!Correction: S21(Response(S21)) 
!S1P File: Measurement: S21:
# Hz S  dB   R 50
3000000000  -4.071063e+001  6.992947e+001 
3003125000  -4.224240e+001  6.296891e+001 
3006250000  -4.216416e+001  5.998583e+001 
3009375000  -4.293415e+001  6.604353e+001 
3012500000  -4.149416e+001  6.060238e+001 
3015625000  -4.155151e+001  5.375587e+001 
3018750000  -4.174438e+001  5.659398e+001 
3021875000  -4.011785e+001  5.641362e+001 
3025000000  -3.881213e+001  5.330542e+001 
3028125000  -3.783848e+001  4.118501e+001 
3031250000  -3.701433e+001  2.951603e+001 
3034375000  -3.685102e+001  1.597922e+001 
3037500000  -3.755672e+001  5.072954e+000 
3040625000  -3.877495e+001  2.389819e-001 
3043750000  -3.903511e+001  -5.868733e+000 
3046875000  -3.986232e+001  -1.087205e+001 
3050000000  -4.099102e+001  -1.738623e+001 
3053125000  -4.062067e+001  -1.193905e+001 
3056250000  -4.064583e+001  -8.812163e+000 
3059375000  -3.985733e+001  -1.008464e+001 
3062500000  -3.804767e+001  -1.522938e+001 
3065625000  -3.792708e+001  -2.574887e+001 
3068750000  -3.756790e+001  -3.320890e+001 
3071875000  -3.760693e+001  -3.461506e+001 
3075000000  -3.712669e+001  -4.320125e+001 
3078125000  -3.711124e+001  -4.909697e+001 
3081250000  -3.724590e+001  -5.498747e+001 
3084375000  -3.627284e+001  -5.930559e+001 
3087500000  -3.638103e+001  -6.754935e+001 
3090625000  -3.587384e+001  -7.857779e+001 
3093750000  -3.691756e+001  -8.631139e+001 
3096875000  -3.736316e+001  -9.159039e+001 
3100000000  -3.727748e+001  -9.448351e+001 
3103125000  -3.757274e+001  -9.825301e+001 
3106250000  -3.719727e+001  -1.036195e+002 
3109375000  -3.730981e+001  -1.068822e+002 
3112500000  -3.708443e+001  -1.138496e+002 
3115625000  -3.708656e+001  -1.165071e+002 
3118750000  -3.725219e+001  -1.203670e+002 
3121875000  -3.656591e+001  -1.310149e+002 
3125000000  -3.852318e+001  -1.342054e+002 
3128125000  -3.850116e+001  -1.272819e+002 
3131250000  -3.597800e+001  -1.331316e+002 
3134375000  -3.537486e+001  -1.510901e+002 
3137500000  -3.619245e+001  -1.635667e+002 
3140625000  -3.729099e+001  -1.648260e+002 
3143750000  -3.819042e+001  -1.685666e+002 
3146875000  -3.754922e+001  -1.651956e+002 
3150000000  -3.692551e+001  -1.704193e+002 
3153125000  -3.714802e+001  -1.783833e+002 
3156250000  -3.800598e+001  -1.745258e+002 
3159375000  -3.553256e+001  -1.753063e+002 
3162500000  -3.420640e+001  1.682936e+002 
3165625000  -3.542024e+001  1.562780e+002 
3168750000  -3.538979e+001  1.550586e+002 
3171875000  -3.494403e+001  1.473569e+002 
3175000000  -3.539556e+001  1.383361e+002 
3178125000  -3.503740e+001  1.367548e+002 
3181250000  -3.429023e+001  1.281528e+002 
3184375000  -3.422280e+001  1.171473e+002 
3187500000  -3.548465e+001  1.024092e+002 
3190625000  -3.728716e+001  9.605875e+001 
3193750000  -3.728389e+001  1.016825e+002 
3196875000  -3.726862e+001  1.024931e+002 
3200000000  -3.609520e+001  9.657568e+001 
3203125000  -3.591542e+001  8.969019e+001 
3206250000  -3.616756e+001  8.130650e+001 
3209375000  -3.576963e+001  7.281876e+001 
3212500000  -3.638795e+001  6.704159e+001 
3215625000  -3.604247e+001  6.457387e+001 
3218750000  -3.683316e+001  5.256379e+001 
3221875000  -3.730847e+001  4.605434e+001 
3225000000  -3.714106e+001  4.179900e+001 
3228125000  -3.780417e+001  3.440186e+001 
3231250000  -3.816625e+001  3.377040e+001 
3234375000  -3.786373e+001  2.980143e+001 
3237500000  -3.798109e+001  2.611666e+001 
3240625000  -3.743565e+001  2.049690e+001 
3243750000  -3.767704e+001  9.307587e+000 
3246875000  -3.826576e+001  2.741526e+000 
3250000000  -3.888124e+001  -1.205719e+000 
3253125000  -3.894621e+001  -3.056493e+000 
3256250000  -3.858954e+001  -1.175201e+001 
3259375000  -3.916711e+001  -2.279921e+001 
3262500000  -4.073186e+001  -2.736542e+001 
3265625000  -4.100096e+001  -2.311903e+001 
3268750000  -4.113356e+001  -2.261658e+001 
3271875000  -4.037751e+001  -2.590940e+001 
3275000000  -3.993885e+001  -3.475823e+001 
3278125000  -4.079882e+001  -3.917667e+001 
3281250000  -4.100540e+001  -4.210584e+001 
3284375000  -4.066438e+001  -4.701074e+001 
3287500000  -4.087970e+001  -5.004633e+001 
3290625000  -4.097794e+001  -6.174048e+001 
3293750000  -4.122956e+001  -6.530190e+001 
3296875000  -4.242029e+001  -6.588830e+001 
3300000000  -4.184824e+001  -6.548755e+001 
3303125000  -4.092699e+001  -7.295999e+001 
3306250000  -4.079199e+001  -8.020865e+001 
3309375000  -4.035181e+001  -8.653846e+001 
3312500000  -4.090313e+001  -1.003461e+002 
3315625000  -4.237916e+001  -1.064732e+002 
3318750000  -4.369409e+001  -1.105342e+002 
3321875000  -4.523059e+001  -1.068337e+002 
3325000000  -4.465737e+001  -1.002460e+002 
3328125000  -4.361166e+001  -9.816058e+001 
3331250000  -4.206744e+001  -9.764977e+001 
3334375000  -3.990692e+001  -1.152863e+002 
3337500000  -4.028810e+001  -1.343340e+002 
3340625000  -4.216351e+001  -1.427969e+002 
3343750000  -4.415981e+001  -1.434740e+002 
3346875000  -4.338910e+001  -1.451055e+002 
3350000000  -4.305795e+001  -1.467823e+002 
3353125000  -4.272578e+001  -1.539321e+002 
3356250000  -4.266394e+001  -1.624432e+002 
3359375000  -4.361789e+001  -1.727455e+002 
3362500000  -4.401666e+001  -1.783690e+002 
3365625000  -4.456019e+001  1.777845e+002 
3368750000  -4.550228e+001  1.720524e+002 
3371875000  -4.573749e+001  1.686580e+002 
3375000000  -4.754169e+001  1.650556e+002 
3378125000  -4.819925e+001  1.643772e+002 
3381250000  -4.980159e+001  1.783371e+002 
3384375000  -4.627850e+001  -1.697371e+002 
3387500000  -4.395332e+001  1.705477e+002 
3390625000  -4.576214e+001  1.501807e+002 
3393750000  -4.645299e+001  1.510473e+002 
3396875000  -4.600042e+001  1.482756e+002 
3400000000  -4.602415e+001  1.348240e+002 
3403125000  -4.639411e+001  1.311530e+002 
3406250000  -4.745045e+001  1.295086e+002 
3409375000  -4.832898e+001  1.195868e+002 
3412500000  -4.848948e+001  1.167094e+002 
3415625000  -4.973163e+001  1.130354e+002 
3418750000  -4.991496e+001  1.143686e+002 
3421875000  -5.057096e+001  1.176811e+002 
3425000000  -4.991978e+001  1.169130e+002 
3428125000  -4.982659e+001  1.111806e+002 
3431250000  -5.027343e+001  1.037566e+002 
3434375000  -5.071083e+001  1.011058e+002 
3437500000  -5.173345e+001  1.015541e+002 
3440625000  -5.141215e+001  1.016761e+002 
3443750000  -5.045766e+001  1.058189e+002 
3446875000  -5.031112e+001  9.902782e+001 
3450000000  -4.982772e+001  8.908598e+001 
3453125000  -5.066913e+001  8.092282e+001 
3456250000  -5.169844e+001  8.114315e+001 
3459375000  -5.336730e+001  8.302965e+001 
3462500000  -5.201278e+001  8.463567e+001 
3465625000  -5.142791e+001  7.091793e+001 
3468750000  -5.259937e+001  7.659491e+001 
3471875000  -5.199073e+001  7.119279e+001 
3475000000  -5.182526e+001  6.470119e+001 
3478125000  -5.092382e+001  5.876012e+001 
3481250000  -5.191406e+001  6.215750e+001 
3484375000  -5.230498e+001  6.220526e+001 
3487500000  -5.097792e+001  5.233366e+001 
3490625000  -5.129335e+001  5.314004e+001 
3493750000  -5.209909e+001  4.495032e+001 
3496875000  -5.097896e+001  4.558938e+001 
3500000000  -5.176933e+001  4.189235e+001 
3503125000  -5.113510e+001  4.081345e+001 
3506250000  -5.018130e+001  3.154603e+001 
3509375000  -4.920066e+001  2.045453e+001 
3512500000  -4.983422e+001  8.561497e+000 
3515625000  -5.104743e+001  5.874413e+000 
3518750000  -5.317853e+001  3.717800e+000 
3521875000  -5.221632e+001  -7.323844e+000 
3525000000  -5.295919e+001  -6.762004e+000 
3528125000  -5.308667e+001  5.555221e-001 
3531250000  -5.146305e+001  -3.618958e+000 
3534375000  -5.228163e+001  -1.966756e+001 
3537500000  -5.375057e+001  -2.721521e+001 
3540625000  -5.508206e+001  -2.380259e+001 
3543750000  -5.603381e+001  -1.552383e+001 
3546875000  -5.560406e+001  -1.220256e+001 
3550000000  -5.411331e+001  -2.145182e+001 
3553125000  -5.328234e+001  -3.425703e+001 
3556250000  -5.522769e+001  -3.377316e+001 
3559375000  -5.524472e+001  -3.980916e+001 
3562500000  -5.569136e+001  -4.446582e+001 
3565625000  -5.751293e+001  -5.448674e+001 
3568750000  -5.694379e+001  -3.970075e+001 
3571875000  -5.726895e+001  -4.966451e+001 
3575000000  -5.731800e+001  -4.210851e+001 
3578125000  -5.931942e+001  -4.478306e+001 
3581250000  -5.791157e+001  -4.629597e+001 
3584375000  -5.705195e+001  -4.078580e+001 
3587500000  -5.727110e+001  -6.106080e+001 
3590625000  -5.811595e+001  -6.172594e+001 
3593750000  -5.856851e+001  -5.221152e+001 
3596875000  -5.852943e+001  -3.763964e+001 
3600000000  -5.845112e+001  -3.991378e+001 
3603125000  -5.744750e+001  -6.160583e+001 
3606250000  -5.802099e+001  -5.585854e+001 
3609375000  -5.876924e+001  -5.564413e+001 
3612500000  -5.802452e+001  -4.636878e+001 
3615625000  -5.915635e+001  -6.093816e+001 
3618750000  -6.069234e+001  -5.030159e+001 
3621875000  -5.902389e+001  -5.572620e+001 
3625000000  -5.954499e+001  -4.970933e+001 
3628125000  -5.645701e+001  -4.735556e+001 
3631250000  -5.665516e+001  -5.837021e+001 
3634375000  -5.662063e+001  -4.852960e+001 
3637500000  -5.483409e+001  -4.360367e+001 
3640625000  -5.530286e+001  -3.485444e+001 
3643750000  -5.312641e+001  -4.630337e+001 
3646875000  -5.345980e+001  -5.733010e+001 
3650000000  -5.204704e+001  -6.547317e+001 
3653125000  -5.279884e+001  -6.779374e+001 
3656250000  -5.194831e+001  -6.596778e+001 
3659375000  -5.096585e+001  -6.570899e+001 
3662500000  -5.132963e+001  -7.503681e+001 
3665625000  -5.014636e+001  -7.259772e+001 
3668750000  -4.779903e+001  -7.410342e+001 
3671875000  -4.764478e+001  -9.024612e+001 
3675000000  -4.727365e+001  -9.580859e+001 
3678125000  -4.686906e+001  -9.920401e+001 
3681250000  -4.629239e+001  -1.070049e+002 
3684375000  -4.684316e+001  -1.104110e+002 
3687500000  -4.661053e+001  -1.141795e+002 
3690625000  -4.687282e+001  -1.224711e+002 
3693750000  -4.731670e+001  -1.205979e+002 
3696875000  -4.617628e+001  -1.216226e+002 
3700000000  -4.541780e+001  -1.305849e+002 
3703125000  -4.504472e+001  -1.352966e+002 
3706250000  -4.601081e+001  -1.379182e+002 
3709375000  -4.487073e+001  -1.356158e+002 
3712500000  -4.351678e+001  -1.414383e+002 
3715625000  -4.199429e+001  -1.514745e+002 
3718750000  -4.154814e+001  -1.587387e+002 
3721875000  -4.121856e+001  -1.669692e+002 
3725000000  -4.166445e+001  -1.728951e+002 
3728125000  -4.135313e+001  -1.765370e+002 
3731250000  -4.055495e+001  1.767090e+002 
3734375000  -4.026637e+001  1.690694e+002 
3737500000  -4.085486e+001  1.607636e+002 
3740625000  -4.076019e+001  1.558926e+002 
3743750000  -4.038368e+001  1.492966e+002 
3746875000  -4.075570e+001  1.422778e+002 
3750000000  -4.093453e+001  1.354165e+002 
3753125000  -4.077789e+001  1.359301e+002 
3756250000  -4.061960e+001  1.314249e+002 
3759375000  -4.050586e+001  1.249624e+002 
3762500000  -4.003256e+001  1.185663e+002 
3765625000  -4.079365e+001  1.139526e+002 
3768750000  -4.019637e+001  1.142985e+002 
3771875000  -3.834371e+001  1.067760e+002 
3775000000  -3.825723e+001  9.596181e+001 
3778125000  -3.897530e+001  8.856232e+001 
3781250000  -3.915678e+001  8.599509e+001 
3784375000  -3.868885e+001  7.812349e+001 
3787500000  -3.842059e+001  7.195388e+001 
3790625000  -3.912844e+001  6.277882e+001 
3793750000  -3.911547e+001  6.133112e+001 
3796875000  -3.798082e+001  5.654907e+001 
3800000000  -3.639235e+001  5.180574e+001 
3803125000  -3.805913e+001  3.891130e+001 
3806250000  -3.881380e+001  3.425511e+001 
3809375000  -3.838431e+001  3.031545e+001 
3812500000  -3.859168e+001  2.187296e+001 
3815625000  -3.948852e+001  1.132443e+001 
3818750000  -4.079523e+001  1.289725e+001 
3821875000  -4.014360e+001  2.398853e+001 
3825000000  -3.824410e+001  2.041124e+001 
3828125000  -3.695060e+001  3.037868e-001 
3831250000  -3.808993e+001  -1.479933e+001 
3834375000  -4.032649e+001  -1.363821e+001 
3837500000  -4.067699e+001  -9.772885e+000 
3840625000  -3.879876e+001  -1.561769e+001 
3843750000  -3.799425e+001  -2.938674e+001 
3846875000  -3.970727e+001  -3.407884e+001 
3850000000  -4.078935e+001  -3.060017e+001 
3853125000  -4.009367e+001  -3.167566e+001 
3856250000  -3.925761e+001  -3.812282e+001 
3859375000  -3.876685e+001  -4.474675e+001 
3862500000  -3.838732e+001  -5.580252e+001 
3865625000  -3.903846e+001  -5.991465e+001 
3868750000  -3.866074e+001  -6.080274e+001 
3871875000  -3.796013e+001  -6.792165e+001 
3875000000  -3.852712e+001  -7.744529e+001 
3878125000  -3.952348e+001  -8.110091e+001 
3881250000  -3.924568e+001  -7.891583e+001 
3884375000  -3.854044e+001  -8.739320e+001 
3887500000  -3.888760e+001  -9.316058e+001 
3890625000  -3.944489e+001  -9.929022e+001 
3893750000  -3.985723e+001  -9.970672e+001 
3896875000  -4.011645e+001  -1.030599e+002 
3900000000  -3.973043e+001  -1.054117e+002 
3903125000  -3.923129e+001  -1.113171e+002 
3906250000  -3.870248e+001  -1.160292e+002 
3909375000  -3.829036e+001  -1.248760e+002 
3912500000  -3.919017e+001  -1.341881e+002 
3915625000  -4.049170e+001  -1.324766e+002 
3918750000  -3.990329e+001  -1.344697e+002 
3921875000  -3.921511e+001  -1.402759e+002 
3925000000  -3.851656e+001  -1.436379e+002 
3928125000  -3.827258e+001  -1.546022e+002 
3931250000  -3.922453e+001  -1.601191e+002 
3934375000  -3.946005e+001  -1.621408e+002 
3937500000  -3.997179e+001  -1.649769e+002 
3940625000  -4.009020e+001  -1.647720e+002 
3943750000  -3.892640e+001  -1.688519e+002 
3946875000  -3.840982e+001  -1.786078e+002 
3950000000  -3.947307e+001  1.736062e+002 
3953125000  -4.008795e+001  1.741349e+002 
3956250000  -3.856815e+001  1.734590e+002 
3959375000  -3.776159e+001  1.675346e+002 
3962500000  -3.759973e+001  1.588244e+002 
3965625000  -3.781790e+001  1.508727e+002 
3968750000  -3.863148e+001  1.426250e+002 
3971875000  -3.880187e+001  1.370810e+002 
3975000000  -3.837164e+001  1.325699e+002 
3978125000  -3.850631e+001  1.292038e+002 
3981250000  -3.842248e+001  1.224868e+002 
3984375000  -3.896489e+001  1.133757e+002 
3987500000  -3.946964e+001  1.097468e+002 
3990625000  -3.991549e+001  1.086556e+002 
3993750000  -3.988610e+001  1.031421e+002 
3996875000  -3.974568e+001  9.980758e+001 
4000000000  -4.044650e+001  9.493651e+001 
4003125000  -4.123776e+001  9.640263e+001 
4006250000  -3.925356e+001  9.561447e+001 
4009375000  -3.866894e+001  8.000688e+001 
4012500000  -4.023318e+001  7.006667e+001 
4015625000  -4.134940e+001  6.919850e+001 
4018750000  -4.130922e+001  7.271318e+001 
4021875000  -4.059425e+001  6.962515e+001 
4025000000  -4.025414e+001  6.258108e+001 
4028125000  -4.065365e+001  5.455664e+001 
4031250000  -4.111012e+001  5.240484e+001 
4034375000  -4.143333e+001  4.970001e+001 
4037500000  -4.122038e+001  5.227906e+001 
4040625000  -4.096975e+001  4.677500e+001 
4043750000  -4.115107e+001  4.418935e+001 
4046875000  -4.067682e+001  3.890215e+001 
4050000000  -4.060338e+001  3.491777e+001 
4053125000  -4.132159e+001  3.158048e+001 
4056250000  -4.143067e+001  3.863796e+001 
4059375000  -3.928671e+001  3.360042e+001 
4062500000  -3.891287e+001  2.600004e+001 
4065625000  -3.869537e+001  2.002379e+001 
4068750000  -3.798542e+001  1.352851e+001 
4071875000  -3.757247e+001  3.727808e+000 
4075000000  -3.832625e+001  -3.429667e+000 
4078125000  -3.888113e+001  -6.137074e+000 
4081250000  -3.820121e+001  -1.274232e+001 
4084375000  -3.786997e+001  -2.195060e+001 
4087500000  -3.864944e+001  -2.741735e+001 
4090625000  -3.938957e+001  -2.934794e+001 
4093750000  -3.855465e+001  -3.303387e+001 
4096875000  -3.859586e+001  -4.195749e+001 
4100000000  -3.953255e+001  -4.841494e+001 
4103125000  -4.070464e+001  -4.812872e+001 
4106250000  -3.998878e+001  -4.478788e+001 
4109375000  -3.906615e+001  -4.825977e+001 
4112500000  -3.847382e+001  -5.890952e+001 
4115625000  -3.914759e+001  -6.443109e+001 
4118750000  -3.885796e+001  -6.899121e+001 
4121875000  -3.894766e+001  -7.593753e+001 
4125000000  -3.970919e+001  -8.228534e+001 
4128125000  -4.086113e+001  -7.894214e+001 
4131250000  -3.970192e+001  -7.559772e+001 
4134375000  -3.731398e+001  -8.365627e+001 
4137500000  -3.819032e+001  -1.061262e+002 
4140625000  -4.038149e+001  -1.132158e+002 
4143750000  -4.124251e+001  -1.053665e+002 
4146875000  -4.046150e+001  -1.023336e+002 
4150000000  -3.977855e+001  -1.117742e+002 
4153125000  -4.002417e+001  -1.182286e+002 
4156250000  -4.108468e+001  -1.206132e+002 
4159375000  -4.102578e+001  -1.156222e+002 
4162500000  -3.991037e+001  -1.154149e+002 
4165625000  -3.850709e+001  -1.208303e+002 
4168750000  -3.831982e+001  -1.322009e+002 
4171875000  -3.825513e+001  -1.430449e+002 
4175000000  -3.936180e+001  -1.483932e+002 
4178125000  -3.941536e+001  -1.490775e+002 
4181250000  -3.946206e+001  -1.545379e+002 
4184375000  -3.946148e+001  -1.584230e+002 
4187500000  -3.944910e+001  -1.636347e+002 
4190625000  -3.953181e+001  -1.700604e+002 
4193750000  -4.057959e+001  -1.755692e+002 
4196875000  -4.116973e+001  -1.771803e+002 
4200000000  -4.293955e+001  -1.698308e+002 
4203125000  -4.074203e+001  -1.585695e+002 
4206250000  -3.714682e+001  -1.665510e+002 
4209375000  -3.722009e+001  1.706779e+002 
4212500000  -3.976398e+001  1.633640e+002 
4215625000  -4.011377e+001  1.712636e+002 
4218750000  -3.832039e+001  1.705063e+002 
4221875000  -3.671785e+001  1.608930e+002 
4225000000  -3.770455e+001  1.478720e+002 
4228125000  -3.765827e+001  1.498993e+002 
4231250000  -3.632330e+001  1.426545e+002 
4234375000  -3.637132e+001  1.311185e+002 
4237500000  -3.611271e+001  1.269658e+002 
4240625000  -3.609739e+001  1.152438e+002 
4243750000  -3.764356e+001  1.065276e+002 
4246875000  -3.837259e+001  1.072824e+002 
4250000000  -3.842293e+001  1.067537e+002 
4253125000  -3.809695e+001  1.030328e+002 
4256250000  -3.803114e+001  9.880652e+001 
4259375000  -3.746386e+001  9.342538e+001 
4262500000  -3.795611e+001  8.937251e+001 
4265625000  -3.786760e+001  8.643997e+001 
4268750000  -3.675883e+001  7.847917e+001 
4271875000  -3.679289e+001  6.904962e+001 
4275000000  -3.656384e+001  6.155276e+001 
4278125000  -3.765703e+001  4.979320e+001 
4281250000  -3.912636e+001  4.747051e+001 
4284375000  -3.877244e+001  4.478447e+001 
4287500000  -4.017756e+001  4.290377e+001 
4290625000  -4.036666e+001  4.867651e+001 
4293750000  -3.845203e+001  5.045934e+001 
4296875000  -3.768432e+001  3.692070e+001 
4300000000  -3.895565e+001  2.792003e+001 
4303125000  -3.965284e+001  3.257829e+001 
4306250000  -3.864297e+001  3.427187e+001 
4309375000  -3.761945e+001  2.787671e+001 
4312500000  -3.735423e+001  1.648407e+001 
4315625000  -3.790258e+001  9.126992e+000 
4318750000  -3.849052e+001  3.927171e+000 
4321875000  -3.869510e+001  4.548933e+000 
4325000000  -3.793607e+001  5.083853e+000 
4328125000  -3.729818e+001  -5.616685e+000 
4331250000  -3.736469e+001  -1.622747e+001 
4334375000  -3.827541e+001  -2.346538e+001 
4337500000  -3.940602e+001  -2.228576e+001 
4340625000  -3.953258e+001  -1.810998e+001 
4343750000  -3.863265e+001  -2.209687e+001 
4346875000  -3.849199e+001  -3.195500e+001 
4350000000  -3.818823e+001  -4.000999e+001 
4353125000  -3.884067e+001  -4.671368e+001 
4356250000  -4.102614e+001  -3.936676e+001 
4359375000  -3.965461e+001  -2.695151e+001 
4362500000  -3.662158e+001  -3.740047e+001 
4365625000  -3.577445e+001  -5.467509e+001 
4368750000  -3.718834e+001  -6.414118e+001 
4371875000  -3.786607e+001  -6.283397e+001 
4375000000  -3.707444e+001  -6.867313e+001 
4378125000  -3.708035e+001  -7.629174e+001 
4381250000  -3.688148e+001  -8.547060e+001 
4384375000  -3.725389e+001  -9.040463e+001 
4387500000  -3.833182e+001  -9.609771e+001 
4390625000  -3.851911e+001  -9.828522e+001 
4393750000  -3.783042e+001  -9.706564e+001 
4396875000  -3.723805e+001  -1.027399e+002 
4400000000  -3.690276e+001  -1.133841e+002 
4403125000  -3.764707e+001  -1.205251e+002 
4406250000  -3.849691e+001  -1.231251e+002 
4409375000  -3.878679e+001  -1.288991e+002 
4412500000  -3.965422e+001  -1.298227e+002 
4415625000  -3.950238e+001  -1.265366e+002 
