!Agilent Technologies,E8363B,MY43030201,A.06.04.32
!Agilent E8363B: A.06.04.32
!Date: Tuesday, November 11, 2014 21:26:04
!Correction: S21(Response(S21)) 
!S1P File: Measurement: S21:
# Hz S  dB   R 50
3000000000  -4.045623e+001  9.703053e+001 
3003125000  -4.222262e+001  8.981509e+001 
3006250000  -4.203764e+001  8.632202e+001 
3009375000  -4.247028e+001  9.103551e+001 
3012500000  -4.171815e+001  8.715701e+001 
3015625000  -4.136355e+001  8.092661e+001 
3018750000  -4.195383e+001  8.066584e+001 
3021875000  -4.026126e+001  8.212334e+001 
3025000000  -3.893618e+001  7.753381e+001 
3028125000  -3.795408e+001  6.860217e+001 
3031250000  -3.697683e+001  5.729697e+001 
3034375000  -3.668671e+001  4.229994e+001 
3037500000  -3.747963e+001  3.107259e+001 
3040625000  -3.862665e+001  2.675358e+001 
3043750000  -3.897655e+001  2.037652e+001 
3046875000  -3.969486e+001  1.426365e+001 
3050000000  -4.090304e+001  8.602534e+000 
3053125000  -4.054138e+001  1.307736e+001 
3056250000  -4.044003e+001  1.635359e+001 
3059375000  -3.987925e+001  1.455367e+001 
3062500000  -3.832046e+001  9.119007e+000 
3065625000  -3.800537e+001  7.913496e-001 
3068750000  -3.763265e+001  -6.667634e+000 
3071875000  -3.766628e+001  -9.856385e+000 
3075000000  -3.710314e+001  -1.570535e+001 
3078125000  -3.703997e+001  -2.198209e+001 
3081250000  -3.740881e+001  -2.778548e+001 
3084375000  -3.637508e+001  -3.296179e+001 
3087500000  -3.648768e+001  -3.795672e+001 
3090625000  -3.599834e+001  -5.147584e+001 
3093750000  -3.664407e+001  -5.913679e+001 
3096875000  -3.738908e+001  -6.532407e+001 
3100000000  -3.727002e+001  -6.889101e+001 
3103125000  -3.762718e+001  -7.152708e+001 
3106250000  -3.721336e+001  -7.726102e+001 
3109375000  -3.740149e+001  -8.243838e+001 
3112500000  -3.721402e+001  -8.629197e+001 
3115625000  -3.704115e+001  -9.103266e+001 
3118750000  -3.749280e+001  -9.349676e+001 
3121875000  -3.665312e+001  -1.035632e+002 
3125000000  -3.820026e+001  -1.084537e+002 
3128125000  -3.864834e+001  -1.025763e+002 
3131250000  -3.624686e+001  -1.070419e+002 
3134375000  -3.510502e+001  -1.235966e+002 
3137500000  -3.606858e+001  -1.366854e+002 
3140625000  -3.723709e+001  -1.400641e+002 
3143750000  -3.825787e+001  -1.407115e+002 
3146875000  -3.775127e+001  -1.402211e+002 
3150000000  -3.697422e+001  -1.419014e+002 
3153125000  -3.719346e+001  -1.524712e+002 
3156250000  -3.792244e+001  -1.484572e+002 
3159375000  -3.595227e+001  -1.488429e+002 
3162500000  -3.418478e+001  -1.645498e+002 
3165625000  -3.554728e+001  -1.767940e+002 
3168750000  -3.557017e+001  -1.777132e+002 
3171875000  -3.503168e+001  1.749171e+002 
3175000000  -3.546454e+001  1.653524e+002 
3178125000  -3.513018e+001  1.644749e+002 
3181250000  -3.445450e+001  1.556862e+002 
3184375000  -3.403100e+001  1.433830e+002 
3187500000  -3.541255e+001  1.292523e+002 
3190625000  -3.742259e+001  1.223973e+002 
3193750000  -3.775517e+001  1.283923e+002 
3196875000  -3.747990e+001  1.295343e+002 
3200000000  -3.634356e+001  1.249196e+002 
3203125000  -3.591436e+001  1.163139e+002 
3206250000  -3.623146e+001  1.087372e+002 
3209375000  -3.585823e+001  1.011999e+002 
3212500000  -3.624287e+001  9.319083e+001 
3215625000  -3.609951e+001  9.044172e+001 
3218750000  -3.714594e+001  7.945592e+001 
3221875000  -3.740789e+001  7.276137e+001 
3225000000  -3.709750e+001  6.962116e+001 
3228125000  -3.779421e+001  6.282504e+001 
3231250000  -3.833217e+001  6.019386e+001 
3234375000  -3.816342e+001  5.712819e+001 
3237500000  -3.812621e+001  5.312245e+001 
3240625000  -3.770218e+001  4.762077e+001 
3243750000  -3.768619e+001  3.771373e+001 
3246875000  -3.817362e+001  3.011775e+001 
3250000000  -3.863343e+001  2.618030e+001 
3253125000  -3.913813e+001  2.402299e+001 
3256250000  -3.877126e+001  1.524984e+001 
3259375000  -3.912225e+001  4.675561e+000 
3262500000  -4.051897e+001  -7.133745e-001 
3265625000  -4.136183e+001  3.302033e+000 
3268750000  -4.112914e+001  3.357345e+000 
3271875000  -4.081332e+001  6.333038e-001 
3275000000  -4.018067e+001  -7.494926e+000 
3278125000  -4.079586e+001  -1.309332e+001 
3281250000  -4.111786e+001  -1.352612e+001 
3284375000  -4.061821e+001  -1.953200e+001 
3287500000  -4.098339e+001  -2.439368e+001 
3290625000  -4.124017e+001  -3.131451e+001 
3293750000  -4.138732e+001  -3.830769e+001 
3296875000  -4.250711e+001  -3.844510e+001 
3300000000  -4.209359e+001  -3.896167e+001 
3303125000  -4.094851e+001  -4.453674e+001 
3306250000  -4.080820e+001  -5.098162e+001 
3309375000  -4.067994e+001  -5.858851e+001 
3312500000  -4.094740e+001  -6.972083e+001 
3315625000  -4.205261e+001  -7.857571e+001 
3318750000  -4.359193e+001  -8.334015e+001 
3321875000  -4.483567e+001  -8.029374e+001 
3325000000  -4.438133e+001  -7.569485e+001 
3328125000  -4.439368e+001  -7.603054e+001 
3331250000  -4.264332e+001  -7.046065e+001 
3334375000  -4.002384e+001  -8.597755e+001 
3337500000  -4.071480e+001  -1.047159e+002 
3340625000  -4.218293e+001  -1.145923e+002 
3343750000  -4.425794e+001  -1.144978e+002 
3346875000  -4.369535e+001  -1.170233e+002 
3350000000  -4.315353e+001  -1.182298e+002 
3353125000  -4.294254e+001  -1.242087e+002 
3356250000  -4.249355e+001  -1.339661e+002 
3359375000  -4.329079e+001  -1.457735e+002 
3362500000  -4.426229e+001  -1.497355e+002 
3365625000  -4.492576e+001  -1.545078e+002 
3368750000  -4.564235e+001  -1.577193e+002 
3371875000  -4.613541e+001  -1.636785e+002 
3375000000  -4.743632e+001  -1.636794e+002 
3378125000  -4.857376e+001  -1.693334e+002 
3381250000  -4.934253e+001  -1.571256e+002 
3384375000  -4.707070e+001  -1.441774e+002 
3387500000  -4.431962e+001  -1.620236e+002 
3390625000  -4.637916e+001  1.767102e+002 
3393750000  -4.763380e+001  1.779582e+002 
3396875000  -4.618862e+001  1.772082e+002 
3400000000  -4.640511e+001  1.676889e+002 
3403125000  -4.723067e+001  1.599592e+002 
3406250000  -4.749940e+001  1.547428e+002 
3409375000  -4.819968e+001  1.449607e+002 
3412500000  -4.881994e+001  1.472854e+002 
3415625000  -5.002321e+001  1.406889e+002 
3418750000  -5.025914e+001  1.456330e+002 
3421875000  -5.120367e+001  1.396251e+002 
3425000000  -5.075343e+001  1.462053e+002 
3428125000  -5.031882e+001  1.408479e+002 
3431250000  -4.993886e+001  1.294889e+002 
3434375000  -5.058415e+001  1.272844e+002 
3437500000  -5.222778e+001  1.214684e+002 
3440625000  -5.249345e+001  1.333347e+002 
3443750000  -5.168719e+001  1.286080e+002 
3446875000  -5.082021e+001  1.252289e+002 
3450000000  -5.087101e+001  1.171326e+002 
3453125000  -5.160294e+001  1.099578e+002 
3456250000  -5.262688e+001  1.074662e+002 
3459375000  -5.285168e+001  1.152036e+002 
3462500000  -5.223589e+001  1.087564e+002 
3465625000  -5.204083e+001  1.076897e+002 
3468750000  -5.258672e+001  1.109917e+002 
3471875000  -5.233460e+001  1.062162e+002 
3475000000  -5.147410e+001  9.823566e+001 
3478125000  -5.159152e+001  9.198171e+001 
3481250000  -5.330462e+001  9.031772e+001 
3484375000  -5.335853e+001  9.384142e+001 
3487500000  -5.151724e+001  9.098541e+001 
3490625000  -5.120547e+001  8.424848e+001 
3493750000  -5.098159e+001  7.487742e+001 
3496875000  -5.221677e+001  7.708054e+001 
3500000000  -5.268283e+001  7.666173e+001 
3503125000  -5.149113e+001  7.168666e+001 
3506250000  -4.997808e+001  6.680307e+001 
3509375000  -5.014681e+001  5.667811e+001 
3512500000  -4.996833e+001  4.168378e+001 
3515625000  -5.254957e+001  3.764887e+001 
3518750000  -5.155651e+001  3.753500e+001 
3521875000  -5.210258e+001  3.180871e+001 
3525000000  -5.424809e+001  1.990725e+001 
3528125000  -5.371324e+001  3.463969e+001 
3531250000  -5.208541e+001  3.052095e+001 
3534375000  -5.446166e+001  1.717602e+001 
3537500000  -5.388031e+001  -3.954828e+000 
3540625000  -5.593832e+001  -3.361978e-001 
3543750000  -5.580508e+001  2.080718e+001 
3546875000  -5.649979e+001  1.966189e+001 
3550000000  -5.388629e+001  1.416958e+001 
3553125000  -5.470618e+001  -8.833390e+000 
3556250000  -5.606154e+001  -2.504043e+000 
3559375000  -5.641389e+001  -1.017598e+001 
3562500000  -5.729192e+001  -1.443516e+001 
3565625000  -5.712941e+001  -3.177834e+001 
3568750000  -5.807701e+001  -2.857491e+000 
3571875000  -5.949694e+001  -7.477839e+000 
3575000000  -5.847841e+001  -7.047318e+000 
3578125000  -5.900256e+001  -1.516463e+001 
3581250000  -5.903853e+001  -1.389954e+001 
3584375000  -5.758059e+001  -5.349566e+000 
3587500000  -5.918385e+001  -1.184250e+001 
3590625000  -5.807266e+001  -1.617137e+001 
3593750000  -5.867249e+001  -1.434410e+001 
3596875000  -5.773800e+001  -8.499992e+000 
3600000000  -5.851183e+001  -1.615719e+000 
3603125000  -5.651661e+001  -1.642256e+001 
3606250000  -5.833850e+001  -1.503174e+001 
3609375000  -5.608609e+001  -1.514345e+001 
3612500000  -5.708965e+001  -2.012292e+001 
3615625000  -5.861516e+001  -2.854399e+001 
3618750000  -5.818465e+001  -1.036503e+001 
3621875000  -5.776611e+001  -1.532411e+001 
3625000000  -5.791680e+001  -9.181634e+000 
3628125000  -5.716927e+001  -1.136902e+001 
3631250000  -5.569904e+001  -1.711749e+001 
3634375000  -5.645869e+001  -1.963994e+001 
3637500000  -5.596177e+001  -1.237530e+001 
3640625000  -5.400271e+001  -1.745587e+000 
3643750000  -5.281373e+001  -1.934868e+001 
3646875000  -5.292788e+001  -3.069407e+001 
3650000000  -5.290252e+001  -3.171724e+001 
3653125000  -5.135263e+001  -3.189903e+001 
3656250000  -5.094513e+001  -3.211619e+001 
3659375000  -5.169870e+001  -3.716186e+001 
3662500000  -5.071658e+001  -4.372861e+001 
3665625000  -4.926103e+001  -4.493240e+001 
3668750000  -4.789573e+001  -4.916810e+001 
3671875000  -4.737265e+001  -5.767883e+001 
3675000000  -4.736279e+001  -6.532739e+001 
3678125000  -4.743230e+001  -6.697549e+001 
3681250000  -4.615669e+001  -7.383479e+001 
3684375000  -4.650257e+001  -8.055967e+001 
3687500000  -4.664151e+001  -8.442290e+001 
3690625000  -4.654155e+001  -8.921822e+001 
3693750000  -4.653103e+001  -9.198862e+001 
3696875000  -4.612550e+001  -9.170689e+001 
3700000000  -4.536416e+001  -9.557547e+001 
3703125000  -4.555909e+001  -1.038627e+002 
3706250000  -4.560183e+001  -1.052775e+002 
3709375000  -4.514222e+001  -1.050919e+002 
3712500000  -4.378215e+001  -1.097327e+002 
3715625000  -4.217516e+001  -1.188259e+002 
3718750000  -4.193142e+001  -1.252075e+002 
3721875000  -4.130865e+001  -1.333207e+002 
3725000000  -4.185680e+001  -1.428315e+002 
3728125000  -4.167451e+001  -1.440248e+002 
3731250000  -4.072528e+001  -1.500258e+002 
3734375000  -3.994801e+001  -1.574420e+002 
3737500000  -4.087004e+001  -1.690050e+002 
3740625000  -4.104795e+001  -1.716961e+002 
3743750000  -4.047811e+001  -1.795426e+002 
3746875000  -4.055064e+001  1.739761e+002 
3750000000  -4.109301e+001  1.711066e+002 
3753125000  -4.049600e+001  1.661588e+002 
3756250000  -4.079911e+001  1.621131e+002 
3759375000  -4.043639e+001  1.570051e+002 
3762500000  -4.007031e+001  1.513467e+002 
3765625000  -4.065586e+001  1.468033e+002 
3768750000  -4.025402e+001  1.456025e+002 
3771875000  -3.849593e+001  1.388488e+002 
3775000000  -3.863853e+001  1.283858e+002 
3778125000  -3.918375e+001  1.222883e+002 
3781250000  -3.889181e+001  1.164090e+002 
3784375000  -3.875487e+001  1.110199e+002 
3787500000  -3.842943e+001  1.053520e+002 
3790625000  -3.927234e+001  9.532719e+001 
3793750000  -3.933369e+001  9.424697e+001 
3796875000  -3.819826e+001  8.783539e+001 
3800000000  -3.661757e+001  8.440845e+001 
3803125000  -3.832262e+001  7.069017e+001 
3806250000  -3.908815e+001  6.697083e+001 
3809375000  -3.864504e+001  6.312558e+001 
3812500000  -3.848043e+001  5.382689e+001 
3815625000  -3.937996e+001  4.429054e+001 
3818750000  -4.058430e+001  4.538298e+001 
3821875000  -4.066202e+001  5.381071e+001 
3825000000  -3.841317e+001  5.112867e+001 
3828125000  -3.718463e+001  3.312949e+001 
3831250000  -3.790970e+001  1.908802e+001 
3834375000  -4.027047e+001  1.644123e+001 
3837500000  -4.051361e+001  2.067840e+001 
3840625000  -3.940300e+001  1.786429e+001 
3843750000  -3.856489e+001  4.588535e+000 
3846875000  -3.987868e+001  -3.631046e+000 
3850000000  -4.103864e+001  3.432015e+000 
3853125000  -3.998502e+001  4.808971e+000 
3856250000  -3.973697e+001  -5.777176e+000 
3859375000  -3.895049e+001  -1.107944e+001 
3862500000  -3.863371e+001  -2.072040e+001 
3865625000  -3.926903e+001  -2.589655e+001 
3868750000  -3.890065e+001  -2.733074e+001 
3871875000  -3.809550e+001  -3.408016e+001 
3875000000  -3.865649e+001  -4.442390e+001 
3878125000  -3.934977e+001  -4.726269e+001 
3881250000  -3.942966e+001  -4.898191e+001 
3884375000  -3.884380e+001  -5.414702e+001 
3887500000  -3.920414e+001  -6.067499e+001 
3890625000  -3.966483e+001  -6.554175e+001 
3893750000  -3.974576e+001  -6.735790e+001 
3896875000  -4.017301e+001  -6.883774e+001 
3900000000  -3.996505e+001  -7.296342e+001 
3903125000  -3.978967e+001  -7.766694e+001 
3906250000  -3.953880e+001  -8.179668e+001 
3909375000  -3.847060e+001  -8.905978e+001 
3912500000  -3.899980e+001  -9.862220e+001 
3915625000  -4.065853e+001  -9.928963e+001 
3918750000  -4.036929e+001  -1.023365e+002 
3921875000  -3.966956e+001  -1.049502e+002 
3925000000  -3.894003e+001  -1.099761e+002 
3928125000  -3.838681e+001  -1.180692e+002 
3931250000  -3.908760e+001  -1.254352e+002 
3934375000  -3.965826e+001  -1.278258e+002 
3937500000  -4.011411e+001  -1.301574e+002 
3940625000  -4.014349e+001  -1.337840e+002 
3943750000  -3.909712e+001  -1.346517e+002 
3946875000  -3.849957e+001  -1.436455e+002 
3950000000  -3.951046e+001  -1.523689e+002 
3953125000  -4.010057e+001  -1.511848e+002 
3956250000  -3.926832e+001  -1.522241e+002 
3959375000  -3.840691e+001  -1.596514e+002 
3962500000  -3.786208e+001  -1.665432e+002 
3965625000  -3.773739e+001  -1.767327e+002 
3968750000  -3.874041e+001  1.750504e+002 
3971875000  -3.899722e+001  1.719041e+002 
3975000000  -3.851716e+001  1.665764e+002 
3978125000  -3.863754e+001  1.618998e+002 
3981250000  -3.880760e+001  1.562222e+002 
3984375000  -3.925339e+001  1.478418e+002 
3987500000  -3.963596e+001  1.443050e+002 
3990625000  -4.010780e+001  1.427440e+002 
3993750000  -4.021904e+001  1.387508e+002 
3996875000  -3.992747e+001  1.338775e+002 
4000000000  -4.104484e+001  1.298872e+002 
4003125000  -4.114470e+001  1.305565e+002 
4006250000  -3.980062e+001  1.300315e+002 
4009375000  -3.877341e+001  1.153177e+002 
4012500000  -4.014098e+001  1.063094e+002 
4015625000  -4.148095e+001  1.069212e+002 
4018750000  -4.161430e+001  1.055602e+002 
4021875000  -4.089656e+001  1.053751e+002 
4025000000  -4.099794e+001  9.925411e+001 
4028125000  -4.065691e+001  9.292234e+001 
4031250000  -4.123080e+001  8.777757e+001 
4034375000  -4.171446e+001  8.640091e+001 
4037500000  -4.123120e+001  8.628918e+001 
4040625000  -4.111879e+001  8.165529e+001 
4043750000  -4.138288e+001  7.776331e+001 
4046875000  -4.108861e+001  7.544987e+001 
4050000000  -4.051019e+001  7.081208e+001 
4053125000  -4.124097e+001  6.734830e+001 
4056250000  -4.137684e+001  7.215656e+001 
4059375000  -3.937524e+001  6.928860e+001 
4062500000  -3.897736e+001  6.232913e+001 
4065625000  -3.879232e+001  5.642130e+001 
4068750000  -3.831335e+001  5.032627e+001 
4071875000  -3.815763e+001  4.124170e+001 
4075000000  -3.848418e+001  3.137595e+001 
4078125000  -3.899557e+001  2.861016e+001 
4081250000  -3.827249e+001  2.359600e+001 
4084375000  -3.803277e+001  1.409004e+001 
4087500000  -3.866626e+001  6.672770e+000 
4090625000  -3.937818e+001  5.566504e+000 
4093750000  -3.881311e+001  4.761758e+000 
4096875000  -3.883910e+001  -6.804857e+000 
4100000000  -3.969153e+001  -1.488306e+001 
4103125000  -4.088992e+001  -1.413955e+001 
4106250000  -4.034340e+001  -9.881717e+000 
4109375000  -3.933869e+001  -1.279016e+001 
4112500000  -3.884613e+001  -2.286489e+001 
4115625000  -3.925219e+001  -2.800608e+001 
4118750000  -3.923317e+001  -3.302050e+001 
4121875000  -3.901251e+001  -4.068002e+001 
4125000000  -3.980812e+001  -4.624180e+001 
4128125000  -4.076630e+001  -4.657924e+001 
4131250000  -4.015580e+001  -3.812372e+001 
4134375000  -3.802659e+001  -4.897028e+001 
4137500000  -3.816622e+001  -7.012186e+001 
4140625000  -4.080159e+001  -7.739165e+001 
4143750000  -4.177475e+001  -7.087154e+001 
4146875000  -4.064614e+001  -6.529855e+001 
4150000000  -3.979834e+001  -7.672337e+001 
4153125000  -4.018071e+001  -8.272929e+001 
4156250000  -4.114792e+001  -8.722099e+001 
4159375000  -4.151001e+001  -8.039795e+001 
4162500000  -4.009354e+001  -7.860586e+001 
4165625000  -3.902428e+001  -8.633833e+001 
4168750000  -3.856629e+001  -9.617982e+001 
4171875000  -3.870251e+001  -1.080105e+002 
4175000000  -3.950252e+001  -1.141180e+002 
4178125000  -3.998571e+001  -1.150973e+002 
4181250000  -4.001163e+001  -1.166812e+002 
4184375000  -3.960389e+001  -1.207257e+002 
4187500000  -3.975264e+001  -1.266279e+002 
4190625000  -3.959215e+001  -1.329274e+002 
4193750000  -4.087492e+001  -1.403318e+002 
4196875000  -4.170353e+001  -1.410162e+002 
4200000000  -4.236820e+001  -1.365631e+002 
4203125000  -4.139234e+001  -1.241251e+002 
4206250000  -3.810587e+001  -1.309808e+002 
4209375000  -3.774348e+001  -1.545943e+002 
4212500000  -3.980168e+001  -1.632505e+002 
4215625000  -4.015339e+001  -1.561656e+002 
4218750000  -3.870991e+001  -1.523335e+002 
4221875000  -3.684060e+001  -1.646148e+002 
4225000000  -3.787888e+001  -1.741769e+002 
4228125000  -3.782193e+001  -1.736669e+002 
4231250000  -3.664178e+001  1.785543e+002 
4234375000  -3.672767e+001  1.686711e+002 
4237500000  -3.658825e+001  1.640428e+002 
4240625000  -3.651731e+001  1.529746e+002 
4243750000  -3.752632e+001  1.450721e+002 
4246875000  -3.866338e+001  1.434175e+002 
4250000000  -3.848626e+001  1.433561e+002 
4253125000  -3.812769e+001  1.377196e+002 
4256250000  -3.831700e+001  1.362241e+002 
4259375000  -3.787828e+001  1.301238e+002 
4262500000  -3.808908e+001  1.243051e+002 
4265625000  -3.807191e+001  1.222041e+002 
4268750000  -3.735954e+001  1.155479e+002 
4271875000  -3.705999e+001  1.065353e+002 
4275000000  -3.682307e+001  9.652496e+001 
4278125000  -3.780712e+001  8.608324e+001 
4281250000  -3.929829e+001  8.205238e+001 
4284375000  -3.887334e+001  7.972701e+001 
4287500000  -4.012249e+001  7.797610e+001 
4290625000  -4.080085e+001  8.759326e+001 
4293750000  -3.911437e+001  8.804407e+001 
4296875000  -3.808171e+001  7.493750e+001 
4300000000  -3.927407e+001  6.492174e+001 
4303125000  -4.008282e+001  6.514318e+001 
4306250000  -3.920922e+001  6.915253e+001 
4309375000  -3.825391e+001  6.393795e+001 
4312500000  -3.796262e+001  5.258640e+001 
4315625000  -3.808955e+001  4.556390e+001 
4318750000  -3.898803e+001  4.167706e+001 
4321875000  -3.896930e+001  4.108568e+001 
4325000000  -3.830227e+001  4.158175e+001 
4328125000  -3.768689e+001  3.212759e+001 
4331250000  -3.785862e+001  2.118230e+001 
4334375000  -3.876366e+001  1.445772e+001 
4337500000  -3.971343e+001  1.441824e+001 
4340625000  -4.012670e+001  1.811211e+001 
4343750000  -3.889009e+001  1.461956e+001 
4346875000  -3.890267e+001  6.976998e+000 
4350000000  -3.870921e+001  -2.138789e+000 
4353125000  -3.910346e+001  -9.030872e+000 
4356250000  -4.115464e+001  -6.556720e+000 
4359375000  -4.069159e+001  7.774012e+000 
4362500000  -3.731002e+001  1.237638e+000 
4365625000  -3.636674e+001  -1.578943e+001 
4368750000  -3.771999e+001  -2.560282e+001 
4371875000  -3.845925e+001  -2.852599e+001 
4375000000  -3.771687e+001  -3.028809e+001 
4378125000  -3.730544e+001  -3.770771e+001 
4381250000  -3.761004e+001  -4.577062e+001 
4384375000  -3.762943e+001  -5.273381e+001 
4387500000  -3.844268e+001  -5.835809e+001 
4390625000  -3.892918e+001  -6.017965e+001 
4393750000  -3.838912e+001  -5.846766e+001 
4396875000  -3.775455e+001  -6.520509e+001 
4400000000  -3.735178e+001  -7.319432e+001 
4403125000  -3.812701e+001  -8.046767e+001 
4406250000  -3.888829e+001  -8.672402e+001 
4409375000  -3.888096e+001  -9.092233e+001 
4412500000  -4.010136e+001  -9.374510e+001 
4415625000  -3.964987e+001  -8.979300e+001 
