!Agilent Technologies,E8363B,MY43030201,A.06.04.32
!Agilent E8363B: A.06.04.32
!Date: Tuesday, November 11, 2014 21:32:02
!Correction: S21(Response(S21)) 
!S1P File: Measurement: S21:
# Hz S  dB   R 50
3000000000  -4.057271e+001  7.854518e+001 
3003125000  -4.206726e+001  7.072829e+001 
3006250000  -4.223898e+001  7.079183e+001 
3009375000  -4.271145e+001  7.447365e+001 
3012500000  -4.153458e+001  7.082809e+001 
3015625000  -4.147513e+001  6.286654e+001 
3018750000  -4.180093e+001  6.373149e+001 
3021875000  -4.029073e+001  6.439283e+001 
3025000000  -3.888307e+001  6.007488e+001 
3028125000  -3.787455e+001  5.057922e+001 
3031250000  -3.691669e+001  3.799150e+001 
3034375000  -3.675521e+001  2.409408e+001 
3037500000  -3.755060e+001  1.357666e+001 
3040625000  -3.870805e+001  8.823923e+000 
3043750000  -3.930271e+001  2.494212e+000 
3046875000  -3.981520e+001  -3.364861e+000 
3050000000  -4.088325e+001  -8.571239e+000 
3053125000  -4.060070e+001  -3.962458e+000 
3056250000  -4.045372e+001  -3.035730e-001 
3059375000  -3.983722e+001  -2.226129e+000 
3062500000  -3.833739e+001  -7.490646e+000 
3065625000  -3.782817e+001  -1.738293e+001 
3068750000  -3.751674e+001  -2.477554e+001 
3071875000  -3.760664e+001  -2.723560e+001 
3075000000  -3.707694e+001  -3.414932e+001 
3078125000  -3.705404e+001  -4.047226e+001 
3081250000  -3.731419e+001  -4.663641e+001 
3084375000  -3.639665e+001  -5.069370e+001 
3087500000  -3.644797e+001  -5.758677e+001 
3090625000  -3.596432e+001  -7.013046e+001 
3093750000  -3.699070e+001  -7.829356e+001 
3096875000  -3.737275e+001  -8.411556e+001 
3100000000  -3.713185e+001  -8.533909e+001 
3103125000  -3.748896e+001  -8.999974e+001 
3106250000  -3.713914e+001  -9.585353e+001 
3109375000  -3.731159e+001  -9.953204e+001 
3112500000  -3.708467e+001  -1.046043e+002 
3115625000  -3.718367e+001  -1.089944e+002 
3118750000  -3.717654e+001  -1.109878e+002 
3121875000  -3.650596e+001  -1.223011e+002 
3125000000  -3.845604e+001  -1.266783e+002 
3128125000  -3.851769e+001  -1.183022e+002 
3131250000  -3.608566e+001  -1.252295e+002 
3134375000  -3.541102e+001  -1.429582e+002 
3137500000  -3.612334e+001  -1.541324e+002 
3140625000  -3.725262e+001  -1.566900e+002 
3143750000  -3.821071e+001  -1.596119e+002 
3146875000  -3.756668e+001  -1.578097e+002 
3150000000  -3.691040e+001  -1.606656e+002 
3153125000  -3.728484e+001  -1.691740e+002 
3156250000  -3.808113e+001  -1.664162e+002 
3159375000  -3.571150e+001  -1.679518e+002 
3162500000  -3.426597e+001  1.774805e+002 
3165625000  -3.544698e+001  1.641142e+002 
3168750000  -3.540001e+001  1.633869e+002 
3171875000  -3.476224e+001  1.562278e+002 
3175000000  -3.549950e+001  1.473981e+002 
3178125000  -3.521210e+001  1.456271e+002 
3181250000  -3.441210e+001  1.369236e+002 
3184375000  -3.426869e+001  1.261124e+002 
3187500000  -3.547863e+001  1.111389e+002 
3190625000  -3.718213e+001  1.047725e+002 
3193750000  -3.743086e+001  1.103860e+002 
3196875000  -3.739371e+001  1.109521e+002 
3200000000  -3.616220e+001  1.061849e+002 
3203125000  -3.585248e+001  9.843987e+001 
3206250000  -3.605050e+001  8.993180e+001 
3209375000  -3.577966e+001  8.203701e+001 
3212500000  -3.624622e+001  7.596664e+001 
3215625000  -3.605570e+001  7.303262e+001 
3218750000  -3.680029e+001  6.126277e+001 
3221875000  -3.733451e+001  5.492455e+001 
3225000000  -3.699791e+001  5.113330e+001 
3228125000  -3.763824e+001  4.415150e+001 
3231250000  -3.831663e+001  4.136501e+001 
3234375000  -3.789868e+001  3.824707e+001 
3237500000  -3.804324e+001  3.488507e+001 
3240625000  -3.759435e+001  2.897029e+001 
3243750000  -3.779591e+001  1.908626e+001 
3246875000  -3.817953e+001  1.323271e+001 
3250000000  -3.890636e+001  8.831509e+000 
3253125000  -3.886113e+001  3.925342e+000 
3256250000  -3.859780e+001  -2.325120e+000 
3259375000  -3.910344e+001  -1.447026e+001 
3262500000  -4.088157e+001  -1.803017e+001 
3265625000  -4.110832e+001  -1.494037e+001 
3268750000  -4.114256e+001  -1.451623e+001 
3271875000  -4.066217e+001  -1.789384e+001 
3275000000  -4.008477e+001  -2.551701e+001 
3278125000  -4.074723e+001  -3.061810e+001 
3281250000  -4.098156e+001  -3.193634e+001 
3284375000  -4.065775e+001  -3.760614e+001 
3287500000  -4.092188e+001  -4.225492e+001 
3290625000  -4.120605e+001  -5.178130e+001 
3293750000  -4.130135e+001  -5.575608e+001 
3296875000  -4.246067e+001  -5.727813e+001 
3300000000  -4.202880e+001  -5.797408e+001 
3303125000  -4.105167e+001  -6.265397e+001 
3306250000  -4.064754e+001  -7.173175e+001 
3309375000  -4.062429e+001  -7.812273e+001 
3312500000  -4.090197e+001  -9.030846e+001 
3315625000  -4.220473e+001  -9.811035e+001 
3318750000  -4.371897e+001  -1.023847e+002 
3321875000  -4.486987e+001  -9.740034e+001 
3325000000  -4.469455e+001  -9.162802e+001 
3328125000  -4.374335e+001  -9.174306e+001 
3331250000  -4.253725e+001  -9.054180e+001 
3334375000  -3.995628e+001  -1.035329e+002 
3337500000  -4.031913e+001  -1.240962e+002 
3340625000  -4.202069e+001  -1.329118e+002 
3343750000  -4.397582e+001  -1.340476e+002 
3346875000  -4.349393e+001  -1.337593e+002 
3350000000  -4.320509e+001  -1.360945e+002 
3353125000  -4.263985e+001  -1.447753e+002 
3356250000  -4.253759e+001  -1.530842e+002 
3359375000  -4.317622e+001  -1.639546e+002 
3362500000  -4.435455e+001  -1.688246e+002 
3365625000  -4.496149e+001  -1.737731e+002 
3368750000  -4.542413e+001  -1.789381e+002 
3371875000  -4.618105e+001  1.777784e+002 
3375000000  -4.725450e+001  1.725312e+002 
3378125000  -4.841956e+001  1.740895e+002 
3381250000  -4.947612e+001  -1.737649e+002 
3384375000  -4.683237e+001  -1.627827e+002 
3387500000  -4.414620e+001  1.781049e+002 
3390625000  -4.624715e+001  1.594875e+002 
3393750000  -4.755310e+001  1.573214e+002 
3396875000  -4.589542e+001  1.579750e+002 
3400000000  -4.611832e+001  1.469662e+002 
3403125000  -4.721543e+001  1.389586e+002 
3406250000  -4.818155e+001  1.379883e+002 
3409375000  -4.735111e+001  1.295283e+002 
3412500000  -4.867718e+001  1.255265e+002 
3415625000  -5.023122e+001  1.243427e+002 
3418750000  -4.978299e+001  1.196312e+002 
3421875000  -5.083023e+001  1.262630e+002 
3425000000  -5.039880e+001  1.239984e+002 
3428125000  -5.011877e+001  1.205825e+002 
3431250000  -4.961823e+001  1.123391e+002 
3434375000  -5.033194e+001  1.060389e+002 
3437500000  -5.144979e+001  1.061835e+002 
3440625000  -5.238739e+001  1.069073e+002 
3443750000  -5.116434e+001  1.192779e+002 
3446875000  -5.084140e+001  1.101956e+002 
3450000000  -5.077023e+001  9.535732e+001 
3453125000  -5.094056e+001  9.119179e+001 
3456250000  -5.232705e+001  8.366668e+001 
3459375000  -5.249421e+001  9.050814e+001 
3462500000  -5.322599e+001  9.674566e+001 
3465625000  -5.180899e+001  8.680414e+001 
3468750000  -5.229257e+001  8.434913e+001 
3471875000  -5.218579e+001  8.607214e+001 
3475000000  -5.097863e+001  7.638061e+001 
3478125000  -5.093681e+001  6.710294e+001 
3481250000  -5.266777e+001  7.168529e+001 
3484375000  -5.254183e+001  7.307545e+001 
3487500000  -5.219480e+001  6.494236e+001 
3490625000  -5.072182e+001  5.792161e+001 
3493750000  -5.119155e+001  5.360787e+001 
3496875000  -5.201035e+001  5.734218e+001 
3500000000  -5.232343e+001  5.797121e+001 
3503125000  -5.019201e+001  5.330693e+001 
3506250000  -5.018510e+001  4.930287e+001 
3509375000  -4.948296e+001  3.743196e+001 
3512500000  -5.020252e+001  1.946196e+001 
3515625000  -5.135183e+001  1.701682e+001 
3518750000  -5.239631e+001  1.803158e+001 
3521875000  -5.275528e+001  1.130625e+001 
3525000000  -5.404536e+001  1.693171e+000 
3528125000  -5.334835e+001  1.592623e+001 
3531250000  -5.149271e+001  8.195050e+000 
3534375000  -5.313193e+001  -4.983151e+000 
3537500000  -5.269175e+001  -1.621302e+001 
3540625000  -5.454069e+001  -1.853526e+001 
3543750000  -5.558806e+001  -7.908202e+000 
3546875000  -5.510343e+001  -5.661309e+000 
3550000000  -5.399163e+001  -7.557988e+000 
3553125000  -5.515857e+001  -2.565889e+001 
3556250000  -5.579523e+001  -2.595810e+001 
3559375000  -5.757386e+001  -2.530736e+001 
3562500000  -5.538335e+001  -3.351405e+001 
3565625000  -5.647928e+001  -4.389146e+001 
3568750000  -5.590508e+001  -3.701026e+001 
3571875000  -5.978704e+001  -3.719045e+001 
3575000000  -5.805836e+001  -2.412225e+001 
3578125000  -6.118644e+001  -1.757495e+001 
3581250000  -5.774091e+001  -3.753302e+001 
3584375000  -5.623880e+001  -3.031300e+001 
3587500000  -5.715491e+001  -3.251719e+001 
3590625000  -5.972439e+001  -3.437087e+001 
3593750000  -5.956556e+001  -2.802276e+001 
3596875000  -6.092288e+001  -2.965801e+001 
3600000000  -5.807068e+001  -4.267524e+001 
3603125000  -5.771114e+001  -4.982554e+001 
3606250000  -5.910033e+001  -4.430057e+001 
3609375000  -5.763222e+001  -3.543746e+001 
3612500000  -5.887682e+001  -4.218448e+001 
3615625000  -5.866227e+001  -4.446185e+001 
3618750000  -5.739757e+001  -4.112102e+001 
3621875000  -5.712818e+001  -4.186320e+001 
3625000000  -5.804312e+001  -3.722933e+001 
3628125000  -5.653108e+001  -2.430082e+001 
3631250000  -5.637004e+001  -4.022110e+001 
3634375000  -5.669215e+001  -3.496344e+001 
3637500000  -5.540344e+001  -3.802508e+001 
3640625000  -5.464130e+001  -2.828395e+001 
3643750000  -5.190580e+001  -4.283316e+001 
3646875000  -5.355424e+001  -5.115836e+001 
3650000000  -5.361455e+001  -5.031782e+001 
3653125000  -5.222759e+001  -5.207521e+001 
3656250000  -5.140771e+001  -5.950769e+001 
3659375000  -5.148789e+001  -5.391726e+001 
3662500000  -5.068550e+001  -6.346691e+001 
3665625000  -4.942978e+001  -6.399744e+001 
3668750000  -4.764832e+001  -6.673368e+001 
3671875000  -4.763992e+001  -7.998900e+001 
3675000000  -4.757412e+001  -8.715274e+001 
3678125000  -4.744591e+001  -8.808016e+001 
3681250000  -4.650549e+001  -9.711803e+001 
3684375000  -4.651770e+001  -1.023235e+002 
3687500000  -4.714391e+001  -1.060381e+002 
3690625000  -4.654473e+001  -1.112971e+002 
3693750000  -4.670062e+001  -1.103104e+002 
3696875000  -4.624018e+001  -1.140420e+002 
3700000000  -4.486405e+001  -1.207333e+002 
3703125000  -4.546349e+001  -1.227564e+002 
3706250000  -4.577991e+001  -1.255401e+002 
3709375000  -4.495591e+001  -1.275838e+002 
3712500000  -4.378648e+001  -1.314462e+002 
3715625000  -4.225646e+001  -1.414274e+002 
3718750000  -4.157510e+001  -1.468386e+002 
3721875000  -4.124126e+001  -1.571399e+002 
3725000000  -4.167163e+001  -1.630865e+002 
3728125000  -4.146169e+001  -1.668933e+002 
3731250000  -4.078969e+001  -1.736536e+002 
3734375000  -3.997767e+001  1.799315e+002 
3737500000  -4.085607e+001  1.712314e+002 
3740625000  -4.073734e+001  1.649120e+002 
3743750000  -4.017487e+001  1.582093e+002 
3746875000  -4.085823e+001  1.518164e+002 
3750000000  -4.092032e+001  1.456233e+002 
3753125000  -4.070674e+001  1.454952e+002 
3756250000  -4.075478e+001  1.408832e+002 
3759375000  -4.040531e+001  1.357686e+002 
3762500000  -4.006760e+001  1.279135e+002 
3765625000  -4.054957e+001  1.252128e+002 
3768750000  -4.012269e+001  1.240561e+002 
3771875000  -3.837931e+001  1.177502e+002 
3775000000  -3.836574e+001  1.057550e+002 
3778125000  -3.895519e+001  9.935143e+001 
3781250000  -3.922414e+001  9.554202e+001 
3784375000  -3.867982e+001  8.872921e+001 
3787500000  -3.859074e+001  8.457344e+001 
3790625000  -3.923733e+001  7.404363e+001 
3793750000  -3.909738e+001  7.128555e+001 
3796875000  -3.831910e+001  6.728923e+001 
3800000000  -3.640541e+001  6.224497e+001 
3803125000  -3.797624e+001  4.933933e+001 
3806250000  -3.906989e+001  4.418690e+001 
3809375000  -3.840071e+001  4.108367e+001 
3812500000  -3.852944e+001  3.204693e+001 
3815625000  -3.947668e+001  2.194897e+001 
3818750000  -4.056889e+001  2.257909e+001 
3821875000  -4.018723e+001  3.133374e+001 
3825000000  -3.817014e+001  2.921456e+001 
3828125000  -3.704036e+001  1.026135e+001 
3831250000  -3.825422e+001  -4.158998e+000 
3834375000  -4.068652e+001  -4.009981e+000 
3837500000  -4.087857e+001  -6.375591e-001 
3840625000  -3.892648e+001  -4.256168e+000 
3843750000  -3.819574e+001  -1.874286e+001 
3846875000  -4.006486e+001  -2.590165e+001 
3850000000  -4.076514e+001  -1.832704e+001 
3853125000  -3.964049e+001  -1.853672e+001 
3856250000  -3.972706e+001  -2.640664e+001 
3859375000  -3.872291e+001  -3.369828e+001 
3862500000  -3.867630e+001  -4.233711e+001 
3865625000  -3.911248e+001  -4.867150e+001 
3868750000  -3.862021e+001  -4.899861e+001 
3871875000  -3.792500e+001  -5.760765e+001 
3875000000  -3.859039e+001  -6.728310e+001 
3878125000  -3.935355e+001  -7.139563e+001 
3881250000  -3.929566e+001  -6.891574e+001 
3884375000  -3.896072e+001  -7.698831e+001 
3887500000  -3.922498e+001  -8.422233e+001 
3890625000  -3.950419e+001  -8.756149e+001 
3893750000  -3.986313e+001  -8.870924e+001 
3896875000  -4.033498e+001  -9.198336e+001 
3900000000  -3.981683e+001  -9.630253e+001 
3903125000  -3.948555e+001  -1.002384e+002 
3906250000  -3.883638e+001  -1.055472e+002 
3909375000  -3.828955e+001  -1.130190e+002 
3912500000  -3.898213e+001  -1.230145e+002 
3915625000  -4.041333e+001  -1.219521e+002 
3918750000  -4.008281e+001  -1.241751e+002 
3921875000  -3.933960e+001  -1.274781e+002 
3925000000  -3.849622e+001  -1.337072e+002 
3928125000  -3.831742e+001  -1.425654e+002 
3931250000  -3.927563e+001  -1.504264e+002 
3934375000  -3.962345e+001  -1.513365e+002 
3937500000  -4.024123e+001  -1.535753e+002 
3940625000  -3.991206e+001  -1.550668e+002 
3943750000  -3.895171e+001  -1.596568e+002 
3946875000  -3.869546e+001  -1.672955e+002 
3950000000  -3.951390e+001  -1.767053e+002 
3953125000  -4.005646e+001  -1.751469e+002 
3956250000  -3.890810e+001  -1.752949e+002 
3959375000  -3.790237e+001  1.782995e+002 
3962500000  -3.766819e+001  1.697531e+002 
3965625000  -3.774217e+001  1.609678e+002 
3968750000  -3.852959e+001  1.518876e+002 
3971875000  -3.862234e+001  1.474587e+002 
3975000000  -3.816127e+001  1.437519e+002 
3978125000  -3.853325e+001  1.400812e+002 
3981250000  -3.862259e+001  1.319478e+002 
3984375000  -3.875180e+001  1.271001e+002 
3987500000  -3.974428e+001  1.214096e+002 
3990625000  -3.997116e+001  1.199770e+002 
3993750000  -3.974105e+001  1.158263e+002 
3996875000  -4.009895e+001  1.115192e+002 
4000000000  -4.088965e+001  1.053635e+002 
4003125000  -4.097894e+001  1.075525e+002 
4006250000  -3.939581e+001  1.061089e+002 
4009375000  -3.877240e+001  9.104757e+001 
4012500000  -4.030050e+001  8.218526e+001 
4015625000  -4.161777e+001  8.289970e+001 
4018750000  -4.132467e+001  8.143359e+001 
4021875000  -4.074541e+001  7.986134e+001 
4025000000  -4.032756e+001  7.481139e+001 
4028125000  -4.061737e+001  6.588805e+001 
4031250000  -4.133189e+001  6.284100e+001 
4034375000  -4.122132e+001  6.282591e+001 
4037500000  -4.109120e+001  6.289434e+001 
4040625000  -4.093913e+001  5.865124e+001 
4043750000  -4.157739e+001  5.366015e+001 
4046875000  -4.069850e+001  5.086861e+001 
4050000000  -4.067571e+001  4.592997e+001 
4053125000  -4.170025e+001  4.362670e+001 
4056250000  -4.156514e+001  4.806898e+001 
4059375000  -3.960142e+001  4.440047e+001 
4062500000  -3.867459e+001  3.822291e+001 
4065625000  -3.918216e+001  3.134461e+001 
4068750000  -3.834373e+001  2.418202e+001 
4071875000  -3.776155e+001  1.529443e+001 
4075000000  -3.816721e+001  6.447378e+000 
4078125000  -3.893391e+001  5.270479e+000 
4081250000  -3.841799e+001  -1.534544e-001 
4084375000  -3.798716e+001  -1.053179e+001 
4087500000  -3.858554e+001  -1.626170e+001 
4090625000  -3.926594e+001  -2.011130e+001 
4093750000  -3.884570e+001  -2.159207e+001 
4096875000  -3.868167e+001  -3.150949e+001 
4100000000  -3.990534e+001  -3.636863e+001 
4103125000  -4.073588e+001  -3.549477e+001 
4106250000  -4.006307e+001  -3.165432e+001 
4109375000  -3.902990e+001  -3.641743e+001 
4112500000  -3.889636e+001  -4.624289e+001 
4115625000  -3.924107e+001  -5.316783e+001 
4118750000  -3.913957e+001  -5.762475e+001 
4121875000  -3.884923e+001  -6.372829e+001 
4125000000  -3.987932e+001  -7.167360e+001 
4128125000  -4.089118e+001  -6.914600e+001 
4131250000  -3.982110e+001  -6.376793e+001 
4134375000  -3.761849e+001  -7.282302e+001 
4137500000  -3.807638e+001  -9.473633e+001 
4140625000  -4.057125e+001  -9.956765e+001 
4143750000  -4.145201e+001  -9.410033e+001 
4146875000  -4.061931e+001  -9.054214e+001 
4150000000  -3.969232e+001  -1.010182e+002 
4153125000  -3.997835e+001  -1.063609e+002 
4156250000  -4.104493e+001  -1.103431e+002 
4159375000  -4.132445e+001  -1.055766e+002 
4162500000  -3.972521e+001  -1.021710e+002 
4165625000  -3.892347e+001  -1.109779e+002 
4168750000  -3.849683e+001  -1.199357e+002 
4171875000  -3.846752e+001  -1.297711e+002 
4175000000  -3.936084e+001  -1.371744e+002 
4178125000  -3.975872e+001  -1.385742e+002 
4181250000  -3.947519e+001  -1.411838e+002 
4184375000  -3.974646e+001  -1.470901e+002 
4187500000  -3.946006e+001  -1.516456e+002 
4190625000  -3.946215e+001  -1.583846e+002 
4193750000  -4.061562e+001  -1.625788e+002 
4196875000  -4.164268e+001  -1.640284e+002 
4200000000  -4.241187e+001  -1.588315e+002 
4203125000  -4.097628e+001  -1.483913e+002 
4206250000  -3.742989e+001  -1.569602e+002 
4209375000  -3.721220e+001  1.794230e+002 
4212500000  -3.961971e+001  1.748748e+002 
4215625000  -4.005546e+001  -1.772655e+002 
4218750000  -3.830461e+001  -1.785652e+002 
4221875000  -3.679939e+001  1.717381e+002 
4225000000  -3.798929e+001  1.616106e+002 
4228125000  -3.791307e+001  1.621975e+002 
4231250000  -3.620335e+001  1.547206e+002 
4234375000  -3.642767e+001  1.433079e+002 
4237500000  -3.608128e+001  1.384622e+002 
4240625000  -3.648007e+001  1.288677e+002 
4243750000  -3.744726e+001  1.181086e+002 
4246875000  -3.866519e+001  1.184117e+002 
4250000000  -3.832541e+001  1.182532e+002 
4253125000  -3.805468e+001  1.144219e+002 
4256250000  -3.828176e+001  1.103850e+002 
4259375000  -3.767311e+001  1.047641e+002 
4262500000  -3.810618e+001  9.967716e+001 
4265625000  -3.795991e+001  9.826010e+001 
4268750000  -3.718037e+001  9.018049e+001 
4271875000  -3.692876e+001  8.120796e+001 
4275000000  -3.680029e+001  7.341122e+001 
4278125000  -3.755933e+001  6.050016e+001 
4281250000  -3.920987e+001  5.853252e+001 
4284375000  -3.913425e+001  5.787337e+001 
4287500000  -4.028883e+001  5.458670e+001 
4290625000  -4.064611e+001  6.302030e+001 
4293750000  -3.866363e+001  6.200353e+001 
4296875000  -3.775340e+001  4.849165e+001 
4300000000  -3.929967e+001  4.007899e+001 
4303125000  -3.992883e+001  4.520934e+001 
4306250000  -3.875458e+001  4.601162e+001 
4309375000  -3.779706e+001  4.070961e+001 
4312500000  -3.749189e+001  2.816093e+001 
4315625000  -3.814265e+001  2.020166e+001 
4318750000  -3.859068e+001  1.545039e+001 
4321875000  -3.875489e+001  1.794669e+001 
4325000000  -3.820753e+001  1.564365e+001 
4328125000  -3.730245e+001  5.958344e+000 
4331250000  -3.737762e+001  -4.746110e+000 
4334375000  -3.849414e+001  -1.097876e+001 
4337500000  -3.956017e+001  -1.208188e+001 
4340625000  -3.972586e+001  -7.327759e+000 
4343750000  -3.878219e+001  -1.181773e+001 
4346875000  -3.841799e+001  -1.821879e+001 
4350000000  -3.848326e+001  -2.756872e+001 
4353125000  -3.910973e+001  -3.547871e+001 
4356250000  -4.131094e+001  -2.969415e+001 
4359375000  -3.990373e+001  -1.531906e+001 
4362500000  -3.662226e+001  -2.512815e+001 
4365625000  -3.608820e+001  -4.260226e+001 
4368750000  -3.760978e+001  -5.185319e+001 
4371875000  -3.801391e+001  -5.155180e+001 
4375000000  -3.724334e+001  -5.583924e+001 
4378125000  -3.699418e+001  -6.415221e+001 
4381250000  -3.718242e+001  -7.108878e+001 
4384375000  -3.750776e+001  -7.916634e+001 
4387500000  -3.834055e+001  -8.564642e+001 
4390625000  -3.863327e+001  -8.473341e+001 
4393750000  -3.799234e+001  -8.496651e+001 
4396875000  -3.749423e+001  -8.951138e+001 
4400000000  -3.705865e+001  -9.866092e+001 
4403125000  -3.795916e+001  -1.093853e+002 
4406250000  -3.856789e+001  -1.115809e+002 
4409375000  -3.879280e+001  -1.147640e+002 
4412500000  -3.989022e+001  -1.176643e+002 
4415625000  -3.966965e+001  -1.139087e+002 
