!Agilent Technologies,E8363B,MY43030201,A.06.04.32
!Agilent E8363B: A.06.04.32
!Date: Tuesday, November 11, 2014 21:26:03
!Correction: S21(Response(S21)) 
!S1P File: Measurement: S21:
# Hz S  dB   R 50
3000000000  -4.050599e+001  9.696230e+001 
3003125000  -4.223030e+001  8.967076e+001 
3006250000  -4.208624e+001  8.681758e+001 
3009375000  -4.262926e+001  9.136587e+001 
3012500000  -4.189375e+001  8.655671e+001 
3015625000  -4.128089e+001  8.086763e+001 
3018750000  -4.182258e+001  8.115802e+001 
3021875000  -4.021320e+001  8.263410e+001 
3025000000  -3.908031e+001  7.782418e+001 
3028125000  -3.812932e+001  6.945285e+001 
3031250000  -3.697163e+001  5.727924e+001 
3034375000  -3.667031e+001  4.265454e+001 
3037500000  -3.747687e+001  3.165202e+001 
3040625000  -3.871497e+001  2.687195e+001 
3043750000  -3.910381e+001  1.997510e+001 
3046875000  -3.969580e+001  1.495656e+001 
3050000000  -4.096893e+001  7.700680e+000 
3053125000  -4.053805e+001  1.299836e+001 
3056250000  -4.034716e+001  1.581289e+001 
3059375000  -3.983982e+001  1.550960e+001 
3062500000  -3.818678e+001  8.771451e+000 
3065625000  -3.796119e+001  7.815412e-001 
3068750000  -3.759057e+001  -7.271753e+000 
3071875000  -3.762360e+001  -9.838675e+000 
3075000000  -3.714715e+001  -1.613282e+001 
3078125000  -3.704179e+001  -2.258542e+001 
3081250000  -3.733178e+001  -2.759858e+001 
3084375000  -3.641246e+001  -3.300747e+001 
3087500000  -3.642239e+001  -3.920216e+001 
3090625000  -3.593368e+001  -5.134714e+001 
3093750000  -3.682277e+001  -6.053678e+001 
3096875000  -3.736842e+001  -6.569401e+001 
3100000000  -3.733858e+001  -6.926509e+001 
3103125000  -3.752127e+001  -7.136660e+001 
3106250000  -3.723965e+001  -7.595798e+001 
3109375000  -3.739963e+001  -8.134147e+001 
3112500000  -3.720712e+001  -8.670825e+001 
3115625000  -3.721745e+001  -9.001129e+001 
3118750000  -3.734549e+001  -9.312884e+001 
3121875000  -3.660420e+001  -1.045825e+002 
3125000000  -3.837597e+001  -1.095054e+002 
3128125000  -3.862590e+001  -1.017551e+002 
3131250000  -3.615133e+001  -1.059088e+002 
3134375000  -3.528566e+001  -1.234542e+002 
3137500000  -3.597652e+001  -1.364921e+002 
3140625000  -3.740023e+001  -1.403545e+002 
3143750000  -3.816440e+001  -1.403730e+002 
3146875000  -3.769748e+001  -1.399041e+002 
3150000000  -3.692602e+001  -1.428797e+002 
3153125000  -3.717764e+001  -1.523343e+002 
3156250000  -3.806548e+001  -1.473665e+002 
3159375000  -3.592935e+001  -1.482723e+002 
3162500000  -3.420079e+001  -1.640909e+002 
3165625000  -3.546844e+001  -1.785125e+002 
3168750000  -3.550939e+001  -1.776289e+002 
3171875000  -3.493285e+001  1.757025e+002 
3175000000  -3.559388e+001  1.644900e+002 
3178125000  -3.529936e+001  1.651488e+002 
3181250000  -3.444410e+001  1.562761e+002 
3184375000  -3.409931e+001  1.439516e+002 
3187500000  -3.534673e+001  1.298211e+002 
3190625000  -3.734013e+001  1.217226e+002 
3193750000  -3.762541e+001  1.286334e+002 
3196875000  -3.749411e+001  1.303749e+002 
3200000000  -3.646540e+001  1.253613e+002 
3203125000  -3.591145e+001  1.165704e+002 
3206250000  -3.616518e+001  1.090434e+002 
3209375000  -3.582707e+001  1.013507e+002 
3212500000  -3.620066e+001  9.428828e+001 
3215625000  -3.600819e+001  9.052619e+001 
3218750000  -3.689326e+001  8.047093e+001 
3221875000  -3.745216e+001  7.310262e+001 
3225000000  -3.717297e+001  6.928291e+001 
3228125000  -3.761321e+001  6.277538e+001 
3231250000  -3.833690e+001  6.002588e+001 
3234375000  -3.806603e+001  5.733294e+001 
3237500000  -3.816582e+001  5.347610e+001 
3240625000  -3.766987e+001  4.757167e+001 
3243750000  -3.764141e+001  3.800238e+001 
3246875000  -3.820560e+001  3.043107e+001 
3250000000  -3.886000e+001  2.645347e+001 
3253125000  -3.900317e+001  2.407178e+001 
3256250000  -3.865588e+001  1.471601e+001 
3259375000  -3.918243e+001  5.276888e+000 
3262500000  -4.064774e+001  9.110830e-001 
3265625000  -4.121023e+001  2.588211e+000 
3268750000  -4.136567e+001  4.192276e+000 
3271875000  -4.085971e+001  1.852739e+000 
3275000000  -4.029610e+001  -5.832597e+000 
3278125000  -4.075919e+001  -1.245228e+001 
3281250000  -4.106341e+001  -1.298501e+001 
3284375000  -4.056527e+001  -2.090210e+001 
3287500000  -4.120273e+001  -2.281207e+001 
3290625000  -4.126692e+001  -3.010341e+001 
3293750000  -4.131973e+001  -3.810001e+001 
3296875000  -4.258111e+001  -3.876324e+001 
3300000000  -4.199136e+001  -3.829453e+001 
3303125000  -4.103027e+001  -4.509397e+001 
3306250000  -4.071815e+001  -5.119439e+001 
3309375000  -4.071613e+001  -5.877657e+001 
3312500000  -4.096669e+001  -7.135248e+001 
3315625000  -4.201058e+001  -8.030711e+001 
3318750000  -4.351017e+001  -8.193327e+001 
3321875000  -4.488778e+001  -7.956905e+001 
3325000000  -4.491032e+001  -7.137972e+001 
3328125000  -4.431062e+001  -7.387163e+001 
3331250000  -4.267774e+001  -7.068204e+001 
3334375000  -4.002474e+001  -8.430540e+001 
3337500000  -4.062571e+001  -1.043077e+002 
3340625000  -4.214340e+001  -1.149829e+002 
3343750000  -4.387249e+001  -1.139083e+002 
3346875000  -4.377124e+001  -1.172129e+002 
3350000000  -4.319270e+001  -1.189013e+002 
3353125000  -4.303876e+001  -1.226461e+002 
3356250000  -4.252127e+001  -1.334624e+002 
3359375000  -4.323195e+001  -1.434471e+002 
3362500000  -4.433983e+001  -1.527160e+002 
3365625000  -4.475443e+001  -1.533440e+002 
3368750000  -4.583260e+001  -1.579337e+002 
3371875000  -4.604017e+001  -1.639792e+002 
3375000000  -4.768761e+001  -1.646033e+002 
3378125000  -4.800087e+001  -1.668677e+002 
3381250000  -4.995863e+001  -1.533842e+002 
3384375000  -4.760740e+001  -1.390535e+002 
3387500000  -4.423703e+001  -1.629769e+002 
3390625000  -4.614404e+001  1.757697e+002 
3393750000  -4.748805e+001  1.779583e+002 
3396875000  -4.629777e+001  1.773810e+002 
3400000000  -4.624519e+001  1.633015e+002 
3403125000  -4.716071e+001  1.588050e+002 
3406250000  -4.769028e+001  1.577308e+002 
3409375000  -4.761656e+001  1.494045e+002 
3412500000  -4.886068e+001  1.434307e+002 
3415625000  -5.062626e+001  1.412281e+002 
3418750000  -5.065876e+001  1.442868e+002 
3421875000  -5.151040e+001  1.454240e+002 
3425000000  -5.015971e+001  1.463176e+002 
3428125000  -5.013240e+001  1.393196e+002 
3431250000  -5.063988e+001  1.318354e+002 
3434375000  -5.094017e+001  1.292894e+002 
3437500000  -5.211803e+001  1.245994e+002 
3440625000  -5.205256e+001  1.321636e+002 
3443750000  -5.134117e+001  1.278382e+002 
3446875000  -5.101960e+001  1.290944e+002 
3450000000  -5.082648e+001  1.193860e+002 
3453125000  -5.153736e+001  1.067250e+002 
3456250000  -5.244468e+001  1.089135e+002 
3459375000  -5.406229e+001  1.069858e+002 
3462500000  -5.273074e+001  1.130637e+002 
3465625000  -5.144840e+001  1.010869e+002 
3468750000  -5.220993e+001  1.031264e+002 
3471875000  -5.212936e+001  1.020164e+002 
3475000000  -5.156473e+001  1.024473e+002 
3478125000  -5.185904e+001  9.075914e+001 
3481250000  -5.291815e+001  9.154954e+001 
3484375000  -5.288384e+001  9.108971e+001 
3487500000  -5.266853e+001  9.217228e+001 
3490625000  -5.134912e+001  8.151865e+001 
3493750000  -5.255143e+001  8.015858e+001 
3496875000  -5.229251e+001  7.467840e+001 
3500000000  -5.338042e+001  7.466985e+001 
3503125000  -5.172080e+001  7.370751e+001 
3506250000  -4.994743e+001  6.719130e+001 
3509375000  -5.011872e+001  5.544176e+001 
3512500000  -5.010148e+001  3.994226e+001 
3515625000  -5.190133e+001  3.563893e+001 
3518750000  -5.214168e+001  3.718782e+001 
3521875000  -5.237880e+001  3.338657e+001 
3525000000  -5.395430e+001  2.082111e+001 
3528125000  -5.322363e+001  3.809745e+001 
3531250000  -5.200455e+001  2.277473e+001 
3534375000  -5.251814e+001  1.346548e+001 
3537500000  -5.459259e+001  2.852172e+000 
3540625000  -5.470439e+001  1.429177e+000 
3543750000  -5.637362e+001  2.309487e+000 
3546875000  -5.684757e+001  1.939682e+001 
3550000000  -5.396175e+001  1.538052e+001 
3553125000  -5.459884e+001  -4.097791e+000 
3556250000  -5.529753e+001  -1.459417e+001 
3559375000  -5.707998e+001  2.299000e+000 
3562500000  -5.744026e+001  -2.369883e+001 
3565625000  -5.790032e+001  -2.601165e+001 
3568750000  -5.720578e+001  -8.402300e+000 
3571875000  -5.701967e+001  -6.975732e+000 
3575000000  -5.803062e+001  -2.013530e+001 
3578125000  -5.951487e+001  -1.183765e+001 
3581250000  -6.003528e+001  -4.944386e+000 
3584375000  -5.787880e+001  -1.008777e+001 
3587500000  -5.715223e+001  -5.822827e-001 
3590625000  -5.922937e+001  -3.147008e+001 
3593750000  -5.916196e+001  -1.346877e+001 
3596875000  -5.868208e+001  -1.323429e+001 
3600000000  -5.759137e+001  -3.897849e-001 
3603125000  -5.863705e+001  -3.638872e+001 
3606250000  -5.773732e+001  -2.097204e+001 
3609375000  -5.631829e+001  -9.431279e+000 
3612500000  -5.736259e+001  -2.083777e+001 
3615625000  -5.924750e+001  -1.969283e+001 
3618750000  -5.920896e+001  -1.226620e+001 
3621875000  -5.714150e+001  -1.563073e+001 
3625000000  -5.714191e+001  -1.366685e+001 
3628125000  -5.680655e+001  -1.438433e+001 
3631250000  -5.608066e+001  -1.730219e+001 
3634375000  -5.613300e+001  -1.414299e+001 
3637500000  -5.523217e+001  -2.359339e+001 
3640625000  -5.326441e+001  -1.211832e+001 
3643750000  -5.258301e+001  -1.584710e+001 
3646875000  -5.279993e+001  -2.765523e+001 
3650000000  -5.303827e+001  -2.556669e+001 
3653125000  -5.171674e+001  -3.659429e+001 
3656250000  -5.178077e+001  -3.963604e+001 
3659375000  -5.173012e+001  -3.354295e+001 
3662500000  -5.113602e+001  -4.188093e+001 
3665625000  -5.004605e+001  -4.340625e+001 
3668750000  -4.817104e+001  -4.287238e+001 
3671875000  -4.723635e+001  -5.709820e+001 
3675000000  -4.741520e+001  -6.487197e+001 
3678125000  -4.752674e+001  -6.788877e+001 
3681250000  -4.655922e+001  -7.366180e+001 
3684375000  -4.701665e+001  -7.625312e+001 
3687500000  -4.662651e+001  -8.613223e+001 
3690625000  -4.654177e+001  -8.984246e+001 
3693750000  -4.695142e+001  -9.064422e+001 
3696875000  -4.691595e+001  -9.128234e+001 
3700000000  -4.495797e+001  -9.770457e+001 
3703125000  -4.543269e+001  -1.050068e+002 
3706250000  -4.608544e+001  -1.057300e+002 
3709375000  -4.510262e+001  -1.035767e+002 
3712500000  -4.354432e+001  -1.094392e+002 
3715625000  -4.211637e+001  -1.175543e+002 
3718750000  -4.180661e+001  -1.254598e+002 
3721875000  -4.163332e+001  -1.335503e+002 
3725000000  -4.186724e+001  -1.406946e+002 
3728125000  -4.157446e+001  -1.446435e+002 
3731250000  -4.069873e+001  -1.498528e+002 
3734375000  -4.024122e+001  -1.573876e+002 
3737500000  -4.093395e+001  -1.686424e+002 
3740625000  -4.090995e+001  -1.730957e+002 
3743750000  -4.051346e+001  -1.790988e+002 
3746875000  -4.075686e+001  1.732385e+002 
3750000000  -4.120215e+001  1.697166e+002 
3753125000  -4.058693e+001  1.676952e+002 
3756250000  -4.062799e+001  1.626562e+002 
3759375000  -4.058054e+001  1.581345e+002 
3762500000  -4.002042e+001  1.516482e+002 
3765625000  -4.079728e+001  1.460779e+002 
3768750000  -4.015585e+001  1.462899e+002 
3771875000  -3.839404e+001  1.381607e+002 
3775000000  -3.857987e+001  1.273833e+002 
3778125000  -3.915536e+001  1.223639e+002 
3781250000  -3.902742e+001  1.177522e+002 
3784375000  -3.888694e+001  1.120755e+002 
3787500000  -3.864917e+001  1.053161e+002 
3790625000  -3.910998e+001  9.632784e+001 
3793750000  -3.924022e+001  9.297134e+001 
3796875000  -3.838389e+001  8.934231e+001 
3800000000  -3.650838e+001  8.451167e+001 
3803125000  -3.807167e+001  7.064215e+001 
3806250000  -3.904631e+001  6.656937e+001 
3809375000  -3.849426e+001  6.283128e+001 
3812500000  -3.849917e+001  5.281078e+001 
3815625000  -3.957974e+001  4.504246e+001 
3818750000  -4.087101e+001  4.496230e+001 
3821875000  -4.037754e+001  5.281277e+001 
3825000000  -3.871026e+001  5.064488e+001 
3828125000  -3.733968e+001  3.382262e+001 
3831250000  -3.815458e+001  1.873206e+001 
3834375000  -4.010084e+001  1.758142e+001 
3837500000  -4.073622e+001  2.186917e+001 
3840625000  -3.943259e+001  1.978871e+001 
3843750000  -3.860406e+001  4.054165e+000 
3846875000  -3.952978e+001  -2.589325e+000 
3850000000  -4.093498e+001  3.844920e+000 
3853125000  -4.022312e+001  4.750039e+000 
3856250000  -3.948860e+001  -2.025730e+000 
3859375000  -3.885213e+001  -9.484906e+000 
3862500000  -3.893797e+001  -2.072565e+001 
3865625000  -3.913674e+001  -2.660755e+001 
3868750000  -3.894784e+001  -2.628047e+001 
3871875000  -3.802581e+001  -3.270718e+001 
3875000000  -3.850426e+001  -4.277003e+001 
3878125000  -3.964474e+001  -4.807613e+001 
3881250000  -3.958945e+001  -4.759547e+001 
3884375000  -3.900065e+001  -5.252449e+001 
3887500000  -3.895582e+001  -5.946862e+001 
3890625000  -3.949840e+001  -6.596796e+001 
3893750000  -3.996450e+001  -6.638671e+001 
3896875000  -4.015189e+001  -7.124850e+001 
3900000000  -4.018499e+001  -7.471938e+001 
3903125000  -3.951879e+001  -7.878018e+001 
3906250000  -3.902101e+001  -8.184454e+001 
3909375000  -3.860718e+001  -9.054353e+001 
3912500000  -3.899471e+001  -9.937560e+001 
3915625000  -4.030942e+001  -9.838132e+001 
3918750000  -4.011295e+001  -1.013921e+002 
3921875000  -3.936650e+001  -1.045143e+002 
3925000000  -3.873776e+001  -1.106105e+002 
3928125000  -3.829539e+001  -1.200919e+002 
3931250000  -3.912605e+001  -1.257010e+002 
3934375000  -3.935275e+001  -1.279045e+002 
3937500000  -4.006141e+001  -1.319903e+002 
3940625000  -4.019007e+001  -1.327813e+002 
3943750000  -3.913120e+001  -1.347921e+002 
3946875000  -3.843784e+001  -1.439844e+002 
3950000000  -3.940310e+001  -1.530921e+002 
3953125000  -4.027643e+001  -1.541860e+002 
3956250000  -3.915251e+001  -1.532623e+002 
3959375000  -3.798380e+001  -1.588084e+002 
3962500000  -3.788207e+001  -1.665945e+002 
3965625000  -3.788908e+001  -1.769973e+002 
3968750000  -3.880279e+001  1.752897e+002 
3971875000  -3.897108e+001  1.698024e+002 
3975000000  -3.847520e+001  1.669379e+002 
3978125000  -3.879137e+001  1.637974e+002 
3981250000  -3.872760e+001  1.553450e+002 
3984375000  -3.901324e+001  1.485884e+002 
3987500000  -3.981534e+001  1.440283e+002 
3990625000  -3.999916e+001  1.438746e+002 
3993750000  -4.014241e+001  1.390472e+002 
3996875000  -4.003137e+001  1.350817e+002 
4000000000  -4.067135e+001  1.281781e+002 
4003125000  -4.124893e+001  1.316666e+002 
4006250000  -3.961961e+001  1.284581e+002 
4009375000  -3.879469e+001  1.153900e+002 
4012500000  -4.023486e+001  1.059567e+002 
4015625000  -4.179918e+001  1.065242e+002 
4018750000  -4.174991e+001  1.040801e+002 
4021875000  -4.097886e+001  1.040607e+002 
4025000000  -4.049821e+001  9.807063e+001 
4028125000  -4.088882e+001  9.209644e+001 
4031250000  -4.140473e+001  8.539397e+001 
4034375000  -4.163983e+001  8.806519e+001 
4037500000  -4.139071e+001  8.879865e+001 
4040625000  -4.144269e+001  8.126865e+001 
4043750000  -4.136031e+001  8.054618e+001 
4046875000  -4.088258e+001  7.659340e+001 
4050000000  -4.043842e+001  6.939932e+001 
4053125000  -4.138975e+001  6.510645e+001 
4056250000  -4.190847e+001  7.199218e+001 
4059375000  -3.974767e+001  6.989542e+001 
4062500000  -3.888317e+001  6.082727e+001 
4065625000  -3.896377e+001  5.704211e+001 
4068750000  -3.855619e+001  4.906989e+001 
4071875000  -3.815665e+001  4.046435e+001 
4075000000  -3.833188e+001  3.237067e+001 
4078125000  -3.885851e+001  2.795844e+001 
4081250000  -3.849789e+001  2.304909e+001 
4084375000  -3.818083e+001  1.482906e+001 
4087500000  -3.890142e+001  6.538321e+000 
4090625000  -3.946439e+001  4.368751e+000 
4093750000  -3.884249e+001  4.239975e+000 
4096875000  -3.881950e+001  -6.359633e+000 
4100000000  -3.966378e+001  -1.420726e+001 
4103125000  -4.077939e+001  -1.200372e+001 
4106250000  -4.018860e+001  -1.046183e+001 
4109375000  -3.923615e+001  -1.177466e+001 
4112500000  -3.896602e+001  -2.156956e+001 
4115625000  -3.930032e+001  -2.820552e+001 
4118750000  -3.907787e+001  -3.331049e+001 
4121875000  -3.903172e+001  -4.044732e+001 
4125000000  -4.003287e+001  -4.666175e+001 
4128125000  -4.098524e+001  -4.810703e+001 
4131250000  -3.999852e+001  -3.861823e+001 
4134375000  -3.791240e+001  -4.957869e+001 
4137500000  -3.806467e+001  -6.958627e+001 
4140625000  -4.041887e+001  -7.786721e+001 
4143750000  -4.169223e+001  -6.995821e+001 
4146875000  -4.097900e+001  -6.726498e+001 
4150000000  -3.991375e+001  -7.467197e+001 
4153125000  -4.001304e+001  -8.395811e+001 
4156250000  -4.160650e+001  -8.720919e+001 
4159375000  -4.143146e+001  -8.121700e+001 
4162500000  -4.004377e+001  -7.789826e+001 
4165625000  -3.935266e+001  -8.725981e+001 
4168750000  -3.869162e+001  -9.590146e+001 
4171875000  -3.853207e+001  -1.055857e+002 
4175000000  -3.943465e+001  -1.129999e+002 
4178125000  -3.987785e+001  -1.141358e+002 
4181250000  -3.978297e+001  -1.175181e+002 
4184375000  -3.980135e+001  -1.217624e+002 
4187500000  -3.970129e+001  -1.268964e+002 
4190625000  -3.953405e+001  -1.344363e+002 
4193750000  -4.040281e+001  -1.381738e+002 
4196875000  -4.166013e+001  -1.374467e+002 
4200000000  -4.229773e+001  -1.327892e+002 
4203125000  -4.157753e+001  -1.253653e+002 
4206250000  -3.795081e+001  -1.296949e+002 
4209375000  -3.727863e+001  -1.551797e+002 
4212500000  -3.963995e+001  -1.626181e+002 
4215625000  -4.025465e+001  -1.546998e+002 
4218750000  -3.874933e+001  -1.532063e+002 
4221875000  -3.667462e+001  -1.642071e+002 
4225000000  -3.799365e+001  -1.754589e+002 
4228125000  -3.807671e+001  -1.721741e+002 
4231250000  -3.670021e+001  1.792451e+002 
4234375000  -3.682698e+001  1.698835e+002 
4237500000  -3.647400e+001  1.636127e+002 
4240625000  -3.650216e+001  1.542253e+002 
4243750000  -3.770608e+001  1.435154e+002 
4246875000  -3.886338e+001  1.409949e+002 
4250000000  -3.865989e+001  1.410276e+002 
4253125000  -3.827093e+001  1.397889e+002 
4256250000  -3.820285e+001  1.349928e+002 
4259375000  -3.779660e+001  1.277155e+002 
4262500000  -3.836817e+001  1.221669e+002 
4265625000  -3.803653e+001  1.230151e+002 
4268750000  -3.719756e+001  1.137134e+002 
4271875000  -3.699996e+001  1.067360e+002 
4275000000  -3.687658e+001  9.892429e+001 
4278125000  -3.784118e+001  8.622144e+001 
4281250000  -3.965038e+001  8.450923e+001 
4284375000  -3.918711e+001  7.968037e+001 
4287500000  -4.033512e+001  7.787534e+001 
4290625000  -4.104211e+001  8.588777e+001 
4293750000  -3.884108e+001  8.896935e+001 
4296875000  -3.783796e+001  7.380354e+001 
4300000000  -3.926829e+001  6.398222e+001 
4303125000  -4.059251e+001  6.865777e+001 
4306250000  -3.925011e+001  6.954271e+001 
4309375000  -3.787595e+001  6.531596e+001 
4312500000  -3.808006e+001  5.366387e+001 
4315625000  -3.823543e+001  4.641876e+001 
4318750000  -3.882650e+001  4.159402e+001 
4321875000  -3.909830e+001  4.238204e+001 
4325000000  -3.861010e+001  4.131572e+001 
4328125000  -3.753089e+001  3.142534e+001 
4331250000  -3.791302e+001  2.032999e+001 
4334375000  -3.846531e+001  1.509656e+001 
4337500000  -3.979131e+001  1.460799e+001 
4340625000  -3.996173e+001  1.902620e+001 
4343750000  -3.907154e+001  1.569324e+001 
4346875000  -3.909770e+001  4.988310e+000 
4350000000  -3.869392e+001  -1.868184e+000 
4353125000  -3.921866e+001  -7.995796e+000 
4356250000  -4.101113e+001  -5.994560e+000 
4359375000  -4.056902e+001  5.514466e+000 
4362500000  -3.709124e+001  3.523020e-001 
4365625000  -3.652299e+001  -1.732865e+001 
4368750000  -3.797099e+001  -2.734907e+001 
4371875000  -3.862979e+001  -2.528805e+001 
4375000000  -3.768610e+001  -2.945110e+001 
4378125000  -3.728732e+001  -3.880849e+001 
4381250000  -3.756216e+001  -4.439171e+001 
4384375000  -3.755564e+001  -5.152906e+001 
4387500000  -3.851337e+001  -5.836207e+001 
4390625000  -3.904006e+001  -5.809890e+001 
4393750000  -3.834234e+001  -5.829247e+001 
4396875000  -3.778265e+001  -6.317344e+001 
4400000000  -3.726385e+001  -7.374574e+001 
4403125000  -3.835455e+001  -8.369155e+001 
4406250000  -3.870196e+001  -8.629340e+001 
4409375000  -3.895043e+001  -9.179925e+001 
4412500000  -4.017189e+001  -9.447733e+001 
4415625000  -3.992601e+001  -8.980344e+001 
4418750000  -3.870477e+001  -8.858913e+001 
