!Agilent Technologies,E8363B,MY43030201,A.06.04.32
!Agilent E8363B: A.06.04.32
!Date: Tuesday, November 11, 2014 21:28:40
!Correction: S21(Response(S21)) 
!S1P File: Measurement: S21:
# Hz S  dB   R 50
3000000000  -4.068069e+001  8.975926e+001 
3003125000  -4.225307e+001  8.159129e+001 
3006250000  -4.205595e+001  7.987748e+001 
3009375000  -4.270745e+001  8.486426e+001 
3012500000  -4.163443e+001  8.077082e+001 
3015625000  -4.133041e+001  7.418424e+001 
3018750000  -4.198224e+001  7.348274e+001 
3021875000  -4.042154e+001  7.488780e+001 
3025000000  -3.893063e+001  7.140745e+001 
3028125000  -3.817181e+001  6.218739e+001 
3031250000  -3.692942e+001  4.999183e+001 
3034375000  -3.670969e+001  3.646824e+001 
3037500000  -3.754578e+001  2.465718e+001 
3040625000  -3.877674e+001  1.989158e+001 
3043750000  -3.911388e+001  1.347842e+001 
3046875000  -3.961006e+001  8.420823e+000 
3050000000  -4.082699e+001  1.476740e+000 
3053125000  -4.063111e+001  7.248280e+000 
3056250000  -4.045996e+001  1.013092e+001 
3059375000  -3.995068e+001  7.895562e+000 
3062500000  -3.843676e+001  1.880348e+000 
3065625000  -3.783388e+001  -6.579004e+000 
3068750000  -3.761442e+001  -1.390448e+001 
3071875000  -3.759375e+001  -1.583387e+001 
3075000000  -3.708971e+001  -2.297756e+001 
3078125000  -3.706715e+001  -2.896581e+001 
3081250000  -3.732188e+001  -3.542387e+001 
3084375000  -3.648063e+001  -4.047300e+001 
3087500000  -3.649244e+001  -4.591440e+001 
3090625000  -3.602820e+001  -5.826659e+001 
3093750000  -3.695880e+001  -6.698315e+001 
3096875000  -3.735745e+001  -7.264844e+001 
3100000000  -3.728660e+001  -7.517192e+001 
3103125000  -3.763490e+001  -7.818235e+001 
3106250000  -3.719325e+001  -8.352999e+001 
3109375000  -3.740226e+001  -8.744731e+001 
3112500000  -3.723858e+001  -9.262241e+001 
3115625000  -3.709447e+001  -9.805451e+001 
3118750000  -3.734776e+001  -1.004104e+002 
3121875000  -3.649999e+001  -1.117020e+002 
3125000000  -3.841675e+001  -1.154823e+002 
3128125000  -3.860039e+001  -1.083213e+002 
3131250000  -3.634369e+001  -1.129121e+002 
3134375000  -3.531148e+001  -1.301132e+002 
3137500000  -3.616982e+001  -1.429112e+002 
3140625000  -3.734742e+001  -1.454960e+002 
3143750000  -3.828713e+001  -1.484898e+002 
3146875000  -3.783512e+001  -1.464093e+002 
3150000000  -3.698716e+001  -1.492715e+002 
3153125000  -3.713734e+001  -1.585038e+002 
3156250000  -3.814389e+001  -1.541734e+002 
3159375000  -3.579053e+001  -1.549330e+002 
3162500000  -3.417958e+001  -1.711743e+002 
3165625000  -3.551654e+001  1.754575e+002 
3168750000  -3.553307e+001  1.743578e+002 
3171875000  -3.497529e+001  1.675293e+002 
3175000000  -3.565056e+001  1.583125e+002 
3178125000  -3.507464e+001  1.575566e+002 
3181250000  -3.441018e+001  1.498262e+002 
3184375000  -3.414212e+001  1.370836e+002 
3187500000  -3.539139e+001  1.217158e+002 
3190625000  -3.737481e+001  1.156477e+002 
3193750000  -3.751223e+001  1.209345e+002 
3196875000  -3.753490e+001  1.219602e+002 
3200000000  -3.645897e+001  1.175473e+002 
3203125000  -3.588003e+001  1.092146e+002 
3206250000  -3.623984e+001  1.024927e+002 
3209375000  -3.582298e+001  9.423351e+001 
3212500000  -3.621537e+001  8.746774e+001 
3215625000  -3.596183e+001  8.351016e+001 
3218750000  -3.692065e+001  7.279295e+001 
3221875000  -3.733628e+001  6.555325e+001 
3225000000  -3.710180e+001  6.236942e+001 
3228125000  -3.781038e+001  5.600939e+001 
3231250000  -3.830046e+001  5.346414e+001 
3234375000  -3.792549e+001  5.000470e+001 
3237500000  -3.805022e+001  4.668077e+001 
3240625000  -3.759490e+001  4.127422e+001 
3243750000  -3.766147e+001  3.119676e+001 
3246875000  -3.819235e+001  2.373714e+001 
3250000000  -3.875441e+001  2.017139e+001 
3253125000  -3.901963e+001  1.637368e+001 
3256250000  -3.871334e+001  9.632984e+000 
3259375000  -3.911637e+001  -1.833303e+000 
3262500000  -4.058745e+001  -5.219484e+000 
3265625000  -4.115472e+001  -3.301837e+000 
3268750000  -4.128468e+001  -1.866825e+000 
3271875000  -4.066790e+001  -6.074247e+000 
3275000000  -4.022536e+001  -1.343738e+001 
3278125000  -4.085827e+001  -2.002040e+001 
3281250000  -4.094011e+001  -1.912216e+001 
3284375000  -4.059513e+001  -2.533194e+001 
3287500000  -4.105204e+001  -3.049746e+001 
3290625000  -4.126766e+001  -3.761987e+001 
3293750000  -4.129311e+001  -4.393686e+001 
3296875000  -4.227368e+001  -4.536855e+001 
3300000000  -4.183217e+001  -4.394997e+001 
3303125000  -4.096322e+001  -5.151498e+001 
3306250000  -4.087930e+001  -5.854387e+001 
3309375000  -4.051477e+001  -6.523634e+001 
3312500000  -4.085571e+001  -7.664105e+001 
3315625000  -4.214450e+001  -8.571304e+001 
3318750000  -4.342358e+001  -8.882222e+001 
3321875000  -4.455590e+001  -8.716845e+001 
3325000000  -4.493129e+001  -8.055442e+001 
3328125000  -4.374755e+001  -8.112677e+001 
3331250000  -4.260436e+001  -7.686897e+001 
3334375000  -3.974229e+001  -8.968624e+001 
3337500000  -4.038234e+001  -1.114630e+002 
3340625000  -4.218399e+001  -1.225826e+002 
3343750000  -4.393803e+001  -1.217135e+002 
3346875000  -4.315165e+001  -1.213261e+002 
3350000000  -4.274747e+001  -1.233852e+002 
3353125000  -4.293824e+001  -1.316813e+002 
3356250000  -4.263523e+001  -1.408265e+002 
3359375000  -4.307303e+001  -1.499865e+002 
3362500000  -4.433261e+001  -1.551176e+002 
3365625000  -4.422452e+001  -1.599806e+002 
3368750000  -4.564986e+001  -1.627383e+002 
3371875000  -4.578275e+001  -1.694077e+002 
3375000000  -4.718405e+001  -1.741201e+002 
3378125000  -4.861449e+001  -1.750089e+002 
3381250000  -4.980687e+001  -1.627971e+002 
3384375000  -4.705209e+001  -1.472266e+002 
3387500000  -4.410874e+001  -1.711495e+002 
3390625000  -4.622993e+001  1.730068e+002 
3393750000  -4.727560e+001  1.728723e+002 
3396875000  -4.599147e+001  1.713775e+002 
3400000000  -4.601241e+001  1.588324e+002 
3403125000  -4.748688e+001  1.548937e+002 
3406250000  -4.717775e+001  1.491630e+002 
3409375000  -4.738794e+001  1.450001e+002 
3412500000  -4.895381e+001  1.344653e+002 
3415625000  -4.941563e+001  1.376286e+002 
3418750000  -5.028013e+001  1.400226e+002 
3421875000  -5.071806e+001  1.392002e+002 
3425000000  -4.965222e+001  1.394413e+002 
3428125000  -4.951186e+001  1.346470e+002 
3431250000  -4.982749e+001  1.262068e+002 
3434375000  -5.069743e+001  1.245697e+002 
3437500000  -5.153532e+001  1.214111e+002 
3440625000  -5.137253e+001  1.245224e+002 
3443750000  -5.069535e+001  1.294923e+002 
3446875000  -4.993576e+001  1.218884e+002 
3450000000  -4.988783e+001  1.127978e+002 
3453125000  -5.050863e+001  1.002120e+002 
3456250000  -5.064216e+001  9.748795e+001 
3459375000  -5.313045e+001  1.044274e+002 
3462500000  -5.177048e+001  1.061245e+002 
3465625000  -5.098722e+001  9.158799e+001 
3468750000  -5.163077e+001  1.008977e+002 
3471875000  -5.192690e+001  9.879621e+001 
3475000000  -4.977103e+001  8.905793e+001 
3478125000  -5.052480e+001  7.919786e+001 
3481250000  -5.199922e+001  8.232915e+001 
3484375000  -5.270820e+001  8.340606e+001 
3487500000  -5.107417e+001  7.504713e+001 
3490625000  -5.045073e+001  7.547289e+001 
3493750000  -5.028728e+001  6.469160e+001 
3496875000  -5.172892e+001  6.901672e+001 
3500000000  -5.135431e+001  6.986009e+001 
3503125000  -5.092206e+001  6.420253e+001 
3506250000  -4.925476e+001  5.221227e+001 
3509375000  -4.928781e+001  4.329340e+001 
3512500000  -4.952723e+001  3.419500e+001 
3515625000  -5.056379e+001  2.982370e+001 
3518750000  -5.177916e+001  3.148651e+001 
3521875000  -5.190822e+001  1.906938e+001 
3525000000  -5.322930e+001  1.697780e+001 
3528125000  -5.240663e+001  2.395522e+001 
3531250000  -5.100869e+001  2.105721e+001 
3534375000  -5.262507e+001  3.944514e+000 
3537500000  -5.292137e+001  -5.566758e+000 
3540625000  -5.416495e+001  -1.551675e+000 
3543750000  -5.489527e+001  -1.349543e+000 
3546875000  -5.504448e+001  1.051427e+001 
3550000000  -5.355317e+001  3.532639e-001 
3553125000  -5.234678e+001  -1.749567e+001 
3556250000  -5.456024e+001  -1.673384e+001 
3559375000  -5.434614e+001  -1.137511e+001 
3562500000  -5.602769e+001  -2.889920e+001 
3565625000  -5.719336e+001  -4.101534e+001 
3568750000  -5.630668e+001  -1.791338e+001 
3571875000  -5.740810e+001  -2.421644e+001 
3575000000  -5.822828e+001  -2.641999e+001 
3578125000  -5.944445e+001  -4.070580e+001 
3581250000  -5.688899e+001  -2.452635e+001 
3584375000  -5.673186e+001  -2.182531e+001 
3587500000  -5.721651e+001  -3.017170e+001 
3590625000  -5.951910e+001  -4.130742e+001 
3593750000  -5.849117e+001  -2.932716e+001 
3596875000  -5.733711e+001  -2.125139e+001 
3600000000  -5.682782e+001  -3.009373e+001 
3603125000  -5.903582e+001  -4.816453e+001 
3606250000  -5.889407e+001  -4.074828e+001 
3609375000  -5.686540e+001  -3.329970e+001 
3612500000  -5.915148e+001  -3.984659e+001 
3615625000  -5.916675e+001  -3.708620e+001 
3618750000  -5.993019e+001  -2.945670e+001 
3621875000  -5.778618e+001  -2.897252e+001 
3625000000  -5.981763e+001  -2.630724e+001 
3628125000  -5.811420e+001  -2.083204e+001 
3631250000  -5.752299e+001  -3.488707e+001 
3634375000  -5.849479e+001  -3.138230e+001 
3637500000  -5.699331e+001  -2.452855e+001 
3640625000  -5.469455e+001  -2.129659e+001 
3643750000  -5.344554e+001  -2.798627e+001 
3646875000  -5.425744e+001  -4.526095e+001 
3650000000  -5.357468e+001  -4.395453e+001 
3653125000  -5.258236e+001  -4.402769e+001 
3656250000  -5.186607e+001  -4.590296e+001 
3659375000  -5.144474e+001  -4.435180e+001 
3662500000  -5.118127e+001  -5.384454e+001 
3665625000  -4.993099e+001  -5.486743e+001 
3668750000  -4.820729e+001  -5.368191e+001 
3671875000  -4.748593e+001  -6.676195e+001 
3675000000  -4.763777e+001  -7.399898e+001 
3678125000  -4.765399e+001  -7.528075e+001 
3681250000  -4.663361e+001  -8.455507e+001 
3684375000  -4.674768e+001  -8.557288e+001 
3687500000  -4.657969e+001  -9.213041e+001 
3690625000  -4.673455e+001  -9.977766e+001 
3693750000  -4.694462e+001  -9.801454e+001 
3696875000  -4.649649e+001  -9.809648e+001 
3700000000  -4.539939e+001  -1.065869e+002 
3703125000  -4.568758e+001  -1.102835e+002 
3706250000  -4.611360e+001  -1.144193e+002 
3709375000  -4.493507e+001  -1.120143e+002 
3712500000  -4.352322e+001  -1.168377e+002 
3715625000  -4.210696e+001  -1.282986e+002 
3718750000  -4.191374e+001  -1.332197e+002 
3721875000  -4.146533e+001  -1.423516e+002 
3725000000  -4.156835e+001  -1.496489e+002 
3728125000  -4.150146e+001  -1.531067e+002 
3731250000  -4.084258e+001  -1.580071e+002 
3734375000  -4.008751e+001  -1.671296e+002 
3737500000  -4.090411e+001  -1.750962e+002 
3740625000  -4.105555e+001  1.779362e+002 
3743750000  -4.078589e+001  1.716339e+002 
3746875000  -4.070356e+001  1.646651e+002 
3750000000  -4.095616e+001  1.622401e+002 
3753125000  -4.064473e+001  1.582199e+002 
3756250000  -4.064477e+001  1.537880e+002 
3759375000  -4.040783e+001  1.489166e+002 
3762500000  -3.996873e+001  1.433442e+002 
3765625000  -4.077033e+001  1.372977e+002 
3768750000  -4.016886e+001  1.368673e+002 
3771875000  -3.856622e+001  1.300896e+002 
3775000000  -3.871732e+001  1.201664e+002 
3778125000  -3.898889e+001  1.132742e+002 
3781250000  -3.904587e+001  1.083813e+002 
3784375000  -3.904357e+001  1.022542e+002 
3787500000  -3.858663e+001  9.654656e+001 
3790625000  -3.913384e+001  8.906617e+001 
3793750000  -3.934090e+001  8.625122e+001 
3796875000  -3.854584e+001  8.092821e+001 
3800000000  -3.654147e+001  7.629358e+001 
3803125000  -3.806129e+001  6.126904e+001 
3806250000  -3.905980e+001  5.850092e+001 
3809375000  -3.855980e+001  5.479308e+001 
3812500000  -3.849190e+001  4.619280e+001 
3815625000  -3.946687e+001  3.643291e+001 
3818750000  -4.069491e+001  3.622615e+001 
3821875000  -4.035331e+001  4.684518e+001 
3825000000  -3.851799e+001  4.263625e+001 
3828125000  -3.711827e+001  2.474970e+001 
3831250000  -3.818184e+001  9.115966e+000 
3834375000  -4.036746e+001  7.338814e+000 
3837500000  -4.073656e+001  1.131688e+001 
3840625000  -3.925502e+001  9.025224e+000 
3843750000  -3.840576e+001  -4.769636e+000 
3846875000  -3.988088e+001  -1.301727e+001 
3850000000  -4.059177e+001  -7.289051e+000 
3853125000  -4.023927e+001  -4.508009e+000 
3856250000  -3.958738e+001  -1.120764e+001 
3859375000  -3.859229e+001  -1.869477e+001 
3862500000  -3.841745e+001  -2.967012e+001 
3865625000  -3.894866e+001  -3.457792e+001 
3868750000  -3.861907e+001  -3.567454e+001 
3871875000  -3.806263e+001  -4.170732e+001 
3875000000  -3.866129e+001  -5.344839e+001 
3878125000  -3.977549e+001  -5.441553e+001 
3881250000  -3.938051e+001  -5.528060e+001 
3884375000  -3.878023e+001  -6.241232e+001 
3887500000  -3.884251e+001  -6.851248e+001 
3890625000  -3.939065e+001  -7.347330e+001 
3893750000  -3.986409e+001  -7.582995e+001 
3896875000  -3.994039e+001  -7.808374e+001 
3900000000  -3.957803e+001  -8.246291e+001 
3903125000  -3.926427e+001  -8.654045e+001 
3906250000  -3.899165e+001  -8.803305e+001 
3909375000  -3.839467e+001  -9.818880e+001 
3912500000  -3.906097e+001  -1.072205e+002 
3915625000  -4.039227e+001  -1.085196e+002 
3918750000  -3.993439e+001  -1.092430e+002 
3921875000  -3.919315e+001  -1.128322e+002 
3925000000  -3.857333e+001  -1.184487e+002 
3928125000  -3.826983e+001  -1.286663e+002 
3931250000  -3.892961e+001  -1.336285e+002 
3934375000  -3.947102e+001  -1.348253e+002 
3937500000  -4.001507e+001  -1.396837e+002 
3940625000  -3.987962e+001  -1.399745e+002 
3943750000  -3.875948e+001  -1.427292e+002 
3946875000  -3.830175e+001  -1.520737e+002 
3950000000  -3.937481e+001  -1.614070e+002 
3953125000  -3.997149e+001  -1.607839e+002 
3956250000  -3.875824e+001  -1.599239e+002 
3959375000  -3.771916e+001  -1.666304e+002 
3962500000  -3.760292e+001  -1.759515e+002 
3965625000  -3.775227e+001  1.758867e+002 
3968750000  -3.847628e+001  1.668083e+002 
3971875000  -3.869068e+001  1.622000e+002 
3975000000  -3.846075e+001  1.585471e+002 
3978125000  -3.863982e+001  1.538411e+002 
3981250000  -3.850931e+001  1.497343e+002 
3984375000  -3.880009e+001  1.405674e+002 
3987500000  -3.961135e+001  1.360304e+002 
3990625000  -3.953617e+001  1.343037e+002 
3993750000  -3.979751e+001  1.310552e+002 
3996875000  -3.954438e+001  1.264211e+002 
4000000000  -4.048228e+001  1.212564e+002 
4003125000  -4.101477e+001  1.230842e+002 
4006250000  -3.942116e+001  1.208831e+002 
4009375000  -3.852364e+001  1.067037e+002 
4012500000  -4.001995e+001  9.654471e+001 
4015625000  -4.119205e+001  9.825659e+001 
4018750000  -4.107545e+001  9.918573e+001 
4021875000  -4.096838e+001  9.633972e+001 
4025000000  -4.039524e+001  9.107825e+001 
4028125000  -4.030152e+001  8.124585e+001 
4031250000  -4.101497e+001  7.817578e+001 
4034375000  -4.121827e+001  7.814876e+001 
4037500000  -4.081126e+001  7.739722e+001 
4040625000  -4.102332e+001  7.373588e+001 
4043750000  -4.097247e+001  7.107299e+001 
4046875000  -4.057547e+001  6.624980e+001 
4050000000  -4.007732e+001  6.134243e+001 
4053125000  -4.113058e+001  5.781746e+001 
4056250000  -4.132423e+001  6.329342e+001 
4059375000  -3.947035e+001  6.021980e+001 
4062500000  -3.885703e+001  5.527745e+001 
4065625000  -3.870826e+001  4.768576e+001 
4068750000  -3.804473e+001  4.266090e+001 
4071875000  -3.750846e+001  3.069526e+001 
4075000000  -3.820844e+001  2.299684e+001 
4078125000  -3.848046e+001  2.031551e+001 
4081250000  -3.798008e+001  1.551410e+001 
4084375000  -3.757376e+001  5.508741e+000 
4087500000  -3.828934e+001  -3.853260e-001 
4090625000  -3.905016e+001  -3.471460e+000 
4093750000  -3.857409e+001  -4.442952e+000 
4096875000  -3.837283e+001  -1.492243e+001 
4100000000  -3.935683e+001  -2.257479e+001 
4103125000  -4.027067e+001  -2.257211e+001 
4106250000  -3.965593e+001  -1.779907e+001 
4109375000  -3.877158e+001  -2.022226e+001 
4112500000  -3.818659e+001  -3.130932e+001 
4115625000  -3.914581e+001  -3.667109e+001 
4118750000  -3.898007e+001  -4.253026e+001 
4121875000  -3.876101e+001  -4.862194e+001 
4125000000  -3.951393e+001  -5.521332e+001 
4128125000  -4.034112e+001  -5.312751e+001 
4131250000  -3.952024e+001  -4.742449e+001 
4134375000  -3.733789e+001  -5.716957e+001 
4137500000  -3.776190e+001  -7.948296e+001 
4140625000  -3.980030e+001  -8.548578e+001 
4143750000  -4.104959e+001  -7.812666e+001 
4146875000  -4.028374e+001  -7.449174e+001 
4150000000  -3.940525e+001  -8.212179e+001 
4153125000  -3.954631e+001  -9.143618e+001 
4156250000  -4.063224e+001  -9.545983e+001 
4159375000  -4.080183e+001  -9.063880e+001 
4162500000  -3.963865e+001  -8.764877e+001 
4165625000  -3.845271e+001  -9.323837e+001 
4168750000  -3.823524e+001  -1.049969e+002 
4171875000  -3.794889e+001  -1.148699e+002 
4175000000  -3.869192e+001  -1.208154e+002 
4178125000  -3.925242e+001  -1.212244e+002 
4181250000  -3.889588e+001  -1.269330e+002 
4184375000  -3.908146e+001  -1.324629e+002 
4187500000  -3.901773e+001  -1.358054e+002 
4190625000  -3.906355e+001  -1.451575e+002 
4193750000  -4.015227e+001  -1.468561e+002 
4196875000  -4.067005e+001  -1.500719e+002 
4200000000  -4.176672e+001  -1.453489e+002 
4203125000  -4.064813e+001  -1.313187e+002 
4206250000  -3.717360e+001  -1.395968e+002 
4209375000  -3.662821e+001  -1.645640e+002 
4212500000  -3.902507e+001  -1.704478e+002 
4215625000  -3.996067e+001  -1.646177e+002 
4218750000  -3.780032e+001  -1.618373e+002 
4221875000  -3.604941e+001  -1.713907e+002 
4225000000  -3.752248e+001  1.765308e+002 
4228125000  -3.721518e+001  1.770172e+002 
4231250000  -3.590646e+001  1.695699e+002 
4234375000  -3.591767e+001  1.586874e+002 
4237500000  -3.579311e+001  1.529482e+002 
4240625000  -3.572240e+001  1.440049e+002 
4243750000  -3.699307e+001  1.336408e+002 
4246875000  -3.783330e+001  1.336849e+002 
4250000000  -3.758742e+001  1.322455e+002 
4253125000  -3.735200e+001  1.307229e+002 
4256250000  -3.762826e+001  1.255609e+002 
4259375000  -3.720686e+001  1.194280e+002 
4262500000  -3.726894e+001  1.135305e+002 
4265625000  -3.751744e+001  1.125197e+002 
4268750000  -3.629240e+001  1.055865e+002 
4271875000  -3.617239e+001  9.898895e+001 
4275000000  -3.593960e+001  8.851727e+001 
4278125000  -3.700944e+001  7.637153e+001 
4281250000  -3.852206e+001  7.394131e+001 
4284375000  -3.818280e+001  7.004969e+001 
4287500000  -3.959548e+001  6.650906e+001 
4290625000  -4.032251e+001  7.672920e+001 
4293750000  -3.833110e+001  7.846339e+001 
4296875000  -3.714980e+001  6.550380e+001 
4300000000  -3.844248e+001  5.396380e+001 
4303125000  -3.909752e+001  5.730131e+001 
4306250000  -3.821733e+001  5.928416e+001 
4309375000  -3.698419e+001  5.175414e+001 
4312500000  -3.726164e+001  4.130456e+001 
4315625000  -3.751065e+001  3.475135e+001 
4318750000  -3.799049e+001  3.022836e+001 
4321875000  -3.789171e+001  3.181728e+001 
4325000000  -3.727948e+001  2.916308e+001 
4328125000  -3.680895e+001  1.951486e+001 
4331250000  -3.717970e+001  8.773022e+000 
4334375000  -3.767213e+001  3.013167e+000 
4337500000  -3.861947e+001  1.887560e+000 
4340625000  -3.898846e+001  6.135941e+000 
4343750000  -3.792308e+001  2.785514e+000 
4346875000  -3.782331e+001  -5.324654e+000 
4350000000  -3.772613e+001  -1.273713e+001 
4353125000  -3.793271e+001  -2.073400e+001 
4356250000  -4.035284e+001  -1.896117e+001 
4359375000  -3.962598e+001  -4.034054e+000 
4362500000  -3.626783e+001  -1.053397e+001 
4365625000  -3.548354e+001  -2.760718e+001 
4368750000  -3.703373e+001  -3.842704e+001 
4371875000  -3.753682e+001  -3.995287e+001 
4375000000  -3.691563e+001  -4.283571e+001 
4378125000  -3.611195e+001  -5.049340e+001 
4381250000  -3.663199e+001  -5.792314e+001 
4384375000  -3.647242e+001  -6.398717e+001 
4387500000  -3.758232e+001  -7.267789e+001 
4390625000  -3.804790e+001  -7.192397e+001 
4393750000  -3.737511e+001  -7.062949e+001 
4396875000  -3.684369e+001  -7.652628e+001 
4400000000  -3.617475e+001  -8.487453e+001 
4403125000  -3.694011e+001  -9.542767e+001 
4406250000  -3.782842e+001  -9.867955e+001 
4409375000  -3.805176e+001  -1.027964e+002 
4412500000  -3.888740e+001  -1.054712e+002 
4415625000  -3.896812e+001  -1.026364e+002 
