!Agilent Technologies,E8363B,MY43030201,A.06.04.32
!Agilent E8363B: A.06.04.32
!Date: Tuesday, November 11, 2014 21:37:35
!Correction: S21(Response(S21)) 
!S1P File: Measurement: S21:
# Hz S  dB   R 50
3000000000  -4.072147e+001  6.998088e+001 
3003125000  -4.208056e+001  6.167005e+001 
3006250000  -4.214645e+001  6.300842e+001 
3009375000  -4.258451e+001  6.677665e+001 
3012500000  -4.155441e+001  6.266638e+001 
3015625000  -4.153041e+001  5.483894e+001 
3018750000  -4.183275e+001  5.553848e+001 
3021875000  -4.024266e+001  5.644168e+001 
3025000000  -3.880246e+001  5.254124e+001 
3028125000  -3.784994e+001  4.206402e+001 
3031250000  -3.704371e+001  2.981002e+001 
3034375000  -3.680843e+001  1.625123e+001 
3037500000  -3.770575e+001  6.902565e+000 
3040625000  -3.888042e+001  1.210686e+000 
3043750000  -3.924827e+001  -6.237487e+000 
3046875000  -3.978493e+001  -1.107566e+001 
3050000000  -4.081963e+001  -1.656165e+001 
3053125000  -4.037817e+001  -1.088288e+001 
3056250000  -4.056500e+001  -8.411169e+000 
3059375000  -3.976387e+001  -1.074770e+001 
3062500000  -3.818842e+001  -1.522464e+001 
3065625000  -3.783353e+001  -2.569734e+001 
3068750000  -3.749799e+001  -3.316788e+001 
3071875000  -3.755456e+001  -3.568223e+001 
3075000000  -3.694302e+001  -4.120619e+001 
3078125000  -3.717374e+001  -4.793777e+001 
3081250000  -3.725811e+001  -5.448635e+001 
3084375000  -3.619973e+001  -5.936222e+001 
3087500000  -3.642895e+001  -6.609618e+001 
3090625000  -3.594253e+001  -7.831002e+001 
3093750000  -3.689851e+001  -8.615217e+001 
3096875000  -3.742504e+001  -9.122117e+001 
3100000000  -3.727161e+001  -9.433641e+001 
3103125000  -3.748713e+001  -9.804760e+001 
3106250000  -3.721584e+001  -1.032331e+002 
3109375000  -3.728345e+001  -1.069323e+002 
3112500000  -3.711364e+001  -1.127252e+002 
3115625000  -3.716153e+001  -1.161622e+002 
3118750000  -3.715906e+001  -1.200234e+002 
3121875000  -3.661215e+001  -1.304843e+002 
3125000000  -3.865271e+001  -1.344284e+002 
3128125000  -3.852256e+001  -1.262876e+002 
3131250000  -3.599351e+001  -1.336923e+002 
3134375000  -3.536410e+001  -1.504775e+002 
3137500000  -3.608966e+001  -1.622517e+002 
3140625000  -3.721551e+001  -1.653060e+002 
3143750000  -3.827086e+001  -1.674149e+002 
3146875000  -3.752914e+001  -1.647583e+002 
3150000000  -3.683156e+001  -1.687930e+002 
3153125000  -3.725695e+001  -1.781558e+002 
3156250000  -3.794566e+001  -1.732248e+002 
3159375000  -3.562862e+001  -1.749782e+002 
3162500000  -3.418428e+001  1.688265e+002 
3165625000  -3.551974e+001  1.565311e+002 
3168750000  -3.535700e+001  1.545965e+002 
3171875000  -3.495569e+001  1.477278e+002 
3175000000  -3.542803e+001  1.387469e+002 
3178125000  -3.501242e+001  1.370632e+002 
3181250000  -3.441312e+001  1.284467e+002 
3184375000  -3.427606e+001  1.177425e+002 
3187500000  -3.530657e+001  1.029451e+002 
3190625000  -3.722755e+001  9.687694e+001 
3193750000  -3.763126e+001  1.021039e+002 
3196875000  -3.736603e+001  1.029527e+002 
3200000000  -3.619422e+001  9.787506e+001 
3203125000  -3.595045e+001  8.956326e+001 
3206250000  -3.603230e+001  8.197900e+001 
3209375000  -3.580174e+001  7.427706e+001 
3212500000  -3.618158e+001  6.698481e+001 
3215625000  -3.609781e+001  6.400179e+001 
3218750000  -3.677236e+001  5.281091e+001 
3221875000  -3.727246e+001  4.680313e+001 
3225000000  -3.704659e+001  4.239824e+001 
3228125000  -3.770080e+001  3.464912e+001 
3231250000  -3.826185e+001  3.353014e+001 
3234375000  -3.790516e+001  3.030986e+001 
3237500000  -3.794107e+001  2.599054e+001 
3240625000  -3.745425e+001  2.064727e+001 
3243750000  -3.761995e+001  1.072367e+001 
3246875000  -3.814442e+001  4.151340e+000 
3250000000  -3.878589e+001  -3.745289e-001 
3253125000  -3.887982e+001  -2.217010e+000 
3256250000  -3.834132e+001  -1.176492e+001 
3259375000  -3.917773e+001  -2.299089e+001 
3262500000  -4.072298e+001  -2.580319e+001 
3265625000  -4.100131e+001  -2.364581e+001 
3268750000  -4.088405e+001  -2.179837e+001 
3271875000  -4.039324e+001  -2.733469e+001 
3275000000  -3.993658e+001  -3.589450e+001 
3278125000  -4.079911e+001  -3.999976e+001 
3281250000  -4.100539e+001  -4.041851e+001 
3284375000  -4.037865e+001  -4.544789e+001 
3287500000  -4.108422e+001  -5.151599e+001 
3290625000  -4.112014e+001  -5.816927e+001 
3293750000  -4.145657e+001  -6.435624e+001 
3296875000  -4.240362e+001  -6.664687e+001 
3300000000  -4.191277e+001  -6.532241e+001 
3303125000  -4.088448e+001  -7.233045e+001 
3306250000  -4.080082e+001  -7.852263e+001 
3309375000  -4.032788e+001  -8.626924e+001 
3312500000  -4.093621e+001  -9.818584e+001 
3315625000  -4.239910e+001  -1.059382e+002 
3318750000  -4.378184e+001  -1.107666e+002 
3321875000  -4.488626e+001  -1.066264e+002 
3325000000  -4.458890e+001  -1.003772e+002 
3328125000  -4.373340e+001  -1.005733e+002 
3331250000  -4.214925e+001  -9.626916e+001 
3334375000  -3.978446e+001  -1.123021e+002 
3337500000  -4.020469e+001  -1.337260e+002 
3340625000  -4.232788e+001  -1.428227e+002 
3343750000  -4.401580e+001  -1.433632e+002 
3346875000  -4.339104e+001  -1.411866e+002 
3350000000  -4.305704e+001  -1.457986e+002 
3353125000  -4.260474e+001  -1.542929e+002 
3356250000  -4.236919e+001  -1.628920e+002 
3359375000  -4.342829e+001  -1.725126e+002 
3362500000  -4.435562e+001  -1.775806e+002 
3365625000  -4.466950e+001  1.779334e+002 
3368750000  -4.519048e+001  1.723057e+002 
3371875000  -4.599733e+001  1.697857e+002 
3375000000  -4.768713e+001  1.643914e+002 
3378125000  -4.839342e+001  1.649732e+002 
3381250000  -4.967225e+001  1.768891e+002 
3384375000  -4.673423e+001  -1.715847e+002 
3387500000  -4.369220e+001  1.682978e+002 
3390625000  -4.649209e+001  1.507311e+002 
3393750000  -4.690473e+001  1.510198e+002 
3396875000  -4.574842e+001  1.459948e+002 
3400000000  -4.587994e+001  1.376579e+002 
3403125000  -4.676704e+001  1.307697e+002 
3406250000  -4.809964e+001  1.283314e+002 
3409375000  -4.861107e+001  1.234494e+002 
3412500000  -4.864485e+001  1.172409e+002 
3415625000  -4.979712e+001  1.149765e+002 
3418750000  -5.006731e+001  1.162590e+002 
3421875000  -5.207672e+001  1.155501e+002 
3425000000  -5.003281e+001  1.171688e+002 
3428125000  -4.990212e+001  1.134768e+002 
3431250000  -4.924638e+001  1.072019e+002 
3434375000  -5.065566e+001  1.063960e+002 
3437500000  -5.197902e+001  1.036234e+002 
3440625000  -5.141319e+001  1.016168e+002 
3443750000  -5.055251e+001  1.062368e+002 
3446875000  -5.054706e+001  9.566431e+001 
3450000000  -4.980143e+001  9.022612e+001 
3453125000  -5.069224e+001  8.223880e+001 
3456250000  -5.210983e+001  7.653033e+001 
3459375000  -5.224232e+001  7.847037e+001 
3462500000  -5.257651e+001  8.686145e+001 
3465625000  -5.124944e+001  7.751205e+001 
3468750000  -5.267656e+001  7.221368e+001 
3471875000  -5.201128e+001  7.311482e+001 
3475000000  -5.195530e+001  6.484152e+001 
3478125000  -5.076971e+001  5.964870e+001 
3481250000  -5.186904e+001  6.474079e+001 
3484375000  -5.211148e+001  6.133127e+001 
3487500000  -5.144182e+001  5.643553e+001 
3490625000  -5.059159e+001  5.138462e+001 
3493750000  -5.123516e+001  4.205984e+001 
3496875000  -5.122315e+001  5.008696e+001 
3500000000  -5.179383e+001  3.752053e+001 
3503125000  -5.060442e+001  4.081374e+001 
3506250000  -4.941618e+001  3.212173e+001 
3509375000  -4.957596e+001  2.342934e+001 
3512500000  -5.084275e+001  9.788092e+000 
3515625000  -5.138880e+001  6.183168e+000 
3518750000  -5.240928e+001  2.717562e+000 
3521875000  -5.224233e+001  2.907945e-001 
3525000000  -5.309314e+001  -4.333699e+000 
3528125000  -5.248306e+001  4.974167e+000 
3531250000  -5.211843e+001  -5.552315e+000 
3534375000  -5.235003e+001  -2.094599e+001 
3537500000  -5.391778e+001  -2.906749e+001 
3540625000  -5.390141e+001  -2.910477e+001 
3543750000  -5.596814e+001  -1.885568e+001 
3546875000  -5.598645e+001  -1.401336e+001 
3550000000  -5.391428e+001  -2.346158e+001 
3553125000  -5.380176e+001  -3.207000e+001 
3556250000  -5.518061e+001  -3.925182e+001 
3559375000  -5.512430e+001  -4.124792e+001 
3562500000  -5.519096e+001  -4.439792e+001 
3565625000  -5.749179e+001  -5.595999e+001 
3568750000  -5.745033e+001  -4.040191e+001 
3571875000  -5.955321e+001  -4.770437e+001 
3575000000  -5.873647e+001  -5.368864e+001 
3578125000  -5.986196e+001  -5.681731e+001 
3581250000  -5.926601e+001  -4.784134e+001 
3584375000  -5.863745e+001  -4.668071e+001 
3587500000  -5.732311e+001  -4.179593e+001 
3590625000  -5.857693e+001  -7.726441e+001 
3593750000  -5.821541e+001  -4.668198e+001 
3596875000  -5.834273e+001  -3.306872e+001 
3600000000  -5.828485e+001  -3.558321e+001 
3603125000  -5.774673e+001  -5.804466e+001 
3606250000  -5.859621e+001  -6.475547e+001 
3609375000  -5.908923e+001  -4.881602e+001 
3612500000  -5.767371e+001  -5.959559e+001 
3615625000  -5.861916e+001  -5.636548e+001 
3618750000  -5.958462e+001  -5.744389e+001 
3621875000  -5.820900e+001  -4.379631e+001 
3625000000  -5.634919e+001  -5.014592e+001 
3628125000  -5.602646e+001  -4.196178e+001 
3631250000  -5.755169e+001  -4.768523e+001 
3634375000  -5.746633e+001  -5.203551e+001 
3637500000  -5.538541e+001  -4.850502e+001 
3640625000  -5.451004e+001  -4.198275e+001 
3643750000  -5.295988e+001  -4.709044e+001 
3646875000  -5.350109e+001  -6.226987e+001 
3650000000  -5.270928e+001  -6.365816e+001 
3653125000  -5.164700e+001  -6.575808e+001 
3656250000  -5.176258e+001  -6.325994e+001 
3659375000  -5.107104e+001  -6.711064e+001 
3662500000  -4.976698e+001  -7.223406e+001 
3665625000  -5.039991e+001  -7.305504e+001 
3668750000  -4.843831e+001  -7.602679e+001 
3671875000  -4.737467e+001  -8.811358e+001 
3675000000  -4.759572e+001  -9.592818e+001 
3678125000  -4.750402e+001  -9.863100e+001 
3681250000  -4.643649e+001  -1.058087e+002 
3684375000  -4.686809e+001  -1.067190e+002 
3687500000  -4.660709e+001  -1.134497e+002 
3690625000  -4.663329e+001  -1.222375e+002 
3693750000  -4.707666e+001  -1.206028e+002 
3696875000  -4.612645e+001  -1.235706e+002 
3700000000  -4.507296e+001  -1.290324e+002 
3703125000  -4.536977e+001  -1.329559e+002 
3706250000  -4.597860e+001  -1.380476e+002 
3709375000  -4.504012e+001  -1.354487e+002 
3712500000  -4.369117e+001  -1.397590e+002 
3715625000  -4.206626e+001  -1.495380e+002 
3718750000  -4.154653e+001  -1.596745e+002 
3721875000  -4.140036e+001  -1.659179e+002 
3725000000  -4.179832e+001  -1.716997e+002 
3728125000  -4.140318e+001  -1.750504e+002 
3731250000  -4.083471e+001  1.791677e+002 
3734375000  -4.024350e+001  1.700072e+002 
3737500000  -4.122112e+001  1.609002e+002 
3740625000  -4.090648e+001  1.543112e+002 
3743750000  -4.024913e+001  1.491339e+002 
3746875000  -4.076290e+001  1.429712e+002 
3750000000  -4.107964e+001  1.360489e+002 
3753125000  -4.070826e+001  1.340247e+002 
3756250000  -4.072813e+001  1.317867e+002 
3759375000  -4.055819e+001  1.249417e+002 
3762500000  -4.003544e+001  1.184867e+002 
3765625000  -4.100941e+001  1.131325e+002 
3768750000  -4.017949e+001  1.138372e+002 
3771875000  -3.836695e+001  1.077346e+002 
3775000000  -3.841209e+001  9.503796e+001 
3778125000  -3.896780e+001  8.860918e+001 
3781250000  -3.887454e+001  8.517528e+001 
3784375000  -3.868885e+001  7.955441e+001 
3787500000  -3.838004e+001  7.430417e+001 
3790625000  -3.896072e+001  6.391591e+001 
3793750000  -3.913995e+001  6.066064e+001 
3796875000  -3.822541e+001  5.666174e+001 
3800000000  -3.639105e+001  5.266974e+001 
3803125000  -3.804993e+001  3.955982e+001 
3806250000  -3.886672e+001  3.421271e+001 
3809375000  -3.846861e+001  3.045718e+001 
3812500000  -3.823085e+001  2.140410e+001 
3815625000  -3.961943e+001  1.150179e+001 
3818750000  -4.084229e+001  1.259762e+001 
3821875000  -4.005644e+001  2.109278e+001 
3825000000  -3.793601e+001  1.894479e+001 
3828125000  -3.684636e+001  3.749410e-001 
3831250000  -3.815029e+001  -1.337137e+001 
3834375000  -4.036258e+001  -1.490336e+001 
3837500000  -4.064938e+001  -1.095052e+001 
3840625000  -3.903439e+001  -1.519688e+001 
3843750000  -3.800554e+001  -2.723825e+001 
3846875000  -3.984587e+001  -3.577921e+001 
3850000000  -4.091277e+001  -2.639453e+001 
3853125000  -4.000250e+001  -2.796575e+001 
3856250000  -3.922012e+001  -3.764456e+001 
3859375000  -3.865110e+001  -4.601962e+001 
3862500000  -3.830044e+001  -5.438793e+001 
3865625000  -3.911482e+001  -5.960755e+001 
3868750000  -3.873862e+001  -6.126357e+001 
3871875000  -3.804481e+001  -6.830622e+001 
3875000000  -3.864199e+001  -7.802426e+001 
3878125000  -3.953704e+001  -7.883772e+001 
3881250000  -3.916951e+001  -8.076823e+001 
3884375000  -3.844236e+001  -8.844750e+001 
3887500000  -3.925282e+001  -9.314442e+001 
3890625000  -3.949125e+001  -9.788893e+001 
3893750000  -3.980882e+001  -1.008983e+002 
3896875000  -4.022652e+001  -1.043184e+002 
3900000000  -3.967830e+001  -1.067203e+002 
3903125000  -3.923781e+001  -1.107694e+002 
3906250000  -3.907483e+001  -1.145034e+002 
3909375000  -3.806203e+001  -1.241764e+002 
3912500000  -3.926625e+001  -1.332771e+002 
3915625000  -4.037509e+001  -1.319481e+002 
3918750000  -4.025282e+001  -1.335245e+002 
3921875000  -3.911268e+001  -1.378327e+002 
3925000000  -3.842912e+001  -1.442263e+002 
3928125000  -3.814655e+001  -1.534472e+002 
3931250000  -3.896442e+001  -1.608840e+002 
3934375000  -3.970743e+001  -1.623557e+002 
3937500000  -4.001359e+001  -1.642106e+002 
3940625000  -3.975004e+001  -1.670544e+002 
3943750000  -3.889523e+001  -1.693849e+002 
3946875000  -3.844437e+001  -1.767930e+002 
3950000000  -3.971538e+001  1.731470e+002 
3953125000  -4.011316e+001  1.743484e+002 
3956250000  -3.863977e+001  1.753141e+002 
3959375000  -3.772268e+001  1.680784e+002 
3962500000  -3.768494e+001  1.593466e+002 
3965625000  -3.770646e+001  1.495144e+002 
3968750000  -3.893630e+001  1.440444e+002 
3971875000  -3.849287e+001  1.365584e+002 
3975000000  -3.820462e+001  1.330119e+002 
3978125000  -3.857064e+001  1.294165e+002 
3981250000  -3.849819e+001  1.224722e+002 
3984375000  -3.934024e+001  1.137653e+002 
3987500000  -3.968473e+001  1.109834e+002 
3990625000  -3.981168e+001  1.094099e+002 
3993750000  -3.962675e+001  1.037111e+002 
3996875000  -3.982883e+001  1.002594e+002 
4000000000  -4.054195e+001  9.665676e+001 
4003125000  -4.074380e+001  9.654234e+001 
4006250000  -3.920800e+001  9.506100e+001 
4009375000  -3.854575e+001  8.058154e+001 
4012500000  -4.025912e+001  7.475559e+001 
4015625000  -4.139243e+001  7.267518e+001 
4018750000  -4.103511e+001  7.000570e+001 
4021875000  -4.063048e+001  6.992876e+001 
4025000000  -4.051572e+001  6.366096e+001 
4028125000  -4.075721e+001  5.651991e+001 
4031250000  -4.098209e+001  5.227201e+001 
4034375000  -4.153126e+001  5.172108e+001 
4037500000  -4.096243e+001  5.339376e+001 
4040625000  -4.094236e+001  4.860398e+001 
4043750000  -4.134158e+001  4.486573e+001 
4046875000  -4.064972e+001  3.893862e+001 
4050000000  -4.062650e+001  3.426842e+001 
4053125000  -4.143254e+001  3.279471e+001 
4056250000  -4.192150e+001  4.058239e+001 
4059375000  -3.913889e+001  3.519508e+001 
4062500000  -3.899917e+001  2.548190e+001 
4065625000  -3.895431e+001  2.128904e+001 
4068750000  -3.814318e+001  1.329403e+001 
4071875000  -3.794695e+001  4.163974e+000 
4075000000  -3.841448e+001  -3.988043e+000 
4078125000  -3.881612e+001  -6.548189e+000 
4081250000  -3.828829e+001  -1.111166e+001 
4084375000  -3.825465e+001  -2.151985e+001 
4087500000  -3.867226e+001  -2.779533e+001 
4090625000  -3.921452e+001  -3.035981e+001 
4093750000  -3.866759e+001  -3.285614e+001 
4096875000  -3.868084e+001  -4.179965e+001 
4100000000  -3.985256e+001  -4.803811e+001 
4103125000  -4.048568e+001  -4.569755e+001 
4106250000  -3.969576e+001  -4.376458e+001 
4109375000  -3.905326e+001  -4.836362e+001 
4112500000  -3.871396e+001  -5.853254e+001 
4115625000  -3.924264e+001  -6.350037e+001 
4118750000  -3.885279e+001  -6.871024e+001 
4121875000  -3.904189e+001  -7.748716e+001 
4125000000  -3.983793e+001  -8.119409e+001 
4128125000  -4.062685e+001  -7.937090e+001 
4131250000  -4.015612e+001  -7.346736e+001 
4134375000  -3.752278e+001  -8.404108e+001 
4137500000  -3.816048e+001  -1.063817e+002 
4140625000  -4.040094e+001  -1.114710e+002 
4143750000  -4.143326e+001  -1.043753e+002 
4146875000  -4.054420e+001  -1.006040e+002 
4150000000  -3.977381e+001  -1.103891e+002 
4153125000  -3.987097e+001  -1.171634e+002 
4156250000  -4.121985e+001  -1.202295e+002 
4159375000  -4.093910e+001  -1.161662e+002 
4162500000  -3.975028e+001  -1.143546e+002 
4165625000  -3.842897e+001  -1.212745e+002 
4168750000  -3.854631e+001  -1.312204e+002 
4171875000  -3.823579e+001  -1.416754e+002 
4175000000  -3.916891e+001  -1.469527e+002 
4178125000  -3.963800e+001  -1.476814e+002 
4181250000  -3.936713e+001  -1.526044e+002 
4184375000  -3.932507e+001  -1.579642e+002 
4187500000  -3.944568e+001  -1.616818e+002 
4190625000  -3.965073e+001  -1.692467e+002 
4193750000  -4.049511e+001  -1.741199e+002 
4196875000  -4.175078e+001  -1.757053e+002 
4200000000  -4.248732e+001  -1.697452e+002 
4203125000  -4.068345e+001  -1.571873e+002 
4206250000  -3.740635e+001  -1.673471e+002 
4209375000  -3.727152e+001  1.691635e+002 
4212500000  -3.963596e+001  1.645645e+002 
4215625000  -4.003845e+001  1.698711e+002 
4218750000  -3.806608e+001  1.713779e+002 
4221875000  -3.671304e+001  1.619003e+002 
4225000000  -3.787712e+001  1.509146e+002 
4228125000  -3.767879e+001  1.512484e+002 
4231250000  -3.603804e+001  1.423218e+002 
4234375000  -3.644467e+001  1.319869e+002 
4237500000  -3.605289e+001  1.266601e+002 
4240625000  -3.626436e+001  1.155405e+002 
4243750000  -3.745923e+001  1.084064e+002 
4246875000  -3.842452e+001  1.075600e+002 
4250000000  -3.823920e+001  1.075975e+002 
4253125000  -3.807978e+001  1.034845e+002 
4256250000  -3.804047e+001  9.903314e+001 
4259375000  -3.767137e+001  9.382707e+001 
4262500000  -3.776202e+001  8.864692e+001 
4265625000  -3.781506e+001  8.742098e+001 
4268750000  -3.692800e+001  7.788097e+001 
4271875000  -3.676424e+001  7.026022e+001 
4275000000  -3.647163e+001  6.333814e+001 
4278125000  -3.767349e+001  5.029387e+001 
4281250000  -3.903848e+001  4.969962e+001 
4284375000  -3.883249e+001  4.723215e+001 
4287500000  -4.032042e+001  4.449965e+001 
4290625000  -4.055817e+001  5.257407e+001 
4293750000  -3.844973e+001  5.181164e+001 
4296875000  -3.759400e+001  3.888205e+001 
4300000000  -3.901361e+001  2.916091e+001 
4303125000  -3.970485e+001  3.293172e+001 
4306250000  -3.890942e+001  3.280887e+001 
4309375000  -3.756593e+001  2.814936e+001 
4312500000  -3.753516e+001  1.640744e+001 
4315625000  -3.791333e+001  8.689819e+000 
4318750000  -3.856530e+001  4.988965e+000 
4321875000  -3.858104e+001  4.532324e+000 
4325000000  -3.803603e+001  3.947232e+000 
4328125000  -3.720895e+001  -6.496611e+000 
4331250000  -3.745408e+001  -1.686411e+001 
4334375000  -3.828143e+001  -2.230382e+001 
4337500000  -3.946183e+001  -2.379818e+001 
4340625000  -3.946628e+001  -1.825659e+001 
4343750000  -3.853621e+001  -2.278563e+001 
4346875000  -3.841880e+001  -3.122912e+001 
4350000000  -3.823420e+001  -3.837868e+001 
4353125000  -3.895343e+001  -4.475525e+001 
4356250000  -4.107848e+001  -4.026388e+001 
4359375000  -3.987398e+001  -2.855381e+001 
4362500000  -3.639428e+001  -3.674183e+001 
4365625000  -3.592393e+001  -5.440555e+001 
4368750000  -3.710668e+001  -6.277666e+001 
4371875000  -3.797992e+001  -6.433254e+001 
4375000000  -3.699893e+001  -6.784723e+001 
4378125000  -3.664021e+001  -7.556064e+001 
4381250000  -3.701679e+001  -8.451758e+001 
4384375000  -3.714277e+001  -9.000492e+001 
4387500000  -3.836296e+001  -9.675063e+001 
4390625000  -3.858032e+001  -9.614533e+001 
4393750000  -3.776560e+001  -9.635979e+001 
4396875000  -3.712333e+001  -1.014010e+002 
4400000000  -3.673057e+001  -1.124438e+002 
4403125000  -3.758972e+001  -1.209773e+002 
4406250000  -3.834957e+001  -1.248614e+002 
4409375000  -3.881959e+001  -1.287975e+002 
4412500000  -3.957677e+001  -1.294925e+002 
4415625000  -3.931390e+001  -1.267624e+002 
