!Agilent Technologies,E8363B,MY43030201,A.06.04.32
!Agilent E8363B: A.06.04.32
!Date: Tuesday, November 11, 2014 21:33:05
!Correction: S21(Response(S21)) 
!S1P File: Measurement: S21:
# Hz S  dB   R 50
3000000000  -4.052299e+001  7.542011e+001 
3003125000  -4.205616e+001  6.693381e+001 
3006250000  -4.239577e+001  6.682436e+001 
3009375000  -4.240567e+001  7.203963e+001 
3012500000  -4.140710e+001  6.610438e+001 
3015625000  -4.142118e+001  6.030323e+001 
3018750000  -4.181348e+001  6.062255e+001 
3021875000  -4.017262e+001  6.130194e+001 
3025000000  -3.896745e+001  5.743893e+001 
3028125000  -3.792834e+001  4.671841e+001 
3031250000  -3.701029e+001  3.475158e+001 
3034375000  -3.682330e+001  2.098892e+001 
3037500000  -3.754926e+001  1.017580e+001 
3040625000  -3.882094e+001  5.042112e+000 
3043750000  -3.930717e+001  -1.737283e+000 
3046875000  -3.997350e+001  -6.585174e+000 
3050000000  -4.083166e+001  -1.190072e+001 
3053125000  -4.047940e+001  -7.033098e+000 
3056250000  -4.050102e+001  -3.638731e+000 
3059375000  -3.987347e+001  -5.324555e+000 
3062500000  -3.825967e+001  -1.078949e+001 
3065625000  -3.787073e+001  -2.012737e+001 
3068750000  -3.749050e+001  -2.809896e+001 
3071875000  -3.766119e+001  -3.038512e+001 
3075000000  -3.688008e+001  -3.818370e+001 
3078125000  -3.708529e+001  -4.397840e+001 
3081250000  -3.717426e+001  -4.914227e+001 
3084375000  -3.639369e+001  -5.397081e+001 
3087500000  -3.647632e+001  -6.193753e+001 
3090625000  -3.593641e+001  -7.374372e+001 
3093750000  -3.695880e+001  -8.147074e+001 
3096875000  -3.724009e+001  -8.731394e+001 
3100000000  -3.711770e+001  -9.047282e+001 
3103125000  -3.750206e+001  -9.340501e+001 
3106250000  -3.721072e+001  -9.790137e+001 
3109375000  -3.719473e+001  -1.019632e+002 
3112500000  -3.716117e+001  -1.076517e+002 
3115625000  -3.706234e+001  -1.116987e+002 
3118750000  -3.728975e+001  -1.146619e+002 
3121875000  -3.655592e+001  -1.265176e+002 
3125000000  -3.844183e+001  -1.300430e+002 
3128125000  -3.858601e+001  -1.217397e+002 
3131250000  -3.598505e+001  -1.279553e+002 
3134375000  -3.544688e+001  -1.457217e+002 
3137500000  -3.607950e+001  -1.577632e+002 
3140625000  -3.738358e+001  -1.612198e+002 
3143750000  -3.804217e+001  -1.626121e+002 
3146875000  -3.771613e+001  -1.613546e+002 
3150000000  -3.691285e+001  -1.647345e+002 
3153125000  -3.719291e+001  -1.736356e+002 
3156250000  -3.790694e+001  -1.687769e+002 
3159375000  -3.560921e+001  -1.700605e+002 
3162500000  -3.417358e+001  1.734223e+002 
3165625000  -3.547926e+001  1.605540e+002 
3168750000  -3.531089e+001  1.596346e+002 
3171875000  -3.498351e+001  1.521508e+002 
3175000000  -3.544194e+001  1.431035e+002 
3178125000  -3.505032e+001  1.416948e+002 
3181250000  -3.441605e+001  1.331019e+002 
3184375000  -3.410508e+001  1.218579e+002 
3187500000  -3.538589e+001  1.067829e+002 
3190625000  -3.733904e+001  1.007671e+002 
3193750000  -3.750206e+001  1.065520e+002 
3196875000  -3.735905e+001  1.074086e+002 
3200000000  -3.621330e+001  1.022533e+002 
3203125000  -3.593987e+001  9.446294e+001 
3206250000  -3.600370e+001  8.648106e+001 
3209375000  -3.570782e+001  7.928693e+001 
3212500000  -3.626215e+001  7.145483e+001 
3215625000  -3.605651e+001  6.888140e+001 
3218750000  -3.691237e+001  5.786021e+001 
3221875000  -3.722961e+001  5.087807e+001 
3225000000  -3.716057e+001  4.820245e+001 
3228125000  -3.769345e+001  3.921294e+001 
3231250000  -3.815289e+001  3.794996e+001 
3234375000  -3.800261e+001  3.491004e+001 
3237500000  -3.791224e+001  3.126438e+001 
3240625000  -3.757010e+001  2.598303e+001 
3243750000  -3.761324e+001  1.508608e+001 
3246875000  -3.830574e+001  7.631853e+000 
3250000000  -3.877176e+001  3.919781e+000 
3253125000  -3.903072e+001  1.119910e+000 
3256250000  -3.861980e+001  -6.945995e+000 
3259375000  -3.899630e+001  -1.819736e+001 
3262500000  -4.067581e+001  -2.214599e+001 
3265625000  -4.096961e+001  -1.839952e+001 
3268750000  -4.116179e+001  -1.851746e+001 
3271875000  -4.045824e+001  -2.195447e+001 
3275000000  -4.009556e+001  -2.925117e+001 
3278125000  -4.094456e+001  -3.356301e+001 
3281250000  -4.104957e+001  -3.584527e+001 
3284375000  -4.045396e+001  -4.228144e+001 
3287500000  -4.115760e+001  -4.500906e+001 
3290625000  -4.130294e+001  -5.520060e+001 
3293750000  -4.126056e+001  -5.889456e+001 
3296875000  -4.256971e+001  -6.060967e+001 
3300000000  -4.185333e+001  -5.988700e+001 
3303125000  -4.091629e+001  -6.783163e+001 
3306250000  -4.083447e+001  -7.459701e+001 
3309375000  -4.055718e+001  -8.140813e+001 
3312500000  -4.088334e+001  -9.462146e+001 
3315625000  -4.216765e+001  -1.006049e+002 
3318750000  -4.367111e+001  -1.061592e+002 
3321875000  -4.501923e+001  -1.017081e+002 
3325000000  -4.472711e+001  -9.529714e+001 
3328125000  -4.391746e+001  -9.533429e+001 
3331250000  -4.219371e+001  -9.319254e+001 
3334375000  -3.995043e+001  -1.100879e+002 
3337500000  -4.030140e+001  -1.279732e+002 
3340625000  -4.234224e+001  -1.381349e+002 
3343750000  -4.377891e+001  -1.370093e+002 
3346875000  -4.344891e+001  -1.385549e+002 
3350000000  -4.304290e+001  -1.413081e+002 
3353125000  -4.274166e+001  -1.474787e+002 
3356250000  -4.243469e+001  -1.567126e+002 
3359375000  -4.322015e+001  -1.663152e+002 
3362500000  -4.448551e+001  -1.714765e+002 
3365625000  -4.485403e+001  -1.754404e+002 
3368750000  -4.527824e+001  1.771036e+002 
3371875000  -4.572835e+001  1.737818e+002 
3375000000  -4.703183e+001  1.690144e+002 
3378125000  -4.849045e+001  1.693970e+002 
3381250000  -4.983211e+001  -1.765168e+002 
3384375000  -4.628481e+001  -1.642029e+002 
3387500000  -4.412976e+001  1.742832e+002 
3390625000  -4.650767e+001  1.538507e+002 
3393750000  -4.748492e+001  1.556098e+002 
3396875000  -4.613055e+001  1.538649e+002 
3400000000  -4.621873e+001  1.411573e+002 
3403125000  -4.650359e+001  1.360144e+002 
3406250000  -4.803153e+001  1.310503e+002 
3409375000  -4.796786e+001  1.289610e+002 
3412500000  -4.876733e+001  1.188070e+002 
3415625000  -5.015878e+001  1.165835e+002 
3418750000  -5.039693e+001  1.174469e+002 
3421875000  -5.142588e+001  1.243570e+002 
3425000000  -5.004277e+001  1.189144e+002 
3428125000  -4.978861e+001  1.176752e+002 
3431250000  -5.000554e+001  1.101576e+002 
3434375000  -5.148699e+001  1.055370e+002 
3437500000  -5.177918e+001  1.041088e+002 
3440625000  -5.171988e+001  1.056936e+002 
3443750000  -5.114328e+001  1.143680e+002 
3446875000  -5.065000e+001  9.970815e+001 
3450000000  -4.994315e+001  9.548841e+001 
3453125000  -5.125877e+001  8.478111e+001 
3456250000  -5.264514e+001  8.552323e+001 
3459375000  -5.378197e+001  8.522404e+001 
3462500000  -5.281198e+001  9.161860e+001 
3465625000  -5.141486e+001  7.867194e+001 
3468750000  -5.161652e+001  7.863098e+001 
3471875000  -5.080924e+001  7.669647e+001 
3475000000  -5.130397e+001  7.719466e+001 
3478125000  -5.114036e+001  6.478297e+001 
3481250000  -5.275761e+001  6.784504e+001 
3484375000  -5.240689e+001  5.995683e+001 
3487500000  -5.173619e+001  6.318290e+001 
3490625000  -5.067477e+001  5.302617e+001 
3493750000  -5.190615e+001  4.693405e+001 
3496875000  -5.178475e+001  5.023780e+001 
3500000000  -5.199887e+001  5.007986e+001 
3503125000  -5.012151e+001  5.082481e+001 
3506250000  -5.042720e+001  4.218915e+001 
3509375000  -4.909077e+001  2.737921e+001 
3512500000  -5.010218e+001  1.623252e+001 
3515625000  -5.191683e+001  3.802992e+000 
3518750000  -5.204910e+001  1.415851e+001 
3521875000  -5.208275e+001  9.586292e+000 
3525000000  -5.384328e+001  4.564065e-001 
3528125000  -5.297243e+001  1.059246e+001 
3531250000  -5.130647e+001  -2.852654e+000 
3534375000  -5.283594e+001  -1.356949e+001 
3537500000  -5.381929e+001  -2.149319e+001 
3540625000  -5.431766e+001  -2.028635e+001 
3543750000  -5.554613e+001  -9.840636e+000 
3546875000  -5.654175e+001  -1.572601e+001 
3550000000  -5.354941e+001  -1.695778e+001 
3553125000  -5.376049e+001  -3.137679e+001 
3556250000  -5.532057e+001  -2.783176e+001 
3559375000  -5.533804e+001  -3.295709e+001 
3562500000  -5.517635e+001  -3.936166e+001 
3565625000  -5.881351e+001  -4.699118e+001 
3568750000  -5.757892e+001  -3.524215e+001 
3571875000  -5.651735e+001  -4.349603e+001 
3575000000  -5.838348e+001  -3.920958e+001 
3578125000  -5.906420e+001  -4.367134e+001 
3581250000  -5.828207e+001  -4.559941e+001 
3584375000  -5.723977e+001  -2.648801e+001 
3587500000  -5.747798e+001  -3.546183e+001 
3590625000  -5.739058e+001  -5.972149e+001 
3593750000  -5.877339e+001  -4.594268e+001 
3596875000  -5.724825e+001  -3.306298e+001 
3600000000  -5.803370e+001  -4.367085e+001 
3603125000  -6.017994e+001  -4.918116e+001 
3606250000  -5.810588e+001  -4.815076e+001 
3609375000  -6.063385e+001  -3.558194e+001 
3612500000  -5.798557e+001  -4.865947e+001 
3615625000  -5.880775e+001  -4.479671e+001 
3618750000  -5.859851e+001  -4.293993e+001 
3621875000  -5.788844e+001  -5.435188e+001 
3625000000  -5.884424e+001  -4.385724e+001 
3628125000  -5.629974e+001  -3.294260e+001 
3631250000  -5.606440e+001  -5.513847e+001 
3634375000  -5.670577e+001  -3.692002e+001 
3637500000  -5.479471e+001  -4.199651e+001 
3640625000  -5.330447e+001  -4.133655e+001 
3643750000  -5.323061e+001  -4.398101e+001 
3646875000  -5.292231e+001  -5.120804e+001 
3650000000  -5.305506e+001  -5.694814e+001 
3653125000  -5.194387e+001  -5.811552e+001 
3656250000  -5.168974e+001  -6.339372e+001 
3659375000  -5.130800e+001  -6.122425e+001 
3662500000  -5.041317e+001  -7.110309e+001 
3665625000  -4.938161e+001  -7.417880e+001 
3668750000  -4.878179e+001  -7.219377e+001 
3671875000  -4.696600e+001  -7.887343e+001 
3675000000  -4.712640e+001  -8.810700e+001 
3678125000  -4.731787e+001  -9.757537e+001 
3681250000  -4.668181e+001  -1.005059e+002 
3684375000  -4.692120e+001  -1.049074e+002 
3687500000  -4.660401e+001  -1.092527e+002 
3690625000  -4.657235e+001  -1.163132e+002 
3693750000  -4.742740e+001  -1.134977e+002 
3696875000  -4.624931e+001  -1.168571e+002 
3700000000  -4.502480e+001  -1.254843e+002 
3703125000  -4.540525e+001  -1.294816e+002 
3706250000  -4.568635e+001  -1.302369e+002 
3709375000  -4.476740e+001  -1.301235e+002 
3712500000  -4.351151e+001  -1.353910e+002 
3715625000  -4.203439e+001  -1.435365e+002 
3718750000  -4.161914e+001  -1.519286e+002 
3721875000  -4.100958e+001  -1.603102e+002 
3725000000  -4.173991e+001  -1.674547e+002 
3728125000  -4.164817e+001  -1.712840e+002 
3731250000  -4.077264e+001  -1.763368e+002 
3734375000  -3.994018e+001  1.768647e+002 
3737500000  -4.089905e+001  1.662378e+002 
3740625000  -4.085269e+001  1.614080e+002 
3743750000  -4.054647e+001  1.553598e+002 
3746875000  -4.094991e+001  1.485919e+002 
3750000000  -4.098378e+001  1.438801e+002 
3753125000  -4.049715e+001  1.397517e+002 
3756250000  -4.063013e+001  1.372969e+002 
3759375000  -4.053035e+001  1.297039e+002 
3762500000  -3.993127e+001  1.252104e+002 
3765625000  -4.065072e+001  1.211839e+002 
3768750000  -4.040493e+001  1.195966e+002 
3771875000  -3.844737e+001  1.138446e+002 
3775000000  -3.837586e+001  1.008606e+002 
3778125000  -3.890541e+001  9.499181e+001 
3781250000  -3.899734e+001  9.023238e+001 
3784375000  -3.878814e+001  8.474495e+001 
3787500000  -3.849084e+001  7.831930e+001 
3790625000  -3.915211e+001  6.920805e+001 
3793750000  -3.913702e+001  6.726332e+001 
3796875000  -3.823731e+001  6.197431e+001 
3800000000  -3.636200e+001  5.752795e+001 
3803125000  -3.829810e+001  4.389445e+001 
3806250000  -3.892268e+001  4.005863e+001 
3809375000  -3.852118e+001  3.660415e+001 
3812500000  -3.839133e+001  2.698807e+001 
3815625000  -3.975007e+001  1.806440e+001 
3818750000  -4.075877e+001  1.731571e+001 
3821875000  -4.011662e+001  2.884223e+001 
3825000000  -3.834072e+001  2.438323e+001 
3828125000  -3.689148e+001  5.613264e+000 
3831250000  -3.795087e+001  -9.114359e+000 
3834375000  -4.011839e+001  -9.149143e+000 
3837500000  -4.052925e+001  -3.853775e+000 
3840625000  -3.902383e+001  -7.824917e+000 
3843750000  -3.837689e+001  -2.330532e+001 
3846875000  -3.983484e+001  -2.988230e+001 
3850000000  -4.085394e+001  -2.199349e+001 
3853125000  -4.003846e+001  -2.403129e+001 
3856250000  -3.939142e+001  -3.153783e+001 
3859375000  -3.857549e+001  -3.683824e+001 
3862500000  -3.835496e+001  -4.863962e+001 
3865625000  -3.903823e+001  -5.373582e+001 
3868750000  -3.868866e+001  -5.355443e+001 
3871875000  -3.794691e+001  -6.134579e+001 
3875000000  -3.873933e+001  -7.252908e+001 
3878125000  -3.957504e+001  -7.466814e+001 
3881250000  -3.917050e+001  -7.452113e+001 
3884375000  -3.889447e+001  -8.150892e+001 
3887500000  -3.914072e+001  -8.702216e+001 
3890625000  -3.964013e+001  -9.346421e+001 
3893750000  -3.963635e+001  -9.352544e+001 
3896875000  -4.015917e+001  -9.766763e+001 
3900000000  -3.977335e+001  -1.012566e+002 
3903125000  -3.944318e+001  -1.072691e+002 
3906250000  -3.874159e+001  -1.098075e+002 
3909375000  -3.864673e+001  -1.177748e+002 
3912500000  -3.899430e+001  -1.262214e+002 
3915625000  -4.038524e+001  -1.275806e+002 
3918750000  -3.966700e+001  -1.264130e+002 
3921875000  -3.925527e+001  -1.326286e+002 
3925000000  -3.848908e+001  -1.383270e+002 
3928125000  -3.852138e+001  -1.472304e+002 
3931250000  -3.879854e+001  -1.537980e+002 
3934375000  -3.972346e+001  -1.555277e+002 
3937500000  -4.007621e+001  -1.579147e+002 
3940625000  -3.978045e+001  -1.604567e+002 
3943750000  -3.874507e+001  -1.637997e+002 
3946875000  -3.842690e+001  -1.712993e+002 
3950000000  -3.968971e+001  1.787668e+002 
3953125000  -3.986172e+001  -1.794274e+002 
3956250000  -3.882065e+001  -1.783358e+002 
3959375000  -3.796660e+001  1.732247e+002 
3962500000  -3.757431e+001  1.643432e+002 
3965625000  -3.811607e+001  1.557200e+002 
3968750000  -3.871778e+001  1.464301e+002 
3971875000  -3.854524e+001  1.428034e+002 
3975000000  -3.826561e+001  1.384468e+002 
3978125000  -3.847108e+001  1.347479e+002 
3981250000  -3.849364e+001  1.279775e+002 
3984375000  -3.925944e+001  1.198661e+002 
3987500000  -3.985152e+001  1.179882e+002 
3990625000  -3.992403e+001  1.149452e+002 
3993750000  -4.007799e+001  1.099700e+002 
3996875000  -3.980103e+001  1.065311e+002 
4000000000  -4.085761e+001  1.003299e+002 
4003125000  -4.110491e+001  1.038389e+002 
4006250000  -3.942219e+001  1.001037e+002 
4009375000  -3.847634e+001  8.677463e+001 
4012500000  -4.031946e+001  7.800029e+001 
4015625000  -4.150081e+001  7.877348e+001 
4018750000  -4.136498e+001  7.754980e+001 
4021875000  -4.076444e+001  7.623612e+001 
4025000000  -4.058010e+001  7.009325e+001 
4028125000  -4.046316e+001  6.329431e+001 
4031250000  -4.125982e+001  5.756576e+001 
4034375000  -4.158840e+001  5.917891e+001 
4037500000  -4.106658e+001  5.732910e+001 
4040625000  -4.109674e+001  5.439936e+001 
4043750000  -4.119231e+001  5.029871e+001 
4046875000  -4.082028e+001  4.564727e+001 
4050000000  -4.049276e+001  4.068898e+001 
4053125000  -4.130903e+001  4.023085e+001 
4056250000  -4.129719e+001  4.306353e+001 
4059375000  -3.972623e+001  4.161440e+001 
4062500000  -3.874981e+001  3.297461e+001 
4065625000  -3.898293e+001  2.708733e+001 
4068750000  -3.831765e+001  1.924600e+001 
4071875000  -3.784886e+001  9.775903e+000 
4075000000  -3.841979e+001  3.687331e+000 
4078125000  -3.868848e+001  -4.682384e-001 
4081250000  -3.837263e+001  -4.776723e+000 
4084375000  -3.811086e+001  -1.521871e+001 
4087500000  -3.882297e+001  -2.307072e+001 
4090625000  -3.921188e+001  -2.296126e+001 
4093750000  -3.875130e+001  -2.642145e+001 
4096875000  -3.873658e+001  -3.608176e+001 
4100000000  -3.961414e+001  -4.237147e+001 
4103125000  -4.070155e+001  -4.002721e+001 
4106250000  -4.031656e+001  -3.833964e+001 
4109375000  -3.921972e+001  -4.147804e+001 
4112500000  -3.870324e+001  -4.981587e+001 
4115625000  -3.923687e+001  -5.877057e+001 
4118750000  -3.915747e+001  -6.197477e+001 
4121875000  -3.902822e+001  -6.848613e+001 
4125000000  -3.979884e+001  -7.548397e+001 
4128125000  -4.125262e+001  -7.290222e+001 
4131250000  -3.993051e+001  -6.868831e+001 
4134375000  -3.745330e+001  -7.675462e+001 
4137500000  -3.821428e+001  -9.892191e+001 
4140625000  -4.056203e+001  -1.059446e+002 
4143750000  -4.161495e+001  -9.705242e+001 
4146875000  -4.058070e+001  -9.620359e+001 
4150000000  -3.948272e+001  -1.037226e+002 
4153125000  -4.022095e+001  -1.124796e+002 
4156250000  -4.126632e+001  -1.148778e+002 
4159375000  -4.095735e+001  -1.087915e+002 
4162500000  -3.996206e+001  -1.085689e+002 
4165625000  -3.884708e+001  -1.145500e+002 
4168750000  -3.852659e+001  -1.260028e+002 
4171875000  -3.855145e+001  -1.343573e+002 
4175000000  -3.939824e+001  -1.416291e+002 
4178125000  -3.965497e+001  -1.432738e+002 
4181250000  -3.922197e+001  -1.458693e+002 
4184375000  -3.955991e+001  -1.513739e+002 
4187500000  -3.967511e+001  -1.556169e+002 
4190625000  -3.955965e+001  -1.644088e+002 
4193750000  -4.077391e+001  -1.689453e+002 
4196875000  -4.127065e+001  -1.676748e+002 
4200000000  -4.234904e+001  -1.630991e+002 
4203125000  -4.075355e+001  -1.507479e+002 
4206250000  -3.735298e+001  -1.603619e+002 
4209375000  -3.707914e+001  1.757182e+002 
4212500000  -3.975622e+001  1.698396e+002 
4215625000  -4.010473e+001  1.772496e+002 
4218750000  -3.819979e+001  1.775765e+002 
4221875000  -3.648161e+001  1.680262e+002 
4225000000  -3.796041e+001  1.543617e+002 
4228125000  -3.776709e+001  1.561841e+002 
4231250000  -3.642187e+001  1.491968e+002 
4234375000  -3.638963e+001  1.382446e+002 
4237500000  -3.616607e+001  1.341492e+002 
4240625000  -3.622514e+001  1.227083e+002 
4243750000  -3.758017e+001  1.146738e+002 
4246875000  -3.846156e+001  1.137394e+002 
4250000000  -3.837522e+001  1.135582e+002 
4253125000  -3.790386e+001  1.106010e+002 
4256250000  -3.807948e+001  1.062078e+002 
4259375000  -3.775073e+001  1.010774e+002 
4262500000  -3.797155e+001  9.521111e+001 
4265625000  -3.795935e+001  9.332409e+001 
4268750000  -3.662004e+001  8.426539e+001 
4271875000  -3.700808e+001  7.684413e+001 
4275000000  -3.655028e+001  6.844032e+001 
4278125000  -3.769830e+001  5.685211e+001 
4281250000  -3.923527e+001  5.583012e+001 
4284375000  -3.878730e+001  5.270863e+001 
4287500000  -4.029978e+001  5.003191e+001 
4290625000  -4.066032e+001  5.845921e+001 
4293750000  -3.872165e+001  5.870990e+001 
4296875000  -3.773772e+001  4.520012e+001 
4300000000  -3.889353e+001  3.381873e+001 
4303125000  -3.961839e+001  3.826750e+001 
4306250000  -3.850846e+001  3.932158e+001 
4309375000  -3.756274e+001  3.503635e+001 
4312500000  -3.758948e+001  2.328891e+001 
4315625000  -3.799415e+001  1.592112e+001 
4318750000  -3.852628e+001  1.175899e+001 
4321875000  -3.843797e+001  1.171523e+001 
4325000000  -3.786658e+001  1.142611e+001 
4328125000  -3.705753e+001  1.584484e+000 
4331250000  -3.744371e+001  -1.033927e+001 
4334375000  -3.831543e+001  -1.557220e+001 
4337500000  -3.924726e+001  -1.712083e+001 
4340625000  -3.948402e+001  -1.159271e+001 
4343750000  -3.835176e+001  -1.599925e+001 
4346875000  -3.839605e+001  -2.579769e+001 
4350000000  -3.838161e+001  -3.163249e+001 
4353125000  -3.891830e+001  -3.928637e+001 
4356250000  -4.082626e+001  -3.554696e+001 
4359375000  -3.991929e+001  -2.146617e+001 
4362500000  -3.635804e+001  -2.982134e+001 
4365625000  -3.585511e+001  -4.823663e+001 
4368750000  -3.715220e+001  -5.800120e+001 
4371875000  -3.768754e+001  -5.646985e+001 
4375000000  -3.714519e+001  -6.213733e+001 
4378125000  -3.680968e+001  -6.864684e+001 
4381250000  -3.695014e+001  -7.660794e+001 
4384375000  -3.695955e+001  -8.287567e+001 
4387500000  -3.809286e+001  -9.004942e+001 
4390625000  -3.824427e+001  -8.924809e+001 
4393750000  -3.788660e+001  -8.938477e+001 
4396875000  -3.706357e+001  -9.491302e+001 
4400000000  -3.676118e+001  -1.043357e+002 
4403125000  -3.775908e+001  -1.139445e+002 
4406250000  -3.805023e+001  -1.171760e+002 
4409375000  -3.841168e+001  -1.214422e+002 
4412500000  -3.964675e+001  -1.244775e+002 
4415625000  -3.936395e+001  -1.189593e+002 
