!Agilent Technologies,E8363B,MY43030201,A.06.04.32
!Agilent E8363B: A.06.04.32
!Date: Tuesday, November 11, 2014 21:38:14
!Correction: S21(Response(S21)) 
!S1P File: Measurement: S21:
# Hz S  dB   R 50
3000000000  -4.066241e+001  7.030090e+001 
3003125000  -4.217625e+001  6.234455e+001 
3006250000  -4.219429e+001  6.108759e+001 
3009375000  -4.283952e+001  6.628499e+001 
3012500000  -4.154684e+001  6.068007e+001 
3015625000  -4.156834e+001  5.360514e+001 
3018750000  -4.190418e+001  5.610676e+001 
3021875000  -4.010511e+001  5.624123e+001 
3025000000  -3.875407e+001  5.208216e+001 
3028125000  -3.789616e+001  4.122416e+001 
3031250000  -3.695272e+001  2.956933e+001 
3034375000  -3.682984e+001  1.549217e+001 
3037500000  -3.758591e+001  6.035149e+000 
3040625000  -3.879444e+001  6.701431e-001 
3043750000  -3.916205e+001  -7.034239e+000 
3046875000  -3.986961e+001  -1.076645e+001 
3050000000  -4.116622e+001  -1.719095e+001 
3053125000  -4.044807e+001  -1.091204e+001 
3056250000  -4.054529e+001  -8.995949e+000 
3059375000  -3.980191e+001  -1.104881e+001 
3062500000  -3.812283e+001  -1.471965e+001 
3065625000  -3.759597e+001  -2.525240e+001 
3068750000  -3.750851e+001  -3.358463e+001 
3071875000  -3.757360e+001  -3.600184e+001 
3075000000  -3.693436e+001  -4.270491e+001 
3078125000  -3.713887e+001  -4.938343e+001 
3081250000  -3.718489e+001  -5.504190e+001 
3084375000  -3.639845e+001  -5.989836e+001 
3087500000  -3.652281e+001  -6.647867e+001 
3090625000  -3.589924e+001  -7.928839e+001 
3093750000  -3.705667e+001  -8.619398e+001 
3096875000  -3.723838e+001  -9.203487e+001 
3100000000  -3.728337e+001  -9.470670e+001 
3103125000  -3.752755e+001  -9.855537e+001 
3106250000  -3.725953e+001  -1.025723e+002 
3109375000  -3.739475e+001  -1.075247e+002 
3112500000  -3.707520e+001  -1.136659e+002 
3115625000  -3.722015e+001  -1.169078e+002 
3118750000  -3.726968e+001  -1.210668e+002 
3121875000  -3.644343e+001  -1.314977e+002 
3125000000  -3.865414e+001  -1.340526e+002 
3128125000  -3.846495e+001  -1.271385e+002 
3131250000  -3.601919e+001  -1.334996e+002 
3134375000  -3.531840e+001  -1.512426e+002 
3137500000  -3.617163e+001  -1.618880e+002 
3140625000  -3.732105e+001  -1.654129e+002 
3143750000  -3.812762e+001  -1.687867e+002 
3146875000  -3.756405e+001  -1.669209e+002 
3150000000  -3.687437e+001  -1.706295e+002 
3153125000  -3.718953e+001  -1.787508e+002 
3156250000  -3.791331e+001  -1.740945e+002 
3159375000  -3.555501e+001  -1.751505e+002 
3162500000  -3.420391e+001  1.681978e+002 
3165625000  -3.533301e+001  1.554228e+002 
3168750000  -3.537217e+001  1.553152e+002 
3171875000  -3.490039e+001  1.464844e+002 
3175000000  -3.539412e+001  1.387637e+002 
3178125000  -3.499698e+001  1.365117e+002 
3181250000  -3.429085e+001  1.278685e+002 
3184375000  -3.425161e+001  1.169308e+002 
3187500000  -3.538949e+001  1.019684e+002 
3190625000  -3.714820e+001  9.692802e+001 
3193750000  -3.751855e+001  1.022138e+002 
3196875000  -3.719748e+001  1.017056e+002 
3200000000  -3.604993e+001  9.714570e+001 
3203125000  -3.586322e+001  8.908443e+001 
3206250000  -3.611058e+001  8.141132e+001 
3209375000  -3.570269e+001  7.330605e+001 
3212500000  -3.632271e+001  6.702065e+001 
3215625000  -3.611713e+001  6.373859e+001 
3218750000  -3.684814e+001  5.244825e+001 
3221875000  -3.729211e+001  4.582620e+001 
3225000000  -3.702100e+001  4.227040e+001 
3228125000  -3.785189e+001  3.449221e+001 
3231250000  -3.808084e+001  3.310729e+001 
3234375000  -3.786018e+001  3.045668e+001 
3237500000  -3.803719e+001  2.580373e+001 
3240625000  -3.750450e+001  2.092975e+001 
3243750000  -3.760407e+001  9.891287e+000 
3246875000  -3.820138e+001  3.266179e+000 
3250000000  -3.872387e+001  -8.594327e-001 
3253125000  -3.921806e+001  -4.122936e+000 
3256250000  -3.850690e+001  -1.300384e+001 
3259375000  -3.922109e+001  -2.362440e+001 
3262500000  -4.071143e+001  -2.652085e+001 
3265625000  -4.110756e+001  -2.303846e+001 
3268750000  -4.121623e+001  -2.346502e+001 
3271875000  -4.068486e+001  -2.754682e+001 
3275000000  -4.020085e+001  -3.457830e+001 
3278125000  -4.092902e+001  -4.004316e+001 
3281250000  -4.107100e+001  -4.143318e+001 
3284375000  -4.052538e+001  -4.761333e+001 
3287500000  -4.109792e+001  -5.110271e+001 
3290625000  -4.114902e+001  -5.934399e+001 
3293750000  -4.103030e+001  -6.459761e+001 
3296875000  -4.256723e+001  -6.691254e+001 
3300000000  -4.174818e+001  -6.751191e+001 
3303125000  -4.080027e+001  -7.286001e+001 
3306250000  -4.072005e+001  -7.958614e+001 
3309375000  -4.030457e+001  -8.698722e+001 
3312500000  -4.095441e+001  -1.005448e+002 
3315625000  -4.196730e+001  -1.051913e+002 
3318750000  -4.353484e+001  -1.090817e+002 
3321875000  -4.499092e+001  -1.049157e+002 
3325000000  -4.472158e+001  -9.798963e+001 
3328125000  -4.360630e+001  -1.009572e+002 
3331250000  -4.201616e+001  -9.796326e+001 
3334375000  -3.966091e+001  -1.139477e+002 
3337500000  -4.029951e+001  -1.347798e+002 
3340625000  -4.238298e+001  -1.438984e+002 
3343750000  -4.408348e+001  -1.414558e+002 
3346875000  -4.336761e+001  -1.421714e+002 
3350000000  -4.284747e+001  -1.449205e+002 
3353125000  -4.290094e+001  -1.534868e+002 
3356250000  -4.252516e+001  -1.626009e+002 
3359375000  -4.327567e+001  -1.738305e+002 
3362500000  -4.403540e+001  -1.787520e+002 
3365625000  -4.463398e+001  1.784851e+002 
3368750000  -4.575363e+001  1.719366e+002 
3371875000  -4.567493e+001  1.693108e+002 
3375000000  -4.764875e+001  1.669061e+002 
3378125000  -4.802335e+001  1.680734e+002 
3381250000  -4.942450e+001  1.766171e+002 
3384375000  -4.607991e+001  -1.678927e+002 
3387500000  -4.392513e+001  1.666402e+002 
3390625000  -4.580971e+001  1.471591e+002 
3393750000  -4.693210e+001  1.504666e+002 
3396875000  -4.608611e+001  1.489809e+002 
3400000000  -4.556618e+001  1.348322e+002 
3403125000  -4.686784e+001  1.322781e+002 
3406250000  -4.815903e+001  1.294703e+002 
3409375000  -4.783405e+001  1.210544e+002 
3412500000  -4.931288e+001  1.164317e+002 
3415625000  -5.038692e+001  1.128845e+002 
3418750000  -4.995989e+001  1.147431e+002 
3421875000  -5.126570e+001  1.189153e+002 
3425000000  -4.965666e+001  1.185798e+002 
3428125000  -4.937244e+001  1.120910e+002 
3431250000  -4.993820e+001  1.068990e+002 
3434375000  -5.049920e+001  1.007186e+002 
3437500000  -5.158439e+001  9.981903e+001 
3440625000  -5.240909e+001  9.714976e+001 
3443750000  -5.028200e+001  1.058449e+002 
3446875000  -5.038392e+001  9.574728e+001 
3450000000  -5.080207e+001  8.991472e+001 
3453125000  -5.075195e+001  7.744823e+001 
3456250000  -5.187949e+001  8.186951e+001 
3459375000  -5.268288e+001  8.326408e+001 
3462500000  -5.254654e+001  8.149561e+001 
3465625000  -5.150638e+001  7.678312e+001 
3468750000  -5.226380e+001  7.233300e+001 
3471875000  -5.239441e+001  7.297817e+001 
3475000000  -5.061019e+001  6.703339e+001 
3478125000  -5.103847e+001  5.684557e+001 
3481250000  -5.263339e+001  5.882823e+001 
3484375000  -5.268150e+001  6.654649e+001 
3487500000  -5.115801e+001  5.310406e+001 
3490625000  -4.995967e+001  5.079792e+001 
3493750000  -5.136736e+001  4.499636e+001 
3496875000  -5.095800e+001  4.393671e+001 
3500000000  -5.200531e+001  4.795784e+001 
3503125000  -5.046778e+001  4.582265e+001 
3506250000  -5.011722e+001  3.387455e+001 
3509375000  -4.998532e+001  2.268186e+001 
3512500000  -5.066260e+001  9.577639e+000 
3515625000  -5.121673e+001  2.713945e+000 
3518750000  -5.338052e+001  2.511762e+000 
3521875000  -5.226116e+001  -6.121404e+000 
3525000000  -5.307381e+001  -7.138860e-001 
3528125000  -5.172808e+001  5.274970e+000 
3531250000  -5.136927e+001  -1.102239e+001 
3534375000  -5.262847e+001  -1.427908e+001 
3537500000  -5.374316e+001  -2.957434e+001 
3540625000  -5.518477e+001  -2.840365e+001 
3543750000  -5.439200e+001  -2.930765e+001 
3546875000  -5.639412e+001  -1.478799e+001 
3550000000  -5.442109e+001  -1.400657e+001 
3553125000  -5.367626e+001  -3.721289e+001 
3556250000  -5.539900e+001  -3.413453e+001 
3559375000  -5.490447e+001  -4.169253e+001 
3562500000  -5.641805e+001  -4.183146e+001 
3565625000  -5.652180e+001  -5.148156e+001 
3568750000  -5.620838e+001  -4.311932e+001 
3571875000  -5.743811e+001  -5.657520e+001 
3575000000  -5.779466e+001  -4.560366e+001 
3578125000  -5.839217e+001  -4.170378e+001 
3581250000  -5.891056e+001  -5.552836e+001 
3584375000  -5.811111e+001  -4.923158e+001 
3587500000  -5.735034e+001  -4.935783e+001 
3590625000  -5.801208e+001  -5.947039e+001 
3593750000  -5.830526e+001  -6.099627e+001 
3596875000  -5.935186e+001  -4.020712e+001 
3600000000  -5.724762e+001  -4.494661e+001 
3603125000  -5.696686e+001  -5.844404e+001 
3606250000  -5.835358e+001  -5.216964e+001 
3609375000  -5.852882e+001  -5.922427e+001 
3612500000  -5.774827e+001  -5.545021e+001 
3615625000  -5.880713e+001  -5.088325e+001 
3618750000  -5.866018e+001  -4.938634e+001 
3621875000  -5.792197e+001  -5.300525e+001 
3625000000  -5.783814e+001  -4.750537e+001 
3628125000  -5.611079e+001  -4.490102e+001 
3631250000  -5.715696e+001  -5.228272e+001 
3634375000  -5.603260e+001  -5.363536e+001 
3637500000  -5.713131e+001  -4.104483e+001 
3640625000  -5.467993e+001  -4.450817e+001 
3643750000  -5.281570e+001  -5.827322e+001 
3646875000  -5.295823e+001  -5.913418e+001 
3650000000  -5.307649e+001  -6.748119e+001 
3653125000  -5.255363e+001  -6.354869e+001 
3656250000  -5.180876e+001  -6.644485e+001 
3659375000  -5.185846e+001  -6.753776e+001 
3662500000  -5.101228e+001  -7.577589e+001 
3665625000  -4.983899e+001  -7.664157e+001 
3668750000  -4.774603e+001  -7.633904e+001 
3671875000  -4.728251e+001  -9.209725e+001 
3675000000  -4.727282e+001  -9.678477e+001 
3678125000  -4.729294e+001  -9.749409e+001 
3681250000  -4.594397e+001  -1.070263e+002 
3684375000  -4.646496e+001  -1.138816e+002 
3687500000  -4.635442e+001  -1.161839e+002 
3690625000  -4.665476e+001  -1.216567e+002 
3693750000  -4.693967e+001  -1.228829e+002 
3696875000  -4.593339e+001  -1.222681e+002 
3700000000  -4.509476e+001  -1.296512e+002 
3703125000  -4.570400e+001  -1.364195e+002 
3706250000  -4.574023e+001  -1.364092e+002 
3709375000  -4.524983e+001  -1.341265e+002 
3712500000  -4.349369e+001  -1.413752e+002 
3715625000  -4.186529e+001  -1.519212e+002 
3718750000  -4.209698e+001  -1.587431e+002 
3721875000  -4.137334e+001  -1.666237e+002 
3725000000  -4.173624e+001  -1.740402e+002 
3728125000  -4.156203e+001  -1.787432e+002 
3731250000  -4.064273e+001  1.776385e+002 
3734375000  -4.017826e+001  1.702175e+002 
3737500000  -4.077698e+001  1.585418e+002 
3740625000  -4.089770e+001  1.541885e+002 
3743750000  -4.059372e+001  1.488311e+002 
3746875000  -4.079067e+001  1.406329e+002 
3750000000  -4.107509e+001  1.363757e+002 
3753125000  -4.065864e+001  1.334467e+002 
3756250000  -4.078468e+001  1.302944e+002 
3759375000  -4.026503e+001  1.238121e+002 
3762500000  -4.021222e+001  1.171476e+002 
3765625000  -4.065128e+001  1.143209e+002 
3768750000  -3.991318e+001  1.135647e+002 
3771875000  -3.844516e+001  1.064314e+002 
3775000000  -3.847879e+001  9.535379e+001 
3778125000  -3.914512e+001  8.913618e+001 
3781250000  -3.903657e+001  8.561375e+001 
3784375000  -3.869109e+001  7.923879e+001 
3787500000  -3.861917e+001  7.218185e+001 
3790625000  -3.913327e+001  6.381601e+001 
3793750000  -3.913573e+001  6.134132e+001 
3796875000  -3.807764e+001  5.624440e+001 
3800000000  -3.614018e+001  5.197250e+001 
3803125000  -3.817468e+001  3.773512e+001 
3806250000  -3.876698e+001  3.465685e+001 
3809375000  -3.830603e+001  2.943909e+001 
3812500000  -3.850849e+001  2.009764e+001 
3815625000  -3.950406e+001  1.069929e+001 
3818750000  -4.080454e+001  1.332171e+001 
3821875000  -3.996553e+001  2.325196e+001 
3825000000  -3.830556e+001  1.786472e+001 
3828125000  -3.696560e+001  5.983413e-002 
3831250000  -3.799419e+001  -1.600299e+001 
3834375000  -4.066015e+001  -1.427753e+001 
3837500000  -4.052918e+001  -1.131542e+001 
3840625000  -3.900495e+001  -1.569602e+001 
3843750000  -3.835670e+001  -2.990865e+001 
3846875000  -3.991784e+001  -3.525701e+001 
3850000000  -4.042315e+001  -2.999641e+001 
3853125000  -3.975886e+001  -2.824611e+001 
3856250000  -3.939591e+001  -3.765731e+001 
3859375000  -3.849507e+001  -4.429453e+001 
3862500000  -3.843538e+001  -5.528543e+001 
3865625000  -3.891860e+001  -6.051608e+001 
3868750000  -3.858223e+001  -6.097120e+001 
3871875000  -3.787257e+001  -6.795499e+001 
3875000000  -3.859228e+001  -7.816177e+001 
3878125000  -3.963202e+001  -8.068371e+001 
3881250000  -3.926797e+001  -8.109483e+001 
3884375000  -3.873384e+001  -8.773273e+001 
3887500000  -3.905163e+001  -9.413185e+001 
3890625000  -3.945185e+001  -9.913467e+001 
3893750000  -3.956142e+001  -1.006720e+002 
3896875000  -4.007890e+001  -1.032973e+002 
3900000000  -3.978377e+001  -1.083921e+002 
3903125000  -3.945628e+001  -1.123004e+002 
3906250000  -3.899089e+001  -1.145147e+002 
3909375000  -3.817205e+001  -1.253750e+002 
3912500000  -3.905070e+001  -1.336625e+002 
3915625000  -4.042500e+001  -1.330042e+002 
3918750000  -3.989295e+001  -1.329093e+002 
3921875000  -3.931173e+001  -1.385549e+002 
3925000000  -3.854504e+001  -1.443245e+002 
3928125000  -3.836663e+001  -1.537299e+002 
3931250000  -3.915946e+001  -1.603944e+002 
3934375000  -3.965404e+001  -1.616257e+002 
3937500000  -3.976577e+001  -1.645254e+002 
3940625000  -4.011908e+001  -1.667485e+002 
3943750000  -3.874839e+001  -1.687214e+002 
3946875000  -3.829329e+001  -1.783515e+002 
3950000000  -3.931705e+001  1.714073e+002 
3953125000  -3.993396e+001  1.723525e+002 
3956250000  -3.850448e+001  1.743562e+002 
3959375000  -3.770306e+001  1.679709e+002 
3962500000  -3.754859e+001  1.587648e+002 
3965625000  -3.783985e+001  1.504104e+002 
3968750000  -3.858923e+001  1.419629e+002 
3971875000  -3.858410e+001  1.370573e+002 
3975000000  -3.839888e+001  1.319591e+002 
3978125000  -3.833775e+001  1.271735e+002 
3981250000  -3.846994e+001  1.231494e+002 
3984375000  -3.874672e+001  1.145968e+002 
3987500000  -3.983578e+001  1.105159e+002 
3990625000  -4.000115e+001  1.084816e+002 
3993750000  -3.991901e+001  1.037653e+002 
3996875000  -3.984046e+001  9.957500e+001 
4000000000  -4.054984e+001  9.535458e+001 
4003125000  -4.098061e+001  9.566868e+001 
4006250000  -3.919732e+001  9.348587e+001 
4009375000  -3.845699e+001  7.957189e+001 
4012500000  -4.023201e+001  7.196145e+001 
4015625000  -4.161263e+001  7.115521e+001 
4018750000  -4.099760e+001  7.253011e+001 
4021875000  -4.057986e+001  6.741237e+001 
4025000000  -4.024375e+001  6.350941e+001 
4028125000  -4.056237e+001  5.513500e+001 
4031250000  -4.127406e+001  5.164277e+001 
4034375000  -4.140735e+001  5.254064e+001 
4037500000  -4.084169e+001  5.210094e+001 
4040625000  -4.093432e+001  4.666361e+001 
4043750000  -4.095617e+001  4.333210e+001 
4046875000  -4.087575e+001  3.958134e+001 
4050000000  -4.062674e+001  3.364951e+001 
4053125000  -4.138441e+001  3.396197e+001 
4056250000  -4.130724e+001  3.804459e+001 
4059375000  -3.931576e+001  3.474368e+001 
4062500000  -3.890470e+001  2.499015e+001 
4065625000  -3.871535e+001  1.971522e+001 
4068750000  -3.814598e+001  1.365046e+001 
4071875000  -3.757592e+001  3.114311e+000 
4075000000  -3.836850e+001  -3.369517e+000 
4078125000  -3.865137e+001  -7.409606e+000 
4081250000  -3.813873e+001  -1.142047e+001 
4084375000  -3.809248e+001  -2.124143e+001 
4087500000  -3.881705e+001  -2.798320e+001 
4090625000  -3.896926e+001  -2.808155e+001 
4093750000  -3.861806e+001  -3.243412e+001 
4096875000  -3.829837e+001  -4.252333e+001 
4100000000  -3.973857e+001  -4.998648e+001 
4103125000  -4.069020e+001  -4.597688e+001 
4106250000  -4.000821e+001  -4.348467e+001 
4109375000  -3.894173e+001  -4.856675e+001 
4112500000  -3.869329e+001  -5.710468e+001 
4115625000  -3.918150e+001  -6.478421e+001 
4118750000  -3.897802e+001  -6.828265e+001 
4121875000  -3.892089e+001  -7.636724e+001 
4125000000  -4.000875e+001  -8.467796e+001 
4128125000  -4.075290e+001  -7.736234e+001 
4131250000  -3.954094e+001  -7.428528e+001 
4134375000  -3.760050e+001  -8.436884e+001 
4137500000  -3.809761e+001  -1.054034e+002 
4140625000  -4.036473e+001  -1.108040e+002 
4143750000  -4.159016e+001  -1.058896e+002 
4146875000  -4.062533e+001  -1.009673e+002 
4150000000  -3.965189e+001  -1.114820e+002 
4153125000  -4.017142e+001  -1.203880e+002 
4156250000  -4.133638e+001  -1.227756e+002 
4159375000  -4.081412e+001  -1.179585e+002 
4162500000  -3.986295e+001  -1.155332e+002 
4165625000  -3.899767e+001  -1.221577e+002 
4168750000  -3.819971e+001  -1.311763e+002 
4171875000  -3.827028e+001  -1.429085e+002 
4175000000  -3.923913e+001  -1.473421e+002 
4178125000  -3.941454e+001  -1.484749e+002 
4181250000  -3.927054e+001  -1.525947e+002 
4184375000  -3.930081e+001  -1.569673e+002 
4187500000  -3.948463e+001  -1.635859e+002 
4190625000  -3.924324e+001  -1.715961e+002 
4193750000  -4.064396e+001  -1.737662e+002 
4196875000  -4.137958e+001  -1.743233e+002 
4200000000  -4.260719e+001  -1.704773e+002 
4203125000  -4.103612e+001  -1.569379e+002 
4206250000  -3.753236e+001  -1.654329e+002 
4209375000  -3.702711e+001  1.685270e+002 
4212500000  -3.962441e+001  1.630533e+002 
4215625000  -4.016584e+001  1.697704e+002 
4218750000  -3.807307e+001  1.708984e+002 
4221875000  -3.658653e+001  1.619536e+002 
4225000000  -3.775548e+001  1.473161e+002 
4228125000  -3.768656e+001  1.501187e+002 
4231250000  -3.610529e+001  1.425627e+002 
4234375000  -3.622300e+001  1.308252e+002 
4237500000  -3.628143e+001  1.272087e+002 
4240625000  -3.626239e+001  1.154628e+002 
4243750000  -3.748501e+001  1.073860e+002 
4246875000  -3.820260e+001  1.073284e+002 
4250000000  -3.822800e+001  1.059795e+002 
4253125000  -3.822150e+001  1.045142e+002 
4256250000  -3.775235e+001  9.817820e+001 
4259375000  -3.757333e+001  9.261549e+001 
4262500000  -3.798275e+001  8.793377e+001 
4265625000  -3.779481e+001  8.639742e+001 
4268750000  -3.676214e+001  7.954053e+001 
4271875000  -3.664691e+001  6.937964e+001 
4275000000  -3.637985e+001  6.211240e+001 
4278125000  -3.784387e+001  4.849892e+001 
4281250000  -3.903177e+001  4.686395e+001 
4284375000  -3.885679e+001  4.735092e+001 
4287500000  -4.044619e+001  4.357471e+001 
4290625000  -4.053490e+001  5.074733e+001 
4293750000  -3.861746e+001  4.995776e+001 
4296875000  -3.761145e+001  3.828577e+001 
4300000000  -3.884488e+001  2.786828e+001 
4303125000  -3.939370e+001  3.192797e+001 
4306250000  -3.835602e+001  3.310305e+001 
4309375000  -3.748972e+001  2.747667e+001 
4312500000  -3.768996e+001  1.678492e+001 
4315625000  -3.758738e+001  9.128406e+000 
4318750000  -3.839876e+001  3.526967e+000 
4321875000  -3.845116e+001  5.013351e+000 
4325000000  -3.770037e+001  5.200408e+000 
4328125000  -3.691982e+001  -6.253483e+000 
4331250000  -3.737963e+001  -1.809118e+001 
4334375000  -3.819748e+001  -2.382635e+001 
4337500000  -3.943359e+001  -2.274511e+001 
4340625000  -3.953319e+001  -1.876700e+001 
4343750000  -3.835603e+001  -2.285891e+001 
4346875000  -3.827826e+001  -3.181916e+001 
4350000000  -3.827799e+001  -3.813168e+001 
4353125000  -3.878833e+001  -4.563270e+001 
4356250000  -4.089196e+001  -4.518618e+001 
4359375000  -3.965713e+001  -2.719168e+001 
4362500000  -3.613129e+001  -3.754748e+001 
4365625000  -3.569318e+001  -5.323259e+001 
4368750000  -3.696335e+001  -6.744456e+001 
4371875000  -3.778803e+001  -6.516312e+001 
4375000000  -3.698222e+001  -6.902424e+001 
4378125000  -3.665289e+001  -7.590060e+001 
4381250000  -3.673683e+001  -8.541833e+001 
4384375000  -3.701062e+001  -9.178951e+001 
4387500000  -3.802265e+001  -9.706815e+001 
4390625000  -3.834613e+001  -9.571954e+001 
4393750000  -3.778880e+001  -9.736189e+001 
4396875000  -3.701483e+001  -1.025626e+002 
4400000000  -3.661851e+001  -1.112797e+002 
4403125000  -3.760646e+001  -1.214918e+002 
4406250000  -3.799215e+001  -1.253745e+002 
4409375000  -3.865546e+001  -1.304734e+002 
4412500000  -3.971829e+001  -1.296955e+002 
4415625000  -3.902048e+001  -1.267609e+002 
