!Agilent Technologies,E8363B,MY43030201,A.06.04.32
!Agilent E8363B: A.06.04.32
!Date: Tuesday, November 11, 2014 21:30:46
!Correction: S21(Response(S21)) 
!S1P File: Measurement: S21:
# Hz S  dB   R 50
3000000000  -4.056828e+001  8.290833e+001 
3003125000  -4.220581e+001  7.556602e+001 
3006250000  -4.224107e+001  7.431589e+001 
3009375000  -4.279819e+001  7.799892e+001 
3012500000  -4.141247e+001  7.477652e+001 
3015625000  -4.130672e+001  6.642619e+001 
3018750000  -4.183636e+001  6.826186e+001 
3021875000  -4.028170e+001  6.890806e+001 
3025000000  -3.890380e+001  6.550335e+001 
3028125000  -3.808177e+001  5.482016e+001 
3031250000  -3.690136e+001  4.292301e+001 
3034375000  -3.679513e+001  2.892769e+001 
3037500000  -3.751974e+001  1.866966e+001 
3040625000  -3.878955e+001  1.305691e+001 
3043750000  -3.932096e+001  7.177150e+000 
3046875000  -3.979969e+001  4.094693e-001 
3050000000  -4.087086e+001  -3.132495e+000 
3053125000  -4.058348e+001  1.499784e+000 
3056250000  -4.035055e+001  3.019601e+000 
3059375000  -3.992069e+001  1.736253e+000 
3062500000  -3.833384e+001  -3.585729e+000 
3065625000  -3.792765e+001  -1.348446e+001 
3068750000  -3.756861e+001  -2.072351e+001 
3071875000  -3.763504e+001  -2.311536e+001 
3075000000  -3.711792e+001  -2.932925e+001 
3078125000  -3.717336e+001  -3.574236e+001 
3081250000  -3.727239e+001  -4.188505e+001 
3084375000  -3.626428e+001  -4.616284e+001 
3087500000  -3.639267e+001  -5.344142e+001 
3090625000  -3.597054e+001  -6.564434e+001 
3093750000  -3.698083e+001  -7.307505e+001 
3096875000  -3.741287e+001  -7.824033e+001 
3100000000  -3.722850e+001  -8.193452e+001 
3103125000  -3.749451e+001  -8.579109e+001 
3106250000  -3.720367e+001  -9.010738e+001 
3109375000  -3.723915e+001  -9.451883e+001 
3112500000  -3.715284e+001  -9.919621e+001 
3115625000  -3.716751e+001  -1.044709e+002 
3118750000  -3.717080e+001  -1.075721e+002 
3121875000  -3.644098e+001  -1.182538e+002 
3125000000  -3.835320e+001  -1.218699e+002 
3128125000  -3.861592e+001  -1.134126e+002 
3131250000  -3.604396e+001  -1.198596e+002 
3134375000  -3.541262e+001  -1.372200e+002 
3137500000  -3.605785e+001  -1.500756e+002 
3140625000  -3.744438e+001  -1.532638e+002 
3143750000  -3.815327e+001  -1.551182e+002 
3146875000  -3.772688e+001  -1.525815e+002 
3150000000  -3.693936e+001  -1.569427e+002 
3153125000  -3.729438e+001  -1.650881e+002 
3156250000  -3.798471e+001  -1.610906e+002 
3159375000  -3.572776e+001  -1.621751e+002 
3162500000  -3.418216e+001  -1.778324e+002 
3165625000  -3.539812e+001  1.702648e+002 
3168750000  -3.541074e+001  1.682483e+002 
3171875000  -3.493362e+001  1.610788e+002 
3175000000  -3.539831e+001  1.517339e+002 
3178125000  -3.511324e+001  1.503129e+002 
3181250000  -3.439913e+001  1.420041e+002 
3184375000  -3.418391e+001  1.307686e+002 
3187500000  -3.560712e+001  1.156732e+002 
3190625000  -3.723974e+001  1.101101e+002 
3193750000  -3.754435e+001  1.149562e+002 
3196875000  -3.737400e+001  1.150761e+002 
3200000000  -3.620234e+001  1.100575e+002 
3203125000  -3.591884e+001  1.020711e+002 
3206250000  -3.616144e+001  9.534718e+001 
3209375000  -3.584852e+001  8.680427e+001 
3212500000  -3.623573e+001  8.003776e+001 
3215625000  -3.610662e+001  7.797987e+001 
3218750000  -3.683344e+001  6.686873e+001 
3221875000  -3.731121e+001  6.016071e+001 
3225000000  -3.698948e+001  5.550526e+001 
3228125000  -3.786443e+001  4.834103e+001 
3231250000  -3.825282e+001  4.673988e+001 
3234375000  -3.798718e+001  4.365730e+001 
3237500000  -3.808379e+001  3.985480e+001 
3240625000  -3.758846e+001  3.400295e+001 
3243750000  -3.768012e+001  2.430247e+001 
3246875000  -3.826632e+001  1.636554e+001 
3250000000  -3.871969e+001  1.374792e+001 
3253125000  -3.898523e+001  9.900703e+000 
3256250000  -3.855703e+001  5.109174e-001 
3259375000  -3.913655e+001  -9.022486e+000 
3262500000  -4.060063e+001  -1.136508e+001 
3265625000  -4.125500e+001  -9.535012e+000 
3268750000  -4.132855e+001  -8.065305e+000 
3271875000  -4.065549e+001  -1.212313e+001 
3275000000  -4.008382e+001  -2.055598e+001 
3278125000  -4.097361e+001  -2.476657e+001 
3281250000  -4.104664e+001  -2.598536e+001 
3284375000  -4.054187e+001  -3.299239e+001 
3287500000  -4.100663e+001  -3.578849e+001 
3290625000  -4.122912e+001  -4.526750e+001 
3293750000  -4.113160e+001  -5.160803e+001 
3296875000  -4.244524e+001  -5.213000e+001 
3300000000  -4.187944e+001  -5.100727e+001 
3303125000  -4.102715e+001  -5.850977e+001 
3306250000  -4.070105e+001  -6.617824e+001 
3309375000  -4.056973e+001  -7.366714e+001 
3312500000  -4.096289e+001  -8.502106e+001 
3315625000  -4.235865e+001  -9.178848e+001 
3318750000  -4.331889e+001  -9.617939e+001 
3321875000  -4.458185e+001  -9.195549e+001 
3325000000  -4.506689e+001  -8.493329e+001 
3328125000  -4.388472e+001  -8.599326e+001 
3331250000  -4.217297e+001  -8.180898e+001 
3334375000  -3.981952e+001  -9.782145e+001 
3337500000  -4.034838e+001  -1.193467e+002 
3340625000  -4.194130e+001  -1.291320e+002 
3343750000  -4.384397e+001  -1.298494e+002 
3346875000  -4.328153e+001  -1.273904e+002 
3350000000  -4.308815e+001  -1.317795e+002 
3353125000  -4.289403e+001  -1.387971e+002 
3356250000  -4.260844e+001  -1.471965e+002 
3359375000  -4.338830e+001  -1.575961e+002 
3362500000  -4.450401e+001  -1.638237e+002 
3365625000  -4.454484e+001  -1.670911e+002 
3368750000  -4.515831e+001  -1.711151e+002 
3371875000  -4.552607e+001  -1.770959e+002 
3375000000  -4.787715e+001  -1.788409e+002 
3378125000  -4.801974e+001  1.788945e+002 
3381250000  -4.908588e+001  -1.675821e+002 
3384375000  -4.609098e+001  -1.553986e+002 
3387500000  -4.347268e+001  -1.773366e+002 
3390625000  -4.564746e+001  1.650470e+002 
3393750000  -4.695909e+001  1.647173e+002 
3396875000  -4.610789e+001  1.604977e+002 
3400000000  -4.585240e+001  1.530789e+002 
3403125000  -4.653074e+001  1.463194e+002 
3406250000  -4.736940e+001  1.431492e+002 
3409375000  -4.758575e+001  1.360959e+002 
3412500000  -4.897649e+001  1.372500e+002 
3415625000  -4.957913e+001  1.278032e+002 
3418750000  -5.015279e+001  1.334667e+002 
3421875000  -5.055532e+001  1.331654e+002 
3425000000  -5.001133e+001  1.278807e+002 
3428125000  -4.942750e+001  1.258933e+002 
3431250000  -4.965528e+001  1.190192e+002 
3434375000  -5.039319e+001  1.143982e+002 
3437500000  -5.115623e+001  1.157886e+002 
3440625000  -5.196353e+001  1.163350e+002 
3443750000  -5.050954e+001  1.164137e+002 
3446875000  -5.045456e+001  1.105288e+002 
3450000000  -4.983101e+001  1.055779e+002 
3453125000  -5.026945e+001  9.510443e+001 
3456250000  -5.195366e+001  9.461936e+001 
3459375000  -5.265060e+001  9.062064e+001 
3462500000  -5.120863e+001  9.606670e+001 
3465625000  -5.096418e+001  9.217978e+001 
3468750000  -5.108001e+001  9.445079e+001 
3471875000  -5.056120e+001  9.003704e+001 
3475000000  -5.047227e+001  8.340089e+001 
3478125000  -5.121452e+001  7.432751e+001 
3481250000  -5.226509e+001  7.185801e+001 
3484375000  -5.218769e+001  7.371051e+001 
3487500000  -5.064405e+001  7.310452e+001 
3490625000  -5.099042e+001  6.855623e+001 
3493750000  -5.111744e+001  6.051688e+001 
3496875000  -5.068550e+001  5.716351e+001 
3500000000  -5.162361e+001  5.805185e+001 
3503125000  -5.088273e+001  5.404821e+001 
3506250000  -4.962379e+001  4.548856e+001 
3509375000  -4.899773e+001  3.635108e+001 
3512500000  -4.967694e+001  2.606074e+001 
3515625000  -5.067062e+001  1.572274e+001 
3518750000  -5.122721e+001  2.323596e+001 
3521875000  -5.170562e+001  1.509418e+001 
3525000000  -5.275072e+001  4.232625e+000 
3528125000  -5.206627e+001  1.780023e+001 
3531250000  -5.099667e+001  1.193108e+001 
3534375000  -5.226007e+001  -2.657137e+000 
3537500000  -5.299237e+001  -1.505010e+001 
3540625000  -5.378204e+001  -1.150163e+001 
3543750000  -5.518837e+001  -1.089314e+001 
3546875000  -5.479909e+001  -2.546910e+000 
3550000000  -5.402740e+001  -9.481937e+000 
3553125000  -5.282275e+001  -2.303545e+001 
3556250000  -5.473419e+001  -2.921675e+001 
3559375000  -5.517600e+001  -2.302184e+001 
3562500000  -5.605001e+001  -4.256219e+001 
3565625000  -5.569238e+001  -2.794115e+001 
3568750000  -5.472878e+001  -3.105574e+001 
3571875000  -5.773967e+001  -3.141200e+001 
3575000000  -5.815182e+001  -3.045792e+001 
3578125000  -5.861353e+001  -4.138982e+001 
3581250000  -5.799613e+001  -2.800470e+001 
3584375000  -5.640282e+001  -2.712666e+001 
3587500000  -5.776492e+001  -2.797288e+001 
3590625000  -5.761229e+001  -5.582180e+001 
3593750000  -5.983442e+001  -4.797194e+001 
3596875000  -5.830205e+001  -4.503477e+001 
3600000000  -5.754680e+001  -3.636074e+001 
3603125000  -5.841233e+001  -5.306626e+001 
3606250000  -5.727744e+001  -5.591126e+001 
3609375000  -5.863926e+001  -3.380186e+001 
3612500000  -5.892100e+001  -5.757689e+001 
3615625000  -5.782142e+001  -5.031639e+001 
3618750000  -5.874190e+001  -3.888649e+001 
3621875000  -5.815865e+001  -4.685416e+001 
3625000000  -5.689567e+001  -3.389178e+001 
3628125000  -5.713929e+001  -2.852304e+001 
3631250000  -5.660851e+001  -5.009066e+001 
3634375000  -5.803993e+001  -3.562801e+001 
3637500000  -5.650257e+001  -4.510498e+001 
3640625000  -5.382972e+001  -2.902431e+001 
3643750000  -5.493282e+001  -3.160919e+001 
3646875000  -5.348420e+001  -5.180790e+001 
3650000000  -5.352292e+001  -4.593010e+001 
3653125000  -5.346624e+001  -5.293347e+001 
3656250000  -5.244537e+001  -5.009225e+001 
3659375000  -5.228210e+001  -5.515996e+001 
3662500000  -5.168957e+001  -6.213632e+001 
3665625000  -5.052804e+001  -6.335597e+001 
3668750000  -4.844673e+001  -6.198647e+001 
3671875000  -4.754968e+001  -7.178632e+001 
3675000000  -4.749791e+001  -8.031147e+001 
3678125000  -4.780291e+001  -8.553962e+001 
3681250000  -4.716418e+001  -8.990715e+001 
3684375000  -4.710063e+001  -9.495052e+001 
3687500000  -4.697168e+001  -9.909406e+001 
3690625000  -4.656027e+001  -1.054484e+002 
3693750000  -4.709485e+001  -1.060451e+002 
3696875000  -4.655893e+001  -1.099081e+002 
3700000000  -4.550301e+001  -1.152598e+002 
3703125000  -4.551575e+001  -1.199457e+002 
3706250000  -4.586351e+001  -1.227862e+002 
3709375000  -4.487436e+001  -1.194010e+002 
3712500000  -4.340248e+001  -1.255900e+002 
3715625000  -4.184092e+001  -1.351301e+002 
3718750000  -4.182883e+001  -1.425926e+002 
3721875000  -4.158289e+001  -1.497883e+002 
3725000000  -4.152311e+001  -1.584367e+002 
3728125000  -4.143993e+001  -1.618808e+002 
3731250000  -4.072970e+001  -1.678284e+002 
3734375000  -4.025723e+001  -1.752203e+002 
3737500000  -4.111185e+001  1.769397e+002 
3740625000  -4.090129e+001  1.709683e+002 
3743750000  -4.051099e+001  1.635085e+002 
3746875000  -4.081072e+001  1.583877e+002 
3750000000  -4.110007e+001  1.532066e+002 
3753125000  -4.057080e+001  1.498389e+002 
3756250000  -4.068105e+001  1.459489e+002 
3759375000  -4.055108e+001  1.401028e+002 
3762500000  -4.022099e+001  1.338358e+002 
3765625000  -4.054188e+001  1.295741e+002 
3768750000  -4.027474e+001  1.296107e+002 
3771875000  -3.849606e+001  1.211798e+002 
3775000000  -3.867661e+001  1.106988e+002 
3778125000  -3.914828e+001  1.040829e+002 
3781250000  -3.899777e+001  1.000136e+002 
3784375000  -3.881076e+001  9.440129e+001 
3787500000  -3.849607e+001  8.873938e+001 
3790625000  -3.896439e+001  7.991464e+001 
3793750000  -3.923977e+001  7.562827e+001 
3796875000  -3.830328e+001  7.249541e+001 
3800000000  -3.642746e+001  6.804333e+001 
3803125000  -3.809717e+001  5.464156e+001 
3806250000  -3.898177e+001  4.985300e+001 
3809375000  -3.855695e+001  4.637305e+001 
3812500000  -3.839053e+001  3.677980e+001 
3815625000  -3.966020e+001  2.740800e+001 
3818750000  -4.046172e+001  2.711077e+001 
3821875000  -4.006686e+001  3.614444e+001 
3825000000  -3.824903e+001  3.436788e+001 
3828125000  -3.702499e+001  1.725559e+001 
3831250000  -3.817637e+001  2.065956e+000 
3834375000  -4.031214e+001  2.498540e-002 
3837500000  -4.076942e+001  2.279426e+000 
3840625000  -3.913615e+001  2.290163e+000 
3843750000  -3.845825e+001  -1.365917e+001 
3846875000  -3.968206e+001  -2.025925e+001 
3850000000  -4.098647e+001  -1.300874e+001 
3853125000  -4.030842e+001  -1.389105e+001 
3856250000  -3.947913e+001  -2.132667e+001 
3859375000  -3.873132e+001  -2.676556e+001 
3862500000  -3.891612e+001  -3.782058e+001 
3865625000  -3.906048e+001  -4.389777e+001 
3868750000  -3.877653e+001  -4.462627e+001 
3871875000  -3.785012e+001  -5.107038e+001 
3875000000  -3.845729e+001  -6.173857e+001 
3878125000  -3.931019e+001  -6.333170e+001 
3881250000  -3.933867e+001  -6.284000e+001 
3884375000  -3.861863e+001  -7.085674e+001 
3887500000  -3.901878e+001  -7.704522e+001 
3890625000  -3.934980e+001  -8.226500e+001 
3893750000  -3.992604e+001  -8.475821e+001 
3896875000  -4.003848e+001  -8.574281e+001 
3900000000  -3.982973e+001  -9.144484e+001 
3903125000  -3.950083e+001  -9.552409e+001 
3906250000  -3.927235e+001  -9.693625e+001 
3909375000  -3.808123e+001  -1.078562e+002 
3912500000  -3.901740e+001  -1.171204e+002 
3915625000  -4.038239e+001  -1.172160e+002 
3918750000  -4.006514e+001  -1.161971e+002 
3921875000  -3.891727e+001  -1.205801e+002 
3925000000  -3.838820e+001  -1.268342e+002 
3928125000  -3.816434e+001  -1.374936e+002 
3931250000  -3.901991e+001  -1.423552e+002 
3934375000  -3.940238e+001  -1.440375e+002 
3937500000  -3.972540e+001  -1.477528e+002 
3940625000  -3.990358e+001  -1.498286e+002 
3943750000  -3.874035e+001  -1.523973e+002 
3946875000  -3.813173e+001  -1.593539e+002 
3950000000  -3.920732e+001  -1.698826e+002 
3953125000  -4.001053e+001  -1.699826e+002 
3956250000  -3.891374e+001  -1.684727e+002 
3959375000  -3.775975e+001  -1.753124e+002 
3962500000  -3.760771e+001  1.768173e+002 
3965625000  -3.746586e+001  1.668957e+002 
3968750000  -3.834038e+001  1.588406e+002 
3971875000  -3.845844e+001  1.547116e+002 
3975000000  -3.832150e+001  1.489766e+002 
3978125000  -3.844269e+001  1.449881e+002 
3981250000  -3.857170e+001  1.378857e+002 
3984375000  -3.886777e+001  1.319837e+002 
3987500000  -3.960297e+001  1.292994e+002 
3990625000  -3.991339e+001  1.261883e+002 
3993750000  -4.006799e+001  1.202972e+002 
3996875000  -3.983135e+001  1.172187e+002 
4000000000  -4.073487e+001  1.101405e+002 
4003125000  -4.102026e+001  1.141289e+002 
4006250000  -3.938355e+001  1.119037e+002 
4009375000  -3.826926e+001  9.724445e+001 
4012500000  -3.972261e+001  9.054127e+001 
4015625000  -4.105563e+001  8.802098e+001 
4018750000  -4.131990e+001  9.034769e+001 
4021875000  -4.060445e+001  8.585688e+001 
4025000000  -4.020002e+001  8.230054e+001 
4028125000  -4.026192e+001  7.362640e+001 
4031250000  -4.082156e+001  7.091585e+001 
4034375000  -4.124215e+001  6.992854e+001 
4037500000  -4.103542e+001  6.913177e+001 
4040625000  -4.069451e+001  6.325832e+001 
4043750000  -4.090309e+001  6.196130e+001 
4046875000  -4.042838e+001  5.892215e+001 
4050000000  -4.016101e+001  5.330031e+001 
4053125000  -4.109778e+001  4.956433e+001 
4056250000  -4.145499e+001  5.522095e+001 
4059375000  -3.920318e+001  5.228028e+001 
4062500000  -3.869442e+001  4.590322e+001 
4065625000  -3.859041e+001  3.976449e+001 
4068750000  -3.796492e+001  3.258849e+001 
4071875000  -3.749345e+001  2.129149e+001 
4075000000  -3.804146e+001  1.527149e+001 
4078125000  -3.847469e+001  1.102311e+001 
4081250000  -3.774998e+001  4.424198e+000 
4084375000  -3.797471e+001  -3.384828e+000 
4087500000  -3.856340e+001  -9.492848e+000 
4090625000  -3.869246e+001  -1.294422e+001 
4093750000  -3.835161e+001  -1.415008e+001 
4096875000  -3.843061e+001  -2.489933e+001 
4100000000  -3.947054e+001  -3.098732e+001 
4103125000  -4.010638e+001  -2.928822e+001 
4106250000  -3.965554e+001  -2.684916e+001 
4109375000  -3.890944e+001  -3.030310e+001 
4112500000  -3.828097e+001  -4.086156e+001 
4115625000  -3.892479e+001  -4.651603e+001 
4118750000  -3.887607e+001  -5.320809e+001 
4121875000  -3.844875e+001  -5.856676e+001 
4125000000  -3.960198e+001  -6.547255e+001 
4128125000  -4.050633e+001  -6.221603e+001 
4131250000  -3.946178e+001  -5.603327e+001 
4134375000  -3.732372e+001  -6.697240e+001 
4137500000  -3.798957e+001  -8.906886e+001 
4140625000  -3.986174e+001  -9.470586e+001 
4143750000  -4.119870e+001  -8.635458e+001 
4146875000  -4.022792e+001  -8.401683e+001 
4150000000  -3.930911e+001  -9.243185e+001 
4153125000  -3.948795e+001  -1.001189e+002 
4156250000  -4.077315e+001  -1.037772e+002 
4159375000  -4.078417e+001  -9.914091e+001 
4162500000  -3.936103e+001  -9.587844e+001 
4165625000  -3.851221e+001  -1.027968e+002 
4168750000  -3.817741e+001  -1.137390e+002 
4171875000  -3.802498e+001  -1.248082e+002 
4175000000  -3.895674e+001  -1.306729e+002 
4178125000  -3.908695e+001  -1.328352e+002 
4181250000  -3.905042e+001  -1.344424e+002 
4184375000  -3.906480e+001  -1.404927e+002 
4187500000  -3.909566e+001  -1.455220e+002 
4190625000  -3.934028e+001  -1.541858e+002 
4193750000  -4.017341e+001  -1.574345e+002 
4196875000  -4.070798e+001  -1.583822e+002 
4200000000  -4.179319e+001  -1.519631e+002 
4203125000  -4.061464e+001  -1.403974e+002 
4206250000  -3.699126e+001  -1.499300e+002 
4209375000  -3.705031e+001  -1.729597e+002 
4212500000  -3.917327e+001  -1.780854e+002 
4215625000  -3.933691e+001  -1.722672e+002 
4218750000  -3.784499e+001  -1.702503e+002 
4221875000  -3.627483e+001  1.773454e+002 
4225000000  -3.744690e+001  1.646469e+002 
4228125000  -3.739118e+001  1.663192e+002 
4231250000  -3.576007e+001  1.598245e+002 
4234375000  -3.590888e+001  1.494953e+002 
4237500000  -3.557008e+001  1.441741e+002 
4240625000  -3.581670e+001  1.323654e+002 
4243750000  -3.690382e+001  1.245564e+002 
4246875000  -3.779423e+001  1.240026e+002 
4250000000  -3.765862e+001  1.238317e+002 
4253125000  -3.744061e+001  1.200722e+002 
4256250000  -3.742983e+001  1.164406e+002 
4259375000  -3.714156e+001  1.094066e+002 
4262500000  -3.734530e+001  1.058642e+002 
4265625000  -3.739007e+001  1.023077e+002 
4268750000  -3.612950e+001  9.655532e+001 
4271875000  -3.620851e+001  8.819876e+001 
4275000000  -3.600414e+001  7.897097e+001 
4278125000  -3.703288e+001  6.654279e+001 
4281250000  -3.838671e+001  6.573006e+001 
4284375000  -3.818293e+001  6.059760e+001 
4287500000  -4.005011e+001  5.928283e+001 
4290625000  -4.032511e+001  6.847703e+001 
4293750000  -3.831598e+001  6.939436e+001 
4296875000  -3.728856e+001  5.588377e+001 
4300000000  -3.826471e+001  4.593779e+001 
4303125000  -3.905871e+001  4.807360e+001 
4306250000  -3.839516e+001  5.124555e+001 
4309375000  -3.715670e+001  4.383649e+001 
4312500000  -3.703855e+001  3.425534e+001 
4315625000  -3.746218e+001  2.473651e+001 
4318750000  -3.785550e+001  2.085217e+001 
4321875000  -3.801131e+001  2.211537e+001 
4325000000  -3.753393e+001  2.039404e+001 
4328125000  -3.678083e+001  1.065519e+001 
4331250000  -3.720315e+001  -1.187582e-001 
4334375000  -3.781516e+001  -6.495093e+000 
4337500000  -3.857045e+001  -7.231526e+000 
4340625000  -3.880732e+001  -2.987626e+000 
4343750000  -3.793856e+001  -6.420700e+000 
4346875000  -3.792442e+001  -1.514720e+001 
4350000000  -3.797519e+001  -2.378619e+001 
4353125000  -3.793649e+001  -2.936505e+001 
4356250000  -4.024777e+001  -2.904082e+001 
4359375000  -3.937589e+001  -1.469264e+001 
4362500000  -3.630370e+001  -2.056562e+001 
4365625000  -3.546711e+001  -3.936793e+001 
4368750000  -3.664505e+001  -4.776942e+001 
4371875000  -3.728450e+001  -4.832082e+001 
4375000000  -3.686300e+001  -5.164378e+001 
4378125000  -3.630680e+001  -6.016428e+001 
4381250000  -3.648718e+001  -6.673899e+001 
4384375000  -3.656726e+001  -7.386310e+001 
4387500000  -3.740782e+001  -8.086632e+001 
4390625000  -3.798257e+001  -8.024971e+001 
4393750000  -3.731659e+001  -8.098187e+001 
4396875000  -3.665718e+001  -8.620968e+001 
4400000000  -3.633047e+001  -9.547466e+001 
4403125000  -3.713028e+001  -1.048154e+002 
4406250000  -3.767589e+001  -1.082698e+002 
4409375000  -3.801534e+001  -1.129697e+002 
4412500000  -3.893636e+001  -1.164841e+002 
4415625000  -3.866404e+001  -1.111590e+002 
