!Agilent Technologies,E8363B,MY43030201,A.06.04.32
!Agilent E8363B: A.06.04.32
!Date: Tuesday, November 11, 2014 21:29:46
!Correction: S21(Response(S21)) 
!S1P File: Measurement: S21:
# Hz S  dB   R 50
3000000000  -4.051276e+001  8.541621e+001 
3003125000  -4.211456e+001  7.660977e+001 
3006250000  -4.202955e+001  7.612781e+001 
3009375000  -4.264058e+001  8.262281e+001 
3012500000  -4.151707e+001  7.693427e+001 
3015625000  -4.126970e+001  6.953322e+001 
3018750000  -4.170343e+001  7.146656e+001 
3021875000  -4.015013e+001  7.058022e+001 
3025000000  -3.882738e+001  6.788745e+001 
3028125000  -3.787574e+001  5.856910e+001 
3031250000  -3.693935e+001  4.616637e+001 
3034375000  -3.666914e+001  3.153650e+001 
3037500000  -3.753230e+001  2.017567e+001 
3040625000  -3.883755e+001  1.636678e+001 
3043750000  -3.910440e+001  8.948718e+000 
3046875000  -3.968701e+001  3.187845e+000 
3050000000  -4.093740e+001  -1.962807e+000 
3053125000  -4.052111e+001  2.994457e+000 
3056250000  -4.027427e+001  7.546969e+000 
3059375000  -3.997742e+001  3.727989e+000 
3062500000  -3.817629e+001  -4.520463e-001 
3065625000  -3.785960e+001  -1.050294e+001 
3068750000  -3.751606e+001  -1.744611e+001 
3071875000  -3.759499e+001  -2.015732e+001 
3075000000  -3.699738e+001  -2.740319e+001 
3078125000  -3.702573e+001  -3.328837e+001 
3081250000  -3.718493e+001  -3.871675e+001 
3084375000  -3.645092e+001  -4.391002e+001 
3087500000  -3.644635e+001  -5.040737e+001 
3090625000  -3.595522e+001  -6.233401e+001 
3093750000  -3.678756e+001  -7.106596e+001 
3096875000  -3.731474e+001  -7.607581e+001 
3100000000  -3.729082e+001  -7.918799e+001 
3103125000  -3.751933e+001  -8.253220e+001 
3106250000  -3.721692e+001  -8.828773e+001 
3109375000  -3.724590e+001  -9.218775e+001 
3112500000  -3.718053e+001  -9.819139e+001 
3115625000  -3.714830e+001  -1.012925e+002 
3118750000  -3.730756e+001  -1.044473e+002 
3121875000  -3.656814e+001  -1.164536e+002 
3125000000  -3.851115e+001  -1.193290e+002 
3128125000  -3.845108e+001  -1.126558e+002 
3131250000  -3.618871e+001  -1.178682e+002 
3134375000  -3.538576e+001  -1.345697e+002 
3137500000  -3.605357e+001  -1.476447e+002 
3140625000  -3.743098e+001  -1.506241e+002 
3143750000  -3.814491e+001  -1.525071e+002 
3146875000  -3.769077e+001  -1.505597e+002 
3150000000  -3.688011e+001  -1.545320e+002 
3153125000  -3.712920e+001  -1.634762e+002 
3156250000  -3.789570e+001  -1.583226e+002 
3159375000  -3.583352e+001  -1.599017e+002 
3162500000  -3.432258e+001  -1.755374e+002 
3165625000  -3.549944e+001  1.718417e+002 
3168750000  -3.544368e+001  1.700896e+002 
3171875000  -3.490858e+001  1.637218e+002 
3175000000  -3.537206e+001  1.536309e+002 
3178125000  -3.511153e+001  1.531012e+002 
3181250000  -3.432644e+001  1.445407e+002 
3184375000  -3.418502e+001  1.332921e+002 
3187500000  -3.537362e+001  1.173714e+002 
3190625000  -3.730991e+001  1.106692e+002 
3193750000  -3.752774e+001  1.163991e+002 
3196875000  -3.735105e+001  1.188419e+002 
3200000000  -3.624129e+001  1.125400e+002 
3203125000  -3.591377e+001  1.053249e+002 
3206250000  -3.626312e+001  9.715473e+001 
3209375000  -3.577455e+001  9.012260e+001 
3212500000  -3.637004e+001  8.310921e+001 
3215625000  -3.600720e+001  7.965054e+001 
3218750000  -3.697060e+001  6.799178e+001 
3221875000  -3.727607e+001  6.193218e+001 
3225000000  -3.696947e+001  5.842183e+001 
3228125000  -3.775350e+001  5.062248e+001 
3231250000  -3.832948e+001  5.008412e+001 
3234375000  -3.807686e+001  4.579964e+001 
3237500000  -3.819308e+001  4.131330e+001 
3240625000  -3.766805e+001  3.557183e+001 
3243750000  -3.770257e+001  2.641832e+001 
3246875000  -3.830009e+001  1.967730e+001 
3250000000  -3.882429e+001  1.466036e+001 
3253125000  -3.900542e+001  1.249822e+001 
3256250000  -3.868576e+001  2.938070e+000 
3259375000  -3.921171e+001  -8.410259e+000 
3262500000  -4.074398e+001  -1.066073e+001 
3265625000  -4.120545e+001  -8.636311e+000 
3268750000  -4.124390e+001  -7.436001e+000 
3271875000  -4.074652e+001  -9.960228e+000 
3275000000  -4.011267e+001  -1.819029e+001 
3278125000  -4.086475e+001  -2.335005e+001 
3281250000  -4.098030e+001  -2.626929e+001 
3284375000  -4.065551e+001  -3.137411e+001 
3287500000  -4.115416e+001  -3.422575e+001 
3290625000  -4.134611e+001  -4.243719e+001 
3293750000  -4.113653e+001  -4.849987e+001 
3296875000  -4.234811e+001  -4.979206e+001 
3300000000  -4.183710e+001  -4.882080e+001 
3303125000  -4.106615e+001  -5.646756e+001 
3306250000  -4.084472e+001  -6.337228e+001 
3309375000  -4.039540e+001  -7.020156e+001 
3312500000  -4.114818e+001  -8.427118e+001 
3315625000  -4.200106e+001  -9.126694e+001 
3318750000  -4.342133e+001  -9.385548e+001 
3321875000  -4.498694e+001  -8.956568e+001 
3325000000  -4.487934e+001  -8.362572e+001 
3328125000  -4.400686e+001  -8.301775e+001 
3331250000  -4.222214e+001  -8.224474e+001 
3334375000  -3.989557e+001  -9.789472e+001 
3337500000  -4.052061e+001  -1.174929e+002 
3340625000  -4.219737e+001  -1.266074e+002 
3343750000  -4.405549e+001  -1.270743e+002 
3346875000  -4.368064e+001  -1.269208e+002 
3350000000  -4.296021e+001  -1.289574e+002 
3353125000  -4.298627e+001  -1.364242e+002 
3356250000  -4.268088e+001  -1.444615e+002 
3359375000  -4.325540e+001  -1.549647e+002 
3362500000  -4.416639e+001  -1.613812e+002 
3365625000  -4.483044e+001  -1.650077e+002 
3368750000  -4.506129e+001  -1.684099e+002 
3371875000  -4.598466e+001  -1.738186e+002 
3375000000  -4.809539e+001  -1.765774e+002 
3378125000  -4.784933e+001  -1.786060e+002 
3381250000  -4.952771e+001  -1.696644e+002 
3384375000  -4.711824e+001  -1.518865e+002 
3387500000  -4.400526e+001  -1.732326e+002 
3390625000  -4.592084e+001  1.663900e+002 
3393750000  -4.756439e+001  1.683044e+002 
3396875000  -4.629868e+001  1.637054e+002 
3400000000  -4.595620e+001  1.536716e+002 
3403125000  -4.758361e+001  1.478622e+002 
3406250000  -4.816241e+001  1.442507e+002 
3409375000  -4.786357e+001  1.367834e+002 
3412500000  -4.900765e+001  1.315990e+002 
3415625000  -4.989874e+001  1.311922e+002 
3418750000  -4.967632e+001  1.268059e+002 
3421875000  -5.125730e+001  1.338047e+002 
3425000000  -5.107194e+001  1.346666e+002 
3428125000  -5.021811e+001  1.274681e+002 
3431250000  -5.059778e+001  1.176570e+002 
3434375000  -5.105045e+001  1.177243e+002 
3437500000  -5.191168e+001  1.159371e+002 
3440625000  -5.301705e+001  1.147353e+002 
3443750000  -5.141330e+001  1.180896e+002 
3446875000  -5.107299e+001  1.197496e+002 
3450000000  -5.065529e+001  1.054919e+002 
3453125000  -5.121912e+001  9.719520e+001 
3456250000  -5.315008e+001  9.298029e+001 
3459375000  -5.399093e+001  1.011082e+002 
3462500000  -5.229315e+001  1.006258e+002 
3465625000  -5.158591e+001  9.572948e+001 
3468750000  -5.248660e+001  9.070820e+001 
3471875000  -5.176450e+001  9.275350e+001 
3475000000  -5.140719e+001  8.871270e+001 
3478125000  -5.100290e+001  7.965197e+001 
3481250000  -5.329874e+001  8.342791e+001 
3484375000  -5.254708e+001  8.249545e+001 
3487500000  -5.192709e+001  7.965723e+001 
3490625000  -5.127402e+001  6.375366e+001 
3493750000  -5.177629e+001  6.336288e+001 
3496875000  -5.177146e+001  6.308637e+001 
3500000000  -5.231685e+001  6.222390e+001 
3503125000  -5.110402e+001  6.181586e+001 
3506250000  -5.042577e+001  5.197189e+001 
3509375000  -4.975422e+001  4.646333e+001 
3512500000  -5.092294e+001  2.729190e+001 
3515625000  -5.094265e+001  2.686779e+001 
3518750000  -5.245285e+001  2.486745e+001 
3521875000  -5.328230e+001  1.158618e+001 
3525000000  -5.375083e+001  1.227505e+001 
3528125000  -5.288943e+001  1.916531e+001 
3531250000  -5.149425e+001  1.694897e+001 
3534375000  -5.418585e+001  1.795038e+000 
3537500000  -5.413223e+001  -1.286127e+001 
3540625000  -5.411225e+001  -7.156099e+000 
3543750000  -5.503415e+001  -6.220023e+000 
3546875000  -5.571615e+001  2.158493e+000 
3550000000  -5.455751e+001  -2.022144e+000 
3553125000  -5.451621e+001  -2.298093e+001 
3556250000  -5.636686e+001  -2.232546e+001 
3559375000  -5.617213e+001  -1.531752e+001 
3562500000  -5.611883e+001  -2.948214e+001 
3565625000  -5.673785e+001  -3.683932e+001 
3568750000  -5.850244e+001  -2.290982e+001 
3571875000  -5.761198e+001  -1.214031e+001 
3575000000  -5.861620e+001  -1.429718e+001 
3578125000  -5.775600e+001  -3.304974e+001 
3581250000  -6.030268e+001  -2.694557e+001 
3584375000  -5.931420e+001  -1.878088e+001 
3587500000  -5.775042e+001  -3.455014e+001 
3590625000  -5.922717e+001  -3.901292e+001 
3593750000  -5.910239e+001  -2.981836e+001 
3596875000  -5.806865e+001  -1.159590e+001 
3600000000  -5.875119e+001  -1.626554e+001 
3603125000  -5.845247e+001  -3.451813e+001 
3606250000  -5.843363e+001  -3.647515e+001 
3609375000  -5.808514e+001  -2.686539e+001 
3612500000  -5.775318e+001  -3.311398e+001 
3615625000  -5.896979e+001  -3.856067e+001 
3618750000  -5.798264e+001  -3.177408e+001 
3621875000  -5.788477e+001  -3.459455e+001 
3625000000  -5.769145e+001  -1.719166e+001 
3628125000  -5.687696e+001  -2.928102e+001 
3631250000  -5.670193e+001  -3.840235e+001 
3634375000  -5.747665e+001  -3.159518e+001 
3637500000  -5.620711e+001  -2.405741e+001 
3640625000  -5.356217e+001  -2.406403e+001 
3643750000  -5.314357e+001  -3.071337e+001 
3646875000  -5.343101e+001  -4.476217e+001 
3650000000  -5.328376e+001  -4.696670e+001 
3653125000  -5.139407e+001  -4.020785e+001 
3656250000  -5.275208e+001  -4.835546e+001 
3659375000  -5.058174e+001  -4.828798e+001 
3662500000  -5.058199e+001  -5.525314e+001 
3665625000  -4.988197e+001  -5.757255e+001 
3668750000  -4.774642e+001  -6.242965e+001 
3671875000  -4.739631e+001  -6.855704e+001 
3675000000  -4.719976e+001  -7.974337e+001 
3678125000  -4.712007e+001  -8.242322e+001 
3681250000  -4.660481e+001  -8.528427e+001 
3684375000  -4.654325e+001  -8.987468e+001 
3687500000  -4.619309e+001  -9.658831e+001 
3690625000  -4.636166e+001  -1.027040e+002 
3693750000  -4.695938e+001  -1.013548e+002 
3696875000  -4.665311e+001  -1.039386e+002 
3700000000  -4.532064e+001  -1.138317e+002 
3703125000  -4.554295e+001  -1.158293e+002 
3706250000  -4.563344e+001  -1.180309e+002 
3709375000  -4.461961e+001  -1.184126e+002 
3712500000  -4.373432e+001  -1.215136e+002 
3715625000  -4.201195e+001  -1.312573e+002 
3718750000  -4.181770e+001  -1.380322e+002 
3721875000  -4.125938e+001  -1.488993e+002 
3725000000  -4.175361e+001  -1.566773e+002 
3728125000  -4.152802e+001  -1.580926e+002 
3731250000  -4.060621e+001  -1.630565e+002 
3734375000  -3.983592e+001  -1.710916e+002 
3737500000  -4.079213e+001  1.794594e+002 
3740625000  -4.083165e+001  1.735384e+002 
3743750000  -4.038137e+001  1.662064e+002 
3746875000  -4.076483e+001  1.605889e+002 
3750000000  -4.094572e+001  1.552675e+002 
3753125000  -4.049030e+001  1.538259e+002 
3756250000  -4.084736e+001  1.496305e+002 
3759375000  -4.042976e+001  1.438817e+002 
3762500000  -4.004543e+001  1.368779e+002 
3765625000  -4.059480e+001  1.349642e+002 
3768750000  -4.011111e+001  1.338321e+002 
3771875000  -3.852799e+001  1.258601e+002 
3775000000  -3.840979e+001  1.162237e+002 
3778125000  -3.905757e+001  1.087626e+002 
3781250000  -3.899291e+001  1.031884e+002 
3784375000  -3.877052e+001  9.786499e+001 
3787500000  -3.859568e+001  9.098518e+001 
3790625000  -3.916940e+001  8.254059e+001 
3793750000  -3.911352e+001  8.026188e+001 
3796875000  -3.833900e+001  7.604014e+001 
3800000000  -3.638699e+001  7.108595e+001 
3803125000  -3.814035e+001  5.623627e+001 
3806250000  -3.900078e+001  5.289088e+001 
3809375000  -3.864225e+001  4.886574e+001 
3812500000  -3.824393e+001  3.941610e+001 
3815625000  -3.940606e+001  3.030365e+001 
3818750000  -4.076871e+001  3.160482e+001 
3821875000  -4.013310e+001  4.111509e+001 
3825000000  -3.799173e+001  3.740631e+001 
3828125000  -3.710738e+001  2.010901e+001 
3831250000  -3.787917e+001  4.604842e+000 
3834375000  -4.036082e+001  4.643437e+000 
3837500000  -4.045363e+001  7.924887e+000 
3840625000  -3.898885e+001  4.465952e+000 
3843750000  -3.839396e+001  -1.092910e+001 
3846875000  -3.990611e+001  -1.520193e+001 
3850000000  -4.078445e+001  -8.923099e+000 
3853125000  -3.996491e+001  -9.115764e+000 
3856250000  -3.932978e+001  -1.677589e+001 
3859375000  -3.894291e+001  -2.478694e+001 
3862500000  -3.862597e+001  -3.469240e+001 
3865625000  -3.914770e+001  -3.959698e+001 
3868750000  -3.890513e+001  -4.115501e+001 
3871875000  -3.817589e+001  -4.905260e+001 
3875000000  -3.885890e+001  -5.820452e+001 
3878125000  -3.939499e+001  -6.095234e+001 
3881250000  -3.934333e+001  -6.109735e+001 
3884375000  -3.880549e+001  -6.680384e+001 
3887500000  -3.916076e+001  -7.349889e+001 
3890625000  -3.954656e+001  -7.761377e+001 
3893750000  -3.993764e+001  -8.042902e+001 
3896875000  -4.015957e+001  -8.460878e+001 
3900000000  -3.994692e+001  -8.731635e+001 
3903125000  -3.949525e+001  -9.161626e+001 
3906250000  -3.912066e+001  -9.522565e+001 
3909375000  -3.842776e+001  -1.044725e+002 
3912500000  -3.912789e+001  -1.141624e+002 
3915625000  -4.061267e+001  -1.133433e+002 
3918750000  -4.002336e+001  -1.139328e+002 
3921875000  -3.934600e+001  -1.192018e+002 
3925000000  -3.877388e+001  -1.237214e+002 
3928125000  -3.827264e+001  -1.337762e+002 
3931250000  -3.907038e+001  -1.398640e+002 
3934375000  -3.968886e+001  -1.424621e+002 
3937500000  -4.017596e+001  -1.428005e+002 
3940625000  -3.989659e+001  -1.471391e+002 
3943750000  -3.898164e+001  -1.480517e+002 
3946875000  -3.836227e+001  -1.591396e+002 
3950000000  -3.975127e+001  -1.671567e+002 
3953125000  -4.003992e+001  -1.637630e+002 
3956250000  -3.870517e+001  -1.666143e+002 
3959375000  -3.784649e+001  -1.717726e+002 
3962500000  -3.778443e+001  1.785547e+002 
3965625000  -3.821206e+001  1.684030e+002 
3968750000  -3.882039e+001  1.609576e+002 
3971875000  -3.862832e+001  1.570371e+002 
3975000000  -3.853391e+001  1.523624e+002 
3978125000  -3.878428e+001  1.474989e+002 
3981250000  -3.854214e+001  1.421797e+002 
3984375000  -3.895999e+001  1.346912e+002 
3987500000  -3.971869e+001  1.299913e+002 
3990625000  -3.990996e+001  1.281234e+002 
3993750000  -4.022125e+001  1.264257e+002 
3996875000  -3.998742e+001  1.190441e+002 
4000000000  -4.058170e+001  1.153682e+002 
4003125000  -4.110488e+001  1.180551e+002 
4006250000  -3.946814e+001  1.134879e+002 
4009375000  -3.858624e+001  9.994023e+001 
4012500000  -4.029366e+001  9.193216e+001 
4015625000  -4.160563e+001  9.106246e+001 
4018750000  -4.120580e+001  9.364399e+001 
4021875000  -4.078513e+001  8.904140e+001 
4025000000  -4.069447e+001  8.235050e+001 
4028125000  -4.071484e+001  7.464233e+001 
4031250000  -4.105882e+001  7.298421e+001 
4034375000  -4.157436e+001  7.229488e+001 
4037500000  -4.108086e+001  7.257351e+001 
4040625000  -4.107539e+001  6.564174e+001 
4043750000  -4.112861e+001  6.534904e+001 
4046875000  -4.093049e+001  6.171450e+001 
4050000000  -4.059936e+001  5.777574e+001 
4053125000  -4.124192e+001  4.980240e+001 
4056250000  -4.168259e+001  5.926981e+001 
4059375000  -3.991291e+001  5.483354e+001 
4062500000  -3.881372e+001  4.721864e+001 
4065625000  -3.876250e+001  4.165836e+001 
4068750000  -3.849677e+001  3.266798e+001 
4071875000  -3.820675e+001  2.482715e+001 
4075000000  -3.848667e+001  1.755344e+001 
4078125000  -3.882454e+001  1.438200e+001 
4081250000  -3.842562e+001  7.465065e+000 
4084375000  -3.813929e+001  -1.265818e+000 
4087500000  -3.866719e+001  -6.857843e+000 
4090625000  -3.898263e+001  -1.055655e+001 
4093750000  -3.869612e+001  -9.830951e+000 
4096875000  -3.864588e+001  -2.097273e+001 
4100000000  -3.952000e+001  -2.703510e+001 
4103125000  -4.053643e+001  -2.726817e+001 
4106250000  -4.000153e+001  -2.303240e+001 
4109375000  -3.914587e+001  -2.734941e+001 
4112500000  -3.857428e+001  -3.678815e+001 
4115625000  -3.952291e+001  -4.422522e+001 
4118750000  -3.892527e+001  -4.819652e+001 
4121875000  -3.886752e+001  -5.441214e+001 
4125000000  -3.984437e+001  -6.080464e+001 
4128125000  -4.075818e+001  -6.017526e+001 
4131250000  -4.016807e+001  -5.345132e+001 
4134375000  -3.780275e+001  -6.389050e+001 
4137500000  -3.849961e+001  -8.445883e+001 
4140625000  -4.049038e+001  -9.221507e+001 
4143750000  -4.155509e+001  -8.561681e+001 
4146875000  -4.068031e+001  -8.083189e+001 
4150000000  -3.951422e+001  -8.707008e+001 
4153125000  -3.985613e+001  -9.741338e+001 
4156250000  -4.136689e+001  -1.010472e+002 
4159375000  -4.129309e+001  -9.735562e+001 
4162500000  -4.046270e+001  -9.457335e+001 
4165625000  -3.894555e+001  -9.988800e+001 
4168750000  -3.855156e+001  -1.103450e+002 
4171875000  -3.854057e+001  -1.205760e+002 
4175000000  -3.933634e+001  -1.268826e+002 
4178125000  -3.979906e+001  -1.284824e+002 
4181250000  -3.934901e+001  -1.314352e+002 
4184375000  -3.941565e+001  -1.375816e+002 
4187500000  -3.969363e+001  -1.406905e+002 
4190625000  -3.943210e+001  -1.488239e+002 
4193750000  -4.080123e+001  -1.544427e+002 
4196875000  -4.123167e+001  -1.548252e+002 
4200000000  -4.216909e+001  -1.489661e+002 
4203125000  -4.123443e+001  -1.356409e+002 
4206250000  -3.774628e+001  -1.449734e+002 
4209375000  -3.698377e+001  -1.684356e+002 
4212500000  -3.956154e+001  -1.763185e+002 
4215625000  -4.017529e+001  -1.681866e+002 
4218750000  -3.868747e+001  -1.653515e+002 
4221875000  -3.658773e+001  -1.777324e+002 
4225000000  -3.807838e+001  1.708100e+002 
4228125000  -3.810387e+001  1.708139e+002 
4231250000  -3.622886e+001  1.653594e+002 
4234375000  -3.644590e+001  1.541067e+002 
4237500000  -3.613459e+001  1.492369e+002 
4240625000  -3.634520e+001  1.381973e+002 
4243750000  -3.746657e+001  1.283692e+002 
4246875000  -3.848978e+001  1.290966e+002 
4250000000  -3.828421e+001  1.266665e+002 
4253125000  -3.776471e+001  1.242637e+002 
4256250000  -3.785796e+001  1.197368e+002 
4259375000  -3.777099e+001  1.170102e+002 
4262500000  -3.805480e+001  1.092335e+002 
4265625000  -3.790409e+001  1.079490e+002 
4268750000  -3.715719e+001  9.989446e+001 
4271875000  -3.689038e+001  9.269246e+001 
4275000000  -3.652126e+001  8.327953e+001 
4278125000  -3.763708e+001  7.000916e+001 
4281250000  -3.892653e+001  6.923992e+001 
4284375000  -3.882775e+001  6.614618e+001 
4287500000  -3.996392e+001  6.541708e+001 
4290625000  -4.033490e+001  7.255142e+001 
4293750000  -3.904190e+001  7.481700e+001 
4296875000  -3.783081e+001  6.032135e+001 
4300000000  -3.914911e+001  4.880629e+001 
4303125000  -3.969220e+001  5.205342e+001 
4306250000  -3.885763e+001  5.609362e+001 
4309375000  -3.774086e+001  4.870267e+001 
4312500000  -3.743145e+001  3.869795e+001 
4315625000  -3.776587e+001  3.105477e+001 
4318750000  -3.873138e+001  2.597564e+001 
4321875000  -3.876609e+001  2.666642e+001 
4325000000  -3.817350e+001  2.512260e+001 
4328125000  -3.734612e+001  1.671817e+001 
4331250000  -3.753428e+001  6.153308e+000 
4334375000  -3.847156e+001  -9.567652e-001 
4337500000  -3.957544e+001  -1.406064e+000 
4340625000  -3.973413e+001  2.884286e+000 
4343750000  -3.872492e+001  -5.197546e-001 
4346875000  -3.841341e+001  -8.771074e+000 
4350000000  -3.838452e+001  -1.688026e+001 
4353125000  -3.900908e+001  -2.512067e+001 
4356250000  -4.132746e+001  -2.108139e+001 
4359375000  -3.995855e+001  -9.597780e+000 
4362500000  -3.708107e+001  -1.426108e+001 
4365625000  -3.598774e+001  -3.164291e+001 
4368750000  -3.745923e+001  -4.407618e+001 
4371875000  -3.797424e+001  -4.243317e+001 
4375000000  -3.740691e+001  -4.570139e+001 
4378125000  -3.707629e+001  -5.336201e+001 
4381250000  -3.719726e+001  -6.156275e+001 
4384375000  -3.721074e+001  -6.925520e+001 
4387500000  -3.831260e+001  -7.402766e+001 
4390625000  -3.850060e+001  -7.465440e+001 
4393750000  -3.820535e+001  -7.430879e+001 
4396875000  -3.741687e+001  -7.963094e+001 
4400000000  -3.700734e+001  -8.919302e+001 
4403125000  -3.782176e+001  -9.927276e+001 
4406250000  -3.850283e+001  -1.016454e+002 
4409375000  -3.861079e+001  -1.058893e+002 
4412500000  -3.983257e+001  -1.090286e+002 
4415625000  -3.953476e+001  -1.051899e+002 
