!Agilent Technologies,E8363B,MY43030201,A.06.04.32
!Agilent E8363B: A.06.04.32
!Date: Tuesday, November 11, 2014 21:26:59
!Correction: S21(Response(S21)) 
!S1P File: Measurement: S21:
# Hz S  dB   R 50
3000000000  -4.062476e+001  9.445992e+001 
3003125000  -4.242075e+001  8.621115e+001 
3006250000  -4.217662e+001  8.504485e+001 
3009375000  -4.272503e+001  8.924145e+001 
3012500000  -4.166798e+001  8.511356e+001 
3015625000  -4.130950e+001  7.853223e+001 
3018750000  -4.183048e+001  7.939340e+001 
3021875000  -4.028093e+001  7.883640e+001 
3025000000  -3.909100e+001  7.655661e+001 
3028125000  -3.799060e+001  6.677405e+001 
3031250000  -3.706693e+001  5.499277e+001 
3034375000  -3.678796e+001  4.069550e+001 
3037500000  -3.736512e+001  2.961099e+001 
3040625000  -3.858862e+001  2.505204e+001 
3043750000  -3.925147e+001  1.648057e+001 
3046875000  -3.970974e+001  1.193810e+001 
3050000000  -4.098882e+001  6.588964e+000 
3053125000  -4.067919e+001  1.144725e+001 
3056250000  -4.026857e+001  1.498061e+001 
3059375000  -3.984843e+001  1.206736e+001 
3062500000  -3.841346e+001  8.292822e+000 
3065625000  -3.796156e+001  -1.259797e+000 
3068750000  -3.760187e+001  -8.789612e+000 
3071875000  -3.761927e+001  -1.198358e+001 
3075000000  -3.713652e+001  -1.878035e+001 
3078125000  -3.704413e+001  -2.427202e+001 
3081250000  -3.734392e+001  -2.991385e+001 
3084375000  -3.639206e+001  -3.537343e+001 
3087500000  -3.642824e+001  -4.074868e+001 
3090625000  -3.598207e+001  -5.289819e+001 
3093750000  -3.681010e+001  -6.198473e+001 
3096875000  -3.735612e+001  -6.752393e+001 
3100000000  -3.742196e+001  -7.099915e+001 
3103125000  -3.757921e+001  -7.486523e+001 
3106250000  -3.708795e+001  -7.923585e+001 
3109375000  -3.722689e+001  -8.331596e+001 
3112500000  -3.713737e+001  -8.828961e+001 
3115625000  -3.719019e+001  -9.266441e+001 
3118750000  -3.735358e+001  -9.583067e+001 
3121875000  -3.655685e+001  -1.069008e+002 
3125000000  -3.831234e+001  -1.114287e+002 
3128125000  -3.864648e+001  -1.036570e+002 
3131250000  -3.621636e+001  -1.084621e+002 
3134375000  -3.531931e+001  -1.257714e+002 
3137500000  -3.613687e+001  -1.379600e+002 
3140625000  -3.736066e+001  -1.423611e+002 
3143750000  -3.821805e+001  -1.439786e+002 
3146875000  -3.778955e+001  -1.412318e+002 
3150000000  -3.683577e+001  -1.447505e+002 
3153125000  -3.715688e+001  -1.528721e+002 
3156250000  -3.795040e+001  -1.502641e+002 
3159375000  -3.587062e+001  -1.510074e+002 
3162500000  -3.428249e+001  -1.660635e+002 
3165625000  -3.546367e+001  -1.794730e+002 
3168750000  -3.555850e+001  1.791519e+002 
3171875000  -3.497684e+001  1.732096e+002 
3175000000  -3.552379e+001  1.632054e+002 
3178125000  -3.529049e+001  1.627668e+002 
3181250000  -3.445116e+001  1.543923e+002 
3184375000  -3.414040e+001  1.420512e+002 
3187500000  -3.523737e+001  1.264346e+002 
3190625000  -3.741266e+001  1.200026e+002 
3193750000  -3.764067e+001  1.256506e+002 
3196875000  -3.746405e+001  1.272019e+002 
3200000000  -3.635747e+001  1.229674e+002 
3203125000  -3.600014e+001  1.140491e+002 
3206250000  -3.618689e+001  1.067202e+002 
3209375000  -3.588660e+001  9.937995e+001 
3212500000  -3.621440e+001  9.232472e+001 
3215625000  -3.598879e+001  8.814580e+001 
3218750000  -3.688593e+001  7.856932e+001 
3221875000  -3.743609e+001  7.158748e+001 
3225000000  -3.720486e+001  6.715585e+001 
3228125000  -3.769915e+001  6.039973e+001 
3231250000  -3.838943e+001  5.785049e+001 
3234375000  -3.803413e+001  5.617439e+001 
3237500000  -3.795333e+001  5.058922e+001 
3240625000  -3.765624e+001  4.645770e+001 
3243750000  -3.769907e+001  3.614251e+001 
3246875000  -3.831839e+001  2.838605e+001 
3250000000  -3.870763e+001  2.502733e+001 
3253125000  -3.908383e+001  2.239414e+001 
3256250000  -3.872007e+001  1.361647e+001 
3259375000  -3.913992e+001  2.168801e+000 
3262500000  -4.050918e+001  -4.023773e-001 
3265625000  -4.137175e+001  1.371748e+000 
3268750000  -4.107489e+001  2.700522e+000 
3271875000  -4.068207e+001  -1.668297e-001 
3275000000  -4.019968e+001  -8.881341e+000 
3278125000  -4.068071e+001  -1.368799e+001 
3281250000  -4.095251e+001  -1.481186e+001 
3284375000  -4.052489e+001  -2.099862e+001 
3287500000  -4.102897e+001  -2.557594e+001 
3290625000  -4.116020e+001  -3.251178e+001 
3293750000  -4.109836e+001  -3.893197e+001 
3296875000  -4.239520e+001  -4.018770e+001 
3300000000  -4.190328e+001  -4.054391e+001 
3303125000  -4.099591e+001  -4.681948e+001 
3306250000  -4.073690e+001  -5.285411e+001 
3309375000  -4.050732e+001  -5.977936e+001 
3312500000  -4.091418e+001  -7.111189e+001 
3315625000  -4.195044e+001  -8.019695e+001 
3318750000  -4.331021e+001  -8.425143e+001 
3321875000  -4.454609e+001  -8.195014e+001 
3325000000  -4.487226e+001  -7.378381e+001 
3328125000  -4.416563e+001  -7.382681e+001 
3331250000  -4.255321e+001  -7.019891e+001 
3334375000  -3.985880e+001  -8.756319e+001 
3337500000  -4.031269e+001  -1.066211e+002 
3340625000  -4.197350e+001  -1.174968e+002 
3343750000  -4.403827e+001  -1.156927e+002 
3346875000  -4.374118e+001  -1.158558e+002 
3350000000  -4.297986e+001  -1.190932e+002 
3353125000  -4.280072e+001  -1.266965e+002 
3356250000  -4.252107e+001  -1.356098e+002 
3359375000  -4.332772e+001  -1.459418e+002 
3362500000  -4.386127e+001  -1.515888e+002 
3365625000  -4.470113e+001  -1.555343e+002 
3368750000  -4.552802e+001  -1.592251e+002 
3371875000  -4.566175e+001  -1.632410e+002 
3375000000  -4.712389e+001  -1.690020e+002 
3378125000  -4.743888e+001  -1.687350e+002 
3381250000  -4.936661e+001  -1.563568e+002 
3384375000  -4.647927e+001  -1.446877e+002 
3387500000  -4.436366e+001  -1.601060e+002 
3390625000  -4.583793e+001  1.762315e+002 
3393750000  -4.713881e+001  1.790926e+002 
3396875000  -4.601653e+001  1.766138e+002 
3400000000  -4.615987e+001  1.635089e+002 
3403125000  -4.673219e+001  1.580126e+002 
3406250000  -4.761141e+001  1.562845e+002 
3409375000  -4.756947e+001  1.475180e+002 
3412500000  -4.856663e+001  1.398668e+002 
3415625000  -4.944456e+001  1.441563e+002 
3418750000  -4.954591e+001  1.416142e+002 
3421875000  -5.124562e+001  1.441221e+002 
3425000000  -5.015435e+001  1.454455e+002 
3428125000  -5.018719e+001  1.402778e+002 
3431250000  -5.030643e+001  1.352634e+002 
3434375000  -5.047265e+001  1.307901e+002 
3437500000  -5.149537e+001  1.257965e+002 
3440625000  -5.248408e+001  1.241816e+002 
3443750000  -5.024094e+001  1.352939e+002 
3446875000  -5.005888e+001  1.213913e+002 
3450000000  -4.994616e+001  1.177307e+002 
3453125000  -5.096970e+001  1.062276e+002 
3456250000  -5.159146e+001  1.041575e+002 
3459375000  -5.180156e+001  1.053102e+002 
3462500000  -5.174157e+001  1.049693e+002 
3465625000  -5.117836e+001  1.044996e+002 
3468750000  -5.123462e+001  1.051775e+002 
3471875000  -5.239586e+001  1.013802e+002 
3475000000  -5.088665e+001  9.799541e+001 
3478125000  -5.133168e+001  9.021716e+001 
3481250000  -5.213486e+001  8.853831e+001 
3484375000  -5.353515e+001  9.184885e+001 
3487500000  -5.175496e+001  8.492810e+001 
3490625000  -5.055689e+001  7.789482e+001 
3493750000  -5.136712e+001  7.114848e+001 
3496875000  -5.146266e+001  7.899103e+001 
3500000000  -5.100193e+001  7.341029e+001 
3503125000  -5.159962e+001  6.994827e+001 
3506250000  -5.070473e+001  5.883915e+001 
3509375000  -4.928457e+001  5.297865e+001 
3512500000  -4.960015e+001  3.289936e+001 
3515625000  -5.104451e+001  3.353165e+001 
3518750000  -5.210812e+001  3.346985e+001 
3521875000  -5.207753e+001  2.471898e+001 
3525000000  -5.355776e+001  2.138116e+001 
3528125000  -5.236860e+001  3.201762e+001 
3531250000  -5.104721e+001  2.399508e+001 
3534375000  -5.263912e+001  1.084664e+001 
3537500000  -5.303929e+001  4.732106e-001 
3540625000  -5.462546e+001  -2.835055e+000 
3543750000  -5.442705e+001  4.876414e+000 
3546875000  -5.414069e+001  1.119209e+001 
3550000000  -5.335310e+001  9.020056e+000 
3553125000  -5.230337e+001  -6.924607e+000 
3556250000  -5.623866e+001  -5.251448e+000 
3559375000  -5.593286e+001  -9.456975e+000 
3562500000  -5.677499e+001  -1.673595e+001 
3565625000  -5.597388e+001  -2.246878e+001 
3568750000  -5.801527e+001  -1.786301e+001 
3571875000  -5.727502e+001  -1.167902e+001 
3575000000  -5.740842e+001  -1.561688e+001 
3578125000  -5.761757e+001  -2.732063e+001 
3581250000  -5.841774e+001  -1.312851e+001 
3584375000  -5.609037e+001  -6.663510e+000 
3587500000  -5.815383e+001  -2.209530e+001 
3590625000  -5.798540e+001  -4.458026e+001 
3593750000  -5.810178e+001  -3.031638e+001 
3596875000  -5.846949e+001  -2.630696e+001 
3600000000  -5.774028e+001  -2.100247e+001 
3603125000  -5.812622e+001  -2.793714e+001 
3606250000  -5.748600e+001  -3.424345e+001 
3609375000  -5.950179e+001  -3.291470e+001 
3612500000  -5.818730e+001  -2.104197e+001 
3615625000  -5.868917e+001  -2.700898e+001 
3618750000  -5.871018e+001  -2.568754e+001 
3621875000  -5.814219e+001  -2.932411e+001 
3625000000  -5.858751e+001  -3.786535e+001 
3628125000  -5.691137e+001  -2.473284e+001 
3631250000  -5.603896e+001  -2.899831e+001 
3634375000  -5.669547e+001  -2.274899e+001 
3637500000  -5.703267e+001  -2.220460e+001 
3640625000  -5.387893e+001  -1.611860e+001 
3643750000  -5.367770e+001  -2.289267e+001 
3646875000  -5.411556e+001  -3.614803e+001 
3650000000  -5.346788e+001  -3.360972e+001 
3653125000  -5.222776e+001  -3.583838e+001 
3656250000  -5.215669e+001  -4.167699e+001 
3659375000  -5.270485e+001  -4.351661e+001 
3662500000  -5.156144e+001  -4.713101e+001 
3665625000  -5.047262e+001  -4.879047e+001 
3668750000  -4.783056e+001  -4.866947e+001 
3671875000  -4.744347e+001  -6.034766e+001 
3675000000  -4.787946e+001  -6.836455e+001 
3678125000  -4.700489e+001  -7.298843e+001 
3681250000  -4.702922e+001  -7.563482e+001 
3684375000  -4.685602e+001  -8.277412e+001 
3687500000  -4.682430e+001  -8.604147e+001 
3690625000  -4.625365e+001  -9.346056e+001 
3693750000  -4.729872e+001  -9.406545e+001 
3696875000  -4.670345e+001  -9.464351e+001 
3700000000  -4.577592e+001  -1.025879e+002 
3703125000  -4.560357e+001  -1.076864e+002 
3706250000  -4.594137e+001  -1.053981e+002 
3709375000  -4.505798e+001  -1.083035e+002 
3712500000  -4.382869e+001  -1.131142e+002 
3715625000  -4.230232e+001  -1.224507e+002 
3718750000  -4.205233e+001  -1.267791e+002 
3721875000  -4.143779e+001  -1.379354e+002 
3725000000  -4.159242e+001  -1.448577e+002 
3728125000  -4.138357e+001  -1.476408e+002 
3731250000  -4.090459e+001  -1.544771e+002 
3734375000  -3.995377e+001  -1.606869e+002 
3737500000  -4.094062e+001  -1.712787e+002 
3740625000  -4.130327e+001  -1.778057e+002 
3743750000  -4.071926e+001  1.776291e+002 
3746875000  -4.085277e+001  1.717063e+002 
3750000000  -4.113010e+001  1.656449e+002 
3753125000  -4.060862e+001  1.639165e+002 
3756250000  -4.066693e+001  1.601055e+002 
3759375000  -4.033545e+001  1.555088e+002 
3762500000  -4.014822e+001  1.482878e+002 
3765625000  -4.088857e+001  1.440843e+002 
3768750000  -4.014624e+001  1.433929e+002 
3771875000  -3.846352e+001  1.364250e+002 
3775000000  -3.840969e+001  1.250272e+002 
3778125000  -3.905236e+001  1.192278e+002 
3781250000  -3.923185e+001  1.146994e+002 
3784375000  -3.879131e+001  1.075808e+002 
3787500000  -3.851292e+001  1.036149e+002 
3790625000  -3.938303e+001  9.391814e+001 
3793750000  -3.923958e+001  8.966086e+001 
3796875000  -3.805986e+001  8.573850e+001 
3800000000  -3.653056e+001  8.145670e+001 
3803125000  -3.810760e+001  6.893108e+001 
3806250000  -3.887754e+001  6.492522e+001 
3809375000  -3.854308e+001  5.965258e+001 
3812500000  -3.849968e+001  5.087408e+001 
3815625000  -3.947168e+001  4.271708e+001 
3818750000  -4.054259e+001  4.128674e+001 
3821875000  -4.011018e+001  5.106187e+001 
3825000000  -3.845539e+001  4.830851e+001 
3828125000  -3.717881e+001  3.102911e+001 
3831250000  -3.805556e+001  1.473944e+001 
3834375000  -4.036538e+001  1.418291e+001 
3837500000  -4.069480e+001  1.823327e+001 
3840625000  -3.904416e+001  1.459967e+001 
3843750000  -3.839259e+001  5.891169e-001 
3846875000  -3.953802e+001  -5.792588e+000 
3850000000  -4.087151e+001  -3.161362e-001 
3853125000  -4.010626e+001  5.754137e-002 
3856250000  -3.940176e+001  -7.100535e+000 
3859375000  -3.900323e+001  -1.181577e+001 
3862500000  -3.875617e+001  -2.284670e+001 
3865625000  -3.922065e+001  -2.855207e+001 
3868750000  -3.877744e+001  -2.856995e+001 
3871875000  -3.798138e+001  -3.645293e+001 
3875000000  -3.875747e+001  -4.565645e+001 
3878125000  -3.945658e+001  -4.915561e+001 
3881250000  -3.922481e+001  -4.852260e+001 
3884375000  -3.890903e+001  -5.707641e+001 
3887500000  -3.911531e+001  -6.378979e+001 
3890625000  -3.943537e+001  -6.737127e+001 
3893750000  -3.981950e+001  -6.953333e+001 
3896875000  -4.002279e+001  -7.266048e+001 
3900000000  -3.993244e+001  -7.483619e+001 
3903125000  -3.924544e+001  -8.284514e+001 
3906250000  -3.902443e+001  -8.428174e+001 
3909375000  -3.843964e+001  -9.261293e+001 
3912500000  -3.896917e+001  -1.008103e+002 
3915625000  -4.024970e+001  -1.022723e+002 
3918750000  -4.011169e+001  -1.039473e+002 
3921875000  -3.956264e+001  -1.066485e+002 
3925000000  -3.862148e+001  -1.118064e+002 
3928125000  -3.825516e+001  -1.221456e+002 
3931250000  -3.896492e+001  -1.290667e+002 
3934375000  -3.935737e+001  -1.310198e+002 
3937500000  -4.004575e+001  -1.328620e+002 
3940625000  -4.006866e+001  -1.350034e+002 
3943750000  -3.879546e+001  -1.377932e+002 
3946875000  -3.836280e+001  -1.468362e+002 
3950000000  -3.925304e+001  -1.557408e+002 
3953125000  -3.996841e+001  -1.541875e+002 
3956250000  -3.868977e+001  -1.541264e+002 
3959375000  -3.782411e+001  -1.602852e+002 
3962500000  -3.770259e+001  -1.696546e+002 
3965625000  -3.760381e+001  -1.770941e+002 
3968750000  -3.854366e+001  1.744798e+002 
3971875000  -3.852775e+001  1.677393e+002 
3975000000  -3.835283e+001  1.639640e+002 
3978125000  -3.854469e+001  1.617641e+002 
3981250000  -3.888649e+001  1.548199e+002 
3984375000  -3.901818e+001  1.461392e+002 
3987500000  -3.973689e+001  1.430825e+002 
3990625000  -3.988401e+001  1.415010e+002 
3993750000  -3.993548e+001  1.380672e+002 
3996875000  -3.991302e+001  1.315650e+002 
4000000000  -4.046321e+001  1.271768e+002 
4003125000  -4.118747e+001  1.289145e+002 
4006250000  -3.952051e+001  1.268740e+002 
4009375000  -3.846129e+001  1.137523e+002 
4012500000  -4.023242e+001  1.058351e+002 
4015625000  -4.117111e+001  1.029301e+002 
4018750000  -4.105701e+001  1.051010e+002 
4021875000  -4.067222e+001  9.813118e+001 
4025000000  -4.035279e+001  9.696126e+001 
4028125000  -4.035210e+001  8.942458e+001 
4031250000  -4.087628e+001  8.500118e+001 
4034375000  -4.138150e+001  8.483915e+001 
4037500000  -4.116126e+001  8.589992e+001 
4040625000  -4.088035e+001  7.969543e+001 
4043750000  -4.097227e+001  7.721419e+001 
4046875000  -4.046636e+001  7.456470e+001 
4050000000  -4.037360e+001  6.917731e+001 
4053125000  -4.104779e+001  6.571219e+001 
4056250000  -4.126829e+001  6.967092e+001 
4059375000  -3.930433e+001  6.615143e+001 
4062500000  -3.882404e+001  6.012856e+001 
4065625000  -3.882347e+001  5.333706e+001 
4068750000  -3.814586e+001  4.775593e+001 
4071875000  -3.752952e+001  3.850974e+001 
4075000000  -3.808804e+001  2.959483e+001 
4078125000  -3.866674e+001  2.591438e+001 
4081250000  -3.805437e+001  2.215432e+001 
4084375000  -3.769986e+001  1.248845e+001 
4087500000  -3.833622e+001  4.273389e+000 
4090625000  -3.901620e+001  3.290231e+000 
4093750000  -3.853257e+001  1.099135e+000 
4096875000  -3.837954e+001  -8.260230e+000 
4100000000  -3.923071e+001  -1.573675e+001 
4103125000  -4.034012e+001  -1.508636e+001 
4106250000  -3.948952e+001  -1.068017e+001 
4109375000  -3.911071e+001  -1.520556e+001 
4112500000  -3.838403e+001  -2.552338e+001 
4115625000  -3.904078e+001  -2.993082e+001 
4118750000  -3.899361e+001  -3.487332e+001 
4121875000  -3.876531e+001  -4.233211e+001 
4125000000  -3.954365e+001  -4.684994e+001 
4128125000  -4.040654e+001  -4.801581e+001 
4131250000  -3.953272e+001  -4.273204e+001 
4134375000  -3.730081e+001  -5.069560e+001 
4137500000  -3.764265e+001  -7.187323e+001 
4140625000  -3.973843e+001  -8.043653e+001 
4143750000  -4.118081e+001  -7.242678e+001 
4146875000  -3.997623e+001  -6.831918e+001 
4150000000  -3.932837e+001  -7.591199e+001 
4153125000  -3.956986e+001  -8.413459e+001 
4156250000  -4.065467e+001  -8.947903e+001 
4159375000  -4.073698e+001  -8.493037e+001 
4162500000  -3.963293e+001  -8.207926e+001 
4165625000  -3.852520e+001  -8.819183e+001 
4168750000  -3.817017e+001  -9.858983e+001 
4171875000  -3.789384e+001  -1.075363e+002 
4175000000  -3.888715e+001  -1.143313e+002 
4178125000  -3.887998e+001  -1.151479e+002 
4181250000  -3.891167e+001  -1.198533e+002 
4184375000  -3.910448e+001  -1.253081e+002 
4187500000  -3.894030e+001  -1.288810e+002 
4190625000  -3.894159e+001  -1.377197e+002 
4193750000  -3.981240e+001  -1.418665e+002 
4196875000  -4.069808e+001  -1.416435e+002 
4200000000  -4.169350e+001  -1.386944e+002 
4203125000  -4.045403e+001  -1.248199e+002 
4206250000  -3.732866e+001  -1.330869e+002 
4209375000  -3.668227e+001  -1.560747e+002 
4212500000  -3.889348e+001  -1.641229e+002 
4215625000  -3.963789e+001  -1.572908e+002 
4218750000  -3.789638e+001  -1.541158e+002 
4221875000  -3.617477e+001  -1.655924e+002 
4225000000  -3.718309e+001  1.799256e+002 
4228125000  -3.730373e+001  -1.760591e+002 
4231250000  -3.577087e+001  1.767249e+002 
4234375000  -3.611053e+001  1.652209e+002 
4237500000  -3.570829e+001  1.605550e+002 
4240625000  -3.569566e+001  1.486061e+002 
4243750000  -3.688166e+001  1.395585e+002 
4246875000  -3.792325e+001  1.393004e+002 
4250000000  -3.786774e+001  1.403992e+002 
4253125000  -3.721886e+001  1.364892e+002 
4256250000  -3.758604e+001  1.298345e+002 
4259375000  -3.714782e+001  1.255454e+002 
4262500000  -3.731280e+001  1.208677e+002 
4265625000  -3.742074e+001  1.193913e+002 
4268750000  -3.654410e+001  1.123171e+002 
4271875000  -3.647290e+001  1.035349e+002 
4275000000  -3.579935e+001  9.348721e+001 
4278125000  -3.708370e+001  8.063148e+001 
4281250000  -3.838210e+001  7.865746e+001 
4284375000  -3.816711e+001  7.760115e+001 
4287500000  -3.971189e+001  7.404192e+001 
4290625000  -4.016024e+001  8.267640e+001 
4293750000  -3.812846e+001  8.402008e+001 
4296875000  -3.717941e+001  7.056364e+001 
4300000000  -3.821464e+001  6.070973e+001 
4303125000  -3.925285e+001  6.382082e+001 
4306250000  -3.810120e+001  6.662256e+001 
4309375000  -3.717086e+001  6.015824e+001 
4312500000  -3.723796e+001  4.877869e+001 
4315625000  -3.752562e+001  4.170928e+001 
4318750000  -3.817757e+001  3.827053e+001 
4321875000  -3.810847e+001  3.687645e+001 
4325000000  -3.748827e+001  3.716320e+001 
4328125000  -3.689820e+001  2.670498e+001 
4331250000  -3.706733e+001  1.676221e+001 
4334375000  -3.755243e+001  1.012865e+001 
4337500000  -3.866507e+001  8.798839e+000 
4340625000  -3.901471e+001  1.205274e+001 
4343750000  -3.786922e+001  1.035026e+001 
4346875000  -3.774195e+001  1.778589e+000 
4350000000  -3.765195e+001  -5.780774e+000 
4353125000  -3.825222e+001  -1.412917e+001 
4356250000  -4.006133e+001  -1.185064e+001 
4359375000  -3.960711e+001  2.699479e+000 
4362500000  -3.639202e+001  -5.008654e+000 
4365625000  -3.557710e+001  -2.128925e+001 
4368750000  -3.672408e+001  -3.240178e+001 
4371875000  -3.765691e+001  -3.312472e+001 
4375000000  -3.700915e+001  -3.628439e+001 
4378125000  -3.635926e+001  -4.292049e+001 
4381250000  -3.649960e+001  -5.075181e+001 
4384375000  -3.644640e+001  -5.875705e+001 
4387500000  -3.747184e+001  -6.370950e+001 
4390625000  -3.821180e+001  -6.453609e+001 
4393750000  -3.749214e+001  -6.385397e+001 
4396875000  -3.672343e+001  -6.941686e+001 
4400000000  -3.631350e+001  -7.924921e+001 
4403125000  -3.708162e+001  -8.850734e+001 
4406250000  -3.768353e+001  -9.053592e+001 
4409375000  -3.810098e+001  -9.668299e+001 
4412500000  -3.888996e+001  -1.002739e+002 
4415625000  -3.886260e+001  -9.457723e+001 
