!Agilent Technologies,E8363B,MY43030201,A.06.04.32
!Agilent E8363B: A.06.04.32
!Date: Tuesday, November 11, 2014 21:34:22
!Correction: S21(Response(S21)) 
!S1P File: Measurement: S21:
# Hz S  dB   R 50
3000000000  -4.059155e+001  7.392937e+001 
3003125000  -4.207605e+001  6.490483e+001 
3006250000  -4.211611e+001  6.506725e+001 
3009375000  -4.272428e+001  6.948311e+001 
3012500000  -4.150068e+001  6.336404e+001 
3015625000  -4.129664e+001  5.678012e+001 
3018750000  -4.179929e+001  5.983339e+001 
3021875000  -4.020117e+001  5.968950e+001 
3025000000  -3.886403e+001  5.580162e+001 
3028125000  -3.790355e+001  4.460289e+001 
3031250000  -3.706810e+001  3.332033e+001 
3034375000  -3.674641e+001  1.971950e+001 
3037500000  -3.749451e+001  8.557932e+000 
3040625000  -3.868539e+001  4.094380e+000 
3043750000  -3.923256e+001  -3.682739e+000 
3046875000  -3.993604e+001  -8.254527e+000 
3050000000  -4.105899e+001  -1.242277e+001 
3053125000  -4.050808e+001  -7.560715e+000 
3056250000  -4.038333e+001  -6.320795e+000 
3059375000  -3.986127e+001  -7.857908e+000 
3062500000  -3.827652e+001  -1.244863e+001 
3065625000  -3.786518e+001  -2.171128e+001 
3068750000  -3.759107e+001  -2.982535e+001 
3071875000  -3.759662e+001  -3.238359e+001 
3075000000  -3.696707e+001  -3.966826e+001 
3078125000  -3.714810e+001  -4.577551e+001 
3081250000  -3.712007e+001  -5.111405e+001 
3084375000  -3.638654e+001  -5.703032e+001 
3087500000  -3.640612e+001  -6.281388e+001 
3090625000  -3.595241e+001  -7.482951e+001 
3093750000  -3.703898e+001  -8.329507e+001 
3096875000  -3.735402e+001  -8.908404e+001 
3100000000  -3.711948e+001  -9.116782e+001 
3103125000  -3.747335e+001  -9.533302e+001 
3106250000  -3.724320e+001  -1.001775e+002 
3109375000  -3.722244e+001  -1.045366e+002 
3112500000  -3.710139e+001  -1.105594e+002 
3115625000  -3.723932e+001  -1.137066e+002 
3118750000  -3.717675e+001  -1.172158e+002 
3121875000  -3.656326e+001  -1.280937e+002 
3125000000  -3.847533e+001  -1.329193e+002 
3128125000  -3.839866e+001  -1.237444e+002 
3131250000  -3.613119e+001  -1.301449e+002 
3134375000  -3.538861e+001  -1.478879e+002 
3137500000  -3.605108e+001  -1.599165e+002 
3140625000  -3.727370e+001  -1.624745e+002 
3143750000  -3.823225e+001  -1.654108e+002 
3146875000  -3.755037e+001  -1.628304e+002 
3150000000  -3.686505e+001  -1.671950e+002 
3153125000  -3.732900e+001  -1.747441e+002 
3156250000  -3.794361e+001  -1.701493e+002 
3159375000  -3.569587e+001  -1.728438e+002 
3162500000  -3.421571e+001  1.719550e+002 
3165625000  -3.543728e+001  1.585858e+002 
3168750000  -3.533756e+001  1.576292e+002 
3171875000  -3.496968e+001  1.508337e+002 
3175000000  -3.544500e+001  1.418569e+002 
3178125000  -3.497684e+001  1.403326e+002 
3181250000  -3.450339e+001  1.317934e+002 
3184375000  -3.425104e+001  1.202520e+002 
3187500000  -3.552825e+001  1.048307e+002 
3190625000  -3.715356e+001  9.883893e+001 
3193750000  -3.745280e+001  1.050836e+002 
3196875000  -3.748016e+001  1.051478e+002 
3200000000  -3.621733e+001  1.002533e+002 
3203125000  -3.593200e+001  9.129324e+001 
3206250000  -3.616437e+001  8.508406e+001 
3209375000  -3.584272e+001  7.721170e+001 
3212500000  -3.634310e+001  7.049670e+001 
3215625000  -3.607407e+001  6.649659e+001 
3218750000  -3.693473e+001  5.543163e+001 
3221875000  -3.715755e+001  4.884718e+001 
3225000000  -3.704404e+001  4.554832e+001 
3228125000  -3.776654e+001  3.840595e+001 
3231250000  -3.823038e+001  3.726072e+001 
3234375000  -3.798887e+001  3.376488e+001 
3237500000  -3.798512e+001  2.866397e+001 
3240625000  -3.762838e+001  2.389335e+001 
3243750000  -3.768873e+001  1.218987e+001 
3246875000  -3.819046e+001  6.256757e+000 
3250000000  -3.878185e+001  2.717944e+000 
3253125000  -3.912347e+001  -9.290205e-001 
3256250000  -3.851494e+001  -8.544281e+000 
3259375000  -3.906311e+001  -1.932861e+001 
3262500000  -4.070650e+001  -2.378893e+001 
3265625000  -4.129113e+001  -1.964511e+001 
3268750000  -4.136395e+001  -1.860148e+001 
3271875000  -4.057022e+001  -2.335289e+001 
3275000000  -4.010675e+001  -3.287004e+001 
3278125000  -4.100959e+001  -3.647069e+001 
3281250000  -4.107432e+001  -3.866877e+001 
3284375000  -4.039523e+001  -4.448028e+001 
3287500000  -4.086782e+001  -4.817537e+001 
3290625000  -4.117694e+001  -5.538725e+001 
3293750000  -4.130159e+001  -6.141102e+001 
3296875000  -4.234686e+001  -6.250769e+001 
3300000000  -4.173581e+001  -6.267759e+001 
3303125000  -4.075928e+001  -6.924843e+001 
3306250000  -4.084426e+001  -7.696354e+001 
3309375000  -4.050048e+001  -8.310432e+001 
3312500000  -4.085693e+001  -9.583069e+001 
3315625000  -4.242039e+001  -1.024454e+002 
3318750000  -4.368905e+001  -1.082176e+002 
3321875000  -4.506850e+001  -1.028507e+002 
3325000000  -4.479714e+001  -9.713878e+001 
3328125000  -4.405639e+001  -9.772872e+001 
3331250000  -4.219534e+001  -9.392946e+001 
3334375000  -3.991898e+001  -1.095365e+002 
3337500000  -4.050054e+001  -1.306284e+002 
3340625000  -4.238722e+001  -1.407212e+002 
3343750000  -4.393610e+001  -1.385833e+002 
3346875000  -4.330846e+001  -1.399206e+002 
3350000000  -4.278676e+001  -1.428803e+002 
3353125000  -4.275637e+001  -1.504542e+002 
3356250000  -4.276600e+001  -1.588469e+002 
3359375000  -4.346248e+001  -1.687576e+002 
3362500000  -4.428648e+001  -1.751000e+002 
3365625000  -4.457941e+001  -1.785728e+002 
3368750000  -4.537725e+001  1.778344e+002 
3371875000  -4.605441e+001  1.736080e+002 
3375000000  -4.745025e+001  1.674743e+002 
3378125000  -4.836446e+001  1.699274e+002 
3381250000  -4.997172e+001  1.798061e+002 
3384375000  -4.625004e+001  -1.651394e+002 
3387500000  -4.363427e+001  1.726755e+002 
3390625000  -4.650847e+001  1.533087e+002 
3393750000  -4.690188e+001  1.532330e+002 
3396875000  -4.593179e+001  1.497815e+002 
3400000000  -4.641256e+001  1.412547e+002 
3403125000  -4.719185e+001  1.343980e+002 
3406250000  -4.793081e+001  1.329264e+002 
3409375000  -4.776138e+001  1.284128e+002 
3412500000  -4.874986e+001  1.197147e+002 
3415625000  -4.968658e+001  1.132947e+002 
3418750000  -5.002830e+001  1.167482e+002 
3421875000  -5.142868e+001  1.206185e+002 
3425000000  -4.938579e+001  1.177757e+002 
3428125000  -5.012583e+001  1.151633e+002 
3431250000  -5.021063e+001  1.079171e+002 
3434375000  -5.025168e+001  1.035399e+002 
3437500000  -5.155832e+001  1.035553e+002 
3440625000  -5.182861e+001  1.036186e+002 
3443750000  -5.082744e+001  1.069522e+002 
3446875000  -5.062812e+001  9.960160e+001 
3450000000  -5.000208e+001  9.366546e+001 
3453125000  -5.056678e+001  8.452947e+001 
3456250000  -5.221951e+001  8.255618e+001 
3459375000  -5.306632e+001  8.708414e+001 
3462500000  -5.208702e+001  9.282288e+001 
3465625000  -5.136078e+001  7.551187e+001 
3468750000  -5.257381e+001  8.020819e+001 
3471875000  -5.169937e+001  7.829497e+001 
3475000000  -5.138260e+001  7.475078e+001 
3478125000  -5.125075e+001  6.163991e+001 
3481250000  -5.337334e+001  6.513268e+001 
3484375000  -5.243740e+001  6.267495e+001 
3487500000  -5.153476e+001  6.058931e+001 
3490625000  -5.067116e+001  5.398531e+001 
3493750000  -5.174771e+001  4.849616e+001 
3496875000  -5.178715e+001  4.639031e+001 
3500000000  -5.281563e+001  4.424068e+001 
3503125000  -5.090692e+001  4.644311e+001 
3506250000  -4.957085e+001  3.384792e+001 
3509375000  -4.917408e+001  2.443127e+001 
3512500000  -5.029786e+001  1.329279e+001 
3515625000  -5.121896e+001  1.067002e+001 
3518750000  -5.181402e+001  8.435923e+000 
3521875000  -5.200681e+001  3.764365e+000 
3525000000  -5.384325e+001  -2.534214e+000 
3528125000  -5.215298e+001  1.410253e+001 
3531250000  -5.282557e+001  -2.691464e+000 
3534375000  -5.299201e+001  -1.024399e+001 
3537500000  -5.420472e+001  -2.469367e+001 
3540625000  -5.471609e+001  -1.806400e+001 
3543750000  -5.605305e+001  -2.001974e+001 
3546875000  -5.631084e+001  -1.203614e+001 
3550000000  -5.411612e+001  -1.616572e+001 
3553125000  -5.401295e+001  -4.094461e+001 
3556250000  -5.401347e+001  -3.806083e+001 
3559375000  -5.626883e+001  -3.272724e+001 
3562500000  -5.548778e+001  -4.706199e+001 
3565625000  -5.720587e+001  -4.237693e+001 
3568750000  -5.698116e+001  -3.687364e+001 
3571875000  -5.800576e+001  -3.887705e+001 
3575000000  -5.750105e+001  -4.995058e+001 
3578125000  -5.877990e+001  -4.621182e+001 
3581250000  -5.952861e+001  -4.185012e+001 
3584375000  -5.837512e+001  -4.423677e+001 
3587500000  -5.675191e+001  -4.142830e+001 
3590625000  -5.790263e+001  -4.793567e+001 
3593750000  -6.061928e+001  -3.738608e+001 
3596875000  -5.836052e+001  -3.850819e+001 
3600000000  -5.681270e+001  -3.592570e+001 
3603125000  -6.043602e+001  -5.574525e+001 
3606250000  -5.680001e+001  -5.475927e+001 
3609375000  -5.818225e+001  -3.856834e+001 
3612500000  -5.872826e+001  -5.586038e+001 
3615625000  -6.045513e+001  -5.652513e+001 
3618750000  -5.923286e+001  -5.104178e+001 
3621875000  -5.837404e+001  -5.348608e+001 
3625000000  -5.695465e+001  -3.303856e+001 
3628125000  -5.774900e+001  -4.252051e+001 
3631250000  -5.609257e+001  -5.116424e+001 
3634375000  -5.606171e+001  -5.015861e+001 
3637500000  -5.563779e+001  -4.139010e+001 
3640625000  -5.517924e+001  -3.975126e+001 
3643750000  -5.298489e+001  -4.723774e+001 
3646875000  -5.317363e+001  -5.867319e+001 
3650000000  -5.268508e+001  -5.233611e+001 
3653125000  -5.217996e+001  -6.071161e+001 
3656250000  -5.161582e+001  -6.335564e+001 
3659375000  -5.171196e+001  -6.392476e+001 
3662500000  -5.036617e+001  -6.704385e+001 
3665625000  -5.103288e+001  -7.526305e+001 
3668750000  -4.803153e+001  -6.996582e+001 
3671875000  -4.750170e+001  -8.361887e+001 
3675000000  -4.708871e+001  -9.213518e+001 
3678125000  -4.705302e+001  -9.420197e+001 
3681250000  -4.712391e+001  -1.009858e+002 
3684375000  -4.638692e+001  -1.055617e+002 
3687500000  -4.678239e+001  -1.116206e+002 
3690625000  -4.696671e+001  -1.165752e+002 
3693750000  -4.738809e+001  -1.166767e+002 
3696875000  -4.598018e+001  -1.164062e+002 
3700000000  -4.545836e+001  -1.275804e+002 
3703125000  -4.543819e+001  -1.321697e+002 
3706250000  -4.584483e+001  -1.335039e+002 
3709375000  -4.478547e+001  -1.311738e+002 
3712500000  -4.351098e+001  -1.361093e+002 
3715625000  -4.171668e+001  -1.456575e+002 
3718750000  -4.159584e+001  -1.533730e+002 
3721875000  -4.114544e+001  -1.639064e+002 
3725000000  -4.175469e+001  -1.706317e+002 
3728125000  -4.161258e+001  -1.737101e+002 
3731250000  -4.052579e+001  -1.788432e+002 
3734375000  -4.022029e+001  1.745876e+002 
3737500000  -4.071242e+001  1.655026e+002 
3740625000  -4.111813e+001  1.588795e+002 
3743750000  -4.041673e+001  1.525214e+002 
3746875000  -4.089419e+001  1.448843e+002 
3750000000  -4.083783e+001  1.405048e+002 
3753125000  -4.064961e+001  1.376317e+002 
3756250000  -4.069616e+001  1.340102e+002 
3759375000  -4.036816e+001  1.286864e+002 
3762500000  -4.015565e+001  1.230607e+002 
3765625000  -4.062681e+001  1.182565e+002 
3768750000  -4.007559e+001  1.181331e+002 
3771875000  -3.839842e+001  1.108497e+002 
3775000000  -3.850785e+001  9.885761e+001 
3778125000  -3.908422e+001  9.299966e+001 
3781250000  -3.900674e+001  9.022729e+001 
3784375000  -3.881775e+001  8.214101e+001 
3787500000  -3.844011e+001  7.804572e+001 
3790625000  -3.926305e+001  6.873962e+001 
3793750000  -3.896444e+001  6.367199e+001 
3796875000  -3.825089e+001  6.104581e+001 
3800000000  -3.637070e+001  5.538928e+001 
3803125000  -3.805371e+001  4.219510e+001 
3806250000  -3.896050e+001  3.824574e+001 
3809375000  -3.838399e+001  3.408160e+001 
3812500000  -3.857093e+001  2.471304e+001 
3815625000  -3.952587e+001  1.406239e+001 
3818750000  -4.083422e+001  1.641597e+001 
3821875000  -4.025566e+001  2.644328e+001 
3825000000  -3.810566e+001  2.306902e+001 
3828125000  -3.698673e+001  3.106098e+000 
3831250000  -3.806647e+001  -1.028439e+001 
3834375000  -4.036777e+001  -1.124020e+001 
3837500000  -4.059778e+001  -7.371645e+000 
3840625000  -3.916585e+001  -1.081144e+001 
3843750000  -3.830843e+001  -2.436285e+001 
3846875000  -4.008343e+001  -3.081236e+001 
3850000000  -4.066094e+001  -2.720490e+001 
3853125000  -3.991873e+001  -2.539841e+001 
3856250000  -3.950383e+001  -3.419308e+001 
3859375000  -3.852143e+001  -4.037079e+001 
3862500000  -3.861985e+001  -4.893958e+001 
3865625000  -3.912890e+001  -5.672480e+001 
3868750000  -3.865094e+001  -5.654502e+001 
3871875000  -3.780162e+001  -6.438673e+001 
3875000000  -3.844400e+001  -7.471268e+001 
3878125000  -3.924395e+001  -7.660240e+001 
3881250000  -3.917835e+001  -7.628648e+001 
3884375000  -3.890989e+001  -8.272330e+001 
3887500000  -3.906903e+001  -8.903487e+001 
3890625000  -3.949049e+001  -9.348597e+001 
3893750000  -3.976276e+001  -9.802738e+001 
3896875000  -4.000588e+001  -9.834479e+001 
3900000000  -3.965512e+001  -1.031572e+002 
3903125000  -3.950348e+001  -1.068794e+002 
3906250000  -3.917859e+001  -1.115036e+002 
3909375000  -3.815149e+001  -1.206144e+002 
3912500000  -3.907122e+001  -1.298847e+002 
3915625000  -4.056067e+001  -1.291030e+002 
3918750000  -4.035723e+001  -1.302759e+002 
3921875000  -3.946496e+001  -1.351766e+002 
3925000000  -3.864251e+001  -1.407366e+002 
3928125000  -3.830973e+001  -1.500562e+002 
3931250000  -3.924839e+001  -1.568244e+002 
3934375000  -3.945662e+001  -1.576781e+002 
3937500000  -3.987578e+001  -1.591409e+002 
3940625000  -4.026025e+001  -1.619405e+002 
3943750000  -3.891855e+001  -1.652641e+002 
3946875000  -3.832304e+001  -1.740356e+002 
3950000000  -3.941530e+001  1.766228e+002 
3953125000  -3.996732e+001  1.778875e+002 
3956250000  -3.893616e+001  1.770966e+002 
3959375000  -3.787226e+001  1.723762e+002 
3962500000  -3.758867e+001  1.616671e+002 
3965625000  -3.798046e+001  1.537411e+002 
3968750000  -3.877278e+001  1.453069e+002 
3971875000  -3.847482e+001  1.406301e+002 
3975000000  -3.834193e+001  1.360748e+002 
3978125000  -3.864202e+001  1.315653e+002 
3981250000  -3.884641e+001  1.268322e+002 
3984375000  -3.897558e+001  1.181844e+002 
3987500000  -3.965305e+001  1.144942e+002 
3990625000  -4.014864e+001  1.138315e+002 
3993750000  -3.993792e+001  1.090399e+002 
3996875000  -3.970426e+001  1.037725e+002 
4000000000  -4.086739e+001  1.005089e+002 
4003125000  -4.114475e+001  1.008937e+002 
4006250000  -3.953319e+001  9.750397e+001 
4009375000  -3.828292e+001  8.376931e+001 
4012500000  -3.994907e+001  7.480537e+001 
4015625000  -4.160543e+001  7.503363e+001 
4018750000  -4.124850e+001  7.767136e+001 
4021875000  -4.034788e+001  7.368511e+001 
4025000000  -4.039188e+001  6.582886e+001 
4028125000  -4.059825e+001  5.812500e+001 
4031250000  -4.102229e+001  5.553518e+001 
4034375000  -4.129386e+001  5.503553e+001 
4037500000  -4.095814e+001  5.526934e+001 
4040625000  -4.115717e+001  5.134694e+001 
4043750000  -4.096935e+001  4.751995e+001 
4046875000  -4.069370e+001  4.320778e+001 
4050000000  -4.057320e+001  3.831412e+001 
4053125000  -4.147330e+001  3.593935e+001 
4056250000  -4.133715e+001  4.216055e+001 
4059375000  -3.931867e+001  4.055878e+001 
4062500000  -3.881823e+001  3.049441e+001 
4065625000  -3.891994e+001  2.536722e+001 
4068750000  -3.827409e+001  1.882193e+001 
4071875000  -3.796442e+001  7.253804e+000 
4075000000  -3.846119e+001  9.393448e-001 
4078125000  -3.889364e+001  -2.698713e+000 
4081250000  -3.812442e+001  -7.202606e+000 
4084375000  -3.792908e+001  -1.714498e+001 
4087500000  -3.860478e+001  -2.442277e+001 
4090625000  -3.923916e+001  -2.525888e+001 
4093750000  -3.852400e+001  -2.766033e+001 
4096875000  -3.883383e+001  -3.729433e+001 
4100000000  -3.970954e+001  -4.417796e+001 
4103125000  -4.064601e+001  -4.130462e+001 
4106250000  -4.031015e+001  -3.855177e+001 
4109375000  -3.870550e+001  -4.285440e+001 
4112500000  -3.874367e+001  -5.129413e+001 
4115625000  -3.920383e+001  -6.079772e+001 
4118750000  -3.904066e+001  -6.480601e+001 
4121875000  -3.878878e+001  -7.236302e+001 
4125000000  -3.993746e+001  -7.875249e+001 
4128125000  -4.092549e+001  -7.480935e+001 
4131250000  -3.974496e+001  -7.090772e+001 
4134375000  -3.754950e+001  -8.036383e+001 
4137500000  -3.815977e+001  -1.014761e+002 
4140625000  -4.036271e+001  -1.070647e+002 
4143750000  -4.157236e+001  -9.934302e+001 
4146875000  -4.054996e+001  -9.616946e+001 
4150000000  -3.955321e+001  -1.059784e+002 
4153125000  -4.012191e+001  -1.126359e+002 
4156250000  -4.108044e+001  -1.177852e+002 
4159375000  -4.117717e+001  -1.115014e+002 
4162500000  -3.991258e+001  -1.105695e+002 
4165625000  -3.895909e+001  -1.173505e+002 
4168750000  -3.845552e+001  -1.278898e+002 
4171875000  -3.853186e+001  -1.362074e+002 
4175000000  -3.923235e+001  -1.442640e+002 
4178125000  -3.993373e+001  -1.452627e+002 
4181250000  -3.947990e+001  -1.474694e+002 
4184375000  -3.939725e+001  -1.536895e+002 
4187500000  -3.942260e+001  -1.600815e+002 
4190625000  -3.986541e+001  -1.678453e+002 
4193750000  -4.073283e+001  -1.695312e+002 
4196875000  -4.149960e+001  -1.706588e+002 
4200000000  -4.253196e+001  -1.649959e+002 
4203125000  -4.099255e+001  -1.523252e+002 
4206250000  -3.733110e+001  -1.615477e+002 
4209375000  -3.737597e+001  1.748866e+002 
4212500000  -3.995837e+001  1.653623e+002 
4215625000  -3.987876e+001  1.743929e+002 
4218750000  -3.844755e+001  1.768363e+002 
4221875000  -3.687072e+001  1.667330e+002 
4225000000  -3.800522e+001  1.523185e+002 
4228125000  -3.767133e+001  1.550838e+002 
4231250000  -3.612352e+001  1.473409e+002 
4234375000  -3.639463e+001  1.354500e+002 
4237500000  -3.619493e+001  1.315475e+002 
4240625000  -3.633002e+001  1.194174e+002 
4243750000  -3.758084e+001  1.124620e+002 
4246875000  -3.856037e+001  1.108264e+002 
4250000000  -3.822730e+001  1.110395e+002 
4253125000  -3.826927e+001  1.079993e+002 
4256250000  -3.801558e+001  1.015931e+002 
4259375000  -3.764886e+001  9.734630e+001 
4262500000  -3.809911e+001  9.338667e+001 
4265625000  -3.787395e+001  9.085475e+001 
4268750000  -3.689415e+001  8.379356e+001 
4271875000  -3.675897e+001  7.410593e+001 
4275000000  -3.657262e+001  6.503204e+001 
4278125000  -3.761282e+001  5.461633e+001 
4281250000  -3.895908e+001  5.244769e+001 
4284375000  -3.863446e+001  5.079411e+001 
4287500000  -4.024786e+001  4.769019e+001 
4290625000  -4.047708e+001  5.537141e+001 
4293750000  -3.863502e+001  5.546500e+001 
4296875000  -3.805154e+001  4.393915e+001 
4300000000  -3.923038e+001  3.201703e+001 
4303125000  -3.974476e+001  3.652658e+001 
4306250000  -3.857972e+001  3.995014e+001 
4309375000  -3.773226e+001  3.219569e+001 
4312500000  -3.740257e+001  2.120739e+001 
4315625000  -3.797028e+001  1.191915e+001 
4318750000  -3.859966e+001  8.869002e+000 
4321875000  -3.858089e+001  1.175010e+001 
4325000000  -3.807584e+001  7.742075e+000 
4328125000  -3.711009e+001  -1.459579e+000 
4331250000  -3.755402e+001  -1.210704e+001 
4334375000  -3.831036e+001  -1.842803e+001 
4337500000  -3.935732e+001  -2.028969e+001 
4340625000  -3.977230e+001  -1.430038e+001 
4343750000  -3.860106e+001  -1.696713e+001 
4346875000  -3.838318e+001  -2.607166e+001 
4350000000  -3.856929e+001  -3.389046e+001 
4353125000  -3.906356e+001  -4.200294e+001 
4356250000  -4.092381e+001  -3.807002e+001 
4359375000  -4.010086e+001  -2.185412e+001 
4362500000  -3.645341e+001  -3.203136e+001 
4365625000  -3.588309e+001  -4.917517e+001 
4368750000  -3.734166e+001  -5.951579e+001 
4371875000  -3.787273e+001  -5.905415e+001 
4375000000  -3.713360e+001  -6.426795e+001 
4378125000  -3.690071e+001  -7.033955e+001 
4381250000  -3.709444e+001  -7.977640e+001 
4384375000  -3.708157e+001  -8.610008e+001 
4387500000  -3.813754e+001  -9.239049e+001 
4390625000  -3.860646e+001  -9.213781e+001 
4393750000  -3.798039e+001  -9.391191e+001 
4396875000  -3.735046e+001  -9.856089e+001 
4400000000  -3.690966e+001  -1.076792e+002 
4403125000  -3.791320e+001  -1.158790e+002 
4406250000  -3.828383e+001  -1.197312e+002 
4409375000  -3.867626e+001  -1.233732e+002 
4412500000  -3.966370e+001  -1.268958e+002 
4415625000  -3.967253e+001  -1.217984e+002 
