!Agilent Technologies,E8363B,MY43030201,A.06.04.32
!Agilent E8363B: A.06.04.32
!Date: Tuesday, November 11, 2014 21:30:00
!Correction: S21(Response(S21)) 
!S1P File: Measurement: S21:
# Hz S  dB   R 50
3000000000  -4.055262e+001  8.505961e+001 
3003125000  -4.213652e+001  7.782588e+001 
3006250000  -4.214180e+001  7.569653e+001 
3009375000  -4.268958e+001  8.064745e+001 
3012500000  -4.151513e+001  7.702894e+001 
3015625000  -4.130675e+001  6.924972e+001 
3018750000  -4.167292e+001  7.007745e+001 
3021875000  -4.028005e+001  7.035463e+001 
3025000000  -3.881582e+001  6.681840e+001 
3028125000  -3.789120e+001  5.569664e+001 
3031250000  -3.692632e+001  4.473589e+001 
3034375000  -3.683640e+001  3.062621e+001 
3037500000  -3.753489e+001  2.084473e+001 
3040625000  -3.886692e+001  1.507908e+001 
3043750000  -3.912988e+001  8.965434e+000 
3046875000  -3.962455e+001  1.933132e+000 
3050000000  -4.092422e+001  -2.743202e+000 
3053125000  -4.055489e+001  2.772735e+000 
3056250000  -4.044718e+001  5.489570e+000 
3059375000  -3.963488e+001  4.218259e+000 
3062500000  -3.822993e+001  -1.624821e+000 
3065625000  -3.785624e+001  -1.091730e+001 
3068750000  -3.759331e+001  -1.891262e+001 
3071875000  -3.775241e+001  -2.074538e+001 
3075000000  -3.704337e+001  -2.759836e+001 
3078125000  -3.714261e+001  -3.423884e+001 
3081250000  -3.722198e+001  -3.999332e+001 
3084375000  -3.638805e+001  -4.487064e+001 
3087500000  -3.641337e+001  -5.159685e+001 
3090625000  -3.589857e+001  -6.339631e+001 
3093750000  -3.687070e+001  -7.170492e+001 
3096875000  -3.732756e+001  -7.686097e+001 
3100000000  -3.729612e+001  -7.948022e+001 
3103125000  -3.759885e+001  -8.413898e+001 
3106250000  -3.702546e+001  -8.842484e+001 
3109375000  -3.730853e+001  -9.259193e+001 
3112500000  -3.711927e+001  -9.853381e+001 
3115625000  -3.700750e+001  -1.025624e+002 
3118750000  -3.725170e+001  -1.047473e+002 
3121875000  -3.649025e+001  -1.160848e+002 
3125000000  -3.825075e+001  -1.207329e+002 
3128125000  -3.838769e+001  -1.123529e+002 
3131250000  -3.618058e+001  -1.189059e+002 
3134375000  -3.529473e+001  -1.361786e+002 
3137500000  -3.604060e+001  -1.483703e+002 
3140625000  -3.731319e+001  -1.501319e+002 
3143750000  -3.815257e+001  -1.530334e+002 
3146875000  -3.768541e+001  -1.512469e+002 
3150000000  -3.689830e+001  -1.543604e+002 
3153125000  -3.698611e+001  -1.637540e+002 
3156250000  -3.797708e+001  -1.587053e+002 
3159375000  -3.580124e+001  -1.603746e+002 
3162500000  -3.418029e+001  -1.757187e+002 
3165625000  -3.552291e+001  1.709350e+002 
3168750000  -3.549580e+001  1.704610e+002 
3171875000  -3.492728e+001  1.629530e+002 
3175000000  -3.545335e+001  1.536364e+002 
3178125000  -3.502407e+001  1.522147e+002 
3181250000  -3.443479e+001  1.447492e+002 
3184375000  -3.414286e+001  1.319547e+002 
3187500000  -3.532745e+001  1.172059e+002 
3190625000  -3.732035e+001  1.104483e+002 
3193750000  -3.756474e+001  1.161708e+002 
3196875000  -3.748239e+001  1.178664e+002 
3200000000  -3.625272e+001  1.122085e+002 
3203125000  -3.599674e+001  1.054485e+002 
3206250000  -3.606865e+001  9.733610e+001 
3209375000  -3.576229e+001  8.911345e+001 
3212500000  -3.626837e+001  8.191911e+001 
3215625000  -3.612610e+001  7.879294e+001 
3218750000  -3.684615e+001  6.722647e+001 
3221875000  -3.738874e+001  6.220883e+001 
3225000000  -3.706478e+001  5.834615e+001 
3228125000  -3.763498e+001  5.095399e+001 
3231250000  -3.826092e+001  4.682539e+001 
3234375000  -3.801310e+001  4.574650e+001 
3237500000  -3.806940e+001  4.102160e+001 
3240625000  -3.761377e+001  3.564317e+001 
3243750000  -3.766523e+001  2.590038e+001 
3246875000  -3.835971e+001  1.815101e+001 
3250000000  -3.882026e+001  1.465011e+001 
3253125000  -3.903187e+001  1.112198e+001 
3256250000  -3.865140e+001  2.900137e+000 
3259375000  -3.920810e+001  -8.277650e+000 
3262500000  -4.081837e+001  -1.186110e+001 
3265625000  -4.119119e+001  -7.794132e+000 
3268750000  -4.113294e+001  -7.367056e+000 
3271875000  -4.068612e+001  -1.053256e+001 
3275000000  -4.017642e+001  -2.001295e+001 
3278125000  -4.079404e+001  -2.483358e+001 
3281250000  -4.110111e+001  -2.497640e+001 
3284375000  -4.068545e+001  -3.180166e+001 
3287500000  -4.105751e+001  -3.616307e+001 
3290625000  -4.132417e+001  -4.319289e+001 
3293750000  -4.104120e+001  -4.927855e+001 
3296875000  -4.266609e+001  -5.077264e+001 
3300000000  -4.183630e+001  -5.066598e+001 
3303125000  -4.093954e+001  -5.630775e+001 
3306250000  -4.085970e+001  -6.451316e+001 
3309375000  -4.068582e+001  -7.175552e+001 
3312500000  -4.081345e+001  -8.291492e+001 
3315625000  -4.223026e+001  -9.114396e+001 
3318750000  -4.363326e+001  -9.762878e+001 
3321875000  -4.491537e+001  -9.082847e+001 
3325000000  -4.460941e+001  -8.201207e+001 
3328125000  -4.403712e+001  -8.626521e+001 
3331250000  -4.241166e+001  -8.117966e+001 
3334375000  -3.996526e+001  -9.811426e+001 
3337500000  -4.055863e+001  -1.177520e+002 
3340625000  -4.218669e+001  -1.285848e+002 
3343750000  -4.404805e+001  -1.277349e+002 
3346875000  -4.356556e+001  -1.278022e+002 
3350000000  -4.315103e+001  -1.290310e+002 
3353125000  -4.255000e+001  -1.368293e+002 
3356250000  -4.263190e+001  -1.458570e+002 
3359375000  -4.381176e+001  -1.563989e+002 
3362500000  -4.430173e+001  -1.625061e+002 
3365625000  -4.478342e+001  -1.674783e+002 
3368750000  -4.544494e+001  -1.708537e+002 
3371875000  -4.604604e+001  -1.758734e+002 
3375000000  -4.773713e+001  -1.769689e+002 
3378125000  -4.815970e+001  1.786780e+002 
3381250000  -4.971133e+001  -1.669510e+002 
3384375000  -4.662346e+001  -1.546857e+002 
3387500000  -4.416640e+001  -1.721512e+002 
3390625000  -4.664495e+001  1.658504e+002 
3393750000  -4.745258e+001  1.665049e+002 
3396875000  -4.615975e+001  1.635736e+002 
3400000000  -4.597749e+001  1.542986e+002 
3403125000  -4.709413e+001  1.452999e+002 
3406250000  -4.749627e+001  1.416448e+002 
3409375000  -4.789239e+001  1.346129e+002 
3412500000  -4.917196e+001  1.343376e+002 
3415625000  -5.049171e+001  1.295506e+002 
3418750000  -5.023380e+001  1.309867e+002 
3421875000  -5.114108e+001  1.279201e+002 
3425000000  -5.036732e+001  1.307897e+002 
3428125000  -4.974931e+001  1.271359e+002 
3431250000  -4.953691e+001  1.175649e+002 
3434375000  -5.105603e+001  1.167024e+002 
3437500000  -5.268523e+001  1.113323e+002 
3440625000  -5.273709e+001  1.169612e+002 
3443750000  -5.092583e+001  1.139670e+002 
3446875000  -5.077571e+001  1.149539e+002 
3450000000  -5.061856e+001  1.045843e+002 
3453125000  -5.104025e+001  1.019486e+002 
3456250000  -5.143466e+001  9.601854e+001 
3459375000  -5.314196e+001  9.862740e+001 
3462500000  -5.286159e+001  9.797680e+001 
3465625000  -5.150191e+001  9.328944e+001 
3468750000  -5.217388e+001  9.504289e+001 
3471875000  -5.243248e+001  8.765922e+001 
3475000000  -5.120057e+001  8.454722e+001 
3478125000  -5.153193e+001  7.746425e+001 
3481250000  -5.244291e+001  7.800183e+001 
3484375000  -5.281038e+001  7.831390e+001 
3487500000  -5.127974e+001  7.583754e+001 
3490625000  -5.058066e+001  7.206592e+001 
3493750000  -5.152277e+001  6.423366e+001 
3496875000  -5.186455e+001  5.998750e+001 
3500000000  -5.263232e+001  5.764127e+001 
3503125000  -5.089465e+001  5.992232e+001 
3506250000  -4.974242e+001  5.175809e+001 
3509375000  -4.963511e+001  3.827932e+001 
3512500000  -5.102188e+001  2.511933e+001 
3515625000  -5.200821e+001  1.787013e+001 
3518750000  -5.203625e+001  2.465349e+001 
3521875000  -5.297744e+001  1.603990e+001 
3525000000  -5.317523e+001  1.277148e+001 
3528125000  -5.289642e+001  2.498315e+001 
3531250000  -5.162521e+001  1.863714e+001 
3534375000  -5.267583e+001  -2.339782e+000 
3537500000  -5.405333e+001  -9.346014e+000 
3540625000  -5.521774e+001  -3.605300e+000 
3543750000  -5.659761e+001  -1.284751e+000 
3546875000  -5.636886e+001  -1.139542e+000 
3550000000  -5.437352e+001  -1.280813e+001 
3553125000  -5.409283e+001  -2.001046e+001 
3556250000  -5.585434e+001  -2.419935e+001 
3559375000  -5.616067e+001  -2.297577e+001 
3562500000  -5.724079e+001  -3.337929e+001 
3565625000  -5.650796e+001  -3.416171e+001 
3568750000  -5.858112e+001  -1.973936e+001 
3571875000  -5.762489e+001  -3.089423e+001 
3575000000  -5.941294e+001  -1.707968e+001 
3578125000  -6.095385e+001  -2.353163e+001 
3581250000  -5.714753e+001  -2.219501e+001 
3584375000  -5.801371e+001  -3.119539e+001 
3587500000  -5.864652e+001  -3.194921e+001 
3590625000  -5.894940e+001  -3.337357e+001 
3593750000  -5.988736e+001  -2.977544e+001 
3596875000  -5.944708e+001  -2.198055e+001 
3600000000  -5.814312e+001  -2.918815e+001 
3603125000  -5.793116e+001  -4.821897e+001 
3606250000  -5.837888e+001  -2.466036e+001 
3609375000  -5.850080e+001  -2.058625e+001 
3612500000  -5.814233e+001  -2.401664e+001 
3615625000  -5.846838e+001  -3.445108e+001 
3618750000  -6.033329e+001  -3.367023e+001 
3621875000  -5.684750e+001  -2.654115e+001 
3625000000  -5.819001e+001  -3.051994e+001 
3628125000  -5.524389e+001  -1.927891e+001 
3631250000  -5.562474e+001  -2.963086e+001 
3634375000  -5.635712e+001  -2.987795e+001 
3637500000  -5.542800e+001  -2.593151e+001 
3640625000  -5.368230e+001  -2.221755e+001 
3643750000  -5.263320e+001  -3.314956e+001 
3646875000  -5.249748e+001  -4.800308e+001 
3650000000  -5.271038e+001  -3.913453e+001 
3653125000  -5.143042e+001  -4.727352e+001 
3656250000  -5.180128e+001  -4.784521e+001 
3659375000  -5.093250e+001  -5.000470e+001 
3662500000  -5.007550e+001  -5.725936e+001 
3665625000  -4.995496e+001  -5.920215e+001 
3668750000  -4.847176e+001  -6.179408e+001 
3671875000  -4.805967e+001  -7.057471e+001 
3675000000  -4.755819e+001  -8.018211e+001 
3678125000  -4.795149e+001  -7.863358e+001 
3681250000  -4.598949e+001  -8.646738e+001 
3684375000  -4.646574e+001  -9.523561e+001 
3687500000  -4.671067e+001  -9.650907e+001 
3690625000  -4.665899e+001  -1.034231e+002 
3693750000  -4.686524e+001  -1.034247e+002 
3696875000  -4.621455e+001  -1.005978e+002 
3700000000  -4.529201e+001  -1.112687e+002 
3703125000  -4.531557e+001  -1.146148e+002 
3706250000  -4.574097e+001  -1.186416e+002 
3709375000  -4.436773e+001  -1.188774e+002 
3712500000  -4.357640e+001  -1.246299e+002 
3715625000  -4.221725e+001  -1.331181e+002 
3718750000  -4.178797e+001  -1.386049e+002 
3721875000  -4.127858e+001  -1.494575e+002 
3725000000  -4.163634e+001  -1.567707e+002 
3728125000  -4.147529e+001  -1.583464e+002 
3731250000  -4.058641e+001  -1.643734e+002 
3734375000  -3.985500e+001  -1.718681e+002 
3737500000  -4.081033e+001  1.778664e+002 
3740625000  -4.060905e+001  1.719886e+002 
3743750000  -4.059331e+001  1.656637e+002 
3746875000  -4.073389e+001  1.613819e+002 
3750000000  -4.082614e+001  1.554270e+002 
3753125000  -4.058947e+001  1.534613e+002 
3756250000  -4.075458e+001  1.499006e+002 
3759375000  -4.037303e+001  1.441096e+002 
3762500000  -4.002203e+001  1.366072e+002 
3765625000  -4.070833e+001  1.312893e+002 
3768750000  -4.007449e+001  1.305105e+002 
3771875000  -3.842635e+001  1.250229e+002 
3775000000  -3.835759e+001  1.142936e+002 
3778125000  -3.902549e+001  1.075077e+002 
3781250000  -3.921525e+001  1.033016e+002 
3784375000  -3.897717e+001  9.735239e+001 
3787500000  -3.839867e+001  9.141547e+001 
3790625000  -3.936853e+001  8.235832e+001 
3793750000  -3.908120e+001  7.906821e+001 
3796875000  -3.829897e+001  7.575558e+001 
3800000000  -3.640244e+001  7.017370e+001 
3803125000  -3.805159e+001  5.642610e+001 
3806250000  -3.903208e+001  5.184647e+001 
3809375000  -3.867894e+001  4.777116e+001 
3812500000  -3.855911e+001  3.771284e+001 
3815625000  -3.943438e+001  3.025656e+001 
3818750000  -4.071849e+001  3.004594e+001 
3821875000  -4.028835e+001  3.969949e+001 
3825000000  -3.828576e+001  3.779129e+001 
3828125000  -3.718326e+001  1.849842e+001 
3831250000  -3.817218e+001  4.552800e+000 
3834375000  -4.064701e+001  2.719592e+000 
3837500000  -4.055322e+001  7.167779e+000 
3840625000  -3.914542e+001  3.317965e+000 
3843750000  -3.836861e+001  -1.135872e+001 
3846875000  -4.006651e+001  -1.793207e+001 
3850000000  -4.093262e+001  -1.004924e+001 
3853125000  -4.016425e+001  -1.076470e+001 
3856250000  -3.941725e+001  -1.885581e+001 
3859375000  -3.872491e+001  -2.562518e+001 
3862500000  -3.864880e+001  -3.559171e+001 
3865625000  -3.895462e+001  -4.096649e+001 
3868750000  -3.889687e+001  -4.217828e+001 
3871875000  -3.810276e+001  -4.876865e+001 
3875000000  -3.857203e+001  -5.744827e+001 
3878125000  -3.958222e+001  -6.134525e+001 
3881250000  -3.951080e+001  -6.195525e+001 
3884375000  -3.905546e+001  -6.798194e+001 
3887500000  -3.917493e+001  -7.368389e+001 
3890625000  -3.954669e+001  -7.964983e+001 
3893750000  -3.960321e+001  -8.315180e+001 
3896875000  -4.011649e+001  -8.467761e+001 
3900000000  -3.988065e+001  -8.825962e+001 
3903125000  -3.935808e+001  -9.267545e+001 
3906250000  -3.893568e+001  -9.654803e+001 
3909375000  -3.820178e+001  -1.046382e+002 
3912500000  -3.905266e+001  -1.154323e+002 
3915625000  -4.048391e+001  -1.127976e+002 
3918750000  -3.986998e+001  -1.127306e+002 
3921875000  -3.941470e+001  -1.205475e+002 
3925000000  -3.867097e+001  -1.247867e+002 
3928125000  -3.823610e+001  -1.348188e+002 
3931250000  -3.891525e+001  -1.428804e+002 
3934375000  -3.954102e+001  -1.425829e+002 
3937500000  -4.008833e+001  -1.428549e+002 
3940625000  -3.976449e+001  -1.462280e+002 
3943750000  -3.895533e+001  -1.479714e+002 
3946875000  -3.854845e+001  -1.589060e+002 
3950000000  -3.945389e+001  -1.676911e+002 
3953125000  -4.027663e+001  -1.660534e+002 
3956250000  -3.868224e+001  -1.668250e+002 
3959375000  -3.789597e+001  -1.728994e+002 
3962500000  -3.795424e+001  1.789208e+002 
3965625000  -3.798822e+001  1.686092e+002 
3968750000  -3.873898e+001  1.613074e+002 
3971875000  -3.880765e+001  1.562276e+002 
3975000000  -3.848808e+001  1.529130e+002 
3978125000  -3.851372e+001  1.479423e+002 
3981250000  -3.903354e+001  1.410831e+002 
3984375000  -3.885101e+001  1.331930e+002 
3987500000  -3.968778e+001  1.308690e+002 
3990625000  -4.011312e+001  1.286316e+002 
3993750000  -4.003688e+001  1.229324e+002 
3996875000  -3.993543e+001  1.192972e+002 
4000000000  -4.074842e+001  1.134672e+002 
4003125000  -4.090343e+001  1.159139e+002 
4006250000  -3.952175e+001  1.133340e+002 
4009375000  -3.884740e+001  1.000093e+002 
4012500000  -4.013547e+001  9.232872e+001 
4015625000  -4.165171e+001  9.173561e+001 
4018750000  -4.148054e+001  9.177584e+001 
4021875000  -4.061259e+001  8.825668e+001 
4025000000  -4.069997e+001  8.255142e+001 
4028125000  -4.056281e+001  7.838697e+001 
4031250000  -4.150794e+001  7.383789e+001 
4034375000  -4.169070e+001  7.165054e+001 
4037500000  -4.103462e+001  7.343388e+001 
4040625000  -4.114796e+001  6.806799e+001 
4043750000  -4.114557e+001  6.549555e+001 
4046875000  -4.089304e+001  5.929907e+001 
4050000000  -4.053995e+001  5.578962e+001 
4053125000  -4.125312e+001  5.229063e+001 
4056250000  -4.172878e+001  5.669303e+001 
4059375000  -3.970297e+001  5.423758e+001 
4062500000  -3.915484e+001  4.643525e+001 
4065625000  -3.907301e+001  4.165854e+001 
4068750000  -3.823146e+001  3.340698e+001 
4071875000  -3.816911e+001  2.370895e+001 
4075000000  -3.849899e+001  1.698047e+001 
4078125000  -3.875211e+001  1.376942e+001 
4081250000  -3.837008e+001  9.666740e+000 
4084375000  -3.801506e+001  -1.386169e+000 
4087500000  -3.864128e+001  -7.478277e+000 
4090625000  -3.933698e+001  -8.569124e+000 
4093750000  -3.861742e+001  -1.230118e+001 
4096875000  -3.873364e+001  -2.252052e+001 
4100000000  -3.956141e+001  -2.902595e+001 
4103125000  -4.059920e+001  -2.832877e+001 
4106250000  -4.000098e+001  -2.344940e+001 
4109375000  -3.934189e+001  -2.938115e+001 
4112500000  -3.876349e+001  -3.696148e+001 
4115625000  -3.948215e+001  -4.478139e+001 
4118750000  -3.898352e+001  -4.734622e+001 
4121875000  -3.887585e+001  -5.594273e+001 
4125000000  -3.980477e+001  -6.203004e+001 
4128125000  -4.086724e+001  -6.022573e+001 
4131250000  -4.008220e+001  -5.617701e+001 
4134375000  -3.776326e+001  -6.447161e+001 
4137500000  -3.824242e+001  -8.581211e+001 
4140625000  -4.035403e+001  -9.382081e+001 
4143750000  -4.168082e+001  -8.443655e+001 
4146875000  -4.078900e+001  -8.025796e+001 
4150000000  -3.949143e+001  -9.011783e+001 
4153125000  -4.018443e+001  -9.774702e+001 
4156250000  -4.150245e+001  -1.019151e+002 
4159375000  -4.119208e+001  -9.575102e+001 
4162500000  -3.997108e+001  -9.400728e+001 
4165625000  -3.890379e+001  -1.028965e+002 
4168750000  -3.873298e+001  -1.124004e+002 
4171875000  -3.843588e+001  -1.210693e+002 
4175000000  -3.942373e+001  -1.280790e+002 
4178125000  -3.965095e+001  -1.280160e+002 
4181250000  -3.935605e+001  -1.331412e+002 
4184375000  -3.971184e+001  -1.377146e+002 
4187500000  -3.953005e+001  -1.418199e+002 
4190625000  -3.953195e+001  -1.502992e+002 
4193750000  -4.073891e+001  -1.565295e+002 
4196875000  -4.134859e+001  -1.554078e+002 
4200000000  -4.266089e+001  -1.518410e+002 
4203125000  -4.123819e+001  -1.388892e+002 
4206250000  -3.761337e+001  -1.466527e+002 
4209375000  -3.735306e+001  -1.703631e+002 
4212500000  -3.944049e+001  -1.757715e+002 
4215625000  -4.004376e+001  -1.686131e+002 
4218750000  -3.848406e+001  -1.689316e+002 
4221875000  -3.678204e+001  -1.778513e+002 
4225000000  -3.782866e+001  1.693222e+002 
4228125000  -3.797172e+001  1.704515e+002 
4231250000  -3.631247e+001  1.635391e+002 
4234375000  -3.641310e+001  1.525195e+002 
4237500000  -3.637508e+001  1.484977e+002 
4240625000  -3.634543e+001  1.364503e+002 
4243750000  -3.758322e+001  1.270621e+002 
4246875000  -3.849254e+001  1.271689e+002 
4250000000  -3.837399e+001  1.268014e+002 
4253125000  -3.818485e+001  1.241090e+002 
4256250000  -3.800714e+001  1.186747e+002 
4259375000  -3.791689e+001  1.138440e+002 
4262500000  -3.817376e+001  1.092458e+002 
4265625000  -3.791124e+001  1.066085e+002 
4268750000  -3.703492e+001  1.007649e+002 
4271875000  -3.694028e+001  9.053386e+001 
4275000000  -3.652565e+001  8.332235e+001 
4278125000  -3.752791e+001  6.911530e+001 
4281250000  -3.930265e+001  6.795641e+001 
4284375000  -3.875179e+001  6.642661e+001 
4287500000  -4.001435e+001  6.353783e+001 
4290625000  -4.085942e+001  6.803568e+001 
4293750000  -3.908781e+001  7.288949e+001 
4296875000  -3.794172e+001  5.900694e+001 
4300000000  -3.902893e+001  4.774828e+001 
4303125000  -3.976593e+001  5.207630e+001 
4306250000  -3.853066e+001  5.309108e+001 
4309375000  -3.767562e+001  5.091206e+001 
4312500000  -3.770140e+001  3.672982e+001 
4315625000  -3.800742e+001  2.894560e+001 
4318750000  -3.875455e+001  2.499400e+001 
4321875000  -3.894762e+001  2.685861e+001 
4325000000  -3.803519e+001  2.519467e+001 
4328125000  -3.733012e+001  1.645282e+001 
4331250000  -3.784986e+001  5.250586e+000 
4334375000  -3.840117e+001  -2.183104e+000 
4337500000  -3.959161e+001  -2.871542e+000 
4340625000  -3.974274e+001  2.057433e+000 
4343750000  -3.865693e+001  -2.045656e+000 
4346875000  -3.843912e+001  -9.453852e+000 
4350000000  -3.849814e+001  -1.677618e+001 
4353125000  -3.896106e+001  -2.616367e+001 
4356250000  -4.113376e+001  -2.154675e+001 
4359375000  -4.036855e+001  -9.524741e+000 
4362500000  -3.694915e+001  -1.619716e+001 
4365625000  -3.600305e+001  -3.349093e+001 
4368750000  -3.733242e+001  -4.412847e+001 
4371875000  -3.810493e+001  -4.279143e+001 
4375000000  -3.723544e+001  -4.775824e+001 
4378125000  -3.701005e+001  -5.444104e+001 
4381250000  -3.739497e+001  -6.226088e+001 
4384375000  -3.721490e+001  -6.973718e+001 
4387500000  -3.809775e+001  -7.540604e+001 
4390625000  -3.876139e+001  -7.530447e+001 
4393750000  -3.807430e+001  -7.487905e+001 
4396875000  -3.756267e+001  -8.036829e+001 
4400000000  -3.690400e+001  -8.834417e+001 
4403125000  -3.809977e+001  -9.969138e+001 
4406250000  -3.834735e+001  -1.023185e+002 
4409375000  -3.893112e+001  -1.082210e+002 
4412500000  -3.974188e+001  -1.085786e+002 
4415625000  -3.928625e+001  -1.059675e+002 
