!Agilent Technologies,E8363B,MY43030201,A.06.04.32
!Agilent E8363B: A.06.04.32
!Date: Tuesday, November 11, 2014 21:31:07
!Correction: S21(Response(S21)) 
!S1P File: Measurement: S21:
# Hz S  dB   R 50
3000000000  -4.059719e+001  8.208288e+001 
3003125000  -4.233075e+001  7.417210e+001 
3006250000  -4.239053e+001  7.264927e+001 
3009375000  -4.294862e+001  7.611449e+001 
3012500000  -4.155706e+001  7.255291e+001 
3015625000  -4.157122e+001  6.772615e+001 
3018750000  -4.194360e+001  6.816162e+001 
3021875000  -4.037019e+001  6.694885e+001 
3025000000  -3.893458e+001  6.407426e+001 
3028125000  -3.798667e+001  5.268485e+001 
3031250000  -3.697276e+001  4.164885e+001 
3034375000  -3.682783e+001  2.821786e+001 
3037500000  -3.766457e+001  1.691480e+001 
3040625000  -3.878260e+001  1.250755e+001 
3043750000  -3.910905e+001  5.764407e+000 
3046875000  -3.975777e+001  3.876876e-001 
3050000000  -4.099120e+001  -5.532902e+000 
3053125000  -4.075420e+001  -9.035355e-002 
3056250000  -4.041478e+001  2.172733e+000 
3059375000  -3.997594e+001  1.956007e-001 
3062500000  -3.826462e+001  -4.636347e+000 
3065625000  -3.803072e+001  -1.379623e+001 
3068750000  -3.762279e+001  -2.320578e+001 
3071875000  -3.777704e+001  -2.321997e+001 
3075000000  -3.704427e+001  -2.977307e+001 
3078125000  -3.715537e+001  -3.614841e+001 
3081250000  -3.735707e+001  -4.296235e+001 
3084375000  -3.638359e+001  -4.747386e+001 
3087500000  -3.649075e+001  -5.427965e+001 
3090625000  -3.603092e+001  -6.633492e+001 
3093750000  -3.689788e+001  -7.442308e+001 
3096875000  -3.735488e+001  -8.024220e+001 
3100000000  -3.738080e+001  -8.366767e+001 
3103125000  -3.760698e+001  -8.651509e+001 
3106250000  -3.726763e+001  -9.161407e+001 
3109375000  -3.729886e+001  -9.534872e+001 
3112500000  -3.717106e+001  -1.012397e+002 
3115625000  -3.714125e+001  -1.052833e+002 
3118750000  -3.726255e+001  -1.085725e+002 
3121875000  -3.657778e+001  -1.194428e+002 
3125000000  -3.859365e+001  -1.238993e+002 
3128125000  -3.863980e+001  -1.154357e+002 
3131250000  -3.605900e+001  -1.209781e+002 
3134375000  -3.535118e+001  -1.385831e+002 
3137500000  -3.606601e+001  -1.525430e+002 
3140625000  -3.739166e+001  -1.541013e+002 
3143750000  -3.818455e+001  -1.553943e+002 
3146875000  -3.780630e+001  -1.533976e+002 
3150000000  -3.688337e+001  -1.572467e+002 
3153125000  -3.727767e+001  -1.664659e+002 
3156250000  -3.795514e+001  -1.628817e+002 
3159375000  -3.570152e+001  -1.639712e+002 
3162500000  -3.419072e+001  -1.795906e+002 
3165625000  -3.547072e+001  1.676276e+002 
3168750000  -3.548915e+001  1.666873e+002 
3171875000  -3.484739e+001  1.599656e+002 
3175000000  -3.550861e+001  1.495867e+002 
3178125000  -3.511289e+001  1.488988e+002 
3181250000  -3.430516e+001  1.410071e+002 
3184375000  -3.412583e+001  1.286802e+002 
3187500000  -3.540446e+001  1.139999e+002 
3190625000  -3.720474e+001  1.068517e+002 
3193750000  -3.751428e+001  1.139586e+002 
3196875000  -3.735716e+001  1.145812e+002 
3200000000  -3.627174e+001  1.090975e+002 
3203125000  -3.592156e+001  1.012743e+002 
3206250000  -3.608823e+001  9.357735e+001 
3209375000  -3.574277e+001  8.559798e+001 
3212500000  -3.622087e+001  7.892665e+001 
3215625000  -3.601983e+001  7.628574e+001 
3218750000  -3.676419e+001  6.459216e+001 
3221875000  -3.730783e+001  5.861744e+001 
3225000000  -3.701164e+001  5.473488e+001 
3228125000  -3.780320e+001  4.701874e+001 
3231250000  -3.834660e+001  4.527608e+001 
3234375000  -3.794106e+001  4.263774e+001 
3237500000  -3.814228e+001  3.780692e+001 
3240625000  -3.750457e+001  3.301751e+001 
3243750000  -3.783253e+001  2.286049e+001 
3246875000  -3.819852e+001  1.603304e+001 
3250000000  -3.875841e+001  1.215542e+001 
3253125000  -3.902026e+001  8.478480e+000 
3256250000  -3.850046e+001  4.815049e-001 
3259375000  -3.909322e+001  -1.069236e+001 
3262500000  -4.076927e+001  -1.377952e+001 
3265625000  -4.107853e+001  -1.059394e+001 
3268750000  -4.141355e+001  -1.011504e+001 
3271875000  -4.065944e+001  -1.399979e+001 
3275000000  -4.022446e+001  -2.203078e+001 
3278125000  -4.082757e+001  -2.702304e+001 
3281250000  -4.088588e+001  -2.885419e+001 
3284375000  -4.057197e+001  -3.492113e+001 
3287500000  -4.095535e+001  -3.944580e+001 
3290625000  -4.109366e+001  -4.766813e+001 
3293750000  -4.095574e+001  -4.931398e+001 
3296875000  -4.238431e+001  -5.300224e+001 
3300000000  -4.174913e+001  -5.421434e+001 
3303125000  -4.106428e+001  -5.981568e+001 
3306250000  -4.066898e+001  -6.693964e+001 
3309375000  -4.043452e+001  -7.454863e+001 
3312500000  -4.117837e+001  -8.623215e+001 
3315625000  -4.201364e+001  -9.460008e+001 
3318750000  -4.379836e+001  -9.729609e+001 
3321875000  -4.493006e+001  -9.357212e+001 
3325000000  -4.451309e+001  -8.663647e+001 
3328125000  -4.357148e+001  -8.965541e+001 
3331250000  -4.225951e+001  -8.493851e+001 
3334375000  -3.973862e+001  -9.997039e+001 
3337500000  -4.042656e+001  -1.215543e+002 
3340625000  -4.205280e+001  -1.314561e+002 
3343750000  -4.406238e+001  -1.281229e+002 
3346875000  -4.358727e+001  -1.296690e+002 
3350000000  -4.307931e+001  -1.321129e+002 
3353125000  -4.275966e+001  -1.394738e+002 
3356250000  -4.252236e+001  -1.488230e+002 
3359375000  -4.331165e+001  -1.611671e+002 
3362500000  -4.428231e+001  -1.649478e+002 
3365625000  -4.471407e+001  -1.701306e+002 
3368750000  -4.529394e+001  -1.719957e+002 
3371875000  -4.576014e+001  -1.772729e+002 
3375000000  -4.668664e+001  1.798561e+002 
3378125000  -4.792925e+001  1.791107e+002 
3381250000  -4.968435e+001  -1.722481e+002 
3384375000  -4.683192e+001  -1.556871e+002 
3387500000  -4.382133e+001  -1.789647e+002 
3390625000  -4.630293e+001  1.621863e+002 
3393750000  -4.724890e+001  1.655686e+002 
3396875000  -4.594179e+001  1.616823e+002 
3400000000  -4.562757e+001  1.503354e+002 
3403125000  -4.697453e+001  1.420516e+002 
3406250000  -4.786567e+001  1.425359e+002 
3409375000  -4.816059e+001  1.392828e+002 
3412500000  -4.864225e+001  1.300537e+002 
3415625000  -4.996798e+001  1.276997e+002 
3418750000  -5.013581e+001  1.297978e+002 
3421875000  -5.050137e+001  1.311150e+002 
3425000000  -4.975282e+001  1.325703e+002 
3428125000  -4.918134e+001  1.284252e+002 
3431250000  -5.009749e+001  1.192192e+002 
3434375000  -5.026832e+001  1.129053e+002 
3437500000  -5.138162e+001  1.089560e+002 
3440625000  -5.182121e+001  1.174594e+002 
3443750000  -5.009244e+001  1.185413e+002 
3446875000  -4.963554e+001  1.129400e+002 
3450000000  -4.975249e+001  1.027244e+002 
3453125000  -5.010735e+001  9.073221e+001 
3456250000  -5.132361e+001  9.007352e+001 
3459375000  -5.242999e+001  9.660682e+001 
3462500000  -5.211404e+001  1.000616e+002 
3465625000  -5.102299e+001  8.663264e+001 
3468750000  -5.237412e+001  8.692624e+001 
3471875000  -5.203024e+001  9.393367e+001 
3475000000  -5.077966e+001  7.791346e+001 
3478125000  -5.087429e+001  6.976987e+001 
3481250000  -5.207425e+001  7.325932e+001 
3484375000  -5.173644e+001  7.852005e+001 
3487500000  -5.076470e+001  7.051516e+001 
3490625000  -4.988284e+001  6.558118e+001 
3493750000  -5.093679e+001  5.457357e+001 
3496875000  -5.117450e+001  6.027927e+001 
3500000000  -5.230969e+001  5.774726e+001 
3503125000  -5.065448e+001  5.194287e+001 
3506250000  -4.909784e+001  4.635272e+001 
3509375000  -4.880669e+001  3.884917e+001 
3512500000  -4.968627e+001  2.219350e+001 
3515625000  -5.096679e+001  1.816129e+001 
3518750000  -5.179277e+001  2.127371e+001 
3521875000  -5.189317e+001  1.367301e+001 
3525000000  -5.229990e+001  9.370422e+000 
3528125000  -5.194293e+001  1.055701e+001 
3531250000  -5.173889e+001  4.786494e+000 
3534375000  -5.203654e+001  -1.003233e+001 
3537500000  -5.309015e+001  -1.204253e+001 
3540625000  -5.459243e+001  -1.616812e+001 
3543750000  -5.532809e+001  -8.913861e+000 
3546875000  -5.491163e+001  -4.109961e+000 
3550000000  -5.248537e+001  -9.025359e+000 
3553125000  -5.349193e+001  -2.294390e+001 
3556250000  -5.458067e+001  -3.598670e+001 
3559375000  -5.565795e+001  -2.360783e+001 
3562500000  -5.547459e+001  -4.231030e+001 
3565625000  -5.555440e+001  -4.790380e+001 
3568750000  -5.670661e+001  -3.414621e+001 
3571875000  -5.783443e+001  -3.641690e+001 
3575000000  -5.799026e+001  -3.271507e+001 
3578125000  -5.769725e+001  -3.934585e+001 
3581250000  -5.762925e+001  -3.797826e+001 
3584375000  -5.650930e+001  -3.728337e+001 
3587500000  -5.679249e+001  -3.770539e+001 
3590625000  -5.899232e+001  -4.872426e+001 
3593750000  -5.892171e+001  -4.885880e+001 
3596875000  -5.868595e+001  -3.420762e+001 
3600000000  -5.568967e+001  -4.580745e+001 
3603125000  -5.957476e+001  -5.080658e+001 
3606250000  -5.865142e+001  -4.841820e+001 
3609375000  -6.132797e+001  -4.752319e+001 
3612500000  -5.853770e+001  -3.923916e+001 
3615625000  -5.892272e+001  -5.656686e+001 
3618750000  -5.902398e+001  -3.397722e+001 
3621875000  -5.648064e+001  -3.883284e+001 
3625000000  -5.823411e+001  -4.001544e+001 
3628125000  -5.623707e+001  -2.651682e+001 
3631250000  -5.810203e+001  -4.497480e+001 
3634375000  -5.804755e+001  -4.259334e+001 
3637500000  -5.687199e+001  -3.638090e+001 
3640625000  -5.467859e+001  -3.242177e+001 
3643750000  -5.281855e+001  -3.907939e+001 
3646875000  -5.398048e+001  -4.858278e+001 
3650000000  -5.209807e+001  -4.909921e+001 
3653125000  -5.259997e+001  -4.845037e+001 
3656250000  -5.270042e+001  -5.951427e+001 
3659375000  -5.199459e+001  -5.057350e+001 
3662500000  -5.101352e+001  -6.287020e+001 
3665625000  -5.010865e+001  -6.244461e+001 
3668750000  -4.775882e+001  -6.606454e+001 
3671875000  -4.832026e+001  -7.146939e+001 
3675000000  -4.737491e+001  -8.392011e+001 
3678125000  -4.763456e+001  -8.759903e+001 
3681250000  -4.687873e+001  -9.154634e+001 
3684375000  -4.721432e+001  -9.492738e+001 
3687500000  -4.698778e+001  -1.020951e+002 
3690625000  -4.697207e+001  -1.091629e+002 
3693750000  -4.694404e+001  -1.106426e+002 
3696875000  -4.649551e+001  -1.096468e+002 
3700000000  -4.535425e+001  -1.174799e+002 
3703125000  -4.545070e+001  -1.227547e+002 
3706250000  -4.607306e+001  -1.240106e+002 
3709375000  -4.497427e+001  -1.238615e+002 
3712500000  -4.394467e+001  -1.266421e+002 
3715625000  -4.201189e+001  -1.365331e+002 
3718750000  -4.195456e+001  -1.430378e+002 
3721875000  -4.118915e+001  -1.519976e+002 
3725000000  -4.170401e+001  -1.584031e+002 
3728125000  -4.168009e+001  -1.637707e+002 
3731250000  -4.057944e+001  -1.684052e+002 
3734375000  -4.024060e+001  -1.744577e+002 
3737500000  -4.106414e+001  1.748776e+002 
3740625000  -4.093425e+001  1.687714e+002 
3743750000  -4.059488e+001  1.617555e+002 
3746875000  -4.074129e+001  1.560097e+002 
3750000000  -4.107537e+001  1.525633e+002 
3753125000  -4.077689e+001  1.496096e+002 
3756250000  -4.071435e+001  1.441985e+002 
3759375000  -4.046309e+001  1.414253e+002 
3762500000  -4.005102e+001  1.321168e+002 
3765625000  -4.067590e+001  1.299157e+002 
3768750000  -4.012881e+001  1.291817e+002 
3771875000  -3.833197e+001  1.207797e+002 
3775000000  -3.868334e+001  1.096015e+002 
3778125000  -3.902978e+001  1.020767e+002 
3781250000  -3.909022e+001  9.898876e+001 
3784375000  -3.896375e+001  9.354462e+001 
3787500000  -3.842989e+001  8.798609e+001 
3790625000  -3.929066e+001  7.699796e+001 
3793750000  -3.919411e+001  7.536010e+001 
3796875000  -3.834261e+001  7.088805e+001 
3800000000  -3.644323e+001  6.726003e+001 
3803125000  -3.815397e+001  5.286887e+001 
3806250000  -3.879940e+001  4.886319e+001 
3809375000  -3.871238e+001  4.491348e+001 
3812500000  -3.863641e+001  3.633943e+001 
3815625000  -3.948047e+001  2.501990e+001 
3818750000  -4.078084e+001  2.541324e+001 
3821875000  -4.021803e+001  3.580822e+001 
3825000000  -3.821292e+001  3.314333e+001 
3828125000  -3.687445e+001  1.452287e+001 
3831250000  -3.812748e+001  7.077046e-001 
3834375000  -4.028471e+001  -9.151111e-001 
3837500000  -4.062552e+001  3.617836e+000 
3840625000  -3.910699e+001  -1.550973e+000 
3843750000  -3.852461e+001  -1.388187e+001 
3846875000  -3.983925e+001  -2.096769e+001 
3850000000  -4.095419e+001  -1.370330e+001 
3853125000  -4.011867e+001  -1.526033e+001 
3856250000  -3.931411e+001  -2.211338e+001 
3859375000  -3.862410e+001  -2.980681e+001 
3862500000  -3.861736e+001  -3.972126e+001 
3865625000  -3.889713e+001  -4.372993e+001 
3868750000  -3.871344e+001  -4.600347e+001 
3871875000  -3.808597e+001  -5.342307e+001 
3875000000  -3.856231e+001  -6.226156e+001 
3878125000  -3.942921e+001  -6.537662e+001 
3881250000  -3.913634e+001  -6.451675e+001 
3884375000  -3.881186e+001  -7.202353e+001 
3887500000  -3.893082e+001  -7.928352e+001 
3890625000  -3.943133e+001  -8.348431e+001 
3893750000  -3.962588e+001  -8.604591e+001 
3896875000  -4.010220e+001  -8.893755e+001 
3900000000  -3.987337e+001  -9.190269e+001 
3903125000  -3.927598e+001  -9.647109e+001 
3906250000  -3.896702e+001  -9.995718e+001 
3909375000  -3.811218e+001  -1.082195e+002 
3912500000  -3.887276e+001  -1.171640e+002 
3915625000  -4.025755e+001  -1.177846e+002 
3918750000  -4.010851e+001  -1.198023e+002 
3921875000  -3.935622e+001  -1.228537e+002 
3925000000  -3.819061e+001  -1.292258e+002 
3928125000  -3.825379e+001  -1.386604e+002 
3931250000  -3.886636e+001  -1.464110e+002 
3934375000  -3.936783e+001  -1.461692e+002 
3937500000  -3.999650e+001  -1.482172e+002 
3940625000  -3.992030e+001  -1.503690e+002 
3943750000  -3.859723e+001  -1.534164e+002 
3946875000  -3.844135e+001  -1.623734e+002 
3950000000  -3.952968e+001  -1.700748e+002 
3953125000  -4.000610e+001  -1.705457e+002 
3956250000  -3.856808e+001  -1.723664e+002 
3959375000  -3.769399e+001  -1.764752e+002 
3962500000  -3.748731e+001  1.741368e+002 
3965625000  -3.754814e+001  1.635015e+002 
3968750000  -3.878449e+001  1.577035e+002 
3971875000  -3.859996e+001  1.527816e+002 
3975000000  -3.827498e+001  1.483582e+002 
3978125000  -3.848860e+001  1.454362e+002 
3981250000  -3.856820e+001  1.358004e+002 
3984375000  -3.888404e+001  1.290802e+002 
3987500000  -3.954090e+001  1.257761e+002 
3990625000  -3.960037e+001  1.250030e+002 
3993750000  -3.981762e+001  1.205590e+002 
3996875000  -3.988276e+001  1.143008e+002 
4000000000  -4.083347e+001  1.125184e+002 
4003125000  -4.101344e+001  1.136928e+002 
4006250000  -3.918628e+001  1.107012e+002 
4009375000  -3.857887e+001  9.520167e+001 
4012500000  -3.989076e+001  8.808461e+001 
4015625000  -4.138531e+001  8.909111e+001 
4018750000  -4.101381e+001  8.799704e+001 
4021875000  -4.054222e+001  8.585181e+001 
4025000000  -4.020152e+001  7.880560e+001 
4028125000  -4.048228e+001  7.249507e+001 
4031250000  -4.106539e+001  6.823926e+001 
4034375000  -4.110335e+001  6.827777e+001 
4037500000  -4.094276e+001  6.777549e+001 
4040625000  -4.079908e+001  6.342910e+001 
4043750000  -4.091062e+001  6.019022e+001 
4046875000  -4.038956e+001  5.635194e+001 
4050000000  -4.031743e+001  5.419128e+001 
4053125000  -4.109687e+001  4.987792e+001 
4056250000  -4.153644e+001  5.534354e+001 
4059375000  -3.923384e+001  5.063145e+001 
4062500000  -3.877745e+001  4.268732e+001 
4065625000  -3.861364e+001  3.909667e+001 
4068750000  -3.816317e+001  3.018763e+001 
4071875000  -3.773736e+001  2.129653e+001 
4075000000  -3.819373e+001  1.339219e+001 
4078125000  -3.845747e+001  1.023421e+001 
4081250000  -3.789891e+001  3.817121e+000 
4084375000  -3.779441e+001  -6.071401e+000 
4087500000  -3.832027e+001  -1.291658e+001 
4090625000  -3.892831e+001  -1.325947e+001 
4093750000  -3.851248e+001  -1.605460e+001 
4096875000  -3.821838e+001  -2.688900e+001 
4100000000  -3.938989e+001  -3.323175e+001 
4103125000  -4.054619e+001  -3.136016e+001 
4106250000  -3.961559e+001  -2.804182e+001 
4109375000  -3.867844e+001  -3.129161e+001 
4112500000  -3.831797e+001  -4.076200e+001 
4115625000  -3.924158e+001  -4.829702e+001 
4118750000  -3.877128e+001  -5.327378e+001 
4121875000  -3.886579e+001  -6.024472e+001 
4125000000  -3.959756e+001  -6.638914e+001 
4128125000  -4.056880e+001  -6.514186e+001 
4131250000  -3.953372e+001  -5.879249e+001 
4134375000  -3.707516e+001  -6.781394e+001 
4137500000  -3.764300e+001  -9.010277e+001 
4140625000  -4.003581e+001  -9.659783e+001 
4143750000  -4.107307e+001  -8.956954e+001 
4146875000  -3.988021e+001  -8.548344e+001 
4150000000  -3.924819e+001  -9.182573e+001 
4153125000  -3.974805e+001  -1.026395e+002 
4156250000  -4.090802e+001  -1.036763e+002 
4159375000  -4.081719e+001  -1.006705e+002 
4162500000  -3.960863e+001  -9.779059e+001 
4165625000  -3.851640e+001  -1.056765e+002 
4168750000  -3.810637e+001  -1.151067e+002 
4171875000  -3.792368e+001  -1.260341e+002 
4175000000  -3.857008e+001  -1.317038e+002 
4178125000  -3.907961e+001  -1.322229e+002 
4181250000  -3.902473e+001  -1.383672e+002 
4184375000  -3.907164e+001  -1.420507e+002 
4187500000  -3.888802e+001  -1.479773e+002 
4190625000  -3.885275e+001  -1.545307e+002 
4193750000  -4.000773e+001  -1.594383e+002 
4196875000  -4.096870e+001  -1.598566e+002 
4200000000  -4.185946e+001  -1.534465e+002 
4203125000  -4.063058e+001  -1.439382e+002 
4206250000  -3.706493e+001  -1.514426e+002 
4209375000  -3.666102e+001  -1.733908e+002 
4212500000  -3.904088e+001  1.788217e+002 
4215625000  -3.962548e+001  -1.747874e+002 
4218750000  -3.773191e+001  -1.713555e+002 
4221875000  -3.619993e+001  1.753888e+002 
4225000000  -3.720497e+001  1.636015e+002 
4228125000  -3.720382e+001  1.662807e+002 
4231250000  -3.567671e+001  1.592830e+002 
4234375000  -3.606091e+001  1.480462e+002 
4237500000  -3.581455e+001  1.420070e+002 
4240625000  -3.573642e+001  1.310044e+002 
4243750000  -3.710742e+001  1.220687e+002 
4246875000  -3.781562e+001  1.235060e+002 
4250000000  -3.771325e+001  1.216355e+002 
4253125000  -3.745581e+001  1.199160e+002 
4256250000  -3.767250e+001  1.145060e+002 
4259375000  -3.723058e+001  1.093292e+002 
4262500000  -3.741772e+001  1.031341e+002 
4265625000  -3.764682e+001  1.020428e+002 
4268750000  -3.653485e+001  9.390269e+001 
4271875000  -3.634753e+001  8.637518e+001 
4275000000  -3.600190e+001  7.782543e+001 
4278125000  -3.710123e+001  6.399112e+001 
4281250000  -3.853990e+001  6.219712e+001 
4284375000  -3.826681e+001  6.015933e+001 
4287500000  -4.021280e+001  5.766513e+001 
4290625000  -4.019138e+001  6.609789e+001 
4293750000  -3.827618e+001  6.686389e+001 
4296875000  -3.726622e+001  5.414118e+001 
4300000000  -3.853791e+001  4.362054e+001 
4303125000  -3.919818e+001  4.711044e+001 
4306250000  -3.783680e+001  4.906453e+001 
4309375000  -3.711003e+001  4.339901e+001 
4312500000  -3.704391e+001  3.133773e+001 
4315625000  -3.753118e+001  2.275499e+001 
4318750000  -3.807271e+001  1.937771e+001 
4321875000  -3.809151e+001  1.884299e+001 
4325000000  -3.741699e+001  1.855636e+001 
4328125000  -3.671161e+001  9.252164e+000 
4331250000  -3.695677e+001  -1.013953e+000 
4334375000  -3.771926e+001  -7.875906e+000 
4337500000  -3.899057e+001  -8.490853e+000 
4340625000  -3.874141e+001  -4.911589e+000 
4343750000  -3.793320e+001  -6.467685e+000 
4346875000  -3.768496e+001  -1.739138e+001 
4350000000  -3.748419e+001  -2.432449e+001 
4353125000  -3.823845e+001  -3.220697e+001 
4356250000  -4.043056e+001  -2.891862e+001 
4359375000  -3.945861e+001  -1.604842e+001 
4362500000  -3.623848e+001  -2.203566e+001 
4365625000  -3.529805e+001  -4.029070e+001 
4368750000  -3.663853e+001  -4.888847e+001 
4371875000  -3.742420e+001  -5.052722e+001 
4375000000  -3.670369e+001  -5.359052e+001 
4378125000  -3.631843e+001  -6.174473e+001 
4381250000  -3.670242e+001  -6.846174e+001 
4384375000  -3.658062e+001  -7.589656e+001 
4387500000  -3.743380e+001  -8.143952e+001 
4390625000  -3.814324e+001  -8.375360e+001 
4393750000  -3.754364e+001  -8.296423e+001 
4396875000  -3.682741e+001  -8.832283e+001 
4400000000  -3.640269e+001  -9.649450e+001 
4403125000  -3.719398e+001  -1.064851e+002 
4406250000  -3.768811e+001  -1.110002e+002 
4409375000  -3.794468e+001  -1.150493e+002 
4412500000  -3.924526e+001  -1.175979e+002 
4415625000  -3.902064e+001  -1.125742e+002 
