!Agilent Technologies,E8363B,MY43030201,A.06.04.32
!Agilent E8363B: A.06.04.32
!Date: Tuesday, November 11, 2014 21:38:24
!Correction: S21(Response(S21)) 
!S1P File: Measurement: S21:
# Hz S  dB   R 50
3000000000  -4.068908e+001  7.007449e+001 
3003125000  -4.224527e+001  6.235435e+001 
3006250000  -4.206382e+001  6.116199e+001 
3009375000  -4.283699e+001  6.560547e+001 
3012500000  -4.152324e+001  6.127778e+001 
3015625000  -4.149706e+001  5.458115e+001 
3018750000  -4.164140e+001  5.534295e+001 
3021875000  -4.024639e+001  5.625069e+001 
3025000000  -3.897416e+001  5.091808e+001 
3028125000  -3.782842e+001  4.266431e+001 
3031250000  -3.701504e+001  2.948584e+001 
3034375000  -3.682061e+001  1.593758e+001 
3037500000  -3.752365e+001  4.720767e+000 
3040625000  -3.876488e+001  -3.278696e-001 
3043750000  -3.921077e+001  -7.546414e+000 
3046875000  -3.999886e+001  -1.232706e+001 
3050000000  -4.095905e+001  -1.699764e+001 
3053125000  -4.043528e+001  -1.184953e+001 
3056250000  -4.032272e+001  -8.665075e+000 
3059375000  -3.979912e+001  -1.272517e+001 
3062500000  -3.834142e+001  -1.653965e+001 
3065625000  -3.788757e+001  -2.575698e+001 
3068750000  -3.754847e+001  -3.456306e+001 
3071875000  -3.760400e+001  -3.687769e+001 
3075000000  -3.694767e+001  -4.333131e+001 
3078125000  -3.711364e+001  -4.877882e+001 
3081250000  -3.719760e+001  -5.445564e+001 
3084375000  -3.632912e+001  -5.915966e+001 
3087500000  -3.651089e+001  -6.638853e+001 
3090625000  -3.590685e+001  -7.837692e+001 
3093750000  -3.692835e+001  -8.680601e+001 
3096875000  -3.736543e+001  -9.224336e+001 
3100000000  -3.734091e+001  -9.425269e+001 
3103125000  -3.758073e+001  -9.810992e+001 
3106250000  -3.719929e+001  -1.038146e+002 
3109375000  -3.721340e+001  -1.072397e+002 
3112500000  -3.723096e+001  -1.134458e+002 
3115625000  -3.722936e+001  -1.176587e+002 
3118750000  -3.717696e+001  -1.204291e+002 
3121875000  -3.651508e+001  -1.322290e+002 
3125000000  -3.855540e+001  -1.351568e+002 
3128125000  -3.831112e+001  -1.273489e+002 
3131250000  -3.606476e+001  -1.341826e+002 
3134375000  -3.542234e+001  -1.505612e+002 
3137500000  -3.616555e+001  -1.632958e+002 
3140625000  -3.741416e+001  -1.660578e+002 
3143750000  -3.810400e+001  -1.685435e+002 
3146875000  -3.762393e+001  -1.662213e+002 
3150000000  -3.693898e+001  -1.704308e+002 
3153125000  -3.719363e+001  -1.781365e+002 
3156250000  -3.791068e+001  -1.748904e+002 
3159375000  -3.557464e+001  -1.766478e+002 
3162500000  -3.429081e+001  1.677616e+002 
3165625000  -3.545356e+001  1.551820e+002 
3168750000  -3.533879e+001  1.546009e+002 
3171875000  -3.491468e+001  1.471859e+002 
3175000000  -3.536343e+001  1.379384e+002 
3178125000  -3.496745e+001  1.365085e+002 
3181250000  -3.435328e+001  1.269865e+002 
3184375000  -3.412435e+001  1.162355e+002 
3187500000  -3.540804e+001  1.017824e+002 
3190625000  -3.734172e+001  9.610786e+001 
3193750000  -3.748110e+001  1.017960e+002 
3196875000  -3.722324e+001  1.013278e+002 
3200000000  -3.609637e+001  9.689561e+001 
3203125000  -3.593572e+001  8.899387e+001 
3206250000  -3.609589e+001  8.133281e+001 
3209375000  -3.566695e+001  7.338442e+001 
3212500000  -3.626516e+001  6.659708e+001 
3215625000  -3.604869e+001  6.520672e+001 
3218750000  -3.678542e+001  5.194932e+001 
3221875000  -3.737774e+001  4.607382e+001 
3225000000  -3.707843e+001  4.271150e+001 
3228125000  -3.774635e+001  3.481015e+001 
3231250000  -3.808618e+001  3.281756e+001 
3234375000  -3.766774e+001  2.876463e+001 
3237500000  -3.806749e+001  2.594638e+001 
3240625000  -3.762827e+001  2.119056e+001 
3243750000  -3.757185e+001  1.008221e+001 
3246875000  -3.816654e+001  2.280782e+000 
3250000000  -3.875385e+001  -1.103766e+000 
3253125000  -3.880920e+001  -3.981696e+000 
3256250000  -3.844527e+001  -1.141690e+001 
3259375000  -3.907414e+001  -2.302707e+001 
3262500000  -4.048607e+001  -2.772685e+001 
3265625000  -4.120811e+001  -2.449802e+001 
3268750000  -4.116681e+001  -2.292923e+001 
3271875000  -4.037312e+001  -2.723746e+001 
3275000000  -4.028737e+001  -3.453366e+001 
3278125000  -4.088210e+001  -3.972380e+001 
3281250000  -4.111071e+001  -4.085261e+001 
3284375000  -4.061395e+001  -4.845485e+001 
3287500000  -4.095562e+001  -5.156086e+001 
3290625000  -4.115780e+001  -5.898982e+001 
3293750000  -4.121441e+001  -6.452328e+001 
3296875000  -4.220674e+001  -6.733358e+001 
3300000000  -4.198815e+001  -6.502757e+001 
3303125000  -4.078648e+001  -7.255831e+001 
3306250000  -4.076746e+001  -8.011497e+001 
3309375000  -4.032788e+001  -8.742941e+001 
3312500000  -4.080048e+001  -9.947665e+001 
3315625000  -4.242365e+001  -1.062555e+002 
3318750000  -4.339085e+001  -1.113766e+002 
3321875000  -4.455051e+001  -1.080264e+002 
3325000000  -4.464455e+001  -9.785660e+001 
3328125000  -4.347830e+001  -1.013658e+002 
3331250000  -4.205854e+001  -9.809786e+001 
3334375000  -3.975367e+001  -1.132869e+002 
3337500000  -4.031532e+001  -1.346694e+002 
3340625000  -4.208765e+001  -1.425305e+002 
3343750000  -4.377616e+001  -1.412391e+002 
3346875000  -4.351204e+001  -1.426678e+002 
3350000000  -4.298888e+001  -1.461597e+002 
3353125000  -4.287711e+001  -1.520520e+002 
3356250000  -4.257899e+001  -1.640421e+002 
3359375000  -4.333269e+001  -1.719803e+002 
3362500000  -4.431125e+001  -1.776784e+002 
3365625000  -4.467564e+001  1.779402e+002 
3368750000  -4.564894e+001  1.713928e+002 
3371875000  -4.596206e+001  1.678065e+002 
3375000000  -4.764068e+001  1.679589e+002 
3378125000  -4.799012e+001  1.665312e+002 
3381250000  -4.941157e+001  1.782547e+002 
3384375000  -4.660934e+001  -1.733625e+002 
3387500000  -4.396971e+001  1.650193e+002 
3390625000  -4.599802e+001  1.505850e+002 
3393750000  -4.688476e+001  1.479120e+002 
3396875000  -4.566491e+001  1.470216e+002 
3400000000  -4.612384e+001  1.353401e+002 
3403125000  -4.697630e+001  1.324953e+002 
3406250000  -4.794649e+001  1.293127e+002 
3409375000  -4.799905e+001  1.179833e+002 
3412500000  -4.902621e+001  1.130008e+002 
3415625000  -4.983397e+001  1.151097e+002 
3418750000  -4.954767e+001  1.145986e+002 
3421875000  -5.159914e+001  1.148609e+002 
3425000000  -4.935109e+001  1.184613e+002 
3428125000  -4.960973e+001  1.162699e+002 
3431250000  -4.956455e+001  1.045433e+002 
3434375000  -5.067268e+001  9.706229e+001 
3437500000  -5.083618e+001  9.835678e+001 
3440625000  -5.190115e+001  1.057595e+002 
3443750000  -5.051222e+001  1.023051e+002 
3446875000  -5.075591e+001  9.387037e+001 
3450000000  -4.992282e+001  8.808327e+001 
3453125000  -5.087746e+001  7.753909e+001 
3456250000  -5.231548e+001  7.910686e+001 
3459375000  -5.314151e+001  8.364237e+001 
3462500000  -5.238677e+001  8.676822e+001 
3465625000  -5.098599e+001  7.722358e+001 
3468750000  -5.183421e+001  7.667259e+001 
3471875000  -5.267238e+001  7.364525e+001 
3475000000  -5.105764e+001  7.075674e+001 
3478125000  -5.078490e+001  5.613477e+001 
3481250000  -5.306412e+001  6.419662e+001 
3484375000  -5.242615e+001  6.304758e+001 
3487500000  -5.153003e+001  5.821263e+001 
3490625000  -5.081633e+001  5.157563e+001 
3493750000  -5.115063e+001  4.611169e+001 
3496875000  -5.103878e+001  4.956180e+001 
3500000000  -5.155692e+001  4.422181e+001 
3503125000  -5.056109e+001  3.355723e+001 
3506250000  -5.000464e+001  3.494107e+001 
3509375000  -5.018244e+001  2.345538e+001 
3512500000  -5.029250e+001  1.217679e+001 
3515625000  -5.132185e+001  4.590162e+000 
3518750000  -5.186581e+001  9.683200e+000 
3521875000  -5.165573e+001  1.422930e+000 
3525000000  -5.292345e+001  -6.321398e+000 
3528125000  -5.253590e+001  3.528538e+000 
3531250000  -5.160551e+001  -9.838768e+000 
3534375000  -5.259273e+001  -2.101428e+001 
3537500000  -5.361672e+001  -2.628871e+001 
3540625000  -5.415224e+001  -2.835832e+001 
3543750000  -5.503915e+001  -1.846785e+001 
3546875000  -5.631587e+001  -1.262964e+001 
3550000000  -5.400637e+001  -2.235991e+001 
3553125000  -5.345993e+001  -3.812007e+001 
3556250000  -5.656135e+001  -3.579522e+001 
3559375000  -5.609047e+001  -3.729052e+001 
3562500000  -5.505347e+001  -5.589590e+001 
3565625000  -5.549256e+001  -5.287812e+001 
3568750000  -5.840846e+001  -5.645771e+001 
3571875000  -5.681490e+001  -4.420058e+001 
3575000000  -5.731506e+001  -4.929706e+001 
3578125000  -5.971068e+001  -7.365833e+001 
3581250000  -5.975872e+001  -3.350957e+001 
3584375000  -5.921448e+001  -4.842268e+001 
3587500000  -5.672472e+001  -4.922878e+001 
3590625000  -5.898160e+001  -5.596348e+001 
3593750000  -5.912104e+001  -5.467053e+001 
3596875000  -5.984845e+001  -3.750906e+001 
3600000000  -5.710307e+001  -4.981126e+001 
3603125000  -5.905662e+001  -6.397421e+001 
3606250000  -5.654338e+001  -4.957706e+001 
3609375000  -5.784709e+001  -6.542757e+001 
3612500000  -5.867772e+001  -5.379138e+001 
3615625000  -5.916108e+001  -5.145841e+001 
3618750000  -5.906277e+001  -4.571850e+001 
3621875000  -5.580748e+001  -4.968659e+001 
3625000000  -5.697540e+001  -5.400937e+001 
3628125000  -5.704394e+001  -6.161863e+001 
3631250000  -5.685126e+001  -5.492994e+001 
3634375000  -5.713638e+001  -4.676677e+001 
3637500000  -5.567875e+001  -5.265664e+001 
3640625000  -5.444381e+001  -3.521172e+001 
3643750000  -5.343821e+001  -5.378243e+001 
3646875000  -5.270112e+001  -5.992178e+001 
3650000000  -5.378242e+001  -5.735151e+001 
3653125000  -5.315448e+001  -6.652536e+001 
3656250000  -5.249250e+001  -7.067521e+001 
3659375000  -5.109905e+001  -7.152695e+001 
3662500000  -4.974224e+001  -7.699405e+001 
3665625000  -4.971785e+001  -7.623032e+001 
3668750000  -4.828706e+001  -7.671089e+001 
3671875000  -4.751711e+001  -9.027708e+001 
3675000000  -4.755541e+001  -9.590027e+001 
3678125000  -4.719387e+001  -9.672489e+001 
3681250000  -4.660825e+001  -1.066861e+002 
3684375000  -4.687770e+001  -1.112684e+002 
3687500000  -4.731771e+001  -1.164029e+002 
3690625000  -4.661356e+001  -1.185372e+002 
3693750000  -4.707561e+001  -1.257234e+002 
3696875000  -4.615761e+001  -1.208408e+002 
3700000000  -4.552925e+001  -1.277513e+002 
3703125000  -4.536246e+001  -1.370632e+002 
3706250000  -4.575339e+001  -1.360723e+002 
3709375000  -4.470580e+001  -1.369146e+002 
3712500000  -4.318311e+001  -1.415301e+002 
3715625000  -4.215616e+001  -1.490508e+002 
3718750000  -4.168433e+001  -1.586019e+002 
3721875000  -4.128848e+001  -1.686144e+002 
3725000000  -4.154985e+001  -1.746420e+002 
3728125000  -4.163314e+001  -1.769098e+002 
3731250000  -4.077378e+001  1.758747e+002 
3734375000  -4.009635e+001  1.693393e+002 
3737500000  -4.099734e+001  1.604677e+002 
3740625000  -4.080806e+001  1.527726e+002 
3743750000  -4.027230e+001  1.475184e+002 
3746875000  -4.062276e+001  1.406542e+002 
3750000000  -4.103633e+001  1.353908e+002 
3753125000  -4.062708e+001  1.342664e+002 
3756250000  -4.080300e+001  1.296925e+002 
3759375000  -4.023904e+001  1.257003e+002 
3762500000  -4.009593e+001  1.199381e+002 
3765625000  -4.078137e+001  1.142586e+002 
3768750000  -4.020650e+001  1.122802e+002 
3771875000  -3.845820e+001  1.053742e+002 
3775000000  -3.857806e+001  9.483616e+001 
3778125000  -3.906165e+001  8.861839e+001 
3781250000  -3.887582e+001  8.319950e+001 
3784375000  -3.883951e+001  7.808504e+001 
3787500000  -3.868038e+001  7.353825e+001 
3790625000  -3.913078e+001  6.363713e+001 
3793750000  -3.909918e+001  5.978978e+001 
3796875000  -3.834502e+001  5.527774e+001 
3800000000  -3.640294e+001  5.017207e+001 
3803125000  -3.817059e+001  3.861933e+001 
3806250000  -3.891467e+001  3.349192e+001 
3809375000  -3.839511e+001  2.974070e+001 
3812500000  -3.861099e+001  2.029396e+001 
3815625000  -3.946714e+001  1.180760e+001 
3818750000  -4.096598e+001  1.117749e+001 
3821875000  -4.034324e+001  2.207078e+001 
3825000000  -3.808287e+001  1.778268e+001 
3828125000  -3.710209e+001  -1.388326e+000 
3831250000  -3.816374e+001  -1.386250e+001 
3834375000  -4.036880e+001  -1.492646e+001 
3837500000  -4.073169e+001  -1.006828e+001 
3840625000  -3.902869e+001  -1.468217e+001 
3843750000  -3.818412e+001  -2.950705e+001 
3846875000  -3.997206e+001  -3.608842e+001 
3850000000  -4.093041e+001  -2.884757e+001 
3853125000  -4.035839e+001  -2.896210e+001 
3856250000  -3.944699e+001  -3.915277e+001 
3859375000  -3.824390e+001  -4.456658e+001 
3862500000  -3.830019e+001  -5.485196e+001 
3865625000  -3.884012e+001  -6.073513e+001 
3868750000  -3.858546e+001  -6.074681e+001 
3871875000  -3.789610e+001  -6.771973e+001 
3875000000  -3.856848e+001  -7.759405e+001 
3878125000  -3.961245e+001  -8.026116e+001 
3881250000  -3.922959e+001  -8.151382e+001 
3884375000  -3.863389e+001  -9.001121e+001 
3887500000  -3.910071e+001  -9.382411e+001 
3890625000  -3.977183e+001  -9.952558e+001 
3893750000  -3.986029e+001  -1.013739e+002 
3896875000  -4.018034e+001  -1.042253e+002 
3900000000  -3.969473e+001  -1.100026e+002 
3903125000  -3.927242e+001  -1.111096e+002 
3906250000  -3.887535e+001  -1.166784e+002 
3909375000  -3.810897e+001  -1.259019e+002 
3912500000  -3.912761e+001  -1.338741e+002 
3915625000  -4.053628e+001  -1.338435e+002 
3918750000  -4.000372e+001  -1.342535e+002 
3921875000  -3.921553e+001  -1.384127e+002 
3925000000  -3.848938e+001  -1.451891e+002 
3928125000  -3.832813e+001  -1.550379e+002 
3931250000  -3.896238e+001  -1.613635e+002 
3934375000  -3.971199e+001  -1.630811e+002 
3937500000  -3.997441e+001  -1.644865e+002 
3940625000  -3.977211e+001  -1.660019e+002 
3943750000  -3.887772e+001  -1.711288e+002 
3946875000  -3.850113e+001  -1.785340e+002 
3950000000  -3.969784e+001  1.731318e+002 
3953125000  -3.992380e+001  1.731957e+002 
3956250000  -3.868093e+001  1.725814e+002 
3959375000  -3.773237e+001  1.672047e+002 
3962500000  -3.767086e+001  1.581953e+002 
3965625000  -3.788279e+001  1.479849e+002 
3968750000  -3.868358e+001  1.411089e+002 
3971875000  -3.839171e+001  1.352121e+002 
3975000000  -3.818454e+001  1.316500e+002 
3978125000  -3.829523e+001  1.278121e+002 
3981250000  -3.833474e+001  1.211183e+002 
3984375000  -3.914553e+001  1.135764e+002 
3987500000  -3.975240e+001  1.093434e+002 
3990625000  -3.985058e+001  1.091129e+002 
3993750000  -3.988600e+001  1.046241e+002 
3996875000  -3.969347e+001  1.002973e+002 
4000000000  -4.073379e+001  9.442316e+001 
4003125000  -4.083839e+001  9.570086e+001 
4006250000  -3.915716e+001  9.468774e+001 
4009375000  -3.865669e+001  7.992683e+001 
4012500000  -4.027452e+001  7.105122e+001 
4015625000  -4.140744e+001  7.030653e+001 
4018750000  -4.125361e+001  7.178665e+001 
4021875000  -4.054617e+001  7.021447e+001 
4025000000  -4.039037e+001  6.128585e+001 
4028125000  -4.031726e+001  5.527317e+001 
4031250000  -4.134210e+001  5.109328e+001 
4034375000  -4.154569e+001  5.059909e+001 
4037500000  -4.091131e+001  5.128429e+001 
4040625000  -4.096281e+001  4.547774e+001 
4043750000  -4.097751e+001  4.298895e+001 
4046875000  -4.077339e+001  4.039572e+001 
4050000000  -4.075067e+001  3.291019e+001 
4053125000  -4.125549e+001  3.229549e+001 
4056250000  -4.121135e+001  3.652790e+001 
4059375000  -3.948017e+001  3.350013e+001 
4062500000  -3.859303e+001  2.423690e+001 
4065625000  -3.894142e+001  1.879222e+001 
4068750000  -3.813105e+001  1.376299e+001 
4071875000  -3.776418e+001  2.900554e+000 
4075000000  -3.845807e+001  -4.703301e+000 
4078125000  -3.872718e+001  -7.968153e+000 
4081250000  -3.812037e+001  -1.300808e+001 
4084375000  -3.806833e+001  -2.236987e+001 
4087500000  -3.853904e+001  -2.782779e+001 
4090625000  -3.924401e+001  -3.007485e+001 
4093750000  -3.860721e+001  -3.231721e+001 
4096875000  -3.852641e+001  -4.289110e+001 
4100000000  -3.960008e+001  -5.073196e+001 
4103125000  -4.042200e+001  -4.698473e+001 
4106250000  -4.005141e+001  -4.458213e+001 
4109375000  -3.917978e+001  -4.834259e+001 
4112500000  -3.849853e+001  -5.629165e+001 
4115625000  -3.940720e+001  -6.381680e+001 
4118750000  -3.894185e+001  -7.065331e+001 
4121875000  -3.886652e+001  -7.638079e+001 
4125000000  -3.973061e+001  -8.294265e+001 
4128125000  -4.099840e+001  -8.024616e+001 
4131250000  -3.967795e+001  -7.516478e+001 
4134375000  -3.753400e+001  -8.622023e+001 
4137500000  -3.825124e+001  -1.080488e+002 
4140625000  -4.038172e+001  -1.124014e+002 
4143750000  -4.166051e+001  -1.060874e+002 
4146875000  -4.064228e+001  -1.031960e+002 
4150000000  -3.951519e+001  -1.105378e+002 
4153125000  -3.988813e+001  -1.198796e+002 
4156250000  -4.135389e+001  -1.236467e+002 
4159375000  -4.118401e+001  -1.200135e+002 
4162500000  -3.983477e+001  -1.165926e+002 
4165625000  -3.873552e+001  -1.236795e+002 
4168750000  -3.824353e+001  -1.327390e+002 
4171875000  -3.848520e+001  -1.428737e+002 
4175000000  -3.915570e+001  -1.469162e+002 
4178125000  -3.927811e+001  -1.494930e+002 
4181250000  -3.926120e+001  -1.540516e+002 
4184375000  -3.947553e+001  -1.578508e+002 
4187500000  -3.932998e+001  -1.644367e+002 
4190625000  -3.934678e+001  -1.705275e+002 
4193750000  -4.063094e+001  -1.764326e+002 
4196875000  -4.135904e+001  -1.774270e+002 
4200000000  -4.272959e+001  -1.689788e+002 
4203125000  -4.073612e+001  -1.596588e+002 
4206250000  -3.722729e+001  -1.683717e+002 
4209375000  -3.715560e+001  1.667283e+002 
4212500000  -3.965651e+001  1.638625e+002 
4215625000  -3.996325e+001  1.698557e+002 
4218750000  -3.810418e+001  1.702549e+002 
4221875000  -3.659874e+001  1.617442e+002 
4225000000  -3.787638e+001  1.492661e+002 
4228125000  -3.776680e+001  1.500004e+002 
4231250000  -3.610852e+001  1.407528e+002 
4234375000  -3.654804e+001  1.313735e+002 
4237500000  -3.609445e+001  1.260213e+002 
4240625000  -3.619953e+001  1.137512e+002 
4243750000  -3.755996e+001  1.070866e+002 
4246875000  -3.838798e+001  1.051238e+002 
4250000000  -3.813245e+001  1.060464e+002 
4253125000  -3.799010e+001  1.038568e+002 
4256250000  -3.801202e+001  9.887035e+001 
4259375000  -3.754948e+001  9.186529e+001 
4262500000  -3.764899e+001  8.610009e+001 
4265625000  -3.774241e+001  8.579542e+001 
4268750000  -3.685681e+001  7.785667e+001 
4271875000  -3.670805e+001  6.827596e+001 
4275000000  -3.634393e+001  6.130947e+001 
4278125000  -3.771966e+001  5.027707e+001 
4281250000  -3.885499e+001  4.624937e+001 
4284375000  -3.880524e+001  4.450594e+001 
4287500000  -4.037002e+001  4.157542e+001 
4290625000  -4.043513e+001  5.238808e+001 
4293750000  -3.844462e+001  5.023660e+001 
4296875000  -3.767204e+001  3.822515e+001 
4300000000  -3.924487e+001  2.799750e+001 
4303125000  -3.963883e+001  3.122169e+001 
4306250000  -3.836771e+001  3.247414e+001 
4309375000  -3.758395e+001  2.612241e+001 
4312500000  -3.755734e+001  1.694670e+001 
4315625000  -3.764912e+001  8.396852e+000 
4318750000  -3.838201e+001  4.654846e+000 
4321875000  -3.844276e+001  4.817798e+000 
4325000000  -3.782423e+001  3.424544e+000 
4328125000  -3.708036e+001  -6.368759e+000 
4331250000  -3.743188e+001  -1.749188e+001 
4334375000  -3.825561e+001  -2.339878e+001 
4337500000  -3.957056e+001  -2.210406e+001 
4340625000  -3.943991e+001  -1.993335e+001 
4343750000  -3.854250e+001  -2.277458e+001 
4346875000  -3.830319e+001  -3.293645e+001 
4350000000  -3.825463e+001  -4.012453e+001 
4353125000  -3.913807e+001  -4.579055e+001 
4356250000  -4.109447e+001  -4.406952e+001 
4359375000  -3.981620e+001  -2.751797e+001 
4362500000  -3.624927e+001  -3.654080e+001 
4365625000  -3.584192e+001  -5.656401e+001 
4368750000  -3.693512e+001  -6.294328e+001 
4371875000  -3.807659e+001  -6.543839e+001 
4375000000  -3.714742e+001  -7.013007e+001 
4378125000  -3.673833e+001  -7.745422e+001 
4381250000  -3.687146e+001  -8.512641e+001 
4384375000  -3.695565e+001  -9.103882e+001 
4387500000  -3.814559e+001  -9.719244e+001 
4390625000  -3.855801e+001  -9.813767e+001 
4393750000  -3.786134e+001  -9.730962e+001 
4396875000  -3.719239e+001  -1.037065e+002 
4400000000  -3.677148e+001  -1.128261e+002 
4403125000  -3.742160e+001  -1.230662e+002 
4406250000  -3.822256e+001  -1.250188e+002 
4409375000  -3.866010e+001  -1.299555e+002 
4412500000  -3.970967e+001  -1.323100e+002 
4415625000  -3.909423e+001  -1.275468e+002 
