!Agilent Technologies,E8363B,MY43030201,A.06.04.32
!Agilent E8363B: A.06.04.32
!Date: Tuesday, November 11, 2014 21:29:38
!Correction: S21(Response(S21)) 
!S1P File: Measurement: S21:
# Hz S  dB   R 50
3000000000  -4.053304e+001  8.635189e+001 
3003125000  -4.228853e+001  7.761571e+001 
3006250000  -4.192434e+001  7.672475e+001 
3009375000  -4.253326e+001  8.254736e+001 
3012500000  -4.150167e+001  7.635220e+001 
3015625000  -4.134229e+001  7.015995e+001 
3018750000  -4.183197e+001  7.026455e+001 
3021875000  -4.026338e+001  7.094461e+001 
3025000000  -3.895213e+001  6.752627e+001 
3028125000  -3.798086e+001  5.808069e+001 
3031250000  -3.709964e+001  4.683711e+001 
3034375000  -3.681423e+001  3.227961e+001 
3037500000  -3.751497e+001  2.181922e+001 
3040625000  -3.872339e+001  1.688374e+001 
3043750000  -3.910872e+001  9.562760e+000 
3046875000  -3.965052e+001  3.368505e+000 
3050000000  -4.098605e+001  -1.249182e+000 
3053125000  -4.051738e+001  2.807757e+000 
3056250000  -4.033844e+001  7.830575e+000 
3059375000  -3.972239e+001  3.993022e+000 
3062500000  -3.819114e+001  -3.288618e-001 
3065625000  -3.793542e+001  -9.628321e+000 
3068750000  -3.752988e+001  -1.769722e+001 
3071875000  -3.757966e+001  -2.017727e+001 
3075000000  -3.711892e+001  -2.686424e+001 
3078125000  -3.702344e+001  -3.246339e+001 
3081250000  -3.723521e+001  -3.903061e+001 
3084375000  -3.641901e+001  -4.313904e+001 
3087500000  -3.646546e+001  -5.003268e+001 
3090625000  -3.591473e+001  -6.244360e+001 
3093750000  -3.682767e+001  -6.970658e+001 
3096875000  -3.735308e+001  -7.561337e+001 
3100000000  -3.717850e+001  -7.912659e+001 
3103125000  -3.750961e+001  -8.225943e+001 
3106250000  -3.717048e+001  -8.760518e+001 
3109375000  -3.738545e+001  -9.143115e+001 
3112500000  -3.731072e+001  -9.725309e+001 
3115625000  -3.711731e+001  -1.014667e+002 
3118750000  -3.722808e+001  -1.043283e+002 
3121875000  -3.648107e+001  -1.156120e+002 
3125000000  -3.852394e+001  -1.189844e+002 
3128125000  -3.849607e+001  -1.115103e+002 
3131250000  -3.620683e+001  -1.179464e+002 
3134375000  -3.528134e+001  -1.345845e+002 
3137500000  -3.604911e+001  -1.472930e+002 
3140625000  -3.742715e+001  -1.506414e+002 
3143750000  -3.811407e+001  -1.509282e+002 
3146875000  -3.772384e+001  -1.505683e+002 
3150000000  -3.683652e+001  -1.536292e+002 
3153125000  -3.717714e+001  -1.625556e+002 
3156250000  -3.787099e+001  -1.573674e+002 
3159375000  -3.570929e+001  -1.593986e+002 
3162500000  -3.420345e+001  -1.756697e+002 
3165625000  -3.562796e+001  1.717093e+002 
3168750000  -3.543895e+001  1.711904e+002 
3171875000  -3.483944e+001  1.639635e+002 
3175000000  -3.544353e+001  1.546880e+002 
3178125000  -3.502331e+001  1.536603e+002 
3181250000  -3.447088e+001  1.452050e+002 
3184375000  -3.402582e+001  1.332651e+002 
3187500000  -3.541466e+001  1.183114e+002 
3190625000  -3.739821e+001  1.126070e+002 
3193750000  -3.748370e+001  1.177597e+002 
3196875000  -3.736666e+001  1.188347e+002 
3200000000  -3.632826e+001  1.135256e+002 
3203125000  -3.579701e+001  1.060104e+002 
3206250000  -3.621719e+001  9.775154e+001 
3209375000  -3.578423e+001  8.969021e+001 
3212500000  -3.632907e+001  8.289652e+001 
3215625000  -3.599660e+001  7.911861e+001 
3218750000  -3.690376e+001  6.894135e+001 
3221875000  -3.733542e+001  6.244598e+001 
3225000000  -3.703117e+001  5.827917e+001 
3228125000  -3.786018e+001  5.220856e+001 
3231250000  -3.836571e+001  4.890084e+001 
3234375000  -3.799582e+001  4.607677e+001 
3237500000  -3.801500e+001  4.254568e+001 
3240625000  -3.759151e+001  3.736272e+001 
3243750000  -3.764962e+001  2.674887e+001 
3246875000  -3.820812e+001  1.975431e+001 
3250000000  -3.877983e+001  1.524263e+001 
3253125000  -3.914233e+001  1.324738e+001 
3256250000  -3.869097e+001  3.300645e+000 
3259375000  -3.914211e+001  -7.361364e+000 
3262500000  -4.063700e+001  -1.003504e+001 
3265625000  -4.123464e+001  -7.481010e+000 
3268750000  -4.152243e+001  -7.274641e+000 
3271875000  -4.064126e+001  -1.066195e+001 
3275000000  -4.029035e+001  -1.821749e+001 
3278125000  -4.090018e+001  -2.297399e+001 
3281250000  -4.085200e+001  -2.490882e+001 
3284375000  -4.064231e+001  -3.224933e+001 
3287500000  -4.086313e+001  -3.485982e+001 
3290625000  -4.121951e+001  -4.203680e+001 
3293750000  -4.125912e+001  -4.723504e+001 
3296875000  -4.243356e+001  -4.923275e+001 
3300000000  -4.184510e+001  -4.956999e+001 
3303125000  -4.095248e+001  -5.604366e+001 
3306250000  -4.104227e+001  -6.244406e+001 
3309375000  -4.050340e+001  -7.034597e+001 
3312500000  -4.091117e+001  -8.416300e+001 
3315625000  -4.220004e+001  -9.029411e+001 
3318750000  -4.350318e+001  -9.464478e+001 
3321875000  -4.484240e+001  -8.826012e+001 
3325000000  -4.491464e+001  -8.433007e+001 
3328125000  -4.393832e+001  -8.651509e+001 
3331250000  -4.232637e+001  -7.989910e+001 
3334375000  -3.990307e+001  -9.791798e+001 
3337500000  -4.061883e+001  -1.170433e+002 
3340625000  -4.232437e+001  -1.261363e+002 
3343750000  -4.420243e+001  -1.266080e+002 
3346875000  -4.336940e+001  -1.292262e+002 
3350000000  -4.304747e+001  -1.289632e+002 
3353125000  -4.301881e+001  -1.352021e+002 
3356250000  -4.253697e+001  -1.450736e+002 
3359375000  -4.332814e+001  -1.544506e+002 
3362500000  -4.439422e+001  -1.598001e+002 
3365625000  -4.464913e+001  -1.640906e+002 
3368750000  -4.545679e+001  -1.703253e+002 
3371875000  -4.576551e+001  -1.747626e+002 
3375000000  -4.755687e+001  -1.779174e+002 
3378125000  -4.791402e+001  -1.774602e+002 
3381250000  -4.932502e+001  -1.673897e+002 
3384375000  -4.682880e+001  -1.528389e+002 
3387500000  -4.374393e+001  -1.732394e+002 
3390625000  -4.631633e+001  1.679078e+002 
3393750000  -4.729331e+001  1.640298e+002 
3396875000  -4.652030e+001  1.644239e+002 
3400000000  -4.653128e+001  1.536416e+002 
3403125000  -4.714832e+001  1.485306e+002 
3406250000  -4.758758e+001  1.437544e+002 
3409375000  -4.794431e+001  1.398513e+002 
3412500000  -4.917984e+001  1.312214e+002 
3415625000  -4.992741e+001  1.291540e+002 
3418750000  -5.023198e+001  1.291846e+002 
3421875000  -5.168043e+001  1.374378e+002 
3425000000  -4.994105e+001  1.372950e+002 
3428125000  -5.038869e+001  1.275879e+002 
3431250000  -4.989036e+001  1.211113e+002 
3434375000  -5.148656e+001  1.149534e+002 
3437500000  -5.176395e+001  1.134147e+002 
3440625000  -5.286808e+001  1.236204e+002 
3443750000  -5.119552e+001  1.216732e+002 
3446875000  -5.099927e+001  1.142057e+002 
3450000000  -5.080618e+001  1.048907e+002 
3453125000  -5.108226e+001  9.794048e+001 
3456250000  -5.260445e+001  9.099986e+001 
3459375000  -5.344424e+001  1.032133e+002 
3462500000  -5.277114e+001  1.049296e+002 
3465625000  -5.201406e+001  9.290914e+001 
3468750000  -5.244197e+001  9.440318e+001 
3471875000  -5.268311e+001  8.539381e+001 
3475000000  -5.165029e+001  9.244691e+001 
3478125000  -5.156468e+001  7.514063e+001 
3481250000  -5.251067e+001  7.649725e+001 
3484375000  -5.332322e+001  8.391825e+001 
3487500000  -5.260290e+001  7.700446e+001 
3490625000  -5.045322e+001  7.056994e+001 
3493750000  -5.137562e+001  6.626634e+001 
3496875000  -5.186531e+001  5.953188e+001 
3500000000  -5.178154e+001  6.140481e+001 
3503125000  -5.066370e+001  5.930685e+001 
3506250000  -4.999306e+001  5.131532e+001 
3509375000  -5.045166e+001  4.074557e+001 
3512500000  -5.024218e+001  2.898183e+001 
3515625000  -5.123978e+001  2.626490e+001 
3518750000  -5.175251e+001  2.520423e+001 
3521875000  -5.248351e+001  1.745107e+001 
3525000000  -5.366282e+001  2.308357e+001 
3528125000  -5.205177e+001  1.606274e+001 
3531250000  -5.186963e+001  1.594749e+001 
3534375000  -5.251814e+001  1.870298e-001 
3537500000  -5.362350e+001  -7.436306e+000 
3540625000  -5.575614e+001  -1.050072e+001 
3543750000  -5.566941e+001  2.565063e-001 
3546875000  -5.613629e+001  -1.645478e+000 
3550000000  -5.405568e+001  -2.670869e-001 
3553125000  -5.416345e+001  -1.498539e+001 
3556250000  -5.430190e+001  -1.705777e+001 
3559375000  -5.602822e+001  -1.553254e+001 
3562500000  -5.620591e+001  -2.990145e+001 
3565625000  -5.729152e+001  -4.004734e+001 
3568750000  -5.711007e+001  -2.379957e+001 
3571875000  -5.850875e+001  -2.293337e+001 
3575000000  -5.866710e+001  -1.297359e+001 
3578125000  -5.812535e+001  -2.210594e+001 
3581250000  -5.816645e+001  -2.046990e+001 
3584375000  -5.868358e+001  -2.059298e+001 
3587500000  -5.988633e+001  -2.588231e+001 
3590625000  -5.868439e+001  -4.837609e+001 
3593750000  -5.931702e+001  -3.523556e+001 
3596875000  -5.885363e+001  -1.486609e+001 
3600000000  -5.983788e+001  -2.255971e+001 
3603125000  -5.864580e+001  -2.660614e+001 
3606250000  -5.969069e+001  -4.170834e+001 
3609375000  -5.710387e+001  -3.055954e+001 
3612500000  -5.812369e+001  -3.156890e+001 
3615625000  -5.803140e+001  -3.606163e+001 
3618750000  -6.023706e+001  -2.282386e+001 
3621875000  -5.705331e+001  -3.285605e+001 
3625000000  -5.771977e+001  -4.148566e+001 
3628125000  -5.564682e+001  -2.236865e+001 
3631250000  -5.496648e+001  -3.146352e+001 
3634375000  -5.692255e+001  -3.723659e+001 
3637500000  -5.579041e+001  -2.777847e+001 
3640625000  -5.380792e+001  -2.244163e+001 
3643750000  -5.248249e+001  -3.278600e+001 
3646875000  -5.268734e+001  -4.890947e+001 
3650000000  -5.264288e+001  -4.188844e+001 
3653125000  -5.137371e+001  -5.024519e+001 
3656250000  -5.202593e+001  -5.123413e+001 
3659375000  -5.118984e+001  -5.072352e+001 
3662500000  -4.973904e+001  -5.423863e+001 
3665625000  -4.993192e+001  -5.814227e+001 
3668750000  -4.811943e+001  -6.032832e+001 
3671875000  -4.693325e+001  -6.983809e+001 
3675000000  -4.754204e+001  -7.900883e+001 
3678125000  -4.732302e+001  -8.288919e+001 
3681250000  -4.617878e+001  -8.599649e+001 
3684375000  -4.657485e+001  -8.948908e+001 
3687500000  -4.679552e+001  -9.738114e+001 
3690625000  -4.668580e+001  -1.025370e+002 
3693750000  -4.687420e+001  -1.045948e+002 
3696875000  -4.638315e+001  -1.001957e+002 
3700000000  -4.525019e+001  -1.102782e+002 
3703125000  -4.514660e+001  -1.165443e+002 
3706250000  -4.572845e+001  -1.185846e+002 
3709375000  -4.504410e+001  -1.184718e+002 
3712500000  -4.402666e+001  -1.221601e+002 
3715625000  -4.202381e+001  -1.330470e+002 
3718750000  -4.188169e+001  -1.377128e+002 
3721875000  -4.137690e+001  -1.462538e+002 
3725000000  -4.184969e+001  -1.543658e+002 
3728125000  -4.149993e+001  -1.569025e+002 
3731250000  -4.063898e+001  -1.638904e+002 
3734375000  -4.011152e+001  -1.710178e+002 
3737500000  -4.062418e+001  1.792833e+002 
3740625000  -4.100823e+001  1.741646e+002 
3743750000  -4.068362e+001  1.676264e+002 
3746875000  -4.084906e+001  1.619686e+002 
3750000000  -4.107369e+001  1.554127e+002 
3753125000  -4.065211e+001  1.524578e+002 
3756250000  -4.065035e+001  1.502349e+002 
3759375000  -4.026496e+001  1.451770e+002 
3762500000  -3.989298e+001  1.378754e+002 
3765625000  -4.074329e+001  1.322358e+002 
3768750000  -4.024775e+001  1.333840e+002 
3771875000  -3.848321e+001  1.263950e+002 
3775000000  -3.850344e+001  1.157541e+002 
3778125000  -3.890810e+001  1.088939e+002 
3781250000  -3.891335e+001  1.039842e+002 
3784375000  -3.867623e+001  9.931285e+001 
3787500000  -3.853402e+001  9.318808e+001 
3790625000  -3.923624e+001  8.290627e+001 
3793750000  -3.935708e+001  7.920744e+001 
3796875000  -3.841920e+001  7.503780e+001 
3800000000  -3.647376e+001  7.196903e+001 
3803125000  -3.816951e+001  5.880272e+001 
3806250000  -3.896155e+001  5.333372e+001 
3809375000  -3.875548e+001  4.990803e+001 
3812500000  -3.837466e+001  3.956982e+001 
3815625000  -3.937427e+001  3.175271e+001 
3818750000  -4.057331e+001  2.998562e+001 
3821875000  -4.029364e+001  3.936277e+001 
3825000000  -3.834788e+001  3.702724e+001 
3828125000  -3.711141e+001  1.946756e+001 
3831250000  -3.789655e+001  4.634716e+000 
3834375000  -4.019286e+001  5.145549e+000 
3837500000  -4.083949e+001  9.816030e+000 
3840625000  -3.907262e+001  5.695535e+000 
3843750000  -3.830721e+001  -1.048838e+001 
3846875000  -4.004211e+001  -1.498409e+001 
3850000000  -4.079037e+001  -9.534978e+000 
3853125000  -3.995788e+001  -1.026456e+001 
3856250000  -3.961370e+001  -1.659022e+001 
3859375000  -3.890738e+001  -2.343778e+001 
3862500000  -3.860788e+001  -3.376842e+001 
3865625000  -3.908215e+001  -4.015448e+001 
3868750000  -3.882185e+001  -4.017264e+001 
3871875000  -3.797951e+001  -4.748032e+001 
3875000000  -3.857086e+001  -5.918934e+001 
3878125000  -3.965273e+001  -6.003558e+001 
3881250000  -3.935319e+001  -5.913832e+001 
3884375000  -3.864749e+001  -6.835010e+001 
3887500000  -3.926569e+001  -7.302703e+001 
3890625000  -3.950327e+001  -7.688065e+001 
3893750000  -3.989931e+001  -8.127170e+001 
3896875000  -4.010047e+001  -8.304517e+001 
3900000000  -4.017314e+001  -8.566010e+001 
3903125000  -3.935300e+001  -9.396148e+001 
3906250000  -3.915345e+001  -9.512622e+001 
3909375000  -3.815964e+001  -1.037297e+002 
3912500000  -3.896369e+001  -1.122634e+002 
3915625000  -4.045873e+001  -1.126339e+002 
3918750000  -4.004934e+001  -1.142548e+002 
3921875000  -3.953228e+001  -1.181104e+002 
3925000000  -3.869632e+001  -1.236663e+002 
3928125000  -3.826787e+001  -1.337436e+002 
3931250000  -3.929784e+001  -1.403028e+002 
3934375000  -3.968843e+001  -1.405921e+002 
3937500000  -4.006705e+001  -1.442600e+002 
3940625000  -3.997938e+001  -1.465340e+002 
3943750000  -3.909760e+001  -1.481122e+002 
3946875000  -3.847570e+001  -1.587580e+002 
3950000000  -3.955578e+001  -1.649728e+002 
3953125000  -4.005460e+001  -1.638947e+002 
3956250000  -3.897034e+001  -1.656821e+002 
3959375000  -3.780832e+001  -1.729031e+002 
3962500000  -3.771432e+001  1.792506e+002 
3965625000  -3.772927e+001  1.696702e+002 
3968750000  -3.893374e+001  1.620718e+002 
3971875000  -3.877533e+001  1.589512e+002 
3975000000  -3.839539e+001  1.531800e+002 
3978125000  -3.856737e+001  1.485525e+002 
3981250000  -3.861320e+001  1.431723e+002 
3984375000  -3.904932e+001  1.346479e+002 
3987500000  -3.971494e+001  1.325583e+002 
3990625000  -3.992838e+001  1.309981e+002 
3993750000  -4.010090e+001  1.255357e+002 
3996875000  -4.000147e+001  1.198789e+002 
4000000000  -4.099133e+001  1.141775e+002 
4003125000  -4.121925e+001  1.173471e+002 
4006250000  -3.935145e+001  1.157422e+002 
4009375000  -3.872961e+001  9.965546e+001 
4012500000  -4.030537e+001  9.407193e+001 
4015625000  -4.189518e+001  9.218956e+001 
4018750000  -4.145496e+001  9.296722e+001 
4021875000  -4.098038e+001  8.914083e+001 
4025000000  -4.047715e+001  8.360155e+001 
4028125000  -4.054091e+001  7.699471e+001 
4031250000  -4.108991e+001  7.440263e+001 
4034375000  -4.177049e+001  7.245937e+001 
4037500000  -4.139854e+001  7.268410e+001 
4040625000  -4.113884e+001  6.974023e+001 
4043750000  -4.122113e+001  6.456638e+001 
4046875000  -4.098855e+001  6.206844e+001 
4050000000  -4.079079e+001  5.577644e+001 
4053125000  -4.145504e+001  5.322552e+001 
4056250000  -4.149216e+001  5.944584e+001 
4059375000  -3.976015e+001  5.604165e+001 
4062500000  -3.899291e+001  4.773707e+001 
4065625000  -3.890670e+001  4.358273e+001 
4068750000  -3.815019e+001  3.458562e+001 
4071875000  -3.770292e+001  2.480464e+001 
4075000000  -3.853960e+001  1.657912e+001 
4078125000  -3.869528e+001  1.472060e+001 
4081250000  -3.828255e+001  9.306630e+000 
4084375000  -3.823922e+001  8.077056e-001 
4087500000  -3.865094e+001  -6.362213e+000 
4090625000  -3.898970e+001  -8.050076e+000 
4093750000  -3.879505e+001  -1.112364e+001 
4096875000  -3.883649e+001  -2.152513e+001 
4100000000  -3.979464e+001  -2.779208e+001 
4103125000  -4.041232e+001  -2.603933e+001 
4106250000  -4.040392e+001  -2.249206e+001 
4109375000  -3.911377e+001  -2.741618e+001 
4112500000  -3.893021e+001  -3.656054e+001 
4115625000  -3.932710e+001  -4.328717e+001 
4118750000  -3.916133e+001  -4.900914e+001 
4121875000  -3.917591e+001  -5.365834e+001 
4125000000  -3.986153e+001  -6.135937e+001 
4128125000  -4.090256e+001  -6.031244e+001 
4131250000  -3.981122e+001  -5.288325e+001 
4134375000  -3.778384e+001  -6.196530e+001 
4137500000  -3.818538e+001  -8.390469e+001 
4140625000  -4.049357e+001  -9.153012e+001 
4143750000  -4.145122e+001  -8.459592e+001 
4146875000  -4.082360e+001  -8.000520e+001 
4150000000  -3.966840e+001  -8.886404e+001 
4153125000  -3.985576e+001  -9.645148e+001 
4156250000  -4.136968e+001  -9.771066e+001 
4159375000  -4.111901e+001  -9.452303e+001 
4162500000  -4.026610e+001  -9.280316e+001 
4165625000  -3.884637e+001  -9.952861e+001 
4168750000  -3.880271e+001  -1.114106e+002 
4171875000  -3.835623e+001  -1.191367e+002 
4175000000  -3.941392e+001  -1.263913e+002 
4178125000  -3.992098e+001  -1.277410e+002 
4181250000  -3.955090e+001  -1.311943e+002 
4184375000  -3.966483e+001  -1.368134e+002 
4187500000  -3.958591e+001  -1.406568e+002 
4190625000  -3.945619e+001  -1.490982e+002 
4193750000  -4.108935e+001  -1.528513e+002 
4196875000  -4.153223e+001  -1.549525e+002 
4200000000  -4.250187e+001  -1.502290e+002 
4203125000  -4.103434e+001  -1.357167e+002 
4206250000  -3.783340e+001  -1.449997e+002 
4209375000  -3.738496e+001  -1.694848e+002 
4212500000  -3.969635e+001  -1.750896e+002 
4215625000  -4.010662e+001  -1.687733e+002 
4218750000  -3.834651e+001  -1.670056e+002 
4221875000  -3.688865e+001  -1.760479e+002 
4225000000  -3.783872e+001  1.711125e+002 
4228125000  -3.800471e+001  1.712163e+002 
4231250000  -3.623204e+001  1.653826e+002 
4234375000  -3.656240e+001  1.533843e+002 
4237500000  -3.627957e+001  1.494187e+002 
4240625000  -3.643501e+001  1.376565e+002 
4243750000  -3.760506e+001  1.282512e+002 
4246875000  -3.855299e+001  1.283599e+002 
4250000000  -3.858842e+001  1.298879e+002 
4253125000  -3.820665e+001  1.245835e+002 
4256250000  -3.820427e+001  1.200725e+002 
4259375000  -3.797603e+001  1.171359e+002 
4262500000  -3.814865e+001  1.106208e+002 
4265625000  -3.808634e+001  1.079803e+002 
4268750000  -3.692947e+001  1.004523e+002 
4271875000  -3.695035e+001  9.222739e+001 
4275000000  -3.665710e+001  8.473123e+001 
4278125000  -3.771461e+001  7.165945e+001 
4281250000  -3.917958e+001  6.932317e+001 
4284375000  -3.897469e+001  6.453625e+001 
4287500000  -4.035409e+001  6.208378e+001 
4290625000  -4.079794e+001  7.229797e+001 
4293750000  -3.894264e+001  7.379224e+001 
4296875000  -3.774836e+001  5.878616e+001 
4300000000  -3.909772e+001  5.029871e+001 
4303125000  -3.992708e+001  5.253125e+001 
4306250000  -3.879600e+001  5.657417e+001 
4309375000  -3.776415e+001  5.061107e+001 
4312500000  -3.757208e+001  3.907627e+001 
4315625000  -3.808942e+001  3.047472e+001 
4318750000  -3.870635e+001  2.743885e+001 
4321875000  -3.877111e+001  2.797798e+001 
4325000000  -3.815681e+001  2.506314e+001 
4328125000  -3.743592e+001  1.677882e+001 
4331250000  -3.768506e+001  7.202908e+000 
4334375000  -3.842393e+001  -1.567305e-001 
4337500000  -3.934214e+001  -3.734083e-001 
4340625000  -3.979770e+001  5.017675e+000 
4343750000  -3.869456e+001  -1.647478e+000 
4346875000  -3.834150e+001  -7.642421e+000 
4350000000  -3.856411e+001  -1.855837e+001 
4353125000  -3.899429e+001  -2.475984e+001 
4356250000  -4.145914e+001  -2.144057e+001 
4359375000  -4.023405e+001  -6.470070e+000 
4362500000  -3.691277e+001  -1.435429e+001 
4365625000  -3.612026e+001  -3.166768e+001 
4368750000  -3.725251e+001  -4.122021e+001 
4371875000  -3.816373e+001  -4.181910e+001 
4375000000  -3.745822e+001  -4.505058e+001 
4378125000  -3.708371e+001  -5.266854e+001 
4381250000  -3.723820e+001  -5.990967e+001 
4384375000  -3.723984e+001  -6.612664e+001 
4387500000  -3.811803e+001  -7.360784e+001 
4390625000  -3.896958e+001  -7.452838e+001 
4393750000  -3.821019e+001  -7.262875e+001 
4396875000  -3.737063e+001  -7.848438e+001 
4400000000  -3.679397e+001  -8.889153e+001 
4403125000  -3.778779e+001  -9.830166e+001 
4406250000  -3.838896e+001  -9.999707e+001 
4409375000  -3.881250e+001  -1.045060e+002 
4412500000  -3.975314e+001  -1.070387e+002 
4415625000  -3.952199e+001  -1.036996e+002 
