!Agilent Technologies,E8363B,MY43030201,A.06.04.32
!Agilent E8363B: A.06.04.32
!Date: Tuesday, November 11, 2014 21:34:56
!Correction: S21(Response(S21)) 
!S1P File: Measurement: S21:
# Hz S  dB   R 50
3000000000  -4.062372e+001  7.228215e+001 
3003125000  -4.237138e+001  6.629534e+001 
3006250000  -4.204069e+001  6.478331e+001 
3009375000  -4.271580e+001  7.023511e+001 
3012500000  -4.158166e+001  6.288292e+001 
3015625000  -4.150171e+001  5.873841e+001 
3018750000  -4.189258e+001  5.993092e+001 
3021875000  -4.019240e+001  5.832576e+001 
3025000000  -3.892519e+001  5.544854e+001 
3028125000  -3.786611e+001  4.474767e+001 
3031250000  -3.697064e+001  3.292467e+001 
3034375000  -3.682341e+001  1.893527e+001 
3037500000  -3.762523e+001  8.227534e+000 
3040625000  -3.878215e+001  3.250426e+000 
3043750000  -3.918678e+001  -3.411640e+000 
3046875000  -3.974971e+001  -9.329640e+000 
3050000000  -4.107385e+001  -1.397455e+001 
3053125000  -4.055949e+001  -9.089701e+000 
3056250000  -4.055673e+001  -5.466489e+000 
3059375000  -3.972539e+001  -8.788639e+000 
3062500000  -3.814692e+001  -1.233928e+001 
3065625000  -3.788327e+001  -2.395487e+001 
3068750000  -3.759476e+001  -3.076504e+001 
3071875000  -3.772703e+001  -3.337717e+001 
3075000000  -3.695161e+001  -3.981407e+001 
3078125000  -3.715616e+001  -4.579583e+001 
3081250000  -3.714912e+001  -5.138203e+001 
3084375000  -3.639901e+001  -5.642424e+001 
3087500000  -3.648431e+001  -6.384033e+001 
3090625000  -3.597931e+001  -7.639278e+001 
3093750000  -3.695196e+001  -8.425368e+001 
3096875000  -3.737988e+001  -8.903844e+001 
3100000000  -3.724588e+001  -9.115688e+001 
3103125000  -3.754394e+001  -9.577628e+001 
3106250000  -3.705030e+001  -1.009767e+002 
3109375000  -3.724792e+001  -1.045624e+002 
3112500000  -3.725238e+001  -1.104029e+002 
3115625000  -3.713539e+001  -1.140282e+002 
3118750000  -3.711348e+001  -1.176409e+002 
3121875000  -3.661269e+001  -1.283570e+002 
3125000000  -3.853298e+001  -1.319229e+002 
3128125000  -3.848478e+001  -1.251382e+002 
3131250000  -3.602702e+001  -1.311580e+002 
3134375000  -3.544897e+001  -1.479201e+002 
3137500000  -3.610935e+001  -1.596962e+002 
3140625000  -3.742267e+001  -1.624812e+002 
3143750000  -3.811309e+001  -1.650253e+002 
3146875000  -3.764405e+001  -1.627292e+002 
3150000000  -3.688443e+001  -1.672862e+002 
3153125000  -3.714225e+001  -1.759977e+002 
3156250000  -3.792816e+001  -1.712281e+002 
3159375000  -3.558170e+001  -1.730587e+002 
3162500000  -3.413615e+001  1.713587e+002 
3165625000  -3.554799e+001  1.586401e+002 
3168750000  -3.548040e+001  1.573264e+002 
3171875000  -3.491354e+001  1.501092e+002 
3175000000  -3.544495e+001  1.414874e+002 
3178125000  -3.501637e+001  1.394249e+002 
3181250000  -3.437645e+001  1.307463e+002 
3184375000  -3.427560e+001  1.195126e+002 
3187500000  -3.553976e+001  1.053980e+002 
3190625000  -3.718823e+001  9.942823e+001 
3193750000  -3.732511e+001  1.032180e+002 
3196875000  -3.729612e+001  1.044066e+002 
3200000000  -3.609011e+001  1.001143e+002 
3203125000  -3.581955e+001  9.162109e+001 
3206250000  -3.615243e+001  8.386542e+001 
3209375000  -3.581633e+001  7.578009e+001 
3212500000  -3.629958e+001  7.002511e+001 
3215625000  -3.599225e+001  6.552865e+001 
3218750000  -3.678817e+001  5.563042e+001 
3221875000  -3.731347e+001  4.886581e+001 
3225000000  -3.699521e+001  4.553754e+001 
3228125000  -3.785641e+001  3.776437e+001 
3231250000  -3.835321e+001  3.622935e+001 
3234375000  -3.779332e+001  3.317509e+001 
3237500000  -3.820478e+001  2.864905e+001 
3240625000  -3.771441e+001  2.349252e+001 
3243750000  -3.752419e+001  1.296828e+001 
3246875000  -3.810220e+001  5.228164e+000 
3250000000  -3.872980e+001  1.893706e+000 
3253125000  -3.908413e+001  -1.704497e+000 
3256250000  -3.858709e+001  -9.649611e+000 
3259375000  -3.902614e+001  -1.895904e+001 
3262500000  -4.069817e+001  -2.370799e+001 
3265625000  -4.115975e+001  -2.100327e+001 
3268750000  -4.123711e+001  -1.956200e+001 
3271875000  -4.028109e+001  -2.378211e+001 
3275000000  -4.017403e+001  -3.312125e+001 
3278125000  -4.086475e+001  -3.672163e+001 
3281250000  -4.100873e+001  -3.801476e+001 
3284375000  -4.035951e+001  -4.531385e+001 
3287500000  -4.110149e+001  -4.805029e+001 
3290625000  -4.122610e+001  -5.547933e+001 
3293750000  -4.139015e+001  -6.235653e+001 
3296875000  -4.247104e+001  -6.261532e+001 
3300000000  -4.182204e+001  -6.311852e+001 
3303125000  -4.107953e+001  -7.029045e+001 
3306250000  -4.069515e+001  -7.635969e+001 
3309375000  -4.045218e+001  -8.427327e+001 
3312500000  -4.099185e+001  -9.673904e+001 
3315625000  -4.237797e+001  -1.040504e+002 
3318750000  -4.383592e+001  -1.074184e+002 
3321875000  -4.477936e+001  -1.051097e+002 
3325000000  -4.502277e+001  -9.681790e+001 
3328125000  -4.416824e+001  -9.674258e+001 
3331250000  -4.240012e+001  -9.456017e+001 
3334375000  -3.966872e+001  -1.103504e+002 
3337500000  -4.030022e+001  -1.297125e+002 
3340625000  -4.233373e+001  -1.401264e+002 
3343750000  -4.400491e+001  -1.396842e+002 
3346875000  -4.311899e+001  -1.401849e+002 
3350000000  -4.291910e+001  -1.425995e+002 
3353125000  -4.288639e+001  -1.515383e+002 
3356250000  -4.274759e+001  -1.579838e+002 
3359375000  -4.325131e+001  -1.696742e+002 
3362500000  -4.437706e+001  -1.746596e+002 
3365625000  -4.442583e+001  -1.793781e+002 
3368750000  -4.552064e+001  1.743081e+002 
3371875000  -4.593341e+001  1.716890e+002 
3375000000  -4.739975e+001  1.690852e+002 
3378125000  -4.840825e+001  1.706507e+002 
3381250000  -5.020655e+001  1.774680e+002 
3384375000  -4.679500e+001  -1.672538e+002 
3387500000  -4.383805e+001  1.710146e+002 
3390625000  -4.574761e+001  1.511490e+002 
3393750000  -4.746381e+001  1.510204e+002 
3396875000  -4.593562e+001  1.542966e+002 
3400000000  -4.579453e+001  1.394774e+002 
3403125000  -4.704855e+001  1.330983e+002 
3406250000  -4.790236e+001  1.314689e+002 
3409375000  -4.794661e+001  1.234323e+002 
3412500000  -4.851645e+001  1.175127e+002 
3415625000  -4.978058e+001  1.185777e+002 
3418750000  -5.095360e+001  1.143114e+002 
3421875000  -5.151048e+001  1.229240e+002 
3425000000  -5.060915e+001  1.212405e+002 
3428125000  -4.982405e+001  1.148043e+002 
3431250000  -5.084036e+001  1.045342e+002 
3434375000  -5.142494e+001  1.076465e+002 
3437500000  -5.134540e+001  1.054658e+002 
3440625000  -5.202361e+001  9.678395e+001 
3443750000  -5.090034e+001  1.058801e+002 
3446875000  -5.041503e+001  1.019704e+002 
3450000000  -4.979263e+001  9.365311e+001 
3453125000  -5.046716e+001  8.093717e+001 
3456250000  -5.260744e+001  8.455327e+001 
3459375000  -5.325922e+001  8.411734e+001 
3462500000  -5.190090e+001  8.672840e+001 
3465625000  -5.129609e+001  7.719165e+001 
3468750000  -5.229419e+001  7.918755e+001 
3471875000  -5.159650e+001  7.544418e+001 
3475000000  -5.104248e+001  7.439260e+001 
3478125000  -5.088415e+001  6.009661e+001 
3481250000  -5.309116e+001  5.963744e+001 
3484375000  -5.273985e+001  6.316301e+001 
3487500000  -5.122728e+001  6.446048e+001 
3490625000  -5.044664e+001  5.325066e+001 
3493750000  -5.199424e+001  4.707944e+001 
3496875000  -5.278773e+001  4.682918e+001 
3500000000  -5.292668e+001  5.059682e+001 
3503125000  -5.088373e+001  4.757458e+001 
3506250000  -5.032713e+001  3.863925e+001 
3509375000  -4.969102e+001  3.008706e+001 
3512500000  -4.980397e+001  1.769558e+001 
3515625000  -5.146288e+001  7.331074e+000 
3518750000  -5.177832e+001  1.315863e+001 
3521875000  -5.192564e+001  5.270482e+000 
3525000000  -5.353016e+001  -2.614238e-001 
3528125000  -5.269245e+001  -2.664211e+000 
3531250000  -5.169050e+001  -2.227983e+000 
3534375000  -5.282087e+001  -2.271240e+001 
3537500000  -5.382675e+001  -2.521042e+001 
3540625000  -5.440954e+001  -2.616174e+001 
3543750000  -5.574509e+001  -1.559133e+001 
3546875000  -5.595894e+001  -7.876349e+000 
3550000000  -5.421704e+001  -1.507763e+001 
3553125000  -5.333556e+001  -3.621595e+001 
3556250000  -5.454527e+001  -3.250772e+001 
3559375000  -5.579409e+001  -3.113565e+001 
3562500000  -5.640927e+001  -4.236732e+001 
3565625000  -5.569582e+001  -5.223531e+001 
3568750000  -5.899783e+001  -4.140456e+001 
3571875000  -5.834278e+001  -3.334204e+001 
3575000000  -5.839781e+001  -3.217821e+001 
3578125000  -5.798131e+001  -5.901951e+001 
3581250000  -5.825819e+001  -3.905479e+001 
3584375000  -5.678867e+001  -2.789252e+001 
3587500000  -5.784176e+001  -3.771143e+001 
3590625000  -5.917253e+001  -5.445226e+001 
3593750000  -6.091751e+001  -3.844706e+001 
3596875000  -6.101742e+001  -3.225758e+001 
3600000000  -5.785191e+001  -3.771298e+001 
3603125000  -5.746622e+001  -5.867880e+001 
3606250000  -5.829738e+001  -5.547041e+001 
3609375000  -5.771239e+001  -3.715145e+001 
3612500000  -5.749184e+001  -3.845219e+001 
3615625000  -5.867405e+001  -5.049962e+001 
3618750000  -5.921567e+001  -4.458487e+001 
3621875000  -5.700137e+001  -3.820036e+001 
3625000000  -5.670802e+001  -4.416768e+001 
3628125000  -5.637148e+001  -3.708898e+001 
3631250000  -5.638988e+001  -5.191056e+001 
3634375000  -5.612356e+001  -4.228146e+001 
3637500000  -5.411389e+001  -4.446362e+001 
3640625000  -5.453024e+001  -3.566272e+001 
3643750000  -5.339214e+001  -4.858937e+001 
3646875000  -5.363617e+001  -5.018959e+001 
3650000000  -5.256455e+001  -6.359450e+001 
3653125000  -5.132370e+001  -6.300901e+001 
3656250000  -5.118450e+001  -6.802067e+001 
3659375000  -5.123786e+001  -6.451375e+001 
3662500000  -4.997922e+001  -7.366927e+001 
3665625000  -5.054728e+001  -7.512046e+001 
3668750000  -4.812899e+001  -7.437744e+001 
3671875000  -4.765706e+001  -8.204890e+001 
3675000000  -4.718085e+001  -9.248640e+001 
3678125000  -4.733440e+001  -9.813300e+001 
3681250000  -4.691269e+001  -1.034370e+002 
3684375000  -4.671719e+001  -1.063365e+002 
3687500000  -4.674709e+001  -1.138264e+002 
3690625000  -4.652557e+001  -1.189386e+002 
3693750000  -4.736623e+001  -1.170212e+002 
3696875000  -4.631043e+001  -1.190206e+002 
3700000000  -4.528325e+001  -1.266832e+002 
3703125000  -4.525026e+001  -1.327382e+002 
3706250000  -4.589271e+001  -1.321991e+002 
3709375000  -4.497492e+001  -1.325051e+002 
3712500000  -4.355092e+001  -1.362068e+002 
3715625000  -4.207781e+001  -1.483244e+002 
3718750000  -4.195961e+001  -1.541568e+002 
3721875000  -4.141776e+001  -1.657584e+002 
3725000000  -4.174683e+001  -1.688296e+002 
3728125000  -4.144503e+001  -1.737133e+002 
3731250000  -4.078406e+001  1.799041e+002 
3734375000  -4.039124e+001  1.727379e+002 
3737500000  -4.095903e+001  1.651077e+002 
3740625000  -4.077702e+001  1.566301e+002 
3743750000  -4.034654e+001  1.516268e+002 
3746875000  -4.099440e+001  1.448669e+002 
3750000000  -4.080152e+001  1.415148e+002 
3753125000  -4.058531e+001  1.373251e+002 
3756250000  -4.081814e+001  1.340037e+002 
3759375000  -4.044544e+001  1.286159e+002 
3762500000  -4.021176e+001  1.216168e+002 
3765625000  -4.068607e+001  1.185855e+002 
3768750000  -4.009906e+001  1.173823e+002 
3771875000  -3.860289e+001  1.101200e+002 
3775000000  -3.843859e+001  9.915481e+001 
3778125000  -3.885692e+001  9.232300e+001 
3781250000  -3.896249e+001  8.773643e+001 
3784375000  -3.889294e+001  8.153133e+001 
3787500000  -3.840973e+001  7.664904e+001 
3790625000  -3.904856e+001  6.710014e+001 
3793750000  -3.902795e+001  6.220571e+001 
3796875000  -3.839650e+001  6.063456e+001 
3800000000  -3.648640e+001  5.583969e+001 
3803125000  -3.837479e+001  4.047226e+001 
3806250000  -3.890577e+001  3.685951e+001 
3809375000  -3.834327e+001  3.358969e+001 
3812500000  -3.843867e+001  2.452420e+001 
3815625000  -3.965845e+001  1.514186e+001 
3818750000  -4.074499e+001  1.558447e+001 
3821875000  -3.990974e+001  2.461018e+001 
3825000000  -3.831887e+001  2.183914e+001 
3828125000  -3.701463e+001  3.503138e+000 
3831250000  -3.809964e+001  -1.087050e+001 
3834375000  -4.036023e+001  -1.151278e+001 
3837500000  -4.067925e+001  -5.617595e+000 
3840625000  -3.885648e+001  -1.155724e+001 
3843750000  -3.810725e+001  -2.758922e+001 
3846875000  -3.990127e+001  -3.230762e+001 
3850000000  -4.058872e+001  -2.457396e+001 
3853125000  -3.997975e+001  -2.478229e+001 
3856250000  -3.953662e+001  -3.264002e+001 
3859375000  -3.855835e+001  -4.149666e+001 
3862500000  -3.864510e+001  -5.149291e+001 
3865625000  -3.892093e+001  -5.663296e+001 
3868750000  -3.871144e+001  -5.624344e+001 
3871875000  -3.808531e+001  -6.547603e+001 
3875000000  -3.865445e+001  -7.346815e+001 
3878125000  -3.949675e+001  -7.696706e+001 
3881250000  -3.946709e+001  -7.775840e+001 
3884375000  -3.875428e+001  -8.501701e+001 
3887500000  -3.907922e+001  -9.093481e+001 
3890625000  -3.973737e+001  -9.546975e+001 
3893750000  -3.973125e+001  -9.623232e+001 
3896875000  -4.019100e+001  -9.938284e+001 
3900000000  -4.001193e+001  -1.030022e+002 
3903125000  -3.959957e+001  -1.065654e+002 
3906250000  -3.881915e+001  -1.118789e+002 
3909375000  -3.819713e+001  -1.213632e+002 
3912500000  -3.921861e+001  -1.305226e+002 
3915625000  -4.018612e+001  -1.292364e+002 
3918750000  -4.019973e+001  -1.320562e+002 
3921875000  -3.933606e+001  -1.354650e+002 
3925000000  -3.847414e+001  -1.401986e+002 
3928125000  -3.819472e+001  -1.512046e+002 
3931250000  -3.883424e+001  -1.566026e+002 
3934375000  -3.957236e+001  -1.590123e+002 
3937500000  -3.991183e+001  -1.611035e+002 
3940625000  -3.997910e+001  -1.630168e+002 
3943750000  -3.851733e+001  -1.654893e+002 
3946875000  -3.872806e+001  -1.753577e+002 
3950000000  -3.972890e+001  1.778950e+002 
3953125000  -4.026432e+001  1.771057e+002 
3956250000  -3.882747e+001  1.775831e+002 
3959375000  -3.769328e+001  1.714697e+002 
3962500000  -3.780411e+001  1.626446e+002 
3965625000  -3.766489e+001  1.531622e+002 
3968750000  -3.873020e+001  1.459552e+002 
3971875000  -3.851570e+001  1.403207e+002 
3975000000  -3.838488e+001  1.362715e+002 
3978125000  -3.860651e+001  1.311756e+002 
3981250000  -3.844831e+001  1.257568e+002 
3984375000  -3.903141e+001  1.177534e+002 
3987500000  -3.955502e+001  1.144283e+002 
3990625000  -3.976263e+001  1.116836e+002 
3993750000  -3.984818e+001  1.079527e+002 
3996875000  -3.972146e+001  1.037129e+002 
4000000000  -4.063286e+001  9.683564e+001 
4003125000  -4.097823e+001  1.003013e+002 
4006250000  -3.940076e+001  1.002291e+002 
4009375000  -3.858965e+001  8.448230e+001 
4012500000  -4.034187e+001  7.616135e+001 
4015625000  -4.194736e+001  7.396420e+001 
4018750000  -4.133789e+001  7.494350e+001 
4021875000  -4.073724e+001  7.284429e+001 
4025000000  -4.049064e+001  6.761462e+001 
4028125000  -4.040163e+001  5.911192e+001 
4031250000  -4.113084e+001  5.581342e+001 
4034375000  -4.152126e+001  5.535874e+001 
4037500000  -4.105373e+001  5.571438e+001 
4040625000  -4.104842e+001  5.121733e+001 
4043750000  -4.130758e+001  4.670676e+001 
4046875000  -4.065734e+001  4.424985e+001 
4050000000  -4.046188e+001  3.928254e+001 
4053125000  -4.156763e+001  3.574665e+001 
4056250000  -4.149252e+001  4.121791e+001 
4059375000  -3.959532e+001  3.746000e+001 
4062500000  -3.881862e+001  2.930177e+001 
4065625000  -3.886473e+001  2.492320e+001 
4068750000  -3.839589e+001  1.761440e+001 
4071875000  -3.776117e+001  7.594535e+000 
4075000000  -3.838467e+001  2.992887e-001 
4078125000  -3.847857e+001  -4.561720e+000 
4081250000  -3.824603e+001  -7.980044e+000 
4084375000  -3.804584e+001  -1.826754e+001 
4087500000  -3.869505e+001  -2.484951e+001 
4090625000  -3.909089e+001  -2.414187e+001 
4093750000  -3.874260e+001  -2.954897e+001 
4096875000  -3.878287e+001  -3.935736e+001 
4100000000  -3.952152e+001  -4.675591e+001 
4103125000  -4.037325e+001  -4.129742e+001 
4106250000  -3.994988e+001  -4.055217e+001 
4109375000  -3.921457e+001  -4.393945e+001 
4112500000  -3.877876e+001  -5.279237e+001 
4115625000  -3.930537e+001  -5.956215e+001 
4118750000  -3.913149e+001  -6.617074e+001 
4121875000  -3.897670e+001  -7.433015e+001 
4125000000  -3.978600e+001  -7.800763e+001 
4128125000  -4.078501e+001  -7.521453e+001 
4131250000  -3.991362e+001  -7.231895e+001 
4134375000  -3.765920e+001  -8.172830e+001 
4137500000  -3.808567e+001  -1.013964e+002 
4140625000  -4.019118e+001  -1.091125e+002 
4143750000  -4.133964e+001  -1.023072e+002 
4146875000  -4.084428e+001  -9.720170e+001 
4150000000  -3.963786e+001  -1.072225e+002 
4153125000  -4.006738e+001  -1.149911e+002 
4156250000  -4.093575e+001  -1.183258e+002 
4159375000  -4.084204e+001  -1.134185e+002 
4162500000  -3.983892e+001  -1.103305e+002 
4165625000  -3.885143e+001  -1.177147e+002 
4168750000  -3.828273e+001  -1.289159e+002 
4171875000  -3.844153e+001  -1.371499e+002 
4175000000  -3.926905e+001  -1.452230e+002 
4178125000  -3.969209e+001  -1.460072e+002 
4181250000  -3.935644e+001  -1.509844e+002 
4184375000  -3.959413e+001  -1.545212e+002 
4187500000  -3.952594e+001  -1.612670e+002 
4190625000  -3.946844e+001  -1.671506e+002 
4193750000  -4.045281e+001  -1.726686e+002 
4196875000  -4.128419e+001  -1.739579e+002 
4200000000  -4.233754e+001  -1.680723e+002 
4203125000  -4.104500e+001  -1.532742e+002 
4206250000  -3.738918e+001  -1.625042e+002 
4209375000  -3.718132e+001  1.737060e+002 
4212500000  -3.948698e+001  1.669681e+002 
4215625000  -4.005373e+001  1.741388e+002 
4218750000  -3.841945e+001  1.766749e+002 
4221875000  -3.661208e+001  1.648741e+002 
4225000000  -3.810253e+001  1.525865e+002 
4228125000  -3.796051e+001  1.551288e+002 
4231250000  -3.627329e+001  1.456571e+002 
4234375000  -3.653990e+001  1.348324e+002 
4237500000  -3.594713e+001  1.296875e+002 
4240625000  -3.625116e+001  1.177445e+002 
4243750000  -3.739022e+001  1.105677e+002 
4246875000  -3.851038e+001  1.106205e+002 
4250000000  -3.833214e+001  1.105137e+002 
4253125000  -3.814611e+001  1.066180e+002 
4256250000  -3.807491e+001  1.017066e+002 
4259375000  -3.766236e+001  9.638283e+001 
4262500000  -3.809250e+001  9.081488e+001 
4265625000  -3.794085e+001  8.979316e+001 
4268750000  -3.700149e+001  8.339971e+001 
4271875000  -3.671503e+001  7.342822e+001 
4275000000  -3.679443e+001  6.522581e+001 
4278125000  -3.795224e+001  5.223973e+001 
4281250000  -3.907362e+001  4.913750e+001 
4284375000  -3.887527e+001  4.651495e+001 
4287500000  -4.039500e+001  4.478682e+001 
4290625000  -4.066390e+001  5.249815e+001 
4293750000  -3.879734e+001  5.421709e+001 
4296875000  -3.770953e+001  4.183111e+001 
4300000000  -3.932971e+001  3.070962e+001 
4303125000  -3.966460e+001  3.493138e+001 
4306250000  -3.866182e+001  3.844535e+001 
4309375000  -3.764221e+001  3.091854e+001 
4312500000  -3.774816e+001  1.980800e+001 
4315625000  -3.800444e+001  1.333354e+001 
4318750000  -3.869060e+001  8.982680e+000 
4321875000  -3.853837e+001  8.744403e+000 
4325000000  -3.793204e+001  8.346123e+000 
4328125000  -3.732833e+001  -2.236527e+000 
4331250000  -3.745105e+001  -1.258435e+001 
4334375000  -3.833002e+001  -1.960095e+001 
4337500000  -3.967772e+001  -2.166166e+001 
4340625000  -3.963635e+001  -1.545993e+001 
4343750000  -3.873284e+001  -1.705837e+001 
4346875000  -3.823383e+001  -2.771391e+001 
4350000000  -3.841910e+001  -3.565427e+001 
4353125000  -3.894842e+001  -4.335040e+001 
4356250000  -4.160000e+001  -3.607697e+001 
4359375000  -3.995587e+001  -2.488573e+001 
4362500000  -3.634678e+001  -3.208326e+001 
4365625000  -3.584050e+001  -5.041426e+001 
4368750000  -3.699997e+001  -5.976600e+001 
4371875000  -3.801542e+001  -5.948708e+001 
4375000000  -3.720740e+001  -6.533991e+001 
4378125000  -3.702270e+001  -7.354113e+001 
4381250000  -3.713748e+001  -8.122382e+001 
4384375000  -3.717170e+001  -8.611821e+001 
4387500000  -3.829971e+001  -9.188928e+001 
4390625000  -3.842063e+001  -9.381603e+001 
4393750000  -3.784094e+001  -9.289364e+001 
4396875000  -3.730444e+001  -9.805064e+001 
4400000000  -3.682427e+001  -1.081142e+002 
4403125000  -3.790929e+001  -1.172201e+002 
4406250000  -3.851531e+001  -1.200869e+002 
4409375000  -3.874550e+001  -1.238406e+002 
4412500000  -3.976322e+001  -1.249338e+002 
4415625000  -3.963671e+001  -1.240759e+002 
