!Agilent Technologies,E8363B,MY43030201,A.06.04.32
!Agilent E8363B: A.06.04.32
!Date: Tuesday, November 11, 2014 21:37:34
!Correction: S21(Response(S21)) 
!S1P File: Measurement: S21:
# Hz S  dB   R 50
3000000000  -4.061573e+001  7.034305e+001 
3003125000  -4.206832e+001  6.285622e+001 
3006250000  -4.203553e+001  6.131589e+001 
3009375000  -4.247293e+001  6.710974e+001 
3012500000  -4.138322e+001  6.058603e+001 
3015625000  -4.137547e+001  5.439680e+001 
3018750000  -4.172064e+001  5.700170e+001 
3021875000  -4.009469e+001  5.727695e+001 
3025000000  -3.898278e+001  5.346974e+001 
3028125000  -3.790778e+001  4.208059e+001 
3031250000  -3.695061e+001  2.995983e+001 
3034375000  -3.680868e+001  1.620418e+001 
3037500000  -3.752931e+001  5.243197e+000 
3040625000  -3.895207e+001  1.822061e+000 
3043750000  -3.931855e+001  -5.440459e+000 
3046875000  -3.991537e+001  -1.194356e+001 
3050000000  -4.104093e+001  -1.730506e+001 
3053125000  -4.053278e+001  -1.137173e+001 
3056250000  -4.052675e+001  -8.127899e+000 
3059375000  -3.983690e+001  -1.031832e+001 
3062500000  -3.818436e+001  -1.458454e+001 
3065625000  -3.791605e+001  -2.493829e+001 
3068750000  -3.742697e+001  -3.304243e+001 
3071875000  -3.773918e+001  -3.463263e+001 
3075000000  -3.693779e+001  -4.134372e+001 
3078125000  -3.719820e+001  -4.782457e+001 
3081250000  -3.724239e+001  -5.439579e+001 
3084375000  -3.635359e+001  -5.903279e+001 
3087500000  -3.642392e+001  -6.611798e+001 
3090625000  -3.591779e+001  -7.799734e+001 
3093750000  -3.705035e+001  -8.623482e+001 
3096875000  -3.730830e+001  -9.103078e+001 
3100000000  -3.731344e+001  -9.441491e+001 
3103125000  -3.754670e+001  -9.780830e+001 
3106250000  -3.710768e+001  -1.032233e+002 
3109375000  -3.726348e+001  -1.061305e+002 
3112500000  -3.717577e+001  -1.126142e+002 
3115625000  -3.713533e+001  -1.161069e+002 
3118750000  -3.714262e+001  -1.199547e+002 
3121875000  -3.647681e+001  -1.311311e+002 
3125000000  -3.847775e+001  -1.344476e+002 
3128125000  -3.839486e+001  -1.274473e+002 
3131250000  -3.596661e+001  -1.331458e+002 
3134375000  -3.536175e+001  -1.505064e+002 
3137500000  -3.613071e+001  -1.624350e+002 
3140625000  -3.740095e+001  -1.650183e+002 
3143750000  -3.828161e+001  -1.677040e+002 
3146875000  -3.760319e+001  -1.649602e+002 
3150000000  -3.687196e+001  -1.693862e+002 
3153125000  -3.721546e+001  -1.784816e+002 
3156250000  -3.790969e+001  -1.735244e+002 
3159375000  -3.563082e+001  -1.743437e+002 
3162500000  -3.418085e+001  1.687608e+002 
3165625000  -3.541389e+001  1.563261e+002 
3168750000  -3.531726e+001  1.554481e+002 
3171875000  -3.503649e+001  1.482253e+002 
3175000000  -3.553596e+001  1.392750e+002 
3178125000  -3.491343e+001  1.373606e+002 
3181250000  -3.432140e+001  1.282864e+002 
3184375000  -3.422854e+001  1.170643e+002 
3187500000  -3.534312e+001  1.029038e+002 
3190625000  -3.713149e+001  9.677820e+001 
3193750000  -3.757298e+001  1.023080e+002 
3196875000  -3.734414e+001  1.025768e+002 
3200000000  -3.611285e+001  9.760448e+001 
3203125000  -3.593731e+001  8.999562e+001 
3206250000  -3.611144e+001  8.160131e+001 
3209375000  -3.562117e+001  7.320329e+001 
3212500000  -3.636754e+001  6.747511e+001 
3215625000  -3.600420e+001  6.383982e+001 
3218750000  -3.695430e+001  5.417350e+001 
3221875000  -3.725452e+001  4.609328e+001 
3225000000  -3.706929e+001  4.300051e+001 
3228125000  -3.773582e+001  3.591697e+001 
3231250000  -3.827135e+001  3.279959e+001 
3234375000  -3.787119e+001  3.092356e+001 
3237500000  -3.792319e+001  2.698446e+001 
3240625000  -3.740347e+001  2.106947e+001 
3243750000  -3.758235e+001  1.080055e+001 
3246875000  -3.817394e+001  3.795991e+000 
3250000000  -3.874701e+001  -1.816910e-001 
3253125000  -3.882369e+001  -3.507277e+000 
3256250000  -3.857684e+001  -1.118007e+001 
3259375000  -3.909039e+001  -2.190863e+001 
3262500000  -4.064113e+001  -2.692785e+001 
3265625000  -4.132148e+001  -2.339898e+001 
3268750000  -4.135308e+001  -2.248783e+001 
3271875000  -4.055827e+001  -2.665055e+001 
3275000000  -4.014473e+001  -3.428625e+001 
3278125000  -4.071103e+001  -3.905551e+001 
3281250000  -4.115636e+001  -4.020751e+001 
3284375000  -4.053844e+001  -4.773680e+001 
3287500000  -4.103413e+001  -5.111277e+001 
3290625000  -4.113497e+001  -5.743097e+001 
3293750000  -4.106814e+001  -6.318620e+001 
3296875000  -4.238530e+001  -6.598448e+001 
3300000000  -4.186241e+001  -6.576452e+001 
3303125000  -4.087525e+001  -7.253126e+001 
3306250000  -4.074885e+001  -8.003453e+001 
3309375000  -4.041768e+001  -8.661812e+001 
3312500000  -4.084295e+001  -9.823193e+001 
3315625000  -4.250621e+001  -1.063952e+002 
3318750000  -4.373848e+001  -1.096825e+002 
3321875000  -4.478519e+001  -1.071129e+002 
3325000000  -4.478440e+001  -9.850141e+001 
3328125000  -4.389707e+001  -9.947592e+001 
3331250000  -4.225689e+001  -9.849802e+001 
3334375000  -3.952742e+001  -1.135257e+002 
3337500000  -4.033703e+001  -1.355047e+002 
3340625000  -4.232640e+001  -1.412953e+002 
3343750000  -4.405620e+001  -1.412729e+002 
3346875000  -4.335844e+001  -1.435413e+002 
3350000000  -4.308955e+001  -1.462679e+002 
3353125000  -4.291001e+001  -1.526194e+002 
3356250000  -4.245521e+001  -1.620181e+002 
3359375000  -4.311152e+001  -1.726866e+002 
3362500000  -4.406124e+001  -1.779705e+002 
3365625000  -4.505567e+001  1.791719e+002 
3368750000  -4.570975e+001  1.741505e+002 
3371875000  -4.569014e+001  1.715708e+002 
3375000000  -4.743010e+001  1.655283e+002 
3378125000  -4.790828e+001  1.678314e+002 
3381250000  -4.998370e+001  1.777146e+002 
3384375000  -4.674467e+001  -1.692041e+002 
3387500000  -4.384844e+001  1.667709e+002 
3390625000  -4.629683e+001  1.485097e+002 
3393750000  -4.713957e+001  1.495361e+002 
3396875000  -4.612875e+001  1.483568e+002 
3400000000  -4.602930e+001  1.352856e+002 
3403125000  -4.638619e+001  1.319537e+002 
3406250000  -4.722241e+001  1.271058e+002 
3409375000  -4.798776e+001  1.194004e+002 
3412500000  -4.898348e+001  1.144718e+002 
3415625000  -4.922093e+001  1.107351e+002 
3418750000  -5.031427e+001  1.155277e+002 
3421875000  -5.131806e+001  1.171291e+002 
3425000000  -4.966622e+001  1.147333e+002 
3428125000  -4.979243e+001  1.095527e+002 
3431250000  -4.958055e+001  1.034962e+002 
3434375000  -5.021843e+001  9.545930e+001 
3437500000  -5.162130e+001  1.019482e+002 
3440625000  -5.162450e+001  1.053768e+002 
3443750000  -5.068549e+001  1.078587e+002 
3446875000  -4.974701e+001  9.344846e+001 
3450000000  -4.986150e+001  8.972078e+001 
3453125000  -5.100551e+001  7.903842e+001 
3456250000  -5.214021e+001  7.814353e+001 
3459375000  -5.358261e+001  8.344006e+001 
3462500000  -5.182922e+001  8.525667e+001 
3465625000  -5.104991e+001  7.279424e+001 
3468750000  -5.165373e+001  7.378078e+001 
3471875000  -5.200610e+001  7.735213e+001 
3475000000  -5.152759e+001  6.775793e+001 
3478125000  -5.074277e+001  5.807926e+001 
3481250000  -5.249306e+001  6.250988e+001 
3484375000  -5.191487e+001  6.006509e+001 
3487500000  -5.076849e+001  5.745073e+001 
3490625000  -5.086965e+001  4.909922e+001 
3493750000  -5.140321e+001  4.500366e+001 
3496875000  -5.119880e+001  4.566453e+001 
3500000000  -5.233263e+001  3.875282e+001 
3503125000  -5.076729e+001  4.163589e+001 
3506250000  -4.954445e+001  3.157309e+001 
3509375000  -4.902542e+001  2.138841e+001 
3512500000  -5.010542e+001  1.071604e+001 
3515625000  -5.151611e+001  7.610970e+000 
3518750000  -5.186257e+001  6.631393e+000 
3521875000  -5.259322e+001  -5.004083e-001 
3525000000  -5.362399e+001  -8.869157e+000 
3528125000  -5.201771e+001  2.046204e+000 
3531250000  -5.155168e+001  -7.605090e+000 
3534375000  -5.248747e+001  -2.338688e+001 
3537500000  -5.372196e+001  -3.046808e+001 
3540625000  -5.539783e+001  -2.563471e+001 
3543750000  -5.563237e+001  -1.578266e+001 
3546875000  -5.545999e+001  -1.218411e+001 
3550000000  -5.333325e+001  -2.096028e+001 
3553125000  -5.440594e+001  -3.649606e+001 
3556250000  -5.626775e+001  -3.070918e+001 
3559375000  -5.650756e+001  -3.637137e+001 
3562500000  -5.621651e+001  -4.733292e+001 
3565625000  -5.711978e+001  -5.634464e+001 
3568750000  -5.775362e+001  -4.621511e+001 
3571875000  -5.758445e+001  -3.980428e+001 
3575000000  -5.764915e+001  -4.519329e+001 
3578125000  -6.034860e+001  -5.067287e+001 
3581250000  -5.607274e+001  -4.486738e+001 
3584375000  -5.628242e+001  -4.568609e+001 
3587500000  -5.668081e+001  -5.138415e+001 
3590625000  -5.746716e+001  -5.401144e+001 
3593750000  -5.997446e+001  -4.877386e+001 
3596875000  -5.747527e+001  -3.994553e+001 
3600000000  -5.612364e+001  -4.034378e+001 
3603125000  -5.688544e+001  -5.771782e+001 
3606250000  -5.934343e+001  -5.705560e+001 
3609375000  -5.810439e+001  -5.669072e+001 
3612500000  -5.726505e+001  -6.109676e+001 
3615625000  -5.850810e+001  -5.879943e+001 
3618750000  -5.921819e+001  -4.318967e+001 
3621875000  -5.724620e+001  -5.358407e+001 
3625000000  -5.749127e+001  -5.823095e+001 
3628125000  -5.645202e+001  -3.887800e+001 
3631250000  -5.707388e+001  -5.026972e+001 
3634375000  -5.697652e+001  -4.499910e+001 
3637500000  -5.623560e+001  -4.228761e+001 
3640625000  -5.539830e+001  -4.669236e+001 
3643750000  -5.305062e+001  -5.496675e+001 
3646875000  -5.254332e+001  -6.055127e+001 
3650000000  -5.236736e+001  -6.042043e+001 
3653125000  -5.195043e+001  -6.267834e+001 
3656250000  -5.250617e+001  -6.532389e+001 
3659375000  -5.184704e+001  -6.515301e+001 
3662500000  -5.092751e+001  -7.336707e+001 
3665625000  -5.001881e+001  -7.283134e+001 
3668750000  -4.791403e+001  -7.685861e+001 
3671875000  -4.774650e+001  -8.646226e+001 
3675000000  -4.748671e+001  -9.681528e+001 
3678125000  -4.729450e+001  -9.937514e+001 
3681250000  -4.639510e+001  -1.055394e+002 
3684375000  -4.678405e+001  -1.070470e+002 
3687500000  -4.686040e+001  -1.146395e+002 
3690625000  -4.654811e+001  -1.220146e+002 
3693750000  -4.713213e+001  -1.197649e+002 
3696875000  -4.695777e+001  -1.222919e+002 
3700000000  -4.554744e+001  -1.309260e+002 
3703125000  -4.502364e+001  -1.339588e+002 
3706250000  -4.564071e+001  -1.353747e+002 
3709375000  -4.495827e+001  -1.371640e+002 
3712500000  -4.330544e+001  -1.407207e+002 
3715625000  -4.231850e+001  -1.485302e+002 
3718750000  -4.186131e+001  -1.576280e+002 
3721875000  -4.136706e+001  -1.652229e+002 
3725000000  -4.184502e+001  -1.738386e+002 
3728125000  -4.172738e+001  -1.768201e+002 
3731250000  -4.081277e+001  1.781262e+002 
3734375000  -4.009111e+001  1.711463e+002 
3737500000  -4.069902e+001  1.607494e+002 
3740625000  -4.086953e+001  1.548163e+002 
3743750000  -4.042682e+001  1.506813e+002 
3746875000  -4.074100e+001  1.426082e+002 
3750000000  -4.107652e+001  1.379982e+002 
3753125000  -4.059774e+001  1.344590e+002 
3756250000  -4.078143e+001  1.305805e+002 
3759375000  -4.035234e+001  1.258497e+002 
3762500000  -4.000237e+001  1.193626e+002 
3765625000  -4.078775e+001  1.139799e+002 
3768750000  -4.024674e+001  1.142292e+002 
3771875000  -3.844747e+001  1.073896e+002 
3775000000  -3.846536e+001  9.626127e+001 
3778125000  -3.902394e+001  9.022417e+001 
3781250000  -3.908595e+001  8.515025e+001 
3784375000  -3.904873e+001  7.842056e+001 
3787500000  -3.847127e+001  7.326136e+001 
3790625000  -3.919563e+001  6.409126e+001 
3793750000  -3.904067e+001  6.215876e+001 
3796875000  -3.814928e+001  5.658822e+001 
3800000000  -3.636287e+001  5.235599e+001 
3803125000  -3.814414e+001  3.871555e+001 
3806250000  -3.886626e+001  3.428875e+001 
3809375000  -3.850665e+001  3.069342e+001 
3812500000  -3.842883e+001  2.168585e+001 
3815625000  -3.972665e+001  1.054782e+001 
3818750000  -4.050349e+001  1.242953e+001 
3821875000  -4.037838e+001  2.263003e+001 
3825000000  -3.821935e+001  1.958776e+001 
3828125000  -3.704751e+001  -4.009177e-001 
3831250000  -3.813252e+001  -1.392994e+001 
3834375000  -4.034368e+001  -1.385827e+001 
3837500000  -4.062933e+001  -1.105901e+001 
3840625000  -3.891262e+001  -1.196512e+001 
3843750000  -3.819474e+001  -2.975489e+001 
3846875000  -3.973779e+001  -3.377054e+001 
3850000000  -4.100768e+001  -2.912211e+001 
3853125000  -4.001028e+001  -2.727569e+001 
3856250000  -3.921209e+001  -3.628062e+001 
3859375000  -3.869675e+001  -4.336375e+001 
3862500000  -3.843259e+001  -5.449844e+001 
3865625000  -3.898089e+001  -5.913611e+001 
3868750000  -3.859859e+001  -6.036980e+001 
3871875000  -3.792120e+001  -6.750529e+001 
3875000000  -3.864317e+001  -7.864961e+001 
3878125000  -3.936927e+001  -8.023591e+001 
3881250000  -3.926941e+001  -8.057424e+001 
3884375000  -3.864706e+001  -8.788370e+001 
3887500000  -3.905461e+001  -9.319753e+001 
3890625000  -3.936007e+001  -9.837032e+001 
3893750000  -3.966057e+001  -9.875063e+001 
3896875000  -3.994472e+001  -1.032054e+002 
3900000000  -3.996519e+001  -1.071690e+002 
3903125000  -3.917563e+001  -1.096229e+002 
3906250000  -3.887374e+001  -1.151292e+002 
3909375000  -3.825449e+001  -1.236933e+002 
3912500000  -3.920781e+001  -1.322721e+002 
3915625000  -4.027638e+001  -1.315848e+002 
3918750000  -3.985130e+001  -1.338533e+002 
3921875000  -3.932945e+001  -1.402496e+002 
3925000000  -3.842490e+001  -1.448359e+002 
3928125000  -3.825911e+001  -1.543598e+002 
3931250000  -3.910249e+001  -1.603260e+002 
3934375000  -3.963095e+001  -1.610442e+002 
3937500000  -4.006737e+001  -1.638916e+002 
3940625000  -3.994122e+001  -1.644759e+002 
3943750000  -3.885170e+001  -1.692303e+002 
3946875000  -3.844577e+001  -1.773909e+002 
3950000000  -3.944691e+001  1.728555e+002 
3953125000  -4.008976e+001  1.737852e+002 
3956250000  -3.866649e+001  1.747731e+002 
3959375000  -3.787898e+001  1.680808e+002 
3962500000  -3.765853e+001  1.585531e+002 
3965625000  -3.770426e+001  1.498250e+002 
3968750000  -3.870169e+001  1.410644e+002 
3971875000  -3.851825e+001  1.383770e+002 
3975000000  -3.816470e+001  1.327164e+002 
3978125000  -3.862834e+001  1.293532e+002 
3981250000  -3.843365e+001  1.212414e+002 
3984375000  -3.899871e+001  1.135747e+002 
3987500000  -3.997493e+001  1.112555e+002 
3990625000  -3.996799e+001  1.085194e+002 
3993750000  -3.971667e+001  1.052603e+002 
3996875000  -4.000856e+001  9.955154e+001 
4000000000  -4.060729e+001  9.546049e+001 
4003125000  -4.111655e+001  9.839687e+001 
4006250000  -3.934487e+001  9.820581e+001 
4009375000  -3.856425e+001  7.952103e+001 
4012500000  -4.019943e+001  7.346017e+001 
4015625000  -4.152859e+001  7.271136e+001 
4018750000  -4.126176e+001  7.468445e+001 
4021875000  -4.063729e+001  7.018953e+001 
4025000000  -4.018821e+001  6.494058e+001 
4028125000  -4.036641e+001  5.659025e+001 
4031250000  -4.102718e+001  5.191513e+001 
4034375000  -4.147197e+001  5.172721e+001 
4037500000  -4.098478e+001  5.328421e+001 
4040625000  -4.090463e+001  4.832463e+001 
4043750000  -4.096299e+001  4.425769e+001 
4046875000  -4.085056e+001  4.132076e+001 
4050000000  -4.040144e+001  3.511782e+001 
4053125000  -4.161628e+001  3.391384e+001 
4056250000  -4.137113e+001  3.886709e+001 
4059375000  -3.915929e+001  3.537332e+001 
4062500000  -3.863513e+001  2.566262e+001 
4065625000  -3.896901e+001  2.053075e+001 
4068750000  -3.810485e+001  1.481175e+001 
4071875000  -3.786557e+001  5.054804e+000 
4075000000  -3.843357e+001  -4.016100e+000 
4078125000  -3.872551e+001  -5.113132e+000 
4081250000  -3.824918e+001  -1.178084e+001 
4084375000  -3.791557e+001  -2.056542e+001 
4087500000  -3.866032e+001  -2.861765e+001 
4090625000  -3.922684e+001  -2.953450e+001 
4093750000  -3.869578e+001  -3.101163e+001 
4096875000  -3.848765e+001  -4.278010e+001 
4100000000  -3.960752e+001  -5.007914e+001 
4103125000  -4.041274e+001  -4.808770e+001 
4106250000  -3.998302e+001  -4.306902e+001 
4109375000  -3.889441e+001  -4.855132e+001 
4112500000  -3.864513e+001  -5.560474e+001 
4115625000  -3.914215e+001  -6.474310e+001 
4118750000  -3.887082e+001  -6.691159e+001 
4121875000  -3.887231e+001  -7.481703e+001 
4125000000  -4.003359e+001  -8.178482e+001 
4128125000  -4.079556e+001  -7.790929e+001 
4131250000  -3.967806e+001  -7.498722e+001 
4134375000  -3.754549e+001  -8.453414e+001 
4137500000  -3.815198e+001  -1.063289e+002 
4140625000  -4.059813e+001  -1.121746e+002 
4143750000  -4.143877e+001  -1.035228e+002 
4146875000  -4.048538e+001  -1.006427e+002 
4150000000  -3.910386e+001  -1.097782e+002 
4153125000  -4.000168e+001  -1.200839e+002 
4156250000  -4.129411e+001  -1.220402e+002 
4159375000  -4.089875e+001  -1.156311e+002 
4162500000  -4.001991e+001  -1.125917e+002 
4165625000  -3.876244e+001  -1.213698e+002 
4168750000  -3.831326e+001  -1.305340e+002 
4171875000  -3.833408e+001  -1.405556e+002 
4175000000  -3.900956e+001  -1.478549e+002 
4178125000  -3.968159e+001  -1.493188e+002 
4181250000  -3.941262e+001  -1.528231e+002 
4184375000  -3.955841e+001  -1.570656e+002 
4187500000  -3.941709e+001  -1.635368e+002 
4190625000  -3.935212e+001  -1.704905e+002 
4193750000  -4.081459e+001  -1.752037e+002 
4196875000  -4.145656e+001  -1.757876e+002 
4200000000  -4.269026e+001  -1.695506e+002 
4203125000  -4.074294e+001  -1.588127e+002 
4206250000  -3.749374e+001  -1.669771e+002 
4209375000  -3.745841e+001  1.692285e+002 
4212500000  -3.953543e+001  1.618641e+002 
4215625000  -4.000184e+001  1.708881e+002 
4218750000  -3.823832e+001  1.708379e+002 
4221875000  -3.666136e+001  1.623722e+002 
4225000000  -3.772620e+001  1.516563e+002 
4228125000  -3.751644e+001  1.508752e+002 
4231250000  -3.625217e+001  1.428761e+002 
4234375000  -3.642476e+001  1.317693e+002 
4237500000  -3.619097e+001  1.273778e+002 
4240625000  -3.625719e+001  1.157837e+002 
4243750000  -3.754469e+001  1.071608e+002 
4246875000  -3.848341e+001  1.065040e+002 
4250000000  -3.829988e+001  1.067036e+002 
4253125000  -3.800851e+001  1.043862e+002 
4256250000  -3.822841e+001  9.909038e+001 
4259375000  -3.756885e+001  9.466579e+001 
4262500000  -3.805370e+001  8.935960e+001 
4265625000  -3.779811e+001  8.810772e+001 
4268750000  -3.686210e+001  7.887733e+001 
4271875000  -3.689917e+001  7.139735e+001 
4275000000  -3.656467e+001  6.112698e+001 
4278125000  -3.769389e+001  4.915073e+001 
4281250000  -3.880719e+001  4.770404e+001 
4284375000  -3.857050e+001  4.659072e+001 
4287500000  -4.043148e+001  4.308442e+001 
4290625000  -4.055779e+001  5.391908e+001 
4293750000  -3.848876e+001  5.360895e+001 
4296875000  -3.762743e+001  3.920480e+001 
4300000000  -3.915183e+001  2.771326e+001 
4303125000  -3.979164e+001  3.206131e+001 
4306250000  -3.846230e+001  3.506733e+001 
4309375000  -3.758163e+001  2.790785e+001 
4312500000  -3.756668e+001  1.718462e+001 
4315625000  -3.791835e+001  9.211670e+000 
4318750000  -3.867667e+001  4.780986e+000 
4321875000  -3.836292e+001  4.960015e+000 
4325000000  -3.785134e+001  4.661946e+000 
4328125000  -3.731415e+001  -4.151927e+000 
4331250000  -3.752457e+001  -1.661215e+001 
4334375000  -3.826801e+001  -2.321350e+001 
4337500000  -3.945886e+001  -2.299633e+001 
4340625000  -3.973183e+001  -1.742803e+001 
4343750000  -3.849122e+001  -2.288911e+001 
4346875000  -3.809404e+001  -3.167204e+001 
4350000000  -3.843138e+001  -3.942020e+001 
4353125000  -3.884057e+001  -4.771332e+001 
4356250000  -4.076691e+001  -4.347814e+001 
4359375000  -3.971001e+001  -2.936677e+001 
4362500000  -3.638461e+001  -3.633057e+001 
4365625000  -3.564293e+001  -5.236107e+001 
4368750000  -3.722800e+001  -6.336100e+001 
4371875000  -3.794171e+001  -6.488560e+001 
4375000000  -3.719826e+001  -6.848734e+001 
4378125000  -3.679044e+001  -7.513216e+001 
4381250000  -3.715913e+001  -8.328810e+001 
4384375000  -3.717204e+001  -9.066364e+001 
4387500000  -3.798463e+001  -9.554380e+001 
4390625000  -3.852277e+001  -9.456678e+001 
4393750000  -3.803925e+001  -9.764979e+001 
4396875000  -3.716817e+001  -1.011063e+002 
4400000000  -3.686172e+001  -1.123256e+002 
4403125000  -3.767959e+001  -1.196064e+002 
4406250000  -3.843044e+001  -1.237205e+002 
4409375000  -3.892156e+001  -1.277623e+002 
4412500000  -3.982447e+001  -1.289618e+002 
4415625000  -3.936076e+001  -1.264138e+002 
