!Agilent Technologies,E8363B,MY43030201,A.06.04.32
!Agilent E8363B: A.06.04.32
!Date: Tuesday, November 11, 2014 21:26:41
!Correction: S21(Response(S21)) 
!S1P File: Measurement: S21:
# Hz S  dB   R 50
3000000000  -4.041981e+001  9.534494e+001 
3003125000  -4.226918e+001  8.749511e+001 
3006250000  -4.185105e+001  8.469730e+001 
3009375000  -4.256453e+001  9.051289e+001 
3012500000  -4.160052e+001  8.631699e+001 
3015625000  -4.139104e+001  7.833002e+001 
3018750000  -4.187926e+001  8.029882e+001 
3021875000  -4.026907e+001  7.991704e+001 
3025000000  -3.885723e+001  7.558933e+001 
3028125000  -3.793948e+001  6.708450e+001 
3031250000  -3.697259e+001  5.555059e+001 
3034375000  -3.662741e+001  4.084737e+001 
3037500000  -3.743172e+001  3.052090e+001 
3040625000  -3.856267e+001  2.461738e+001 
3043750000  -3.913701e+001  1.909502e+001 
3046875000  -3.966892e+001  1.303051e+001 
3050000000  -4.096567e+001  7.177578e+000 
3053125000  -4.066677e+001  1.228247e+001 
3056250000  -4.022153e+001  1.694344e+001 
3059375000  -3.992849e+001  1.278720e+001 
3062500000  -3.823037e+001  7.524454e+000 
3065625000  -3.812209e+001  -5.317082e-001 
3068750000  -3.769315e+001  -8.701095e+000 
3071875000  -3.759529e+001  -1.219729e+001 
3075000000  -3.708934e+001  -1.747878e+001 
3078125000  -3.714590e+001  -2.332388e+001 
3081250000  -3.730539e+001  -2.994847e+001 
3084375000  -3.641273e+001  -3.508318e+001 
3087500000  -3.633825e+001  -4.041349e+001 
3090625000  -3.595533e+001  -5.273313e+001 
3093750000  -3.678964e+001  -6.176040e+001 
3096875000  -3.741083e+001  -6.730177e+001 
3100000000  -3.724997e+001  -6.989487e+001 
3103125000  -3.764545e+001  -7.319086e+001 
3106250000  -3.708628e+001  -7.810160e+001 
3109375000  -3.728142e+001  -8.339915e+001 
3112500000  -3.717858e+001  -8.832333e+001 
3115625000  -3.707793e+001  -9.227907e+001 
3118750000  -3.728802e+001  -9.505581e+001 
3121875000  -3.655120e+001  -1.060877e+002 
3125000000  -3.818970e+001  -1.104397e+002 
3128125000  -3.855759e+001  -1.036734e+002 
3131250000  -3.616877e+001  -1.083704e+002 
3134375000  -3.529836e+001  -1.251582e+002 
3137500000  -3.601699e+001  -1.384603e+002 
3140625000  -3.746469e+001  -1.410655e+002 
3143750000  -3.824216e+001  -1.423201e+002 
3146875000  -3.771888e+001  -1.412150e+002 
3150000000  -3.693235e+001  -1.443052e+002 
3153125000  -3.709940e+001  -1.530490e+002 
3156250000  -3.789897e+001  -1.490197e+002 
3159375000  -3.587762e+001  -1.495224e+002 
3162500000  -3.440825e+001  -1.658694e+002 
3165625000  -3.548080e+001  -1.787581e+002 
3168750000  -3.560899e+001  -1.796109e+002 
3171875000  -3.504723e+001  1.728758e+002 
3175000000  -3.557587e+001  1.640075e+002 
3178125000  -3.520062e+001  1.630468e+002 
3181250000  -3.455908e+001  1.547538e+002 
3184375000  -3.416501e+001  1.420015e+002 
3187500000  -3.524290e+001  1.271702e+002 
3190625000  -3.738334e+001  1.206362e+002 
3193750000  -3.756152e+001  1.262995e+002 
3196875000  -3.752433e+001  1.274703e+002 
3200000000  -3.635197e+001  1.229117e+002 
3203125000  -3.594855e+001  1.150094e+002 
3206250000  -3.624195e+001  1.072150e+002 
3209375000  -3.581444e+001  9.944116e+001 
3212500000  -3.606317e+001  9.267928e+001 
3215625000  -3.619398e+001  8.885087e+001 
3218750000  -3.695577e+001  7.920675e+001 
3221875000  -3.751991e+001  7.124783e+001 
3225000000  -3.706927e+001  6.865728e+001 
3228125000  -3.777707e+001  6.098660e+001 
3231250000  -3.825179e+001  5.852987e+001 
3234375000  -3.791655e+001  5.570893e+001 
3237500000  -3.805382e+001  5.050865e+001 
3240625000  -3.771185e+001  4.595991e+001 
3243750000  -3.767280e+001  3.629305e+001 
3246875000  -3.825266e+001  2.765614e+001 
3250000000  -3.887077e+001  2.534515e+001 
3253125000  -3.894883e+001  2.148326e+001 
3256250000  -3.876335e+001  1.347507e+001 
3259375000  -3.916355e+001  3.539021e+000 
3262500000  -4.076276e+001  -3.900089e-001 
3265625000  -4.120453e+001  1.410652e+000 
3268750000  -4.131775e+001  2.558233e+000 
3271875000  -4.079466e+001  -8.210170e-001 
3275000000  -4.033481e+001  -8.022959e+000 
3278125000  -4.090636e+001  -1.366800e+001 
3281250000  -4.114802e+001  -1.502330e+001 
3284375000  -4.069150e+001  -2.182912e+001 
3287500000  -4.112143e+001  -2.631212e+001 
3290625000  -4.128203e+001  -3.274067e+001 
3293750000  -4.126564e+001  -4.003829e+001 
3296875000  -4.247439e+001  -4.047315e+001 
3300000000  -4.209533e+001  -3.891625e+001 
3303125000  -4.086437e+001  -4.744773e+001 
3306250000  -4.086917e+001  -5.330791e+001 
3309375000  -4.046575e+001  -5.924286e+001 
3312500000  -4.089287e+001  -7.327958e+001 
3315625000  -4.208306e+001  -7.974184e+001 
3318750000  -4.378169e+001  -8.343749e+001 
3321875000  -4.500298e+001  -8.270188e+001 
3325000000  -4.521825e+001  -7.265749e+001 
3328125000  -4.419532e+001  -7.914547e+001 
3331250000  -4.262859e+001  -7.107717e+001 
3334375000  -4.005536e+001  -8.625808e+001 
3337500000  -4.060124e+001  -1.053552e+002 
3340625000  -4.219902e+001  -1.173000e+002 
3343750000  -4.450050e+001  -1.179981e+002 
3346875000  -4.361004e+001  -1.187611e+002 
3350000000  -4.303401e+001  -1.201906e+002 
3353125000  -4.291156e+001  -1.254907e+002 
3356250000  -4.273788e+001  -1.362076e+002 
3359375000  -4.358998e+001  -1.456534e+002 
3362500000  -4.448274e+001  -1.512626e+002 
3365625000  -4.473819e+001  -1.544709e+002 
3368750000  -4.538087e+001  -1.595856e+002 
3371875000  -4.633262e+001  -1.643908e+002 
3375000000  -4.726699e+001  -1.662401e+002 
3378125000  -4.785407e+001  -1.698229e+002 
3381250000  -4.961064e+001  -1.592997e+002 
3384375000  -4.726601e+001  -1.446786e+002 
3387500000  -4.415457e+001  -1.633673e+002 
3390625000  -4.647931e+001  1.776235e+002 
3393750000  -4.749903e+001  1.737442e+002 
3396875000  -4.644691e+001  1.789481e+002 
3400000000  -4.617139e+001  1.654566e+002 
3403125000  -4.707466e+001  1.574346e+002 
3406250000  -4.732861e+001  1.559552e+002 
3409375000  -4.779219e+001  1.513896e+002 
3412500000  -4.856413e+001  1.378605e+002 
3415625000  -4.943565e+001  1.406632e+002 
3418750000  -5.083485e+001  1.381769e+002 
3421875000  -5.180747e+001  1.422429e+002 
3425000000  -5.085232e+001  1.442149e+002 
3428125000  -5.018010e+001  1.394851e+002 
3431250000  -5.061205e+001  1.269971e+002 
3434375000  -5.097058e+001  1.244619e+002 
3437500000  -5.191296e+001  1.310905e+002 
3440625000  -5.206970e+001  1.294700e+002 
3443750000  -5.104223e+001  1.307155e+002 
3446875000  -5.110644e+001  1.219961e+002 
3450000000  -5.100526e+001  1.144238e+002 
3453125000  -5.099406e+001  1.061232e+002 
3456250000  -5.250344e+001  1.045001e+002 
3459375000  -5.333048e+001  1.085770e+002 
3462500000  -5.271225e+001  1.105654e+002 
3465625000  -5.207010e+001  1.017998e+002 
3468750000  -5.198787e+001  1.000378e+002 
3471875000  -5.264636e+001  1.051454e+002 
3475000000  -5.230845e+001  9.675868e+001 
3478125000  -5.125390e+001  8.770377e+001 
3481250000  -5.282755e+001  9.001946e+001 
3484375000  -5.261806e+001  8.850400e+001 
3487500000  -5.291996e+001  8.400849e+001 
3490625000  -5.113645e+001  7.990109e+001 
3493750000  -5.113760e+001  7.306264e+001 
3496875000  -5.201798e+001  7.381055e+001 
3500000000  -5.300055e+001  7.996404e+001 
3503125000  -5.187473e+001  6.760914e+001 
3506250000  -5.049813e+001  6.502058e+001 
3509375000  -5.020481e+001  4.542641e+001 
3512500000  -5.106155e+001  4.157617e+001 
3515625000  -5.229609e+001  3.260010e+001 
3518750000  -5.212472e+001  3.311850e+001 
3521875000  -5.330476e+001  2.920028e+001 
3525000000  -5.423491e+001  1.746507e+001 
3528125000  -5.404230e+001  3.115792e+001 
3531250000  -5.235405e+001  2.321971e+001 
3534375000  -5.308566e+001  4.446487e+000 
3537500000  -5.437336e+001  -2.016561e+000 
3540625000  -5.595300e+001  2.840122e+000 
3543750000  -5.583054e+001  3.538579e+000 
3546875000  -5.630233e+001  1.657830e+001 
3550000000  -5.584590e+001  7.023894e+000 
3553125000  -5.324508e+001  -1.078713e+001 
3556250000  -5.529110e+001  -7.463221e+000 
3559375000  -5.698595e+001  -2.177124e+001 
3562500000  -5.584871e+001  -2.180879e+001 
3565625000  -5.767363e+001  -1.955939e+001 
3568750000  -5.795058e+001  -1.292007e+001 
3571875000  -5.768924e+001  -2.618705e+001 
3575000000  -5.792844e+001  -1.249687e+001 
3578125000  -5.858212e+001  -1.365466e+001 
3581250000  -5.828839e+001  -1.423530e+001 
3584375000  -5.748400e+001  -3.987493e-001 
3587500000  -5.725099e+001  -2.507938e+001 
3590625000  -6.069471e+001  -1.893697e+001 
3593750000  -5.892877e+001  -1.488486e+001 
3596875000  -5.880463e+001  -7.775867e+000 
3600000000  -5.712572e+001  -6.628382e+000 
3603125000  -5.904743e+001  -1.841337e+001 
3606250000  -5.900512e+001  -2.182492e+001 
3609375000  -5.748182e+001  -1.187215e+001 
3612500000  -5.776410e+001  -2.267751e+001 
3615625000  -5.944684e+001  -3.251617e+001 
3618750000  -5.814522e+001  -1.896036e+001 
3621875000  -5.607613e+001  -2.510969e+001 
3625000000  -5.699804e+001  -2.474539e+001 
3628125000  -5.700809e+001  -1.043728e+001 
3631250000  -5.507740e+001  -2.825084e+001 
3634375000  -5.636927e+001  -2.198502e+001 
3637500000  -5.457454e+001  -1.823476e+001 
3640625000  -5.304826e+001  -8.598384e+000 
3643750000  -5.303804e+001  -1.766073e+001 
3646875000  -5.302976e+001  -3.783208e+001 
3650000000  -5.314687e+001  -3.306858e+001 
3653125000  -5.131149e+001  -4.029210e+001 
3656250000  -5.137911e+001  -3.657833e+001 
3659375000  -5.218366e+001  -3.727545e+001 
3662500000  -4.996723e+001  -4.386378e+001 
3665625000  -4.964842e+001  -5.083642e+001 
3668750000  -4.815558e+001  -4.866414e+001 
3671875000  -4.730938e+001  -6.006575e+001 
3675000000  -4.718924e+001  -6.398271e+001 
3678125000  -4.698851e+001  -6.781453e+001 
3681250000  -4.652169e+001  -7.494920e+001 
3684375000  -4.667723e+001  -8.063396e+001 
3687500000  -4.632901e+001  -8.693103e+001 
3690625000  -4.667549e+001  -9.506152e+001 
3693750000  -4.714287e+001  -8.921741e+001 
3696875000  -4.653812e+001  -9.262411e+001 
3700000000  -4.500013e+001  -9.757513e+001 
3703125000  -4.510562e+001  -1.043086e+002 
3706250000  -4.586134e+001  -1.082938e+002 
3709375000  -4.498522e+001  -1.062298e+002 
3712500000  -4.389217e+001  -1.140506e+002 
3715625000  -4.211999e+001  -1.210551e+002 
3718750000  -4.192785e+001  -1.271693e+002 
3721875000  -4.123883e+001  -1.354145e+002 
3725000000  -4.175505e+001  -1.423945e+002 
3728125000  -4.157884e+001  -1.469237e+002 
3731250000  -4.055388e+001  -1.518627e+002 
3734375000  -4.016475e+001  -1.601898e+002 
3737500000  -4.077228e+001  -1.703154e+002 
3740625000  -4.083540e+001  -1.755130e+002 
3743750000  -4.066075e+001  1.792768e+002 
3746875000  -4.076313e+001  1.721947e+002 
3750000000  -4.108142e+001  1.676873e+002 
3753125000  -4.074622e+001  1.647359e+002 
3756250000  -4.081946e+001  1.609207e+002 
3759375000  -4.065803e+001  1.549598e+002 
3762500000  -4.005318e+001  1.487609e+002 
3765625000  -4.080313e+001  1.427814e+002 
3768750000  -4.034279e+001  1.450784e+002 
3771875000  -3.861326e+001  1.381491e+002 
3775000000  -3.878669e+001  1.249555e+002 
3778125000  -3.927657e+001  1.196580e+002 
3781250000  -3.878769e+001  1.158113e+002 
3784375000  -3.883701e+001  1.082381e+002 
3787500000  -3.857744e+001  1.045736e+002 
3790625000  -3.915906e+001  9.445151e+001 
3793750000  -3.935631e+001  9.080336e+001 
3796875000  -3.847929e+001  8.716294e+001 
3800000000  -3.653907e+001  8.255734e+001 
3803125000  -3.800197e+001  6.908824e+001 
3806250000  -3.897329e+001  6.465591e+001 
3809375000  -3.856260e+001  6.128833e+001 
3812500000  -3.850480e+001  5.263020e+001 
3815625000  -3.938721e+001  4.243267e+001 
3818750000  -4.066344e+001  4.316729e+001 
3821875000  -4.046674e+001  4.997716e+001 
3825000000  -3.836811e+001  4.977299e+001 
3828125000  -3.717411e+001  3.137798e+001 
3831250000  -3.817396e+001  1.604565e+001 
3834375000  -4.028885e+001  1.447848e+001 
3837500000  -4.073856e+001  1.697914e+001 
3840625000  -3.938820e+001  1.605012e+001 
3843750000  -3.860971e+001  1.912652e+000 
3846875000  -3.996154e+001  -5.306929e+000 
3850000000  -4.071849e+001  6.321204e-001 
3853125000  -3.978018e+001  2.304529e+000 
3856250000  -3.952435e+001  -6.570354e+000 
3859375000  -3.884395e+001  -1.284092e+001 
3862500000  -3.889145e+001  -2.345326e+001 
3865625000  -3.908046e+001  -2.861233e+001 
3868750000  -3.898470e+001  -2.916962e+001 
3871875000  -3.821018e+001  -3.557142e+001 
3875000000  -3.867403e+001  -4.555178e+001 
3878125000  -3.967748e+001  -5.076606e+001 
3881250000  -3.930776e+001  -4.936140e+001 
3884375000  -3.889634e+001  -5.472320e+001 
3887500000  -3.911913e+001  -6.192214e+001 
3890625000  -3.950513e+001  -6.790759e+001 
3893750000  -3.987986e+001  -6.849884e+001 
3896875000  -4.046674e+001  -7.195586e+001 
3900000000  -4.005694e+001  -7.636813e+001 
3903125000  -3.949552e+001  -7.889063e+001 
3906250000  -3.895219e+001  -8.354396e+001 
3909375000  -3.831216e+001  -9.250117e+001 
3912500000  -3.908310e+001  -1.015819e+002 
3915625000  -4.031895e+001  -1.013924e+002 
3918750000  -3.997095e+001  -1.028408e+002 
3921875000  -3.958314e+001  -1.077831e+002 
3925000000  -3.863691e+001  -1.113858e+002 
3928125000  -3.829132e+001  -1.222073e+002 
3931250000  -3.913473e+001  -1.284689e+002 
3934375000  -3.964035e+001  -1.291620e+002 
3937500000  -4.022130e+001  -1.333411e+002 
3940625000  -4.015197e+001  -1.335946e+002 
3943750000  -3.900038e+001  -1.380981e+002 
3946875000  -3.859183e+001  -1.466893e+002 
3950000000  -3.938083e+001  -1.559284e+002 
3953125000  -4.015371e+001  -1.554623e+002 
3956250000  -3.901155e+001  -1.565031e+002 
3959375000  -3.810323e+001  -1.623783e+002 
3962500000  -3.792870e+001  -1.703319e+002 
3965625000  -3.793704e+001  -1.780637e+002 
3968750000  -3.892592e+001  1.735020e+002 
3971875000  -3.885360e+001  1.674037e+002 
3975000000  -3.864083e+001  1.655140e+002 
3978125000  -3.838533e+001  1.609614e+002 
3981250000  -3.852692e+001  1.534966e+002 
3984375000  -3.915169e+001  1.469312e+002 
3987500000  -3.976294e+001  1.431649e+002 
3990625000  -3.989211e+001  1.415061e+002 
3993750000  -4.007275e+001  1.368270e+002 
3996875000  -4.019038e+001  1.321947e+002 
4000000000  -4.087724e+001  1.272772e+002 
4003125000  -4.113734e+001  1.293647e+002 
4006250000  -3.961643e+001  1.282906e+002 
4009375000  -3.869112e+001  1.127113e+002 
4012500000  -4.026976e+001  1.046783e+002 
4015625000  -4.172605e+001  1.047495e+002 
4018750000  -4.159160e+001  1.034131e+002 
4021875000  -4.094231e+001  1.018246e+002 
4025000000  -4.065340e+001  9.783565e+001 
4028125000  -4.059858e+001  8.894955e+001 
4031250000  -4.170819e+001  8.554559e+001 
4034375000  -4.173241e+001  8.248984e+001 
4037500000  -4.149405e+001  8.380825e+001 
4040625000  -4.132170e+001  8.140892e+001 
4043750000  -4.127732e+001  7.825031e+001 
4046875000  -4.087822e+001  7.301148e+001 
4050000000  -4.073170e+001  6.829770e+001 
4053125000  -4.140541e+001  6.354307e+001 
4056250000  -4.155454e+001  6.893622e+001 
4059375000  -3.965717e+001  6.700899e+001 
4062500000  -3.911706e+001  5.880435e+001 
4065625000  -3.883572e+001  5.327925e+001 
4068750000  -3.851868e+001  4.730353e+001 
4071875000  -3.801344e+001  3.506350e+001 
4075000000  -3.849742e+001  3.045341e+001 
4078125000  -3.883743e+001  2.646378e+001 
4081250000  -3.836590e+001  2.187488e+001 
4084375000  -3.802544e+001  1.251244e+001 
4087500000  -3.893528e+001  3.776837e+000 
4090625000  -3.936814e+001  3.495602e+000 
4093750000  -3.881247e+001  6.343619e-001 
4096875000  -3.894100e+001  -9.406714e+000 
4100000000  -3.969980e+001  -1.581736e+001 
4103125000  -4.071849e+001  -1.446595e+001 
4106250000  -4.007932e+001  -1.280455e+001 
4109375000  -3.933436e+001  -1.533357e+001 
4112500000  -3.872203e+001  -2.394646e+001 
4115625000  -3.935185e+001  -2.989343e+001 
4118750000  -3.912577e+001  -3.547813e+001 
4121875000  -3.916315e+001  -4.265505e+001 
4125000000  -3.963799e+001  -4.989472e+001 
4128125000  -4.100463e+001  -4.778054e+001 
4131250000  -4.006938e+001  -4.158854e+001 
4134375000  -3.779864e+001  -4.906606e+001 
4137500000  -3.829978e+001  -7.228556e+001 
4140625000  -4.062204e+001  -7.865078e+001 
4143750000  -4.178924e+001  -7.283706e+001 
4146875000  -4.069540e+001  -6.705492e+001 
4150000000  -4.009504e+001  -7.627453e+001 
4153125000  -4.006122e+001  -8.501781e+001 
4156250000  -4.129330e+001  -8.976472e+001 
4159375000  -4.089436e+001  -8.335662e+001 
4162500000  -4.017537e+001  -8.113454e+001 
4165625000  -3.891233e+001  -8.847027e+001 
4168750000  -3.861389e+001  -9.751065e+001 
4171875000  -3.828876e+001  -1.079421e+002 
4175000000  -3.957525e+001  -1.149965e+002 
4178125000  -3.981600e+001  -1.153970e+002 
4181250000  -3.945351e+001  -1.189421e+002 
4184375000  -3.981062e+001  -1.236060e+002 
4187500000  -3.948499e+001  -1.275271e+002 
4190625000  -3.965861e+001  -1.360613e+002 
4193750000  -4.054793e+001  -1.411666e+002 
4196875000  -4.138746e+001  -1.426718e+002 
4200000000  -4.222169e+001  -1.371684e+002 
4203125000  -4.125912e+001  -1.227934e+002 
4206250000  -3.810497e+001  -1.332592e+002 
4209375000  -3.731576e+001  -1.563459e+002 
4212500000  -3.979490e+001  -1.620081e+002 
4215625000  -4.006157e+001  -1.543383e+002 
4218750000  -3.866971e+001  -1.552625e+002 
4221875000  -3.689679e+001  -1.657236e+002 
4225000000  -3.793470e+001  -1.788736e+002 
4228125000  -3.811329e+001  -1.762105e+002 
4231250000  -3.653295e+001  1.783899e+002 
4234375000  -3.650327e+001  1.660427e+002 
4237500000  -3.643080e+001  1.616227e+002 
4240625000  -3.657615e+001  1.497788e+002 
4243750000  -3.762079e+001  1.415562e+002 
4246875000  -3.856816e+001  1.394268e+002 
4250000000  -3.852506e+001  1.400651e+002 
4253125000  -3.838706e+001  1.383397e+002 
4256250000  -3.826852e+001  1.319302e+002 
4259375000  -3.815017e+001  1.280678e+002 
4262500000  -3.821029e+001  1.216483e+002 
4265625000  -3.829765e+001  1.197467e+002 
4268750000  -3.744341e+001  1.124557e+002 
4271875000  -3.709846e+001  1.041873e+002 
4275000000  -3.677169e+001  9.629345e+001 
4278125000  -3.778692e+001  8.290564e+001 
4281250000  -3.942967e+001  8.261803e+001 
4284375000  -3.914356e+001  7.895651e+001 
4287500000  -4.016675e+001  7.630482e+001 
4290625000  -4.107407e+001  8.352466e+001 
4293750000  -3.899674e+001  8.503500e+001 
4296875000  -3.788204e+001  7.226479e+001 
4300000000  -3.926553e+001  6.220354e+001 
4303125000  -4.010260e+001  6.467552e+001 
4306250000  -3.889705e+001  6.768811e+001 
4309375000  -3.815415e+001  6.189511e+001 
4312500000  -3.771791e+001  5.129816e+001 
4315625000  -3.803892e+001  4.323090e+001 
4318750000  -3.887719e+001  3.971128e+001 
4321875000  -3.910272e+001  3.951300e+001 
4325000000  -3.816238e+001  3.877545e+001 
4328125000  -3.775565e+001  3.018274e+001 
4331250000  -3.785542e+001  1.911462e+001 
4334375000  -3.841730e+001  1.256626e+001 
4337500000  -3.970358e+001  1.229144e+001 
4340625000  -3.986523e+001  1.622138e+001 
4343750000  -3.894840e+001  1.117000e+001 
4346875000  -3.864060e+001  2.712379e+000 
4350000000  -3.870320e+001  -1.441324e+000 
4353125000  -3.882682e+001  -9.709170e+000 
4356250000  -4.109627e+001  -9.303297e+000 
4359375000  -4.062183e+001  5.262769e+000 
4362500000  -3.704673e+001  -2.726982e+000 
4365625000  -3.638835e+001  -1.873688e+001 
4368750000  -3.719397e+001  -2.917933e+001 
4371875000  -3.821775e+001  -3.082957e+001 
4375000000  -3.753531e+001  -3.302902e+001 
4378125000  -3.710343e+001  -3.973784e+001 
4381250000  -3.725604e+001  -4.882346e+001 
4384375000  -3.742108e+001  -5.494614e+001 
4387500000  -3.825694e+001  -6.177013e+001 
4390625000  -3.906452e+001  -6.297222e+001 
4393750000  -3.819960e+001  -6.145582e+001 
4396875000  -3.751188e+001  -6.636646e+001 
4400000000  -3.734061e+001  -7.569320e+001 
4403125000  -3.802066e+001  -8.502400e+001 
4406250000  -3.853202e+001  -8.898591e+001 
4409375000  -3.899308e+001  -9.247430e+001 
4412500000  -4.004154e+001  -9.556263e+001 
4415625000  -3.980476e+001  -9.192690e+001 
