!Agilent Technologies,E8363B,MY43030201,A.06.04.32
!Agilent E8363B: A.06.04.32
!Date: Tuesday, November 11, 2014 21:26:21
!Correction: S21(Response(S21)) 
!S1P File: Measurement: S21:
# Hz S  dB   R 50
3000000000  -4.052005e+001  9.606700e+001 
3003125000  -4.212401e+001  8.901763e+001 
3006250000  -4.208595e+001  8.711714e+001 
3009375000  -4.270332e+001  9.117447e+001 
3012500000  -4.155322e+001  8.724657e+001 
3015625000  -4.129364e+001  8.111398e+001 
3018750000  -4.182383e+001  8.121291e+001 
3021875000  -4.037235e+001  8.121689e+001 
3025000000  -3.893638e+001  7.755678e+001 
3028125000  -3.799737e+001  6.878754e+001 
3031250000  -3.698815e+001  5.623487e+001 
3034375000  -3.672026e+001  4.187759e+001 
3037500000  -3.746553e+001  3.173727e+001 
3040625000  -3.881733e+001  2.549190e+001 
3043750000  -3.915559e+001  1.870629e+001 
3046875000  -3.942217e+001  1.426166e+001 
3050000000  -4.070374e+001  8.531108e+000 
3053125000  -4.062421e+001  1.403628e+001 
3056250000  -4.048160e+001  1.586738e+001 
3059375000  -3.997607e+001  1.401126e+001 
3062500000  -3.824605e+001  9.282106e+000 
3065625000  -3.791963e+001  3.993900e-001 
3068750000  -3.761565e+001  -7.314210e+000 
3071875000  -3.770844e+001  -1.096385e+001 
3075000000  -3.699379e+001  -1.640787e+001 
3078125000  -3.706726e+001  -2.197900e+001 
3081250000  -3.719871e+001  -2.948289e+001 
3084375000  -3.652914e+001  -3.387872e+001 
3087500000  -3.646029e+001  -3.956147e+001 
3090625000  -3.596113e+001  -5.171724e+001 
3093750000  -3.672875e+001  -6.021768e+001 
3096875000  -3.744099e+001  -6.681490e+001 
3100000000  -3.728785e+001  -6.906695e+001 
3103125000  -3.757283e+001  -7.242807e+001 
3106250000  -3.715967e+001  -7.736024e+001 
3109375000  -3.733168e+001  -8.138289e+001 
3112500000  -3.723496e+001  -8.719342e+001 
3115625000  -3.711798e+001  -9.144352e+001 
3118750000  -3.723963e+001  -9.417024e+001 
3121875000  -3.657684e+001  -1.050329e+002 
3125000000  -3.827615e+001  -1.095458e+002 
3128125000  -3.873937e+001  -1.027159e+002 
3131250000  -3.628166e+001  -1.071479e+002 
3134375000  -3.525442e+001  -1.236495e+002 
3137500000  -3.604815e+001  -1.366958e+002 
3140625000  -3.738975e+001  -1.403480e+002 
3143750000  -3.839580e+001  -1.416415e+002 
3146875000  -3.788542e+001  -1.400570e+002 
3150000000  -3.693663e+001  -1.440424e+002 
3153125000  -3.711396e+001  -1.527409e+002 
3156250000  -3.797338e+001  -1.479370e+002 
3159375000  -3.582999e+001  -1.501672e+002 
3162500000  -3.426065e+001  -1.650131e+002 
3165625000  -3.545655e+001  -1.783587e+002 
3168750000  -3.559855e+001  -1.791728e+002 
3171875000  -3.498114e+001  1.738842e+002 
3175000000  -3.551483e+001  1.644603e+002 
3178125000  -3.514710e+001  1.633474e+002 
3181250000  -3.444719e+001  1.558560e+002 
3184375000  -3.417395e+001  1.435416e+002 
3187500000  -3.523288e+001  1.288564e+002 
3190625000  -3.754862e+001  1.204032e+002 
3193750000  -3.777183e+001  1.279244e+002 
3196875000  -3.750535e+001  1.286915e+002 
3200000000  -3.641719e+001  1.238693e+002 
3203125000  -3.595600e+001  1.155444e+002 
3206250000  -3.631445e+001  1.081444e+002 
3209375000  -3.580783e+001  1.013775e+002 
3212500000  -3.627786e+001  9.317859e+001 
3215625000  -3.608818e+001  8.982249e+001 
3218750000  -3.683467e+001  7.934948e+001 
3221875000  -3.738166e+001  7.272903e+001 
3225000000  -3.713551e+001  6.937333e+001 
3228125000  -3.779690e+001  6.234219e+001 
3231250000  -3.833693e+001  5.911821e+001 
3234375000  -3.800105e+001  5.675497e+001 
3237500000  -3.813205e+001  5.220253e+001 
3240625000  -3.775087e+001  4.745741e+001 
3243750000  -3.778733e+001  3.772377e+001 
3246875000  -3.831015e+001  3.017997e+001 
3250000000  -3.886309e+001  2.667305e+001 
3253125000  -3.912836e+001  2.340479e+001 
3256250000  -3.870644e+001  1.393651e+001 
3259375000  -3.911483e+001  4.812090e+000 
3262500000  -4.070669e+001  -1.647371e-001 
3265625000  -4.125439e+001  2.424559e+000 
3268750000  -4.128115e+001  2.969126e+000 
3271875000  -4.072912e+001  1.901475e+000 
3275000000  -4.008086e+001  -7.223668e+000 
3278125000  -4.100420e+001  -1.383286e+001 
3281250000  -4.117138e+001  -1.397930e+001 
3284375000  -4.055584e+001  -2.213690e+001 
3287500000  -4.101716e+001  -2.447774e+001 
3290625000  -4.148994e+001  -3.132680e+001 
3293750000  -4.118610e+001  -3.632769e+001 
3296875000  -4.223440e+001  -3.832152e+001 
3300000000  -4.205794e+001  -3.779762e+001 
3303125000  -4.111702e+001  -4.515399e+001 
3306250000  -4.083248e+001  -5.223905e+001 
3309375000  -4.046032e+001  -5.940059e+001 
3312500000  -4.094504e+001  -7.257445e+001 
3315625000  -4.224531e+001  -7.915031e+001 
3318750000  -4.344232e+001  -8.288914e+001 
3321875000  -4.445561e+001  -8.041020e+001 
3325000000  -4.488305e+001  -7.463779e+001 
3328125000  -4.410830e+001  -7.894696e+001 
3331250000  -4.276809e+001  -6.999165e+001 
3334375000  -4.024125e+001  -8.342577e+001 
3337500000  -4.039828e+001  -1.061364e+002 
3340625000  -4.236132e+001  -1.158222e+002 
3343750000  -4.392023e+001  -1.154587e+002 
3346875000  -4.358373e+001  -1.175614e+002 
3350000000  -4.287901e+001  -1.182313e+002 
3353125000  -4.300169e+001  -1.287265e+002 
3356250000  -4.232220e+001  -1.338797e+002 
3359375000  -4.313597e+001  -1.440178e+002 
3362500000  -4.450243e+001  -1.512372e+002 
3365625000  -4.468534e+001  -1.554763e+002 
3368750000  -4.580024e+001  -1.592193e+002 
3371875000  -4.591962e+001  -1.625498e+002 
3375000000  -4.748756e+001  -1.677889e+002 
3378125000  -4.856839e+001  -1.714268e+002 
3381250000  -4.953794e+001  -1.548278e+002 
3384375000  -4.687710e+001  -1.450824e+002 
3387500000  -4.423341e+001  -1.616010e+002 
3390625000  -4.645522e+001  1.791068e+002 
3393750000  -4.779552e+001  1.776911e+002 
3396875000  -4.585788e+001  1.748953e+002 
3400000000  -4.648149e+001  1.638568e+002 
3403125000  -4.705552e+001  1.567700e+002 
3406250000  -4.797032e+001  1.558737e+002 
3409375000  -4.828660e+001  1.495403e+002 
3412500000  -4.930412e+001  1.433095e+002 
3415625000  -5.050866e+001  1.409383e+002 
3418750000  -5.050223e+001  1.431654e+002 
3421875000  -5.097110e+001  1.477805e+002 
3425000000  -5.013292e+001  1.485300e+002 
3428125000  -5.028424e+001  1.363557e+002 
3431250000  -5.083993e+001  1.264690e+002 
3434375000  -5.070864e+001  1.260007e+002 
3437500000  -5.193398e+001  1.271937e+002 
3440625000  -5.224151e+001  1.275409e+002 
3443750000  -5.167884e+001  1.282596e+002 
3446875000  -5.101642e+001  1.198029e+002 
3450000000  -5.032797e+001  1.151191e+002 
3453125000  -5.112305e+001  1.062118e+002 
3456250000  -5.291549e+001  1.081250e+002 
3459375000  -5.311930e+001  1.104624e+002 
3462500000  -5.284423e+001  1.134865e+002 
3465625000  -5.236815e+001  1.053179e+002 
3468750000  -5.259903e+001  1.092060e+002 
3471875000  -5.287744e+001  1.086413e+002 
3475000000  -5.263707e+001  9.977643e+001 
3478125000  -5.106226e+001  9.016823e+001 
3481250000  -5.282694e+001  9.009830e+001 
3484375000  -5.236787e+001  9.419181e+001 
3487500000  -5.192131e+001  8.674477e+001 
3490625000  -5.205947e+001  7.934555e+001 
3493750000  -5.199661e+001  7.334121e+001 
3496875000  -5.173907e+001  7.587751e+001 
3500000000  -5.120089e+001  7.128703e+001 
3503125000  -5.070029e+001  7.646645e+001 
3506250000  -5.052654e+001  6.346083e+001 
3509375000  -4.975944e+001  5.582825e+001 
3512500000  -5.097466e+001  4.192632e+001 
3515625000  -5.128568e+001  3.625606e+001 
3518750000  -5.219084e+001  3.789669e+001 
3521875000  -5.234764e+001  2.707370e+001 
3525000000  -5.355900e+001  2.126846e+001 
3528125000  -5.287085e+001  3.616564e+001 
3531250000  -5.144498e+001  2.426057e+001 
3534375000  -5.247354e+001  1.086343e+001 
3537500000  -5.336563e+001  9.067452e-001 
3540625000  -5.462508e+001  4.001706e+000 
3543750000  -5.554181e+001  4.161896e+000 
3546875000  -5.659476e+001  1.667253e+001 
3550000000  -5.421164e+001  1.366682e+001 
3553125000  -5.429591e+001  -5.242436e+000 
3556250000  -5.563570e+001  -9.487870e+000 
3559375000  -5.731779e+001  -1.141600e+001 
3562500000  -5.715222e+001  -2.196389e+001 
3565625000  -5.724276e+001  -2.468007e+001 
3568750000  -5.661955e+001  -1.751427e+001 
3571875000  -5.737112e+001  -5.223558e+000 
3575000000  -5.825650e+001  -5.320142e+000 
3578125000  -5.810602e+001  -1.780136e+001 
3581250000  -5.785466e+001  -1.661627e+001 
3584375000  -5.648125e+001  -6.417519e+000 
3587500000  -5.825353e+001  -9.052544e+000 
3590625000  -5.992248e+001  -2.569706e+001 
3593750000  -6.040559e+001  -3.482831e+001 
3596875000  -5.905146e+001  -1.166084e+000 
3600000000  -5.733609e+001  -1.161808e+001 
3603125000  -5.760297e+001  -1.561467e+001 
3606250000  -5.971983e+001  -2.851311e+001 
3609375000  -5.733965e+001  -1.319536e+001 
3612500000  -5.845895e+001  -1.848548e+001 
3615625000  -5.956804e+001  -2.018194e+001 
3618750000  -5.892822e+001  -1.879775e+001 
3621875000  -5.841494e+001  -8.583237e+000 
3625000000  -5.815881e+001  -4.686360e+000 
3628125000  -5.660310e+001  -9.522065e+000 
3631250000  -5.686908e+001  -1.975317e+001 
3634375000  -5.655760e+001  -2.635441e+001 
3637500000  -5.502190e+001  -1.346266e+001 
3640625000  -5.388073e+001  -8.639995e+000 
3643750000  -5.179511e+001  -2.128599e+001 
3646875000  -5.259631e+001  -2.942797e+001 
3650000000  -5.272603e+001  -3.651156e+001 
3653125000  -5.208730e+001  -3.455684e+001 
3656250000  -5.135249e+001  -3.832817e+001 
3659375000  -5.212195e+001  -3.750256e+001 
3662500000  -5.146009e+001  -4.308641e+001 
3665625000  -5.023650e+001  -4.383381e+001 
3668750000  -4.795679e+001  -5.012550e+001 
3671875000  -4.719801e+001  -5.836916e+001 
3675000000  -4.759415e+001  -6.309210e+001 
3678125000  -4.784550e+001  -6.829548e+001 
3681250000  -4.648958e+001  -7.536537e+001 
3684375000  -4.650621e+001  -8.013929e+001 
3687500000  -4.705099e+001  -8.487814e+001 
3690625000  -4.639529e+001  -8.950119e+001 
3693750000  -4.688141e+001  -9.047915e+001 
3696875000  -4.669667e+001  -9.128233e+001 
3700000000  -4.521806e+001  -9.670202e+001 
3703125000  -4.544477e+001  -1.047895e+002 
3706250000  -4.582022e+001  -1.061748e+002 
3709375000  -4.488132e+001  -1.051045e+002 
3712500000  -4.383807e+001  -1.113488e+002 
3715625000  -4.244308e+001  -1.195655e+002 
3718750000  -4.188548e+001  -1.241854e+002 
3721875000  -4.132321e+001  -1.353337e+002 
3725000000  -4.162607e+001  -1.437224e+002 
3728125000  -4.146800e+001  -1.443261e+002 
3731250000  -4.065984e+001  -1.508449e+002 
3734375000  -3.997844e+001  -1.576842e+002 
3737500000  -4.065977e+001  -1.696497e+002 
3740625000  -4.112161e+001  -1.750757e+002 
3743750000  -4.053212e+001  -1.788537e+002 
3746875000  -4.076628e+001  1.722963e+002 
3750000000  -4.083265e+001  1.680542e+002 
3753125000  -4.062145e+001  1.663612e+002 
3756250000  -4.059174e+001  1.629450e+002 
3759375000  -4.016405e+001  1.554443e+002 
3762500000  -4.003733e+001  1.492138e+002 
3765625000  -4.086773e+001  1.452301e+002 
3768750000  -4.010858e+001  1.460493e+002 
3771875000  -3.857526e+001  1.381871e+002 
3775000000  -3.856520e+001  1.258498e+002 
3778125000  -3.907155e+001  1.208199e+002 
3781250000  -3.897187e+001  1.169249e+002 
3784375000  -3.898629e+001  1.108507e+002 
3787500000  -3.844004e+001  1.049654e+002 
3790625000  -3.906557e+001  9.531036e+001 
3793750000  -3.952581e+001  9.212128e+001 
3796875000  -3.833428e+001  8.739722e+001 
3800000000  -3.646245e+001  8.337610e+001 
3803125000  -3.810255e+001  6.930782e+001 
3806250000  -3.899867e+001  6.665020e+001 
3809375000  -3.873325e+001  6.232999e+001 
3812500000  -3.837284e+001  5.431868e+001 
3815625000  -3.933114e+001  4.394530e+001 
3818750000  -4.069344e+001  4.281317e+001 
3821875000  -4.003169e+001  5.196385e+001 
3825000000  -3.824008e+001  4.985051e+001 
3828125000  -3.714243e+001  3.221974e+001 
3831250000  -3.821075e+001  1.909705e+001 
3834375000  -4.005012e+001  1.745565e+001 
3837500000  -4.079907e+001  2.033364e+001 
3840625000  -3.911587e+001  1.745078e+001 
3843750000  -3.828311e+001  3.648640e+000 
3846875000  -3.977036e+001  -2.598808e+000 
3850000000  -4.099559e+001  -4.544136e-001 
3853125000  -4.026966e+001  1.746973e+000 
3856250000  -3.951091e+001  -5.891196e+000 
3859375000  -3.892759e+001  -1.139485e+001 
3862500000  -3.848936e+001  -2.114524e+001 
3865625000  -3.914939e+001  -2.789438e+001 
3868750000  -3.897681e+001  -2.758007e+001 
3871875000  -3.807382e+001  -3.400027e+001 
3875000000  -3.834205e+001  -4.461020e+001 
3878125000  -3.963105e+001  -4.783665e+001 
3881250000  -3.962138e+001  -4.693470e+001 
3884375000  -3.887926e+001  -5.417215e+001 
3887500000  -3.937491e+001  -5.979344e+001 
3890625000  -3.958067e+001  -6.590565e+001 
3893750000  -3.993961e+001  -6.932269e+001 
3896875000  -4.023019e+001  -7.015083e+001 
3900000000  -3.985536e+001  -7.276062e+001 
3903125000  -3.973220e+001  -7.913248e+001 
3906250000  -3.923051e+001  -8.195805e+001 
3909375000  -3.850174e+001  -9.151207e+001 
3912500000  -3.910495e+001  -1.006478e+002 
3915625000  -4.031401e+001  -1.016231e+002 
3918750000  -3.989048e+001  -1.019255e+002 
3921875000  -3.955588e+001  -1.048771e+002 
3925000000  -3.879012e+001  -1.113391e+002 
3928125000  -3.840569e+001  -1.208966e+002 
3931250000  -3.888457e+001  -1.271137e+002 
3934375000  -3.956657e+001  -1.288759e+002 
3937500000  -3.983489e+001  -1.326883e+002 
3940625000  -4.016389e+001  -1.343363e+002 
3943750000  -3.885044e+001  -1.360403e+002 
3946875000  -3.839531e+001  -1.449724e+002 
3950000000  -3.961341e+001  -1.524382e+002 
3953125000  -4.000095e+001  -1.530987e+002 
3956250000  -3.905381e+001  -1.547704e+002 
3959375000  -3.791262e+001  -1.587226e+002 
3962500000  -3.772229e+001  -1.673924e+002 
3965625000  -3.810652e+001  -1.769038e+002 
3968750000  -3.888751e+001  1.744143e+002 
3971875000  -3.894146e+001  1.698984e+002 
3975000000  -3.856986e+001  1.652756e+002 
3978125000  -3.865290e+001  1.617770e+002 
3981250000  -3.854306e+001  1.557286e+002 
3984375000  -3.896854e+001  1.473871e+002 
3987500000  -3.965808e+001  1.434145e+002 
3990625000  -3.996932e+001  1.414986e+002 
3993750000  -4.020989e+001  1.369978e+002 
3996875000  -4.024223e+001  1.330280e+002 
4000000000  -4.052527e+001  1.275400e+002 
4003125000  -4.116611e+001  1.309181e+002 
4006250000  -3.961687e+001  1.290050e+002 
4009375000  -3.905162e+001  1.130151e+002 
4012500000  -4.008885e+001  1.042166e+002 
4015625000  -4.135896e+001  1.054444e+002 
4018750000  -4.176040e+001  1.061450e+002 
4021875000  -4.092843e+001  1.019999e+002 
4025000000  -4.035989e+001  9.777798e+001 
4028125000  -4.066937e+001  9.096420e+001 
4031250000  -4.132742e+001  8.661423e+001 
4034375000  -4.197940e+001  8.508055e+001 
4037500000  -4.127806e+001  8.544396e+001 
4040625000  -4.096289e+001  8.014738e+001 
4043750000  -4.130807e+001  7.754052e+001 
4046875000  -4.103685e+001  7.436785e+001 
4050000000  -4.056303e+001  6.854987e+001 
4053125000  -4.129884e+001  6.477156e+001 
4056250000  -4.154447e+001  7.013383e+001 
4059375000  -3.972334e+001  6.881811e+001 
4062500000  -3.904106e+001  5.903997e+001 
4065625000  -3.909179e+001  5.499171e+001 
4068750000  -3.832775e+001  4.755421e+001 
4071875000  -3.806268e+001  3.820723e+001 
4075000000  -3.842136e+001  3.052890e+001 
4078125000  -3.884549e+001  2.756254e+001 
4081250000  -3.848434e+001  2.191587e+001 
4084375000  -3.823639e+001  1.383865e+001 
4087500000  -3.861869e+001  6.057428e+000 
4090625000  -3.936506e+001  4.374780e+000 
4093750000  -3.882400e+001  2.949632e+000 
4096875000  -3.880220e+001  -7.984571e+000 
4100000000  -3.979187e+001  -1.522586e+001 
4103125000  -4.063579e+001  -1.262015e+001 
4106250000  -4.003247e+001  -1.011701e+001 
4109375000  -3.930507e+001  -1.388386e+001 
4112500000  -3.887191e+001  -2.303969e+001 
4115625000  -3.953224e+001  -2.913994e+001 
4118750000  -3.915897e+001  -3.279202e+001 
4121875000  -3.919410e+001  -4.183175e+001 
4125000000  -3.983992e+001  -4.740266e+001 
4128125000  -4.125737e+001  -4.561245e+001 
4131250000  -3.993908e+001  -4.152399e+001 
4134375000  -3.806228e+001  -4.892715e+001 
4137500000  -3.819737e+001  -6.924975e+001 
4140625000  -4.027487e+001  -7.810544e+001 
4143750000  -4.156914e+001  -7.252168e+001 
4146875000  -4.077585e+001  -6.822639e+001 
4150000000  -3.998861e+001  -7.381637e+001 
4153125000  -4.021763e+001  -8.137142e+001 
4156250000  -4.125027e+001  -8.778994e+001 
4159375000  -4.147218e+001  -8.175613e+001 
4162500000  -4.019770e+001  -8.106152e+001 
4165625000  -3.897835e+001  -8.635384e+001 
4168750000  -3.880271e+001  -9.740393e+001 
4171875000  -3.873324e+001  -1.074767e+002 
4175000000  -3.935173e+001  -1.134122e+002 
4178125000  -3.974049e+001  -1.150863e+002 
4181250000  -3.963242e+001  -1.185291e+002 
4184375000  -4.001617e+001  -1.233902e+002 
4187500000  -3.971238e+001  -1.260064e+002 
4190625000  -3.968536e+001  -1.347111e+002 
4193750000  -4.072425e+001  -1.408813e+002 
4196875000  -4.131308e+001  -1.413223e+002 
4200000000  -4.245922e+001  -1.379480e+002 
4203125000  -4.156602e+001  -1.251480e+002 
4206250000  -3.770781e+001  -1.291256e+002 
4209375000  -3.742261e+001  -1.568577e+002 
4212500000  -3.952383e+001  -1.622165e+002 
4215625000  -4.017065e+001  -1.553362e+002 
4218750000  -3.862147e+001  -1.529785e+002 
4221875000  -3.676338e+001  -1.658078e+002 
4225000000  -3.814677e+001  -1.756121e+002 
4228125000  -3.840162e+001  -1.722697e+002 
4231250000  -3.648617e+001  1.778392e+002 
4234375000  -3.672861e+001  1.675488e+002 
4237500000  -3.636998e+001  1.637977e+002 
4240625000  -3.674997e+001  1.508987e+002 
4243750000  -3.759755e+001  1.427749e+002 
4246875000  -3.860766e+001  1.420958e+002 
4250000000  -3.846001e+001  1.413705e+002 
4253125000  -3.798250e+001  1.388571e+002 
4256250000  -3.806331e+001  1.330653e+002 
4259375000  -3.778506e+001  1.284247e+002 
4262500000  -3.817682e+001  1.224126e+002 
4265625000  -3.821980e+001  1.226068e+002 
4268750000  -3.732290e+001  1.135628e+002 
4271875000  -3.689439e+001  1.057103e+002 
4275000000  -3.686560e+001  9.674197e+001 
4278125000  -3.798592e+001  8.433192e+001 
4281250000  -3.913491e+001  8.327171e+001 
4284375000  -3.885466e+001  7.991417e+001 
4287500000  -4.067107e+001  7.601003e+001 
4290625000  -4.089967e+001  8.694965e+001 
4293750000  -3.895215e+001  8.854831e+001 
4296875000  -3.802451e+001  7.209603e+001 
4300000000  -3.935145e+001  6.251501e+001 
4303125000  -4.020905e+001  6.523718e+001 
4306250000  -3.905941e+001  7.000254e+001 
4309375000  -3.806121e+001  6.523369e+001 
4312500000  -3.795299e+001  5.284007e+001 
4315625000  -3.850036e+001  4.340147e+001 
4318750000  -3.892443e+001  3.993441e+001 
4321875000  -3.897569e+001  4.273675e+001 
4325000000  -3.834790e+001  4.012902e+001 
4328125000  -3.773420e+001  3.123391e+001 
4331250000  -3.816043e+001  1.915220e+001 
4334375000  -3.860286e+001  1.304030e+001 
4337500000  -3.958820e+001  1.249234e+001 
4340625000  -4.016930e+001  1.646921e+001 
4343750000  -3.904166e+001  1.418013e+001 
4346875000  -3.858158e+001  4.215325e+000 
4350000000  -3.887415e+001  -2.491519e+000 
4353125000  -3.916450e+001  -9.817460e+000 
4356250000  -4.058025e+001  -7.932182e+000 
4359375000  -4.040252e+001  5.234130e+000 
4362500000  -3.739579e+001  -3.985307e-001 
4365625000  -3.656772e+001  -1.680823e+001 
4368750000  -3.753060e+001  -2.710949e+001 
4371875000  -3.852246e+001  -2.856488e+001 
4375000000  -3.793484e+001  -3.162465e+001 
4378125000  -3.733969e+001  -3.793706e+001 
4381250000  -3.747728e+001  -4.567391e+001 
4384375000  -3.748545e+001  -5.276876e+001 
4387500000  -3.835274e+001  -5.852345e+001 
4390625000  -3.882693e+001  -6.018967e+001 
4393750000  -3.844048e+001  -5.921532e+001 
4396875000  -3.755030e+001  -6.473129e+001 
4400000000  -3.713562e+001  -7.362574e+001 
4403125000  -3.804230e+001  -8.439982e+001 
4406250000  -3.869186e+001  -8.740778e+001 
4409375000  -3.897277e+001  -9.130290e+001 
4412500000  -4.012577e+001  -9.422855e+001 
4415625000  -3.986686e+001  -9.042532e+001 
