!Agilent Technologies,E8363B,MY43030201,A.06.04.32
!Agilent E8363B: A.06.04.32
!Date: Tuesday, November 11, 2014 21:32:42
!Correction: S21(Response(S21)) 
!S1P File: Measurement: S21:
# Hz S  dB   R 50
3000000000  -4.053791e+001  7.609393e+001 
3003125000  -4.207042e+001  6.851550e+001 
3006250000  -4.222404e+001  6.803761e+001 
3009375000  -4.259393e+001  7.317372e+001 
3012500000  -4.142590e+001  6.764964e+001 
3015625000  -4.142675e+001  6.132417e+001 
3018750000  -4.161040e+001  6.143166e+001 
3021875000  -4.020996e+001  6.286222e+001 
3025000000  -3.880125e+001  5.959907e+001 
3028125000  -3.773679e+001  4.801866e+001 
3031250000  -3.685127e+001  3.679157e+001 
3034375000  -3.666938e+001  2.241130e+001 
3037500000  -3.750093e+001  1.161409e+001 
3040625000  -3.883119e+001  6.198647e+000 
3043750000  -3.914924e+001  -3.252147e-001 
3046875000  -3.977403e+001  -5.460354e+000 
3050000000  -4.097434e+001  -1.072810e+001 
3053125000  -4.051234e+001  -4.947184e+000 
3056250000  -4.031284e+001  -1.239166e+000 
3059375000  -3.974470e+001  -5.702150e+000 
3062500000  -3.818910e+001  -8.547530e+000 
3065625000  -3.778817e+001  -1.938130e+001 
3068750000  -3.764758e+001  -2.703396e+001 
3071875000  -3.761573e+001  -2.921016e+001 
3075000000  -3.704339e+001  -3.669398e+001 
3078125000  -3.706302e+001  -4.216721e+001 
3081250000  -3.721964e+001  -4.779411e+001 
3084375000  -3.634494e+001  -5.301221e+001 
3087500000  -3.648995e+001  -6.052210e+001 
3090625000  -3.594950e+001  -7.242460e+001 
3093750000  -3.700415e+001  -7.996255e+001 
3096875000  -3.746621e+001  -8.472785e+001 
3100000000  -3.720019e+001  -8.831644e+001 
3103125000  -3.762100e+001  -9.153748e+001 
3106250000  -3.714568e+001  -9.743195e+001 
3109375000  -3.721753e+001  -1.009604e+002 
3112500000  -3.718235e+001  -1.072248e+002 
3115625000  -3.719552e+001  -1.101085e+002 
3118750000  -3.727761e+001  -1.140497e+002 
3121875000  -3.648182e+001  -1.246318e+002 
3125000000  -3.840973e+001  -1.278991e+002 
3128125000  -3.851582e+001  -1.203111e+002 
3131250000  -3.610868e+001  -1.272881e+002 
3134375000  -3.526696e+001  -1.446400e+002 
3137500000  -3.608808e+001  -1.569081e+002 
3140625000  -3.737141e+001  -1.600441e+002 
3143750000  -3.813234e+001  -1.614876e+002 
3146875000  -3.753872e+001  -1.591264e+002 
3150000000  -3.683544e+001  -1.628551e+002 
3153125000  -3.730089e+001  -1.718399e+002 
3156250000  -3.786636e+001  -1.669630e+002 
3159375000  -3.569981e+001  -1.687924e+002 
3162500000  -3.422740e+001  1.751349e+002 
3165625000  -3.557007e+001  1.623764e+002 
3168750000  -3.560266e+001  1.604898e+002 
3171875000  -3.496141e+001  1.540734e+002 
3175000000  -3.533641e+001  1.440900e+002 
3178125000  -3.502845e+001  1.437015e+002 
3181250000  -3.457821e+001  1.346819e+002 
3184375000  -3.419839e+001  1.229892e+002 
3187500000  -3.541452e+001  1.078620e+002 
3190625000  -3.732795e+001  1.033772e+002 
3193750000  -3.750333e+001  1.087269e+002 
3196875000  -3.741185e+001  1.086040e+002 
3200000000  -3.615745e+001  1.028365e+002 
3203125000  -3.595513e+001  9.486073e+001 
3206250000  -3.615517e+001  8.827553e+001 
3209375000  -3.577364e+001  8.025597e+001 
3212500000  -3.625471e+001  7.352050e+001 
3215625000  -3.602502e+001  6.977290e+001 
3218750000  -3.678278e+001  5.867089e+001 
3221875000  -3.715368e+001  5.229300e+001 
3225000000  -3.695103e+001  4.985356e+001 
3228125000  -3.784417e+001  4.065372e+001 
3231250000  -3.840012e+001  3.850286e+001 
3234375000  -3.791959e+001  3.630718e+001 
3237500000  -3.803846e+001  3.246285e+001 
3240625000  -3.749448e+001  2.673257e+001 
3243750000  -3.766113e+001  1.701197e+001 
3246875000  -3.824067e+001  8.528444e+000 
3250000000  -3.874574e+001  5.854944e+000 
3253125000  -3.913629e+001  2.250597e+000 
3256250000  -3.862221e+001  -5.439222e+000 
3259375000  -3.920452e+001  -1.663841e+001 
3262500000  -4.054877e+001  -2.054101e+001 
3265625000  -4.124525e+001  -1.744793e+001 
3268750000  -4.122791e+001  -1.587428e+001 
3271875000  -4.060558e+001  -2.026326e+001 
3275000000  -3.988304e+001  -2.794050e+001 
3278125000  -4.083933e+001  -3.371416e+001 
3281250000  -4.082492e+001  -3.364624e+001 
3284375000  -4.062194e+001  -3.955894e+001 
3287500000  -4.094285e+001  -4.465563e+001 
3290625000  -4.109515e+001  -5.196165e+001 
3293750000  -4.113997e+001  -5.988784e+001 
3296875000  -4.258158e+001  -6.049337e+001 
3300000000  -4.186898e+001  -5.928285e+001 
3303125000  -4.069720e+001  -6.562718e+001 
3306250000  -4.080324e+001  -7.290585e+001 
3309375000  -4.045428e+001  -8.051337e+001 
3312500000  -4.097764e+001  -9.300523e+001 
3315625000  -4.222262e+001  -9.915932e+001 
3318750000  -4.358209e+001  -1.029450e+002 
3321875000  -4.479904e+001  -1.011716e+002 
3325000000  -4.504749e+001  -9.343284e+001 
3328125000  -4.408129e+001  -9.313398e+001 
3331250000  -4.231928e+001  -9.213537e+001 
3334375000  -3.969735e+001  -1.060255e+002 
3337500000  -4.057138e+001  -1.279875e+002 
3340625000  -4.226666e+001  -1.379232e+002 
3343750000  -4.413243e+001  -1.361332e+002 
3346875000  -4.348078e+001  -1.369080e+002 
3350000000  -4.312854e+001  -1.392370e+002 
3353125000  -4.263604e+001  -1.470254e+002 
3356250000  -4.245318e+001  -1.559143e+002 
3359375000  -4.335594e+001  -1.657750e+002 
3362500000  -4.416965e+001  -1.716997e+002 
3365625000  -4.472803e+001  -1.755256e+002 
3368750000  -4.566000e+001  -1.793695e+002 
3371875000  -4.575480e+001  1.745420e+002 
3375000000  -4.746553e+001  1.691163e+002 
3378125000  -4.812403e+001  1.749215e+002 
3381250000  -4.969617e+001  1.789545e+002 
3384375000  -4.691823e+001  -1.614866e+002 
3387500000  -4.395582e+001  1.750509e+002 
3390625000  -4.574977e+001  1.549380e+002 
3393750000  -4.730005e+001  1.565665e+002 
3396875000  -4.613263e+001  1.553108e+002 
3400000000  -4.638466e+001  1.411896e+002 
3403125000  -4.703794e+001  1.373340e+002 
3406250000  -4.783891e+001  1.333774e+002 
3409375000  -4.800091e+001  1.278535e+002 
3412500000  -4.883665e+001  1.203102e+002 
3415625000  -4.945790e+001  1.205608e+002 
3418750000  -5.006074e+001  1.168111e+002 
3421875000  -5.145580e+001  1.267171e+002 
3425000000  -5.010577e+001  1.228360e+002 
3428125000  -5.003791e+001  1.221841e+002 
3431250000  -5.047495e+001  1.077917e+002 
3434375000  -5.025204e+001  1.035913e+002 
3437500000  -5.162170e+001  1.092510e+002 
3440625000  -5.292026e+001  1.100644e+002 
3443750000  -5.097685e+001  1.108065e+002 
3446875000  -5.045263e+001  1.040830e+002 
3450000000  -5.020190e+001  9.468478e+001 
3453125000  -5.060075e+001  8.253716e+001 
3456250000  -5.174343e+001  8.388639e+001 
3459375000  -5.287758e+001  8.604049e+001 
3462500000  -5.218718e+001  9.411205e+001 
3465625000  -5.097748e+001  7.717532e+001 
3468750000  -5.169638e+001  8.264278e+001 
3471875000  -5.259011e+001  8.299726e+001 
3475000000  -5.070353e+001  7.601065e+001 
3478125000  -5.121879e+001  6.554082e+001 
3481250000  -5.321795e+001  6.744202e+001 
3484375000  -5.243506e+001  7.134443e+001 
3487500000  -5.091779e+001  6.819955e+001 
3490625000  -5.125917e+001  6.060260e+001 
3493750000  -5.178737e+001  5.285569e+001 
3496875000  -5.155317e+001  5.329369e+001 
3500000000  -5.223959e+001  4.731275e+001 
3503125000  -5.020893e+001  4.941617e+001 
3506250000  -4.991932e+001  4.008362e+001 
3509375000  -4.906984e+001  3.113478e+001 
3512500000  -5.024514e+001  1.393388e+001 
3515625000  -5.111065e+001  1.276919e+001 
3518750000  -5.199426e+001  1.721587e+001 
3521875000  -5.161734e+001  4.741869e+000 
3525000000  -5.338730e+001  7.019910e-001 
3528125000  -5.297523e+001  1.068601e+001 
3531250000  -5.250751e+001  1.404968e+000 
3534375000  -5.217091e+001  -1.331931e+001 
3537500000  -5.360250e+001  -1.979224e+001 
3540625000  -5.512426e+001  -2.149975e+001 
3543750000  -5.563102e+001  -1.007612e+001 
3546875000  -5.476799e+001  -2.294874e+000 
3550000000  -5.367854e+001  -8.767886e+000 
3553125000  -5.312009e+001  -2.847986e+001 
3556250000  -5.565533e+001  -3.332533e+001 
3559375000  -5.595871e+001  -3.378469e+001 
3562500000  -5.637482e+001  -3.430371e+001 
3565625000  -5.760353e+001  -5.143271e+001 
3568750000  -5.678451e+001  -3.644128e+001 
3571875000  -5.947584e+001  -4.421219e+001 
3575000000  -5.909324e+001  -3.174529e+001 
3578125000  -5.839265e+001  -4.980617e+001 
3581250000  -5.952814e+001  -3.667152e+001 
3584375000  -5.888143e+001  -2.972519e+001 
3587500000  -5.811232e+001  -4.114885e+001 
3590625000  -5.857548e+001  -4.506867e+001 
3593750000  -5.884174e+001  -3.702040e+001 
3596875000  -5.893238e+001  -2.279617e+001 
3600000000  -5.841570e+001  -3.937572e+001 
3603125000  -6.076736e+001  -5.426767e+001 
3606250000  -5.968227e+001  -4.041216e+001 
3609375000  -5.831624e+001  -4.416273e+001 
3612500000  -5.809601e+001  -4.403636e+001 
3615625000  -5.987135e+001  -3.476969e+001 
3618750000  -5.948149e+001  -3.904281e+001 
3621875000  -5.858955e+001  -3.314059e+001 
3625000000  -5.875769e+001  -4.069712e+001 
3628125000  -5.768154e+001  -4.282798e+001 
3631250000  -5.623503e+001  -3.450763e+001 
3634375000  -5.728168e+001  -3.945990e+001 
3637500000  -5.668405e+001  -4.206491e+001 
3640625000  -5.412801e+001  -3.582010e+001 
3643750000  -5.296759e+001  -4.718604e+001 
3646875000  -5.194877e+001  -5.589508e+001 
3650000000  -5.317651e+001  -5.255491e+001 
3653125000  -5.312312e+001  -5.876781e+001 
3656250000  -5.162831e+001  -6.187807e+001 
3659375000  -5.300060e+001  -5.632076e+001 
3662500000  -5.004748e+001  -6.891217e+001 
3665625000  -4.967895e+001  -6.849389e+001 
3668750000  -4.758220e+001  -6.911572e+001 
3671875000  -4.736351e+001  -7.874490e+001 
3675000000  -4.733105e+001  -9.023695e+001 
3678125000  -4.757559e+001  -9.258475e+001 
3681250000  -4.669894e+001  -9.506153e+001 
3684375000  -4.679694e+001  -1.038451e+002 
3687500000  -4.661010e+001  -1.071694e+002 
3690625000  -4.662453e+001  -1.175733e+002 
3693750000  -4.700776e+001  -1.144339e+002 
3696875000  -4.609601e+001  -1.132745e+002 
3700000000  -4.528967e+001  -1.233358e+002 
3703125000  -4.545636e+001  -1.275637e+002 
3706250000  -4.591683e+001  -1.276704e+002 
3709375000  -4.490097e+001  -1.286191e+002 
3712500000  -4.366392e+001  -1.329508e+002 
3715625000  -4.160250e+001  -1.442857e+002 
3718750000  -4.191565e+001  -1.494453e+002 
3721875000  -4.104980e+001  -1.593973e+002 
3725000000  -4.175426e+001  -1.656128e+002 
3728125000  -4.139533e+001  -1.684646e+002 
3731250000  -4.060937e+001  -1.754265e+002 
3734375000  -4.014309e+001  1.777243e+002 
3737500000  -4.091236e+001  1.683274e+002 
3740625000  -4.069334e+001  1.622508e+002 
3743750000  -4.040402e+001  1.562585e+002 
3746875000  -4.074531e+001  1.474898e+002 
3750000000  -4.091444e+001  1.456655e+002 
3753125000  -4.062922e+001  1.419151e+002 
3756250000  -4.085126e+001  1.386862e+002 
3759375000  -4.048464e+001  1.325652e+002 
3762500000  -3.998350e+001  1.261545e+002 
3765625000  -4.070012e+001  1.211461e+002 
3768750000  -4.012545e+001  1.223240e+002 
3771875000  -3.830057e+001  1.152934e+002 
3775000000  -3.857436e+001  1.027576e+002 
3778125000  -3.892952e+001  9.535777e+001 
3781250000  -3.898238e+001  9.245792e+001 
3784375000  -3.896605e+001  8.578313e+001 
3787500000  -3.867109e+001  8.070133e+001 
3790625000  -3.917611e+001  7.136150e+001 
3793750000  -3.899168e+001  6.833816e+001 
3796875000  -3.842146e+001  6.479289e+001 
3800000000  -3.642756e+001  5.993484e+001 
3803125000  -3.808220e+001  4.713600e+001 
3806250000  -3.899609e+001  4.162593e+001 
3809375000  -3.834868e+001  3.856346e+001 
3812500000  -3.837407e+001  2.999297e+001 
3815625000  -3.952160e+001  1.957431e+001 
3818750000  -4.069730e+001  1.992209e+001 
3821875000  -4.025305e+001  2.833725e+001 
3825000000  -3.840766e+001  2.690378e+001 
3828125000  -3.693755e+001  8.689631e+000 
3831250000  -3.828384e+001  -7.763500e+000 
3834375000  -4.040391e+001  -7.334656e+000 
3837500000  -4.068136e+001  -2.669729e+000 
3840625000  -3.912956e+001  -6.093847e+000 
3843750000  -3.839294e+001  -2.095261e+001 
3846875000  -4.013672e+001  -2.990712e+001 
3850000000  -4.100318e+001  -1.989886e+001 
3853125000  -3.982656e+001  -2.027082e+001 
3856250000  -3.933383e+001  -2.897573e+001 
3859375000  -3.855427e+001  -3.790381e+001 
3862500000  -3.824539e+001  -4.631357e+001 
3865625000  -3.911512e+001  -5.065787e+001 
3868750000  -3.876354e+001  -5.184043e+001 
3871875000  -3.794890e+001  -5.998157e+001 
3875000000  -3.865186e+001  -6.932619e+001 
3878125000  -3.954914e+001  -7.239307e+001 
3881250000  -3.932992e+001  -7.232185e+001 
3884375000  -3.885654e+001  -7.939162e+001 
3887500000  -3.898120e+001  -8.583544e+001 
3890625000  -3.948460e+001  -9.082926e+001 
3893750000  -3.961985e+001  -9.322921e+001 
3896875000  -3.999597e+001  -9.453399e+001 
3900000000  -4.015995e+001  -1.017478e+002 
3903125000  -3.940753e+001  -1.038702e+002 
3906250000  -3.864771e+001  -1.059069e+002 
3909375000  -3.802633e+001  -1.160157e+002 
3912500000  -3.933460e+001  -1.252976e+002 
3915625000  -4.034057e+001  -1.246901e+002 
3918750000  -3.984391e+001  -1.256955e+002 
3921875000  -3.944271e+001  -1.311578e+002 
3925000000  -3.820781e+001  -1.356493e+002 
3928125000  -3.819767e+001  -1.461249e+002 
3931250000  -3.916168e+001  -1.525147e+002 
3934375000  -3.983063e+001  -1.528277e+002 
3937500000  -3.993246e+001  -1.557375e+002 
3940625000  -3.987389e+001  -1.577503e+002 
3943750000  -3.895699e+001  -1.609320e+002 
3946875000  -3.853237e+001  -1.698451e+002 
3950000000  -3.958739e+001  -1.795675e+002 
3953125000  -4.002900e+001  -1.753008e+002 
3956250000  -3.879572e+001  -1.788923e+002 
3959375000  -3.771698e+001  1.751457e+002 
3962500000  -3.775484e+001  1.664309e+002 
3965625000  -3.810399e+001  1.592171e+002 
3968750000  -3.877612e+001  1.476012e+002 
3971875000  -3.861193e+001  1.441220e+002 
3975000000  -3.841778e+001  1.414099e+002 
3978125000  -3.843742e+001  1.373859e+002 
3981250000  -3.859493e+001  1.290995e+002 
3984375000  -3.919887e+001  1.214868e+002 
3987500000  -3.952051e+001  1.185941e+002 
3990625000  -4.007922e+001  1.174528e+002 
3993750000  -3.982893e+001  1.120991e+002 
3996875000  -3.987828e+001  1.084834e+002 
4000000000  -4.072184e+001  1.032036e+002 
4003125000  -4.096997e+001  1.063230e+002 
4006250000  -3.953500e+001  1.021338e+002 
4009375000  -3.856376e+001  8.915765e+001 
4012500000  -4.027840e+001  8.002169e+001 
4015625000  -4.151171e+001  7.934984e+001 
4018750000  -4.113992e+001  8.071425e+001 
4021875000  -4.091404e+001  7.681530e+001 
4025000000  -4.043642e+001  7.188114e+001 
4028125000  -4.050644e+001  6.256425e+001 
4031250000  -4.137437e+001  5.972505e+001 
4034375000  -4.190243e+001  6.049299e+001 
4037500000  -4.133176e+001  5.920289e+001 
4040625000  -4.100284e+001  5.589947e+001 
4043750000  -4.122652e+001  5.345985e+001 
4046875000  -4.075082e+001  4.985713e+001 
4050000000  -4.052808e+001  4.462773e+001 
4053125000  -4.153344e+001  4.005801e+001 
4056250000  -4.143671e+001  4.311655e+001 
4059375000  -3.947530e+001  4.311183e+001 
4062500000  -3.890081e+001  3.471682e+001 
4065625000  -3.905665e+001  2.947539e+001 
4068750000  -3.828028e+001  2.130266e+001 
4071875000  -3.796429e+001  1.185368e+001 
4075000000  -3.869596e+001  3.745739e+000 
4078125000  -3.878907e+001  2.902605e+000 
4081250000  -3.824242e+001  -3.989791e+000 
4084375000  -3.808437e+001  -1.275522e+001 
4087500000  -3.855011e+001  -1.889202e+001 
4090625000  -3.924328e+001  -2.067249e+001 
4093750000  -3.869921e+001  -2.449054e+001 
4096875000  -3.876937e+001  -3.347834e+001 
4100000000  -3.959691e+001  -4.084837e+001 
4103125000  -4.077941e+001  -3.897451e+001 
4106250000  -3.993919e+001  -3.717528e+001 
4109375000  -3.923249e+001  -3.943635e+001 
4112500000  -3.881739e+001  -4.941306e+001 
4115625000  -3.914979e+001  -5.561029e+001 
4118750000  -3.890273e+001  -5.985474e+001 
4121875000  -3.906779e+001  -6.830128e+001 
4125000000  -3.990928e+001  -7.281035e+001 
4128125000  -4.085292e+001  -7.092066e+001 
4131250000  -3.969190e+001  -6.691369e+001 
4134375000  -3.775604e+001  -7.739770e+001 
4137500000  -3.820449e+001  -9.622208e+001 
4140625000  -4.058735e+001  -1.023644e+002 
4143750000  -4.192196e+001  -9.663274e+001 
4146875000  -4.067622e+001  -9.285218e+001 
4150000000  -3.970024e+001  -9.971064e+001 
4153125000  -3.993129e+001  -1.086547e+002 
4156250000  -4.124829e+001  -1.135965e+002 
4159375000  -4.119654e+001  -1.080213e+002 
4162500000  -3.991794e+001  -1.057551e+002 
4165625000  -3.893274e+001  -1.138022e+002 
4168750000  -3.839478e+001  -1.243836e+002 
4171875000  -3.819784e+001  -1.325484e+002 
4175000000  -3.953632e+001  -1.395491e+002 
4178125000  -3.957072e+001  -1.385199e+002 
4181250000  -3.941179e+001  -1.443958e+002 
4184375000  -3.941596e+001  -1.500063e+002 
4187500000  -3.960016e+001  -1.537208e+002 
4190625000  -3.951662e+001  -1.624688e+002 
4193750000  -4.057856e+001  -1.671049e+002 
4196875000  -4.123471e+001  -1.678963e+002 
4200000000  -4.259605e+001  -1.608696e+002 
4203125000  -4.113649e+001  -1.488402e+002 
4206250000  -3.763166e+001  -1.578707e+002 
4209375000  -3.735468e+001  1.795606e+002 
4212500000  -3.972055e+001  1.708457e+002 
4215625000  -3.995192e+001  -1.797542e+002 
4218750000  -3.807959e+001  -1.786943e+002 
4221875000  -3.672986e+001  1.684256e+002 
4225000000  -3.764518e+001  1.586145e+002 
4228125000  -3.787174e+001  1.585983e+002 
4231250000  -3.619506e+001  1.523166e+002 
4234375000  -3.626878e+001  1.409112e+002 
4237500000  -3.596191e+001  1.349111e+002 
4240625000  -3.624812e+001  1.238543e+002 
4243750000  -3.727354e+001  1.166656e+002 
4246875000  -3.830332e+001  1.164098e+002 
4250000000  -3.830214e+001  1.160726e+002 
4253125000  -3.815980e+001  1.138387e+002 
4256250000  -3.805328e+001  1.056599e+002 
4259375000  -3.760915e+001  1.004341e+002 
4262500000  -3.791659e+001  9.571499e+001 
4265625000  -3.800392e+001  9.547802e+001 
4268750000  -3.698060e+001  8.653246e+001 
4271875000  -3.661713e+001  7.988808e+001 
4275000000  -3.669473e+001  7.092209e+001 
4278125000  -3.745901e+001  5.824596e+001 
4281250000  -3.915587e+001  5.635329e+001 
4284375000  -3.895584e+001  5.595285e+001 
4287500000  -4.064524e+001  5.114561e+001 
4290625000  -4.069753e+001  6.234689e+001 
4293750000  -3.873715e+001  6.203041e+001 
4296875000  -3.759315e+001  4.635889e+001 
4300000000  -3.892849e+001  3.598715e+001 
4303125000  -3.977146e+001  4.071956e+001 
4306250000  -3.836082e+001  4.398608e+001 
4309375000  -3.749023e+001  3.657699e+001 
4312500000  -3.764746e+001  2.683366e+001 
4315625000  -3.778406e+001  1.724928e+001 
4318750000  -3.853569e+001  1.426815e+001 
4321875000  -3.876413e+001  1.346789e+001 
4325000000  -3.785584e+001  1.391940e+001 
4328125000  -3.737630e+001  4.282488e+000 
4331250000  -3.771948e+001  -6.650841e+000 
4334375000  -3.840834e+001  -1.471026e+001 
4337500000  -3.957253e+001  -1.453978e+001 
4340625000  -3.955481e+001  -9.747303e+000 
4343750000  -3.850861e+001  -1.378053e+001 
4346875000  -3.820612e+001  -2.333765e+001 
4350000000  -3.822362e+001  -2.946276e+001 
4353125000  -3.886263e+001  -3.667089e+001 
4356250000  -4.098066e+001  -3.369929e+001 
4359375000  -3.997511e+001  -1.980995e+001 
4362500000  -3.643196e+001  -2.781016e+001 
4365625000  -3.590033e+001  -4.669091e+001 
4368750000  -3.728376e+001  -5.505703e+001 
4371875000  -3.788160e+001  -5.428321e+001 
4375000000  -3.754754e+001  -5.691215e+001 
4378125000  -3.673973e+001  -6.651894e+001 
4381250000  -3.704364e+001  -7.540670e+001 
4384375000  -3.714938e+001  -8.071793e+001 
4387500000  -3.793243e+001  -8.842476e+001 
4390625000  -3.854790e+001  -8.811322e+001 
4393750000  -3.796869e+001  -8.833032e+001 
4396875000  -3.740594e+001  -9.299441e+001 
4400000000  -3.681597e+001  -1.030629e+002 
4403125000  -3.782292e+001  -1.132965e+002 
4406250000  -3.818398e+001  -1.152031e+002 
4409375000  -3.881160e+001  -1.181422e+002 
4412500000  -3.965949e+001  -1.209702e+002 
4415625000  -3.931116e+001  -1.185920e+002 
