!Agilent Technologies,E8363B,MY43030201,A.06.04.32
!Agilent E8363B: A.06.04.32
!Date: Tuesday, November 11, 2014 21:32:52
!Correction: S21(Response(S21)) 
!S1P File: Measurement: S21:
# Hz S  dB   R 50
3000000000  -4.037249e+001  7.561674e+001 
3003125000  -4.183083e+001  6.775577e+001 
3006250000  -4.205287e+001  6.747950e+001 
3009375000  -4.269339e+001  7.172178e+001 
3012500000  -4.153113e+001  6.708125e+001 
3015625000  -4.132555e+001  6.094832e+001 
3018750000  -4.168233e+001  6.094632e+001 
3021875000  -4.008318e+001  6.203767e+001 
3025000000  -3.884243e+001  5.837106e+001 
3028125000  -3.802505e+001  4.786368e+001 
3031250000  -3.702206e+001  3.595154e+001 
3034375000  -3.670871e+001  2.201295e+001 
3037500000  -3.751831e+001  1.129638e+001 
3040625000  -3.880156e+001  5.752484e+000 
3043750000  -3.916569e+001  -4.310133e-001 
3046875000  -3.986830e+001  -6.636295e+000 
3050000000  -4.092099e+001  -1.221117e+001 
3053125000  -4.044235e+001  -6.316975e+000 
3056250000  -4.052447e+001  -3.800389e+000 
3059375000  -3.970535e+001  -5.389819e+000 
3062500000  -3.815172e+001  -9.780456e+000 
3065625000  -3.793818e+001  -2.007373e+001 
3068750000  -3.750882e+001  -2.700486e+001 
3071875000  -3.746009e+001  -2.924396e+001 
3075000000  -3.711205e+001  -3.670424e+001 
3078125000  -3.709465e+001  -4.332372e+001 
3081250000  -3.729124e+001  -4.870834e+001 
3084375000  -3.640155e+001  -5.424041e+001 
3087500000  -3.641570e+001  -6.009188e+001 
3090625000  -3.586596e+001  -7.285934e+001 
3093750000  -3.691763e+001  -8.038916e+001 
3096875000  -3.734406e+001  -8.545544e+001 
3100000000  -3.711649e+001  -8.872507e+001 
3103125000  -3.738147e+001  -9.150488e+001 
3106250000  -3.719482e+001  -9.758469e+001 
3109375000  -3.722807e+001  -1.014680e+002 
3112500000  -3.712312e+001  -1.069106e+002 
3115625000  -3.699959e+001  -1.112633e+002 
3118750000  -3.712690e+001  -1.147316e+002 
3121875000  -3.667231e+001  -1.263019e+002 
3125000000  -3.852668e+001  -1.291448e+002 
3128125000  -3.854152e+001  -1.221979e+002 
3131250000  -3.609873e+001  -1.276352e+002 
3134375000  -3.534825e+001  -1.444716e+002 
3137500000  -3.598042e+001  -1.565087e+002 
3140625000  -3.724790e+001  -1.605123e+002 
3143750000  -3.815013e+001  -1.626296e+002 
3146875000  -3.774673e+001  -1.604229e+002 
3150000000  -3.692020e+001  -1.644032e+002 
3153125000  -3.719307e+001  -1.728266e+002 
3156250000  -3.784173e+001  -1.684409e+002 
3159375000  -3.559286e+001  -1.702354e+002 
3162500000  -3.430972e+001  1.741549e+002 
3165625000  -3.559220e+001  1.622070e+002 
3168750000  -3.543808e+001  1.610242e+002 
3171875000  -3.495660e+001  1.532134e+002 
3175000000  -3.546835e+001  1.437882e+002 
3178125000  -3.510663e+001  1.427518e+002 
3181250000  -3.440304e+001  1.331290e+002 
3184375000  -3.417877e+001  1.230248e+002 
3187500000  -3.537429e+001  1.087745e+002 
3190625000  -3.717920e+001  1.014434e+002 
3193750000  -3.743748e+001  1.070665e+002 
3196875000  -3.739269e+001  1.081689e+002 
3200000000  -3.612313e+001  1.033962e+002 
3203125000  -3.589002e+001  9.423301e+001 
3206250000  -3.605653e+001  8.757116e+001 
3209375000  -3.579988e+001  7.954145e+001 
3212500000  -3.624330e+001  7.264274e+001 
3215625000  -3.594572e+001  7.029798e+001 
3218750000  -3.687724e+001  5.905364e+001 
3221875000  -3.729925e+001  5.125967e+001 
3225000000  -3.701254e+001  4.800581e+001 
3228125000  -3.784971e+001  4.017309e+001 
3231250000  -3.829179e+001  3.849530e+001 
3234375000  -3.790947e+001  3.558616e+001 
3237500000  -3.807271e+001  3.242083e+001 
3240625000  -3.757349e+001  2.623815e+001 
3243750000  -3.762154e+001  1.640318e+001 
3246875000  -3.820092e+001  8.839221e+000 
3250000000  -3.872009e+001  4.602587e+000 
3253125000  -3.908596e+001  2.460863e+000 
3256250000  -3.860063e+001  -5.641095e+000 
3259375000  -3.907098e+001  -1.747209e+001 
3262500000  -4.058910e+001  -2.126613e+001 
3265625000  -4.131545e+001  -1.804921e+001 
3268750000  -4.118798e+001  -1.610132e+001 
3271875000  -4.067788e+001  -2.045166e+001 
3275000000  -4.007991e+001  -2.838328e+001 
3278125000  -4.082472e+001  -3.425289e+001 
3281250000  -4.103362e+001  -3.412506e+001 
3284375000  -4.044040e+001  -4.051738e+001 
3287500000  -4.088132e+001  -4.617844e+001 
3290625000  -4.119960e+001  -5.333556e+001 
3293750000  -4.129123e+001  -5.899412e+001 
3296875000  -4.213946e+001  -6.121984e+001 
3300000000  -4.192458e+001  -5.876559e+001 
3303125000  -4.102103e+001  -6.535424e+001 
3306250000  -4.063737e+001  -7.409776e+001 
3309375000  -4.051834e+001  -8.185516e+001 
3312500000  -4.098419e+001  -9.346778e+001 
3315625000  -4.234106e+001  -1.011417e+002 
3318750000  -4.390639e+001  -1.035707e+002 
3321875000  -4.486674e+001  -1.013784e+002 
3325000000  -4.463036e+001  -9.492088e+001 
3328125000  -4.366043e+001  -9.762730e+001 
3331250000  -4.218865e+001  -9.186420e+001 
3334375000  -3.963794e+001  -1.067312e+002 
3337500000  -4.032364e+001  -1.275059e+002 
3340625000  -4.211447e+001  -1.374692e+002 
3343750000  -4.414209e+001  -1.352309e+002 
3346875000  -4.346803e+001  -1.374469e+002 
3350000000  -4.308977e+001  -1.406708e+002 
3353125000  -4.293702e+001  -1.479169e+002 
3356250000  -4.261562e+001  -1.551365e+002 
3359375000  -4.366203e+001  -1.682975e+002 
3362500000  -4.436747e+001  -1.719622e+002 
3365625000  -4.522189e+001  -1.766759e+002 
3368750000  -4.535424e+001  -1.799485e+002 
3371875000  -4.607950e+001  1.750216e+002 
3375000000  -4.767007e+001  1.726624e+002 
3378125000  -4.834689e+001  1.718821e+002 
3381250000  -4.955513e+001  -1.750188e+002 
3384375000  -4.623557e+001  -1.625586e+002 
3387500000  -4.417002e+001  1.775283e+002 
3390625000  -4.617111e+001  1.582072e+002 
3393750000  -4.692870e+001  1.571383e+002 
3396875000  -4.587423e+001  1.528387e+002 
3400000000  -4.599611e+001  1.430198e+002 
3403125000  -4.738730e+001  1.360830e+002 
3406250000  -4.760983e+001  1.351523e+002 
3409375000  -4.835543e+001  1.270570e+002 
3412500000  -4.894442e+001  1.213602e+002 
3415625000  -4.955615e+001  1.191482e+002 
3418750000  -5.025525e+001  1.213541e+002 
3421875000  -5.085411e+001  1.208417e+002 
3425000000  -5.008460e+001  1.228520e+002 
3428125000  -5.005829e+001  1.232018e+002 
3431250000  -4.995332e+001  1.096645e+002 
3434375000  -5.043361e+001  1.069479e+002 
3437500000  -5.175693e+001  1.027873e+002 
3440625000  -5.209943e+001  1.064407e+002 
3443750000  -5.060579e+001  1.076008e+002 
3446875000  -5.008705e+001  1.078301e+002 
3450000000  -5.036890e+001  9.401044e+001 
3453125000  -5.061150e+001  8.525553e+001 
3456250000  -5.164191e+001  8.636589e+001 
3459375000  -5.284091e+001  9.149151e+001 
3462500000  -5.224458e+001  9.078699e+001 
3465625000  -5.070980e+001  8.064943e+001 
3468750000  -5.263347e+001  8.458421e+001 
3471875000  -5.205957e+001  7.705790e+001 
3475000000  -5.141070e+001  7.394830e+001 
3478125000  -5.098654e+001  6.142779e+001 
3481250000  -5.288120e+001  6.875421e+001 
3484375000  -5.242722e+001  7.152512e+001 
3487500000  -5.155614e+001  6.232639e+001 
3490625000  -5.035357e+001  5.896433e+001 
3493750000  -5.153397e+001  5.147179e+001 
3496875000  -5.181548e+001  5.383233e+001 
3500000000  -5.285237e+001  4.603529e+001 
3503125000  -5.085692e+001  4.486985e+001 
3506250000  -4.927800e+001  3.909962e+001 
3509375000  -5.004080e+001  3.011487e+001 
3512500000  -5.057393e+001  1.852567e+001 
3515625000  -5.158404e+001  1.256634e+001 
3518750000  -5.277960e+001  1.548657e+001 
3521875000  -5.235667e+001  3.532012e+000 
3525000000  -5.394841e+001  1.500121e+000 
3528125000  -5.238837e+001  8.191782e+000 
3531250000  -5.255929e+001  4.414214e+000 
3534375000  -5.282449e+001  -7.879148e+000 
3537500000  -5.437466e+001  -2.655198e+001 
3540625000  -5.493753e+001  -2.393194e+001 
3543750000  -5.548988e+001  -6.776623e+000 
3546875000  -5.510094e+001  -1.106447e+001 
3550000000  -5.435887e+001  -7.451773e+000 
3553125000  -5.515044e+001  -2.907514e+001 
3556250000  -5.553028e+001  -3.404623e+001 
3559375000  -5.709405e+001  -3.271594e+001 
3562500000  -5.534931e+001  -4.002339e+001 
3565625000  -5.635673e+001  -4.005661e+001 
3568750000  -5.779617e+001  -3.548539e+001 
3571875000  -5.749905e+001  -2.918253e+001 
3575000000  -5.845326e+001  -4.029860e+001 
3578125000  -5.732516e+001  -4.208659e+001 
3581250000  -5.727426e+001  -4.409285e+001 
3584375000  -5.928074e+001  -2.847265e+001 
3587500000  -5.657073e+001  -4.205025e+001 
3590625000  -6.006167e+001  -4.929556e+001 
3593750000  -5.905680e+001  -4.985303e+001 
3596875000  -5.899386e+001  -2.129715e+001 
3600000000  -5.738890e+001  -4.202979e+001 
3603125000  -6.059226e+001  -5.579472e+001 
3606250000  -5.933357e+001  -5.693553e+001 
3609375000  -5.806594e+001  -5.064954e+001 
3612500000  -5.864122e+001  -5.283036e+001 
3615625000  -6.128526e+001  -4.584039e+001 
3618750000  -5.840224e+001  -3.256536e+001 
3621875000  -5.806498e+001  -3.569849e+001 
3625000000  -5.757083e+001  -4.080901e+001 
3628125000  -5.742103e+001  -4.245123e+001 
3631250000  -5.720051e+001  -4.577382e+001 
3634375000  -5.747768e+001  -4.624391e+001 
3637500000  -5.601917e+001  -3.807419e+001 
3640625000  -5.335346e+001  -3.732917e+001 
3643750000  -5.332814e+001  -4.148914e+001 
3646875000  -5.237836e+001  -5.523259e+001 
3650000000  -5.286741e+001  -5.000029e+001 
3653125000  -5.127828e+001  -5.891606e+001 
3656250000  -5.169660e+001  -5.992151e+001 
3659375000  -5.114935e+001  -5.743568e+001 
3662500000  -5.042784e+001  -6.703503e+001 
3665625000  -4.910532e+001  -6.849042e+001 
3668750000  -4.818454e+001  -6.823791e+001 
3671875000  -4.775880e+001  -7.901171e+001 
3675000000  -4.760794e+001  -8.760925e+001 
3678125000  -4.691367e+001  -9.220068e+001 
3681250000  -4.664424e+001  -9.935201e+001 
3684375000  -4.677194e+001  -1.043172e+002 
3687500000  -4.685410e+001  -1.083356e+002 
3690625000  -4.674471e+001  -1.146158e+002 
3693750000  -4.682168e+001  -1.163276e+002 
3696875000  -4.625822e+001  -1.151719e+002 
3700000000  -4.513665e+001  -1.261456e+002 
3703125000  -4.494778e+001  -1.278145e+002 
3706250000  -4.612054e+001  -1.300114e+002 
3709375000  -4.483877e+001  -1.284403e+002 
3712500000  -4.381585e+001  -1.338738e+002 
3715625000  -4.225647e+001  -1.433954e+002 
3718750000  -4.170185e+001  -1.485654e+002 
3721875000  -4.115379e+001  -1.595324e+002 
3725000000  -4.163081e+001  -1.673651e+002 
3728125000  -4.137171e+001  -1.691897e+002 
3731250000  -4.076740e+001  -1.759353e+002 
3734375000  -4.038702e+001  1.770723e+002 
3737500000  -4.101062e+001  1.689452e+002 
3740625000  -4.087566e+001  1.628745e+002 
3743750000  -4.063977e+001  1.559201e+002 
3746875000  -4.082022e+001  1.505677e+002 
3750000000  -4.095442e+001  1.432667e+002 
3753125000  -4.050140e+001  1.412662e+002 
3756250000  -4.049395e+001  1.371053e+002 
3759375000  -4.043486e+001  1.323870e+002 
3762500000  -4.000396e+001  1.254749e+002 
3765625000  -4.066506e+001  1.226254e+002 
3768750000  -4.017921e+001  1.212530e+002 
3771875000  -3.852008e+001  1.144122e+002 
3775000000  -3.853407e+001  1.028958e+002 
3778125000  -3.882700e+001  9.749240e+001 
3781250000  -3.872710e+001  9.000500e+001 
3784375000  -3.896458e+001  8.623943e+001 
3787500000  -3.859565e+001  7.959220e+001 
3790625000  -3.904270e+001  7.189086e+001 
3793750000  -3.908199e+001  6.704583e+001 
3796875000  -3.825975e+001  6.397194e+001 
3800000000  -3.628464e+001  5.917561e+001 
3803125000  -3.816771e+001  4.679240e+001 
3806250000  -3.889246e+001  4.199994e+001 
3809375000  -3.858811e+001  3.877809e+001 
3812500000  -3.847776e+001  2.761193e+001 
3815625000  -3.960230e+001  1.896693e+001 
3818750000  -4.087783e+001  1.984217e+001 
3821875000  -4.017432e+001  2.939147e+001 
3825000000  -3.832533e+001  2.518147e+001 
3828125000  -3.702716e+001  5.682063e+000 
3831250000  -3.811833e+001  -7.857608e+000 
3834375000  -4.037552e+001  -8.274857e+000 
3837500000  -4.057372e+001  -3.931193e+000 
3840625000  -3.890607e+001  -6.865747e+000 
3843750000  -3.837137e+001  -2.152018e+001 
3846875000  -4.004094e+001  -2.835109e+001 
3850000000  -4.055120e+001  -2.058371e+001 
3853125000  -4.004506e+001  -2.166546e+001 
3856250000  -3.940378e+001  -3.118853e+001 
3859375000  -3.847955e+001  -3.633936e+001 
3862500000  -3.848426e+001  -4.776041e+001 
3865625000  -3.890640e+001  -5.215028e+001 
3868750000  -3.853766e+001  -5.316045e+001 
3871875000  -3.794994e+001  -6.043821e+001 
3875000000  -3.851808e+001  -7.043670e+001 
3878125000  -3.955929e+001  -7.365524e+001 
3881250000  -3.909792e+001  -7.422204e+001 
3884375000  -3.869943e+001  -8.136214e+001 
3887500000  -3.925717e+001  -8.632867e+001 
3890625000  -3.958936e+001  -9.181702e+001 
3893750000  -3.979142e+001  -9.440882e+001 
3896875000  -4.006545e+001  -9.591397e+001 
3900000000  -3.995557e+001  -1.003427e+002 
3903125000  -3.893274e+001  -1.029350e+002 
3906250000  -3.900105e+001  -1.064035e+002 
3909375000  -3.846077e+001  -1.167127e+002 
3912500000  -3.899799e+001  -1.267104e+002 
3915625000  -4.024365e+001  -1.250586e+002 
3918750000  -3.989798e+001  -1.274485e+002 
3921875000  -3.936937e+001  -1.319627e+002 
3925000000  -3.842199e+001  -1.365659e+002 
3928125000  -3.828393e+001  -1.456784e+002 
3931250000  -3.902772e+001  -1.526505e+002 
3934375000  -3.953040e+001  -1.527246e+002 
3937500000  -3.994574e+001  -1.567311e+002 
3940625000  -3.987839e+001  -1.596367e+002 
3943750000  -3.893153e+001  -1.615079e+002 
3946875000  -3.851862e+001  -1.710691e+002 
3950000000  -3.958546e+001  1.798681e+002 
3953125000  -3.992593e+001  -1.779239e+002 
3956250000  -3.873793e+001  -1.780642e+002 
3959375000  -3.788351e+001  1.736588e+002 
3962500000  -3.765275e+001  1.660935e+002 
3965625000  -3.774210e+001  1.568270e+002 
3968750000  -3.870199e+001  1.512272e+002 
3971875000  -3.877692e+001  1.433726e+002 
3975000000  -3.836932e+001  1.412883e+002 
3978125000  -3.840014e+001  1.359590e+002 
3981250000  -3.860789e+001  1.294456e+002 
3984375000  -3.893951e+001  1.213193e+002 
3987500000  -3.946591e+001  1.194275e+002 
3990625000  -4.000339e+001  1.175429e+002 
3993750000  -3.980452e+001  1.110358e+002 
3996875000  -3.974382e+001  1.073839e+002 
4000000000  -4.064378e+001  1.024134e+002 
4003125000  -4.124706e+001  1.034748e+002 
4006250000  -3.929614e+001  1.034439e+002 
4009375000  -3.858214e+001  8.770111e+001 
4012500000  -3.995399e+001  7.896844e+001 
4015625000  -4.127578e+001  7.852568e+001 
4018750000  -4.128130e+001  8.025851e+001 
4021875000  -4.120406e+001  7.780956e+001 
4025000000  -4.040875e+001  7.131304e+001 
4028125000  -4.067162e+001  6.327691e+001 
4031250000  -4.123249e+001  6.014778e+001 
4034375000  -4.143018e+001  5.945733e+001 
4037500000  -4.093050e+001  6.035341e+001 
4040625000  -4.089447e+001  5.336818e+001 
4043750000  -4.098014e+001  5.124175e+001 
4046875000  -4.065170e+001  4.816173e+001 
4050000000  -4.050910e+001  4.217161e+001 
4053125000  -4.150129e+001  4.042770e+001 
4056250000  -4.158434e+001  4.665255e+001 
4059375000  -3.968708e+001  4.180919e+001 
4062500000  -3.885597e+001  3.370736e+001 
4065625000  -3.893440e+001  2.795092e+001 
4068750000  -3.857459e+001  2.194308e+001 
4071875000  -3.788329e+001  1.011302e+001 
4075000000  -3.848143e+001  3.528309e+000 
4078125000  -3.873267e+001  1.626192e+000 
4081250000  -3.821827e+001  -4.230867e+000 
4084375000  -3.813040e+001  -1.421390e+001 
4087500000  -3.879469e+001  -1.983997e+001 
4090625000  -3.921103e+001  -2.357043e+001 
4093750000  -3.880842e+001  -2.427779e+001 
4096875000  -3.888178e+001  -3.387261e+001 
4100000000  -3.954839e+001  -4.239485e+001 
4103125000  -4.041236e+001  -3.993768e+001 
4106250000  -4.012968e+001  -3.607840e+001 
4109375000  -3.925344e+001  -3.965482e+001 
4112500000  -3.863243e+001  -4.989853e+001 
4115625000  -3.920095e+001  -5.598866e+001 
4118750000  -3.902826e+001  -6.044855e+001 
4121875000  -3.894028e+001  -6.976617e+001 
4125000000  -3.981778e+001  -7.335577e+001 
4128125000  -4.073786e+001  -7.192006e+001 
4131250000  -3.979008e+001  -6.662371e+001 
4134375000  -3.765318e+001  -7.792843e+001 
4137500000  -3.829061e+001  -9.854030e+001 
4140625000  -4.050480e+001  -1.054644e+002 
4143750000  -4.143580e+001  -9.731188e+001 
4146875000  -4.065773e+001  -9.331326e+001 
4150000000  -3.964567e+001  -1.016744e+002 
4153125000  -3.987932e+001  -1.104545e+002 
4156250000  -4.113922e+001  -1.142073e+002 
4159375000  -4.102122e+001  -1.085640e+002 
4162500000  -4.012888e+001  -1.053698e+002 
4165625000  -3.895911e+001  -1.146073e+002 
4168750000  -3.876198e+001  -1.266693e+002 
4171875000  -3.820156e+001  -1.337620e+002 
4175000000  -3.949568e+001  -1.421674e+002 
4178125000  -3.963768e+001  -1.409792e+002 
4181250000  -3.940454e+001  -1.439806e+002 
4184375000  -3.939239e+001  -1.491378e+002 
4187500000  -3.956718e+001  -1.543904e+002 
4190625000  -3.934850e+001  -1.643345e+002 
4193750000  -4.037501e+001  -1.682292e+002 
4196875000  -4.155115e+001  -1.675646e+002 
4200000000  -4.250574e+001  -1.611968e+002 
4203125000  -4.081506e+001  -1.498302e+002 
4206250000  -3.749226e+001  -1.591005e+002 
4209375000  -3.709449e+001  1.767313e+002 
4212500000  -3.934449e+001  1.700111e+002 
4215625000  -4.023248e+001  1.769961e+002 
4218750000  -3.826842e+001  1.782293e+002 
4221875000  -3.670147e+001  1.685716e+002 
4225000000  -3.791387e+001  1.577123e+002 
4228125000  -3.775756e+001  1.579838e+002 
4231250000  -3.639352e+001  1.514408e+002 
4234375000  -3.657911e+001  1.411315e+002 
4237500000  -3.619477e+001  1.349250e+002 
4240625000  -3.640779e+001  1.229533e+002 
4243750000  -3.753423e+001  1.161613e+002 
4246875000  -3.856532e+001  1.146483e+002 
4250000000  -3.827367e+001  1.157278e+002 
4253125000  -3.797474e+001  1.107901e+002 
4256250000  -3.795890e+001  1.060689e+002 
4259375000  -3.745121e+001  1.012070e+002 
4262500000  -3.792029e+001  9.574900e+001 
4265625000  -3.792722e+001  9.427683e+001 
4268750000  -3.687001e+001  8.670797e+001 
4271875000  -3.699986e+001  7.746128e+001 
4275000000  -3.666013e+001  7.074374e+001 
4278125000  -3.761508e+001  5.684019e+001 
4281250000  -3.905271e+001  5.655591e+001 
4284375000  -3.870704e+001  5.460063e+001 
4287500000  -4.053651e+001  5.172633e+001 
4290625000  -4.058447e+001  5.821479e+001 
4293750000  -3.849327e+001  5.872826e+001 
4296875000  -3.765454e+001  4.679806e+001 
4300000000  -3.923632e+001  3.541335e+001 
4303125000  -3.957440e+001  4.055463e+001 
4306250000  -3.852632e+001  4.166380e+001 
4309375000  -3.761954e+001  3.699567e+001 
4312500000  -3.765930e+001  2.424855e+001 
4315625000  -3.785198e+001  1.580940e+001 
4318750000  -3.853054e+001  1.274885e+001 
4321875000  -3.842412e+001  1.348838e+001 
4325000000  -3.781423e+001  1.144935e+001 
4328125000  -3.725243e+001  2.103947e+000 
4331250000  -3.742628e+001  -7.981733e+000 
4334375000  -3.830764e+001  -1.671152e+001 
4337500000  -3.917701e+001  -1.538347e+001 
4340625000  -3.945831e+001  -1.034779e+001 
4343750000  -3.847578e+001  -1.544620e+001 
4346875000  -3.811636e+001  -2.275386e+001 
4350000000  -3.816901e+001  -3.067902e+001 
4353125000  -3.887920e+001  -3.814252e+001 
4356250000  -4.082586e+001  -3.464472e+001 
4359375000  -3.978764e+001  -2.089012e+001 
4362500000  -3.638705e+001  -2.767970e+001 
4365625000  -3.570825e+001  -4.551631e+001 
4368750000  -3.725364e+001  -5.533057e+001 
4371875000  -3.766912e+001  -5.522992e+001 
4375000000  -3.693026e+001  -5.991175e+001 
4378125000  -3.671876e+001  -6.884235e+001 
4381250000  -3.701405e+001  -7.531467e+001 
4384375000  -3.702921e+001  -8.146447e+001 
4387500000  -3.773941e+001  -8.766350e+001 
4390625000  -3.840693e+001  -8.878609e+001 
4393750000  -3.791337e+001  -8.848174e+001 
4396875000  -3.737510e+001  -9.305007e+001 
4400000000  -3.667117e+001  -1.037561e+002 
4403125000  -3.777476e+001  -1.126722e+002 
4406250000  -3.825193e+001  -1.162921e+002 
4409375000  -3.848239e+001  -1.211825e+002 
4412500000  -3.974754e+001  -1.233341e+002 
4415625000  -3.938222e+001  -1.183436e+002 
