!Agilent Technologies,E8363B,MY43030201,A.06.04.32
!Agilent E8363B: A.06.04.32
!Date: Tuesday, November 11, 2014 21:27:42
!Correction: S21(Response(S21)) 
!S1P File: Measurement: S21:
# Hz S  dB   R 50
3000000000  -4.040210e+001  9.173706e+001 
3003125000  -4.221883e+001  8.384519e+001 
3006250000  -4.223718e+001  8.273019e+001 
3009375000  -4.283950e+001  8.656650e+001 
3012500000  -4.146212e+001  8.375043e+001 
3015625000  -4.142274e+001  7.733936e+001 
3018750000  -4.193511e+001  7.669889e+001 
3021875000  -4.011095e+001  7.710411e+001 
3025000000  -3.904267e+001  7.327954e+001 
3028125000  -3.819551e+001  6.376405e+001 
3031250000  -3.716362e+001  5.171006e+001 
3034375000  -3.683207e+001  3.849747e+001 
3037500000  -3.737686e+001  2.661257e+001 
3040625000  -3.875915e+001  2.278634e+001 
3043750000  -3.933346e+001  1.529044e+001 
3046875000  -3.987849e+001  9.571120e+000 
3050000000  -4.105606e+001  4.569111e+000 
3053125000  -4.067333e+001  9.427525e+000 
3056250000  -4.053375e+001  1.237919e+001 
3059375000  -4.007465e+001  9.921838e+000 
3062500000  -3.813663e+001  5.239288e+000 
3065625000  -3.790122e+001  -4.648005e+000 
3068750000  -3.757755e+001  -1.159439e+001 
3071875000  -3.778419e+001  -1.380856e+001 
3075000000  -3.703648e+001  -2.015197e+001 
3078125000  -3.717016e+001  -2.711270e+001 
3081250000  -3.733671e+001  -3.270402e+001 
3084375000  -3.649994e+001  -3.799546e+001 
3087500000  -3.641923e+001  -4.399065e+001 
3090625000  -3.598972e+001  -5.578656e+001 
3093750000  -3.676895e+001  -6.363523e+001 
3096875000  -3.739146e+001  -7.037743e+001 
3100000000  -3.722595e+001  -7.287822e+001 
3103125000  -3.767058e+001  -7.689722e+001 
3106250000  -3.721168e+001  -8.208724e+001 
3109375000  -3.736476e+001  -8.606194e+001 
3112500000  -3.725471e+001  -9.127313e+001 
3115625000  -3.712456e+001  -9.578499e+001 
3118750000  -3.731158e+001  -9.769236e+001 
3121875000  -3.662106e+001  -1.097716e+002 
3125000000  -3.822292e+001  -1.128103e+002 
3128125000  -3.871107e+001  -1.049173e+002 
3131250000  -3.625403e+001  -1.105330e+002 
3134375000  -3.530635e+001  -1.284679e+002 
3137500000  -3.602478e+001  -1.408548e+002 
3140625000  -3.745562e+001  -1.456087e+002 
3143750000  -3.825148e+001  -1.457972e+002 
3146875000  -3.782928e+001  -1.441949e+002 
3150000000  -3.693746e+001  -1.474137e+002 
3153125000  -3.717040e+001  -1.569831e+002 
3156250000  -3.795792e+001  -1.521365e+002 
3159375000  -3.590428e+001  -1.529579e+002 
3162500000  -3.441933e+001  -1.685390e+002 
3165625000  -3.559112e+001  1.778663e+002 
3168750000  -3.565543e+001  1.778117e+002 
3171875000  -3.474106e+001  1.698750e+002 
3175000000  -3.549694e+001  1.606131e+002 
3178125000  -3.521775e+001  1.598026e+002 
3181250000  -3.442805e+001  1.510019e+002 
3184375000  -3.414417e+001  1.397898e+002 
3187500000  -3.535312e+001  1.235368e+002 
3190625000  -3.754098e+001  1.177039e+002 
3193750000  -3.765260e+001  1.230978e+002 
3196875000  -3.756712e+001  1.250907e+002 
3200000000  -3.629611e+001  1.202543e+002 
3203125000  -3.601337e+001  1.121544e+002 
3206250000  -3.630258e+001  1.051708e+002 
3209375000  -3.575926e+001  9.761516e+001 
3212500000  -3.616395e+001  8.933259e+001 
3215625000  -3.629982e+001  8.716003e+001 
3218750000  -3.687291e+001  7.560912e+001 
3221875000  -3.740505e+001  6.830382e+001 
3225000000  -3.721456e+001  6.495592e+001 
3228125000  -3.762122e+001  5.797814e+001 
3231250000  -3.835740e+001  5.612237e+001 
3234375000  -3.799136e+001  5.347311e+001 
3237500000  -3.810186e+001  4.883900e+001 
3240625000  -3.763736e+001  4.339169e+001 
3243750000  -3.785874e+001  3.302546e+001 
3246875000  -3.844049e+001  2.647134e+001 
3250000000  -3.884383e+001  2.293716e+001 
3253125000  -3.905574e+001  2.076070e+001 
3256250000  -3.879530e+001  1.051124e+001 
3259375000  -3.924134e+001  2.756877e-001 
3262500000  -4.060254e+001  -1.677429e+000 
3265625000  -4.130923e+001  -1.490351e+000 
3268750000  -4.117931e+001  -4.066073e-001 
3271875000  -4.082760e+001  -3.627252e+000 
3275000000  -4.026539e+001  -1.158534e+001 
3278125000  -4.093180e+001  -1.630317e+001 
3281250000  -4.107692e+001  -1.726134e+001 
3284375000  -4.063084e+001  -2.311576e+001 
3287500000  -4.092830e+001  -2.822668e+001 
3290625000  -4.135664e+001  -3.559600e+001 
3293750000  -4.117802e+001  -4.039105e+001 
3296875000  -4.243056e+001  -4.330253e+001 
3300000000  -4.193012e+001  -4.264560e+001 
3303125000  -4.108146e+001  -4.878523e+001 
3306250000  -4.101014e+001  -5.689871e+001 
3309375000  -4.058937e+001  -6.223851e+001 
3312500000  -4.088432e+001  -7.563599e+001 
3315625000  -4.208294e+001  -8.222118e+001 
3318750000  -4.324893e+001  -8.746413e+001 
3321875000  -4.471006e+001  -8.430212e+001 
3325000000  -4.510640e+001  -7.657897e+001 
3328125000  -4.451678e+001  -8.222063e+001 
3331250000  -4.265411e+001  -7.289116e+001 
3334375000  -3.989577e+001  -8.676804e+001 
3337500000  -4.060172e+001  -1.084337e+002 
3340625000  -4.218001e+001  -1.185414e+002 
3343750000  -4.400578e+001  -1.175328e+002 
3346875000  -4.332506e+001  -1.200607e+002 
3350000000  -4.331531e+001  -1.232773e+002 
3353125000  -4.290359e+001  -1.292679e+002 
3356250000  -4.269254e+001  -1.384096e+002 
3359375000  -4.348849e+001  -1.491037e+002 
3362500000  -4.442033e+001  -1.550960e+002 
3365625000  -4.475826e+001  -1.571994e+002 
3368750000  -4.564044e+001  -1.619507e+002 
3371875000  -4.588734e+001  -1.646003e+002 
3375000000  -4.706034e+001  -1.691193e+002 
3378125000  -4.830828e+001  -1.704932e+002 
3381250000  -4.951853e+001  -1.627430e+002 
3384375000  -4.705074e+001  -1.465092e+002 
3387500000  -4.417269e+001  -1.708827e+002 
3390625000  -4.616049e+001  1.727790e+002 
3393750000  -4.710582e+001  1.749469e+002 
3396875000  -4.615059e+001  1.749646e+002 
3400000000  -4.574641e+001  1.618900e+002 
3403125000  -4.680936e+001  1.554832e+002 
3406250000  -4.733958e+001  1.522876e+002 
3409375000  -4.806808e+001  1.448998e+002 
3412500000  -4.920100e+001  1.377678e+002 
3415625000  -4.962519e+001  1.353805e+002 
3418750000  -5.053239e+001  1.395257e+002 
3421875000  -5.109855e+001  1.463081e+002 
3425000000  -5.017025e+001  1.439611e+002 
3428125000  -5.007626e+001  1.360538e+002 
3431250000  -4.994642e+001  1.279491e+002 
3434375000  -5.171289e+001  1.293455e+002 
3437500000  -5.296296e+001  1.281053e+002 
3440625000  -5.214851e+001  1.243976e+002 
3443750000  -5.105690e+001  1.286487e+002 
3446875000  -5.070572e+001  1.237154e+002 
3450000000  -5.013279e+001  1.128543e+002 
3453125000  -5.047415e+001  1.003148e+002 
3456250000  -5.280480e+001  1.023142e+002 
3459375000  -5.295875e+001  1.134186e+002 
3462500000  -5.296500e+001  1.089140e+002 
3465625000  -5.140007e+001  1.011343e+002 
3468750000  -5.279794e+001  1.040422e+002 
3471875000  -5.214362e+001  1.003468e+002 
3475000000  -5.080243e+001  9.739703e+001 
3478125000  -5.110683e+001  8.988336e+001 
3481250000  -5.135599e+001  8.672024e+001 
3484375000  -5.320416e+001  8.592062e+001 
3487500000  -5.151578e+001  8.481747e+001 
3490625000  -4.975976e+001  7.611347e+001 
3493750000  -5.128415e+001  6.859364e+001 
3496875000  -5.115255e+001  7.650253e+001 
3500000000  -5.140674e+001  7.520621e+001 
3503125000  -5.081506e+001  6.329589e+001 
3506250000  -4.990237e+001  6.003805e+001 
3509375000  -4.921519e+001  5.431429e+001 
3512500000  -4.984961e+001  3.301589e+001 
3515625000  -5.082825e+001  3.313871e+001 
3518750000  -5.189682e+001  3.310582e+001 
3521875000  -5.219460e+001  3.041445e+001 
3525000000  -5.322699e+001  1.879111e+001 
3528125000  -5.196753e+001  2.084205e+001 
3531250000  -5.167894e+001  2.071542e+001 
3534375000  -5.229060e+001  2.166921e+000 
3537500000  -5.304291e+001  -3.578808e+000 
3540625000  -5.440063e+001  -5.122482e+000 
3543750000  -5.349950e+001  -1.500377e+000 
3546875000  -5.590350e+001  1.575916e+001 
3550000000  -5.339997e+001  3.818674e+000 
3553125000  -5.293042e+001  -1.214624e+001 
3556250000  -5.378749e+001  -5.795393e+000 
3559375000  -5.682252e+001  -9.751919e+000 
3562500000  -5.610173e+001  -2.499057e+001 
3565625000  -5.690526e+001  -1.958894e+001 
3568750000  -5.614799e+001  -2.811948e+001 
3571875000  -5.772675e+001  -1.751530e+001 
3575000000  -5.776343e+001  -1.585719e+001 
3578125000  -5.878765e+001  -2.065081e+001 
3581250000  -5.789672e+001  -2.319454e+001 
3584375000  -6.005018e+001  -2.817268e+001 
3587500000  -5.822097e+001  -3.110282e+001 
3590625000  -5.840834e+001  -2.680206e+001 
3593750000  -5.871468e+001  -3.366755e+001 
3596875000  -5.914820e+001  -1.871238e+001 
3600000000  -5.712320e+001  -2.230765e+001 
3603125000  -5.786276e+001  -4.214337e+001 
3606250000  -5.659053e+001  -3.052087e+001 
3609375000  -5.679171e+001  -2.363876e+001 
3612500000  -5.699673e+001  -3.496903e+001 
3615625000  -5.741636e+001  -3.196949e+001 
3618750000  -5.801921e+001  -1.891807e+001 
3621875000  -5.561862e+001  -3.023658e+001 
3625000000  -5.638195e+001  -3.065554e+001 
3628125000  -5.672450e+001  -2.959764e+001 
3631250000  -5.673526e+001  -2.941934e+001 
3634375000  -5.640190e+001  -2.475352e+001 
3637500000  -5.590837e+001  -2.846685e+001 
3640625000  -5.429942e+001  -1.026916e+001 
3643750000  -5.327596e+001  -2.519463e+001 
3646875000  -5.253848e+001  -3.719135e+001 
3650000000  -5.284179e+001  -4.186141e+001 
3653125000  -5.241017e+001  -4.173554e+001 
3656250000  -5.195871e+001  -4.120529e+001 
3659375000  -5.183364e+001  -4.824572e+001 
3662500000  -5.096673e+001  -4.814681e+001 
3665625000  -5.061225e+001  -5.094289e+001 
3668750000  -4.846845e+001  -5.091755e+001 
3671875000  -4.775330e+001  -6.341185e+001 
3675000000  -4.795102e+001  -7.085556e+001 
3678125000  -4.807164e+001  -7.638678e+001 
3681250000  -4.673942e+001  -7.899362e+001 
3684375000  -4.677873e+001  -8.408179e+001 
3687500000  -4.648351e+001  -8.914639e+001 
3690625000  -4.692172e+001  -9.609861e+001 
3693750000  -4.698473e+001  -9.334424e+001 
3696875000  -4.648957e+001  -9.712732e+001 
3700000000  -4.554831e+001  -1.040457e+002 
3703125000  -4.609275e+001  -1.081896e+002 
3706250000  -4.590491e+001  -1.099314e+002 
3709375000  -4.528102e+001  -1.095208e+002 
3712500000  -4.377938e+001  -1.167332e+002 
3715625000  -4.229581e+001  -1.253189e+002 
3718750000  -4.204520e+001  -1.313110e+002 
3721875000  -4.151818e+001  -1.413003e+002 
3725000000  -4.191306e+001  -1.485024e+002 
3728125000  -4.174041e+001  -1.509724e+002 
3731250000  -4.093903e+001  -1.549962e+002 
3734375000  -4.022665e+001  -1.631570e+002 
3737500000  -4.087310e+001  -1.730659e+002 
3740625000  -4.102289e+001  1.797932e+002 
3743750000  -4.048891e+001  1.764391e+002 
3746875000  -4.057470e+001  1.679838e+002 
3750000000  -4.107291e+001  1.638648e+002 
3753125000  -4.092742e+001  1.594009e+002 
3756250000  -4.087292e+001  1.560283e+002 
3759375000  -4.061364e+001  1.516882e+002 
3762500000  -3.998486e+001  1.444649e+002 
3765625000  -4.055822e+001  1.401937e+002 
3768750000  -4.034010e+001  1.399571e+002 
3771875000  -3.873163e+001  1.322024e+002 
3775000000  -3.859909e+001  1.213804e+002 
3778125000  -3.902168e+001  1.153728e+002 
3781250000  -3.895744e+001  1.114851e+002 
3784375000  -3.902550e+001  1.068344e+002 
3787500000  -3.835430e+001  9.884852e+001 
3790625000  -3.905023e+001  8.892154e+001 
3793750000  -3.912712e+001  8.670506e+001 
3796875000  -3.844788e+001  8.383368e+001 
3800000000  -3.656553e+001  7.969721e+001 
3803125000  -3.823863e+001  6.538846e+001 
3806250000  -3.918805e+001  5.964150e+001 
3809375000  -3.870486e+001  5.595905e+001 
3812500000  -3.848359e+001  4.752761e+001 
3815625000  -3.946634e+001  3.825040e+001 
3818750000  -4.079840e+001  3.917661e+001 
3821875000  -4.065514e+001  4.796948e+001 
3825000000  -3.862833e+001  4.417968e+001 
3828125000  -3.731122e+001  2.724035e+001 
3831250000  -3.817517e+001  1.372188e+001 
3834375000  -4.052591e+001  1.235675e+001 
3837500000  -4.059209e+001  1.557774e+001 
3840625000  -3.929641e+001  1.228845e+001 
3843750000  -3.850463e+001  -1.400016e-001 
3846875000  -3.994495e+001  -9.461340e+000 
3850000000  -4.077659e+001  -3.135760e+000 
3853125000  -4.016988e+001  -2.354037e+000 
3856250000  -3.971928e+001  -1.120150e+001 
3859375000  -3.885529e+001  -1.641904e+001 
3862500000  -3.854267e+001  -2.760482e+001 
3865625000  -3.910844e+001  -3.234104e+001 
3868750000  -3.904932e+001  -3.368049e+001 
3871875000  -3.800270e+001  -4.072585e+001 
3875000000  -3.884689e+001  -5.141029e+001 
3878125000  -3.971031e+001  -5.326057e+001 
3881250000  -3.946466e+001  -5.385325e+001 
3884375000  -3.888782e+001  -6.014230e+001 
3887500000  -3.920924e+001  -6.539689e+001 
3890625000  -3.955864e+001  -7.162679e+001 
3893750000  -4.004497e+001  -7.373240e+001 
3896875000  -4.024273e+001  -7.394644e+001 
3900000000  -4.009042e+001  -7.891768e+001 
3903125000  -3.961602e+001  -8.206316e+001 
3906250000  -3.911105e+001  -8.660896e+001 
3909375000  -3.828967e+001  -9.544269e+001 
3912500000  -3.894910e+001  -1.050080e+002 
3915625000  -4.030914e+001  -1.047528e+002 
3918750000  -4.003174e+001  -1.063751e+002 
3921875000  -3.932793e+001  -1.102201e+002 
3925000000  -3.854248e+001  -1.167593e+002 
3928125000  -3.833261e+001  -1.256112e+002 
3931250000  -3.917674e+001  -1.322630e+002 
3934375000  -3.963122e+001  -1.327860e+002 
3937500000  -3.996479e+001  -1.369290e+002 
3940625000  -4.013329e+001  -1.383939e+002 
3943750000  -3.892374e+001  -1.408881e+002 
3946875000  -3.834125e+001  -1.506315e+002 
3950000000  -3.935735e+001  -1.589296e+002 
3953125000  -4.030451e+001  -1.575288e+002 
3956250000  -3.916145e+001  -1.591953e+002 
3959375000  -3.772139e+001  -1.655134e+002 
3962500000  -3.767010e+001  -1.739877e+002 
3965625000  -3.785255e+001  1.771246e+002 
3968750000  -3.869927e+001  1.691118e+002 
3971875000  -3.890057e+001  1.649716e+002 
3975000000  -3.855377e+001  1.613901e+002 
3978125000  -3.875446e+001  1.559783e+002 
3981250000  -3.858594e+001  1.503431e+002 
3984375000  -3.931337e+001  1.407528e+002 
3987500000  -4.020049e+001  1.380243e+002 
3990625000  -3.997475e+001  1.371311e+002 
3993750000  -4.022182e+001  1.344573e+002 
3996875000  -4.006374e+001  1.271465e+002 
4000000000  -4.088865e+001  1.235356e+002 
4003125000  -4.138262e+001  1.261741e+002 
4006250000  -3.962371e+001  1.226565e+002 
4009375000  -3.891718e+001  1.087668e+002 
4012500000  -4.004843e+001  1.013668e+002 
4015625000  -4.161706e+001  1.001346e+002 
4018750000  -4.156674e+001  1.010017e+002 
4021875000  -4.107906e+001  9.764207e+001 
4025000000  -4.064692e+001  9.295354e+001 
4028125000  -4.066419e+001  8.448313e+001 
4031250000  -4.138724e+001  8.306657e+001 
4034375000  -4.164673e+001  8.070228e+001 
4037500000  -4.111812e+001  8.097474e+001 
4040625000  -4.128529e+001  7.711617e+001 
4043750000  -4.122310e+001  7.484215e+001 
4046875000  -4.084335e+001  7.027614e+001 
4050000000  -4.019234e+001  6.418606e+001 
4053125000  -4.124966e+001  6.235043e+001 
4056250000  -4.140904e+001  6.802126e+001 
4059375000  -3.920803e+001  6.430014e+001 
4062500000  -3.865065e+001  5.610851e+001 
4065625000  -3.855981e+001  5.235110e+001 
4068750000  -3.811549e+001  4.384557e+001 
4071875000  -3.751050e+001  3.430373e+001 
4075000000  -3.829461e+001  2.529855e+001 
4078125000  -3.868999e+001  2.308115e+001 
4081250000  -3.817646e+001  1.760653e+001 
4084375000  -3.783691e+001  1.066522e+001 
4087500000  -3.834788e+001  2.701965e+000 
4090625000  -3.899684e+001  2.272525e-001 
4093750000  -3.869682e+001  -1.792134e+000 
4096875000  -3.851448e+001  -1.183390e+001 
4100000000  -3.929929e+001  -1.891924e+001 
4103125000  -4.017751e+001  -1.920088e+001 
4106250000  -3.960089e+001  -1.413052e+001 
4109375000  -3.879755e+001  -1.598858e+001 
4112500000  -3.831947e+001  -2.752608e+001 
4115625000  -3.881991e+001  -3.404695e+001 
4118750000  -3.917677e+001  -3.875234e+001 
4121875000  -3.871021e+001  -4.543890e+001 
4125000000  -3.951831e+001  -5.166758e+001 
4128125000  -4.023554e+001  -4.991109e+001 
4131250000  -3.964311e+001  -4.587464e+001 
4134375000  -3.732492e+001  -5.440052e+001 
4137500000  -3.779435e+001  -7.372029e+001 
4140625000  -4.006483e+001  -8.437449e+001 
4143750000  -4.104752e+001  -7.727190e+001 
4146875000  -4.042394e+001  -7.237508e+001 
4150000000  -3.952685e+001  -7.900128e+001 
4153125000  -3.976617e+001  -8.736806e+001 
4156250000  -4.067151e+001  -9.254225e+001 
4159375000  -4.076425e+001  -8.676262e+001 
4162500000  -3.985283e+001  -8.514646e+001 
4165625000  -3.829137e+001  -9.071614e+001 
4168750000  -3.819085e+001  -1.008736e+002 
4171875000  -3.808103e+001  -1.105115e+002 
4175000000  -3.899925e+001  -1.167577e+002 
4178125000  -3.921195e+001  -1.203579e+002 
4181250000  -3.913189e+001  -1.218394e+002 
4184375000  -3.914480e+001  -1.284503e+002 
4187500000  -3.905175e+001  -1.309175e+002 
4190625000  -3.909007e+001  -1.399288e+002 
4193750000  -4.007592e+001  -1.453518e+002 
4196875000  -4.066784e+001  -1.445729e+002 
4200000000  -4.217178e+001  -1.405132e+002 
4203125000  -4.068613e+001  -1.284663e+002 
4206250000  -3.698724e+001  -1.364942e+002 
4209375000  -3.704349e+001  -1.582430e+002 
4212500000  -3.911953e+001  -1.668129e+002 
4215625000  -3.942863e+001  -1.601837e+002 
4218750000  -3.780779e+001  -1.572215e+002 
4221875000  -3.624654e+001  -1.692806e+002 
4225000000  -3.752014e+001  1.796847e+002 
4228125000  -3.746297e+001  -1.790582e+002 
4231250000  -3.598869e+001  1.747144e+002 
4234375000  -3.625500e+001  1.634831e+002 
4237500000  -3.614887e+001  1.568002e+002 
4240625000  -3.606134e+001  1.448649e+002 
4243750000  -3.700331e+001  1.392136e+002 
4246875000  -3.815419e+001  1.378535e+002 
4250000000  -3.785601e+001  1.362101e+002 
4253125000  -3.740868e+001  1.338556e+002 
4256250000  -3.740090e+001  1.294451e+002 
4259375000  -3.724908e+001  1.244052e+002 
4262500000  -3.725567e+001  1.168635e+002 
4265625000  -3.756440e+001  1.186702e+002 
4268750000  -3.683280e+001  1.086661e+002 
4271875000  -3.632643e+001  1.005184e+002 
4275000000  -3.595199e+001  9.099146e+001 
4278125000  -3.676139e+001  7.892524e+001 
4281250000  -3.849682e+001  7.544361e+001 
4284375000  -3.809223e+001  7.471047e+001 
4287500000  -3.971236e+001  7.066094e+001 
4290625000  -4.038382e+001  7.833884e+001 
4293750000  -3.835666e+001  8.026282e+001 
4296875000  -3.710235e+001  6.772575e+001 
4300000000  -3.834930e+001  5.759970e+001 
4303125000  -3.914044e+001  6.136820e+001 
4306250000  -3.837118e+001  6.257215e+001 
4309375000  -3.706636e+001  5.659177e+001 
4312500000  -3.726053e+001  4.599852e+001 
4315625000  -3.736439e+001  3.872283e+001 
4318750000  -3.833946e+001  3.342322e+001 
4321875000  -3.825852e+001  3.563122e+001 
4325000000  -3.766253e+001  3.226941e+001 
4328125000  -3.697412e+001  2.410141e+001 
4331250000  -3.716348e+001  1.391134e+001 
4334375000  -3.786478e+001  7.564827e+000 
4337500000  -3.910925e+001  6.324241e+000 
4340625000  -3.901989e+001  9.986515e+000 
4343750000  -3.814083e+001  7.706131e+000 
4346875000  -3.781371e+001  -7.996373e-001 
4350000000  -3.777570e+001  -9.019411e+000 
4353125000  -3.827951e+001  -1.815145e+001 
4356250000  -4.043319e+001  -1.585854e+001 
4359375000  -3.969101e+001  -8.894964e-001 
4362500000  -3.636147e+001  -5.568024e+000 
4365625000  -3.539043e+001  -2.412310e+001 
4368750000  -3.652736e+001  -3.614604e+001 
4371875000  -3.727649e+001  -3.393745e+001 
4375000000  -3.714296e+001  -3.834383e+001 
4378125000  -3.667086e+001  -4.521993e+001 
4381250000  -3.663758e+001  -5.240180e+001 
4384375000  -3.657791e+001  -5.989320e+001 
4387500000  -3.759936e+001  -6.643998e+001 
4390625000  -3.812831e+001  -6.613700e+001 
4393750000  -3.750415e+001  -6.608414e+001 
4396875000  -3.679001e+001  -7.368877e+001 
4400000000  -3.632072e+001  -8.199299e+001 
4403125000  -3.729774e+001  -9.076931e+001 
4406250000  -3.782302e+001  -9.534267e+001 
4409375000  -3.790762e+001  -1.004126e+002 
4412500000  -3.899908e+001  -1.016259e+002 
4415625000  -3.878757e+001  -9.760780e+001 
