!Agilent Technologies,E8363B,MY43030201,A.06.04.32
!Agilent E8363B: A.06.04.32
!Date: Tuesday, November 11, 2014 21:26:52
!Correction: S21(Response(S21)) 
!S1P File: Measurement: S21:
# Hz S  dB   R 50
3000000000  -4.053333e+001  9.474075e+001 
3003125000  -4.234811e+001  8.710384e+001 
3006250000  -4.205240e+001  8.545817e+001 
3009375000  -4.264024e+001  8.963140e+001 
3012500000  -4.169854e+001  8.644133e+001 
3015625000  -4.145227e+001  7.978236e+001 
3018750000  -4.203119e+001  7.959660e+001 
3021875000  -4.025083e+001  7.978542e+001 
3025000000  -3.908689e+001  7.648024e+001 
3028125000  -3.795811e+001  6.772318e+001 
3031250000  -3.708521e+001  5.487268e+001 
3034375000  -3.679235e+001  4.140277e+001 
3037500000  -3.755205e+001  3.061800e+001 
3040625000  -3.882428e+001  2.497864e+001 
3043750000  -3.915754e+001  1.815305e+001 
3046875000  -3.953149e+001  1.287072e+001 
3050000000  -4.081114e+001  5.694860e+000 
3053125000  -4.062354e+001  1.237817e+001 
3056250000  -4.037608e+001  1.566135e+001 
3059375000  -4.001344e+001  1.293157e+001 
3062500000  -3.839545e+001  8.463326e+000 
3065625000  -3.814466e+001  -2.443548e+000 
3068750000  -3.767204e+001  -9.637731e+000 
3071875000  -3.772605e+001  -1.153204e+001 
3075000000  -3.707803e+001  -1.758944e+001 
3078125000  -3.702414e+001  -2.360806e+001 
3081250000  -3.744101e+001  -2.941882e+001 
3084375000  -3.643974e+001  -3.464507e+001 
3087500000  -3.647710e+001  -4.078151e+001 
3090625000  -3.587983e+001  -5.287126e+001 
3093750000  -3.679705e+001  -6.078566e+001 
3096875000  -3.733057e+001  -6.716275e+001 
3100000000  -3.732582e+001  -7.006855e+001 
3103125000  -3.756092e+001  -7.343987e+001 
3106250000  -3.717594e+001  -7.809666e+001 
3109375000  -3.714904e+001  -8.334508e+001 
3112500000  -3.724084e+001  -8.797427e+001 
3115625000  -3.717214e+001  -9.250414e+001 
3118750000  -3.733482e+001  -9.518935e+001 
3121875000  -3.646407e+001  -1.062282e+002 
3125000000  -3.832058e+001  -1.096546e+002 
3128125000  -3.865087e+001  -1.038117e+002 
3131250000  -3.612030e+001  -1.085739e+002 
3134375000  -3.532509e+001  -1.254298e+002 
3137500000  -3.616891e+001  -1.387390e+002 
3140625000  -3.734372e+001  -1.410808e+002 
3143750000  -3.837658e+001  -1.434215e+002 
3146875000  -3.783946e+001  -1.411085e+002 
3150000000  -3.692319e+001  -1.442755e+002 
3153125000  -3.728942e+001  -1.524777e+002 
3156250000  -3.809284e+001  -1.498475e+002 
3159375000  -3.595675e+001  -1.500014e+002 
3162500000  -3.431704e+001  -1.658971e+002 
3165625000  -3.548179e+001  -1.784983e+002 
3168750000  -3.548073e+001  1.797672e+002 
3171875000  -3.488903e+001  1.728579e+002 
3175000000  -3.562781e+001  1.635530e+002 
3178125000  -3.518348e+001  1.635289e+002 
3181250000  -3.444753e+001  1.543602e+002 
3184375000  -3.402558e+001  1.423012e+002 
3187500000  -3.529931e+001  1.273896e+002 
3190625000  -3.732853e+001  1.202012e+002 
3193750000  -3.754327e+001  1.260913e+002 
3196875000  -3.737918e+001  1.279743e+002 
3200000000  -3.644512e+001  1.226241e+002 
3203125000  -3.590933e+001  1.152019e+002 
3206250000  -3.618069e+001  1.079190e+002 
3209375000  -3.586856e+001  9.960475e+001 
3212500000  -3.619581e+001  9.274814e+001 
3215625000  -3.607305e+001  8.890365e+001 
3218750000  -3.679829e+001  7.827850e+001 
3221875000  -3.744303e+001  7.235794e+001 
3225000000  -3.712792e+001  6.859388e+001 
3228125000  -3.778936e+001  6.186893e+001 
3231250000  -3.834347e+001  5.865112e+001 
3234375000  -3.806669e+001  5.587828e+001 
3237500000  -3.808011e+001  5.150603e+001 
3240625000  -3.765594e+001  4.614293e+001 
3243750000  -3.765529e+001  3.633362e+001 
3246875000  -3.833822e+001  2.905579e+001 
3250000000  -3.870355e+001  2.617619e+001 
3253125000  -3.893787e+001  2.289595e+001 
3256250000  -3.874061e+001  1.391073e+001 
3259375000  -3.915666e+001  3.712452e+000 
3262500000  -4.070560e+001  -7.080238e-001 
3265625000  -4.126266e+001  2.682947e+000 
3268750000  -4.126834e+001  3.394255e+000 
3271875000  -4.100209e+001  4.242254e-001 
3275000000  -4.031006e+001  -7.775852e+000 
3278125000  -4.094089e+001  -1.363910e+001 
3281250000  -4.108022e+001  -1.507161e+001 
3284375000  -4.052704e+001  -2.109769e+001 
3287500000  -4.092721e+001  -2.408970e+001 
3290625000  -4.126905e+001  -3.293282e+001 
3293750000  -4.119648e+001  -3.750809e+001 
3296875000  -4.233073e+001  -3.907922e+001 
3300000000  -4.180169e+001  -3.960484e+001 
3303125000  -4.104732e+001  -4.606720e+001 
3306250000  -4.096420e+001  -5.364783e+001 
3309375000  -4.040470e+001  -5.984397e+001 
3312500000  -4.084197e+001  -7.219527e+001 
3315625000  -4.199828e+001  -8.044193e+001 
3318750000  -4.310003e+001  -8.374005e+001 
3321875000  -4.488240e+001  -8.360593e+001 
3325000000  -4.492554e+001  -7.340752e+001 
3328125000  -4.402459e+001  -7.493287e+001 
3331250000  -4.244582e+001  -7.034224e+001 
3334375000  -3.974089e+001  -8.570352e+001 
3337500000  -4.058121e+001  -1.054422e+002 
3340625000  -4.214975e+001  -1.168311e+002 
3343750000  -4.411864e+001  -1.154708e+002 
3346875000  -4.357204e+001  -1.164657e+002 
3350000000  -4.295461e+001  -1.193320e+002 
3353125000  -4.298248e+001  -1.258057e+002 
3356250000  -4.247232e+001  -1.350676e+002 
3359375000  -4.323307e+001  -1.452992e+002 
3362500000  -4.435298e+001  -1.507762e+002 
3365625000  -4.458936e+001  -1.536205e+002 
3368750000  -4.540077e+001  -1.581737e+002 
3371875000  -4.566944e+001  -1.642062e+002 
3375000000  -4.730330e+001  -1.673586e+002 
3378125000  -4.864778e+001  -1.689544e+002 
3381250000  -4.971884e+001  -1.568666e+002 
3384375000  -4.688306e+001  -1.442643e+002 
3387500000  -4.367201e+001  -1.627349e+002 
3390625000  -4.608609e+001  1.752768e+002 
3393750000  -4.734956e+001  1.775912e+002 
3396875000  -4.633258e+001  1.763113e+002 
3400000000  -4.618127e+001  1.663697e+002 
3403125000  -4.692041e+001  1.629484e+002 
3406250000  -4.744494e+001  1.542735e+002 
3409375000  -4.750078e+001  1.542160e+002 
3412500000  -4.869143e+001  1.421939e+002 
3415625000  -4.956008e+001  1.417814e+002 
3418750000  -5.028028e+001  1.418980e+002 
3421875000  -5.141888e+001  1.481923e+002 
3425000000  -5.023099e+001  1.438641e+002 
3428125000  -4.971287e+001  1.403414e+002 
3431250000  -4.977390e+001  1.294622e+002 
3434375000  -5.069856e+001  1.284145e+002 
3437500000  -5.172555e+001  1.260543e+002 
3440625000  -5.222773e+001  1.270455e+002 
3443750000  -5.006109e+001  1.308936e+002 
3446875000  -5.006963e+001  1.215515e+002 
3450000000  -5.019212e+001  1.149139e+002 
3453125000  -5.058308e+001  1.103472e+002 
3456250000  -5.118009e+001  1.100305e+002 
3459375000  -5.289062e+001  1.121897e+002 
3462500000  -5.212267e+001  1.159227e+002 
3465625000  -5.121783e+001  1.039407e+002 
3468750000  -5.197707e+001  1.040802e+002 
3471875000  -5.098038e+001  1.016533e+002 
3475000000  -5.085032e+001  9.460268e+001 
3478125000  -5.070921e+001  8.513296e+001 
3481250000  -5.243999e+001  9.492165e+001 
3484375000  -5.268459e+001  9.367119e+001 
3487500000  -5.163290e+001  8.532030e+001 
3490625000  -5.032451e+001  7.657478e+001 
3493750000  -5.214275e+001  7.131849e+001 
3496875000  -5.018626e+001  7.502222e+001 
3500000000  -5.227037e+001  7.219459e+001 
3503125000  -5.193965e+001  7.083132e+001 
3506250000  -4.980875e+001  6.743205e+001 
3509375000  -4.946762e+001  5.377271e+001 
3512500000  -5.063194e+001  3.438284e+001 
3515625000  -5.122208e+001  3.561874e+001 
3518750000  -5.159705e+001  3.486732e+001 
3521875000  -5.266862e+001  2.672450e+001 
3525000000  -5.274993e+001  2.339154e+001 
3528125000  -5.215524e+001  3.037023e+001 
3531250000  -5.121498e+001  2.756865e+001 
3534375000  -5.223943e+001  1.109895e+001 
3537500000  -5.299214e+001  -4.769467e+000 
3540625000  -5.274446e+001  1.338435e+000 
3543750000  -5.450042e+001  9.806939e+000 
3546875000  -5.521064e+001  1.239832e+001 
3550000000  -5.372440e+001  6.614497e+000 
3553125000  -5.323614e+001  -1.523297e+001 
3556250000  -5.393797e+001  -1.298343e+001 
3559375000  -5.508541e+001  -1.086698e+001 
3562500000  -5.549966e+001  -2.391432e+001 
3565625000  -5.725786e+001  -2.286777e+001 
3568750000  -5.666198e+001  -1.519408e+001 
3571875000  -5.728144e+001  -2.734763e+001 
3575000000  -5.646824e+001  -1.431718e+001 
3578125000  -5.666348e+001  -3.157472e+001 
3581250000  -5.720219e+001  -2.820524e+001 
3584375000  -5.868109e+001  -1.368078e+001 
3587500000  -5.784655e+001  -2.959828e+001 
3590625000  -5.817435e+001  -4.789751e+001 
3593750000  -6.098804e+001  -2.218920e+001 
3596875000  -5.735087e+001  -1.824479e+001 
3600000000  -5.645437e+001  -1.388316e+001 
3603125000  -5.836966e+001  -4.456164e+001 
3606250000  -5.861759e+001  -2.414158e+001 
3609375000  -5.734665e+001  -3.278058e+001 
3612500000  -5.863029e+001  -3.512023e+001 
3615625000  -5.808024e+001  -3.797624e+001 
3618750000  -5.938618e+001  -1.179778e+001 
3621875000  -5.806520e+001  -2.438293e+001 
3625000000  -5.856453e+001  -1.484562e+001 
3628125000  -5.806985e+001  -1.940705e+001 
3631250000  -5.697161e+001  -2.724723e+001 
3634375000  -5.740475e+001  -2.736164e+001 
3637500000  -5.715133e+001  -2.392834e+001 
3640625000  -5.681718e+001  -1.452184e+001 
3643750000  -5.294154e+001  -2.879973e+001 
3646875000  -5.372575e+001  -4.200621e+001 
3650000000  -5.339391e+001  -4.238090e+001 
3653125000  -5.181876e+001  -4.181681e+001 
3656250000  -5.194812e+001  -4.213471e+001 
3659375000  -5.167884e+001  -4.018847e+001 
3662500000  -5.130104e+001  -4.750940e+001 
3665625000  -5.041268e+001  -5.028894e+001 
3668750000  -4.819660e+001  -5.070516e+001 
3671875000  -4.741699e+001  -6.192416e+001 
3675000000  -4.783369e+001  -6.874524e+001 
3678125000  -4.733781e+001  -7.419060e+001 
3681250000  -4.713638e+001  -7.582227e+001 
3684375000  -4.691629e+001  -8.310047e+001 
3687500000  -4.686695e+001  -8.564375e+001 
3690625000  -4.664631e+001  -9.494183e+001 
3693750000  -4.708307e+001  -9.329494e+001 
3696875000  -4.638700e+001  -9.183904e+001 
3700000000  -4.548786e+001  -1.000805e+002 
3703125000  -4.548683e+001  -1.034101e+002 
3706250000  -4.613092e+001  -1.082969e+002 
3709375000  -4.504487e+001  -1.094520e+002 
3712500000  -4.404158e+001  -1.122762e+002 
3715625000  -4.219209e+001  -1.223971e+002 
3718750000  -4.204432e+001  -1.268079e+002 
3721875000  -4.161413e+001  -1.371825e+002 
3725000000  -4.174004e+001  -1.447189e+002 
3728125000  -4.152018e+001  -1.479463e+002 
3731250000  -4.101177e+001  -1.523927e+002 
3734375000  -4.041031e+001  -1.606619e+002 
3737500000  -4.106125e+001  -1.698776e+002 
3740625000  -4.095768e+001  -1.753050e+002 
3743750000  -4.028214e+001  1.793424e+002 
3746875000  -4.087332e+001  1.709308e+002 
3750000000  -4.114460e+001  1.667291e+002 
3753125000  -4.078783e+001  1.647361e+002 
3756250000  -4.097661e+001  1.611387e+002 
3759375000  -4.031761e+001  1.544649e+002 
3762500000  -4.011304e+001  1.480992e+002 
3765625000  -4.071810e+001  1.435283e+002 
3768750000  -4.030681e+001  1.446963e+002 
3771875000  -3.878043e+001  1.376939e+002 
3775000000  -3.839893e+001  1.250422e+002 
3778125000  -3.920963e+001  1.185338e+002 
3781250000  -3.915126e+001  1.152936e+002 
3784375000  -3.891282e+001  1.094364e+002 
3787500000  -3.840443e+001  1.028690e+002 
3790625000  -3.928053e+001  9.297396e+001 
3793750000  -3.936527e+001  8.939262e+001 
3796875000  -3.810223e+001  8.667930e+001 
3800000000  -3.652498e+001  8.264130e+001 
3803125000  -3.804871e+001  6.807959e+001 
3806250000  -3.884390e+001  6.533264e+001 
3809375000  -3.856801e+001  6.134560e+001 
3812500000  -3.848412e+001  5.210674e+001 
3815625000  -3.945473e+001  4.070159e+001 
3818750000  -4.059053e+001  4.374419e+001 
3821875000  -4.031283e+001  5.172440e+001 
3825000000  -3.819572e+001  5.059835e+001 
3828125000  -3.714412e+001  3.187492e+001 
3831250000  -3.803949e+001  1.635363e+001 
3834375000  -4.050962e+001  1.570249e+001 
3837500000  -4.068541e+001  1.705782e+001 
3840625000  -3.934746e+001  1.607290e+001 
3843750000  -3.839397e+001  2.453643e+000 
3846875000  -3.969236e+001  -4.163901e+000 
3850000000  -4.070934e+001  -6.449096e-001 
3853125000  -4.010655e+001  1.900902e+000 
3856250000  -3.994189e+001  -7.672201e+000 
3859375000  -3.905265e+001  -1.401230e+001 
3862500000  -3.883099e+001  -2.256247e+001 
3865625000  -3.916638e+001  -2.822276e+001 
3868750000  -3.904652e+001  -2.932241e+001 
3871875000  -3.816941e+001  -3.525705e+001 
3875000000  -3.845907e+001  -4.559503e+001 
3878125000  -3.934919e+001  -4.966422e+001 
3881250000  -3.917626e+001  -4.881394e+001 
3884375000  -3.887268e+001  -5.598679e+001 
3887500000  -3.910178e+001  -6.140331e+001 
3890625000  -3.946862e+001  -6.793653e+001 
3893750000  -3.982887e+001  -6.985086e+001 
3896875000  -3.988606e+001  -7.377575e+001 
3900000000  -3.999657e+001  -7.599155e+001 
3903125000  -3.921780e+001  -8.029620e+001 
3906250000  -3.889480e+001  -8.257877e+001 
3909375000  -3.826312e+001  -9.116224e+001 
3912500000  -3.890620e+001  -1.006338e+002 
3915625000  -4.040708e+001  -1.017446e+002 
3918750000  -4.005272e+001  -1.032319e+002 
3921875000  -3.930938e+001  -1.063106e+002 
3925000000  -3.874719e+001  -1.123539e+002 
3928125000  -3.827439e+001  -1.213548e+002 
3931250000  -3.900027e+001  -1.285677e+002 
3934375000  -3.953662e+001  -1.293923e+002 
3937500000  -3.948709e+001  -1.324007e+002 
3940625000  -3.989053e+001  -1.343994e+002 
3943750000  -3.887687e+001  -1.368319e+002 
3946875000  -3.837523e+001  -1.458097e+002 
3950000000  -3.944748e+001  -1.528894e+002 
3953125000  -4.003518e+001  -1.530483e+002 
3956250000  -3.872657e+001  -1.542011e+002 
3959375000  -3.802633e+001  -1.601998e+002 
3962500000  -3.759314e+001  -1.682278e+002 
3965625000  -3.758439e+001  -1.778582e+002 
3968750000  -3.872822e+001  1.729448e+002 
3971875000  -3.877180e+001  1.697736e+002 
3975000000  -3.834678e+001  1.652070e+002 
3978125000  -3.849626e+001  1.614109e+002 
3981250000  -3.849443e+001  1.549750e+002 
3984375000  -3.888229e+001  1.463292e+002 
3987500000  -3.969270e+001  1.421404e+002 
3990625000  -3.961874e+001  1.427978e+002 
3993750000  -4.004416e+001  1.347245e+002 
3996875000  -3.997426e+001  1.324276e+002 
4000000000  -4.057251e+001  1.255593e+002 
4003125000  -4.095990e+001  1.275655e+002 
4006250000  -3.931172e+001  1.282675e+002 
4009375000  -3.856231e+001  1.149267e+002 
4012500000  -3.992151e+001  1.049513e+002 
4015625000  -4.125490e+001  1.050636e+002 
4018750000  -4.142453e+001  1.053338e+002 
4021875000  -4.072758e+001  1.007337e+002 
4025000000  -4.035236e+001  9.688100e+001 
4028125000  -4.021577e+001  8.921250e+001 
4031250000  -4.134053e+001  8.438850e+001 
4034375000  -4.131654e+001  8.562375e+001 
4037500000  -4.095818e+001  8.287031e+001 
4040625000  -4.062608e+001  8.170583e+001 
4043750000  -4.105482e+001  7.785920e+001 
4046875000  -4.070955e+001  7.489423e+001 
4050000000  -4.020531e+001  6.898221e+001 
4053125000  -4.136882e+001  6.789134e+001 
4056250000  -4.131801e+001  7.010229e+001 
4059375000  -3.952156e+001  6.814567e+001 
4062500000  -3.869997e+001  6.090877e+001 
4065625000  -3.846926e+001  5.474496e+001 
4068750000  -3.820326e+001  4.930024e+001 
4071875000  -3.771443e+001  3.784208e+001 
4075000000  -3.823099e+001  3.124782e+001 
4078125000  -3.845323e+001  2.787790e+001 
4081250000  -3.800278e+001  2.224319e+001 
4084375000  -3.787152e+001  1.358651e+001 
4087500000  -3.819898e+001  5.627223e+000 
4090625000  -3.899389e+001  2.988621e+000 
4093750000  -3.856451e+001  1.936985e+000 
4096875000  -3.811581e+001  -7.816537e+000 
4100000000  -3.907383e+001  -1.634418e+001 
4103125000  -4.024344e+001  -1.561324e+001 
4106250000  -3.974260e+001  -1.206445e+001 
4109375000  -3.913381e+001  -1.432695e+001 
4112500000  -3.848405e+001  -2.445032e+001 
4115625000  -3.896093e+001  -3.045360e+001 
4118750000  -3.887896e+001  -3.527686e+001 
4121875000  -3.865465e+001  -4.033433e+001 
4125000000  -3.957338e+001  -4.876264e+001 
4128125000  -4.039485e+001  -4.538914e+001 
4131250000  -3.956499e+001  -3.939797e+001 
4134375000  -3.738691e+001  -5.024069e+001 
4137500000  -3.764311e+001  -6.976745e+001 
4140625000  -4.001421e+001  -7.745799e+001 
4143750000  -4.102945e+001  -7.238312e+001 
4146875000  -4.008400e+001  -6.786413e+001 
4150000000  -3.952974e+001  -7.455600e+001 
4153125000  -3.987062e+001  -8.377898e+001 
4156250000  -4.080000e+001  -8.801040e+001 
4159375000  -4.118550e+001  -8.308694e+001 
4162500000  -3.974041e+001  -8.155473e+001 
4165625000  -3.855775e+001  -8.702902e+001 
4168750000  -3.821181e+001  -9.568109e+001 
4171875000  -3.801915e+001  -1.066095e+002 
4175000000  -3.891478e+001  -1.146180e+002 
4178125000  -3.907917e+001  -1.150116e+002 
4181250000  -3.886509e+001  -1.193051e+002 
4184375000  -3.917239e+001  -1.238317e+002 
4187500000  -3.911478e+001  -1.277327e+002 
4190625000  -3.909992e+001  -1.367345e+002 
4193750000  -4.010651e+001  -1.413945e+002 
4196875000  -4.086106e+001  -1.428254e+002 
4200000000  -4.201428e+001  -1.381691e+002 
4203125000  -4.056678e+001  -1.250581e+002 
4206250000  -3.725402e+001  -1.315899e+002 
4209375000  -3.665985e+001  -1.555269e+002 
4212500000  -3.916998e+001  -1.652484e+002 
4215625000  -3.940239e+001  -1.565689e+002 
4218750000  -3.783458e+001  -1.538858e+002 
4221875000  -3.610761e+001  -1.651736e+002 
4225000000  -3.711300e+001  -1.786143e+002 
4228125000  -3.756376e+001  -1.772130e+002 
4231250000  -3.607125e+001  1.757040e+002 
4234375000  -3.590512e+001  1.657395e+002 
4237500000  -3.574711e+001  1.615399e+002 
4240625000  -3.575094e+001  1.492613e+002 
4243750000  -3.687996e+001  1.408958e+002 
4246875000  -3.794466e+001  1.407160e+002 
4250000000  -3.766785e+001  1.394028e+002 
4253125000  -3.732430e+001  1.370055e+002 
4256250000  -3.724080e+001  1.316085e+002 
4259375000  -3.705275e+001  1.268715e+002 
4262500000  -3.724693e+001  1.226299e+002 
4265625000  -3.761687e+001  1.197094e+002 
4268750000  -3.667819e+001  1.139707e+002 
4271875000  -3.638500e+001  1.027972e+002 
4275000000  -3.596374e+001  9.636926e+001 
4278125000  -3.694307e+001  8.305932e+001 
4281250000  -3.857626e+001  8.066612e+001 
4284375000  -3.842555e+001  7.665449e+001 
4287500000  -3.942484e+001  7.490079e+001 
4290625000  -4.034335e+001  8.170594e+001 
4293750000  -3.842870e+001  8.629313e+001 
4296875000  -3.735324e+001  7.198650e+001 
4300000000  -3.827797e+001  6.069508e+001 
4303125000  -3.916187e+001  6.305717e+001 
4306250000  -3.816039e+001  6.635018e+001 
4309375000  -3.736956e+001  6.136342e+001 
4312500000  -3.691998e+001  5.116995e+001 
4315625000  -3.748998e+001  4.234884e+001 
4318750000  -3.813134e+001  3.659351e+001 
4321875000  -3.812684e+001  3.884447e+001 
4325000000  -3.741924e+001  3.660214e+001 
4328125000  -3.680166e+001  2.708973e+001 
4331250000  -3.687193e+001  1.794250e+001 
4334375000  -3.771773e+001  1.120992e+001 
4337500000  -3.870908e+001  9.710608e+000 
4340625000  -3.935696e+001  1.217465e+001 
4343750000  -3.819986e+001  1.012112e+001 
4346875000  -3.774309e+001  8.296722e-001 
4350000000  -3.749414e+001  -4.596163e+000 
4353125000  -3.820962e+001  -1.260167e+001 
4356250000  -4.045478e+001  -1.193566e+001 
4359375000  -3.976783e+001  3.869503e+000 
4362500000  -3.654829e+001  -4.511231e+000 
4365625000  -3.550502e+001  -2.009793e+001 
4368750000  -3.651197e+001  -3.112313e+001 
4371875000  -3.724512e+001  -3.066592e+001 
4375000000  -3.715313e+001  -3.500951e+001 
4378125000  -3.644489e+001  -4.223924e+001 
4381250000  -3.647051e+001  -4.997269e+001 
4384375000  -3.644968e+001  -5.757148e+001 
4387500000  -3.762320e+001  -6.350134e+001 
4390625000  -3.802201e+001  -6.345699e+001 
4393750000  -3.725900e+001  -6.495512e+001 
4396875000  -3.689946e+001  -6.816586e+001 
4400000000  -3.621812e+001  -7.841248e+001 
4403125000  -3.725845e+001  -8.754578e+001 
4406250000  -3.760894e+001  -9.024532e+001 
4409375000  -3.789525e+001  -9.501934e+001 
4412500000  -3.892858e+001  -9.926868e+001 
4415625000  -3.894735e+001  -9.400642e+001 
