!Agilent Technologies,E8363B,MY43030201,A.06.04.32
!Agilent E8363B: A.06.04.32
!Date: Tuesday, November 11, 2014 21:28:43
!Correction: S21(Response(S21)) 
!S1P File: Measurement: S21:
# Hz S  dB   R 50
3000000000  -4.048668e+001  8.878403e+001 
3003125000  -4.217527e+001  8.167904e+001 
3006250000  -4.221763e+001  7.972441e+001 
3009375000  -4.265991e+001  8.561891e+001 
3012500000  -4.161097e+001  8.017372e+001 
3015625000  -4.144518e+001  7.339864e+001 
3018750000  -4.197353e+001  7.431019e+001 
3021875000  -4.027152e+001  7.546238e+001 
3025000000  -3.894226e+001  7.002683e+001 
3028125000  -3.796006e+001  6.215271e+001 
3031250000  -3.717414e+001  4.928057e+001 
3034375000  -3.673811e+001  3.640324e+001 
3037500000  -3.751540e+001  2.487019e+001 
3040625000  -3.873569e+001  1.877512e+001 
3043750000  -3.919173e+001  1.350900e+001 
3046875000  -3.978198e+001  7.004759e+000 
3050000000  -4.075047e+001  1.585212e+000 
3053125000  -4.055109e+001  6.965708e+000 
3056250000  -4.049464e+001  9.200228e+000 
3059375000  -3.999164e+001  7.206600e+000 
3062500000  -3.831123e+001  2.929491e+000 
3065625000  -3.779667e+001  -5.721973e+000 
3068750000  -3.763038e+001  -1.398572e+001 
3071875000  -3.765944e+001  -1.680977e+001 
3075000000  -3.717927e+001  -2.240355e+001 
3078125000  -3.711832e+001  -2.937227e+001 
3081250000  -3.731724e+001  -3.523903e+001 
3084375000  -3.651543e+001  -3.987900e+001 
3087500000  -3.649947e+001  -4.561219e+001 
3090625000  -3.589506e+001  -5.862065e+001 
3093750000  -3.688240e+001  -6.705336e+001 
3096875000  -3.728749e+001  -7.220681e+001 
3100000000  -3.735340e+001  -7.543563e+001 
3103125000  -3.751892e+001  -7.826746e+001 
3106250000  -3.716945e+001  -8.332363e+001 
3109375000  -3.728643e+001  -8.820815e+001 
3112500000  -3.731451e+001  -9.304242e+001 
3115625000  -3.715848e+001  -9.743040e+001 
3118750000  -3.718972e+001  -1.007678e+002 
3121875000  -3.650791e+001  -1.123588e+002 
3125000000  -3.830655e+001  -1.158769e+002 
3128125000  -3.866822e+001  -1.075703e+002 
3131250000  -3.625365e+001  -1.127460e+002 
3134375000  -3.534263e+001  -1.310907e+002 
3137500000  -3.621033e+001  -1.435785e+002 
3140625000  -3.728364e+001  -1.464049e+002 
3143750000  -3.814765e+001  -1.479100e+002 
3146875000  -3.774884e+001  -1.464475e+002 
3150000000  -3.687341e+001  -1.495075e+002 
3153125000  -3.715658e+001  -1.588035e+002 
3156250000  -3.786727e+001  -1.550580e+002 
3159375000  -3.577017e+001  -1.560387e+002 
3162500000  -3.426662e+001  -1.718333e+002 
3165625000  -3.556393e+001  1.758646e+002 
3168750000  -3.548994e+001  1.747974e+002 
3171875000  -3.487859e+001  1.670158e+002 
3175000000  -3.556231e+001  1.587687e+002 
3178125000  -3.506526e+001  1.569552e+002 
3181250000  -3.434729e+001  1.483924e+002 
3184375000  -3.400208e+001  1.367253e+002 
3187500000  -3.545987e+001  1.215394e+002 
3190625000  -3.746400e+001  1.161471e+002 
3193750000  -3.763704e+001  1.208023e+002 
3196875000  -3.743344e+001  1.225639e+002 
3200000000  -3.631990e+001  1.175701e+002 
3203125000  -3.594158e+001  1.094210e+002 
3206250000  -3.628289e+001  1.023081e+002 
3209375000  -3.583355e+001  9.400504e+001 
3212500000  -3.629799e+001  8.728824e+001 
3215625000  -3.601720e+001  8.329273e+001 
3218750000  -3.687711e+001  7.265941e+001 
3221875000  -3.740430e+001  6.590486e+001 
3225000000  -3.698870e+001  6.272371e+001 
3228125000  -3.778645e+001  5.517732e+001 
3231250000  -3.830519e+001  5.342060e+001 
3234375000  -3.795963e+001  5.009979e+001 
3237500000  -3.807956e+001  4.675345e+001 
3240625000  -3.769735e+001  4.057010e+001 
3243750000  -3.778327e+001  3.074638e+001 
3246875000  -3.818591e+001  2.379363e+001 
3250000000  -3.889320e+001  2.013963e+001 
3253125000  -3.891257e+001  1.754905e+001 
3256250000  -3.872900e+001  8.763286e+000 
3259375000  -3.911824e+001  -1.776592e+000 
3262500000  -4.078625e+001  -5.549502e+000 
3265625000  -4.106249e+001  -3.316011e+000 
3268750000  -4.118172e+001  -2.054876e+000 
3271875000  -4.051217e+001  -6.817423e+000 
3275000000  -4.004615e+001  -1.340000e+001 
3278125000  -4.075299e+001  -1.924959e+001 
3281250000  -4.102917e+001  -1.956516e+001 
3284375000  -4.035093e+001  -2.705168e+001 
3287500000  -4.085409e+001  -3.099242e+001 
3290625000  -4.124625e+001  -3.884068e+001 
3293750000  -4.127188e+001  -4.379450e+001 
3296875000  -4.252908e+001  -4.436662e+001 
3300000000  -4.172302e+001  -4.478779e+001 
3303125000  -4.104467e+001  -5.112716e+001 
3306250000  -4.069033e+001  -5.855630e+001 
3309375000  -4.046014e+001  -6.576469e+001 
3312500000  -4.080714e+001  -7.811194e+001 
3315625000  -4.226102e+001  -8.442714e+001 
3318750000  -4.348183e+001  -9.027179e+001 
3321875000  -4.461611e+001  -8.727620e+001 
3325000000  -4.496225e+001  -8.111923e+001 
3328125000  -4.436214e+001  -8.064671e+001 
3331250000  -4.227537e+001  -7.610227e+001 
3334375000  -3.976503e+001  -9.040631e+001 
3337500000  -4.042007e+001  -1.116362e+002 
3340625000  -4.224126e+001  -1.225984e+002 
3343750000  -4.404779e+001  -1.218094e+002 
3346875000  -4.331557e+001  -1.214758e+002 
3350000000  -4.308598e+001  -1.254837e+002 
3353125000  -4.281135e+001  -1.313269e+002 
3356250000  -4.261080e+001  -1.408071e+002 
3359375000  -4.355832e+001  -1.510214e+002 
3362500000  -4.418108e+001  -1.543811e+002 
3365625000  -4.436679e+001  -1.593080e+002 
3368750000  -4.531957e+001  -1.649679e+002 
3371875000  -4.583390e+001  -1.687192e+002 
3375000000  -4.697548e+001  -1.740705e+002 
3378125000  -4.799314e+001  -1.708090e+002 
3381250000  -4.994430e+001  -1.605463e+002 
3384375000  -4.681003e+001  -1.453056e+002 
3387500000  -4.366183e+001  -1.677840e+002 
3390625000  -4.652110e+001  1.710413e+002 
3393750000  -4.672775e+001  1.690974e+002 
3396875000  -4.618158e+001  1.714993e+002 
3400000000  -4.564361e+001  1.599454e+002 
3403125000  -4.679556e+001  1.528117e+002 
3406250000  -4.764848e+001  1.504407e+002 
3409375000  -4.782157e+001  1.454945e+002 
3412500000  -4.828994e+001  1.338900e+002 
3415625000  -5.014685e+001  1.347645e+002 
3418750000  -5.018450e+001  1.371096e+002 
3421875000  -5.082098e+001  1.420623e+002 
3425000000  -5.024625e+001  1.402545e+002 
3428125000  -4.987687e+001  1.348256e+002 
3431250000  -4.977872e+001  1.262429e+002 
3434375000  -5.022954e+001  1.223072e+002 
3437500000  -5.057464e+001  1.252429e+002 
3440625000  -5.252528e+001  1.224353e+002 
3443750000  -4.994627e+001  1.268751e+002 
3446875000  -5.009963e+001  1.231827e+002 
3450000000  -5.048113e+001  1.111916e+002 
3453125000  -4.948095e+001  1.022723e+002 
3456250000  -5.148963e+001  9.764584e+001 
3459375000  -5.244054e+001  1.017968e+002 
3462500000  -5.291253e+001  1.023621e+002 
3465625000  -5.114038e+001  9.745921e+001 
3468750000  -5.203345e+001  9.768537e+001 
3471875000  -5.134321e+001  9.404165e+001 
3475000000  -5.200688e+001  8.923740e+001 
3478125000  -5.048982e+001  8.134487e+001 
3481250000  -5.234808e+001  8.312468e+001 
3484375000  -5.202668e+001  8.796774e+001 
3487500000  -5.102048e+001  7.942641e+001 
3490625000  -4.979920e+001  7.212056e+001 
3493750000  -5.111037e+001  6.223619e+001 
3496875000  -5.181861e+001  6.733643e+001 
3500000000  -5.187345e+001  6.859973e+001 
3503125000  -5.022754e+001  5.953686e+001 
3506250000  -4.974784e+001  5.514441e+001 
3509375000  -4.880540e+001  4.413407e+001 
3512500000  -4.954300e+001  3.063595e+001 
3515625000  -5.078277e+001  3.004420e+001 
3518750000  -5.143083e+001  2.776207e+001 
3521875000  -5.170586e+001  1.961230e+001 
3525000000  -5.253947e+001  1.461878e+001 
3528125000  -5.286513e+001  2.639640e+001 
3531250000  -5.141809e+001  1.846552e+001 
3534375000  -5.165095e+001  8.360200e+000 
3537500000  -5.294733e+001  -6.340924e+000 
3540625000  -5.404859e+001  -1.319743e+001 
3543750000  -5.456372e+001  1.820175e+000 
3546875000  -5.496439e+001  8.716621e+000 
3550000000  -5.322978e+001  -4.917090e+000 
3553125000  -5.293586e+001  -1.633303e+001 
3556250000  -5.509315e+001  -1.577778e+001 
3559375000  -5.455849e+001  -2.052480e+001 
3562500000  -5.567812e+001  -3.378209e+001 
3565625000  -5.642888e+001  -4.217937e+001 
3568750000  -5.601096e+001  -2.078259e+001 
3571875000  -5.682644e+001  -1.811002e+001 
3575000000  -5.874035e+001  -2.652613e+001 
3578125000  -5.801155e+001  -3.563839e+001 
3581250000  -5.791125e+001  -3.172435e+001 
3584375000  -5.695847e+001  -3.159148e+001 
3587500000  -5.903980e+001  -3.551096e+001 
3590625000  -5.918433e+001  -4.300382e+001 
3593750000  -5.905729e+001  -3.303642e+001 
3596875000  -5.804300e+001  -2.238604e+001 
3600000000  -5.847440e+001  -8.133861e+000 
3603125000  -5.795178e+001  -4.058287e+001 
3606250000  -5.784105e+001  -5.151231e+001 
3609375000  -5.884088e+001  -4.317290e+001 
3612500000  -5.904259e+001  -3.596321e+001 
3615625000  -5.894029e+001  -5.313791e+001 
3618750000  -5.925785e+001  -2.233599e+001 
3621875000  -5.746603e+001  -3.759197e+001 
3625000000  -5.861902e+001  -3.109592e+001 
3628125000  -5.613466e+001  -2.513337e+001 
3631250000  -5.701227e+001  -3.102584e+001 
3634375000  -5.619381e+001  -3.297754e+001 
3637500000  -5.707653e+001  -3.193847e+001 
3640625000  -5.534291e+001  -2.325454e+001 
3643750000  -5.411472e+001  -3.304595e+001 
3646875000  -5.344569e+001  -3.655882e+001 
3650000000  -5.318358e+001  -4.221535e+001 
3653125000  -5.284889e+001  -4.275032e+001 
3656250000  -5.210468e+001  -4.512527e+001 
3659375000  -5.160691e+001  -4.201891e+001 
3662500000  -5.091479e+001  -5.009809e+001 
3665625000  -4.992072e+001  -5.305555e+001 
3668750000  -4.867827e+001  -5.612725e+001 
3671875000  -4.807424e+001  -7.019382e+001 
3675000000  -4.767830e+001  -7.633621e+001 
3678125000  -4.761374e+001  -7.846114e+001 
3681250000  -4.701231e+001  -8.203116e+001 
3684375000  -4.704028e+001  -9.150401e+001 
3687500000  -4.703781e+001  -9.086729e+001 
3690625000  -4.685498e+001  -9.997054e+001 
3693750000  -4.699442e+001  -9.816890e+001 
3696875000  -4.644711e+001  -9.956150e+001 
3700000000  -4.590188e+001  -1.067626e+002 
3703125000  -4.530090e+001  -1.126669e+002 
3706250000  -4.640555e+001  -1.151258e+002 
3709375000  -4.535284e+001  -1.129410e+002 
3712500000  -4.389908e+001  -1.161412e+002 
3715625000  -4.204744e+001  -1.271803e+002 
3718750000  -4.184610e+001  -1.337334e+002 
3721875000  -4.141808e+001  -1.427924e+002 
3725000000  -4.179448e+001  -1.491613e+002 
3728125000  -4.154189e+001  -1.529210e+002 
3731250000  -4.092527e+001  -1.601326e+002 
3734375000  -4.040603e+001  -1.660342e+002 
3737500000  -4.088868e+001  -1.762569e+002 
3740625000  -4.108127e+001  1.790147e+002 
3743750000  -4.065466e+001  1.724293e+002 
3746875000  -4.089308e+001  1.655847e+002 
3750000000  -4.106306e+001  1.610215e+002 
3753125000  -4.059540e+001  1.574816e+002 
3756250000  -4.105148e+001  1.545691e+002 
3759375000  -4.063984e+001  1.491761e+002 
3762500000  -4.013081e+001  1.421713e+002 
3765625000  -4.084130e+001  1.370063e+002 
3768750000  -4.029520e+001  1.376872e+002 
3771875000  -3.843493e+001  1.297509e+002 
3775000000  -3.851481e+001  1.185979e+002 
3778125000  -3.906776e+001  1.126673e+002 
3781250000  -3.903535e+001  1.088196e+002 
3784375000  -3.886460e+001  1.026537e+002 
3787500000  -3.850130e+001  9.672077e+001 
3790625000  -3.912909e+001  8.706030e+001 
3793750000  -3.911356e+001  8.456002e+001 
3796875000  -3.804398e+001  8.106569e+001 
3800000000  -3.649019e+001  7.508283e+001 
3803125000  -3.823105e+001  6.146349e+001 
3806250000  -3.896771e+001  5.862586e+001 
3809375000  -3.866139e+001  5.410778e+001 
3812500000  -3.833465e+001  4.559965e+001 
3815625000  -3.949979e+001  3.549119e+001 
3818750000  -4.044875e+001  3.686806e+001 
3821875000  -4.022696e+001  4.506034e+001 
3825000000  -3.861195e+001  4.249348e+001 
3828125000  -3.695063e+001  2.496155e+001 
3831250000  -3.798500e+001  8.781025e+000 
3834375000  -4.018432e+001  8.776062e+000 
3837500000  -4.071419e+001  1.237030e+001 
3840625000  -3.918766e+001  9.545146e+000 
3843750000  -3.827707e+001  -4.184857e+000 
3846875000  -4.008068e+001  -1.243810e+001 
3850000000  -4.087651e+001  -6.348385e+000 
3853125000  -3.999550e+001  -6.135909e+000 
3856250000  -3.951460e+001  -1.335365e+001 
3859375000  -3.871217e+001  -1.898364e+001 
3862500000  -3.878046e+001  -2.870125e+001 
3865625000  -3.922618e+001  -3.476719e+001 
3868750000  -3.875335e+001  -3.498929e+001 
3871875000  -3.810587e+001  -4.160398e+001 
3875000000  -3.852145e+001  -5.231445e+001 
3878125000  -3.927775e+001  -5.523414e+001 
3881250000  -3.919164e+001  -5.505288e+001 
3884375000  -3.878950e+001  -6.184340e+001 
3887500000  -3.882968e+001  -6.875298e+001 
3890625000  -3.959298e+001  -7.393680e+001 
3893750000  -3.994413e+001  -7.423450e+001 
3896875000  -4.013634e+001  -7.843521e+001 
3900000000  -3.981119e+001  -8.239143e+001 
3903125000  -3.943128e+001  -8.566889e+001 
3906250000  -3.912532e+001  -9.056155e+001 
3909375000  -3.811330e+001  -9.915914e+001 
3912500000  -3.893367e+001  -1.075677e+002 
3915625000  -4.013160e+001  -1.098446e+002 
3918750000  -4.026428e+001  -1.098281e+002 
3921875000  -3.926857e+001  -1.146029e+002 
3925000000  -3.855524e+001  -1.172687e+002 
3928125000  -3.841830e+001  -1.277918e+002 
3931250000  -3.910344e+001  -1.359184e+002 
3934375000  -3.956413e+001  -1.369513e+002 
3937500000  -3.971401e+001  -1.399509e+002 
3940625000  -4.004741e+001  -1.412028e+002 
3943750000  -3.872524e+001  -1.419999e+002 
3946875000  -3.836573e+001  -1.520978e+002 
3950000000  -3.940530e+001  -1.616954e+002 
3953125000  -3.984747e+001  -1.602774e+002 
3956250000  -3.871179e+001  -1.605636e+002 
3959375000  -3.776762e+001  -1.670599e+002 
3962500000  -3.781077e+001  -1.753242e+002 
3965625000  -3.756123e+001  1.755137e+002 
3968750000  -3.859927e+001  1.682085e+002 
3971875000  -3.852695e+001  1.624729e+002 
3975000000  -3.837717e+001  1.588898e+002 
3978125000  -3.864938e+001  1.544314e+002 
3981250000  -3.863456e+001  1.484935e+002 
3984375000  -3.883782e+001  1.399396e+002 
3987500000  -3.965484e+001  1.381274e+002 
3990625000  -3.972440e+001  1.349627e+002 
3993750000  -3.979379e+001  1.307560e+002 
3996875000  -3.985480e+001  1.252315e+002 
4000000000  -4.037541e+001  1.203874e+002 
4003125000  -4.103587e+001  1.221220e+002 
4006250000  -3.937455e+001  1.204000e+002 
4009375000  -3.861676e+001  1.070936e+002 
4012500000  -4.018199e+001  9.999003e+001 
4015625000  -4.147012e+001  9.727517e+001 
4018750000  -4.120505e+001  9.853365e+001 
4021875000  -4.041702e+001  9.535528e+001 
4025000000  -4.036841e+001  9.077148e+001 
4028125000  -4.033157e+001  8.357359e+001 
4031250000  -4.085306e+001  7.772481e+001 
4034375000  -4.107765e+001  7.828284e+001 
4037500000  -4.070313e+001  7.959547e+001 
4040625000  -4.080682e+001  7.196450e+001 
4043750000  -4.081678e+001  7.179039e+001 
4046875000  -4.034185e+001  6.858940e+001 
4050000000  -4.031675e+001  6.168010e+001 
4053125000  -4.125618e+001  5.952528e+001 
4056250000  -4.112198e+001  6.342407e+001 
4059375000  -3.956775e+001  6.119656e+001 
4062500000  -3.884047e+001  5.159963e+001 
4065625000  -3.876488e+001  4.712459e+001 
4068750000  -3.793329e+001  4.152143e+001 
4071875000  -3.747387e+001  2.974402e+001 
4075000000  -3.821466e+001  2.393953e+001 
4078125000  -3.831853e+001  1.720825e+001 
4081250000  -3.789353e+001  1.525204e+001 
4084375000  -3.787512e+001  5.615404e+000 
4087500000  -3.840388e+001  -1.910735e+000 
4090625000  -3.904827e+001  -2.353976e+000 
4093750000  -3.840323e+001  -4.997232e+000 
4096875000  -3.834391e+001  -1.532953e+001 
4100000000  -3.953125e+001  -2.299084e+001 
4103125000  -4.010715e+001  -2.039615e+001 
4106250000  -3.970537e+001  -1.871601e+001 
4109375000  -3.892914e+001  -2.164407e+001 
4112500000  -3.818460e+001  -2.959035e+001 
4115625000  -3.901044e+001  -3.770206e+001 
4118750000  -3.893106e+001  -4.161623e+001 
4121875000  -3.860369e+001  -4.958501e+001 
4125000000  -3.935219e+001  -5.542578e+001 
4128125000  -4.027374e+001  -5.431603e+001 
4131250000  -3.950179e+001  -4.977478e+001 
4134375000  -3.744876e+001  -5.736317e+001 
4137500000  -3.760069e+001  -7.857019e+001 
4140625000  -3.995210e+001  -8.557114e+001 
4143750000  -4.117516e+001  -7.988657e+001 
4146875000  -4.026075e+001  -7.509344e+001 
4150000000  -3.942377e+001  -8.225536e+001 
4153125000  -3.957301e+001  -9.141865e+001 
4156250000  -4.100851e+001  -9.581910e+001 
4159375000  -4.060173e+001  -9.122222e+001 
4162500000  -3.954142e+001  -8.883874e+001 
4165625000  -3.842848e+001  -9.654105e+001 
4168750000  -3.791371e+001  -1.041895e+002 
4171875000  -3.807816e+001  -1.150717e+002 
4175000000  -3.897637e+001  -1.207278e+002 
4178125000  -3.914238e+001  -1.239699e+002 
4181250000  -3.908807e+001  -1.263617e+002 
4184375000  -3.899695e+001  -1.303197e+002 
4187500000  -3.899177e+001  -1.360978e+002 
4190625000  -3.908175e+001  -1.449262e+002 
4193750000  -4.016620e+001  -1.494672e+002 
4196875000  -4.086790e+001  -1.496552e+002 
4200000000  -4.162529e+001  -1.463351e+002 
4203125000  -4.049884e+001  -1.328823e+002 
4206250000  -3.704920e+001  -1.408617e+002 
4209375000  -3.679315e+001  -1.646103e+002 
4212500000  -3.916046e+001  -1.712846e+002 
4215625000  -3.935170e+001  -1.636211e+002 
4218750000  -3.786503e+001  -1.622853e+002 
4221875000  -3.597680e+001  -1.732497e+002 
4225000000  -3.743575e+001  1.739171e+002 
4228125000  -3.751751e+001  1.762356e+002 
4231250000  -3.589148e+001  1.682780e+002 
4234375000  -3.578912e+001  1.587160e+002 
4237500000  -3.552301e+001  1.535331e+002 
4240625000  -3.587379e+001  1.438190e+002 
4243750000  -3.704293e+001  1.336296e+002 
4246875000  -3.792275e+001  1.322940e+002 
4250000000  -3.774686e+001  1.333496e+002 
4253125000  -3.742774e+001  1.301002e+002 
4256250000  -3.746003e+001  1.244517e+002 
4259375000  -3.692638e+001  1.199615e+002 
4262500000  -3.724302e+001  1.128374e+002 
4265625000  -3.734395e+001  1.121558e+002 
4268750000  -3.659054e+001  1.056876e+002 
4271875000  -3.636457e+001  9.688437e+001 
4275000000  -3.578487e+001  8.897742e+001 
4278125000  -3.684891e+001  7.459442e+001 
4281250000  -3.847029e+001  7.433105e+001 
4284375000  -3.835261e+001  7.189182e+001 
4287500000  -3.978895e+001  6.706448e+001 
4290625000  -4.035013e+001  7.694131e+001 
4293750000  -3.812505e+001  7.772110e+001 
4296875000  -3.728811e+001  6.354164e+001 
4300000000  -3.846555e+001  5.529607e+001 
4303125000  -3.930223e+001  5.702008e+001 
4306250000  -3.807485e+001  6.048475e+001 
4309375000  -3.709682e+001  5.277293e+001 
4312500000  -3.720438e+001  4.297960e+001 
4315625000  -3.739937e+001  3.527677e+001 
4318750000  -3.812160e+001  3.064290e+001 
4321875000  -3.813405e+001  3.004432e+001 
4325000000  -3.745906e+001  2.899273e+001 
4328125000  -3.663166e+001  2.037535e+001 
4331250000  -3.692363e+001  9.544430e+000 
4334375000  -3.767869e+001  3.583926e+000 
4337500000  -3.891845e+001  3.303834e-001 
4340625000  -3.912519e+001  4.851672e+000 
4343750000  -3.809565e+001  2.647077e+000 
4346875000  -3.792182e+001  -5.802328e+000 
4350000000  -3.764352e+001  -1.243862e+001 
4353125000  -3.835172e+001  -2.067707e+001 
4356250000  -4.054884e+001  -1.973666e+001 
4359375000  -3.934003e+001  -4.861935e+000 
4362500000  -3.631373e+001  -1.123008e+001 
4365625000  -3.546763e+001  -2.982679e+001 
4368750000  -3.662949e+001  -4.031083e+001 
4371875000  -3.752990e+001  -3.869658e+001 
4375000000  -3.696876e+001  -4.291686e+001 
4378125000  -3.640792e+001  -4.959722e+001 
4381250000  -3.647793e+001  -5.867406e+001 
4384375000  -3.648298e+001  -6.639818e+001 
4387500000  -3.751450e+001  -7.132762e+001 
4390625000  -3.804083e+001  -7.214171e+001 
4393750000  -3.728809e+001  -7.171623e+001 
4396875000  -3.694777e+001  -7.643518e+001 
4400000000  -3.643533e+001  -8.609216e+001 
4403125000  -3.695174e+001  -9.607104e+001 
4406250000  -3.783770e+001  -9.825578e+001 
4409375000  -3.801197e+001  -1.029184e+002 
4412500000  -3.900502e+001  -1.071129e+002 
4415625000  -3.903157e+001  -1.025887e+002 
