!Agilent Technologies,E8363B,MY43030201,A.06.04.32
!Agilent E8363B: A.06.04.32
!Date: Tuesday, November 11, 2014 21:27:57
!Correction: S21(Response(S21)) 
!S1P File: Measurement: S21:
# Hz S  dB   R 50
3000000000  -4.051706e+001  9.127986e+001 
3003125000  -4.218584e+001  8.309975e+001 
3006250000  -4.212463e+001  8.179893e+001 
3009375000  -4.280449e+001  8.717142e+001 
3012500000  -4.142369e+001  8.297854e+001 
3015625000  -4.132949e+001  7.606600e+001 
3018750000  -4.184778e+001  7.601575e+001 
3021875000  -4.024001e+001  7.731982e+001 
3025000000  -3.903010e+001  7.266089e+001 
3028125000  -3.798654e+001  6.381454e+001 
3031250000  -3.705917e+001  5.229783e+001 
3034375000  -3.681232e+001  3.751213e+001 
3037500000  -3.739238e+001  2.740705e+001 
3040625000  -3.860194e+001  2.258448e+001 
3043750000  -3.918023e+001  1.440260e+001 
3046875000  -3.962260e+001  1.005753e+001 
3050000000  -4.095555e+001  3.620674e+000 
3053125000  -4.076348e+001  8.223097e+000 
3056250000  -4.042241e+001  1.280696e+001 
3059375000  -3.982386e+001  1.022638e+001 
3062500000  -3.833447e+001  4.157366e+000 
3065625000  -3.807305e+001  -4.802567e+000 
3068750000  -3.771924e+001  -1.206589e+001 
3071875000  -3.777951e+001  -1.548954e+001 
3075000000  -3.717583e+001  -2.089995e+001 
3078125000  -3.711298e+001  -2.768724e+001 
3081250000  -3.735488e+001  -3.359051e+001 
3084375000  -3.640359e+001  -3.763828e+001 
3087500000  -3.641378e+001  -4.374210e+001 
3090625000  -3.604327e+001  -5.640887e+001 
3093750000  -3.680775e+001  -6.388007e+001 
3096875000  -3.731968e+001  -7.028304e+001 
3100000000  -3.728770e+001  -7.405607e+001 
3103125000  -3.764706e+001  -7.671439e+001 
3106250000  -3.711818e+001  -8.222447e+001 
3109375000  -3.723923e+001  -8.654009e+001 
3112500000  -3.727102e+001  -9.100612e+001 
3115625000  -3.709276e+001  -9.516238e+001 
3118750000  -3.734375e+001  -9.855864e+001 
3121875000  -3.654315e+001  -1.102100e+002 
3125000000  -3.836945e+001  -1.130185e+002 
3128125000  -3.858628e+001  -1.066419e+002 
3131250000  -3.618187e+001  -1.115170e+002 
3134375000  -3.536127e+001  -1.292377e+002 
3137500000  -3.603749e+001  -1.419973e+002 
3140625000  -3.726482e+001  -1.446012e+002 
3143750000  -3.840496e+001  -1.470161e+002 
3146875000  -3.771071e+001  -1.446188e+002 
3150000000  -3.685213e+001  -1.468712e+002 
3153125000  -3.714923e+001  -1.577417e+002 
3156250000  -3.806376e+001  -1.528277e+002 
3159375000  -3.589084e+001  -1.534195e+002 
3162500000  -3.432926e+001  -1.694002e+002 
3165625000  -3.549717e+001  1.775630e+002 
3168750000  -3.553460e+001  1.764899e+002 
3171875000  -3.493295e+001  1.698181e+002 
3175000000  -3.550286e+001  1.606890e+002 
3178125000  -3.511028e+001  1.594230e+002 
3181250000  -3.435637e+001  1.513836e+002 
3184375000  -3.415860e+001  1.386339e+002 
3187500000  -3.538200e+001  1.235669e+002 
3190625000  -3.726063e+001  1.172747e+002 
3193750000  -3.763345e+001  1.230978e+002 
3196875000  -3.740881e+001  1.250614e+002 
3200000000  -3.629587e+001  1.201595e+002 
3203125000  -3.592398e+001  1.114383e+002 
3206250000  -3.610370e+001  1.038521e+002 
3209375000  -3.574119e+001  9.624623e+001 
3212500000  -3.625021e+001  8.900103e+001 
3215625000  -3.610322e+001  8.655122e+001 
3218750000  -3.670277e+001  7.529396e+001 
3221875000  -3.743980e+001  6.837017e+001 
3225000000  -3.715934e+001  6.504378e+001 
3228125000  -3.775648e+001  5.736782e+001 
3231250000  -3.825486e+001  5.589698e+001 
3234375000  -3.795483e+001  5.272663e+001 
3237500000  -3.817199e+001  4.797356e+001 
3240625000  -3.754302e+001  4.298238e+001 
3243750000  -3.766046e+001  3.272037e+001 
3246875000  -3.836206e+001  2.548623e+001 
3250000000  -3.868436e+001  2.294992e+001 
3253125000  -3.899765e+001  1.968325e+001 
3256250000  -3.882796e+001  1.047325e+001 
3259375000  -3.925230e+001  -5.199637e-001 
3262500000  -4.064729e+001  -4.496652e+000 
3265625000  -4.119394e+001  -1.595420e+000 
3268750000  -4.139245e+001  7.980140e-001 
3271875000  -4.078738e+001  -4.325369e+000 
3275000000  -4.021627e+001  -1.173675e+001 
3278125000  -4.076277e+001  -1.737647e+001 
3281250000  -4.106910e+001  -1.978979e+001 
3284375000  -4.044711e+001  -2.490329e+001 
3287500000  -4.095879e+001  -2.735311e+001 
3290625000  -4.110813e+001  -3.541880e+001 
3293750000  -4.124498e+001  -4.058722e+001 
3296875000  -4.236112e+001  -4.499121e+001 
3300000000  -4.188042e+001  -4.263385e+001 
3303125000  -4.113203e+001  -4.932712e+001 
3306250000  -4.079961e+001  -5.497431e+001 
3309375000  -4.058755e+001  -6.241103e+001 
3312500000  -4.105737e+001  -7.542491e+001 
3315625000  -4.206565e+001  -8.221085e+001 
3318750000  -4.346668e+001  -8.693274e+001 
3321875000  -4.463004e+001  -8.465086e+001 
3325000000  -4.492122e+001  -7.877368e+001 
3328125000  -4.460187e+001  -8.189709e+001 
3331250000  -4.244923e+001  -7.499093e+001 
3334375000  -3.979156e+001  -8.983872e+001 
3337500000  -4.033764e+001  -1.099772e+002 
3340625000  -4.220788e+001  -1.185219e+002 
3343750000  -4.389529e+001  -1.189796e+002 
3346875000  -4.353767e+001  -1.198547e+002 
3350000000  -4.298896e+001  -1.233526e+002 
3353125000  -4.302338e+001  -1.298286e+002 
3356250000  -4.243393e+001  -1.375257e+002 
3359375000  -4.350742e+001  -1.481830e+002 
3362500000  -4.412249e+001  -1.559779e+002 
3365625000  -4.474157e+001  -1.580205e+002 
3368750000  -4.537058e+001  -1.627064e+002 
3371875000  -4.575268e+001  -1.657519e+002 
3375000000  -4.723907e+001  -1.719044e+002 
3378125000  -4.811235e+001  -1.738926e+002 
3381250000  -4.932767e+001  -1.573992e+002 
3384375000  -4.638501e+001  -1.475555e+002 
3387500000  -4.354224e+001  -1.687514e+002 
3390625000  -4.593657e+001  1.750269e+002 
3393750000  -4.704222e+001  1.738100e+002 
3396875000  -4.646745e+001  1.716525e+002 
3400000000  -4.586730e+001  1.613788e+002 
3403125000  -4.735015e+001  1.594432e+002 
3406250000  -4.767834e+001  1.524965e+002 
3409375000  -4.792422e+001  1.442601e+002 
3412500000  -4.851100e+001  1.396003e+002 
3415625000  -4.929543e+001  1.367174e+002 
3418750000  -5.042086e+001  1.427879e+002 
3421875000  -5.095642e+001  1.477001e+002 
3425000000  -4.997580e+001  1.414176e+002 
3428125000  -4.983003e+001  1.380639e+002 
3431250000  -4.922512e+001  1.267996e+002 
3434375000  -5.021178e+001  1.259993e+002 
3437500000  -5.147047e+001  1.275617e+002 
3440625000  -5.196495e+001  1.216450e+002 
3443750000  -5.090940e+001  1.275205e+002 
3446875000  -5.031594e+001  1.243493e+002 
3450000000  -5.036273e+001  1.142174e+002 
3453125000  -5.064308e+001  1.037809e+002 
3456250000  -5.208371e+001  1.029661e+002 
3459375000  -5.310517e+001  1.033778e+002 
3462500000  -5.181087e+001  1.061651e+002 
3465625000  -5.125097e+001  1.011051e+002 
3468750000  -5.168831e+001  1.030398e+002 
3471875000  -5.238720e+001  1.012435e+002 
3475000000  -5.121622e+001  9.739703e+001 
3478125000  -5.089539e+001  8.581963e+001 
3481250000  -5.228283e+001  8.839277e+001 
3484375000  -5.197298e+001  8.576464e+001 
3487500000  -5.182907e+001  8.105585e+001 
3490625000  -5.120604e+001  7.732658e+001 
3493750000  -5.128038e+001  7.307217e+001 
3496875000  -5.123974e+001  7.057349e+001 
3500000000  -5.172069e+001  6.847856e+001 
3503125000  -5.090209e+001  7.116113e+001 
3506250000  -4.984060e+001  5.929392e+001 
3509375000  -4.923864e+001  4.829689e+001 
3512500000  -4.949208e+001  3.585731e+001 
3515625000  -5.108627e+001  3.343138e+001 
3518750000  -5.134664e+001  2.814224e+001 
3521875000  -5.156395e+001  1.967479e+001 
3525000000  -5.227986e+001  1.608009e+001 
3528125000  -5.174559e+001  2.260150e+001 
3531250000  -5.118485e+001  2.496971e+001 
3534375000  -5.183866e+001  6.449255e+000 
3537500000  -5.283572e+001  -2.708691e+000 
3540625000  -5.483229e+001  -1.596731e+000 
3543750000  -5.441918e+001  6.182776e+000 
3546875000  -5.515573e+001  1.261597e+001 
3550000000  -5.391900e+001  3.663270e+000 
3553125000  -5.331606e+001  -1.460919e+001 
3556250000  -5.510030e+001  -1.182593e+001 
3559375000  -5.464706e+001  -1.313026e+001 
3562500000  -5.564983e+001  -2.437727e+001 
3565625000  -5.639956e+001  -3.449857e+001 
3568750000  -5.611971e+001  -2.666806e+001 
3571875000  -5.635009e+001  -1.881854e+001 
3575000000  -5.780227e+001  -1.801289e+001 
3578125000  -5.869461e+001  -1.759624e+001 
3581250000  -5.747950e+001  -2.981541e+001 
3584375000  -5.735094e+001  -2.220585e+001 
3587500000  -5.700416e+001  -3.720783e+001 
3590625000  -5.763868e+001  -4.612620e+001 
3593750000  -5.833422e+001  -3.322169e+001 
3596875000  -6.008752e+001  -3.139102e+001 
3600000000  -5.749916e+001  -2.588484e+001 
3603125000  -5.817529e+001  -4.115828e+001 
3606250000  -5.786755e+001  -3.000795e+001 
3609375000  -5.822131e+001  -3.364799e+001 
3612500000  -5.786806e+001  -4.145770e+001 
3615625000  -5.885192e+001  -3.685670e+001 
3618750000  -5.824538e+001  -2.564421e+001 
3621875000  -5.899144e+001  -2.042567e+001 
3625000000  -5.716085e+001  -2.496548e+001 
3628125000  -5.611507e+001  -2.494795e+001 
3631250000  -5.652504e+001  -2.331393e+001 
3634375000  -5.736414e+001  -3.500058e+001 
3637500000  -5.572169e+001  -3.330375e+001 
3640625000  -5.485229e+001  -1.500738e+001 
3643750000  -5.440417e+001  -2.297740e+001 
3646875000  -5.338617e+001  -3.949405e+001 
3650000000  -5.396170e+001  -3.472440e+001 
3653125000  -5.232553e+001  -4.307699e+001 
3656250000  -5.166999e+001  -4.268236e+001 
3659375000  -5.239484e+001  -4.042071e+001 
3662500000  -5.114922e+001  -5.052588e+001 
3665625000  -4.998160e+001  -5.576226e+001 
3668750000  -4.889267e+001  -5.469228e+001 
3671875000  -4.783955e+001  -5.983162e+001 
3675000000  -4.734294e+001  -7.274696e+001 
3678125000  -4.740684e+001  -7.727631e+001 
3681250000  -4.671208e+001  -7.959029e+001 
3684375000  -4.679615e+001  -8.515929e+001 
3687500000  -4.680894e+001  -9.144006e+001 
3690625000  -4.679349e+001  -9.656357e+001 
3693750000  -4.736826e+001  -9.649031e+001 
3696875000  -4.648764e+001  -9.874294e+001 
3700000000  -4.534839e+001  -1.028121e+002 
3703125000  -4.550410e+001  -1.119838e+002 
3706250000  -4.611060e+001  -1.125362e+002 
3709375000  -4.511919e+001  -1.112991e+002 
3712500000  -4.386102e+001  -1.148476e+002 
3715625000  -4.199967e+001  -1.274830e+002 
3718750000  -4.199453e+001  -1.304275e+002 
3721875000  -4.168953e+001  -1.400089e+002 
3725000000  -4.164326e+001  -1.465389e+002 
3728125000  -4.166090e+001  -1.500140e+002 
3731250000  -4.081209e+001  -1.582355e+002 
3734375000  -4.043748e+001  -1.635197e+002 
3737500000  -4.106013e+001  -1.730183e+002 
3740625000  -4.087881e+001  -1.795740e+002 
3743750000  -4.063521e+001  1.752540e+002 
3746875000  -4.084568e+001  1.673498e+002 
3750000000  -4.095117e+001  1.619083e+002 
3753125000  -4.063721e+001  1.604063e+002 
3756250000  -4.051268e+001  1.559471e+002 
3759375000  -4.056502e+001  1.505182e+002 
3762500000  -4.022541e+001  1.445992e+002 
3765625000  -4.074477e+001  1.378970e+002 
3768750000  -4.039016e+001  1.388791e+002 
3771875000  -3.867228e+001  1.322344e+002 
3775000000  -3.867713e+001  1.203886e+002 
3778125000  -3.898682e+001  1.150458e+002 
3781250000  -3.896159e+001  1.107637e+002 
3784375000  -3.882273e+001  1.058341e+002 
3787500000  -3.845364e+001  1.002258e+002 
3790625000  -3.933062e+001  8.979379e+001 
3793750000  -3.915873e+001  8.715063e+001 
3796875000  -3.839216e+001  8.125111e+001 
3800000000  -3.636760e+001  7.887761e+001 
3803125000  -3.820612e+001  6.502750e+001 
3806250000  -3.908190e+001  6.077869e+001 
3809375000  -3.851854e+001  5.728020e+001 
3812500000  -3.860138e+001  4.718969e+001 
3815625000  -3.945994e+001  3.906438e+001 
3818750000  -4.080082e+001  3.810970e+001 
3821875000  -4.010914e+001  4.867944e+001 
3825000000  -3.820338e+001  4.416269e+001 
3828125000  -3.721235e+001  2.641268e+001 
3831250000  -3.783062e+001  1.223470e+001 
3834375000  -4.036164e+001  1.176284e+001 
3837500000  -4.058397e+001  1.457655e+001 
3840625000  -3.920145e+001  1.064926e+001 
3843750000  -3.827995e+001  -2.651697e+000 
3846875000  -3.981767e+001  -8.895114e+000 
3850000000  -4.078327e+001  -2.550602e+000 
3853125000  -4.033654e+001  -2.645338e+000 
3856250000  -3.963790e+001  -1.018150e+001 
3859375000  -3.897483e+001  -1.577549e+001 
3862500000  -3.866722e+001  -2.652435e+001 
3865625000  -3.902329e+001  -3.352246e+001 
3868750000  -3.875757e+001  -3.212830e+001 
3871875000  -3.810993e+001  -3.999290e+001 
3875000000  -3.855066e+001  -5.120738e+001 
3878125000  -3.957372e+001  -5.313897e+001 
3881250000  -3.953843e+001  -5.299082e+001 
3884375000  -3.878791e+001  -5.850563e+001 
3887500000  -3.892662e+001  -6.679434e+001 
3890625000  -3.950076e+001  -7.069621e+001 
3893750000  -3.987027e+001  -7.401258e+001 
3896875000  -3.998239e+001  -7.502731e+001 
3900000000  -4.003054e+001  -7.916889e+001 
3903125000  -3.934570e+001  -8.593187e+001 
3906250000  -3.911916e+001  -8.710739e+001 
3909375000  -3.825934e+001  -9.519159e+001 
3912500000  -3.902417e+001  -1.060446e+002 
3915625000  -4.048365e+001  -1.040694e+002 
3918750000  -4.003334e+001  -1.057829e+002 
3921875000  -3.924559e+001  -1.117110e+002 
3925000000  -3.859302e+001  -1.158671e+002 
3928125000  -3.814108e+001  -1.255525e+002 
3931250000  -3.884772e+001  -1.313810e+002 
3934375000  -3.959204e+001  -1.351570e+002 
3937500000  -3.997157e+001  -1.366887e+002 
3940625000  -4.004628e+001  -1.364146e+002 
3943750000  -3.896074e+001  -1.413354e+002 
3946875000  -3.830741e+001  -1.502823e+002 
3950000000  -3.927907e+001  -1.584600e+002 
3953125000  -3.976390e+001  -1.578608e+002 
3956250000  -3.876428e+001  -1.589812e+002 
3959375000  -3.770114e+001  -1.638174e+002 
3962500000  -3.769224e+001  -1.728648e+002 
3965625000  -3.787759e+001  1.778402e+002 
3968750000  -3.835565e+001  1.692826e+002 
3971875000  -3.879714e+001  1.658097e+002 
3975000000  -3.844266e+001  1.606193e+002 
3978125000  -3.845071e+001  1.569079e+002 
3981250000  -3.854824e+001  1.491778e+002 
3984375000  -3.903080e+001  1.419661e+002 
3987500000  -3.980793e+001  1.385090e+002 
3990625000  -3.986210e+001  1.372088e+002 
3993750000  -3.999860e+001  1.341703e+002 
3996875000  -4.008072e+001  1.278008e+002 
4000000000  -4.063041e+001  1.231364e+002 
4003125000  -4.104387e+001  1.247759e+002 
4006250000  -3.922662e+001  1.235641e+002 
4009375000  -3.870880e+001  1.088403e+002 
4012500000  -4.007208e+001  1.014128e+002 
4015625000  -4.131455e+001  1.008701e+002 
4018750000  -4.141644e+001  1.014474e+002 
4021875000  -4.067869e+001  9.750372e+001 
4025000000  -4.020345e+001  9.111732e+001 
4028125000  -4.030940e+001  8.499049e+001 
4031250000  -4.106078e+001  8.102809e+001 
4034375000  -4.132359e+001  8.042207e+001 
4037500000  -4.081878e+001  8.044314e+001 
4040625000  -4.094794e+001  7.678847e+001 
4043750000  -4.106169e+001  7.299751e+001 
4046875000  -4.038770e+001  7.146452e+001 
4050000000  -4.027322e+001  6.285286e+001 
4053125000  -4.125872e+001  6.125934e+001 
4056250000  -4.159845e+001  6.537443e+001 
4059375000  -3.947144e+001  6.393223e+001 
4062500000  -3.858870e+001  5.644358e+001 
4065625000  -3.870383e+001  5.093126e+001 
4068750000  -3.804067e+001  4.417291e+001 
4071875000  -3.745331e+001  3.480266e+001 
4075000000  -3.794000e+001  2.568744e+001 
4078125000  -3.857642e+001  2.221057e+001 
4081250000  -3.793462e+001  1.771714e+001 
4084375000  -3.780299e+001  8.755676e+000 
4087500000  -3.842905e+001  1.870255e+000 
4090625000  -3.891860e+001  -8.563732e-001 
4093750000  -3.843641e+001  -2.541031e+000 
4096875000  -3.826803e+001  -1.233611e+001 
4100000000  -3.927844e+001  -1.961522e+001 
4103125000  -4.013185e+001  -1.854020e+001 
4106250000  -3.951233e+001  -1.417795e+001 
4109375000  -3.901000e+001  -2.024493e+001 
4112500000  -3.826973e+001  -2.792093e+001 
4115625000  -3.903223e+001  -3.492914e+001 
4118750000  -3.873053e+001  -4.053395e+001 
4121875000  -3.879735e+001  -4.577741e+001 
4125000000  -3.939861e+001  -5.358097e+001 
4128125000  -4.046397e+001  -5.120161e+001 
4131250000  -3.942593e+001  -4.578453e+001 
4134375000  -3.748301e+001  -5.478667e+001 
4137500000  -3.756297e+001  -7.635178e+001 
4140625000  -3.999965e+001  -8.279620e+001 
4143750000  -4.102238e+001  -7.731863e+001 
4146875000  -4.003880e+001  -7.079227e+001 
4150000000  -3.940972e+001  -7.930287e+001 
4153125000  -3.947562e+001  -8.939037e+001 
4156250000  -4.098738e+001  -9.378692e+001 
4159375000  -4.128627e+001  -8.657531e+001 
4162500000  -3.938592e+001  -8.538355e+001 
4165625000  -3.841204e+001  -9.210240e+001 
4168750000  -3.805780e+001  -1.023385e+002 
4171875000  -3.804995e+001  -1.143932e+002 
4175000000  -3.891304e+001  -1.167982e+002 
4178125000  -3.910254e+001  -1.209117e+002 
4181250000  -3.903255e+001  -1.239273e+002 
4184375000  -3.904828e+001  -1.295452e+002 
4187500000  -3.889661e+001  -1.329896e+002 
4190625000  -3.889901e+001  -1.407773e+002 
4193750000  -4.014023e+001  -1.468464e+002 
4196875000  -4.096544e+001  -1.464200e+002 
4200000000  -4.233960e+001  -1.423304e+002 
4203125000  -4.069794e+001  -1.312422e+002 
4206250000  -3.707314e+001  -1.378292e+002 
4209375000  -3.694400e+001  -1.604069e+002 
4212500000  -3.924007e+001  -1.661209e+002 
4215625000  -3.954874e+001  -1.604783e+002 
4218750000  -3.772836e+001  -1.587143e+002 
4221875000  -3.589067e+001  -1.698167e+002 
4225000000  -3.746734e+001  1.791685e+002 
4228125000  -3.733609e+001  1.781569e+002 
4231250000  -3.569632e+001  1.726576e+002 
4234375000  -3.587185e+001  1.602421e+002 
4237500000  -3.570832e+001  1.551831e+002 
4240625000  -3.578633e+001  1.447154e+002 
4243750000  -3.685237e+001  1.370984e+002 
4246875000  -3.780598e+001  1.361588e+002 
4250000000  -3.767258e+001  1.364460e+002 
4253125000  -3.732969e+001  1.309347e+002 
4256250000  -3.772749e+001  1.275711e+002 
4259375000  -3.697424e+001  1.226559e+002 
4262500000  -3.726369e+001  1.167171e+002 
4265625000  -3.759948e+001  1.159772e+002 
4268750000  -3.645069e+001  1.080990e+002 
4271875000  -3.628215e+001  9.972611e+001 
4275000000  -3.590412e+001  9.051536e+001 
4278125000  -3.704261e+001  7.782998e+001 
4281250000  -3.845976e+001  7.697820e+001 
4284375000  -3.821478e+001  7.344198e+001 
4287500000  -3.996231e+001  6.937762e+001 
4290625000  -4.019916e+001  7.848723e+001 
4293750000  -3.847610e+001  8.090177e+001 
4296875000  -3.710216e+001  6.661646e+001 
4300000000  -3.855611e+001  5.752922e+001 
4303125000  -3.921910e+001  5.915510e+001 
4306250000  -3.807405e+001  6.126985e+001 
4309375000  -3.697424e+001  5.523045e+001 
4312500000  -3.713647e+001  4.593373e+001 
4315625000  -3.732524e+001  3.786723e+001 
4318750000  -3.805094e+001  3.256712e+001 
4321875000  -3.809196e+001  3.282294e+001 
4325000000  -3.759987e+001  3.220708e+001 
4328125000  -3.669808e+001  2.276960e+001 
4331250000  -3.716954e+001  1.230058e+001 
4334375000  -3.772323e+001  6.039981e+000 
4337500000  -3.852839e+001  3.743979e+000 
4340625000  -3.895570e+001  7.470472e+000 
4343750000  -3.804630e+001  6.117682e+000 
4346875000  -3.780025e+001  -2.846517e+000 
4350000000  -3.755145e+001  -9.896156e+000 
4353125000  -3.811474e+001  -1.840234e+001 
4356250000  -4.010290e+001  -1.610928e+001 
4359375000  -4.007462e+001  -2.474699e+000 
4362500000  -3.616013e+001  -7.896486e+000 
4365625000  -3.543705e+001  -2.685717e+001 
4368750000  -3.664261e+001  -3.575413e+001 
4371875000  -3.752303e+001  -3.684045e+001 
4375000000  -3.683355e+001  -3.905467e+001 
4378125000  -3.640128e+001  -4.783456e+001 
4381250000  -3.658093e+001  -5.610933e+001 
4384375000  -3.653192e+001  -6.305585e+001 
4387500000  -3.749202e+001  -6.804372e+001 
4390625000  -3.797055e+001  -6.969237e+001 
4393750000  -3.748284e+001  -7.020575e+001 
4396875000  -3.696543e+001  -7.507596e+001 
4400000000  -3.610824e+001  -8.388741e+001 
4403125000  -3.726361e+001  -9.275887e+001 
4406250000  -3.767175e+001  -9.721075e+001 
4409375000  -3.792958e+001  -1.016693e+002 
4412500000  -3.916856e+001  -1.040045e+002 
4415625000  -3.883946e+001  -1.001541e+002 
