!Agilent Technologies,E8363B,MY43030201,A.06.04.32
!Agilent E8363B: A.06.04.32
!Date: Tuesday, November 11, 2014 21:28:11
!Correction: S21(Response(S21)) 
!S1P File: Measurement: S21:
# Hz S  dB   R 50
3000000000  -4.065439e+001  9.090442e+001 
3003125000  -4.213301e+001  8.282272e+001 
3006250000  -4.220810e+001  8.150067e+001 
3009375000  -4.275438e+001  8.624548e+001 
3012500000  -4.166913e+001  8.288445e+001 
3015625000  -4.138529e+001  7.571645e+001 
3018750000  -4.190562e+001  7.623067e+001 
3021875000  -4.022353e+001  7.650566e+001 
3025000000  -3.913085e+001  7.079442e+001 
3028125000  -3.818346e+001  6.274752e+001 
3031250000  -3.704774e+001  5.156478e+001 
3034375000  -3.668668e+001  3.768057e+001 
3037500000  -3.761536e+001  2.601642e+001 
3040625000  -3.880970e+001  2.116857e+001 
3043750000  -3.921732e+001  1.421906e+001 
3046875000  -3.965934e+001  9.078156e+000 
3050000000  -4.090473e+001  2.447146e+000 
3053125000  -4.070375e+001  7.987452e+000 
3056250000  -4.060877e+001  1.120455e+001 
3059375000  -3.988574e+001  8.286269e+000 
3062500000  -3.829737e+001  4.537163e+000 
3065625000  -3.792513e+001  -4.678073e+000 
3068750000  -3.773735e+001  -1.312913e+001 
3071875000  -3.762546e+001  -1.553439e+001 
3075000000  -3.715628e+001  -2.139243e+001 
3078125000  -3.721789e+001  -2.760667e+001 
3081250000  -3.737730e+001  -3.345887e+001 
3084375000  -3.643979e+001  -3.807951e+001 
3087500000  -3.647842e+001  -4.457821e+001 
3090625000  -3.600570e+001  -5.728944e+001 
3093750000  -3.679349e+001  -6.594664e+001 
3096875000  -3.736994e+001  -7.141529e+001 
3100000000  -3.728304e+001  -7.414113e+001 
3103125000  -3.763763e+001  -7.757342e+001 
3106250000  -3.727903e+001  -8.173506e+001 
3109375000  -3.733350e+001  -8.687160e+001 
3112500000  -3.730763e+001  -9.209711e+001 
3115625000  -3.708662e+001  -9.669653e+001 
3118750000  -3.730524e+001  -1.001700e+002 
3121875000  -3.662099e+001  -1.104058e+002 
3125000000  -3.829654e+001  -1.147702e+002 
3128125000  -3.867101e+001  -1.064402e+002 
3131250000  -3.627588e+001  -1.123413e+002 
3134375000  -3.539140e+001  -1.288958e+002 
3137500000  -3.599605e+001  -1.427589e+002 
3140625000  -3.739864e+001  -1.450973e+002 
3143750000  -3.812472e+001  -1.461121e+002 
3146875000  -3.776251e+001  -1.454935e+002 
3150000000  -3.691598e+001  -1.480184e+002 
3153125000  -3.720832e+001  -1.570806e+002 
3156250000  -3.804367e+001  -1.522291e+002 
3159375000  -3.596676e+001  -1.545423e+002 
3162500000  -3.420095e+001  -1.701413e+002 
3165625000  -3.551017e+001  1.767387e+002 
3168750000  -3.567110e+001  1.761525e+002 
3171875000  -3.499561e+001  1.689718e+002 
3175000000  -3.547404e+001  1.596004e+002 
3178125000  -3.519526e+001  1.585232e+002 
3181250000  -3.439603e+001  1.503020e+002 
3184375000  -3.413105e+001  1.379048e+002 
3187500000  -3.532886e+001  1.235497e+002 
3190625000  -3.718749e+001  1.170060e+002 
3193750000  -3.762235e+001  1.217791e+002 
3196875000  -3.743565e+001  1.239613e+002 
3200000000  -3.635598e+001  1.191351e+002 
3203125000  -3.594024e+001  1.106334e+002 
3206250000  -3.624257e+001  1.040032e+002 
3209375000  -3.579714e+001  9.558492e+001 
3212500000  -3.618418e+001  8.811269e+001 
3215625000  -3.610530e+001  8.489206e+001 
3218750000  -3.678526e+001  7.437116e+001 
3221875000  -3.738422e+001  6.742419e+001 
3225000000  -3.706693e+001  6.370881e+001 
3228125000  -3.766793e+001  5.662020e+001 
3231250000  -3.823789e+001  5.436348e+001 
3234375000  -3.812989e+001  5.131143e+001 
3237500000  -3.806400e+001  4.803413e+001 
3240625000  -3.772122e+001  4.336375e+001 
3243750000  -3.755948e+001  3.295129e+001 
3246875000  -3.827198e+001  2.576981e+001 
3250000000  -3.891579e+001  2.183708e+001 
3253125000  -3.891611e+001  1.757925e+001 
3256250000  -3.864812e+001  8.625370e+000 
3259375000  -3.911449e+001  -7.464796e-001 
3262500000  -4.072803e+001  -4.964119e+000 
3265625000  -4.122441e+001  -3.118135e+000 
3268750000  -4.125052e+001  -1.803426e+000 
3271875000  -4.065694e+001  -4.103885e+000 
3275000000  -4.025051e+001  -1.154355e+001 
3278125000  -4.085561e+001  -1.731378e+001 
3281250000  -4.105809e+001  -1.779159e+001 
3284375000  -4.056858e+001  -2.643454e+001 
3287500000  -4.107302e+001  -2.957247e+001 
3290625000  -4.131038e+001  -3.848001e+001 
3293750000  -4.128868e+001  -4.224128e+001 
3296875000  -4.238096e+001  -4.336310e+001 
3300000000  -4.195091e+001  -4.421997e+001 
3303125000  -4.086477e+001  -5.035276e+001 
3306250000  -4.103307e+001  -5.688312e+001 
3309375000  -4.081994e+001  -6.459415e+001 
3312500000  -4.083252e+001  -7.669309e+001 
3315625000  -4.176375e+001  -8.407498e+001 
3318750000  -4.362085e+001  -8.709722e+001 
3321875000  -4.487159e+001  -8.559076e+001 
3325000000  -4.491320e+001  -7.863481e+001 
3328125000  -4.396401e+001  -7.921489e+001 
3331250000  -4.272854e+001  -7.387365e+001 
3334375000  -3.998299e+001  -9.046162e+001 
3337500000  -4.030408e+001  -1.085921e+002 
3340625000  -4.203154e+001  -1.194982e+002 
3343750000  -4.405627e+001  -1.205699e+002 
3346875000  -4.335833e+001  -1.193184e+002 
3350000000  -4.323061e+001  -1.232403e+002 
3353125000  -4.279073e+001  -1.311336e+002 
3356250000  -4.247054e+001  -1.400385e+002 
3359375000  -4.321178e+001  -1.493729e+002 
3362500000  -4.445962e+001  -1.528836e+002 
3365625000  -4.477914e+001  -1.592579e+002 
3368750000  -4.534457e+001  -1.637260e+002 
3371875000  -4.602064e+001  -1.672085e+002 
3375000000  -4.727547e+001  -1.678489e+002 
3378125000  -4.771630e+001  -1.697397e+002 
3381250000  -4.916194e+001  -1.609732e+002 
3384375000  -4.661566e+001  -1.462549e+002 
3387500000  -4.400417e+001  -1.680748e+002 
3390625000  -4.621253e+001  1.717153e+002 
3393750000  -4.669075e+001  1.711404e+002 
3396875000  -4.645520e+001  1.720439e+002 
3400000000  -4.632479e+001  1.607933e+002 
3403125000  -4.676513e+001  1.533258e+002 
3406250000  -4.732823e+001  1.499198e+002 
3409375000  -4.786162e+001  1.444081e+002 
3412500000  -4.882602e+001  1.395186e+002 
3415625000  -4.957044e+001  1.358564e+002 
3418750000  -5.011426e+001  1.421941e+002 
3421875000  -5.072006e+001  1.431171e+002 
3425000000  -5.029055e+001  1.419489e+002 
3428125000  -4.908630e+001  1.377269e+002 
3431250000  -4.987722e+001  1.314205e+002 
3434375000  -5.056703e+001  1.253323e+002 
3437500000  -5.155331e+001  1.267631e+002 
3440625000  -5.208965e+001  1.256584e+002 
3443750000  -5.075445e+001  1.275400e+002 
3446875000  -5.074674e+001  1.289001e+002 
3450000000  -5.049456e+001  1.154949e+002 
3453125000  -5.007921e+001  1.119802e+002 
3456250000  -5.198392e+001  1.028890e+002 
3459375000  -5.308549e+001  9.962038e+001 
3462500000  -5.159523e+001  1.057580e+002 
3465625000  -5.172172e+001  9.896915e+001 
3468750000  -5.139388e+001  9.344863e+001 
3471875000  -5.283174e+001  9.875301e+001 
3475000000  -5.066886e+001  9.348785e+001 
3478125000  -5.100058e+001  8.321568e+001 
3481250000  -5.238965e+001  7.861753e+001 
3484375000  -5.283049e+001  8.348541e+001 
3487500000  -5.135897e+001  8.401277e+001 
3490625000  -5.077018e+001  7.607788e+001 
3493750000  -5.150740e+001  6.932621e+001 
3496875000  -5.150699e+001  7.151917e+001 
3500000000  -5.274240e+001  6.527965e+001 
3503125000  -5.027359e+001  6.334832e+001 
3506250000  -4.917880e+001  5.834914e+001 
3509375000  -4.938607e+001  5.011856e+001 
3512500000  -4.961758e+001  3.565180e+001 
3515625000  -5.118593e+001  3.380892e+001 
3518750000  -5.211684e+001  3.452959e+001 
3521875000  -5.203539e+001  2.394241e+001 
3525000000  -5.312893e+001  1.961066e+001 
3528125000  -5.206311e+001  2.972442e+001 
3531250000  -5.058017e+001  1.816883e+001 
3534375000  -5.168761e+001  8.697678e+000 
3537500000  -5.196510e+001  -6.620589e+000 
3540625000  -5.433565e+001  3.245166e+000 
3543750000  -5.503619e+001  3.001337e+000 
3546875000  -5.445829e+001  9.039063e+000 
3550000000  -5.316191e+001  7.647106e+000 
3553125000  -5.288438e+001  -1.139214e+001 
3556250000  -5.455979e+001  -1.939282e+001 
3559375000  -5.505001e+001  -1.510553e+001 
3562500000  -5.576877e+001  -2.632405e+001 
3565625000  -5.672225e+001  -3.252400e+001 
3568750000  -5.597276e+001  -1.438324e+001 
3571875000  -5.668504e+001  -1.917538e+001 
3575000000  -5.908862e+001  -1.959715e+001 
3578125000  -5.810421e+001  -1.381304e+001 
3581250000  -5.701162e+001  -2.110060e+001 
3584375000  -5.586232e+001  -2.103668e+001 
3587500000  -5.826239e+001  -2.883733e+001 
3590625000  -5.799704e+001  -4.532314e+001 
3593750000  -5.973032e+001  -3.948342e+001 
3596875000  -5.886893e+001  -2.073514e+001 
3600000000  -5.865782e+001  -1.628992e+001 
3603125000  -5.845132e+001  -2.836799e+001 
3606250000  -5.800674e+001  -2.902770e+001 
3609375000  -5.948679e+001  -2.575301e+001 
3612500000  -5.727441e+001  -3.562700e+001 
3615625000  -5.925672e+001  -3.265202e+001 
3618750000  -5.728052e+001  -3.107842e+001 
3621875000  -5.868455e+001  -2.892041e+001 
3625000000  -5.730361e+001  -3.350942e+001 
3628125000  -5.707630e+001  -2.448085e+001 
3631250000  -5.596402e+001  -2.433530e+001 
3634375000  -5.705154e+001  -3.222585e+001 
3637500000  -5.478051e+001  -2.907033e+001 
3640625000  -5.411804e+001  -1.725971e+001 
3643750000  -5.318280e+001  -2.785393e+001 
3646875000  -5.277456e+001  -4.075573e+001 
3650000000  -5.302144e+001  -4.205778e+001 
3653125000  -5.210577e+001  -4.116909e+001 
3656250000  -5.183443e+001  -4.755386e+001 
3659375000  -5.274728e+001  -4.685194e+001 
3662500000  -5.078749e+001  -5.364083e+001 
3665625000  -5.033221e+001  -5.368482e+001 
3668750000  -4.827747e+001  -5.196249e+001 
3671875000  -4.730143e+001  -6.367303e+001 
3675000000  -4.758853e+001  -7.441806e+001 
3678125000  -4.734594e+001  -7.518085e+001 
3681250000  -4.704950e+001  -8.200919e+001 
3684375000  -4.709811e+001  -8.512369e+001 
3687500000  -4.735171e+001  -8.864496e+001 
3690625000  -4.699417e+001  -9.705687e+001 
3693750000  -4.755101e+001  -1.011573e+002 
3696875000  -4.653239e+001  -1.005470e+002 
3700000000  -4.553900e+001  -1.063857e+002 
3703125000  -4.600345e+001  -1.123841e+002 
3706250000  -4.606979e+001  -1.112112e+002 
3709375000  -4.494520e+001  -1.121340e+002 
3712500000  -4.348239e+001  -1.164306e+002 
3715625000  -4.219193e+001  -1.266090e+002 
3718750000  -4.206178e+001  -1.343479e+002 
3721875000  -4.118130e+001  -1.414616e+002 
3725000000  -4.177770e+001  -1.481800e+002 
3728125000  -4.158379e+001  -1.538415e+002 
3731250000  -4.073648e+001  -1.574691e+002 
3734375000  -3.993111e+001  -1.627577e+002 
3737500000  -4.083092e+001  -1.744920e+002 
3740625000  -4.102940e+001  -1.788084e+002 
3743750000  -4.075834e+001  1.734590e+002 
3746875000  -4.069246e+001  1.666024e+002 
3750000000  -4.111007e+001  1.637612e+002 
3753125000  -4.059257e+001  1.587384e+002 
3756250000  -4.076529e+001  1.563433e+002 
3759375000  -4.044547e+001  1.503105e+002 
3762500000  -4.011852e+001  1.435146e+002 
3765625000  -4.081656e+001  1.401648e+002 
3768750000  -4.022532e+001  1.399243e+002 
3771875000  -3.847091e+001  1.325079e+002 
3775000000  -3.872750e+001  1.212644e+002 
3778125000  -3.898624e+001  1.139209e+002 
3781250000  -3.900455e+001  1.108466e+002 
3784375000  -3.884553e+001  1.044240e+002 
3787500000  -3.839523e+001  9.791031e+001 
3790625000  -3.913345e+001  8.780602e+001 
3793750000  -3.927036e+001  8.609933e+001 
3796875000  -3.833639e+001  8.230875e+001 
3800000000  -3.655932e+001  7.838189e+001 
3803125000  -3.802741e+001  6.491696e+001 
3806250000  -3.894326e+001  6.055964e+001 
3809375000  -3.865572e+001  5.512884e+001 
3812500000  -3.856659e+001  4.704724e+001 
3815625000  -3.959297e+001  3.722744e+001 
3818750000  -4.054456e+001  3.844682e+001 
3821875000  -4.068163e+001  4.782560e+001 
3825000000  -3.839843e+001  4.500726e+001 
3828125000  -3.709675e+001  2.643102e+001 
3831250000  -3.817147e+001  1.262013e+001 
3834375000  -4.016608e+001  1.133817e+001 
3837500000  -4.084834e+001  1.507291e+001 
3840625000  -3.909142e+001  1.219440e+001 
3843750000  -3.824217e+001  -2.850684e+000 
3846875000  -3.987425e+001  -1.034200e+001 
3850000000  -4.079485e+001  -4.934215e+000 
3853125000  -4.004008e+001  -4.422596e+000 
3856250000  -3.969101e+001  -1.225709e+001 
3859375000  -3.863958e+001  -1.849418e+001 
3862500000  -3.863515e+001  -2.805261e+001 
3865625000  -3.916164e+001  -3.266058e+001 
3868750000  -3.874025e+001  -3.443277e+001 
3871875000  -3.807144e+001  -4.104557e+001 
3875000000  -3.845568e+001  -5.072089e+001 
3878125000  -3.959190e+001  -5.531506e+001 
3881250000  -3.943848e+001  -5.377962e+001 
3884375000  -3.882411e+001  -6.137632e+001 
3887500000  -3.913982e+001  -6.664275e+001 
3890625000  -3.947010e+001  -7.217524e+001 
3893750000  -3.983598e+001  -7.264834e+001 
3896875000  -4.007130e+001  -7.484843e+001 
3900000000  -4.013490e+001  -8.086884e+001 
3903125000  -3.950915e+001  -8.460118e+001 
3906250000  -3.900176e+001  -8.916745e+001 
3909375000  -3.826362e+001  -9.846485e+001 
3912500000  -3.882589e+001  -1.071848e+002 
3915625000  -4.032432e+001  -1.060111e+002 
3918750000  -3.996638e+001  -1.086959e+002 
3921875000  -3.929248e+001  -1.107459e+002 
3925000000  -3.855751e+001  -1.171970e+002 
3928125000  -3.830435e+001  -1.279132e+002 
3931250000  -3.886194e+001  -1.337928e+002 
3934375000  -3.937543e+001  -1.347739e+002 
3937500000  -3.968130e+001  -1.370137e+002 
3940625000  -3.972837e+001  -1.392723e+002 
3943750000  -3.886086e+001  -1.418624e+002 
3946875000  -3.836216e+001  -1.499180e+002 
3950000000  -3.954625e+001  -1.601836e+002 
3953125000  -3.995018e+001  -1.602307e+002 
3956250000  -3.890311e+001  -1.594328e+002 
3959375000  -3.755199e+001  -1.658929e+002 
3962500000  -3.788258e+001  -1.736453e+002 
3965625000  -3.759486e+001  1.754444e+002 
3968750000  -3.865882e+001  1.697619e+002 
3971875000  -3.842774e+001  1.639810e+002 
3975000000  -3.841131e+001  1.611383e+002 
3978125000  -3.847344e+001  1.555442e+002 
3981250000  -3.854433e+001  1.498596e+002 
3984375000  -3.900531e+001  1.420517e+002 
3987500000  -3.984114e+001  1.377006e+002 
3990625000  -3.971003e+001  1.361193e+002 
3993750000  -3.998479e+001  1.318934e+002 
3996875000  -3.989087e+001  1.268626e+002 
4000000000  -4.066651e+001  1.223723e+002 
4003125000  -4.123454e+001  1.229885e+002 
4006250000  -3.954145e+001  1.240233e+002 
4009375000  -3.877147e+001  1.098550e+002 
4012500000  -3.994719e+001  9.900967e+001 
4015625000  -4.145205e+001  9.726586e+001 
4018750000  -4.142615e+001  1.012840e+002 
4021875000  -4.066092e+001  9.758005e+001 
4025000000  -4.025817e+001  9.224268e+001 
4028125000  -4.046664e+001  8.424667e+001 
4031250000  -4.099018e+001  8.185339e+001 
4034375000  -4.147071e+001  7.944908e+001 
4037500000  -4.102048e+001  8.194668e+001 
4040625000  -4.056633e+001  7.640557e+001 
4043750000  -4.105697e+001  7.381866e+001 
4046875000  -4.059439e+001  6.884988e+001 
4050000000  -4.011043e+001  6.418404e+001 
4053125000  -4.120526e+001  5.961229e+001 
4056250000  -4.115195e+001  6.316658e+001 
4059375000  -3.943607e+001  6.360218e+001 
4062500000  -3.863554e+001  5.563755e+001 
4065625000  -3.881046e+001  4.915027e+001 
4068750000  -3.809203e+001  4.404314e+001 
4071875000  -3.782187e+001  3.283104e+001 
4075000000  -3.835288e+001  2.556076e+001 
4078125000  -3.847727e+001  2.104837e+001 
4081250000  -3.786446e+001  1.747862e+001 
4084375000  -3.778652e+001  7.337858e+000 
4087500000  -3.838282e+001  5.766319e-002 
4090625000  -3.898096e+001  -9.502065e-001 
4093750000  -3.865086e+001  -3.593249e+000 
4096875000  -3.855057e+001  -1.328022e+001 
4100000000  -3.956527e+001  -2.107522e+001 
4103125000  -4.015512e+001  -1.914763e+001 
4106250000  -3.968494e+001  -1.667960e+001 
4109375000  -3.901025e+001  -1.863148e+001 
4112500000  -3.839617e+001  -2.894354e+001 
4115625000  -3.902341e+001  -3.469394e+001 
4118750000  -3.867375e+001  -4.058454e+001 
4121875000  -3.866351e+001  -4.762693e+001 
4125000000  -3.959137e+001  -5.336291e+001 
4128125000  -4.078595e+001  -5.177932e+001 
4131250000  -3.949702e+001  -4.717200e+001 
4134375000  -3.724127e+001  -5.607921e+001 
4137500000  -3.752887e+001  -7.605714e+001 
4140625000  -3.986096e+001  -8.296886e+001 
4143750000  -4.093754e+001  -7.640350e+001 
4146875000  -4.038998e+001  -7.404716e+001 
4150000000  -3.914193e+001  -8.066563e+001 
4153125000  -3.949001e+001  -8.937366e+001 
4156250000  -4.076515e+001  -9.331161e+001 
4159375000  -4.041109e+001  -8.880911e+001 
4162500000  -3.944501e+001  -8.697086e+001 
4165625000  -3.850636e+001  -9.176679e+001 
4168750000  -3.813202e+001  -1.025622e+002 
4171875000  -3.791509e+001  -1.135789e+002 
4175000000  -3.885701e+001  -1.212830e+002 
4178125000  -3.920603e+001  -1.206752e+002 
4181250000  -3.907773e+001  -1.238194e+002 
4184375000  -3.892674e+001  -1.300579e+002 
4187500000  -3.911560e+001  -1.339907e+002 
4190625000  -3.892775e+001  -1.412517e+002 
4193750000  -4.001096e+001  -1.462168e+002 
4196875000  -4.063894e+001  -1.468569e+002 
4200000000  -4.181931e+001  -1.448317e+002 
4203125000  -4.080906e+001  -1.314559e+002 
4206250000  -3.738260e+001  -1.386153e+002 
4209375000  -3.696675e+001  -1.602625e+002 
4212500000  -3.937636e+001  -1.688054e+002 
4215625000  -3.963559e+001  -1.619418e+002 
4218750000  -3.786533e+001  -1.585082e+002 
4221875000  -3.602952e+001  -1.704798e+002 
4225000000  -3.731882e+001  1.767785e+002 
4228125000  -3.757590e+001  1.782379e+002 
4231250000  -3.594261e+001  1.721117e+002 
4234375000  -3.583700e+001  1.603319e+002 
4237500000  -3.558620e+001  1.551642e+002 
4240625000  -3.598647e+001  1.443636e+002 
4243750000  -3.706174e+001  1.355800e+002 
4246875000  -3.806118e+001  1.345741e+002 
4250000000  -3.761796e+001  1.346241e+002 
4253125000  -3.745449e+001  1.333248e+002 
4256250000  -3.751711e+001  1.262594e+002 
4259375000  -3.717181e+001  1.214899e+002 
4262500000  -3.707483e+001  1.165937e+002 
4265625000  -3.739668e+001  1.130463e+002 
4268750000  -3.631505e+001  1.082812e+002 
4271875000  -3.630553e+001  9.778297e+001 
4275000000  -3.582024e+001  9.020401e+001 
4278125000  -3.689660e+001  7.807112e+001 
4281250000  -3.847281e+001  7.733224e+001 
4284375000  -3.825546e+001  7.188480e+001 
4287500000  -3.966540e+001  6.945519e+001 
4290625000  -4.034794e+001  7.495699e+001 
4293750000  -3.832601e+001  8.011176e+001 
4296875000  -3.730586e+001  6.742243e+001 
4300000000  -3.840824e+001  5.737286e+001 
4303125000  -3.945255e+001  5.846017e+001 
4306250000  -3.821459e+001  6.136716e+001 
4309375000  -3.722218e+001  5.591003e+001 
4312500000  -3.707256e+001  4.408512e+001 
4315625000  -3.764993e+001  3.460236e+001 
4318750000  -3.809879e+001  3.193533e+001 
4321875000  -3.820803e+001  3.247764e+001 
4325000000  -3.747635e+001  3.228175e+001 
4328125000  -3.690224e+001  2.042346e+001 
4331250000  -3.693147e+001  1.110210e+001 
4334375000  -3.776308e+001  6.747841e+000 
4337500000  -3.884897e+001  3.778480e+000 
4340625000  -3.901697e+001  7.414335e+000 
4343750000  -3.812192e+001  4.877900e+000 
4346875000  -3.766280e+001  -2.204579e+000 
4350000000  -3.757667e+001  -1.034099e+001 
4353125000  -3.835049e+001  -1.821231e+001 
4356250000  -4.036681e+001  -1.453960e+001 
4359375000  -3.966962e+001  -3.564982e+000 
4362500000  -3.615385e+001  -1.006141e+001 
4365625000  -3.565503e+001  -2.535126e+001 
4368750000  -3.671538e+001  -3.728664e+001 
4371875000  -3.745049e+001  -3.693711e+001 
4375000000  -3.682610e+001  -4.038721e+001 
4378125000  -3.628170e+001  -4.897584e+001 
4381250000  -3.663102e+001  -5.706514e+001 
4384375000  -3.654765e+001  -6.316424e+001 
4387500000  -3.752795e+001  -6.804881e+001 
4390625000  -3.802620e+001  -6.915137e+001 
4393750000  -3.746943e+001  -6.871236e+001 
4396875000  -3.671981e+001  -7.522405e+001 
4400000000  -3.640570e+001  -8.390467e+001 
4403125000  -3.698574e+001  -9.335725e+001 
4406250000  -3.777955e+001  -9.656477e+001 
4409375000  -3.800816e+001  -1.010663e+002 
4412500000  -3.898810e+001  -1.038975e+002 
4415625000  -3.893169e+001  -1.005439e+002 
