!Agilent Technologies,E8363B,MY43030201,A.06.04.32
!Agilent E8363B: A.06.04.32
!Date: Tuesday, November 11, 2014 21:31:19
!Correction: S21(Response(S21)) 
!S1P File: Measurement: S21:
# Hz S  dB   R 50
3000000000  -4.051096e+001  8.134378e+001 
3003125000  -4.220515e+001  7.208545e+001 
3006250000  -4.206628e+001  7.182259e+001 
3009375000  -4.266658e+001  7.665738e+001 
3012500000  -4.167263e+001  7.086270e+001 
3015625000  -4.122474e+001  6.488412e+001 
3018750000  -4.183568e+001  6.568330e+001 
3021875000  -4.003230e+001  6.623335e+001 
3025000000  -3.901679e+001  6.334658e+001 
3028125000  -3.792138e+001  5.239190e+001 
3031250000  -3.697905e+001  4.063564e+001 
3034375000  -3.681013e+001  2.554722e+001 
3037500000  -3.743268e+001  1.653639e+001 
3040625000  -3.874039e+001  1.179283e+001 
3043750000  -3.900088e+001  3.661046e+000 
3046875000  -3.981375e+001  -2.672786e-001 
3050000000  -4.086719e+001  -7.027389e+000 
3053125000  -4.044581e+001  2.266174e-001 
3056250000  -4.033827e+001  1.021034e+000 
3059375000  -3.974479e+001  -1.190478e+000 
3062500000  -3.824603e+001  -4.915092e+000 
3065625000  -3.789837e+001  -1.549250e+001 
3068750000  -3.750853e+001  -2.238865e+001 
3071875000  -3.763445e+001  -2.522568e+001 
3075000000  -3.704139e+001  -3.104156e+001 
3078125000  -3.706208e+001  -3.756083e+001 
3081250000  -3.714466e+001  -4.396785e+001 
3084375000  -3.636896e+001  -4.875235e+001 
3087500000  -3.634898e+001  -5.546450e+001 
3090625000  -3.589173e+001  -6.758162e+001 
3093750000  -3.678272e+001  -7.670287e+001 
3096875000  -3.729095e+001  -8.129737e+001 
3100000000  -3.737066e+001  -8.438565e+001 
3103125000  -3.765092e+001  -8.787075e+001 
3106250000  -3.714057e+001  -9.248083e+001 
3109375000  -3.733369e+001  -9.658123e+001 
3112500000  -3.710114e+001  -1.026344e+002 
3115625000  -3.700344e+001  -1.070587e+002 
3118750000  -3.729655e+001  -1.099337e+002 
3121875000  -3.661128e+001  -1.210972e+002 
3125000000  -3.839295e+001  -1.243162e+002 
3128125000  -3.846206e+001  -1.172702e+002 
3131250000  -3.621759e+001  -1.232675e+002 
3134375000  -3.539386e+001  -1.402580e+002 
3137500000  -3.614046e+001  -1.523122e+002 
3140625000  -3.726059e+001  -1.553364e+002 
3143750000  -3.822162e+001  -1.580498e+002 
3146875000  -3.767664e+001  -1.552104e+002 
3150000000  -3.684846e+001  -1.589160e+002 
3153125000  -3.722078e+001  -1.671348e+002 
3156250000  -3.795931e+001  -1.631002e+002 
3159375000  -3.566292e+001  -1.651035e+002 
3162500000  -3.422639e+001  1.793301e+002 
3165625000  -3.554128e+001  1.660631e+002 
3168750000  -3.545948e+001  1.656983e+002 
3171875000  -3.490966e+001  1.584236e+002 
3175000000  -3.556364e+001  1.485189e+002 
3178125000  -3.503418e+001  1.470911e+002 
3181250000  -3.439597e+001  1.395202e+002 
3184375000  -3.413385e+001  1.280505e+002 
3187500000  -3.548273e+001  1.121395e+002 
3190625000  -3.738595e+001  1.067447e+002 
3193750000  -3.746728e+001  1.127481e+002 
3196875000  -3.741210e+001  1.142871e+002 
3200000000  -3.617834e+001  1.078546e+002 
3203125000  -3.594479e+001  9.963419e+001 
3206250000  -3.619388e+001  9.215102e+001 
3209375000  -3.568922e+001  8.400020e+001 
3212500000  -3.630994e+001  7.702367e+001 
3215625000  -3.605601e+001  7.514308e+001 
3218750000  -3.690142e+001  6.360577e+001 
3221875000  -3.747311e+001  5.664031e+001 
3225000000  -3.714619e+001  5.342324e+001 
3228125000  -3.779515e+001  4.523367e+001 
3231250000  -3.834286e+001  4.406382e+001 
3234375000  -3.791008e+001  4.072346e+001 
3237500000  -3.801667e+001  3.626146e+001 
3240625000  -3.774760e+001  3.191092e+001 
3243750000  -3.763827e+001  2.087887e+001 
3246875000  -3.821030e+001  1.492428e+001 
3250000000  -3.876099e+001  1.016609e+001 
3253125000  -3.901318e+001  7.216799e+000 
3256250000  -3.876022e+001  -1.251322e+000 
3259375000  -3.926714e+001  -1.304069e+001 
3262500000  -4.075940e+001  -1.550488e+001 
3265625000  -4.120389e+001  -1.257904e+001 
3268750000  -4.129442e+001  -1.187440e+001 
3271875000  -4.060801e+001  -1.466294e+001 
3275000000  -4.023407e+001  -2.441238e+001 
3278125000  -4.082365e+001  -2.962590e+001 
3281250000  -4.101973e+001  -2.958808e+001 
3284375000  -4.075537e+001  -3.712887e+001 
3287500000  -4.122907e+001  -4.059567e+001 
3290625000  -4.105847e+001  -4.845329e+001 
3293750000  -4.118059e+001  -5.371542e+001 
3296875000  -4.247353e+001  -5.506203e+001 
3300000000  -4.174731e+001  -5.328892e+001 
3303125000  -4.095191e+001  -6.166838e+001 
3306250000  -4.073197e+001  -6.930442e+001 
3309375000  -4.064004e+001  -7.519917e+001 
3312500000  -4.100552e+001  -8.967829e+001 
3315625000  -4.230744e+001  -9.772422e+001 
3318750000  -4.368401e+001  -1.000186e+002 
3321875000  -4.498841e+001  -9.513651e+001 
3325000000  -4.476599e+001  -8.987336e+001 
3328125000  -4.402489e+001  -9.076430e+001 
3331250000  -4.210401e+001  -8.567044e+001 
3334375000  -4.005507e+001  -1.011541e+002 
3337500000  -4.035342e+001  -1.233282e+002 
3340625000  -4.211347e+001  -1.310758e+002 
3343750000  -4.414652e+001  -1.307319e+002 
3346875000  -4.348629e+001  -1.314653e+002 
3350000000  -4.307677e+001  -1.345559e+002 
3353125000  -4.277546e+001  -1.425217e+002 
3356250000  -4.259325e+001  -1.509355e+002 
3359375000  -4.361476e+001  -1.616109e+002 
3362500000  -4.446338e+001  -1.690573e+002 
3365625000  -4.479729e+001  -1.715492e+002 
3368750000  -4.554025e+001  -1.774310e+002 
3371875000  -4.594086e+001  -1.791131e+002 
3375000000  -4.706456e+001  1.764025e+002 
3378125000  -4.814496e+001  1.769697e+002 
3381250000  -5.006361e+001  -1.744125e+002 
3384375000  -4.661319e+001  -1.576297e+002 
3387500000  -4.361897e+001  -1.796768e+002 
3390625000  -4.607302e+001  1.583284e+002 
3393750000  -4.731407e+001  1.621043e+002 
3396875000  -4.625523e+001  1.610627e+002 
3400000000  -4.678975e+001  1.456919e+002 
3403125000  -4.755434e+001  1.423757e+002 
3406250000  -4.796067e+001  1.368252e+002 
3409375000  -4.790930e+001  1.318448e+002 
3412500000  -4.897084e+001  1.266451e+002 
3415625000  -4.984783e+001  1.244838e+002 
3418750000  -5.022597e+001  1.247817e+002 
3421875000  -5.112278e+001  1.313366e+002 
3425000000  -4.982266e+001  1.269048e+002 
3428125000  -5.036077e+001  1.227116e+002 
3431250000  -4.993218e+001  1.193879e+002 
3434375000  -5.048887e+001  1.110472e+002 
3437500000  -5.189179e+001  1.118039e+002 
3440625000  -5.184727e+001  1.138991e+002 
3443750000  -5.156419e+001  1.142003e+002 
3446875000  -4.982412e+001  1.108634e+002 
3450000000  -5.058656e+001  9.992345e+001 
3453125000  -5.084877e+001  9.472110e+001 
3456250000  -5.171504e+001  8.586858e+001 
3459375000  -5.324351e+001  9.438088e+001 
3462500000  -5.246191e+001  9.831417e+001 
3465625000  -5.120087e+001  8.818509e+001 
3468750000  -5.215114e+001  9.126596e+001 
3471875000  -5.204716e+001  8.888255e+001 
3475000000  -5.051507e+001  8.363010e+001 
3478125000  -5.159032e+001  6.746007e+001 
3481250000  -5.282397e+001  7.262857e+001 
3484375000  -5.286828e+001  7.595073e+001 
3487500000  -5.173363e+001  7.158895e+001 
3490625000  -5.078640e+001  5.999848e+001 
3493750000  -5.193388e+001  5.741853e+001 
3496875000  -5.200112e+001  6.161663e+001 
3500000000  -5.174707e+001  5.522598e+001 
3503125000  -4.973327e+001  5.316719e+001 
3506250000  -5.038908e+001  4.458546e+001 
3509375000  -5.019214e+001  3.158428e+001 
3512500000  -5.033663e+001  1.989681e+001 
3515625000  -5.162115e+001  1.874073e+001 
3518750000  -5.209423e+001  2.155811e+001 
3521875000  -5.205484e+001  8.565160e+000 
3525000000  -5.279155e+001  8.854494e+000 
3528125000  -5.275421e+001  1.195665e+001 
3531250000  -5.188913e+001  2.689326e+000 
3534375000  -5.286969e+001  -3.549109e+000 
3537500000  -5.360226e+001  -1.367570e+001 
3540625000  -5.399492e+001  -1.480626e+001 
3543750000  -5.622836e+001  -1.298376e+001 
3546875000  -5.493876e+001  -3.454164e+000 
3550000000  -5.418620e+001  -1.084215e+001 
3553125000  -5.389253e+001  -2.990254e+001 
3556250000  -5.624913e+001  -2.318437e+001 
3559375000  -5.615990e+001  -1.852882e+001 
3562500000  -5.577535e+001  -3.165598e+001 
3565625000  -5.611756e+001  -4.737191e+001 
3568750000  -5.653961e+001  -2.660320e+001 
3571875000  -5.723286e+001  -3.521113e+001 
3575000000  -5.924137e+001  -4.030244e+001 
3578125000  -5.884761e+001  -3.610210e+001 
3581250000  -5.893846e+001  -4.043770e+001 
3584375000  -5.795781e+001  -1.913092e+001 
3587500000  -5.624721e+001  -3.628559e+001 
3590625000  -5.891161e+001  -4.526876e+001 
3593750000  -5.773263e+001  -4.236269e+001 
3596875000  -6.047900e+001  -2.394750e+001 
3600000000  -5.728654e+001  -3.152017e+001 
3603125000  -5.863424e+001  -4.644484e+001 
3606250000  -5.812971e+001  -3.107507e+001 
3609375000  -5.822417e+001  -2.520673e+001 
3612500000  -5.811448e+001  -3.758924e+001 
3615625000  -5.885553e+001  -4.275203e+001 
3618750000  -6.072677e+001  -3.130183e+001 
3621875000  -5.855623e+001  -3.638983e+001 
3625000000  -6.042195e+001  -4.010431e+001 
3628125000  -5.672947e+001  -3.263641e+001 
3631250000  -5.732055e+001  -3.248370e+001 
3634375000  -5.671569e+001  -4.085649e+001 
3637500000  -5.536554e+001  -3.858544e+001 
3640625000  -5.406956e+001  -2.764103e+001 
3643750000  -5.275451e+001  -4.081742e+001 
3646875000  -5.288922e+001  -5.999081e+001 
3650000000  -5.268478e+001  -4.585620e+001 
3653125000  -5.095548e+001  -5.450667e+001 
3656250000  -5.109163e+001  -5.476931e+001 
3659375000  -5.140888e+001  -5.499358e+001 
3662500000  -5.011567e+001  -6.541157e+001 
3665625000  -5.076593e+001  -6.215546e+001 
3668750000  -4.850812e+001  -6.356553e+001 
3671875000  -4.695121e+001  -7.459525e+001 
3675000000  -4.726125e+001  -8.318127e+001 
3678125000  -4.727673e+001  -8.637658e+001 
3681250000  -4.640784e+001  -9.281416e+001 
3684375000  -4.657894e+001  -9.473734e+001 
3687500000  -4.673042e+001  -1.040019e+002 
3690625000  -4.693706e+001  -1.108699e+002 
3693750000  -4.697202e+001  -1.087864e+002 
3696875000  -4.632687e+001  -1.058284e+002 
3700000000  -4.524020e+001  -1.150375e+002 
3703125000  -4.581923e+001  -1.228962e+002 
3706250000  -4.591557e+001  -1.263283e+002 
3709375000  -4.481145e+001  -1.249080e+002 
3712500000  -4.357635e+001  -1.282848e+002 
3715625000  -4.224956e+001  -1.381469e+002 
3718750000  -4.177321e+001  -1.436768e+002 
3721875000  -4.142979e+001  -1.539426e+002 
3725000000  -4.153621e+001  -1.602486e+002 
3728125000  -4.140998e+001  -1.637729e+002 
3731250000  -4.059596e+001  -1.713544e+002 
3734375000  -3.993379e+001  -1.785035e+002 
3737500000  -4.080589e+001  1.715535e+002 
3740625000  -4.082632e+001  1.654162e+002 
3743750000  -4.052804e+001  1.614086e+002 
3746875000  -4.055094e+001  1.536402e+002 
3750000000  -4.104044e+001  1.496067e+002 
3753125000  -4.060127e+001  1.490119e+002 
3756250000  -4.080632e+001  1.426234e+002 
3759375000  -4.020602e+001  1.383605e+002 
3762500000  -4.005323e+001  1.314420e+002 
3765625000  -4.087435e+001  1.267567e+002 
3768750000  -3.992564e+001  1.260156e+002 
3771875000  -3.846588e+001  1.201306e+002 
3775000000  -3.856413e+001  1.079792e+002 
3778125000  -3.898109e+001  1.026867e+002 
3781250000  -3.901192e+001  9.736671e+001 
3784375000  -3.862538e+001  9.153917e+001 
3787500000  -3.835180e+001  8.578518e+001 
3790625000  -3.927404e+001  7.710711e+001 
3793750000  -3.901439e+001  7.517573e+001 
3796875000  -3.828399e+001  7.009782e+001 
3800000000  -3.650359e+001  6.450317e+001 
3803125000  -3.801799e+001  5.063995e+001 
3806250000  -3.897235e+001  4.700523e+001 
3809375000  -3.863239e+001  4.359237e+001 
3812500000  -3.865967e+001  3.358315e+001 
3815625000  -3.931470e+001  2.425181e+001 
3818750000  -4.056577e+001  2.680288e+001 
3821875000  -4.020177e+001  3.588663e+001 
3825000000  -3.828773e+001  3.096813e+001 
3828125000  -3.713638e+001  1.350854e+001 
3831250000  -3.808123e+001  -7.566080e-001 
3834375000  -4.029610e+001  -1.709075e+000 
3837500000  -4.062459e+001  9.189885e-001 
3840625000  -3.906930e+001  -7.833686e-001 
3843750000  -3.839614e+001  -1.705146e+001 
3846875000  -3.974046e+001  -2.326166e+001 
3850000000  -4.095829e+001  -1.523921e+001 
3853125000  -3.989622e+001  -1.862474e+001 
3856250000  -3.942028e+001  -2.428946e+001 
3859375000  -3.851877e+001  -3.179082e+001 
3862500000  -3.861829e+001  -4.089175e+001 
3865625000  -3.906084e+001  -4.621179e+001 
3868750000  -3.885408e+001  -4.631028e+001 
3871875000  -3.806801e+001  -5.440941e+001 
3875000000  -3.864644e+001  -6.534834e+001 
3878125000  -3.955951e+001  -6.754920e+001 
3881250000  -3.945471e+001  -6.604334e+001 
3884375000  -3.884893e+001  -7.533610e+001 
3887500000  -3.915378e+001  -7.970949e+001 
3890625000  -3.948692e+001  -8.510625e+001 
3893750000  -3.988033e+001  -8.748969e+001 
3896875000  -4.010721e+001  -9.007256e+001 
3900000000  -3.994953e+001  -9.376581e+001 
3903125000  -3.917519e+001  -9.834414e+001 
3906250000  -3.909860e+001  -1.029315e+002 
3909375000  -3.835424e+001  -1.115495e+002 
3912500000  -3.909977e+001  -1.193234e+002 
3915625000  -4.044076e+001  -1.184081e+002 
3918750000  -3.981800e+001  -1.204107e+002 
3921875000  -3.946674e+001  -1.260141e+002 
3925000000  -3.858723e+001  -1.301310e+002 
3928125000  -3.829409e+001  -1.403183e+002 
3931250000  -3.902889e+001  -1.482012e+002 
3934375000  -3.964389e+001  -1.474463e+002 
3937500000  -4.004944e+001  -1.514835e+002 
3940625000  -4.028678e+001  -1.531151e+002 
3943750000  -3.910872e+001  -1.554136e+002 
3946875000  -3.838513e+001  -1.660986e+002 
3950000000  -3.943520e+001  -1.733917e+002 
3953125000  -3.993492e+001  -1.735388e+002 
3956250000  -3.901884e+001  -1.742118e+002 
3959375000  -3.789981e+001  -1.787883e+002 
3962500000  -3.771492e+001  1.708058e+002 
3965625000  -3.791041e+001  1.637844e+002 
3968750000  -3.846592e+001  1.536048e+002 
3971875000  -3.856125e+001  1.506522e+002 
3975000000  -3.840074e+001  1.457640e+002 
3978125000  -3.856874e+001  1.422281e+002 
3981250000  -3.859146e+001  1.358879e+002 
3984375000  -3.891389e+001  1.281683e+002 
3987500000  -3.975574e+001  1.238381e+002 
3990625000  -3.983167e+001  1.227583e+002 
3993750000  -3.985878e+001  1.175752e+002 
3996875000  -3.981033e+001  1.141925e+002 
4000000000  -4.081533e+001  1.071764e+002 
4003125000  -4.114951e+001  1.114256e+002 
4006250000  -3.922569e+001  1.067661e+002 
4009375000  -3.889299e+001  9.330315e+001 
4012500000  -4.031596e+001  8.603821e+001 
4015625000  -4.145608e+001  8.346635e+001 
4018750000  -4.121497e+001  8.529655e+001 
4021875000  -4.077870e+001  8.207564e+001 
4025000000  -4.040582e+001  7.710812e+001 
4028125000  -4.087031e+001  7.006077e+001 
4031250000  -4.114650e+001  6.571670e+001 
4034375000  -4.153051e+001  6.522685e+001 
4037500000  -4.111351e+001  6.722749e+001 
4040625000  -4.075578e+001  6.395955e+001 
4043750000  -4.146358e+001  5.890785e+001 
4046875000  -4.095321e+001  5.250718e+001 
4050000000  -4.052230e+001  4.927512e+001 
4053125000  -4.156401e+001  4.707899e+001 
4056250000  -4.140928e+001  5.140245e+001 
4059375000  -3.964747e+001  4.898828e+001 
4062500000  -3.902287e+001  3.974195e+001 
4065625000  -3.884816e+001  3.421482e+001 
4068750000  -3.832777e+001  2.676932e+001 
4071875000  -3.795668e+001  1.712139e+001 
4075000000  -3.847940e+001  1.178552e+001 
4078125000  -3.875140e+001  8.305610e+000 
4081250000  -3.820448e+001  1.414110e+000 
4084375000  -3.827865e+001  -7.401337e+000 
4087500000  -3.880220e+001  -1.499362e+001 
4090625000  -3.930534e+001  -1.540086e+001 
4093750000  -3.840224e+001  -1.814882e+001 
4096875000  -3.879503e+001  -2.824046e+001 
4100000000  -3.973493e+001  -3.541581e+001 
4103125000  -4.077113e+001  -3.303940e+001 
4106250000  -4.012884e+001  -3.063668e+001 
4109375000  -3.931220e+001  -3.455547e+001 
4112500000  -3.871011e+001  -4.252858e+001 
4115625000  -3.932903e+001  -4.957785e+001 
4118750000  -3.912131e+001  -5.393921e+001 
4121875000  -3.915670e+001  -6.072623e+001 
4125000000  -3.993378e+001  -6.852243e+001 
4128125000  -4.090594e+001  -6.589639e+001 
4131250000  -3.981749e+001  -6.225865e+001 
4134375000  -3.758041e+001  -6.903707e+001 
4137500000  -3.817030e+001  -9.076741e+001 
4140625000  -4.062604e+001  -9.640115e+001 
4143750000  -4.168399e+001  -9.076183e+001 
4146875000  -4.066834e+001  -8.611588e+001 
4150000000  -3.961657e+001  -9.505079e+001 
4153125000  -3.997477e+001  -1.033216e+002 
4156250000  -4.111693e+001  -1.076081e+002 
4159375000  -4.120844e+001  -1.035651e+002 
4162500000  -4.011647e+001  -9.904834e+001 
4165625000  -3.890854e+001  -1.077256e+002 
4168750000  -3.854701e+001  -1.159362e+002 
4171875000  -3.846858e+001  -1.259946e+002 
4175000000  -3.943703e+001  -1.338059e+002 
4178125000  -3.989784e+001  -1.338625e+002 
4181250000  -3.940972e+001  -1.381524e+002 
4184375000  -3.952938e+001  -1.440076e+002 
4187500000  -3.946076e+001  -1.478344e+002 
4190625000  -3.972208e+001  -1.554476e+002 
4193750000  -4.054737e+001  -1.612816e+002 
4196875000  -4.184874e+001  -1.610948e+002 
4200000000  -4.262680e+001  -1.569795e+002 
4203125000  -4.102948e+001  -1.424440e+002 
4206250000  -3.742045e+001  -1.508180e+002 
4209375000  -3.752274e+001  -1.759659e+002 
4212500000  -3.982202e+001  1.779169e+002 
4215625000  -4.023758e+001  -1.749578e+002 
4218750000  -3.844333e+001  -1.753703e+002 
4221875000  -3.670491e+001  1.750680e+002 
4225000000  -3.784778e+001  1.634657e+002 
4228125000  -3.787013e+001  1.640242e+002 
4231250000  -3.624631e+001  1.575275e+002 
4234375000  -3.655513e+001  1.467478e+002 
4237500000  -3.630331e+001  1.409426e+002 
4240625000  -3.645269e+001  1.280076e+002 
4243750000  -3.755442e+001  1.225390e+002 
4246875000  -3.857994e+001  1.216754e+002 
4250000000  -3.844812e+001  1.220527e+002 
4253125000  -3.820002e+001  1.186278e+002 
4256250000  -3.816132e+001  1.130123e+002 
4259375000  -3.764261e+001  1.080207e+002 
4262500000  -3.796813e+001  1.020437e+002 
4265625000  -3.778062e+001  1.024549e+002 
4268750000  -3.700680e+001  9.563046e+001 
4271875000  -3.698071e+001  8.436039e+001 
4275000000  -3.645149e+001  7.583611e+001 
4278125000  -3.804029e+001  6.348808e+001 
4281250000  -3.897982e+001  6.308239e+001 
4284375000  -3.906987e+001  6.114091e+001 
4287500000  -4.043017e+001  5.714221e+001 
4290625000  -4.066592e+001  6.646810e+001 
4293750000  -3.896652e+001  6.655540e+001 
4296875000  -3.780841e+001  5.190974e+001 
4300000000  -3.919693e+001  4.191299e+001 
4303125000  -4.002237e+001  4.621935e+001 
4306250000  -3.876328e+001  4.735838e+001 
4309375000  -3.805274e+001  4.373366e+001 
4312500000  -3.765795e+001  3.181440e+001 
4315625000  -3.794075e+001  2.294541e+001 
4318750000  -3.850320e+001  1.815572e+001 
4321875000  -3.862019e+001  2.011753e+001 
4325000000  -3.795142e+001  1.746553e+001 
4328125000  -3.750407e+001  9.559478e+000 
4331250000  -3.756868e+001  -2.407673e+000 
4334375000  -3.832879e+001  -7.948344e+000 
4337500000  -3.953514e+001  -8.804838e+000 
4340625000  -3.946057e+001  -5.434490e+000 
4343750000  -3.858024e+001  -6.213265e+000 
4346875000  -3.825450e+001  -1.653737e+001 
4350000000  -3.836692e+001  -2.319623e+001 
4353125000  -3.899557e+001  -3.138487e+001 
4356250000  -4.067221e+001  -2.855103e+001 
4359375000  -3.987517e+001  -1.200373e+001 
4362500000  -3.681715e+001  -2.331272e+001 
4365625000  -3.585963e+001  -3.889992e+001 
4368750000  -3.765214e+001  -5.106019e+001 
4371875000  -3.825959e+001  -4.959993e+001 
4375000000  -3.749989e+001  -5.356517e+001 
4378125000  -3.684433e+001  -6.086153e+001 
4381250000  -3.734986e+001  -6.790794e+001 
4384375000  -3.742377e+001  -7.481355e+001 
4387500000  -3.833247e+001  -8.074454e+001 
4390625000  -3.862788e+001  -8.127843e+001 
4393750000  -3.823031e+001  -8.235703e+001 
4396875000  -3.755242e+001  -8.532015e+001 
4400000000  -3.696174e+001  -9.645775e+001 
4403125000  -3.802892e+001  -1.051398e+002 
4406250000  -3.844853e+001  -1.094845e+002 
4409375000  -3.890351e+001  -1.122777e+002 
4412500000  -3.997638e+001  -1.157940e+002 
4415625000  -3.953700e+001  -1.131416e+002 
