!Agilent Technologies,E8363B,MY43030201,A.06.04.32
!Agilent E8363B: A.06.04.32
!Date: Tuesday, November 11, 2014 21:37:51
!Correction: S21(Response(S21)) 
!S1P File: Measurement: S21:
# Hz S  dB   R 50
3000000000  -4.055803e+001  6.974872e+001 
3003125000  -4.224430e+001  6.204221e+001 
3006250000  -4.203146e+001  6.241922e+001 
3009375000  -4.278574e+001  6.711863e+001 
3012500000  -4.142611e+001  6.239008e+001 
3015625000  -4.141051e+001  5.649898e+001 
3018750000  -4.175576e+001  5.738670e+001 
3021875000  -4.015908e+001  5.701862e+001 
3025000000  -3.886161e+001  5.247613e+001 
3028125000  -3.789204e+001  4.124096e+001 
3031250000  -3.706877e+001  3.058492e+001 
3034375000  -3.667173e+001  1.675791e+001 
3037500000  -3.753517e+001  5.788537e+000 
3040625000  -3.877063e+001  1.502371e+000 
3043750000  -3.910268e+001  -6.389220e+000 
3046875000  -3.986478e+001  -1.067185e+001 
3050000000  -4.100243e+001  -1.703829e+001 
3053125000  -4.050721e+001  -1.201916e+001 
3056250000  -4.059111e+001  -8.288161e+000 
3059375000  -3.965343e+001  -1.061841e+001 
3062500000  -3.815318e+001  -1.522857e+001 
3065625000  -3.773948e+001  -2.478209e+001 
3068750000  -3.754179e+001  -3.299000e+001 
3071875000  -3.770797e+001  -3.459166e+001 
3075000000  -3.698969e+001  -4.110032e+001 
3078125000  -3.707854e+001  -4.825659e+001 
3081250000  -3.719045e+001  -5.476628e+001 
3084375000  -3.633500e+001  -5.893463e+001 
3087500000  -3.646495e+001  -6.626021e+001 
3090625000  -3.598933e+001  -7.828792e+001 
3093750000  -3.692651e+001  -8.573188e+001 
3096875000  -3.733682e+001  -9.101290e+001 
3100000000  -3.723717e+001  -9.463322e+001 
3103125000  -3.758741e+001  -9.821750e+001 
3106250000  -3.720439e+001  -1.033864e+002 
3109375000  -3.734822e+001  -1.069481e+002 
3112500000  -3.713994e+001  -1.125919e+002 
3115625000  -3.714337e+001  -1.171593e+002 
3118750000  -3.713772e+001  -1.203028e+002 
3121875000  -3.651168e+001  -1.311669e+002 
3125000000  -3.861525e+001  -1.341995e+002 
3128125000  -3.858030e+001  -1.267380e+002 
3131250000  -3.606407e+001  -1.339493e+002 
3134375000  -3.532689e+001  -1.506228e+002 
3137500000  -3.607241e+001  -1.624870e+002 
3140625000  -3.729222e+001  -1.658247e+002 
3143750000  -3.816420e+001  -1.671774e+002 
3146875000  -3.749070e+001  -1.654210e+002 
3150000000  -3.689986e+001  -1.696783e+002 
3153125000  -3.722092e+001  -1.777889e+002 
3156250000  -3.805857e+001  -1.727528e+002 
3159375000  -3.561439e+001  -1.759362e+002 
3162500000  -3.415985e+001  1.685340e+002 
3165625000  -3.542768e+001  1.559971e+002 
3168750000  -3.543970e+001  1.546052e+002 
3171875000  -3.488538e+001  1.484099e+002 
3175000000  -3.543976e+001  1.387270e+002 
3178125000  -3.491885e+001  1.366602e+002 
3181250000  -3.439996e+001  1.280040e+002 
3184375000  -3.420702e+001  1.171270e+002 
3187500000  -3.551052e+001  1.025640e+002 
3190625000  -3.724847e+001  9.702298e+001 
3193750000  -3.748758e+001  1.016803e+002 
3196875000  -3.734778e+001  1.026344e+002 
3200000000  -3.615787e+001  9.714343e+001 
3203125000  -3.595478e+001  8.892912e+001 
3206250000  -3.605200e+001  8.186052e+001 
3209375000  -3.584513e+001  7.339336e+001 
3212500000  -3.623687e+001  6.732091e+001 
3215625000  -3.592774e+001  6.457485e+001 
3218750000  -3.682341e+001  5.276751e+001 
3221875000  -3.721428e+001  4.689032e+001 
3225000000  -3.698694e+001  4.290698e+001 
3228125000  -3.769783e+001  3.527057e+001 
3231250000  -3.827570e+001  3.378205e+001 
3234375000  -3.776202e+001  2.949616e+001 
3237500000  -3.786494e+001  2.592247e+001 
3240625000  -3.737922e+001  2.027894e+001 
3243750000  -3.760653e+001  9.458444e+000 
3246875000  -3.817560e+001  3.224711e+000 
3250000000  -3.889958e+001  -3.275556e-001 
3253125000  -3.905528e+001  -3.444980e+000 
3256250000  -3.850230e+001  -1.156164e+001 
3259375000  -3.917563e+001  -2.276048e+001 
3262500000  -4.052679e+001  -2.672312e+001 
3265625000  -4.107393e+001  -2.374977e+001 
3268750000  -4.113088e+001  -2.217953e+001 
3271875000  -4.057212e+001  -2.596330e+001 
3275000000  -3.985663e+001  -3.464054e+001 
3278125000  -4.073370e+001  -3.917366e+001 
3281250000  -4.108237e+001  -4.230390e+001 
3284375000  -4.039048e+001  -4.743536e+001 
3287500000  -4.098737e+001  -4.996835e+001 
3290625000  -4.108958e+001  -5.927690e+001 
3293750000  -4.109546e+001  -6.362127e+001 
3296875000  -4.234419e+001  -6.586128e+001 
3300000000  -4.194608e+001  -6.642058e+001 
3303125000  -4.091500e+001  -7.314367e+001 
3306250000  -4.065666e+001  -8.041878e+001 
3309375000  -4.034304e+001  -8.784083e+001 
3312500000  -4.100964e+001  -9.951958e+001 
3315625000  -4.196334e+001  -1.060203e+002 
3318750000  -4.402999e+001  -1.095192e+002 
3321875000  -4.491085e+001  -1.058411e+002 
3325000000  -4.491193e+001  -1.001120e+002 
3328125000  -4.373487e+001  -1.006231e+002 
3331250000  -4.213619e+001  -9.708170e+001 
3334375000  -3.970181e+001  -1.108049e+002 
3337500000  -4.048759e+001  -1.333913e+002 
3340625000  -4.242970e+001  -1.446115e+002 
3343750000  -4.405761e+001  -1.436234e+002 
3346875000  -4.330052e+001  -1.421979e+002 
3350000000  -4.279431e+001  -1.465800e+002 
3353125000  -4.271594e+001  -1.545845e+002 
3356250000  -4.242032e+001  -1.605781e+002 
3359375000  -4.348396e+001  -1.733405e+002 
3362500000  -4.422858e+001  -1.781747e+002 
3365625000  -4.483899e+001  1.782841e+002 
3368750000  -4.536104e+001  1.743489e+002 
3371875000  -4.595681e+001  1.697846e+002 
3375000000  -4.741093e+001  1.650414e+002 
3378125000  -4.849283e+001  1.687556e+002 
3381250000  -4.930860e+001  1.770864e+002 
3384375000  -4.660187e+001  -1.687222e+002 
3387500000  -4.390393e+001  1.709202e+002 
3390625000  -4.544732e+001  1.494411e+002 
3393750000  -4.687498e+001  1.526050e+002 
3396875000  -4.582509e+001  1.505600e+002 
3400000000  -4.594296e+001  1.365906e+002 
3403125000  -4.677914e+001  1.323175e+002 
3406250000  -4.738744e+001  1.291804e+002 
3409375000  -4.767586e+001  1.182267e+002 
3412500000  -4.858062e+001  1.137531e+002 
3415625000  -4.987198e+001  1.148289e+002 
3418750000  -5.056819e+001  1.185321e+002 
3421875000  -5.147410e+001  1.182643e+002 
3425000000  -4.974470e+001  1.175248e+002 
3428125000  -4.972891e+001  1.116258e+002 
3431250000  -4.973597e+001  1.074834e+002 
3434375000  -5.108876e+001  1.016599e+002 
3437500000  -5.180833e+001  1.015733e+002 
3440625000  -5.261681e+001  1.052738e+002 
3443750000  -5.017076e+001  1.090224e+002 
3446875000  -5.090665e+001  9.469893e+001 
3450000000  -5.056640e+001  8.627163e+001 
3453125000  -5.074564e+001  8.021599e+001 
3456250000  -5.203518e+001  7.773386e+001 
3459375000  -5.255207e+001  8.459085e+001 
3462500000  -5.239112e+001  8.269720e+001 
3465625000  -5.174465e+001  7.412247e+001 
3468750000  -5.224428e+001  7.514536e+001 
3471875000  -5.186977e+001  7.565228e+001 
3475000000  -5.150904e+001  6.934521e+001 
3478125000  -5.071762e+001  5.881971e+001 
3481250000  -5.265450e+001  6.019837e+001 
3484375000  -5.275292e+001  5.876897e+001 
3487500000  -5.142632e+001  5.954486e+001 
3490625000  -5.167651e+001  4.960171e+001 
3493750000  -5.165530e+001  4.133490e+001 
3496875000  -5.096493e+001  4.726300e+001 
3500000000  -5.210069e+001  4.743428e+001 
3503125000  -5.126269e+001  4.302394e+001 
3506250000  -4.990209e+001  3.447568e+001 
3509375000  -4.990956e+001  1.775473e+001 
3512500000  -4.966919e+001  1.091384e+001 
3515625000  -5.138338e+001  4.763811e+000 
3518750000  -5.201275e+001  1.134829e+001 
3521875000  -5.166594e+001  8.841651e-001 
3525000000  -5.320281e+001  -3.567678e+000 
3528125000  -5.164269e+001  5.171573e+000 
3531250000  -5.043365e+001  -7.220629e+000 
3534375000  -5.240578e+001  -2.141529e+001 
3537500000  -5.305019e+001  -2.789071e+001 
3540625000  -5.521609e+001  -3.056041e+001 
3543750000  -5.573124e+001  -2.390888e+001 
3546875000  -5.580795e+001  -3.288521e+000 
3550000000  -5.406819e+001  -2.324086e+001 
3553125000  -5.271762e+001  -3.143998e+001 
3556250000  -5.671279e+001  -3.586596e+001 
3559375000  -5.571529e+001  -2.487699e+001 
3562500000  -5.588858e+001  -3.730555e+001 
3565625000  -5.584043e+001  -5.667864e+001 
3568750000  -5.663802e+001  -4.410303e+001 
3571875000  -5.821707e+001  -4.937991e+001 
3575000000  -5.865670e+001  -4.523920e+001 
3578125000  -5.948862e+001  -5.543262e+001 
3581250000  -5.783730e+001  -3.617194e+001 
3584375000  -5.827370e+001  -4.113414e+001 
3587500000  -5.731383e+001  -5.490763e+001 
3590625000  -5.716011e+001  -5.775458e+001 
3593750000  -5.914191e+001  -4.732354e+001 
3596875000  -6.018225e+001  -3.432798e+001 
3600000000  -5.865078e+001  -4.365847e+001 
3603125000  -5.886253e+001  -6.158187e+001 
3606250000  -5.896032e+001  -6.397932e+001 
3609375000  -5.849118e+001  -5.265345e+001 
3612500000  -5.903291e+001  -5.200659e+001 
3615625000  -5.718584e+001  -6.369652e+001 
3618750000  -5.902096e+001  -5.048404e+001 
3621875000  -5.807814e+001  -4.993185e+001 
3625000000  -5.939320e+001  -4.703700e+001 
3628125000  -5.677304e+001  -4.907226e+001 
3631250000  -5.628472e+001  -5.234600e+001 
3634375000  -5.733241e+001  -5.384535e+001 
3637500000  -5.472035e+001  -4.784224e+001 
3640625000  -5.504234e+001  -3.666349e+001 
3643750000  -5.274890e+001  -5.152617e+001 
3646875000  -5.310512e+001  -5.612833e+001 
3650000000  -5.303291e+001  -6.207847e+001 
3653125000  -5.247273e+001  -6.534406e+001 
3656250000  -5.193829e+001  -6.449244e+001 
3659375000  -5.141456e+001  -7.146644e+001 
3662500000  -5.102450e+001  -7.021407e+001 
3665625000  -4.979575e+001  -7.437628e+001 
3668750000  -4.818128e+001  -7.660658e+001 
3671875000  -4.761810e+001  -8.744080e+001 
3675000000  -4.712214e+001  -9.548139e+001 
3678125000  -4.725026e+001  -1.001444e+002 
3681250000  -4.667530e+001  -1.042769e+002 
3684375000  -4.669467e+001  -1.094332e+002 
3687500000  -4.673594e+001  -1.137159e+002 
3690625000  -4.663832e+001  -1.209204e+002 
3693750000  -4.675580e+001  -1.195698e+002 
3696875000  -4.636625e+001  -1.231363e+002 
3700000000  -4.526703e+001  -1.263983e+002 
3703125000  -4.582021e+001  -1.342898e+002 
3706250000  -4.571720e+001  -1.351868e+002 
3709375000  -4.450566e+001  -1.337396e+002 
3712500000  -4.373549e+001  -1.423208e+002 
3715625000  -4.188020e+001  -1.500596e+002 
3718750000  -4.149938e+001  -1.566057e+002 
3721875000  -4.121725e+001  -1.657074e+002 
3725000000  -4.153309e+001  -1.742298e+002 
3728125000  -4.139976e+001  -1.796324e+002 
3731250000  -4.079318e+001  1.775406e+002 
3734375000  -3.986366e+001  1.697904e+002 
3737500000  -4.080974e+001  1.599948e+002 
3740625000  -4.098459e+001  1.553919e+002 
3743750000  -4.045773e+001  1.474088e+002 
3746875000  -4.064655e+001  1.417805e+002 
3750000000  -4.111656e+001  1.377570e+002 
3753125000  -4.055217e+001  1.362686e+002 
3756250000  -4.041932e+001  1.314621e+002 
3759375000  -4.040890e+001  1.253478e+002 
3762500000  -4.012222e+001  1.202652e+002 
3765625000  -4.055125e+001  1.147101e+002 
3768750000  -4.009877e+001  1.151342e+002 
3771875000  -3.842764e+001  1.065581e+002 
3775000000  -3.853460e+001  9.558601e+001 
3778125000  -3.894851e+001  8.858987e+001 
3781250000  -3.907753e+001  8.545083e+001 
3784375000  -3.889749e+001  8.064989e+001 
3787500000  -3.855453e+001  7.335207e+001 
3790625000  -3.910445e+001  6.376322e+001 
3793750000  -3.914888e+001  6.035234e+001 
3796875000  -3.807465e+001  5.645225e+001 
3800000000  -3.643699e+001  5.139766e+001 
3803125000  -3.807041e+001  4.002772e+001 
3806250000  -3.894151e+001  3.474393e+001 
3809375000  -3.844427e+001  3.069788e+001 
3812500000  -3.846930e+001  2.103275e+001 
3815625000  -3.969411e+001  1.126839e+001 
3818750000  -4.110080e+001  1.445840e+001 
3821875000  -4.013237e+001  2.320778e+001 
3825000000  -3.827139e+001  1.893184e+001 
3828125000  -3.682103e+001  -7.297981e-001 
3831250000  -3.804935e+001  -1.426402e+001 
3834375000  -4.031421e+001  -1.453798e+001 
3837500000  -4.057394e+001  -1.080272e+001 
3840625000  -3.891365e+001  -1.478257e+001 
3843750000  -3.841713e+001  -2.866291e+001 
3846875000  -3.995833e+001  -3.514226e+001 
3850000000  -4.048698e+001  -2.807530e+001 
3853125000  -4.009475e+001  -3.024180e+001 
3856250000  -3.913631e+001  -3.721397e+001 
3859375000  -3.850232e+001  -4.516573e+001 
3862500000  -3.842840e+001  -5.519809e+001 
3865625000  -3.897500e+001  -5.949074e+001 
3868750000  -3.871286e+001  -6.088817e+001 
3871875000  -3.792527e+001  -6.907844e+001 
3875000000  -3.861668e+001  -7.835812e+001 
3878125000  -3.938710e+001  -7.967113e+001 
3881250000  -3.908999e+001  -8.215152e+001 
3884375000  -3.877597e+001  -8.680328e+001 
3887500000  -3.900316e+001  -9.346806e+001 
3890625000  -3.942470e+001  -9.775625e+001 
3893750000  -3.966351e+001  -1.007818e+002 
3896875000  -3.988540e+001  -1.021578e+002 
3900000000  -3.999585e+001  -1.075077e+002 
3903125000  -3.933669e+001  -1.114217e+002 
3906250000  -3.901555e+001  -1.151937e+002 
3909375000  -3.804395e+001  -1.238234e+002 
3912500000  -3.906371e+001  -1.344636e+002 
3915625000  -4.039186e+001  -1.311518e+002 
3918750000  -3.982665e+001  -1.328240e+002 
3921875000  -3.932590e+001  -1.398548e+002 
3925000000  -3.854246e+001  -1.448791e+002 
3928125000  -3.842382e+001  -1.542560e+002 
3931250000  -3.905318e+001  -1.608660e+002 
3934375000  -3.943432e+001  -1.618432e+002 
3937500000  -3.992943e+001  -1.637277e+002 
3940625000  -3.977770e+001  -1.659580e+002 
3943750000  -3.882902e+001  -1.677753e+002 
3946875000  -3.836009e+001  -1.778871e+002 
3950000000  -3.942774e+001  1.725728e+002 
3953125000  -3.989034e+001  1.732033e+002 
3956250000  -3.888209e+001  1.740282e+002 
3959375000  -3.776936e+001  1.674862e+002 
3962500000  -3.763821e+001  1.579585e+002 
3965625000  -3.780625e+001  1.495003e+002 
3968750000  -3.843324e+001  1.412316e+002 
3971875000  -3.840508e+001  1.367236e+002 
3975000000  -3.834737e+001  1.330452e+002 
3978125000  -3.848055e+001  1.293581e+002 
3981250000  -3.851622e+001  1.221617e+002 
3984375000  -3.920063e+001  1.144654e+002 
3987500000  -3.982575e+001  1.109588e+002 
3990625000  -3.997601e+001  1.093643e+002 
3993750000  -4.014902e+001  1.055270e+002 
3996875000  -4.007857e+001  9.941826e+001 
4000000000  -4.068837e+001  9.352426e+001 
4003125000  -4.077805e+001  9.768804e+001 
4006250000  -3.916502e+001  9.580487e+001 
4009375000  -3.853790e+001  8.079151e+001 
4012500000  -4.017616e+001  7.183490e+001 
4015625000  -4.144001e+001  7.407837e+001 
4018750000  -4.138614e+001  7.222945e+001 
4021875000  -4.066511e+001  6.852180e+001 
4025000000  -4.033346e+001  6.425091e+001 
4028125000  -4.049847e+001  5.557063e+001 
4031250000  -4.130198e+001  5.422828e+001 
4034375000  -4.136256e+001  5.228284e+001 
4037500000  -4.111409e+001  5.123699e+001 
4040625000  -4.118055e+001  4.784063e+001 
4043750000  -4.123186e+001  4.349295e+001 
4046875000  -4.083483e+001  3.992999e+001 
4050000000  -4.060072e+001  3.562531e+001 
4053125000  -4.128238e+001  3.379639e+001 
4056250000  -4.129986e+001  3.836006e+001 
4059375000  -3.939207e+001  3.617869e+001 
4062500000  -3.861204e+001  2.668163e+001 
4065625000  -3.900708e+001  1.923030e+001 
4068750000  -3.814772e+001  1.475830e+001 
4071875000  -3.785409e+001  4.403390e+000 
4075000000  -3.844937e+001  -3.996144e+000 
4078125000  -3.865163e+001  -6.216514e+000 
4081250000  -3.822489e+001  -1.079492e+001 
4084375000  -3.810676e+001  -2.141421e+001 
4087500000  -3.859232e+001  -2.828576e+001 
4090625000  -3.918448e+001  -2.936576e+001 
4093750000  -3.866161e+001  -3.261876e+001 
4096875000  -3.870810e+001  -4.147006e+001 
4100000000  -3.994303e+001  -4.845013e+001 
4103125000  -4.082452e+001  -4.585252e+001 
4106250000  -3.976390e+001  -4.377852e+001 
4109375000  -3.927856e+001  -4.762248e+001 
4112500000  -3.842430e+001  -5.743456e+001 
4115625000  -3.923730e+001  -6.418516e+001 
4118750000  -3.903748e+001  -6.672930e+001 
4121875000  -3.900802e+001  -7.597857e+001 
4125000000  -4.009341e+001  -8.318951e+001 
4128125000  -4.100903e+001  -7.816328e+001 
4131250000  -3.965714e+001  -7.377119e+001 
4134375000  -3.759067e+001  -8.371622e+001 
4137500000  -3.795203e+001  -1.060761e+002 
4140625000  -4.039192e+001  -1.103448e+002 
4143750000  -4.137520e+001  -1.064007e+002 
4146875000  -4.053727e+001  -1.014525e+002 
4150000000  -3.939392e+001  -1.076237e+002 
4153125000  -3.990361e+001  -1.179272e+002 
4156250000  -4.105815e+001  -1.226751e+002 
4159375000  -4.099396e+001  -1.155434e+002 
4162500000  -3.968790e+001  -1.138687e+002 
4165625000  -3.849243e+001  -1.212355e+002 
4168750000  -3.835000e+001  -1.320322e+002 
4171875000  -3.851622e+001  -1.421303e+002 
4175000000  -3.953053e+001  -1.474467e+002 
4178125000  -3.966784e+001  -1.494509e+002 
4181250000  -3.931584e+001  -1.532039e+002 
4184375000  -3.935095e+001  -1.569142e+002 
4187500000  -3.907460e+001  -1.622079e+002 
4190625000  -3.960493e+001  -1.705366e+002 
4193750000  -4.066452e+001  -1.750040e+002 
4196875000  -4.133321e+001  -1.757576e+002 
4200000000  -4.241942e+001  -1.674897e+002 
4203125000  -4.065969e+001  -1.570115e+002 
4206250000  -3.715000e+001  -1.673936e+002 
4209375000  -3.707906e+001  1.709340e+002 
4212500000  -3.947283e+001  1.629763e+002 
4215625000  -4.008147e+001  1.707679e+002 
4218750000  -3.812443e+001  1.717931e+002 
4221875000  -3.667801e+001  1.617169e+002 
4225000000  -3.772166e+001  1.497105e+002 
4228125000  -3.783688e+001  1.499053e+002 
4231250000  -3.621415e+001  1.433570e+002 
4234375000  -3.639202e+001  1.327673e+002 
4237500000  -3.617376e+001  1.275745e+002 
4240625000  -3.640812e+001  1.142540e+002 
4243750000  -3.746291e+001  1.067257e+002 
4246875000  -3.844049e+001  1.069259e+002 
4250000000  -3.862658e+001  1.084530e+002 
4253125000  -3.797322e+001  1.036807e+002 
4256250000  -3.800459e+001  9.886837e+001 
4259375000  -3.774837e+001  9.145436e+001 
4262500000  -3.783995e+001  8.838731e+001 
4265625000  -3.788430e+001  8.725883e+001 
4268750000  -3.695782e+001  7.998476e+001 
4271875000  -3.666264e+001  6.967348e+001 
4275000000  -3.665953e+001  6.223402e+001 
4278125000  -3.780406e+001  5.055729e+001 
4281250000  -3.889368e+001  4.722351e+001 
4284375000  -3.901973e+001  4.406206e+001 
4287500000  -4.029332e+001  4.321454e+001 
4290625000  -4.050632e+001  5.164891e+001 
4293750000  -3.851130e+001  5.091527e+001 
4296875000  -3.765179e+001  3.764233e+001 
4300000000  -3.893020e+001  2.865925e+001 
4303125000  -3.980885e+001  3.254848e+001 
4306250000  -3.840620e+001  3.456672e+001 
4309375000  -3.762948e+001  2.906432e+001 
4312500000  -3.763022e+001  1.698634e+001 
4315625000  -3.795083e+001  8.415569e+000 
4318750000  -3.860328e+001  5.162359e+000 
4321875000  -3.877657e+001  5.232155e+000 
4325000000  -3.811790e+001  2.956396e+000 
4328125000  -3.707294e+001  -4.707897e+000 
4331250000  -3.740648e+001  -1.575756e+001 
4334375000  -3.833331e+001  -2.278057e+001 
4337500000  -3.941273e+001  -2.417034e+001 
4340625000  -3.976923e+001  -1.841208e+001 
4343750000  -3.838576e+001  -2.244213e+001 
4346875000  -3.822504e+001  -3.118169e+001 
4350000000  -3.823832e+001  -3.936152e+001 
4353125000  -3.916100e+001  -4.571801e+001 
4356250000  -4.123592e+001  -4.295984e+001 
4359375000  -3.983119e+001  -2.856788e+001 
4362500000  -3.608569e+001  -3.695498e+001 
4365625000  -3.572305e+001  -5.588947e+001 
4368750000  -3.693436e+001  -6.286589e+001 
4371875000  -3.781079e+001  -6.417250e+001 
4375000000  -3.699569e+001  -6.698216e+001 
4378125000  -3.676534e+001  -7.577242e+001 
4381250000  -3.707478e+001  -8.434485e+001 
4384375000  -3.702778e+001  -9.047311e+001 
4387500000  -3.828072e+001  -9.500416e+001 
4390625000  -3.851112e+001  -9.923134e+001 
4393750000  -3.787783e+001  -9.648737e+001 
4396875000  -3.721355e+001  -1.028975e+002 
4400000000  -3.694910e+001  -1.112154e+002 
4403125000  -3.773622e+001  -1.216977e+002 
4406250000  -3.832132e+001  -1.239924e+002 
4409375000  -3.881422e+001  -1.274734e+002 
4412500000  -3.969735e+001  -1.291693e+002 
4415625000  -3.956557e+001  -1.251900e+002 
