!Agilent Technologies,E8363B,MY43030201,A.06.04.32
!Agilent E8363B: A.06.04.32
!Date: Tuesday, November 11, 2014 21:32:41
!Correction: S21(Response(S21)) 
!S1P File: Measurement: S21:
# Hz S  dB   R 50
3000000000  -4.049718e+001  7.554345e+001 
3003125000  -4.219768e+001  6.939209e+001 
3006250000  -4.225930e+001  6.767006e+001 
3009375000  -4.281147e+001  7.272636e+001 
3012500000  -4.144277e+001  6.686732e+001 
3015625000  -4.149583e+001  6.163419e+001 
3018750000  -4.175964e+001  6.177869e+001 
3021875000  -4.003887e+001  6.254072e+001 
3025000000  -3.892856e+001  5.887830e+001 
3028125000  -3.790482e+001  4.851468e+001 
3031250000  -3.696394e+001  3.666780e+001 
3034375000  -3.669596e+001  2.222496e+001 
3037500000  -3.751770e+001  1.157615e+001 
3040625000  -3.884306e+001  5.932944e+000 
3043750000  -3.928656e+001  5.128197e-002 
3046875000  -3.984243e+001  -4.593190e+000 
3050000000  -4.095875e+001  -1.113661e+001 
3053125000  -4.050173e+001  -5.170249e+000 
3056250000  -4.044767e+001  -1.972496e+000 
3059375000  -3.973719e+001  -5.266492e+000 
3062500000  -3.805535e+001  -9.091272e+000 
3065625000  -3.786175e+001  -1.873044e+001 
3068750000  -3.762121e+001  -2.704126e+001 
3071875000  -3.763139e+001  -2.922595e+001 
3075000000  -3.698062e+001  -3.582608e+001 
3078125000  -3.718044e+001  -4.189124e+001 
3081250000  -3.733434e+001  -4.781425e+001 
3084375000  -3.637233e+001  -5.244964e+001 
3087500000  -3.647274e+001  -6.002530e+001 
3090625000  -3.590977e+001  -7.271592e+001 
3093750000  -3.690360e+001  -8.022387e+001 
3096875000  -3.721622e+001  -8.504940e+001 
3100000000  -3.716056e+001  -8.844711e+001 
3103125000  -3.759704e+001  -9.194916e+001 
3106250000  -3.720382e+001  -9.703871e+001 
3109375000  -3.726413e+001  -1.010762e+002 
3112500000  -3.714672e+001  -1.070154e+002 
3115625000  -3.725480e+001  -1.106974e+002 
3118750000  -3.718435e+001  -1.138502e+002 
3121875000  -3.658670e+001  -1.247266e+002 
3125000000  -3.842287e+001  -1.292115e+002 
3128125000  -3.858401e+001  -1.214935e+002 
3131250000  -3.606607e+001  -1.280732e+002 
3134375000  -3.544880e+001  -1.441074e+002 
3137500000  -3.601924e+001  -1.558007e+002 
3140625000  -3.725571e+001  -1.593459e+002 
3143750000  -3.821944e+001  -1.616017e+002 
3146875000  -3.766682e+001  -1.591941e+002 
3150000000  -3.693919e+001  -1.633834e+002 
3153125000  -3.705778e+001  -1.726025e+002 
3156250000  -3.787710e+001  -1.675445e+002 
3159375000  -3.564885e+001  -1.694394e+002 
3162500000  -3.427240e+001  1.751265e+002 
3165625000  -3.542593e+001  1.620391e+002 
3168750000  -3.547315e+001  1.616952e+002 
3171875000  -3.488569e+001  1.539967e+002 
3175000000  -3.553160e+001  1.450666e+002 
3178125000  -3.504602e+001  1.428570e+002 
3181250000  -3.446461e+001  1.348560e+002 
3184375000  -3.416358e+001  1.233873e+002 
3187500000  -3.541825e+001  1.084502e+002 
3190625000  -3.715261e+001  1.021178e+002 
3193750000  -3.741227e+001  1.076127e+002 
3196875000  -3.740409e+001  1.091377e+002 
3200000000  -3.613034e+001  1.035202e+002 
3203125000  -3.592439e+001  9.653036e+001 
3206250000  -3.617690e+001  8.820004e+001 
3209375000  -3.574690e+001  7.985876e+001 
3212500000  -3.623687e+001  7.366475e+001 
3215625000  -3.609621e+001  7.089537e+001 
3218750000  -3.679269e+001  5.863328e+001 
3221875000  -3.719942e+001  5.304748e+001 
3225000000  -3.700592e+001  4.737126e+001 
3228125000  -3.769783e+001  4.185773e+001 
3231250000  -3.829158e+001  4.018523e+001 
3234375000  -3.803785e+001  3.722219e+001 
3237500000  -3.814732e+001  3.225009e+001 
3240625000  -3.751553e+001  2.722087e+001 
3243750000  -3.780623e+001  1.728014e+001 
3246875000  -3.817309e+001  9.099637e+000 
3250000000  -3.873217e+001  5.845878e+000 
3253125000  -3.884934e+001  3.094230e+000 
3256250000  -3.853042e+001  -5.667997e+000 
3259375000  -3.904628e+001  -1.613421e+001 
3262500000  -4.058679e+001  -2.054636e+001 
3265625000  -4.121492e+001  -1.704746e+001 
3268750000  -4.120698e+001  -1.544982e+001 
3271875000  -4.055763e+001  -1.961651e+001 
3275000000  -4.015514e+001  -2.869321e+001 
3278125000  -4.085275e+001  -3.336541e+001 
3281250000  -4.104494e+001  -3.500145e+001 
3284375000  -4.054451e+001  -3.988509e+001 
3287500000  -4.079269e+001  -4.526108e+001 
3290625000  -4.120185e+001  -5.291167e+001 
3293750000  -4.110426e+001  -5.878741e+001 
3296875000  -4.257218e+001  -5.971975e+001 
3300000000  -4.194609e+001  -5.866003e+001 
3303125000  -4.084480e+001  -6.461761e+001 
3306250000  -4.072623e+001  -7.400452e+001 
3309375000  -4.046250e+001  -8.127095e+001 
3312500000  -4.094242e+001  -9.336008e+001 
3315625000  -4.213834e+001  -9.992082e+001 
3318750000  -4.361143e+001  -1.041605e+002 
3321875000  -4.493342e+001  -9.919910e+001 
3325000000  -4.508624e+001  -9.325461e+001 
3328125000  -4.407661e+001  -9.520045e+001 
3331250000  -4.271762e+001  -9.041553e+001 
3334375000  -3.962455e+001  -1.057630e+002 
3337500000  -4.032192e+001  -1.272299e+002 
3340625000  -4.215920e+001  -1.368651e+002 
3343750000  -4.407088e+001  -1.346509e+002 
3346875000  -4.346488e+001  -1.361405e+002 
3350000000  -4.321525e+001  -1.394708e+002 
3353125000  -4.275751e+001  -1.473166e+002 
3356250000  -4.230380e+001  -1.531776e+002 
3359375000  -4.359703e+001  -1.673993e+002 
3362500000  -4.459863e+001  -1.721400e+002 
3365625000  -4.453276e+001  -1.768207e+002 
3368750000  -4.561129e+001  -1.780354e+002 
3371875000  -4.597629e+001  1.753441e+002 
3375000000  -4.766314e+001  1.712670e+002 
3378125000  -4.804104e+001  1.694978e+002 
3381250000  -4.956793e+001  -1.793521e+002 
3384375000  -4.677584e+001  -1.626802e+002 
3387500000  -4.388730e+001  1.772838e+002 
3390625000  -4.594405e+001  1.554856e+002 
3393750000  -4.709051e+001  1.532344e+002 
3396875000  -4.581586e+001  1.526341e+002 
3400000000  -4.566724e+001  1.435071e+002 
3403125000  -4.654813e+001  1.357189e+002 
3406250000  -4.788934e+001  1.321637e+002 
3409375000  -4.776868e+001  1.297007e+002 
3412500000  -4.887340e+001  1.224543e+002 
3415625000  -4.996755e+001  1.158957e+002 
3418750000  -5.025810e+001  1.218721e+002 
3421875000  -5.135431e+001  1.291409e+002 
3425000000  -5.038466e+001  1.216950e+002 
3428125000  -5.032132e+001  1.177089e+002 
3431250000  -4.943745e+001  1.110492e+002 
3434375000  -5.041665e+001  1.080413e+002 
3437500000  -5.198598e+001  1.045483e+002 
3440625000  -5.149519e+001  1.102542e+002 
3443750000  -5.091865e+001  1.103507e+002 
3446875000  -5.077470e+001  1.046069e+002 
3450000000  -5.089318e+001  9.501202e+001 
3453125000  -5.138650e+001  8.383954e+001 
3456250000  -5.200915e+001  8.334444e+001 
3459375000  -5.214687e+001  9.103556e+001 
3462500000  -5.245260e+001  9.239774e+001 
3465625000  -5.158424e+001  7.968763e+001 
3468750000  -5.239941e+001  7.881837e+001 
3471875000  -5.155044e+001  8.171391e+001 
3475000000  -5.047214e+001  7.315440e+001 
3478125000  -5.100037e+001  6.540854e+001 
3481250000  -5.186846e+001  7.011655e+001 
3484375000  -5.235345e+001  7.024593e+001 
3487500000  -5.150631e+001  6.200573e+001 
3490625000  -5.105086e+001  5.805939e+001 
3493750000  -5.125263e+001  5.334957e+001 
3496875000  -5.201646e+001  5.395770e+001 
3500000000  -5.240141e+001  5.555246e+001 
3503125000  -5.115891e+001  4.889248e+001 
3506250000  -5.038000e+001  3.845516e+001 
3509375000  -4.937195e+001  2.614082e+001 
3512500000  -5.002504e+001  1.485740e+001 
3515625000  -5.212064e+001  1.278475e+001 
3518750000  -5.225974e+001  1.219380e+001 
3521875000  -5.187023e+001  1.120112e+001 
3525000000  -5.264606e+001  1.717529e+000 
3528125000  -5.219259e+001  7.778676e+000 
3531250000  -5.143172e+001  5.853410e-001 
3534375000  -5.275671e+001  -8.219558e+000 
3537500000  -5.464904e+001  -2.089616e+001 
3540625000  -5.443982e+001  -2.254340e+001 
3543750000  -5.641165e+001  -9.507905e+000 
3546875000  -5.653669e+001  -6.953977e+000 
3550000000  -5.329877e+001  -1.155020e+001 
3553125000  -5.408889e+001  -2.809748e+001 
3556250000  -5.540118e+001  -2.418679e+001 
3559375000  -5.700150e+001  -4.071341e+001 
3562500000  -5.633427e+001  -3.514389e+001 
3565625000  -5.753191e+001  -4.729095e+001 
3568750000  -5.831067e+001  -3.282238e+001 
3571875000  -5.859317e+001  -4.082153e+001 
3575000000  -5.821813e+001  -5.522763e+001 
3578125000  -5.983348e+001  -3.731000e+001 
3581250000  -5.921387e+001  -3.349267e+001 
3584375000  -5.734278e+001  -2.451142e+001 
3587500000  -5.594862e+001  -3.574495e+001 
3590625000  -5.931948e+001  -5.292310e+001 
3593750000  -5.832180e+001  -4.127552e+001 
3596875000  -5.886583e+001  -3.163190e+001 
3600000000  -5.687447e+001  -2.853752e+001 
3603125000  -5.808447e+001  -4.119913e+001 
3606250000  -6.009455e+001  -3.472736e+001 
3609375000  -5.853856e+001  -2.569976e+001 
3612500000  -5.776257e+001  -5.098970e+001 
3615625000  -5.776805e+001  -4.557885e+001 
3618750000  -5.842762e+001  -3.704348e+001 
3621875000  -5.776229e+001  -5.139727e+001 
3625000000  -5.863221e+001  -4.854918e+001 
3628125000  -5.745307e+001  -3.623903e+001 
3631250000  -5.627685e+001  -4.651059e+001 
3634375000  -5.626180e+001  -3.665668e+001 
3637500000  -5.584036e+001  -3.757868e+001 
3640625000  -5.412205e+001  -3.131176e+001 
3643750000  -5.279842e+001  -4.449744e+001 
3646875000  -5.327133e+001  -5.028184e+001 
3650000000  -5.317558e+001  -5.266108e+001 
3653125000  -5.182101e+001  -5.427658e+001 
3656250000  -5.172184e+001  -5.871376e+001 
3659375000  -5.107389e+001  -6.419552e+001 
3662500000  -5.087897e+001  -6.344029e+001 
3665625000  -4.980307e+001  -6.719105e+001 
3668750000  -4.741256e+001  -7.108186e+001 
3671875000  -4.716560e+001  -8.102838e+001 
3675000000  -4.758975e+001  -8.937093e+001 
3678125000  -4.717444e+001  -9.560455e+001 
3681250000  -4.649191e+001  -9.648180e+001 
3684375000  -4.679269e+001  -1.015391e+002 
3687500000  -4.668663e+001  -1.088254e+002 
3690625000  -4.707183e+001  -1.126448e+002 
3693750000  -4.711953e+001  -1.116815e+002 
3696875000  -4.600949e+001  -1.145849e+002 
3700000000  -4.510969e+001  -1.226991e+002 
3703125000  -4.551836e+001  -1.272662e+002 
3706250000  -4.639752e+001  -1.252830e+002 
3709375000  -4.500388e+001  -1.270395e+002 
3712500000  -4.366023e+001  -1.361563e+002 
3715625000  -4.161767e+001  -1.430843e+002 
3718750000  -4.171037e+001  -1.513706e+002 
3721875000  -4.115884e+001  -1.588313e+002 
3725000000  -4.152326e+001  -1.667960e+002 
3728125000  -4.127184e+001  -1.694922e+002 
3731250000  -4.050604e+001  -1.746082e+002 
3734375000  -4.014580e+001  1.778262e+002 
3737500000  -4.060001e+001  1.695741e+002 
3740625000  -4.095583e+001  1.611342e+002 
3743750000  -4.020921e+001  1.546309e+002 
3746875000  -4.065588e+001  1.494448e+002 
3750000000  -4.110229e+001  1.459867e+002 
3753125000  -4.063482e+001  1.419246e+002 
3756250000  -4.072491e+001  1.381216e+002 
3759375000  -4.063971e+001  1.337596e+002 
3762500000  -4.016357e+001  1.277266e+002 
3765625000  -4.080079e+001  1.227772e+002 
3768750000  -4.017130e+001  1.224902e+002 
3771875000  -3.832718e+001  1.154086e+002 
3775000000  -3.854807e+001  1.026028e+002 
3778125000  -3.899268e+001  9.783185e+001 
3781250000  -3.900082e+001  9.423248e+001 
3784375000  -3.891851e+001  8.536649e+001 
3787500000  -3.839411e+001  8.190386e+001 
3790625000  -3.915567e+001  7.233129e+001 
3793750000  -3.900681e+001  6.820428e+001 
3796875000  -3.844449e+001  6.406256e+001 
3800000000  -3.652555e+001  5.936809e+001 
3803125000  -3.798888e+001  4.569688e+001 
3806250000  -3.888298e+001  4.291289e+001 
3809375000  -3.843234e+001  3.793579e+001 
3812500000  -3.850439e+001  2.913553e+001 
3815625000  -3.926187e+001  1.917404e+001 
3818750000  -4.071290e+001  2.016063e+001 
3821875000  -4.044180e+001  3.054202e+001 
3825000000  -3.821592e+001  2.629807e+001 
3828125000  -3.709443e+001  8.375208e+000 
3831250000  -3.806958e+001  -7.412631e+000 
3834375000  -4.058841e+001  -6.855922e+000 
3837500000  -4.062629e+001  -2.819862e+000 
3840625000  -3.896046e+001  -5.922976e+000 
3843750000  -3.844519e+001  -2.257363e+001 
3846875000  -3.996126e+001  -2.763911e+001 
3850000000  -4.098017e+001  -2.079218e+001 
3853125000  -4.019555e+001  -2.003737e+001 
3856250000  -3.948367e+001  -2.900987e+001 
3859375000  -3.843928e+001  -3.637299e+001 
3862500000  -3.852875e+001  -4.835922e+001 
3865625000  -3.909026e+001  -5.154966e+001 
3868750000  -3.872979e+001  -5.193710e+001 
3871875000  -3.795402e+001  -5.912559e+001 
3875000000  -3.852662e+001  -7.149904e+001 
3878125000  -3.961882e+001  -7.347623e+001 
3881250000  -3.928620e+001  -7.322890e+001 
3884375000  -3.871703e+001  -7.903566e+001 
3887500000  -3.917237e+001  -8.494373e+001 
3890625000  -3.956166e+001  -9.056180e+001 
3893750000  -3.979528e+001  -9.338499e+001 
3896875000  -4.021238e+001  -9.454913e+001 
3900000000  -3.997545e+001  -9.965304e+001 
3903125000  -3.909338e+001  -1.036163e+002 
3906250000  -3.883593e+001  -1.059203e+002 
3909375000  -3.831751e+001  -1.171869e+002 
3912500000  -3.897865e+001  -1.253742e+002 
3915625000  -4.036686e+001  -1.240760e+002 
3918750000  -3.995950e+001  -1.244203e+002 
3921875000  -3.917131e+001  -1.306338e+002 
3925000000  -3.856119e+001  -1.352521e+002 
3928125000  -3.849555e+001  -1.461382e+002 
3931250000  -3.904019e+001  -1.513098e+002 
3934375000  -3.952411e+001  -1.527932e+002 
3937500000  -4.007625e+001  -1.541606e+002 
3940625000  -3.989889e+001  -1.574431e+002 
3943750000  -3.883401e+001  -1.581091e+002 
3946875000  -3.872419e+001  -1.692284e+002 
3950000000  -3.963539e+001  1.798868e+002 
3953125000  -4.018412e+001  -1.763741e+002 
3956250000  -3.869394e+001  -1.778582e+002 
3959375000  -3.794595e+001  1.760464e+002 
3962500000  -3.792259e+001  1.670972e+002 
3965625000  -3.779439e+001  1.586755e+002 
3968750000  -3.877597e+001  1.495153e+002 
3971875000  -3.882029e+001  1.442575e+002 
3975000000  -3.834877e+001  1.397752e+002 
3978125000  -3.854903e+001  1.367847e+002 
3981250000  -3.866970e+001  1.299637e+002 
3984375000  -3.924210e+001  1.218897e+002 
3987500000  -3.966449e+001  1.195743e+002 
3990625000  -4.013303e+001  1.169320e+002 
3993750000  -3.981606e+001  1.127552e+002 
3996875000  -3.999326e+001  1.083520e+002 
4000000000  -4.074426e+001  1.041483e+002 
4003125000  -4.101447e+001  1.056347e+002 
4006250000  -3.951382e+001  1.034485e+002 
4009375000  -3.871413e+001  8.782448e+001 
4012500000  -4.018930e+001  8.062846e+001 
4015625000  -4.124331e+001  8.024570e+001 
4018750000  -4.149223e+001  7.975874e+001 
4021875000  -4.059933e+001  7.917641e+001 
4025000000  -4.041007e+001  7.274380e+001 
4028125000  -4.051868e+001  6.454542e+001 
4031250000  -4.147202e+001  6.040901e+001 
4034375000  -4.141320e+001  6.156262e+001 
4037500000  -4.105222e+001  6.038892e+001 
4040625000  -4.078428e+001  5.454678e+001 
4043750000  -4.131269e+001  5.070669e+001 
4046875000  -4.065257e+001  4.816476e+001 
4050000000  -4.051440e+001  4.303526e+001 
4053125000  -4.137071e+001  4.080896e+001 
4056250000  -4.163166e+001  4.720790e+001 
4059375000  -3.951963e+001  4.159552e+001 
4062500000  -3.866069e+001  3.476748e+001 
4065625000  -3.910650e+001  2.924565e+001 
4068750000  -3.820413e+001  2.279766e+001 
4071875000  -3.798357e+001  1.209336e+001 
4075000000  -3.844081e+001  5.843274e+000 
4078125000  -3.890947e+001  1.169680e+000 
4081250000  -3.821383e+001  -2.490191e+000 
4084375000  -3.811229e+001  -1.261438e+001 
4087500000  -3.894897e+001  -2.003486e+001 
4090625000  -3.924718e+001  -2.018890e+001 
4093750000  -3.865956e+001  -2.381955e+001 
4096875000  -3.875541e+001  -3.424602e+001 
4100000000  -3.974598e+001  -4.184382e+001 
4103125000  -4.018349e+001  -3.805487e+001 
4106250000  -4.010449e+001  -3.535640e+001 
4109375000  -3.931804e+001  -3.899104e+001 
4112500000  -3.869636e+001  -4.889579e+001 
4115625000  -3.936638e+001  -5.685539e+001 
4118750000  -3.894409e+001  -5.969394e+001 
4121875000  -3.906416e+001  -6.695380e+001 
4125000000  -4.004542e+001  -7.437902e+001 
4128125000  -4.072213e+001  -7.148851e+001 
4131250000  -3.958648e+001  -6.797796e+001 
4134375000  -3.767485e+001  -7.546110e+001 
4137500000  -3.809971e+001  -9.545100e+001 
4140625000  -4.049664e+001  -1.024602e+002 
4143750000  -4.177156e+001  -9.664717e+001 
4146875000  -4.032119e+001  -9.322282e+001 
4150000000  -3.941106e+001  -1.035607e+002 
4153125000  -3.969308e+001  -1.078951e+002 
4156250000  -4.131665e+001  -1.121412e+002 
4159375000  -4.128391e+001  -1.081742e+002 
4162500000  -3.976016e+001  -1.056203e+002 
4165625000  -3.884775e+001  -1.144274e+002 
4168750000  -3.854449e+001  -1.226305e+002 
4171875000  -3.823396e+001  -1.331811e+002 
4175000000  -3.922943e+001  -1.394166e+002 
4178125000  -3.968972e+001  -1.400463e+002 
4181250000  -3.957995e+001  -1.446389e+002 
4184375000  -3.959172e+001  -1.500431e+002 
4187500000  -3.945037e+001  -1.532649e+002 
4190625000  -3.936127e+001  -1.612261e+002 
4193750000  -4.060439e+001  -1.664256e+002 
4196875000  -4.168642e+001  -1.666039e+002 
4200000000  -4.257773e+001  -1.602364e+002 
4203125000  -4.077481e+001  -1.509071e+002 
4206250000  -3.734085e+001  -1.584748e+002 
4209375000  -3.729089e+001  1.794108e+002 
4212500000  -3.953226e+001  1.704476e+002 
4215625000  -3.987953e+001  1.778998e+002 
4218750000  -3.849223e+001  1.780005e+002 
4221875000  -3.668471e+001  1.697458e+002 
4225000000  -3.800383e+001  1.576359e+002 
4228125000  -3.781055e+001  1.599315e+002 
4231250000  -3.637430e+001  1.501512e+002 
4234375000  -3.637241e+001  1.404969e+002 
4237500000  -3.630674e+001  1.355066e+002 
4240625000  -3.676883e+001  1.233924e+002 
4243750000  -3.773647e+001  1.162681e+002 
4246875000  -3.836721e+001  1.135855e+002 
4250000000  -3.804971e+001  1.147297e+002 
4253125000  -3.809770e+001  1.127182e+002 
4256250000  -3.800965e+001  1.083295e+002 
4259375000  -3.783437e+001  1.028985e+002 
4262500000  -3.812209e+001  9.629237e+001 
4265625000  -3.820575e+001  9.478664e+001 
4268750000  -3.694368e+001  8.843524e+001 
4271875000  -3.681783e+001  7.880125e+001 
4275000000  -3.665379e+001  7.010924e+001 
4278125000  -3.775705e+001  5.898760e+001 
4281250000  -3.894263e+001  5.871113e+001 
4284375000  -3.898806e+001  5.473456e+001 
4287500000  -3.991436e+001  5.186384e+001 
4290625000  -4.038152e+001  6.040548e+001 
4293750000  -3.877156e+001  6.130383e+001 
4296875000  -3.784074e+001  4.665146e+001 
4300000000  -3.893493e+001  3.482959e+001 
4303125000  -3.947647e+001  4.071806e+001 
4306250000  -3.877752e+001  4.248582e+001 
4309375000  -3.758322e+001  3.669473e+001 
4312500000  -3.759044e+001  2.543297e+001 
4315625000  -3.783211e+001  1.608076e+001 
4318750000  -3.874601e+001  1.477952e+001 
4321875000  -3.880163e+001  1.429755e+001 
4325000000  -3.804169e+001  1.256217e+001 
4328125000  -3.738188e+001  2.744115e+000 
4331250000  -3.759986e+001  -6.789443e+000 
4334375000  -3.853749e+001  -1.347618e+001 
4337500000  -3.942316e+001  -1.443798e+001 
4340625000  -3.982756e+001  -1.052029e+001 
4343750000  -3.869593e+001  -1.309045e+001 
4346875000  -3.842261e+001  -2.218367e+001 
4350000000  -3.823806e+001  -2.970069e+001 
4353125000  -3.897779e+001  -3.807061e+001 
4356250000  -4.107159e+001  -3.209644e+001 
4359375000  -4.017611e+001  -1.966793e+001 
4362500000  -3.638942e+001  -2.753018e+001 
4365625000  -3.620300e+001  -4.657619e+001 
4368750000  -3.751834e+001  -5.395634e+001 
4371875000  -3.788995e+001  -5.481925e+001 
4375000000  -3.735679e+001  -6.038749e+001 
4378125000  -3.702721e+001  -6.645742e+001 
4381250000  -3.718119e+001  -7.395105e+001 
4384375000  -3.729038e+001  -8.163479e+001 
4387500000  -3.816795e+001  -8.691450e+001 
4390625000  -3.858334e+001  -8.789549e+001 
4393750000  -3.801701e+001  -8.820798e+001 
4396875000  -3.727588e+001  -9.370057e+001 
4400000000  -3.689492e+001  -1.017349e+002 
4403125000  -3.783183e+001  -1.121133e+002 
4406250000  -3.836535e+001  -1.157736e+002 
4409375000  -3.881362e+001  -1.204336e+002 
4412500000  -3.946973e+001  -1.217968e+002 
4415625000  -3.940572e+001  -1.171389e+002 
