!Agilent Technologies,E8363B,MY43030201,A.06.04.32
!Agilent E8363B: A.06.04.32
!Date: Tuesday, November 11, 2014 21:36:45
!Correction: S21(Response(S21)) 
!S1P File: Measurement: S21:
# Hz S  dB   R 50
3000000000  -4.059389e+001  7.035972e+001 
3003125000  -4.217614e+001  6.323146e+001 
3006250000  -4.198614e+001  6.267496e+001 
3009375000  -4.271864e+001  6.829134e+001 
3012500000  -4.152981e+001  6.217772e+001 
3015625000  -4.134574e+001  5.559227e+001 
3018750000  -4.176509e+001  5.720144e+001 
3021875000  -4.020217e+001  5.734974e+001 
3025000000  -3.881534e+001  5.342760e+001 
3028125000  -3.788923e+001  4.226362e+001 
3031250000  -3.694301e+001  3.061542e+001 
3034375000  -3.664970e+001  1.684815e+001 
3037500000  -3.749973e+001  6.215992e+000 
3040625000  -3.883652e+001  7.711778e-001 
3043750000  -3.919298e+001  -5.444385e+000 
3046875000  -4.002590e+001  -1.075851e+001 
3050000000  -4.100248e+001  -1.586156e+001 
3053125000  -4.048881e+001  -1.070245e+001 
3056250000  -4.050178e+001  -7.490185e+000 
3059375000  -3.984871e+001  -1.152831e+001 
3062500000  -3.820646e+001  -1.449092e+001 
3065625000  -3.793949e+001  -2.504642e+001 
3068750000  -3.757968e+001  -3.239629e+001 
3071875000  -3.757501e+001  -3.436481e+001 
3075000000  -3.692431e+001  -4.138641e+001 
3078125000  -3.706983e+001  -4.809429e+001 
3081250000  -3.727113e+001  -5.368883e+001 
3084375000  -3.634020e+001  -5.873046e+001 
3087500000  -3.641913e+001  -6.502127e+001 
3090625000  -3.592451e+001  -7.768624e+001 
3093750000  -3.697418e+001  -8.493186e+001 
3096875000  -3.724521e+001  -9.018789e+001 
3100000000  -3.724206e+001  -9.353750e+001 
3103125000  -3.752336e+001  -9.715584e+001 
3106250000  -3.711620e+001  -1.027816e+002 
3109375000  -3.729479e+001  -1.060157e+002 
3112500000  -3.707941e+001  -1.120188e+002 
3115625000  -3.710225e+001  -1.163201e+002 
3118750000  -3.721182e+001  -1.200357e+002 
3121875000  -3.659254e+001  -1.304059e+002 
3125000000  -3.847610e+001  -1.342886e+002 
3128125000  -3.848110e+001  -1.264909e+002 
3131250000  -3.606425e+001  -1.325784e+002 
3134375000  -3.540812e+001  -1.500397e+002 
3137500000  -3.618978e+001  -1.620401e+002 
3140625000  -3.733044e+001  -1.639741e+002 
3143750000  -3.813771e+001  -1.666817e+002 
3146875000  -3.756829e+001  -1.644036e+002 
3150000000  -3.698380e+001  -1.693280e+002 
3153125000  -3.721548e+001  -1.774891e+002 
3156250000  -3.788342e+001  -1.730656e+002 
3159375000  -3.564589e+001  -1.746147e+002 
3162500000  -3.420034e+001  1.686563e+002 
3165625000  -3.552920e+001  1.571428e+002 
3168750000  -3.530961e+001  1.562106e+002 
3171875000  -3.500508e+001  1.487709e+002 
3175000000  -3.544678e+001  1.392932e+002 
3178125000  -3.503465e+001  1.369717e+002 
3181250000  -3.439819e+001  1.290813e+002 
3184375000  -3.426455e+001  1.181209e+002 
3187500000  -3.545568e+001  1.034114e+002 
3190625000  -3.729772e+001  9.670351e+001 
3193750000  -3.744040e+001  1.029621e+002 
3196875000  -3.726207e+001  1.036220e+002 
3200000000  -3.614374e+001  9.821658e+001 
3203125000  -3.578150e+001  9.065566e+001 
3206250000  -3.613699e+001  8.195380e+001 
3209375000  -3.575010e+001  7.432561e+001 
3212500000  -3.632660e+001  6.854800e+001 
3215625000  -3.597479e+001  6.484246e+001 
3218750000  -3.680607e+001  5.320242e+001 
3221875000  -3.715469e+001  4.703485e+001 
3225000000  -3.709356e+001  4.312468e+001 
3228125000  -3.784443e+001  3.606400e+001 
3231250000  -3.824814e+001  3.446495e+001 
3234375000  -3.788073e+001  3.006148e+001 
3237500000  -3.807207e+001  2.611098e+001 
3240625000  -3.763311e+001  2.084512e+001 
3243750000  -3.764730e+001  1.166498e+001 
3246875000  -3.806740e+001  3.762473e+000 
3250000000  -3.862620e+001  4.422291e-001 
3253125000  -3.910413e+001  -3.704654e+000 
3256250000  -3.843162e+001  -1.140472e+001 
3259375000  -3.900875e+001  -2.183518e+001 
3262500000  -4.065368e+001  -2.629500e+001 
3265625000  -4.131270e+001  -2.193992e+001 
3268750000  -4.110377e+001  -2.242546e+001 
3271875000  -4.054130e+001  -2.597904e+001 
3275000000  -4.015280e+001  -3.447491e+001 
3278125000  -4.091602e+001  -3.888818e+001 
3281250000  -4.107677e+001  -4.096257e+001 
3284375000  -4.040107e+001  -4.601876e+001 
3287500000  -4.118663e+001  -5.061850e+001 
3290625000  -4.116930e+001  -5.768174e+001 
3293750000  -4.125953e+001  -6.309607e+001 
3296875000  -4.247324e+001  -6.529665e+001 
3300000000  -4.164140e+001  -6.366432e+001 
3303125000  -4.080549e+001  -7.156692e+001 
3306250000  -4.065136e+001  -7.903689e+001 
3309375000  -4.043180e+001  -8.636054e+001 
3312500000  -4.091475e+001  -9.769907e+001 
3315625000  -4.213535e+001  -1.050186e+002 
3318750000  -4.379071e+001  -1.099134e+002 
3321875000  -4.503472e+001  -1.043741e+002 
3325000000  -4.469456e+001  -9.666755e+001 
3328125000  -4.382555e+001  -9.817205e+001 
3331250000  -4.233995e+001  -9.738113e+001 
3334375000  -3.965671e+001  -1.122461e+002 
3337500000  -4.040989e+001  -1.329977e+002 
3340625000  -4.202698e+001  -1.429707e+002 
3343750000  -4.392469e+001  -1.401890e+002 
3346875000  -4.337444e+001  -1.430899e+002 
3350000000  -4.305659e+001  -1.441846e+002 
3353125000  -4.290169e+001  -1.529789e+002 
3356250000  -4.254239e+001  -1.613955e+002 
3359375000  -4.371330e+001  -1.726125e+002 
3362500000  -4.430949e+001  -1.747680e+002 
3365625000  -4.470531e+001  -1.787059e+002 
3368750000  -4.570819e+001  1.750996e+002 
3371875000  -4.604851e+001  1.710984e+002 
3375000000  -4.726273e+001  1.664084e+002 
3378125000  -4.818438e+001  1.652687e+002 
3381250000  -5.010706e+001  1.770501e+002 
3384375000  -4.668472e+001  -1.669838e+002 
3387500000  -4.400621e+001  1.671289e+002 
3390625000  -4.614778e+001  1.485533e+002 
3393750000  -4.691365e+001  1.512797e+002 
3396875000  -4.605996e+001  1.503936e+002 
3400000000  -4.590533e+001  1.354010e+002 
3403125000  -4.698082e+001  1.317547e+002 
3406250000  -4.795190e+001  1.289137e+002 
3409375000  -4.813176e+001  1.207753e+002 
3412500000  -4.866420e+001  1.152511e+002 
3415625000  -4.985197e+001  1.149217e+002 
3418750000  -5.019338e+001  1.169756e+002 
3421875000  -5.155978e+001  1.210859e+002 
3425000000  -5.043836e+001  1.188856e+002 
3428125000  -4.979213e+001  1.168402e+002 
3431250000  -5.018021e+001  1.027438e+002 
3434375000  -5.075191e+001  1.014271e+002 
3437500000  -5.118277e+001  1.022889e+002 
3440625000  -5.198482e+001  1.025405e+002 
3443750000  -5.048704e+001  1.050772e+002 
3446875000  -5.047682e+001  9.966187e+001 
3450000000  -5.021692e+001  9.058186e+001 
3453125000  -5.032258e+001  8.133966e+001 
3456250000  -5.172928e+001  8.254234e+001 
3459375000  -5.238335e+001  8.115382e+001 
3462500000  -5.136184e+001  8.083905e+001 
3465625000  -5.090790e+001  7.791702e+001 
3468750000  -5.229050e+001  7.869854e+001 
3471875000  -5.267512e+001  7.064367e+001 
3475000000  -5.094792e+001  6.957435e+001 
3478125000  -5.198843e+001  6.113146e+001 
3481250000  -5.285685e+001  6.010681e+001 
3484375000  -5.295750e+001  6.253830e+001 
3487500000  -5.110446e+001  5.970641e+001 
3490625000  -5.034201e+001  4.846446e+001 
3493750000  -5.190753e+001  4.645628e+001 
3496875000  -5.159977e+001  4.403084e+001 
3500000000  -5.228717e+001  4.265341e+001 
3503125000  -5.024447e+001  4.042572e+001 
3506250000  -4.977173e+001  3.419043e+001 
3509375000  -5.006276e+001  2.132221e+001 
3512500000  -5.080424e+001  1.001640e+001 
3515625000  -5.122360e+001  8.824472e+000 
3518750000  -5.169223e+001  9.358800e+000 
3521875000  -5.279372e+001  -7.960672e-001 
3525000000  -5.306900e+001  -4.014131e+000 
3528125000  -5.207500e+001  -6.838072e-001 
3531250000  -5.235302e+001  -6.187068e+000 
3534375000  -5.289099e+001  -1.920810e+001 
3537500000  -5.377142e+001  -2.302584e+001 
3540625000  -5.658545e+001  -1.991780e+001 
3543750000  -5.486935e+001  -2.053424e+001 
3546875000  -5.637676e+001  -1.172242e+001 
3550000000  -5.351938e+001  -1.688283e+001 
3553125000  -5.403305e+001  -3.215077e+001 
3556250000  -5.662034e+001  -2.692199e+001 
3559375000  -5.661281e+001  -3.417498e+001 
3562500000  -5.518254e+001  -4.099373e+001 
3565625000  -5.536979e+001  -4.199112e+001 
3568750000  -5.745986e+001  -4.066105e+001 
3571875000  -5.981790e+001  -4.218137e+001 
3575000000  -5.777383e+001  -3.515563e+001 
3578125000  -5.932909e+001  -4.785207e+001 
3581250000  -5.762561e+001  -4.418301e+001 
3584375000  -5.718770e+001  -3.632190e+001 
3587500000  -5.785852e+001  -4.578725e+001 
3590625000  -5.842381e+001  -5.931489e+001 
3593750000  -5.825178e+001  -5.298204e+001 
3596875000  -5.820950e+001  -3.365372e+001 
3600000000  -5.729031e+001  -4.787069e+001 
3603125000  -5.840928e+001  -5.039146e+001 
3606250000  -5.905743e+001  -4.200949e+001 
3609375000  -5.947728e+001  -4.241862e+001 
3612500000  -5.834546e+001  -5.460343e+001 
3615625000  -5.838884e+001  -6.865945e+001 
3618750000  -5.788360e+001  -5.224094e+001 
3621875000  -5.698312e+001  -4.710132e+001 
3625000000  -5.835897e+001  -5.563109e+001 
3628125000  -5.719580e+001  -4.949050e+001 
3631250000  -5.745295e+001  -4.852954e+001 
3634375000  -5.631581e+001  -4.705029e+001 
3637500000  -5.521355e+001  -4.066729e+001 
3640625000  -5.471357e+001  -4.428801e+001 
3643750000  -5.292041e+001  -5.503000e+001 
3646875000  -5.259098e+001  -7.044069e+001 
3650000000  -5.297136e+001  -6.353877e+001 
3653125000  -5.197696e+001  -6.507006e+001 
3656250000  -5.153264e+001  -6.484884e+001 
3659375000  -5.191106e+001  -6.951744e+001 
3662500000  -5.043334e+001  -7.796126e+001 
3665625000  -5.032621e+001  -7.605729e+001 
3668750000  -4.767857e+001  -7.465218e+001 
3671875000  -4.783673e+001  -8.780702e+001 
3675000000  -4.727409e+001  -9.563132e+001 
3678125000  -4.720645e+001  -9.865300e+001 
3681250000  -4.654443e+001  -1.044148e+002 
3684375000  -4.685149e+001  -1.097063e+002 
3687500000  -4.664466e+001  -1.115798e+002 
3690625000  -4.672761e+001  -1.210272e+002 
3693750000  -4.763839e+001  -1.209264e+002 
3696875000  -4.611339e+001  -1.222335e+002 
3700000000  -4.493938e+001  -1.285652e+002 
3703125000  -4.536303e+001  -1.344773e+002 
3706250000  -4.572227e+001  -1.358097e+002 
3709375000  -4.484277e+001  -1.332420e+002 
3712500000  -4.378774e+001  -1.421904e+002 
3715625000  -4.175265e+001  -1.496844e+002 
3718750000  -4.192487e+001  -1.557310e+002 
3721875000  -4.130140e+001  -1.656624e+002 
3725000000  -4.172429e+001  -1.720930e+002 
3728125000  -4.158183e+001  -1.751142e+002 
3731250000  -4.051687e+001  1.792170e+002 
3734375000  -4.016267e+001  1.710455e+002 
3737500000  -4.101691e+001  1.617535e+002 
3740625000  -4.095302e+001  1.566332e+002 
3743750000  -4.044434e+001  1.507772e+002 
3746875000  -4.070303e+001  1.439823e+002 
3750000000  -4.094734e+001  1.388241e+002 
3753125000  -4.076993e+001  1.371101e+002 
3756250000  -4.062121e+001  1.326630e+002 
3759375000  -4.039315e+001  1.266502e+002 
3762500000  -4.022872e+001  1.199673e+002 
3765625000  -4.075232e+001  1.151531e+002 
3768750000  -3.985789e+001  1.155282e+002 
3771875000  -3.846562e+001  1.088114e+002 
3775000000  -3.859927e+001  9.729124e+001 
3778125000  -3.906556e+001  8.891406e+001 
3781250000  -3.922933e+001  8.728433e+001 
3784375000  -3.884251e+001  7.842672e+001 
3787500000  -3.866455e+001  7.448068e+001 
3790625000  -3.928238e+001  6.535361e+001 
3793750000  -3.922840e+001  6.292321e+001 
3796875000  -3.822284e+001  5.903964e+001 
3800000000  -3.645769e+001  5.306504e+001 
3803125000  -3.815480e+001  3.967822e+001 
3806250000  -3.910201e+001  3.531478e+001 
3809375000  -3.851162e+001  3.092611e+001 
3812500000  -3.842129e+001  2.269273e+001 
3815625000  -3.958011e+001  1.277021e+001 
3818750000  -4.067268e+001  1.335857e+001 
3821875000  -4.011209e+001  2.484069e+001 
3825000000  -3.823658e+001  1.963733e+001 
3828125000  -3.700123e+001  6.015552e-001 
3831250000  -3.810413e+001  -1.381535e+001 
3834375000  -4.065528e+001  -1.400649e+001 
3837500000  -4.059017e+001  -1.034822e+001 
3840625000  -3.905516e+001  -1.399920e+001 
3843750000  -3.837600e+001  -2.783839e+001 
3846875000  -3.983329e+001  -3.433450e+001 
3850000000  -4.068095e+001  -2.841240e+001 
3853125000  -3.997063e+001  -2.767361e+001 
3856250000  -3.924531e+001  -3.476350e+001 
3859375000  -3.883802e+001  -4.252024e+001 
3862500000  -3.828606e+001  -5.334352e+001 
3865625000  -3.891638e+001  -5.897917e+001 
3868750000  -3.873081e+001  -5.895083e+001 
3871875000  -3.806360e+001  -6.690128e+001 
3875000000  -3.851311e+001  -7.721612e+001 
3878125000  -3.963464e+001  -7.937486e+001 
3881250000  -3.932106e+001  -7.949821e+001 
3884375000  -3.866559e+001  -8.650617e+001 
3887500000  -3.923508e+001  -9.340987e+001 
3890625000  -3.961758e+001  -9.755369e+001 
3893750000  -3.960742e+001  -9.997491e+001 
3896875000  -4.023927e+001  -1.015545e+002 
3900000000  -3.996225e+001  -1.068324e+002 
3903125000  -3.931474e+001  -1.111736e+002 
3906250000  -3.896316e+001  -1.137516e+002 
3909375000  -3.800719e+001  -1.227080e+002 
3912500000  -3.924236e+001  -1.325793e+002 
3915625000  -4.021575e+001  -1.315451e+002 
3918750000  -4.006448e+001  -1.334772e+002 
3921875000  -3.926177e+001  -1.380320e+002 
3925000000  -3.866370e+001  -1.418579e+002 
3928125000  -3.826464e+001  -1.534639e+002 
3931250000  -3.913485e+001  -1.604971e+002 
3934375000  -3.938595e+001  -1.604943e+002 
3937500000  -3.995139e+001  -1.621882e+002 
3940625000  -3.992888e+001  -1.645182e+002 
3943750000  -3.871601e+001  -1.688001e+002 
3946875000  -3.829995e+001  -1.778744e+002 
3950000000  -3.954926e+001  1.744627e+002 
3953125000  -3.998504e+001  1.755180e+002 
3956250000  -3.877885e+001  1.753974e+002 
3959375000  -3.791547e+001  1.676960e+002 
3962500000  -3.754138e+001  1.601357e+002 
3965625000  -3.780437e+001  1.520014e+002 
3968750000  -3.871556e+001  1.436871e+002 
3971875000  -3.863945e+001  1.379211e+002 
3975000000  -3.821421e+001  1.339366e+002 
3978125000  -3.848104e+001  1.292405e+002 
3981250000  -3.863084e+001  1.220847e+002 
3984375000  -3.893235e+001  1.163728e+002 
3987500000  -3.955380e+001  1.122258e+002 
3990625000  -4.002828e+001  1.111734e+002 
3993750000  -3.989294e+001  1.081375e+002 
3996875000  -3.991801e+001  1.026102e+002 
4000000000  -4.045738e+001  9.537716e+001 
4003125000  -4.115537e+001  9.879530e+001 
4006250000  -3.915714e+001  9.494413e+001 
4009375000  -3.858428e+001  8.177284e+001 
4012500000  -4.030966e+001  7.455798e+001 
4015625000  -4.157336e+001  7.165566e+001 
4018750000  -4.115760e+001  7.409397e+001 
4021875000  -4.066337e+001  6.820219e+001 
4025000000  -4.035756e+001  6.354762e+001 
4028125000  -4.054754e+001  5.696682e+001 
4031250000  -4.111940e+001  5.413537e+001 
4034375000  -4.146636e+001  5.345940e+001 
4037500000  -4.095122e+001  5.359640e+001 
4040625000  -4.078962e+001  4.906803e+001 
4043750000  -4.104184e+001  4.532098e+001 
4046875000  -4.090753e+001  4.109647e+001 
4050000000  -4.067041e+001  3.630215e+001 
4053125000  -4.148600e+001  3.332842e+001 
4056250000  -4.143871e+001  3.620735e+001 
4059375000  -3.922927e+001  3.501938e+001 
4062500000  -3.871881e+001  2.719599e+001 
4065625000  -3.856691e+001  2.164979e+001 
4068750000  -3.827037e+001  1.443567e+001 
4071875000  -3.772760e+001  4.877041e+000 
4075000000  -3.828279e+001  -2.272521e+000 
4078125000  -3.869531e+001  -6.011188e+000 
4081250000  -3.828089e+001  -1.067583e+001 
4084375000  -3.800231e+001  -2.131871e+001 
4087500000  -3.868635e+001  -2.757606e+001 
4090625000  -3.929191e+001  -2.776933e+001 
4093750000  -3.882570e+001  -3.203061e+001 
4096875000  -3.892727e+001  -3.975576e+001 
4100000000  -3.996785e+001  -4.830155e+001 
4103125000  -4.082313e+001  -4.600891e+001 
4106250000  -4.000159e+001  -4.285060e+001 
4109375000  -3.912213e+001  -4.751770e+001 
4112500000  -3.863600e+001  -5.560616e+001 
4115625000  -3.923621e+001  -6.323380e+001 
4118750000  -3.909972e+001  -6.801806e+001 
4121875000  -3.904387e+001  -7.475480e+001 
4125000000  -3.998905e+001  -8.135513e+001 
4128125000  -4.095871e+001  -7.787520e+001 
4131250000  -3.964490e+001  -7.523036e+001 
4134375000  -3.773158e+001  -8.175173e+001 
4137500000  -3.818350e+001  -1.043637e+002 
4140625000  -4.056487e+001  -1.086916e+002 
4143750000  -4.149498e+001  -1.013687e+002 
4146875000  -4.047802e+001  -1.000309e+002 
4150000000  -3.969074e+001  -1.083883e+002 
4153125000  -4.006517e+001  -1.161883e+002 
4156250000  -4.116206e+001  -1.206144e+002 
4159375000  -4.122913e+001  -1.158944e+002 
4162500000  -4.023580e+001  -1.127073e+002 
4165625000  -3.892886e+001  -1.213516e+002 
4168750000  -3.824823e+001  -1.316320e+002 
4171875000  -3.821879e+001  -1.403435e+002 
4175000000  -3.916831e+001  -1.469842e+002 
4178125000  -3.981164e+001  -1.493376e+002 
4181250000  -3.941233e+001  -1.525947e+002 
4184375000  -3.948961e+001  -1.555345e+002 
4187500000  -3.946786e+001  -1.610824e+002 
4190625000  -3.946563e+001  -1.701244e+002 
4193750000  -4.054169e+001  -1.730765e+002 
4196875000  -4.147312e+001  -1.753955e+002 
4200000000  -4.267453e+001  -1.686350e+002 
4203125000  -4.073249e+001  -1.568188e+002 
4206250000  -3.743963e+001  -1.657511e+002 
4209375000  -3.746442e+001  1.695620e+002 
4212500000  -3.941026e+001  1.629272e+002 
4215625000  -4.023075e+001  1.696818e+002 
4218750000  -3.806903e+001  1.738987e+002 
4221875000  -3.675030e+001  1.619697e+002 
4225000000  -3.788724e+001  1.508095e+002 
4228125000  -3.773742e+001  1.519903e+002 
4231250000  -3.624133e+001  1.438893e+002 
4234375000  -3.641022e+001  1.309857e+002 
4237500000  -3.613892e+001  1.281298e+002 
4240625000  -3.643519e+001  1.165888e+002 
4243750000  -3.761363e+001  1.088123e+002 
4246875000  -3.852198e+001  1.073125e+002 
4250000000  -3.826429e+001  1.090635e+002 
4253125000  -3.823519e+001  1.039170e+002 
4256250000  -3.819328e+001  9.981264e+001 
4259375000  -3.818435e+001  9.320724e+001 
4262500000  -3.792261e+001  8.914406e+001 
4265625000  -3.816925e+001  8.764669e+001 
4268750000  -3.704314e+001  7.998947e+001 
4271875000  -3.663696e+001  7.128053e+001 
4275000000  -3.638108e+001  6.288188e+001 
4278125000  -3.790682e+001  5.152599e+001 
4281250000  -3.913461e+001  5.082653e+001 
4284375000  -3.860608e+001  4.649055e+001 
4287500000  -4.066305e+001  4.428859e+001 
4290625000  -4.065801e+001  5.238394e+001 
4293750000  -3.868948e+001  5.314481e+001 
4296875000  -3.793592e+001  3.779409e+001 
4300000000  -3.898079e+001  3.054743e+001 
4303125000  -3.971120e+001  3.456251e+001 
4306250000  -3.867946e+001  3.565817e+001 
4309375000  -3.756189e+001  2.974762e+001 
4312500000  -3.760921e+001  1.795147e+001 
4315625000  -3.789006e+001  1.057627e+001 
4318750000  -3.874419e+001  7.091612e+000 
4321875000  -3.861525e+001  7.656333e+000 
4325000000  -3.784387e+001  4.896240e+000 
4328125000  -3.735564e+001  -3.640722e+000 
4331250000  -3.749331e+001  -1.452044e+001 
4334375000  -3.833426e+001  -2.182397e+001 
4337500000  -3.958275e+001  -2.244855e+001 
4340625000  -3.956974e+001  -1.687404e+001 
4343750000  -3.841077e+001  -2.256706e+001 
4346875000  -3.830966e+001  -3.088185e+001 
4350000000  -3.831300e+001  -3.926464e+001 
4353125000  -3.898203e+001  -4.562596e+001 
4356250000  -4.107554e+001  -4.087656e+001 
4359375000  -4.029014e+001  -2.668846e+001 
4362500000  -3.637725e+001  -3.607347e+001 
4365625000  -3.550912e+001  -5.468737e+001 
4368750000  -3.714816e+001  -6.321165e+001 
4371875000  -3.785223e+001  -6.291188e+001 
4375000000  -3.718940e+001  -6.688484e+001 
4378125000  -3.702720e+001  -7.425226e+001 
4381250000  -3.706987e+001  -8.141274e+001 
4384375000  -3.736094e+001  -8.794418e+001 
4387500000  -3.817939e+001  -9.479179e+001 
4390625000  -3.870570e+001  -9.573211e+001 
4393750000  -3.792295e+001  -9.532281e+001 
4396875000  -3.740012e+001  -1.011363e+002 
4400000000  -3.697281e+001  -1.112297e+002 
4403125000  -3.787396e+001  -1.207009e+002 
4406250000  -3.832513e+001  -1.235095e+002 
4409375000  -3.887479e+001  -1.252453e+002 
4412500000  -3.987115e+001  -1.302256e+002 
4415625000  -3.955257e+001  -1.263447e+002 
