!Agilent Technologies,E8363B,MY43030201,A.06.04.32
!Agilent E8363B: A.06.04.32
!Date: Tuesday, November 11, 2014 21:38:36
!Correction: S21(Response(S21)) 
!S1P File: Measurement: S21:
# Hz S  dB   R 50
3000000000  -4.065192e+001  6.948574e+001 
3003125000  -4.210655e+001  6.303487e+001 
3006250000  -4.221185e+001  6.056125e+001 
3009375000  -4.293530e+001  6.620431e+001 
3012500000  -4.164974e+001  6.014623e+001 
3015625000  -4.157946e+001  5.417810e+001 
3018750000  -4.173765e+001  5.532052e+001 
3021875000  -4.011086e+001  5.568410e+001 
3025000000  -3.878495e+001  5.284268e+001 
3028125000  -3.793127e+001  4.097043e+001 
3031250000  -3.704915e+001  2.907951e+001 
3034375000  -3.665223e+001  1.535288e+001 
3037500000  -3.754268e+001  5.505879e+000 
3040625000  -3.881235e+001  -1.062601e+000 
3043750000  -3.928035e+001  -7.614805e+000 
3046875000  -3.989971e+001  -1.220909e+001 
3050000000  -4.090476e+001  -1.602459e+001 
3053125000  -4.083334e+001  -1.235972e+001 
3056250000  -4.063006e+001  -9.900682e+000 
3059375000  -3.971712e+001  -1.155020e+001 
3062500000  -3.819577e+001  -1.637005e+001 
3065625000  -3.783436e+001  -2.670354e+001 
3068750000  -3.759018e+001  -3.410483e+001 
3071875000  -3.759476e+001  -3.596911e+001 
3075000000  -3.702117e+001  -4.321442e+001 
3078125000  -3.706408e+001  -4.981922e+001 
3081250000  -3.726018e+001  -5.558069e+001 
3084375000  -3.630368e+001  -5.982270e+001 
3087500000  -3.645338e+001  -6.721507e+001 
3090625000  -3.600533e+001  -7.960178e+001 
3093750000  -3.690449e+001  -8.675795e+001 
3096875000  -3.734541e+001  -9.166358e+001 
3100000000  -3.731041e+001  -9.474319e+001 
3103125000  -3.749412e+001  -9.879978e+001 
3106250000  -3.713413e+001  -1.039008e+002 
3109375000  -3.716978e+001  -1.074873e+002 
3112500000  -3.702495e+001  -1.138825e+002 
3115625000  -3.711363e+001  -1.183782e+002 
3118750000  -3.729034e+001  -1.207070e+002 
3121875000  -3.668160e+001  -1.320467e+002 
3125000000  -3.857472e+001  -1.347083e+002 
3128125000  -3.844396e+001  -1.281990e+002 
3131250000  -3.600220e+001  -1.342229e+002 
3134375000  -3.544735e+001  -1.518946e+002 
3137500000  -3.608813e+001  -1.630775e+002 
3140625000  -3.729694e+001  -1.651667e+002 
3143750000  -3.806979e+001  -1.685703e+002 
3146875000  -3.753244e+001  -1.662136e+002 
3150000000  -3.683474e+001  -1.705142e+002 
3153125000  -3.729913e+001  -1.792002e+002 
3156250000  -3.803968e+001  -1.741349e+002 
3159375000  -3.560341e+001  -1.771199e+002 
3162500000  -3.419519e+001  1.684224e+002 
3165625000  -3.546299e+001  1.555053e+002 
3168750000  -3.549625e+001  1.532073e+002 
3171875000  -3.492782e+001  1.465139e+002 
3175000000  -3.544088e+001  1.378222e+002 
3178125000  -3.499339e+001  1.361840e+002 
3181250000  -3.439104e+001  1.269894e+002 
3184375000  -3.413356e+001  1.164104e+002 
3187500000  -3.536616e+001  1.025950e+002 
3190625000  -3.727662e+001  9.555861e+001 
3193750000  -3.747004e+001  1.014560e+002 
3196875000  -3.728511e+001  1.016445e+002 
3200000000  -3.610489e+001  9.668801e+001 
3203125000  -3.591228e+001  8.828810e+001 
3206250000  -3.607700e+001  8.087400e+001 
3209375000  -3.585031e+001  7.249447e+001 
3212500000  -3.626812e+001  6.618658e+001 
3215625000  -3.619312e+001  6.303252e+001 
3218750000  -3.688566e+001  5.208897e+001 
3221875000  -3.719785e+001  4.576837e+001 
3225000000  -3.696827e+001  4.150506e+001 
3228125000  -3.787312e+001  3.432297e+001 
3231250000  -3.812453e+001  3.224498e+001 
3234375000  -3.785695e+001  2.940983e+001 
3237500000  -3.793684e+001  2.525989e+001 
3240625000  -3.746992e+001  1.996667e+001 
3243750000  -3.766369e+001  9.569559e+000 
3246875000  -3.824527e+001  2.099487e+000 
3250000000  -3.869291e+001  -2.114489e+000 
3253125000  -3.890852e+001  -4.371976e+000 
3256250000  -3.838333e+001  -1.221148e+001 
3259375000  -3.894750e+001  -2.349781e+001 
3262500000  -4.062971e+001  -2.802086e+001 
3265625000  -4.124603e+001  -2.344917e+001 
3268750000  -4.113309e+001  -2.267257e+001 
3271875000  -4.049942e+001  -2.709614e+001 
3275000000  -4.023021e+001  -3.579918e+001 
3278125000  -4.091854e+001  -4.125444e+001 
3281250000  -4.095230e+001  -4.192031e+001 
3284375000  -4.048174e+001  -4.759307e+001 
3287500000  -4.091433e+001  -5.199100e+001 
3290625000  -4.105965e+001  -6.076494e+001 
3293750000  -4.125002e+001  -6.581377e+001 
3296875000  -4.224796e+001  -6.773693e+001 
3300000000  -4.178257e+001  -6.620554e+001 
3303125000  -4.090066e+001  -7.274151e+001 
3306250000  -4.086052e+001  -7.948009e+001 
3309375000  -4.051309e+001  -8.788950e+001 
3312500000  -4.094831e+001  -9.944296e+001 
3315625000  -4.207724e+001  -1.065202e+002 
3318750000  -4.342186e+001  -1.097469e+002 
3321875000  -4.507394e+001  -1.078052e+002 
3325000000  -4.494372e+001  -1.023075e+002 
3328125000  -4.332274e+001  -1.001430e+002 
3331250000  -4.212924e+001  -9.798282e+001 
3334375000  -3.981718e+001  -1.141618e+002 
3337500000  -4.032858e+001  -1.355039e+002 
3340625000  -4.249436e+001  -1.434359e+002 
3343750000  -4.384893e+001  -1.412244e+002 
3346875000  -4.343428e+001  -1.429593e+002 
3350000000  -4.285936e+001  -1.473774e+002 
3353125000  -4.270596e+001  -1.533460e+002 
3356250000  -4.255997e+001  -1.619493e+002 
3359375000  -4.358582e+001  -1.734718e+002 
3362500000  -4.461486e+001  -1.793034e+002 
3365625000  -4.455608e+001  1.775200e+002 
3368750000  -4.550159e+001  1.733590e+002 
3371875000  -4.581794e+001  1.692111e+002 
3375000000  -4.711518e+001  1.627452e+002 
3378125000  -4.807732e+001  1.650747e+002 
3381250000  -4.905769e+001  1.790126e+002 
3384375000  -4.667992e+001  -1.724033e+002 
3387500000  -4.380922e+001  1.670296e+002 
3390625000  -4.585709e+001  1.495313e+002 
3393750000  -4.707476e+001  1.479493e+002 
3396875000  -4.552906e+001  1.489538e+002 
3400000000  -4.572971e+001  1.341064e+002 
3403125000  -4.733857e+001  1.274480e+002 
3406250000  -4.747940e+001  1.274624e+002 
3409375000  -4.807780e+001  1.215446e+002 
3412500000  -4.877383e+001  1.123717e+002 
3415625000  -4.995032e+001  1.094343e+002 
3418750000  -5.001478e+001  1.151442e+002 
3421875000  -5.031762e+001  1.204628e+002 
3425000000  -4.991754e+001  1.136864e+002 
3428125000  -5.060046e+001  1.148962e+002 
3431250000  -4.937484e+001  1.036606e+002 
3434375000  -5.055584e+001  9.960465e+001 
3437500000  -5.249454e+001  1.008559e+002 
3440625000  -5.184928e+001  9.831949e+001 
3443750000  -5.051474e+001  1.008172e+002 
3446875000  -5.025224e+001  9.942506e+001 
3450000000  -5.018098e+001  8.885618e+001 
3453125000  -5.038026e+001  7.887473e+001 
3456250000  -5.120177e+001  7.900378e+001 
3459375000  -5.266027e+001  8.064592e+001 
3462500000  -5.248489e+001  8.000661e+001 
3465625000  -5.122415e+001  7.516297e+001 
3468750000  -5.183521e+001  7.558848e+001 
3471875000  -5.190586e+001  7.197141e+001 
3475000000  -5.099765e+001  6.808394e+001 
3478125000  -5.101468e+001  5.566367e+001 
3481250000  -5.252582e+001  6.132359e+001 
3484375000  -5.202456e+001  6.154847e+001 
3487500000  -5.147090e+001  5.567395e+001 
3490625000  -5.093800e+001  5.051612e+001 
3493750000  -5.118188e+001  4.827128e+001 
3496875000  -5.183235e+001  4.251968e+001 
3500000000  -5.289779e+001  4.062925e+001 
3503125000  -5.192564e+001  4.404229e+001 
3506250000  -4.965887e+001  3.459589e+001 
3509375000  -4.959259e+001  2.049618e+001 
3512500000  -4.929251e+001  1.036131e+001 
3515625000  -5.094701e+001  3.856960e+000 
3518750000  -5.111617e+001  6.894005e+000 
3521875000  -5.183681e+001  1.812055e+000 
3525000000  -5.247477e+001  -8.572238e+000 
3528125000  -5.245021e+001  7.980760e+000 
3531250000  -5.122879e+001  -5.430736e+000 
3534375000  -5.133730e+001  -2.058656e+001 
3537500000  -5.369386e+001  -3.271021e+001 
3540625000  -5.484487e+001  -3.082318e+001 
3543750000  -5.526133e+001  -2.475183e+001 
3546875000  -5.499456e+001  -1.326777e+001 
3550000000  -5.468922e+001  -2.332485e+001 
3553125000  -5.320688e+001  -3.234253e+001 
3556250000  -5.396957e+001  -3.944028e+001 
3559375000  -5.590785e+001  -4.431031e+001 
3562500000  -5.606699e+001  -4.011438e+001 
3565625000  -5.597414e+001  -5.465415e+001 
3568750000  -5.635743e+001  -4.769399e+001 
3571875000  -5.818385e+001  -5.569764e+001 
3575000000  -5.749232e+001  -3.667369e+001 
3578125000  -5.790647e+001  -4.192275e+001 
3581250000  -5.757016e+001  -3.494194e+001 
3584375000  -5.742324e+001  -4.114903e+001 
3587500000  -5.815111e+001  -4.726262e+001 
3590625000  -5.817399e+001  -6.086718e+001 
3593750000  -5.986590e+001  -4.824168e+001 
3596875000  -5.804585e+001  -4.505685e+001 
3600000000  -5.662785e+001  -4.742862e+001 
3603125000  -5.818906e+001  -6.374898e+001 
3606250000  -5.833385e+001  -5.438931e+001 
3609375000  -5.678683e+001  -5.157372e+001 
3612500000  -5.652557e+001  -6.330180e+001 
3615625000  -5.901655e+001  -6.380880e+001 
3618750000  -5.915252e+001  -5.244903e+001 
3621875000  -5.802317e+001  -4.908624e+001 
3625000000  -5.833057e+001  -5.331615e+001 
3628125000  -5.579568e+001  -3.745932e+001 
3631250000  -5.707206e+001  -5.968413e+001 
3634375000  -5.727583e+001  -5.012634e+001 
3637500000  -5.571566e+001  -5.675248e+001 
3640625000  -5.409704e+001  -4.018502e+001 
3643750000  -5.223355e+001  -5.471400e+001 
3646875000  -5.385818e+001  -6.056308e+001 
3650000000  -5.214412e+001  -6.036111e+001 
3653125000  -5.207288e+001  -6.461301e+001 
3656250000  -5.121030e+001  -6.885570e+001 
3659375000  -5.151189e+001  -6.515060e+001 
3662500000  -5.124060e+001  -7.392603e+001 
3665625000  -5.023591e+001  -7.226830e+001 
3668750000  -4.810692e+001  -8.062627e+001 
3671875000  -4.699798e+001  -8.858445e+001 
3675000000  -4.749214e+001  -1.004126e+002 
3678125000  -4.730306e+001  -1.001460e+002 
3681250000  -4.649476e+001  -1.073398e+002 
3684375000  -4.697592e+001  -1.116503e+002 
3687500000  -4.662290e+001  -1.174200e+002 
3690625000  -4.655856e+001  -1.252333e+002 
3693750000  -4.738923e+001  -1.237659e+002 
3696875000  -4.644682e+001  -1.234251e+002 
3700000000  -4.536359e+001  -1.282997e+002 
3703125000  -4.560393e+001  -1.355397e+002 
3706250000  -4.589948e+001  -1.354720e+002 
3709375000  -4.490306e+001  -1.383255e+002 
3712500000  -4.358143e+001  -1.419344e+002 
3715625000  -4.184101e+001  -1.500297e+002 
3718750000  -4.170641e+001  -1.592003e+002 
3721875000  -4.117627e+001  -1.668818e+002 
3725000000  -4.170940e+001  -1.764442e+002 
3728125000  -4.115895e+001  -1.780188e+002 
3731250000  -4.061170e+001  1.780943e+002 
3734375000  -4.031246e+001  1.695927e+002 
3737500000  -4.102623e+001  1.613533e+002 
3740625000  -4.071786e+001  1.535735e+002 
3743750000  -4.039024e+001  1.474555e+002 
3746875000  -4.087811e+001  1.403385e+002 
3750000000  -4.092413e+001  1.365710e+002 
3753125000  -4.075555e+001  1.343418e+002 
3756250000  -4.068829e+001  1.296672e+002 
3759375000  -4.035582e+001  1.238438e+002 
3762500000  -4.002243e+001  1.171206e+002 
3765625000  -4.098156e+001  1.134541e+002 
3768750000  -3.999763e+001  1.136067e+002 
3771875000  -3.841784e+001  1.049048e+002 
3775000000  -3.852101e+001  9.495774e+001 
3778125000  -3.906802e+001  8.708376e+001 
3781250000  -3.927252e+001  8.345490e+001 
3784375000  -3.869687e+001  7.910358e+001 
3787500000  -3.845403e+001  7.212988e+001 
3790625000  -3.919194e+001  6.220227e+001 
3793750000  -3.922865e+001  5.944318e+001 
3796875000  -3.810094e+001  5.517018e+001 
3800000000  -3.635487e+001  5.058839e+001 
3803125000  -3.821466e+001  3.884974e+001 
3806250000  -3.883957e+001  3.323119e+001 
3809375000  -3.864294e+001  2.932123e+001 
3812500000  -3.838018e+001  2.004851e+001 
3815625000  -3.970983e+001  1.042237e+001 
3818750000  -4.092206e+001  1.230368e+001 
3821875000  -4.001058e+001  2.165841e+001 
3825000000  -3.819864e+001  1.710428e+001 
3828125000  -3.680400e+001  -1.001084e+000 
3831250000  -3.821010e+001  -1.598822e+001 
3834375000  -4.046029e+001  -1.577136e+001 
3837500000  -4.062644e+001  -1.049118e+001 
3840625000  -3.883857e+001  -1.490758e+001 
3843750000  -3.841866e+001  -3.033966e+001 
3846875000  -3.990579e+001  -3.645455e+001 
3850000000  -4.047837e+001  -3.075816e+001 
3853125000  -3.984823e+001  -2.882600e+001 
3856250000  -3.957842e+001  -3.661068e+001 
3859375000  -3.842025e+001  -4.570132e+001 
3862500000  -3.835545e+001  -5.655608e+001 
3865625000  -3.900757e+001  -6.105930e+001 
3868750000  -3.879416e+001  -6.016448e+001 
3871875000  -3.801019e+001  -6.826109e+001 
3875000000  -3.847284e+001  -7.980841e+001 
3878125000  -3.931262e+001  -8.165477e+001 
3881250000  -3.909253e+001  -8.251447e+001 
3884375000  -3.881477e+001  -8.892271e+001 
3887500000  -3.922005e+001  -9.495361e+001 
3890625000  -3.946850e+001  -9.847997e+001 
3893750000  -3.982687e+001  -1.015797e+002 
3896875000  -4.012841e+001  -1.048151e+002 
3900000000  -3.985173e+001  -1.089608e+002 
3903125000  -3.937062e+001  -1.120247e+002 
3906250000  -3.872226e+001  -1.165530e+002 
3909375000  -3.814368e+001  -1.247190e+002 
3912500000  -3.924249e+001  -1.343875e+002 
3915625000  -4.047418e+001  -1.342328e+002 
3918750000  -4.019689e+001  -1.351421e+002 
3921875000  -3.941289e+001  -1.400443e+002 
3925000000  -3.858395e+001  -1.458637e+002 
3928125000  -3.829291e+001  -1.553368e+002 
3931250000  -3.885561e+001  -1.609068e+002 
3934375000  -3.955107e+001  -1.625739e+002 
3937500000  -4.016483e+001  -1.626372e+002 
3940625000  -3.982114e+001  -1.665999e+002 
3943750000  -3.884589e+001  -1.701693e+002 
3946875000  -3.852134e+001  1.799878e+002 
3950000000  -3.980294e+001  1.732681e+002 
3953125000  -3.989974e+001  1.724978e+002 
3956250000  -3.882140e+001  1.747817e+002 
3959375000  -3.773270e+001  1.658086e+002 
3962500000  -3.781141e+001  1.565709e+002 
3965625000  -3.805120e+001  1.489651e+002 
3968750000  -3.863966e+001  1.416131e+002 
3971875000  -3.840325e+001  1.350018e+002 
3975000000  -3.839807e+001  1.310550e+002 
3978125000  -3.844061e+001  1.277104e+002 
3981250000  -3.842348e+001  1.198746e+002 
3984375000  -3.905527e+001  1.130159e+002 
3987500000  -3.962307e+001  1.100487e+002 
3990625000  -3.976608e+001  1.093033e+002 
3993750000  -3.958983e+001  1.040605e+002 
3996875000  -3.986721e+001  9.933632e+001 
4000000000  -4.054114e+001  9.415350e+001 
4003125000  -4.087862e+001  9.561124e+001 
4006250000  -3.909623e+001  9.399717e+001 
4009375000  -3.861868e+001  7.842339e+001 
4012500000  -4.017869e+001  7.000346e+001 
4015625000  -4.114782e+001  7.143891e+001 
4018750000  -4.131643e+001  7.285778e+001 
4021875000  -4.065275e+001  6.732010e+001 
4025000000  -4.041840e+001  6.194391e+001 
4028125000  -4.040873e+001  5.486444e+001 
4031250000  -4.097300e+001  5.057218e+001 
4034375000  -4.128223e+001  5.150509e+001 
4037500000  -4.092939e+001  4.987403e+001 
4040625000  -4.070634e+001  4.616314e+001 
4043750000  -4.121881e+001  4.317253e+001 
4046875000  -4.083135e+001  3.881393e+001 
4050000000  -4.030219e+001  3.576305e+001 
4053125000  -4.133734e+001  3.300927e+001 
4056250000  -4.154385e+001  3.547757e+001 
4059375000  -3.932715e+001  3.367957e+001 
4062500000  -3.892641e+001  2.358328e+001 
4065625000  -3.901264e+001  1.967193e+001 
4068750000  -3.825471e+001  1.183897e+001 
4071875000  -3.776258e+001  2.389117e+000 
4075000000  -3.843660e+001  -4.204879e+000 
4078125000  -3.873764e+001  -6.884945e+000 
4081250000  -3.812314e+001  -1.250637e+001 
4084375000  -3.778137e+001  -2.226798e+001 
4087500000  -3.863266e+001  -2.913719e+001 
4090625000  -3.916398e+001  -2.992026e+001 
4093750000  -3.876604e+001  -3.289743e+001 
4096875000  -3.900862e+001  -4.457237e+001 
4100000000  -3.955235e+001  -4.922277e+001 
4103125000  -4.056955e+001  -4.817178e+001 
4106250000  -3.972108e+001  -4.534020e+001 
4109375000  -3.907182e+001  -4.905016e+001 
4112500000  -3.869185e+001  -5.779572e+001 
4115625000  -3.915740e+001  -6.649853e+001 
4118750000  -3.897580e+001  -7.092728e+001 
4121875000  -3.906073e+001  -7.711645e+001 
4125000000  -3.979894e+001  -8.237351e+001 
4128125000  -4.086391e+001  -8.097778e+001 
4131250000  -3.933666e+001  -7.568523e+001 
4134375000  -3.768071e+001  -8.576839e+001 
4137500000  -3.816075e+001  -1.071752e+002 
4140625000  -4.035534e+001  -1.122144e+002 
4143750000  -4.135575e+001  -1.043378e+002 
4146875000  -4.069805e+001  -1.023252e+002 
4150000000  -3.968529e+001  -1.111225e+002 
4153125000  -3.987380e+001  -1.194336e+002 
4156250000  -4.145469e+001  -1.238723e+002 
4159375000  -4.080932e+001  -1.167837e+002 
4162500000  -3.957780e+001  -1.157919e+002 
4165625000  -3.877786e+001  -1.233261e+002 
4168750000  -3.854095e+001  -1.329026e+002 
4171875000  -3.839875e+001  -1.424193e+002 
4175000000  -3.921019e+001  -1.483405e+002 
4178125000  -3.956682e+001  -1.478068e+002 
4181250000  -3.925837e+001  -1.531627e+002 
4184375000  -3.924289e+001  -1.601348e+002 
4187500000  -3.934600e+001  -1.632037e+002 
4190625000  -3.911729e+001  -1.718118e+002 
4193750000  -4.053931e+001  -1.777170e+002 
4196875000  -4.141412e+001  -1.752612e+002 
4200000000  -4.265472e+001  -1.696779e+002 
4203125000  -4.081754e+001  -1.572180e+002 
4206250000  -3.729409e+001  -1.697283e+002 
4209375000  -3.718064e+001  1.694695e+002 
4212500000  -3.967213e+001  1.614323e+002 
4215625000  -3.993931e+001  1.690249e+002 
4218750000  -3.805738e+001  1.720047e+002 
4221875000  -3.644981e+001  1.601565e+002 
4225000000  -3.779316e+001  1.491599e+002 
4228125000  -3.791849e+001  1.496293e+002 
4231250000  -3.632606e+001  1.425143e+002 
4234375000  -3.608675e+001  1.312838e+002 
4237500000  -3.602057e+001  1.271882e+002 
4240625000  -3.634309e+001  1.134113e+002 
4243750000  -3.740200e+001  1.064786e+002 
4246875000  -3.852663e+001  1.047880e+002 
4250000000  -3.831998e+001  1.053787e+002 
4253125000  -3.799330e+001  1.023370e+002 
4256250000  -3.783265e+001  9.844451e+001 
4259375000  -3.749507e+001  9.323457e+001 
4262500000  -3.761355e+001  8.856882e+001 
4265625000  -3.774472e+001  8.422800e+001 
4268750000  -3.702433e+001  7.789587e+001 
4271875000  -3.677790e+001  6.854787e+001 
4275000000  -3.642598e+001  6.013119e+001 
4278125000  -3.775549e+001  4.802435e+001 
4281250000  -3.884965e+001  4.681911e+001 
4284375000  -3.864930e+001  4.637206e+001 
4287500000  -4.014061e+001  4.278594e+001 
4290625000  -4.056639e+001  5.014024e+001 
4293750000  -3.867204e+001  5.063145e+001 
4296875000  -3.762729e+001  3.862159e+001 
4300000000  -3.919243e+001  2.916897e+001 
4303125000  -3.958487e+001  2.981264e+001 
4306250000  -3.845713e+001  3.245115e+001 
4309375000  -3.735209e+001  2.671087e+001 
4312500000  -3.728602e+001  1.571298e+001 
4315625000  -3.783121e+001  7.538067e+000 
4318750000  -3.855506e+001  3.044076e+000 
4321875000  -3.857687e+001  3.319649e+000 
4325000000  -3.784702e+001  3.558239e+000 
4328125000  -3.712006e+001  -6.849972e+000 
4331250000  -3.737129e+001  -1.758663e+001 
4334375000  -3.845266e+001  -2.474712e+001 
4337500000  -3.914564e+001  -2.533506e+001 
4340625000  -3.951868e+001  -2.012283e+001 
4343750000  -3.816502e+001  -2.431404e+001 
4346875000  -3.826525e+001  -3.087221e+001 
4350000000  -3.829515e+001  -4.096739e+001 
4353125000  -3.889936e+001  -4.657626e+001 
4356250000  -4.076431e+001  -4.505573e+001 
4359375000  -3.948578e+001  -2.982635e+001 
4362500000  -3.631486e+001  -3.736469e+001 
4365625000  -3.586168e+001  -5.656091e+001 
4368750000  -3.704532e+001  -6.474695e+001 
4371875000  -3.790128e+001  -6.432988e+001 
4375000000  -3.711514e+001  -7.084003e+001 
4378125000  -3.660898e+001  -7.735979e+001 
4381250000  -3.699836e+001  -8.371151e+001 
4384375000  -3.719806e+001  -9.141747e+001 
4387500000  -3.803373e+001  -9.731022e+001 
4390625000  -3.833820e+001  -9.929092e+001 
4393750000  -3.784205e+001  -9.987787e+001 
4396875000  -3.717752e+001  -1.041709e+002 
4400000000  -3.690246e+001  -1.134691e+002 
4403125000  -3.774506e+001  -1.225488e+002 
4406250000  -3.814076e+001  -1.256013e+002 
4409375000  -3.887207e+001  -1.297874e+002 
4412500000  -3.956527e+001  -1.324492e+002 
4415625000  -3.923406e+001  -1.284852e+002 
