!Agilent Technologies,E8363B,MY43030201,A.06.04.32
!Agilent E8363B: A.06.04.32
!Date: Tuesday, November 11, 2014 21:34:15
!Correction: S21(Response(S21)) 
!S1P File: Measurement: S21:
# Hz S  dB   R 50
3000000000  -4.059028e+001  7.289092e+001 
3003125000  -4.223601e+001  6.552343e+001 
3006250000  -4.215662e+001  6.529160e+001 
3009375000  -4.274598e+001  6.888645e+001 
3012500000  -4.161445e+001  6.473053e+001 
3015625000  -4.154145e+001  5.733667e+001 
3018750000  -4.166809e+001  5.919582e+001 
3021875000  -4.015611e+001  6.041114e+001 
3025000000  -3.886812e+001  5.622807e+001 
3028125000  -3.791520e+001  4.550835e+001 
3031250000  -3.693008e+001  3.294844e+001 
3034375000  -3.681807e+001  1.887805e+001 
3037500000  -3.769567e+001  8.298682e+000 
3040625000  -3.886216e+001  3.955829e+000 
3043750000  -3.925113e+001  -3.492344e+000 
3046875000  -3.981156e+001  -7.126491e+000 
3050000000  -4.091013e+001  -1.402481e+001 
3053125000  -4.051323e+001  -8.035201e+000 
3056250000  -4.054965e+001  -4.937597e+000 
3059375000  -3.976509e+001  -9.057335e+000 
3062500000  -3.830579e+001  -1.133090e+001 
3065625000  -3.770818e+001  -2.267839e+001 
3068750000  -3.758265e+001  -2.977200e+001 
3071875000  -3.763212e+001  -3.264065e+001 
3075000000  -3.703350e+001  -3.942548e+001 
3078125000  -3.707829e+001  -4.536000e+001 
3081250000  -3.713659e+001  -5.146975e+001 
3084375000  -3.637777e+001  -5.616961e+001 
3087500000  -3.652259e+001  -6.275142e+001 
3090625000  -3.598228e+001  -7.463300e+001 
3093750000  -3.692279e+001  -8.321733e+001 
3096875000  -3.746606e+001  -8.915627e+001 
3100000000  -3.725800e+001  -9.080695e+001 
3103125000  -3.762182e+001  -9.516430e+001 
3106250000  -3.710254e+001  -1.006435e+002 
3109375000  -3.736869e+001  -1.040427e+002 
3112500000  -3.710180e+001  -1.102130e+002 
3115625000  -3.711324e+001  -1.137054e+002 
3118750000  -3.718848e+001  -1.169278e+002 
3121875000  -3.667481e+001  -1.281515e+002 
3125000000  -3.854944e+001  -1.305304e+002 
3128125000  -3.850458e+001  -1.234381e+002 
3131250000  -3.604303e+001  -1.307352e+002 
3134375000  -3.534416e+001  -1.479761e+002 
3137500000  -3.615797e+001  -1.589057e+002 
3140625000  -3.730515e+001  -1.625766e+002 
3143750000  -3.809674e+001  -1.649732e+002 
3146875000  -3.758467e+001  -1.629155e+002 
3150000000  -3.688313e+001  -1.677726e+002 
3153125000  -3.720147e+001  -1.755595e+002 
3156250000  -3.791457e+001  -1.711371e+002 
3159375000  -3.556030e+001  -1.725601e+002 
3162500000  -3.416880e+001  1.716898e+002 
3165625000  -3.545610e+001  1.588841e+002 
3168750000  -3.543142e+001  1.577519e+002 
3171875000  -3.492676e+001  1.511931e+002 
3175000000  -3.545997e+001  1.416127e+002 
3178125000  -3.504367e+001  1.397955e+002 
3181250000  -3.445039e+001  1.311438e+002 
3184375000  -3.421164e+001  1.199975e+002 
3187500000  -3.540688e+001  1.051302e+002 
3190625000  -3.723953e+001  1.005693e+002 
3193750000  -3.753032e+001  1.041350e+002 
3196875000  -3.731583e+001  1.050508e+002 
3200000000  -3.615802e+001  1.010598e+002 
3203125000  -3.592130e+001  9.198866e+001 
3206250000  -3.623618e+001  8.466212e+001 
3209375000  -3.580775e+001  7.668897e+001 
3212500000  -3.630421e+001  7.063080e+001 
3215625000  -3.606313e+001  6.750878e+001 
3218750000  -3.685689e+001  5.614066e+001 
3221875000  -3.722914e+001  4.999192e+001 
3225000000  -3.705871e+001  4.639228e+001 
3228125000  -3.778616e+001  3.838626e+001 
3231250000  -3.820549e+001  3.606518e+001 
3234375000  -3.789279e+001  3.309789e+001 
3237500000  -3.805993e+001  2.876422e+001 
3240625000  -3.751425e+001  2.340368e+001 
3243750000  -3.763046e+001  1.334928e+001 
3246875000  -3.826422e+001  6.140457e+000 
3250000000  -3.878823e+001  2.227436e+000 
3253125000  -3.892235e+001  -7.274115e-001 
3256250000  -3.840681e+001  -8.905279e+000 
3259375000  -3.915623e+001  -1.967426e+001 
3262500000  -4.075490e+001  -2.364251e+001 
3265625000  -4.106023e+001  -2.043817e+001 
3268750000  -4.120185e+001  -1.911120e+001 
3271875000  -4.061964e+001  -2.313704e+001 
3275000000  -4.017658e+001  -3.161884e+001 
3278125000  -4.090822e+001  -3.734066e+001 
3281250000  -4.092437e+001  -3.851439e+001 
3284375000  -4.063830e+001  -4.356202e+001 
3287500000  -4.099666e+001  -4.893977e+001 
3290625000  -4.137067e+001  -5.586478e+001 
3293750000  -4.134399e+001  -6.100090e+001 
3296875000  -4.234670e+001  -6.254810e+001 
3300000000  -4.194455e+001  -6.286876e+001 
3303125000  -4.095817e+001  -6.710110e+001 
3306250000  -4.067798e+001  -7.744353e+001 
3309375000  -4.052211e+001  -8.424971e+001 
3312500000  -4.097287e+001  -9.668515e+001 
3315625000  -4.213915e+001  -1.018613e+002 
3318750000  -4.368618e+001  -1.079096e+002 
3321875000  -4.503486e+001  -1.042664e+002 
3325000000  -4.501471e+001  -9.683743e+001 
3328125000  -4.366838e+001  -9.705527e+001 
3331250000  -4.221706e+001  -9.603550e+001 
3334375000  -3.936724e+001  -1.107161e+002 
3337500000  -4.027636e+001  -1.310718e+002 
3340625000  -4.224466e+001  -1.388755e+002 
3343750000  -4.393201e+001  -1.393233e+002 
3346875000  -4.318871e+001  -1.396882e+002 
3350000000  -4.283079e+001  -1.430786e+002 
3353125000  -4.283148e+001  -1.515927e+002 
3356250000  -4.254190e+001  -1.586337e+002 
3359375000  -4.352166e+001  -1.703155e+002 
3362500000  -4.426070e+001  -1.763287e+002 
3365625000  -4.439270e+001  1.789336e+002 
3368750000  -4.540635e+001  1.761811e+002 
3371875000  -4.594949e+001  1.746295e+002 
3375000000  -4.766983e+001  1.708023e+002 
3378125000  -4.829504e+001  1.717763e+002 
3381250000  -4.926270e+001  1.773654e+002 
3384375000  -4.632122e+001  -1.689483e+002 
3387500000  -4.390279e+001  1.726418e+002 
3390625000  -4.587659e+001  1.535073e+002 
3393750000  -4.702800e+001  1.519270e+002 
3396875000  -4.588637e+001  1.512592e+002 
3400000000  -4.636328e+001  1.427212e+002 
3403125000  -4.677187e+001  1.352309e+002 
3406250000  -4.753746e+001  1.288454e+002 
3409375000  -4.806890e+001  1.222166e+002 
3412500000  -4.895538e+001  1.188036e+002 
3415625000  -5.028619e+001  1.141835e+002 
3418750000  -5.016845e+001  1.161329e+002 
3421875000  -5.089635e+001  1.198928e+002 
3425000000  -4.980816e+001  1.227711e+002 
3428125000  -5.005363e+001  1.141368e+002 
3431250000  -4.988188e+001  1.078302e+002 
3434375000  -5.139062e+001  1.004288e+002 
3437500000  -5.185585e+001  1.031626e+002 
3440625000  -5.221642e+001  1.050875e+002 
3443750000  -5.075460e+001  1.058327e+002 
3446875000  -5.127004e+001  1.005602e+002 
3450000000  -5.013567e+001  8.980305e+001 
3453125000  -5.082183e+001  8.296617e+001 
3456250000  -5.127783e+001  8.278758e+001 
3459375000  -5.284203e+001  8.604906e+001 
3462500000  -5.214077e+001  8.342059e+001 
3465625000  -5.167422e+001  7.533708e+001 
3468750000  -5.170508e+001  7.996358e+001 
3471875000  -5.193719e+001  7.306509e+001 
3475000000  -5.030097e+001  7.338033e+001 
3478125000  -5.104723e+001  6.311943e+001 
3481250000  -5.237299e+001  6.642616e+001 
3484375000  -5.312752e+001  6.889175e+001 
3487500000  -5.139272e+001  6.062126e+001 
3490625000  -5.092529e+001  5.285847e+001 
3493750000  -5.142355e+001  4.720359e+001 
3496875000  -5.151287e+001  4.393129e+001 
3500000000  -5.266462e+001  4.683345e+001 
3503125000  -5.110053e+001  4.462890e+001 
3506250000  -5.047323e+001  3.568892e+001 
3509375000  -4.953313e+001  2.684349e+001 
3512500000  -5.055240e+001  1.389612e+001 
3515625000  -5.065440e+001  9.960492e+000 
3518750000  -5.220391e+001  1.032339e+001 
3521875000  -5.263240e+001  7.064221e+000 
3525000000  -5.348675e+001  -2.894959e+000 
3528125000  -5.250967e+001  3.355649e+000 
3531250000  -5.273847e+001  6.801925e-001 
3534375000  -5.266686e+001  -1.334628e+001 
3537500000  -5.468188e+001  -2.906893e+001 
3540625000  -5.497631e+001  -2.615923e+001 
3543750000  -5.597902e+001  -2.085533e+001 
3546875000  -5.730603e+001  -1.002641e+001 
3550000000  -5.408668e+001  -9.175410e+000 
3553125000  -5.369257e+001  -3.243012e+001 
3556250000  -5.579161e+001  -3.018846e+001 
3559375000  -5.577273e+001  -2.939226e+001 
3562500000  -5.658138e+001  -4.387540e+001 
3565625000  -5.645576e+001  -4.228714e+001 
3568750000  -5.663212e+001  -4.716082e+001 
3571875000  -5.711811e+001  -3.487732e+001 
3575000000  -5.815979e+001  -3.773154e+001 
3578125000  -5.947994e+001  -4.102016e+001 
3581250000  -5.624992e+001  -4.061329e+001 
3584375000  -5.767976e+001  -4.196726e+001 
3587500000  -5.764958e+001  -4.581566e+001 
3590625000  -5.963306e+001  -5.938875e+001 
3593750000  -5.907481e+001  -4.536491e+001 
3596875000  -5.809853e+001  -3.759629e+001 
3600000000  -5.660976e+001  -3.562584e+001 
3603125000  -5.998286e+001  -4.066918e+001 
3606250000  -5.786237e+001  -5.109219e+001 
3609375000  -5.923134e+001  -4.425951e+001 
3612500000  -5.822031e+001  -5.483720e+001 
3615625000  -5.819613e+001  -5.550050e+001 
3618750000  -5.921770e+001  -4.385464e+001 
3621875000  -5.729711e+001  -5.407330e+001 
3625000000  -5.927127e+001  -3.992151e+001 
3628125000  -5.758778e+001  -3.103119e+001 
3631250000  -5.591450e+001  -4.852074e+001 
3634375000  -5.668898e+001  -4.209484e+001 
3637500000  -5.438397e+001  -4.335127e+001 
3640625000  -5.394328e+001  -3.637354e+001 
3643750000  -5.309961e+001  -4.769053e+001 
3646875000  -5.260907e+001  -5.245210e+001 
3650000000  -5.320123e+001  -6.111490e+001 
3653125000  -5.120941e+001  -6.146256e+001 
3656250000  -5.195515e+001  -6.755379e+001 
3659375000  -5.174200e+001  -6.141384e+001 
3662500000  -5.049408e+001  -6.881293e+001 
3665625000  -5.020525e+001  -7.236752e+001 
3668750000  -4.821759e+001  -7.576794e+001 
3671875000  -4.771640e+001  -8.352608e+001 
3675000000  -4.746489e+001  -9.068254e+001 
3678125000  -4.755180e+001  -9.674295e+001 
3681250000  -4.604038e+001  -1.009498e+002 
3684375000  -4.694928e+001  -1.067434e+002 
3687500000  -4.691359e+001  -1.115099e+002 
3690625000  -4.712310e+001  -1.159250e+002 
3693750000  -4.714842e+001  -1.192369e+002 
3696875000  -4.619525e+001  -1.171431e+002 
3700000000  -4.543666e+001  -1.238894e+002 
3703125000  -4.564329e+001  -1.325187e+002 
3706250000  -4.590759e+001  -1.331984e+002 
3709375000  -4.502663e+001  -1.332757e+002 
3712500000  -4.344364e+001  -1.370713e+002 
3715625000  -4.183308e+001  -1.456466e+002 
3718750000  -4.176462e+001  -1.542177e+002 
3721875000  -4.160883e+001  -1.634990e+002 
3725000000  -4.142274e+001  -1.705562e+002 
3728125000  -4.137635e+001  -1.732425e+002 
3731250000  -4.057380e+001  -1.787854e+002 
3734375000  -3.999521e+001  1.745009e+002 
3737500000  -4.113653e+001  1.649975e+002 
3740625000  -4.090599e+001  1.584607e+002 
3743750000  -4.055399e+001  1.523706e+002 
3746875000  -4.078341e+001  1.458096e+002 
3750000000  -4.121565e+001  1.408489e+002 
3753125000  -4.062519e+001  1.379285e+002 
3756250000  -4.074247e+001  1.347315e+002 
3759375000  -4.031373e+001  1.303904e+002 
3762500000  -4.028200e+001  1.225437e+002 
3765625000  -4.089583e+001  1.181168e+002 
3768750000  -4.031601e+001  1.192743e+002 
3771875000  -3.830824e+001  1.122621e+002 
3775000000  -3.850241e+001  9.857193e+001 
3778125000  -3.889744e+001  9.336082e+001 
3781250000  -3.885105e+001  8.816194e+001 
3784375000  -3.888801e+001  8.303128e+001 
3787500000  -3.843066e+001  7.660584e+001 
3790625000  -3.927018e+001  6.828652e+001 
3793750000  -3.915549e+001  6.464950e+001 
3796875000  -3.819363e+001  6.018520e+001 
3800000000  -3.625695e+001  5.534895e+001 
3803125000  -3.815046e+001  4.223188e+001 
3806250000  -3.889137e+001  3.753807e+001 
3809375000  -3.852126e+001  3.368428e+001 
3812500000  -3.827193e+001  2.476482e+001 
3815625000  -3.950823e+001  1.649646e+001 
3818750000  -4.088499e+001  1.665401e+001 
3821875000  -4.008469e+001  2.622751e+001 
3825000000  -3.832337e+001  2.380749e+001 
3828125000  -3.699438e+001  2.392968e+000 
3831250000  -3.813327e+001  -1.069432e+001 
3834375000  -4.013873e+001  -9.902184e+000 
3837500000  -4.034047e+001  -8.334846e+000 
3840625000  -3.897411e+001  -1.096764e+001 
3843750000  -3.835913e+001  -2.551177e+001 
3846875000  -3.991466e+001  -3.170457e+001 
3850000000  -4.060352e+001  -2.547055e+001 
3853125000  -3.989840e+001  -2.601882e+001 
3856250000  -3.930400e+001  -3.353942e+001 
3859375000  -3.862046e+001  -4.120412e+001 
3862500000  -3.852484e+001  -5.120486e+001 
3865625000  -3.906018e+001  -5.484300e+001 
3868750000  -3.893097e+001  -5.611120e+001 
3871875000  -3.803016e+001  -6.351944e+001 
3875000000  -3.836682e+001  -7.417225e+001 
3878125000  -3.938262e+001  -7.662859e+001 
3881250000  -3.935559e+001  -7.585586e+001 
3884375000  -3.880896e+001  -8.322722e+001 
3887500000  -3.901716e+001  -9.005061e+001 
3890625000  -3.943447e+001  -9.515012e+001 
3893750000  -3.992943e+001  -9.489993e+001 
3896875000  -4.017655e+001  -1.002735e+002 
3900000000  -3.964540e+001  -1.027272e+002 
3903125000  -3.944479e+001  -1.081432e+002 
3906250000  -3.878910e+001  -1.112391e+002 
3909375000  -3.818142e+001  -1.204612e+002 
3912500000  -3.899482e+001  -1.291315e+002 
3915625000  -4.037938e+001  -1.287270e+002 
3918750000  -4.006126e+001  -1.301680e+002 
3921875000  -3.933681e+001  -1.350123e+002 
3925000000  -3.870774e+001  -1.407335e+002 
3928125000  -3.823136e+001  -1.489915e+002 
3931250000  -3.911310e+001  -1.570720e+002 
3934375000  -3.966473e+001  -1.589977e+002 
3937500000  -4.012648e+001  -1.596848e+002 
3940625000  -3.997370e+001  -1.625828e+002 
3943750000  -3.894754e+001  -1.633224e+002 
3946875000  -3.843354e+001  -1.749640e+002 
3950000000  -3.953831e+001  1.768334e+002 
3953125000  -4.024033e+001  1.799690e+002 
3956250000  -3.850953e+001  1.779230e+002 
3959375000  -3.764891e+001  1.703958e+002 
3962500000  -3.771013e+001  1.643391e+002 
3965625000  -3.788846e+001  1.533404e+002 
3968750000  -3.875552e+001  1.447238e+002 
3971875000  -3.841386e+001  1.403935e+002 
3975000000  -3.822021e+001  1.373123e+002 
3978125000  -3.848816e+001  1.338647e+002 
3981250000  -3.856257e+001  1.254561e+002 
3984375000  -3.895005e+001  1.170330e+002 
3987500000  -3.976029e+001  1.143941e+002 
3990625000  -3.985727e+001  1.148359e+002 
3993750000  -3.999062e+001  1.078299e+002 
3996875000  -4.002667e+001  1.040995e+002 
4000000000  -4.068733e+001  9.923726e+001 
4003125000  -4.106666e+001  1.007314e+002 
4006250000  -3.940088e+001  9.902837e+001 
4009375000  -3.850386e+001  8.399337e+001 
4012500000  -4.017018e+001  7.436911e+001 
4015625000  -4.128548e+001  7.555785e+001 
4018750000  -4.145645e+001  7.653580e+001 
4021875000  -4.070330e+001  7.336447e+001 
4025000000  -4.042304e+001  6.603266e+001 
4028125000  -4.034478e+001  5.969114e+001 
4031250000  -4.126377e+001  5.633541e+001 
4034375000  -4.114259e+001  5.564427e+001 
4037500000  -4.103218e+001  5.734848e+001 
4040625000  -4.078960e+001  5.330504e+001 
4043750000  -4.116185e+001  4.797964e+001 
4046875000  -4.065799e+001  4.503339e+001 
4050000000  -4.069152e+001  3.804604e+001 
4053125000  -4.139849e+001  3.628462e+001 
4056250000  -4.161321e+001  4.162679e+001 
4059375000  -3.922940e+001  3.991664e+001 
4062500000  -3.886441e+001  2.900231e+001 
4065625000  -3.896694e+001  2.460929e+001 
4068750000  -3.833565e+001  1.939155e+001 
4071875000  -3.774661e+001  9.033168e+000 
4075000000  -3.841756e+001  -1.694505e+000 
4078125000  -3.860164e+001  -3.941774e+000 
4081250000  -3.823325e+001  -7.433689e+000 
4084375000  -3.819873e+001  -1.795633e+001 
4087500000  -3.879332e+001  -2.294197e+001 
4090625000  -3.926786e+001  -2.639531e+001 
4093750000  -3.906384e+001  -2.756614e+001 
4096875000  -3.860584e+001  -3.902210e+001 
4100000000  -3.986593e+001  -4.565594e+001 
4103125000  -4.067292e+001  -4.183011e+001 
4106250000  -3.987358e+001  -4.030043e+001 
4109375000  -3.917170e+001  -4.335184e+001 
4112500000  -3.856901e+001  -5.381060e+001 
4115625000  -3.938400e+001  -6.015211e+001 
4118750000  -3.917432e+001  -6.395998e+001 
4121875000  -3.890274e+001  -7.198273e+001 
4125000000  -3.983592e+001  -7.865769e+001 
4128125000  -4.134373e+001  -7.526842e+001 
4131250000  -3.962123e+001  -7.078574e+001 
4134375000  -3.769014e+001  -7.989101e+001 
4137500000  -3.832684e+001  -1.030478e+002 
4140625000  -4.034001e+001  -1.077139e+002 
4143750000  -4.168799e+001  -1.010855e+002 
4146875000  -4.039040e+001  -9.748539e+001 
4150000000  -3.985366e+001  -1.050018e+002 
4153125000  -3.991935e+001  -1.131149e+002 
4156250000  -4.128037e+001  -1.178147e+002 
4159375000  -4.078058e+001  -1.108326e+002 
4162500000  -3.972615e+001  -1.122361e+002 
4165625000  -3.878181e+001  -1.190151e+002 
4168750000  -3.838129e+001  -1.257299e+002 
4171875000  -3.846479e+001  -1.397062e+002 
4175000000  -3.937590e+001  -1.424529e+002 
4178125000  -3.963459e+001  -1.438872e+002 
4181250000  -3.923627e+001  -1.502502e+002 
4184375000  -3.950500e+001  -1.539076e+002 
4187500000  -3.955477e+001  -1.594735e+002 
4190625000  -3.925045e+001  -1.663440e+002 
4193750000  -4.053638e+001  -1.729617e+002 
4196875000  -4.140091e+001  -1.720271e+002 
4200000000  -4.243343e+001  -1.667138e+002 
4203125000  -4.087175e+001  -1.515953e+002 
4206250000  -3.735062e+001  -1.636495e+002 
4209375000  -3.733735e+001  1.737214e+002 
4212500000  -3.962457e+001  1.650065e+002 
4215625000  -4.034836e+001  1.749217e+002 
4218750000  -3.843504e+001  1.755975e+002 
4221875000  -3.681008e+001  1.671098e+002 
4225000000  -3.815929e+001  1.541318e+002 
4228125000  -3.788283e+001  1.555849e+002 
4231250000  -3.633637e+001  1.464279e+002 
4234375000  -3.647219e+001  1.376608e+002 
4237500000  -3.632146e+001  1.315542e+002 
4240625000  -3.656620e+001  1.192245e+002 
4243750000  -3.764413e+001  1.124070e+002 
4246875000  -3.858638e+001  1.096377e+002 
4250000000  -3.837025e+001  1.117701e+002 
4253125000  -3.822563e+001  1.078163e+002 
4256250000  -3.811235e+001  1.040721e+002 
4259375000  -3.775260e+001  9.628866e+001 
4262500000  -3.789860e+001  9.078506e+001 
4265625000  -3.801665e+001  9.190574e+001 
4268750000  -3.698489e+001  8.223037e+001 
4271875000  -3.694490e+001  7.462638e+001 
4275000000  -3.657057e+001  6.560889e+001 
4278125000  -3.784006e+001  5.340109e+001 
4281250000  -3.922955e+001  5.201141e+001 
4284375000  -3.906495e+001  4.860951e+001 
4287500000  -4.040303e+001  4.540392e+001 
4290625000  -4.029186e+001  5.494413e+001 
4293750000  -3.870180e+001  5.537631e+001 
4296875000  -3.774780e+001  4.083242e+001 
4300000000  -3.900644e+001  3.196384e+001 
4303125000  -3.976720e+001  3.624086e+001 
4306250000  -3.840710e+001  3.902690e+001 
4309375000  -3.768311e+001  3.197490e+001 
4312500000  -3.773027e+001  2.079654e+001 
4315625000  -3.802009e+001  1.218370e+001 
4318750000  -3.877789e+001  9.144300e+000 
4321875000  -3.886342e+001  1.039909e+001 
4325000000  -3.806579e+001  8.098197e+000 
4328125000  -3.733092e+001  -3.723553e-001 
4331250000  -3.759337e+001  -1.199334e+001 
4334375000  -3.871933e+001  -1.803051e+001 
4337500000  -3.961636e+001  -1.942131e+001 
4340625000  -3.962241e+001  -1.474656e+001 
4343750000  -3.873506e+001  -1.772643e+001 
4346875000  -3.851862e+001  -2.780371e+001 
4350000000  -3.840684e+001  -3.658673e+001 
4353125000  -3.927269e+001  -4.161837e+001 
4356250000  -4.101586e+001  -3.760472e+001 
4359375000  -3.981417e+001  -2.258952e+001 
4362500000  -3.672639e+001  -3.213647e+001 
4365625000  -3.609835e+001  -4.897582e+001 
4368750000  -3.734692e+001  -5.871675e+001 
4371875000  -3.782578e+001  -5.939009e+001 
4375000000  -3.760102e+001  -6.329894e+001 
4378125000  -3.677925e+001  -7.285622e+001 
4381250000  -3.716121e+001  -7.886485e+001 
4384375000  -3.725459e+001  -8.615324e+001 
4387500000  -3.812152e+001  -9.243332e+001 
4390625000  -3.859026e+001  -9.303947e+001 
4393750000  -3.806433e+001  -9.259607e+001 
4396875000  -3.733635e+001  -9.728894e+001 
4400000000  -3.686555e+001  -1.078940e+002 
4403125000  -3.801316e+001  -1.159800e+002 
4406250000  -3.846913e+001  -1.196185e+002 
4409375000  -3.880942e+001  -1.236134e+002 
4412500000  -4.018773e+001  -1.264079e+002 
4415625000  -3.931179e+001  -1.220713e+002 
