!Agilent Technologies,E8363B,MY43030201,A.06.04.32
!Agilent E8363B: A.06.04.32
!Date: Tuesday, November 11, 2014 21:33:27
!Correction: S21(Response(S21)) 
!S1P File: Measurement: S21:
# Hz S  dB   R 50
3000000000  -4.057854e+001  7.489268e+001 
3003125000  -4.219610e+001  6.617744e+001 
3006250000  -4.212392e+001  6.594608e+001 
3009375000  -4.273165e+001  7.168694e+001 
3012500000  -4.135859e+001  6.456448e+001 
3015625000  -4.133516e+001  5.830569e+001 
3018750000  -4.190058e+001  5.959513e+001 
3021875000  -4.024626e+001  6.043171e+001 
3025000000  -3.891178e+001  5.656867e+001 
3028125000  -3.784145e+001  4.535841e+001 
3031250000  -3.699670e+001  3.437854e+001 
3034375000  -3.683723e+001  1.997860e+001 
3037500000  -3.760062e+001  9.463836e+000 
3040625000  -3.875082e+001  4.108632e+000 
3043750000  -3.908781e+001  -2.846979e+000 
3046875000  -3.986520e+001  -7.726241e+000 
3050000000  -4.080122e+001  -1.206865e+001 
3053125000  -4.059326e+001  -8.139389e+000 
3056250000  -4.044940e+001  -4.021012e+000 
3059375000  -3.971566e+001  -7.901034e+000 
3062500000  -3.809986e+001  -1.169441e+001 
3065625000  -3.787432e+001  -2.196342e+001 
3068750000  -3.753170e+001  -2.902679e+001 
3071875000  -3.744267e+001  -3.148729e+001 
3075000000  -3.697670e+001  -3.851161e+001 
3078125000  -3.702985e+001  -4.514882e+001 
3081250000  -3.719524e+001  -5.051641e+001 
3084375000  -3.628084e+001  -5.485239e+001 
3087500000  -3.652452e+001  -6.228253e+001 
3090625000  -3.587086e+001  -7.422914e+001 
3093750000  -3.701971e+001  -8.283167e+001 
3096875000  -3.733218e+001  -8.815166e+001 
3100000000  -3.722000e+001  -9.063503e+001 
3103125000  -3.769644e+001  -9.445145e+001 
3106250000  -3.716082e+001  -9.920287e+001 
3109375000  -3.733785e+001  -1.028093e+002 
3112500000  -3.722950e+001  -1.093667e+002 
3115625000  -3.708229e+001  -1.137116e+002 
3118750000  -3.725995e+001  -1.172321e+002 
3121875000  -3.644591e+001  -1.274053e+002 
3125000000  -3.854117e+001  -1.311207e+002 
3128125000  -3.855285e+001  -1.224311e+002 
3131250000  -3.598306e+001  -1.295448e+002 
3134375000  -3.536430e+001  -1.471545e+002 
3137500000  -3.602605e+001  -1.588186e+002 
3140625000  -3.733237e+001  -1.607283e+002 
3143750000  -3.818186e+001  -1.634490e+002 
3146875000  -3.767985e+001  -1.617798e+002 
3150000000  -3.671650e+001  -1.660292e+002 
3153125000  -3.729506e+001  -1.744961e+002 
3156250000  -3.796325e+001  -1.691457e+002 
3159375000  -3.562703e+001  -1.718043e+002 
3162500000  -3.418917e+001  1.719910e+002 
3165625000  -3.546017e+001  1.600172e+002 
3168750000  -3.543051e+001  1.590276e+002 
3171875000  -3.495440e+001  1.511542e+002 
3175000000  -3.542498e+001  1.423983e+002 
3178125000  -3.500190e+001  1.408430e+002 
3181250000  -3.445370e+001  1.319090e+002 
3184375000  -3.409068e+001  1.207520e+002 
3187500000  -3.553693e+001  1.066610e+002 
3190625000  -3.707435e+001  1.002138e+002 
3193750000  -3.733735e+001  1.059116e+002 
3196875000  -3.735972e+001  1.046419e+002 
3200000000  -3.616350e+001  1.011738e+002 
3203125000  -3.599794e+001  9.272217e+001 
3206250000  -3.617387e+001  8.543430e+001 
3209375000  -3.589349e+001  7.772690e+001 
3212500000  -3.631111e+001  7.111057e+001 
3215625000  -3.604945e+001  6.819794e+001 
3218750000  -3.677497e+001  5.696579e+001 
3221875000  -3.730017e+001  5.056775e+001 
3225000000  -3.700710e+001  4.694468e+001 
3228125000  -3.772253e+001  3.866348e+001 
3231250000  -3.828508e+001  3.797798e+001 
3234375000  -3.799944e+001  3.360165e+001 
3237500000  -3.806691e+001  3.000440e+001 
3240625000  -3.761151e+001  2.449440e+001 
3243750000  -3.765186e+001  1.373754e+001 
3246875000  -3.823711e+001  7.530344e+000 
3250000000  -3.881399e+001  3.159277e+000 
3253125000  -3.886572e+001  -1.758932e-001 
3256250000  -3.854578e+001  -9.112923e+000 
3259375000  -3.920300e+001  -1.973654e+001 
3262500000  -4.068404e+001  -2.252198e+001 
3265625000  -4.113198e+001  -1.955439e+001 
3268750000  -4.138871e+001  -1.825622e+001 
3271875000  -4.042650e+001  -2.292380e+001 
3275000000  -4.001303e+001  -3.080812e+001 
3278125000  -4.094055e+001  -3.620864e+001 
3281250000  -4.117939e+001  -3.551912e+001 
3284375000  -4.044207e+001  -4.326236e+001 
3287500000  -4.094978e+001  -4.747544e+001 
3290625000  -4.101339e+001  -5.475581e+001 
3293750000  -4.135916e+001  -5.969580e+001 
3296875000  -4.257660e+001  -6.269136e+001 
3300000000  -4.169781e+001  -6.039699e+001 
3303125000  -4.096395e+001  -6.847613e+001 
3306250000  -4.065390e+001  -7.624572e+001 
3309375000  -4.051076e+001  -8.395586e+001 
3312500000  -4.083168e+001  -9.590556e+001 
3315625000  -4.229001e+001  -1.028841e+002 
3318750000  -4.351963e+001  -1.061578e+002 
3321875000  -4.504659e+001  -1.034371e+002 
3325000000  -4.427925e+001  -9.686245e+001 
3328125000  -4.335117e+001  -9.695003e+001 
3331250000  -4.226329e+001  -9.487476e+001 
3334375000  -3.950757e+001  -1.094669e+002 
3337500000  -4.047290e+001  -1.299201e+002 
3340625000  -4.233515e+001  -1.391771e+002 
3343750000  -4.402270e+001  -1.364772e+002 
3346875000  -4.340803e+001  -1.381767e+002 
3350000000  -4.289580e+001  -1.418423e+002 
3353125000  -4.288987e+001  -1.481764e+002 
3356250000  -4.256486e+001  -1.571729e+002 
3359375000  -4.370281e+001  -1.672997e+002 
3362500000  -4.423629e+001  -1.725766e+002 
3365625000  -4.482095e+001  -1.771253e+002 
3368750000  -4.552252e+001  1.774330e+002 
3371875000  -4.626605e+001  1.749816e+002 
3375000000  -4.712168e+001  1.698816e+002 
3378125000  -4.776068e+001  1.676035e+002 
3381250000  -4.932146e+001  -1.754639e+002 
3384375000  -4.627478e+001  -1.680725e+002 
3387500000  -4.410177e+001  1.743966e+002 
3390625000  -4.630588e+001  1.538569e+002 
3393750000  -4.693147e+001  1.525833e+002 
3396875000  -4.597496e+001  1.505133e+002 
3400000000  -4.605796e+001  1.405777e+002 
3403125000  -4.664753e+001  1.347095e+002 
3406250000  -4.750306e+001  1.332538e+002 
3409375000  -4.824276e+001  1.290048e+002 
3412500000  -4.895607e+001  1.212212e+002 
3415625000  -4.934323e+001  1.164573e+002 
3418750000  -5.055334e+001  1.206898e+002 
3421875000  -5.112101e+001  1.223205e+002 
3425000000  -5.003825e+001  1.245402e+002 
3428125000  -4.979796e+001  1.180227e+002 
3431250000  -4.993649e+001  1.072120e+002 
3434375000  -5.181471e+001  1.064165e+002 
3437500000  -5.122643e+001  1.038214e+002 
3440625000  -5.170450e+001  1.096622e+002 
3443750000  -5.034531e+001  1.082910e+002 
3446875000  -4.998518e+001  1.028325e+002 
3450000000  -4.950655e+001  8.944978e+001 
3453125000  -5.067564e+001  9.081912e+001 
3456250000  -5.179918e+001  8.052998e+001 
3459375000  -5.280470e+001  8.666804e+001 
3462500000  -5.263192e+001  9.330735e+001 
3465625000  -5.124634e+001  7.966522e+001 
3468750000  -5.187699e+001  7.968793e+001 
3471875000  -5.187674e+001  7.793309e+001 
3475000000  -5.158582e+001  7.247665e+001 
3478125000  -5.129662e+001  5.774499e+001 
3481250000  -5.254276e+001  6.795404e+001 
3484375000  -5.224737e+001  6.531674e+001 
3487500000  -5.156708e+001  6.440666e+001 
3490625000  -5.049669e+001  5.168537e+001 
3493750000  -5.231427e+001  4.362062e+001 
3496875000  -5.219056e+001  5.168812e+001 
3500000000  -5.206266e+001  4.754718e+001 
3503125000  -5.063858e+001  4.930166e+001 
3506250000  -5.022531e+001  3.779976e+001 
3509375000  -4.969855e+001  2.304996e+001 
3512500000  -5.022321e+001  1.296701e+001 
3515625000  -5.123750e+001  1.444064e+001 
3518750000  -5.286388e+001  6.670716e+000 
3521875000  -5.177089e+001  6.215400e+000 
3525000000  -5.378033e+001  6.037707e+000 
3528125000  -5.264060e+001  7.166101e+000 
3531250000  -5.215775e+001  -3.184676e+000 
3534375000  -5.258025e+001  -1.224942e+001 
3537500000  -5.371364e+001  -2.471643e+001 
3540625000  -5.438324e+001  -2.802547e+001 
3543750000  -5.616040e+001  -1.835384e+001 
3546875000  -5.505398e+001  -9.690529e+000 
3550000000  -5.368298e+001  -1.121360e+001 
3553125000  -5.312210e+001  -3.092903e+001 
3556250000  -5.610743e+001  -3.137325e+001 
3559375000  -5.532707e+001  -3.057701e+001 
3562500000  -5.597478e+001  -4.589540e+001 
3565625000  -5.616603e+001  -4.973825e+001 
3568750000  -5.752693e+001  -3.807318e+001 
3571875000  -5.812695e+001  -3.780579e+001 
3575000000  -5.789762e+001  -4.352192e+001 
3578125000  -5.859783e+001  -3.730724e+001 
3581250000  -5.783987e+001  -3.862441e+001 
3584375000  -5.721596e+001  -2.784947e+001 
3587500000  -5.773186e+001  -2.764833e+001 
3590625000  -5.799592e+001  -5.404918e+001 
3593750000  -6.005859e+001  -4.689487e+001 
3596875000  -5.947228e+001  -3.696089e+001 
3600000000  -5.709828e+001  -4.369682e+001 
3603125000  -5.890802e+001  -5.537590e+001 
3606250000  -5.989252e+001  -5.334537e+001 
3609375000  -5.938510e+001  -5.165246e+001 
3612500000  -5.799269e+001  -4.947044e+001 
3615625000  -5.885894e+001  -5.728191e+001 
3618750000  -5.933810e+001  -3.470462e+001 
3621875000  -5.878658e+001  -4.779506e+001 
3625000000  -5.844269e+001  -3.775003e+001 
3628125000  -5.731252e+001  -4.191722e+001 
3631250000  -5.707464e+001  -5.300867e+001 
3634375000  -5.769775e+001  -4.081016e+001 
3637500000  -5.547775e+001  -3.693149e+001 
3640625000  -5.440742e+001  -4.111798e+001 
3643750000  -5.386235e+001  -3.757852e+001 
3646875000  -5.274840e+001  -5.454876e+001 
3650000000  -5.306199e+001  -5.718149e+001 
3653125000  -5.221246e+001  -6.169832e+001 
3656250000  -5.249127e+001  -5.849538e+001 
3659375000  -5.149495e+001  -6.477989e+001 
3662500000  -5.020121e+001  -6.802665e+001 
3665625000  -4.966591e+001  -7.326359e+001 
3668750000  -4.805848e+001  -7.153006e+001 
3671875000  -4.701522e+001  -8.127164e+001 
3675000000  -4.725407e+001  -9.326999e+001 
3678125000  -4.769095e+001  -9.496576e+001 
3681250000  -4.634223e+001  -9.980620e+001 
3684375000  -4.664365e+001  -1.084838e+002 
3687500000  -4.721495e+001  -1.110276e+002 
3690625000  -4.667531e+001  -1.163362e+002 
3693750000  -4.716112e+001  -1.180021e+002 
3696875000  -4.607648e+001  -1.170376e+002 
3700000000  -4.532745e+001  -1.250786e+002 
3703125000  -4.504259e+001  -1.303955e+002 
3706250000  -4.599268e+001  -1.297103e+002 
3709375000  -4.495544e+001  -1.300883e+002 
3712500000  -4.351459e+001  -1.369905e+002 
3715625000  -4.210611e+001  -1.442619e+002 
3718750000  -4.204604e+001  -1.526846e+002 
3721875000  -4.141130e+001  -1.636723e+002 
3725000000  -4.157373e+001  -1.698092e+002 
3728125000  -4.149795e+001  -1.708313e+002 
3731250000  -4.072451e+001  -1.788550e+002 
3734375000  -3.981645e+001  1.754771e+002 
3737500000  -4.073352e+001  1.659803e+002 
3740625000  -4.071812e+001  1.608822e+002 
3743750000  -4.060660e+001  1.522220e+002 
3746875000  -4.067694e+001  1.468379e+002 
3750000000  -4.110789e+001  1.429673e+002 
3753125000  -4.040923e+001  1.399952e+002 
3756250000  -4.071988e+001  1.360035e+002 
3759375000  -4.032339e+001  1.306516e+002 
3762500000  -3.995875e+001  1.239592e+002 
3765625000  -4.090794e+001  1.199968e+002 
3768750000  -4.013747e+001  1.184787e+002 
3771875000  -3.824776e+001  1.122408e+002 
3775000000  -3.839337e+001  1.006300e+002 
3778125000  -3.892960e+001  9.508563e+001 
3781250000  -3.903358e+001  9.014381e+001 
3784375000  -3.888301e+001  8.451212e+001 
3787500000  -3.846156e+001  7.827726e+001 
3790625000  -3.935147e+001  6.904360e+001 
3793750000  -3.904207e+001  6.533697e+001 
3796875000  -3.809743e+001  6.101058e+001 
3800000000  -3.638513e+001  5.669153e+001 
3803125000  -3.794640e+001  4.186546e+001 
3806250000  -3.897874e+001  3.906237e+001 
3809375000  -3.860493e+001  3.401584e+001 
3812500000  -3.843744e+001  2.559768e+001 
3815625000  -3.959361e+001  1.599533e+001 
3818750000  -4.086026e+001  1.720391e+001 
3821875000  -4.034676e+001  2.784135e+001 
3825000000  -3.819352e+001  2.340799e+001 
3828125000  -3.705006e+001  5.668519e+000 
3831250000  -3.805913e+001  -8.998686e+000 
3834375000  -4.029602e+001  -9.124347e+000 
3837500000  -4.060668e+001  -7.339059e+000 
3840625000  -3.865097e+001  -7.770654e+000 
3843750000  -3.816013e+001  -2.404271e+001 
3846875000  -3.996054e+001  -3.051900e+001 
3850000000  -4.073864e+001  -2.437171e+001 
3853125000  -3.982561e+001  -2.305498e+001 
3856250000  -3.929938e+001  -3.238181e+001 
3859375000  -3.863628e+001  -3.966960e+001 
3862500000  -3.856773e+001  -4.990830e+001 
3865625000  -3.892241e+001  -5.373100e+001 
3868750000  -3.864999e+001  -5.540225e+001 
3871875000  -3.794824e+001  -6.303182e+001 
3875000000  -3.852910e+001  -7.445295e+001 
3878125000  -3.959962e+001  -7.435845e+001 
3881250000  -3.924200e+001  -7.526266e+001 
3884375000  -3.885997e+001  -8.330901e+001 
3887500000  -3.918985e+001  -8.850820e+001 
3890625000  -3.957133e+001  -9.383434e+001 
3893750000  -3.964004e+001  -9.684774e+001 
3896875000  -4.019856e+001  -9.808136e+001 
3900000000  -4.008756e+001  -1.000925e+002 
3903125000  -3.925983e+001  -1.061318e+002 
3906250000  -3.883010e+001  -1.120075e+002 
3909375000  -3.818456e+001  -1.196831e+002 
3912500000  -3.912401e+001  -1.280642e+002 
3915625000  -4.035087e+001  -1.273083e+002 
3918750000  -3.992261e+001  -1.318656e+002 
3921875000  -3.915066e+001  -1.331507e+002 
3925000000  -3.847510e+001  -1.401599e+002 
3928125000  -3.845116e+001  -1.489873e+002 
3931250000  -3.915180e+001  -1.556456e+002 
3934375000  -3.954692e+001  -1.581672e+002 
3937500000  -4.020923e+001  -1.577435e+002 
3940625000  -3.990285e+001  -1.602669e+002 
3943750000  -3.876250e+001  -1.640779e+002 
3946875000  -3.839292e+001  -1.742443e+002 
3950000000  -3.941482e+001  1.784208e+002 
3953125000  -3.991511e+001  -1.798042e+002 
3956250000  -3.892608e+001  -1.798516e+002 
3959375000  -3.778783e+001  1.729844e+002 
3962500000  -3.786815e+001  1.652261e+002 
3965625000  -3.811117e+001  1.532738e+002 
3968750000  -3.859516e+001  1.471206e+002 
3971875000  -3.857701e+001  1.413544e+002 
3975000000  -3.839354e+001  1.369050e+002 
3978125000  -3.846152e+001  1.347207e+002 
3981250000  -3.864523e+001  1.265441e+002 
3984375000  -3.907887e+001  1.204602e+002 
3987500000  -3.981417e+001  1.157690e+002 
3990625000  -3.998358e+001  1.130549e+002 
3993750000  -3.983796e+001  1.091859e+002 
3996875000  -3.983391e+001  1.044160e+002 
4000000000  -4.068337e+001  9.798167e+001 
4003125000  -4.104892e+001  1.022788e+002 
4006250000  -3.946608e+001  9.889025e+001 
4009375000  -3.845002e+001  8.377585e+001 
4012500000  -4.013210e+001  7.821767e+001 
4015625000  -4.166033e+001  7.600809e+001 
4018750000  -4.101109e+001  7.782072e+001 
4021875000  -4.065953e+001  7.282706e+001 
4025000000  -4.048907e+001  6.933211e+001 
4028125000  -4.039172e+001  6.210013e+001 
4031250000  -4.109113e+001  5.691577e+001 
4034375000  -4.160701e+001  5.758029e+001 
4037500000  -4.083313e+001  5.750890e+001 
4040625000  -4.116215e+001  5.248541e+001 
4043750000  -4.101171e+001  4.800683e+001 
4046875000  -4.088184e+001  4.532743e+001 
4050000000  -4.074149e+001  4.018229e+001 
4053125000  -4.179820e+001  3.932070e+001 
4056250000  -4.153799e+001  4.198403e+001 
4059375000  -3.963241e+001  3.950920e+001 
4062500000  -3.881141e+001  3.076283e+001 
4065625000  -3.893732e+001  2.531871e+001 
4068750000  -3.810536e+001  1.877022e+001 
4071875000  -3.776789e+001  9.620193e+000 
4075000000  -3.849512e+001  2.404274e+000 
4078125000  -3.872243e+001  -6.612858e-001 
4081250000  -3.821862e+001  -7.895984e+000 
4084375000  -3.805238e+001  -1.665480e+001 
4087500000  -3.861656e+001  -2.247238e+001 
4090625000  -3.925289e+001  -2.456465e+001 
4093750000  -3.862384e+001  -2.801577e+001 
4096875000  -3.874257e+001  -3.797644e+001 
4100000000  -3.975381e+001  -4.415111e+001 
4103125000  -4.067038e+001  -4.240733e+001 
4106250000  -4.014787e+001  -4.009880e+001 
4109375000  -3.908030e+001  -4.234093e+001 
4112500000  -3.876870e+001  -5.250549e+001 
4115625000  -3.951049e+001  -5.769881e+001 
4118750000  -3.907067e+001  -6.285865e+001 
4121875000  -3.893465e+001  -7.033266e+001 
4125000000  -3.986739e+001  -7.767252e+001 
4128125000  -4.081483e+001  -7.550095e+001 
4131250000  -3.990857e+001  -6.831229e+001 
4134375000  -3.764307e+001  -7.876744e+001 
4137500000  -3.827141e+001  -1.001246e+002 
4140625000  -4.067113e+001  -1.053334e+002 
4143750000  -4.137643e+001  -9.848643e+001 
4146875000  -4.058205e+001  -9.419406e+001 
4150000000  -3.941045e+001  -1.029867e+002 
4153125000  -4.019552e+001  -1.132726e+002 
4156250000  -4.122550e+001  -1.151013e+002 
4159375000  -4.120431e+001  -1.101648e+002 
4162500000  -4.004111e+001  -1.091354e+002 
4165625000  -3.874532e+001  -1.168157e+002 
4168750000  -3.832211e+001  -1.262861e+002 
4171875000  -3.817485e+001  -1.361512e+002 
4175000000  -3.931342e+001  -1.413857e+002 
4178125000  -3.986562e+001  -1.440362e+002 
4181250000  -3.915318e+001  -1.504263e+002 
4184375000  -3.949723e+001  -1.523106e+002 
4187500000  -3.946988e+001  -1.578687e+002 
4190625000  -3.922850e+001  -1.653734e+002 
4193750000  -4.044743e+001  -1.694960e+002 
4196875000  -4.122897e+001  -1.722493e+002 
4200000000  -4.215588e+001  -1.663271e+002 
4203125000  -4.110152e+001  -1.520204e+002 
4206250000  -3.752280e+001  -1.620420e+002 
4209375000  -3.729411e+001  1.746887e+002 
4212500000  -3.959630e+001  1.674559e+002 
4215625000  -4.009702e+001  1.767944e+002 
4218750000  -3.827532e+001  1.768016e+002 
4221875000  -3.677676e+001  1.665710e+002 
4225000000  -3.766758e+001  1.545068e+002 
4228125000  -3.769967e+001  1.551102e+002 
4231250000  -3.638855e+001  1.497272e+002 
4234375000  -3.632403e+001  1.372159e+002 
4237500000  -3.603539e+001  1.307638e+002 
4240625000  -3.615255e+001  1.197173e+002 
4243750000  -3.728827e+001  1.145019e+002 
4246875000  -3.839870e+001  1.113645e+002 
4250000000  -3.826564e+001  1.124164e+002 
4253125000  -3.815308e+001  1.099434e+002 
4256250000  -3.785015e+001  1.034978e+002 
4259375000  -3.754296e+001  9.821022e+001 
4262500000  -3.800999e+001  9.271186e+001 
4265625000  -3.782680e+001  9.158799e+001 
4268750000  -3.695417e+001  8.441169e+001 
4271875000  -3.690609e+001  7.567207e+001 
4275000000  -3.657827e+001  6.792816e+001 
4278125000  -3.774206e+001  5.420702e+001 
4281250000  -3.933223e+001  5.316071e+001 
4284375000  -3.869136e+001  4.975968e+001 
4287500000  -4.010714e+001  4.771514e+001 
4290625000  -4.085563e+001  5.676452e+001 
4293750000  -3.836591e+001  5.838178e+001 
4296875000  -3.764580e+001  4.336425e+001 
4300000000  -3.901426e+001  3.413745e+001 
4303125000  -3.957631e+001  3.780794e+001 
4306250000  -3.874669e+001  4.016946e+001 
4309375000  -3.766674e+001  3.334140e+001 
4312500000  -3.775945e+001  2.271179e+001 
4315625000  -3.775196e+001  1.393422e+001 
4318750000  -3.852500e+001  1.003203e+001 
4321875000  -3.859301e+001  1.133430e+001 
4325000000  -3.776214e+001  9.824502e+000 
4328125000  -3.728751e+001  1.370363e-001 
4331250000  -3.736280e+001  -1.135691e+001 
4334375000  -3.843370e+001  -1.711147e+001 
4337500000  -3.946102e+001  -1.902358e+001 
4340625000  -3.958602e+001  -1.304560e+001 
4343750000  -3.834748e+001  -1.619472e+001 
4346875000  -3.825520e+001  -2.370670e+001 
4350000000  -3.830230e+001  -3.428286e+001 
4353125000  -3.911344e+001  -3.930865e+001 
4356250000  -4.116523e+001  -3.636150e+001 
4359375000  -3.971074e+001  -2.329553e+001 
4362500000  -3.636396e+001  -3.158009e+001 
4365625000  -3.601483e+001  -4.843500e+001 
4368750000  -3.707595e+001  -5.815750e+001 
4371875000  -3.755421e+001  -5.680066e+001 
4375000000  -3.729069e+001  -6.383652e+001 
4378125000  -3.674889e+001  -7.063187e+001 
4381250000  -3.726086e+001  -7.842081e+001 
4384375000  -3.697841e+001  -8.521659e+001 
4387500000  -3.788162e+001  -9.034800e+001 
4390625000  -3.865695e+001  -9.230328e+001 
4393750000  -3.814959e+001  -9.104156e+001 
4396875000  -3.731447e+001  -9.744098e+001 
4400000000  -3.677288e+001  -1.068958e+002 
4403125000  -3.761157e+001  -1.147657e+002 
4406250000  -3.827176e+001  -1.189929e+002 
4409375000  -3.851171e+001  -1.214795e+002 
4412500000  -3.967871e+001  -1.245170e+002 
4415625000  -3.937737e+001  -1.213207e+002 
