!Agilent Technologies,E8363B,MY43030201,A.06.04.32
!Agilent E8363B: A.06.04.32
!Date: Tuesday, November 11, 2014 21:27:08
!Correction: S21(Response(S21)) 
!S1P File: Measurement: S21:
# Hz S  dB   R 50
3000000000  -4.054354e+001  9.394613e+001 
3003125000  -4.234195e+001  8.750188e+001 
3006250000  -4.224627e+001  8.420835e+001 
3009375000  -4.291464e+001  8.924950e+001 
3012500000  -4.171104e+001  8.469141e+001 
3015625000  -4.141570e+001  7.819145e+001 
3018750000  -4.172343e+001  7.787811e+001 
3021875000  -4.036953e+001  7.917202e+001 
3025000000  -3.907807e+001  7.502448e+001 
3028125000  -3.811293e+001  6.578867e+001 
3031250000  -3.705347e+001  5.444371e+001 
3034375000  -3.674969e+001  4.060613e+001 
3037500000  -3.757309e+001  2.934963e+001 
3040625000  -3.875821e+001  2.383084e+001 
3043750000  -3.920577e+001  1.789289e+001 
3046875000  -3.978733e+001  1.042636e+001 
3050000000  -4.092163e+001  7.843076e+000 
3053125000  -4.068351e+001  1.033404e+001 
3056250000  -4.042996e+001  1.382064e+001 
3059375000  -3.995893e+001  1.280591e+001 
3062500000  -3.826075e+001  7.111960e+000 
3065625000  -3.806475e+001  -3.320937e+000 
3068750000  -3.762069e+001  -9.201574e+000 
3071875000  -3.783949e+001  -1.230308e+001 
3075000000  -3.718938e+001  -1.815981e+001 
3078125000  -3.715509e+001  -2.483537e+001 
3081250000  -3.743425e+001  -3.021754e+001 
3084375000  -3.641465e+001  -3.557370e+001 
3087500000  -3.644632e+001  -4.181649e+001 
3090625000  -3.600424e+001  -5.485835e+001 
3093750000  -3.674753e+001  -6.244999e+001 
3096875000  -3.734351e+001  -6.813728e+001 
3100000000  -3.721092e+001  -7.066138e+001 
3103125000  -3.757634e+001  -7.367691e+001 
3106250000  -3.727735e+001  -7.963985e+001 
3109375000  -3.731148e+001  -8.311519e+001 
3112500000  -3.713734e+001  -8.916439e+001 
3115625000  -3.715068e+001  -9.289973e+001 
3118750000  -3.735019e+001  -9.586172e+001 
3121875000  -3.660844e+001  -1.067650e+002 
3125000000  -3.831507e+001  -1.105717e+002 
3128125000  -3.875488e+001  -1.041348e+002 
3131250000  -3.626798e+001  -1.087558e+002 
3134375000  -3.532767e+001  -1.259684e+002 
3137500000  -3.617834e+001  -1.385792e+002 
3140625000  -3.737708e+001  -1.421814e+002 
3143750000  -3.825920e+001  -1.436418e+002 
3146875000  -3.778963e+001  -1.414883e+002 
3150000000  -3.697763e+001  -1.453157e+002 
3153125000  -3.726534e+001  -1.547215e+002 
3156250000  -3.808708e+001  -1.502025e+002 
3159375000  -3.591660e+001  -1.517865e+002 
3162500000  -3.421558e+001  -1.670418e+002 
3165625000  -3.549139e+001  -1.798109e+002 
3168750000  -3.563144e+001  1.799489e+002 
3171875000  -3.492394e+001  1.720499e+002 
3175000000  -3.552746e+001  1.624768e+002 
3178125000  -3.518080e+001  1.611791e+002 
3181250000  -3.435633e+001  1.541352e+002 
3184375000  -3.407634e+001  1.407136e+002 
3187500000  -3.531670e+001  1.266129e+002 
3190625000  -3.720984e+001  1.189889e+002 
3193750000  -3.766269e+001  1.255923e+002 
3196875000  -3.749768e+001  1.265015e+002 
3200000000  -3.639799e+001  1.217086e+002 
3203125000  -3.594261e+001  1.137061e+002 
3206250000  -3.614840e+001  1.068306e+002 
3209375000  -3.588923e+001  9.857511e+001 
3212500000  -3.628018e+001  9.112686e+001 
3215625000  -3.599875e+001  8.824553e+001 
3218750000  -3.687489e+001  7.750512e+001 
3221875000  -3.730008e+001  7.031988e+001 
3225000000  -3.702370e+001  6.724358e+001 
3228125000  -3.775887e+001  5.989145e+001 
3231250000  -3.829112e+001  5.623692e+001 
3234375000  -3.793646e+001  5.472375e+001 
3237500000  -3.798693e+001  5.031731e+001 
3240625000  -3.777916e+001  4.522921e+001 
3243750000  -3.754143e+001  3.576941e+001 
3246875000  -3.818837e+001  2.803692e+001 
3250000000  -3.885836e+001  2.413803e+001 
3253125000  -3.901728e+001  2.055683e+001 
3256250000  -3.866697e+001  1.211443e+001 
3259375000  -3.911520e+001  1.804950e+000 
3262500000  -4.073124e+001  -1.762084e+000 
3265625000  -4.123557e+001  9.549341e-001 
3268750000  -4.144932e+001  2.355783e+000 
3271875000  -4.083974e+001  -1.845492e+000 
3275000000  -4.016172e+001  -9.336831e+000 
3278125000  -4.102088e+001  -1.485565e+001 
3281250000  -4.108018e+001  -1.580367e+001 
3284375000  -4.078245e+001  -2.277860e+001 
3287500000  -4.105217e+001  -2.592853e+001 
3290625000  -4.110770e+001  -3.357122e+001 
3293750000  -4.102958e+001  -3.868422e+001 
3296875000  -4.225664e+001  -4.024996e+001 
3300000000  -4.205603e+001  -3.969890e+001 
3303125000  -4.117607e+001  -4.658195e+001 
3306250000  -4.067704e+001  -5.318851e+001 
3309375000  -4.065273e+001  -6.034497e+001 
3312500000  -4.089625e+001  -7.305802e+001 
3315625000  -4.225909e+001  -8.251195e+001 
3318750000  -4.330302e+001  -8.384241e+001 
3321875000  -4.479026e+001  -8.312202e+001 
3325000000  -4.471487e+001  -7.618501e+001 
3328125000  -4.386992e+001  -7.605914e+001 
3331250000  -4.250793e+001  -7.075441e+001 
3334375000  -3.999161e+001  -8.739330e+001 
3337500000  -4.071754e+001  -1.067709e+002 
3340625000  -4.223312e+001  -1.170514e+002 
3343750000  -4.393325e+001  -1.153522e+002 
3346875000  -4.343827e+001  -1.176406e+002 
3350000000  -4.319384e+001  -1.183298e+002 
3353125000  -4.300162e+001  -1.284494e+002 
3356250000  -4.234093e+001  -1.358069e+002 
3359375000  -4.335298e+001  -1.464839e+002 
3362500000  -4.417040e+001  -1.522259e+002 
3365625000  -4.446358e+001  -1.530979e+002 
3368750000  -4.563015e+001  -1.598449e+002 
3371875000  -4.571899e+001  -1.645010e+002 
3375000000  -4.695395e+001  -1.655489e+002 
3378125000  -4.810579e+001  -1.699298e+002 
3381250000  -4.969323e+001  -1.601263e+002 
3384375000  -4.637858e+001  -1.454651e+002 
3387500000  -4.405429e+001  -1.648796e+002 
3390625000  -4.621348e+001  1.739682e+002 
3393750000  -4.763309e+001  1.769310e+002 
3396875000  -4.622833e+001  1.767481e+002 
3400000000  -4.576634e+001  1.645184e+002 
3403125000  -4.681475e+001  1.566000e+002 
3406250000  -4.712451e+001  1.544202e+002 
3409375000  -4.814685e+001  1.457831e+002 
3412500000  -4.887371e+001  1.444895e+002 
3415625000  -4.980848e+001  1.387821e+002 
3418750000  -4.968329e+001  1.365630e+002 
3421875000  -5.144655e+001  1.439841e+002 
3425000000  -4.982023e+001  1.460721e+002 
3428125000  -5.023598e+001  1.368533e+002 
3431250000  -5.030472e+001  1.325727e+002 
3434375000  -5.066798e+001  1.271113e+002 
3437500000  -5.104111e+001  1.256337e+002 
3440625000  -5.141802e+001  1.265928e+002 
3443750000  -5.071568e+001  1.301526e+002 
3446875000  -5.057822e+001  1.238420e+002 
3450000000  -4.947526e+001  1.177338e+002 
3453125000  -5.089985e+001  1.052390e+002 
3456250000  -5.167947e+001  1.077489e+002 
3459375000  -5.348990e+001  1.098370e+002 
3462500000  -5.209306e+001  1.123382e+002 
3465625000  -5.136095e+001  1.005823e+002 
3468750000  -5.177567e+001  1.073912e+002 
3471875000  -5.168518e+001  1.025846e+002 
3475000000  -5.074939e+001  9.394626e+001 
3478125000  -5.099579e+001  8.430273e+001 
3481250000  -5.158180e+001  8.954405e+001 
3484375000  -5.170108e+001  9.311423e+001 
3487500000  -5.132196e+001  8.395760e+001 
3490625000  -4.991875e+001  7.719823e+001 
3493750000  -5.161987e+001  7.469915e+001 
3496875000  -5.176580e+001  7.104189e+001 
3500000000  -5.183997e+001  7.555943e+001 
3503125000  -5.026065e+001  6.706917e+001 
3506250000  -5.003165e+001  6.053984e+001 
3509375000  -4.992743e+001  4.975029e+001 
3512500000  -4.946418e+001  3.794838e+001 
3515625000  -5.045245e+001  3.110390e+001 
3518750000  -5.167878e+001  3.438430e+001 
3521875000  -5.191274e+001  3.396496e+001 
3525000000  -5.349208e+001  2.037608e+001 
3528125000  -5.250597e+001  2.728872e+001 
3531250000  -5.124289e+001  2.440902e+001 
3534375000  -5.258078e+001  9.114323e+000 
3537500000  -5.245457e+001  -4.184720e+000 
3540625000  -5.420034e+001  -2.463077e+000 
3543750000  -5.470182e+001  -5.471168e-001 
3546875000  -5.512720e+001  1.229222e+001 
3550000000  -5.379005e+001  5.184747e+000 
3553125000  -5.170438e+001  -1.230500e+001 
3556250000  -5.562351e+001  -7.075528e+000 
3559375000  -5.536240e+001  -1.084447e+001 
3562500000  -5.473037e+001  -2.228725e+001 
3565625000  -5.686165e+001  -3.374187e+001 
3568750000  -5.797675e+001  -2.154189e+001 
3571875000  -5.877158e+001  -2.064025e+001 
3575000000  -5.784104e+001  -1.842916e+001 
3578125000  -5.892609e+001  -2.940495e+001 
3581250000  -5.730296e+001  -2.738998e+001 
3584375000  -5.623162e+001  -1.322106e+001 
3587500000  -5.824036e+001  -3.130472e+001 
3590625000  -5.861089e+001  -4.770464e+001 
3593750000  -6.003729e+001  -4.128098e+001 
3596875000  -5.746634e+001  -1.747524e+001 
3600000000  -5.761197e+001  -8.619934e+000 
3603125000  -5.838365e+001  -3.967218e+001 
3606250000  -5.996502e+001  -3.911945e+001 
3609375000  -5.897579e+001  -2.090855e+001 
3612500000  -5.831733e+001  -3.230079e+001 
3615625000  -5.933875e+001  -2.799654e+001 
3618750000  -6.050042e+001  -3.262107e+001 
3621875000  -5.833900e+001  -2.618892e+001 
3625000000  -5.791527e+001  -2.724920e+001 
3628125000  -5.756644e+001  -2.680727e+001 
3631250000  -5.754285e+001  -2.126565e+001 
3634375000  -5.740895e+001  -2.752144e+001 
3637500000  -5.506023e+001  -1.668887e+001 
3640625000  -5.375798e+001  -1.466771e+001 
3643750000  -5.282426e+001  -2.570436e+001 
3646875000  -5.304642e+001  -3.542823e+001 
3650000000  -5.272874e+001  -3.340047e+001 
3653125000  -5.348493e+001  -3.922037e+001 
3656250000  -5.207580e+001  -4.054250e+001 
3659375000  -5.221839e+001  -3.957550e+001 
3662500000  -5.011042e+001  -4.914439e+001 
3665625000  -4.957661e+001  -5.001069e+001 
3668750000  -4.866574e+001  -5.023250e+001 
3671875000  -4.776970e+001  -5.952465e+001 
3675000000  -4.775978e+001  -7.022533e+001 
3678125000  -4.773429e+001  -7.344213e+001 
3681250000  -4.727312e+001  -7.519261e+001 
3684375000  -4.708217e+001  -7.843954e+001 
3687500000  -4.752993e+001  -8.665996e+001 
3690625000  -4.656294e+001  -9.445423e+001 
3693750000  -4.706096e+001  -9.773890e+001 
3696875000  -4.653233e+001  -9.326051e+001 
3700000000  -4.549752e+001  -1.016848e+002 
3703125000  -4.536235e+001  -1.059409e+002 
3706250000  -4.609441e+001  -1.100643e+002 
3709375000  -4.482789e+001  -1.107988e+002 
3712500000  -4.368721e+001  -1.102367e+002 
3715625000  -4.199888e+001  -1.215091e+002 
3718750000  -4.202466e+001  -1.300841e+002 
3721875000  -4.157119e+001  -1.381986e+002 
3725000000  -4.213659e+001  -1.447209e+002 
3728125000  -4.148115e+001  -1.483062e+002 
3731250000  -4.087482e+001  -1.533166e+002 
3734375000  -4.047242e+001  -1.602209e+002 
3737500000  -4.123587e+001  -1.704031e+002 
3740625000  -4.098880e+001  -1.754641e+002 
3743750000  -4.089069e+001  1.775870e+002 
3746875000  -4.063414e+001  1.700855e+002 
3750000000  -4.130857e+001  1.683749e+002 
3753125000  -4.069593e+001  1.622291e+002 
3756250000  -4.075135e+001  1.583713e+002 
3759375000  -4.057178e+001  1.540028e+002 
3762500000  -4.024097e+001  1.482171e+002 
3765625000  -4.061522e+001  1.425779e+002 
3768750000  -4.036105e+001  1.425569e+002 
3771875000  -3.852479e+001  1.353124e+002 
3775000000  -3.855832e+001  1.239489e+002 
3778125000  -3.913942e+001  1.202659e+002 
3781250000  -3.900729e+001  1.138808e+002 
3784375000  -3.881911e+001  1.065960e+002 
3787500000  -3.866742e+001  1.025637e+002 
3790625000  -3.890751e+001  9.395908e+001 
3793750000  -3.940704e+001  8.915900e+001 
3796875000  -3.836483e+001  8.484029e+001 
3800000000  -3.660618e+001  8.195683e+001 
3803125000  -3.820555e+001  6.762036e+001 
3806250000  -3.916507e+001  6.436465e+001 
3809375000  -3.862238e+001  5.895330e+001 
3812500000  -3.857051e+001  5.042283e+001 
3815625000  -3.960489e+001  4.100713e+001 
3818750000  -4.044857e+001  4.103284e+001 
3821875000  -4.045678e+001  5.136143e+001 
3825000000  -3.845844e+001  4.858295e+001 
3828125000  -3.701683e+001  2.978538e+001 
3831250000  -3.797018e+001  1.393461e+001 
3834375000  -4.026146e+001  1.426452e+001 
3837500000  -4.067645e+001  1.638194e+001 
3840625000  -3.942228e+001  1.579333e+001 
3843750000  -3.828884e+001  -1.555662e-001 
3846875000  -3.965304e+001  -5.442325e+000 
3850000000  -4.092706e+001  -1.269002e+000 
3853125000  -4.030877e+001  1.498616e+000 
3856250000  -3.973143e+001  -8.786026e+000 
3859375000  -3.880566e+001  -1.409115e+001 
3862500000  -3.862105e+001  -2.402192e+001 
3865625000  -3.933716e+001  -2.907185e+001 
3868750000  -3.873439e+001  -2.973754e+001 
3871875000  -3.816797e+001  -3.584721e+001 
3875000000  -3.833914e+001  -4.730533e+001 
3878125000  -3.947849e+001  -5.170475e+001 
3881250000  -3.955226e+001  -5.014112e+001 
3884375000  -3.878060e+001  -5.668816e+001 
3887500000  -3.919616e+001  -6.245347e+001 
3890625000  -3.950634e+001  -6.756334e+001 
3893750000  -3.964427e+001  -7.069300e+001 
3896875000  -4.015362e+001  -7.176864e+001 
3900000000  -3.978151e+001  -7.758997e+001 
3903125000  -3.949846e+001  -8.121187e+001 
3906250000  -3.907816e+001  -8.441660e+001 
3909375000  -3.803080e+001  -9.363911e+001 
3912500000  -3.897683e+001  -1.039526e+002 
3915625000  -4.019110e+001  -1.033664e+002 
3918750000  -4.014680e+001  -1.021298e+002 
3921875000  -3.967685e+001  -1.076321e+002 
3925000000  -3.851977e+001  -1.141226e+002 
3928125000  -3.826788e+001  -1.216868e+002 
3931250000  -3.889106e+001  -1.284847e+002 
3934375000  -3.958310e+001  -1.301522e+002 
3937500000  -3.976425e+001  -1.326273e+002 
3940625000  -3.985073e+001  -1.349966e+002 
3943750000  -3.881065e+001  -1.387464e+002 
3946875000  -3.847260e+001  -1.478551e+002 
3950000000  -3.927735e+001  -1.559655e+002 
3953125000  -4.001708e+001  -1.545504e+002 
3956250000  -3.909332e+001  -1.547534e+002 
3959375000  -3.791683e+001  -1.622893e+002 
3962500000  -3.764471e+001  -1.699301e+002 
3965625000  -3.769149e+001  -1.796146e+002 
3968750000  -3.869881e+001  1.730679e+002 
3971875000  -3.897185e+001  1.679264e+002 
3975000000  -3.817202e+001  1.637219e+002 
3978125000  -3.844411e+001  1.602668e+002 
3981250000  -3.852047e+001  1.522298e+002 
3984375000  -3.878264e+001  1.441672e+002 
3987500000  -3.953690e+001  1.424442e+002 
3990625000  -3.983578e+001  1.400589e+002 
3993750000  -4.006244e+001  1.348842e+002 
3996875000  -3.991674e+001  1.310360e+002 
4000000000  -4.035888e+001  1.264119e+002 
4003125000  -4.094402e+001  1.290415e+002 
4006250000  -3.927680e+001  1.260113e+002 
4009375000  -3.867140e+001  1.124024e+002 
4012500000  -4.006631e+001  1.039997e+002 
4015625000  -4.105661e+001  1.034264e+002 
4018750000  -4.133843e+001  1.045372e+002 
4021875000  -4.060345e+001  1.026080e+002 
4025000000  -4.015319e+001  9.425497e+001 
4028125000  -4.015304e+001  8.839553e+001 
4031250000  -4.105773e+001  8.282932e+001 
4034375000  -4.130133e+001  8.297210e+001 
4037500000  -4.096911e+001  8.417834e+001 
4040625000  -4.070248e+001  7.993919e+001 
4043750000  -4.094115e+001  7.686646e+001 
4046875000  -4.077745e+001  7.419980e+001 
4050000000  -4.037452e+001  6.802438e+001 
4053125000  -4.088200e+001  6.566899e+001 
4056250000  -4.153087e+001  6.656200e+001 
4059375000  -3.931905e+001  6.802174e+001 
4062500000  -3.869680e+001  5.942175e+001 
4065625000  -3.853888e+001  5.324143e+001 
4068750000  -3.804759e+001  4.607609e+001 
4071875000  -3.762089e+001  3.598631e+001 
4075000000  -3.815010e+001  2.914425e+001 
4078125000  -3.846117e+001  2.706295e+001 
4081250000  -3.784123e+001  2.050147e+001 
4084375000  -3.769642e+001  1.118687e+001 
4087500000  -3.817810e+001  4.232374e+000 
4090625000  -3.893262e+001  3.155235e+000 
4093750000  -3.847271e+001  -3.207383e-001 
4096875000  -3.822808e+001  -1.059040e+001 
4100000000  -3.924721e+001  -1.691388e+001 
4103125000  -4.031875e+001  -1.464192e+001 
4106250000  -3.957235e+001  -1.350245e+001 
4109375000  -3.882757e+001  -1.675606e+001 
4112500000  -3.832937e+001  -2.461677e+001 
4115625000  -3.913993e+001  -3.155785e+001 
4118750000  -3.882961e+001  -3.549026e+001 
4121875000  -3.849635e+001  -4.290310e+001 
4125000000  -3.930500e+001  -4.873912e+001 
4128125000  -4.058661e+001  -4.835940e+001 
4131250000  -3.962965e+001  -4.270182e+001 
4134375000  -3.749453e+001  -5.125451e+001 
4137500000  -3.771923e+001  -7.269646e+001 
4140625000  -3.987087e+001  -7.967342e+001 
4143750000  -4.091488e+001  -7.466861e+001 
4146875000  -4.014413e+001  -7.021243e+001 
4150000000  -3.956810e+001  -7.656863e+001 
4153125000  -3.970029e+001  -8.657198e+001 
4156250000  -4.071521e+001  -8.829279e+001 
4159375000  -4.082848e+001  -8.397887e+001 
4162500000  -3.985264e+001  -8.199213e+001 
4165625000  -3.835298e+001  -8.870726e+001 
4168750000  -3.817330e+001  -9.753221e+001 
4171875000  -3.770202e+001  -1.105323e+002 
4175000000  -3.893970e+001  -1.153955e+002 
4178125000  -3.927642e+001  -1.165399e+002 
4181250000  -3.901344e+001  -1.209082e+002 
4184375000  -3.903344e+001  -1.247910e+002 
4187500000  -3.913709e+001  -1.300115e+002 
4190625000  -3.892517e+001  -1.377263e+002 
4193750000  -4.003601e+001  -1.415425e+002 
4196875000  -4.074673e+001  -1.431154e+002 
4200000000  -4.177657e+001  -1.388179e+002 
4203125000  -4.061174e+001  -1.259378e+002 
4206250000  -3.719374e+001  -1.324011e+002 
4209375000  -3.651273e+001  -1.554799e+002 
4212500000  -3.919802e+001  -1.647547e+002 
4215625000  -3.983119e+001  -1.572519e+002 
4218750000  -3.802301e+001  -1.547017e+002 
4221875000  -3.607132e+001  -1.682301e+002 
4225000000  -3.715126e+001  -1.799655e+002 
4228125000  -3.766412e+001  -1.765510e+002 
4231250000  -3.575414e+001  1.762197e+002 
4234375000  -3.605853e+001  1.645138e+002 
4237500000  -3.569443e+001  1.590599e+002 
4240625000  -3.592273e+001  1.485362e+002 
4243750000  -3.703892e+001  1.413705e+002 
4246875000  -3.778603e+001  1.401412e+002 
4250000000  -3.781779e+001  1.405089e+002 
4253125000  -3.733545e+001  1.367428e+002 
4256250000  -3.717389e+001  1.305063e+002 
4259375000  -3.719016e+001  1.264779e+002 
4262500000  -3.718302e+001  1.204869e+002 
4265625000  -3.736290e+001  1.181135e+002 
4268750000  -3.653812e+001  1.122453e+002 
4271875000  -3.641158e+001  1.025757e+002 
4275000000  -3.594487e+001  9.457767e+001 
4278125000  -3.675720e+001  8.150539e+001 
4281250000  -3.832702e+001  7.914684e+001 
4284375000  -3.815035e+001  7.601350e+001 
4287500000  -3.965342e+001  7.347794e+001 
4290625000  -4.052874e+001  8.082938e+001 
4293750000  -3.840406e+001  8.542132e+001 
4296875000  -3.728376e+001  7.034341e+001 
4300000000  -3.853322e+001  6.064020e+001 
4303125000  -3.909102e+001  6.162859e+001 
4306250000  -3.795860e+001  6.631505e+001 
4309375000  -3.708107e+001  5.925753e+001 
4312500000  -3.719613e+001  4.878938e+001 
4315625000  -3.740057e+001  4.015382e+001 
4318750000  -3.812082e+001  3.554552e+001 
4321875000  -3.794646e+001  3.627300e+001 
4325000000  -3.747075e+001  3.586119e+001 
4328125000  -3.689096e+001  2.742921e+001 
4331250000  -3.704907e+001  1.569965e+001 
4334375000  -3.780946e+001  9.517864e+000 
4337500000  -3.859477e+001  7.389114e+000 
4340625000  -3.898420e+001  1.242096e+001 
4343750000  -3.819680e+001  9.198189e+000 
4346875000  -3.769711e+001  1.622522e+000 
4350000000  -3.772050e+001  -4.944122e+000 
4353125000  -3.829184e+001  -1.456794e+001 
4356250000  -4.013939e+001  -1.440824e+001 
4359375000  -3.964478e+001  4.982797e-001 
4362500000  -3.641249e+001  -5.490741e+000 
4365625000  -3.523750e+001  -2.176842e+001 
4368750000  -3.669794e+001  -3.154555e+001 
4371875000  -3.759983e+001  -3.322012e+001 
4375000000  -3.675744e+001  -3.632181e+001 
4378125000  -3.630460e+001  -4.367902e+001 
4381250000  -3.654824e+001  -5.339356e+001 
4384375000  -3.630867e+001  -5.665125e+001 
4387500000  -3.759958e+001  -6.476697e+001 
4390625000  -3.806715e+001  -6.606853e+001 
4393750000  -3.755643e+001  -6.515574e+001 
4396875000  -3.683566e+001  -7.013181e+001 
4400000000  -3.624875e+001  -8.037908e+001 
4403125000  -3.700129e+001  -8.840337e+001 
4406250000  -3.791115e+001  -9.210046e+001 
4409375000  -3.826746e+001  -9.780803e+001 
4412500000  -3.892385e+001  -1.007086e+002 
4415625000  -3.896283e+001  -9.514776e+001 
