!Agilent Technologies,E8363B,MY43030201,A.06.04.32
!Agilent E8363B: A.06.04.32
!Date: Tuesday, November 11, 2014 21:36:16
!Correction: S21(Response(S21)) 
!S1P File: Measurement: S21:
# Hz S  dB   R 50
3000000000  -4.051495e+001  7.144156e+001 
3003125000  -4.230384e+001  6.371278e+001 
3006250000  -4.226443e+001  6.461096e+001 
3009375000  -4.269157e+001  6.852253e+001 
3012500000  -4.164330e+001  6.230880e+001 
3015625000  -4.130653e+001  5.648343e+001 
3018750000  -4.177454e+001  5.614925e+001 
3021875000  -4.004617e+001  5.842735e+001 
3025000000  -3.892597e+001  5.367285e+001 
3028125000  -3.790343e+001  4.346201e+001 
3031250000  -3.703031e+001  3.167653e+001 
3034375000  -3.667195e+001  1.699227e+001 
3037500000  -3.761458e+001  6.930506e+000 
3040625000  -3.870215e+001  8.335124e-001 
3043750000  -3.932406e+001  -4.682486e+000 
3046875000  -3.982982e+001  -1.045506e+001 
3050000000  -4.098638e+001  -1.563170e+001 
3053125000  -4.063597e+001  -1.075500e+001 
3056250000  -4.052900e+001  -7.522864e+000 
3059375000  -3.988380e+001  -1.004831e+001 
3062500000  -3.833161e+001  -1.420599e+001 
3065625000  -3.781139e+001  -2.492078e+001 
3068750000  -3.760971e+001  -3.139381e+001 
3071875000  -3.764293e+001  -3.475879e+001 
3075000000  -3.701155e+001  -4.085590e+001 
3078125000  -3.713789e+001  -4.769317e+001 
3081250000  -3.729755e+001  -5.362274e+001 
3084375000  -3.644741e+001  -5.791929e+001 
3087500000  -3.630114e+001  -6.512315e+001 
3090625000  -3.593038e+001  -7.694177e+001 
3093750000  -3.702608e+001  -8.406126e+001 
3096875000  -3.737144e+001  -8.985787e+001 
3100000000  -3.712635e+001  -9.290302e+001 
3103125000  -3.746204e+001  -9.674312e+001 
3106250000  -3.711507e+001  -1.026033e+002 
3109375000  -3.737862e+001  -1.051548e+002 
3112500000  -3.732418e+001  -1.116471e+002 
3115625000  -3.727214e+001  -1.154255e+002 
3118750000  -3.712669e+001  -1.188934e+002 
3121875000  -3.653699e+001  -1.302296e+002 
3125000000  -3.851857e+001  -1.334046e+002 
3128125000  -3.849780e+001  -1.256927e+002 
3131250000  -3.610564e+001  -1.323448e+002 
3134375000  -3.532213e+001  -1.490484e+002 
3137500000  -3.609245e+001  -1.615235e+002 
3140625000  -3.719999e+001  -1.641134e+002 
3143750000  -3.810698e+001  -1.658946e+002 
3146875000  -3.751466e+001  -1.642271e+002 
3150000000  -3.684555e+001  -1.680183e+002 
3153125000  -3.725312e+001  -1.768383e+002 
3156250000  -3.792188e+001  -1.733733e+002 
3159375000  -3.559398e+001  -1.740272e+002 
3162500000  -3.424321e+001  1.705660e+002 
3165625000  -3.555066e+001  1.572733e+002 
3168750000  -3.546903e+001  1.566757e+002 
3171875000  -3.492160e+001  1.488160e+002 
3175000000  -3.545304e+001  1.399205e+002 
3178125000  -3.491794e+001  1.379407e+002 
3181250000  -3.445128e+001  1.296543e+002 
3184375000  -3.420660e+001  1.183546e+002 
3187500000  -3.554512e+001  1.030745e+002 
3190625000  -3.729917e+001  9.751120e+001 
3193750000  -3.745774e+001  1.031425e+002 
3196875000  -3.737535e+001  1.038959e+002 
3200000000  -3.615964e+001  9.865068e+001 
3203125000  -3.602316e+001  9.067255e+001 
3206250000  -3.614211e+001  8.271458e+001 
3209375000  -3.568167e+001  7.454661e+001 
3212500000  -3.635453e+001  6.766102e+001 
3215625000  -3.604422e+001  6.639896e+001 
3218750000  -3.678822e+001  5.416230e+001 
3221875000  -3.718874e+001  4.766019e+001 
3225000000  -3.706503e+001  4.424009e+001 
3228125000  -3.770449e+001  3.653746e+001 
3231250000  -3.823155e+001  3.451049e+001 
3234375000  -3.778313e+001  3.123486e+001 
3237500000  -3.810065e+001  2.669588e+001 
3240625000  -3.755856e+001  2.104068e+001 
3243750000  -3.760970e+001  1.174549e+001 
3246875000  -3.807543e+001  5.057760e+000 
3250000000  -3.871422e+001  2.218050e-001 
3253125000  -3.889790e+001  -2.507064e+000 
3256250000  -3.860129e+001  -9.788015e+000 
3259375000  -3.906131e+001  -2.221136e+001 
3262500000  -4.050856e+001  -2.489442e+001 
3265625000  -4.116912e+001  -2.247141e+001 
3268750000  -4.131583e+001  -2.042440e+001 
3271875000  -4.046998e+001  -2.481378e+001 
3275000000  -4.014608e+001  -3.301498e+001 
3278125000  -4.070189e+001  -3.803206e+001 
3281250000  -4.090281e+001  -3.909480e+001 
3284375000  -4.037387e+001  -4.648845e+001 
3287500000  -4.085072e+001  -4.988545e+001 
3290625000  -4.105571e+001  -5.741644e+001 
3293750000  -4.137131e+001  -6.212154e+001 
3296875000  -4.239941e+001  -6.454630e+001 
3300000000  -4.173833e+001  -6.390611e+001 
3303125000  -4.079534e+001  -7.020140e+001 
3306250000  -4.061856e+001  -7.811629e+001 
3309375000  -4.037150e+001  -8.532694e+001 
3312500000  -4.084249e+001  -9.977444e+001 
3315625000  -4.211902e+001  -1.051232e+002 
3318750000  -4.338808e+001  -1.105318e+002 
3321875000  -4.449075e+001  -1.036529e+002 
3325000000  -4.487371e+001  -9.569823e+001 
3328125000  -4.362393e+001  -9.762816e+001 
3331250000  -4.220890e+001  -9.707863e+001 
3334375000  -3.966978e+001  -1.118433e+002 
3337500000  -4.040495e+001  -1.326705e+002 
3340625000  -4.201458e+001  -1.405203e+002 
3343750000  -4.428619e+001  -1.409128e+002 
3346875000  -4.319548e+001  -1.424832e+002 
3350000000  -4.295801e+001  -1.440462e+002 
3353125000  -4.277779e+001  -1.516772e+002 
3356250000  -4.238697e+001  -1.619149e+002 
3359375000  -4.338774e+001  -1.715361e+002 
3362500000  -4.440598e+001  -1.767226e+002 
3365625000  -4.489154e+001  -1.797279e+002 
3368750000  -4.562679e+001  1.756812e+002 
3371875000  -4.578814e+001  1.720046e+002 
3375000000  -4.710471e+001  1.694289e+002 
3378125000  -4.807730e+001  1.673367e+002 
3381250000  -4.962842e+001  1.778857e+002 
3384375000  -4.678354e+001  -1.652924e+002 
3387500000  -4.416368e+001  1.721690e+002 
3390625000  -4.562357e+001  1.522452e+002 
3393750000  -4.722613e+001  1.498519e+002 
3396875000  -4.617119e+001  1.478621e+002 
3400000000  -4.623930e+001  1.403234e+002 
3403125000  -4.716728e+001  1.359020e+002 
3406250000  -4.710022e+001  1.290763e+002 
3409375000  -4.805825e+001  1.214414e+002 
3412500000  -4.904655e+001  1.149064e+002 
3415625000  -5.009208e+001  1.170790e+002 
3418750000  -5.012606e+001  1.159080e+002 
3421875000  -5.091655e+001  1.172652e+002 
3425000000  -5.025896e+001  1.187027e+002 
3428125000  -4.966520e+001  1.148825e+002 
3431250000  -5.018139e+001  1.067669e+002 
3434375000  -5.024496e+001  1.015730e+002 
3437500000  -5.127737e+001  1.030196e+002 
3440625000  -5.191862e+001  1.029164e+002 
3443750000  -5.074730e+001  1.045345e+002 
3446875000  -5.067784e+001  9.825330e+001 
3450000000  -5.069721e+001  9.050767e+001 
3453125000  -5.096345e+001  7.928056e+001 
3456250000  -5.160349e+001  8.335776e+001 
3459375000  -5.340182e+001  8.340787e+001 
3462500000  -5.285791e+001  8.713494e+001 
3465625000  -5.105492e+001  7.166180e+001 
3468750000  -5.254473e+001  7.993318e+001 
3471875000  -5.285630e+001  7.340178e+001 
3475000000  -5.101026e+001  7.402570e+001 
3478125000  -5.110229e+001  6.032269e+001 
3481250000  -5.298143e+001  6.184232e+001 
3484375000  -5.261191e+001  6.404229e+001 
3487500000  -5.156953e+001  5.563644e+001 
3490625000  -5.076021e+001  5.252639e+001 
3493750000  -5.141723e+001  4.635225e+001 
3496875000  -5.170033e+001  4.472712e+001 
3500000000  -5.265370e+001  4.880441e+001 
3503125000  -5.133876e+001  4.651786e+001 
3506250000  -5.028424e+001  3.680212e+001 
3509375000  -4.962935e+001  2.499600e+001 
3512500000  -4.977253e+001  1.169070e+001 
3515625000  -5.161070e+001  1.330318e+001 
3518750000  -5.176123e+001  6.744876e+000 
3521875000  -5.214761e+001  1.193133e+000 
3525000000  -5.307024e+001  -1.057956e+001 
3528125000  -5.312778e+001  1.645517e+000 
3531250000  -5.135091e+001  -6.589104e+000 
3534375000  -5.156082e+001  -2.296846e+001 
3537500000  -5.313714e+001  -2.662462e+001 
3540625000  -5.467625e+001  -2.446467e+001 
3543750000  -5.578864e+001  -1.680795e+001 
3546875000  -5.454683e+001  -2.053002e+001 
3550000000  -5.345416e+001  -2.671875e+001 
3553125000  -5.350836e+001  -3.409849e+001 
3556250000  -5.559681e+001  -3.794174e+001 
3559375000  -5.657421e+001  -3.521934e+001 
3562500000  -5.655047e+001  -4.970685e+001 
3565625000  -5.680523e+001  -5.287693e+001 
3568750000  -5.615312e+001  -3.511563e+001 
3571875000  -5.745237e+001  -3.693107e+001 
3575000000  -5.767297e+001  -4.691550e+001 
3578125000  -5.820231e+001  -4.745573e+001 
3581250000  -5.776949e+001  -4.600154e+001 
3584375000  -5.782595e+001  -3.764943e+001 
3587500000  -5.751003e+001  -4.651694e+001 
3590625000  -5.710979e+001  -5.929735e+001 
3593750000  -6.050791e+001  -4.192508e+001 
3596875000  -5.899602e+001  -4.636361e+001 
3600000000  -5.827730e+001  -3.725796e+001 
3603125000  -5.819553e+001  -5.864861e+001 
3606250000  -5.773799e+001  -5.575567e+001 
3609375000  -5.770784e+001  -5.079388e+001 
3612500000  -5.879475e+001  -5.771855e+001 
3615625000  -5.906205e+001  -4.043641e+001 
3618750000  -5.904605e+001  -4.186290e+001 
3621875000  -5.672954e+001  -5.757512e+001 
3625000000  -5.893358e+001  -3.495874e+001 
3628125000  -5.647466e+001  -3.918681e+001 
3631250000  -5.731796e+001  -5.041336e+001 
3634375000  -5.640247e+001  -4.046851e+001 
3637500000  -5.573808e+001  -5.148951e+001 
3640625000  -5.454765e+001  -4.550502e+001 
3643750000  -5.287321e+001  -4.767961e+001 
3646875000  -5.321665e+001  -6.568666e+001 
3650000000  -5.218855e+001  -5.927748e+001 
3653125000  -5.187890e+001  -6.808510e+001 
3656250000  -5.232710e+001  -6.538348e+001 
3659375000  -5.194025e+001  -6.450833e+001 
3662500000  -5.015421e+001  -7.064172e+001 
3665625000  -4.928093e+001  -7.541381e+001 
3668750000  -4.825023e+001  -7.222351e+001 
3671875000  -4.758272e+001  -8.463264e+001 
3675000000  -4.725841e+001  -9.362444e+001 
3678125000  -4.722602e+001  -9.996951e+001 
3681250000  -4.662634e+001  -1.051585e+002 
3684375000  -4.680780e+001  -1.072160e+002 
3687500000  -4.702049e+001  -1.141689e+002 
3690625000  -4.654839e+001  -1.184017e+002 
3693750000  -4.697775e+001  -1.227856e+002 
3696875000  -4.614232e+001  -1.182370e+002 
3700000000  -4.485969e+001  -1.272378e+002 
3703125000  -4.555986e+001  -1.328922e+002 
3706250000  -4.556836e+001  -1.360378e+002 
3709375000  -4.533858e+001  -1.343626e+002 
3712500000  -4.336216e+001  -1.399471e+002 
3715625000  -4.205657e+001  -1.478862e+002 
3718750000  -4.187211e+001  -1.555095e+002 
3721875000  -4.118542e+001  -1.655616e+002 
3725000000  -4.178076e+001  -1.725943e+002 
3728125000  -4.159422e+001  -1.754465e+002 
3731250000  -4.060032e+001  1.788655e+002 
3734375000  -4.013602e+001  1.730259e+002 
3737500000  -4.089581e+001  1.631202e+002 
3740625000  -4.097779e+001  1.568416e+002 
3743750000  -4.061413e+001  1.503866e+002 
3746875000  -4.082035e+001  1.435115e+002 
3750000000  -4.066615e+001  1.382394e+002 
3753125000  -4.059891e+001  1.365269e+002 
3756250000  -4.070522e+001  1.347104e+002 
3759375000  -4.039767e+001  1.266968e+002 
3762500000  -4.008492e+001  1.214441e+002 
3765625000  -4.066109e+001  1.174770e+002 
3768750000  -4.009699e+001  1.159531e+002 
3771875000  -3.863295e+001  1.089318e+002 
3775000000  -3.853411e+001  9.822942e+001 
3778125000  -3.898818e+001  9.264579e+001 
3781250000  -3.909220e+001  8.725632e+001 
3784375000  -3.867055e+001  8.142844e+001 
3787500000  -3.866130e+001  7.534759e+001 
3790625000  -3.904842e+001  6.663177e+001 
3793750000  -3.906866e+001  6.337661e+001 
3796875000  -3.831910e+001  5.834295e+001 
3800000000  -3.639280e+001  5.348140e+001 
3803125000  -3.809186e+001  3.982198e+001 
3806250000  -3.893876e+001  3.723944e+001 
3809375000  -3.860518e+001  3.280382e+001 
3812500000  -3.830660e+001  2.202343e+001 
3815625000  -3.952653e+001  1.308027e+001 
3818750000  -4.076260e+001  1.532726e+001 
3821875000  -3.992495e+001  2.537481e+001 
3825000000  -3.822182e+001  2.049659e+001 
3828125000  -3.688460e+001  1.435100e+000 
3831250000  -3.832364e+001  -1.292598e+001 
3834375000  -4.063629e+001  -1.263822e+001 
3837500000  -4.073498e+001  -7.922191e+000 
3840625000  -3.884905e+001  -1.333805e+001 
3843750000  -3.827415e+001  -2.916073e+001 
3846875000  -3.970753e+001  -3.387947e+001 
3850000000  -4.084155e+001  -2.744121e+001 
3853125000  -3.982729e+001  -2.820213e+001 
3856250000  -3.941896e+001  -3.679512e+001 
3859375000  -3.850232e+001  -4.080992e+001 
3862500000  -3.866436e+001  -5.299677e+001 
3865625000  -3.897300e+001  -5.826460e+001 
3868750000  -3.869593e+001  -5.914764e+001 
3871875000  -3.795437e+001  -6.572095e+001 
3875000000  -3.867465e+001  -7.544385e+001 
3878125000  -3.952565e+001  -7.900634e+001 
3881250000  -3.926321e+001  -7.839548e+001 
3884375000  -3.887824e+001  -8.610081e+001 
3887500000  -3.914492e+001  -9.242529e+001 
3890625000  -3.951468e+001  -9.796355e+001 
3893750000  -3.980242e+001  -9.801005e+001 
3896875000  -3.993242e+001  -1.009545e+002 
3900000000  -3.988206e+001  -1.051022e+002 
3903125000  -3.934414e+001  -1.088688e+002 
3906250000  -3.890477e+001  -1.128829e+002 
3909375000  -3.831682e+001  -1.237380e+002 
3912500000  -3.916217e+001  -1.312262e+002 
3915625000  -4.034506e+001  -1.299372e+002 
3918750000  -3.984402e+001  -1.330426e+002 
3921875000  -3.935142e+001  -1.375963e+002 
3925000000  -3.864331e+001  -1.418649e+002 
3928125000  -3.833510e+001  -1.531124e+002 
3931250000  -3.892225e+001  -1.597421e+002 
3934375000  -3.959115e+001  -1.608301e+002 
3937500000  -4.011374e+001  -1.618525e+002 
3940625000  -3.983421e+001  -1.671869e+002 
3943750000  -3.877535e+001  -1.669714e+002 
3946875000  -3.851122e+001  -1.774358e+002 
3950000000  -3.963173e+001  1.748881e+002 
3953125000  -4.000165e+001  1.791771e+002 
3956250000  -3.900346e+001  1.762896e+002 
3959375000  -3.769118e+001  1.698451e+002 
3962500000  -3.777766e+001  1.593872e+002 
3965625000  -3.788019e+001  1.508577e+002 
3968750000  -3.867165e+001  1.441676e+002 
3971875000  -3.872805e+001  1.374165e+002 
3975000000  -3.844654e+001  1.355080e+002 
3978125000  -3.845960e+001  1.309600e+002 
3981250000  -3.846231e+001  1.240326e+002 
3984375000  -3.885756e+001  1.148467e+002 
3987500000  -3.954398e+001  1.118433e+002 
3990625000  -3.986522e+001  1.117790e+002 
3993750000  -3.998726e+001  1.062625e+002 
3996875000  -3.990931e+001  1.018292e+002 
4000000000  -4.059076e+001  9.457060e+001 
4003125000  -4.111594e+001  9.842874e+001 
4006250000  -3.949828e+001  9.716798e+001 
4009375000  -3.865545e+001  8.344250e+001 
4012500000  -3.994248e+001  7.435353e+001 
4015625000  -4.151039e+001  7.434908e+001 
4018750000  -4.142397e+001  7.453347e+001 
4021875000  -4.067117e+001  6.935750e+001 
4025000000  -4.066600e+001  6.558031e+001 
4028125000  -4.051489e+001  5.779802e+001 
4031250000  -4.094767e+001  5.377491e+001 
4034375000  -4.142749e+001  5.438992e+001 
4037500000  -4.084988e+001  5.377626e+001 
4040625000  -4.074037e+001  4.914254e+001 
4043750000  -4.091083e+001  4.530480e+001 
4046875000  -4.075309e+001  4.110054e+001 
4050000000  -4.076798e+001  3.679393e+001 
4053125000  -4.154128e+001  3.592762e+001 
4056250000  -4.123789e+001  3.963199e+001 
4059375000  -3.940557e+001  3.599554e+001 
4062500000  -3.883376e+001  2.941005e+001 
4065625000  -3.879564e+001  2.164632e+001 
4068750000  -3.840379e+001  1.519739e+001 
4071875000  -3.786037e+001  6.273265e+000 
4075000000  -3.863928e+001  -2.240123e+000 
4078125000  -3.890681e+001  -4.589633e+000 
4081250000  -3.825983e+001  -9.592611e+000 
4084375000  -3.807838e+001  -1.973672e+001 
4087500000  -3.868537e+001  -2.550197e+001 
4090625000  -3.928449e+001  -2.814544e+001 
4093750000  -3.852768e+001  -2.990158e+001 
4096875000  -3.859209e+001  -4.204856e+001 
4100000000  -3.985427e+001  -4.739584e+001 
4103125000  -4.048623e+001  -4.390942e+001 
4106250000  -3.994485e+001  -4.253511e+001 
4109375000  -3.901041e+001  -4.679646e+001 
4112500000  -3.880117e+001  -5.569651e+001 
4115625000  -3.930163e+001  -6.092741e+001 
4118750000  -3.890503e+001  -6.729223e+001 
4121875000  -3.907711e+001  -7.478379e+001 
4125000000  -4.000713e+001  -7.888318e+001 
4128125000  -4.097245e+001  -7.808789e+001 
4131250000  -3.955456e+001  -7.344160e+001 
4134375000  -3.759489e+001  -8.210316e+001 
4137500000  -3.809176e+001  -1.045063e+002 
4140625000  -4.039323e+001  -1.093859e+002 
4143750000  -4.154835e+001  -1.024349e+002 
4146875000  -4.030218e+001  -1.005912e+002 
4150000000  -3.952149e+001  -1.076736e+002 
4153125000  -4.011573e+001  -1.155204e+002 
4156250000  -4.142403e+001  -1.205468e+002 
4159375000  -4.091110e+001  -1.136144e+002 
4162500000  -3.992014e+001  -1.116034e+002 
4165625000  -3.863553e+001  -1.195596e+002 
4168750000  -3.826985e+001  -1.298345e+002 
4171875000  -3.835709e+001  -1.404515e+002 
4175000000  -3.913072e+001  -1.468052e+002 
4178125000  -3.932267e+001  -1.469869e+002 
4181250000  -3.949333e+001  -1.514776e+002 
4184375000  -3.935439e+001  -1.569871e+002 
4187500000  -3.947091e+001  -1.595957e+002 
4190625000  -3.952318e+001  -1.684739e+002 
4193750000  -4.072379e+001  -1.734391e+002 
4196875000  -4.134523e+001  -1.755540e+002 
4200000000  -4.259414e+001  -1.675653e+002 
4203125000  -4.093406e+001  -1.568001e+002 
4206250000  -3.749878e+001  -1.652488e+002 
4209375000  -3.735713e+001  1.702016e+002 
4212500000  -3.973232e+001  1.637200e+002 
4215625000  -4.009705e+001  1.710421e+002 
4218750000  -3.836924e+001  1.729695e+002 
4221875000  -3.663360e+001  1.629604e+002 
4225000000  -3.769488e+001  1.516054e+002 
4228125000  -3.763363e+001  1.530027e+002 
4231250000  -3.597366e+001  1.449766e+002 
4234375000  -3.627325e+001  1.349500e+002 
4237500000  -3.608917e+001  1.292774e+002 
4240625000  -3.636421e+001  1.178211e+002 
4243750000  -3.738187e+001  1.091876e+002 
4246875000  -3.853832e+001  1.082345e+002 
4250000000  -3.813226e+001  1.088565e+002 
4253125000  -3.815676e+001  1.059238e+002 
4256250000  -3.800703e+001  9.955366e+001 
4259375000  -3.789515e+001  9.531883e+001 
4262500000  -3.799288e+001  9.048110e+001 
4265625000  -3.789541e+001  8.769269e+001 
4268750000  -3.697919e+001  8.194398e+001 
4271875000  -3.696291e+001  7.154845e+001 
4275000000  -3.659193e+001  6.175936e+001 
4278125000  -3.787693e+001  5.049084e+001 
4281250000  -3.901711e+001  4.925360e+001 
4284375000  -3.869731e+001  4.603033e+001 
4287500000  -4.045803e+001  4.511304e+001 
4290625000  -4.083984e+001  5.430489e+001 
4293750000  -3.857598e+001  5.341235e+001 
4296875000  -3.753122e+001  4.026245e+001 
4300000000  -3.861781e+001  2.929825e+001 
4303125000  -3.976041e+001  3.483781e+001 
4306250000  -3.865909e+001  3.583992e+001 
4309375000  -3.764083e+001  2.919979e+001 
4312500000  -3.769367e+001  1.867941e+001 
4315625000  -3.775926e+001  1.002493e+001 
4318750000  -3.873375e+001  7.494306e+000 
4321875000  -3.859105e+001  6.241891e+000 
4325000000  -3.812374e+001  5.743395e+000 
4328125000  -3.715598e+001  -4.083331e+000 
4331250000  -3.764279e+001  -1.456148e+001 
4334375000  -3.857824e+001  -1.990753e+001 
4337500000  -3.957793e+001  -2.041670e+001 
4340625000  -3.981154e+001  -1.641513e+001 
4343750000  -3.852757e+001  -2.010769e+001 
4346875000  -3.846018e+001  -2.898711e+001 
4350000000  -3.847437e+001  -3.712035e+001 
4353125000  -3.902402e+001  -4.443715e+001 
4356250000  -4.105722e+001  -3.769112e+001 
4359375000  -3.990236e+001  -2.594437e+001 
4362500000  -3.645486e+001  -3.568506e+001 
4365625000  -3.599975e+001  -5.375407e+001 
4368750000  -3.731514e+001  -6.267122e+001 
4371875000  -3.789358e+001  -6.393196e+001 
4375000000  -3.738563e+001  -6.670692e+001 
4378125000  -3.673658e+001  -7.416321e+001 
4381250000  -3.717081e+001  -8.184299e+001 
4384375000  -3.723164e+001  -8.702053e+001 
4387500000  -3.807748e+001  -9.331689e+001 
4390625000  -3.851177e+001  -9.456934e+001 
4393750000  -3.801820e+001  -9.501845e+001 
4396875000  -3.724135e+001  -9.992953e+001 
4400000000  -3.677739e+001  -1.096321e+002 
4403125000  -3.783600e+001  -1.191203e+002 
4406250000  -3.836842e+001  -1.219291e+002 
4409375000  -3.869460e+001  -1.261933e+002 
4412500000  -3.999703e+001  -1.297736e+002 
4415625000  -3.917387e+001  -1.252490e+002 
