!Agilent Technologies,E8363B,MY43030201,A.06.04.32
!Agilent E8363B: A.06.04.32
!Date: Tuesday, November 11, 2014 21:37:59
!Correction: S21(Response(S21)) 
!S1P File: Measurement: S21:
# Hz S  dB   R 50
3000000000  -4.052837e+001  7.091952e+001 
3003125000  -4.227615e+001  6.289791e+001 
3006250000  -4.217398e+001  6.153593e+001 
3009375000  -4.271825e+001  6.669053e+001 
3012500000  -4.140163e+001  6.122552e+001 
3015625000  -4.141211e+001  5.484658e+001 
3018750000  -4.167861e+001  5.556672e+001 
3021875000  -4.012156e+001  5.569240e+001 
3025000000  -3.895235e+001  5.246457e+001 
3028125000  -3.794628e+001  4.199068e+001 
3031250000  -3.698413e+001  2.984582e+001 
3034375000  -3.682013e+001  1.587455e+001 
3037500000  -3.766350e+001  6.020208e+000 
3040625000  -3.882786e+001  -7.775242e-002 
3043750000  -3.922259e+001  -7.026555e+000 
3046875000  -4.001146e+001  -1.169512e+001 
3050000000  -4.088955e+001  -1.518784e+001 
3053125000  -4.039154e+001  -1.161282e+001 
3056250000  -4.039331e+001  -8.607183e+000 
3059375000  -3.970693e+001  -1.110928e+001 
3062500000  -3.824530e+001  -1.496288e+001 
3065625000  -3.779350e+001  -2.670382e+001 
3068750000  -3.749144e+001  -3.371728e+001 
3071875000  -3.761313e+001  -3.524281e+001 
3075000000  -3.692357e+001  -4.233331e+001 
3078125000  -3.706948e+001  -4.912108e+001 
3081250000  -3.710965e+001  -5.442192e+001 
3084375000  -3.644205e+001  -5.913483e+001 
3087500000  -3.647366e+001  -6.622217e+001 
3090625000  -3.595615e+001  -7.813808e+001 
3093750000  -3.686056e+001  -8.634927e+001 
3096875000  -3.731811e+001  -9.120076e+001 
3100000000  -3.731161e+001  -9.386654e+001 
3103125000  -3.752089e+001  -9.741457e+001 
3106250000  -3.716805e+001  -1.032312e+002 
3109375000  -3.719360e+001  -1.062112e+002 
3112500000  -3.713669e+001  -1.132216e+002 
3115625000  -3.722237e+001  -1.167045e+002 
3118750000  -3.712681e+001  -1.208593e+002 
3121875000  -3.660149e+001  -1.312731e+002 
3125000000  -3.856647e+001  -1.352353e+002 
3128125000  -3.857673e+001  -1.264284e+002 
3131250000  -3.604060e+001  -1.328291e+002 
3134375000  -3.541841e+001  -1.515018e+002 
3137500000  -3.616179e+001  -1.630349e+002 
3140625000  -3.730064e+001  -1.654065e+002 
3143750000  -3.811901e+001  -1.675706e+002 
3146875000  -3.762405e+001  -1.660981e+002 
3150000000  -3.690252e+001  -1.703153e+002 
3153125000  -3.736069e+001  -1.787895e+002 
3156250000  -3.788690e+001  -1.730082e+002 
3159375000  -3.562482e+001  -1.755067e+002 
3162500000  -3.419045e+001  1.687498e+002 
3165625000  -3.540992e+001  1.554842e+002 
3168750000  -3.536097e+001  1.551799e+002 
3171875000  -3.492752e+001  1.473680e+002 
3175000000  -3.534592e+001  1.378618e+002 
3178125000  -3.497675e+001  1.365468e+002 
3181250000  -3.432771e+001  1.286283e+002 
3184375000  -3.415123e+001  1.165923e+002 
3187500000  -3.550582e+001  1.026810e+002 
3190625000  -3.726146e+001  9.675805e+001 
3193750000  -3.738521e+001  1.018082e+002 
3196875000  -3.743127e+001  1.018691e+002 
3200000000  -3.603193e+001  9.725761e+001 
3203125000  -3.580918e+001  8.997972e+001 
3206250000  -3.611186e+001  8.140894e+001 
3209375000  -3.576802e+001  7.371027e+001 
3212500000  -3.629175e+001  6.810565e+001 
3215625000  -3.601990e+001  6.413330e+001 
3218750000  -3.676626e+001  5.253729e+001 
3221875000  -3.709870e+001  4.594770e+001 
3225000000  -3.691920e+001  4.238739e+001 
3228125000  -3.778145e+001  3.468385e+001 
3231250000  -3.830970e+001  3.275424e+001 
3234375000  -3.791721e+001  3.010852e+001 
3237500000  -3.798988e+001  2.539929e+001 
3240625000  -3.765806e+001  2.030875e+001 
3243750000  -3.763601e+001  9.723851e+000 
3246875000  -3.829375e+001  3.153830e+000 
3250000000  -3.864180e+001  -5.839901e-001 
3253125000  -3.919516e+001  -3.848214e+000 
3256250000  -3.842155e+001  -1.195327e+001 
3259375000  -3.902017e+001  -2.260139e+001 
3262500000  -4.067852e+001  -2.593299e+001 
3265625000  -4.120319e+001  -2.267528e+001 
3268750000  -4.107985e+001  -2.324863e+001 
3271875000  -4.034557e+001  -2.670714e+001 
3275000000  -4.031625e+001  -3.515828e+001 
3278125000  -4.061490e+001  -3.884163e+001 
3281250000  -4.087715e+001  -4.146137e+001 
3284375000  -4.050161e+001  -4.632894e+001 
3287500000  -4.099069e+001  -5.076826e+001 
3290625000  -4.116011e+001  -5.894043e+001 
3293750000  -4.124980e+001  -6.504843e+001 
3296875000  -4.246434e+001  -6.618389e+001 
3300000000  -4.182149e+001  -6.654261e+001 
3303125000  -4.076922e+001  -7.339605e+001 
3306250000  -4.059403e+001  -7.899470e+001 
3309375000  -4.050592e+001  -8.719003e+001 
3312500000  -4.104437e+001  -9.955530e+001 
3315625000  -4.205268e+001  -1.065277e+002 
3318750000  -4.381203e+001  -1.102455e+002 
3321875000  -4.527304e+001  -1.064458e+002 
3325000000  -4.495141e+001  -9.732582e+001 
3328125000  -4.361883e+001  -1.024440e+002 
3331250000  -4.206821e+001  -9.518198e+001 
3334375000  -3.964009e+001  -1.144045e+002 
3337500000  -4.012267e+001  -1.341284e+002 
3340625000  -4.230100e+001  -1.435143e+002 
3343750000  -4.419696e+001  -1.426194e+002 
3346875000  -4.318538e+001  -1.431525e+002 
3350000000  -4.300730e+001  -1.460726e+002 
3353125000  -4.286874e+001  -1.548991e+002 
3356250000  -4.255254e+001  -1.635462e+002 
3359375000  -4.333978e+001  -1.721223e+002 
3362500000  -4.407241e+001  -1.783848e+002 
3365625000  -4.484753e+001  1.787690e+002 
3368750000  -4.544317e+001  1.736399e+002 
3371875000  -4.584148e+001  1.696477e+002 
3375000000  -4.733667e+001  1.655053e+002 
3378125000  -4.845932e+001  1.636095e+002 
3381250000  -4.933604e+001  -1.792879e+002 
3384375000  -4.605685e+001  -1.692866e+002 
3387500000  -4.403256e+001  1.714231e+002 
3390625000  -4.571398e+001  1.503519e+002 
3393750000  -4.670340e+001  1.497579e+002 
3396875000  -4.607772e+001  1.502987e+002 
3400000000  -4.617078e+001  1.384039e+002 
3403125000  -4.706444e+001  1.333501e+002 
3406250000  -4.751535e+001  1.270163e+002 
3409375000  -4.763071e+001  1.204766e+002 
3412500000  -4.885752e+001  1.130545e+002 
3415625000  -4.969561e+001  1.151279e+002 
3418750000  -5.022480e+001  1.127803e+002 
3421875000  -5.118163e+001  1.146848e+002 
3425000000  -4.961391e+001  1.203187e+002 
3428125000  -5.060127e+001  1.174964e+002 
3431250000  -4.996353e+001  1.044101e+002 
3434375000  -5.130839e+001  1.019486e+002 
3437500000  -5.139623e+001  1.018167e+002 
3440625000  -5.172029e+001  1.031225e+002 
3443750000  -5.066452e+001  1.047355e+002 
3446875000  -5.020923e+001  9.396609e+001 
3450000000  -5.032757e+001  9.322608e+001 
3453125000  -5.063896e+001  8.159737e+001 
3456250000  -5.176718e+001  7.739227e+001 
3459375000  -5.297964e+001  8.127656e+001 
3462500000  -5.257790e+001  8.529668e+001 
3465625000  -5.080831e+001  7.528795e+001 
3468750000  -5.269695e+001  7.264368e+001 
3471875000  -5.277034e+001  7.356641e+001 
3475000000  -5.171704e+001  6.653992e+001 
3478125000  -5.146283e+001  5.674767e+001 
3481250000  -5.302571e+001  5.668674e+001 
3484375000  -5.157175e+001  6.525681e+001 
3487500000  -5.134197e+001  5.976439e+001 
3490625000  -5.041959e+001  5.277101e+001 
3493750000  -5.204378e+001  4.277415e+001 
3496875000  -5.182481e+001  4.452422e+001 
3500000000  -5.105323e+001  4.285345e+001 
3503125000  -5.058430e+001  4.175703e+001 
3506250000  -5.005061e+001  3.556654e+001 
3509375000  -4.935721e+001  2.305122e+001 
3512500000  -4.971925e+001  6.290102e+000 
3515625000  -5.138695e+001  4.705837e+000 
3518750000  -5.183709e+001  4.658713e+000 
3521875000  -5.291406e+001  -7.236926e+000 
3525000000  -5.305953e+001  -8.257568e+000 
3528125000  -5.224800e+001  8.273314e+000 
3531250000  -5.174609e+001  -3.428779e+000 
3534375000  -5.396157e+001  -2.106262e+001 
3537500000  -5.358500e+001  -2.811001e+001 
3540625000  -5.468978e+001  -2.568821e+001 
3543750000  -5.452313e+001  -2.266943e+001 
3546875000  -5.544447e+001  -6.410274e+000 
3550000000  -5.366656e+001  -1.341104e+001 
3553125000  -5.358095e+001  -3.472450e+001 
3556250000  -5.571162e+001  -3.803268e+001 
3559375000  -5.609029e+001  -3.512180e+001 
3562500000  -5.516631e+001  -5.149319e+001 
3565625000  -5.563332e+001  -5.389388e+001 
3568750000  -5.731040e+001  -4.570156e+001 
3571875000  -5.751283e+001  -5.208447e+001 
3575000000  -5.892307e+001  -4.574993e+001 
3578125000  -6.072774e+001  -6.015139e+001 
3581250000  -5.894599e+001  -5.248284e+001 
3584375000  -5.733276e+001  -3.314827e+001 
3587500000  -5.778140e+001  -4.143990e+001 
3590625000  -5.877046e+001  -6.006182e+001 
3593750000  -5.889193e+001  -4.642610e+001 
3596875000  -5.775257e+001  -3.607440e+001 
3600000000  -5.790168e+001  -4.569545e+001 
3603125000  -5.871915e+001  -5.145043e+001 
3606250000  -5.890091e+001  -5.065496e+001 
3609375000  -5.880311e+001  -5.828069e+001 
3612500000  -5.800985e+001  -6.190043e+001 
3615625000  -5.824158e+001  -5.472985e+001 
3618750000  -5.853543e+001  -5.225476e+001 
3621875000  -5.801364e+001  -4.854491e+001 
3625000000  -5.821726e+001  -5.172369e+001 
3628125000  -5.667491e+001  -3.971084e+001 
3631250000  -5.570333e+001  -5.333513e+001 
3634375000  -5.680800e+001  -5.061866e+001 
3637500000  -5.561308e+001  -4.631839e+001 
3640625000  -5.378160e+001  -4.277194e+001 
3643750000  -5.240912e+001  -5.237356e+001 
3646875000  -5.278352e+001  -6.319386e+001 
3650000000  -5.288904e+001  -6.003417e+001 
3653125000  -5.240046e+001  -6.404097e+001 
3656250000  -5.213916e+001  -5.775860e+001 
3659375000  -5.169725e+001  -6.859881e+001 
3662500000  -5.034494e+001  -7.706626e+001 
3665625000  -4.948660e+001  -7.256696e+001 
3668750000  -4.768560e+001  -7.668737e+001 
3671875000  -4.760108e+001  -8.716408e+001 
3675000000  -4.755846e+001  -9.810316e+001 
3678125000  -4.717248e+001  -9.867711e+001 
3681250000  -4.682155e+001  -1.036293e+002 
3684375000  -4.642370e+001  -1.088237e+002 
3687500000  -4.640165e+001  -1.153194e+002 
3690625000  -4.645692e+001  -1.233498e+002 
3693750000  -4.703987e+001  -1.206537e+002 
3696875000  -4.632485e+001  -1.216686e+002 
3700000000  -4.510755e+001  -1.279035e+002 
3703125000  -4.554483e+001  -1.369915e+002 
3706250000  -4.587534e+001  -1.373419e+002 
3709375000  -4.481005e+001  -1.375013e+002 
3712500000  -4.358978e+001  -1.402382e+002 
3715625000  -4.170620e+001  -1.497756e+002 
3718750000  -4.168399e+001  -1.594153e+002 
3721875000  -4.125589e+001  -1.663036e+002 
3725000000  -4.179389e+001  -1.736705e+002 
3728125000  -4.155035e+001  -1.786499e+002 
3731250000  -4.067438e+001  1.757843e+002 
3734375000  -4.026926e+001  1.725097e+002 
3737500000  -4.081788e+001  1.627379e+002 
3740625000  -4.095105e+001  1.546282e+002 
3743750000  -4.066126e+001  1.491286e+002 
3746875000  -4.065147e+001  1.424245e+002 
3750000000  -4.096542e+001  1.368436e+002 
3753125000  -4.039097e+001  1.341092e+002 
3756250000  -4.038929e+001  1.307386e+002 
3759375000  -4.038800e+001  1.242337e+002 
3762500000  -4.021415e+001  1.168690e+002 
3765625000  -4.067861e+001  1.140767e+002 
3768750000  -4.007648e+001  1.131154e+002 
3771875000  -3.846722e+001  1.066918e+002 
3775000000  -3.851059e+001  9.634467e+001 
3778125000  -3.911331e+001  8.843728e+001 
3781250000  -3.887759e+001  8.534168e+001 
3784375000  -3.877807e+001  7.871433e+001 
3787500000  -3.855433e+001  7.222505e+001 
3790625000  -3.922580e+001  6.377537e+001 
3793750000  -3.910612e+001  6.214828e+001 
3796875000  -3.817361e+001  5.669766e+001 
3800000000  -3.640002e+001  5.220731e+001 
3803125000  -3.823692e+001  3.957232e+001 
3806250000  -3.878833e+001  3.465290e+001 
3809375000  -3.858058e+001  2.959323e+001 
3812500000  -3.845363e+001  2.031276e+001 
3815625000  -3.966210e+001  1.133198e+001 
3818750000  -4.097203e+001  1.548097e+001 
3821875000  -4.008929e+001  2.266242e+001 
3825000000  -3.819316e+001  1.951268e+001 
3828125000  -3.697184e+001  -1.331330e+000 
3831250000  -3.813613e+001  -1.460443e+001 
3834375000  -4.053861e+001  -1.438516e+001 
3837500000  -4.055841e+001  -1.093968e+001 
3840625000  -3.891460e+001  -1.443591e+001 
3843750000  -3.806914e+001  -2.905988e+001 
3846875000  -3.980158e+001  -3.467126e+001 
3850000000  -4.046073e+001  -3.093283e+001 
3853125000  -3.990074e+001  -2.917830e+001 
3856250000  -3.951381e+001  -3.786140e+001 
3859375000  -3.865425e+001  -4.433506e+001 
3862500000  -3.841316e+001  -5.219934e+001 
3865625000  -3.903677e+001  -5.976723e+001 
3868750000  -3.869831e+001  -6.145229e+001 
3871875000  -3.798494e+001  -6.842193e+001 
3875000000  -3.862961e+001  -7.703770e+001 
3878125000  -3.945687e+001  -7.931181e+001 
3881250000  -3.930630e+001  -7.994175e+001 
3884375000  -3.858445e+001  -8.787936e+001 
3887500000  -3.924164e+001  -9.469830e+001 
3890625000  -3.970404e+001  -9.813357e+001 
3893750000  -3.957964e+001  -1.004910e+002 
3896875000  -4.013153e+001  -1.029288e+002 
3900000000  -3.994080e+001  -1.056832e+002 
3903125000  -3.948359e+001  -1.113338e+002 
3906250000  -3.886768e+001  -1.140072e+002 
3909375000  -3.816441e+001  -1.243372e+002 
3912500000  -3.883995e+001  -1.334950e+002 
3915625000  -4.051963e+001  -1.326970e+002 
3918750000  -4.017676e+001  -1.347251e+002 
3921875000  -3.917633e+001  -1.396709e+002 
3925000000  -3.843291e+001  -1.443986e+002 
3928125000  -3.796157e+001  -1.542160e+002 
3931250000  -3.908826e+001  -1.598372e+002 
3934375000  -3.964066e+001  -1.617732e+002 
3937500000  -4.000383e+001  -1.634434e+002 
3940625000  -3.990647e+001  -1.655489e+002 
3943750000  -3.892487e+001  -1.685491e+002 
3946875000  -3.857283e+001  -1.775706e+002 
3950000000  -3.980298e+001  1.755415e+002 
3953125000  -3.989787e+001  1.750398e+002 
3956250000  -3.861158e+001  1.745189e+002 
3959375000  -3.794551e+001  1.689426e+002 
3962500000  -3.763415e+001  1.599878e+002 
3965625000  -3.786679e+001  1.484297e+002 
3968750000  -3.855824e+001  1.420992e+002 
3971875000  -3.859137e+001  1.378174e+002 
3975000000  -3.841441e+001  1.335312e+002 
3978125000  -3.852994e+001  1.293746e+002 
3981250000  -3.836428e+001  1.219298e+002 
3984375000  -3.901236e+001  1.133686e+002 
3987500000  -3.976771e+001  1.109269e+002 
3990625000  -3.995229e+001  1.087558e+002 
3993750000  -4.005243e+001  1.053489e+002 
3996875000  -3.979247e+001  9.900185e+001 
4000000000  -4.083336e+001  9.487057e+001 
4003125000  -4.086256e+001  9.718167e+001 
4006250000  -3.935593e+001  9.259209e+001 
4009375000  -3.850050e+001  8.037552e+001 
4012500000  -4.037691e+001  7.178518e+001 
4015625000  -4.122820e+001  7.131374e+001 
4018750000  -4.121982e+001  7.162496e+001 
4021875000  -4.061122e+001  6.903329e+001 
4025000000  -4.044840e+001  6.432059e+001 
4028125000  -4.038031e+001  5.537312e+001 
4031250000  -4.096316e+001  5.218309e+001 
4034375000  -4.172030e+001  5.123019e+001 
4037500000  -4.089008e+001  5.138387e+001 
4040625000  -4.091871e+001  4.578393e+001 
4043750000  -4.105669e+001  4.495579e+001 
4046875000  -4.101064e+001  4.205249e+001 
4050000000  -4.085796e+001  3.497929e+001 
4053125000  -4.139183e+001  3.258130e+001 
4056250000  -4.124072e+001  3.732378e+001 
4059375000  -3.940739e+001  3.490166e+001 
4062500000  -3.893689e+001  2.623782e+001 
4065625000  -3.897178e+001  2.061237e+001 
4068750000  -3.829657e+001  1.438230e+001 
4071875000  -3.774625e+001  3.144910e+000 
4075000000  -3.854123e+001  -3.925482e+000 
4078125000  -3.883006e+001  -6.619461e+000 
4081250000  -3.835072e+001  -1.072918e+001 
4084375000  -3.790148e+001  -2.213814e+001 
4087500000  -3.861623e+001  -2.705992e+001 
4090625000  -3.910328e+001  -2.921955e+001 
4093750000  -3.866561e+001  -3.227162e+001 
4096875000  -3.863929e+001  -4.284220e+001 
4100000000  -3.958603e+001  -4.924151e+001 
4103125000  -4.059093e+001  -4.589190e+001 
4106250000  -3.988914e+001  -4.357922e+001 
4109375000  -3.924427e+001  -4.819478e+001 
4112500000  -3.878770e+001  -5.714535e+001 
4115625000  -3.923708e+001  -6.354733e+001 
4118750000  -3.901846e+001  -6.971690e+001 
4121875000  -3.886219e+001  -7.641704e+001 
4125000000  -3.977517e+001  -8.042879e+001 
4128125000  -4.057086e+001  -8.058929e+001 
4131250000  -3.974935e+001  -7.407043e+001 
4134375000  -3.785513e+001  -8.280199e+001 
4137500000  -3.812655e+001  -1.036463e+002 
4140625000  -4.021543e+001  -1.139984e+002 
4143750000  -4.149969e+001  -1.041721e+002 
4146875000  -4.027472e+001  -1.026246e+002 
4150000000  -3.954020e+001  -1.080220e+002 
4153125000  -3.998996e+001  -1.188591e+002 
4156250000  -4.134760e+001  -1.220718e+002 
4159375000  -4.117369e+001  -1.149027e+002 
4162500000  -3.979570e+001  -1.153281e+002 
4165625000  -3.866391e+001  -1.217900e+002 
4168750000  -3.846321e+001  -1.325413e+002 
4171875000  -3.858687e+001  -1.419508e+002 
4175000000  -3.921791e+001  -1.475801e+002 
4178125000  -3.975584e+001  -1.475194e+002 
4181250000  -3.908175e+001  -1.525876e+002 
4184375000  -3.951326e+001  -1.570504e+002 
4187500000  -3.948010e+001  -1.627778e+002 
4190625000  -3.938512e+001  -1.701731e+002 
4193750000  -4.048024e+001  -1.740069e+002 
4196875000  -4.164417e+001  -1.767540e+002 
4200000000  -4.235310e+001  -1.676566e+002 
4203125000  -4.092349e+001  -1.585058e+002 
4206250000  -3.737468e+001  -1.662348e+002 
4209375000  -3.745633e+001  1.696301e+002 
4212500000  -3.986895e+001  1.625704e+002 
4215625000  -4.007624e+001  1.694798e+002 
4218750000  -3.830468e+001  1.711615e+002 
4221875000  -3.666770e+001  1.616804e+002 
4225000000  -3.789792e+001  1.506454e+002 
4228125000  -3.774448e+001  1.505710e+002 
4231250000  -3.611154e+001  1.437190e+002 
4234375000  -3.644524e+001  1.305921e+002 
4237500000  -3.605979e+001  1.259672e+002 
4240625000  -3.618936e+001  1.161506e+002 
4243750000  -3.742615e+001  1.078486e+002 
4246875000  -3.868079e+001  1.055445e+002 
4250000000  -3.832575e+001  1.055193e+002 
4253125000  -3.833928e+001  1.044959e+002 
4256250000  -3.773811e+001  1.002278e+002 
4259375000  -3.777050e+001  9.292186e+001 
4262500000  -3.805710e+001  8.684960e+001 
4265625000  -3.805915e+001  8.737794e+001 
4268750000  -3.694205e+001  7.871999e+001 
4271875000  -3.666333e+001  7.022703e+001 
4275000000  -3.668040e+001  6.166647e+001 
4278125000  -3.789813e+001  4.970973e+001 
4281250000  -3.909950e+001  4.916080e+001 
4284375000  -3.899468e+001  4.596584e+001 
4287500000  -4.046694e+001  4.253253e+001 
4290625000  -4.053163e+001  5.233445e+001 
4293750000  -3.850443e+001  5.105629e+001 
4296875000  -3.765819e+001  3.800812e+001 
4300000000  -3.909164e+001  2.794814e+001 
4303125000  -3.982321e+001  3.237502e+001 
4306250000  -3.864486e+001  3.432974e+001 
4309375000  -3.752768e+001  2.874969e+001 
4312500000  -3.754927e+001  1.699842e+001 
4315625000  -3.787996e+001  7.768333e+000 
4318750000  -3.841846e+001  3.157712e+000 
4321875000  -3.854832e+001  5.514477e+000 
4325000000  -3.783059e+001  3.884144e+000 
4328125000  -3.717211e+001  -6.284510e+000 
4331250000  -3.746301e+001  -1.745527e+001 
4334375000  -3.844177e+001  -2.187929e+001 
4337500000  -3.942622e+001  -2.444514e+001 
4340625000  -3.971627e+001  -1.816668e+001 
4343750000  -3.847846e+001  -2.120704e+001 
4346875000  -3.822044e+001  -3.202742e+001 
4350000000  -3.831496e+001  -3.958785e+001 
4353125000  -3.918219e+001  -4.631356e+001 
4356250000  -4.110457e+001  -4.297258e+001 
4359375000  -3.986883e+001  -2.598053e+001 
4362500000  -3.656569e+001  -3.585511e+001 
4365625000  -3.591873e+001  -5.546888e+001 
4368750000  -3.744292e+001  -6.236206e+001 
4371875000  -3.765466e+001  -6.388128e+001 
4375000000  -3.724918e+001  -6.781232e+001 
4378125000  -3.677091e+001  -7.525466e+001 
4381250000  -3.697570e+001  -8.372485e+001 
4384375000  -3.707860e+001  -9.093533e+001 
4387500000  -3.835357e+001  -9.594136e+001 
4390625000  -3.846597e+001  -9.693889e+001 
4393750000  -3.782946e+001  -9.554880e+001 
4396875000  -3.733176e+001  -1.021766e+002 
4400000000  -3.681121e+001  -1.119576e+002 
4403125000  -3.753733e+001  -1.219008e+002 
4406250000  -3.841658e+001  -1.242074e+002 
4409375000  -3.872163e+001  -1.272830e+002 
4412500000  -4.005414e+001  -1.308571e+002 
4415625000  -3.924574e+001  -1.270819e+002 
