!Agilent Technologies,E8363B,MY43030201,A.06.04.32
!Agilent E8363B: A.06.04.32
!Date: Tuesday, November 11, 2014 21:35:20
!Correction: S21(Response(S21)) 
!S1P File: Measurement: S21:
# Hz S  dB   R 50
3000000000  -4.052660e+001  7.251395e+001 
3003125000  -4.208329e+001  6.403871e+001 
3006250000  -4.225046e+001  6.438403e+001 
3009375000  -4.276688e+001  6.887066e+001 
3012500000  -4.131007e+001  6.272523e+001 
3015625000  -4.152528e+001  5.617015e+001 
3018750000  -4.176893e+001  5.784777e+001 
3021875000  -4.018776e+001  5.878638e+001 
3025000000  -3.882772e+001  5.486823e+001 
3028125000  -3.796143e+001  4.397055e+001 
3031250000  -3.695265e+001  3.222494e+001 
3034375000  -3.666045e+001  1.825584e+001 
3037500000  -3.761207e+001  7.726373e+000 
3040625000  -3.889386e+001  3.065150e+000 
3043750000  -3.917228e+001  -3.731847e+000 
3046875000  -3.993723e+001  -9.101073e+000 
3050000000  -4.085656e+001  -1.388678e+001 
3053125000  -4.054264e+001  -1.007242e+001 
3056250000  -4.052251e+001  -6.891822e+000 
3059375000  -3.954665e+001  -8.590128e+000 
3062500000  -3.813171e+001  -1.256008e+001 
3065625000  -3.790925e+001  -2.410343e+001 
3068750000  -3.756010e+001  -3.097280e+001 
3071875000  -3.762483e+001  -3.326933e+001 
3075000000  -3.697571e+001  -3.961009e+001 
3078125000  -3.712013e+001  -4.650088e+001 
3081250000  -3.714677e+001  -5.227087e+001 
3084375000  -3.631137e+001  -5.674712e+001 
3087500000  -3.639046e+001  -6.390717e+001 
3090625000  -3.593893e+001  -7.584823e+001 
3093750000  -3.692675e+001  -8.458816e+001 
3096875000  -3.731396e+001  -8.862625e+001 
3100000000  -3.732393e+001  -9.232088e+001 
3103125000  -3.751549e+001  -9.614499e+001 
3106250000  -3.711464e+001  -1.003819e+002 
3109375000  -3.725111e+001  -1.046821e+002 
3112500000  -3.731773e+001  -1.111525e+002 
3115625000  -3.718028e+001  -1.144690e+002 
3118750000  -3.715817e+001  -1.184440e+002 
3121875000  -3.660790e+001  -1.292700e+002 
3125000000  -3.854873e+001  -1.323468e+002 
3128125000  -3.845188e+001  -1.246355e+002 
3131250000  -3.606157e+001  -1.312938e+002 
3134375000  -3.539837e+001  -1.479845e+002 
3137500000  -3.602855e+001  -1.597023e+002 
3140625000  -3.736521e+001  -1.631042e+002 
3143750000  -3.835691e+001  -1.658519e+002 
3146875000  -3.757255e+001  -1.632640e+002 
3150000000  -3.683423e+001  -1.678427e+002 
3153125000  -3.713145e+001  -1.762951e+002 
3156250000  -3.784064e+001  -1.712317e+002 
3159375000  -3.571100e+001  -1.734791e+002 
3162500000  -3.412032e+001  1.710282e+002 
3165625000  -3.541759e+001  1.582269e+002 
3168750000  -3.529185e+001  1.569226e+002 
3171875000  -3.491320e+001  1.497757e+002 
3175000000  -3.549807e+001  1.406475e+002 
3178125000  -3.493918e+001  1.392272e+002 
3181250000  -3.439923e+001  1.303063e+002 
3184375000  -3.417627e+001  1.196985e+002 
3187500000  -3.540280e+001  1.045869e+002 
3190625000  -3.719139e+001  9.815343e+001 
3193750000  -3.757811e+001  1.039794e+002 
3196875000  -3.737804e+001  1.039095e+002 
3200000000  -3.627982e+001  9.968159e+001 
3203125000  -3.590436e+001  9.114312e+001 
3206250000  -3.610241e+001  8.433819e+001 
3209375000  -3.576981e+001  7.602894e+001 
3212500000  -3.638380e+001  6.887217e+001 
3215625000  -3.609697e+001  6.677262e+001 
3218750000  -3.674302e+001  5.518939e+001 
3221875000  -3.721049e+001  4.908780e+001 
3225000000  -3.696507e+001  4.403696e+001 
3228125000  -3.783509e+001  3.674213e+001 
3231250000  -3.818563e+001  3.607246e+001 
3234375000  -3.787707e+001  3.303674e+001 
3237500000  -3.803111e+001  2.883887e+001 
3240625000  -3.755725e+001  2.262155e+001 
3243750000  -3.769098e+001  1.264552e+001 
3246875000  -3.819562e+001  5.377058e+000 
3250000000  -3.871311e+001  1.105827e+000 
3253125000  -3.903931e+001  -2.050897e+000 
3256250000  -3.852799e+001  -9.414790e+000 
3259375000  -3.911516e+001  -1.996966e+001 
3262500000  -4.043184e+001  -2.411060e+001 
3265625000  -4.118993e+001  -2.197486e+001 
3268750000  -4.120789e+001  -2.055726e+001 
3271875000  -4.062069e+001  -2.511607e+001 
3275000000  -4.016466e+001  -3.397885e+001 
3278125000  -4.092631e+001  -3.693143e+001 
3281250000  -4.098506e+001  -3.828193e+001 
3284375000  -4.055790e+001  -4.583931e+001 
3287500000  -4.101203e+001  -4.955316e+001 
3290625000  -4.124677e+001  -5.796093e+001 
3293750000  -4.133597e+001  -6.188434e+001 
3296875000  -4.253886e+001  -6.245134e+001 
3300000000  -4.163834e+001  -6.350590e+001 
3303125000  -4.097098e+001  -7.058391e+001 
3306250000  -4.066272e+001  -7.796820e+001 
3309375000  -4.039118e+001  -8.487643e+001 
3312500000  -4.105332e+001  -9.733235e+001 
3315625000  -4.210356e+001  -1.027789e+002 
3318750000  -4.355928e+001  -1.089448e+002 
3321875000  -4.504058e+001  -1.052477e+002 
3325000000  -4.447225e+001  -9.634766e+001 
3328125000  -4.366912e+001  -9.715662e+001 
3331250000  -4.209089e+001  -9.542484e+001 
3334375000  -3.961633e+001  -1.110413e+002 
3337500000  -4.051495e+001  -1.326998e+002 
3340625000  -4.223771e+001  -1.404211e+002 
3343750000  -4.410906e+001  -1.396130e+002 
3346875000  -4.321103e+001  -1.396148e+002 
3350000000  -4.307689e+001  -1.441062e+002 
3353125000  -4.271132e+001  -1.515009e+002 
3356250000  -4.267177e+001  -1.592450e+002 
3359375000  -4.343211e+001  -1.703758e+002 
3362500000  -4.436821e+001  -1.770664e+002 
3365625000  -4.467056e+001  1.798305e+002 
3368750000  -4.534420e+001  1.744188e+002 
3371875000  -4.570303e+001  1.741307e+002 
3375000000  -4.764396e+001  1.670578e+002 
3378125000  -4.818061e+001  1.687252e+002 
3381250000  -4.992438e+001  1.789569e+002 
3384375000  -4.642451e+001  -1.645022e+002 
3387500000  -4.403817e+001  1.735087e+002 
3390625000  -4.628852e+001  1.498548e+002 
3393750000  -4.739492e+001  1.531609e+002 
3396875000  -4.606414e+001  1.483793e+002 
3400000000  -4.603057e+001  1.418125e+002 
3403125000  -4.694657e+001  1.366033e+002 
3406250000  -4.772598e+001  1.315136e+002 
3409375000  -4.803708e+001  1.253926e+002 
3412500000  -4.873767e+001  1.184942e+002 
3415625000  -5.010211e+001  1.142589e+002 
3418750000  -4.989725e+001  1.164032e+002 
3421875000  -5.161121e+001  1.209119e+002 
3425000000  -5.013062e+001  1.194826e+002 
3428125000  -4.964235e+001  1.178229e+002 
3431250000  -5.023100e+001  1.060396e+002 
3434375000  -5.074182e+001  1.027349e+002 
3437500000  -5.153003e+001  1.017207e+002 
3440625000  -5.227388e+001  1.034104e+002 
3443750000  -5.039886e+001  1.048335e+002 
3446875000  -5.088010e+001  9.690442e+001 
3450000000  -5.044659e+001  9.095739e+001 
3453125000  -5.029823e+001  8.855862e+001 
3456250000  -5.215180e+001  8.094563e+001 
3459375000  -5.334104e+001  8.225985e+001 
3462500000  -5.214804e+001  8.528944e+001 
3465625000  -5.179758e+001  7.856259e+001 
3468750000  -5.184884e+001  7.535863e+001 
3471875000  -5.170164e+001  7.536497e+001 
3475000000  -5.123693e+001  6.899103e+001 
3478125000  -5.108086e+001  6.222964e+001 
3481250000  -5.221936e+001  6.301252e+001 
3484375000  -5.292530e+001  6.164171e+001 
3487500000  -5.088828e+001  6.556061e+001 
3490625000  -5.129781e+001  5.094099e+001 
3493750000  -5.212265e+001  4.549377e+001 
3496875000  -5.128779e+001  5.187518e+001 
3500000000  -5.166123e+001  4.846389e+001 
3503125000  -5.114661e+001  4.380850e+001 
3506250000  -4.976426e+001  3.605016e+001 
3509375000  -4.941490e+001  2.536422e+001 
3512500000  -5.006124e+001  1.231783e+001 
3515625000  -5.176657e+001  8.507993e+000 
3518750000  -5.197157e+001  1.361659e+001 
3521875000  -5.230931e+001  5.307856e+000 
3525000000  -5.349917e+001  1.750205e+000 
3528125000  -5.177711e+001  7.854137e-001 
3531250000  -5.214282e+001  -2.167155e+000 
3534375000  -5.315168e+001  -1.722242e+001 
3537500000  -5.368358e+001  -2.533023e+001 
3540625000  -5.462517e+001  -2.638197e+001 
3543750000  -5.610369e+001  -1.741775e+001 
3546875000  -5.560618e+001  -1.525549e+001 
3550000000  -5.380807e+001  -1.155888e+001 
3553125000  -5.390375e+001  -3.624563e+001 
3556250000  -5.560423e+001  -3.981001e+001 
3559375000  -5.500314e+001  -3.326047e+001 
3562500000  -5.549778e+001  -4.502804e+001 
3565625000  -5.594604e+001  -5.071480e+001 
3568750000  -5.767876e+001  -4.468856e+001 
3571875000  -5.744120e+001  -4.389038e+001 
3575000000  -5.854242e+001  -5.146265e+001 
3578125000  -6.006672e+001  -4.191532e+001 
3581250000  -5.973198e+001  -3.613894e+001 
3584375000  -5.832582e+001  -4.021796e+001 
3587500000  -5.522206e+001  -3.724176e+001 
3590625000  -5.894714e+001  -4.693538e+001 
3593750000  -5.952169e+001  -4.749775e+001 
3596875000  -5.972845e+001  -3.873576e+001 
3600000000  -5.712589e+001  -3.909951e+001 
3603125000  -5.820151e+001  -5.002848e+001 
3606250000  -5.897970e+001  -4.300629e+001 
3609375000  -5.818609e+001  -4.582159e+001 
3612500000  -5.833619e+001  -4.395142e+001 
3615625000  -6.024614e+001  -4.579762e+001 
3618750000  -5.815583e+001  -4.530822e+001 
3621875000  -5.688214e+001  -4.938694e+001 
3625000000  -5.819140e+001  -4.717949e+001 
3628125000  -5.608528e+001  -3.963674e+001 
3631250000  -5.608764e+001  -4.693824e+001 
3634375000  -5.684945e+001  -5.294112e+001 
3637500000  -5.442395e+001  -4.890924e+001 
3640625000  -5.390734e+001  -3.491780e+001 
3643750000  -5.241049e+001  -4.493254e+001 
3646875000  -5.292969e+001  -5.533342e+001 
3650000000  -5.352534e+001  -5.675096e+001 
3653125000  -5.224618e+001  -6.380708e+001 
3656250000  -5.244652e+001  -6.569787e+001 
3659375000  -5.150561e+001  -6.676973e+001 
3662500000  -5.064941e+001  -7.368570e+001 
3665625000  -4.991441e+001  -7.112908e+001 
3668750000  -4.816799e+001  -7.198376e+001 
3671875000  -4.734309e+001  -8.643073e+001 
3675000000  -4.740714e+001  -9.424100e+001 
3678125000  -4.688295e+001  -9.389302e+001 
3681250000  -4.660867e+001  -1.027764e+002 
3684375000  -4.666800e+001  -1.049808e+002 
3687500000  -4.677011e+001  -1.115141e+002 
3690625000  -4.639015e+001  -1.167261e+002 
3693750000  -4.703915e+001  -1.148527e+002 
3696875000  -4.639959e+001  -1.202321e+002 
3700000000  -4.524730e+001  -1.262245e+002 
3703125000  -4.538939e+001  -1.318483e+002 
3706250000  -4.617126e+001  -1.339634e+002 
3709375000  -4.513230e+001  -1.319278e+002 
3712500000  -4.365183e+001  -1.384983e+002 
3715625000  -4.173470e+001  -1.481421e+002 
3718750000  -4.171423e+001  -1.550787e+002 
3721875000  -4.125290e+001  -1.640167e+002 
3725000000  -4.169025e+001  -1.699053e+002 
3728125000  -4.137225e+001  -1.728145e+002 
3731250000  -4.071772e+001  -1.785083e+002 
3734375000  -4.007257e+001  1.731341e+002 
3737500000  -4.096961e+001  1.634733e+002 
3740625000  -4.087910e+001  1.578857e+002 
3743750000  -4.046808e+001  1.520044e+002 
3746875000  -4.080774e+001  1.438226e+002 
3750000000  -4.078928e+001  1.405667e+002 
3753125000  -4.081372e+001  1.384921e+002 
3756250000  -4.058894e+001  1.344255e+002 
3759375000  -4.038330e+001  1.282553e+002 
3762500000  -4.009436e+001  1.210305e+002 
3765625000  -4.094730e+001  1.177996e+002 
3768750000  -4.003722e+001  1.171316e+002 
3771875000  -3.822806e+001  1.090951e+002 
3775000000  -3.832529e+001  9.707822e+001 
3778125000  -3.887508e+001  9.303938e+001 
3781250000  -3.899819e+001  8.704767e+001 
3784375000  -3.872477e+001  8.083984e+001 
3787500000  -3.847966e+001  7.485847e+001 
3790625000  -3.894364e+001  6.683330e+001 
3793750000  -3.911907e+001  6.356493e+001 
3796875000  -3.828529e+001  5.921619e+001 
3800000000  -3.646427e+001  5.478178e+001 
3803125000  -3.802058e+001  4.228812e+001 
3806250000  -3.907389e+001  3.724959e+001 
3809375000  -3.857738e+001  3.178144e+001 
3812500000  -3.831461e+001  2.326797e+001 
3815625000  -3.966583e+001  1.360145e+001 
3818750000  -4.064989e+001  1.529094e+001 
3821875000  -4.019938e+001  2.531833e+001 
3825000000  -3.829978e+001  2.245610e+001 
3828125000  -3.692767e+001  1.772414e+000 
3831250000  -3.817430e+001  -1.231496e+001 
3834375000  -4.048991e+001  -1.117781e+001 
3837500000  -4.064088e+001  -7.245883e+000 
3840625000  -3.892831e+001  -1.151892e+001 
3843750000  -3.850084e+001  -2.663828e+001 
3846875000  -3.986493e+001  -3.355334e+001 
3850000000  -4.089443e+001  -2.620438e+001 
3853125000  -4.016315e+001  -2.455076e+001 
3856250000  -3.948175e+001  -3.395919e+001 
3859375000  -3.853922e+001  -4.241310e+001 
3862500000  -3.850096e+001  -5.094079e+001 
3865625000  -3.902479e+001  -5.794694e+001 
3868750000  -3.876933e+001  -5.811139e+001 
3871875000  -3.800811e+001  -6.526984e+001 
3875000000  -3.847485e+001  -7.553798e+001 
3878125000  -3.934970e+001  -7.873334e+001 
3881250000  -3.929026e+001  -7.921130e+001 
3884375000  -3.854041e+001  -8.373580e+001 
3887500000  -3.906744e+001  -9.046948e+001 
3890625000  -3.944672e+001  -9.666335e+001 
3893750000  -3.965015e+001  -9.909103e+001 
3896875000  -4.009680e+001  -1.008658e+002 
3900000000  -3.997670e+001  -1.040583e+002 
3903125000  -3.946627e+001  -1.072882e+002 
3906250000  -3.898883e+001  -1.132888e+002 
3909375000  -3.852484e+001  -1.209106e+002 
3912500000  -3.904774e+001  -1.309349e+002 
3915625000  -4.025262e+001  -1.301869e+002 
3918750000  -4.008280e+001  -1.311319e+002 
3921875000  -3.927891e+001  -1.352103e+002 
3925000000  -3.844765e+001  -1.415912e+002 
3928125000  -3.817175e+001  -1.505336e+002 
3931250000  -3.896704e+001  -1.580748e+002 
3934375000  -3.950976e+001  -1.587951e+002 
3937500000  -4.005488e+001  -1.621121e+002 
3940625000  -4.019755e+001  -1.633898e+002 
3943750000  -3.887134e+001  -1.664099e+002 
3946875000  -3.829975e+001  -1.746490e+002 
3950000000  -3.953530e+001  1.769011e+002 
3953125000  -4.017893e+001  1.770248e+002 
3956250000  -3.889816e+001  1.760645e+002 
3959375000  -3.792503e+001  1.710952e+002 
3962500000  -3.773563e+001  1.619729e+002 
3965625000  -3.799850e+001  1.534004e+002 
3968750000  -3.857187e+001  1.444641e+002 
3971875000  -3.859061e+001  1.384460e+002 
3975000000  -3.840963e+001  1.351210e+002 
3978125000  -3.859142e+001  1.314446e+002 
3981250000  -3.848761e+001  1.242978e+002 
3984375000  -3.889021e+001  1.154629e+002 
3987500000  -3.970515e+001  1.133889e+002 
3990625000  -3.990677e+001  1.136539e+002 
3993750000  -3.990347e+001  1.072952e+002 
3996875000  -3.990070e+001  1.035597e+002 
4000000000  -4.040458e+001  9.670178e+001 
4003125000  -4.122783e+001  1.008058e+002 
4006250000  -3.929150e+001  9.698703e+001 
4009375000  -3.876683e+001  8.256587e+001 
4012500000  -4.024061e+001  7.327370e+001 
4015625000  -4.161184e+001  7.695390e+001 
4018750000  -4.131106e+001  7.578125e+001 
4021875000  -4.057169e+001  7.270946e+001 
4025000000  -4.011124e+001  6.625734e+001 
4028125000  -4.050803e+001  5.908790e+001 
4031250000  -4.083020e+001  5.610995e+001 
4034375000  -4.145200e+001  5.399746e+001 
4037500000  -4.104639e+001  5.453431e+001 
4040625000  -4.092366e+001  4.998138e+001 
4043750000  -4.097367e+001  4.661098e+001 
4046875000  -4.076361e+001  4.294822e+001 
4050000000  -4.052136e+001  3.774588e+001 
4053125000  -4.129630e+001  3.608640e+001 
4056250000  -4.138755e+001  4.046487e+001 
4059375000  -3.938364e+001  3.913010e+001 
4062500000  -3.891872e+001  2.954110e+001 
4065625000  -3.886086e+001  2.460647e+001 
4068750000  -3.825116e+001  1.671699e+001 
4071875000  -3.774454e+001  6.590299e+000 
4075000000  -3.848734e+001  9.063190e-002 
4078125000  -3.852684e+001  -4.228767e+000 
4081250000  -3.834497e+001  -9.569197e+000 
4084375000  -3.822065e+001  -2.021695e+001 
4087500000  -3.871629e+001  -2.418706e+001 
4090625000  -3.901968e+001  -2.599702e+001 
4093750000  -3.885354e+001  -2.957960e+001 
4096875000  -3.871992e+001  -4.103660e+001 
4100000000  -3.954427e+001  -4.461699e+001 
4103125000  -4.070677e+001  -4.389048e+001 
4106250000  -3.985902e+001  -4.034262e+001 
4109375000  -3.900989e+001  -4.436809e+001 
4112500000  -3.887397e+001  -5.373810e+001 
4115625000  -3.944793e+001  -6.159116e+001 
4118750000  -3.900360e+001  -6.506264e+001 
4121875000  -3.901277e+001  -7.151279e+001 
4125000000  -3.978638e+001  -7.942612e+001 
4128125000  -4.100309e+001  -7.650368e+001 
4131250000  -4.002028e+001  -7.237479e+001 
4134375000  -3.771995e+001  -8.059365e+001 
4137500000  -3.811095e+001  -1.027371e+002 
4140625000  -4.038676e+001  -1.086318e+002 
4143750000  -4.142896e+001  -1.016199e+002 
4146875000  -4.063209e+001  -9.787775e+001 
4150000000  -3.941967e+001  -1.081711e+002 
4153125000  -3.998613e+001  -1.143376e+002 
4156250000  -4.132713e+001  -1.195392e+002 
4159375000  -4.118504e+001  -1.119196e+002 
4162500000  -3.981544e+001  -1.119647e+002 
4165625000  -3.883196e+001  -1.194037e+002 
4168750000  -3.848246e+001  -1.299674e+002 
4171875000  -3.838501e+001  -1.388120e+002 
4175000000  -3.937858e+001  -1.459926e+002 
4178125000  -3.946717e+001  -1.436207e+002 
4181250000  -3.921635e+001  -1.516027e+002 
4184375000  -3.950066e+001  -1.557284e+002 
4187500000  -3.958901e+001  -1.609404e+002 
4190625000  -3.938984e+001  -1.680133e+002 
4193750000  -4.062518e+001  -1.714793e+002 
4196875000  -4.166654e+001  -1.723961e+002 
4200000000  -4.267509e+001  -1.671907e+002 
4203125000  -4.082315e+001  -1.527422e+002 
4206250000  -3.765635e+001  -1.639591e+002 
4209375000  -3.724427e+001  1.718836e+002 
4212500000  -3.971380e+001  1.647763e+002 
4215625000  -4.010680e+001  1.734227e+002 
4218750000  -3.811022e+001  1.744114e+002 
4221875000  -3.680133e+001  1.624027e+002 
4225000000  -3.778867e+001  1.518813e+002 
4228125000  -3.759779e+001  1.534827e+002 
4231250000  -3.620495e+001  1.453756e+002 
4234375000  -3.642701e+001  1.350807e+002 
4237500000  -3.622450e+001  1.290223e+002 
4240625000  -3.618019e+001  1.173804e+002 
4243750000  -3.763755e+001  1.105232e+002 
4246875000  -3.849804e+001  1.108636e+002 
4250000000  -3.827514e+001  1.096481e+002 
4253125000  -3.828878e+001  1.063356e+002 
4256250000  -3.792508e+001  1.008122e+002 
4259375000  -3.772282e+001  9.496624e+001 
4262500000  -3.809249e+001  9.168271e+001 
4265625000  -3.801365e+001  9.005368e+001 
4268750000  -3.696675e+001  8.437119e+001 
4271875000  -3.672682e+001  7.163489e+001 
4275000000  -3.656988e+001  6.487193e+001 
4278125000  -3.787579e+001  5.246125e+001 
4281250000  -3.898232e+001  5.276145e+001 
4284375000  -3.862049e+001  4.658950e+001 
4287500000  -4.014307e+001  4.640786e+001 
4290625000  -4.072348e+001  5.471371e+001 
4293750000  -3.888183e+001  5.426119e+001 
4296875000  -3.781925e+001  4.095915e+001 
4300000000  -3.917188e+001  3.158885e+001 
4303125000  -3.996527e+001  3.779540e+001 
4306250000  -3.879104e+001  3.914565e+001 
4309375000  -3.785267e+001  3.216385e+001 
4312500000  -3.771384e+001  1.981336e+001 
4315625000  -3.791476e+001  1.149022e+001 
4318750000  -3.886116e+001  7.443355e+000 
4321875000  -3.862144e+001  9.080319e+000 
4325000000  -3.814119e+001  6.233966e+000 
4328125000  -3.723252e+001  -2.513691e+000 
4331250000  -3.763218e+001  -1.474312e+001 
4334375000  -3.832632e+001  -2.008859e+001 
4337500000  -3.942017e+001  -2.022813e+001 
4340625000  -3.972231e+001  -1.707598e+001 
4343750000  -3.888713e+001  -1.850947e+001 
4346875000  -3.833027e+001  -2.709056e+001 
4350000000  -3.849048e+001  -3.658520e+001 
4353125000  -3.916928e+001  -4.419883e+001 
4356250000  -4.105873e+001  -4.001618e+001 
4359375000  -4.034038e+001  -2.710081e+001 
4362500000  -3.623493e+001  -3.358963e+001 
4365625000  -3.611059e+001  -5.259669e+001 
4368750000  -3.720470e+001  -6.047229e+001 
4371875000  -3.819116e+001  -5.919258e+001 
4375000000  -3.727972e+001  -6.427781e+001 
4378125000  -3.699121e+001  -7.313560e+001 
4381250000  -3.696685e+001  -8.130000e+001 
4384375000  -3.716199e+001  -8.698344e+001 
4387500000  -3.826278e+001  -9.378613e+001 
4390625000  -3.855549e+001  -9.298908e+001 
4393750000  -3.778928e+001  -9.333456e+001 
4396875000  -3.711385e+001  -9.814282e+001 
4400000000  -3.696943e+001  -1.078738e+002 
4403125000  -3.788235e+001  -1.169677e+002 
4406250000  -3.829031e+001  -1.203844e+002 
4409375000  -3.891633e+001  -1.253249e+002 
4412500000  -3.960788e+001  -1.270707e+002 
4415625000  -3.931194e+001  -1.241808e+002 
