!Agilent Technologies,E8363B,MY43030201,A.06.04.32
!Agilent E8363B: A.06.04.32
!Date: Tuesday, November 11, 2014 21:29:12
!Correction: S21(Response(S21)) 
!S1P File: Measurement: S21:
# Hz S  dB   R 50
3000000000  -4.051155e+001  8.796923e+001 
3003125000  -4.209915e+001  7.919350e+001 
3006250000  -4.212801e+001  7.867381e+001 
3009375000  -4.265810e+001  8.389091e+001 
3012500000  -4.171832e+001  7.877942e+001 
3015625000  -4.118373e+001  7.134312e+001 
3018750000  -4.188195e+001  7.200323e+001 
3021875000  -4.001912e+001  7.224708e+001 
3025000000  -3.883284e+001  6.876601e+001 
3028125000  -3.790920e+001  5.845343e+001 
3031250000  -3.694026e+001  4.729868e+001 
3034375000  -3.664249e+001  3.419020e+001 
3037500000  -3.745773e+001  2.281107e+001 
3040625000  -3.880861e+001  1.726341e+001 
3043750000  -3.905637e+001  1.165310e+001 
3046875000  -3.961805e+001  5.627427e+000 
3050000000  -4.105848e+001  -7.251836e-001 
3053125000  -4.058442e+001  5.417488e+000 
3056250000  -4.023326e+001  7.934473e+000 
3059375000  -3.983070e+001  5.720743e+000 
3062500000  -3.822605e+001  -4.577726e-002 
3065625000  -3.803721e+001  -8.879465e+000 
3068750000  -3.765031e+001  -1.614339e+001 
3071875000  -3.760945e+001  -1.832508e+001 
3075000000  -3.698030e+001  -2.545221e+001 
3078125000  -3.711307e+001  -3.192340e+001 
3081250000  -3.733319e+001  -3.725432e+001 
3084375000  -3.631787e+001  -4.161777e+001 
3087500000  -3.642785e+001  -4.812233e+001 
3090625000  -3.587105e+001  -6.131061e+001 
3093750000  -3.679772e+001  -6.883186e+001 
3096875000  -3.736205e+001  -7.512731e+001 
3100000000  -3.734207e+001  -7.738531e+001 
3103125000  -3.762370e+001  -8.020696e+001 
3106250000  -3.720837e+001  -8.578033e+001 
3109375000  -3.732555e+001  -9.016915e+001 
3112500000  -3.718567e+001  -9.547530e+001 
3115625000  -3.710426e+001  -1.004970e+002 
3118750000  -3.716779e+001  -1.019818e+002 
3121875000  -3.657650e+001  -1.134098e+002 
3125000000  -3.837585e+001  -1.169682e+002 
3128125000  -3.854309e+001  -1.091740e+002 
3131250000  -3.611376e+001  -1.156938e+002 
3134375000  -3.519143e+001  -1.332348e+002 
3137500000  -3.626027e+001  -1.444690e+002 
3140625000  -3.739747e+001  -1.479004e+002 
3143750000  -3.832804e+001  -1.505662e+002 
3146875000  -3.781769e+001  -1.482761e+002 
3150000000  -3.697545e+001  -1.527959e+002 
3153125000  -3.712228e+001  -1.609621e+002 
3156250000  -3.806020e+001  -1.567352e+002 
3159375000  -3.591843e+001  -1.584494e+002 
3162500000  -3.432593e+001  -1.740163e+002 
3165625000  -3.544487e+001  1.736194e+002 
3168750000  -3.553449e+001  1.726586e+002 
3171875000  -3.494636e+001  1.649768e+002 
3175000000  -3.545559e+001  1.558369e+002 
3178125000  -3.509881e+001  1.545976e+002 
3181250000  -3.438758e+001  1.464239e+002 
3184375000  -3.413889e+001  1.334081e+002 
3187500000  -3.544532e+001  1.190491e+002 
3190625000  -3.728284e+001  1.128481e+002 
3193750000  -3.771454e+001  1.187217e+002 
3196875000  -3.740486e+001  1.206981e+002 
3200000000  -3.625222e+001  1.156310e+002 
3203125000  -3.589083e+001  1.070826e+002 
3206250000  -3.613546e+001  9.871085e+001 
3209375000  -3.570221e+001  9.145741e+001 
3212500000  -3.623343e+001  8.485236e+001 
3215625000  -3.596886e+001  8.108518e+001 
3218750000  -3.683123e+001  7.113805e+001 
3221875000  -3.738897e+001  6.266734e+001 
3225000000  -3.713601e+001  6.043697e+001 
3228125000  -3.781081e+001  5.313633e+001 
3231250000  -3.829347e+001  5.090371e+001 
3234375000  -3.797935e+001  4.780360e+001 
3237500000  -3.810015e+001  4.370249e+001 
3240625000  -3.754094e+001  3.876361e+001 
3243750000  -3.765075e+001  2.845755e+001 
3246875000  -3.829700e+001  2.086712e+001 
3250000000  -3.872772e+001  1.768386e+001 
3253125000  -3.901017e+001  1.432590e+001 
3256250000  -3.851210e+001  5.764948e+000 
3259375000  -3.924038e+001  -4.341407e+000 
3262500000  -4.049253e+001  -8.554042e+000 
3265625000  -4.111654e+001  -7.095068e+000 
3268750000  -4.113967e+001  -4.158397e+000 
3271875000  -4.066200e+001  -8.028378e+000 
3275000000  -4.022232e+001  -1.637318e+001 
3278125000  -4.076772e+001  -2.199728e+001 
3281250000  -4.101127e+001  -2.323418e+001 
3284375000  -4.037569e+001  -3.069734e+001 
3287500000  -4.107025e+001  -3.445029e+001 
3290625000  -4.134772e+001  -4.000441e+001 
3293750000  -4.146513e+001  -4.555147e+001 
3296875000  -4.255100e+001  -4.803701e+001 
3300000000  -4.187647e+001  -4.729454e+001 
3303125000  -4.104666e+001  -5.419958e+001 
3306250000  -4.082245e+001  -6.153545e+001 
3309375000  -4.064910e+001  -6.951131e+001 
3312500000  -4.096452e+001  -8.168596e+001 
3315625000  -4.192352e+001  -8.884943e+001 
3318750000  -4.375165e+001  -9.249363e+001 
3321875000  -4.490387e+001  -9.019556e+001 
3325000000  -4.499818e+001  -8.331570e+001 
3328125000  -4.385532e+001  -8.476174e+001 
3331250000  -4.260627e+001  -8.016017e+001 
3334375000  -3.978686e+001  -9.426765e+001 
3337500000  -4.028593e+001  -1.150719e+002 
3340625000  -4.235461e+001  -1.254987e+002 
3343750000  -4.409702e+001  -1.232033e+002 
3346875000  -4.347636e+001  -1.256452e+002 
3350000000  -4.317153e+001  -1.275115e+002 
3353125000  -4.306865e+001  -1.342503e+002 
3356250000  -4.245411e+001  -1.438619e+002 
3359375000  -4.353477e+001  -1.556740e+002 
3362500000  -4.420012e+001  -1.607066e+002 
3365625000  -4.486309e+001  -1.639233e+002 
3368750000  -4.582848e+001  -1.673587e+002 
3371875000  -4.584994e+001  -1.713344e+002 
3375000000  -4.734832e+001  -1.774631e+002 
3378125000  -4.813088e+001  -1.772604e+002 
3381250000  -4.930353e+001  -1.656377e+002 
3384375000  -4.681610e+001  -1.516231e+002 
3387500000  -4.390359e+001  -1.714252e+002 
3390625000  -4.571564e+001  1.690666e+002 
3393750000  -4.750486e+001  1.681389e+002 
3396875000  -4.637709e+001  1.667881e+002 
3400000000  -4.632431e+001  1.526678e+002 
3403125000  -4.677659e+001  1.509995e+002 
3406250000  -4.861156e+001  1.499755e+002 
3409375000  -4.816835e+001  1.405827e+002 
3412500000  -4.914360e+001  1.337704e+002 
3415625000  -4.973268e+001  1.305925e+002 
3418750000  -5.073836e+001  1.302059e+002 
3421875000  -5.178401e+001  1.369045e+002 
3425000000  -4.992428e+001  1.363781e+002 
3428125000  -5.004740e+001  1.292901e+002 
3431250000  -5.022544e+001  1.192160e+002 
3434375000  -5.093466e+001  1.148478e+002 
3437500000  -5.225164e+001  1.160684e+002 
3440625000  -5.302600e+001  1.184369e+002 
3443750000  -5.085348e+001  1.223360e+002 
3446875000  -5.131668e+001  1.134650e+002 
3450000000  -5.030061e+001  1.056594e+002 
3453125000  -5.084591e+001  1.010902e+002 
3456250000  -5.279982e+001  9.464393e+001 
3459375000  -5.294613e+001  1.031585e+002 
3462500000  -5.266709e+001  1.003199e+002 
3465625000  -5.149150e+001  9.113314e+001 
3468750000  -5.274321e+001  9.363589e+001 
3471875000  -5.253217e+001  8.984962e+001 
3475000000  -5.166599e+001  8.943282e+001 
3478125000  -5.150347e+001  7.626193e+001 
3481250000  -5.298526e+001  7.745557e+001 
3484375000  -5.308717e+001  8.318407e+001 
3487500000  -5.253607e+001  7.703437e+001 
3490625000  -5.214498e+001  7.346722e+001 
3493750000  -5.171222e+001  6.670115e+001 
3496875000  -5.172079e+001  6.541102e+001 
3500000000  -5.313669e+001  6.013128e+001 
3503125000  -5.090106e+001  5.483039e+001 
3506250000  -5.037589e+001  5.693784e+001 
3509375000  -4.962638e+001  4.652100e+001 
3512500000  -5.086315e+001  3.242975e+001 
3515625000  -5.164260e+001  2.813663e+001 
3518750000  -5.230801e+001  2.699199e+001 
3521875000  -5.214215e+001  2.102880e+001 
3525000000  -5.266488e+001  1.300505e+001 
3528125000  -5.361029e+001  2.205352e+001 
3531250000  -5.247530e+001  1.695893e+001 
3534375000  -5.274616e+001  2.524097e+000 
3537500000  -5.395556e+001  -1.469605e+001 
3540625000  -5.506267e+001  -9.753078e+000 
3543750000  -5.658065e+001  3.552961e+000 
3546875000  -5.589600e+001  1.248802e+001 
3550000000  -5.444828e+001  6.971808e+000 
3553125000  -5.339894e+001  -1.651933e+001 
3556250000  -5.555307e+001  -1.623893e+001 
3559375000  -5.780831e+001  -1.342491e+001 
3562500000  -5.751540e+001  -1.793616e+001 
3565625000  -5.711494e+001  -3.009945e+001 
3568750000  -5.712272e+001  -2.018053e+001 
3571875000  -5.880414e+001  -1.740753e+001 
3575000000  -5.918536e+001  -1.394369e+001 
3578125000  -6.124380e+001  -2.145364e+001 
3581250000  -6.064445e+001  -2.711315e+001 
3584375000  -5.764458e+001  -1.562197e+001 
3587500000  -5.731164e+001  -2.070679e+001 
3590625000  -5.957633e+001  -3.541160e+001 
3593750000  -5.895163e+001  -2.719769e+001 
3596875000  -5.907009e+001  -2.224037e+001 
3600000000  -5.815675e+001  -2.210396e+001 
3603125000  -5.756063e+001  -3.960153e+001 
3606250000  -5.889275e+001  -1.684832e+001 
3609375000  -5.814553e+001  -2.881333e+001 
3612500000  -5.865308e+001  -3.182950e+001 
3615625000  -5.946920e+001  -3.223754e+001 
3618750000  -6.113808e+001  -6.595086e+000 
3621875000  -5.775488e+001  -3.059584e+001 
3625000000  -5.983817e+001  -3.355526e+001 
3628125000  -5.530965e+001  -1.962528e+001 
3631250000  -5.646621e+001  -3.146956e+001 
3634375000  -5.623197e+001  -2.029862e+001 
3637500000  -5.486784e+001  -2.247758e+001 
3640625000  -5.439797e+001  -1.854796e+001 
3643750000  -5.277142e+001  -2.504261e+001 
3646875000  -5.241719e+001  -4.115047e+001 
3650000000  -5.282200e+001  -4.373893e+001 
3653125000  -5.194671e+001  -4.635197e+001 
3656250000  -5.150697e+001  -4.615435e+001 
3659375000  -5.124505e+001  -4.926862e+001 
3662500000  -5.042008e+001  -5.017267e+001 
3665625000  -4.954963e+001  -5.515152e+001 
3668750000  -4.773087e+001  -5.517412e+001 
3671875000  -4.708387e+001  -6.605704e+001 
3675000000  -4.726402e+001  -7.445636e+001 
3678125000  -4.747589e+001  -7.842397e+001 
3681250000  -4.626717e+001  -8.210046e+001 
3684375000  -4.675960e+001  -8.553605e+001 
3687500000  -4.640078e+001  -9.633079e+001 
3690625000  -4.674866e+001  -1.006164e+002 
3693750000  -4.687638e+001  -1.001927e+002 
3696875000  -4.667706e+001  -9.973697e+001 
3700000000  -4.523166e+001  -1.079187e+002 
3703125000  -4.534325e+001  -1.143319e+002 
3706250000  -4.584438e+001  -1.154611e+002 
3709375000  -4.471999e+001  -1.164658e+002 
3712500000  -4.336486e+001  -1.183152e+002 
3715625000  -4.203458e+001  -1.296929e+002 
3718750000  -4.176519e+001  -1.374041e+002 
3721875000  -4.156577e+001  -1.454588e+002 
3725000000  -4.158638e+001  -1.522324e+002 
3728125000  -4.138644e+001  -1.568028e+002 
3731250000  -4.084067e+001  -1.624173e+002 
3734375000  -4.013891e+001  -1.673436e+002 
3737500000  -4.117976e+001  -1.799070e+002 
3740625000  -4.105738e+001  1.760493e+002 
3743750000  -4.062622e+001  1.697131e+002 
3746875000  -4.065101e+001  1.640853e+002 
3750000000  -4.085769e+001  1.581716e+002 
3753125000  -4.038746e+001  1.562282e+002 
3756250000  -4.081974e+001  1.521508e+002 
3759375000  -4.033333e+001  1.478856e+002 
3762500000  -4.007299e+001  1.399314e+002 
3765625000  -4.065017e+001  1.354238e+002 
3768750000  -4.002971e+001  1.339480e+002 
3771875000  -3.860955e+001  1.276060e+002 
3775000000  -3.858467e+001  1.165512e+002 
3778125000  -3.902822e+001  1.092295e+002 
3781250000  -3.897123e+001  1.074807e+002 
3784375000  -3.888171e+001  1.003630e+002 
3787500000  -3.839693e+001  9.479942e+001 
3790625000  -3.927294e+001  8.581175e+001 
3793750000  -3.926608e+001  8.286438e+001 
3796875000  -3.827869e+001  7.761181e+001 
3800000000  -3.641500e+001  7.233662e+001 
3803125000  -3.809217e+001  5.977254e+001 
3806250000  -3.879837e+001  5.689520e+001 
3809375000  -3.849642e+001  5.201544e+001 
3812500000  -3.843740e+001  4.288523e+001 
3815625000  -3.942437e+001  3.344070e+001 
3818750000  -4.068141e+001  3.462764e+001 
3821875000  -4.049989e+001  4.073746e+001 
3825000000  -3.835349e+001  3.994394e+001 
3828125000  -3.705960e+001  2.198099e+001 
3831250000  -3.832573e+001  6.542828e+000 
3834375000  -4.026885e+001  8.362727e+000 
3837500000  -4.076001e+001  1.028220e+001 
3840625000  -3.913584e+001  7.680133e+000 
3843750000  -3.837634e+001  -7.078751e+000 
3846875000  -3.979359e+001  -1.459293e+001 
3850000000  -4.099553e+001  -9.770352e+000 
3853125000  -4.019052e+001  -7.117475e+000 
3856250000  -3.962060e+001  -1.609756e+001 
3859375000  -3.891440e+001  -2.266459e+001 
3862500000  -3.866686e+001  -3.350083e+001 
3865625000  -3.915308e+001  -3.782872e+001 
3868750000  -3.888379e+001  -3.947423e+001 
3871875000  -3.826052e+001  -4.427866e+001 
3875000000  -3.854032e+001  -5.566250e+001 
3878125000  -3.960929e+001  -5.740083e+001 
3881250000  -3.943726e+001  -5.751066e+001 
3884375000  -3.905437e+001  -6.466436e+001 
3887500000  -3.923086e+001  -7.163686e+001 
3890625000  -3.952720e+001  -7.691525e+001 
3893750000  -3.982837e+001  -7.776216e+001 
3896875000  -4.018019e+001  -8.163365e+001 
3900000000  -3.994297e+001  -8.334703e+001 
3903125000  -3.932765e+001  -8.905016e+001 
3906250000  -3.918068e+001  -9.363044e+001 
3909375000  -3.832262e+001  -1.021850e+002 
3912500000  -3.897566e+001  -1.112445e+002 
3915625000  -4.039996e+001  -1.106238e+002 
3918750000  -3.998540e+001  -1.117234e+002 
3921875000  -3.941321e+001  -1.171259e+002 
3925000000  -3.853302e+001  -1.226064e+002 
3928125000  -3.822324e+001  -1.311417e+002 
3931250000  -3.895017e+001  -1.383461e+002 
3934375000  -3.967268e+001  -1.399218e+002 
3937500000  -3.994362e+001  -1.416886e+002 
3940625000  -4.022241e+001  -1.446857e+002 
3943750000  -3.876828e+001  -1.462797e+002 
3946875000  -3.856570e+001  -1.554371e+002 
3950000000  -3.961864e+001  -1.655872e+002 
3953125000  -4.002068e+001  -1.624399e+002 
3956250000  -3.894352e+001  -1.632964e+002 
3959375000  -3.801561e+001  -1.713066e+002 
3962500000  -3.779817e+001  -1.777436e+002 
3965625000  -3.780499e+001  1.718579e+002 
3968750000  -3.884142e+001  1.644303e+002 
3971875000  -3.854391e+001  1.584472e+002 
3975000000  -3.862026e+001  1.558890e+002 
3978125000  -3.858686e+001  1.506302e+002 
3981250000  -3.867587e+001  1.441292e+002 
3984375000  -3.891594e+001  1.372480e+002 
3987500000  -3.991708e+001  1.319971e+002 
3990625000  -3.994997e+001  1.322029e+002 
3993750000  -4.019188e+001  1.261168e+002 
3996875000  -3.987871e+001  1.225218e+002 
4000000000  -4.062433e+001  1.179970e+002 
4003125000  -4.128541e+001  1.193058e+002 
4006250000  -3.941309e+001  1.164301e+002 
4009375000  -3.863602e+001  1.038100e+002 
4012500000  -4.025033e+001  9.388396e+001 
4015625000  -4.170099e+001  9.280939e+001 
4018750000  -4.132172e+001  9.549554e+001 
4021875000  -4.103917e+001  9.221604e+001 
4025000000  -4.057099e+001  8.510251e+001 
4028125000  -4.056099e+001  7.867617e+001 
4031250000  -4.102052e+001  7.457745e+001 
4034375000  -4.157018e+001  7.558743e+001 
4037500000  -4.104504e+001  7.459591e+001 
4040625000  -4.100654e+001  6.967189e+001 
4043750000  -4.090743e+001  6.748010e+001 
4046875000  -4.079957e+001  6.482035e+001 
4050000000  -4.076714e+001  5.689539e+001 
4053125000  -4.157125e+001  5.712590e+001 
4056250000  -4.150229e+001  5.853365e+001 
4059375000  -3.944015e+001  5.714791e+001 
4062500000  -3.873041e+001  4.974475e+001 
4065625000  -3.896650e+001  4.311300e+001 
4068750000  -3.840501e+001  3.730846e+001 
4071875000  -3.775961e+001  2.746769e+001 
4075000000  -3.857489e+001  1.858970e+001 
4078125000  -3.914524e+001  1.642118e+001 
4081250000  -3.821572e+001  1.114925e+001 
4084375000  -3.813069e+001  2.401246e+000 
4087500000  -3.870398e+001  -5.120508e+000 
4090625000  -3.932446e+001  -6.106378e+000 
4093750000  -3.884862e+001  -9.008612e+000 
4096875000  -3.862196e+001  -1.962570e+001 
4100000000  -3.973811e+001  -2.718125e+001 
4103125000  -4.077926e+001  -2.639643e+001 
4106250000  -4.019194e+001  -2.139599e+001 
4109375000  -3.937173e+001  -2.302055e+001 
4112500000  -3.873264e+001  -3.352837e+001 
4115625000  -3.938572e+001  -4.106300e+001 
4118750000  -3.911534e+001  -4.623354e+001 
4121875000  -3.892889e+001  -5.347205e+001 
4125000000  -3.989937e+001  -5.846257e+001 
4128125000  -4.087131e+001  -5.778209e+001 
4131250000  -3.989677e+001  -5.178699e+001 
4134375000  -3.791595e+001  -6.064795e+001 
4137500000  -3.816954e+001  -8.307761e+001 
4140625000  -4.043254e+001  -8.867000e+001 
4143750000  -4.141981e+001  -8.294847e+001 
4146875000  -4.068979e+001  -7.859075e+001 
4150000000  -3.961104e+001  -8.685506e+001 
4153125000  -3.986953e+001  -9.421104e+001 
4156250000  -4.142986e+001  -9.854127e+001 
4159375000  -4.126794e+001  -9.412772e+001 
4162500000  -4.037489e+001  -9.054860e+001 
4165625000  -3.871547e+001  -9.819772e+001 
4168750000  -3.850131e+001  -1.092391e+002 
4171875000  -3.874920e+001  -1.178708e+002 
4175000000  -3.924084e+001  -1.258576e+002 
4178125000  -3.975920e+001  -1.246599e+002 
4181250000  -3.926619e+001  -1.298570e+002 
4184375000  -3.950672e+001  -1.351239e+002 
4187500000  -3.945694e+001  -1.391045e+002 
4190625000  -3.966930e+001  -1.462258e+002 
4193750000  -4.059145e+001  -1.514915e+002 
4196875000  -4.134303e+001  -1.519845e+002 
4200000000  -4.261777e+001  -1.486753e+002 
4203125000  -4.114753e+001  -1.374412e+002 
4206250000  -3.791388e+001  -1.424630e+002 
4209375000  -3.758226e+001  -1.657188e+002 
4212500000  -3.976288e+001  -1.732060e+002 
4215625000  -4.010918e+001  -1.684860e+002 
4218750000  -3.845935e+001  -1.640492e+002 
4221875000  -3.676616e+001  -1.743160e+002 
4225000000  -3.775167e+001  1.732896e+002 
4228125000  -3.798617e+001  1.725116e+002 
4231250000  -3.643786e+001  1.676670e+002 
4234375000  -3.662433e+001  1.565330e+002 
4237500000  -3.623117e+001  1.518137e+002 
4240625000  -3.647984e+001  1.407861e+002 
4243750000  -3.752140e+001  1.321975e+002 
4246875000  -3.836336e+001  1.311700e+002 
4250000000  -3.859800e+001  1.306519e+002 
4253125000  -3.832001e+001  1.275723e+002 
4256250000  -3.826945e+001  1.229222e+002 
4259375000  -3.775586e+001  1.163316e+002 
4262500000  -3.812680e+001  1.123757e+002 
4265625000  -3.808139e+001  1.106613e+002 
4268750000  -3.723803e+001  1.035755e+002 
4271875000  -3.706538e+001  9.320589e+001 
4275000000  -3.662863e+001  8.560252e+001 
4278125000  -3.781361e+001  7.154462e+001 
4281250000  -3.910583e+001  7.148131e+001 
4284375000  -3.880999e+001  6.987922e+001 
4287500000  -4.037717e+001  6.718483e+001 
4290625000  -4.090133e+001  7.432771e+001 
4293750000  -3.879411e+001  7.609166e+001 
4296875000  -3.777594e+001  6.166397e+001 
4300000000  -3.908967e+001  5.200206e+001 
4303125000  -4.034236e+001  5.379434e+001 
4306250000  -3.882572e+001  5.657670e+001 
4309375000  -3.798841e+001  5.276220e+001 
4312500000  -3.796993e+001  4.190305e+001 
4315625000  -3.804126e+001  3.416943e+001 
4318750000  -3.865408e+001  2.795398e+001 
4321875000  -3.879213e+001  3.030933e+001 
4325000000  -3.833104e+001  2.991284e+001 
4328125000  -3.746770e+001  1.839785e+001 
4331250000  -3.770627e+001  8.993572e+000 
4334375000  -3.815159e+001  1.780409e+000 
4337500000  -3.941991e+001  2.100695e+000 
4340625000  -3.999029e+001  5.100284e+000 
4343750000  -3.880775e+001  2.172417e+000 
4346875000  -3.869083e+001  -5.923167e+000 
4350000000  -3.839900e+001  -1.521312e+001 
4353125000  -3.900992e+001  -2.256305e+001 
4356250000  -4.119035e+001  -1.776637e+001 
4359375000  -4.029647e+001  -5.307774e+000 
4362500000  -3.699472e+001  -9.958036e+000 
4365625000  -3.620352e+001  -2.885169e+001 
4368750000  -3.739458e+001  -4.011172e+001 
4371875000  -3.799323e+001  -3.887398e+001 
4375000000  -3.731751e+001  -4.332338e+001 
4378125000  -3.718759e+001  -4.967807e+001 
4381250000  -3.724756e+001  -5.839911e+001 
4384375000  -3.718127e+001  -6.418008e+001 
4387500000  -3.830342e+001  -7.147691e+001 
4390625000  -3.861024e+001  -7.232700e+001 
4393750000  -3.827713e+001  -7.162769e+001 
4396875000  -3.762286e+001  -7.774235e+001 
4400000000  -3.711784e+001  -8.656080e+001 
4403125000  -3.806469e+001  -9.661784e+001 
4406250000  -3.829088e+001  -9.929585e+001 
4409375000  -3.879506e+001  -1.027313e+002 
4412500000  -3.967410e+001  -1.042537e+002 
4415625000  -3.976839e+001  -1.016775e+002 
