!Agilent Technologies,E8363B,MY43030201,A.06.04.32
!Agilent E8363B: A.06.04.32
!Date: Tuesday, November 11, 2014 21:31:04
!Correction: S21(Response(S21)) 
!S1P File: Measurement: S21:
# Hz S  dB   R 50
3000000000  -4.057511e+001  8.251836e+001 
3003125000  -4.212012e+001  7.377065e+001 
3006250000  -4.231104e+001  7.263499e+001 
3009375000  -4.284980e+001  7.802406e+001 
3012500000  -4.170906e+001  7.208228e+001 
3015625000  -4.147209e+001  6.559951e+001 
3018750000  -4.172519e+001  6.669888e+001 
3021875000  -4.024225e+001  6.725758e+001 
3025000000  -3.891723e+001  6.462669e+001 
3028125000  -3.807873e+001  5.419307e+001 
3031250000  -3.700102e+001  4.272002e+001 
3034375000  -3.680352e+001  2.809686e+001 
3037500000  -3.760489e+001  1.697002e+001 
3040625000  -3.890582e+001  1.235848e+001 
3043750000  -3.936410e+001  4.914904e+000 
3046875000  -3.967709e+001  -1.659636e-001 
3050000000  -4.095128e+001  -6.639246e+000 
3053125000  -4.054252e+001  -1.256064e+000 
3056250000  -4.038808e+001  2.886451e+000 
3059375000  -3.976797e+001  -3.960004e-001 
3062500000  -3.820500e+001  -4.002290e+000 
3065625000  -3.806768e+001  -1.340678e+001 
3068750000  -3.770170e+001  -2.208683e+001 
3071875000  -3.768467e+001  -2.370367e+001 
3075000000  -3.703414e+001  -3.060790e+001 
3078125000  -3.706301e+001  -3.627595e+001 
3081250000  -3.726969e+001  -4.251332e+001 
3084375000  -3.645401e+001  -4.772860e+001 
3087500000  -3.640742e+001  -5.412454e+001 
3090625000  -3.594250e+001  -6.625301e+001 
3093750000  -3.689859e+001  -7.419519e+001 
3096875000  -3.726595e+001  -7.919460e+001 
3100000000  -3.715605e+001  -8.288639e+001 
3103125000  -3.754311e+001  -8.611507e+001 
3106250000  -3.716589e+001  -9.139246e+001 
3109375000  -3.737208e+001  -9.538555e+001 
3112500000  -3.725871e+001  -1.014386e+002 
3115625000  -3.703029e+001  -1.054161e+002 
3118750000  -3.739294e+001  -1.075999e+002 
3121875000  -3.658101e+001  -1.193894e+002 
3125000000  -3.856141e+001  -1.226908e+002 
3128125000  -3.858236e+001  -1.149415e+002 
3131250000  -3.620861e+001  -1.204238e+002 
3134375000  -3.549121e+001  -1.383109e+002 
3137500000  -3.612429e+001  -1.508654e+002 
3140625000  -3.724481e+001  -1.533279e+002 
3143750000  -3.817094e+001  -1.567504e+002 
3146875000  -3.773722e+001  -1.532926e+002 
3150000000  -3.692664e+001  -1.569210e+002 
3153125000  -3.729127e+001  -1.665944e+002 
3156250000  -3.789483e+001  -1.613035e+002 
3159375000  -3.581092e+001  -1.633178e+002 
3162500000  -3.429495e+001  -1.787085e+002 
3165625000  -3.526974e+001  1.685043e+002 
3168750000  -3.537544e+001  1.664704e+002 
3171875000  -3.488697e+001  1.596188e+002 
3175000000  -3.556732e+001  1.499920e+002 
3178125000  -3.510235e+001  1.499003e+002 
3181250000  -3.441170e+001  1.407063e+002 
3184375000  -3.398888e+001  1.292773e+002 
3187500000  -3.517140e+001  1.147610e+002 
3190625000  -3.728972e+001  1.083011e+002 
3193750000  -3.746373e+001  1.139856e+002 
3196875000  -3.733903e+001  1.141636e+002 
3200000000  -3.629345e+001  1.100677e+002 
3203125000  -3.587892e+001  1.023129e+002 
3206250000  -3.608903e+001  9.375954e+001 
3209375000  -3.586319e+001  8.632771e+001 
3212500000  -3.621867e+001  8.008796e+001 
3215625000  -3.605666e+001  7.678788e+001 
3218750000  -3.668435e+001  6.544711e+001 
3221875000  -3.719577e+001  5.869080e+001 
3225000000  -3.703143e+001  5.440874e+001 
3228125000  -3.779807e+001  4.788651e+001 
3231250000  -3.819640e+001  4.414656e+001 
3234375000  -3.790197e+001  4.250381e+001 
3237500000  -3.810950e+001  3.805438e+001 
3240625000  -3.768287e+001  3.290828e+001 
3243750000  -3.771712e+001  2.310614e+001 
3246875000  -3.815273e+001  1.595007e+001 
3250000000  -3.880968e+001  1.283710e+001 
3253125000  -3.917398e+001  9.052796e+000 
3256250000  -3.858421e+001  4.131129e-001 
3259375000  -3.924411e+001  -9.831730e+000 
3262500000  -4.073669e+001  -1.456766e+001 
3265625000  -4.112389e+001  -1.077521e+001 
3268750000  -4.125420e+001  -1.010069e+001 
3271875000  -4.063700e+001  -1.375085e+001 
3275000000  -4.007582e+001  -2.195586e+001 
3278125000  -4.111663e+001  -2.591798e+001 
3281250000  -4.113240e+001  -2.739257e+001 
3284375000  -4.054697e+001  -3.477033e+001 
3287500000  -4.094696e+001  -3.830344e+001 
3290625000  -4.102233e+001  -4.633443e+001 
3293750000  -4.117153e+001  -5.254434e+001 
3296875000  -4.241497e+001  -5.307171e+001 
3300000000  -4.191654e+001  -5.311150e+001 
3303125000  -4.101469e+001  -5.830722e+001 
3306250000  -4.047580e+001  -6.571280e+001 
3309375000  -4.059743e+001  -7.406537e+001 
3312500000  -4.080456e+001  -8.570362e+001 
3315625000  -4.216319e+001  -9.290277e+001 
3318750000  -4.366526e+001  -9.568070e+001 
3321875000  -4.428888e+001  -9.298505e+001 
3325000000  -4.453260e+001  -8.680078e+001 
3328125000  -4.396406e+001  -8.752306e+001 
3331250000  -4.236678e+001  -8.419358e+001 
3334375000  -3.978136e+001  -9.984205e+001 
3337500000  -4.026964e+001  -1.202710e+002 
3340625000  -4.201633e+001  -1.292505e+002 
3343750000  -4.400478e+001  -1.278708e+002 
3346875000  -4.323259e+001  -1.286058e+002 
3350000000  -4.298573e+001  -1.329115e+002 
3353125000  -4.244344e+001  -1.402279e+002 
3356250000  -4.247995e+001  -1.501841e+002 
3359375000  -4.310795e+001  -1.597679e+002 
3362500000  -4.438834e+001  -1.636768e+002 
3365625000  -4.435423e+001  -1.679122e+002 
3368750000  -4.536380e+001  -1.739565e+002 
3371875000  -4.565469e+001  -1.766222e+002 
3375000000  -4.770808e+001  -1.789377e+002 
3378125000  -4.827197e+001  -1.777483e+002 
3381250000  -5.023336e+001  -1.731704e+002 
3384375000  -4.710553e+001  -1.600381e+002 
3387500000  -4.390079e+001  -1.768669e+002 
3390625000  -4.628777e+001  1.648297e+002 
3393750000  -4.719807e+001  1.639760e+002 
3396875000  -4.578724e+001  1.615717e+002 
3400000000  -4.573428e+001  1.490513e+002 
3403125000  -4.676223e+001  1.460952e+002 
3406250000  -4.762508e+001  1.409313e+002 
3409375000  -4.805671e+001  1.336812e+002 
3412500000  -4.893068e+001  1.285343e+002 
3415625000  -4.986327e+001  1.290031e+002 
3418750000  -4.968985e+001  1.270447e+002 
3421875000  -5.057787e+001  1.351110e+002 
3425000000  -4.950755e+001  1.311017e+002 
3428125000  -5.035986e+001  1.266036e+002 
3431250000  -5.011403e+001  1.154204e+002 
3434375000  -5.023957e+001  1.181907e+002 
3437500000  -5.162695e+001  1.147278e+002 
3440625000  -5.108655e+001  1.157596e+002 
3443750000  -4.991240e+001  1.200866e+002 
3446875000  -5.034473e+001  1.126370e+002 
3450000000  -5.004716e+001  1.048635e+002 
3453125000  -5.041679e+001  9.473839e+001 
3456250000  -5.199572e+001  8.957497e+001 
3459375000  -5.233380e+001  9.521712e+001 
3462500000  -5.197464e+001  9.187833e+001 
3465625000  -5.113650e+001  8.844152e+001 
3468750000  -5.151139e+001  9.096181e+001 
3471875000  -5.122242e+001  8.945499e+001 
3475000000  -5.102171e+001  7.823647e+001 
3478125000  -5.121382e+001  7.063495e+001 
3481250000  -5.218366e+001  7.598692e+001 
3484375000  -5.164048e+001  7.243985e+001 
3487500000  -5.151052e+001  7.144970e+001 
3490625000  -5.074634e+001  6.757844e+001 
3493750000  -5.124503e+001  6.163212e+001 
3496875000  -5.087969e+001  5.922425e+001 
3500000000  -5.191394e+001  5.308472e+001 
3503125000  -5.061640e+001  5.776530e+001 
3506250000  -4.944340e+001  4.633887e+001 
3509375000  -4.984619e+001  3.734483e+001 
3512500000  -5.065283e+001  2.400342e+001 
3515625000  -5.073000e+001  2.549156e+001 
3518750000  -5.215496e+001  1.773583e+001 
3521875000  -5.161848e+001  1.687621e+001 
3525000000  -5.245012e+001  5.552292e+000 
3528125000  -5.196034e+001  1.524726e+001 
3531250000  -5.109863e+001  4.575923e+000 
3534375000  -5.167526e+001  -8.444276e+000 
3537500000  -5.375993e+001  -1.791665e+001 
3540625000  -5.420059e+001  -9.939281e+000 
3543750000  -5.499899e+001  -4.950367e+000 
3546875000  -5.525430e+001  -2.618339e+000 
3550000000  -5.319596e+001  -2.704253e+000 
3553125000  -5.267512e+001  -2.144061e+001 
3556250000  -5.533484e+001  -2.867665e+001 
3559375000  -5.446395e+001  -2.158759e+001 
3562500000  -5.419765e+001  -2.925605e+001 
3565625000  -5.608975e+001  -4.462226e+001 
3568750000  -5.473000e+001  -3.523893e+001 
3571875000  -5.711382e+001  -3.688942e+001 
3575000000  -5.729781e+001  -4.337671e+001 
3578125000  -5.762468e+001  -4.754221e+001 
3581250000  -5.644929e+001  -2.904978e+001 
3584375000  -5.675827e+001  -2.747429e+001 
3587500000  -5.820155e+001  -4.186506e+001 
3590625000  -5.793096e+001  -4.527483e+001 
3593750000  -5.981164e+001  -3.806171e+001 
3596875000  -5.927880e+001  -2.625705e+001 
3600000000  -5.850001e+001  -3.661541e+001 
3603125000  -6.026119e+001  -5.390198e+001 
3606250000  -5.773352e+001  -4.659479e+001 
3609375000  -5.895106e+001  -4.665003e+001 
3612500000  -5.872767e+001  -4.342227e+001 
3615625000  -5.842181e+001  -5.319908e+001 
3618750000  -6.167707e+001  -3.686289e+001 
3621875000  -5.711380e+001  -3.944801e+001 
3625000000  -5.760002e+001  -4.121947e+001 
3628125000  -5.802079e+001  -2.946138e+001 
3631250000  -5.614745e+001  -4.745652e+001 
3634375000  -5.785657e+001  -4.255260e+001 
3637500000  -5.513181e+001  -3.020458e+001 
3640625000  -5.525629e+001  -2.699564e+001 
3643750000  -5.352828e+001  -3.478719e+001 
3646875000  -5.438486e+001  -4.870282e+001 
3650000000  -5.311903e+001  -4.897383e+001 
3653125000  -5.249446e+001  -5.595179e+001 
3656250000  -5.231799e+001  -5.188946e+001 
3659375000  -5.115596e+001  -5.746511e+001 
3662500000  -5.137436e+001  -6.104519e+001 
3665625000  -5.035866e+001  -6.596573e+001 
3668750000  -4.744883e+001  -6.688100e+001 
3671875000  -4.766032e+001  -7.241451e+001 
3675000000  -4.783929e+001  -8.424963e+001 
3678125000  -4.803734e+001  -8.104978e+001 
3681250000  -4.693490e+001  -9.093060e+001 
3684375000  -4.705123e+001  -9.549271e+001 
3687500000  -4.671471e+001  -1.032260e+002 
3690625000  -4.669744e+001  -1.082829e+002 
3693750000  -4.729479e+001  -1.074131e+002 
3696875000  -4.685041e+001  -1.043243e+002 
3700000000  -4.523888e+001  -1.168964e+002 
3703125000  -4.541093e+001  -1.219207e+002 
3706250000  -4.614511e+001  -1.218524e+002 
3709375000  -4.512951e+001  -1.222084e+002 
3712500000  -4.343662e+001  -1.277506e+002 
3715625000  -4.198677e+001  -1.370417e+002 
3718750000  -4.188556e+001  -1.438275e+002 
3721875000  -4.111759e+001  -1.534959e+002 
3725000000  -4.180965e+001  -1.592987e+002 
3728125000  -4.135119e+001  -1.622552e+002 
3731250000  -4.073844e+001  -1.682841e+002 
3734375000  -4.047589e+001  -1.742330e+002 
3737500000  -4.085474e+001  1.753554e+002 
3740625000  -4.118449e+001  1.691698e+002 
3743750000  -4.075602e+001  1.623626e+002 
3746875000  -4.106053e+001  1.556954e+002 
3750000000  -4.102920e+001  1.497368e+002 
3753125000  -4.047080e+001  1.477037e+002 
3756250000  -4.088735e+001  1.441875e+002 
3759375000  -4.055613e+001  1.403600e+002 
3762500000  -4.003090e+001  1.320889e+002 
3765625000  -4.071243e+001  1.284605e+002 
3768750000  -4.024184e+001  1.292451e+002 
3771875000  -3.862437e+001  1.208580e+002 
3775000000  -3.865847e+001  1.095314e+002 
3778125000  -3.907825e+001  1.032993e+002 
3781250000  -3.900297e+001  9.861476e+001 
3784375000  -3.865476e+001  9.307311e+001 
3787500000  -3.858622e+001  8.879578e+001 
3790625000  -3.924125e+001  7.929350e+001 
3793750000  -3.924866e+001  7.578742e+001 
3796875000  -3.851786e+001  7.002860e+001 
3800000000  -3.639634e+001  6.603276e+001 
3803125000  -3.800396e+001  5.213291e+001 
3806250000  -3.907505e+001  4.880647e+001 
3809375000  -3.841988e+001  4.494750e+001 
3812500000  -3.858358e+001  3.415103e+001 
3815625000  -3.962519e+001  2.671033e+001 
3818750000  -4.089110e+001  2.726540e+001 
3821875000  -4.030627e+001  3.648672e+001 
3825000000  -3.822233e+001  3.306387e+001 
3828125000  -3.697644e+001  1.513590e+001 
3831250000  -3.810777e+001  6.174606e-001 
3834375000  -4.048875e+001  5.292906e-001 
3837500000  -4.046140e+001  3.555837e+000 
3840625000  -3.912476e+001  -7.399940e-001 
3843750000  -3.851772e+001  -1.397620e+001 
3846875000  -3.992580e+001  -2.183413e+001 
3850000000  -4.053510e+001  -1.718265e+001 
3853125000  -4.020323e+001  -1.532875e+001 
3856250000  -3.960143e+001  -2.245601e+001 
3859375000  -3.850371e+001  -2.833556e+001 
3862500000  -3.855045e+001  -3.946933e+001 
3865625000  -3.888588e+001  -4.540145e+001 
3868750000  -3.866329e+001  -4.490033e+001 
3871875000  -3.794697e+001  -5.281778e+001 
3875000000  -3.852226e+001  -6.201839e+001 
3878125000  -3.936724e+001  -6.498484e+001 
3881250000  -3.913313e+001  -6.566846e+001 
3884375000  -3.839410e+001  -7.236050e+001 
3887500000  -3.887309e+001  -7.907964e+001 
3890625000  -3.950756e+001  -8.440781e+001 
3893750000  -3.964787e+001  -8.717606e+001 
3896875000  -4.013649e+001  -8.867740e+001 
3900000000  -3.982666e+001  -9.166017e+001 
3903125000  -3.942529e+001  -9.580179e+001 
3906250000  -3.892959e+001  -1.010629e+002 
3909375000  -3.816148e+001  -1.088299e+002 
3912500000  -3.916502e+001  -1.166607e+002 
3915625000  -4.036316e+001  -1.175320e+002 
3918750000  -4.004151e+001  -1.200531e+002 
3921875000  -3.951286e+001  -1.225478e+002 
3925000000  -3.841541e+001  -1.281071e+002 
3928125000  -3.799454e+001  -1.397019e+002 
3931250000  -3.887874e+001  -1.447096e+002 
3934375000  -3.954237e+001  -1.465392e+002 
3937500000  -4.005973e+001  -1.477794e+002 
3940625000  -4.010681e+001  -1.504378e+002 
3943750000  -3.894724e+001  -1.520773e+002 
3946875000  -3.813900e+001  -1.608550e+002 
3950000000  -3.935562e+001  -1.710471e+002 
3953125000  -3.970911e+001  -1.678659e+002 
3956250000  -3.865096e+001  -1.695619e+002 
3959375000  -3.770122e+001  -1.768361e+002 
3962500000  -3.742980e+001  1.737148e+002 
3965625000  -3.784261e+001  1.661806e+002 
3968750000  -3.844141e+001  1.583531e+002 
3971875000  -3.871274e+001  1.530241e+002 
3975000000  -3.830803e+001  1.495382e+002 
3978125000  -3.836517e+001  1.443982e+002 
3981250000  -3.843746e+001  1.364704e+002 
3984375000  -3.877268e+001  1.298378e+002 
3987500000  -3.941510e+001  1.282848e+002 
3990625000  -3.969270e+001  1.250269e+002 
3993750000  -3.989967e+001  1.202499e+002 
3996875000  -3.969341e+001  1.150996e+002 
4000000000  -4.043468e+001  1.113800e+002 
4003125000  -4.092481e+001  1.130218e+002 
4006250000  -3.925487e+001  1.122252e+002 
4009375000  -3.854510e+001  9.746325e+001 
4012500000  -3.983400e+001  9.001274e+001 
4015625000  -4.152068e+001  8.879865e+001 
4018750000  -4.116200e+001  8.832119e+001 
4021875000  -4.026992e+001  8.567334e+001 
4025000000  -4.018795e+001  7.966247e+001 
4028125000  -4.032722e+001  7.456447e+001 
4031250000  -4.094977e+001  6.865078e+001 
4034375000  -4.141018e+001  6.947244e+001 
4037500000  -4.086517e+001  6.912127e+001 
4040625000  -4.054586e+001  6.356515e+001 
4043750000  -4.099015e+001  6.101487e+001 
4046875000  -4.055477e+001  5.869113e+001 
4050000000  -4.057192e+001  5.275084e+001 
4053125000  -4.095861e+001  4.679491e+001 
4056250000  -4.152430e+001  5.448244e+001 
4059375000  -3.915532e+001  5.135906e+001 
4062500000  -3.876141e+001  4.217127e+001 
4065625000  -3.873859e+001  3.859401e+001 
4068750000  -3.808014e+001  3.168549e+001 
4071875000  -3.759246e+001  2.056985e+001 
4075000000  -3.814893e+001  1.323475e+001 
4078125000  -3.828737e+001  9.046176e+000 
4081250000  -3.817253e+001  5.260806e+000 
4084375000  -3.764634e+001  -4.486602e+000 
4087500000  -3.841891e+001  -1.147781e+001 
4090625000  -3.884118e+001  -1.379860e+001 
4093750000  -3.848991e+001  -1.695471e+001 
4096875000  -3.832824e+001  -2.692811e+001 
4100000000  -3.909206e+001  -3.170162e+001 
4103125000  -4.019368e+001  -3.108104e+001 
4106250000  -3.982098e+001  -2.840594e+001 
4109375000  -3.868750e+001  -3.191444e+001 
4112500000  -3.827893e+001  -4.166083e+001 
4115625000  -3.900944e+001  -4.773563e+001 
4118750000  -3.862929e+001  -5.345019e+001 
4121875000  -3.867386e+001  -6.106496e+001 
4125000000  -3.973819e+001  -6.479861e+001 
4128125000  -4.049030e+001  -6.307356e+001 
4131250000  -3.930676e+001  -5.920637e+001 
4134375000  -3.742152e+001  -6.925991e+001 
4137500000  -3.762148e+001  -8.869926e+001 
4140625000  -3.971801e+001  -9.468307e+001 
4143750000  -4.113473e+001  -8.985649e+001 
4146875000  -4.013714e+001  -8.759295e+001 
4150000000  -3.951039e+001  -9.161672e+001 
4153125000  -3.974691e+001  -1.016399e+002 
4156250000  -4.094876e+001  -1.048123e+002 
4159375000  -4.057867e+001  -1.011722e+002 
4162500000  -3.973965e+001  -9.927545e+001 
4165625000  -3.825201e+001  -1.052173e+002 
4168750000  -3.784934e+001  -1.154836e+002 
4171875000  -3.802659e+001  -1.255986e+002 
4175000000  -3.887048e+001  -1.324543e+002 
4178125000  -3.921835e+001  -1.324406e+002 
4181250000  -3.881520e+001  -1.364079e+002 
4184375000  -3.898380e+001  -1.431125e+002 
4187500000  -3.908150e+001  -1.449390e+002 
4190625000  -3.894750e+001  -1.540860e+002 
4193750000  -3.991498e+001  -1.595562e+002 
4196875000  -4.069546e+001  -1.615753e+002 
4200000000  -4.197663e+001  -1.538647e+002 
4203125000  -4.068352e+001  -1.427832e+002 
4206250000  -3.725139e+001  -1.500241e+002 
4209375000  -3.663916e+001  -1.739184e+002 
4212500000  -3.900637e+001  1.798666e+002 
4215625000  -3.946333e+001  -1.743827e+002 
4218750000  -3.765943e+001  -1.736253e+002 
4221875000  -3.616112e+001  1.770302e+002 
4225000000  -3.748946e+001  1.645638e+002 
4228125000  -3.720678e+001  1.661297e+002 
4231250000  -3.601975e+001  1.585910e+002 
4234375000  -3.595175e+001  1.480750e+002 
4237500000  -3.550042e+001  1.430001e+002 
4240625000  -3.584652e+001  1.316242e+002 
4243750000  -3.698405e+001  1.240082e+002 
4246875000  -3.798798e+001  1.235312e+002 
4250000000  -3.780227e+001  1.228018e+002 
4253125000  -3.751660e+001  1.193182e+002 
4256250000  -3.752999e+001  1.146005e+002 
4259375000  -3.726993e+001  1.094212e+002 
4262500000  -3.744925e+001  1.036444e+002 
4265625000  -3.730279e+001  1.020855e+002 
4268750000  -3.643605e+001  9.503346e+001 
4271875000  -3.624290e+001  8.506261e+001 
4275000000  -3.578332e+001  7.706503e+001 
4278125000  -3.698732e+001  6.403446e+001 
4281250000  -3.830351e+001  6.448303e+001 
4284375000  -3.826503e+001  6.005697e+001 
4287500000  -3.956388e+001  5.591279e+001 
4290625000  -4.000614e+001  6.623698e+001 
4293750000  -3.827002e+001  6.852483e+001 
4296875000  -3.718552e+001  5.372051e+001 
4300000000  -3.851771e+001  4.404762e+001 
4303125000  -3.901084e+001  4.674043e+001 
4306250000  -3.807291e+001  5.059370e+001 
4309375000  -3.716145e+001  4.243235e+001 
4312500000  -3.703392e+001  3.127454e+001 
4315625000  -3.742688e+001  2.408582e+001 
4318750000  -3.790659e+001  1.890959e+001 
4321875000  -3.815161e+001  2.100788e+001 
4325000000  -3.751931e+001  1.835550e+001 
4328125000  -3.664927e+001  9.610032e+000 
4331250000  -3.708384e+001  -1.345527e+000 
4334375000  -3.795288e+001  -8.520501e+000 
4337500000  -3.901998e+001  -7.860734e+000 
4340625000  -3.896973e+001  -3.118075e+000 
4343750000  -3.818348e+001  -7.741401e+000 
4346875000  -3.772692e+001  -1.747624e+001 
4350000000  -3.767008e+001  -2.507154e+001 
4353125000  -3.826250e+001  -3.118673e+001 
4356250000  -4.040314e+001  -2.727176e+001 
4359375000  -3.960140e+001  -1.323763e+001 
4362500000  -3.608899e+001  -2.258896e+001 
4365625000  -3.539221e+001  -3.970836e+001 
4368750000  -3.639974e+001  -5.059527e+001 
4371875000  -3.735445e+001  -5.100280e+001 
4375000000  -3.668338e+001  -5.424709e+001 
4378125000  -3.636737e+001  -6.046024e+001 
4381250000  -3.659549e+001  -6.976501e+001 
4384375000  -3.665203e+001  -7.459499e+001 
4387500000  -3.751744e+001  -8.195157e+001 
4390625000  -3.801473e+001  -8.294527e+001 
4393750000  -3.749356e+001  -8.217136e+001 
4396875000  -3.673959e+001  -8.692828e+001 
4400000000  -3.637557e+001  -9.743004e+001 
4403125000  -3.728334e+001  -1.062801e+002 
4406250000  -3.778434e+001  -1.090995e+002 
4409375000  -3.796859e+001  -1.138092e+002 
4412500000  -3.922108e+001  -1.164844e+002 
4415625000  -3.907849e+001  -1.125761e+002 
