!Agilent Technologies,E8363B,MY43030201,A.06.04.32
!Agilent E8363B: A.06.04.32
!Date: Tuesday, November 11, 2014 21:37:01
!Correction: S21(Response(S21)) 
!S1P File: Measurement: S21:
# Hz S  dB   R 50
3000000000  -4.061084e+001  7.101197e+001 
3003125000  -4.210234e+001  6.390508e+001 
3006250000  -4.217281e+001  6.379046e+001 
3009375000  -4.268047e+001  6.720052e+001 
3012500000  -4.148859e+001  6.114551e+001 
3015625000  -4.154263e+001  5.592284e+001 
3018750000  -4.177380e+001  5.602224e+001 
3021875000  -4.000693e+001  5.700543e+001 
3025000000  -3.897775e+001  5.309470e+001 
3028125000  -3.801756e+001  4.229871e+001 
3031250000  -3.701841e+001  2.999707e+001 
3034375000  -3.676209e+001  1.717671e+001 
3037500000  -3.766205e+001  5.841678e+000 
3040625000  -3.891335e+001  1.491429e+000 
3043750000  -3.925462e+001  -5.812559e+000 
3046875000  -3.991428e+001  -1.059843e+001 
3050000000  -4.094728e+001  -1.680798e+001 
3053125000  -4.043197e+001  -1.021065e+001 
3056250000  -4.053915e+001  -9.096720e+000 
3059375000  -3.974075e+001  -9.802197e+000 
3062500000  -3.822861e+001  -1.526420e+001 
3065625000  -3.788454e+001  -2.535771e+001 
3068750000  -3.759384e+001  -3.269534e+001 
3071875000  -3.763398e+001  -3.442509e+001 
3075000000  -3.702310e+001  -4.155008e+001 
3078125000  -3.711949e+001  -4.855758e+001 
3081250000  -3.725321e+001  -5.360009e+001 
3084375000  -3.629514e+001  -5.940865e+001 
3087500000  -3.642843e+001  -6.586189e+001 
3090625000  -3.597643e+001  -7.790363e+001 
3093750000  -3.703996e+001  -8.502231e+001 
3096875000  -3.740657e+001  -9.107188e+001 
3100000000  -3.725082e+001  -9.374941e+001 
3103125000  -3.751577e+001  -9.676298e+001 
3106250000  -3.717949e+001  -1.022281e+002 
3109375000  -3.724612e+001  -1.061429e+002 
3112500000  -3.711886e+001  -1.129130e+002 
3115625000  -3.714909e+001  -1.163905e+002 
3118750000  -3.736232e+001  -1.197684e+002 
3121875000  -3.664558e+001  -1.305855e+002 
3125000000  -3.856046e+001  -1.336756e+002 
3128125000  -3.835064e+001  -1.270747e+002 
3131250000  -3.604319e+001  -1.327238e+002 
3134375000  -3.545694e+001  -1.499148e+002 
3137500000  -3.613458e+001  -1.621524e+002 
3140625000  -3.743403e+001  -1.652136e+002 
3143750000  -3.812849e+001  -1.672186e+002 
3146875000  -3.751422e+001  -1.649361e+002 
3150000000  -3.684813e+001  -1.692454e+002 
3153125000  -3.714665e+001  -1.773595e+002 
3156250000  -3.795198e+001  -1.724634e+002 
3159375000  -3.560859e+001  -1.756090e+002 
3162500000  -3.414854e+001  1.696361e+002 
3165625000  -3.555759e+001  1.569066e+002 
3168750000  -3.538380e+001  1.555094e+002 
3171875000  -3.483326e+001  1.484948e+002 
3175000000  -3.550272e+001  1.387324e+002 
3178125000  -3.497358e+001  1.375339e+002 
3181250000  -3.438786e+001  1.295953e+002 
3184375000  -3.406970e+001  1.178592e+002 
3187500000  -3.544471e+001  1.028892e+002 
3190625000  -3.721092e+001  9.615224e+001 
3193750000  -3.747654e+001  1.014430e+002 
3196875000  -3.743552e+001  1.033034e+002 
3200000000  -3.611467e+001  9.736623e+001 
3203125000  -3.582079e+001  8.944871e+001 
3206250000  -3.606326e+001  8.209241e+001 
3209375000  -3.571806e+001  7.423488e+001 
3212500000  -3.624650e+001  6.800810e+001 
3215625000  -3.605274e+001  6.543399e+001 
3218750000  -3.696725e+001  5.339998e+001 
3221875000  -3.714488e+001  4.703929e+001 
3225000000  -3.698929e+001  4.218907e+001 
3228125000  -3.773967e+001  3.535841e+001 
3231250000  -3.826138e+001  3.366415e+001 
3234375000  -3.788282e+001  3.022464e+001 
3237500000  -3.799368e+001  2.701444e+001 
3240625000  -3.761942e+001  2.086814e+001 
3243750000  -3.767651e+001  1.035404e+001 
3246875000  -3.818699e+001  4.302769e+000 
3250000000  -3.868800e+001  1.416861e-001 
3253125000  -3.894538e+001  -2.735710e+000 
3256250000  -3.842849e+001  -1.157258e+001 
3259375000  -3.903162e+001  -2.223303e+001 
3262500000  -4.052768e+001  -2.539362e+001 
3265625000  -4.112056e+001  -2.235940e+001 
3268750000  -4.112998e+001  -2.164415e+001 
3271875000  -4.067888e+001  -2.588706e+001 
3275000000  -4.028645e+001  -3.407385e+001 
3278125000  -4.089476e+001  -3.936342e+001 
3281250000  -4.101468e+001  -4.072046e+001 
3284375000  -4.042661e+001  -4.691233e+001 
3287500000  -4.102139e+001  -5.147675e+001 
3290625000  -4.108627e+001  -5.961877e+001 
3293750000  -4.135495e+001  -6.430679e+001 
3296875000  -4.261877e+001  -6.482713e+001 
3300000000  -4.175946e+001  -6.492584e+001 
3303125000  -4.083141e+001  -7.194719e+001 
3306250000  -4.099877e+001  -7.943694e+001 
3309375000  -4.048612e+001  -8.591891e+001 
3312500000  -4.097336e+001  -9.885942e+001 
3315625000  -4.227076e+001  -1.070109e+002 
3318750000  -4.379774e+001  -1.108667e+002 
3321875000  -4.509509e+001  -1.065355e+002 
3325000000  -4.501035e+001  -9.912725e+001 
3328125000  -4.393199e+001  -9.956450e+001 
3331250000  -4.196479e+001  -9.710688e+001 
3334375000  -3.965974e+001  -1.116321e+002 
3337500000  -4.039359e+001  -1.325235e+002 
3340625000  -4.229138e+001  -1.415094e+002 
3343750000  -4.394382e+001  -1.399558e+002 
3346875000  -4.346076e+001  -1.426700e+002 
3350000000  -4.285921e+001  -1.456938e+002 
3353125000  -4.275055e+001  -1.507802e+002 
3356250000  -4.231296e+001  -1.606291e+002 
3359375000  -4.328925e+001  -1.734312e+002 
3362500000  -4.426574e+001  -1.774587e+002 
3365625000  -4.506256e+001  1.777286e+002 
3368750000  -4.545762e+001  1.748396e+002 
3371875000  -4.599899e+001  1.702981e+002 
3375000000  -4.728057e+001  1.668925e+002 
3378125000  -4.865176e+001  1.668503e+002 
3381250000  -4.928117e+001  1.756941e+002 
3384375000  -4.647565e+001  -1.707778e+002 
3387500000  -4.387449e+001  1.690831e+002 
3390625000  -4.674822e+001  1.503927e+002 
3393750000  -4.704543e+001  1.498454e+002 
3396875000  -4.577482e+001  1.484555e+002 
3400000000  -4.652647e+001  1.368141e+002 
3403125000  -4.702612e+001  1.337693e+002 
3406250000  -4.775258e+001  1.264281e+002 
3409375000  -4.771556e+001  1.196514e+002 
3412500000  -4.904128e+001  1.169436e+002 
3415625000  -4.983820e+001  1.146088e+002 
3418750000  -5.044307e+001  1.140645e+002 
3421875000  -5.098018e+001  1.151175e+002 
3425000000  -4.981977e+001  1.193701e+002 
3428125000  -4.949556e+001  1.160342e+002 
3431250000  -5.001223e+001  1.090344e+002 
3434375000  -5.082535e+001  9.794633e+001 
3437500000  -5.162550e+001  1.056332e+002 
3440625000  -5.205462e+001  1.015437e+002 
3443750000  -5.067432e+001  1.083531e+002 
3446875000  -5.060075e+001  9.805505e+001 
3450000000  -5.003302e+001  9.087461e+001 
3453125000  -5.023106e+001  8.073997e+001 
3456250000  -5.222130e+001  7.981352e+001 
3459375000  -5.341914e+001  8.663673e+001 
3462500000  -5.179383e+001  8.392320e+001 
3465625000  -5.090966e+001  7.824995e+001 
3468750000  -5.256294e+001  7.829573e+001 
3471875000  -5.168634e+001  7.509317e+001 
3475000000  -5.110189e+001  7.036549e+001 
3478125000  -5.154713e+001  5.761642e+001 
3481250000  -5.218528e+001  6.341609e+001 
3484375000  -5.239717e+001  6.053579e+001 
3487500000  -5.165086e+001  6.023294e+001 
3490625000  -5.093796e+001  4.968687e+001 
3493750000  -5.215031e+001  4.692132e+001 
3496875000  -5.178610e+001  4.420857e+001 
3500000000  -5.269455e+001  4.733471e+001 
3503125000  -5.145093e+001  4.696911e+001 
3506250000  -4.948903e+001  3.780375e+001 
3509375000  -4.902408e+001  2.243268e+001 
3512500000  -5.066529e+001  9.744677e+000 
3515625000  -5.147466e+001  7.530545e+000 
3518750000  -5.208166e+001  6.828027e+000 
3521875000  -5.160809e+001  -1.559330e-001 
3525000000  -5.266986e+001  -5.356165e+000 
3528125000  -5.220881e+001  4.510685e-001 
3531250000  -5.205143e+001  -4.738274e+000 
3534375000  -5.351182e+001  -1.866593e+001 
3537500000  -5.351453e+001  -3.045997e+001 
3540625000  -5.503114e+001  -2.818148e+001 
3543750000  -5.641980e+001  -1.865928e+001 
3546875000  -5.607217e+001  -9.608672e+000 
3550000000  -5.456491e+001  -1.957523e+001 
3553125000  -5.375461e+001  -3.203819e+001 
3556250000  -5.472924e+001  -3.324776e+001 
3559375000  -5.542698e+001  -4.281629e+001 
3562500000  -5.594206e+001  -4.508129e+001 
3565625000  -5.751602e+001  -4.167954e+001 
3568750000  -5.630275e+001  -4.034344e+001 
3571875000  -5.683047e+001  -4.612055e+001 
3575000000  -5.891273e+001  -4.626798e+001 
3578125000  -5.823986e+001  -4.645024e+001 
3581250000  -5.884772e+001  -5.283736e+001 
3584375000  -5.866631e+001  -3.688937e+001 
3587500000  -5.658560e+001  -4.958677e+001 
3590625000  -6.095002e+001  -4.843586e+001 
3593750000  -6.071289e+001  -4.375348e+001 
3596875000  -5.868511e+001  -4.121154e+001 
3600000000  -5.767906e+001  -4.802784e+001 
3603125000  -5.857451e+001  -5.611988e+001 
3606250000  -5.599216e+001  -5.347284e+001 
3609375000  -5.799894e+001  -5.017744e+001 
3612500000  -5.960899e+001  -5.020275e+001 
3615625000  -5.830446e+001  -5.495349e+001 
3618750000  -5.955523e+001  -4.856300e+001 
3621875000  -5.790210e+001  -5.233463e+001 
3625000000  -5.870246e+001  -5.317426e+001 
3628125000  -5.596008e+001  -4.496459e+001 
3631250000  -5.576053e+001  -5.056735e+001 
3634375000  -5.720647e+001  -5.025926e+001 
3637500000  -5.503663e+001  -4.513097e+001 
3640625000  -5.469991e+001  -3.598844e+001 
3643750000  -5.356423e+001  -4.765601e+001 
3646875000  -5.340254e+001  -6.186023e+001 
3650000000  -5.283150e+001  -5.237914e+001 
3653125000  -5.224810e+001  -6.190718e+001 
3656250000  -5.237041e+001  -6.647193e+001 
3659375000  -5.143119e+001  -6.531845e+001 
3662500000  -5.090820e+001  -7.583038e+001 
3665625000  -5.002375e+001  -7.348135e+001 
3668750000  -4.802282e+001  -7.477310e+001 
3671875000  -4.712684e+001  -8.570979e+001 
3675000000  -4.718512e+001  -9.556433e+001 
3678125000  -4.726722e+001  -9.899065e+001 
3681250000  -4.681626e+001  -1.037127e+002 
3684375000  -4.697750e+001  -1.086113e+002 
3687500000  -4.717041e+001  -1.170156e+002 
3690625000  -4.645409e+001  -1.197950e+002 
3693750000  -4.683846e+001  -1.198606e+002 
3696875000  -4.647228e+001  -1.195924e+002 
3700000000  -4.505922e+001  -1.278051e+002 
3703125000  -4.554978e+001  -1.352909e+002 
3706250000  -4.567021e+001  -1.364841e+002 
3709375000  -4.455720e+001  -1.349294e+002 
3712500000  -4.349564e+001  -1.424239e+002 
3715625000  -4.196415e+001  -1.483799e+002 
3718750000  -4.199374e+001  -1.558622e+002 
3721875000  -4.106652e+001  -1.662481e+002 
3725000000  -4.164850e+001  -1.734590e+002 
3728125000  -4.127206e+001  -1.762605e+002 
3731250000  -4.070863e+001  1.783495e+002 
3734375000  -3.999629e+001  1.702935e+002 
3737500000  -4.078805e+001  1.611255e+002 
3740625000  -4.089580e+001  1.572148e+002 
3743750000  -4.030528e+001  1.484882e+002 
3746875000  -4.077349e+001  1.417054e+002 
3750000000  -4.107202e+001  1.375123e+002 
3753125000  -4.061974e+001  1.361307e+002 
3756250000  -4.075624e+001  1.296142e+002 
3759375000  -4.045321e+001  1.257869e+002 
3762500000  -3.988607e+001  1.179016e+002 
3765625000  -4.066613e+001  1.156217e+002 
3768750000  -4.008167e+001  1.149882e+002 
3771875000  -3.819683e+001  1.079230e+002 
3775000000  -3.834437e+001  9.569127e+001 
3778125000  -3.911615e+001  8.964715e+001 
3781250000  -3.894140e+001  8.600158e+001 
3784375000  -3.881256e+001  7.998601e+001 
3787500000  -3.870015e+001  7.386375e+001 
3790625000  -3.898753e+001  6.392978e+001 
3793750000  -3.908098e+001  6.028605e+001 
3796875000  -3.831709e+001  5.724008e+001 
3800000000  -3.631702e+001  5.226373e+001 
3803125000  -3.790836e+001  3.935077e+001 
3806250000  -3.893890e+001  3.541037e+001 
3809375000  -3.857150e+001  3.104654e+001 
3812500000  -3.854518e+001  2.182776e+001 
3815625000  -3.980175e+001  1.229376e+001 
3818750000  -4.085868e+001  1.384343e+001 
3821875000  -3.998248e+001  2.165452e+001 
3825000000  -3.804847e+001  1.937274e+001 
3828125000  -3.693259e+001  1.043338e+000 
3831250000  -3.828259e+001  -1.163806e+001 
3834375000  -4.059769e+001  -1.370033e+001 
3837500000  -4.060064e+001  -1.028874e+001 
3840625000  -3.885198e+001  -1.364652e+001 
3843750000  -3.815175e+001  -2.931237e+001 
3846875000  -3.979428e+001  -3.659581e+001 
3850000000  -4.072836e+001  -2.881918e+001 
3853125000  -3.984962e+001  -2.694425e+001 
3856250000  -3.931917e+001  -3.732169e+001 
3859375000  -3.845762e+001  -4.294437e+001 
3862500000  -3.828274e+001  -5.507637e+001 
3865625000  -3.904391e+001  -5.843362e+001 
3868750000  -3.865114e+001  -5.857836e+001 
3871875000  -3.789447e+001  -6.654243e+001 
3875000000  -3.854879e+001  -7.780119e+001 
3878125000  -3.935163e+001  -8.056584e+001 
3881250000  -3.918769e+001  -7.980347e+001 
3884375000  -3.867963e+001  -8.904616e+001 
3887500000  -3.902238e+001  -9.319688e+001 
3890625000  -3.964418e+001  -9.959945e+001 
3893750000  -3.992711e+001  -9.990368e+001 
3896875000  -4.010163e+001  -1.013477e+002 
3900000000  -3.971164e+001  -1.064423e+002 
3903125000  -3.927711e+001  -1.102082e+002 
3906250000  -3.891857e+001  -1.153466e+002 
3909375000  -3.825005e+001  -1.231772e+002 
3912500000  -3.913155e+001  -1.323173e+002 
3915625000  -4.013070e+001  -1.322444e+002 
3918750000  -3.989205e+001  -1.327571e+002 
3921875000  -3.935414e+001  -1.372549e+002 
3925000000  -3.854072e+001  -1.434473e+002 
3928125000  -3.821334e+001  -1.534969e+002 
3931250000  -3.914747e+001  -1.593996e+002 
3934375000  -3.955503e+001  -1.615248e+002 
3937500000  -4.009400e+001  -1.631187e+002 
3940625000  -3.964367e+001  -1.648508e+002 
3943750000  -3.886089e+001  -1.684669e+002 
3946875000  -3.835870e+001  -1.770564e+002 
3950000000  -3.967234e+001  1.725900e+002 
3953125000  -3.999030e+001  1.766387e+002 
3956250000  -3.888799e+001  1.756693e+002 
3959375000  -3.770765e+001  1.685375e+002 
3962500000  -3.773452e+001  1.596402e+002 
3965625000  -3.765534e+001  1.494502e+002 
3968750000  -3.872619e+001  1.436364e+002 
3971875000  -3.834148e+001  1.364371e+002 
3975000000  -3.826157e+001  1.339472e+002 
3978125000  -3.843562e+001  1.294951e+002 
3981250000  -3.845494e+001  1.220589e+002 
3984375000  -3.927195e+001  1.152516e+002 
3987500000  -3.951503e+001  1.116952e+002 
3990625000  -3.986764e+001  1.105810e+002 
3993750000  -4.013208e+001  1.050032e+002 
3996875000  -3.983258e+001  1.009399e+002 
4000000000  -4.090330e+001  9.526217e+001 
4003125000  -4.102667e+001  9.712377e+001 
4006250000  -3.939745e+001  9.600548e+001 
4009375000  -3.852591e+001  8.126970e+001 
4012500000  -4.035338e+001  7.332786e+001 
4015625000  -4.124752e+001  7.131553e+001 
4018750000  -4.115092e+001  7.389653e+001 
4021875000  -4.051960e+001  6.958363e+001 
4025000000  -4.059845e+001  6.431532e+001 
4028125000  -4.054949e+001  5.829840e+001 
4031250000  -4.115898e+001  5.209842e+001 
4034375000  -4.143324e+001  5.138848e+001 
4037500000  -4.097418e+001  5.171017e+001 
4040625000  -4.103675e+001  4.736055e+001 
4043750000  -4.100253e+001  4.509692e+001 
4046875000  -4.083918e+001  4.096818e+001 
4050000000  -4.045881e+001  3.613119e+001 
4053125000  -4.135156e+001  3.259217e+001 
4056250000  -4.148746e+001  3.862375e+001 
4059375000  -3.940826e+001  3.453493e+001 
4062500000  -3.873591e+001  2.705022e+001 
4065625000  -3.872858e+001  2.168975e+001 
4068750000  -3.803465e+001  1.441923e+001 
4071875000  -3.774608e+001  4.673700e+000 
4075000000  -3.836039e+001  -3.392320e+000 
4078125000  -3.867313e+001  -5.670034e+000 
4081250000  -3.816375e+001  -1.185430e+001 
4084375000  -3.806186e+001  -2.176165e+001 
4087500000  -3.876004e+001  -2.675502e+001 
4090625000  -3.924898e+001  -2.803207e+001 
4093750000  -3.880408e+001  -3.329298e+001 
4096875000  -3.866454e+001  -4.154678e+001 
4100000000  -3.976978e+001  -4.854825e+001 
4103125000  -4.070358e+001  -4.631808e+001 
4106250000  -4.008853e+001  -4.256545e+001 
4109375000  -3.912989e+001  -4.711892e+001 
4112500000  -3.883789e+001  -5.670863e+001 
4115625000  -3.928379e+001  -6.270741e+001 
4118750000  -3.909837e+001  -6.801986e+001 
4121875000  -3.912516e+001  -7.536158e+001 
4125000000  -3.994737e+001  -8.026885e+001 
4128125000  -4.139135e+001  -7.940715e+001 
4131250000  -3.953847e+001  -7.401221e+001 
4134375000  -3.744253e+001  -8.550470e+001 
4137500000  -3.820430e+001  -1.036788e+002 
4140625000  -4.055133e+001  -1.116576e+002 
4143750000  -4.149314e+001  -1.028652e+002 
4146875000  -4.076787e+001  -1.003884e+002 
4150000000  -3.975492e+001  -1.098289e+002 
4153125000  -3.986417e+001  -1.183801e+002 
4156250000  -4.126289e+001  -1.213453e+002 
4159375000  -4.095816e+001  -1.146123e+002 
4162500000  -3.977709e+001  -1.134021e+002 
4165625000  -3.878130e+001  -1.203650e+002 
4168750000  -3.847770e+001  -1.323833e+002 
4171875000  -3.835347e+001  -1.411514e+002 
4175000000  -3.939910e+001  -1.471974e+002 
4178125000  -3.983318e+001  -1.480217e+002 
4181250000  -3.915242e+001  -1.519636e+002 
4184375000  -3.953117e+001  -1.565317e+002 
4187500000  -3.935707e+001  -1.620692e+002 
4190625000  -3.946492e+001  -1.695983e+002 
4193750000  -4.074202e+001  -1.747013e+002 
4196875000  -4.134852e+001  -1.748292e+002 
4200000000  -4.238340e+001  -1.708284e+002 
4203125000  -4.115541e+001  -1.583515e+002 
4206250000  -3.760075e+001  -1.664526e+002 
4209375000  -3.746124e+001  1.700087e+002 
4212500000  -3.962347e+001  1.651936e+002 
4215625000  -4.011909e+001  1.712112e+002 
4218750000  -3.812132e+001  1.723689e+002 
4221875000  -3.679728e+001  1.631935e+002 
4225000000  -3.797685e+001  1.503880e+002 
4228125000  -3.786667e+001  1.510577e+002 
4231250000  -3.622506e+001  1.440333e+002 
4234375000  -3.628308e+001  1.338892e+002 
4237500000  -3.609340e+001  1.277277e+002 
4240625000  -3.634200e+001  1.154597e+002 
4243750000  -3.751981e+001  1.087212e+002 
4246875000  -3.849593e+001  1.067836e+002 
4250000000  -3.817750e+001  1.073275e+002 
4253125000  -3.810807e+001  1.052493e+002 
4256250000  -3.789267e+001  9.936181e+001 
4259375000  -3.765551e+001  9.447329e+001 
4262500000  -3.805834e+001  8.842864e+001 
4265625000  -3.793948e+001  8.743140e+001 
4268750000  -3.681432e+001  7.915569e+001 
4271875000  -3.672269e+001  7.094235e+001 
4275000000  -3.663119e+001  6.123087e+001 
4278125000  -3.769253e+001  5.005292e+001 
4281250000  -3.918808e+001  4.881260e+001 
4284375000  -3.876361e+001  4.660637e+001 
4287500000  -4.021875e+001  4.649981e+001 
4290625000  -4.045277e+001  5.214239e+001 
4293750000  -3.867599e+001  5.206998e+001 
4296875000  -3.750933e+001  3.769640e+001 
4300000000  -3.909399e+001  2.992018e+001 
4303125000  -3.966978e+001  3.148153e+001 
4306250000  -3.868272e+001  3.654179e+001 
4309375000  -3.739580e+001  2.724978e+001 
4312500000  -3.737689e+001  1.710372e+001 
4315625000  -3.791132e+001  8.969974e+000 
4318750000  -3.874142e+001  5.416081e+000 
4321875000  -3.858756e+001  6.931333e+000 
4325000000  -3.814898e+001  6.087319e+000 
4328125000  -3.718193e+001  -5.224486e+000 
4331250000  -3.754193e+001  -1.461154e+001 
4334375000  -3.839431e+001  -2.145366e+001 
4337500000  -3.962305e+001  -2.199100e+001 
4340625000  -3.974550e+001  -1.858929e+001 
4343750000  -3.859705e+001  -2.041216e+001 
4346875000  -3.838036e+001  -3.129985e+001 
4350000000  -3.834521e+001  -3.889924e+001 
4353125000  -3.896626e+001  -4.463505e+001 
4356250000  -4.107249e+001  -3.941993e+001 
4359375000  -3.987764e+001  -2.701024e+001 
4362500000  -3.642941e+001  -3.585302e+001 
4365625000  -3.591533e+001  -5.429521e+001 
4368750000  -3.714523e+001  -6.290182e+001 
4371875000  -3.785099e+001  -6.288240e+001 
4375000000  -3.702627e+001  -6.728820e+001 
4378125000  -3.701174e+001  -7.446437e+001 
4381250000  -3.708476e+001  -8.340913e+001 
4384375000  -3.721058e+001  -9.044722e+001 
4387500000  -3.820599e+001  -9.635074e+001 
4390625000  -3.832126e+001  -9.498894e+001 
4393750000  -3.784325e+001  -9.557439e+001 
4396875000  -3.736121e+001  -1.024946e+002 
4400000000  -3.695836e+001  -1.120988e+002 
4403125000  -3.773907e+001  -1.184065e+002 
4406250000  -3.833908e+001  -1.232165e+002 
4409375000  -3.881713e+001  -1.283838e+002 
4412500000  -3.967571e+001  -1.297428e+002 
4415625000  -3.931005e+001  -1.258805e+002 
