!Agilent Technologies,E8363B,MY43030201,A.06.04.32
!Agilent E8363B: A.06.04.32
!Date: Tuesday, November 11, 2014 21:33:38
!Correction: S21(Response(S21)) 
!S1P File: Measurement: S21:
# Hz S  dB   R 50
3000000000  -4.052606e+001  7.326925e+001 
3003125000  -4.208099e+001  6.687331e+001 
3006250000  -4.227997e+001  6.507996e+001 
3009375000  -4.271444e+001  7.055516e+001 
3012500000  -4.152888e+001  6.491770e+001 
3015625000  -4.131900e+001  5.892585e+001 
3018750000  -4.195414e+001  6.102213e+001 
3021875000  -4.017518e+001  5.976443e+001 
3025000000  -3.885223e+001  5.591999e+001 
3028125000  -3.791710e+001  4.561166e+001 
3031250000  -3.703104e+001  3.381562e+001 
3034375000  -3.667513e+001  1.984772e+001 
3037500000  -3.761058e+001  8.338038e+000 
3040625000  -3.884048e+001  4.456709e+000 
3043750000  -3.915019e+001  -2.400531e+000 
3046875000  -3.997404e+001  -7.885330e+000 
3050000000  -4.089454e+001  -1.336267e+001 
3053125000  -4.065659e+001  -8.180065e+000 
3056250000  -4.056683e+001  -5.188668e+000 
3059375000  -3.976619e+001  -5.642897e+000 
3062500000  -3.818608e+001  -1.205143e+001 
3065625000  -3.793415e+001  -2.220179e+001 
3068750000  -3.746472e+001  -2.984340e+001 
3071875000  -3.759953e+001  -3.130412e+001 
3075000000  -3.697615e+001  -3.869054e+001 
3078125000  -3.711206e+001  -4.470124e+001 
3081250000  -3.737605e+001  -5.075695e+001 
3084375000  -3.627846e+001  -5.562070e+001 
3087500000  -3.645965e+001  -6.271567e+001 
3090625000  -3.599532e+001  -7.409270e+001 
3093750000  -3.694196e+001  -8.214877e+001 
3096875000  -3.721743e+001  -8.742763e+001 
3100000000  -3.717928e+001  -9.095632e+001 
3103125000  -3.753388e+001  -9.408620e+001 
3106250000  -3.723179e+001  -9.939903e+001 
3109375000  -3.717533e+001  -1.034400e+002 
3112500000  -3.715382e+001  -1.086865e+002 
3115625000  -3.715962e+001  -1.133688e+002 
3118750000  -3.711711e+001  -1.164255e+002 
3121875000  -3.646664e+001  -1.283303e+002 
3125000000  -3.863667e+001  -1.315304e+002 
3128125000  -3.844841e+001  -1.226684e+002 
3131250000  -3.608564e+001  -1.307481e+002 
3134375000  -3.547382e+001  -1.466815e+002 
3137500000  -3.607287e+001  -1.592944e+002 
3140625000  -3.739952e+001  -1.624456e+002 
3143750000  -3.827600e+001  -1.644203e+002 
3146875000  -3.764150e+001  -1.622270e+002 
3150000000  -3.690778e+001  -1.662860e+002 
3153125000  -3.722939e+001  -1.741086e+002 
3156250000  -3.795471e+001  -1.691288e+002 
3159375000  -3.569797e+001  -1.715434e+002 
3162500000  -3.430767e+001  1.722093e+002 
3165625000  -3.557034e+001  1.596160e+002 
3168750000  -3.534209e+001  1.588363e+002 
3171875000  -3.499107e+001  1.518855e+002 
3175000000  -3.541146e+001  1.422119e+002 
3178125000  -3.505734e+001  1.408977e+002 
3181250000  -3.435653e+001  1.324644e+002 
3184375000  -3.422318e+001  1.206378e+002 
3187500000  -3.534339e+001  1.063377e+002 
3190625000  -3.720940e+001  1.000918e+002 
3193750000  -3.745130e+001  1.056553e+002 
3196875000  -3.730693e+001  1.059353e+002 
3200000000  -3.613993e+001  1.008457e+002 
3203125000  -3.595442e+001  9.184397e+001 
3206250000  -3.615221e+001  8.570692e+001 
3209375000  -3.575336e+001  7.701458e+001 
3212500000  -3.634217e+001  7.088497e+001 
3215625000  -3.609722e+001  6.764612e+001 
3218750000  -3.681033e+001  5.699282e+001 
3221875000  -3.719197e+001  4.943527e+001 
3225000000  -3.697601e+001  4.659501e+001 
3228125000  -3.767419e+001  3.845957e+001 
3231250000  -3.810077e+001  3.654500e+001 
3234375000  -3.793173e+001  3.427075e+001 
3237500000  -3.799786e+001  2.925634e+001 
3240625000  -3.757069e+001  2.380180e+001 
3243750000  -3.764254e+001  1.385070e+001 
3246875000  -3.820681e+001  5.930277e+000 
3250000000  -3.877734e+001  2.653960e+000 
3253125000  -3.912747e+001  2.202679e-001 
3256250000  -3.854254e+001  -8.297832e+000 
3259375000  -3.888000e+001  -1.858616e+001 
3262500000  -4.056871e+001  -2.292401e+001 
3265625000  -4.102595e+001  -1.910802e+001 
3268750000  -4.116752e+001  -1.819014e+001 
3271875000  -4.064583e+001  -2.309023e+001 
3275000000  -4.000552e+001  -3.241035e+001 
3278125000  -4.077515e+001  -3.584633e+001 
3281250000  -4.115376e+001  -3.708050e+001 
3284375000  -4.048974e+001  -4.362093e+001 
3287500000  -4.107080e+001  -4.631342e+001 
3290625000  -4.131992e+001  -5.578672e+001 
3293750000  -4.112712e+001  -6.011001e+001 
3296875000  -4.249146e+001  -6.170070e+001 
3300000000  -4.195783e+001  -6.293011e+001 
3303125000  -4.070829e+001  -6.825439e+001 
3306250000  -4.079385e+001  -7.572013e+001 
3309375000  -4.065692e+001  -8.331423e+001 
3312500000  -4.088548e+001  -9.571240e+001 
3315625000  -4.241443e+001  -1.027183e+002 
3318750000  -4.345892e+001  -1.078674e+002 
3321875000  -4.480280e+001  -1.011152e+002 
3325000000  -4.457732e+001  -9.595860e+001 
3328125000  -4.371200e+001  -9.673249e+001 
3331250000  -4.187655e+001  -9.442039e+001 
3334375000  -3.985107e+001  -1.100289e+002 
3337500000  -4.013175e+001  -1.300219e+002 
3340625000  -4.204523e+001  -1.392376e+002 
3343750000  -4.375660e+001  -1.379027e+002 
3346875000  -4.343320e+001  -1.389299e+002 
3350000000  -4.285656e+001  -1.440106e+002 
3353125000  -4.288887e+001  -1.509059e+002 
3356250000  -4.253521e+001  -1.600897e+002 
3359375000  -4.340059e+001  -1.686738e+002 
3362500000  -4.442451e+001  -1.738347e+002 
3365625000  -4.470208e+001  -1.778352e+002 
3368750000  -4.533530e+001  1.778025e+002 
3371875000  -4.589582e+001  1.734212e+002 
3375000000  -4.777387e+001  1.705869e+002 
3378125000  -4.827554e+001  1.699551e+002 
3381250000  -4.999606e+001  1.786400e+002 
3384375000  -4.708125e+001  -1.657624e+002 
3387500000  -4.402165e+001  1.703253e+002 
3390625000  -4.609470e+001  1.483502e+002 
3393750000  -4.685763e+001  1.535203e+002 
3396875000  -4.582495e+001  1.521873e+002 
3400000000  -4.633335e+001  1.390665e+002 
3403125000  -4.761794e+001  1.361476e+002 
3406250000  -4.792492e+001  1.306972e+002 
3409375000  -4.807825e+001  1.264054e+002 
3412500000  -4.938107e+001  1.200487e+002 
3415625000  -4.978096e+001  1.160706e+002 
3418750000  -5.007014e+001  1.212229e+002 
3421875000  -5.143782e+001  1.230345e+002 
3425000000  -5.003264e+001  1.202003e+002 
3428125000  -4.983233e+001  1.187046e+002 
3431250000  -5.022865e+001  1.095942e+002 
3434375000  -5.139660e+001  1.067604e+002 
3437500000  -5.130712e+001  1.037745e+002 
3440625000  -5.205015e+001  1.017970e+002 
3443750000  -5.035677e+001  1.073378e+002 
3446875000  -5.084668e+001  1.050019e+002 
3450000000  -5.015284e+001  8.944764e+001 
3453125000  -5.083536e+001  8.572168e+001 
3456250000  -5.189252e+001  8.636610e+001 
3459375000  -5.232972e+001  8.386881e+001 
3462500000  -5.172148e+001  8.948196e+001 
3465625000  -5.066990e+001  8.033764e+001 
3468750000  -5.235793e+001  8.401147e+001 
3471875000  -5.228608e+001  8.056461e+001 
3475000000  -5.132142e+001  7.101029e+001 
3478125000  -5.106297e+001  6.421052e+001 
3481250000  -5.254268e+001  6.336690e+001 
3484375000  -5.213951e+001  6.427627e+001 
3487500000  -5.158167e+001  6.698930e+001 
3490625000  -5.054437e+001  5.694886e+001 
3493750000  -5.167599e+001  4.817242e+001 
3496875000  -5.196640e+001  5.781725e+001 
3500000000  -5.291305e+001  4.803566e+001 
3503125000  -5.130938e+001  4.897709e+001 
3506250000  -4.970868e+001  3.845953e+001 
3509375000  -4.923388e+001  2.487493e+001 
3512500000  -4.998034e+001  1.722725e+001 
3515625000  -5.148024e+001  1.053320e+001 
3518750000  -5.168892e+001  9.678391e+000 
3521875000  -5.321368e+001  9.831247e+000 
3525000000  -5.266734e+001  -2.512683e+000 
3528125000  -5.294523e+001  6.304797e+000 
3531250000  -5.177537e+001  -5.567378e-001 
3534375000  -5.319343e+001  -2.095363e+001 
3537500000  -5.365942e+001  -2.627317e+001 
3540625000  -5.587108e+001  -2.781688e+001 
3543750000  -5.551630e+001  -1.511524e+001 
3546875000  -5.659270e+001  -1.111262e+001 
3550000000  -5.425289e+001  -5.363329e+000 
3553125000  -5.331434e+001  -2.283984e+001 
3556250000  -5.529701e+001  -3.104114e+001 
3559375000  -5.544590e+001  -3.462853e+001 
3562500000  -5.591037e+001  -3.439027e+001 
3565625000  -5.626038e+001  -4.538738e+001 
3568750000  -5.742276e+001  -3.726888e+001 
3571875000  -5.774973e+001  -4.621523e+001 
3575000000  -6.037761e+001  -3.190477e+001 
3578125000  -5.818330e+001  -3.842073e+001 
3581250000  -5.917843e+001  -5.194589e+001 
3584375000  -5.924556e+001  -3.399052e+001 
3587500000  -5.815373e+001  -2.896456e+001 
3590625000  -5.928172e+001  -5.818134e+001 
3593750000  -5.969205e+001  -4.771219e+001 
3596875000  -5.897410e+001  -3.639093e+001 
3600000000  -5.803051e+001  -4.574868e+001 
3603125000  -5.804858e+001  -4.737111e+001 
3606250000  -5.895585e+001  -5.132678e+001 
3609375000  -5.846416e+001  -3.534989e+001 
3612500000  -5.904997e+001  -5.092490e+001 
3615625000  -5.817948e+001  -5.983477e+001 
3618750000  -5.782408e+001  -4.717852e+001 
3621875000  -5.782820e+001  -4.148162e+001 
3625000000  -5.738451e+001  -4.819828e+001 
3628125000  -5.795257e+001  -3.622658e+001 
3631250000  -5.599634e+001  -4.505433e+001 
3634375000  -5.695701e+001  -4.804282e+001 
3637500000  -5.494721e+001  -4.803998e+001 
3640625000  -5.444869e+001  -3.895590e+001 
3643750000  -5.259782e+001  -4.541503e+001 
3646875000  -5.363579e+001  -5.606372e+001 
3650000000  -5.160228e+001  -5.670291e+001 
3653125000  -5.259620e+001  -6.024640e+001 
3656250000  -5.214038e+001  -6.107833e+001 
3659375000  -5.124808e+001  -6.001161e+001 
3662500000  -5.052706e+001  -6.866051e+001 
3665625000  -4.996519e+001  -7.174327e+001 
3668750000  -4.854304e+001  -7.100569e+001 
3671875000  -4.754493e+001  -8.206815e+001 
3675000000  -4.692432e+001  -9.299377e+001 
3678125000  -4.722850e+001  -9.504363e+001 
3681250000  -4.674192e+001  -1.014030e+002 
3684375000  -4.678738e+001  -1.060824e+002 
3687500000  -4.665015e+001  -1.138754e+002 
3690625000  -4.658348e+001  -1.151966e+002 
3693750000  -4.684048e+001  -1.152291e+002 
3696875000  -4.636829e+001  -1.183103e+002 
3700000000  -4.549969e+001  -1.244917e+002 
3703125000  -4.553819e+001  -1.289152e+002 
3706250000  -4.570994e+001  -1.298267e+002 
3709375000  -4.460398e+001  -1.318264e+002 
3712500000  -4.364747e+001  -1.365354e+002 
3715625000  -4.195857e+001  -1.449534e+002 
3718750000  -4.183479e+001  -1.521908e+002 
3721875000  -4.152723e+001  -1.612533e+002 
3725000000  -4.171375e+001  -1.686354e+002 
3728125000  -4.133744e+001  -1.725942e+002 
3731250000  -4.055973e+001  -1.772917e+002 
3734375000  -4.022887e+001  1.750835e+002 
3737500000  -4.092982e+001  1.665265e+002 
3740625000  -4.083120e+001  1.603904e+002 
3743750000  -4.032702e+001  1.533672e+002 
3746875000  -4.068707e+001  1.448239e+002 
3750000000  -4.090723e+001  1.421944e+002 
3753125000  -4.051251e+001  1.389269e+002 
3756250000  -4.071112e+001  1.351991e+002 
3759375000  -4.036701e+001  1.295693e+002 
3762500000  -3.991309e+001  1.215924e+002 
3765625000  -4.085743e+001  1.195501e+002 
3768750000  -4.017235e+001  1.188910e+002 
3771875000  -3.820319e+001  1.116081e+002 
3775000000  -3.837735e+001  9.965965e+001 
3778125000  -3.916829e+001  9.331460e+001 
3781250000  -3.905249e+001  8.934916e+001 
3784375000  -3.879834e+001  8.295979e+001 
3787500000  -3.856936e+001  7.751440e+001 
3790625000  -3.894035e+001  6.805029e+001 
3793750000  -3.904700e+001  6.569367e+001 
3796875000  -3.841228e+001  6.136714e+001 
3800000000  -3.630480e+001  5.654102e+001 
3803125000  -3.813787e+001  4.324031e+001 
3806250000  -3.881984e+001  3.956009e+001 
3809375000  -3.858167e+001  3.522871e+001 
3812500000  -3.842088e+001  2.462089e+001 
3815625000  -3.962564e+001  1.725090e+001 
3818750000  -4.054503e+001  1.720647e+001 
3821875000  -3.984597e+001  2.778335e+001 
3825000000  -3.829330e+001  2.291243e+001 
3828125000  -3.688543e+001  4.526960e+000 
3831250000  -3.831166e+001  -1.069868e+001 
3834375000  -4.054133e+001  -9.941065e+000 
3837500000  -4.077698e+001  -6.414348e+000 
3840625000  -3.897840e+001  -9.424237e+000 
3843750000  -3.808801e+001  -2.415332e+001 
3846875000  -3.998697e+001  -3.183658e+001 
3850000000  -4.069967e+001  -2.545116e+001 
3853125000  -4.011047e+001  -2.513862e+001 
3856250000  -3.936183e+001  -3.247084e+001 
3859375000  -3.861853e+001  -4.024979e+001 
3862500000  -3.846340e+001  -5.043557e+001 
3865625000  -3.894544e+001  -5.391055e+001 
3868750000  -3.857600e+001  -5.583599e+001 
3871875000  -3.819445e+001  -6.388253e+001 
3875000000  -3.854167e+001  -7.338558e+001 
3878125000  -3.961535e+001  -7.619195e+001 
3881250000  -3.938143e+001  -7.526543e+001 
3884375000  -3.877107e+001  -8.330772e+001 
3887500000  -3.913414e+001  -8.841257e+001 
3890625000  -3.938555e+001  -9.333948e+001 
3893750000  -3.962967e+001  -9.545071e+001 
3896875000  -4.009414e+001  -9.802277e+001 
3900000000  -3.977680e+001  -1.032354e+002 
3903125000  -3.942579e+001  -1.063148e+002 
3906250000  -3.909769e+001  -1.110182e+002 
3909375000  -3.823654e+001  -1.201669e+002 
3912500000  -3.931322e+001  -1.287291e+002 
3915625000  -4.036213e+001  -1.282935e+002 
3918750000  -3.986019e+001  -1.284728e+002 
3921875000  -3.925483e+001  -1.341498e+002 
3925000000  -3.853714e+001  -1.398064e+002 
3928125000  -3.836940e+001  -1.508328e+002 
3931250000  -3.908858e+001  -1.558311e+002 
3934375000  -3.944214e+001  -1.577313e+002 
3937500000  -4.024571e+001  -1.591932e+002 
3940625000  -3.997695e+001  -1.609101e+002 
3943750000  -3.895555e+001  -1.631718e+002 
3946875000  -3.861664e+001  -1.744467e+002 
3950000000  -3.953727e+001  1.774291e+002 
3953125000  -4.008570e+001  1.794427e+002 
3956250000  -3.878811e+001  1.773257e+002 
3959375000  -3.807125e+001  1.736760e+002 
3962500000  -3.776194e+001  1.634356e+002 
3965625000  -3.793265e+001  1.544445e+002 
3968750000  -3.856882e+001  1.466912e+002 
3971875000  -3.873535e+001  1.398985e+002 
3975000000  -3.839764e+001  1.366805e+002 
3978125000  -3.866191e+001  1.325396e+002 
3981250000  -3.853597e+001  1.279268e+002 
3984375000  -3.906537e+001  1.188131e+002 
3987500000  -3.977161e+001  1.170833e+002 
3990625000  -4.001678e+001  1.155244e+002 
3993750000  -3.983199e+001  1.090721e+002 
3996875000  -3.990099e+001  1.046894e+002 
4000000000  -4.054478e+001  9.921239e+001 
4003125000  -4.098284e+001  1.018984e+002 
4006250000  -3.904737e+001  9.818946e+001 
4009375000  -3.874415e+001  8.511395e+001 
4012500000  -4.018872e+001  7.715022e+001 
4015625000  -4.120121e+001  7.477590e+001 
4018750000  -4.133045e+001  7.817336e+001 
4021875000  -4.081961e+001  7.467004e+001 
4025000000  -4.046943e+001  6.933440e+001 
4028125000  -4.068086e+001  6.006178e+001 
4031250000  -4.144093e+001  5.556850e+001 
4034375000  -4.130342e+001  5.560216e+001 
4037500000  -4.116526e+001  5.680533e+001 
4040625000  -4.100407e+001  5.344865e+001 
4043750000  -4.094090e+001  4.729891e+001 
4046875000  -4.093548e+001  4.277241e+001 
4050000000  -4.062671e+001  4.094035e+001 
4053125000  -4.164456e+001  3.801250e+001 
4056250000  -4.149018e+001  4.189896e+001 
4059375000  -3.944545e+001  4.134518e+001 
4062500000  -3.889009e+001  3.159766e+001 
4065625000  -3.887507e+001  2.567322e+001 
4068750000  -3.845824e+001  1.987288e+001 
4071875000  -3.751493e+001  8.088539e+000 
4075000000  -3.856259e+001  1.692904e+000 
4078125000  -3.877974e+001  -6.044702e-001 
4081250000  -3.847894e+001  -6.670857e+000 
4084375000  -3.808751e+001  -1.710301e+001 
4087500000  -3.871435e+001  -2.273779e+001 
4090625000  -3.921162e+001  -2.434619e+001 
4093750000  -3.845137e+001  -2.678875e+001 
4096875000  -3.891290e+001  -3.876403e+001 
4100000000  -3.971508e+001  -4.463575e+001 
4103125000  -4.064600e+001  -4.326121e+001 
4106250000  -3.989502e+001  -3.967503e+001 
4109375000  -3.927481e+001  -4.346727e+001 
4112500000  -3.866908e+001  -4.921106e+001 
4115625000  -3.923927e+001  -5.926519e+001 
4118750000  -3.898653e+001  -6.327497e+001 
4121875000  -3.903726e+001  -7.082687e+001 
4125000000  -4.004368e+001  -7.650595e+001 
4128125000  -4.097932e+001  -7.502533e+001 
4131250000  -3.951111e+001  -7.164829e+001 
4134375000  -3.754220e+001  -7.962431e+001 
4137500000  -3.813539e+001  -1.014532e+002 
4140625000  -4.057019e+001  -1.066613e+002 
4143750000  -4.148802e+001  -9.908640e+001 
4146875000  -4.057003e+001  -9.627864e+001 
4150000000  -3.982436e+001  -1.053042e+002 
4153125000  -3.980739e+001  -1.129263e+002 
4156250000  -4.134127e+001  -1.167661e+002 
4159375000  -4.109901e+001  -1.108541e+002 
4162500000  -3.992711e+001  -1.104982e+002 
4165625000  -3.873564e+001  -1.168183e+002 
4168750000  -3.833096e+001  -1.268098e+002 
4171875000  -3.843085e+001  -1.365108e+002 
4175000000  -3.928869e+001  -1.439287e+002 
4178125000  -3.960925e+001  -1.440049e+002 
4181250000  -3.921404e+001  -1.465101e+002 
4184375000  -3.931208e+001  -1.530219e+002 
4187500000  -3.916047e+001  -1.591188e+002 
4190625000  -3.937730e+001  -1.651819e+002 
4193750000  -4.061589e+001  -1.698248e+002 
4196875000  -4.158939e+001  -1.716263e+002 
4200000000  -4.241036e+001  -1.629258e+002 
4203125000  -4.092172e+001  -1.515912e+002 
4206250000  -3.730293e+001  -1.623379e+002 
4209375000  -3.709673e+001  1.743575e+002 
4212500000  -3.963946e+001  1.669808e+002 
4215625000  -4.014630e+001  1.759176e+002 
4218750000  -3.832522e+001  1.760690e+002 
4221875000  -3.672158e+001  1.674974e+002 
4225000000  -3.799635e+001  1.551983e+002 
4228125000  -3.770964e+001  1.565864e+002 
4231250000  -3.628178e+001  1.480393e+002 
4234375000  -3.609468e+001  1.385110e+002 
4237500000  -3.597400e+001  1.323575e+002 
4240625000  -3.631741e+001  1.206511e+002 
4243750000  -3.747351e+001  1.122226e+002 
4246875000  -3.846378e+001  1.116945e+002 
4250000000  -3.824879e+001  1.104256e+002 
4253125000  -3.820408e+001  1.072465e+002 
4256250000  -3.791292e+001  1.045408e+002 
4259375000  -3.774934e+001  9.822633e+001 
4262500000  -3.775252e+001  9.104913e+001 
4265625000  -3.786010e+001  9.361599e+001 
4268750000  -3.686133e+001  8.518804e+001 
4271875000  -3.674800e+001  7.523039e+001 
4275000000  -3.651452e+001  6.708360e+001 
4278125000  -3.785258e+001  5.325566e+001 
4281250000  -3.924493e+001  5.325104e+001 
4284375000  -3.872633e+001  5.139218e+001 
4287500000  -4.047541e+001  4.860143e+001 
4290625000  -4.066437e+001  5.549974e+001 
4293750000  -3.877317e+001  5.614105e+001 
4296875000  -3.791319e+001  4.449859e+001 
4300000000  -3.909450e+001  3.382566e+001 
4303125000  -3.962886e+001  3.634073e+001 
4306250000  -3.840304e+001  3.832743e+001 
4309375000  -3.762272e+001  3.252506e+001 
4312500000  -3.729145e+001  2.120595e+001 
4315625000  -3.781089e+001  1.282627e+001 
4318750000  -3.867459e+001  9.711225e+000 
4321875000  -3.859547e+001  1.188418e+001 
4325000000  -3.783105e+001  9.025557e+000 
4328125000  -3.728735e+001  -4.914079e-001 
4331250000  -3.740076e+001  -1.093671e+001 
4334375000  -3.829716e+001  -1.820987e+001 
4337500000  -3.926503e+001  -1.807397e+001 
4340625000  -3.972010e+001  -1.128071e+001 
4343750000  -3.845929e+001  -1.834452e+001 
4346875000  -3.811956e+001  -2.614123e+001 
4350000000  -3.823279e+001  -3.377363e+001 
4353125000  -3.886980e+001  -4.174575e+001 
4356250000  -4.131262e+001  -3.677651e+001 
4359375000  -3.967229e+001  -2.214869e+001 
4362500000  -3.654543e+001  -3.008819e+001 
4365625000  -3.595024e+001  -4.910671e+001 
4368750000  -3.722079e+001  -5.805010e+001 
4371875000  -3.766055e+001  -5.978476e+001 
4375000000  -3.703824e+001  -6.450697e+001 
4378125000  -3.687617e+001  -7.092870e+001 
4381250000  -3.713278e+001  -7.962029e+001 
4384375000  -3.689375e+001  -8.488042e+001 
4387500000  -3.816695e+001  -8.995525e+001 
4390625000  -3.857029e+001  -9.188364e+001 
4393750000  -3.789891e+001  -9.150787e+001 
4396875000  -3.718492e+001  -9.639548e+001 
4400000000  -3.699818e+001  -1.059664e+002 
4403125000  -3.766824e+001  -1.169839e+002 
4406250000  -3.829214e+001  -1.189822e+002 
4409375000  -3.872023e+001  -1.221730e+002 
4412500000  -3.942844e+001  -1.258933e+002 
4415625000  -3.940965e+001  -1.217801e+002 
