!Agilent Technologies,E8363B,MY43030201,A.06.04.32
!Agilent E8363B: A.06.04.32
!Date: Tuesday, November 11, 2014 21:29:07
!Correction: S21(Response(S21)) 
!S1P File: Measurement: S21:
# Hz S  dB   R 50
3000000000  -4.043170e+001  8.722428e+001 
3003125000  -4.216431e+001  7.951757e+001 
3006250000  -4.214788e+001  7.859384e+001 
3009375000  -4.274588e+001  8.387682e+001 
3012500000  -4.169078e+001  7.772672e+001 
3015625000  -4.138916e+001  7.374375e+001 
3018750000  -4.192826e+001  7.251032e+001 
3021875000  -4.017373e+001  7.330382e+001 
3025000000  -3.881524e+001  7.022346e+001 
3028125000  -3.795216e+001  6.025756e+001 
3031250000  -3.692428e+001  4.724252e+001 
3034375000  -3.675777e+001  3.417507e+001 
3037500000  -3.747460e+001  2.306195e+001 
3040625000  -3.885953e+001  1.827812e+001 
3043750000  -3.911583e+001  1.105148e+001 
3046875000  -3.956606e+001  6.367180e+000 
3050000000  -4.107929e+001  1.078481e+000 
3053125000  -4.057593e+001  4.893868e+000 
3056250000  -4.035670e+001  7.715593e+000 
3059375000  -3.986943e+001  5.627660e+000 
3062500000  -3.839179e+001  1.597338e+000 
3065625000  -3.782974e+001  -9.213055e+000 
3068750000  -3.752020e+001  -1.585314e+001 
3071875000  -3.771447e+001  -1.851978e+001 
3075000000  -3.712270e+001  -2.561054e+001 
3078125000  -3.708021e+001  -3.113096e+001 
3081250000  -3.727229e+001  -3.664549e+001 
3084375000  -3.634602e+001  -4.241125e+001 
3087500000  -3.644171e+001  -4.813598e+001 
3090625000  -3.598026e+001  -6.012962e+001 
3093750000  -3.676779e+001  -6.846458e+001 
3096875000  -3.738259e+001  -7.345827e+001 
3100000000  -3.727589e+001  -7.739719e+001 
3103125000  -3.757717e+001  -7.976408e+001 
3106250000  -3.725761e+001  -8.550609e+001 
3109375000  -3.733399e+001  -9.003762e+001 
3112500000  -3.726368e+001  -9.570049e+001 
3115625000  -3.709031e+001  -9.968536e+001 
3118750000  -3.723642e+001  -1.027557e+002 
3121875000  -3.650283e+001  -1.131635e+002 
3125000000  -3.840388e+001  -1.172579e+002 
3128125000  -3.848555e+001  -1.094977e+002 
3131250000  -3.612903e+001  -1.160394e+002 
3134375000  -3.526457e+001  -1.327155e+002 
3137500000  -3.607515e+001  -1.460884e+002 
3140625000  -3.739573e+001  -1.486406e+002 
3143750000  -3.819032e+001  -1.499430e+002 
3146875000  -3.760613e+001  -1.484244e+002 
3150000000  -3.696752e+001  -1.518595e+002 
3153125000  -3.721816e+001  -1.602352e+002 
3156250000  -3.808026e+001  -1.562060e+002 
3159375000  -3.588369e+001  -1.577149e+002 
3162500000  -3.414268e+001  -1.734982e+002 
3165625000  -3.550492e+001  1.731330e+002 
3168750000  -3.552111e+001  1.721038e+002 
3171875000  -3.499765e+001  1.661485e+002 
3175000000  -3.549364e+001  1.561287e+002 
3178125000  -3.503456e+001  1.550365e+002 
3181250000  -3.442839e+001  1.465095e+002 
3184375000  -3.409715e+001  1.341069e+002 
3187500000  -3.537830e+001  1.201164e+002 
3190625000  -3.730574e+001  1.144528e+002 
3193750000  -3.761861e+001  1.187150e+002 
3196875000  -3.732149e+001  1.203627e+002 
3200000000  -3.626880e+001  1.152524e+002 
3203125000  -3.593185e+001  1.076872e+002 
3206250000  -3.618795e+001  9.944566e+001 
3209375000  -3.570417e+001  9.212808e+001 
3212500000  -3.619825e+001  8.509527e+001 
3215625000  -3.603195e+001  8.129138e+001 
3218750000  -3.674514e+001  7.152126e+001 
3221875000  -3.727612e+001  6.428991e+001 
3225000000  -3.718095e+001  6.026498e+001 
3228125000  -3.770033e+001  5.383731e+001 
3231250000  -3.823170e+001  5.016226e+001 
3234375000  -3.802515e+001  4.833638e+001 
3237500000  -3.817441e+001  4.425348e+001 
3240625000  -3.764524e+001  3.818539e+001 
3243750000  -3.776711e+001  2.808171e+001 
3246875000  -3.843732e+001  2.104004e+001 
3250000000  -3.877746e+001  1.738593e+001 
3253125000  -3.891250e+001  1.358907e+001 
3256250000  -3.873036e+001  5.314595e+000 
3259375000  -3.928507e+001  -3.703935e+000 
3262500000  -4.066541e+001  -9.213152e+000 
3265625000  -4.121748e+001  -5.617279e+000 
3268750000  -4.128815e+001  -3.717587e+000 
3271875000  -4.074966e+001  -7.882428e+000 
3275000000  -4.013579e+001  -1.710347e+001 
3278125000  -4.080991e+001  -2.238071e+001 
3281250000  -4.103777e+001  -2.260583e+001 
3284375000  -4.053289e+001  -2.995135e+001 
3287500000  -4.086311e+001  -3.215965e+001 
3290625000  -4.136349e+001  -4.002436e+001 
3293750000  -4.122110e+001  -4.590876e+001 
3296875000  -4.234730e+001  -4.761907e+001 
3300000000  -4.188562e+001  -4.652777e+001 
3303125000  -4.091055e+001  -5.465186e+001 
3306250000  -4.077041e+001  -6.184995e+001 
3309375000  -4.051478e+001  -6.823689e+001 
3312500000  -4.099795e+001  -8.037943e+001 
3315625000  -4.219868e+001  -8.819850e+001 
3318750000  -4.348231e+001  -9.232975e+001 
3321875000  -4.493222e+001  -9.093174e+001 
3325000000  -4.468449e+001  -8.444831e+001 
3328125000  -4.413752e+001  -8.325809e+001 
3331250000  -4.217225e+001  -8.088618e+001 
3334375000  -3.977680e+001  -9.342609e+001 
3337500000  -4.061442e+001  -1.156352e+002 
3340625000  -4.220921e+001  -1.244281e+002 
3343750000  -4.419631e+001  -1.239480e+002 
3346875000  -4.357594e+001  -1.245762e+002 
3350000000  -4.322843e+001  -1.281409e+002 
3353125000  -4.297502e+001  -1.354098e+002 
3356250000  -4.256093e+001  -1.448606e+002 
3359375000  -4.322491e+001  -1.537299e+002 
3362500000  -4.429308e+001  -1.595550e+002 
3365625000  -4.516240e+001  -1.638762e+002 
3368750000  -4.582474e+001  -1.691757e+002 
3371875000  -4.591783e+001  -1.719759e+002 
3375000000  -4.773820e+001  -1.752803e+002 
3378125000  -4.850684e+001  -1.760627e+002 
3381250000  -5.018898e+001  -1.645300e+002 
3384375000  -4.690779e+001  -1.476556e+002 
3387500000  -4.416895e+001  -1.718353e+002 
3390625000  -4.607360e+001  1.671577e+002 
3393750000  -4.707632e+001  1.687823e+002 
3396875000  -4.601073e+001  1.677620e+002 
3400000000  -4.660477e+001  1.574269e+002 
3403125000  -4.709875e+001  1.507007e+002 
3406250000  -4.789907e+001  1.493074e+002 
3409375000  -4.808675e+001  1.398806e+002 
3412500000  -4.865269e+001  1.367134e+002 
3415625000  -4.975086e+001  1.310555e+002 
3418750000  -5.008623e+001  1.339060e+002 
3421875000  -5.154849e+001  1.382847e+002 
3425000000  -5.049889e+001  1.368492e+002 
3428125000  -5.074427e+001  1.299961e+002 
3431250000  -5.055861e+001  1.213331e+002 
3434375000  -5.057419e+001  1.180116e+002 
3437500000  -5.184990e+001  1.178370e+002 
3440625000  -5.252527e+001  1.262190e+002 
3443750000  -5.134166e+001  1.200045e+002 
3446875000  -5.113755e+001  1.209291e+002 
3450000000  -5.025610e+001  1.048930e+002 
3453125000  -5.141166e+001  1.027567e+002 
3456250000  -5.197001e+001  9.762872e+001 
3459375000  -5.340572e+001  9.902583e+001 
3462500000  -5.220978e+001  1.058643e+002 
3465625000  -5.169835e+001  9.035115e+001 
3468750000  -5.289186e+001  9.577785e+001 
3471875000  -5.182282e+001  9.695032e+001 
3475000000  -5.142437e+001  8.578754e+001 
3478125000  -5.122766e+001  7.790597e+001 
3481250000  -5.245707e+001  8.320296e+001 
3484375000  -5.296519e+001  8.057492e+001 
3487500000  -5.182661e+001  8.056070e+001 
3490625000  -5.081157e+001  7.182780e+001 
3493750000  -5.197720e+001  6.208224e+001 
3496875000  -5.180821e+001  6.719943e+001 
3500000000  -5.218193e+001  7.061398e+001 
3503125000  -5.038738e+001  6.146595e+001 
3506250000  -4.978705e+001  5.541396e+001 
3509375000  -4.998611e+001  4.267667e+001 
3512500000  -4.992931e+001  2.987606e+001 
3515625000  -5.099089e+001  2.301062e+001 
3518750000  -5.280688e+001  2.786728e+001 
3521875000  -5.234349e+001  1.802210e+001 
3525000000  -5.488515e+001  1.411370e+001 
3528125000  -5.332705e+001  2.351374e+001 
3531250000  -5.206033e+001  1.342735e+001 
3534375000  -5.243588e+001  2.705379e+000 
3537500000  -5.337584e+001  -6.947310e+000 
3540625000  -5.492350e+001  -7.088440e+000 
3543750000  -5.717552e+001  -4.955557e+000 
3546875000  -5.659865e+001  8.013623e+000 
3550000000  -5.576554e+001  1.400141e+000 
3553125000  -5.333378e+001  -1.281072e+001 
3556250000  -5.499552e+001  -1.941007e+001 
3559375000  -5.516925e+001  -1.914620e+001 
3562500000  -5.725074e+001  -3.825581e+001 
3565625000  -5.723383e+001  -2.699070e+001 
3568750000  -5.757560e+001  -2.504192e+001 
3571875000  -5.779686e+001  -1.379398e+001 
3575000000  -5.927614e+001  -1.300852e+001 
3578125000  -5.879483e+001  -2.786792e+001 
3581250000  -5.843745e+001  -2.623184e+001 
3584375000  -5.692657e+001  -1.937361e+001 
3587500000  -5.722688e+001  -3.109516e+001 
3590625000  -5.874796e+001  -3.836884e+001 
3593750000  -5.887684e+001  -2.841633e+001 
3596875000  -5.796534e+001  -1.021739e+001 
3600000000  -5.793924e+001  -1.736399e+001 
3603125000  -5.841887e+001  -3.846976e+001 
3606250000  -5.933668e+001  -2.805656e+001 
3609375000  -5.669123e+001  -2.629041e+001 
3612500000  -5.812313e+001  -2.754820e+001 
3615625000  -5.866282e+001  -3.287021e+001 
3618750000  -5.782671e+001  -2.638877e+001 
3621875000  -5.809221e+001  -1.741528e+001 
3625000000  -5.781493e+001  -2.209900e+001 
3628125000  -5.596994e+001  -2.167550e+001 
3631250000  -5.615302e+001  -3.368290e+001 
3634375000  -5.584177e+001  -2.231928e+001 
3637500000  -5.538384e+001  -3.056857e+001 
3640625000  -5.399166e+001  -1.999172e+001 
3643750000  -5.193189e+001  -3.017716e+001 
3646875000  -5.250755e+001  -4.350184e+001 
3650000000  -5.306506e+001  -3.769218e+001 
3653125000  -5.198142e+001  -4.744867e+001 
3656250000  -5.079103e+001  -4.450932e+001 
3659375000  -5.255505e+001  -4.932612e+001 
3662500000  -5.156465e+001  -4.992699e+001 
3665625000  -4.943443e+001  -6.022690e+001 
3668750000  -4.836328e+001  -5.864936e+001 
3671875000  -4.698906e+001  -6.618060e+001 
3675000000  -4.739720e+001  -7.840226e+001 
3678125000  -4.761182e+001  -7.939014e+001 
3681250000  -4.659974e+001  -8.235272e+001 
3684375000  -4.688802e+001  -8.613335e+001 
3687500000  -4.656746e+001  -9.349916e+001 
3690625000  -4.688609e+001  -1.024601e+002 
3693750000  -4.696596e+001  -9.965362e+001 
3696875000  -4.634253e+001  -9.948909e+001 
3700000000  -4.542065e+001  -1.084615e+002 
3703125000  -4.546655e+001  -1.144147e+002 
3706250000  -4.596639e+001  -1.167158e+002 
3709375000  -4.500091e+001  -1.153348e+002 
3712500000  -4.340173e+001  -1.180856e+002 
3715625000  -4.214729e+001  -1.294225e+002 
3718750000  -4.170726e+001  -1.372223e+002 
3721875000  -4.123904e+001  -1.460699e+002 
3725000000  -4.163140e+001  -1.522538e+002 
3728125000  -4.156838e+001  -1.563419e+002 
3731250000  -4.050686e+001  -1.605295e+002 
3734375000  -4.002909e+001  -1.689406e+002 
3737500000  -4.103601e+001  -1.766757e+002 
3740625000  -4.096632e+001  1.755795e+002 
3743750000  -4.057544e+001  1.688779e+002 
3746875000  -4.063324e+001  1.618285e+002 
3750000000  -4.099353e+001  1.588127e+002 
3753125000  -4.057716e+001  1.556700e+002 
3756250000  -4.074707e+001  1.513048e+002 
3759375000  -4.049840e+001  1.476396e+002 
3762500000  -4.028875e+001  1.407504e+002 
3765625000  -4.070424e+001  1.357875e+002 
3768750000  -4.045827e+001  1.348887e+002 
3771875000  -3.856316e+001  1.286239e+002 
3775000000  -3.843926e+001  1.180194e+002 
3778125000  -3.892879e+001  1.105981e+002 
3781250000  -3.929103e+001  1.054636e+002 
3784375000  -3.890712e+001  1.008845e+002 
3787500000  -3.867023e+001  9.578294e+001 
3790625000  -3.921986e+001  8.677189e+001 
3793750000  -3.909821e+001  8.093576e+001 
3796875000  -3.831044e+001  7.660041e+001 
3800000000  -3.639385e+001  7.314239e+001 
3803125000  -3.818782e+001  5.978700e+001 
3806250000  -3.882808e+001  5.676083e+001 
3809375000  -3.849764e+001  5.215196e+001 
3812500000  -3.844910e+001  4.315210e+001 
3815625000  -3.958195e+001  3.414099e+001 
3818750000  -4.053109e+001  3.581375e+001 
3821875000  -4.024665e+001  4.299789e+001 
3825000000  -3.840272e+001  4.210302e+001 
3828125000  -3.725452e+001  2.167003e+001 
3831250000  -3.805063e+001  7.313644e+000 
3834375000  -4.043447e+001  6.643341e+000 
3837500000  -4.075945e+001  1.048916e+001 
3840625000  -3.901157e+001  9.871865e+000 
3843750000  -3.839033e+001  -6.380825e+000 
3846875000  -3.987010e+001  -1.323082e+001 
3850000000  -4.094762e+001  -8.047337e+000 
3853125000  -3.999908e+001  -9.471385e+000 
3856250000  -3.954731e+001  -1.629007e+001 
3859375000  -3.875805e+001  -2.245208e+001 
3862500000  -3.869794e+001  -3.266110e+001 
3865625000  -3.905405e+001  -3.747243e+001 
3868750000  -3.885712e+001  -3.843885e+001 
3871875000  -3.797320e+001  -4.508943e+001 
3875000000  -3.852280e+001  -5.439367e+001 
3878125000  -3.942922e+001  -5.926811e+001 
3881250000  -3.920106e+001  -5.832632e+001 
3884375000  -3.883802e+001  -6.475782e+001 
3887500000  -3.913713e+001  -7.103673e+001 
3890625000  -3.958516e+001  -7.588628e+001 
3893750000  -3.958730e+001  -7.853571e+001 
3896875000  -4.024023e+001  -7.994447e+001 
3900000000  -3.999892e+001  -8.428950e+001 
3903125000  -3.935481e+001  -8.881910e+001 
3906250000  -3.907635e+001  -9.301786e+001 
3909375000  -3.824849e+001  -1.002318e+002 
3912500000  -3.901611e+001  -1.120403e+002 
3915625000  -4.027307e+001  -1.104022e+002 
3918750000  -4.003142e+001  -1.125004e+002 
3921875000  -3.942072e+001  -1.164009e+002 
3925000000  -3.857940e+001  -1.217900e+002 
3928125000  -3.823919e+001  -1.307901e+002 
3931250000  -3.925546e+001  -1.396850e+002 
3934375000  -3.967435e+001  -1.397501e+002 
3937500000  -4.038273e+001  -1.415279e+002 
3940625000  -3.991696e+001  -1.433659e+002 
3943750000  -3.910351e+001  -1.463466e+002 
3946875000  -3.841925e+001  -1.540037e+002 
3950000000  -3.957813e+001  -1.642264e+002 
3953125000  -3.990604e+001  -1.634195e+002 
3956250000  -3.901258e+001  -1.628549e+002 
3959375000  -3.783136e+001  -1.675132e+002 
3962500000  -3.785724e+001  -1.793344e+002 
3965625000  -3.788424e+001  1.715807e+002 
3968750000  -3.891106e+001  1.644019e+002 
3971875000  -3.873231e+001  1.583148e+002 
3975000000  -3.850393e+001  1.559474e+002 
3978125000  -3.854532e+001  1.511626e+002 
3981250000  -3.852514e+001  1.453089e+002 
3984375000  -3.899282e+001  1.370767e+002 
3987500000  -3.982821e+001  1.329562e+002 
3990625000  -4.021201e+001  1.332710e+002 
3993750000  -3.993644e+001  1.263018e+002 
3996875000  -4.017532e+001  1.231822e+002 
4000000000  -4.064664e+001  1.176380e+002 
4003125000  -4.120026e+001  1.208378e+002 
4006250000  -3.942531e+001  1.171651e+002 
4009375000  -3.879800e+001  1.018644e+002 
4012500000  -3.986110e+001  9.389102e+001 
4015625000  -4.142076e+001  9.549210e+001 
4018750000  -4.136836e+001  9.509200e+001 
4021875000  -4.093358e+001  9.146167e+001 
4025000000  -4.096648e+001  8.641489e+001 
4028125000  -4.055334e+001  7.813364e+001 
4031250000  -4.128594e+001  7.568433e+001 
4034375000  -4.162777e+001  7.705363e+001 
4037500000  -4.129058e+001  7.463552e+001 
4040625000  -4.097504e+001  7.073821e+001 
4043750000  -4.113013e+001  6.803178e+001 
4046875000  -4.077183e+001  6.368415e+001 
4050000000  -4.081323e+001  5.768880e+001 
4053125000  -4.136385e+001  5.527280e+001 
4056250000  -4.174332e+001  5.945139e+001 
4059375000  -3.959160e+001  5.719450e+001 
4062500000  -3.892700e+001  5.055817e+001 
4065625000  -3.896709e+001  4.418715e+001 
4068750000  -3.830064e+001  3.596653e+001 
4071875000  -3.785389e+001  2.670831e+001 
4075000000  -3.856996e+001  1.804294e+001 
4078125000  -3.877850e+001  1.624318e+001 
4081250000  -3.835479e+001  1.225367e+001 
4084375000  -3.815157e+001  1.603708e+000 
4087500000  -3.892751e+001  -4.994118e+000 
4090625000  -3.928655e+001  -6.010081e+000 
4093750000  -3.872849e+001  -7.566651e+000 
4096875000  -3.897866e+001  -1.919392e+001 
4100000000  -3.968594e+001  -2.670866e+001 
4103125000  -4.049065e+001  -2.360219e+001 
4106250000  -4.025277e+001  -2.141541e+001 
4109375000  -3.941380e+001  -2.517055e+001 
4112500000  -3.887588e+001  -3.327163e+001 
4115625000  -3.925933e+001  -4.034381e+001 
4118750000  -3.930251e+001  -4.523447e+001 
4121875000  -3.889665e+001  -5.177387e+001 
4125000000  -3.963485e+001  -5.904057e+001 
4128125000  -4.091349e+001  -5.718063e+001 
4131250000  -4.006907e+001  -5.187246e+001 
4134375000  -3.771196e+001  -6.000617e+001 
4137500000  -3.826952e+001  -8.120945e+001 
4140625000  -4.059195e+001  -8.633592e+001 
4143750000  -4.155631e+001  -8.334605e+001 
4146875000  -4.088755e+001  -8.098056e+001 
4150000000  -3.962875e+001  -8.562713e+001 
4153125000  -4.029432e+001  -9.553166e+001 
4156250000  -4.145782e+001  -9.836037e+001 
4159375000  -4.142803e+001  -9.471283e+001 
4162500000  -3.999166e+001  -9.146106e+001 
4165625000  -3.891429e+001  -9.929904e+001 
4168750000  -3.853119e+001  -1.068150e+002 
4171875000  -3.858503e+001  -1.193766e+002 
4175000000  -3.939497e+001  -1.241125e+002 
4178125000  -3.975330e+001  -1.240950e+002 
4181250000  -3.949776e+001  -1.283412e+002 
4184375000  -3.936331e+001  -1.339058e+002 
4187500000  -3.961000e+001  -1.393890e+002 
4190625000  -3.982248e+001  -1.459652e+002 
4193750000  -4.045067e+001  -1.511841e+002 
4196875000  -4.112062e+001  -1.527759e+002 
4200000000  -4.242558e+001  -1.462648e+002 
4203125000  -4.120697e+001  -1.328634e+002 
4206250000  -3.733416e+001  -1.426852e+002 
4209375000  -3.722896e+001  -1.653008e+002 
4212500000  -3.951783e+001  -1.735072e+002 
4215625000  -4.027730e+001  -1.674776e+002 
4218750000  -3.859097e+001  -1.652590e+002 
4221875000  -3.677318e+001  -1.748689e+002 
4225000000  -3.796727e+001  1.714866e+002 
4228125000  -3.807533e+001  1.749288e+002 
4231250000  -3.643974e+001  1.670456e+002 
4234375000  -3.655871e+001  1.578221e+002 
4237500000  -3.606664e+001  1.524745e+002 
4240625000  -3.641187e+001  1.406713e+002 
4243750000  -3.767440e+001  1.312228e+002 
4246875000  -3.854858e+001  1.312092e+002 
4250000000  -3.825788e+001  1.317911e+002 
4253125000  -3.805429e+001  1.278274e+002 
4256250000  -3.809158e+001  1.226310e+002 
4259375000  -3.790301e+001  1.175006e+002 
4262500000  -3.797153e+001  1.116528e+002 
4265625000  -3.786963e+001  1.094539e+002 
4268750000  -3.717233e+001  1.026761e+002 
4271875000  -3.700327e+001  9.422177e+001 
4275000000  -3.665235e+001  8.583366e+001 
4278125000  -3.783282e+001  7.275193e+001 
4281250000  -3.931683e+001  7.066573e+001 
4284375000  -3.889045e+001  6.792790e+001 
4287500000  -4.031110e+001  6.866382e+001 
4290625000  -4.090782e+001  7.534062e+001 
4293750000  -3.907050e+001  7.657629e+001 
4296875000  -3.797354e+001  6.273574e+001 
4300000000  -3.915003e+001  5.048286e+001 
4303125000  -4.004279e+001  5.605896e+001 
4306250000  -3.905597e+001  5.810202e+001 
4309375000  -3.776963e+001  5.383787e+001 
4312500000  -3.783916e+001  4.164683e+001 
4315625000  -3.808595e+001  3.460146e+001 
4318750000  -3.871291e+001  3.020796e+001 
4321875000  -3.861186e+001  2.943616e+001 
4325000000  -3.811522e+001  2.936872e+001 
4328125000  -3.729374e+001  1.955255e+001 
4331250000  -3.741481e+001  8.269240e+000 
4334375000  -3.851649e+001  2.411783e+000 
4337500000  -3.965146e+001  1.378321e+000 
4340625000  -3.977122e+001  4.410826e+000 
4343750000  -3.856717e+001  2.272846e+000 
4346875000  -3.856635e+001  -7.327085e+000 
4350000000  -3.849010e+001  -1.403745e+001 
4353125000  -3.897385e+001  -2.099757e+001 
4356250000  -4.096323e+001  -1.905088e+001 
4359375000  -4.022573e+001  -6.833627e+000 
4362500000  -3.663322e+001  -1.211732e+001 
4365625000  -3.592433e+001  -2.862474e+001 
4368750000  -3.735532e+001  -3.965388e+001 
4371875000  -3.812951e+001  -3.945259e+001 
4375000000  -3.736518e+001  -4.266011e+001 
4378125000  -3.694051e+001  -5.175435e+001 
4381250000  -3.725232e+001  -5.768696e+001 
4384375000  -3.726474e+001  -6.586705e+001 
4387500000  -3.818236e+001  -7.056164e+001 
4390625000  -3.859096e+001  -7.179940e+001 
4393750000  -3.813349e+001  -7.164440e+001 
4396875000  -3.747778e+001  -7.638258e+001 
4400000000  -3.706182e+001  -8.601458e+001 
4403125000  -3.789383e+001  -9.578173e+001 
4406250000  -3.843029e+001  -9.844241e+001 
4409375000  -3.859604e+001  -1.021253e+002 
4412500000  -3.991416e+001  -1.044927e+002 
4415625000  -3.975737e+001  -1.015822e+002 
