!Agilent Technologies,E8363B,MY43030201,A.06.04.32
!Agilent E8363B: A.06.04.32
!Date: Tuesday, November 11, 2014 21:26:15
!Correction: S21(Response(S21)) 
!S1P File: Measurement: S21:
# Hz S  dB   R 50
3000000000  -4.040034e+001  9.625198e+001 
3003125000  -4.215678e+001  8.874306e+001 
3006250000  -4.199384e+001  8.644319e+001 
3009375000  -4.270844e+001  9.042883e+001 
3012500000  -4.147134e+001  8.746864e+001 
3015625000  -4.134966e+001  8.044866e+001 
3018750000  -4.202293e+001  8.019967e+001 
3021875000  -4.035177e+001  8.202860e+001 
3025000000  -3.908892e+001  7.712028e+001 
3028125000  -3.802014e+001  6.854654e+001 
3031250000  -3.705441e+001  5.642212e+001 
3034375000  -3.666624e+001  4.231701e+001 
3037500000  -3.743049e+001  3.049524e+001 
3040625000  -3.872001e+001  2.732745e+001 
3043750000  -3.919857e+001  1.876672e+001 
3046875000  -3.948740e+001  1.456183e+001 
3050000000  -4.061390e+001  7.655421e+000 
3053125000  -4.073795e+001  1.473647e+001 
3056250000  -4.046243e+001  1.640563e+001 
3059375000  -3.974068e+001  1.389126e+001 
3062500000  -3.822358e+001  9.208145e+000 
3065625000  -3.802560e+001  -1.266064e-001 
3068750000  -3.765882e+001  -7.614472e+000 
3071875000  -3.764480e+001  -1.045901e+001 
3075000000  -3.713797e+001  -1.658823e+001 
3078125000  -3.700858e+001  -2.303551e+001 
3081250000  -3.733479e+001  -2.879374e+001 
3084375000  -3.640652e+001  -3.342245e+001 
3087500000  -3.644468e+001  -3.924384e+001 
3090625000  -3.583841e+001  -5.125066e+001 
3093750000  -3.669452e+001  -5.976567e+001 
3096875000  -3.735868e+001  -6.567422e+001 
3100000000  -3.721225e+001  -6.824605e+001 
3103125000  -3.751361e+001  -7.258373e+001 
3106250000  -3.716088e+001  -7.675983e+001 
3109375000  -3.730047e+001  -8.175787e+001 
3112500000  -3.717995e+001  -8.663005e+001 
3115625000  -3.707617e+001  -9.165044e+001 
3118750000  -3.734175e+001  -9.403558e+001 
3121875000  -3.658056e+001  -1.046731e+002 
3125000000  -3.822849e+001  -1.086535e+002 
3128125000  -3.861116e+001  -1.018240e+002 
3131250000  -3.622499e+001  -1.068381e+002 
3134375000  -3.529832e+001  -1.236506e+002 
3137500000  -3.615023e+001  -1.372202e+002 
3140625000  -3.735665e+001  -1.401754e+002 
3143750000  -3.835373e+001  -1.415145e+002 
3146875000  -3.776411e+001  -1.400693e+002 
3150000000  -3.704694e+001  -1.433792e+002 
3153125000  -3.707927e+001  -1.517087e+002 
3156250000  -3.806922e+001  -1.473625e+002 
3159375000  -3.592374e+001  -1.485338e+002 
3162500000  -3.428014e+001  -1.651270e+002 
3165625000  -3.538395e+001  -1.778590e+002 
3168750000  -3.569067e+001  -1.794469e+002 
3171875000  -3.500508e+001  1.737774e+002 
3175000000  -3.542682e+001  1.649238e+002 
3178125000  -3.516903e+001  1.640567e+002 
3181250000  -3.444256e+001  1.555599e+002 
3184375000  -3.409314e+001  1.427699e+002 
3187500000  -3.532000e+001  1.284132e+002 
3190625000  -3.746443e+001  1.219198e+002 
3193750000  -3.775732e+001  1.276687e+002 
3196875000  -3.747651e+001  1.294496e+002 
3200000000  -3.632233e+001  1.249177e+002 
3203125000  -3.598191e+001  1.162899e+002 
3206250000  -3.630845e+001  1.076958e+002 
3209375000  -3.581134e+001  1.013855e+002 
3212500000  -3.619382e+001  9.376036e+001 
3215625000  -3.597982e+001  8.882274e+001 
3218750000  -3.688865e+001  7.903261e+001 
3221875000  -3.751045e+001  7.289906e+001 
3225000000  -3.725821e+001  6.875992e+001 
3228125000  -3.784595e+001  6.203890e+001 
3231250000  -3.830203e+001  5.928725e+001 
3234375000  -3.803972e+001  5.634653e+001 
3237500000  -3.820574e+001  5.281529e+001 
3240625000  -3.773149e+001  4.720984e+001 
3243750000  -3.763721e+001  3.788423e+001 
3246875000  -3.823908e+001  3.073106e+001 
3250000000  -3.885836e+001  2.634087e+001 
3253125000  -3.883805e+001  2.337977e+001 
3256250000  -3.876217e+001  1.466363e+001 
3259375000  -3.908661e+001  3.608347e+000 
3262500000  -4.066192e+001  -3.751585e-001 
3265625000  -4.103698e+001  3.442924e+000 
3268750000  -4.130114e+001  3.329547e+000 
3271875000  -4.066195e+001  2.177091e+000 
3275000000  -4.026202e+001  -6.443778e+000 
3278125000  -4.075964e+001  -1.323890e+001 
3281250000  -4.113302e+001  -1.389261e+001 
3284375000  -4.053792e+001  -2.082393e+001 
3287500000  -4.095288e+001  -2.525725e+001 
3290625000  -4.143302e+001  -3.196862e+001 
3293750000  -4.131188e+001  -3.860229e+001 
3296875000  -4.246144e+001  -3.969733e+001 
3300000000  -4.197701e+001  -3.778671e+001 
3303125000  -4.112477e+001  -4.492733e+001 
3306250000  -4.094986e+001  -5.349522e+001 
3309375000  -4.052693e+001  -5.797722e+001 
3312500000  -4.093993e+001  -7.166274e+001 
3315625000  -4.236034e+001  -7.855247e+001 
3318750000  -4.359371e+001  -8.112910e+001 
3321875000  -4.497045e+001  -8.031184e+001 
3325000000  -4.507127e+001  -7.415765e+001 
3328125000  -4.424360e+001  -7.475493e+001 
3331250000  -4.273183e+001  -7.244753e+001 
3334375000  -4.006135e+001  -8.413644e+001 
3337500000  -4.066085e+001  -1.050723e+002 
3340625000  -4.231995e+001  -1.152289e+002 
3343750000  -4.419975e+001  -1.172860e+002 
3346875000  -4.354757e+001  -1.172112e+002 
3350000000  -4.314272e+001  -1.175551e+002 
3353125000  -4.313393e+001  -1.246079e+002 
3356250000  -4.251400e+001  -1.348012e+002 
3359375000  -4.375420e+001  -1.436892e+002 
3362500000  -4.453054e+001  -1.512635e+002 
3365625000  -4.453503e+001  -1.535352e+002 
3368750000  -4.544913e+001  -1.581079e+002 
3371875000  -4.582466e+001  -1.628313e+002 
3375000000  -4.739326e+001  -1.655998e+002 
3378125000  -4.825349e+001  -1.687418e+002 
3381250000  -4.976483e+001  -1.539020e+002 
3384375000  -4.706546e+001  -1.436268e+002 
3387500000  -4.398861e+001  -1.633512e+002 
3390625000  -4.643525e+001  1.755494e+002 
3393750000  -4.740107e+001  1.760122e+002 
3396875000  -4.625637e+001  1.777142e+002 
3400000000  -4.642924e+001  1.633964e+002 
3403125000  -4.701890e+001  1.572177e+002 
3406250000  -4.760498e+001  1.554342e+002 
3409375000  -4.866196e+001  1.454869e+002 
3412500000  -4.937647e+001  1.395435e+002 
3415625000  -4.950367e+001  1.414046e+002 
3418750000  -5.017677e+001  1.387530e+002 
3421875000  -5.237079e+001  1.426429e+002 
3425000000  -5.046800e+001  1.422658e+002 
3428125000  -4.969841e+001  1.399211e+002 
3431250000  -5.032980e+001  1.312016e+002 
3434375000  -5.141305e+001  1.241842e+002 
3437500000  -5.148273e+001  1.326354e+002 
3440625000  -5.284148e+001  1.288625e+002 
3443750000  -5.158252e+001  1.336670e+002 
3446875000  -5.100460e+001  1.250336e+002 
3450000000  -5.162099e+001  1.162570e+002 
3453125000  -5.187572e+001  1.040537e+002 
3456250000  -5.311737e+001  1.045181e+002 
3459375000  -5.324673e+001  1.052004e+002 
3462500000  -5.301134e+001  1.115800e+002 
3465625000  -5.168425e+001  1.058351e+002 
3468750000  -5.234325e+001  1.056096e+002 
3471875000  -5.301887e+001  1.004112e+002 
3475000000  -5.182878e+001  9.716293e+001 
3478125000  -5.156865e+001  8.556910e+001 
3481250000  -5.256255e+001  8.766800e+001 
3484375000  -5.290859e+001  8.892065e+001 
3487500000  -5.179959e+001  9.022555e+001 
3490625000  -5.157714e+001  7.985735e+001 
3493750000  -5.125429e+001  7.339073e+001 
3496875000  -5.175318e+001  7.469492e+001 
3500000000  -5.287958e+001  7.467923e+001 
3503125000  -5.099676e+001  7.353237e+001 
3506250000  -5.015860e+001  6.465712e+001 
3509375000  -5.040445e+001  5.474374e+001 
3512500000  -5.116601e+001  3.681155e+001 
3515625000  -5.191064e+001  3.878370e+001 
3518750000  -5.251457e+001  3.750771e+001 
3521875000  -5.172295e+001  3.257429e+001 
3525000000  -5.397616e+001  2.610220e+001 
3528125000  -5.351073e+001  3.430748e+001 
3531250000  -5.153149e+001  2.888143e+001 
3534375000  -5.285209e+001  1.277608e+001 
3537500000  -5.374546e+001  -8.160597e-001 
3540625000  -5.547150e+001  1.870774e+000 
3543750000  -5.645241e+001  1.773007e+000 
3546875000  -5.511995e+001  1.797155e+001 
3550000000  -5.446017e+001  9.173823e+000 
3553125000  -5.331282e+001  -6.777525e+000 
3556250000  -5.474603e+001  -7.231727e+000 
3559375000  -5.691998e+001  -3.032630e+000 
3562500000  -5.622015e+001  -1.844129e+001 
3565625000  -5.781423e+001  -2.998566e+001 
3568750000  -6.045385e+001  -1.899604e+001 
3571875000  -5.737685e+001  -9.011010e+000 
3575000000  -5.960544e+001  -6.417508e+000 
3578125000  -5.947502e+001  -1.616449e+001 
3581250000  -5.923735e+001  -1.520459e+001 
3584375000  -5.634086e+001  -3.642044e-001 
3587500000  -5.808166e+001  -2.115887e+001 
3590625000  -5.967202e+001  -2.419467e+001 
3593750000  -6.049866e+001  -9.359925e+000 
3596875000  -5.848315e+001  -5.728589e+000 
3600000000  -5.693258e+001  -1.585268e+001 
3603125000  -5.838990e+001  -2.296879e+001 
3606250000  -5.783102e+001  -2.852012e+001 
3609375000  -5.723775e+001  -1.221561e+001 
3612500000  -5.881719e+001  -1.295258e+001 
3615625000  -5.923837e+001  -1.114207e+001 
3618750000  -5.845226e+001  -1.100234e+001 
3621875000  -5.613248e+001  -1.873601e+001 
3625000000  -5.821171e+001  -1.069014e+001 
3628125000  -5.655440e+001  -6.119668e+000 
3631250000  -5.668940e+001  -7.915890e+000 
3634375000  -5.569712e+001  -1.485122e+001 
3637500000  -5.453208e+001  -1.208486e+001 
3640625000  -5.386722e+001  -8.515547e+000 
3643750000  -5.213249e+001  -1.739898e+001 
3646875000  -5.307783e+001  -3.216095e+001 
3650000000  -5.249113e+001  -3.012416e+001 
3653125000  -5.164181e+001  -3.220949e+001 
3656250000  -5.171227e+001  -3.380574e+001 
3659375000  -5.140029e+001  -3.482438e+001 
3662500000  -5.035763e+001  -4.141650e+001 
3665625000  -4.972796e+001  -4.623514e+001 
3668750000  -4.835469e+001  -4.300972e+001 
3671875000  -4.780328e+001  -5.651539e+001 
3675000000  -4.755865e+001  -6.550668e+001 
3678125000  -4.761916e+001  -6.783733e+001 
3681250000  -4.702341e+001  -7.521887e+001 
3684375000  -4.692579e+001  -7.976751e+001 
3687500000  -4.692042e+001  -8.411916e+001 
3690625000  -4.686301e+001  -8.995365e+001 
3693750000  -4.732519e+001  -9.043263e+001 
3696875000  -4.596659e+001  -9.004181e+001 
3700000000  -4.530460e+001  -9.785175e+001 
3703125000  -4.519403e+001  -1.025263e+002 
3706250000  -4.596796e+001  -1.033446e+002 
3709375000  -4.501328e+001  -1.074497e+002 
3712500000  -4.358611e+001  -1.103379e+002 
3715625000  -4.211493e+001  -1.193546e+002 
3718750000  -4.195134e+001  -1.252404e+002 
3721875000  -4.134770e+001  -1.335951e+002 
3725000000  -4.166722e+001  -1.427657e+002 
3728125000  -4.150615e+001  -1.456329e+002 
3731250000  -4.071414e+001  -1.520301e+002 
3734375000  -4.026997e+001  -1.576961e+002 
3737500000  -4.081982e+001  -1.667098e+002 
3740625000  -4.094703e+001  -1.730597e+002 
3743750000  -4.078359e+001  -1.795734e+002 
3746875000  -4.078473e+001  1.736562e+002 
3750000000  -4.085377e+001  1.687487e+002 
3753125000  -4.052065e+001  1.659547e+002 
3756250000  -4.075425e+001  1.615514e+002 
3759375000  -4.058048e+001  1.587449e+002 
3762500000  -3.996252e+001  1.509300e+002 
3765625000  -4.059566e+001  1.451004e+002 
3768750000  -4.036753e+001  1.449052e+002 
3771875000  -3.860511e+001  1.389078e+002 
3775000000  -3.868356e+001  1.281957e+002 
3778125000  -3.915119e+001  1.206098e+002 
3781250000  -3.905398e+001  1.165159e+002 
3784375000  -3.894195e+001  1.111962e+002 
3787500000  -3.860683e+001  1.050426e+002 
3790625000  -3.894956e+001  9.489651e+001 
3793750000  -3.917247e+001  9.336759e+001 
3796875000  -3.834391e+001  8.800677e+001 
3800000000  -3.646850e+001  8.450065e+001 
3803125000  -3.814262e+001  6.939332e+001 
3806250000  -3.892464e+001  6.667379e+001 
3809375000  -3.855473e+001  6.252338e+001 
3812500000  -3.836504e+001  5.440878e+001 
3815625000  -3.932331e+001  4.431091e+001 
3818750000  -4.088914e+001  4.428122e+001 
3821875000  -4.045600e+001  5.473956e+001 
3825000000  -3.838656e+001  5.039633e+001 
3828125000  -3.705466e+001  3.137424e+001 
3831250000  -3.805171e+001  1.796374e+001 
3834375000  -4.050925e+001  1.607037e+001 
3837500000  -4.096918e+001  2.023720e+001 
3840625000  -3.942349e+001  1.760455e+001 
3843750000  -3.841925e+001  3.954658e+000 
3846875000  -4.002146e+001  -5.143975e+000 
3850000000  -4.102436e+001  1.276880e+000 
3853125000  -4.000686e+001  3.577396e+000 
3856250000  -3.965021e+001  -5.190796e+000 
3859375000  -3.906173e+001  -1.079288e+001 
3862500000  -3.892777e+001  -2.142122e+001 
3865625000  -3.921209e+001  -2.580045e+001 
3868750000  -3.905082e+001  -2.650815e+001 
3871875000  -3.806979e+001  -3.482697e+001 
3875000000  -3.846700e+001  -4.575760e+001 
3878125000  -3.966556e+001  -4.802856e+001 
3881250000  -3.937026e+001  -4.736254e+001 
3884375000  -3.894411e+001  -5.618954e+001 
3887500000  -3.927365e+001  -6.072371e+001 
3890625000  -3.953371e+001  -6.423508e+001 
3893750000  -3.985331e+001  -6.659190e+001 
3896875000  -4.023876e+001  -7.118295e+001 
3900000000  -3.986909e+001  -7.187521e+001 
3903125000  -3.952208e+001  -7.885838e+001 
3906250000  -3.944304e+001  -8.282290e+001 
3909375000  -3.847208e+001  -9.110883e+001 
3912500000  -3.895639e+001  -9.936495e+001 
3915625000  -4.033398e+001  -9.952981e+001 
3918750000  -4.016753e+001  -1.014992e+002 
3921875000  -3.965113e+001  -1.051631e+002 
3925000000  -3.863918e+001  -1.097703e+002 
3928125000  -3.841943e+001  -1.198219e+002 
3931250000  -3.919974e+001  -1.270516e+002 
3934375000  -3.959459e+001  -1.280480e+002 
3937500000  -4.034333e+001  -1.311617e+002 
3940625000  -4.035141e+001  -1.338560e+002 
3943750000  -3.907365e+001  -1.346104e+002 
3946875000  -3.847342e+001  -1.450352e+002 
3950000000  -3.960773e+001  -1.533299e+002 
3953125000  -3.998999e+001  -1.522884e+002 
3956250000  -3.887371e+001  -1.542724e+002 
3959375000  -3.797231e+001  -1.597785e+002 
3962500000  -3.801478e+001  -1.674183e+002 
3965625000  -3.781281e+001  -1.768634e+002 
3968750000  -3.876346e+001  1.751990e+002 
3971875000  -3.896685e+001  1.711991e+002 
3975000000  -3.879713e+001  1.653059e+002 
3978125000  -3.869360e+001  1.620149e+002 
3981250000  -3.871412e+001  1.550272e+002 
3984375000  -3.908656e+001  1.485998e+002 
3987500000  -4.018794e+001  1.440737e+002 
3990625000  -4.005442e+001  1.422579e+002 
3993750000  -4.006290e+001  1.370147e+002 
3996875000  -4.010423e+001  1.336355e+002 
4000000000  -4.081733e+001  1.277438e+002 
4003125000  -4.124706e+001  1.288013e+002 
4006250000  -3.966915e+001  1.284039e+002 
4009375000  -3.871215e+001  1.145081e+002 
4012500000  -4.050574e+001  1.068383e+002 
4015625000  -4.167795e+001  1.053803e+002 
4018750000  -4.138897e+001  1.053805e+002 
4021875000  -4.086599e+001  1.032386e+002 
4025000000  -4.071539e+001  9.630907e+001 
4028125000  -4.063793e+001  9.218965e+001 
4031250000  -4.132112e+001  8.707080e+001 
4034375000  -4.143352e+001  8.605037e+001 
4037500000  -4.100250e+001  8.684944e+001 
4040625000  -4.117103e+001  8.129995e+001 
4043750000  -4.130949e+001  7.861729e+001 
4046875000  -4.079198e+001  7.510562e+001 
4050000000  -4.064686e+001  6.918639e+001 
4053125000  -4.143173e+001  6.642243e+001 
4056250000  -4.152128e+001  6.922338e+001 
4059375000  -3.979035e+001  6.857050e+001 
4062500000  -3.896490e+001  6.214122e+001 
4065625000  -3.912777e+001  5.546615e+001 
4068750000  -3.838988e+001  4.890768e+001 
4071875000  -3.812435e+001  3.830490e+001 
4075000000  -3.837228e+001  3.060481e+001 
4078125000  -3.894239e+001  2.673655e+001 
4081250000  -3.822375e+001  2.417756e+001 
4084375000  -3.818560e+001  1.428784e+001 
4087500000  -3.869164e+001  6.632721e+000 
4090625000  -3.944595e+001  6.250736e+000 
4093750000  -3.890499e+001  3.433825e+000 
4096875000  -3.879654e+001  -7.326260e+000 
4100000000  -3.965646e+001  -1.402616e+001 
4103125000  -4.072155e+001  -1.198019e+001 
4106250000  -4.006398e+001  -1.057750e+001 
4109375000  -3.927166e+001  -1.227039e+001 
4112500000  -3.887683e+001  -2.274040e+001 
4115625000  -3.968563e+001  -2.965704e+001 
4118750000  -3.908759e+001  -3.347326e+001 
4121875000  -3.888960e+001  -4.144265e+001 
4125000000  -3.973511e+001  -4.763811e+001 
4128125000  -4.092213e+001  -4.599316e+001 
4131250000  -3.994942e+001  -3.998289e+001 
4134375000  -3.772427e+001  -4.994901e+001 
4137500000  -3.842768e+001  -6.967622e+001 
4140625000  -4.037756e+001  -7.774995e+001 
4143750000  -4.148546e+001  -7.117241e+001 
4146875000  -4.098214e+001  -6.684156e+001 
4150000000  -3.971237e+001  -7.434476e+001 
4153125000  -4.016394e+001  -8.419473e+001 
4156250000  -4.134151e+001  -8.514590e+001 
4159375000  -4.110484e+001  -8.010179e+001 
4162500000  -4.031707e+001  -8.037467e+001 
4165625000  -3.896146e+001  -8.749287e+001 
4168750000  -3.843149e+001  -9.681503e+001 
4171875000  -3.869669e+001  -1.052400e+002 
4175000000  -3.939737e+001  -1.126886e+002 
4178125000  -3.980837e+001  -1.127143e+002 
4181250000  -3.962223e+001  -1.184394e+002 
4184375000  -3.968331e+001  -1.228222e+002 
4187500000  -3.978777e+001  -1.264737e+002 
4190625000  -3.950630e+001  -1.341816e+002 
4193750000  -4.115993e+001  -1.396511e+002 
4196875000  -4.168392e+001  -1.399596e+002 
4200000000  -4.255300e+001  -1.368121e+002 
4203125000  -4.150595e+001  -1.229507e+002 
4206250000  -3.785513e+001  -1.309226e+002 
4209375000  -3.753772e+001  -1.539628e+002 
4212500000  -3.947396e+001  -1.618891e+002 
4215625000  -4.039468e+001  -1.558298e+002 
4218750000  -3.878001e+001  -1.515704e+002 
4221875000  -3.693091e+001  -1.639717e+002 
4225000000  -3.790417e+001  -1.765643e+002 
4228125000  -3.814116e+001  -1.744193e+002 
4231250000  -3.651114e+001  1.790199e+002 
4234375000  -3.672113e+001  1.672610e+002 
4237500000  -3.619440e+001  1.625354e+002 
4240625000  -3.653859e+001  1.532543e+002 
4243750000  -3.768341e+001  1.419685e+002 
4246875000  -3.850851e+001  1.431515e+002 
4250000000  -3.846711e+001  1.416297e+002 
4253125000  -3.812600e+001  1.382133e+002 
4256250000  -3.834240e+001  1.328390e+002 
4259375000  -3.778041e+001  1.288830e+002 
4262500000  -3.800953e+001  1.248165e+002 
4265625000  -3.836252e+001  1.220943e+002 
4268750000  -3.711126e+001  1.145554e+002 
4271875000  -3.698656e+001  1.057266e+002 
4275000000  -3.682632e+001  9.759199e+001 
4278125000  -3.762078e+001  8.590094e+001 
4281250000  -3.928856e+001  8.316648e+001 
4284375000  -3.892475e+001  8.069421e+001 
4287500000  -4.035208e+001  7.519955e+001 
4290625000  -4.094331e+001  8.497801e+001 
4293750000  -3.882058e+001  8.818910e+001 
4296875000  -3.803660e+001  7.475562e+001 
4300000000  -3.912372e+001  6.441523e+001 
4303125000  -4.026876e+001  6.563739e+001 
4306250000  -3.883860e+001  6.840589e+001 
4309375000  -3.801670e+001  6.325802e+001 
4312500000  -3.801809e+001  5.419643e+001 
4315625000  -3.804206e+001  4.503881e+001 
4318750000  -3.877131e+001  4.084006e+001 
4321875000  -3.913372e+001  4.110047e+001 
4325000000  -3.861666e+001  4.082372e+001 
4328125000  -3.765515e+001  3.054811e+001 
4331250000  -3.778848e+001  2.000956e+001 
4334375000  -3.865722e+001  1.469915e+001 
4337500000  -3.961561e+001  1.201381e+001 
4340625000  -3.985741e+001  1.651689e+001 
4343750000  -3.901851e+001  1.247820e+001 
4346875000  -3.875349e+001  6.085266e+000 
4350000000  -3.866441e+001  -2.339557e+000 
4353125000  -3.894806e+001  -9.105351e+000 
4356250000  -4.118620e+001  -9.740378e+000 
4359375000  -4.026443e+001  6.018977e+000 
4362500000  -3.737325e+001  -2.382183e-001 
4365625000  -3.630890e+001  -1.634833e+001 
4368750000  -3.765895e+001  -2.757051e+001 
4371875000  -3.833715e+001  -2.808678e+001 
4375000000  -3.769891e+001  -3.020301e+001 
4378125000  -3.729717e+001  -3.811242e+001 
4381250000  -3.747268e+001  -4.470353e+001 
4384375000  -3.761565e+001  -5.337294e+001 
4387500000  -3.834628e+001  -5.846034e+001 
4390625000  -3.891820e+001  -5.870031e+001 
4393750000  -3.849815e+001  -5.921273e+001 
4396875000  -3.776173e+001  -6.591319e+001 
4400000000  -3.719317e+001  -7.250132e+001 
4403125000  -3.815662e+001  -8.291557e+001 
4406250000  -3.896478e+001  -8.669341e+001 
4409375000  -3.891649e+001  -9.060617e+001 
4412500000  -4.006158e+001  -9.240072e+001 
4415625000  -3.984283e+001  -8.940848e+001 
