!Agilent Technologies,E8363B,MY43030201,A.06.04.32
!Agilent E8363B: A.06.04.32
!Date: Tuesday, November 11, 2014 21:38:19
!Correction: S21(Response(S21)) 
!S1P File: Measurement: S21:
# Hz S  dB   R 50
3000000000  -4.069038e+001  7.012044e+001 
3003125000  -4.221832e+001  6.004895e+001 
3006250000  -4.218935e+001  6.123150e+001 
3009375000  -4.288582e+001  6.717703e+001 
3012500000  -4.173418e+001  6.006801e+001 
3015625000  -4.130206e+001  5.494455e+001 
3018750000  -4.189396e+001  5.623874e+001 
3021875000  -4.024129e+001  5.647335e+001 
3025000000  -3.880844e+001  5.254074e+001 
3028125000  -3.788141e+001  4.119359e+001 
3031250000  -3.698029e+001  2.909313e+001 
3034375000  -3.679328e+001  1.616460e+001 
3037500000  -3.754913e+001  5.586995e+000 
3040625000  -3.881809e+001  1.426852e-001 
3043750000  -3.925206e+001  -7.199326e+000 
3046875000  -3.991614e+001  -1.164869e+001 
3050000000  -4.095971e+001  -1.636123e+001 
3053125000  -4.062953e+001  -1.218474e+001 
3056250000  -4.040688e+001  -9.296480e+000 
3059375000  -3.959566e+001  -1.076296e+001 
3062500000  -3.820110e+001  -1.537185e+001 
3065625000  -3.777608e+001  -2.544397e+001 
3068750000  -3.764017e+001  -3.383295e+001 
3071875000  -3.757130e+001  -3.486299e+001 
3075000000  -3.696564e+001  -4.272688e+001 
3078125000  -3.716028e+001  -4.944473e+001 
3081250000  -3.723792e+001  -5.460833e+001 
3084375000  -3.630143e+001  -5.921093e+001 
3087500000  -3.642788e+001  -6.665400e+001 
3090625000  -3.589856e+001  -7.920024e+001 
3093750000  -3.695623e+001  -8.707538e+001 
3096875000  -3.743083e+001  -9.167265e+001 
3100000000  -3.713333e+001  -9.460388e+001 
3103125000  -3.749219e+001  -9.865531e+001 
3106250000  -3.720167e+001  -1.035899e+002 
3109375000  -3.724558e+001  -1.075359e+002 
3112500000  -3.717819e+001  -1.134212e+002 
3115625000  -3.713677e+001  -1.177233e+002 
3118750000  -3.713750e+001  -1.210142e+002 
3121875000  -3.649863e+001  -1.318203e+002 
3125000000  -3.856783e+001  -1.351615e+002 
3128125000  -3.841636e+001  -1.283994e+002 
3131250000  -3.603405e+001  -1.337822e+002 
3134375000  -3.542045e+001  -1.518946e+002 
3137500000  -3.612706e+001  -1.629510e+002 
3140625000  -3.729740e+001  -1.654656e+002 
3143750000  -3.799659e+001  -1.684385e+002 
3146875000  -3.758163e+001  -1.654511e+002 
3150000000  -3.689707e+001  -1.709279e+002 
3153125000  -3.722013e+001  -1.789485e+002 
3156250000  -3.794566e+001  -1.744066e+002 
3159375000  -3.557980e+001  -1.758758e+002 
3162500000  -3.421544e+001  1.681337e+002 
3165625000  -3.536549e+001  1.556845e+002 
3168750000  -3.535662e+001  1.545495e+002 
3171875000  -3.495137e+001  1.471527e+002 
3175000000  -3.553164e+001  1.379027e+002 
3178125000  -3.501555e+001  1.363203e+002 
3181250000  -3.434803e+001  1.276326e+002 
3184375000  -3.419434e+001  1.171331e+002 
3187500000  -3.553752e+001  1.015921e+002 
3190625000  -3.709484e+001  9.651991e+001 
3193750000  -3.743966e+001  1.009193e+002 
3196875000  -3.730383e+001  1.023209e+002 
3200000000  -3.615933e+001  9.736103e+001 
3203125000  -3.588844e+001  8.867875e+001 
3206250000  -3.610173e+001  8.121709e+001 
3209375000  -3.572942e+001  7.353318e+001 
3212500000  -3.636948e+001  6.681899e+001 
3215625000  -3.621799e+001  6.444459e+001 
3218750000  -3.668606e+001  5.215084e+001 
3221875000  -3.726285e+001  4.566522e+001 
3225000000  -3.701299e+001  4.180921e+001 
3228125000  -3.778703e+001  3.448384e+001 
3231250000  -3.809451e+001  3.302588e+001 
3234375000  -3.783588e+001  2.915310e+001 
3237500000  -3.807475e+001  2.482521e+001 
3240625000  -3.751465e+001  1.988182e+001 
3243750000  -3.762396e+001  8.968599e+000 
3246875000  -3.796693e+001  2.496039e+000 
3250000000  -3.874229e+001  -4.697365e-001 
3253125000  -3.892757e+001  -2.880500e+000 
3256250000  -3.863930e+001  -1.265263e+001 
3259375000  -3.910085e+001  -2.310563e+001 
3262500000  -4.049281e+001  -2.732913e+001 
3265625000  -4.115451e+001  -2.303335e+001 
3268750000  -4.115145e+001  -2.381038e+001 
3271875000  -4.056580e+001  -2.719326e+001 
3275000000  -4.007263e+001  -3.566256e+001 
3278125000  -4.073425e+001  -4.105542e+001 
3281250000  -4.096163e+001  -4.179246e+001 
3284375000  -4.046909e+001  -4.665380e+001 
3287500000  -4.102270e+001  -5.172194e+001 
3290625000  -4.105807e+001  -5.995938e+001 
3293750000  -4.137883e+001  -6.568806e+001 
3296875000  -4.249606e+001  -6.602234e+001 
3300000000  -4.173978e+001  -6.598883e+001 
3303125000  -4.087210e+001  -7.348278e+001 
3306250000  -4.069315e+001  -8.132151e+001 
3309375000  -4.040446e+001  -8.852560e+001 
3312500000  -4.087702e+001  -1.012314e+002 
3315625000  -4.247357e+001  -1.063464e+002 
3318750000  -4.361978e+001  -1.110454e+002 
3321875000  -4.487805e+001  -1.063230e+002 
3325000000  -4.500666e+001  -1.004818e+002 
3328125000  -4.415494e+001  -1.008623e+002 
3331250000  -4.185504e+001  -9.739520e+001 
3334375000  -3.971055e+001  -1.128636e+002 
3337500000  -4.046643e+001  -1.346667e+002 
3340625000  -4.211298e+001  -1.438057e+002 
3343750000  -4.381514e+001  -1.426401e+002 
3346875000  -4.312671e+001  -1.432054e+002 
3350000000  -4.294086e+001  -1.463080e+002 
3353125000  -4.261816e+001  -1.532893e+002 
3356250000  -4.234903e+001  -1.621013e+002 
3359375000  -4.338362e+001  -1.734036e+002 
3362500000  -4.400495e+001  -1.775056e+002 
3365625000  -4.484633e+001  1.773066e+002 
3368750000  -4.502556e+001  1.719399e+002 
3371875000  -4.559309e+001  1.684782e+002 
3375000000  -4.747558e+001  1.636767e+002 
3378125000  -4.821475e+001  1.632967e+002 
3381250000  -4.957842e+001  1.774314e+002 
3384375000  -4.647710e+001  -1.720450e+002 
3387500000  -4.392407e+001  1.697411e+002 
3390625000  -4.537250e+001  1.506215e+002 
3393750000  -4.652477e+001  1.493809e+002 
3396875000  -4.584335e+001  1.456853e+002 
3400000000  -4.603945e+001  1.395968e+002 
3403125000  -4.714417e+001  1.304193e+002 
3406250000  -4.788349e+001  1.297703e+002 
3409375000  -4.740071e+001  1.218393e+002 
3412500000  -4.884122e+001  1.151014e+002 
3415625000  -4.974401e+001  1.158171e+002 
3418750000  -5.029636e+001  1.130889e+002 
3421875000  -5.051829e+001  1.193711e+002 
3425000000  -5.024756e+001  1.172897e+002 
3428125000  -5.029148e+001  1.111105e+002 
3431250000  -4.996155e+001  1.079484e+002 
3434375000  -5.009032e+001  1.013279e+002 
3437500000  -5.253778e+001  1.050754e+002 
3440625000  -5.193525e+001  1.000299e+002 
3443750000  -5.022758e+001  1.047881e+002 
3446875000  -5.055495e+001  9.650748e+001 
3450000000  -5.043988e+001  9.106891e+001 
3453125000  -5.105962e+001  8.190178e+001 
3456250000  -5.177987e+001  7.771737e+001 
3459375000  -5.323283e+001  8.539310e+001 
3462500000  -5.248566e+001  8.620332e+001 
3465625000  -5.127524e+001  7.117906e+001 
3468750000  -5.168113e+001  7.398790e+001 
3471875000  -5.185295e+001  7.146214e+001 
3475000000  -5.154909e+001  6.705769e+001 
3478125000  -5.155985e+001  5.876953e+001 
3481250000  -5.218084e+001  6.173913e+001 
3484375000  -5.141320e+001  6.096180e+001 
3487500000  -5.120613e+001  5.783168e+001 
3490625000  -5.090890e+001  5.104742e+001 
3493750000  -5.108355e+001  4.464370e+001 
3496875000  -5.110755e+001  4.472485e+001 
3500000000  -5.247935e+001  4.923396e+001 
3503125000  -5.084096e+001  4.272867e+001 
3506250000  -4.955181e+001  3.871787e+001 
3509375000  -4.973363e+001  2.256933e+001 
3512500000  -5.078849e+001  8.133830e+000 
3515625000  -5.198775e+001  4.565443e+000 
3518750000  -5.229437e+001  7.968159e+000 
3521875000  -5.251808e+001  6.586516e+000 
3525000000  -5.320022e+001  -6.542248e-001 
3528125000  -5.248936e+001  2.568945e+000 
3531250000  -5.133064e+001  -6.967503e-001 
3534375000  -5.196515e+001  -1.940233e+001 
3537500000  -5.365265e+001  -3.136001e+001 
3540625000  -5.412311e+001  -2.539250e+001 
3543750000  -5.685508e+001  -2.683219e+001 
3546875000  -5.573270e+001  -9.764088e+000 
3550000000  -5.340614e+001  -1.976999e+001 
3553125000  -5.402619e+001  -3.479819e+001 
3556250000  -5.480327e+001  -3.178660e+001 
3559375000  -5.526855e+001  -3.748779e+001 
3562500000  -5.685412e+001  -4.545467e+001 
3565625000  -5.654576e+001  -5.588506e+001 
3568750000  -5.757263e+001  -4.125444e+001 
3571875000  -5.739330e+001  -3.890839e+001 
3575000000  -5.754498e+001  -4.546191e+001 
3578125000  -5.872309e+001  -4.270510e+001 
3581250000  -5.822195e+001  -4.076144e+001 
3584375000  -5.692048e+001  -3.172564e+001 
3587500000  -5.708876e+001  -5.289587e+001 
3590625000  -6.013735e+001  -6.972633e+001 
3593750000  -5.961157e+001  -4.780296e+001 
3596875000  -5.775001e+001  -3.683720e+001 
3600000000  -5.661207e+001  -4.188493e+001 
3603125000  -5.781694e+001  -6.777312e+001 
3606250000  -5.821118e+001  -5.477006e+001 
3609375000  -5.764170e+001  -4.892442e+001 
3612500000  -5.723620e+001  -5.643972e+001 
3615625000  -5.968141e+001  -5.848232e+001 
3618750000  -5.830075e+001  -5.600295e+001 
3621875000  -5.539912e+001  -5.370791e+001 
3625000000  -5.697522e+001  -5.119059e+001 
3628125000  -5.755840e+001  -5.337474e+001 
3631250000  -5.727819e+001  -4.521269e+001 
3634375000  -5.515844e+001  -4.150230e+001 
3637500000  -5.507853e+001  -5.161139e+001 
3640625000  -5.452666e+001  -4.588764e+001 
3643750000  -5.357937e+001  -5.170923e+001 
3646875000  -5.323954e+001  -6.625741e+001 
3650000000  -5.254538e+001  -6.367505e+001 
3653125000  -5.231978e+001  -6.666129e+001 
3656250000  -5.216074e+001  -6.226707e+001 
3659375000  -5.175128e+001  -6.665302e+001 
3662500000  -5.060219e+001  -7.662370e+001 
3665625000  -4.952865e+001  -7.720876e+001 
3668750000  -4.786003e+001  -7.793683e+001 
3671875000  -4.714233e+001  -8.735336e+001 
3675000000  -4.748330e+001  -9.609835e+001 
3678125000  -4.763437e+001  -1.024603e+002 
3681250000  -4.651735e+001  -1.056617e+002 
3684375000  -4.713935e+001  -1.112367e+002 
3687500000  -4.657383e+001  -1.167303e+002 
3690625000  -4.703215e+001  -1.196954e+002 
3693750000  -4.697336e+001  -1.199666e+002 
3696875000  -4.609135e+001  -1.235725e+002 
3700000000  -4.531143e+001  -1.320624e+002 
3703125000  -4.537356e+001  -1.340961e+002 
3706250000  -4.578468e+001  -1.373398e+002 
3709375000  -4.486517e+001  -1.364613e+002 
3712500000  -4.365791e+001  -1.430716e+002 
3715625000  -4.191450e+001  -1.489735e+002 
3718750000  -4.176933e+001  -1.577114e+002 
3721875000  -4.134681e+001  -1.680366e+002 
3725000000  -4.187394e+001  -1.743281e+002 
3728125000  -4.138211e+001  -1.776712e+002 
3731250000  -4.095110e+001  1.765611e+002 
3734375000  -4.010609e+001  1.689599e+002 
3737500000  -4.111687e+001  1.599597e+002 
3740625000  -4.104829e+001  1.547711e+002 
3743750000  -4.050279e+001  1.475186e+002 
3746875000  -4.065751e+001  1.425935e+002 
3750000000  -4.072839e+001  1.369787e+002 
3753125000  -4.067763e+001  1.345676e+002 
3756250000  -4.079781e+001  1.305535e+002 
3759375000  -4.029837e+001  1.260608e+002 
3762500000  -4.024660e+001  1.190618e+002 
3765625000  -4.075556e+001  1.138184e+002 
3768750000  -3.995019e+001  1.137314e+002 
3771875000  -3.834632e+001  1.070302e+002 
3775000000  -3.855187e+001  9.536216e+001 
3778125000  -3.907773e+001  8.886913e+001 
3781250000  -3.901401e+001  8.526459e+001 
3784375000  -3.876355e+001  7.891080e+001 
3787500000  -3.839668e+001  7.293515e+001 
3790625000  -3.916575e+001  6.416924e+001 
3793750000  -3.917590e+001  6.132258e+001 
3796875000  -3.813850e+001  5.597346e+001 
3800000000  -3.635226e+001  5.048022e+001 
3803125000  -3.805136e+001  3.753755e+001 
3806250000  -3.890215e+001  3.339622e+001 
3809375000  -3.839630e+001  2.975874e+001 
3812500000  -3.821627e+001  1.979888e+001 
3815625000  -3.945014e+001  1.134605e+001 
3818750000  -4.088997e+001  1.084713e+001 
3821875000  -4.016416e+001  2.095208e+001 
3825000000  -3.800206e+001  1.931729e+001 
3828125000  -3.716479e+001  -1.698806e+000 
3831250000  -3.804826e+001  -1.416497e+001 
3834375000  -4.050084e+001  -1.548058e+001 
3837500000  -4.060303e+001  -1.221159e+001 
3840625000  -3.907250e+001  -1.624306e+001 
3843750000  -3.823726e+001  -2.945289e+001 
3846875000  -3.974884e+001  -3.567612e+001 
3850000000  -4.077509e+001  -2.953196e+001 
3853125000  -3.969781e+001  -2.772753e+001 
3856250000  -3.922610e+001  -3.868366e+001 
3859375000  -3.847214e+001  -4.493623e+001 
3862500000  -3.834622e+001  -5.458607e+001 
3865625000  -3.891930e+001  -6.037344e+001 
3868750000  -3.864378e+001  -6.057441e+001 
3871875000  -3.777832e+001  -6.909403e+001 
3875000000  -3.840014e+001  -7.784977e+001 
3878125000  -3.936399e+001  -8.085747e+001 
3881250000  -3.929061e+001  -8.139340e+001 
3884375000  -3.879252e+001  -8.823531e+001 
3887500000  -3.934998e+001  -9.429458e+001 
3890625000  -3.944180e+001  -1.000108e+002 
3893750000  -3.968612e+001  -9.929207e+001 
3896875000  -4.000268e+001  -1.047569e+002 
3900000000  -3.990002e+001  -1.074794e+002 
3903125000  -3.952389e+001  -1.132836e+002 
3906250000  -3.912365e+001  -1.151511e+002 
3909375000  -3.818303e+001  -1.246530e+002 
3912500000  -3.927173e+001  -1.346160e+002 
3915625000  -4.025941e+001  -1.325603e+002 
3918750000  -3.983312e+001  -1.335941e+002 
3921875000  -3.934453e+001  -1.405252e+002 
3925000000  -3.840522e+001  -1.440973e+002 
3928125000  -3.838560e+001  -1.557831e+002 
3931250000  -3.897731e+001  -1.602566e+002 
3934375000  -3.954873e+001  -1.618912e+002 
3937500000  -4.015706e+001  -1.645460e+002 
3940625000  -4.017700e+001  -1.658593e+002 
3943750000  -3.883162e+001  -1.685638e+002 
3946875000  -3.831157e+001  -1.779095e+002 
3950000000  -3.976066e+001  1.730154e+002 
3953125000  -4.001154e+001  1.745806e+002 
3956250000  -3.873528e+001  1.732462e+002 
3959375000  -3.763822e+001  1.684080e+002 
3962500000  -3.774415e+001  1.577347e+002 
3965625000  -3.795377e+001  1.490076e+002 
3968750000  -3.855501e+001  1.412198e+002 
3971875000  -3.867947e+001  1.362697e+002 
3975000000  -3.823964e+001  1.324407e+002 
3978125000  -3.851263e+001  1.288210e+002 
3981250000  -3.846267e+001  1.205750e+002 
3984375000  -3.881734e+001  1.137596e+002 
3987500000  -3.956104e+001  1.103574e+002 
3990625000  -3.959262e+001  1.093540e+002 
3993750000  -3.974773e+001  1.031135e+002 
3996875000  -3.977136e+001  9.808024e+001 
4000000000  -4.043003e+001  9.566164e+001 
4003125000  -4.075927e+001  9.664920e+001 
4006250000  -3.916511e+001  9.296857e+001 
4009375000  -3.841615e+001  8.025066e+001 
4012500000  -3.997917e+001  7.202085e+001 
4015625000  -4.135144e+001  7.214836e+001 
4018750000  -4.126044e+001  7.169404e+001 
4021875000  -4.069603e+001  7.014154e+001 
4025000000  -4.030123e+001  6.161132e+001 
4028125000  -4.032030e+001  5.498145e+001 
4031250000  -4.095756e+001  5.173303e+001 
4034375000  -4.119971e+001  5.311686e+001 
4037500000  -4.103361e+001  5.241651e+001 
4040625000  -4.083793e+001  4.500137e+001 
4043750000  -4.084894e+001  4.363467e+001 
4046875000  -4.070163e+001  3.861856e+001 
4050000000  -4.051026e+001  3.621490e+001 
4053125000  -4.134675e+001  3.469418e+001 
4056250000  -4.143800e+001  3.645903e+001 
4059375000  -3.961333e+001  3.299312e+001 
4062500000  -3.885380e+001  2.675059e+001 
4065625000  -3.908512e+001  2.084837e+001 
4068750000  -3.797649e+001  1.319512e+001 
4071875000  -3.787286e+001  3.758903e+000 
4075000000  -3.831616e+001  -4.606976e+000 
4078125000  -3.871138e+001  -6.919560e+000 
4081250000  -3.822025e+001  -1.242599e+001 
4084375000  -3.786077e+001  -2.194483e+001 
4087500000  -3.856067e+001  -2.924223e+001 
4090625000  -3.927665e+001  -2.951206e+001 
4093750000  -3.864141e+001  -3.239360e+001 
4096875000  -3.869884e+001  -4.231221e+001 
4100000000  -3.989422e+001  -4.986514e+001 
4103125000  -4.057648e+001  -4.743291e+001 
4106250000  -3.979236e+001  -4.439011e+001 
4109375000  -3.906628e+001  -4.729272e+001 
4112500000  -3.856790e+001  -5.826429e+001 
4115625000  -3.933182e+001  -6.278655e+001 
4118750000  -3.904535e+001  -6.954356e+001 
4121875000  -3.911036e+001  -7.727740e+001 
4125000000  -3.987044e+001  -8.253300e+001 
4128125000  -4.072955e+001  -8.079549e+001 
4131250000  -3.969753e+001  -7.666155e+001 
4134375000  -3.742225e+001  -8.526182e+001 
4137500000  -3.831588e+001  -1.059833e+002 
4140625000  -4.055573e+001  -1.119040e+002 
4143750000  -4.143284e+001  -1.036646e+002 
4146875000  -4.037014e+001  -1.016371e+002 
4150000000  -3.938945e+001  -1.109914e+002 
4153125000  -3.986491e+001  -1.194879e+002 
4156250000  -4.110180e+001  -1.210769e+002 
4159375000  -4.102018e+001  -1.141293e+002 
4162500000  -3.979031e+001  -1.136778e+002 
4165625000  -3.869246e+001  -1.211515e+002 
4168750000  -3.846252e+001  -1.314063e+002 
4171875000  -3.827510e+001  -1.416787e+002 
4175000000  -3.926376e+001  -1.476562e+002 
4178125000  -3.955766e+001  -1.484230e+002 
4181250000  -3.920411e+001  -1.531251e+002 
4184375000  -3.930680e+001  -1.587799e+002 
4187500000  -3.925591e+001  -1.636569e+002 
4190625000  -3.969593e+001  -1.710974e+002 
4193750000  -4.064120e+001  -1.748836e+002 
4196875000  -4.156657e+001  -1.753696e+002 
4200000000  -4.245063e+001  -1.705125e+002 
4203125000  -4.068313e+001  -1.596607e+002 
4206250000  -3.747751e+001  -1.673592e+002 
4209375000  -3.738420e+001  1.704283e+002 
4212500000  -3.965706e+001  1.609195e+002 
4215625000  -4.002444e+001  1.710358e+002 
4218750000  -3.813243e+001  1.690336e+002 
4221875000  -3.677021e+001  1.616679e+002 
4225000000  -3.762046e+001  1.497242e+002 
4228125000  -3.782767e+001  1.501714e+002 
4231250000  -3.631129e+001  1.439128e+002 
4234375000  -3.619073e+001  1.318007e+002 
4237500000  -3.612409e+001  1.254642e+002 
4240625000  -3.628157e+001  1.144573e+002 
4243750000  -3.751271e+001  1.067548e+002 
4246875000  -3.872062e+001  1.065528e+002 
4250000000  -3.817081e+001  1.072375e+002 
4253125000  -3.790624e+001  1.036715e+002 
4256250000  -3.785219e+001  9.863139e+001 
4259375000  -3.748606e+001  9.317457e+001 
4262500000  -3.768008e+001  8.804626e+001 
4265625000  -3.804594e+001  8.640293e+001 
4268750000  -3.679816e+001  7.830697e+001 
4271875000  -3.678672e+001  6.890880e+001 
4275000000  -3.647800e+001  6.150736e+001 
4278125000  -3.762856e+001  4.885680e+001 
4281250000  -3.897749e+001  4.919925e+001 
4284375000  -3.859778e+001  4.392070e+001 
4287500000  -4.028193e+001  4.300333e+001 
4290625000  -4.048123e+001  5.012194e+001 
4293750000  -3.851923e+001  4.949202e+001 
4296875000  -3.753825e+001  3.772046e+001 
4300000000  -3.945907e+001  2.775985e+001 
4303125000  -3.972001e+001  3.148722e+001 
4306250000  -3.845290e+001  3.429733e+001 
4309375000  -3.755366e+001  2.729827e+001 
4312500000  -3.738723e+001  1.626252e+001 
4315625000  -3.771194e+001  8.753628e+000 
4318750000  -3.833741e+001  4.690674e+000 
4321875000  -3.858290e+001  4.310787e+000 
4325000000  -3.792848e+001  3.896300e+000 
4328125000  -3.715206e+001  -6.428238e+000 
4331250000  -3.724752e+001  -1.695474e+001 
4334375000  -3.832269e+001  -2.379857e+001 
4337500000  -3.932819e+001  -2.411413e+001 
4340625000  -3.953762e+001  -1.794762e+001 
4343750000  -3.855498e+001  -2.372261e+001 
4346875000  -3.811146e+001  -3.203479e+001 
4350000000  -3.808954e+001  -3.965038e+001 
4353125000  -3.887523e+001  -4.780678e+001 
4356250000  -4.082211e+001  -4.379390e+001 
4359375000  -3.983172e+001  -2.660982e+001 
4362500000  -3.613396e+001  -3.714018e+001 
4365625000  -3.576088e+001  -5.521284e+001 
4368750000  -3.713894e+001  -6.524128e+001 
4371875000  -3.770640e+001  -6.402145e+001 
4375000000  -3.709933e+001  -6.982700e+001 
4378125000  -3.662370e+001  -7.722240e+001 
4381250000  -3.681099e+001  -8.512965e+001 
4384375000  -3.704240e+001  -9.088309e+001 
4387500000  -3.809956e+001  -9.742598e+001 
4390625000  -3.831891e+001  -9.779324e+001 
4393750000  -3.775311e+001  -9.829045e+001 
4396875000  -3.672149e+001  -1.042120e+002 
4400000000  -3.673624e+001  -1.115115e+002 
4403125000  -3.771873e+001  -1.227754e+002 
4406250000  -3.802008e+001  -1.260965e+002 
4409375000  -3.842048e+001  -1.284693e+002 
4412500000  -3.939285e+001  -1.304242e+002 
4415625000  -3.887978e+001  -1.273092e+002 
