!Agilent Technologies,E8363B,MY43030201,A.06.04.32
!Agilent E8363B: A.06.04.32
!Date: Tuesday, November 11, 2014 21:27:30
!Correction: S21(Response(S21)) 
!S1P File: Measurement: S21:
# Hz S  dB   R 50
3000000000  -4.060090e+001  9.318951e+001 
3003125000  -4.225955e+001  8.536451e+001 
3006250000  -4.204019e+001  8.188873e+001 
3009375000  -4.265322e+001  8.855048e+001 
3012500000  -4.172543e+001  8.386411e+001 
3015625000  -4.143664e+001  7.702824e+001 
3018750000  -4.196604e+001  7.669667e+001 
3021875000  -4.045503e+001  7.808397e+001 
3025000000  -3.905662e+001  7.422079e+001 
3028125000  -3.814459e+001  6.464362e+001 
3031250000  -3.703703e+001  5.280369e+001 
3034375000  -3.669448e+001  3.968853e+001 
3037500000  -3.745438e+001  2.718966e+001 
3040625000  -3.873623e+001  2.216861e+001 
3043750000  -3.923144e+001  1.664768e+001 
3046875000  -3.964582e+001  9.509451e+000 
3050000000  -4.066194e+001  4.427547e+000 
3053125000  -4.056431e+001  9.971275e+000 
3056250000  -4.047258e+001  1.221001e+001 
3059375000  -3.996462e+001  1.205622e+001 
3062500000  -3.827732e+001  6.581275e+000 
3065625000  -3.814143e+001  -3.240778e+000 
3068750000  -3.772380e+001  -1.168777e+001 
3071875000  -3.752539e+001  -1.259023e+001 
3075000000  -3.721499e+001  -2.027968e+001 
3078125000  -3.717518e+001  -2.564506e+001 
3081250000  -3.733694e+001  -3.206374e+001 
3084375000  -3.646663e+001  -3.671947e+001 
3087500000  -3.648457e+001  -4.290668e+001 
3090625000  -3.593220e+001  -5.438659e+001 
3093750000  -3.670094e+001  -6.417902e+001 
3096875000  -3.746144e+001  -6.951904e+001 
3100000000  -3.717308e+001  -7.297477e+001 
3103125000  -3.769442e+001  -7.512697e+001 
3106250000  -3.722688e+001  -8.071280e+001 
3109375000  -3.721696e+001  -8.458644e+001 
3112500000  -3.719772e+001  -9.032247e+001 
3115625000  -3.711069e+001  -9.475716e+001 
3118750000  -3.727903e+001  -9.735444e+001 
3121875000  -3.660859e+001  -1.091564e+002 
3125000000  -3.849019e+001  -1.128204e+002 
3128125000  -3.869380e+001  -1.055870e+002 
3131250000  -3.621648e+001  -1.095858e+002 
3134375000  -3.536693e+001  -1.272557e+002 
3137500000  -3.606176e+001  -1.416930e+002 
3140625000  -3.741679e+001  -1.439435e+002 
3143750000  -3.817269e+001  -1.450989e+002 
3146875000  -3.775347e+001  -1.437865e+002 
3150000000  -3.702887e+001  -1.464248e+002 
3153125000  -3.722645e+001  -1.551998e+002 
3156250000  -3.796205e+001  -1.512872e+002 
3159375000  -3.594955e+001  -1.523841e+002 
3162500000  -3.417756e+001  -1.680514e+002 
3165625000  -3.543993e+001  1.790291e+002 
3168750000  -3.550121e+001  1.779019e+002 
3171875000  -3.489276e+001  1.710596e+002 
3175000000  -3.552427e+001  1.616539e+002 
3178125000  -3.513453e+001  1.604003e+002 
3181250000  -3.446486e+001  1.522080e+002 
3184375000  -3.414159e+001  1.399449e+002 
3187500000  -3.536426e+001  1.248193e+002 
3190625000  -3.727451e+001  1.176402e+002 
3193750000  -3.765983e+001  1.244071e+002 
3196875000  -3.746183e+001  1.262242e+002 
3200000000  -3.648636e+001  1.209580e+002 
3203125000  -3.598559e+001  1.133179e+002 
3206250000  -3.630889e+001  1.047394e+002 
3209375000  -3.578597e+001  9.757237e+001 
3212500000  -3.629069e+001  9.040444e+001 
3215625000  -3.597491e+001  8.727316e+001 
3218750000  -3.678821e+001  7.691523e+001 
3221875000  -3.733417e+001  6.968459e+001 
3225000000  -3.705441e+001  6.574546e+001 
3228125000  -3.774215e+001  5.909958e+001 
3231250000  -3.834321e+001  5.624568e+001 
3234375000  -3.776459e+001  5.339285e+001 
3237500000  -3.803049e+001  4.978163e+001 
3240625000  -3.781604e+001  4.417548e+001 
3243750000  -3.754285e+001  3.487856e+001 
3246875000  -3.830094e+001  2.656287e+001 
3250000000  -3.882401e+001  2.306719e+001 
3253125000  -3.890218e+001  2.026636e+001 
3256250000  -3.866160e+001  1.155665e+001 
3259375000  -3.920988e+001  1.485470e+000 
3262500000  -4.060728e+001  -3.416650e+000 
3265625000  -4.100601e+001  1.429608e+000 
3268750000  -4.123740e+001  1.144908e+000 
3271875000  -4.082368e+001  -2.588491e+000 
3275000000  -4.013612e+001  -1.049205e+001 
3278125000  -4.076426e+001  -1.539755e+001 
3281250000  -4.100080e+001  -1.699989e+001 
3284375000  -4.054654e+001  -2.346897e+001 
3287500000  -4.103272e+001  -2.713037e+001 
3290625000  -4.093169e+001  -3.563610e+001 
3293750000  -4.130098e+001  -4.068499e+001 
3296875000  -4.245015e+001  -4.182716e+001 
3300000000  -4.173643e+001  -4.182126e+001 
3303125000  -4.124289e+001  -4.776690e+001 
3306250000  -4.094302e+001  -5.491155e+001 
3309375000  -4.056103e+001  -6.220091e+001 
3312500000  -4.107719e+001  -7.407607e+001 
3315625000  -4.210684e+001  -8.093001e+001 
3318750000  -4.320940e+001  -8.493043e+001 
3321875000  -4.452826e+001  -8.400286e+001 
3325000000  -4.477420e+001  -7.700194e+001 
3328125000  -4.375924e+001  -7.693102e+001 
3331250000  -4.228477e+001  -7.182713e+001 
3334375000  -4.013982e+001  -8.721651e+001 
3337500000  -4.034821e+001  -1.093751e+002 
3340625000  -4.222609e+001  -1.186287e+002 
3343750000  -4.408068e+001  -1.153566e+002 
3346875000  -4.362506e+001  -1.200880e+002 
3350000000  -4.304889e+001  -1.199016e+002 
3353125000  -4.276557e+001  -1.278107e+002 
3356250000  -4.255501e+001  -1.349744e+002 
3359375000  -4.331953e+001  -1.467921e+002 
3362500000  -4.434030e+001  -1.528309e+002 
3365625000  -4.492912e+001  -1.555931e+002 
3368750000  -4.540146e+001  -1.595466e+002 
3371875000  -4.597327e+001  -1.644088e+002 
3375000000  -4.716621e+001  -1.689456e+002 
3378125000  -4.783926e+001  -1.679769e+002 
3381250000  -4.950045e+001  -1.581163e+002 
3384375000  -4.646600e+001  -1.458407e+002 
3387500000  -4.409403e+001  -1.642058e+002 
3390625000  -4.521187e+001  1.729420e+002 
3393750000  -4.758712e+001  1.755996e+002 
3396875000  -4.580602e+001  1.755378e+002 
3400000000  -4.570878e+001  1.632437e+002 
3403125000  -4.702495e+001  1.574492e+002 
3406250000  -4.734710e+001  1.527734e+002 
3409375000  -4.749618e+001  1.456524e+002 
3412500000  -4.883194e+001  1.421560e+002 
3415625000  -5.022216e+001  1.414350e+002 
3418750000  -5.004787e+001  1.406065e+002 
3421875000  -5.115472e+001  1.420866e+002 
3425000000  -4.974015e+001  1.406662e+002 
3428125000  -4.981760e+001  1.370585e+002 
3431250000  -4.981633e+001  1.265557e+002 
3434375000  -5.057096e+001  1.241594e+002 
3437500000  -5.129805e+001  1.243323e+002 
3440625000  -5.155976e+001  1.263104e+002 
3443750000  -5.039453e+001  1.309998e+002 
3446875000  -5.076592e+001  1.255940e+002 
3450000000  -5.009858e+001  1.114964e+002 
3453125000  -5.088234e+001  1.093914e+002 
3456250000  -5.186830e+001  1.045865e+002 
3459375000  -5.294113e+001  1.129426e+002 
3462500000  -5.207443e+001  1.034152e+002 
3465625000  -5.123948e+001  1.075489e+002 
3468750000  -5.197455e+001  1.001702e+002 
3471875000  -5.187008e+001  9.527219e+001 
3475000000  -5.071124e+001  9.210813e+001 
3478125000  -5.124402e+001  8.469149e+001 
3481250000  -5.278407e+001  8.541778e+001 
3484375000  -5.162304e+001  8.996372e+001 
3487500000  -5.139899e+001  8.365604e+001 
3490625000  -5.114904e+001  7.787358e+001 
3493750000  -5.144695e+001  7.245048e+001 
3496875000  -5.129491e+001  7.357585e+001 
3500000000  -5.179052e+001  7.054348e+001 
3503125000  -5.073957e+001  6.661152e+001 
3506250000  -4.991140e+001  6.647007e+001 
3509375000  -4.927591e+001  4.955704e+001 
3512500000  -4.924056e+001  3.646798e+001 
3515625000  -5.076835e+001  3.469027e+001 
3518750000  -5.168948e+001  3.234024e+001 
3521875000  -5.179188e+001  3.173706e+001 
3525000000  -5.269343e+001  2.445980e+001 
3528125000  -5.183739e+001  2.283603e+001 
3531250000  -5.100791e+001  1.940867e+001 
3534375000  -5.249817e+001  6.692151e+000 
3537500000  -5.308094e+001  8.347068e-002 
3540625000  -5.438963e+001  -5.521844e+000 
3543750000  -5.588598e+001  8.897032e+000 
3546875000  -5.520628e+001  1.105193e+001 
3550000000  -5.257452e+001  7.880258e+000 
3553125000  -5.290356e+001  -1.485596e+001 
3556250000  -5.465864e+001  -1.620617e+001 
3559375000  -5.534586e+001  -1.431213e+001 
3562500000  -5.623814e+001  -2.012075e+001 
3565625000  -5.515320e+001  -2.258335e+001 
3568750000  -5.662484e+001  -1.872964e+001 
3571875000  -5.611418e+001  -2.273187e+001 
3575000000  -5.789350e+001  -2.549194e+001 
3578125000  -5.754292e+001  -2.963914e+001 
3581250000  -5.888049e+001  -1.841269e+001 
3584375000  -5.637881e+001  -1.579797e+001 
3587500000  -5.702021e+001  -2.352566e+001 
3590625000  -5.677256e+001  -4.617765e+001 
3593750000  -5.928905e+001  -3.405942e+001 
3596875000  -5.841083e+001  -1.102402e+001 
3600000000  -5.710606e+001  -1.969575e+001 
3603125000  -5.861152e+001  -4.175940e+001 
3606250000  -5.823388e+001  -3.147402e+001 
3609375000  -5.797121e+001  -2.491259e+001 
3612500000  -5.905393e+001  -2.395283e+001 
3615625000  -5.861394e+001  -3.917294e+001 
3618750000  -5.918341e+001  -1.937304e+001 
3621875000  -5.718791e+001  -2.940431e+001 
3625000000  -5.767841e+001  -2.750481e+001 
3628125000  -5.791948e+001  -2.336392e+001 
3631250000  -5.753837e+001  -3.246373e+001 
3634375000  -5.790155e+001  -2.407129e+001 
3637500000  -5.610107e+001  -2.390738e+001 
3640625000  -5.410734e+001  -1.722891e+001 
3643750000  -5.301556e+001  -3.921077e+001 
3646875000  -5.417578e+001  -3.807518e+001 
3650000000  -5.294939e+001  -4.007832e+001 
3653125000  -5.245084e+001  -3.919341e+001 
3656250000  -5.180230e+001  -4.780903e+001 
3659375000  -5.205105e+001  -4.871276e+001 
3662500000  -5.067865e+001  -4.661960e+001 
3665625000  -4.991806e+001  -5.144520e+001 
3668750000  -4.834584e+001  -5.396210e+001 
3671875000  -4.803254e+001  -6.299710e+001 
3675000000  -4.761159e+001  -7.033273e+001 
3678125000  -4.740660e+001  -7.570818e+001 
3681250000  -4.662703e+001  -8.091344e+001 
3684375000  -4.755915e+001  -8.171478e+001 
3687500000  -4.697955e+001  -8.675452e+001 
3690625000  -4.638564e+001  -9.408656e+001 
3693750000  -4.740573e+001  -9.668404e+001 
3696875000  -4.649520e+001  -9.759270e+001 
3700000000  -4.597150e+001  -1.027761e+002 
3703125000  -4.566743e+001  -1.078960e+002 
3706250000  -4.634659e+001  -1.088793e+002 
3709375000  -4.496193e+001  -1.098754e+002 
3712500000  -4.408373e+001  -1.150679e+002 
3715625000  -4.236250e+001  -1.229570e+002 
3718750000  -4.208813e+001  -1.307277e+002 
3721875000  -4.165342e+001  -1.395664e+002 
3725000000  -4.171259e+001  -1.445911e+002 
3728125000  -4.157770e+001  -1.485503e+002 
3731250000  -4.060166e+001  -1.560927e+002 
3734375000  -4.042241e+001  -1.634168e+002 
3737500000  -4.082786e+001  -1.721921e+002 
3740625000  -4.113105e+001  -1.758803e+002 
3743750000  -4.066068e+001  1.755145e+002 
3746875000  -4.082701e+001  1.677081e+002 
3750000000  -4.134449e+001  1.658561e+002 
3753125000  -4.074709e+001  1.616723e+002 
3756250000  -4.063593e+001  1.566262e+002 
3759375000  -4.060575e+001  1.527523e+002 
3762500000  -4.010030e+001  1.443159e+002 
3765625000  -4.066631e+001  1.413829e+002 
3768750000  -4.017802e+001  1.426833e+002 
3771875000  -3.864686e+001  1.337244e+002 
3775000000  -3.850287e+001  1.237245e+002 
3778125000  -3.912522e+001  1.165057e+002 
3781250000  -3.890126e+001  1.131267e+002 
3784375000  -3.867212e+001  1.050797e+002 
3787500000  -3.856575e+001  9.955772e+001 
3790625000  -3.924451e+001  9.078909e+001 
3793750000  -3.925717e+001  8.760200e+001 
3796875000  -3.835661e+001  8.415114e+001 
3800000000  -3.644471e+001  7.952219e+001 
3803125000  -3.820031e+001  6.621513e+001 
3806250000  -3.888592e+001  6.191260e+001 
3809375000  -3.857349e+001  5.903649e+001 
3812500000  -3.856546e+001  4.789222e+001 
3815625000  -3.945774e+001  3.838889e+001 
3818750000  -4.052045e+001  3.934417e+001 
3821875000  -4.022350e+001  4.913303e+001 
3825000000  -3.838645e+001  4.432531e+001 
3828125000  -3.738118e+001  2.806671e+001 
3831250000  -3.817416e+001  1.373262e+001 
3834375000  -4.019726e+001  1.343356e+001 
3837500000  -4.060495e+001  1.610261e+001 
3840625000  -3.944748e+001  1.393494e+001 
3843750000  -3.848263e+001  -1.759010e+000 
3846875000  -4.006266e+001  -6.938719e+000 
3850000000  -4.076541e+001  -3.741812e+000 
3853125000  -4.008364e+001  -1.221611e+000 
3856250000  -3.983356e+001  -1.002511e+001 
3859375000  -3.869545e+001  -1.453570e+001 
3862500000  -3.878901e+001  -2.532774e+001 
3865625000  -3.905357e+001  -3.235956e+001 
3868750000  -3.900637e+001  -2.974657e+001 
3871875000  -3.791852e+001  -3.799535e+001 
3875000000  -3.863761e+001  -4.977885e+001 
3878125000  -3.968823e+001  -5.157563e+001 
3881250000  -3.943634e+001  -5.082580e+001 
3884375000  -3.874747e+001  -5.819731e+001 
3887500000  -3.898740e+001  -6.484571e+001 
3890625000  -3.961674e+001  -7.057053e+001 
3893750000  -3.975769e+001  -6.975488e+001 
3896875000  -4.003259e+001  -7.330986e+001 
3900000000  -3.991285e+001  -7.792272e+001 
3903125000  -3.926228e+001  -8.069221e+001 
3906250000  -3.903076e+001  -8.504211e+001 
3909375000  -3.817010e+001  -9.523506e+001 
3912500000  -3.908165e+001  -1.043047e+002 
3915625000  -4.023431e+001  -1.050033e+002 
3918750000  -3.996431e+001  -1.053012e+002 
3921875000  -3.941742e+001  -1.099486e+002 
3925000000  -3.854281e+001  -1.120328e+002 
3928125000  -3.812761e+001  -1.248069e+002 
3931250000  -3.899176e+001  -1.319621e+002 
3934375000  -3.957135e+001  -1.319312e+002 
3937500000  -3.986310e+001  -1.336981e+002 
3940625000  -4.006329e+001  -1.375273e+002 
3943750000  -3.895772e+001  -1.402494e+002 
3946875000  -3.830601e+001  -1.480624e+002 
3950000000  -3.933636e+001  -1.558698e+002 
3953125000  -4.015940e+001  -1.570888e+002 
3956250000  -3.865989e+001  -1.565996e+002 
3959375000  -3.774525e+001  -1.633885e+002 
3962500000  -3.770957e+001  -1.709490e+002 
3965625000  -3.763807e+001  1.793465e+002 
3968750000  -3.880008e+001  1.711794e+002 
3971875000  -3.895099e+001  1.661986e+002 
3975000000  -3.846381e+001  1.629843e+002 
3978125000  -3.843727e+001  1.600487e+002 
3981250000  -3.853319e+001  1.508981e+002 
3984375000  -3.888246e+001  1.429111e+002 
3987500000  -3.959632e+001  1.413861e+002 
3990625000  -3.970641e+001  1.384945e+002 
3993750000  -3.996577e+001  1.318297e+002 
3996875000  -3.989281e+001  1.292529e+002 
4000000000  -4.068636e+001  1.263755e+002 
4003125000  -4.083640e+001  1.272424e+002 
4006250000  -3.941438e+001  1.263153e+002 
4009375000  -3.868272e+001  1.096361e+002 
4012500000  -4.021214e+001  1.037950e+002 
4015625000  -4.139868e+001  1.017993e+002 
4018750000  -4.148171e+001  1.017272e+002 
4021875000  -4.102500e+001  9.845641e+001 
4025000000  -4.066727e+001  9.421619e+001 
4028125000  -4.065582e+001  8.687365e+001 
4031250000  -4.090899e+001  8.459113e+001 
4034375000  -4.139413e+001  8.091708e+001 
4037500000  -4.085255e+001  8.269451e+001 
4040625000  -4.070493e+001  7.876786e+001 
4043750000  -4.098421e+001  7.635259e+001 
4046875000  -4.050986e+001  7.040838e+001 
4050000000  -4.061485e+001  6.579984e+001 
4053125000  -4.094526e+001  6.276718e+001 
4056250000  -4.138671e+001  6.725213e+001 
4059375000  -3.949713e+001  6.613307e+001 
4062500000  -3.852563e+001  5.924602e+001 
4065625000  -3.863103e+001  5.414838e+001 
4068750000  -3.809186e+001  4.679441e+001 
4071875000  -3.734995e+001  3.439123e+001 
4075000000  -3.824703e+001  2.869631e+001 
4078125000  -3.845170e+001  2.456726e+001 
4081250000  -3.792182e+001  1.950053e+001 
4084375000  -3.777696e+001  9.848183e+000 
4087500000  -3.838422e+001  2.340021e+000 
4090625000  -3.892223e+001  2.766979e-001 
4093750000  -3.851183e+001  -4.460259e-001 
4096875000  -3.822388e+001  -1.077410e+001 
4100000000  -3.945454e+001  -1.740090e+001 
4103125000  -4.034229e+001  -1.776018e+001 
4106250000  -3.965593e+001  -1.410561e+001 
4109375000  -3.881340e+001  -1.720115e+001 
4112500000  -3.830252e+001  -2.559205e+001 
4115625000  -3.890200e+001  -3.388251e+001 
4118750000  -3.868537e+001  -3.816812e+001 
4121875000  -3.866394e+001  -4.376663e+001 
4125000000  -3.950264e+001  -4.988168e+001 
4128125000  -4.050563e+001  -4.813373e+001 
4131250000  -3.948988e+001  -4.446052e+001 
4134375000  -3.739604e+001  -5.364954e+001 
4137500000  -3.752861e+001  -7.440649e+001 
4140625000  -4.002457e+001  -8.030980e+001 
4143750000  -4.097625e+001  -7.567608e+001 
4146875000  -4.035917e+001  -7.166113e+001 
4150000000  -3.946597e+001  -7.884920e+001 
4153125000  -3.978754e+001  -8.819592e+001 
4156250000  -4.084828e+001  -9.122248e+001 
4159375000  -4.085478e+001  -8.538081e+001 
4162500000  -3.978402e+001  -8.332958e+001 
4165625000  -3.860096e+001  -9.100178e+001 
4168750000  -3.826382e+001  -1.007860e+002 
4171875000  -3.811454e+001  -1.094058e+002 
4175000000  -3.867492e+001  -1.178459e+002 
4178125000  -3.906641e+001  -1.178264e+002 
4181250000  -3.910352e+001  -1.222513e+002 
4184375000  -3.893802e+001  -1.255335e+002 
4187500000  -3.915945e+001  -1.308869e+002 
4190625000  -3.919551e+001  -1.373059e+002 
4193750000  -4.001688e+001  -1.446753e+002 
4196875000  -4.103905e+001  -1.455644e+002 
4200000000  -4.203089e+001  -1.411813e+002 
4203125000  -4.076306e+001  -1.276986e+002 
4206250000  -3.722861e+001  -1.343458e+002 
4209375000  -3.677880e+001  -1.589498e+002 
4212500000  -3.904338e+001  -1.636328e+002 
4215625000  -3.953663e+001  -1.581854e+002 
4218750000  -3.782388e+001  -1.579631e+002 
4221875000  -3.593827e+001  -1.684890e+002 
4225000000  -3.730151e+001  1.798481e+002 
4228125000  -3.761047e+001  -1.782378e+002 
4231250000  -3.572514e+001  1.737862e+002 
4234375000  -3.584547e+001  1.619464e+002 
4237500000  -3.560554e+001  1.573099e+002 
4240625000  -3.577765e+001  1.467340e+002 
4243750000  -3.700306e+001  1.400918e+002 
4246875000  -3.785027e+001  1.379394e+002 
4250000000  -3.793503e+001  1.371365e+002 
4253125000  -3.743294e+001  1.337312e+002 
4256250000  -3.721925e+001  1.294284e+002 
4259375000  -3.703872e+001  1.237548e+002 
4262500000  -3.743737e+001  1.199060e+002 
4265625000  -3.753727e+001  1.179710e+002 
4268750000  -3.633749e+001  1.106805e+002 
4271875000  -3.614807e+001  1.017578e+002 
4275000000  -3.582081e+001  9.239496e+001 
4278125000  -3.675932e+001  8.064410e+001 
4281250000  -3.842597e+001  7.756073e+001 
4284375000  -3.819296e+001  7.493484e+001 
4287500000  -3.960997e+001  7.126633e+001 
4290625000  -4.018541e+001  7.980954e+001 
4293750000  -3.811311e+001  8.140520e+001 
4296875000  -3.713218e+001  6.939319e+001 
4300000000  -3.836453e+001  5.998845e+001 
4303125000  -3.955583e+001  6.108540e+001 
4306250000  -3.798705e+001  6.283264e+001 
4309375000  -3.699664e+001  5.785780e+001 
4312500000  -3.720519e+001  4.757881e+001 
4315625000  -3.729292e+001  3.772073e+001 
4318750000  -3.781962e+001  3.455775e+001 
4321875000  -3.824757e+001  3.423342e+001 
4325000000  -3.751180e+001  3.340931e+001 
4328125000  -3.678518e+001  2.337813e+001 
4331250000  -3.705020e+001  1.341895e+001 
4334375000  -3.770855e+001  7.108507e+000 
4337500000  -3.882273e+001  5.538475e+000 
4340625000  -3.904451e+001  9.674584e+000 
4343750000  -3.820515e+001  7.628380e+000 
4346875000  -3.754403e+001  -1.928920e+000 
4350000000  -3.797300e+001  -9.058477e+000 
4353125000  -3.825916e+001  -1.721679e+001 
4356250000  -4.007735e+001  -1.344161e+001 
4359375000  -3.987354e+001  1.469509e+000 
4362500000  -3.647609e+001  -4.164303e+000 
4365625000  -3.537142e+001  -2.369053e+001 
4368750000  -3.681981e+001  -3.350944e+001 
4371875000  -3.739010e+001  -3.573753e+001 
4375000000  -3.688095e+001  -3.621823e+001 
4378125000  -3.622248e+001  -4.483374e+001 
4381250000  -3.652960e+001  -5.244792e+001 
4384375000  -3.660073e+001  -5.951233e+001 
4387500000  -3.728349e+001  -6.703179e+001 
4390625000  -3.791793e+001  -6.662540e+001 
4393750000  -3.756462e+001  -6.691188e+001 
4396875000  -3.688090e+001  -7.041422e+001 
4400000000  -3.634803e+001  -8.129900e+001 
4403125000  -3.708245e+001  -9.133554e+001 
4406250000  -3.777026e+001  -9.470885e+001 
4409375000  -3.774130e+001  -9.939063e+001 
4412500000  -3.902509e+001  -1.027576e+002 
4415625000  -3.880876e+001  -9.660318e+001 
