!Agilent Technologies,E8363B,MY43030201,A.06.04.32
!Agilent E8363B: A.06.04.32
!Date: Tuesday, November 11, 2014 21:27:16
!Correction: S21(Response(S21)) 
!S1P File: Measurement: S21:
# Hz S  dB   R 50
3000000000  -4.062604e+001  9.362827e+001 
3003125000  -4.224585e+001  8.636283e+001 
3006250000  -4.223888e+001  8.498711e+001 
3009375000  -4.290702e+001  8.863514e+001 
3012500000  -4.164961e+001  8.536742e+001 
3015625000  -4.126364e+001  7.739994e+001 
3018750000  -4.172016e+001  7.744078e+001 
3021875000  -4.038831e+001  7.949927e+001 
3025000000  -3.894866e+001  7.566457e+001 
3028125000  -3.794633e+001  6.514181e+001 
3031250000  -3.705602e+001  5.355972e+001 
3034375000  -3.673117e+001  4.006143e+001 
3037500000  -3.756272e+001  2.872118e+001 
3040625000  -3.887005e+001  2.418282e+001 
3043750000  -3.928415e+001  1.681888e+001 
3046875000  -3.965203e+001  1.147062e+001 
3050000000  -4.090199e+001  5.905946e+000 
3053125000  -4.053574e+001  1.097341e+001 
3056250000  -4.050983e+001  1.285164e+001 
3059375000  -3.991060e+001  1.139789e+001 
3062500000  -3.843756e+001  7.186808e+000 
3065625000  -3.806022e+001  -2.511705e+000 
3068750000  -3.767828e+001  -1.041047e+001 
3071875000  -3.769664e+001  -1.293871e+001 
3075000000  -3.717565e+001  -1.945428e+001 
3078125000  -3.712782e+001  -2.509849e+001 
3081250000  -3.739830e+001  -3.041412e+001 
3084375000  -3.650390e+001  -3.585352e+001 
3087500000  -3.652531e+001  -4.242844e+001 
3090625000  -3.592707e+001  -5.501128e+001 
3093750000  -3.678416e+001  -6.231725e+001 
3096875000  -3.728343e+001  -6.820892e+001 
3100000000  -3.734271e+001  -7.154380e+001 
3103125000  -3.759186e+001  -7.397575e+001 
3106250000  -3.718512e+001  -8.095582e+001 
3109375000  -3.718934e+001  -8.430345e+001 
3112500000  -3.721630e+001  -8.953161e+001 
3115625000  -3.717660e+001  -9.426450e+001 
3118750000  -3.731291e+001  -9.549483e+001 
3121875000  -3.652890e+001  -1.074817e+002 
3125000000  -3.831274e+001  -1.113042e+002 
3128125000  -3.878781e+001  -1.046867e+002 
3131250000  -3.624487e+001  -1.097449e+002 
3134375000  -3.534076e+001  -1.262944e+002 
3137500000  -3.600048e+001  -1.394629e+002 
3140625000  -3.748952e+001  -1.425341e+002 
3143750000  -3.816251e+001  -1.436806e+002 
3146875000  -3.770926e+001  -1.426098e+002 
3150000000  -3.713152e+001  -1.450440e+002 
3153125000  -3.718054e+001  -1.544315e+002 
3156250000  -3.807030e+001  -1.507639e+002 
3159375000  -3.589459e+001  -1.516367e+002 
3162500000  -3.419753e+001  -1.679204e+002 
3165625000  -3.545785e+001  1.793416e+002 
3168750000  -3.543448e+001  1.783424e+002 
3171875000  -3.487523e+001  1.717489e+002 
3175000000  -3.547030e+001  1.616033e+002 
3178125000  -3.511858e+001  1.613348e+002 
3181250000  -3.443452e+001  1.524606e+002 
3184375000  -3.404550e+001  1.415524e+002 
3187500000  -3.533329e+001  1.267302e+002 
3190625000  -3.719782e+001  1.202475e+002 
3193750000  -3.773134e+001  1.257214e+002 
3196875000  -3.742698e+001  1.267566e+002 
3200000000  -3.640413e+001  1.209192e+002 
3203125000  -3.588728e+001  1.128057e+002 
3206250000  -3.620040e+001  1.059122e+002 
3209375000  -3.590252e+001  9.836345e+001 
3212500000  -3.623062e+001  9.130205e+001 
3215625000  -3.607855e+001  8.749899e+001 
3218750000  -3.691154e+001  7.689301e+001 
3221875000  -3.746312e+001  7.002229e+001 
3225000000  -3.717208e+001  6.712650e+001 
3228125000  -3.774484e+001  5.985905e+001 
3231250000  -3.828191e+001  5.659184e+001 
3234375000  -3.807400e+001  5.448317e+001 
3237500000  -3.814321e+001  5.028228e+001 
3240625000  -3.768480e+001  4.485620e+001 
3243750000  -3.760611e+001  3.574098e+001 
3246875000  -3.819485e+001  2.776305e+001 
3250000000  -3.879272e+001  2.388231e+001 
3253125000  -3.895631e+001  2.010408e+001 
3256250000  -3.869640e+001  1.253498e+001 
3259375000  -3.895164e+001  3.184760e+000 
3262500000  -4.068022e+001  -1.985106e+000 
3265625000  -4.135866e+001  1.141758e+000 
3268750000  -4.117952e+001  7.275780e-001 
3271875000  -4.080079e+001  -3.842145e-001 
3275000000  -4.016042e+001  -8.726027e+000 
3278125000  -4.074020e+001  -1.567635e+001 
3281250000  -4.092728e+001  -1.656515e+001 
3284375000  -4.061208e+001  -2.270298e+001 
3287500000  -4.081350e+001  -2.613102e+001 
3290625000  -4.143260e+001  -3.484515e+001 
3293750000  -4.125013e+001  -3.904617e+001 
3296875000  -4.249715e+001  -4.112111e+001 
3300000000  -4.202776e+001  -3.907986e+001 
3303125000  -4.097824e+001  -4.675357e+001 
3306250000  -4.082972e+001  -5.339150e+001 
3309375000  -4.052308e+001  -6.116962e+001 
3312500000  -4.079708e+001  -7.318075e+001 
3315625000  -4.189509e+001  -8.105903e+001 
3318750000  -4.337992e+001  -8.530737e+001 
3321875000  -4.484772e+001  -8.081199e+001 
3325000000  -4.470184e+001  -7.445448e+001 
3328125000  -4.399819e+001  -7.618182e+001 
3331250000  -4.255647e+001  -7.330875e+001 
3334375000  -4.005139e+001  -8.680276e+001 
3337500000  -4.054329e+001  -1.075282e+002 
3340625000  -4.183320e+001  -1.181978e+002 
3343750000  -4.418373e+001  -1.196295e+002 
3346875000  -4.351945e+001  -1.178656e+002 
3350000000  -4.298644e+001  -1.198438e+002 
3353125000  -4.291529e+001  -1.259290e+002 
3356250000  -4.252111e+001  -1.367318e+002 
3359375000  -4.323942e+001  -1.455884e+002 
3362500000  -4.417246e+001  -1.522495e+002 
3365625000  -4.449118e+001  -1.563295e+002 
3368750000  -4.543364e+001  -1.577814e+002 
3371875000  -4.561143e+001  -1.662762e+002 
3375000000  -4.698960e+001  -1.682367e+002 
3378125000  -4.774351e+001  -1.670294e+002 
3381250000  -4.920440e+001  -1.608996e+002 
3384375000  -4.657352e+001  -1.423526e+002 
3387500000  -4.421461e+001  -1.649498e+002 
3390625000  -4.597242e+001  1.780518e+002 
3393750000  -4.771023e+001  1.734604e+002 
3396875000  -4.621490e+001  1.747901e+002 
3400000000  -4.593402e+001  1.621451e+002 
3403125000  -4.708315e+001  1.567268e+002 
3406250000  -4.739090e+001  1.553057e+002 
3409375000  -4.768502e+001  1.468720e+002 
3412500000  -4.863776e+001  1.431297e+002 
3415625000  -4.983213e+001  1.437566e+002 
3418750000  -5.015295e+001  1.421212e+002 
3421875000  -5.049973e+001  1.422028e+002 
3425000000  -4.980717e+001  1.460721e+002 
3428125000  -4.942010e+001  1.380146e+002 
3431250000  -4.947812e+001  1.293764e+002 
3434375000  -5.101546e+001  1.240216e+002 
3437500000  -5.141187e+001  1.230452e+002 
3440625000  -5.132027e+001  1.238641e+002 
3443750000  -5.016466e+001  1.325425e+002 
3446875000  -5.021866e+001  1.228821e+002 
3450000000  -4.999592e+001  1.158523e+002 
3453125000  -5.062453e+001  1.073714e+002 
3456250000  -5.175152e+001  1.106647e+002 
3459375000  -5.270126e+001  1.041103e+002 
3462500000  -5.174306e+001  1.091677e+002 
3465625000  -5.147175e+001  1.038549e+002 
3468750000  -5.216088e+001  1.032806e+002 
3471875000  -5.194249e+001  9.778343e+001 
3475000000  -5.121063e+001  9.421825e+001 
3478125000  -5.088107e+001  8.680305e+001 
3481250000  -5.164913e+001  8.520612e+001 
3484375000  -5.246762e+001  8.877903e+001 
3487500000  -5.140356e+001  8.720723e+001 
3490625000  -5.018066e+001  7.629472e+001 
3493750000  -5.072268e+001  7.316866e+001 
3496875000  -5.164019e+001  7.237106e+001 
3500000000  -5.158907e+001  7.387847e+001 
3503125000  -5.103703e+001  6.735365e+001 
3506250000  -4.935719e+001  6.099498e+001 
3509375000  -4.954678e+001  5.026136e+001 
3512500000  -4.932655e+001  3.414315e+001 
3515625000  -5.102332e+001  3.418663e+001 
3518750000  -5.158119e+001  3.895619e+001 
3521875000  -5.127578e+001  2.567326e+001 
3525000000  -5.291341e+001  1.716674e+001 
3528125000  -5.240169e+001  3.513327e+001 
3531250000  -5.103522e+001  2.089290e+001 
3534375000  -5.183841e+001  8.514443e+000 
3537500000  -5.323739e+001  2.047892e+000 
3540625000  -5.462327e+001  -9.861094e-001 
3543750000  -5.482712e+001  7.794202e-002 
3546875000  -5.407649e+001  8.691647e+000 
3550000000  -5.337334e+001  5.733759e+000 
3553125000  -5.312670e+001  -1.216020e+001 
3556250000  -5.435155e+001  -9.153407e+000 
3559375000  -5.637653e+001  -1.696641e+001 
3562500000  -5.544098e+001  -2.350116e+001 
3565625000  -5.620537e+001  -4.300221e+001 
3568750000  -5.594884e+001  -2.151114e+001 
3571875000  -5.722989e+001  -1.704121e+001 
3575000000  -5.774026e+001  -2.334903e+001 
3578125000  -5.856018e+001  -2.370226e+001 
3581250000  -5.956821e+001  -1.643980e+001 
3584375000  -5.655984e+001  -9.546330e+000 
3587500000  -5.849264e+001  -2.399492e+001 
3590625000  -5.754202e+001  -4.375530e+001 
3593750000  -6.049263e+001  -1.840111e+001 
3596875000  -5.856034e+001  -1.398297e+001 
3600000000  -5.647165e+001  -2.307269e+001 
3603125000  -6.023384e+001  -3.836300e+001 
3606250000  -5.753785e+001  -2.625741e+001 
3609375000  -5.703233e+001  -2.413849e+001 
3612500000  -5.924245e+001  -3.924917e+001 
3615625000  -5.799807e+001  -4.462934e+001 
3618750000  -5.932851e+001  -3.145217e+001 
3621875000  -5.974686e+001  -2.512931e+001 
3625000000  -5.766702e+001  -2.973090e+001 
3628125000  -5.695915e+001  -3.042751e+001 
3631250000  -5.681367e+001  -2.617511e+001 
3634375000  -5.752669e+001  -1.904653e+001 
3637500000  -5.780441e+001  -2.517419e+001 
3640625000  -5.530502e+001  -1.825105e+001 
3643750000  -5.408598e+001  -2.573683e+001 
3646875000  -5.334061e+001  -3.903518e+001 
3650000000  -5.279395e+001  -3.612702e+001 
3653125000  -5.230606e+001  -4.367986e+001 
3656250000  -5.294873e+001  -3.539279e+001 
3659375000  -5.229565e+001  -3.878210e+001 
3662500000  -5.162487e+001  -4.713424e+001 
3665625000  -4.985280e+001  -5.277514e+001 
3668750000  -4.828259e+001  -4.900428e+001 
3671875000  -4.777719e+001  -6.210489e+001 
3675000000  -4.768584e+001  -7.206820e+001 
3678125000  -4.791073e+001  -7.479844e+001 
3681250000  -4.715822e+001  -7.950780e+001 
3684375000  -4.707092e+001  -7.893590e+001 
3687500000  -4.689783e+001  -8.724895e+001 
3690625000  -4.682605e+001  -9.498499e+001 
3693750000  -4.692832e+001  -9.728455e+001 
3696875000  -4.721176e+001  -9.669189e+001 
3700000000  -4.531262e+001  -1.028943e+002 
3703125000  -4.579369e+001  -1.096917e+002 
3706250000  -4.633244e+001  -1.096318e+002 
3709375000  -4.501697e+001  -1.063017e+002 
3712500000  -4.429833e+001  -1.128836e+002 
3715625000  -4.234444e+001  -1.235955e+002 
3718750000  -4.189577e+001  -1.293025e+002 
3721875000  -4.150003e+001  -1.391371e+002 
3725000000  -4.176668e+001  -1.426737e+002 
3728125000  -4.160509e+001  -1.486299e+002 
3731250000  -4.094012e+001  -1.549583e+002 
3734375000  -4.029440e+001  -1.619575e+002 
3737500000  -4.075537e+001  -1.710000e+002 
3740625000  -4.078673e+001  -1.765238e+002 
3743750000  -4.068001e+001  1.780806e+002 
3746875000  -4.085588e+001  1.699301e+002 
3750000000  -4.101343e+001  1.659283e+002 
3753125000  -4.048591e+001  1.626438e+002 
3756250000  -4.056825e+001  1.598914e+002 
3759375000  -4.051660e+001  1.537148e+002 
3762500000  -4.027812e+001  1.468551e+002 
3765625000  -4.061847e+001  1.429573e+002 
3768750000  -4.019739e+001  1.418540e+002 
3771875000  -3.837357e+001  1.346294e+002 
3775000000  -3.858871e+001  1.236031e+002 
3778125000  -3.914796e+001  1.183875e+002 
3781250000  -3.895825e+001  1.139129e+002 
3784375000  -3.878015e+001  1.069246e+002 
3787500000  -3.857123e+001  1.025708e+002 
3790625000  -3.921476e+001  9.121742e+001 
3793750000  -3.890646e+001  9.031419e+001 
3796875000  -3.843867e+001  8.524146e+001 
3800000000  -3.659647e+001  8.078808e+001 
3803125000  -3.794484e+001  6.674293e+001 
3806250000  -3.915405e+001  6.302141e+001 
3809375000  -3.856544e+001  5.789249e+001 
3812500000  -3.850636e+001  4.979720e+001 
3815625000  -3.969972e+001  3.955405e+001 
3818750000  -4.066358e+001  4.143769e+001 
3821875000  -4.024469e+001  5.091505e+001 
3825000000  -3.842668e+001  4.679016e+001 
3828125000  -3.702913e+001  2.911172e+001 
3831250000  -3.817911e+001  1.583705e+001 
3834375000  -4.010244e+001  1.334210e+001 
3837500000  -4.060280e+001  1.649610e+001 
3840625000  -3.932909e+001  1.381979e+001 
3843750000  -3.847429e+001  -2.829049e-001 
3846875000  -3.962376e+001  -7.859678e+000 
3850000000  -4.083470e+001  -2.367456e+000 
3853125000  -4.014835e+001  2.163539e-001 
3856250000  -3.978513e+001  -6.594906e+000 
3859375000  -3.858095e+001  -1.499348e+001 
3862500000  -3.861757e+001  -2.398459e+001 
3865625000  -3.910405e+001  -2.973929e+001 
3868750000  -3.903986e+001  -3.063887e+001 
3871875000  -3.804276e+001  -3.748621e+001 
3875000000  -3.846003e+001  -4.753119e+001 
3878125000  -3.948497e+001  -5.077354e+001 
3881250000  -3.952791e+001  -5.137638e+001 
3884375000  -3.858763e+001  -5.616619e+001 
3887500000  -3.904789e+001  -6.282972e+001 
3890625000  -3.960820e+001  -6.896234e+001 
3893750000  -3.975858e+001  -6.921458e+001 
3896875000  -3.993894e+001  -7.283748e+001 
3900000000  -3.980927e+001  -7.561060e+001 
3903125000  -3.954528e+001  -8.211395e+001 
3906250000  -3.906902e+001  -8.492825e+001 
3909375000  -3.838250e+001  -9.383617e+001 
3912500000  -3.860955e+001  -1.026618e+002 
3915625000  -4.041036e+001  -1.022068e+002 
3918750000  -4.039767e+001  -1.031722e+002 
3921875000  -3.936878e+001  -1.059323e+002 
3925000000  -3.848025e+001  -1.130591e+002 
3928125000  -3.829510e+001  -1.229765e+002 
3931250000  -3.918970e+001  -1.308699e+002 
3934375000  -3.963978e+001  -1.317857e+002 
3937500000  -3.994008e+001  -1.332073e+002 
3940625000  -3.982767e+001  -1.355556e+002 
3943750000  -3.906708e+001  -1.371200e+002 
3946875000  -3.820736e+001  -1.462197e+002 
3950000000  -3.927863e+001  -1.564155e+002 
3953125000  -3.998886e+001  -1.561334e+002 
3956250000  -3.871360e+001  -1.567536e+002 
3959375000  -3.810509e+001  -1.615802e+002 
3962500000  -3.773051e+001  -1.710433e+002 
3965625000  -3.749616e+001  -1.797963e+002 
3968750000  -3.862769e+001  1.729562e+002 
3971875000  -3.879166e+001  1.683438e+002 
3975000000  -3.841970e+001  1.640729e+002 
3978125000  -3.841681e+001  1.587523e+002 
3981250000  -3.856763e+001  1.517899e+002 
3984375000  -3.885207e+001  1.447891e+002 
3987500000  -3.958543e+001  1.414649e+002 
3990625000  -4.005743e+001  1.422099e+002 
3993750000  -3.981350e+001  1.347245e+002 
3996875000  -4.002425e+001  1.293415e+002 
4000000000  -4.049635e+001  1.239295e+002 
4003125000  -4.084084e+001  1.290095e+002 
4006250000  -3.944739e+001  1.264808e+002 
4009375000  -3.858231e+001  1.098474e+002 
4012500000  -4.005548e+001  1.028693e+002 
4015625000  -4.133858e+001  1.047862e+002 
4018750000  -4.154036e+001  1.031650e+002 
4021875000  -4.074962e+001  1.003927e+002 
4025000000  -4.070567e+001  9.497361e+001 
4028125000  -4.041571e+001  8.891690e+001 
4031250000  -4.082247e+001  8.372704e+001 
4034375000  -4.156646e+001  8.296390e+001 
4037500000  -4.087394e+001  8.382257e+001 
4040625000  -4.081217e+001  8.058973e+001 
4043750000  -4.095285e+001  7.814458e+001 
4046875000  -4.076216e+001  7.208798e+001 
4050000000  -4.056020e+001  6.688477e+001 
4053125000  -4.105043e+001  6.399201e+001 
4056250000  -4.126039e+001  6.845493e+001 
4059375000  -3.931717e+001  6.561876e+001 
4062500000  -3.892875e+001  5.709957e+001 
4065625000  -3.909468e+001  5.249145e+001 
4068750000  -3.797544e+001  4.614602e+001 
4071875000  -3.754337e+001  3.627785e+001 
4075000000  -3.827684e+001  2.950607e+001 
4078125000  -3.851963e+001  2.529642e+001 
4081250000  -3.790654e+001  2.113278e+001 
4084375000  -3.774371e+001  1.127845e+001 
4087500000  -3.817968e+001  3.721507e+000 
4090625000  -3.893066e+001  2.326572e+000 
4093750000  -3.860218e+001  -1.980282e-001 
4096875000  -3.858889e+001  -9.282625e+000 
4100000000  -3.939566e+001  -1.645658e+001 
4103125000  -4.035706e+001  -1.572445e+001 
4106250000  -3.965102e+001  -1.207110e+001 
4109375000  -3.869151e+001  -1.546666e+001 
4112500000  -3.816964e+001  -2.564902e+001 
4115625000  -3.910931e+001  -3.192621e+001 
4118750000  -3.881490e+001  -3.650194e+001 
4121875000  -3.856203e+001  -4.557675e+001 
4125000000  -3.941771e+001  -4.883560e+001 
4128125000  -4.064862e+001  -4.937709e+001 
4131250000  -3.986363e+001  -4.329691e+001 
4134375000  -3.751865e+001  -5.270973e+001 
4137500000  -3.753719e+001  -7.392393e+001 
4140625000  -3.992523e+001  -8.165701e+001 
4143750000  -4.108053e+001  -7.612220e+001 
4146875000  -4.041148e+001  -6.986125e+001 
4150000000  -3.912251e+001  -7.841919e+001 
4153125000  -3.959123e+001  -8.689771e+001 
4156250000  -4.073283e+001  -9.267649e+001 
4159375000  -4.111875e+001  -8.610122e+001 
4162500000  -3.950701e+001  -8.275611e+001 
4165625000  -3.860809e+001  -9.052579e+001 
4168750000  -3.801464e+001  -1.005974e+002 
4171875000  -3.812851e+001  -1.096274e+002 
4175000000  -3.882739e+001  -1.157477e+002 
4178125000  -3.919666e+001  -1.167329e+002 
4181250000  -3.899087e+001  -1.224675e+002 
4184375000  -3.902300e+001  -1.261478e+002 
4187500000  -3.902982e+001  -1.313356e+002 
4190625000  -3.903074e+001  -1.374416e+002 
4193750000  -4.009793e+001  -1.437067e+002 
4196875000  -4.084822e+001  -1.446467e+002 
4200000000  -4.195399e+001  -1.381206e+002 
4203125000  -4.070913e+001  -1.263447e+002 
4206250000  -3.708234e+001  -1.334922e+002 
4209375000  -3.683707e+001  -1.580047e+002 
4212500000  -3.895669e+001  -1.665472e+002 
4215625000  -3.978407e+001  -1.583600e+002 
4218750000  -3.771055e+001  -1.565722e+002 
4221875000  -3.604746e+001  -1.678880e+002 
4225000000  -3.744982e+001  -1.795467e+002 
4228125000  -3.743265e+001  -1.780939e+002 
4231250000  -3.588671e+001  1.771132e+002 
4234375000  -3.600860e+001  1.645059e+002 
4237500000  -3.577038e+001  1.585179e+002 
4240625000  -3.584760e+001  1.488544e+002 
4243750000  -3.693469e+001  1.394815e+002 
4246875000  -3.786292e+001  1.394503e+002 
4250000000  -3.767892e+001  1.371725e+002 
4253125000  -3.740821e+001  1.356602e+002 
4256250000  -3.746173e+001  1.302520e+002 
4259375000  -3.703226e+001  1.244593e+002 
4262500000  -3.719947e+001  1.189819e+002 
4265625000  -3.740740e+001  1.180976e+002 
4268750000  -3.634574e+001  1.105874e+002 
4271875000  -3.628214e+001  1.027921e+002 
4275000000  -3.582144e+001  9.309650e+001 
4278125000  -3.673949e+001  8.149222e+001 
4281250000  -3.847034e+001  7.970207e+001 
4284375000  -3.830677e+001  7.747155e+001 
4287500000  -3.978384e+001  7.289534e+001 
4290625000  -4.030953e+001  8.132127e+001 
4293750000  -3.803955e+001  8.213256e+001 
4296875000  -3.719866e+001  6.919055e+001 
4300000000  -3.851112e+001  5.886993e+001 
4303125000  -3.944916e+001  6.325369e+001 
4306250000  -3.824311e+001  6.544762e+001 
4309375000  -3.714181e+001  5.895243e+001 
4312500000  -3.711117e+001  4.754548e+001 
4315625000  -3.748711e+001  4.059519e+001 
4318750000  -3.807254e+001  3.671103e+001 
4321875000  -3.822721e+001  3.682805e+001 
4325000000  -3.753500e+001  3.443812e+001 
4328125000  -3.691523e+001  2.610712e+001 
4331250000  -3.700489e+001  1.490361e+001 
4334375000  -3.773296e+001  8.395774e+000 
4337500000  -3.891986e+001  7.397072e+000 
4340625000  -3.900373e+001  1.155600e+001 
4343750000  -3.819088e+001  1.001956e+001 
4346875000  -3.770957e+001  5.582907e-001 
4350000000  -3.762585e+001  -6.495285e+000 
4353125000  -3.801492e+001  -1.443258e+001 
4356250000  -3.996378e+001  -1.296087e+001 
4359375000  -3.980102e+001  2.392650e-001 
4362500000  -3.625469e+001  -6.238488e+000 
4365625000  -3.538015e+001  -2.250451e+001 
4368750000  -3.670822e+001  -3.437758e+001 
4371875000  -3.751612e+001  -3.269148e+001 
4375000000  -3.691036e+001  -3.592654e+001 
4378125000  -3.638960e+001  -4.321194e+001 
4381250000  -3.659430e+001  -5.167408e+001 
4384375000  -3.659941e+001  -5.966758e+001 
4387500000  -3.745103e+001  -6.591746e+001 
4390625000  -3.800520e+001  -6.565565e+001 
4393750000  -3.767283e+001  -6.491587e+001 
4396875000  -3.666879e+001  -7.067503e+001 
4400000000  -3.630259e+001  -8.011337e+001 
4403125000  -3.697371e+001  -9.006371e+001 
4406250000  -3.764873e+001  -9.280883e+001 
4409375000  -3.771812e+001  -9.653870e+001 
4412500000  -3.891112e+001  -1.018938e+002 
4415625000  -3.889491e+001  -9.725845e+001 
