!Agilent Technologies,E8363B,MY43030201,A.06.04.32
!Agilent E8363B: A.06.04.32
!Date: Tuesday, November 11, 2014 21:34:25
!Correction: S21(Response(S21)) 
!S1P File: Measurement: S21:
# Hz S  dB   R 50
3000000000  -4.066369e+001  7.334855e+001 
3003125000  -4.211204e+001  6.578143e+001 
3006250000  -4.219183e+001  6.598245e+001 
3009375000  -4.282698e+001  7.082577e+001 
3012500000  -4.164043e+001  6.406383e+001 
3015625000  -4.143596e+001  5.754678e+001 
3018750000  -4.168569e+001  5.920560e+001 
3021875000  -4.018419e+001  5.938356e+001 
3025000000  -3.889738e+001  5.505107e+001 
3028125000  -3.794620e+001  4.467964e+001 
3031250000  -3.683794e+001  3.324025e+001 
3034375000  -3.678390e+001  1.907662e+001 
3037500000  -3.767490e+001  8.697062e+000 
3040625000  -3.878486e+001  2.950802e+000 
3043750000  -3.918777e+001  -3.892988e+000 
3046875000  -3.979389e+001  -8.734036e+000 
3050000000  -4.099931e+001  -1.399771e+001 
3053125000  -4.054451e+001  -1.001480e+001 
3056250000  -4.037302e+001  -6.488892e+000 
3059375000  -3.968444e+001  -7.439219e+000 
3062500000  -3.837310e+001  -1.249963e+001 
3065625000  -3.780614e+001  -2.168890e+001 
3068750000  -3.746091e+001  -3.001161e+001 
3071875000  -3.763787e+001  -3.206665e+001 
3075000000  -3.706285e+001  -3.871863e+001 
3078125000  -3.696503e+001  -4.574879e+001 
3081250000  -3.722670e+001  -5.138727e+001 
3084375000  -3.632642e+001  -5.610598e+001 
3087500000  -3.648111e+001  -6.375066e+001 
3090625000  -3.595699e+001  -7.497740e+001 
3093750000  -3.693343e+001  -8.285635e+001 
3096875000  -3.741092e+001  -8.851407e+001 
3100000000  -3.719504e+001  -9.167236e+001 
3103125000  -3.753719e+001  -9.594471e+001 
3106250000  -3.716365e+001  -1.003512e+002 
3109375000  -3.720199e+001  -1.034541e+002 
3112500000  -3.719074e+001  -1.099047e+002 
3115625000  -3.710831e+001  -1.142492e+002 
3118750000  -3.721104e+001  -1.171579e+002 
3121875000  -3.665666e+001  -1.286057e+002 
3125000000  -3.870605e+001  -1.310458e+002 
3128125000  -3.842166e+001  -1.237324e+002 
3131250000  -3.602625e+001  -1.308198e+002 
3134375000  -3.533476e+001  -1.479812e+002 
3137500000  -3.599543e+001  -1.596257e+002 
3140625000  -3.749490e+001  -1.623065e+002 
3143750000  -3.821028e+001  -1.654763e+002 
3146875000  -3.762790e+001  -1.627840e+002 
3150000000  -3.682938e+001  -1.668582e+002 
3153125000  -3.718349e+001  -1.746178e+002 
3156250000  -3.795636e+001  -1.701481e+002 
3159375000  -3.568081e+001  -1.722326e+002 
3162500000  -3.425757e+001  1.712925e+002 
3165625000  -3.548932e+001  1.599217e+002 
3168750000  -3.544811e+001  1.580332e+002 
3171875000  -3.495937e+001  1.508372e+002 
3175000000  -3.546469e+001  1.409622e+002 
3178125000  -3.497736e+001  1.400763e+002 
3181250000  -3.446065e+001  1.313028e+002 
3184375000  -3.421262e+001  1.204949e+002 
3187500000  -3.548832e+001  1.057362e+002 
3190625000  -3.729461e+001  9.971665e+001 
3193750000  -3.745464e+001  1.041347e+002 
3196875000  -3.737140e+001  1.056234e+002 
3200000000  -3.612074e+001  1.008555e+002 
3203125000  -3.586112e+001  9.239436e+001 
3206250000  -3.621479e+001  8.445537e+001 
3209375000  -3.578888e+001  7.677177e+001 
3212500000  -3.630169e+001  7.047784e+001 
3215625000  -3.611140e+001  6.734361e+001 
3218750000  -3.691533e+001  5.504976e+001 
3221875000  -3.717506e+001  5.040489e+001 
3225000000  -3.696159e+001  4.547298e+001 
3228125000  -3.779867e+001  3.697213e+001 
3231250000  -3.835852e+001  3.586597e+001 
3234375000  -3.790379e+001  3.294022e+001 
3237500000  -3.800985e+001  2.944004e+001 
3240625000  -3.760832e+001  2.373518e+001 
3243750000  -3.756882e+001  1.331164e+001 
3246875000  -3.831138e+001  5.943730e+000 
3250000000  -3.880222e+001  1.795170e+000 
3253125000  -3.897948e+001  1.945520e-001 
3256250000  -3.873826e+001  -8.665112e+000 
3259375000  -3.903294e+001  -2.004858e+001 
3262500000  -4.062156e+001  -2.405879e+001 
3265625000  -4.119920e+001  -2.093454e+001 
3268750000  -4.126646e+001  -1.955375e+001 
3271875000  -4.048973e+001  -2.305140e+001 
3275000000  -3.996973e+001  -3.269500e+001 
3278125000  -4.081425e+001  -3.670311e+001 
3281250000  -4.138776e+001  -3.784340e+001 
3284375000  -4.037163e+001  -4.392527e+001 
3287500000  -4.087506e+001  -4.811284e+001 
3290625000  -4.118171e+001  -5.527731e+001 
3293750000  -4.130185e+001  -6.043317e+001 
3296875000  -4.249921e+001  -6.309053e+001 
3300000000  -4.186723e+001  -6.160433e+001 
3303125000  -4.103770e+001  -6.894215e+001 
3306250000  -4.079500e+001  -7.579902e+001 
3309375000  -4.043335e+001  -8.377512e+001 
3312500000  -4.097966e+001  -9.701144e+001 
3315625000  -4.236084e+001  -1.029315e+002 
3318750000  -4.351113e+001  -1.079788e+002 
3321875000  -4.481103e+001  -1.038280e+002 
3325000000  -4.466747e+001  -9.526941e+001 
3328125000  -4.401381e+001  -9.753777e+001 
3331250000  -4.230209e+001  -9.466169e+001 
3334375000  -3.982808e+001  -1.090379e+002 
3337500000  -4.031450e+001  -1.311931e+002 
3340625000  -4.249109e+001  -1.407758e+002 
3343750000  -4.437035e+001  -1.387625e+002 
3346875000  -4.313617e+001  -1.407474e+002 
3350000000  -4.304874e+001  -1.425694e+002 
3353125000  -4.263761e+001  -1.521667e+002 
3356250000  -4.240386e+001  -1.586087e+002 
3359375000  -4.334767e+001  -1.680854e+002 
3362500000  -4.409041e+001  -1.745105e+002 
3365625000  -4.479554e+001  -1.777763e+002 
3368750000  -4.549092e+001  1.779703e+002 
3371875000  -4.577132e+001  1.731342e+002 
3375000000  -4.742532e+001  1.716582e+002 
3378125000  -4.843357e+001  1.696885e+002 
3381250000  -4.987394e+001  -1.745334e+002 
3384375000  -4.644309e+001  -1.657494e+002 
3387500000  -4.407206e+001  1.748918e+002 
3390625000  -4.615524e+001  1.518766e+002 
3393750000  -4.691314e+001  1.500126e+002 
3396875000  -4.574595e+001  1.515686e+002 
3400000000  -4.601149e+001  1.408200e+002 
3403125000  -4.697233e+001  1.344366e+002 
3406250000  -4.719242e+001  1.322762e+002 
3409375000  -4.791110e+001  1.240649e+002 
3412500000  -4.864040e+001  1.154615e+002 
3415625000  -4.995229e+001  1.193125e+002 
3418750000  -5.013166e+001  1.185354e+002 
3421875000  -5.117384e+001  1.250713e+002 
3425000000  -5.024878e+001  1.219352e+002 
3428125000  -5.017014e+001  1.165811e+002 
3431250000  -5.025203e+001  1.066037e+002 
3434375000  -5.142671e+001  1.036195e+002 
3437500000  -5.206861e+001  1.015405e+002 
3440625000  -5.159166e+001  1.056095e+002 
3443750000  -5.072356e+001  1.044781e+002 
3446875000  -5.047206e+001  1.008186e+002 
3450000000  -5.070365e+001  9.240774e+001 
3453125000  -5.015683e+001  8.228680e+001 
3456250000  -5.136124e+001  7.980428e+001 
3459375000  -5.308197e+001  8.705220e+001 
3462500000  -5.213281e+001  8.424873e+001 
3465625000  -5.142207e+001  7.901246e+001 
3468750000  -5.200832e+001  7.938826e+001 
3471875000  -5.186353e+001  7.682029e+001 
3475000000  -5.164237e+001  7.321259e+001 
3478125000  -5.109719e+001  5.908505e+001 
3481250000  -5.334430e+001  6.648013e+001 
3484375000  -5.281920e+001  6.803008e+001 
3487500000  -5.181108e+001  6.207816e+001 
3490625000  -5.099374e+001  5.218462e+001 
3493750000  -5.099555e+001  4.869645e+001 
3496875000  -5.083310e+001  4.542667e+001 
3500000000  -5.250873e+001  4.882578e+001 
3503125000  -5.065443e+001  4.758220e+001 
3506250000  -4.990849e+001  3.697535e+001 
3509375000  -4.889172e+001  2.583994e+001 
3512500000  -5.032144e+001  1.454702e+001 
3515625000  -5.110434e+001  1.367648e+001 
3518750000  -5.233240e+001  9.508099e+000 
3521875000  -5.246355e+001  1.450014e+000 
3525000000  -5.352875e+001  -3.542519e-001 
3528125000  -5.434243e+001  8.571043e+000 
3531250000  -5.174282e+001  -1.126085e+000 
3534375000  -5.230344e+001  -1.367965e+001 
3537500000  -5.291373e+001  -2.065014e+001 
3540625000  -5.504538e+001  -2.316784e+001 
3543750000  -5.546907e+001  -1.879004e+001 
3546875000  -5.447195e+001  -7.312109e+000 
3550000000  -5.423426e+001  -1.605274e+001 
3553125000  -5.384335e+001  -3.451560e+001 
3556250000  -5.505523e+001  -3.667415e+001 
3559375000  -5.649672e+001  -4.009267e+001 
3562500000  -5.620306e+001  -3.835558e+001 
3565625000  -5.797763e+001  -6.187095e+001 
3568750000  -5.698936e+001  -3.193189e+001 
3571875000  -5.803112e+001  -3.205541e+001 
3575000000  -5.879021e+001  -4.662769e+001 
3578125000  -5.899437e+001  -5.857320e+001 
3581250000  -5.654889e+001  -3.891096e+001 
3584375000  -5.685386e+001  -3.468891e+001 
3587500000  -5.838640e+001  -4.920615e+001 
3590625000  -5.888377e+001  -6.451900e+001 
3593750000  -5.920333e+001  -5.738794e+001 
3596875000  -6.013068e+001  -3.257041e+001 
3600000000  -5.806261e+001  -4.320083e+001 
3603125000  -5.753106e+001  -5.812925e+001 
3606250000  -5.772619e+001  -5.122326e+001 
3609375000  -6.003945e+001  -4.696117e+001 
3612500000  -5.833929e+001  -5.957481e+001 
3615625000  -6.019945e+001  -4.920910e+001 
3618750000  -5.882381e+001  -4.842833e+001 
3621875000  -5.728953e+001  -4.285999e+001 
3625000000  -5.797567e+001  -4.240669e+001 
3628125000  -5.752822e+001  -5.287396e+001 
3631250000  -5.563292e+001  -4.748483e+001 
3634375000  -5.603327e+001  -5.604348e+001 
3637500000  -5.470708e+001  -4.471257e+001 
3640625000  -5.383630e+001  -3.641745e+001 
3643750000  -5.240403e+001  -4.728185e+001 
3646875000  -5.236701e+001  -6.177774e+001 
3650000000  -5.260173e+001  -5.826284e+001 
3653125000  -5.164667e+001  -5.648252e+001 
3656250000  -5.105033e+001  -6.236987e+001 
3659375000  -5.127333e+001  -5.898336e+001 
3662500000  -5.058967e+001  -6.870183e+001 
3665625000  -4.992330e+001  -7.253577e+001 
3668750000  -4.814502e+001  -7.402135e+001 
3671875000  -4.767670e+001  -8.701469e+001 
3675000000  -4.725850e+001  -9.256693e+001 
3678125000  -4.703446e+001  -9.585509e+001 
3681250000  -4.644568e+001  -1.025616e+002 
3684375000  -4.644329e+001  -1.040764e+002 
3687500000  -4.673739e+001  -1.127823e+002 
3690625000  -4.666125e+001  -1.165552e+002 
3693750000  -4.727646e+001  -1.187611e+002 
3696875000  -4.638293e+001  -1.177968e+002 
3700000000  -4.508481e+001  -1.265393e+002 
3703125000  -4.551992e+001  -1.316020e+002 
3706250000  -4.627103e+001  -1.305248e+002 
3709375000  -4.487633e+001  -1.311472e+002 
3712500000  -4.353133e+001  -1.384500e+002 
3715625000  -4.184342e+001  -1.457384e+002 
3718750000  -4.144615e+001  -1.524842e+002 
3721875000  -4.143633e+001  -1.631995e+002 
3725000000  -4.152831e+001  -1.710896e+002 
3728125000  -4.125247e+001  -1.722911e+002 
3731250000  -4.081017e+001  -1.782225e+002 
3734375000  -3.991982e+001  1.728012e+002 
3737500000  -4.076423e+001  1.646189e+002 
3740625000  -4.082499e+001  1.578036e+002 
3743750000  -4.052853e+001  1.520488e+002 
3746875000  -4.064462e+001  1.458139e+002 
3750000000  -4.108421e+001  1.411214e+002 
3753125000  -4.057629e+001  1.377055e+002 
3756250000  -4.060407e+001  1.346779e+002 
3759375000  -4.041665e+001  1.290140e+002 
3762500000  -4.006944e+001  1.219598e+002 
3765625000  -4.073967e+001  1.169180e+002 
3768750000  -3.993143e+001  1.179276e+002 
3771875000  -3.853673e+001  1.109203e+002 
3775000000  -3.840537e+001  9.860393e+001 
3778125000  -3.904107e+001  9.310135e+001 
3781250000  -3.886602e+001  8.787876e+001 
3784375000  -3.865497e+001  8.272022e+001 
3787500000  -3.856161e+001  7.632362e+001 
3790625000  -3.914441e+001  6.832559e+001 
3793750000  -3.899683e+001  6.515533e+001 
3796875000  -3.828174e+001  5.977821e+001 
3800000000  -3.637119e+001  5.599826e+001 
3803125000  -3.827139e+001  4.213398e+001 
3806250000  -3.890847e+001  3.797318e+001 
3809375000  -3.849540e+001  3.368583e+001 
3812500000  -3.859782e+001  2.492310e+001 
3815625000  -3.946611e+001  1.387105e+001 
3818750000  -4.079333e+001  1.583920e+001 
3821875000  -3.998877e+001  2.538642e+001 
3825000000  -3.818395e+001  2.053606e+001 
3828125000  -3.702694e+001  4.416824e+000 
3831250000  -3.801952e+001  -9.942817e+000 
3834375000  -4.019677e+001  -9.836004e+000 
3837500000  -4.069175e+001  -5.908132e+000 
3840625000  -3.901776e+001  -9.987457e+000 
3843750000  -3.828844e+001  -2.559267e+001 
3846875000  -4.005687e+001  -3.176720e+001 
3850000000  -4.078204e+001  -2.298905e+001 
3853125000  -3.989561e+001  -2.534710e+001 
3856250000  -3.946558e+001  -3.278894e+001 
3859375000  -3.849364e+001  -4.194988e+001 
3862500000  -3.844471e+001  -5.148926e+001 
3865625000  -3.919670e+001  -5.643676e+001 
3868750000  -3.854424e+001  -5.640468e+001 
3871875000  -3.809296e+001  -6.366387e+001 
3875000000  -3.852549e+001  -7.508157e+001 
3878125000  -3.956513e+001  -7.565746e+001 
3881250000  -3.920040e+001  -7.722035e+001 
3884375000  -3.884074e+001  -8.462821e+001 
3887500000  -3.929233e+001  -8.900693e+001 
3890625000  -3.969371e+001  -9.410556e+001 
3893750000  -3.955886e+001  -9.839487e+001 
3896875000  -4.008067e+001  -9.900430e+001 
3900000000  -3.992239e+001  -1.025700e+002 
3903125000  -3.939976e+001  -1.076950e+002 
3906250000  -3.888866e+001  -1.106425e+002 
3909375000  -3.825150e+001  -1.210251e+002 
3912500000  -3.915265e+001  -1.299376e+002 
3915625000  -4.038105e+001  -1.294905e+002 
3918750000  -3.987294e+001  -1.302134e+002 
3921875000  -3.937865e+001  -1.350152e+002 
3925000000  -3.852836e+001  -1.404917e+002 
3928125000  -3.845278e+001  -1.499587e+002 
3931250000  -3.917728e+001  -1.554236e+002 
3934375000  -3.967822e+001  -1.585018e+002 
3937500000  -4.005156e+001  -1.605043e+002 
3940625000  -3.989719e+001  -1.624075e+002 
3943750000  -3.877871e+001  -1.649498e+002 
3946875000  -3.840539e+001  -1.741413e+002 
3950000000  -3.955103e+001  1.776835e+002 
3953125000  -4.016615e+001  1.786851e+002 
3956250000  -3.881346e+001  1.781197e+002 
3959375000  -3.783810e+001  1.711369e+002 
3962500000  -3.761576e+001  1.625013e+002 
3965625000  -3.775200e+001  1.535599e+002 
3968750000  -3.871795e+001  1.469825e+002 
3971875000  -3.836325e+001  1.407453e+002 
3975000000  -3.817604e+001  1.366054e+002 
3978125000  -3.874033e+001  1.332208e+002 
3981250000  -3.876402e+001  1.260191e+002 
3984375000  -3.898592e+001  1.188511e+002 
3987500000  -3.968347e+001  1.147616e+002 
3990625000  -4.000955e+001  1.124509e+002 
3993750000  -4.009631e+001  1.076414e+002 
3996875000  -4.003185e+001  1.031796e+002 
4000000000  -4.047191e+001  9.753175e+001 
4003125000  -4.084938e+001  1.001603e+002 
4006250000  -3.915737e+001  9.905472e+001 
4009375000  -3.870413e+001  8.469987e+001 
4012500000  -4.020794e+001  7.638567e+001 
4015625000  -4.151447e+001  7.716143e+001 
4018750000  -4.140747e+001  7.732703e+001 
4021875000  -4.072171e+001  7.326898e+001 
4025000000  -4.040903e+001  6.696484e+001 
4028125000  -4.089735e+001  6.205387e+001 
4031250000  -4.119534e+001  5.742904e+001 
4034375000  -4.148123e+001  5.683397e+001 
4037500000  -4.106261e+001  5.472874e+001 
4040625000  -4.101047e+001  5.195739e+001 
4043750000  -4.075259e+001  4.806343e+001 
4046875000  -4.076130e+001  4.360028e+001 
4050000000  -4.058794e+001  3.981512e+001 
4053125000  -4.156145e+001  3.604115e+001 
4056250000  -4.135113e+001  4.269668e+001 
4059375000  -3.938583e+001  3.712833e+001 
4062500000  -3.875000e+001  3.024216e+001 
4065625000  -3.876023e+001  2.567537e+001 
4068750000  -3.831794e+001  1.850611e+001 
4071875000  -3.766035e+001  7.848016e+000 
4075000000  -3.848845e+001  3.565688e-002 
4078125000  -3.888485e+001  -3.587667e+000 
4081250000  -3.825341e+001  -6.973461e+000 
4084375000  -3.793986e+001  -1.830911e+001 
4087500000  -3.876625e+001  -2.423800e+001 
4090625000  -3.906919e+001  -2.481827e+001 
4093750000  -3.876039e+001  -2.746376e+001 
4096875000  -3.868541e+001  -3.815067e+001 
4100000000  -3.972734e+001  -4.586644e+001 
4103125000  -4.044598e+001  -4.152573e+001 
4106250000  -3.972593e+001  -3.853828e+001 
4109375000  -3.914451e+001  -4.377987e+001 
4112500000  -3.867080e+001  -5.348243e+001 
4115625000  -3.950964e+001  -6.057056e+001 
4118750000  -3.882227e+001  -6.408447e+001 
4121875000  -3.897205e+001  -7.165894e+001 
4125000000  -4.008858e+001  -7.656155e+001 
4128125000  -4.092329e+001  -7.605099e+001 
4131250000  -3.972144e+001  -6.957331e+001 
4134375000  -3.782212e+001  -8.067115e+001 
4137500000  -3.850480e+001  -1.017762e+002 
4140625000  -4.045450e+001  -1.090542e+002 
4143750000  -4.180889e+001  -9.966135e+001 
4146875000  -4.036805e+001  -9.843875e+001 
4150000000  -3.934444e+001  -1.079270e+002 
4153125000  -4.016833e+001  -1.142790e+002 
4156250000  -4.129240e+001  -1.169483e+002 
4159375000  -4.111798e+001  -1.111503e+002 
4162500000  -3.996230e+001  -1.103079e+002 
4165625000  -3.884119e+001  -1.182493e+002 
4168750000  -3.827378e+001  -1.289876e+002 
4171875000  -3.836327e+001  -1.385773e+002 
4175000000  -3.924764e+001  -1.433577e+002 
4178125000  -3.970676e+001  -1.448626e+002 
4181250000  -3.938746e+001  -1.506936e+002 
4184375000  -3.966096e+001  -1.546759e+002 
4187500000  -3.973541e+001  -1.598257e+002 
4190625000  -3.951369e+001  -1.660649e+002 
4193750000  -4.075007e+001  -1.702559e+002 
4196875000  -4.176633e+001  -1.722752e+002 
4200000000  -4.260580e+001  -1.657483e+002 
4203125000  -4.083871e+001  -1.539051e+002 
4206250000  -3.740011e+001  -1.638082e+002 
4209375000  -3.741770e+001  1.730045e+002 
4212500000  -3.980739e+001  1.689805e+002 
4215625000  -3.994639e+001  1.747818e+002 
4218750000  -3.816975e+001  1.768658e+002 
4221875000  -3.671857e+001  1.648460e+002 
4225000000  -3.775549e+001  1.536173e+002 
4228125000  -3.770969e+001  1.563672e+002 
4231250000  -3.608290e+001  1.477874e+002 
4234375000  -3.649385e+001  1.356865e+002 
4237500000  -3.606196e+001  1.314677e+002 
4240625000  -3.618071e+001  1.186826e+002 
4243750000  -3.751398e+001  1.126656e+002 
4246875000  -3.853355e+001  1.118181e+002 
4250000000  -3.837435e+001  1.105830e+002 
4253125000  -3.789044e+001  1.091063e+002 
4256250000  -3.814473e+001  1.032337e+002 
4259375000  -3.754576e+001  9.731514e+001 
4262500000  -3.803264e+001  9.225132e+001 
4265625000  -3.760276e+001  8.929011e+001 
4268750000  -3.685275e+001  8.204977e+001 
4271875000  -3.700669e+001  7.411767e+001 
4275000000  -3.641774e+001  6.382401e+001 
4278125000  -3.778934e+001  5.254914e+001 
4281250000  -3.933021e+001  5.049898e+001 
4284375000  -3.908428e+001  5.005581e+001 
4287500000  -4.038853e+001  4.677494e+001 
4290625000  -4.063535e+001  5.382353e+001 
4293750000  -3.895464e+001  5.440684e+001 
4296875000  -3.778234e+001  4.225751e+001 
4300000000  -3.932462e+001  3.380723e+001 
4303125000  -3.967481e+001  3.715855e+001 
4306250000  -3.875371e+001  4.026992e+001 
4309375000  -3.763252e+001  3.179086e+001 
4312500000  -3.782085e+001  1.937498e+001 
4315625000  -3.794264e+001  1.275624e+001 
4318750000  -3.874835e+001  8.903734e+000 
4321875000  -3.870581e+001  1.043885e+001 
4325000000  -3.812513e+001  7.290524e+000 
4328125000  -3.712939e+001  -2.047011e+000 
4331250000  -3.751390e+001  -1.139701e+001 
4334375000  -3.843602e+001  -1.890872e+001 
4337500000  -3.957807e+001  -1.996750e+001 
4340625000  -3.933325e+001  -1.496595e+001 
4343750000  -3.861252e+001  -1.636694e+001 
4346875000  -3.838513e+001  -2.593241e+001 
4350000000  -3.834297e+001  -3.472001e+001 
4353125000  -3.919677e+001  -4.209018e+001 
4356250000  -4.091609e+001  -3.807615e+001 
4359375000  -3.997430e+001  -2.243439e+001 
4362500000  -3.635615e+001  -3.210248e+001 
4365625000  -3.620393e+001  -5.016578e+001 
4368750000  -3.714508e+001  -5.904486e+001 
4371875000  -3.825927e+001  -5.961387e+001 
4375000000  -3.718752e+001  -6.407191e+001 
4378125000  -3.699351e+001  -7.111859e+001 
4381250000  -3.720216e+001  -7.911913e+001 
4384375000  -3.719334e+001  -8.747562e+001 
4387500000  -3.821862e+001  -9.198514e+001 
4390625000  -3.867321e+001  -9.242365e+001 
4393750000  -3.792702e+001  -9.155051e+001 
4396875000  -3.728180e+001  -9.804615e+001 
4400000000  -3.682201e+001  -1.060905e+002 
4403125000  -3.765369e+001  -1.154448e+002 
4406250000  -3.849079e+001  -1.206702e+002 
4409375000  -3.880083e+001  -1.222923e+002 
4412500000  -3.985299e+001  -1.238375e+002 
4415625000  -3.931376e+001  -1.221956e+002 
