!Agilent Technologies,E8363B,MY43030201,A.06.04.32
!Agilent E8363B: A.06.04.32
!Date: Tuesday, November 11, 2014 21:36:25
!Correction: S21(Response(S21)) 
!S1P File: Measurement: S21:
# Hz S  dB   R 50
3000000000  -4.057541e+001  7.093590e+001 
3003125000  -4.209167e+001  6.273149e+001 
3006250000  -4.212765e+001  6.312943e+001 
3009375000  -4.270047e+001  6.820856e+001 
3012500000  -4.151184e+001  6.273290e+001 
3015625000  -4.135890e+001  5.629722e+001 
3018750000  -4.166037e+001  5.662874e+001 
3021875000  -4.033355e+001  5.782298e+001 
3025000000  -3.887268e+001  5.339269e+001 
3028125000  -3.778707e+001  4.301429e+001 
3031250000  -3.703290e+001  3.031055e+001 
3034375000  -3.680102e+001  1.789477e+001 
3037500000  -3.762342e+001  7.490603e+000 
3040625000  -3.879702e+001  1.641736e+000 
3043750000  -3.925610e+001  -4.925480e+000 
3046875000  -3.986247e+001  -1.134096e+001 
3050000000  -4.095121e+001  -1.461767e+001 
3053125000  -4.035935e+001  -9.615825e+000 
3056250000  -4.050149e+001  -7.187340e+000 
3059375000  -3.978336e+001  -9.341391e+000 
3062500000  -3.822091e+001  -1.506673e+001 
3065625000  -3.771549e+001  -2.377149e+001 
3068750000  -3.739519e+001  -3.226210e+001 
3071875000  -3.765063e+001  -3.357389e+001 
3075000000  -3.705870e+001  -4.035742e+001 
3078125000  -3.713487e+001  -4.775916e+001 
3081250000  -3.726859e+001  -5.370166e+001 
3084375000  -3.637520e+001  -5.796642e+001 
3087500000  -3.639073e+001  -6.529707e+001 
3090625000  -3.600522e+001  -7.707989e+001 
3093750000  -3.699843e+001  -8.500980e+001 
3096875000  -3.739487e+001  -9.045639e+001 
3100000000  -3.716483e+001  -9.340186e+001 
3103125000  -3.756735e+001  -9.669612e+001 
3106250000  -3.721166e+001  -1.022197e+002 
3109375000  -3.722876e+001  -1.059961e+002 
3112500000  -3.717608e+001  -1.114844e+002 
3115625000  -3.713480e+001  -1.159164e+002 
3118750000  -3.714175e+001  -1.194665e+002 
3121875000  -3.668314e+001  -1.295072e+002 
3125000000  -3.856518e+001  -1.335086e+002 
3128125000  -3.857961e+001  -1.264514e+002 
3131250000  -3.601146e+001  -1.314402e+002 
3134375000  -3.522128e+001  -1.502872e+002 
3137500000  -3.606336e+001  -1.609526e+002 
3140625000  -3.724766e+001  -1.635166e+002 
3143750000  -3.817903e+001  -1.670898e+002 
3146875000  -3.762272e+001  -1.642270e+002 
3150000000  -3.680789e+001  -1.689371e+002 
3153125000  -3.721618e+001  -1.771427e+002 
3156250000  -3.792522e+001  -1.727854e+002 
3159375000  -3.557407e+001  -1.735447e+002 
3162500000  -3.423438e+001  1.698035e+002 
3165625000  -3.548468e+001  1.561723e+002 
3168750000  -3.547820e+001  1.560172e+002 
3171875000  -3.489302e+001  1.482742e+002 
3175000000  -3.546842e+001  1.398777e+002 
3178125000  -3.501411e+001  1.378847e+002 
3181250000  -3.430051e+001  1.293235e+002 
3184375000  -3.413026e+001  1.190219e+002 
3187500000  -3.546399e+001  1.027420e+002 
3190625000  -3.736487e+001  9.776527e+001 
3193750000  -3.754310e+001  1.032962e+002 
3196875000  -3.721016e+001  1.029591e+002 
3200000000  -3.613169e+001  9.819707e+001 
3203125000  -3.590600e+001  9.033258e+001 
3206250000  -3.602359e+001  8.293940e+001 
3209375000  -3.569949e+001  7.427892e+001 
3212500000  -3.635551e+001  6.856963e+001 
3215625000  -3.598748e+001  6.573931e+001 
3218750000  -3.687043e+001  5.350771e+001 
3221875000  -3.733614e+001  4.831692e+001 
3225000000  -3.709763e+001  4.452697e+001 
3228125000  -3.781783e+001  3.635828e+001 
3231250000  -3.816282e+001  3.385315e+001 
3234375000  -3.782530e+001  3.087405e+001 
3237500000  -3.798767e+001  2.670190e+001 
3240625000  -3.755603e+001  2.163446e+001 
3243750000  -3.760077e+001  1.162215e+001 
3246875000  -3.824535e+001  4.524439e+000 
3250000000  -3.887107e+001  -1.875467e-001 
3253125000  -3.916555e+001  -2.292753e+000 
3256250000  -3.844086e+001  -1.062580e+001 
3259375000  -3.918482e+001  -2.149910e+001 
3262500000  -4.050284e+001  -2.503216e+001 
3265625000  -4.090191e+001  -2.189832e+001 
3268750000  -4.134475e+001  -2.183170e+001 
3271875000  -4.060196e+001  -2.621367e+001 
3275000000  -4.008838e+001  -3.380090e+001 
3278125000  -4.080880e+001  -3.905157e+001 
3281250000  -4.104127e+001  -4.059117e+001 
3284375000  -4.052908e+001  -4.673647e+001 
3287500000  -4.095616e+001  -5.078656e+001 
3290625000  -4.124939e+001  -5.896941e+001 
3293750000  -4.111641e+001  -6.305244e+001 
3296875000  -4.250007e+001  -6.466467e+001 
3300000000  -4.165574e+001  -6.502645e+001 
3303125000  -4.076097e+001  -7.109729e+001 
3306250000  -4.078577e+001  -7.749374e+001 
3309375000  -4.048059e+001  -8.608126e+001 
3312500000  -4.087439e+001  -9.743587e+001 
3315625000  -4.230885e+001  -1.049494e+002 
3318750000  -4.361909e+001  -1.086047e+002 
3321875000  -4.509663e+001  -1.059519e+002 
3325000000  -4.446870e+001  -1.004281e+002 
3328125000  -4.347467e+001  -9.815058e+001 
3331250000  -4.213560e+001  -9.569076e+001 
3334375000  -4.002022e+001  -1.127492e+002 
3337500000  -4.036033e+001  -1.331369e+002 
3340625000  -4.230777e+001  -1.435627e+002 
3343750000  -4.407127e+001  -1.407273e+002 
3346875000  -4.348278e+001  -1.425727e+002 
3350000000  -4.316419e+001  -1.438636e+002 
3353125000  -4.283765e+001  -1.523937e+002 
3356250000  -4.232299e+001  -1.613291e+002 
3359375000  -4.322910e+001  -1.714588e+002 
3362500000  -4.452391e+001  -1.780920e+002 
3365625000  -4.462485e+001  1.794135e+002 
3368750000  -4.523658e+001  1.743873e+002 
3371875000  -4.605108e+001  1.718621e+002 
3375000000  -4.722845e+001  1.648512e+002 
3378125000  -4.845579e+001  1.682512e+002 
3381250000  -4.984747e+001  1.799062e+002 
3384375000  -4.636837e+001  -1.685968e+002 
3387500000  -4.401209e+001  1.712760e+002 
3390625000  -4.640043e+001  1.516484e+002 
3393750000  -4.725285e+001  1.500736e+002 
3396875000  -4.575813e+001  1.500650e+002 
3400000000  -4.639309e+001  1.387558e+002 
3403125000  -4.679510e+001  1.327839e+002 
3406250000  -4.775077e+001  1.297009e+002 
3409375000  -4.784188e+001  1.201461e+002 
3412500000  -4.854148e+001  1.160553e+002 
3415625000  -5.017629e+001  1.195166e+002 
3418750000  -5.085715e+001  1.148778e+002 
3421875000  -5.122087e+001  1.239631e+002 
3425000000  -4.954649e+001  1.194295e+002 
3428125000  -5.006358e+001  1.135657e+002 
3431250000  -5.040477e+001  1.065395e+002 
3434375000  -5.062826e+001  1.063348e+002 
3437500000  -5.188346e+001  1.020026e+002 
3440625000  -5.204996e+001  1.027637e+002 
3443750000  -5.075040e+001  1.040614e+002 
3446875000  -5.042936e+001  1.027625e+002 
3450000000  -5.005995e+001  9.436940e+001 
3453125000  -5.053863e+001  8.193884e+001 
3456250000  -5.259543e+001  7.964359e+001 
3459375000  -5.294280e+001  7.949963e+001 
3462500000  -5.228013e+001  9.055787e+001 
3465625000  -5.106195e+001  7.451375e+001 
3468750000  -5.238742e+001  7.556711e+001 
3471875000  -5.156341e+001  8.150735e+001 
3475000000  -5.119442e+001  6.596148e+001 
3478125000  -5.091753e+001  6.383651e+001 
3481250000  -5.219403e+001  6.484492e+001 
3484375000  -5.317569e+001  5.990200e+001 
3487500000  -5.166288e+001  5.542337e+001 
3490625000  -5.103674e+001  4.883329e+001 
3493750000  -5.177779e+001  4.679788e+001 
3496875000  -5.182314e+001  4.855904e+001 
3500000000  -5.286426e+001  4.346925e+001 
3503125000  -5.065154e+001  4.304787e+001 
3506250000  -4.989227e+001  3.754820e+001 
3509375000  -4.993823e+001  2.244151e+001 
3512500000  -4.984466e+001  9.907861e+000 
3515625000  -5.157993e+001  7.531654e+000 
3518750000  -5.206369e+001  1.096284e+001 
3521875000  -5.235836e+001  6.165712e+000 
3525000000  -5.361111e+001  -5.289198e+000 
3528125000  -5.309801e+001  6.244408e+000 
3531250000  -5.058446e+001  -5.418663e+000 
3534375000  -5.232447e+001  -2.100567e+001 
3537500000  -5.399863e+001  -2.887026e+001 
3540625000  -5.489074e+001  -3.051766e+001 
3543750000  -5.596198e+001  -2.436861e+001 
3546875000  -5.705762e+001  -1.312207e+001 
3550000000  -5.338199e+001  -1.100985e+001 
3553125000  -5.446546e+001  -3.954773e+001 
3556250000  -5.553600e+001  -3.427790e+001 
3559375000  -5.549295e+001  -3.757060e+001 
3562500000  -5.659785e+001  -5.329158e+001 
3565625000  -5.543933e+001  -5.034201e+001 
3568750000  -5.777077e+001  -4.202942e+001 
3571875000  -5.668848e+001  -3.409732e+001 
3575000000  -5.964265e+001  -4.418047e+001 
3578125000  -5.881014e+001  -4.722394e+001 
3581250000  -5.877410e+001  -5.146466e+001 
3584375000  -5.728535e+001  -4.599059e+001 
3587500000  -5.665062e+001  -4.492422e+001 
3590625000  -6.030711e+001  -6.588399e+001 
3593750000  -5.870677e+001  -6.348429e+001 
3596875000  -5.793707e+001  -2.533841e+001 
3600000000  -5.715766e+001  -3.751888e+001 
3603125000  -5.653735e+001  -5.816596e+001 
3606250000  -6.003535e+001  -6.096649e+001 
3609375000  -5.781449e+001  -5.027376e+001 
3612500000  -5.843616e+001  -5.366578e+001 
3615625000  -5.906977e+001  -4.835346e+001 
3618750000  -5.880795e+001  -5.084304e+001 
3621875000  -5.675850e+001  -4.336084e+001 
3625000000  -5.753198e+001  -6.170838e+001 
3628125000  -5.624532e+001  -5.006540e+001 
3631250000  -5.646684e+001  -5.927921e+001 
3634375000  -5.737912e+001  -5.151031e+001 
3637500000  -5.554546e+001  -4.014444e+001 
3640625000  -5.488401e+001  -4.462127e+001 
3643750000  -5.279887e+001  -5.069331e+001 
3646875000  -5.280706e+001  -6.730137e+001 
3650000000  -5.298882e+001  -5.945396e+001 
3653125000  -5.243644e+001  -6.264514e+001 
3656250000  -5.136631e+001  -6.134573e+001 
3659375000  -5.157220e+001  -6.515692e+001 
3662500000  -5.140271e+001  -7.203556e+001 
3665625000  -5.020626e+001  -7.287683e+001 
3668750000  -4.820956e+001  -7.248833e+001 
3671875000  -4.779007e+001  -8.575298e+001 
3675000000  -4.756973e+001  -9.232176e+001 
3678125000  -4.732049e+001  -9.780120e+001 
3681250000  -4.621079e+001  -1.019070e+002 
3684375000  -4.729170e+001  -1.082958e+002 
3687500000  -4.654870e+001  -1.137751e+002 
3690625000  -4.672204e+001  -1.180376e+002 
3693750000  -4.708810e+001  -1.208482e+002 
3696875000  -4.650080e+001  -1.183239e+002 
3700000000  -4.520294e+001  -1.244696e+002 
3703125000  -4.527027e+001  -1.357201e+002 
3706250000  -4.560529e+001  -1.370801e+002 
3709375000  -4.483997e+001  -1.342224e+002 
3712500000  -4.337133e+001  -1.384996e+002 
3715625000  -4.154397e+001  -1.493277e+002 
3718750000  -4.165635e+001  -1.557436e+002 
3721875000  -4.158436e+001  -1.647771e+002 
3725000000  -4.164829e+001  -1.709473e+002 
3728125000  -4.145818e+001  -1.761906e+002 
3731250000  -4.068544e+001  1.794618e+002 
3734375000  -4.022998e+001  1.718191e+002 
3737500000  -4.104470e+001  1.613309e+002 
3740625000  -4.087953e+001  1.564948e+002 
3743750000  -4.053730e+001  1.492960e+002 
3746875000  -4.083696e+001  1.445375e+002 
3750000000  -4.088762e+001  1.399274e+002 
3753125000  -4.078553e+001  1.364255e+002 
3756250000  -4.056550e+001  1.324070e+002 
3759375000  -4.070059e+001  1.271290e+002 
3762500000  -3.996805e+001  1.192247e+002 
3765625000  -4.072861e+001  1.146305e+002 
3768750000  -4.025501e+001  1.152569e+002 
3771875000  -3.836462e+001  1.093344e+002 
3775000000  -3.851396e+001  9.649281e+001 
3778125000  -3.919156e+001  8.970343e+001 
3781250000  -3.873101e+001  8.810645e+001 
3784375000  -3.893380e+001  8.092277e+001 
3787500000  -3.841653e+001  7.417982e+001 
3790625000  -3.932393e+001  6.599217e+001 
3793750000  -3.930467e+001  6.172383e+001 
3796875000  -3.818936e+001  5.724130e+001 
3800000000  -3.637911e+001  5.341862e+001 
3803125000  -3.813438e+001  4.010336e+001 
3806250000  -3.887881e+001  3.584502e+001 
3809375000  -3.845834e+001  3.169575e+001 
3812500000  -3.845304e+001  2.228235e+001 
3815625000  -3.961803e+001  1.262662e+001 
3818750000  -4.080330e+001  1.470505e+001 
3821875000  -3.990096e+001  2.404689e+001 
3825000000  -3.809988e+001  2.062040e+001 
3828125000  -3.701405e+001  1.401235e+000 
3831250000  -3.793489e+001  -1.275815e+001 
3834375000  -4.030762e+001  -1.134904e+001 
3837500000  -4.057978e+001  -1.075290e+001 
3840625000  -3.922334e+001  -1.496304e+001 
3843750000  -3.819576e+001  -2.627838e+001 
3846875000  -3.994560e+001  -3.265964e+001 
3850000000  -4.097770e+001  -2.783762e+001 
3853125000  -4.006192e+001  -2.628729e+001 
3856250000  -3.932324e+001  -3.571590e+001 
3859375000  -3.871352e+001  -4.297964e+001 
3862500000  -3.860433e+001  -5.290044e+001 
3865625000  -3.893387e+001  -6.069886e+001 
3868750000  -3.834042e+001  -5.922127e+001 
3871875000  -3.786317e+001  -6.725260e+001 
3875000000  -3.847460e+001  -7.568756e+001 
3878125000  -3.938163e+001  -7.910155e+001 
3881250000  -3.928930e+001  -7.986460e+001 
3884375000  -3.859151e+001  -8.623302e+001 
3887500000  -3.906223e+001  -9.131042e+001 
3890625000  -3.958693e+001  -9.762040e+001 
3893750000  -3.982757e+001  -9.836569e+001 
3896875000  -3.985315e+001  -1.016450e+002 
3900000000  -3.976812e+001  -1.059563e+002 
3903125000  -3.924459e+001  -1.110079e+002 
3906250000  -3.894728e+001  -1.119855e+002 
3909375000  -3.826506e+001  -1.219382e+002 
3912500000  -3.912515e+001  -1.316574e+002 
3915625000  -4.033045e+001  -1.302887e+002 
3918750000  -4.002417e+001  -1.329873e+002 
3921875000  -3.926773e+001  -1.362711e+002 
3925000000  -3.829988e+001  -1.427889e+002 
3928125000  -3.827352e+001  -1.522492e+002 
3931250000  -3.924087e+001  -1.606127e+002 
3934375000  -3.963324e+001  -1.594732e+002 
3937500000  -3.999003e+001  -1.627659e+002 
3940625000  -3.991995e+001  -1.635602e+002 
3943750000  -3.898916e+001  -1.682545e+002 
3946875000  -3.828778e+001  -1.767889e+002 
3950000000  -3.984602e+001  1.743148e+002 
3953125000  -4.020760e+001  1.758922e+002 
3956250000  -3.872702e+001  1.756113e+002 
3959375000  -3.797029e+001  1.695478e+002 
3962500000  -3.780465e+001  1.607688e+002 
3965625000  -3.790894e+001  1.512002e+002 
3968750000  -3.864190e+001  1.428391e+002 
3971875000  -3.879004e+001  1.404426e+002 
3975000000  -3.822823e+001  1.346771e+002 
3978125000  -3.841502e+001  1.303390e+002 
3981250000  -3.851235e+001  1.228548e+002 
3984375000  -3.899904e+001  1.154915e+002 
3987500000  -3.955948e+001  1.124194e+002 
3990625000  -4.004361e+001  1.115283e+002 
3993750000  -3.984341e+001  1.070920e+002 
3996875000  -3.986948e+001  1.006901e+002 
4000000000  -4.064665e+001  9.637881e+001 
4003125000  -4.084015e+001  9.872138e+001 
4006250000  -3.900069e+001  9.628464e+001 
4009375000  -3.865302e+001  7.998164e+001 
4012500000  -4.039870e+001  7.535354e+001 
4015625000  -4.132068e+001  7.320503e+001 
4018750000  -4.111865e+001  7.517127e+001 
4021875000  -4.059237e+001  7.050001e+001 
4025000000  -4.039222e+001  6.616569e+001 
4028125000  -4.047050e+001  5.821542e+001 
4031250000  -4.127446e+001  5.255754e+001 
4034375000  -4.150018e+001  5.246706e+001 
4037500000  -4.105366e+001  5.262360e+001 
4040625000  -4.114161e+001  4.965927e+001 
4043750000  -4.102872e+001  4.803031e+001 
4046875000  -4.057098e+001  4.289686e+001 
4050000000  -4.083607e+001  3.840084e+001 
4053125000  -4.119879e+001  3.597187e+001 
4056250000  -4.144994e+001  3.980238e+001 
4059375000  -3.922654e+001  3.671935e+001 
4062500000  -3.868812e+001  2.781586e+001 
4065625000  -3.866565e+001  2.279806e+001 
4068750000  -3.833641e+001  1.608647e+001 
4071875000  -3.775288e+001  5.177883e+000 
4075000000  -3.858773e+001  -1.968240e+000 
4078125000  -3.858870e+001  -4.407473e+000 
4081250000  -3.833109e+001  -9.494006e+000 
4084375000  -3.809605e+001  -1.914745e+001 
4087500000  -3.892344e+001  -2.573251e+001 
4090625000  -3.911683e+001  -2.852672e+001 
4093750000  -3.864899e+001  -2.915840e+001 
4096875000  -3.864763e+001  -4.176601e+001 
4100000000  -3.980602e+001  -4.717445e+001 
4103125000  -4.075248e+001  -4.504409e+001 
4106250000  -4.008292e+001  -4.166574e+001 
4109375000  -3.889971e+001  -4.524399e+001 
4112500000  -3.872757e+001  -5.452145e+001 
4115625000  -3.951340e+001  -6.352599e+001 
4118750000  -3.912150e+001  -6.743022e+001 
4121875000  -3.913290e+001  -7.494183e+001 
4125000000  -4.001728e+001  -8.004405e+001 
4128125000  -4.104225e+001  -7.817478e+001 
4131250000  -3.971953e+001  -7.378075e+001 
4134375000  -3.745155e+001  -8.231727e+001 
4137500000  -3.818870e+001  -1.039210e+002 
4140625000  -4.024495e+001  -1.089067e+002 
4143750000  -4.134470e+001  -1.025959e+002 
4146875000  -4.040026e+001  -1.019218e+002 
4150000000  -3.978217e+001  -1.092158e+002 
4153125000  -3.987132e+001  -1.175737e+002 
4156250000  -4.098916e+001  -1.213584e+002 
4159375000  -4.134858e+001  -1.141142e+002 
4162500000  -3.988316e+001  -1.127554e+002 
4165625000  -3.870012e+001  -1.194678e+002 
4168750000  -3.842871e+001  -1.303429e+002 
4171875000  -3.858086e+001  -1.397710e+002 
4175000000  -3.920083e+001  -1.460555e+002 
4178125000  -3.969958e+001  -1.462290e+002 
4181250000  -3.913499e+001  -1.527469e+002 
4184375000  -3.958297e+001  -1.574721e+002 
4187500000  -3.948820e+001  -1.615530e+002 
4190625000  -3.957942e+001  -1.669875e+002 
4193750000  -4.055471e+001  -1.742719e+002 
4196875000  -4.137031e+001  -1.762976e+002 
4200000000  -4.251677e+001  -1.661701e+002 
4203125000  -4.098360e+001  -1.561832e+002 
4206250000  -3.723112e+001  -1.647974e+002 
4209375000  -3.735210e+001  1.703081e+002 
4212500000  -3.970920e+001  1.637078e+002 
4215625000  -3.990373e+001  1.707156e+002 
4218750000  -3.848034e+001  1.729906e+002 
4221875000  -3.673980e+001  1.615584e+002 
4225000000  -3.791101e+001  1.517960e+002 
4228125000  -3.768432e+001  1.526813e+002 
4231250000  -3.634898e+001  1.449544e+002 
4234375000  -3.642754e+001  1.332072e+002 
4237500000  -3.616257e+001  1.294323e+002 
4240625000  -3.635554e+001  1.169421e+002 
4243750000  -3.754123e+001  1.093237e+002 
4246875000  -3.852371e+001  1.084409e+002 
4250000000  -3.835358e+001  1.086126e+002 
4253125000  -3.816269e+001  1.055680e+002 
4256250000  -3.815372e+001  1.003893e+002 
4259375000  -3.766176e+001  9.513985e+001 
4262500000  -3.801132e+001  9.002608e+001 
4265625000  -3.777630e+001  8.841638e+001 
4268750000  -3.690042e+001  7.979207e+001 
4271875000  -3.688949e+001  7.224736e+001 
4275000000  -3.670731e+001  6.250882e+001 
4278125000  -3.780789e+001  5.104204e+001 
4281250000  -3.899923e+001  5.005764e+001 
4284375000  -3.896002e+001  4.741584e+001 
4287500000  -4.046655e+001  4.243500e+001 
4290625000  -4.067393e+001  5.322094e+001 
4293750000  -3.849380e+001  5.259937e+001 
4296875000  -3.769511e+001  3.921229e+001 
4300000000  -3.924527e+001  2.787712e+001 
4303125000  -3.968228e+001  3.510987e+001 
4306250000  -3.836023e+001  3.526453e+001 
4309375000  -3.751948e+001  2.894685e+001 
4312500000  -3.770737e+001  1.787553e+001 
4315625000  -3.802260e+001  9.244556e+000 
4318750000  -3.868610e+001  6.581115e+000 
4321875000  -3.877123e+001  7.305937e+000 
4325000000  -3.798984e+001  5.058577e+000 
4328125000  -3.718014e+001  -4.358917e+000 
4331250000  -3.783779e+001  -1.359803e+001 
4334375000  -3.825038e+001  -2.039464e+001 
4337500000  -3.950304e+001  -2.137136e+001 
4340625000  -3.960110e+001  -1.688654e+001 
4343750000  -3.845308e+001  -1.989948e+001 
4346875000  -3.834254e+001  -2.803295e+001 
4350000000  -3.845146e+001  -3.700177e+001 
4353125000  -3.904873e+001  -4.265816e+001 
4356250000  -4.103724e+001  -4.311153e+001 
4359375000  -3.983186e+001  -2.541195e+001 
4362500000  -3.659636e+001  -3.568977e+001 
4365625000  -3.581377e+001  -5.236565e+001 
4368750000  -3.730650e+001  -6.303964e+001 
4371875000  -3.785485e+001  -6.221288e+001 
4375000000  -3.728454e+001  -6.760355e+001 
4378125000  -3.686827e+001  -7.432355e+001 
4381250000  -3.713718e+001  -8.121922e+001 
4384375000  -3.731410e+001  -8.824511e+001 
4387500000  -3.821113e+001  -9.518279e+001 
4390625000  -3.850875e+001  -9.448771e+001 
4393750000  -3.810994e+001  -9.426855e+001 
4396875000  -3.740954e+001  -1.003028e+002 
4400000000  -3.691492e+001  -1.104784e+002 
4403125000  -3.784037e+001  -1.187929e+002 
4406250000  -3.857594e+001  -1.220993e+002 
4409375000  -3.898530e+001  -1.270329e+002 
4412500000  -3.986232e+001  -1.279750e+002 
4415625000  -3.947836e+001  -1.241881e+002 
