!Agilent Technologies,E8363B,MY43030201,A.06.04.32
!Agilent E8363B: A.06.04.32
!Date: Tuesday, November 11, 2014 21:26:33
!Correction: S21(Response(S21)) 
!S1P File: Measurement: S21:
# Hz S  dB   R 50
3000000000  -4.042917e+001  9.528185e+001 
3003125000  -4.223881e+001  8.737930e+001 
3006250000  -4.205476e+001  8.589641e+001 
3009375000  -4.266712e+001  9.143439e+001 
3012500000  -4.150283e+001  8.657154e+001 
3015625000  -4.117440e+001  7.877203e+001 
3018750000  -4.194548e+001  7.943652e+001 
3021875000  -4.019146e+001  8.094255e+001 
3025000000  -3.903143e+001  7.706676e+001 
3028125000  -3.799416e+001  6.709468e+001 
3031250000  -3.703120e+001  5.594399e+001 
3034375000  -3.679899e+001  4.245571e+001 
3037500000  -3.741039e+001  3.093979e+001 
3040625000  -3.867076e+001  2.539259e+001 
3043750000  -3.912497e+001  1.871649e+001 
3046875000  -3.958010e+001  1.111521e+001 
3050000000  -4.091593e+001  7.579324e+000 
3053125000  -4.054178e+001  1.310782e+001 
3056250000  -4.040161e+001  1.524661e+001 
3059375000  -3.978700e+001  1.389450e+001 
3062500000  -3.832560e+001  8.680528e+000 
3065625000  -3.795990e+001  -3.961134e-002 
3068750000  -3.760654e+001  -7.361055e+000 
3071875000  -3.754528e+001  -1.087813e+001 
3075000000  -3.719939e+001  -1.761598e+001 
3078125000  -3.703246e+001  -2.298291e+001 
3081250000  -3.749078e+001  -2.984539e+001 
3084375000  -3.642707e+001  -3.418515e+001 
3087500000  -3.641399e+001  -4.111573e+001 
3090625000  -3.587134e+001  -5.312321e+001 
3093750000  -3.677678e+001  -6.115791e+001 
3096875000  -3.746940e+001  -6.670070e+001 
3100000000  -3.736116e+001  -6.949856e+001 
3103125000  -3.763070e+001  -7.252943e+001 
3106250000  -3.722019e+001  -7.777714e+001 
3109375000  -3.738247e+001  -8.268787e+001 
3112500000  -3.715550e+001  -8.830825e+001 
3115625000  -3.705555e+001  -9.246522e+001 
3118750000  -3.729810e+001  -9.474504e+001 
3121875000  -3.645211e+001  -1.059787e+002 
3125000000  -3.832021e+001  -1.090614e+002 
3128125000  -3.873790e+001  -1.025307e+002 
3131250000  -3.603505e+001  -1.080440e+002 
3134375000  -3.531207e+001  -1.253703e+002 
3137500000  -3.617509e+001  -1.382746e+002 
3140625000  -3.736558e+001  -1.417296e+002 
3143750000  -3.831445e+001  -1.432598e+002 
3146875000  -3.770814e+001  -1.400812e+002 
3150000000  -3.687532e+001  -1.437029e+002 
3153125000  -3.722811e+001  -1.537515e+002 
3156250000  -3.811751e+001  -1.496021e+002 
3159375000  -3.585501e+001  -1.501994e+002 
3162500000  -3.432042e+001  -1.656586e+002 
3165625000  -3.543412e+001  -1.784651e+002 
3168750000  -3.553528e+001  -1.792436e+002 
3171875000  -3.495265e+001  1.732735e+002 
3175000000  -3.558882e+001  1.641672e+002 
3178125000  -3.513974e+001  1.628543e+002 
3181250000  -3.440222e+001  1.547993e+002 
3184375000  -3.409162e+001  1.420861e+002 
3187500000  -3.525372e+001  1.274139e+002 
3190625000  -3.737726e+001  1.211324e+002 
3193750000  -3.772255e+001  1.277324e+002 
3196875000  -3.754636e+001  1.280715e+002 
3200000000  -3.643147e+001  1.234291e+002 
3203125000  -3.598859e+001  1.159797e+002 
3206250000  -3.615687e+001  1.086094e+002 
3209375000  -3.573140e+001  1.002579e+002 
3212500000  -3.624408e+001  9.436947e+001 
3215625000  -3.602844e+001  8.933984e+001 
3218750000  -3.694244e+001  7.867513e+001 
3221875000  -3.762535e+001  7.264592e+001 
3225000000  -3.713274e+001  6.853547e+001 
3228125000  -3.761719e+001  6.158895e+001 
3231250000  -3.843414e+001  5.865564e+001 
3234375000  -3.807940e+001  5.661992e+001 
3237500000  -3.816643e+001  5.185900e+001 
3240625000  -3.780507e+001  4.653462e+001 
3243750000  -3.767836e+001  3.699116e+001 
3246875000  -3.810324e+001  2.857178e+001 
3250000000  -3.882395e+001  2.466806e+001 
3253125000  -3.926807e+001  2.193515e+001 
3256250000  -3.873959e+001  1.374852e+001 
3259375000  -3.904198e+001  2.938928e+000 
3262500000  -4.065560e+001  2.871955e-001 
3265625000  -4.126874e+001  1.969132e+000 
3268750000  -4.122831e+001  3.556062e+000 
3271875000  -4.076395e+001  -3.692732e-001 
3275000000  -4.010804e+001  -8.768541e+000 
3278125000  -4.079641e+001  -1.357862e+001 
3281250000  -4.119072e+001  -1.370887e+001 
3284375000  -4.053234e+001  -2.218066e+001 
3287500000  -4.101407e+001  -2.461292e+001 
3290625000  -4.117934e+001  -3.278818e+001 
3293750000  -4.139826e+001  -3.716406e+001 
3296875000  -4.233653e+001  -4.007501e+001 
3300000000  -4.215252e+001  -3.881295e+001 
3303125000  -4.100745e+001  -4.564779e+001 
3306250000  -4.071185e+001  -5.329119e+001 
3309375000  -4.059978e+001  -6.014312e+001 
3312500000  -4.090429e+001  -7.348784e+001 
3315625000  -4.212635e+001  -7.904992e+001 
3318750000  -4.364500e+001  -8.419600e+001 
3321875000  -4.447060e+001  -8.097513e+001 
3325000000  -4.493943e+001  -7.707442e+001 
3328125000  -4.409753e+001  -7.588979e+001 
3331250000  -4.283433e+001  -7.129855e+001 
3334375000  -4.028590e+001  -8.547905e+001 
3337500000  -4.065659e+001  -1.060686e+002 
3340625000  -4.209385e+001  -1.164320e+002 
3343750000  -4.423755e+001  -1.158785e+002 
3346875000  -4.361034e+001  -1.180529e+002 
3350000000  -4.322308e+001  -1.195032e+002 
3353125000  -4.298967e+001  -1.270969e+002 
3356250000  -4.285881e+001  -1.345780e+002 
3359375000  -4.349940e+001  -1.462904e+002 
3362500000  -4.453506e+001  -1.502144e+002 
3365625000  -4.463162e+001  -1.552740e+002 
3368750000  -4.567016e+001  -1.583245e+002 
3371875000  -4.602615e+001  -1.637686e+002 
3375000000  -4.774019e+001  -1.669684e+002 
3378125000  -4.818301e+001  -1.693119e+002 
3381250000  -4.984288e+001  -1.600936e+002 
3384375000  -4.753973e+001  -1.452890e+002 
3387500000  -4.443744e+001  -1.627005e+002 
3390625000  -4.659608e+001  1.730602e+002 
3393750000  -4.719824e+001  1.746617e+002 
3396875000  -4.645148e+001  1.737466e+002 
3400000000  -4.611953e+001  1.642511e+002 
3403125000  -4.694754e+001  1.599011e+002 
3406250000  -4.743294e+001  1.541416e+002 
3409375000  -4.805899e+001  1.459390e+002 
3412500000  -4.873766e+001  1.389410e+002 
3415625000  -5.008235e+001  1.423617e+002 
3418750000  -5.022104e+001  1.417059e+002 
3421875000  -5.143467e+001  1.434562e+002 
3425000000  -5.035462e+001  1.370251e+002 
3428125000  -5.008702e+001  1.371826e+002 
3431250000  -5.021964e+001  1.271632e+002 
3434375000  -5.122514e+001  1.271237e+002 
3437500000  -5.159839e+001  1.277989e+002 
3440625000  -5.259455e+001  1.258706e+002 
3443750000  -5.154866e+001  1.315959e+002 
3446875000  -5.125653e+001  1.279541e+002 
3450000000  -5.014163e+001  1.145764e+002 
3453125000  -5.091674e+001  1.086674e+002 
3456250000  -5.299035e+001  1.058346e+002 
3459375000  -5.359098e+001  1.119499e+002 
3462500000  -5.282261e+001  1.145024e+002 
3465625000  -5.244455e+001  1.002718e+002 
3468750000  -5.256047e+001  1.091901e+002 
3471875000  -5.243717e+001  1.027630e+002 
3475000000  -5.112751e+001  9.567110e+001 
3478125000  -5.133645e+001  8.989642e+001 
3481250000  -5.291666e+001  8.909998e+001 
3484375000  -5.315977e+001  9.112858e+001 
3487500000  -5.194611e+001  8.342577e+001 
3490625000  -5.080735e+001  8.283333e+001 
3493750000  -5.214180e+001  7.324689e+001 
3496875000  -5.168980e+001  7.361320e+001 
3500000000  -5.303865e+001  7.259676e+001 
3503125000  -5.212475e+001  7.080700e+001 
3506250000  -5.016243e+001  6.471183e+001 
3509375000  -4.955214e+001  5.115904e+001 
3512500000  -5.079549e+001  3.879945e+001 
3515625000  -5.145745e+001  3.835147e+001 
3518750000  -5.179375e+001  4.493083e+001 
3521875000  -5.300151e+001  2.699864e+001 
3525000000  -5.288193e+001  1.692828e+001 
3528125000  -5.264549e+001  3.244173e+001 
3531250000  -5.196680e+001  2.935890e+001 
3534375000  -5.361427e+001  1.482489e+001 
3537500000  -5.408854e+001  2.030428e+000 
3540625000  -5.318349e+001  2.509901e+000 
3543750000  -5.693244e+001  9.466458e+000 
3546875000  -5.702216e+001  1.160999e+001 
3550000000  -5.525051e+001  1.294721e+001 
3553125000  -5.301637e+001  -6.219059e+000 
3556250000  -5.661978e+001  -8.481104e+000 
3559375000  -5.674986e+001  -1.346731e+001 
3562500000  -5.674158e+001  -2.063204e+001 
3565625000  -5.644197e+001  -2.979643e+001 
3568750000  -5.869900e+001  -1.014811e+001 
3571875000  -5.831259e+001  -1.083222e+001 
3575000000  -5.896414e+001  -1.777760e+001 
3578125000  -5.831898e+001  -1.871751e+001 
3581250000  -5.724220e+001  -7.787761e+000 
3584375000  -5.781237e+001  -1.924611e+001 
3587500000  -5.664008e+001  -1.489454e+001 
3590625000  -5.764323e+001  -3.530207e+001 
3593750000  -6.035161e+001  -1.711467e+001 
3596875000  -6.101925e+001  1.966490e+000 
3600000000  -5.679972e+001  -1.280566e+001 
3603125000  -5.933661e+001  -2.943379e+001 
3606250000  -6.010064e+001  -2.681490e+001 
3609375000  -5.930949e+001  -1.225427e+001 
3612500000  -5.746144e+001  -1.566233e+001 
3615625000  -5.913227e+001  -1.815176e+001 
3618750000  -5.881664e+001  -2.000257e+001 
3621875000  -5.813209e+001  -1.972428e+001 
3625000000  -5.655225e+001  -1.926046e+000 
3628125000  -5.780390e+001  -1.360761e+001 
3631250000  -5.618166e+001  -1.419331e+001 
3634375000  -5.616592e+001  -1.669164e+001 
3637500000  -5.616682e+001  -3.419566e+000 
3640625000  -5.394590e+001  -1.608654e+001 
3643750000  -5.232510e+001  -2.545123e+001 
3646875000  -5.284111e+001  -3.108136e+001 
3650000000  -5.287243e+001  -3.491398e+001 
3653125000  -5.173786e+001  -3.610952e+001 
3656250000  -5.115628e+001  -3.607220e+001 
3659375000  -5.161114e+001  -4.347806e+001 
3662500000  -5.044539e+001  -4.396474e+001 
3665625000  -5.003567e+001  -4.732073e+001 
3668750000  -4.788927e+001  -4.535021e+001 
3671875000  -4.706229e+001  -5.803427e+001 
3675000000  -4.741292e+001  -6.792719e+001 
3678125000  -4.763260e+001  -7.211443e+001 
3681250000  -4.666050e+001  -7.445834e+001 
3684375000  -4.691580e+001  -7.862477e+001 
3687500000  -4.624662e+001  -8.218913e+001 
3690625000  -4.702567e+001  -9.094474e+001 
3693750000  -4.717388e+001  -9.289833e+001 
3696875000  -4.646651e+001  -9.551965e+001 
3700000000  -4.521371e+001  -9.853008e+001 
3703125000  -4.522099e+001  -1.051955e+002 
3706250000  -4.593652e+001  -1.070187e+002 
3709375000  -4.495074e+001  -1.057147e+002 
3712500000  -4.389966e+001  -1.126103e+002 
3715625000  -4.210463e+001  -1.199328e+002 
3718750000  -4.177512e+001  -1.287694e+002 
3721875000  -4.145058e+001  -1.367256e+002 
3725000000  -4.171101e+001  -1.425284e+002 
3728125000  -4.161423e+001  -1.468448e+002 
3731250000  -4.069520e+001  -1.517451e+002 
3734375000  -4.026704e+001  -1.589582e+002 
3737500000  -4.046697e+001  -1.679896e+002 
3740625000  -4.097091e+001  -1.753451e+002 
3743750000  -4.060102e+001  1.796493e+002 
3746875000  -4.061520e+001  1.729142e+002 
3750000000  -4.112882e+001  1.663116e+002 
3753125000  -4.064459e+001  1.625550e+002 
3756250000  -4.064210e+001  1.612227e+002 
3759375000  -4.027678e+001  1.555317e+002 
3762500000  -4.002296e+001  1.495227e+002 
3765625000  -4.061170e+001  1.440918e+002 
3768750000  -4.011515e+001  1.442407e+002 
3771875000  -3.851306e+001  1.374474e+002 
3775000000  -3.857678e+001  1.259899e+002 
3778125000  -3.903532e+001  1.191256e+002 
3781250000  -3.898415e+001  1.155026e+002 
3784375000  -3.886657e+001  1.089102e+002 
3787500000  -3.844501e+001  1.045177e+002 
3790625000  -3.928304e+001  9.375325e+001 
3793750000  -3.914743e+001  9.234501e+001 
3796875000  -3.829747e+001  8.730377e+001 
3800000000  -3.649187e+001  8.305737e+001 
3803125000  -3.814658e+001  6.904703e+001 
3806250000  -3.910036e+001  6.646722e+001 
3809375000  -3.841796e+001  6.133500e+001 
3812500000  -3.850589e+001  5.266141e+001 
3815625000  -3.951363e+001  4.367302e+001 
3818750000  -4.066365e+001  4.316575e+001 
3821875000  -4.042095e+001  5.091247e+001 
3825000000  -3.852706e+001  4.951483e+001 
3828125000  -3.738530e+001  3.154235e+001 
3831250000  -3.808445e+001  1.762182e+001 
3834375000  -4.030891e+001  1.596834e+001 
3837500000  -4.072523e+001  2.052797e+001 
3840625000  -3.931605e+001  1.655213e+001 
3843750000  -3.852734e+001  3.678630e+000 
3846875000  -4.000722e+001  -4.761108e+000 
3850000000  -4.091091e+001  8.725244e-001 
3853125000  -4.015328e+001  1.956428e+000 
3856250000  -3.969330e+001  -5.040248e+000 
3859375000  -3.899366e+001  -1.185708e+001 
3862500000  -3.870032e+001  -2.392455e+001 
3865625000  -3.908856e+001  -2.984893e+001 
3868750000  -3.912872e+001  -2.875815e+001 
3871875000  -3.821759e+001  -3.507243e+001 
3875000000  -3.836571e+001  -4.532712e+001 
3878125000  -3.951094e+001  -4.939999e+001 
3881250000  -3.948438e+001  -4.816454e+001 
3884375000  -3.887980e+001  -5.460998e+001 
3887500000  -3.905778e+001  -6.057354e+001 
3890625000  -3.946789e+001  -6.623297e+001 
3893750000  -3.989614e+001  -6.822119e+001 
3896875000  -4.015024e+001  -7.182224e+001 
3900000000  -4.006993e+001  -7.422811e+001 
3903125000  -3.949115e+001  -8.110320e+001 
3906250000  -3.909886e+001  -8.446379e+001 
3909375000  -3.847313e+001  -9.120096e+001 
3912500000  -3.909766e+001  -1.013980e+002 
3915625000  -4.025097e+001  -1.017287e+002 
3918750000  -4.020686e+001  -1.024019e+002 
3921875000  -3.946098e+001  -1.060794e+002 
3925000000  -3.878600e+001  -1.118198e+002 
3928125000  -3.840083e+001  -1.211513e+002 
3931250000  -3.902163e+001  -1.284901e+002 
3934375000  -3.950367e+001  -1.296874e+002 
3937500000  -4.003668e+001  -1.315509e+002 
3940625000  -4.006689e+001  -1.336767e+002 
3943750000  -3.904880e+001  -1.371798e+002 
3946875000  -3.855573e+001  -1.453048e+002 
3950000000  -3.939457e+001  -1.550842e+002 
3953125000  -4.012652e+001  -1.536367e+002 
3956250000  -3.904014e+001  -1.555160e+002 
3959375000  -3.810460e+001  -1.582095e+002 
3962500000  -3.773470e+001  -1.685117e+002 
3965625000  -3.796590e+001  -1.774316e+002 
3968750000  -3.906155e+001  1.741124e+002 
3971875000  -3.878405e+001  1.688638e+002 
3975000000  -3.863237e+001  1.661055e+002 
3978125000  -3.858427e+001  1.603033e+002 
3981250000  -3.872499e+001  1.551336e+002 
3984375000  -3.918449e+001  1.463143e+002 
3987500000  -3.981474e+001  1.437142e+002 
3990625000  -3.994042e+001  1.415217e+002 
3993750000  -4.030518e+001  1.365901e+002 
3996875000  -4.004444e+001  1.330672e+002 
4000000000  -4.059143e+001  1.273030e+002 
4003125000  -4.123270e+001  1.297712e+002 
4006250000  -3.988883e+001  1.276056e+002 
4009375000  -3.881310e+001  1.139972e+002 
4012500000  -4.013396e+001  1.037879e+002 
4015625000  -4.140097e+001  1.031035e+002 
4018750000  -4.152289e+001  1.059685e+002 
4021875000  -4.106151e+001  1.027666e+002 
4025000000  -4.063902e+001  9.586100e+001 
4028125000  -4.061746e+001  8.992226e+001 
4031250000  -4.105859e+001  8.524504e+001 
4034375000  -4.151475e+001  8.514626e+001 
4037500000  -4.131421e+001  8.431283e+001 
4040625000  -4.102181e+001  8.105222e+001 
4043750000  -4.110632e+001  7.734937e+001 
4046875000  -4.082871e+001  7.373027e+001 
4050000000  -4.066776e+001  6.878466e+001 
4053125000  -4.152165e+001  6.549467e+001 
4056250000  -4.179123e+001  7.052106e+001 
4059375000  -3.977939e+001  6.814442e+001 
4062500000  -3.906846e+001  5.969333e+001 
4065625000  -3.899010e+001  5.572407e+001 
4068750000  -3.865252e+001  4.789878e+001 
4071875000  -3.803359e+001  3.628823e+001 
4075000000  -3.854182e+001  3.059711e+001 
4078125000  -3.887005e+001  2.625178e+001 
4081250000  -3.818074e+001  2.176981e+001 
4084375000  -3.818980e+001  1.179643e+001 
4087500000  -3.880291e+001  5.240464e+000 
4090625000  -3.921951e+001  3.377689e+000 
4093750000  -3.879372e+001  1.056126e+000 
4096875000  -3.880884e+001  -8.248579e+000 
4100000000  -3.972614e+001  -1.542253e+001 
4103125000  -4.086480e+001  -1.508618e+001 
4106250000  -4.010687e+001  -1.154641e+001 
4109375000  -3.927026e+001  -1.476499e+001 
4112500000  -3.878566e+001  -2.294640e+001 
4115625000  -3.940079e+001  -2.959634e+001 
4118750000  -3.913260e+001  -3.477391e+001 
4121875000  -3.918331e+001  -4.226896e+001 
4125000000  -3.971045e+001  -4.827268e+001 
4128125000  -4.075621e+001  -4.588354e+001 
4131250000  -3.992503e+001  -4.035311e+001 
4134375000  -3.771051e+001  -5.053717e+001 
4137500000  -3.830738e+001  -7.071906e+001 
4140625000  -4.063787e+001  -7.656387e+001 
4143750000  -4.152896e+001  -7.090813e+001 
4146875000  -4.082257e+001  -6.695774e+001 
4150000000  -4.009332e+001  -7.422027e+001 
4153125000  -4.001369e+001  -8.418340e+001 
4156250000  -4.129022e+001  -8.849853e+001 
4159375000  -4.108762e+001  -8.297728e+001 
4162500000  -4.013744e+001  -8.045592e+001 
4165625000  -3.904959e+001  -8.695928e+001 
4168750000  -3.862830e+001  -9.836301e+001 
4171875000  -3.868166e+001  -1.086626e+002 
4175000000  -3.946278e+001  -1.141462e+002 
4178125000  -3.978459e+001  -1.159421e+002 
4181250000  -3.966173e+001  -1.188047e+002 
4184375000  -3.963844e+001  -1.236508e+002 
4187500000  -3.973052e+001  -1.289422e+002 
4190625000  -3.956632e+001  -1.347104e+002 
4193750000  -4.059609e+001  -1.401331e+002 
4196875000  -4.111232e+001  -1.419698e+002 
4200000000  -4.234108e+001  -1.403432e+002 
4203125000  -4.101012e+001  -1.225445e+002 
4206250000  -3.766269e+001  -1.311694e+002 
4209375000  -3.726553e+001  -1.551862e+002 
4212500000  -3.973524e+001  -1.643708e+002 
4215625000  -4.021859e+001  -1.540978e+002 
4218750000  -3.850665e+001  -1.530348e+002 
4221875000  -3.650817e+001  -1.663467e+002 
4225000000  -3.797821e+001  -1.778199e+002 
4228125000  -3.811037e+001  -1.751113e+002 
4231250000  -3.675797e+001  1.787640e+002 
4234375000  -3.637857e+001  1.657028e+002 
4237500000  -3.636312e+001  1.616220e+002 
4240625000  -3.646680e+001  1.515662e+002 
4243750000  -3.768534e+001  1.430754e+002 
4246875000  -3.839668e+001  1.406864e+002 
4250000000  -3.843794e+001  1.428019e+002 
4253125000  -3.828159e+001  1.384272e+002 
4256250000  -3.821904e+001  1.337021e+002 
4259375000  -3.796522e+001  1.271503e+002 
4262500000  -3.807693e+001  1.223054e+002 
4265625000  -3.812101e+001  1.217608e+002 
4268750000  -3.707318e+001  1.143178e+002 
4271875000  -3.713374e+001  1.049550e+002 
4275000000  -3.653777e+001  9.525669e+001 
4278125000  -3.792702e+001  8.444028e+001 
4281250000  -3.913691e+001  8.294852e+001 
4284375000  -3.911826e+001  7.977650e+001 
4287500000  -4.002679e+001  7.514120e+001 
4290625000  -4.095057e+001  8.503103e+001 
4293750000  -3.900054e+001  8.667213e+001 
4296875000  -3.802831e+001  7.265736e+001 
4300000000  -3.924152e+001  6.338961e+001 
4303125000  -3.997844e+001  6.658517e+001 
4306250000  -3.906081e+001  7.024963e+001 
4309375000  -3.782186e+001  6.282972e+001 
4312500000  -3.787188e+001  5.188029e+001 
4315625000  -3.814293e+001  4.528314e+001 
4318750000  -3.885260e+001  3.858953e+001 
4321875000  -3.888316e+001  3.941574e+001 
4325000000  -3.823763e+001  3.950542e+001 
4328125000  -3.744116e+001  2.980575e+001 
4331250000  -3.774087e+001  1.960687e+001 
4334375000  -3.842654e+001  1.380105e+001 
4337500000  -3.958056e+001  1.171116e+001 
4340625000  -3.985726e+001  1.561269e+001 
4343750000  -3.896967e+001  1.278830e+001 
4346875000  -3.860307e+001  4.175126e+000 
4350000000  -3.853720e+001  -3.074445e+000 
4353125000  -3.936089e+001  -1.287273e+001 
4356250000  -4.124920e+001  -1.065771e+001 
4359375000  -4.049970e+001  5.019255e+000 
4362500000  -3.689359e+001  -4.715003e-001 
4365625000  -3.612175e+001  -1.716175e+001 
4368750000  -3.749294e+001  -2.839240e+001 
4371875000  -3.843078e+001  -2.729984e+001 
4375000000  -3.785892e+001  -3.254225e+001 
4378125000  -3.714105e+001  -3.906765e+001 
4381250000  -3.736843e+001  -4.792472e+001 
4384375000  -3.740547e+001  -5.435774e+001 
4387500000  -3.837281e+001  -5.957607e+001 
4390625000  -3.875200e+001  -6.114842e+001 
4393750000  -3.845469e+001  -6.168156e+001 
4396875000  -3.795215e+001  -6.505298e+001 
4400000000  -3.724186e+001  -7.471124e+001 
4403125000  -3.789772e+001  -8.486023e+001 
4406250000  -3.863480e+001  -8.734254e+001 
4409375000  -3.908963e+001  -9.269466e+001 
4412500000  -3.978150e+001  -9.547392e+001 
4415625000  -3.975138e+001  -9.049491e+001 
