!Agilent Technologies,E8363B,MY43030201,A.06.04.32
!Agilent E8363B: A.06.04.32
!Date: Tuesday, November 11, 2014 21:36:39
!Correction: S21(Response(S21)) 
!S1P File: Measurement: S21:
# Hz S  dB   R 50
3000000000  -4.058186e+001  7.081357e+001 
3003125000  -4.199453e+001  6.247317e+001 
3006250000  -4.206561e+001  6.189061e+001 
3009375000  -4.289775e+001  6.650155e+001 
3012500000  -4.143253e+001  6.242160e+001 
3015625000  -4.151496e+001  5.721242e+001 
3018750000  -4.183390e+001  5.655208e+001 
3021875000  -4.015749e+001  5.749797e+001 
3025000000  -3.892692e+001  5.418374e+001 
3028125000  -3.791980e+001  4.326698e+001 
3031250000  -3.700247e+001  3.077903e+001 
3034375000  -3.681162e+001  1.689194e+001 
3037500000  -3.760567e+001  6.302121e+000 
3040625000  -3.882248e+001  1.168052e+000 
3043750000  -3.925177e+001  -5.069119e+000 
3046875000  -3.990441e+001  -1.210311e+001 
3050000000  -4.109925e+001  -1.564774e+001 
3053125000  -4.047142e+001  -1.103807e+001 
3056250000  -4.032396e+001  -8.911281e+000 
3059375000  -3.974773e+001  -9.646683e+000 
3062500000  -3.824320e+001  -1.426840e+001 
3065625000  -3.777352e+001  -2.463112e+001 
3068750000  -3.759419e+001  -3.224007e+001 
3071875000  -3.755441e+001  -3.381237e+001 
3075000000  -3.704860e+001  -4.149630e+001 
3078125000  -3.707082e+001  -4.764257e+001 
3081250000  -3.714064e+001  -5.326992e+001 
3084375000  -3.627021e+001  -5.868232e+001 
3087500000  -3.639948e+001  -6.540016e+001 
3090625000  -3.592465e+001  -7.754280e+001 
3093750000  -3.693678e+001  -8.509090e+001 
3096875000  -3.721561e+001  -9.005277e+001 
3100000000  -3.723668e+001  -9.274637e+001 
3103125000  -3.756256e+001  -9.754975e+001 
3106250000  -3.717347e+001  -1.017044e+002 
3109375000  -3.724132e+001  -1.062765e+002 
3112500000  -3.713575e+001  -1.121186e+002 
3115625000  -3.707280e+001  -1.155244e+002 
3118750000  -3.719721e+001  -1.195139e+002 
3121875000  -3.645210e+001  -1.308171e+002 
3125000000  -3.866514e+001  -1.334627e+002 
3128125000  -3.852198e+001  -1.257925e+002 
3131250000  -3.604419e+001  -1.322919e+002 
3134375000  -3.539447e+001  -1.498892e+002 
3137500000  -3.608477e+001  -1.612367e+002 
3140625000  -3.727056e+001  -1.645207e+002 
3143750000  -3.821651e+001  -1.674662e+002 
3146875000  -3.767454e+001  -1.643840e+002 
3150000000  -3.688889e+001  -1.696362e+002 
3153125000  -3.730011e+001  -1.778380e+002 
3156250000  -3.788758e+001  -1.726346e+002 
3159375000  -3.555068e+001  -1.746773e+002 
3162500000  -3.414308e+001  1.698172e+002 
3165625000  -3.544628e+001  1.572131e+002 
3168750000  -3.526411e+001  1.559971e+002 
3171875000  -3.479466e+001  1.485677e+002 
3175000000  -3.549773e+001  1.402549e+002 
3178125000  -3.494707e+001  1.380192e+002 
3181250000  -3.436188e+001  1.298105e+002 
3184375000  -3.420005e+001  1.177607e+002 
3187500000  -3.538241e+001  1.035868e+002 
3190625000  -3.730927e+001  9.702330e+001 
3193750000  -3.750398e+001  1.024322e+002 
3196875000  -3.724805e+001  1.039256e+002 
3200000000  -3.615026e+001  9.829031e+001 
3203125000  -3.591145e+001  9.077716e+001 
3206250000  -3.606009e+001  8.305672e+001 
3209375000  -3.584560e+001  7.448122e+001 
3212500000  -3.618930e+001  6.757094e+001 
3215625000  -3.600531e+001  6.522950e+001 
3218750000  -3.675113e+001  5.346003e+001 
3221875000  -3.710958e+001  4.744675e+001 
3225000000  -3.703643e+001  4.364099e+001 
3228125000  -3.791640e+001  3.634846e+001 
3231250000  -3.832159e+001  3.429163e+001 
3234375000  -3.790560e+001  3.089646e+001 
3237500000  -3.812658e+001  2.643094e+001 
3240625000  -3.743675e+001  2.150241e+001 
3243750000  -3.762189e+001  1.115659e+001 
3246875000  -3.818305e+001  3.999696e+000 
3250000000  -3.885553e+001  1.403277e-002 
3253125000  -3.895552e+001  -1.831770e+000 
3256250000  -3.840462e+001  -1.152716e+001 
3259375000  -3.924456e+001  -2.064215e+001 
3262500000  -4.080250e+001  -2.550857e+001 
3265625000  -4.107262e+001  -2.219308e+001 
3268750000  -4.116382e+001  -2.239943e+001 
3271875000  -4.043649e+001  -2.465061e+001 
3275000000  -4.003953e+001  -3.395632e+001 
3278125000  -4.073963e+001  -3.805196e+001 
3281250000  -4.108927e+001  -3.993030e+001 
3284375000  -4.070619e+001  -4.667837e+001 
3287500000  -4.088176e+001  -5.052439e+001 
3290625000  -4.116515e+001  -5.889491e+001 
3293750000  -4.105396e+001  -6.414410e+001 
3296875000  -4.239196e+001  -6.484335e+001 
3300000000  -4.169818e+001  -6.520263e+001 
3303125000  -4.105355e+001  -7.166523e+001 
3306250000  -4.082620e+001  -7.905714e+001 
3309375000  -4.042622e+001  -8.610419e+001 
3312500000  -4.091176e+001  -9.808079e+001 
3315625000  -4.201229e+001  -1.066978e+002 
3318750000  -4.370702e+001  -1.092976e+002 
3321875000  -4.477965e+001  -1.050451e+002 
3325000000  -4.495554e+001  -9.820952e+001 
3328125000  -4.377372e+001  -9.849747e+001 
3331250000  -4.223406e+001  -9.755316e+001 
3334375000  -3.959257e+001  -1.111243e+002 
3337500000  -4.065165e+001  -1.337721e+002 
3340625000  -4.205562e+001  -1.429392e+002 
3343750000  -4.384544e+001  -1.402425e+002 
3346875000  -4.341738e+001  -1.431648e+002 
3350000000  -4.301509e+001  -1.452519e+002 
3353125000  -4.260609e+001  -1.525330e+002 
3356250000  -4.255557e+001  -1.607509e+002 
3359375000  -4.345711e+001  -1.729101e+002 
3362500000  -4.437356e+001  -1.761308e+002 
3365625000  -4.484723e+001  1.798700e+002 
3368750000  -4.532514e+001  1.738644e+002 
3371875000  -4.604273e+001  1.702409e+002 
3375000000  -4.746417e+001  1.669581e+002 
3378125000  -4.826036e+001  1.671143e+002 
3381250000  -4.973709e+001  1.776149e+002 
3384375000  -4.669091e+001  -1.701295e+002 
3387500000  -4.374141e+001  1.718838e+002 
3390625000  -4.619178e+001  1.501852e+002 
3393750000  -4.708967e+001  1.516656e+002 
3396875000  -4.642798e+001  1.511389e+002 
3400000000  -4.588442e+001  1.385605e+002 
3403125000  -4.708492e+001  1.322144e+002 
3406250000  -4.763189e+001  1.280824e+002 
3409375000  -4.784146e+001  1.233868e+002 
3412500000  -4.873099e+001  1.165862e+002 
3415625000  -5.023047e+001  1.161907e+002 
3418750000  -5.047017e+001  1.178750e+002 
3421875000  -5.156638e+001  1.200222e+002 
3425000000  -4.995565e+001  1.184072e+002 
3428125000  -5.011199e+001  1.132658e+002 
3431250000  -4.972787e+001  1.057940e+002 
3434375000  -5.053432e+001  1.008283e+002 
3437500000  -5.188087e+001  1.008340e+002 
3440625000  -5.254810e+001  1.026057e+002 
3443750000  -5.075129e+001  1.056199e+002 
3446875000  -5.090928e+001  9.732459e+001 
3450000000  -5.038634e+001  8.640434e+001 
3453125000  -5.084741e+001  7.769079e+001 
3456250000  -5.201106e+001  7.876129e+001 
3459375000  -5.309117e+001  8.464140e+001 
3462500000  -5.269039e+001  8.364484e+001 
3465625000  -5.106773e+001  7.620844e+001 
3468750000  -5.244944e+001  8.088867e+001 
3471875000  -5.188670e+001  7.423457e+001 
3475000000  -5.160934e+001  7.076583e+001 
3478125000  -5.146136e+001  6.033796e+001 
3481250000  -5.263655e+001  6.397991e+001 
3484375000  -5.219512e+001  5.985199e+001 
3487500000  -5.200000e+001  6.024263e+001 
3490625000  -5.173748e+001  5.136101e+001 
3493750000  -5.144857e+001  4.541663e+001 
3496875000  -5.118790e+001  4.874140e+001 
3500000000  -5.236563e+001  5.018320e+001 
3503125000  -5.112278e+001  4.056097e+001 
3506250000  -5.011187e+001  3.044627e+001 
3509375000  -4.976825e+001  2.300427e+001 
3512500000  -4.963860e+001  8.802234e+000 
3515625000  -5.110486e+001  3.072638e+000 
3518750000  -5.210460e+001  6.792471e+000 
3521875000  -5.219217e+001  -1.879269e+000 
3525000000  -5.433353e+001  -3.542726e+000 
3528125000  -5.271342e+001  5.166981e+000 
3531250000  -5.158901e+001  -7.198229e+000 
3534375000  -5.321979e+001  -1.964403e+001 
3537500000  -5.320169e+001  -2.677291e+001 
3540625000  -5.482754e+001  -2.637025e+001 
3543750000  -5.632578e+001  -1.657286e+001 
3546875000  -5.669800e+001  -1.065817e+001 
3550000000  -5.584788e+001  -1.616145e+001 
3553125000  -5.330456e+001  -2.796715e+001 
3556250000  -5.489939e+001  -3.365622e+001 
3559375000  -5.580416e+001  -4.713428e+001 
3562500000  -5.569712e+001  -3.900350e+001 
3565625000  -5.585220e+001  -5.483759e+001 
3568750000  -5.746006e+001  -3.508144e+001 
3571875000  -5.861410e+001  -4.368677e+001 
3575000000  -5.848264e+001  -3.629189e+001 
3578125000  -5.770991e+001  -5.066811e+001 
3581250000  -5.879102e+001  -4.629382e+001 
3584375000  -5.704332e+001  -3.719115e+001 
3587500000  -5.881519e+001  -5.373753e+001 
3590625000  -5.781118e+001  -5.559890e+001 
3593750000  -5.774883e+001  -4.322205e+001 
3596875000  -5.905138e+001  -3.573109e+001 
3600000000  -5.766003e+001  -5.044157e+001 
3603125000  -5.682221e+001  -5.616314e+001 
3606250000  -5.793671e+001  -5.198605e+001 
3609375000  -5.813103e+001  -3.715805e+001 
3612500000  -5.684713e+001  -5.645920e+001 
3615625000  -5.937257e+001  -6.488190e+001 
3618750000  -6.047548e+001  -4.780910e+001 
3621875000  -5.802484e+001  -5.584067e+001 
3625000000  -5.895668e+001  -4.229544e+001 
3628125000  -5.838704e+001  -4.220715e+001 
3631250000  -5.583096e+001  -5.315937e+001 
3634375000  -5.647353e+001  -5.247605e+001 
3637500000  -5.643817e+001  -4.857175e+001 
3640625000  -5.504189e+001  -4.281399e+001 
3643750000  -5.233489e+001  -4.732436e+001 
3646875000  -5.300883e+001  -5.953118e+001 
3650000000  -5.277224e+001  -6.103782e+001 
3653125000  -5.161788e+001  -6.050939e+001 
3656250000  -5.230684e+001  -6.376078e+001 
3659375000  -5.146239e+001  -6.373526e+001 
3662500000  -5.063162e+001  -7.659269e+001 
3665625000  -4.960244e+001  -7.817142e+001 
3668750000  -4.796522e+001  -7.293594e+001 
3671875000  -4.723080e+001  -8.719006e+001 
3675000000  -4.764320e+001  -9.926665e+001 
3678125000  -4.746253e+001  -9.751430e+001 
3681250000  -4.621785e+001  -1.025475e+002 
3684375000  -4.689730e+001  -1.106540e+002 
3687500000  -4.644093e+001  -1.145038e+002 
3690625000  -4.633281e+001  -1.206659e+002 
3693750000  -4.702277e+001  -1.185270e+002 
3696875000  -4.622289e+001  -1.227567e+002 
3700000000  -4.527840e+001  -1.266294e+002 
3703125000  -4.521421e+001  -1.340743e+002 
3706250000  -4.558185e+001  -1.358304e+002 
3709375000  -4.459158e+001  -1.370366e+002 
3712500000  -4.367052e+001  -1.406606e+002 
3715625000  -4.167271e+001  -1.491654e+002 
3718750000  -4.176753e+001  -1.541840e+002 
3721875000  -4.118168e+001  -1.650116e+002 
3725000000  -4.171802e+001  -1.719046e+002 
3728125000  -4.151307e+001  -1.761028e+002 
3731250000  -4.057678e+001  1.789270e+002 
3734375000  -3.994704e+001  1.727034e+002 
3737500000  -4.095987e+001  1.620980e+002 
3740625000  -4.098635e+001  1.569040e+002 
3743750000  -4.035422e+001  1.503883e+002 
3746875000  -4.071193e+001  1.432837e+002 
3750000000  -4.123670e+001  1.379102e+002 
3753125000  -4.024302e+001  1.354360e+002 
3756250000  -4.071425e+001  1.308024e+002 
3759375000  -4.038576e+001  1.248797e+002 
3762500000  -4.008602e+001  1.196616e+002 
3765625000  -4.090931e+001  1.150482e+002 
3768750000  -3.997448e+001  1.144173e+002 
3771875000  -3.853495e+001  1.080812e+002 
3775000000  -3.847110e+001  9.627842e+001 
3778125000  -3.901902e+001  9.143604e+001 
3781250000  -3.908415e+001  8.643163e+001 
3784375000  -3.882291e+001  8.038350e+001 
3787500000  -3.843864e+001  7.541304e+001 
3790625000  -3.931317e+001  6.402877e+001 
3793750000  -3.919055e+001  6.139233e+001 
3796875000  -3.803521e+001  5.684148e+001 
3800000000  -3.631049e+001  5.303030e+001 
3803125000  -3.808053e+001  4.101549e+001 
3806250000  -3.880936e+001  3.573455e+001 
3809375000  -3.848367e+001  3.103526e+001 
3812500000  -3.845808e+001  2.235491e+001 
3815625000  -3.949355e+001  1.287484e+001 
3818750000  -4.090033e+001  1.367999e+001 
3821875000  -4.021709e+001  2.544168e+001 
3825000000  -3.838243e+001  1.914099e+001 
3828125000  -3.708139e+001  8.188669e-001 
3831250000  -3.822461e+001  -1.360816e+001 
3834375000  -4.041275e+001  -1.379672e+001 
3837500000  -4.058631e+001  -1.121780e+001 
3840625000  -3.915516e+001  -1.363352e+001 
3843750000  -3.817190e+001  -2.696399e+001 
3846875000  -4.010568e+001  -3.568653e+001 
3850000000  -4.080905e+001  -2.780723e+001 
3853125000  -4.010483e+001  -2.622557e+001 
3856250000  -3.912614e+001  -3.482211e+001 
3859375000  -3.847441e+001  -4.372357e+001 
3862500000  -3.851020e+001  -5.325934e+001 
3865625000  -3.900813e+001  -5.869269e+001 
3868750000  -3.860025e+001  -5.898067e+001 
3871875000  -3.786129e+001  -6.744491e+001 
3875000000  -3.850713e+001  -7.663001e+001 
3878125000  -3.959238e+001  -8.012288e+001 
3881250000  -3.924450e+001  -7.830509e+001 
3884375000  -3.860594e+001  -8.676967e+001 
3887500000  -3.908943e+001  -9.293208e+001 
3890625000  -3.932946e+001  -9.851290e+001 
3893750000  -3.987865e+001  -9.961314e+001 
3896875000  -4.015064e+001  -1.035552e+002 
3900000000  -3.999250e+001  -1.061895e+002 
3903125000  -3.934189e+001  -1.094156e+002 
3906250000  -3.892633e+001  -1.136412e+002 
3909375000  -3.833994e+001  -1.219680e+002 
3912500000  -3.928108e+001  -1.324951e+002 
3915625000  -4.021316e+001  -1.320795e+002 
3918750000  -3.993995e+001  -1.347048e+002 
3921875000  -3.917863e+001  -1.370668e+002 
3925000000  -3.839453e+001  -1.422411e+002 
3928125000  -3.838148e+001  -1.532042e+002 
3931250000  -3.894737e+001  -1.594358e+002 
3934375000  -3.956411e+001  -1.599144e+002 
3937500000  -4.003574e+001  -1.620553e+002 
3940625000  -3.988578e+001  -1.661563e+002 
3943750000  -3.886519e+001  -1.667754e+002 
3946875000  -3.838560e+001  -1.773970e+002 
3950000000  -3.988620e+001  1.752052e+002 
3953125000  -3.992710e+001  1.750092e+002 
3956250000  -3.874457e+001  1.753133e+002 
3959375000  -3.784040e+001  1.684596e+002 
3962500000  -3.784937e+001  1.594647e+002 
3965625000  -3.781384e+001  1.514035e+002 
3968750000  -3.867320e+001  1.430755e+002 
3971875000  -3.842732e+001  1.382131e+002 
3975000000  -3.837131e+001  1.331660e+002 
3978125000  -3.832809e+001  1.292078e+002 
3981250000  -3.847400e+001  1.227828e+002 
3984375000  -3.896016e+001  1.151905e+002 
3987500000  -3.985681e+001  1.125041e+002 
3990625000  -3.987667e+001  1.107409e+002 
3993750000  -3.992092e+001  1.056709e+002 
3996875000  -4.002001e+001  1.001027e+002 
4000000000  -4.046312e+001  9.757124e+001 
4003125000  -4.079857e+001  9.943678e+001 
4006250000  -3.913845e+001  9.595528e+001 
4009375000  -3.855590e+001  8.106203e+001 
4012500000  -4.019559e+001  7.230251e+001 
4015625000  -4.140388e+001  7.124438e+001 
4018750000  -4.117513e+001  7.472421e+001 
4021875000  -4.093039e+001  7.121352e+001 
4025000000  -4.040218e+001  6.409096e+001 
4028125000  -4.050845e+001  5.795073e+001 
4031250000  -4.131126e+001  5.377721e+001 
4034375000  -4.153905e+001  5.241050e+001 
4037500000  -4.120405e+001  5.294666e+001 
4040625000  -4.081491e+001  4.997313e+001 
4043750000  -4.103162e+001  4.593806e+001 
4046875000  -4.091610e+001  3.936671e+001 
4050000000  -4.053326e+001  3.831767e+001 
4053125000  -4.169268e+001  3.474849e+001 
4056250000  -4.128370e+001  3.844863e+001 
4059375000  -3.948563e+001  3.716526e+001 
4062500000  -3.875196e+001  2.969071e+001 
4065625000  -3.902161e+001  2.210315e+001 
4068750000  -3.849321e+001  1.452039e+001 
4071875000  -3.771778e+001  6.102470e+000 
4075000000  -3.836406e+001  -3.941236e+000 
4078125000  -3.860419e+001  -5.424000e+000 
4081250000  -3.823268e+001  -9.630703e+000 
4084375000  -3.809556e+001  -2.051841e+001 
4087500000  -3.867464e+001  -2.763508e+001 
4090625000  -3.906860e+001  -2.750815e+001 
4093750000  -3.883943e+001  -3.263116e+001 
4096875000  -3.872316e+001  -4.090584e+001 
4100000000  -3.993540e+001  -4.795420e+001 
4103125000  -4.049577e+001  -4.544751e+001 
4106250000  -4.002544e+001  -4.398366e+001 
4109375000  -3.904862e+001  -4.646028e+001 
4112500000  -3.866852e+001  -5.391994e+001 
4115625000  -3.935009e+001  -6.154716e+001 
4118750000  -3.911228e+001  -6.611475e+001 
4121875000  -3.904440e+001  -7.401172e+001 
4125000000  -3.996781e+001  -8.231863e+001 
4128125000  -4.096198e+001  -7.876900e+001 
4131250000  -3.956596e+001  -7.371418e+001 
4134375000  -3.759030e+001  -8.271317e+001 
4137500000  -3.845852e+001  -1.056042e+002 
4140625000  -4.048730e+001  -1.112752e+002 
4143750000  -4.137527e+001  -1.019085e+002 
4146875000  -4.057463e+001  -1.009850e+002 
4150000000  -3.957695e+001  -1.101933e+002 
4153125000  -3.997435e+001  -1.168046e+002 
4156250000  -4.104609e+001  -1.208363e+002 
4159375000  -4.061066e+001  -1.149500e+002 
4162500000  -4.003853e+001  -1.118883e+002 
4165625000  -3.886985e+001  -1.222307e+002 
4168750000  -3.855814e+001  -1.310254e+002 
4171875000  -3.843487e+001  -1.387514e+002 
4175000000  -3.948352e+001  -1.471659e+002 
4178125000  -3.973361e+001  -1.467531e+002 
4181250000  -3.941919e+001  -1.503430e+002 
4184375000  -3.971461e+001  -1.561651e+002 
4187500000  -3.951860e+001  -1.622268e+002 
4190625000  -3.932724e+001  -1.692998e+002 
4193750000  -4.051601e+001  -1.738652e+002 
4196875000  -4.167463e+001  -1.752826e+002 
4200000000  -4.238194e+001  -1.692764e+002 
4203125000  -4.061597e+001  -1.567307e+002 
4206250000  -3.748709e+001  -1.655670e+002 
4209375000  -3.749696e+001  1.699215e+002 
4212500000  -3.978918e+001  1.636638e+002 
4215625000  -3.987281e+001  1.714405e+002 
4218750000  -3.824627e+001  1.731807e+002 
4221875000  -3.671115e+001  1.628052e+002 
4225000000  -3.775665e+001  1.518722e+002 
4228125000  -3.780501e+001  1.503130e+002 
4231250000  -3.632814e+001  1.451850e+002 
4234375000  -3.621599e+001  1.329912e+002 
4237500000  -3.601042e+001  1.288737e+002 
4240625000  -3.634750e+001  1.171796e+002 
4243750000  -3.772611e+001  1.086613e+002 
4246875000  -3.847047e+001  1.085488e+002 
4250000000  -3.824385e+001  1.072939e+002 
4253125000  -3.809358e+001  1.059808e+002 
4256250000  -3.815178e+001  9.981664e+001 
4259375000  -3.758453e+001  9.411873e+001 
4262500000  -3.805291e+001  8.966698e+001 
4265625000  -3.778686e+001  8.947337e+001 
4268750000  -3.692434e+001  7.930468e+001 
4271875000  -3.677945e+001  7.005828e+001 
4275000000  -3.664489e+001  6.201550e+001 
4278125000  -3.753399e+001  5.031393e+001 
4281250000  -3.905256e+001  4.905571e+001 
4284375000  -3.875521e+001  4.659248e+001 
4287500000  -4.042753e+001  4.197546e+001 
4290625000  -4.094563e+001  5.166847e+001 
4293750000  -3.852670e+001  5.249271e+001 
4296875000  -3.761596e+001  3.855675e+001 
4300000000  -3.895160e+001  3.088251e+001 
4303125000  -3.974535e+001  3.280975e+001 
4306250000  -3.853838e+001  3.572983e+001 
4309375000  -3.754783e+001  2.949418e+001 
4312500000  -3.765408e+001  1.709172e+001 
4315625000  -3.794065e+001  9.597986e+000 
4318750000  -3.861348e+001  5.722026e+000 
4321875000  -3.867872e+001  6.628563e+000 
4325000000  -3.815873e+001  4.800075e+000 
4328125000  -3.738324e+001  -4.579054e+000 
4331250000  -3.747601e+001  -1.437110e+001 
4334375000  -3.845184e+001  -2.059355e+001 
4337500000  -3.967596e+001  -2.226423e+001 
4340625000  -3.966062e+001  -1.911307e+001 
4343750000  -3.869658e+001  -2.066846e+001 
4346875000  -3.858212e+001  -3.127253e+001 
4350000000  -3.834518e+001  -3.727415e+001 
4353125000  -3.892015e+001  -4.500350e+001 
4356250000  -4.163352e+001  -3.997482e+001 
4359375000  -3.999736e+001  -2.834988e+001 
4362500000  -3.648560e+001  -3.573257e+001 
4365625000  -3.596268e+001  -5.316654e+001 
4368750000  -3.736006e+001  -6.284010e+001 
4371875000  -3.790120e+001  -6.253353e+001 
4375000000  -3.727530e+001  -6.725351e+001 
4378125000  -3.697202e+001  -7.626197e+001 
4381250000  -3.699713e+001  -8.226158e+001 
4384375000  -3.698439e+001  -8.895916e+001 
4387500000  -3.829470e+001  -9.584853e+001 
4390625000  -3.853907e+001  -9.598642e+001 
4393750000  -3.792249e+001  -9.580688e+001 
4396875000  -3.738150e+001  -1.009384e+002 
4400000000  -3.697577e+001  -1.116648e+002 
4403125000  -3.784005e+001  -1.206641e+002 
4406250000  -3.829710e+001  -1.237126e+002 
4409375000  -3.877383e+001  -1.282451e+002 
4412500000  -3.992253e+001  -1.288532e+002 
4415625000  -3.950146e+001  -1.231207e+002 
