!Agilent Technologies,E8363B,MY43030201,A.06.04.32
!Agilent E8363B: A.06.04.32
!Date: Tuesday, November 11, 2014 21:28:28
!Correction: S21(Response(S21)) 
!S1P File: Measurement: S21:
# Hz S  dB   R 50
3000000000  -4.057872e+001  9.046040e+001 
3003125000  -4.222986e+001  8.179860e+001 
3006250000  -4.233562e+001  8.086554e+001 
3009375000  -4.279292e+001  8.530810e+001 
3012500000  -4.159887e+001  8.253174e+001 
3015625000  -4.114505e+001  7.560659e+001 
3018750000  -4.179462e+001  7.632606e+001 
3021875000  -4.014085e+001  7.605313e+001 
3025000000  -3.921706e+001  7.154005e+001 
3028125000  -3.794816e+001  6.188474e+001 
3031250000  -3.705273e+001  5.104039e+001 
3034375000  -3.682238e+001  3.711390e+001 
3037500000  -3.751596e+001  2.607450e+001 
3040625000  -3.883467e+001  2.076847e+001 
3043750000  -3.933208e+001  1.353730e+001 
3046875000  -3.968034e+001  8.212837e+000 
3050000000  -4.105426e+001  2.379836e+000 
3053125000  -4.060734e+001  8.884903e+000 
3056250000  -4.027057e+001  1.103689e+001 
3059375000  -3.998469e+001  7.673562e+000 
3062500000  -3.835951e+001  3.639521e+000 
3065625000  -3.794829e+001  -5.949885e+000 
3068750000  -3.760361e+001  -1.360368e+001 
3071875000  -3.755333e+001  -1.592050e+001 
3075000000  -3.707460e+001  -2.163586e+001 
3078125000  -3.711975e+001  -2.870333e+001 
3081250000  -3.737302e+001  -3.475280e+001 
3084375000  -3.650442e+001  -3.861116e+001 
3087500000  -3.638373e+001  -4.563687e+001 
3090625000  -3.600636e+001  -5.726638e+001 
3093750000  -3.687234e+001  -6.568999e+001 
3096875000  -3.737623e+001  -7.096712e+001 
3100000000  -3.722202e+001  -7.407342e+001 
3103125000  -3.752742e+001  -7.812936e+001 
3106250000  -3.724047e+001  -8.364993e+001 
3109375000  -3.724427e+001  -8.688123e+001 
3112500000  -3.719609e+001  -9.259938e+001 
3115625000  -3.705019e+001  -9.783552e+001 
3118750000  -3.719989e+001  -1.003624e+002 
3121875000  -3.650160e+001  -1.106076e+002 
3125000000  -3.841280e+001  -1.153426e+002 
3128125000  -3.856768e+001  -1.065607e+002 
3131250000  -3.624021e+001  -1.117782e+002 
3134375000  -3.530031e+001  -1.293073e+002 
3137500000  -3.614278e+001  -1.426030e+002 
3140625000  -3.725418e+001  -1.456746e+002 
3143750000  -3.829465e+001  -1.479298e+002 
3146875000  -3.781579e+001  -1.456646e+002 
3150000000  -3.689553e+001  -1.497915e+002 
3153125000  -3.720153e+001  -1.586152e+002 
3156250000  -3.789323e+001  -1.541477e+002 
3159375000  -3.582290e+001  -1.552229e+002 
3162500000  -3.421199e+001  -1.710019e+002 
3165625000  -3.550944e+001  1.766211e+002 
3168750000  -3.550666e+001  1.756335e+002 
3171875000  -3.487644e+001  1.681422e+002 
3175000000  -3.549954e+001  1.588030e+002 
3178125000  -3.509762e+001  1.576133e+002 
3181250000  -3.441116e+001  1.495215e+002 
3184375000  -3.401431e+001  1.388963e+002 
3187500000  -3.536401e+001  1.227333e+002 
3190625000  -3.737138e+001  1.159194e+002 
3193750000  -3.761489e+001  1.219795e+002 
3196875000  -3.751399e+001  1.227177e+002 
3200000000  -3.634566e+001  1.180504e+002 
3203125000  -3.594541e+001  1.107470e+002 
3206250000  -3.623328e+001  1.025118e+002 
3209375000  -3.577557e+001  9.440718e+001 
3212500000  -3.629643e+001  8.782944e+001 
3215625000  -3.612888e+001  8.498180e+001 
3218750000  -3.677589e+001  7.431539e+001 
3221875000  -3.738715e+001  6.718220e+001 
3225000000  -3.705009e+001  6.393103e+001 
3228125000  -3.783883e+001  5.593492e+001 
3231250000  -3.827338e+001  5.479761e+001 
3234375000  -3.803841e+001  5.125968e+001 
3237500000  -3.807801e+001  4.687453e+001 
3240625000  -3.786396e+001  4.142822e+001 
3243750000  -3.770732e+001  3.156422e+001 
3246875000  -3.821537e+001  2.417189e+001 
3250000000  -3.874688e+001  2.020081e+001 
3253125000  -3.907667e+001  1.648684e+001 
3256250000  -3.878300e+001  9.574347e+000 
3259375000  -3.922031e+001  -1.131133e+000 
3262500000  -4.070944e+001  -5.350277e+000 
3265625000  -4.110210e+001  -2.590913e+000 
3268750000  -4.137411e+001  -1.686156e+000 
3271875000  -4.077464e+001  -5.457954e+000 
3275000000  -4.018631e+001  -1.211304e+001 
3278125000  -4.094475e+001  -1.859429e+001 
3281250000  -4.111511e+001  -1.848450e+001 
3284375000  -4.033519e+001  -2.608253e+001 
3287500000  -4.082116e+001  -2.860767e+001 
3290625000  -4.125004e+001  -3.740485e+001 
3293750000  -4.108994e+001  -4.302796e+001 
3296875000  -4.221764e+001  -4.458384e+001 
3300000000  -4.219709e+001  -4.476604e+001 
3303125000  -4.106660e+001  -5.152012e+001 
3306250000  -4.075031e+001  -5.689116e+001 
3309375000  -4.057245e+001  -6.494871e+001 
3312500000  -4.066640e+001  -7.760802e+001 
3315625000  -4.207289e+001  -8.488611e+001 
3318750000  -4.335534e+001  -8.985500e+001 
3321875000  -4.493778e+001  -8.771033e+001 
3325000000  -4.509982e+001  -8.336040e+001 
3328125000  -4.368326e+001  -8.090321e+001 
3331250000  -4.263815e+001  -7.547144e+001 
3334375000  -3.991735e+001  -9.135577e+001 
3337500000  -4.057890e+001  -1.108281e+002 
3340625000  -4.201366e+001  -1.204429e+002 
3343750000  -4.371395e+001  -1.196563e+002 
3346875000  -4.339168e+001  -1.205581e+002 
3350000000  -4.305116e+001  -1.249157e+002 
3353125000  -4.267958e+001  -1.312364e+002 
3356250000  -4.269234e+001  -1.389304e+002 
3359375000  -4.336036e+001  -1.503784e+002 
3362500000  -4.418151e+001  -1.561754e+002 
3365625000  -4.458916e+001  -1.589666e+002 
3368750000  -4.558210e+001  -1.616957e+002 
3371875000  -4.547286e+001  -1.693178e+002 
3375000000  -4.737941e+001  -1.705844e+002 
3378125000  -4.777544e+001  -1.716828e+002 
3381250000  -4.882729e+001  -1.621991e+002 
3384375000  -4.697158e+001  -1.458263e+002 
3387500000  -4.398861e+001  -1.652806e+002 
3390625000  -4.602170e+001  1.715164e+002 
3393750000  -4.706251e+001  1.720989e+002 
3396875000  -4.636258e+001  1.730776e+002 
3400000000  -4.559936e+001  1.604495e+002 
3403125000  -4.704097e+001  1.524601e+002 
3406250000  -4.703817e+001  1.503773e+002 
3409375000  -4.716032e+001  1.438307e+002 
3412500000  -4.835244e+001  1.360080e+002 
3415625000  -4.936305e+001  1.367284e+002 
3418750000  -5.045499e+001  1.361239e+002 
3421875000  -5.051118e+001  1.412774e+002 
3425000000  -4.941314e+001  1.369406e+002 
3428125000  -4.919788e+001  1.318353e+002 
3431250000  -4.955551e+001  1.273931e+002 
3434375000  -5.013661e+001  1.267681e+002 
3437500000  -5.092945e+001  1.221739e+002 
3440625000  -5.250643e+001  1.214807e+002 
3443750000  -5.034795e+001  1.304957e+002 
3446875000  -5.061412e+001  1.185117e+002 
3450000000  -4.954074e+001  1.118978e+002 
3453125000  -5.060625e+001  9.929136e+001 
3456250000  -5.136150e+001  1.041444e+002 
3459375000  -5.249747e+001  1.089735e+002 
3462500000  -5.223664e+001  1.094734e+002 
3465625000  -5.158352e+001  9.814172e+001 
3468750000  -5.194141e+001  9.835396e+001 
3471875000  -5.126009e+001  9.587836e+001 
3475000000  -5.118555e+001  9.234768e+001 
3478125000  -5.120033e+001  8.179538e+001 
3481250000  -5.180078e+001  8.303532e+001 
3484375000  -5.200864e+001  8.764156e+001 
3487500000  -5.149685e+001  8.257198e+001 
3490625000  -5.105725e+001  7.621272e+001 
3493750000  -5.134127e+001  6.505113e+001 
3496875000  -5.072215e+001  6.857899e+001 
3500000000  -5.173538e+001  6.428362e+001 
3503125000  -5.106567e+001  5.740077e+001 
3506250000  -4.952644e+001  5.438944e+001 
3509375000  -4.929985e+001  4.999331e+001 
3512500000  -4.964283e+001  3.781924e+001 
3515625000  -5.081524e+001  3.227940e+001 
3518750000  -5.178820e+001  2.848521e+001 
3521875000  -5.200101e+001  2.362544e+001 
3525000000  -5.242703e+001  1.570484e+001 
3528125000  -5.251908e+001  2.294929e+001 
3531250000  -5.260081e+001  2.014085e+001 
3534375000  -5.220163e+001  -1.433783e+000 
3537500000  -5.218058e+001  -7.263674e+000 
3540625000  -5.409341e+001  -7.615454e+000 
3543750000  -5.498134e+001  8.369781e+000 
3546875000  -5.594393e+001  7.591658e+000 
3550000000  -5.285307e+001  1.003962e+000 
3553125000  -5.340067e+001  -8.411880e+000 
3556250000  -5.445949e+001  -1.371805e+001 
3559375000  -5.528685e+001  -2.029151e+001 
3562500000  -5.499097e+001  -2.828683e+001 
3565625000  -5.693755e+001  -3.560545e+001 
3568750000  -5.714037e+001  -2.277573e+001 
3571875000  -5.745813e+001  -2.125177e+001 
3575000000  -5.912584e+001  -2.912282e+001 
3578125000  -5.861064e+001  -3.437611e+001 
3581250000  -5.751548e+001  -3.007663e+001 
3584375000  -5.883607e+001  -1.905878e+001 
3587500000  -5.933200e+001  -3.341324e+001 
3590625000  -5.869495e+001  -4.072559e+001 
3593750000  -5.698092e+001  -3.229298e+001 
3596875000  -5.802521e+001  -1.819528e+001 
3600000000  -5.701833e+001  -3.065516e+001 
3603125000  -5.890933e+001  -4.491081e+001 
3606250000  -5.764050e+001  -3.408331e+001 
3609375000  -5.788008e+001  -3.135234e+001 
3612500000  -5.835630e+001  -3.266736e+001 
3615625000  -5.902912e+001  -5.020789e+001 
3618750000  -6.089319e+001  -4.296903e+001 
3621875000  -5.779518e+001  -3.182796e+001 
3625000000  -6.011662e+001  -2.716923e+001 
3628125000  -5.647004e+001  -2.289657e+001 
3631250000  -5.742725e+001  -3.180341e+001 
3634375000  -5.575428e+001  -2.871918e+001 
3637500000  -5.592318e+001  -2.191948e+001 
3640625000  -5.499158e+001  -2.641129e+001 
3643750000  -5.437782e+001  -2.928118e+001 
3646875000  -5.391666e+001  -3.776234e+001 
3650000000  -5.300529e+001  -4.070142e+001 
3653125000  -5.270839e+001  -4.140761e+001 
3656250000  -5.283189e+001  -4.658067e+001 
3659375000  -5.188586e+001  -4.429142e+001 
3662500000  -5.044987e+001  -5.154309e+001 
3665625000  -5.028805e+001  -5.451649e+001 
3668750000  -4.883195e+001  -5.303823e+001 
3671875000  -4.747638e+001  -6.723521e+001 
3675000000  -4.766684e+001  -7.241891e+001 
3678125000  -4.776474e+001  -7.370328e+001 
3681250000  -4.695635e+001  -7.942817e+001 
3684375000  -4.693042e+001  -8.713570e+001 
3687500000  -4.712705e+001  -9.328090e+001 
3690625000  -4.664893e+001  -9.735736e+001 
3693750000  -4.744399e+001  -9.754697e+001 
3696875000  -4.641179e+001  -9.952510e+001 
3700000000  -4.519422e+001  -1.080004e+002 
3703125000  -4.541183e+001  -1.109301e+002 
3706250000  -4.569651e+001  -1.142905e+002 
3709375000  -4.522871e+001  -1.124934e+002 
3712500000  -4.373285e+001  -1.166897e+002 
3715625000  -4.195618e+001  -1.234792e+002 
3718750000  -4.203939e+001  -1.342841e+002 
3721875000  -4.163066e+001  -1.422361e+002 
3725000000  -4.181720e+001  -1.496721e+002 
3728125000  -4.138538e+001  -1.512316e+002 
3731250000  -4.081577e+001  -1.586634e+002 
3734375000  -4.016281e+001  -1.661060e+002 
3737500000  -4.092646e+001  -1.740615e+002 
3740625000  -4.103250e+001  1.795315e+002 
3743750000  -4.045300e+001  1.740837e+002 
3746875000  -4.068110e+001  1.668970e+002 
3750000000  -4.119875e+001  1.614167e+002 
3753125000  -4.056786e+001  1.590947e+002 
3756250000  -4.076035e+001  1.548187e+002 
3759375000  -4.031693e+001  1.502518e+002 
3762500000  -4.024555e+001  1.439658e+002 
3765625000  -4.081516e+001  1.385767e+002 
3768750000  -4.038548e+001  1.385089e+002 
3771875000  -3.861119e+001  1.301383e+002 
3775000000  -3.840209e+001  1.193213e+002 
3778125000  -3.936000e+001  1.131992e+002 
3781250000  -3.904882e+001  1.107245e+002 
3784375000  -3.891345e+001  1.024583e+002 
3787500000  -3.863338e+001  9.726650e+001 
3790625000  -3.942044e+001  8.778828e+001 
3793750000  -3.904787e+001  8.683658e+001 
3796875000  -3.828307e+001  8.074633e+001 
3800000000  -3.644832e+001  7.708459e+001 
3803125000  -3.812828e+001  6.344885e+001 
3806250000  -3.900918e+001  5.965099e+001 
3809375000  -3.855474e+001  5.502062e+001 
3812500000  -3.841138e+001  4.532853e+001 
3815625000  -3.955759e+001  3.777903e+001 
3818750000  -4.074802e+001  3.621421e+001 
3821875000  -4.041047e+001  4.656716e+001 
3825000000  -3.840982e+001  4.430366e+001 
3828125000  -3.704209e+001  2.559129e+001 
3831250000  -3.821366e+001  1.208327e+001 
3834375000  -4.016722e+001  9.860756e+000 
3837500000  -4.083871e+001  1.221233e+001 
3840625000  -3.908768e+001  1.105661e+001 
3843750000  -3.821409e+001  -5.066810e+000 
3846875000  -3.983377e+001  -1.083374e+001 
3850000000  -4.080285e+001  -3.226624e+000 
3853125000  -3.979682e+001  -2.465657e+000 
3856250000  -3.951576e+001  -1.276053e+001 
3859375000  -3.901638e+001  -1.855656e+001 
3862500000  -3.861600e+001  -2.799800e+001 
3865625000  -3.911423e+001  -3.339411e+001 
3868750000  -3.886242e+001  -3.564334e+001 
3871875000  -3.817655e+001  -4.077677e+001 
3875000000  -3.854156e+001  -5.262560e+001 
3878125000  -3.968218e+001  -5.491843e+001 
3881250000  -3.917975e+001  -5.406520e+001 
3884375000  -3.866792e+001  -6.183447e+001 
3887500000  -3.901041e+001  -6.720832e+001 
3890625000  -3.915093e+001  -7.351756e+001 
3893750000  -3.978267e+001  -7.187611e+001 
3896875000  -4.003581e+001  -7.738433e+001 
3900000000  -3.987147e+001  -7.954118e+001 
3903125000  -3.937698e+001  -8.580293e+001 
3906250000  -3.868651e+001  -9.124399e+001 
3909375000  -3.834185e+001  -9.818149e+001 
3912500000  -3.881899e+001  -1.077983e+002 
3915625000  -4.046553e+001  -1.069317e+002 
3918750000  -4.013305e+001  -1.079634e+002 
3921875000  -3.940918e+001  -1.136166e+002 
3925000000  -3.851927e+001  -1.183361e+002 
3928125000  -3.840805e+001  -1.262566e+002 
3931250000  -3.881075e+001  -1.330118e+002 
3934375000  -3.940795e+001  -1.351700e+002 
3937500000  -3.991707e+001  -1.374089e+002 
3940625000  -4.000259e+001  -1.400008e+002 
3943750000  -3.886117e+001  -1.414975e+002 
3946875000  -3.820813e+001  -1.505809e+002 
3950000000  -3.925279e+001  -1.599219e+002 
3953125000  -3.971483e+001  -1.595071e+002 
3956250000  -3.873220e+001  -1.592687e+002 
3959375000  -3.778569e+001  -1.668511e+002 
3962500000  -3.763831e+001  -1.746470e+002 
3965625000  -3.763237e+001  1.744697e+002 
3968750000  -3.891952e+001  1.685883e+002 
3971875000  -3.857807e+001  1.620616e+002 
3975000000  -3.815857e+001  1.593284e+002 
3978125000  -3.842315e+001  1.553481e+002 
3981250000  -3.865969e+001  1.477470e+002 
3984375000  -3.895816e+001  1.408032e+002 
3987500000  -3.941883e+001  1.372670e+002 
3990625000  -3.987794e+001  1.357418e+002 
3993750000  -3.981975e+001  1.307031e+002 
3996875000  -3.999835e+001  1.272489e+002 
4000000000  -4.031767e+001  1.211231e+002 
4003125000  -4.122143e+001  1.240036e+002 
4006250000  -3.956675e+001  1.199134e+002 
4009375000  -3.839190e+001  1.079651e+002 
4012500000  -3.978511e+001  9.859125e+001 
4015625000  -4.133234e+001  9.854694e+001 
4018750000  -4.133730e+001  9.799174e+001 
4021875000  -4.035509e+001  9.858575e+001 
4025000000  -4.014535e+001  9.026746e+001 
4028125000  -4.028719e+001  8.373762e+001 
4031250000  -4.104539e+001  7.998303e+001 
4034375000  -4.129101e+001  7.762177e+001 
4037500000  -4.101038e+001  7.995391e+001 
4040625000  -4.075034e+001  7.455157e+001 
4043750000  -4.106969e+001  7.168533e+001 
4046875000  -4.058883e+001  6.915678e+001 
4050000000  -4.044138e+001  6.177732e+001 
4053125000  -4.092255e+001  5.943056e+001 
4056250000  -4.117596e+001  6.381096e+001 
4059375000  -3.927576e+001  6.179338e+001 
4062500000  -3.864814e+001  5.420190e+001 
4065625000  -3.856237e+001  4.760448e+001 
4068750000  -3.797689e+001  4.249183e+001 
4071875000  -3.765321e+001  3.277811e+001 
4075000000  -3.785722e+001  2.433162e+001 
4078125000  -3.844643e+001  2.147462e+001 
4081250000  -3.805825e+001  1.680521e+001 
4084375000  -3.769821e+001  5.452058e+000 
4087500000  -3.824244e+001  -2.059634e+000 
4090625000  -3.895575e+001  -2.412474e+000 
4093750000  -3.845236e+001  -4.786861e+000 
4096875000  -3.850971e+001  -1.430501e+001 
4100000000  -3.922384e+001  -2.231682e+001 
4103125000  -4.046669e+001  -2.120186e+001 
4106250000  -3.995568e+001  -1.718559e+001 
4109375000  -3.881099e+001  -1.841850e+001 
4112500000  -3.818175e+001  -3.000976e+001 
4115625000  -3.885723e+001  -3.691285e+001 
4118750000  -3.871778e+001  -4.067054e+001 
4121875000  -3.867176e+001  -4.855457e+001 
4125000000  -3.951893e+001  -5.461917e+001 
4128125000  -4.045627e+001  -5.158223e+001 
4131250000  -3.961332e+001  -4.564047e+001 
4134375000  -3.727938e+001  -5.683171e+001 
4137500000  -3.760759e+001  -7.894922e+001 
4140625000  -3.999231e+001  -8.364506e+001 
4143750000  -4.098340e+001  -7.974976e+001 
4146875000  -4.031358e+001  -7.433359e+001 
4150000000  -3.928951e+001  -8.079776e+001 
4153125000  -3.975381e+001  -9.037749e+001 
4156250000  -4.085954e+001  -9.495985e+001 
4159375000  -4.078342e+001  -9.117838e+001 
4162500000  -3.930798e+001  -8.572520e+001 
4165625000  -3.842355e+001  -9.526205e+001 
4168750000  -3.796845e+001  -1.045333e+002 
4171875000  -3.777487e+001  -1.156981e+002 
4175000000  -3.865866e+001  -1.209634e+002 
4178125000  -3.912820e+001  -1.213079e+002 
4181250000  -3.896000e+001  -1.254270e+002 
4184375000  -3.918425e+001  -1.296314e+002 
4187500000  -3.904559e+001  -1.361002e+002 
4190625000  -3.885184e+001  -1.422782e+002 
4193750000  -4.006520e+001  -1.474332e+002 
4196875000  -4.086834e+001  -1.482576e+002 
4200000000  -4.182427e+001  -1.428843e+002 
4203125000  -4.052042e+001  -1.311755e+002 
4206250000  -3.734676e+001  -1.396357e+002 
4209375000  -3.656848e+001  -1.633066e+002 
4212500000  -3.912460e+001  -1.686279e+002 
4215625000  -3.953449e+001  -1.613657e+002 
4218750000  -3.765403e+001  -1.609451e+002 
4221875000  -3.607738e+001  -1.728499e+002 
4225000000  -3.726312e+001  1.761086e+002 
4228125000  -3.737724e+001  1.777911e+002 
4231250000  -3.578577e+001  1.706377e+002 
4234375000  -3.588187e+001  1.590480e+002 
4237500000  -3.566636e+001  1.542814e+002 
4240625000  -3.590744e+001  1.435230e+002 
4243750000  -3.679471e+001  1.350979e+002 
4246875000  -3.773061e+001  1.328757e+002 
4250000000  -3.775121e+001  1.337392e+002 
4253125000  -3.733683e+001  1.308441e+002 
4256250000  -3.717696e+001  1.257533e+002 
4259375000  -3.715449e+001  1.192702e+002 
4262500000  -3.723559e+001  1.158325e+002 
4265625000  -3.740104e+001  1.145998e+002 
4268750000  -3.622222e+001  1.075853e+002 
4271875000  -3.615286e+001  9.790945e+001 
4275000000  -3.573817e+001  8.962457e+001 
4278125000  -3.694257e+001  7.755997e+001 
4281250000  -3.856799e+001  7.436904e+001 
4284375000  -3.830538e+001  7.165520e+001 
4287500000  -3.945410e+001  6.641122e+001 
4290625000  -4.004882e+001  8.065419e+001 
4293750000  -3.817456e+001  7.839071e+001 
4296875000  -3.732676e+001  6.513194e+001 
4300000000  -3.846413e+001  5.492311e+001 
4303125000  -3.933591e+001  5.760409e+001 
4306250000  -3.814229e+001  6.185186e+001 
4309375000  -3.704613e+001  5.337553e+001 
4312500000  -3.717789e+001  4.241660e+001 
4315625000  -3.735268e+001  3.577000e+001 
4318750000  -3.802785e+001  3.123269e+001 
4321875000  -3.802032e+001  3.153595e+001 
4325000000  -3.721887e+001  3.133699e+001 
4328125000  -3.683121e+001  2.057863e+001 
4331250000  -3.686896e+001  9.702662e+000 
4334375000  -3.775993e+001  4.530200e+000 
4337500000  -3.856417e+001  3.451274e+000 
4340625000  -3.897635e+001  5.273461e+000 
4343750000  -3.775185e+001  3.742475e+000 
4346875000  -3.767645e+001  -5.770767e+000 
4350000000  -3.765100e+001  -1.168298e+001 
4353125000  -3.836895e+001  -2.103147e+001 
4356250000  -4.029302e+001  -2.020436e+001 
4359375000  -3.969351e+001  -4.614414e+000 
4362500000  -3.620217e+001  -1.014306e+001 
4365625000  -3.516520e+001  -2.723176e+001 
4368750000  -3.668674e+001  -3.775928e+001 
4371875000  -3.725597e+001  -3.860875e+001 
4375000000  -3.687317e+001  -4.244975e+001 
4378125000  -3.621699e+001  -4.915540e+001 
4381250000  -3.653455e+001  -5.653297e+001 
4384375000  -3.658811e+001  -6.345225e+001 
4387500000  -3.748053e+001  -7.001663e+001 
4390625000  -3.810918e+001  -7.149354e+001 
4393750000  -3.745842e+001  -7.108644e+001 
4396875000  -3.671510e+001  -7.636259e+001 
4400000000  -3.618116e+001  -8.592872e+001 
4403125000  -3.706948e+001  -9.379581e+001 
4406250000  -3.759577e+001  -9.721629e+001 
4409375000  -3.811920e+001  -1.018313e+002 
4412500000  -3.906186e+001  -1.055419e+002 
4415625000  -3.908195e+001  -1.009653e+002 
