!Agilent Technologies,E8363B,MY43030201,A.06.04.32
!Agilent E8363B: A.06.04.32
!Date: Tuesday, November 11, 2014 21:30:30
!Correction: S21(Response(S21)) 
!S1P File: Measurement: S21:
# Hz S  dB   R 50
3000000000  -4.065054e+001  8.413847e+001 
3003125000  -4.210454e+001  7.523191e+001 
3006250000  -4.234495e+001  7.447361e+001 
3009375000  -4.264083e+001  8.069894e+001 
3012500000  -4.160998e+001  7.505317e+001 
3015625000  -4.136475e+001  6.857288e+001 
3018750000  -4.190515e+001  6.940720e+001 
3021875000  -4.036185e+001  6.954922e+001 
3025000000  -3.899428e+001  6.715864e+001 
3028125000  -3.805587e+001  5.492795e+001 
3031250000  -3.700425e+001  4.366287e+001 
3034375000  -3.671464e+001  2.957682e+001 
3037500000  -3.771563e+001  1.897720e+001 
3040625000  -3.877733e+001  1.440424e+001 
3043750000  -3.917097e+001  7.057393e+000 
3046875000  -3.971608e+001  2.258611e+000 
3050000000  -4.090395e+001  -4.441452e+000 
3053125000  -4.049873e+001  8.217073e-001 
3056250000  -4.051014e+001  4.666723e+000 
3059375000  -3.994728e+001  1.730170e+000 
3062500000  -3.834853e+001  -2.614896e+000 
3065625000  -3.794815e+001  -1.105691e+001 
3068750000  -3.768978e+001  -2.049480e+001 
3071875000  -3.769135e+001  -2.175981e+001 
3075000000  -3.710729e+001  -2.820837e+001 
3078125000  -3.709307e+001  -3.481670e+001 
3081250000  -3.721149e+001  -4.089447e+001 
3084375000  -3.641273e+001  -4.626275e+001 
3087500000  -3.642515e+001  -5.285739e+001 
3090625000  -3.595964e+001  -6.414400e+001 
3093750000  -3.674224e+001  -7.246192e+001 
3096875000  -3.739598e+001  -7.754424e+001 
3100000000  -3.733219e+001  -8.055370e+001 
3103125000  -3.748180e+001  -8.444344e+001 
3106250000  -3.710555e+001  -8.964812e+001 
3109375000  -3.725433e+001  -9.360342e+001 
3112500000  -3.709184e+001  -9.927250e+001 
3115625000  -3.716330e+001  -1.030709e+002 
3118750000  -3.734121e+001  -1.065550e+002 
3121875000  -3.654256e+001  -1.175828e+002 
3125000000  -3.836059e+001  -1.209122e+002 
3128125000  -3.861389e+001  -1.125268e+002 
3131250000  -3.607089e+001  -1.190148e+002 
3134375000  -3.537144e+001  -1.359895e+002 
3137500000  -3.610208e+001  -1.499524e+002 
3140625000  -3.738716e+001  -1.517562e+002 
3143750000  -3.821045e+001  -1.545591e+002 
3146875000  -3.777482e+001  -1.516068e+002 
3150000000  -3.687966e+001  -1.551168e+002 
3153125000  -3.719133e+001  -1.635900e+002 
3156250000  -3.780250e+001  -1.598740e+002 
3159375000  -3.569031e+001  -1.608951e+002 
3162500000  -3.415676e+001  -1.770975e+002 
3165625000  -3.539461e+001  1.696728e+002 
3168750000  -3.545319e+001  1.686412e+002 
3171875000  -3.484331e+001  1.616432e+002 
3175000000  -3.549715e+001  1.524558e+002 
3178125000  -3.511367e+001  1.515145e+002 
3181250000  -3.439530e+001  1.426620e+002 
3184375000  -3.414632e+001  1.314171e+002 
3187500000  -3.541770e+001  1.163840e+002 
3190625000  -3.723437e+001  1.102704e+002 
3193750000  -3.749950e+001  1.154021e+002 
3196875000  -3.735753e+001  1.169081e+002 
3200000000  -3.623606e+001  1.111751e+002 
3203125000  -3.588213e+001  1.033851e+002 
3206250000  -3.619383e+001  9.591485e+001 
3209375000  -3.581244e+001  8.850354e+001 
3212500000  -3.619707e+001  8.125632e+001 
3215625000  -3.617539e+001  7.767616e+001 
3218750000  -3.671887e+001  6.762022e+001 
3221875000  -3.724586e+001  6.072760e+001 
3225000000  -3.694816e+001  5.770315e+001 
3228125000  -3.779300e+001  4.909082e+001 
3231250000  -3.838305e+001  4.733345e+001 
3234375000  -3.790928e+001  4.445734e+001 
3237500000  -3.804357e+001  4.009814e+001 
3240625000  -3.759198e+001  3.528916e+001 
3243750000  -3.762235e+001  2.485950e+001 
3246875000  -3.817040e+001  1.731329e+001 
3250000000  -3.854879e+001  1.493086e+001 
3253125000  -3.898100e+001  1.129106e+001 
3256250000  -3.839149e+001  2.554892e+000 
3259375000  -3.899988e+001  -6.737357e+000 
3262500000  -4.068112e+001  -1.216863e+001 
3265625000  -4.119801e+001  -9.956968e+000 
3268750000  -4.123947e+001  -7.006255e+000 
3271875000  -4.065891e+001  -1.207895e+001 
3275000000  -4.000523e+001  -2.126179e+001 
3278125000  -4.081681e+001  -2.490912e+001 
3281250000  -4.105608e+001  -2.664722e+001 
3284375000  -4.055350e+001  -3.246941e+001 
3287500000  -4.100227e+001  -3.639742e+001 
3290625000  -4.121468e+001  -4.489116e+001 
3293750000  -4.117356e+001  -4.994687e+001 
3296875000  -4.253908e+001  -5.112405e+001 
3300000000  -4.172438e+001  -5.169637e+001 
3303125000  -4.091925e+001  -5.751008e+001 
3306250000  -4.076861e+001  -6.481058e+001 
3309375000  -4.049607e+001  -7.130038e+001 
3312500000  -4.097937e+001  -8.379635e+001 
3315625000  -4.204456e+001  -9.079893e+001 
3318750000  -4.349336e+001  -9.501820e+001 
3321875000  -4.436505e+001  -9.274828e+001 
3325000000  -4.498858e+001  -8.382803e+001 
3328125000  -4.393412e+001  -8.705352e+001 
3331250000  -4.223439e+001  -8.302367e+001 
3334375000  -3.972263e+001  -9.822028e+001 
3337500000  -4.046613e+001  -1.172416e+002 
3340625000  -4.229776e+001  -1.288480e+002 
3343750000  -4.405589e+001  -1.272282e+002 
3346875000  -4.350919e+001  -1.272255e+002 
3350000000  -4.302897e+001  -1.311005e+002 
3353125000  -4.274229e+001  -1.379244e+002 
3356250000  -4.220226e+001  -1.461725e+002 
3359375000  -4.310949e+001  -1.566090e+002 
3362500000  -4.434299e+001  -1.625321e+002 
3365625000  -4.466737e+001  -1.657328e+002 
3368750000  -4.539345e+001  -1.685914e+002 
3371875000  -4.577460e+001  -1.746557e+002 
3375000000  -4.743715e+001  -1.795129e+002 
3378125000  -4.852598e+001  1.794256e+002 
3381250000  -4.929372e+001  -1.698253e+002 
3384375000  -4.682412e+001  -1.554710e+002 
3387500000  -4.386196e+001  -1.740213e+002 
3390625000  -4.531684e+001  1.646682e+002 
3393750000  -4.701025e+001  1.649846e+002 
3396875000  -4.565210e+001  1.636031e+002 
3400000000  -4.609436e+001  1.538657e+002 
3403125000  -4.636802e+001  1.477080e+002 
3406250000  -4.750274e+001  1.454942e+002 
3409375000  -4.733893e+001  1.356476e+002 
3412500000  -4.904898e+001  1.315996e+002 
3415625000  -4.998203e+001  1.317814e+002 
3418750000  -5.010038e+001  1.311906e+002 
3421875000  -5.051179e+001  1.297731e+002 
3425000000  -5.013057e+001  1.329596e+002 
3428125000  -4.941312e+001  1.326482e+002 
3431250000  -4.967363e+001  1.231478e+002 
3434375000  -5.001968e+001  1.181746e+002 
3437500000  -5.138345e+001  1.158230e+002 
3440625000  -5.199705e+001  1.136753e+002 
3443750000  -4.998075e+001  1.237508e+002 
3446875000  -4.986712e+001  1.129625e+002 
3450000000  -4.989228e+001  1.023366e+002 
3453125000  -5.040331e+001  9.787395e+001 
3456250000  -5.163163e+001  9.179816e+001 
3459375000  -5.224459e+001  9.747861e+001 
3462500000  -5.192214e+001  1.003821e+002 
3465625000  -5.090577e+001  8.791367e+001 
3468750000  -5.187197e+001  8.974322e+001 
3471875000  -5.134136e+001  8.575955e+001 
3475000000  -5.077084e+001  8.339629e+001 
3478125000  -5.012340e+001  7.661903e+001 
3481250000  -5.223421e+001  7.814526e+001 
3484375000  -5.262063e+001  7.748361e+001 
3487500000  -5.190231e+001  7.106639e+001 
3490625000  -5.019574e+001  6.536362e+001 
3493750000  -5.017398e+001  6.301837e+001 
3496875000  -5.101823e+001  5.571144e+001 
3500000000  -5.145298e+001  6.520759e+001 
3503125000  -5.100243e+001  5.528522e+001 
3506250000  -4.974806e+001  5.140747e+001 
3509375000  -4.937290e+001  3.461395e+001 
3512500000  -5.009320e+001  2.856653e+001 
3515625000  -5.106089e+001  2.376431e+001 
3518750000  -5.174654e+001  1.853513e+001 
3521875000  -5.156214e+001  1.556608e+001 
3525000000  -5.298489e+001  5.618341e+000 
3528125000  -5.168848e+001  1.310830e+001 
3531250000  -5.167044e+001  9.426539e+000 
3534375000  -5.205363e+001  -4.800323e+000 
3537500000  -5.292701e+001  -1.904168e+001 
3540625000  -5.438872e+001  -1.331222e+001 
3543750000  -5.512242e+001  -1.359379e+001 
3546875000  -5.511595e+001  6.236301e+000 
3550000000  -5.342960e+001  -7.921376e+000 
3553125000  -5.350469e+001  -2.446929e+001 
3556250000  -5.389036e+001  -2.726085e+001 
3559375000  -5.484467e+001  -3.056598e+001 
3562500000  -5.584995e+001  -3.156291e+001 
3565625000  -5.573189e+001  -3.909647e+001 
3568750000  -5.585643e+001  -3.256629e+001 
3571875000  -5.730198e+001  -3.876273e+001 
3575000000  -5.776197e+001  -2.782679e+001 
3578125000  -6.009958e+001  -4.020808e+001 
3581250000  -5.670078e+001  -3.302969e+001 
3584375000  -5.645750e+001  -1.979704e+001 
3587500000  -5.769339e+001  -3.521018e+001 
3590625000  -5.704291e+001  -4.446256e+001 
3593750000  -5.832435e+001  -4.036086e+001 
3596875000  -5.749766e+001  -4.061001e+001 
3600000000  -5.632966e+001  -2.393764e+001 
3603125000  -5.670779e+001  -4.743838e+001 
3606250000  -5.830437e+001  -5.938710e+001 
3609375000  -5.775575e+001  -5.421607e+001 
3612500000  -5.809114e+001  -3.861307e+001 
3615625000  -5.909251e+001  -4.075085e+001 
3618750000  -5.896160e+001  -3.568690e+001 
3621875000  -5.918651e+001  -3.804672e+001 
3625000000  -5.892120e+001  -4.760051e+001 
3628125000  -5.705004e+001  -1.609890e+001 
3631250000  -5.857080e+001  -4.342524e+001 
3634375000  -5.771068e+001  -3.019251e+001 
3637500000  -5.615602e+001  -3.804132e+001 
3640625000  -5.519026e+001  -3.158561e+001 
3643750000  -5.320922e+001  -3.795113e+001 
3646875000  -5.314735e+001  -4.752853e+001 
3650000000  -5.296124e+001  -4.289625e+001 
3653125000  -5.308332e+001  -4.570541e+001 
3656250000  -5.159464e+001  -4.937640e+001 
3659375000  -5.210212e+001  -4.983073e+001 
3662500000  -5.094838e+001  -6.204273e+001 
3665625000  -5.032485e+001  -6.112339e+001 
3668750000  -4.856129e+001  -6.493298e+001 
3671875000  -4.736400e+001  -7.107933e+001 
3675000000  -4.736947e+001  -8.088683e+001 
3678125000  -4.729697e+001  -8.412178e+001 
3681250000  -4.685940e+001  -8.813245e+001 
3684375000  -4.708210e+001  -9.507635e+001 
3687500000  -4.721571e+001  -9.737275e+001 
3690625000  -4.673415e+001  -1.044694e+002 
3693750000  -4.694550e+001  -1.059248e+002 
3696875000  -4.622971e+001  -1.076578e+002 
3700000000  -4.525247e+001  -1.141284e+002 
3703125000  -4.515282e+001  -1.200642e+002 
3706250000  -4.599250e+001  -1.204790e+002 
3709375000  -4.495830e+001  -1.175768e+002 
3712500000  -4.417145e+001  -1.250909e+002 
3715625000  -4.228596e+001  -1.343285e+002 
3718750000  -4.184186e+001  -1.417707e+002 
3721875000  -4.136501e+001  -1.516347e+002 
3725000000  -4.185030e+001  -1.576237e+002 
3728125000  -4.165874e+001  -1.603669e+002 
3731250000  -4.089164e+001  -1.646813e+002 
3734375000  -4.015843e+001  -1.736532e+002 
3737500000  -4.084317e+001  1.777721e+002 
3740625000  -4.105296e+001  1.744365e+002 
3743750000  -4.051566e+001  1.658761e+002 
3746875000  -4.071525e+001  1.583305e+002 
3750000000  -4.105525e+001  1.549677e+002 
3753125000  -4.053664e+001  1.504276e+002 
3756250000  -4.082359e+001  1.462218e+002 
3759375000  -4.024164e+001  1.428306e+002 
3762500000  -4.021196e+001  1.350638e+002 
3765625000  -4.076825e+001  1.296960e+002 
3768750000  -4.028292e+001  1.308676e+002 
3771875000  -3.843098e+001  1.230683e+002 
3775000000  -3.855664e+001  1.113504e+002 
3778125000  -3.905906e+001  1.058625e+002 
3781250000  -3.922502e+001  1.011497e+002 
3784375000  -3.887599e+001  9.484943e+001 
3787500000  -3.857466e+001  9.051807e+001 
3790625000  -3.905794e+001  7.991264e+001 
3793750000  -3.929599e+001  7.726816e+001 
3796875000  -3.832202e+001  7.341411e+001 
3800000000  -3.640554e+001  6.922444e+001 
3803125000  -3.811920e+001  5.448022e+001 
3806250000  -3.879533e+001  5.021504e+001 
3809375000  -3.854029e+001  4.709158e+001 
3812500000  -3.859879e+001  3.770293e+001 
3815625000  -3.947371e+001  2.832585e+001 
3818750000  -4.067659e+001  2.764862e+001 
3821875000  -4.031452e+001  4.007418e+001 
3825000000  -3.830817e+001  3.512084e+001 
3828125000  -3.713240e+001  1.668231e+001 
3831250000  -3.809987e+001  9.975241e-001 
3834375000  -4.020533e+001  1.767127e+000 
3837500000  -4.083376e+001  7.711251e+000 
3840625000  -3.922293e+001  2.324684e+000 
3843750000  -3.837756e+001  -1.209923e+001 
3846875000  -3.996217e+001  -1.829209e+001 
3850000000  -4.093389e+001  -1.023688e+001 
3853125000  -4.022190e+001  -1.015181e+001 
3856250000  -3.953640e+001  -1.868880e+001 
3859375000  -3.863263e+001  -2.661479e+001 
3862500000  -3.868985e+001  -3.823302e+001 
3865625000  -3.909881e+001  -4.187663e+001 
3868750000  -3.881043e+001  -4.173962e+001 
3871875000  -3.806756e+001  -5.014405e+001 
3875000000  -3.839680e+001  -5.866473e+001 
3878125000  -3.949529e+001  -6.403305e+001 
3881250000  -3.897355e+001  -6.219195e+001 
3884375000  -3.841633e+001  -6.971478e+001 
3887500000  -3.912625e+001  -7.592071e+001 
3890625000  -3.928674e+001  -8.083301e+001 
3893750000  -3.964299e+001  -8.272223e+001 
3896875000  -4.000376e+001  -8.509388e+001 
3900000000  -3.973031e+001  -8.849106e+001 
3903125000  -3.927792e+001  -9.314594e+001 
3906250000  -3.865984e+001  -9.814694e+001 
3909375000  -3.821042e+001  -1.080546e+002 
3912500000  -3.892767e+001  -1.156838e+002 
3915625000  -4.040756e+001  -1.164864e+002 
3918750000  -3.999678e+001  -1.155930e+002 
3921875000  -3.937315e+001  -1.215676e+002 
3925000000  -3.856387e+001  -1.252051e+002 
3928125000  -3.816667e+001  -1.359293e+002 
3931250000  -3.894679e+001  -1.430363e+002 
3934375000  -3.918840e+001  -1.435859e+002 
3937500000  -3.991595e+001  -1.470022e+002 
3940625000  -3.998561e+001  -1.478982e+002 
3943750000  -3.885973e+001  -1.501692e+002 
3946875000  -3.840038e+001  -1.595530e+002 
3950000000  -3.957447e+001  -1.685514e+002 
3953125000  -3.973170e+001  -1.676763e+002 
3956250000  -3.856266e+001  -1.683884e+002 
3959375000  -3.749435e+001  -1.741222e+002 
3962500000  -3.772739e+001  1.769594e+002 
3965625000  -3.775331e+001  1.666915e+002 
3968750000  -3.832730e+001  1.608443e+002 
3971875000  -3.845105e+001  1.541770e+002 
3975000000  -3.831094e+001  1.500868e+002 
3978125000  -3.853218e+001  1.468085e+002 
3981250000  -3.860365e+001  1.413947e+002 
3984375000  -3.878283e+001  1.321923e+002 
3987500000  -3.960141e+001  1.280952e+002 
3990625000  -3.979208e+001  1.268542e+002 
3993750000  -3.985119e+001  1.204737e+002 
3996875000  -3.960652e+001  1.194587e+002 
4000000000  -4.061621e+001  1.144694e+002 
4003125000  -4.107484e+001  1.141700e+002 
4006250000  -3.922572e+001  1.140298e+002 
4009375000  -3.827952e+001  1.003646e+002 
4012500000  -3.984172e+001  9.013483e+001 
4015625000  -4.110639e+001  9.068919e+001 
4018750000  -4.135045e+001  9.209072e+001 
4021875000  -4.050838e+001  8.787486e+001 
4025000000  -4.019144e+001  8.242410e+001 
4028125000  -4.036908e+001  7.430682e+001 
4031250000  -4.088060e+001  7.061570e+001 
4034375000  -4.139888e+001  7.007159e+001 
4037500000  -4.086687e+001  6.986644e+001 
4040625000  -4.081118e+001  6.565124e+001 
4043750000  -4.095036e+001  6.268225e+001 
4046875000  -4.067212e+001  5.989050e+001 
4050000000  -4.040352e+001  5.260888e+001 
4053125000  -4.109183e+001  5.088977e+001 
4056250000  -4.103549e+001  5.622044e+001 
4059375000  -3.938970e+001  5.343813e+001 
4062500000  -3.860125e+001  4.643117e+001 
4065625000  -3.911851e+001  4.238821e+001 
4068750000  -3.813267e+001  3.208072e+001 
4071875000  -3.765532e+001  2.350051e+001 
4075000000  -3.804549e+001  1.496698e+001 
4078125000  -3.848336e+001  1.117400e+001 
4081250000  -3.797690e+001  7.823553e+000 
4084375000  -3.770351e+001  -3.017889e+000 
4087500000  -3.836086e+001  -9.655723e+000 
4090625000  -3.910496e+001  -1.148345e+001 
4093750000  -3.837419e+001  -1.221027e+001 
4096875000  -3.837656e+001  -2.416022e+001 
4100000000  -3.944203e+001  -3.065572e+001 
4103125000  -4.041285e+001  -2.986564e+001 
4106250000  -3.971188e+001  -2.740357e+001 
4109375000  -3.888411e+001  -2.986208e+001 
4112500000  -3.816468e+001  -3.914026e+001 
4115625000  -3.877153e+001  -4.534384e+001 
4118750000  -3.857810e+001  -4.944694e+001 
4121875000  -3.873044e+001  -5.599326e+001 
4125000000  -3.942040e+001  -6.216421e+001 
4128125000  -4.039671e+001  -6.110480e+001 
4131250000  -3.956074e+001  -5.615688e+001 
4134375000  -3.726448e+001  -6.445860e+001 
4137500000  -3.774311e+001  -8.654974e+001 
4140625000  -4.023116e+001  -9.309296e+001 
4143750000  -4.106693e+001  -8.760616e+001 
4146875000  -4.048865e+001  -8.287271e+001 
4150000000  -3.914397e+001  -9.046043e+001 
4153125000  -3.958394e+001  -9.965488e+001 
4156250000  -4.083692e+001  -1.017369e+002 
4159375000  -4.076904e+001  -9.847930e+001 
4162500000  -3.965215e+001  -9.591235e+001 
4165625000  -3.843914e+001  -1.031307e+002 
4168750000  -3.805710e+001  -1.118858e+002 
4171875000  -3.798178e+001  -1.222443e+002 
4175000000  -3.890078e+001  -1.299782e+002 
4178125000  -3.919998e+001  -1.291629e+002 
4181250000  -3.879373e+001  -1.343353e+002 
4184375000  -3.905096e+001  -1.409249e+002 
4187500000  -3.906187e+001  -1.429596e+002 
4190625000  -3.899656e+001  -1.521920e+002 
4193750000  -4.028990e+001  -1.564848e+002 
4196875000  -4.098798e+001  -1.587370e+002 
4200000000  -4.198334e+001  -1.533369e+002 
4203125000  -4.036362e+001  -1.407279e+002 
4206250000  -3.692587e+001  -1.486226e+002 
4209375000  -3.694388e+001  -1.704100e+002 
4212500000  -3.929447e+001  -1.786684e+002 
4215625000  -3.966119e+001  -1.709438e+002 
4218750000  -3.770789e+001  -1.712004e+002 
4221875000  -3.616672e+001  1.795605e+002 
4225000000  -3.714159e+001  1.662294e+002 
4228125000  -3.741743e+001  1.684915e+002 
4231250000  -3.599796e+001  1.620040e+002 
4234375000  -3.589482e+001  1.490107e+002 
4237500000  -3.581375e+001  1.448409e+002 
4240625000  -3.586536e+001  1.336209e+002 
4243750000  -3.696712e+001  1.260339e+002 
4246875000  -3.782140e+001  1.244919e+002 
4250000000  -3.787341e+001  1.260760e+002 
4253125000  -3.736887e+001  1.212692e+002 
4256250000  -3.745741e+001  1.153671e+002 
4259375000  -3.721261e+001  1.109289e+002 
4262500000  -3.718584e+001  1.046605e+002 
4265625000  -3.749832e+001  1.046044e+002 
4268750000  -3.653064e+001  9.681839e+001 
4271875000  -3.633630e+001  8.753815e+001 
4275000000  -3.597612e+001  8.066220e+001 
4278125000  -3.690087e+001  6.831573e+001 
4281250000  -3.841854e+001  6.535097e+001 
4284375000  -3.819759e+001  6.381087e+001 
4287500000  -3.968736e+001  5.973140e+001 
4290625000  -4.035305e+001  6.863330e+001 
4293750000  -3.848772e+001  7.075031e+001 
4296875000  -3.733182e+001  5.556067e+001 
4300000000  -3.845236e+001  4.575743e+001 
4303125000  -3.904948e+001  4.847932e+001 
4306250000  -3.799744e+001  5.280181e+001 
4309375000  -3.727699e+001  4.557757e+001 
4312500000  -3.696432e+001  3.390296e+001 
4315625000  -3.729687e+001  2.620533e+001 
4318750000  -3.802431e+001  2.303889e+001 
4321875000  -3.808041e+001  2.320804e+001 
4325000000  -3.745185e+001  2.212245e+001 
4328125000  -3.654334e+001  1.224396e+001 
4331250000  -3.693339e+001  2.008647e+000 
4334375000  -3.764061e+001  -5.361472e+000 
4337500000  -3.885246e+001  -6.393893e+000 
4340625000  -3.890071e+001  -1.905847e+000 
4343750000  -3.801027e+001  -6.806928e+000 
4346875000  -3.762873e+001  -1.353731e+001 
4350000000  -3.769472e+001  -2.152019e+001 
4353125000  -3.827218e+001  -2.903582e+001 
4356250000  -4.030939e+001  -2.758551e+001 
4359375000  -3.945675e+001  -1.329300e+001 
4362500000  -3.576146e+001  -2.122154e+001 
4365625000  -3.537286e+001  -3.760551e+001 
4368750000  -3.650356e+001  -4.590702e+001 
4371875000  -3.744405e+001  -4.791456e+001 
4375000000  -3.682733e+001  -5.027408e+001 
4378125000  -3.637693e+001  -5.821013e+001 
4381250000  -3.669604e+001  -6.590737e+001 
4384375000  -3.649485e+001  -7.255858e+001 
4387500000  -3.761358e+001  -7.780824e+001 
4390625000  -3.774519e+001  -7.874110e+001 
4393750000  -3.749965e+001  -7.988921e+001 
4396875000  -3.673630e+001  -8.514899e+001 
4400000000  -3.632141e+001  -9.515343e+001 
4403125000  -3.722759e+001  -1.030759e+002 
4406250000  -3.757185e+001  -1.063113e+002 
4409375000  -3.785212e+001  -1.125016e+002 
4412500000  -3.892089e+001  -1.134230e+002 
4415625000  -3.910898e+001  -1.084069e+002 
