!Agilent Technologies,E8363B,MY43030201,A.06.04.32
!Agilent E8363B: A.06.04.32
!Date: Tuesday, November 11, 2014 21:34:27
!Correction: S21(Response(S21)) 
!S1P File: Measurement: S21:
# Hz S  dB   R 50
3000000000  -4.057919e+001  7.383609e+001 
3003125000  -4.211038e+001  6.540048e+001 
3006250000  -4.210946e+001  6.358611e+001 
3009375000  -4.282746e+001  6.991471e+001 
3012500000  -4.146439e+001  6.430838e+001 
3015625000  -4.140910e+001  5.860791e+001 
3018750000  -4.185541e+001  5.825165e+001 
3021875000  -4.020726e+001  6.031509e+001 
3025000000  -3.887562e+001  5.579250e+001 
3028125000  -3.786549e+001  4.513929e+001 
3031250000  -3.692794e+001  3.229469e+001 
3034375000  -3.672660e+001  1.939256e+001 
3037500000  -3.763000e+001  8.202680e+000 
3040625000  -3.875453e+001  2.661989e+000 
3043750000  -3.914470e+001  -3.678844e+000 
3046875000  -3.980950e+001  -9.217717e+000 
3050000000  -4.098543e+001  -1.324835e+001 
3053125000  -4.054649e+001  -8.603600e+000 
3056250000  -4.065582e+001  -5.732865e+000 
3059375000  -3.970392e+001  -9.346189e+000 
3062500000  -3.831514e+001  -1.285667e+001 
3065625000  -3.774054e+001  -2.345548e+001 
3068750000  -3.765023e+001  -3.080633e+001 
3071875000  -3.766882e+001  -3.150378e+001 
3075000000  -3.693266e+001  -4.007196e+001 
3078125000  -3.709080e+001  -4.527793e+001 
3081250000  -3.719591e+001  -5.127053e+001 
3084375000  -3.627337e+001  -5.609565e+001 
3087500000  -3.644384e+001  -6.305256e+001 
3090625000  -3.598756e+001  -7.528680e+001 
3093750000  -3.698482e+001  -8.324891e+001 
3096875000  -3.733023e+001  -8.846237e+001 
3100000000  -3.712193e+001  -9.128115e+001 
3103125000  -3.757949e+001  -9.519939e+001 
3106250000  -3.714061e+001  -1.004526e+002 
3109375000  -3.722758e+001  -1.037282e+002 
3112500000  -3.709560e+001  -1.100595e+002 
3115625000  -3.723949e+001  -1.135340e+002 
3118750000  -3.718203e+001  -1.172757e+002 
3121875000  -3.666179e+001  -1.285727e+002 
3125000000  -3.858918e+001  -1.310715e+002 
3128125000  -3.850903e+001  -1.235987e+002 
3131250000  -3.607097e+001  -1.309501e+002 
3134375000  -3.545191e+001  -1.479235e+002 
3137500000  -3.605659e+001  -1.605706e+002 
3140625000  -3.748197e+001  -1.629256e+002 
3143750000  -3.817126e+001  -1.653887e+002 
3146875000  -3.771590e+001  -1.620210e+002 
3150000000  -3.686029e+001  -1.678078e+002 
3153125000  -3.717764e+001  -1.751292e+002 
3156250000  -3.804611e+001  -1.708125e+002 
3159375000  -3.561142e+001  -1.729883e+002 
3162500000  -3.417545e+001  1.713644e+002 
3165625000  -3.544494e+001  1.588647e+002 
3168750000  -3.554305e+001  1.578691e+002 
3171875000  -3.487812e+001  1.504767e+002 
3175000000  -3.551168e+001  1.414637e+002 
3178125000  -3.494955e+001  1.393188e+002 
3181250000  -3.445021e+001  1.310004e+002 
3184375000  -3.410950e+001  1.204872e+002 
3187500000  -3.539544e+001  1.043466e+002 
3190625000  -3.721962e+001  9.859556e+001 
3193750000  -3.742805e+001  1.042030e+002 
3196875000  -3.733808e+001  1.050392e+002 
3200000000  -3.615084e+001  1.002171e+002 
3203125000  -3.601862e+001  9.196243e+001 
3206250000  -3.617123e+001  8.500301e+001 
3209375000  -3.572260e+001  7.689751e+001 
3212500000  -3.640841e+001  6.931522e+001 
3215625000  -3.627733e+001  6.710940e+001 
3218750000  -3.691228e+001  5.529537e+001 
3221875000  -3.725111e+001  4.919028e+001 
3225000000  -3.707367e+001  4.577046e+001 
3228125000  -3.775002e+001  3.790697e+001 
3231250000  -3.824045e+001  3.609693e+001 
3234375000  -3.791149e+001  3.362793e+001 
3237500000  -3.807021e+001  2.904422e+001 
3240625000  -3.761083e+001  2.455419e+001 
3243750000  -3.769006e+001  1.336406e+001 
3246875000  -3.814795e+001  5.712382e+000 
3250000000  -3.884326e+001  2.139229e+000 
3253125000  -3.899609e+001  -4.302392e-001 
3256250000  -3.832267e+001  -9.004190e+000 
3259375000  -3.897693e+001  -1.971616e+001 
3262500000  -4.064685e+001  -2.324058e+001 
3265625000  -4.106758e+001  -2.143240e+001 
3268750000  -4.119477e+001  -1.966832e+001 
3271875000  -4.037963e+001  -2.309852e+001 
3275000000  -4.018471e+001  -3.195254e+001 
3278125000  -4.086251e+001  -3.676950e+001 
3281250000  -4.096677e+001  -3.881040e+001 
3284375000  -4.055573e+001  -4.472769e+001 
3287500000  -4.095428e+001  -4.798996e+001 
3290625000  -4.114553e+001  -5.658343e+001 
3293750000  -4.117554e+001  -6.129444e+001 
3296875000  -4.236348e+001  -6.355974e+001 
3300000000  -4.163564e+001  -6.257665e+001 
3303125000  -4.091447e+001  -7.048579e+001 
3306250000  -4.082788e+001  -7.640919e+001 
3309375000  -4.032434e+001  -8.364114e+001 
3312500000  -4.115115e+001  -9.615170e+001 
3315625000  -4.239091e+001  -1.034454e+002 
3318750000  -4.374388e+001  -1.066328e+002 
3321875000  -4.486399e+001  -1.042883e+002 
3325000000  -4.495213e+001  -9.781425e+001 
3328125000  -4.387928e+001  -9.932295e+001 
3331250000  -4.218481e+001  -9.440355e+001 
3334375000  -3.971696e+001  -1.104211e+002 
3337500000  -4.039314e+001  -1.309221e+002 
3340625000  -4.237250e+001  -1.407444e+002 
3343750000  -4.420586e+001  -1.394649e+002 
3346875000  -4.315789e+001  -1.390799e+002 
3350000000  -4.309236e+001  -1.427871e+002 
3353125000  -4.262281e+001  -1.515853e+002 
3356250000  -4.249984e+001  -1.582620e+002 
3359375000  -4.376612e+001  -1.688341e+002 
3362500000  -4.426378e+001  -1.759606e+002 
3365625000  -4.475331e+001  -1.791581e+002 
3368750000  -4.521510e+001  1.778668e+002 
3371875000  -4.602607e+001  1.722499e+002 
3375000000  -4.716901e+001  1.693178e+002 
3378125000  -4.831935e+001  1.685611e+002 
3381250000  -4.996380e+001  -1.763803e+002 
3384375000  -4.681518e+001  -1.674972e+002 
3387500000  -4.388829e+001  1.706738e+002 
3390625000  -4.595852e+001  1.544231e+002 
3393750000  -4.707535e+001  1.538575e+002 
3396875000  -4.569373e+001  1.511994e+002 
3400000000  -4.582663e+001  1.385313e+002 
3403125000  -4.708291e+001  1.356306e+002 
3406250000  -4.782696e+001  1.321858e+002 
3409375000  -4.760316e+001  1.219634e+002 
3412500000  -4.913978e+001  1.208704e+002 
3415625000  -5.017321e+001  1.211009e+002 
3418750000  -5.030738e+001  1.205450e+002 
3421875000  -5.112118e+001  1.222727e+002 
3425000000  -5.004440e+001  1.165297e+002 
3428125000  -5.039305e+001  1.140054e+002 
3431250000  -5.008831e+001  1.055917e+002 
3434375000  -5.060674e+001  1.034946e+002 
3437500000  -5.153123e+001  1.043924e+002 
3440625000  -5.222903e+001  1.086361e+002 
3443750000  -5.095044e+001  1.065532e+002 
3446875000  -4.975990e+001  9.980509e+001 
3450000000  -5.012086e+001  9.211977e+001 
3453125000  -5.087587e+001  8.660797e+001 
3456250000  -5.135021e+001  8.183599e+001 
3459375000  -5.231923e+001  8.698184e+001 
3462500000  -5.258105e+001  8.619738e+001 
3465625000  -5.106096e+001  7.896107e+001 
3468750000  -5.192847e+001  7.568439e+001 
3471875000  -5.196793e+001  7.233524e+001 
3475000000  -5.183115e+001  6.984177e+001 
3478125000  -5.127404e+001  6.525962e+001 
3481250000  -5.273154e+001  5.862104e+001 
3484375000  -5.219475e+001  6.441268e+001 
3487500000  -5.162758e+001  6.038361e+001 
3490625000  -5.072042e+001  5.412611e+001 
3493750000  -5.131835e+001  4.825432e+001 
3496875000  -5.199576e+001  4.836087e+001 
3500000000  -5.228109e+001  4.961220e+001 
3503125000  -5.176455e+001  4.870970e+001 
3506250000  -4.985294e+001  3.890311e+001 
3509375000  -4.936139e+001  2.340817e+001 
3512500000  -5.039195e+001  1.226425e+001 
3515625000  -5.133020e+001  7.861383e+000 
3518750000  -5.245242e+001  9.345996e+000 
3521875000  -5.246435e+001  3.533487e+000 
3525000000  -5.302893e+001  -5.145595e+000 
3528125000  -5.217851e+001  8.511864e+000 
3531250000  -5.115799e+001  -2.239517e+000 
3534375000  -5.302916e+001  -1.314150e+001 
3537500000  -5.361147e+001  -2.703780e+001 
3540625000  -5.605621e+001  -2.587684e+001 
3543750000  -5.556374e+001  -1.762146e+001 
3546875000  -5.519293e+001  -1.067736e+001 
3550000000  -5.350172e+001  -1.444189e+001 
3553125000  -5.336432e+001  -2.949276e+001 
3556250000  -5.532249e+001  -2.626488e+001 
3559375000  -5.622732e+001  -4.236178e+001 
3562500000  -5.732044e+001  -3.879494e+001 
3565625000  -5.598120e+001  -4.807735e+001 
3568750000  -5.723858e+001  -4.310306e+001 
3571875000  -5.689696e+001  -3.620874e+001 
3575000000  -5.846804e+001  -3.737151e+001 
3578125000  -5.876344e+001  -4.709504e+001 
3581250000  -5.824813e+001  -5.048497e+001 
3584375000  -5.681482e+001  -3.614222e+001 
3587500000  -5.939079e+001  -4.206528e+001 
3590625000  -5.910409e+001  -6.343864e+001 
3593750000  -5.889598e+001  -4.627923e+001 
3596875000  -5.877225e+001  -3.832075e+001 
3600000000  -5.694781e+001  -4.175950e+001 
3603125000  -5.702016e+001  -5.800753e+001 
3606250000  -5.775348e+001  -4.610364e+001 
3609375000  -5.833130e+001  -4.966862e+001 
3612500000  -5.937229e+001  -5.230021e+001 
3615625000  -5.771842e+001  -5.199461e+001 
3618750000  -5.834833e+001  -5.051515e+001 
3621875000  -5.741936e+001  -5.390431e+001 
3625000000  -5.894984e+001  -5.380595e+001 
3628125000  -5.686454e+001  -4.271274e+001 
3631250000  -5.759774e+001  -4.901831e+001 
3634375000  -5.699660e+001  -5.039931e+001 
3637500000  -5.579380e+001  -4.086180e+001 
3640625000  -5.404745e+001  -3.866726e+001 
3643750000  -5.343047e+001  -4.706577e+001 
3646875000  -5.263329e+001  -5.837338e+001 
3650000000  -5.269208e+001  -6.302407e+001 
3653125000  -5.182802e+001  -6.465669e+001 
3656250000  -5.175429e+001  -6.453230e+001 
3659375000  -5.208814e+001  -6.710736e+001 
3662500000  -5.081759e+001  -6.823540e+001 
3665625000  -4.940771e+001  -6.849328e+001 
3668750000  -4.837421e+001  -7.279059e+001 
3671875000  -4.746426e+001  -8.281960e+001 
3675000000  -4.757245e+001  -9.299216e+001 
3678125000  -4.751464e+001  -9.589463e+001 
3681250000  -4.636519e+001  -9.953822e+001 
3684375000  -4.666988e+001  -1.061385e+002 
3687500000  -4.630350e+001  -1.127543e+002 
3690625000  -4.661574e+001  -1.164430e+002 
3693750000  -4.694948e+001  -1.193214e+002 
3696875000  -4.605212e+001  -1.179538e+002 
3700000000  -4.523989e+001  -1.259240e+002 
3703125000  -4.533795e+001  -1.315296e+002 
3706250000  -4.571014e+001  -1.306958e+002 
3709375000  -4.445716e+001  -1.318698e+002 
3712500000  -4.331626e+001  -1.369298e+002 
3715625000  -4.218136e+001  -1.452013e+002 
3718750000  -4.165178e+001  -1.538354e+002 
3721875000  -4.147005e+001  -1.624418e+002 
3725000000  -4.191873e+001  -1.701698e+002 
3728125000  -4.143092e+001  -1.736411e+002 
3731250000  -4.075639e+001  -1.788724e+002 
3734375000  -4.024254e+001  1.736725e+002 
3737500000  -4.076579e+001  1.643568e+002 
3740625000  -4.067081e+001  1.592409e+002 
3743750000  -4.039737e+001  1.517423e+002 
3746875000  -4.082600e+001  1.466278e+002 
3750000000  -4.086855e+001  1.414270e+002 
3753125000  -4.050072e+001  1.381483e+002 
3756250000  -4.058585e+001  1.348390e+002 
3759375000  -4.057742e+001  1.298279e+002 
3762500000  -4.027113e+001  1.227548e+002 
3765625000  -4.097172e+001  1.175577e+002 
3768750000  -3.986169e+001  1.179584e+002 
3771875000  -3.854097e+001  1.096995e+002 
3775000000  -3.853526e+001  9.837122e+001 
3778125000  -3.896794e+001  9.306283e+001 
3781250000  -3.903511e+001  8.733970e+001 
3784375000  -3.880877e+001  8.388216e+001 
3787500000  -3.830745e+001  7.691184e+001 
3790625000  -3.921865e+001  6.728712e+001 
3793750000  -3.890151e+001  6.403928e+001 
3796875000  -3.828198e+001  5.982301e+001 
3800000000  -3.634267e+001  5.571769e+001 
3803125000  -3.823519e+001  4.246318e+001 
3806250000  -3.904856e+001  3.787564e+001 
3809375000  -3.852458e+001  3.255648e+001 
3812500000  -3.849052e+001  2.483821e+001 
3815625000  -3.951264e+001  1.468719e+001 
3818750000  -4.086205e+001  1.645161e+001 
3821875000  -3.991705e+001  2.584106e+001 
3825000000  -3.835207e+001  2.087948e+001 
3828125000  -3.714897e+001  3.943479e+000 
3831250000  -3.805736e+001  -1.141687e+001 
3834375000  -4.057700e+001  -1.114639e+001 
3837500000  -4.069869e+001  -7.316509e+000 
3840625000  -3.905772e+001  -1.014353e+001 
3843750000  -3.845337e+001  -2.703856e+001 
3846875000  -3.989738e+001  -3.224967e+001 
3850000000  -4.077463e+001  -2.471165e+001 
3853125000  -3.981081e+001  -2.366415e+001 
3856250000  -3.939559e+001  -3.243175e+001 
3859375000  -3.853510e+001  -3.949583e+001 
3862500000  -3.842326e+001  -5.031759e+001 
3865625000  -3.887997e+001  -5.615170e+001 
3868750000  -3.863134e+001  -5.617855e+001 
3871875000  -3.806674e+001  -6.429533e+001 
3875000000  -3.847814e+001  -7.456114e+001 
3878125000  -3.950659e+001  -7.651348e+001 
3881250000  -3.924341e+001  -7.580254e+001 
3884375000  -3.851865e+001  -8.357879e+001 
3887500000  -3.906232e+001  -9.032263e+001 
3890625000  -3.944147e+001  -9.446815e+001 
3893750000  -3.968655e+001  -9.757689e+001 
3896875000  -4.003640e+001  -1.009475e+002 
3900000000  -3.976642e+001  -1.018444e+002 
3903125000  -3.943170e+001  -1.082940e+002 
3906250000  -3.910475e+001  -1.109163e+002 
3909375000  -3.809010e+001  -1.187003e+002 
3912500000  -3.895902e+001  -1.295440e+002 
3915625000  -4.031669e+001  -1.283729e+002 
3918750000  -3.978209e+001  -1.306039e+002 
3921875000  -3.927926e+001  -1.362900e+002 
3925000000  -3.864592e+001  -1.408548e+002 
3928125000  -3.836967e+001  -1.507502e+002 
3931250000  -3.908406e+001  -1.567573e+002 
3934375000  -3.952790e+001  -1.577640e+002 
3937500000  -4.002393e+001  -1.611928e+002 
3940625000  -3.986869e+001  -1.612206e+002 
3943750000  -3.886028e+001  -1.651528e+002 
3946875000  -3.849130e+001  -1.741027e+002 
3950000000  -3.931728e+001  1.768001e+002 
3953125000  -3.986235e+001  1.785920e+002 
3956250000  -3.871844e+001  1.786720e+002 
3959375000  -3.773798e+001  1.710157e+002 
3962500000  -3.767070e+001  1.624743e+002 
3965625000  -3.789225e+001  1.551083e+002 
3968750000  -3.881557e+001  1.448828e+002 
3971875000  -3.858058e+001  1.403406e+002 
3975000000  -3.819608e+001  1.363470e+002 
3978125000  -3.859958e+001  1.335058e+002 
3981250000  -3.848283e+001  1.263384e+002 
3984375000  -3.885802e+001  1.189660e+002 
3987500000  -3.965490e+001  1.140184e+002 
3990625000  -3.992205e+001  1.126723e+002 
3993750000  -4.010240e+001  1.078633e+002 
3996875000  -3.980816e+001  1.042387e+002 
4000000000  -4.092156e+001  9.884598e+001 
4003125000  -4.103559e+001  9.987986e+001 
4006250000  -3.939054e+001  9.818886e+001 
4009375000  -3.850455e+001  8.332792e+001 
4012500000  -4.004748e+001  7.546358e+001 
4015625000  -4.141309e+001  7.624614e+001 
4018750000  -4.144590e+001  7.766119e+001 
4021875000  -4.066479e+001  7.391051e+001 
4025000000  -4.043813e+001  6.654658e+001 
4028125000  -4.034088e+001  5.948104e+001 
4031250000  -4.130130e+001  5.578647e+001 
4034375000  -4.120078e+001  5.582318e+001 
4037500000  -4.109404e+001  5.676149e+001 
4040625000  -4.100805e+001  5.021315e+001 
4043750000  -4.120113e+001  4.899809e+001 
4046875000  -4.080490e+001  4.284493e+001 
4050000000  -4.054782e+001  3.924469e+001 
4053125000  -4.145886e+001  3.630060e+001 
4056250000  -4.144776e+001  4.004216e+001 
4059375000  -3.952813e+001  4.047269e+001 
4062500000  -3.863030e+001  2.917435e+001 
4065625000  -3.882067e+001  2.492648e+001 
4068750000  -3.799667e+001  1.844603e+001 
4071875000  -3.778963e+001  8.511272e+000 
4075000000  -3.865502e+001  -4.534090e-001 
4078125000  -3.871473e+001  -2.177852e+000 
4081250000  -3.827246e+001  -8.379644e+000 
4084375000  -3.787948e+001  -1.844963e+001 
4087500000  -3.877754e+001  -2.450969e+001 
4090625000  -3.916698e+001  -2.695933e+001 
4093750000  -3.886057e+001  -2.841095e+001 
4096875000  -3.886973e+001  -3.893382e+001 
4100000000  -3.999511e+001  -4.557715e+001 
4103125000  -4.064837e+001  -4.474383e+001 
4106250000  -3.988132e+001  -3.957117e+001 
4109375000  -3.909435e+001  -4.405658e+001 
4112500000  -3.863985e+001  -5.278125e+001 
4115625000  -3.934206e+001  -6.032420e+001 
4118750000  -3.878873e+001  -6.404482e+001 
4121875000  -3.899065e+001  -7.210411e+001 
4125000000  -4.009319e+001  -7.808151e+001 
4128125000  -4.106840e+001  -7.558790e+001 
4131250000  -3.977505e+001  -7.141206e+001 
4134375000  -3.770863e+001  -8.049415e+001 
4137500000  -3.800720e+001  -1.017893e+002 
4140625000  -4.057278e+001  -1.060447e+002 
4143750000  -4.167531e+001  -1.018204e+002 
4146875000  -4.049634e+001  -9.793932e+001 
4150000000  -3.972470e+001  -1.054506e+002 
4153125000  -4.004583e+001  -1.159158e+002 
4156250000  -4.140459e+001  -1.165385e+002 
4159375000  -4.105616e+001  -1.106490e+002 
4162500000  -3.984602e+001  -1.114777e+002 
4165625000  -3.867790e+001  -1.174128e+002 
4168750000  -3.845435e+001  -1.267232e+002 
4171875000  -3.836541e+001  -1.384445e+002 
4175000000  -3.929166e+001  -1.449529e+002 
4178125000  -3.949347e+001  -1.448019e+002 
4181250000  -3.911707e+001  -1.480475e+002 
4184375000  -3.950872e+001  -1.538232e+002 
4187500000  -3.939357e+001  -1.581655e+002 
4190625000  -3.975438e+001  -1.665488e+002 
4193750000  -4.061091e+001  -1.715766e+002 
4196875000  -4.111183e+001  -1.717549e+002 
4200000000  -4.238493e+001  -1.646699e+002 
4203125000  -4.112300e+001  -1.524955e+002 
4206250000  -3.730888e+001  -1.620233e+002 
4209375000  -3.735796e+001  1.742122e+002 
4212500000  -3.977590e+001  1.680669e+002 
4215625000  -4.029114e+001  1.761482e+002 
4218750000  -3.822083e+001  1.764381e+002 
4221875000  -3.680392e+001  1.652558e+002 
4225000000  -3.771273e+001  1.530313e+002 
4228125000  -3.778878e+001  1.547850e+002 
4231250000  -3.623603e+001  1.478821e+002 
4234375000  -3.626833e+001  1.369800e+002 
4237500000  -3.624372e+001  1.305684e+002 
4240625000  -3.645193e+001  1.208504e+002 
4243750000  -3.754700e+001  1.117573e+002 
4246875000  -3.842962e+001  1.098546e+002 
4250000000  -3.842497e+001  1.101465e+002 
4253125000  -3.806010e+001  1.075204e+002 
4256250000  -3.795712e+001  1.033179e+002 
4259375000  -3.777832e+001  9.778455e+001 
4262500000  -3.813308e+001  9.228938e+001 
4265625000  -3.794679e+001  9.241506e+001 
4268750000  -3.697873e+001  8.260638e+001 
4271875000  -3.668760e+001  7.285036e+001 
4275000000  -3.652341e+001  6.561266e+001 
4278125000  -3.780354e+001  5.277075e+001 
4281250000  -3.893843e+001  5.132161e+001 
4284375000  -3.904229e+001  4.783767e+001 
4287500000  -4.055558e+001  4.512374e+001 
4290625000  -4.043898e+001  5.557190e+001 
4293750000  -3.889247e+001  5.555210e+001 
4296875000  -3.785563e+001  4.175000e+001 
4300000000  -3.923241e+001  3.178119e+001 
4303125000  -3.978783e+001  3.590868e+001 
4306250000  -3.865394e+001  3.718032e+001 
4309375000  -3.774784e+001  3.118903e+001 
4312500000  -3.736211e+001  2.034974e+001 
4315625000  -3.798554e+001  1.334016e+001 
4318750000  -3.845621e+001  8.935834e+000 
4321875000  -3.868611e+001  9.800776e+000 
4325000000  -3.806061e+001  8.273482e+000 
4328125000  -3.730271e+001  -6.912533e-001 
4331250000  -3.747242e+001  -1.306067e+001 
4334375000  -3.848034e+001  -2.100524e+001 
4337500000  -3.949625e+001  -2.007604e+001 
4340625000  -3.958536e+001  -1.445334e+001 
4343750000  -3.849871e+001  -1.869789e+001 
4346875000  -3.839407e+001  -2.690751e+001 
4350000000  -3.855027e+001  -3.456596e+001 
4353125000  -3.919721e+001  -4.042603e+001 
4356250000  -4.145943e+001  -3.790487e+001 
4359375000  -3.982376e+001  -2.417157e+001 
4362500000  -3.662601e+001  -3.345599e+001 
4365625000  -3.602567e+001  -4.961236e+001 
4368750000  -3.741167e+001  -5.911193e+001 
4371875000  -3.773611e+001  -5.939925e+001 
4375000000  -3.719358e+001  -6.381318e+001 
4378125000  -3.712474e+001  -7.167157e+001 
4381250000  -3.685356e+001  -7.899346e+001 
4384375000  -3.711919e+001  -8.664768e+001 
4387500000  -3.844933e+001  -9.217275e+001 
4390625000  -3.868900e+001  -9.257732e+001 
4393750000  -3.801391e+001  -9.267864e+001 
4396875000  -3.752755e+001  -9.855958e+001 
4400000000  -3.689327e+001  -1.073891e+002 
4403125000  -3.795391e+001  -1.173986e+002 
4406250000  -3.835310e+001  -1.204734e+002 
4409375000  -3.878787e+001  -1.242632e+002 
4412500000  -3.978811e+001  -1.261419e+002 
4415625000  -3.943848e+001  -1.224627e+002 
