!Agilent Technologies,E8363B,MY43030201,A.06.04.32
!Agilent E8363B: A.06.04.32
!Date: Tuesday, November 11, 2014 21:34:34
!Correction: S21(Response(S21)) 
!S1P File: Measurement: S21:
# Hz S  dB   R 50
3000000000  -4.064809e+001  7.274832e+001 
3003125000  -4.219455e+001  6.564830e+001 
3006250000  -4.222012e+001  6.514970e+001 
3009375000  -4.264804e+001  7.019776e+001 
3012500000  -4.161620e+001  6.382201e+001 
3015625000  -4.144947e+001  5.719896e+001 
3018750000  -4.198028e+001  5.904728e+001 
3021875000  -4.025266e+001  5.951740e+001 
3025000000  -3.887696e+001  5.514164e+001 
3028125000  -3.791363e+001  4.467218e+001 
3031250000  -3.690266e+001  3.309391e+001 
3034375000  -3.681870e+001  1.921284e+001 
3037500000  -3.761441e+001  8.660591e+000 
3040625000  -3.891854e+001  2.990369e+000 
3043750000  -3.903987e+001  -3.584491e+000 
3046875000  -3.982642e+001  -8.576344e+000 
3050000000  -4.088895e+001  -1.384047e+001 
3053125000  -4.055870e+001  -8.358047e+000 
3056250000  -4.051593e+001  -6.158470e+000 
3059375000  -3.964780e+001  -8.566504e+000 
3062500000  -3.827094e+001  -1.231691e+001 
3065625000  -3.782354e+001  -2.214350e+001 
3068750000  -3.756482e+001  -3.054679e+001 
3071875000  -3.762157e+001  -3.213194e+001 
3075000000  -3.699752e+001  -3.950369e+001 
3078125000  -3.715814e+001  -4.570578e+001 
3081250000  -3.715945e+001  -5.127303e+001 
3084375000  -3.637196e+001  -5.667605e+001 
3087500000  -3.645615e+001  -6.309904e+001 
3090625000  -3.593356e+001  -7.541869e+001 
3093750000  -3.706656e+001  -8.289600e+001 
3096875000  -3.738552e+001  -8.893919e+001 
3100000000  -3.721428e+001  -9.114680e+001 
3103125000  -3.754474e+001  -9.536330e+001 
3106250000  -3.704218e+001  -1.007192e+002 
3109375000  -3.734877e+001  -1.046283e+002 
3112500000  -3.705110e+001  -1.106591e+002 
3115625000  -3.715202e+001  -1.145342e+002 
3118750000  -3.714805e+001  -1.174921e+002 
3121875000  -3.654223e+001  -1.279596e+002 
3125000000  -3.842906e+001  -1.312190e+002 
3128125000  -3.844148e+001  -1.240942e+002 
3131250000  -3.604251e+001  -1.306919e+002 
3134375000  -3.547074e+001  -1.479359e+002 
3137500000  -3.603965e+001  -1.603275e+002 
3140625000  -3.736278e+001  -1.625537e+002 
3143750000  -3.822038e+001  -1.653143e+002 
3146875000  -3.750033e+001  -1.630677e+002 
3150000000  -3.690582e+001  -1.664904e+002 
3153125000  -3.730278e+001  -1.755454e+002 
3156250000  -3.790916e+001  -1.714231e+002 
3159375000  -3.561779e+001  -1.726711e+002 
3162500000  -3.423462e+001  1.713076e+002 
3165625000  -3.549616e+001  1.593233e+002 
3168750000  -3.535694e+001  1.577885e+002 
3171875000  -3.490765e+001  1.497108e+002 
3175000000  -3.544377e+001  1.413177e+002 
3178125000  -3.498248e+001  1.391598e+002 
3181250000  -3.436811e+001  1.307240e+002 
3184375000  -3.418598e+001  1.193915e+002 
3187500000  -3.546664e+001  1.049508e+002 
3190625000  -3.738309e+001  9.931761e+001 
3193750000  -3.743781e+001  1.053952e+002 
3196875000  -3.731213e+001  1.049566e+002 
3200000000  -3.612255e+001  1.006484e+002 
3203125000  -3.593663e+001  9.201122e+001 
3206250000  -3.611664e+001  8.462894e+001 
3209375000  -3.581583e+001  7.762144e+001 
3212500000  -3.629943e+001  7.022433e+001 
3215625000  -3.596649e+001  6.714310e+001 
3218750000  -3.687465e+001  5.580341e+001 
3221875000  -3.738343e+001  4.955434e+001 
3225000000  -3.700767e+001  4.522658e+001 
3228125000  -3.774272e+001  3.801831e+001 
3231250000  -3.825428e+001  3.641609e+001 
3234375000  -3.786859e+001  3.305575e+001 
3237500000  -3.812994e+001  2.998635e+001 
3240625000  -3.751960e+001  2.389486e+001 
3243750000  -3.758297e+001  1.344892e+001 
3246875000  -3.818819e+001  6.752439e+000 
3250000000  -3.886276e+001  2.243382e+000 
3253125000  -3.893708e+001  -4.388274e-001 
3256250000  -3.860606e+001  -9.121985e+000 
3259375000  -3.914236e+001  -1.903522e+001 
3262500000  -4.066051e+001  -2.419495e+001 
3265625000  -4.120636e+001  -1.993455e+001 
3268750000  -4.100543e+001  -1.958500e+001 
3271875000  -4.075489e+001  -2.317677e+001 
3275000000  -4.001822e+001  -3.158102e+001 
3278125000  -4.086481e+001  -3.718374e+001 
3281250000  -4.116403e+001  -3.848979e+001 
3284375000  -4.053762e+001  -4.466564e+001 
3287500000  -4.100020e+001  -4.846488e+001 
3290625000  -4.113655e+001  -5.701470e+001 
3293750000  -4.117643e+001  -6.261753e+001 
3296875000  -4.252017e+001  -6.376469e+001 
3300000000  -4.192321e+001  -6.308426e+001 
3303125000  -4.096283e+001  -7.071587e+001 
3306250000  -4.100576e+001  -7.655062e+001 
3309375000  -4.028500e+001  -8.337464e+001 
3312500000  -4.064706e+001  -9.663951e+001 
3315625000  -4.237775e+001  -1.032494e+002 
3318750000  -4.371085e+001  -1.075199e+002 
3321875000  -4.473677e+001  -1.050699e+002 
3325000000  -4.497914e+001  -9.580328e+001 
3328125000  -4.363216e+001  -9.690278e+001 
3331250000  -4.218116e+001  -9.405791e+001 
3334375000  -3.963445e+001  -1.113096e+002 
3337500000  -4.028312e+001  -1.311288e+002 
3340625000  -4.222514e+001  -1.394459e+002 
3343750000  -4.434837e+001  -1.367326e+002 
3346875000  -4.325132e+001  -1.400119e+002 
3350000000  -4.325108e+001  -1.423661e+002 
3353125000  -4.290976e+001  -1.489621e+002 
3356250000  -4.230971e+001  -1.599027e+002 
3359375000  -4.328747e+001  -1.696726e+002 
3362500000  -4.434797e+001  -1.755630e+002 
3365625000  -4.480693e+001  -1.779717e+002 
3368750000  -4.556974e+001  1.768552e+002 
3371875000  -4.611842e+001  1.750054e+002 
3375000000  -4.786861e+001  1.705801e+002 
3378125000  -4.836409e+001  1.693553e+002 
3381250000  -4.949020e+001  -1.775491e+002 
3384375000  -4.597269e+001  -1.644823e+002 
3387500000  -4.372208e+001  1.727308e+002 
3390625000  -4.638159e+001  1.533734e+002 
3393750000  -4.709785e+001  1.531686e+002 
3396875000  -4.599769e+001  1.506448e+002 
3400000000  -4.593518e+001  1.393745e+002 
3403125000  -4.718460e+001  1.348153e+002 
3406250000  -4.839585e+001  1.266263e+002 
3409375000  -4.805586e+001  1.248608e+002 
3412500000  -4.905563e+001  1.165665e+002 
3415625000  -4.932737e+001  1.182314e+002 
3418750000  -5.043497e+001  1.214994e+002 
3421875000  -5.162486e+001  1.223851e+002 
3425000000  -5.038811e+001  1.203630e+002 
3428125000  -5.020577e+001  1.169255e+002 
3431250000  -5.017452e+001  1.039765e+002 
3434375000  -5.137008e+001  1.019031e+002 
3437500000  -5.174749e+001  1.025683e+002 
3440625000  -5.213636e+001  1.092620e+002 
3443750000  -5.102900e+001  1.092405e+002 
3446875000  -5.014825e+001  9.820640e+001 
3450000000  -5.021643e+001  9.301028e+001 
3453125000  -5.045908e+001  7.999646e+001 
3456250000  -5.164388e+001  8.071290e+001 
3459375000  -5.338617e+001  8.193040e+001 
3462500000  -5.308084e+001  9.094316e+001 
3465625000  -5.072255e+001  7.769144e+001 
3468750000  -5.165895e+001  7.971332e+001 
3471875000  -5.176186e+001  7.673232e+001 
3475000000  -5.130188e+001  7.462744e+001 
3478125000  -5.110472e+001  6.062162e+001 
3481250000  -5.256717e+001  6.326720e+001 
3484375000  -5.353365e+001  6.791047e+001 
3487500000  -5.100804e+001  6.291459e+001 
3490625000  -5.153575e+001  5.600356e+001 
3493750000  -5.232663e+001  5.066053e+001 
3496875000  -5.171169e+001  5.123535e+001 
3500000000  -5.245367e+001  4.889729e+001 
3503125000  -5.072453e+001  4.544533e+001 
3506250000  -5.015953e+001  3.622043e+001 
3509375000  -4.972438e+001  2.357331e+001 
3512500000  -4.967998e+001  1.424455e+001 
3515625000  -5.136059e+001  7.698755e+000 
3518750000  -5.219667e+001  6.545105e+000 
3521875000  -5.225601e+001  4.835661e+000 
3525000000  -5.275390e+001  -2.657056e+000 
3528125000  -5.208673e+001  3.665811e+000 
3531250000  -5.181877e+001  1.107599e+000 
3534375000  -5.266767e+001  -1.898054e+001 
3537500000  -5.422981e+001  -2.983341e+001 
3540625000  -5.451463e+001  -2.282725e+001 
3543750000  -5.603935e+001  -1.682226e+001 
3546875000  -5.516642e+001  -8.990457e+000 
3550000000  -5.296814e+001  -1.293454e+001 
3553125000  -5.348470e+001  -2.811667e+001 
3556250000  -5.469868e+001  -2.799996e+001 
3559375000  -5.440503e+001  -3.876708e+001 
3562500000  -5.560230e+001  -4.999252e+001 
3565625000  -5.647700e+001  -5.264952e+001 
3568750000  -5.708359e+001  -4.318219e+001 
3571875000  -5.733269e+001  -3.722089e+001 
3575000000  -6.001561e+001  -4.275748e+001 
3578125000  -5.846615e+001  -3.489195e+001 
3581250000  -5.673373e+001  -4.308229e+001 
3584375000  -5.746958e+001  -4.393125e+001 
3587500000  -5.727962e+001  -4.486404e+001 
3590625000  -5.843325e+001  -4.994405e+001 
3593750000  -5.967255e+001  -3.682573e+001 
3596875000  -5.846082e+001  -3.777158e+001 
3600000000  -5.706774e+001  -4.183536e+001 
3603125000  -5.863899e+001  -5.842179e+001 
3606250000  -5.835710e+001  -4.896799e+001 
3609375000  -5.919609e+001  -4.351667e+001 
3612500000  -5.875564e+001  -5.315270e+001 
3615625000  -6.005891e+001  -4.890527e+001 
3618750000  -5.962423e+001  -6.115233e+001 
3621875000  -5.798633e+001  -3.994775e+001 
3625000000  -5.684321e+001  -3.157183e+001 
3628125000  -5.545403e+001  -5.073014e+001 
3631250000  -5.627133e+001  -5.594814e+001 
3634375000  -5.735163e+001  -4.731904e+001 
3637500000  -5.480840e+001  -4.160077e+001 
3640625000  -5.397965e+001  -3.700952e+001 
3643750000  -5.285517e+001  -4.761931e+001 
3646875000  -5.240556e+001  -5.926747e+001 
3650000000  -5.257803e+001  -6.312727e+001 
3653125000  -5.218838e+001  -5.718033e+001 
3656250000  -5.225329e+001  -5.992231e+001 
3659375000  -5.190204e+001  -6.175864e+001 
3662500000  -5.066245e+001  -7.434886e+001 
3665625000  -4.967220e+001  -7.715177e+001 
3668750000  -4.823425e+001  -7.574384e+001 
3671875000  -4.777603e+001  -8.504870e+001 
3675000000  -4.750391e+001  -9.257552e+001 
3678125000  -4.727493e+001  -9.861540e+001 
3681250000  -4.682358e+001  -1.041364e+002 
3684375000  -4.666895e+001  -1.062245e+002 
3687500000  -4.641117e+001  -1.090557e+002 
3690625000  -4.686999e+001  -1.184267e+002 
3693750000  -4.770810e+001  -1.182071e+002 
3696875000  -4.659247e+001  -1.159193e+002 
3700000000  -4.519846e+001  -1.270582e+002 
3703125000  -4.551522e+001  -1.321102e+002 
3706250000  -4.582661e+001  -1.313965e+002 
3709375000  -4.491079e+001  -1.315878e+002 
3712500000  -4.370460e+001  -1.400147e+002 
3715625000  -4.224782e+001  -1.476904e+002 
3718750000  -4.179023e+001  -1.528628e+002 
3721875000  -4.119746e+001  -1.626044e+002 
3725000000  -4.173337e+001  -1.712938e+002 
3728125000  -4.140213e+001  -1.750058e+002 
3731250000  -4.074404e+001  -1.793438e+002 
3734375000  -4.019140e+001  1.734036e+002 
3737500000  -4.071955e+001  1.636517e+002 
3740625000  -4.085164e+001  1.571580e+002 
3743750000  -4.048737e+001  1.525998e+002 
3746875000  -4.050936e+001  1.464940e+002 
3750000000  -4.097689e+001  1.405697e+002 
3753125000  -4.049430e+001  1.379295e+002 
3756250000  -4.071367e+001  1.350849e+002 
3759375000  -4.062348e+001  1.296028e+002 
3762500000  -3.995498e+001  1.221153e+002 
3765625000  -4.070551e+001  1.160863e+002 
3768750000  -4.024518e+001  1.192974e+002 
3771875000  -3.821181e+001  1.102607e+002 
3775000000  -3.866518e+001  9.874327e+001 
3778125000  -3.902262e+001  9.320719e+001 
3781250000  -3.909418e+001  8.808420e+001 
3784375000  -3.883447e+001  8.244732e+001 
3787500000  -3.852862e+001  7.668934e+001 
3790625000  -3.935208e+001  6.739789e+001 
3793750000  -3.905897e+001  6.408270e+001 
3796875000  -3.798223e+001  6.008897e+001 
3800000000  -3.626078e+001  5.477134e+001 
3803125000  -3.813088e+001  4.156955e+001 
3806250000  -3.874164e+001  3.975120e+001 
3809375000  -3.846639e+001  3.336138e+001 
3812500000  -3.832725e+001  2.475368e+001 
3815625000  -3.952118e+001  1.439831e+001 
3818750000  -4.075871e+001  1.619727e+001 
3821875000  -4.012173e+001  2.612497e+001 
3825000000  -3.811820e+001  2.132754e+001 
3828125000  -3.684356e+001  3.127599e+000 
3831250000  -3.817536e+001  -1.130405e+001 
3834375000  -4.035455e+001  -9.819959e+000 
3837500000  -4.039048e+001  -8.102250e+000 
3840625000  -3.886203e+001  -1.003550e+001 
3843750000  -3.839091e+001  -2.610369e+001 
3846875000  -3.987165e+001  -3.026196e+001 
3850000000  -4.077713e+001  -2.685830e+001 
3853125000  -3.970749e+001  -2.376801e+001 
3856250000  -3.948684e+001  -3.436289e+001 
3859375000  -3.861303e+001  -4.094931e+001 
3862500000  -3.843380e+001  -5.212292e+001 
3865625000  -3.896293e+001  -5.575220e+001 
3868750000  -3.847102e+001  -5.614704e+001 
3871875000  -3.792797e+001  -6.455405e+001 
3875000000  -3.825855e+001  -7.418676e+001 
3878125000  -3.949504e+001  -7.544545e+001 
3881250000  -3.926149e+001  -7.766302e+001 
3884375000  -3.869423e+001  -8.537418e+001 
3887500000  -3.928037e+001  -9.052600e+001 
3890625000  -3.950019e+001  -9.641587e+001 
3893750000  -3.954773e+001  -9.685284e+001 
3896875000  -4.008173e+001  -9.802802e+001 
3900000000  -3.984654e+001  -1.037824e+002 
3903125000  -3.945816e+001  -1.069756e+002 
3906250000  -3.872637e+001  -1.124879e+002 
3909375000  -3.821914e+001  -1.210026e+002 
3912500000  -3.929788e+001  -1.296326e+002 
3915625000  -4.054216e+001  -1.288461e+002 
3918750000  -3.990772e+001  -1.285687e+002 
3921875000  -3.927378e+001  -1.364458e+002 
3925000000  -3.836136e+001  -1.401597e+002 
3928125000  -3.834798e+001  -1.507949e+002 
3931250000  -3.905465e+001  -1.558896e+002 
3934375000  -3.952183e+001  -1.573772e+002 
3937500000  -4.050622e+001  -1.603190e+002 
3940625000  -4.002901e+001  -1.630284e+002 
3943750000  -3.873530e+001  -1.657854e+002 
3946875000  -3.827262e+001  -1.759093e+002 
3950000000  -3.961225e+001  1.772089e+002 
3953125000  -4.002151e+001  1.799741e+002 
3956250000  -3.875747e+001  1.773995e+002 
3959375000  -3.771724e+001  1.712440e+002 
3962500000  -3.739063e+001  1.632326e+002 
3965625000  -3.764368e+001  1.538240e+002 
3968750000  -3.847681e+001  1.457241e+002 
3971875000  -3.848920e+001  1.384751e+002 
3975000000  -3.822849e+001  1.365649e+002 
3978125000  -3.865567e+001  1.330832e+002 
3981250000  -3.866512e+001  1.247151e+002 
3984375000  -3.889494e+001  1.183774e+002 
3987500000  -3.974734e+001  1.145230e+002 
3990625000  -3.992495e+001  1.127121e+002 
3993750000  -3.984456e+001  1.078470e+002 
3996875000  -4.001468e+001  1.026690e+002 
4000000000  -4.057404e+001  9.909445e+001 
4003125000  -4.094819e+001  1.012036e+002 
4006250000  -3.925222e+001  9.679920e+001 
4009375000  -3.895985e+001  8.341998e+001 
4012500000  -4.039181e+001  7.685451e+001 
4015625000  -4.146762e+001  7.483700e+001 
4018750000  -4.122688e+001  7.517657e+001 
4021875000  -4.072494e+001  7.347839e+001 
4025000000  -4.043419e+001  6.704343e+001 
4028125000  -4.013660e+001  5.925673e+001 
4031250000  -4.124134e+001  5.658129e+001 
4034375000  -4.161644e+001  5.543952e+001 
4037500000  -4.115245e+001  5.559782e+001 
4040625000  -4.076105e+001  5.062487e+001 
4043750000  -4.097396e+001  4.757380e+001 
4046875000  -4.073921e+001  4.454058e+001 
4050000000  -4.076924e+001  4.112635e+001 
4053125000  -4.190445e+001  3.427438e+001 
4056250000  -4.127459e+001  4.405202e+001 
4059375000  -3.927344e+001  3.994111e+001 
4062500000  -3.878345e+001  3.022639e+001 
4065625000  -3.863634e+001  2.364279e+001 
4068750000  -3.823447e+001  1.877749e+001 
4071875000  -3.788997e+001  6.867574e+000 
4075000000  -3.828847e+001  1.149705e+000 
4078125000  -3.879834e+001  -3.891653e+000 
4081250000  -3.829257e+001  -6.839361e+000 
4084375000  -3.794858e+001  -1.653589e+001 
4087500000  -3.856477e+001  -2.379057e+001 
4090625000  -3.935710e+001  -2.660419e+001 
4093750000  -3.881667e+001  -2.901007e+001 
4096875000  -3.874181e+001  -3.823077e+001 
4100000000  -3.967409e+001  -4.590723e+001 
4103125000  -4.067493e+001  -4.422205e+001 
4106250000  -3.994125e+001  -3.955419e+001 
4109375000  -3.903716e+001  -4.208450e+001 
4112500000  -3.858628e+001  -5.447919e+001 
4115625000  -3.933085e+001  -6.105683e+001 
4118750000  -3.907668e+001  -6.488001e+001 
4121875000  -3.884250e+001  -7.303676e+001 
4125000000  -3.973766e+001  -7.867616e+001 
4128125000  -4.081533e+001  -7.805891e+001 
4131250000  -3.992991e+001  -7.204652e+001 
4134375000  -3.756849e+001  -7.980350e+001 
4137500000  -3.821017e+001  -1.039880e+002 
4140625000  -4.061992e+001  -1.080094e+002 
4143750000  -4.135310e+001  -1.000789e+002 
4146875000  -4.040415e+001  -9.899952e+001 
4150000000  -3.959873e+001  -1.050576e+002 
4153125000  -4.008929e+001  -1.143230e+002 
4156250000  -4.126069e+001  -1.167115e+002 
4159375000  -4.113213e+001  -1.130275e+002 
4162500000  -3.967897e+001  -1.109397e+002 
4165625000  -3.897329e+001  -1.188690e+002 
4168750000  -3.850035e+001  -1.277645e+002 
4171875000  -3.824575e+001  -1.372317e+002 
4175000000  -3.939852e+001  -1.438967e+002 
4178125000  -3.966873e+001  -1.454772e+002 
4181250000  -3.926869e+001  -1.499933e+002 
4184375000  -3.933271e+001  -1.546710e+002 
4187500000  -3.939082e+001  -1.583122e+002 
4190625000  -3.969565e+001  -1.660942e+002 
4193750000  -4.063190e+001  -1.716631e+002 
4196875000  -4.158795e+001  -1.729446e+002 
4200000000  -4.281047e+001  -1.663360e+002 
4203125000  -4.081126e+001  -1.549411e+002 
4206250000  -3.730417e+001  -1.617612e+002 
4209375000  -3.714860e+001  1.742485e+002 
4212500000  -3.952760e+001  1.663928e+002 
4215625000  -4.003700e+001  1.748045e+002 
4218750000  -3.839738e+001  1.747171e+002 
4221875000  -3.669696e+001  1.660380e+002 
4225000000  -3.783830e+001  1.543035e+002 
4228125000  -3.782668e+001  1.547427e+002 
4231250000  -3.604627e+001  1.465314e+002 
4234375000  -3.627810e+001  1.362981e+002 
4237500000  -3.620944e+001  1.313382e+002 
4240625000  -3.648962e+001  1.197978e+002 
4243750000  -3.737046e+001  1.113783e+002 
4246875000  -3.840841e+001  1.098520e+002 
4250000000  -3.795520e+001  1.097095e+002 
4253125000  -3.830640e+001  1.077209e+002 
4256250000  -3.805592e+001  1.030719e+002 
4259375000  -3.761226e+001  9.665945e+001 
4262500000  -3.781875e+001  9.172758e+001 
4265625000  -3.786888e+001  8.993520e+001 
4268750000  -3.681469e+001  8.357053e+001 
4271875000  -3.669845e+001  7.416514e+001 
4275000000  -3.654927e+001  6.662885e+001 
4278125000  -3.791508e+001  5.326530e+001 
4281250000  -3.909666e+001  5.126035e+001 
4284375000  -3.885649e+001  4.820827e+001 
4287500000  -4.043814e+001  4.722473e+001 
4290625000  -4.057943e+001  5.468641e+001 
4293750000  -3.885174e+001  5.574417e+001 
4296875000  -3.785667e+001  4.015210e+001 
4300000000  -3.917523e+001  3.173220e+001 
4303125000  -3.996994e+001  3.615619e+001 
4306250000  -3.876152e+001  4.008942e+001 
4309375000  -3.768538e+001  3.188378e+001 
4312500000  -3.750274e+001  1.987978e+001 
4315625000  -3.813475e+001  1.316174e+001 
4318750000  -3.876142e+001  7.478820e+000 
4321875000  -3.865652e+001  9.973766e+000 
4325000000  -3.786493e+001  8.432948e+000 
4328125000  -3.733435e+001  -1.752370e+000 
4331250000  -3.790707e+001  -1.182009e+001 
4334375000  -3.857562e+001  -1.886014e+001 
4337500000  -3.950608e+001  -1.907804e+001 
4340625000  -3.948444e+001  -1.521424e+001 
4343750000  -3.879570e+001  -1.931243e+001 
4346875000  -3.833329e+001  -2.599455e+001 
4350000000  -3.825416e+001  -3.415253e+001 
4353125000  -3.898939e+001  -4.286707e+001 
4356250000  -4.103576e+001  -3.701093e+001 
4359375000  -3.998772e+001  -2.436406e+001 
4362500000  -3.640662e+001  -3.297178e+001 
4365625000  -3.603951e+001  -5.101012e+001 
4368750000  -3.736560e+001  -5.837643e+001 
4371875000  -3.774877e+001  -5.803087e+001 
4375000000  -3.717437e+001  -6.493008e+001 
4378125000  -3.686419e+001  -7.323149e+001 
4381250000  -3.698518e+001  -7.855327e+001 
4384375000  -3.706438e+001  -8.607455e+001 
4387500000  -3.815345e+001  -9.372179e+001 
4390625000  -3.876814e+001  -9.416990e+001 
4393750000  -3.786223e+001  -9.148038e+001 
4396875000  -3.739816e+001  -9.752901e+001 
4400000000  -3.693459e+001  -1.075969e+002 
4403125000  -3.778429e+001  -1.170023e+002 
4406250000  -3.847385e+001  -1.192219e+002 
4409375000  -3.895829e+001  -1.237406e+002 
4412500000  -3.990575e+001  -1.278623e+002 
4415625000  -3.950571e+001  -1.218655e+002 
