!Agilent Technologies,E8363B,MY43030201,A.06.04.32
!Agilent E8363B: A.06.04.32
!Date: Tuesday, November 11, 2014 21:32:07
!Correction: S21(Response(S21)) 
!S1P File: Measurement: S21:
# Hz S  dB   R 50
3000000000  -4.053404e+001  7.759132e+001 
3003125000  -4.200790e+001  7.075572e+001 
3006250000  -4.194387e+001  6.943303e+001 
3009375000  -4.270848e+001  7.427858e+001 
3012500000  -4.151743e+001  6.921739e+001 
3015625000  -4.146299e+001  6.318516e+001 
3018750000  -4.173817e+001  6.334204e+001 
3021875000  -4.008934e+001  6.451742e+001 
3025000000  -3.895956e+001  6.102108e+001 
3028125000  -3.792150e+001  5.032808e+001 
3031250000  -3.689488e+001  3.811186e+001 
3034375000  -3.669747e+001  2.384037e+001 
3037500000  -3.752278e+001  1.325920e+001 
3040625000  -3.867711e+001  8.753793e+000 
3043750000  -3.922298e+001  1.422689e+000 
3046875000  -3.977693e+001  -4.345676e+000 
3050000000  -4.090422e+001  -8.330319e+000 
3053125000  -4.049843e+001  -2.813468e+000 
3056250000  -4.042282e+001  -1.140777e+000 
3059375000  -3.977497e+001  -2.388879e+000 
3062500000  -3.824438e+001  -8.715549e+000 
3065625000  -3.792509e+001  -1.740214e+001 
3068750000  -3.745867e+001  -2.522572e+001 
3071875000  -3.750375e+001  -2.746917e+001 
3075000000  -3.697179e+001  -3.471663e+001 
3078125000  -3.707054e+001  -4.072960e+001 
3081250000  -3.715118e+001  -4.739035e+001 
3084375000  -3.644104e+001  -5.155025e+001 
3087500000  -3.640847e+001  -5.779193e+001 
3090625000  -3.593687e+001  -7.039202e+001 
3093750000  -3.695533e+001  -7.796039e+001 
3096875000  -3.732777e+001  -8.347924e+001 
3100000000  -3.716965e+001  -8.698691e+001 
3103125000  -3.742871e+001  -9.021867e+001 
3106250000  -3.714817e+001  -9.527976e+001 
3109375000  -3.730748e+001  -9.864117e+001 
3112500000  -3.720324e+001  -1.046874e+002 
3115625000  -3.711854e+001  -1.090110e+002 
3118750000  -3.725968e+001  -1.124383e+002 
3121875000  -3.650790e+001  -1.235850e+002 
3125000000  -3.844179e+001  -1.265082e+002 
3128125000  -3.843036e+001  -1.190042e+002 
3131250000  -3.610907e+001  -1.255489e+002 
3134375000  -3.543789e+001  -1.426561e+002 
3137500000  -3.599443e+001  -1.541046e+002 
3140625000  -3.727987e+001  -1.577945e+002 
3143750000  -3.824147e+001  -1.601740e+002 
3146875000  -3.771387e+001  -1.582020e+002 
3150000000  -3.684984e+001  -1.614023e+002 
3153125000  -3.716406e+001  -1.707043e+002 
3156250000  -3.787298e+001  -1.656037e+002 
3159375000  -3.572814e+001  -1.677822e+002 
3162500000  -3.430828e+001  1.767767e+002 
3165625000  -3.540291e+001  1.637014e+002 
3168750000  -3.545188e+001  1.628076e+002 
3171875000  -3.492501e+001  1.556223e+002 
3175000000  -3.544883e+001  1.459721e+002 
3178125000  -3.503201e+001  1.450516e+002 
3181250000  -3.439825e+001  1.373217e+002 
3184375000  -3.407061e+001  1.257762e+002 
3187500000  -3.528499e+001  1.111312e+002 
3190625000  -3.731687e+001  1.041339e+002 
3193750000  -3.746864e+001  1.095093e+002 
3196875000  -3.728553e+001  1.109566e+002 
3200000000  -3.619661e+001  1.059948e+002 
3203125000  -3.593785e+001  9.741590e+001 
3206250000  -3.613274e+001  9.007225e+001 
3209375000  -3.584283e+001  8.243775e+001 
3212500000  -3.638470e+001  7.490449e+001 
3215625000  -3.598054e+001  7.256561e+001 
3218750000  -3.701719e+001  6.079282e+001 
3221875000  -3.728221e+001  5.413377e+001 
3225000000  -3.693829e+001  5.126289e+001 
3228125000  -3.789982e+001  4.326974e+001 
3231250000  -3.824285e+001  4.091888e+001 
3234375000  -3.792009e+001  3.842562e+001 
3237500000  -3.817613e+001  3.379903e+001 
3240625000  -3.761206e+001  2.855351e+001 
3243750000  -3.767086e+001  1.941887e+001 
3246875000  -3.810954e+001  1.139525e+001 
3250000000  -3.869394e+001  8.920664e+000 
3253125000  -3.884880e+001  4.277390e+000 
3256250000  -3.864091e+001  -4.054501e+000 
3259375000  -3.927171e+001  -1.500440e+001 
3262500000  -4.059846e+001  -1.857203e+001 
3265625000  -4.104854e+001  -1.470232e+001 
3268750000  -4.104858e+001  -1.461872e+001 
3271875000  -4.066516e+001  -1.827991e+001 
3275000000  -4.003294e+001  -2.745007e+001 
3278125000  -4.080135e+001  -3.135204e+001 
3281250000  -4.092992e+001  -3.176571e+001 
3284375000  -4.056993e+001  -3.959813e+001 
3287500000  -4.103728e+001  -4.219127e+001 
3290625000  -4.129381e+001  -5.048376e+001 
3293750000  -4.102443e+001  -5.656361e+001 
3296875000  -4.250202e+001  -5.924237e+001 
3300000000  -4.163008e+001  -5.607206e+001 
3303125000  -4.101723e+001  -6.346296e+001 
3306250000  -4.078399e+001  -7.121320e+001 
3309375000  -4.072345e+001  -7.867095e+001 
3312500000  -4.094474e+001  -9.107880e+001 
3315625000  -4.223674e+001  -9.756805e+001 
3318750000  -4.357425e+001  -1.030852e+002 
3321875000  -4.471929e+001  -1.007022e+002 
3325000000  -4.486059e+001  -8.998508e+001 
3328125000  -4.428477e+001  -9.452554e+001 
3331250000  -4.242762e+001  -8.800562e+001 
3334375000  -3.977660e+001  -1.043212e+002 
3337500000  -4.039042e+001  -1.259260e+002 
3340625000  -4.220819e+001  -1.344416e+002 
3343750000  -4.403743e+001  -1.351873e+002 
3346875000  -4.321322e+001  -1.360943e+002 
3350000000  -4.295030e+001  -1.366212e+002 
3353125000  -4.276867e+001  -1.458332e+002 
3356250000  -4.271000e+001  -1.527998e+002 
3359375000  -4.333118e+001  -1.637669e+002 
3362500000  -4.443660e+001  -1.694397e+002 
3365625000  -4.488801e+001  -1.718619e+002 
3368750000  -4.554706e+001  -1.774026e+002 
3371875000  -4.618931e+001  1.789781e+002 
3375000000  -4.746495e+001  1.777481e+002 
3378125000  -4.774088e+001  1.739399e+002 
3381250000  -4.963141e+001  -1.736788e+002 
3384375000  -4.682738e+001  -1.581789e+002 
3387500000  -4.375468e+001  1.740956e+002 
3390625000  -4.589635e+001  1.556241e+002 
3393750000  -4.696364e+001  1.610125e+002 
3396875000  -4.670313e+001  1.579918e+002 
3400000000  -4.599673e+001  1.461618e+002 
3403125000  -4.704292e+001  1.398866e+002 
3406250000  -4.757358e+001  1.368831e+002 
3409375000  -4.771408e+001  1.283253e+002 
3412500000  -4.915047e+001  1.244307e+002 
3415625000  -5.011355e+001  1.188613e+002 
3418750000  -4.993641e+001  1.205280e+002 
3421875000  -5.118987e+001  1.271616e+002 
3425000000  -5.051766e+001  1.283848e+002 
3428125000  -5.008742e+001  1.174718e+002 
3431250000  -5.001190e+001  1.146101e+002 
3434375000  -5.081086e+001  1.082800e+002 
3437500000  -5.214998e+001  1.086473e+002 
3440625000  -5.157244e+001  1.072716e+002 
3443750000  -5.095903e+001  1.083117e+002 
3446875000  -5.095933e+001  1.014537e+002 
3450000000  -5.071752e+001  1.007881e+002 
3453125000  -5.086430e+001  8.523185e+001 
3456250000  -5.184422e+001  8.784584e+001 
3459375000  -5.329992e+001  9.163490e+001 
3462500000  -5.191449e+001  9.771852e+001 
3465625000  -5.147172e+001  8.510228e+001 
3468750000  -5.181697e+001  8.661094e+001 
3471875000  -5.149458e+001  8.195478e+001 
3475000000  -5.150828e+001  7.763382e+001 
3478125000  -5.158231e+001  6.893457e+001 
3481250000  -5.272663e+001  7.013670e+001 
3484375000  -5.300164e+001  6.888260e+001 
3487500000  -5.166195e+001  6.648293e+001 
3490625000  -5.089792e+001  5.678925e+001 
3493750000  -5.158660e+001  5.128982e+001 
3496875000  -5.144408e+001  4.988892e+001 
3500000000  -5.259612e+001  4.799214e+001 
3503125000  -5.159667e+001  5.121743e+001 
3506250000  -5.046707e+001  4.178685e+001 
3509375000  -4.964592e+001  2.934438e+001 
3512500000  -5.011703e+001  2.028033e+001 
3515625000  -5.155917e+001  1.991193e+001 
3518750000  -5.253819e+001  2.016570e+001 
3521875000  -5.174325e+001  1.546835e+001 
3525000000  -5.392064e+001  7.109034e-002 
3528125000  -5.353614e+001  1.480727e+001 
3531250000  -5.182308e+001  3.975038e+000 
3534375000  -5.354240e+001  -9.205486e+000 
3537500000  -5.349493e+001  -1.724677e+001 
3540625000  -5.410895e+001  -1.312201e+001 
3543750000  -5.523449e+001  -1.144237e+001 
3546875000  -5.548841e+001  -3.497051e+000 
3550000000  -5.351708e+001  -6.269815e+000 
3553125000  -5.491590e+001  -2.230466e+001 
3556250000  -5.561935e+001  -2.362209e+001 
3559375000  -5.600649e+001  -3.344621e+001 
3562500000  -5.716558e+001  -3.719945e+001 
3565625000  -5.791296e+001  -4.579150e+001 
3568750000  -5.637690e+001  -3.286874e+001 
3571875000  -5.785031e+001  -2.920931e+001 
3575000000  -5.859924e+001  -4.344996e+001 
3578125000  -5.925955e+001  -4.283487e+001 
3581250000  -5.818191e+001  -4.008969e+001 
3584375000  -5.807050e+001  -3.674538e+001 
3587500000  -5.936020e+001  -3.711221e+001 
3590625000  -5.730180e+001  -4.252327e+001 
3593750000  -6.269252e+001  -5.095847e+001 
3596875000  -5.800081e+001  -3.021355e+001 
3600000000  -5.728320e+001  -4.251640e+001 
3603125000  -5.790432e+001  -5.374477e+001 
3606250000  -5.712696e+001  -4.106593e+001 
3609375000  -5.777382e+001  -3.605053e+001 
3612500000  -5.859619e+001  -3.935073e+001 
3615625000  -5.850817e+001  -4.994470e+001 
3618750000  -5.924913e+001  -3.764832e+001 
3621875000  -5.592627e+001  -4.374756e+001 
3625000000  -5.848436e+001  -3.176403e+001 
3628125000  -5.640683e+001  -3.118635e+001 
3631250000  -5.550399e+001  -4.919361e+001 
3634375000  -5.720657e+001  -3.703611e+001 
3637500000  -5.497809e+001  -3.374431e+001 
3640625000  -5.502992e+001  -3.555783e+001 
3643750000  -5.216474e+001  -4.388671e+001 
3646875000  -5.311994e+001  -5.467165e+001 
3650000000  -5.305705e+001  -5.269633e+001 
3653125000  -5.126931e+001  -5.736129e+001 
3656250000  -5.301046e+001  -6.178186e+001 
3659375000  -5.074379e+001  -5.732291e+001 
3662500000  -4.990704e+001  -6.541034e+001 
3665625000  -4.933791e+001  -6.783685e+001 
3668750000  -4.772832e+001  -6.579067e+001 
3671875000  -4.710848e+001  -8.140308e+001 
3675000000  -4.753538e+001  -8.388224e+001 
3678125000  -4.766994e+001  -9.148193e+001 
3681250000  -4.658988e+001  -9.584464e+001 
3684375000  -4.661937e+001  -1.014653e+002 
3687500000  -4.637493e+001  -1.051178e+002 
3690625000  -4.675170e+001  -1.134072e+002 
3693750000  -4.741332e+001  -1.131895e+002 
3696875000  -4.628412e+001  -1.168065e+002 
3700000000  -4.523840e+001  -1.186627e+002 
3703125000  -4.545644e+001  -1.241649e+002 
3706250000  -4.560841e+001  -1.267249e+002 
3709375000  -4.475934e+001  -1.276500e+002 
3712500000  -4.350524e+001  -1.304590e+002 
3715625000  -4.177440e+001  -1.399359e+002 
3718750000  -4.167525e+001  -1.476255e+002 
3721875000  -4.138216e+001  -1.570238e+002 
3725000000  -4.153358e+001  -1.640890e+002 
3728125000  -4.158995e+001  -1.674083e+002 
3731250000  -4.075801e+001  -1.730561e+002 
3734375000  -4.014838e+001  -1.796624e+002 
3737500000  -4.070719e+001  1.698211e+002 
3740625000  -4.066445e+001  1.648701e+002 
3743750000  -4.049990e+001  1.582213e+002 
3746875000  -4.063469e+001  1.514150e+002 
3750000000  -4.094730e+001  1.452430e+002 
3753125000  -4.049769e+001  1.442578e+002 
3756250000  -4.048160e+001  1.400616e+002 
3759375000  -4.046263e+001  1.348494e+002 
3762500000  -4.032112e+001  1.288694e+002 
3765625000  -4.068827e+001  1.237037e+002 
3768750000  -4.019238e+001  1.241421e+002 
3771875000  -3.854708e+001  1.168813e+002 
3775000000  -3.857573e+001  1.038689e+002 
3778125000  -3.894981e+001  9.914159e+001 
3781250000  -3.889261e+001  9.550159e+001 
3784375000  -3.871559e+001  8.848580e+001 
3787500000  -3.854723e+001  8.431522e+001 
3790625000  -3.908292e+001  7.319348e+001 
3793750000  -3.905658e+001  6.890578e+001 
3796875000  -3.825622e+001  6.480760e+001 
3800000000  -3.648740e+001  6.238666e+001 
3803125000  -3.816907e+001  4.774920e+001 
3806250000  -3.908313e+001  4.436959e+001 
3809375000  -3.854369e+001  3.944648e+001 
3812500000  -3.849148e+001  3.112188e+001 
3815625000  -3.960712e+001  2.066787e+001 
3818750000  -4.068027e+001  2.188030e+001 
3821875000  -4.015361e+001  3.303299e+001 
3825000000  -3.829698e+001  2.807333e+001 
3828125000  -3.703802e+001  1.070718e+001 
3831250000  -3.802980e+001  -4.187467e+000 
3834375000  -4.054682e+001  -4.508794e+000 
3837500000  -4.056603e+001  -7.014261e-001 
3840625000  -3.889880e+001  -4.777978e+000 
3843750000  -3.843720e+001  -2.027127e+001 
3846875000  -3.991586e+001  -2.620158e+001 
3850000000  -4.065652e+001  -1.976175e+001 
3853125000  -3.995324e+001  -1.858030e+001 
3856250000  -3.961909e+001  -2.672548e+001 
3859375000  -3.855126e+001  -3.442179e+001 
3862500000  -3.847057e+001  -4.491700e+001 
3865625000  -3.883635e+001  -5.031575e+001 
3868750000  -3.864222e+001  -5.116059e+001 
3871875000  -3.801743e+001  -5.750845e+001 
3875000000  -3.840518e+001  -6.830236e+001 
3878125000  -3.937521e+001  -7.005695e+001 
3881250000  -3.936256e+001  -7.109422e+001 
3884375000  -3.886916e+001  -7.809200e+001 
3887500000  -3.901989e+001  -8.297807e+001 
3890625000  -3.955460e+001  -8.775999e+001 
3893750000  -3.958973e+001  -8.995872e+001 
3896875000  -4.016843e+001  -9.228245e+001 
3900000000  -3.999149e+001  -9.659333e+001 
3903125000  -3.936681e+001  -1.004518e+002 
3906250000  -3.905016e+001  -1.038255e+002 
3909375000  -3.830857e+001  -1.137327e+002 
3912500000  -3.902396e+001  -1.230628e+002 
3915625000  -4.044102e+001  -1.219760e+002 
3918750000  -3.995389e+001  -1.226541e+002 
3921875000  -3.918884e+001  -1.282672e+002 
3925000000  -3.835728e+001  -1.338695e+002 
3928125000  -3.825703e+001  -1.423414e+002 
3931250000  -3.920448e+001  -1.499656e+002 
3934375000  -3.960715e+001  -1.518003e+002 
3937500000  -4.018305e+001  -1.533290e+002 
3940625000  -4.010524e+001  -1.546125e+002 
3943750000  -3.890340e+001  -1.584224e+002 
3946875000  -3.862917e+001  -1.675643e+002 
3950000000  -3.930577e+001  -1.759970e+002 
3953125000  -3.981762e+001  -1.735290e+002 
3956250000  -3.890166e+001  -1.764692e+002 
3959375000  -3.795635e+001  1.777988e+002 
3962500000  -3.765359e+001  1.701043e+002 
3965625000  -3.782224e+001  1.597480e+002 
3968750000  -3.872724e+001  1.522083e+002 
3971875000  -3.868372e+001  1.466344e+002 
3975000000  -3.843178e+001  1.427682e+002 
3978125000  -3.849411e+001  1.384965e+002 
3981250000  -3.859804e+001  1.325768e+002 
3984375000  -3.899069e+001  1.235818e+002 
3987500000  -3.982832e+001  1.206832e+002 
3990625000  -4.002463e+001  1.200629e+002 
3993750000  -3.981921e+001  1.143380e+002 
3996875000  -4.004286e+001  1.095341e+002 
4000000000  -4.090775e+001  1.075834e+002 
4003125000  -4.080482e+001  1.062373e+002 
4006250000  -3.948281e+001  1.049334e+002 
4009375000  -3.860648e+001  9.137675e+001 
4012500000  -4.013009e+001  8.228530e+001 
4015625000  -4.158282e+001  8.347684e+001 
4018750000  -4.106980e+001  8.240768e+001 
4021875000  -4.091582e+001  7.927029e+001 
4025000000  -4.046912e+001  7.415449e+001 
4028125000  -4.021706e+001  6.608411e+001 
4031250000  -4.135220e+001  6.231696e+001 
4034375000  -4.153591e+001  6.243756e+001 
4037500000  -4.096732e+001  6.382014e+001 
4040625000  -4.095138e+001  5.648459e+001 
4043750000  -4.126152e+001  5.408238e+001 
4046875000  -4.093656e+001  5.294321e+001 
4050000000  -4.071989e+001  4.572877e+001 
4053125000  -4.139827e+001  4.307298e+001 
4056250000  -4.151253e+001  4.753065e+001 
4059375000  -3.948558e+001  4.628801e+001 
4062500000  -3.876125e+001  3.822972e+001 
4065625000  -3.914815e+001  3.085663e+001 
4068750000  -3.806845e+001  2.535255e+001 
4071875000  -3.772673e+001  1.441910e+001 
4075000000  -3.840239e+001  7.327327e+000 
4078125000  -3.889248e+001  4.769537e+000 
4081250000  -3.836648e+001  7.669254e-002 
4084375000  -3.821189e+001  -1.079668e+001 
4087500000  -3.856241e+001  -1.725212e+001 
4090625000  -3.920635e+001  -1.781065e+001 
4093750000  -3.870104e+001  -2.170085e+001 
4096875000  -3.873748e+001  -3.137337e+001 
4100000000  -3.959217e+001  -3.798169e+001 
4103125000  -4.066245e+001  -3.688345e+001 
4106250000  -4.008518e+001  -3.327083e+001 
4109375000  -3.929224e+001  -3.678624e+001 
4112500000  -3.859247e+001  -4.695122e+001 
4115625000  -3.943548e+001  -5.295319e+001 
4118750000  -3.915606e+001  -5.788246e+001 
4121875000  -3.882594e+001  -6.549409e+001 
4125000000  -4.010631e+001  -7.274122e+001 
4128125000  -4.104729e+001  -6.973264e+001 
4131250000  -3.984178e+001  -6.307983e+001 
4134375000  -3.764914e+001  -7.199302e+001 
4137500000  -3.828817e+001  -9.210614e+001 
4140625000  -4.026779e+001  -1.008262e+002 
4143750000  -4.157845e+001  -9.344952e+001 
4146875000  -4.083629e+001  -9.122451e+001 
4150000000  -3.952713e+001  -9.964441e+001 
4153125000  -3.994203e+001  -1.075958e+002 
4156250000  -4.122905e+001  -1.103079e+002 
4159375000  -4.124765e+001  -1.052945e+002 
4162500000  -3.997408e+001  -1.035121e+002 
4165625000  -3.889791e+001  -1.106312e+002 
4168750000  -3.841673e+001  -1.201921e+002 
4171875000  -3.845460e+001  -1.296518e+002 
4175000000  -3.951509e+001  -1.369772e+002 
4178125000  -3.989051e+001  -1.380101e+002 
4181250000  -3.935256e+001  -1.400567e+002 
4184375000  -3.958052e+001  -1.462095e+002 
4187500000  -3.945309e+001  -1.524552e+002 
4190625000  -3.972878e+001  -1.594377e+002 
4193750000  -4.048190e+001  -1.654083e+002 
4196875000  -4.129277e+001  -1.642225e+002 
4200000000  -4.235584e+001  -1.576353e+002 
4203125000  -4.114690e+001  -1.466011e+002 
4206250000  -3.750418e+001  -1.559069e+002 
4209375000  -3.715685e+001  -1.793625e+002 
4212500000  -3.973809e+001  1.740845e+002 
4215625000  -4.027835e+001  1.798816e+002 
4218750000  -3.833926e+001  -1.766243e+002 
4221875000  -3.681743e+001  1.735812e+002 
4225000000  -3.823775e+001  1.611850e+002 
4228125000  -3.795608e+001  1.623549e+002 
4231250000  -3.632533e+001  1.548945e+002 
4234375000  -3.634203e+001  1.430369e+002 
4237500000  -3.619119e+001  1.363929e+002 
4240625000  -3.637374e+001  1.263041e+002 
4243750000  -3.750766e+001  1.178880e+002 
4246875000  -3.839515e+001  1.162264e+002 
4250000000  -3.836110e+001  1.181294e+002 
4253125000  -3.804439e+001  1.148239e+002 
4256250000  -3.820596e+001  1.102099e+002 
4259375000  -3.764303e+001  1.052076e+002 
4262500000  -3.812314e+001  1.003573e+002 
4265625000  -3.803051e+001  9.862431e+001 
4268750000  -3.697500e+001  9.084789e+001 
4271875000  -3.699052e+001  8.094162e+001 
4275000000  -3.644534e+001  7.135068e+001 
4278125000  -3.773420e+001  5.960937e+001 
4281250000  -3.902263e+001  5.931631e+001 
4284375000  -3.873325e+001  5.875434e+001 
4287500000  -4.033658e+001  5.194178e+001 
4290625000  -4.067682e+001  6.072845e+001 
4293750000  -3.877524e+001  6.206189e+001 
4296875000  -3.782650e+001  4.920988e+001 
4300000000  -3.930916e+001  3.935552e+001 
4303125000  -3.987576e+001  4.325969e+001 
4306250000  -3.855673e+001  4.519876e+001 
4309375000  -3.761144e+001  3.877968e+001 
4312500000  -3.764437e+001  2.809913e+001 
4315625000  -3.804457e+001  1.911274e+001 
4318750000  -3.849499e+001  1.650079e+001 
4321875000  -3.877449e+001  1.712117e+001 
4325000000  -3.833102e+001  1.466855e+001 
4328125000  -3.736375e+001  7.504124e+000 
4331250000  -3.750365e+001  -4.768429e+000 
4334375000  -3.824719e+001  -9.375176e+000 
4337500000  -3.963899e+001  -1.228965e+001 
4340625000  -3.959728e+001  -8.096268e+000 
4343750000  -3.872159e+001  -1.208799e+001 
4346875000  -3.851577e+001  -2.054757e+001 
4350000000  -3.859614e+001  -2.717646e+001 
4353125000  -3.923107e+001  -3.472546e+001 
4356250000  -4.117906e+001  -3.200210e+001 
4359375000  -4.008911e+001  -1.627645e+001 
4362500000  -3.674274e+001  -2.448487e+001 
4365625000  -3.608265e+001  -4.276498e+001 
4368750000  -3.743305e+001  -5.083545e+001 
4371875000  -3.821266e+001  -5.160821e+001 
4375000000  -3.737980e+001  -5.615328e+001 
4378125000  -3.705815e+001  -6.396456e+001 
4381250000  -3.715489e+001  -7.161080e+001 
4384375000  -3.730333e+001  -7.909904e+001 
4387500000  -3.844473e+001  -8.623736e+001 
4390625000  -3.869966e+001  -8.396958e+001 
4393750000  -3.797239e+001  -8.436036e+001 
4396875000  -3.747264e+001  -9.001639e+001 
4400000000  -3.699126e+001  -9.936211e+001 
4403125000  -3.805342e+001  -1.093559e+002 
4406250000  -3.838948e+001  -1.120085e+002 
4409375000  -3.888418e+001  -1.158844e+002 
4412500000  -3.985390e+001  -1.187661e+002 
4415625000  -3.967450e+001  -1.145766e+002 
