!Agilent Technologies,E8363B,MY43030201,A.06.04.32
!Agilent E8363B: A.06.04.32
!Date: Tuesday, November 11, 2014 21:35:36
!Correction: S21(Response(S21)) 
!S1P File: Measurement: S21:
# Hz S  dB   R 50
3000000000  -4.061591e+001  7.177950e+001 
3003125000  -4.207422e+001  6.345480e+001 
3006250000  -4.206985e+001  6.536044e+001 
3009375000  -4.271365e+001  6.794231e+001 
3012500000  -4.164636e+001  6.372138e+001 
3015625000  -4.135321e+001  5.688161e+001 
3018750000  -4.199014e+001  5.873822e+001 
3021875000  -4.026202e+001  5.841034e+001 
3025000000  -3.883672e+001  5.559246e+001 
3028125000  -3.788333e+001  4.344913e+001 
3031250000  -3.704986e+001  3.119411e+001 
3034375000  -3.667617e+001  1.771827e+001 
3037500000  -3.750204e+001  7.394909e+000 
3040625000  -3.886391e+001  1.517231e+000 
3043750000  -3.917910e+001  -3.696640e+000 
3046875000  -3.971007e+001  -8.718045e+000 
3050000000  -4.080429e+001  -1.418626e+001 
3053125000  -4.055486e+001  -8.683224e+000 
3056250000  -4.042724e+001  -7.232981e+000 
3059375000  -3.971366e+001  -8.915294e+000 
3062500000  -3.814768e+001  -1.387249e+001 
3065625000  -3.792863e+001  -2.370345e+001 
3068750000  -3.751379e+001  -3.145812e+001 
3071875000  -3.756181e+001  -3.299924e+001 
3075000000  -3.691041e+001  -4.113539e+001 
3078125000  -3.710444e+001  -4.723199e+001 
3081250000  -3.723413e+001  -5.217466e+001 
3084375000  -3.624121e+001  -5.747958e+001 
3087500000  -3.641291e+001  -6.433527e+001 
3090625000  -3.595729e+001  -7.668676e+001 
3093750000  -3.705678e+001  -8.406039e+001 
3096875000  -3.737189e+001  -8.902081e+001 
3100000000  -3.722101e+001  -9.338187e+001 
3103125000  -3.756565e+001  -9.587121e+001 
3106250000  -3.723179e+001  -1.007430e+002 
3109375000  -3.721000e+001  -1.053309e+002 
3112500000  -3.709546e+001  -1.110380e+002 
3115625000  -3.717813e+001  -1.146225e+002 
3118750000  -3.717247e+001  -1.189385e+002 
3121875000  -3.658104e+001  -1.296376e+002 
3125000000  -3.852140e+001  -1.327301e+002 
3128125000  -3.850819e+001  -1.253552e+002 
3131250000  -3.598994e+001  -1.320898e+002 
3134375000  -3.538612e+001  -1.489443e+002 
3137500000  -3.597725e+001  -1.603416e+002 
3140625000  -3.724830e+001  -1.631306e+002 
3143750000  -3.821416e+001  -1.661503e+002 
3146875000  -3.756541e+001  -1.637498e+002 
3150000000  -3.679970e+001  -1.675423e+002 
3153125000  -3.728864e+001  -1.762657e+002 
3156250000  -3.792422e+001  -1.709750e+002 
3159375000  -3.557526e+001  -1.735452e+002 
3162500000  -3.425223e+001  1.704194e+002 
3165625000  -3.549968e+001  1.578855e+002 
3168750000  -3.541533e+001  1.565030e+002 
3171875000  -3.496730e+001  1.498017e+002 
3175000000  -3.547916e+001  1.408574e+002 
3178125000  -3.515756e+001  1.387544e+002 
3181250000  -3.438911e+001  1.300561e+002 
3184375000  -3.408641e+001  1.190527e+002 
3187500000  -3.560672e+001  1.028220e+002 
3190625000  -3.723429e+001  9.839710e+001 
3193750000  -3.754965e+001  1.036882e+002 
3196875000  -3.734287e+001  1.048942e+002 
3200000000  -3.619230e+001  9.927698e+001 
3203125000  -3.590693e+001  9.169292e+001 
3206250000  -3.613783e+001  8.389558e+001 
3209375000  -3.584168e+001  7.594989e+001 
3212500000  -3.628230e+001  6.908445e+001 
3215625000  -3.605761e+001  6.670422e+001 
3218750000  -3.683537e+001  5.423149e+001 
3221875000  -3.729349e+001  4.848421e+001 
3225000000  -3.707985e+001  4.477283e+001 
3228125000  -3.778222e+001  3.654123e+001 
3231250000  -3.821072e+001  3.563156e+001 
3234375000  -3.778654e+001  3.219093e+001 
3237500000  -3.798784e+001  2.758543e+001 
3240625000  -3.748301e+001  2.251676e+001 
3243750000  -3.763146e+001  1.340017e+001 
3246875000  -3.816939e+001  5.864740e+000 
3250000000  -3.870957e+001  3.147486e-001 
3253125000  -3.909781e+001  -8.285558e-001 
3256250000  -3.854682e+001  -1.042357e+001 
3259375000  -3.913422e+001  -2.254618e+001 
3262500000  -4.054557e+001  -2.505663e+001 
3265625000  -4.103320e+001  -2.145966e+001 
3268750000  -4.123811e+001  -2.178985e+001 
3271875000  -4.047913e+001  -2.539455e+001 
3275000000  -3.998809e+001  -3.325210e+001 
3278125000  -4.081616e+001  -3.798444e+001 
3281250000  -4.077480e+001  -4.035389e+001 
3284375000  -4.050731e+001  -4.491851e+001 
3287500000  -4.095957e+001  -4.870145e+001 
3290625000  -4.098028e+001  -5.734133e+001 
3293750000  -4.137901e+001  -6.109014e+001 
3296875000  -4.240924e+001  -6.344281e+001 
3300000000  -4.158760e+001  -6.392926e+001 
3303125000  -4.104325e+001  -7.014755e+001 
3306250000  -4.070350e+001  -7.704642e+001 
3309375000  -4.052036e+001  -8.523756e+001 
3312500000  -4.106165e+001  -9.736009e+001 
3315625000  -4.220597e+001  -1.022983e+002 
3318750000  -4.371731e+001  -1.079869e+002 
3321875000  -4.494231e+001  -1.023842e+002 
3325000000  -4.433413e+001  -9.650415e+001 
3328125000  -4.406666e+001  -9.898448e+001 
3331250000  -4.222012e+001  -9.527867e+001 
3334375000  -3.971533e+001  -1.109313e+002 
3337500000  -4.032567e+001  -1.314065e+002 
3340625000  -4.227364e+001  -1.399005e+002 
3343750000  -4.405539e+001  -1.411361e+002 
3346875000  -4.289804e+001  -1.402269e+002 
3350000000  -4.278396e+001  -1.435718e+002 
3353125000  -4.279106e+001  -1.503363e+002 
3356250000  -4.241813e+001  -1.603166e+002 
3359375000  -4.347542e+001  -1.692768e+002 
3362500000  -4.407025e+001  -1.756225e+002 
3365625000  -4.484290e+001  -1.794991e+002 
3368750000  -4.526309e+001  1.767910e+002 
3371875000  -4.618665e+001  1.743861e+002 
3375000000  -4.705403e+001  1.666795e+002 
3378125000  -4.830112e+001  1.670537e+002 
3381250000  -4.954626e+001  1.798723e+002 
3384375000  -4.695979e+001  -1.679659e+002 
3387500000  -4.379796e+001  1.712009e+002 
3390625000  -4.577475e+001  1.501660e+002 
3393750000  -4.761380e+001  1.513011e+002 
3396875000  -4.557048e+001  1.520218e+002 
3400000000  -4.607859e+001  1.399142e+002 
3403125000  -4.718665e+001  1.341869e+002 
3406250000  -4.730553e+001  1.318768e+002 
3409375000  -4.779881e+001  1.216769e+002 
3412500000  -4.880195e+001  1.199966e+002 
3415625000  -4.983984e+001  1.172610e+002 
3418750000  -5.059097e+001  1.161197e+002 
3421875000  -5.098867e+001  1.186084e+002 
3425000000  -5.068001e+001  1.192279e+002 
3428125000  -5.036322e+001  1.171043e+002 
3431250000  -4.987432e+001  1.051655e+002 
3434375000  -5.041707e+001  9.904195e+001 
3437500000  -5.185109e+001  9.966219e+001 
3440625000  -5.227156e+001  1.053888e+002 
3443750000  -5.036189e+001  1.070836e+002 
3446875000  -5.006564e+001  9.878982e+001 
3450000000  -4.985101e+001  8.890003e+001 
3453125000  -5.076908e+001  8.311145e+001 
3456250000  -5.233586e+001  7.995940e+001 
3459375000  -5.278376e+001  8.423926e+001 
3462500000  -5.196634e+001  9.132098e+001 
3465625000  -5.214000e+001  7.773143e+001 
3468750000  -5.213367e+001  7.807371e+001 
3471875000  -5.174668e+001  7.640009e+001 
3475000000  -5.129779e+001  6.629469e+001 
3478125000  -5.170308e+001  5.870634e+001 
3481250000  -5.180366e+001  7.052747e+001 
3484375000  -5.323535e+001  6.180547e+001 
3487500000  -5.159849e+001  6.520845e+001 
3490625000  -5.043959e+001  5.524091e+001 
3493750000  -5.155753e+001  5.041729e+001 
3496875000  -5.245928e+001  4.761748e+001 
3500000000  -5.295115e+001  4.764212e+001 
3503125000  -5.119460e+001  4.565210e+001 
3506250000  -4.992693e+001  3.868003e+001 
3509375000  -4.961041e+001  2.349412e+001 
3512500000  -5.027859e+001  1.190693e+001 
3515625000  -5.137719e+001  6.829580e+000 
3518750000  -5.213576e+001  7.311244e+000 
3521875000  -5.261522e+001  -1.623790e-001 
3525000000  -5.381927e+001  -5.294670e+000 
3528125000  -5.208199e+001  7.073753e+000 
3531250000  -5.213540e+001  5.242559e-001 
3534375000  -5.251630e+001  -1.644053e+001 
3537500000  -5.377359e+001  -1.514131e+001 
3540625000  -5.480057e+001  -2.659002e+001 
3543750000  -5.498150e+001  -1.930125e+001 
3546875000  -5.531109e+001  -1.532440e+001 
3550000000  -5.317332e+001  -1.108153e+001 
3553125000  -5.428705e+001  -3.277704e+001 
3556250000  -5.420699e+001  -2.886507e+001 
3559375000  -5.486134e+001  -3.027753e+001 
3562500000  -5.598769e+001  -4.126657e+001 
3565625000  -5.684893e+001  -5.047641e+001 
3568750000  -5.721553e+001  -3.597056e+001 
3571875000  -5.704565e+001  -3.790697e+001 
3575000000  -5.801580e+001  -5.404731e+001 
3578125000  -6.003522e+001  -5.342705e+001 
3581250000  -5.999313e+001  -3.619157e+001 
3584375000  -5.720884e+001  -3.989436e+001 
3587500000  -5.693185e+001  -4.585543e+001 
3590625000  -5.994314e+001  -6.499629e+001 
3593750000  -5.923217e+001  -5.267936e+001 
3596875000  -5.810611e+001  -4.160003e+001 
3600000000  -5.773296e+001  -4.409532e+001 
3603125000  -5.799416e+001  -5.576633e+001 
3606250000  -6.071982e+001  -5.612925e+001 
3609375000  -5.792787e+001  -4.443032e+001 
3612500000  -5.843576e+001  -5.049106e+001 
3615625000  -5.941892e+001  -5.282850e+001 
3618750000  -5.972347e+001  -5.750764e+001 
3621875000  -5.643570e+001  -4.771212e+001 
3625000000  -5.823660e+001  -4.069556e+001 
3628125000  -5.811190e+001  -4.104131e+001 
3631250000  -5.686000e+001  -4.509450e+001 
3634375000  -5.721232e+001  -4.417342e+001 
3637500000  -5.533843e+001  -4.578906e+001 
3640625000  -5.418038e+001  -3.954795e+001 
3643750000  -5.263879e+001  -5.038760e+001 
3646875000  -5.280191e+001  -5.909908e+001 
3650000000  -5.351498e+001  -5.565341e+001 
3653125000  -5.208456e+001  -6.358332e+001 
3656250000  -5.129251e+001  -6.688480e+001 
3659375000  -5.174800e+001  -6.912206e+001 
3662500000  -5.007701e+001  -6.634944e+001 
3665625000  -4.989346e+001  -7.286808e+001 
3668750000  -4.814058e+001  -7.713293e+001 
3671875000  -4.727685e+001  -8.639396e+001 
3675000000  -4.720609e+001  -9.148226e+001 
3678125000  -4.708454e+001  -9.706255e+001 
3681250000  -4.612575e+001  -1.009512e+002 
3684375000  -4.684130e+001  -1.061294e+002 
3687500000  -4.674356e+001  -1.128458e+002 
3690625000  -4.636612e+001  -1.194512e+002 
3693750000  -4.713729e+001  -1.200332e+002 
3696875000  -4.641202e+001  -1.196911e+002 
3700000000  -4.549155e+001  -1.275888e+002 
3703125000  -4.525158e+001  -1.321797e+002 
3706250000  -4.564019e+001  -1.343275e+002 
3709375000  -4.503777e+001  -1.325038e+002 
3712500000  -4.332324e+001  -1.378377e+002 
3715625000  -4.157948e+001  -1.484177e+002 
3718750000  -4.186431e+001  -1.545124e+002 
3721875000  -4.163126e+001  -1.623165e+002 
3725000000  -4.180404e+001  -1.722107e+002 
3728125000  -4.140965e+001  -1.754000e+002 
3731250000  -4.077584e+001  -1.780759e+002 
3734375000  -3.997808e+001  1.719075e+002 
3737500000  -4.085105e+001  1.613330e+002 
3740625000  -4.088881e+001  1.577144e+002 
3743750000  -4.030012e+001  1.496263e+002 
3746875000  -4.064597e+001  1.444175e+002 
3750000000  -4.071621e+001  1.391679e+002 
3753125000  -4.072641e+001  1.355332e+002 
3756250000  -4.067537e+001  1.322062e+002 
3759375000  -4.060806e+001  1.272658e+002 
3762500000  -3.999046e+001  1.199615e+002 
3765625000  -4.090394e+001  1.165622e+002 
3768750000  -4.004705e+001  1.171224e+002 
3771875000  -3.854831e+001  1.108341e+002 
3775000000  -3.842931e+001  9.729172e+001 
3778125000  -3.892951e+001  9.108542e+001 
3781250000  -3.891470e+001  8.750895e+001 
3784375000  -3.859203e+001  8.285812e+001 
3787500000  -3.841156e+001  7.537263e+001 
3790625000  -3.903269e+001  6.724953e+001 
3793750000  -3.904795e+001  6.289811e+001 
3796875000  -3.806645e+001  5.863028e+001 
3800000000  -3.638186e+001  5.437693e+001 
3803125000  -3.813416e+001  4.119118e+001 
3806250000  -3.887309e+001  3.719688e+001 
3809375000  -3.852591e+001  3.358195e+001 
3812500000  -3.846115e+001  2.299315e+001 
3815625000  -3.962812e+001  1.387206e+001 
3818750000  -4.075806e+001  1.633069e+001 
3821875000  -4.032843e+001  2.571646e+001 
3825000000  -3.801340e+001  2.155505e+001 
3828125000  -3.705733e+001  1.499895e+000 
3831250000  -3.814295e+001  -1.205005e+001 
3834375000  -4.057791e+001  -1.222806e+001 
3837500000  -4.050721e+001  -9.426178e+000 
3840625000  -3.869486e+001  -1.145402e+001 
3843750000  -3.825088e+001  -2.657894e+001 
3846875000  -4.014477e+001  -3.341175e+001 
3850000000  -4.088716e+001  -2.719274e+001 
3853125000  -4.007083e+001  -2.705447e+001 
3856250000  -3.966348e+001  -3.601091e+001 
3859375000  -3.864962e+001  -4.277183e+001 
3862500000  -3.866163e+001  -5.193687e+001 
3865625000  -3.908624e+001  -5.726010e+001 
3868750000  -3.870731e+001  -5.712446e+001 
3871875000  -3.781507e+001  -6.514962e+001 
3875000000  -3.877007e+001  -7.573816e+001 
3878125000  -3.948713e+001  -7.820653e+001 
3881250000  -3.908173e+001  -7.816594e+001 
3884375000  -3.871403e+001  -8.647459e+001 
3887500000  -3.912584e+001  -8.894868e+001 
3890625000  -3.937388e+001  -9.619907e+001 
3893750000  -3.975944e+001  -9.787409e+001 
3896875000  -4.036673e+001  -9.983492e+001 
3900000000  -3.991822e+001  -1.062028e+002 
3903125000  -3.927620e+001  -1.079083e+002 
3906250000  -3.890159e+001  -1.126791e+002 
3909375000  -3.816059e+001  -1.218691e+002 
3912500000  -3.904705e+001  -1.304214e+002 
3915625000  -4.051273e+001  -1.297518e+002 
3918750000  -4.002634e+001  -1.298892e+002 
3921875000  -3.935862e+001  -1.361945e+002 
3925000000  -3.873079e+001  -1.404128e+002 
3928125000  -3.815350e+001  -1.525226e+002 
3931250000  -3.912443e+001  -1.582716e+002 
3934375000  -3.965346e+001  -1.590173e+002 
3937500000  -4.011628e+001  -1.617258e+002 
3940625000  -3.994901e+001  -1.640969e+002 
3943750000  -3.907485e+001  -1.674958e+002 
3946875000  -3.842920e+001  -1.758907e+002 
3950000000  -3.959735e+001  1.760059e+002 
3953125000  -4.030241e+001  1.766688e+002 
3956250000  -3.891159e+001  1.770194e+002 
3959375000  -3.794149e+001  1.716003e+002 
3962500000  -3.754409e+001  1.612352e+002 
3965625000  -3.785954e+001  1.518391e+002 
3968750000  -3.866962e+001  1.443484e+002 
3971875000  -3.846074e+001  1.385227e+002 
3975000000  -3.856746e+001  1.350296e+002 
3978125000  -3.854887e+001  1.319701e+002 
3981250000  -3.863942e+001  1.246801e+002 
3984375000  -3.912691e+001  1.172645e+002 
3987500000  -3.961255e+001  1.136638e+002 
3990625000  -4.009605e+001  1.114992e+002 
3993750000  -3.989290e+001  1.087791e+002 
3996875000  -3.980107e+001  1.028025e+002 
4000000000  -4.063953e+001  9.683162e+001 
4003125000  -4.102716e+001  9.987012e+001 
4006250000  -3.928459e+001  9.811877e+001 
4009375000  -3.869395e+001  8.406895e+001 
4012500000  -4.023003e+001  7.463409e+001 
4015625000  -4.189095e+001  7.383884e+001 
4018750000  -4.117689e+001  7.428693e+001 
4021875000  -4.107875e+001  7.011246e+001 
4025000000  -4.029143e+001  6.613356e+001 
4028125000  -4.031872e+001  5.763292e+001 
4031250000  -4.119211e+001  5.308530e+001 
4034375000  -4.146463e+001  5.495288e+001 
4037500000  -4.085631e+001  5.458209e+001 
4040625000  -4.077984e+001  4.980249e+001 
4043750000  -4.105823e+001  4.641012e+001 
4046875000  -4.089342e+001  4.259595e+001 
4050000000  -4.075691e+001  3.714727e+001 
4053125000  -4.127522e+001  3.639656e+001 
4056250000  -4.165363e+001  3.975616e+001 
4059375000  -3.935489e+001  3.684047e+001 
4062500000  -3.891478e+001  2.791019e+001 
4065625000  -3.911314e+001  2.356756e+001 
4068750000  -3.802895e+001  1.692069e+001 
4071875000  -3.810976e+001  6.361304e+000 
4075000000  -3.832495e+001  -1.290362e+000 
4078125000  -3.890923e+001  -4.333824e+000 
4081250000  -3.812586e+001  -8.378807e+000 
4084375000  -3.813008e+001  -1.832254e+001 
4087500000  -3.861167e+001  -2.560563e+001 
4090625000  -3.930783e+001  -2.564242e+001 
4093750000  -3.867928e+001  -2.962645e+001 
4096875000  -3.873512e+001  -3.910677e+001 
4100000000  -3.981653e+001  -4.565411e+001 
4103125000  -4.048470e+001  -4.366727e+001 
4106250000  -3.996692e+001  -4.210236e+001 
4109375000  -3.906226e+001  -4.470654e+001 
4112500000  -3.856797e+001  -5.328007e+001 
4115625000  -3.932168e+001  -5.972102e+001 
4118750000  -3.879234e+001  -6.464416e+001 
4121875000  -3.879548e+001  -7.411750e+001 
4125000000  -3.970396e+001  -8.016042e+001 
4128125000  -4.087963e+001  -7.721397e+001 
4131250000  -3.977832e+001  -7.218741e+001 
4134375000  -3.764758e+001  -8.285487e+001 
4137500000  -3.821882e+001  -1.026232e+002 
4140625000  -4.048432e+001  -1.097691e+002 
4143750000  -4.135281e+001  -1.011082e+002 
4146875000  -4.058253e+001  -1.009354e+002 
4150000000  -3.949163e+001  -1.059890e+002 
4153125000  -4.004038e+001  -1.139053e+002 
4156250000  -4.132423e+001  -1.188985e+002 
4159375000  -4.119942e+001  -1.131527e+002 
4162500000  -4.004711e+001  -1.104771e+002 
4165625000  -3.864486e+001  -1.200175e+002 
4168750000  -3.861348e+001  -1.298999e+002 
4171875000  -3.819697e+001  -1.393697e+002 
4175000000  -3.924286e+001  -1.445502e+002 
4178125000  -3.965468e+001  -1.465530e+002 
4181250000  -3.946564e+001  -1.515252e+002 
4184375000  -3.959665e+001  -1.553740e+002 
4187500000  -3.941287e+001  -1.607598e+002 
4190625000  -3.932792e+001  -1.673894e+002 
4193750000  -4.052153e+001  -1.717399e+002 
4196875000  -4.180679e+001  -1.740761e+002 
4200000000  -4.281784e+001  -1.687498e+002 
4203125000  -4.073917e+001  -1.555730e+002 
4206250000  -3.751572e+001  -1.641195e+002 
4209375000  -3.763482e+001  1.716056e+002 
4212500000  -4.000755e+001  1.646865e+002 
4215625000  -4.014942e+001  1.742183e+002 
4218750000  -3.826430e+001  1.751897e+002 
4221875000  -3.661520e+001  1.642119e+002 
4225000000  -3.788894e+001  1.492864e+002 
4228125000  -3.779728e+001  1.538274e+002 
4231250000  -3.622482e+001  1.441529e+002 
4234375000  -3.632985e+001  1.341301e+002 
4237500000  -3.612474e+001  1.294406e+002 
4240625000  -3.633496e+001  1.177449e+002 
4243750000  -3.748431e+001  1.097233e+002 
4246875000  -3.840770e+001  1.090555e+002 
4250000000  -3.829781e+001  1.104318e+002 
4253125000  -3.822452e+001  1.064919e+002 
4256250000  -3.802719e+001  1.002532e+002 
4259375000  -3.761049e+001  9.527812e+001 
4262500000  -3.797318e+001  9.027543e+001 
4265625000  -3.783543e+001  8.963046e+001 
4268750000  -3.701177e+001  8.157945e+001 
4271875000  -3.715163e+001  7.350397e+001 
4275000000  -3.647010e+001  6.432681e+001 
4278125000  -3.775562e+001  5.382366e+001 
4281250000  -3.913513e+001  5.013181e+001 
4284375000  -3.887074e+001  4.836218e+001 
4287500000  -4.033112e+001  4.399892e+001 
4290625000  -4.064392e+001  5.409561e+001 
4293750000  -3.888024e+001  5.382956e+001 
4296875000  -3.765998e+001  4.141231e+001 
4300000000  -3.897101e+001  3.018309e+001 
4303125000  -3.979187e+001  3.509368e+001 
4306250000  -3.881126e+001  3.600628e+001 
4309375000  -3.763015e+001  3.159888e+001 
4312500000  -3.757347e+001  1.853466e+001 
4315625000  -3.780588e+001  9.550838e+000 
4318750000  -3.857596e+001  8.134641e+000 
4321875000  -3.870644e+001  7.771814e+000 
4325000000  -3.807314e+001  7.493429e+000 
4328125000  -3.736296e+001  -3.263639e+000 
4331250000  -3.753409e+001  -1.454327e+001 
4334375000  -3.818294e+001  -2.013537e+001 
4337500000  -3.958055e+001  -2.039234e+001 
4340625000  -3.946425e+001  -1.616805e+001 
4343750000  -3.876978e+001  -1.927116e+001 
4346875000  -3.820177e+001  -2.872019e+001 
4350000000  -3.849962e+001  -3.731640e+001 
4353125000  -3.917139e+001  -4.403736e+001 
4356250000  -4.081996e+001  -3.825809e+001 
4359375000  -4.019708e+001  -2.559602e+001 
4362500000  -3.640668e+001  -3.252240e+001 
4365625000  -3.607206e+001  -4.998995e+001 
4368750000  -3.705527e+001  -6.111472e+001 
4371875000  -3.781540e+001  -6.202431e+001 
4375000000  -3.735729e+001  -6.509045e+001 
4378125000  -3.684266e+001  -7.362375e+001 
4381250000  -3.717243e+001  -7.976871e+001 
4384375000  -3.696893e+001  -8.741185e+001 
4387500000  -3.826183e+001  -9.418259e+001 
4390625000  -3.837343e+001  -9.398640e+001 
4393750000  -3.799799e+001  -9.394182e+001 
4396875000  -3.732830e+001  -9.959728e+001 
4400000000  -3.701918e+001  -1.090194e+002 
4403125000  -3.797152e+001  -1.179522e+002 
4406250000  -3.833306e+001  -1.216195e+002 
4409375000  -3.867368e+001  -1.255715e+002 
4412500000  -3.981060e+001  -1.300475e+002 
4415625000  -3.957793e+001  -1.243247e+002 
