!Agilent Technologies,E8363B,MY43030201,A.06.04.32
!Agilent E8363B: A.06.04.32
!Date: Tuesday, November 11, 2014 21:31:27
!Correction: S21(Response(S21)) 
!S1P File: Measurement: S21:
# Hz S  dB   R 50
3000000000  -4.048109e+001  8.016463e+001 
3003125000  -4.224238e+001  7.241507e+001 
3006250000  -4.202281e+001  7.165478e+001 
3009375000  -4.262295e+001  7.573305e+001 
3012500000  -4.138318e+001  7.081428e+001 
3015625000  -4.152028e+001  6.538486e+001 
3018750000  -4.200784e+001  6.540981e+001 
3021875000  -4.020513e+001  6.718233e+001 
3025000000  -3.888243e+001  6.234277e+001 
3028125000  -3.783774e+001  5.205237e+001 
3031250000  -3.701366e+001  4.009373e+001 
3034375000  -3.674474e+001  2.581809e+001 
3037500000  -3.746326e+001  1.602297e+001 
3040625000  -3.868543e+001  1.109191e+001 
3043750000  -3.922874e+001  3.486532e+000 
3046875000  -3.964711e+001  -1.598916e+000 
3050000000  -4.093072e+001  -6.734311e+000 
3053125000  -4.070095e+001  -3.024953e+000 
3056250000  -4.065649e+001  1.167570e+000 
3059375000  -3.981684e+001  -6.110747e-001 
3062500000  -3.844986e+001  -5.750912e+000 
3065625000  -3.806543e+001  -1.514597e+001 
3068750000  -3.747084e+001  -2.449971e+001 
3071875000  -3.766679e+001  -2.557371e+001 
3075000000  -3.709807e+001  -3.253661e+001 
3078125000  -3.700429e+001  -3.860888e+001 
3081250000  -3.713374e+001  -4.447599e+001 
3084375000  -3.631197e+001  -4.936449e+001 
3087500000  -3.635131e+001  -5.626632e+001 
3090625000  -3.581499e+001  -6.794710e+001 
3093750000  -3.690366e+001  -7.639278e+001 
3096875000  -3.735161e+001  -8.216044e+001 
3100000000  -3.731559e+001  -8.438287e+001 
3103125000  -3.752837e+001  -8.882720e+001 
3106250000  -3.715004e+001  -9.257557e+001 
3109375000  -3.735091e+001  -9.654128e+001 
3112500000  -3.713855e+001  -1.029247e+002 
3115625000  -3.703013e+001  -1.075941e+002 
3118750000  -3.726187e+001  -1.094326e+002 
3121875000  -3.656043e+001  -1.220690e+002 
3125000000  -3.842949e+001  -1.241640e+002 
3128125000  -3.854208e+001  -1.170909e+002 
3131250000  -3.613226e+001  -1.234428e+002 
3134375000  -3.530337e+001  -1.405884e+002 
3137500000  -3.603335e+001  -1.527569e+002 
3140625000  -3.726583e+001  -1.558565e+002 
3143750000  -3.809252e+001  -1.584203e+002 
3146875000  -3.767237e+001  -1.559219e+002 
3150000000  -3.688514e+001  -1.594012e+002 
3153125000  -3.724898e+001  -1.669338e+002 
3156250000  -3.793158e+001  -1.633129e+002 
3159375000  -3.572348e+001  -1.656965e+002 
3162500000  -3.414467e+001  1.792457e+002 
3165625000  -3.543502e+001  1.656423e+002 
3168750000  -3.547117e+001  1.649647e+002 
3171875000  -3.490648e+001  1.573844e+002 
3175000000  -3.551516e+001  1.485862e+002 
3178125000  -3.493823e+001  1.474649e+002 
3181250000  -3.435487e+001  1.387647e+002 
3184375000  -3.417200e+001  1.270122e+002 
3187500000  -3.533441e+001  1.123384e+002 
3190625000  -3.721620e+001  1.056981e+002 
3193750000  -3.749961e+001  1.123199e+002 
3196875000  -3.739672e+001  1.127752e+002 
3200000000  -3.618806e+001  1.081074e+002 
3203125000  -3.591759e+001  9.973814e+001 
3206250000  -3.614091e+001  9.228436e+001 
3209375000  -3.576234e+001  8.407475e+001 
3212500000  -3.630513e+001  7.714107e+001 
3215625000  -3.614925e+001  7.403790e+001 
3218750000  -3.682324e+001  6.333335e+001 
3221875000  -3.735046e+001  5.623795e+001 
3225000000  -3.695008e+001  5.288481e+001 
3228125000  -3.770397e+001  4.531302e+001 
3231250000  -3.823051e+001  4.245638e+001 
3234375000  -3.787161e+001  4.010160e+001 
3237500000  -3.799536e+001  3.664257e+001 
3240625000  -3.762564e+001  3.056738e+001 
3243750000  -3.759269e+001  2.057366e+001 
3246875000  -3.817601e+001  1.386516e+001 
3250000000  -3.870287e+001  9.778368e+000 
3253125000  -3.897938e+001  5.879382e+000 
3256250000  -3.867677e+001  -2.091763e+000 
3259375000  -3.918911e+001  -1.225549e+001 
3262500000  -4.059068e+001  -1.605703e+001 
3265625000  -4.107788e+001  -1.399723e+001 
3268750000  -4.121963e+001  -1.267632e+001 
3271875000  -4.063630e+001  -1.693959e+001 
3275000000  -4.007454e+001  -2.498078e+001 
3278125000  -4.077071e+001  -2.950931e+001 
3281250000  -4.095567e+001  -3.125920e+001 
3284375000  -4.064735e+001  -3.757415e+001 
3287500000  -4.115252e+001  -4.083246e+001 
3290625000  -4.132171e+001  -4.876045e+001 
3293750000  -4.120786e+001  -5.353974e+001 
3296875000  -4.243623e+001  -5.692170e+001 
3300000000  -4.187474e+001  -5.513677e+001 
3303125000  -4.080789e+001  -6.221141e+001 
3306250000  -4.074840e+001  -6.959315e+001 
3309375000  -4.056878e+001  -7.699384e+001 
3312500000  -4.078596e+001  -8.893426e+001 
3315625000  -4.227555e+001  -9.743258e+001 
3318750000  -4.361538e+001  -1.010488e+002 
3321875000  -4.542923e+001  -9.793267e+001 
3325000000  -4.462437e+001  -8.729591e+001 
3328125000  -4.393275e+001  -8.934781e+001 
3331250000  -4.237739e+001  -8.561553e+001 
3334375000  -3.993082e+001  -1.016632e+002 
3337500000  -4.051368e+001  -1.242028e+002 
3340625000  -4.214658e+001  -1.324848e+002 
3343750000  -4.362334e+001  -1.319063e+002 
3346875000  -4.354677e+001  -1.325294e+002 
3350000000  -4.324952e+001  -1.357910e+002 
3353125000  -4.300980e+001  -1.433927e+002 
3356250000  -4.236668e+001  -1.515562e+002 
3359375000  -4.352775e+001  -1.633700e+002 
3362500000  -4.431775e+001  -1.698678e+002 
3365625000  -4.483751e+001  -1.710562e+002 
3368750000  -4.567338e+001  -1.749964e+002 
3371875000  -4.601373e+001  1.797625e+002 
3375000000  -4.785773e+001  1.782158e+002 
3378125000  -4.812826e+001  1.754963e+002 
3381250000  -5.005320e+001  -1.754491e+002 
3384375000  -4.670945e+001  -1.587540e+002 
3387500000  -4.469871e+001  -1.795150e+002 
3390625000  -4.617048e+001  1.617762e+002 
3393750000  -4.709727e+001  1.598279e+002 
3396875000  -4.616109e+001  1.593755e+002 
3400000000  -4.608529e+001  1.457220e+002 
3403125000  -4.722353e+001  1.422338e+002 
3406250000  -4.798025e+001  1.375336e+002 
3409375000  -4.824508e+001  1.328244e+002 
3412500000  -4.925240e+001  1.260640e+002 
3415625000  -4.971578e+001  1.236297e+002 
3418750000  -5.016646e+001  1.225832e+002 
3421875000  -5.118446e+001  1.259364e+002 
3425000000  -4.992264e+001  1.295753e+002 
3428125000  -5.006533e+001  1.259546e+002 
3431250000  -5.025679e+001  1.114329e+002 
3434375000  -5.071395e+001  1.123990e+002 
3437500000  -5.206804e+001  1.140700e+002 
3440625000  -5.226898e+001  1.174713e+002 
3443750000  -5.121381e+001  1.166240e+002 
3446875000  -5.088414e+001  1.064078e+002 
3450000000  -5.074066e+001  9.989008e+001 
3453125000  -5.039982e+001  8.993757e+001 
3456250000  -5.179734e+001  8.311990e+001 
3459375000  -5.346583e+001  9.003122e+001 
3462500000  -5.302218e+001  9.455544e+001 
3465625000  -5.211091e+001  8.724323e+001 
3468750000  -5.272603e+001  8.924816e+001 
3471875000  -5.247527e+001  8.203507e+001 
3475000000  -5.175422e+001  8.181074e+001 
3478125000  -5.178787e+001  6.781389e+001 
3481250000  -5.280041e+001  7.423502e+001 
3484375000  -5.357925e+001  7.044381e+001 
3487500000  -5.130441e+001  6.964539e+001 
3490625000  -5.093288e+001  6.112646e+001 
3493750000  -5.136311e+001  5.756898e+001 
3496875000  -5.119235e+001  5.383483e+001 
3500000000  -5.212169e+001  5.655795e+001 
3503125000  -5.119631e+001  5.850429e+001 
3506250000  -4.976067e+001  4.455556e+001 
3509375000  -4.991640e+001  3.705710e+001 
3512500000  -5.058604e+001  2.463661e+001 
3515625000  -5.165685e+001  1.566061e+001 
3518750000  -5.167635e+001  2.106029e+001 
3521875000  -5.310447e+001  1.459738e+001 
3525000000  -5.326680e+001  1.046359e+001 
3528125000  -5.268130e+001  1.466632e+001 
3531250000  -5.321761e+001  5.588402e+000 
3534375000  -5.304357e+001  -5.090938e+000 
3537500000  -5.409037e+001  -1.899125e+001 
3540625000  -5.484082e+001  -1.505090e+001 
3543750000  -5.500266e+001  -3.335821e+000 
3546875000  -5.532994e+001  -1.291464e+001 
3550000000  -5.429172e+001  -6.187373e+000 
3553125000  -5.420408e+001  -2.458525e+001 
3556250000  -5.636408e+001  -2.008196e+001 
3559375000  -5.516384e+001  -2.513029e+001 
3562500000  -5.686363e+001  -3.103771e+001 
3565625000  -5.617155e+001  -3.896821e+001 
3568750000  -5.779117e+001  -3.562388e+001 
3571875000  -5.851205e+001  -4.017178e+001 
3575000000  -5.785408e+001  -3.966419e+001 
3578125000  -5.903659e+001  -3.560394e+001 
3581250000  -5.834587e+001  -1.881734e+001 
3584375000  -5.828158e+001  -1.612779e+001 
3587500000  -5.595487e+001  -3.078227e+001 
3590625000  -5.827283e+001  -4.176371e+001 
3593750000  -5.782950e+001  -3.715225e+001 
3596875000  -5.842844e+001  -3.247846e+001 
3600000000  -5.817195e+001  -2.563353e+001 
3603125000  -5.737120e+001  -4.400006e+001 
3606250000  -5.864340e+001  -5.243520e+001 
3609375000  -5.753354e+001  -4.443641e+001 
3612500000  -5.747735e+001  -4.782457e+001 
3615625000  -5.788533e+001  -4.322540e+001 
3618750000  -5.968901e+001  -3.133355e+001 
3621875000  -5.733973e+001  -3.332665e+001 
3625000000  -5.890373e+001  -3.035987e+001 
3628125000  -5.575093e+001  -3.193696e+001 
3631250000  -5.655421e+001  -3.895657e+001 
3634375000  -5.653106e+001  -3.608961e+001 
3637500000  -5.447477e+001  -2.922711e+001 
3640625000  -5.400625e+001  -3.128739e+001 
3643750000  -5.299707e+001  -4.138063e+001 
3646875000  -5.341531e+001  -4.778989e+001 
3650000000  -5.241706e+001  -5.113760e+001 
3653125000  -5.145131e+001  -5.670354e+001 
3656250000  -5.161911e+001  -5.316026e+001 
3659375000  -5.077438e+001  -5.645674e+001 
3662500000  -5.008009e+001  -5.862309e+001 
3665625000  -4.939808e+001  -6.942059e+001 
3668750000  -4.841428e+001  -6.622775e+001 
3671875000  -4.741544e+001  -7.685788e+001 
3675000000  -4.734967e+001  -8.715624e+001 
3678125000  -4.749968e+001  -9.019091e+001 
3681250000  -4.598753e+001  -9.344650e+001 
3684375000  -4.673938e+001  -9.688213e+001 
3687500000  -4.672127e+001  -1.040795e+002 
3690625000  -4.664837e+001  -1.119271e+002 
3693750000  -4.739613e+001  -1.134428e+002 
3696875000  -4.633569e+001  -1.111099e+002 
3700000000  -4.541058e+001  -1.153049e+002 
3703125000  -4.549048e+001  -1.210467e+002 
3706250000  -4.615171e+001  -1.251737e+002 
3709375000  -4.493748e+001  -1.232345e+002 
3712500000  -4.337326e+001  -1.299296e+002 
3715625000  -4.196962e+001  -1.381376e+002 
3718750000  -4.187627e+001  -1.449522e+002 
3721875000  -4.115012e+001  -1.560993e+002 
3725000000  -4.169415e+001  -1.614314e+002 
3728125000  -4.119474e+001  -1.648430e+002 
3731250000  -4.059351e+001  -1.692144e+002 
3734375000  -4.003083e+001  -1.766616e+002 
3737500000  -4.079980e+001  1.704291e+002 
3740625000  -4.077839e+001  1.678984e+002 
3743750000  -4.058648e+001  1.608954e+002 
3746875000  -4.071307e+001  1.541338e+002 
3750000000  -4.094548e+001  1.493238e+002 
3753125000  -4.069624e+001  1.464113e+002 
3756250000  -4.066502e+001  1.443855e+002 
3759375000  -4.037641e+001  1.376706e+002 
3762500000  -4.007433e+001  1.316725e+002 
3765625000  -4.067114e+001  1.259658e+002 
3768750000  -4.017090e+001  1.266490e+002 
3771875000  -3.840467e+001  1.199317e+002 
3775000000  -3.841560e+001  1.072851e+002 
3778125000  -3.884393e+001  1.008379e+002 
3781250000  -3.914598e+001  9.704390e+001 
3784375000  -3.882362e+001  9.198864e+001 
3787500000  -3.857005e+001  8.389502e+001 
3790625000  -3.933066e+001  7.475607e+001 
3793750000  -3.905453e+001  7.311329e+001 
3796875000  -3.817509e+001  6.856717e+001 
3800000000  -3.637054e+001  6.414806e+001 
3803125000  -3.799933e+001  5.077581e+001 
3806250000  -3.873944e+001  4.734153e+001 
3809375000  -3.865271e+001  4.265143e+001 
3812500000  -3.847891e+001  3.269341e+001 
3815625000  -3.948519e+001  2.339471e+001 
3818750000  -4.073798e+001  2.376635e+001 
3821875000  -3.996515e+001  3.475142e+001 
3825000000  -3.827494e+001  3.023728e+001 
3828125000  -3.710790e+001  1.269039e+001 
3831250000  -3.815284e+001  -8.204844e-001 
3834375000  -4.061116e+001  -1.858086e+000 
3837500000  -4.044595e+001  2.283212e+000 
3840625000  -3.904165e+001  -3.330261e+000 
3843750000  -3.830720e+001  -1.769870e+001 
3846875000  -3.987310e+001  -2.336343e+001 
3850000000  -4.074043e+001  -1.591457e+001 
3853125000  -3.984933e+001  -1.691623e+001 
3856250000  -3.955513e+001  -2.419019e+001 
3859375000  -3.846447e+001  -3.181340e+001 
3862500000  -3.841883e+001  -4.248102e+001 
3865625000  -3.907562e+001  -4.874611e+001 
3868750000  -3.875124e+001  -4.826222e+001 
3871875000  -3.788699e+001  -5.417020e+001 
3875000000  -3.862004e+001  -6.437650e+001 
3878125000  -3.976106e+001  -6.768687e+001 
3881250000  -3.921684e+001  -6.742862e+001 
3884375000  -3.886606e+001  -7.523943e+001 
3887500000  -3.896025e+001  -8.095069e+001 
3890625000  -3.951645e+001  -8.651267e+001 
3893750000  -3.983121e+001  -8.789609e+001 
3896875000  -4.003834e+001  -9.016573e+001 
3900000000  -3.990366e+001  -9.322615e+001 
3903125000  -3.944692e+001  -9.825079e+001 
3906250000  -3.892794e+001  -1.024920e+002 
3909375000  -3.815457e+001  -1.122994e+002 
3912500000  -3.921879e+001  -1.217057e+002 
3915625000  -4.028550e+001  -1.192877e+002 
3918750000  -4.005695e+001  -1.206375e+002 
3921875000  -3.922199e+001  -1.257188e+002 
3925000000  -3.855528e+001  -1.313283e+002 
3928125000  -3.840019e+001  -1.413567e+002 
3931250000  -3.901413e+001  -1.486683e+002 
3934375000  -3.970980e+001  -1.490132e+002 
3937500000  -4.006832e+001  -1.495499e+002 
3940625000  -4.010564e+001  -1.516074e+002 
3943750000  -3.888481e+001  -1.571257e+002 
3946875000  -3.854231e+001  -1.650069e+002 
3950000000  -3.980156e+001  -1.738106e+002 
3953125000  -3.981405e+001  -1.712962e+002 
3956250000  -3.887978e+001  -1.722599e+002 
3959375000  -3.782947e+001  1.794708e+002 
3962500000  -3.774797e+001  1.720570e+002 
3965625000  -3.792422e+001  1.620062e+002 
3968750000  -3.878482e+001  1.545675e+002 
3971875000  -3.863523e+001  1.493037e+002 
3975000000  -3.858645e+001  1.464756e+002 
3978125000  -3.872404e+001  1.405902e+002 
3981250000  -3.845296e+001  1.351412e+002 
3984375000  -3.913446e+001  1.284408e+002 
3987500000  -3.957969e+001  1.234841e+002 
3990625000  -4.008912e+001  1.237063e+002 
3993750000  -4.002562e+001  1.201107e+002 
3996875000  -3.989761e+001  1.123525e+002 
4000000000  -4.065260e+001  1.086419e+002 
4003125000  -4.116322e+001  1.101392e+002 
4006250000  -3.914096e+001  1.072892e+002 
4009375000  -3.848428e+001  9.329636e+001 
4012500000  -4.010275e+001  8.495569e+001 
4015625000  -4.158588e+001  8.403154e+001 
4018750000  -4.139431e+001  8.314426e+001 
4021875000  -4.083633e+001  8.490301e+001 
4025000000  -4.034649e+001  7.702023e+001 
4028125000  -4.045104e+001  6.911250e+001 
4031250000  -4.119055e+001  6.643587e+001 
4034375000  -4.149045e+001  6.435310e+001 
4037500000  -4.104917e+001  6.606322e+001 
4040625000  -4.102958e+001  6.085404e+001 
4043750000  -4.114411e+001  5.685989e+001 
4046875000  -4.075043e+001  5.341862e+001 
4050000000  -4.103638e+001  5.058511e+001 
4053125000  -4.146422e+001  4.481603e+001 
4056250000  -4.144898e+001  4.985085e+001 
4059375000  -3.973749e+001  4.681063e+001 
4062500000  -3.888929e+001  3.975981e+001 
4065625000  -3.907837e+001  3.516019e+001 
4068750000  -3.842713e+001  2.691378e+001 
4071875000  -3.795136e+001  1.626819e+001 
4075000000  -3.830071e+001  8.856739e+000 
4078125000  -3.866328e+001  6.969489e+000 
4081250000  -3.832298e+001  1.869966e+000 
4084375000  -3.821931e+001  -8.473502e+000 
4087500000  -3.889487e+001  -1.455176e+001 
4090625000  -3.938702e+001  -1.744888e+001 
4093750000  -3.878949e+001  -1.918112e+001 
4096875000  -3.882793e+001  -2.748780e+001 
4100000000  -3.988156e+001  -3.692653e+001 
4103125000  -4.062655e+001  -3.405031e+001 
4106250000  -4.004802e+001  -2.956446e+001 
4109375000  -3.911711e+001  -3.435647e+001 
4112500000  -3.864368e+001  -4.361669e+001 
4115625000  -3.949448e+001  -5.058797e+001 
4118750000  -3.893587e+001  -5.441360e+001 
4121875000  -3.895036e+001  -6.311591e+001 
4125000000  -3.993954e+001  -6.941949e+001 
4128125000  -4.090216e+001  -6.649714e+001 
4131250000  -3.996754e+001  -6.141848e+001 
4134375000  -3.779352e+001  -7.024422e+001 
4137500000  -3.835271e+001  -8.988412e+001 
4140625000  -4.027064e+001  -9.582022e+001 
4143750000  -4.150186e+001  -9.189609e+001 
4146875000  -4.041490e+001  -8.849180e+001 
4150000000  -3.958188e+001  -9.673482e+001 
4153125000  -3.989588e+001  -1.046097e+002 
4156250000  -4.129381e+001  -1.073258e+002 
4159375000  -4.126833e+001  -1.034321e+002 
4162500000  -3.982535e+001  -1.012242e+002 
4165625000  -3.900151e+001  -1.080452e+002 
4168750000  -3.843382e+001  -1.168365e+002 
4171875000  -3.826676e+001  -1.284131e+002 
4175000000  -3.934907e+001  -1.351297e+002 
4178125000  -3.956646e+001  -1.338584e+002 
4181250000  -3.949983e+001  -1.381651e+002 
4184375000  -3.954721e+001  -1.438284e+002 
4187500000  -3.937121e+001  -1.480949e+002 
4190625000  -3.969323e+001  -1.568271e+002 
4193750000  -4.051640e+001  -1.618095e+002 
4196875000  -4.140562e+001  -1.632420e+002 
4200000000  -4.246995e+001  -1.582662e+002 
4203125000  -4.096300e+001  -1.455755e+002 
4206250000  -3.764735e+001  -1.545111e+002 
4209375000  -3.723125e+001  -1.755524e+002 
4212500000  -3.960801e+001  1.756241e+002 
4215625000  -4.038473e+001  -1.768210e+002 
4218750000  -3.834915e+001  -1.751772e+002 
4221875000  -3.687962e+001  1.739781e+002 
4225000000  -3.795633e+001  1.636208e+002 
4228125000  -3.814767e+001  1.637156e+002 
4231250000  -3.638483e+001  1.573719e+002 
4234375000  -3.646189e+001  1.460830e+002 
4237500000  -3.639253e+001  1.404745e+002 
4240625000  -3.646777e+001  1.281014e+002 
4243750000  -3.733377e+001  1.222188e+002 
4246875000  -3.850956e+001  1.194031e+002 
4250000000  -3.839920e+001  1.203916e+002 
4253125000  -3.831688e+001  1.179385e+002 
4256250000  -3.820837e+001  1.118569e+002 
4259375000  -3.769804e+001  1.062517e+002 
4262500000  -3.803946e+001  1.019375e+002 
4265625000  -3.790820e+001  1.014646e+002 
4268750000  -3.691138e+001  9.156449e+001 
4271875000  -3.692360e+001  8.417137e+001 
4275000000  -3.648523e+001  7.549633e+001 
4278125000  -3.758735e+001  6.336724e+001 
4281250000  -3.912785e+001  6.151279e+001 
4284375000  -3.919970e+001  5.925541e+001 
4287500000  -4.023387e+001  5.405885e+001 
4290625000  -4.097552e+001  6.422547e+001 
4293750000  -3.858921e+001  6.534269e+001 
4296875000  -3.795047e+001  5.351326e+001 
4300000000  -3.903318e+001  4.218102e+001 
4303125000  -3.984164e+001  4.547192e+001 
4306250000  -3.889816e+001  4.791028e+001 
4309375000  -3.758305e+001  4.051693e+001 
4312500000  -3.757938e+001  3.058071e+001 
4315625000  -3.802442e+001  2.390684e+001 
4318750000  -3.872861e+001  1.779078e+001 
4321875000  -3.875994e+001  2.091581e+001 
4325000000  -3.804451e+001  1.932819e+001 
4328125000  -3.730222e+001  7.213701e+000 
4331250000  -3.746301e+001  -1.492741e+000 
4334375000  -3.840311e+001  -9.423531e+000 
4337500000  -3.944396e+001  -1.008240e+001 
4340625000  -3.982841e+001  -3.173683e+000 
4343750000  -3.856162e+001  -6.319227e+000 
4346875000  -3.831414e+001  -1.643872e+001 
4350000000  -3.851451e+001  -2.637455e+001 
4353125000  -3.909002e+001  -3.086109e+001 
4356250000  -4.115776e+001  -3.041353e+001 
4359375000  -4.000420e+001  -1.354939e+001 
4362500000  -3.693651e+001  -2.317752e+001 
4365625000  -3.605470e+001  -3.985001e+001 
4368750000  -3.730702e+001  -4.958558e+001 
4371875000  -3.806004e+001  -4.962433e+001 
4375000000  -3.745940e+001  -5.290887e+001 
4378125000  -3.688203e+001  -6.053373e+001 
4381250000  -3.716951e+001  -6.913227e+001 
4384375000  -3.727998e+001  -7.744451e+001 
4387500000  -3.804763e+001  -8.184334e+001 
4390625000  -3.874910e+001  -8.288499e+001 
4393750000  -3.818468e+001  -8.234696e+001 
4396875000  -3.742270e+001  -8.894666e+001 
4400000000  -3.685057e+001  -9.657604e+001 
4403125000  -3.798324e+001  -1.058989e+002 
4406250000  -3.858540e+001  -1.097132e+002 
4409375000  -3.889776e+001  -1.140407e+002 
4412500000  -3.995117e+001  -1.158098e+002 
4415625000  -3.969271e+001  -1.115846e+002 
