!Agilent Technologies,E8363B,MY43030201,A.06.04.32
!Agilent E8363B: A.06.04.32
!Date: Tuesday, November 11, 2014 21:35:39
!Correction: S21(Response(S21)) 
!S1P File: Measurement: S21:
# Hz S  dB   R 50
3000000000  -4.048468e+001  7.168792e+001 
3003125000  -4.205992e+001  6.425971e+001 
3006250000  -4.232295e+001  6.384717e+001 
3009375000  -4.283243e+001  6.912337e+001 
3012500000  -4.165941e+001  6.240418e+001 
3015625000  -4.142363e+001  5.722732e+001 
3018750000  -4.190052e+001  5.868671e+001 
3021875000  -4.015901e+001  5.848375e+001 
3025000000  -3.888569e+001  5.420796e+001 
3028125000  -3.791381e+001  4.325140e+001 
3031250000  -3.694802e+001  3.203255e+001 
3034375000  -3.676082e+001  1.744724e+001 
3037500000  -3.758744e+001  7.684659e+000 
3040625000  -3.882608e+001  1.606141e+000 
3043750000  -3.917821e+001  -4.207977e+000 
3046875000  -3.983957e+001  -1.053282e+001 
3050000000  -4.102276e+001  -1.496295e+001 
3053125000  -4.068316e+001  -1.057224e+001 
3056250000  -4.048163e+001  -6.867909e+000 
3059375000  -3.991892e+001  -9.091518e+000 
3062500000  -3.821427e+001  -1.305663e+001 
3065625000  -3.784176e+001  -2.323874e+001 
3068750000  -3.741424e+001  -3.131696e+001 
3071875000  -3.767736e+001  -3.332409e+001 
3075000000  -3.688614e+001  -4.117350e+001 
3078125000  -3.708507e+001  -4.696726e+001 
3081250000  -3.725639e+001  -5.217502e+001 
3084375000  -3.643266e+001  -5.769160e+001 
3087500000  -3.649878e+001  -6.448286e+001 
3090625000  -3.600664e+001  -7.580234e+001 
3093750000  -3.700292e+001  -8.475082e+001 
3096875000  -3.733759e+001  -8.958266e+001 
3100000000  -3.723764e+001  -9.310548e+001 
3103125000  -3.754696e+001  -9.609852e+001 
3106250000  -3.723599e+001  -1.011164e+002 
3109375000  -3.729235e+001  -1.046691e+002 
3112500000  -3.710529e+001  -1.110654e+002 
3115625000  -3.720671e+001  -1.156573e+002 
3118750000  -3.728002e+001  -1.183674e+002 
3121875000  -3.667696e+001  -1.291827e+002 
3125000000  -3.847173e+001  -1.320459e+002 
3128125000  -3.847509e+001  -1.252249e+002 
3131250000  -3.605564e+001  -1.315865e+002 
3134375000  -3.544033e+001  -1.479495e+002 
3137500000  -3.608704e+001  -1.609393e+002 
3140625000  -3.719484e+001  -1.636048e+002 
3143750000  -3.815255e+001  -1.654868e+002 
3146875000  -3.765897e+001  -1.642105e+002 
3150000000  -3.692596e+001  -1.683629e+002 
3153125000  -3.717887e+001  -1.754319e+002 
3156250000  -3.797880e+001  -1.710387e+002 
3159375000  -3.568002e+001  -1.735351e+002 
3162500000  -3.421719e+001  1.706761e+002 
3165625000  -3.551642e+001  1.578273e+002 
3168750000  -3.542113e+001  1.570711e+002 
3171875000  -3.497760e+001  1.497423e+002 
3175000000  -3.538109e+001  1.414076e+002 
3178125000  -3.484917e+001  1.390969e+002 
3181250000  -3.435995e+001  1.305965e+002 
3184375000  -3.419464e+001  1.189258e+002 
3187500000  -3.557239e+001  1.035230e+002 
3190625000  -3.726652e+001  9.740901e+001 
3193750000  -3.734769e+001  1.041682e+002 
3196875000  -3.742220e+001  1.044233e+002 
3200000000  -3.622635e+001  9.978271e+001 
3203125000  -3.585513e+001  9.181325e+001 
3206250000  -3.613194e+001  8.383737e+001 
3209375000  -3.579370e+001  7.590031e+001 
3212500000  -3.637511e+001  6.877113e+001 
3215625000  -3.596989e+001  6.628022e+001 
3218750000  -3.676591e+001  5.456075e+001 
3221875000  -3.708910e+001  4.766584e+001 
3225000000  -3.704586e+001  4.469006e+001 
3228125000  -3.781326e+001  3.768533e+001 
3231250000  -3.811065e+001  3.557400e+001 
3234375000  -3.788551e+001  3.096571e+001 
3237500000  -3.801008e+001  2.772800e+001 
3240625000  -3.760489e+001  2.346903e+001 
3243750000  -3.771239e+001  1.148583e+001 
3246875000  -3.836517e+001  5.525739e+000 
3250000000  -3.872821e+001  1.379144e+000 
3253125000  -3.901343e+001  -2.605311e+000 
3256250000  -3.859496e+001  -1.069775e+001 
3259375000  -3.912666e+001  -2.084950e+001 
3262500000  -4.059510e+001  -2.380053e+001 
3265625000  -4.113272e+001  -2.144703e+001 
3268750000  -4.109063e+001  -2.021846e+001 
3271875000  -4.060453e+001  -2.442027e+001 
3275000000  -4.014481e+001  -3.270671e+001 
3278125000  -4.088886e+001  -3.707763e+001 
3281250000  -4.093635e+001  -3.890766e+001 
3284375000  -4.049830e+001  -4.494498e+001 
3287500000  -4.103909e+001  -5.002169e+001 
3290625000  -4.106759e+001  -5.761131e+001 
3293750000  -4.111320e+001  -6.240277e+001 
3296875000  -4.255207e+001  -6.432967e+001 
3300000000  -4.166643e+001  -6.402602e+001 
3303125000  -4.080266e+001  -7.056695e+001 
3306250000  -4.081081e+001  -7.682304e+001 
3309375000  -4.062146e+001  -8.623402e+001 
3312500000  -4.093933e+001  -9.771359e+001 
3315625000  -4.226480e+001  -1.033855e+002 
3318750000  -4.360955e+001  -1.078450e+002 
3321875000  -4.504831e+001  -1.026891e+002 
3325000000  -4.425778e+001  -9.993703e+001 
3328125000  -4.390632e+001  -9.847375e+001 
3331250000  -4.204346e+001  -9.562952e+001 
3334375000  -3.957423e+001  -1.099865e+002 
3337500000  -4.023886e+001  -1.317885e+002 
3340625000  -4.235641e+001  -1.412565e+002 
3343750000  -4.407008e+001  -1.374830e+002 
3346875000  -4.323782e+001  -1.414132e+002 
3350000000  -4.299234e+001  -1.427043e+002 
3353125000  -4.293178e+001  -1.509561e+002 
3356250000  -4.260588e+001  -1.608716e+002 
3359375000  -4.343275e+001  -1.707781e+002 
3362500000  -4.447102e+001  -1.768505e+002 
3365625000  -4.456666e+001  1.794445e+002 
3368750000  -4.515246e+001  1.760183e+002 
3371875000  -4.619276e+001  1.723278e+002 
3375000000  -4.761976e+001  1.681991e+002 
3378125000  -4.818820e+001  1.663671e+002 
3381250000  -4.922930e+001  -1.793571e+002 
3384375000  -4.630192e+001  -1.634384e+002 
3387500000  -4.399926e+001  1.738970e+002 
3390625000  -4.656883e+001  1.511957e+002 
3393750000  -4.728041e+001  1.528533e+002 
3396875000  -4.581967e+001  1.539756e+002 
3400000000  -4.632755e+001  1.367784e+002 
3403125000  -4.666128e+001  1.350055e+002 
3406250000  -4.748491e+001  1.301705e+002 
3409375000  -4.827771e+001  1.244918e+002 
3412500000  -4.904580e+001  1.153481e+002 
3415625000  -4.992252e+001  1.150428e+002 
3418750000  -5.029974e+001  1.211201e+002 
3421875000  -5.131384e+001  1.193803e+002 
3425000000  -5.018478e+001  1.194720e+002 
3428125000  -4.981996e+001  1.138827e+002 
3431250000  -5.001563e+001  1.065062e+002 
3434375000  -5.125124e+001  1.043925e+002 
3437500000  -5.282251e+001  1.017592e+002 
3440625000  -5.208018e+001  1.026603e+002 
3443750000  -5.037062e+001  1.048226e+002 
3446875000  -5.048501e+001  9.941438e+001 
3450000000  -5.043713e+001  9.085226e+001 
3453125000  -5.088491e+001  8.267581e+001 
3456250000  -5.179101e+001  7.905585e+001 
3459375000  -5.332672e+001  8.259582e+001 
3462500000  -5.189284e+001  8.287220e+001 
3465625000  -5.141487e+001  7.562440e+001 
3468750000  -5.229855e+001  8.131094e+001 
3471875000  -5.212523e+001  7.249833e+001 
3475000000  -5.023550e+001  6.992220e+001 
3478125000  -5.090248e+001  5.872652e+001 
3481250000  -5.118478e+001  5.870117e+001 
3484375000  -5.348006e+001  6.663531e+001 
3487500000  -5.121164e+001  6.097175e+001 
3490625000  -5.055017e+001  4.978629e+001 
3493750000  -5.132975e+001  4.514219e+001 
3496875000  -5.139728e+001  4.803689e+001 
3500000000  -5.200073e+001  4.649554e+001 
3503125000  -5.048233e+001  4.553088e+001 
3506250000  -4.905108e+001  3.508301e+001 
3509375000  -4.969472e+001  2.367655e+001 
3512500000  -4.997828e+001  9.767348e+000 
3515625000  -5.110066e+001  8.801685e+000 
3518750000  -5.252575e+001  1.135259e+001 
3521875000  -5.229519e+001  5.002834e-001 
3525000000  -5.363211e+001  -1.974044e+000 
3528125000  -5.273317e+001  6.166440e+000 
3531250000  -5.159024e+001  -4.267930e+000 
3534375000  -5.164236e+001  -1.986579e+001 
3537500000  -5.312674e+001  -2.654269e+001 
3540625000  -5.474557e+001  -3.077520e+001 
3543750000  -5.555816e+001  -1.973477e+001 
3546875000  -5.560939e+001  -9.577770e+000 
3550000000  -5.435342e+001  -1.512650e+001 
3553125000  -5.313804e+001  -3.591003e+001 
3556250000  -5.577494e+001  -3.810878e+001 
3559375000  -5.615711e+001  -3.361390e+001 
3562500000  -5.606137e+001  -4.965212e+001 
3565625000  -5.631256e+001  -4.687328e+001 
3568750000  -5.749108e+001  -4.220818e+001 
3571875000  -5.723488e+001  -4.588362e+001 
3575000000  -5.899240e+001  -4.068767e+001 
3578125000  -5.668549e+001  -3.956910e+001 
3581250000  -5.850978e+001  -3.970494e+001 
3584375000  -5.728251e+001  -4.605466e+001 
3587500000  -5.726550e+001  -4.757402e+001 
3590625000  -5.847131e+001  -4.865910e+001 
3593750000  -5.897574e+001  -4.678428e+001 
3596875000  -5.919164e+001  -5.259781e+001 
3600000000  -5.780015e+001  -4.515430e+001 
3603125000  -5.759477e+001  -6.881015e+001 
3606250000  -5.777063e+001  -5.395363e+001 
3609375000  -5.763093e+001  -5.549913e+001 
3612500000  -5.755387e+001  -5.318166e+001 
3615625000  -5.860788e+001  -6.646983e+001 
3618750000  -5.804855e+001  -4.140615e+001 
3621875000  -5.850822e+001  -4.575668e+001 
3625000000  -5.969857e+001  -4.799466e+001 
3628125000  -5.614231e+001  -4.294720e+001 
3631250000  -5.797192e+001  -5.565378e+001 
3634375000  -5.788698e+001  -4.262326e+001 
3637500000  -5.645300e+001  -4.573017e+001 
3640625000  -5.439602e+001  -3.675276e+001 
3643750000  -5.284489e+001  -4.639526e+001 
3646875000  -5.282051e+001  -6.526101e+001 
3650000000  -5.247939e+001  -5.600882e+001 
3653125000  -5.206940e+001  -6.339017e+001 
3656250000  -5.241628e+001  -6.708279e+001 
3659375000  -5.091260e+001  -6.919444e+001 
3662500000  -5.054412e+001  -6.886192e+001 
3665625000  -4.979658e+001  -7.425418e+001 
3668750000  -4.788818e+001  -6.987894e+001 
3671875000  -4.728466e+001  -8.379357e+001 
3675000000  -4.743919e+001  -9.202383e+001 
3678125000  -4.773721e+001  -9.959859e+001 
3681250000  -4.669655e+001  -1.043737e+002 
3684375000  -4.646544e+001  -1.081740e+002 
3687500000  -4.660866e+001  -1.129804e+002 
3690625000  -4.651606e+001  -1.189106e+002 
3693750000  -4.738097e+001  -1.215420e+002 
3696875000  -4.648620e+001  -1.208415e+002 
3700000000  -4.552370e+001  -1.253694e+002 
3703125000  -4.519799e+001  -1.336474e+002 
3706250000  -4.597712e+001  -1.347508e+002 
3709375000  -4.453368e+001  -1.316800e+002 
3712500000  -4.363369e+001  -1.402833e+002 
3715625000  -4.190675e+001  -1.485717e+002 
3718750000  -4.183484e+001  -1.537658e+002 
3721875000  -4.138357e+001  -1.634907e+002 
3725000000  -4.179536e+001  -1.713429e+002 
3728125000  -4.163452e+001  -1.726039e+002 
3731250000  -4.079298e+001  1.791929e+002 
3734375000  -4.018775e+001  1.731136e+002 
3737500000  -4.096550e+001  1.623754e+002 
3740625000  -4.088853e+001  1.578497e+002 
3743750000  -4.028669e+001  1.509979e+002 
3746875000  -4.055956e+001  1.445419e+002 
3750000000  -4.096454e+001  1.410642e+002 
3753125000  -4.050454e+001  1.374045e+002 
3756250000  -4.061535e+001  1.339611e+002 
3759375000  -4.025898e+001  1.282814e+002 
3762500000  -4.026174e+001  1.204831e+002 
3765625000  -4.081140e+001  1.178278e+002 
3768750000  -4.013210e+001  1.168748e+002 
3771875000  -3.830018e+001  1.101423e+002 
3775000000  -3.842047e+001  9.780788e+001 
3778125000  -3.901835e+001  9.011417e+001 
3781250000  -3.908828e+001  8.617199e+001 
3784375000  -3.888822e+001  8.244700e+001 
3787500000  -3.828877e+001  7.559378e+001 
3790625000  -3.928999e+001  6.671838e+001 
3793750000  -3.900066e+001  6.348222e+001 
3796875000  -3.806071e+001  5.806343e+001 
3800000000  -3.635643e+001  5.455897e+001 
3803125000  -3.800526e+001  4.113449e+001 
3806250000  -3.885974e+001  3.683641e+001 
3809375000  -3.846502e+001  3.394038e+001 
3812500000  -3.842425e+001  2.365848e+001 
3815625000  -3.954147e+001  1.520359e+001 
3818750000  -4.050418e+001  1.642583e+001 
3821875000  -3.985287e+001  2.505183e+001 
3825000000  -3.806990e+001  2.209193e+001 
3828125000  -3.690672e+001  1.593134e+000 
3831250000  -3.827990e+001  -1.270622e+001 
3834375000  -4.067252e+001  -1.184491e+001 
3837500000  -4.065474e+001  -8.292139e+000 
3840625000  -3.895498e+001  -1.141011e+001 
3843750000  -3.834831e+001  -2.665233e+001 
3846875000  -3.985036e+001  -3.073413e+001 
3850000000  -4.066539e+001  -2.665293e+001 
3853125000  -3.972729e+001  -2.581178e+001 
3856250000  -3.939497e+001  -3.419910e+001 
3859375000  -3.845937e+001  -4.140702e+001 
3862500000  -3.831528e+001  -5.259959e+001 
3865625000  -3.899872e+001  -5.659756e+001 
3868750000  -3.883463e+001  -5.832685e+001 
3871875000  -3.801484e+001  -6.421377e+001 
3875000000  -3.852822e+001  -7.554327e+001 
3878125000  -3.951107e+001  -7.690690e+001 
3881250000  -3.923525e+001  -7.854061e+001 
3884375000  -3.859327e+001  -8.573138e+001 
3887500000  -3.914235e+001  -9.178442e+001 
3890625000  -3.944779e+001  -9.561475e+001 
3893750000  -3.987246e+001  -9.866772e+001 
3896875000  -4.031162e+001  -1.002398e+002 
3900000000  -4.008767e+001  -1.033504e+002 
3903125000  -3.945415e+001  -1.099982e+002 
3906250000  -3.879565e+001  -1.113971e+002 
3909375000  -3.800961e+001  -1.210575e+002 
3912500000  -3.900120e+001  -1.302665e+002 
3915625000  -4.042347e+001  -1.309863e+002 
3918750000  -4.007722e+001  -1.325151e+002 
3921875000  -3.923333e+001  -1.362652e+002 
3925000000  -3.865722e+001  -1.412375e+002 
3928125000  -3.839976e+001  -1.534343e+002 
3931250000  -3.902663e+001  -1.581048e+002 
3934375000  -3.960186e+001  -1.602260e+002 
3937500000  -3.993808e+001  -1.615761e+002 
3940625000  -4.000624e+001  -1.637798e+002 
3943750000  -3.860331e+001  -1.674506e+002 
3946875000  -3.842023e+001  -1.762127e+002 
3950000000  -3.956100e+001  1.750662e+002 
3953125000  -4.010696e+001  1.793663e+002 
3956250000  -3.871938e+001  1.776150e+002 
3959375000  -3.782417e+001  1.690414e+002 
3962500000  -3.755887e+001  1.619560e+002 
3965625000  -3.790465e+001  1.533678e+002 
3968750000  -3.876367e+001  1.450037e+002 
3971875000  -3.845684e+001  1.382312e+002 
3975000000  -3.841179e+001  1.366408e+002 
3978125000  -3.855574e+001  1.305314e+002 
3981250000  -3.852349e+001  1.242993e+002 
3984375000  -3.924051e+001  1.173982e+002 
3987500000  -3.964661e+001  1.141670e+002 
3990625000  -3.990407e+001  1.118106e+002 
3993750000  -3.999582e+001  1.076379e+002 
3996875000  -3.985424e+001  1.026049e+002 
4000000000  -4.072478e+001  9.590775e+001 
4003125000  -4.091506e+001  9.839639e+001 
4006250000  -3.922707e+001  9.667014e+001 
4009375000  -3.862225e+001  8.292939e+001 
4012500000  -3.999041e+001  7.401413e+001 
4015625000  -4.151635e+001  7.475857e+001 
4018750000  -4.119149e+001  7.486636e+001 
4021875000  -4.046430e+001  7.187163e+001 
4025000000  -4.032342e+001  6.519909e+001 
4028125000  -4.046886e+001  6.008435e+001 
4031250000  -4.119280e+001  5.413636e+001 
4034375000  -4.158055e+001  5.417002e+001 
4037500000  -4.085824e+001  5.378889e+001 
4040625000  -4.070267e+001  4.992020e+001 
4043750000  -4.093646e+001  4.526063e+001 
4046875000  -4.075029e+001  4.313373e+001 
4050000000  -4.034625e+001  3.914028e+001 
4053125000  -4.143654e+001  3.609172e+001 
4056250000  -4.139128e+001  4.079358e+001 
4059375000  -3.945327e+001  3.691599e+001 
4062500000  -3.898109e+001  2.802380e+001 
4065625000  -3.853461e+001  2.288974e+001 
4068750000  -3.811388e+001  1.575426e+001 
4071875000  -3.772282e+001  6.438602e+000 
4075000000  -3.826275e+001  -1.138293e+000 
4078125000  -3.867865e+001  -3.889808e+000 
4081250000  -3.804773e+001  -8.157005e+000 
4084375000  -3.790865e+001  -1.950932e+001 
4087500000  -3.870649e+001  -2.435356e+001 
4090625000  -3.912329e+001  -2.723668e+001 
4093750000  -3.865139e+001  -2.931252e+001 
4096875000  -3.866750e+001  -3.976076e+001 
4100000000  -3.991357e+001  -4.715876e+001 
4103125000  -4.058395e+001  -4.417714e+001 
4106250000  -3.986370e+001  -4.190108e+001 
4109375000  -3.903766e+001  -4.567896e+001 
4112500000  -3.874440e+001  -5.575937e+001 
4115625000  -3.931749e+001  -6.151948e+001 
4118750000  -3.919186e+001  -6.541726e+001 
4121875000  -3.906689e+001  -7.506487e+001 
4125000000  -3.995811e+001  -8.011112e+001 
4128125000  -4.082067e+001  -7.677232e+001 
4131250000  -3.957526e+001  -7.206698e+001 
4134375000  -3.768868e+001  -8.246689e+001 
4137500000  -3.823975e+001  -1.024479e+002 
4140625000  -4.039750e+001  -1.081288e+002 
4143750000  -4.161629e+001  -1.041941e+002 
4146875000  -4.034582e+001  -9.908157e+001 
4150000000  -3.948486e+001  -1.056457e+002 
4153125000  -4.017275e+001  -1.170173e+002 
4156250000  -4.141174e+001  -1.170162e+002 
4159375000  -4.108363e+001  -1.142252e+002 
4162500000  -3.994880e+001  -1.113472e+002 
4165625000  -3.868573e+001  -1.206104e+002 
4168750000  -3.834906e+001  -1.291856e+002 
4171875000  -3.846315e+001  -1.387959e+002 
4175000000  -3.923520e+001  -1.457789e+002 
4178125000  -3.958943e+001  -1.460149e+002 
4181250000  -3.935728e+001  -1.503918e+002 
4184375000  -3.955701e+001  -1.552747e+002 
4187500000  -3.927827e+001  -1.613050e+002 
4190625000  -3.957828e+001  -1.686429e+002 
4193750000  -4.072939e+001  -1.724021e+002 
4196875000  -4.133754e+001  -1.714265e+002 
4200000000  -4.249354e+001  -1.690949e+002 
4203125000  -4.056807e+001  -1.559569e+002 
4206250000  -3.732581e+001  -1.633489e+002 
4209375000  -3.752819e+001  1.727723e+002 
4212500000  -3.984346e+001  1.654236e+002 
4215625000  -3.997213e+001  1.734505e+002 
4218750000  -3.824474e+001  1.725684e+002 
4221875000  -3.676446e+001  1.644935e+002 
4225000000  -3.795600e+001  1.515475e+002 
4228125000  -3.782875e+001  1.535068e+002 
4231250000  -3.630807e+001  1.461971e+002 
4234375000  -3.641795e+001  1.360607e+002 
4237500000  -3.605121e+001  1.295001e+002 
4240625000  -3.621512e+001  1.185673e+002 
4243750000  -3.761032e+001  1.085435e+002 
4246875000  -3.864679e+001  1.083002e+002 
4250000000  -3.845818e+001  1.090050e+002 
4253125000  -3.827338e+001  1.064848e+002 
4256250000  -3.800149e+001  1.022125e+002 
4259375000  -3.770272e+001  9.562514e+001 
4262500000  -3.779560e+001  9.112830e+001 
4265625000  -3.796864e+001  8.969622e+001 
4268750000  -3.685087e+001  8.128035e+001 
4271875000  -3.701888e+001  7.355033e+001 
4275000000  -3.661609e+001  6.376863e+001 
4278125000  -3.786676e+001  5.192554e+001 
4281250000  -3.929893e+001  5.026135e+001 
4284375000  -3.915813e+001  4.701352e+001 
4287500000  -4.002669e+001  4.561417e+001 
4290625000  -4.068048e+001  5.452181e+001 
4293750000  -3.836953e+001  5.421486e+001 
4296875000  -3.774463e+001  4.014312e+001 
4300000000  -3.912640e+001  3.134169e+001 
4303125000  -3.985055e+001  3.475329e+001 
4306250000  -3.885053e+001  3.628296e+001 
4309375000  -3.779116e+001  3.067641e+001 
4312500000  -3.774842e+001  1.999094e+001 
4315625000  -3.770622e+001  1.194335e+001 
4318750000  -3.853223e+001  8.363429e+000 
4321875000  -3.873257e+001  8.003616e+000 
4325000000  -3.790652e+001  7.111218e+000 
4328125000  -3.724648e+001  -2.655785e+000 
4331250000  -3.725524e+001  -1.435732e+001 
4334375000  -3.827939e+001  -1.957960e+001 
4337500000  -3.947986e+001  -2.062870e+001 
4340625000  -3.965995e+001  -1.589443e+001 
4343750000  -3.850994e+001  -2.033112e+001 
4346875000  -3.865953e+001  -2.793516e+001 
4350000000  -3.827845e+001  -3.683925e+001 
4353125000  -3.903472e+001  -4.447408e+001 
4356250000  -4.128677e+001  -3.951411e+001 
4359375000  -3.983474e+001  -2.495841e+001 
4362500000  -3.658112e+001  -3.417790e+001 
4365625000  -3.586925e+001  -5.295491e+001 
4368750000  -3.729658e+001  -6.124899e+001 
4371875000  -3.807625e+001  -6.132801e+001 
4375000000  -3.724909e+001  -6.620998e+001 
4378125000  -3.690747e+001  -7.420828e+001 
4381250000  -3.711450e+001  -7.939844e+001 
4384375000  -3.710426e+001  -8.851101e+001 
4387500000  -3.818767e+001  -9.336064e+001 
4390625000  -3.860528e+001  -9.321008e+001 
4393750000  -3.798036e+001  -9.387740e+001 
4396875000  -3.731969e+001  -1.003111e+002 
4400000000  -3.688075e+001  -1.080798e+002 
4403125000  -3.794996e+001  -1.184531e+002 
4406250000  -3.817839e+001  -1.207471e+002 
4409375000  -3.868374e+001  -1.245102e+002 
4412500000  -3.983080e+001  -1.303734e+002 
4415625000  -3.950035e+001  -1.232911e+002 
