!Agilent Technologies,E8363B,MY43030201,A.06.04.32
!Agilent E8363B: A.06.04.32
!Date: Tuesday, November 11, 2014 21:36:23
!Correction: S21(Response(S21)) 
!S1P File: Measurement: S21:
# Hz S  dB   R 50
3000000000  -4.061176e+001  7.165575e+001 
3003125000  -4.212312e+001  6.366716e+001 
3006250000  -4.215240e+001  6.187529e+001 
3009375000  -4.278489e+001  6.778168e+001 
3012500000  -4.155339e+001  6.206163e+001 
3015625000  -4.141900e+001  5.623808e+001 
3018750000  -4.190501e+001  5.734979e+001 
3021875000  -4.027785e+001  5.736443e+001 
3025000000  -3.875033e+001  5.404573e+001 
3028125000  -3.792020e+001  4.366005e+001 
3031250000  -3.691755e+001  3.120720e+001 
3034375000  -3.684552e+001  1.717731e+001 
3037500000  -3.771434e+001  7.099269e+000 
3040625000  -3.870115e+001  2.778682e+000 
3043750000  -3.926365e+001  -5.303812e+000 
3046875000  -3.978545e+001  -1.118261e+001 
3050000000  -4.102195e+001  -1.529840e+001 
3053125000  -4.046854e+001  -1.057493e+001 
3056250000  -4.040796e+001  -8.102528e+000 
3059375000  -3.987745e+001  -9.280920e+000 
3062500000  -3.819572e+001  -1.439175e+001 
3065625000  -3.787196e+001  -2.403275e+001 
3068750000  -3.770177e+001  -3.196153e+001 
3071875000  -3.761749e+001  -3.411690e+001 
3075000000  -3.696260e+001  -4.131915e+001 
3078125000  -3.725370e+001  -4.768285e+001 
3081250000  -3.718135e+001  -5.352152e+001 
3084375000  -3.629663e+001  -5.753726e+001 
3087500000  -3.642380e+001  -6.477572e+001 
3090625000  -3.596973e+001  -7.738937e+001 
3093750000  -3.699687e+001  -8.482537e+001 
3096875000  -3.729246e+001  -8.946473e+001 
3100000000  -3.715965e+001  -9.332941e+001 
3103125000  -3.751454e+001  -9.687309e+001 
3106250000  -3.720055e+001  -1.022142e+002 
3109375000  -3.728820e+001  -1.059943e+002 
3112500000  -3.709914e+001  -1.115565e+002 
3115625000  -3.719184e+001  -1.163522e+002 
3118750000  -3.725130e+001  -1.197014e+002 
3121875000  -3.659740e+001  -1.302630e+002 
3125000000  -3.856666e+001  -1.328273e+002 
3128125000  -3.846578e+001  -1.259485e+002 
3131250000  -3.609339e+001  -1.319138e+002 
3134375000  -3.544902e+001  -1.499708e+002 
3137500000  -3.598957e+001  -1.618121e+002 
3140625000  -3.724852e+001  -1.641124e+002 
3143750000  -3.808465e+001  -1.671111e+002 
3146875000  -3.746749e+001  -1.650963e+002 
3150000000  -3.688158e+001  -1.694276e+002 
3153125000  -3.721888e+001  -1.766437e+002 
3156250000  -3.791470e+001  -1.724472e+002 
3159375000  -3.565620e+001  -1.748769e+002 
3162500000  -3.428689e+001  1.704357e+002 
3165625000  -3.562069e+001  1.575650e+002 
3168750000  -3.538820e+001  1.558598e+002 
3171875000  -3.493338e+001  1.485199e+002 
3175000000  -3.551767e+001  1.400068e+002 
3178125000  -3.503489e+001  1.381005e+002 
3181250000  -3.433443e+001  1.296879e+002 
3184375000  -3.417796e+001  1.178922e+002 
3187500000  -3.543023e+001  1.034943e+002 
3190625000  -3.728203e+001  9.803954e+001 
3193750000  -3.749411e+001  1.027101e+002 
3196875000  -3.737518e+001  1.032143e+002 
3200000000  -3.623119e+001  9.890318e+001 
3203125000  -3.589482e+001  9.001318e+001 
3206250000  -3.605051e+001  8.221267e+001 
3209375000  -3.574802e+001  7.447031e+001 
3212500000  -3.625817e+001  6.874093e+001 
3215625000  -3.599149e+001  6.500647e+001 
3218750000  -3.687707e+001  5.412523e+001 
3221875000  -3.724628e+001  4.834974e+001 
3225000000  -3.700403e+001  4.399143e+001 
3228125000  -3.776962e+001  3.571962e+001 
3231250000  -3.824023e+001  3.401512e+001 
3234375000  -3.778777e+001  3.103609e+001 
3237500000  -3.795062e+001  2.704637e+001 
3240625000  -3.755571e+001  2.174375e+001 
3243750000  -3.765775e+001  1.155792e+001 
3246875000  -3.807461e+001  3.663676e+000 
3250000000  -3.878938e+001  6.023318e-001 
3253125000  -3.894442e+001  -3.415944e+000 
3256250000  -3.847268e+001  -1.122834e+001 
3259375000  -3.906158e+001  -2.076560e+001 
3262500000  -4.069623e+001  -2.520723e+001 
3265625000  -4.118042e+001  -2.228885e+001 
3268750000  -4.115565e+001  -2.148971e+001 
3271875000  -4.045280e+001  -2.421161e+001 
3275000000  -4.002293e+001  -3.489312e+001 
3278125000  -4.071880e+001  -3.793316e+001 
3281250000  -4.110339e+001  -3.984458e+001 
3284375000  -4.056152e+001  -4.628990e+001 
3287500000  -4.091364e+001  -5.027814e+001 
3290625000  -4.136650e+001  -5.731785e+001 
3293750000  -4.111402e+001  -6.361584e+001 
3296875000  -4.228609e+001  -6.383066e+001 
3300000000  -4.182574e+001  -6.405070e+001 
3303125000  -4.111982e+001  -7.054298e+001 
3306250000  -4.082919e+001  -7.801376e+001 
3309375000  -4.028680e+001  -8.599605e+001 
3312500000  -4.088252e+001  -9.848447e+001 
3315625000  -4.237053e+001  -1.030316e+002 
3318750000  -4.367666e+001  -1.084774e+002 
3321875000  -4.503625e+001  -1.041448e+002 
3325000000  -4.472047e+001  -1.011467e+002 
3328125000  -4.385879e+001  -9.834687e+001 
3331250000  -4.217525e+001  -9.701518e+001 
3334375000  -3.982530e+001  -1.127348e+002 
3337500000  -4.015269e+001  -1.329177e+002 
3340625000  -4.207754e+001  -1.408104e+002 
3343750000  -4.415176e+001  -1.406612e+002 
3346875000  -4.336595e+001  -1.421729e+002 
3350000000  -4.307275e+001  -1.441996e+002 
3353125000  -4.279776e+001  -1.524065e+002 
3356250000  -4.248100e+001  -1.616571e+002 
3359375000  -4.327636e+001  -1.718221e+002 
3362500000  -4.413824e+001  -1.751781e+002 
3365625000  -4.453091e+001  1.787842e+002 
3368750000  -4.518979e+001  1.754987e+002 
3371875000  -4.601899e+001  1.722174e+002 
3375000000  -4.780994e+001  1.656357e+002 
3378125000  -4.804217e+001  1.669695e+002 
3381250000  -4.939615e+001  1.783943e+002 
3384375000  -4.617260e+001  -1.667285e+002 
3387500000  -4.333209e+001  1.698907e+002 
3390625000  -4.561401e+001  1.497042e+002 
3393750000  -4.704361e+001  1.520823e+002 
3396875000  -4.623928e+001  1.501674e+002 
3400000000  -4.615020e+001  1.374611e+002 
3403125000  -4.685218e+001  1.349475e+002 
3406250000  -4.748882e+001  1.298477e+002 
3409375000  -4.783958e+001  1.213670e+002 
3412500000  -4.896435e+001  1.172483e+002 
3415625000  -4.961046e+001  1.175901e+002 
3418750000  -5.064988e+001  1.192481e+002 
3421875000  -5.101157e+001  1.219426e+002 
3425000000  -4.991333e+001  1.189085e+002 
3428125000  -5.005285e+001  1.139483e+002 
3431250000  -5.018326e+001  1.044771e+002 
3434375000  -5.112049e+001  9.524424e+001 
3437500000  -5.206609e+001  1.025986e+002 
3440625000  -5.159666e+001  1.054496e+002 
3443750000  -5.033151e+001  1.004605e+002 
3446875000  -5.097252e+001  9.859823e+001 
3450000000  -5.033185e+001  9.010282e+001 
3453125000  -5.094924e+001  8.176511e+001 
3456250000  -5.190451e+001  8.229545e+001 
3459375000  -5.223197e+001  8.794135e+001 
3462500000  -5.236708e+001  8.695963e+001 
3465625000  -5.125595e+001  7.512148e+001 
3468750000  -5.233949e+001  7.501762e+001 
3471875000  -5.149483e+001  7.746715e+001 
3475000000  -5.111198e+001  6.826383e+001 
3478125000  -5.096579e+001  6.187885e+001 
3481250000  -5.246042e+001  6.072343e+001 
3484375000  -5.202668e+001  6.137822e+001 
3487500000  -5.136472e+001  6.360770e+001 
3490625000  -5.071799e+001  5.183202e+001 
3493750000  -5.145727e+001  4.598394e+001 
3496875000  -5.138428e+001  4.765118e+001 
3500000000  -5.255857e+001  4.213771e+001 
3503125000  -5.074396e+001  4.493206e+001 
3506250000  -4.953906e+001  3.459914e+001 
3509375000  -4.986678e+001  2.474846e+001 
3512500000  -5.019496e+001  1.136356e+001 
3515625000  -5.166753e+001  1.179899e+001 
3518750000  -5.269208e+001  6.812876e+000 
3521875000  -5.294832e+001  1.660100e+000 
3525000000  -5.332470e+001  -5.245333e+000 
3528125000  -5.199146e+001  1.055090e+001 
3531250000  -5.232288e+001  -1.315356e+001 
3534375000  -5.237235e+001  -1.696126e+001 
3537500000  -5.324755e+001  -2.828029e+001 
3540625000  -5.479857e+001  -2.033310e+001 
3543750000  -5.659972e+001  -1.456979e+001 
3546875000  -5.525520e+001  -1.384097e+001 
3550000000  -5.396151e+001  -2.255295e+001 
3553125000  -5.396845e+001  -3.265648e+001 
3556250000  -5.550438e+001  -4.098284e+001 
3559375000  -5.473087e+001  -4.135907e+001 
3562500000  -5.526587e+001  -5.164646e+001 
3565625000  -5.683194e+001  -5.251246e+001 
3568750000  -5.718360e+001  -4.220594e+001 
3571875000  -5.812927e+001  -4.168143e+001 
3575000000  -5.739955e+001  -5.024871e+001 
3578125000  -5.805161e+001  -3.761952e+001 
3581250000  -5.880827e+001  -4.407266e+001 
3584375000  -5.634673e+001  -3.893963e+001 
3587500000  -5.676114e+001  -5.672087e+001 
3590625000  -6.041328e+001  -5.829255e+001 
3593750000  -5.810646e+001  -4.800980e+001 
3596875000  -5.810748e+001  -3.928899e+001 
3600000000  -5.644835e+001  -4.347971e+001 
3603125000  -5.708777e+001  -6.088998e+001 
3606250000  -5.748582e+001  -6.668777e+001 
3609375000  -5.803989e+001  -4.705179e+001 
3612500000  -5.992632e+001  -5.393651e+001 
3615625000  -5.957951e+001  -6.917443e+001 
3618750000  -5.811351e+001  -4.583839e+001 
3621875000  -5.811992e+001  -4.664021e+001 
3625000000  -5.594672e+001  -4.855957e+001 
3628125000  -5.701245e+001  -4.723584e+001 
3631250000  -5.676186e+001  -5.663684e+001 
3634375000  -5.537079e+001  -4.365134e+001 
3637500000  -5.574363e+001  -4.403862e+001 
3640625000  -5.400313e+001  -4.209437e+001 
3643750000  -5.280447e+001  -5.047666e+001 
3646875000  -5.138414e+001  -6.020164e+001 
3650000000  -5.333688e+001  -6.327800e+001 
3653125000  -5.217780e+001  -6.515556e+001 
3656250000  -5.268842e+001  -6.798053e+001 
3659375000  -5.155339e+001  -6.742356e+001 
3662500000  -5.077976e+001  -7.205172e+001 
3665625000  -5.000603e+001  -6.983466e+001 
3668750000  -4.824271e+001  -7.552563e+001 
3671875000  -4.745852e+001  -8.588166e+001 
3675000000  -4.716314e+001  -9.486246e+001 
3678125000  -4.711008e+001  -9.526329e+001 
3681250000  -4.641401e+001  -1.043146e+002 
3684375000  -4.658170e+001  -1.079299e+002 
3687500000  -4.688475e+001  -1.131224e+002 
3690625000  -4.660797e+001  -1.201820e+002 
3693750000  -4.719235e+001  -1.198504e+002 
3696875000  -4.650708e+001  -1.207698e+002 
3700000000  -4.510480e+001  -1.282217e+002 
3703125000  -4.552575e+001  -1.338370e+002 
3706250000  -4.594564e+001  -1.353794e+002 
3709375000  -4.472737e+001  -1.352372e+002 
3712500000  -4.335352e+001  -1.416133e+002 
3715625000  -4.208326e+001  -1.491645e+002 
3718750000  -4.178117e+001  -1.566791e+002 
3721875000  -4.123828e+001  -1.673637e+002 
3725000000  -4.161226e+001  -1.716309e+002 
3728125000  -4.153466e+001  -1.752786e+002 
3731250000  -4.064757e+001  1.777501e+002 
3734375000  -4.034743e+001  1.714499e+002 
3737500000  -4.125032e+001  1.629202e+002 
3740625000  -4.090474e+001  1.568477e+002 
3743750000  -4.043821e+001  1.487357e+002 
3746875000  -4.062086e+001  1.429946e+002 
3750000000  -4.084181e+001  1.389139e+002 
3753125000  -4.068840e+001  1.350426e+002 
3756250000  -4.070057e+001  1.316996e+002 
3759375000  -4.048737e+001  1.276537e+002 
3762500000  -4.025801e+001  1.198021e+002 
3765625000  -4.070763e+001  1.158122e+002 
3768750000  -3.986719e+001  1.160480e+002 
3771875000  -3.838916e+001  1.069698e+002 
3775000000  -3.843628e+001  9.741420e+001 
3778125000  -3.907007e+001  9.143895e+001 
3781250000  -3.886275e+001  8.557950e+001 
3784375000  -3.871359e+001  8.017619e+001 
3787500000  -3.842628e+001  7.513947e+001 
3790625000  -3.919883e+001  6.580697e+001 
3793750000  -3.906156e+001  6.184055e+001 
3796875000  -3.820522e+001  5.866648e+001 
3800000000  -3.636702e+001  5.362053e+001 
3803125000  -3.799264e+001  4.081178e+001 
3806250000  -3.892021e+001  3.581339e+001 
3809375000  -3.824841e+001  3.152296e+001 
3812500000  -3.834509e+001  2.275480e+001 
3815625000  -3.956944e+001  1.091807e+001 
3818750000  -4.072801e+001  1.601623e+001 
3821875000  -4.007651e+001  2.517917e+001 
3825000000  -3.819860e+001  1.978020e+001 
3828125000  -3.691504e+001  1.500794e+000 
3831250000  -3.805264e+001  -1.234509e+001 
3834375000  -4.024465e+001  -1.393577e+001 
3837500000  -4.058731e+001  -8.464141e+000 
3840625000  -3.925201e+001  -1.192262e+001 
3843750000  -3.816406e+001  -2.841522e+001 
3846875000  -3.970285e+001  -3.431741e+001 
3850000000  -4.088234e+001  -2.714733e+001 
3853125000  -3.994994e+001  -2.775549e+001 
3856250000  -3.931851e+001  -3.449998e+001 
3859375000  -3.848882e+001  -4.264933e+001 
3862500000  -3.811631e+001  -5.462536e+001 
3865625000  -3.905135e+001  -5.663436e+001 
3868750000  -3.855328e+001  -5.822098e+001 
3871875000  -3.792593e+001  -6.743561e+001 
3875000000  -3.841817e+001  -7.630973e+001 
3878125000  -3.935910e+001  -7.894668e+001 
3881250000  -3.930704e+001  -7.965985e+001 
3884375000  -3.879463e+001  -8.641582e+001 
3887500000  -3.923166e+001  -9.302956e+001 
3890625000  -3.963874e+001  -9.726195e+001 
3893750000  -3.968472e+001  -9.865147e+001 
3896875000  -4.022793e+001  -9.889259e+001 
3900000000  -3.997739e+001  -1.045781e+002 
3903125000  -3.929607e+001  -1.088380e+002 
3906250000  -3.904464e+001  -1.124570e+002 
3909375000  -3.821744e+001  -1.229010e+002 
3912500000  -3.905254e+001  -1.311093e+002 
3915625000  -4.052446e+001  -1.298040e+002 
3918750000  -3.983577e+001  -1.337763e+002 
3921875000  -3.940827e+001  -1.379645e+002 
3925000000  -3.854667e+001  -1.429435e+002 
3928125000  -3.839401e+001  -1.535424e+002 
3931250000  -3.903094e+001  -1.592857e+002 
3934375000  -3.952061e+001  -1.594541e+002 
3937500000  -4.005945e+001  -1.614970e+002 
3940625000  -4.002322e+001  -1.643234e+002 
3943750000  -3.897659e+001  -1.675857e+002 
3946875000  -3.836881e+001  -1.760706e+002 
3950000000  -3.955075e+001  1.748761e+002 
3953125000  -3.990926e+001  1.774768e+002 
3956250000  -3.863638e+001  1.757519e+002 
3959375000  -3.777544e+001  1.689731e+002 
3962500000  -3.741030e+001  1.606910e+002 
3965625000  -3.785964e+001  1.517086e+002 
3968750000  -3.856690e+001  1.440596e+002 
3971875000  -3.869516e+001  1.373222e+002 
3975000000  -3.842516e+001  1.344114e+002 
3978125000  -3.833466e+001  1.308272e+002 
3981250000  -3.857174e+001  1.238333e+002 
3984375000  -3.907117e+001  1.156969e+002 
3987500000  -3.971903e+001  1.132564e+002 
3990625000  -4.017805e+001  1.099219e+002 
3993750000  -3.983391e+001  1.068062e+002 
3996875000  -3.963372e+001  1.011076e+002 
4000000000  -4.058831e+001  9.504047e+001 
4003125000  -4.107821e+001  1.010362e+002 
4006250000  -3.928947e+001  9.666289e+001 
4009375000  -3.865784e+001  8.096364e+001 
4012500000  -4.029226e+001  7.271207e+001 
4015625000  -4.146408e+001  7.379334e+001 
4018750000  -4.120361e+001  7.307227e+001 
4021875000  -4.084853e+001  7.358808e+001 
4025000000  -4.021498e+001  6.669651e+001 
4028125000  -4.037439e+001  5.754119e+001 
4031250000  -4.120152e+001  5.294271e+001 
4034375000  -4.125423e+001  5.381380e+001 
4037500000  -4.109447e+001  5.360128e+001 
4040625000  -4.081836e+001  4.713748e+001 
4043750000  -4.108250e+001  4.439338e+001 
4046875000  -4.079365e+001  4.041058e+001 
4050000000  -4.071669e+001  3.542419e+001 
4053125000  -4.157337e+001  3.306797e+001 
4056250000  -4.137800e+001  3.912920e+001 
4059375000  -3.929148e+001  3.706480e+001 
4062500000  -3.868227e+001  2.797995e+001 
4065625000  -3.900504e+001  2.083844e+001 
4068750000  -3.829009e+001  1.481446e+001 
4071875000  -3.750786e+001  5.148848e+000 
4075000000  -3.840238e+001  -2.297783e+000 
4078125000  -3.877347e+001  -5.413483e+000 
4081250000  -3.809890e+001  -1.001497e+001 
4084375000  -3.818726e+001  -2.122792e+001 
4087500000  -3.870532e+001  -2.678647e+001 
4090625000  -3.924427e+001  -2.725891e+001 
4093750000  -3.864108e+001  -3.069400e+001 
4096875000  -3.866043e+001  -4.083821e+001 
4100000000  -3.967805e+001  -4.806049e+001 
4103125000  -4.070366e+001  -4.403901e+001 
4106250000  -3.987011e+001  -4.086020e+001 
4109375000  -3.924109e+001  -4.795012e+001 
4112500000  -3.862511e+001  -5.600808e+001 
4115625000  -3.937996e+001  -6.282872e+001 
4118750000  -3.905846e+001  -6.703637e+001 
4121875000  -3.921344e+001  -7.386949e+001 
4125000000  -3.990998e+001  -8.144328e+001 
4128125000  -4.097523e+001  -7.804725e+001 
4131250000  -3.981151e+001  -7.241814e+001 
4134375000  -3.781186e+001  -8.296799e+001 
4137500000  -3.813747e+001  -1.029217e+002 
4140625000  -4.055710e+001  -1.106680e+002 
4143750000  -4.127610e+001  -1.021101e+002 
4146875000  -4.049575e+001  -1.007719e+002 
4150000000  -3.969453e+001  -1.081678e+002 
4153125000  -4.006830e+001  -1.177678e+002 
4156250000  -4.134195e+001  -1.192948e+002 
4159375000  -4.129034e+001  -1.132600e+002 
4162500000  -3.984869e+001  -1.114957e+002 
4165625000  -3.877211e+001  -1.208319e+002 
4168750000  -3.828063e+001  -1.313799e+002 
4171875000  -3.846742e+001  -1.405662e+002 
4175000000  -3.944751e+001  -1.466690e+002 
4178125000  -3.943916e+001  -1.454930e+002 
4181250000  -3.945564e+001  -1.526492e+002 
4184375000  -3.949257e+001  -1.560242e+002 
4187500000  -3.956491e+001  -1.602083e+002 
4190625000  -3.936221e+001  -1.694133e+002 
4193750000  -4.073578e+001  -1.743250e+002 
4196875000  -4.149623e+001  -1.767570e+002 
4200000000  -4.258202e+001  -1.668388e+002 
4203125000  -4.091586e+001  -1.542711e+002 
4206250000  -3.738153e+001  -1.655648e+002 
4209375000  -3.742483e+001  1.700805e+002 
4212500000  -3.955697e+001  1.645024e+002 
4215625000  -4.019098e+001  1.712241e+002 
4218750000  -3.827108e+001  1.721941e+002 
4221875000  -3.692178e+001  1.632466e+002 
4225000000  -3.796639e+001  1.507050e+002 
4228125000  -3.793554e+001  1.515710e+002 
4231250000  -3.626505e+001  1.448528e+002 
4234375000  -3.634312e+001  1.336853e+002 
4237500000  -3.630179e+001  1.281382e+002 
4240625000  -3.635329e+001  1.177806e+002 
4243750000  -3.763921e+001  1.090851e+002 
4246875000  -3.850500e+001  1.076777e+002 
4250000000  -3.847425e+001  1.087751e+002 
4253125000  -3.813227e+001  1.065715e+002 
4256250000  -3.816010e+001  1.012124e+002 
4259375000  -3.779275e+001  9.501672e+001 
4262500000  -3.784463e+001  9.082492e+001 
4265625000  -3.799122e+001  8.858460e+001 
4268750000  -3.680434e+001  8.022517e+001 
4271875000  -3.673056e+001  7.159283e+001 
4275000000  -3.654379e+001  6.328551e+001 
4278125000  -3.759148e+001  5.196730e+001 
4281250000  -3.896987e+001  4.886274e+001 
4284375000  -3.871952e+001  4.713554e+001 
4287500000  -4.069191e+001  4.549629e+001 
4290625000  -4.046267e+001  5.199962e+001 
4293750000  -3.854019e+001  5.352556e+001 
4296875000  -3.775703e+001  3.942117e+001 
4300000000  -3.929520e+001  2.993062e+001 
4303125000  -3.977469e+001  3.305134e+001 
4306250000  -3.864674e+001  3.335474e+001 
4309375000  -3.782228e+001  3.000747e+001 
4312500000  -3.748181e+001  1.836838e+001 
4315625000  -3.790687e+001  1.001847e+001 
4318750000  -3.874862e+001  5.634451e+000 
4321875000  -3.870839e+001  7.882065e+000 
4325000000  -3.806448e+001  4.777126e+000 
4328125000  -3.731392e+001  -4.787738e+000 
4331250000  -3.742066e+001  -1.461708e+001 
4334375000  -3.835636e+001  -2.102337e+001 
4337500000  -3.936150e+001  -2.193943e+001 
4340625000  -3.939651e+001  -1.663187e+001 
4343750000  -3.857092e+001  -2.162379e+001 
4346875000  -3.822861e+001  -3.140345e+001 
4350000000  -3.857620e+001  -3.615234e+001 
4353125000  -3.927816e+001  -4.278888e+001 
4356250000  -4.142613e+001  -4.105418e+001 
4359375000  -3.991491e+001  -2.615371e+001 
4362500000  -3.640490e+001  -3.706235e+001 
4365625000  -3.588790e+001  -5.198580e+001 
4368750000  -3.736657e+001  -6.091424e+001 
4371875000  -3.771185e+001  -6.279469e+001 
4375000000  -3.731753e+001  -6.683633e+001 
4378125000  -3.697891e+001  -7.380473e+001 
4381250000  -3.712277e+001  -8.098084e+001 
4384375000  -3.708569e+001  -8.893066e+001 
4387500000  -3.806168e+001  -9.415865e+001 
4390625000  -3.850970e+001  -9.538135e+001 
4393750000  -3.805158e+001  -9.433733e+001 
4396875000  -3.723350e+001  -1.004642e+002 
4400000000  -3.693391e+001  -1.087870e+002 
4403125000  -3.807977e+001  -1.182204e+002 
4406250000  -3.856388e+001  -1.222549e+002 
4409375000  -3.879300e+001  -1.251164e+002 
4412500000  -3.971498e+001  -1.275545e+002 
4415625000  -3.926969e+001  -1.250405e+002 
