!Agilent Technologies,E8363B,MY43030201,A.06.04.32
!Agilent E8363B: A.06.04.32
!Date: Tuesday, November 11, 2014 21:26:24
!Correction: S21(Response(S21)) 
!S1P File: Measurement: S21:
# Hz S  dB   R 50
3000000000  -4.047441e+001  9.515748e+001 
3003125000  -4.207529e+001  8.795219e+001 
3006250000  -4.206770e+001  8.727407e+001 
3009375000  -4.270324e+001  9.086753e+001 
3012500000  -4.173728e+001  8.660667e+001 
3015625000  -4.126335e+001  7.948995e+001 
3018750000  -4.194864e+001  7.948769e+001 
3021875000  -4.027558e+001  8.059264e+001 
3025000000  -3.895206e+001  7.733046e+001 
3028125000  -3.804047e+001  6.863171e+001 
3031250000  -3.700951e+001  5.623891e+001 
3034375000  -3.670652e+001  4.167609e+001 
3037500000  -3.750621e+001  3.076904e+001 
3040625000  -3.869801e+001  2.516588e+001 
3043750000  -3.915394e+001  1.904797e+001 
3046875000  -3.959266e+001  1.415116e+001 
3050000000  -4.087618e+001  6.937967e+000 
3053125000  -4.059556e+001  1.432256e+001 
3056250000  -4.019112e+001  1.383598e+001 
3059375000  -3.968710e+001  1.388423e+001 
3062500000  -3.826981e+001  9.463177e+000 
3065625000  -3.792667e+001  -1.136918e+000 
3068750000  -3.769543e+001  -8.036381e+000 
3071875000  -3.767651e+001  -1.048494e+001 
3075000000  -3.718468e+001  -1.763095e+001 
3078125000  -3.701486e+001  -2.376195e+001 
3081250000  -3.720300e+001  -2.850941e+001 
3084375000  -3.645932e+001  -3.370745e+001 
3087500000  -3.642816e+001  -3.995655e+001 
3090625000  -3.591233e+001  -5.185760e+001 
3093750000  -3.669361e+001  -6.083253e+001 
3096875000  -3.737194e+001  -6.720300e+001 
3100000000  -3.730241e+001  -6.926450e+001 
3103125000  -3.752287e+001  -7.194084e+001 
3106250000  -3.711681e+001  -7.809753e+001 
3109375000  -3.727073e+001  -8.175195e+001 
3112500000  -3.720737e+001  -8.783349e+001 
3115625000  -3.718266e+001  -9.168477e+001 
3118750000  -3.708112e+001  -9.494356e+001 
3121875000  -3.650686e+001  -1.056831e+002 
3125000000  -3.826300e+001  -1.092733e+002 
3128125000  -3.865974e+001  -1.021814e+002 
3131250000  -3.621949e+001  -1.072265e+002 
3134375000  -3.531229e+001  -1.250115e+002 
3137500000  -3.598989e+001  -1.384930e+002 
3140625000  -3.730602e+001  -1.407512e+002 
3143750000  -3.819263e+001  -1.420465e+002 
3146875000  -3.780468e+001  -1.407209e+002 
3150000000  -3.691646e+001  -1.432750e+002 
3153125000  -3.718778e+001  -1.533425e+002 
3156250000  -3.798504e+001  -1.485292e+002 
3159375000  -3.597849e+001  -1.500902e+002 
3162500000  -3.429272e+001  -1.652792e+002 
3165625000  -3.551351e+001  -1.790909e+002 
3168750000  -3.548482e+001  -1.798414e+002 
3171875000  -3.500290e+001  1.739457e+002 
3175000000  -3.556142e+001  1.643478e+002 
3178125000  -3.520650e+001  1.637904e+002 
3181250000  -3.435916e+001  1.554173e+002 
3184375000  -3.406816e+001  1.429881e+002 
3187500000  -3.532541e+001  1.279568e+002 
3190625000  -3.730443e+001  1.211274e+002 
3193750000  -3.761078e+001  1.284803e+002 
3196875000  -3.753788e+001  1.290845e+002 
3200000000  -3.643503e+001  1.238684e+002 
3203125000  -3.586980e+001  1.152708e+002 
3206250000  -3.632211e+001  1.081543e+002 
3209375000  -3.572688e+001  1.006097e+002 
3212500000  -3.624602e+001  9.350791e+001 
3215625000  -3.606212e+001  8.980491e+001 
3218750000  -3.684241e+001  7.899670e+001 
3221875000  -3.757993e+001  7.229760e+001 
3225000000  -3.720808e+001  6.869068e+001 
3228125000  -3.777331e+001  6.165770e+001 
3231250000  -3.835855e+001  5.922950e+001 
3234375000  -3.793685e+001  5.707808e+001 
3237500000  -3.807338e+001  5.282309e+001 
3240625000  -3.774078e+001  4.691155e+001 
3243750000  -3.762395e+001  3.661452e+001 
3246875000  -3.835142e+001  2.948057e+001 
3250000000  -3.873391e+001  2.465622e+001 
3253125000  -3.898977e+001  2.247578e+001 
3256250000  -3.868446e+001  1.412008e+001 
3259375000  -3.924517e+001  3.306907e+000 
3262500000  -4.053899e+001  -9.350727e-001 
3265625000  -4.123187e+001  3.880634e+000 
3268750000  -4.122717e+001  3.600023e+000 
3271875000  -4.070203e+001  6.007900e-002 
3275000000  -4.010741e+001  -9.049132e+000 
3278125000  -4.076641e+001  -1.496871e+001 
3281250000  -4.116012e+001  -1.326282e+001 
3284375000  -4.054446e+001  -2.043007e+001 
3287500000  -4.083059e+001  -2.629279e+001 
3290625000  -4.138281e+001  -3.117047e+001 
3293750000  -4.120780e+001  -3.743192e+001 
3296875000  -4.248535e+001  -3.963317e+001 
3300000000  -4.188272e+001  -3.890915e+001 
3303125000  -4.105159e+001  -4.478298e+001 
3306250000  -4.103548e+001  -5.277865e+001 
3309375000  -4.074809e+001  -5.983526e+001 
3312500000  -4.077622e+001  -7.236041e+001 
3315625000  -4.218207e+001  -8.069006e+001 
3318750000  -4.360516e+001  -8.338925e+001 
3321875000  -4.447046e+001  -8.138163e+001 
3325000000  -4.525205e+001  -7.397429e+001 
3328125000  -4.460855e+001  -7.562457e+001 
3331250000  -4.270779e+001  -6.965709e+001 
3334375000  -4.008981e+001  -8.544229e+001 
3337500000  -4.052478e+001  -1.047102e+002 
3340625000  -4.213105e+001  -1.163806e+002 
3343750000  -4.403189e+001  -1.153122e+002 
3346875000  -4.348676e+001  -1.155279e+002 
3350000000  -4.322762e+001  -1.185627e+002 
3353125000  -4.289445e+001  -1.268964e+002 
3356250000  -4.245031e+001  -1.353716e+002 
3359375000  -4.354843e+001  -1.441604e+002 
3362500000  -4.422987e+001  -1.500777e+002 
3365625000  -4.494153e+001  -1.535329e+002 
3368750000  -4.569050e+001  -1.596068e+002 
3371875000  -4.563013e+001  -1.633065e+002 
3375000000  -4.756755e+001  -1.664570e+002 
3378125000  -4.799310e+001  -1.675311e+002 
3381250000  -4.974622e+001  -1.601191e+002 
3384375000  -4.756888e+001  -1.421991e+002 
3387500000  -4.449392e+001  -1.625530e+002 
3390625000  -4.585262e+001  1.767328e+002 
3393750000  -4.780423e+001  1.748515e+002 
3396875000  -4.609783e+001  1.761239e+002 
3400000000  -4.629348e+001  1.618372e+002 
3403125000  -4.705712e+001  1.574290e+002 
3406250000  -4.795102e+001  1.519025e+002 
3409375000  -4.827034e+001  1.466391e+002 
3412500000  -4.890682e+001  1.410201e+002 
3415625000  -5.005344e+001  1.416911e+002 
3418750000  -5.029983e+001  1.434505e+002 
3421875000  -5.129070e+001  1.444564e+002 
3425000000  -5.095015e+001  1.415430e+002 
3428125000  -5.019358e+001  1.399328e+002 
3431250000  -5.001420e+001  1.293538e+002 
3434375000  -5.133260e+001  1.286265e+002 
3437500000  -5.200220e+001  1.247795e+002 
3440625000  -5.265347e+001  1.299586e+002 
3443750000  -5.108298e+001  1.287300e+002 
3446875000  -5.125433e+001  1.241350e+002 
3450000000  -5.033915e+001  1.174053e+002 
3453125000  -5.059332e+001  1.107607e+002 
3456250000  -5.221679e+001  1.057274e+002 
3459375000  -5.454724e+001  1.064577e+002 
3462500000  -5.269340e+001  1.161271e+002 
3465625000  -5.209684e+001  1.073111e+002 
3468750000  -5.283778e+001  1.047209e+002 
3471875000  -5.336688e+001  1.024090e+002 
3475000000  -5.154399e+001  9.929588e+001 
3478125000  -5.146185e+001  8.497106e+001 
3481250000  -5.333780e+001  8.742903e+001 
3484375000  -5.281681e+001  9.388308e+001 
3487500000  -5.212661e+001  8.930417e+001 
3490625000  -5.129548e+001  8.353611e+001 
3493750000  -5.191414e+001  7.418534e+001 
3496875000  -5.139741e+001  7.473132e+001 
3500000000  -5.246931e+001  7.545676e+001 
3503125000  -5.194521e+001  7.313863e+001 
3506250000  -5.056422e+001  6.315023e+001 
3509375000  -4.973700e+001  5.477111e+001 
3512500000  -5.067071e+001  4.492949e+001 
3515625000  -5.191134e+001  3.389404e+001 
3518750000  -5.188647e+001  3.776893e+001 
3521875000  -5.234864e+001  3.692127e+001 
3525000000  -5.410305e+001  2.748870e+001 
3528125000  -5.222505e+001  3.444250e+001 
3531250000  -5.230875e+001  1.951154e+001 
3534375000  -5.368229e+001  1.187268e+001 
3537500000  -5.390134e+001  2.556200e+000 
3540625000  -5.459980e+001  -1.423174e+000 
3543750000  -5.511436e+001  1.280070e+000 
3546875000  -5.540031e+001  1.676527e+001 
3550000000  -5.325363e+001  1.173821e+001 
3553125000  -5.399994e+001  -1.095750e+001 
3556250000  -5.644955e+001  -5.664273e+000 
3559375000  -5.727787e+001  -1.127567e+001 
3562500000  -5.583535e+001  -1.863910e+001 
3565625000  -5.730146e+001  -2.191273e+001 
3568750000  -5.896586e+001  -1.428308e+001 
3571875000  -5.845236e+001  -6.866600e+000 
3575000000  -5.916739e+001  -4.836476e+000 
3578125000  -5.791963e+001  -1.461833e+001 
3581250000  -5.794324e+001  -1.889844e+001 
3584375000  -5.844657e+001  -3.165395e+000 
3587500000  -5.858896e+001  -1.876983e+000 
3590625000  -5.942001e+001  -2.640651e+001 
3593750000  -5.980231e+001  -2.237227e+001 
3596875000  -6.057387e+001  -9.152163e+000 
3600000000  -5.737828e+001  -9.364604e+000 
3603125000  -5.731063e+001  -2.118958e+001 
3606250000  -5.812868e+001  -2.128437e+001 
3609375000  -5.799082e+001  -2.082333e+001 
3612500000  -5.901508e+001  -2.931688e+001 
3615625000  -5.872881e+001  -1.982875e+001 
3618750000  -5.916177e+001  -1.217311e+001 
3621875000  -5.905969e+001  -2.231211e+001 
3625000000  -5.723363e+001  -1.211441e+001 
3628125000  -5.698019e+001  -1.563578e+001 
3631250000  -5.588765e+001  -2.278735e+001 
3634375000  -5.685443e+001  -1.614413e+001 
3637500000  -5.476283e+001  -2.166430e+001 
3640625000  -5.357015e+001  -1.217084e+001 
3643750000  -5.201757e+001  -2.485017e+001 
3646875000  -5.258211e+001  -3.372693e+001 
3650000000  -5.312732e+001  -3.114583e+001 
3653125000  -5.214405e+001  -2.870553e+001 
3656250000  -5.126945e+001  -3.364719e+001 
3659375000  -5.129528e+001  -3.902917e+001 
3662500000  -5.060184e+001  -4.786137e+001 
3665625000  -5.018828e+001  -4.718739e+001 
3668750000  -4.807109e+001  -4.453740e+001 
3671875000  -4.719844e+001  -5.856415e+001 
3675000000  -4.698970e+001  -6.269938e+001 
3678125000  -4.721822e+001  -7.147868e+001 
3681250000  -4.668279e+001  -7.177136e+001 
3684375000  -4.673666e+001  -7.927036e+001 
3687500000  -4.650912e+001  -8.494950e+001 
3690625000  -4.623777e+001  -8.982613e+001 
3693750000  -4.704041e+001  -8.967535e+001 
3696875000  -4.670691e+001  -9.241068e+001 
3700000000  -4.530790e+001  -9.839913e+001 
3703125000  -4.521127e+001  -1.023200e+002 
3706250000  -4.575592e+001  -1.053462e+002 
3709375000  -4.502204e+001  -1.069088e+002 
3712500000  -4.360093e+001  -1.102803e+002 
3715625000  -4.177711e+001  -1.205070e+002 
3718750000  -4.150834e+001  -1.270071e+002 
3721875000  -4.146162e+001  -1.347175e+002 
3725000000  -4.168732e+001  -1.431900e+002 
3728125000  -4.165443e+001  -1.464061e+002 
3731250000  -4.068729e+001  -1.517678e+002 
3734375000  -3.998458e+001  -1.589867e+002 
3737500000  -4.069821e+001  -1.687943e+002 
3740625000  -4.097890e+001  -1.747155e+002 
3743750000  -4.074170e+001  1.798645e+002 
3746875000  -4.068732e+001  1.726263e+002 
3750000000  -4.090476e+001  1.685791e+002 
3753125000  -4.076859e+001  1.660600e+002 
3756250000  -4.071045e+001  1.631086e+002 
3759375000  -4.048090e+001  1.567235e+002 
3762500000  -4.002215e+001  1.487539e+002 
3765625000  -4.077011e+001  1.450867e+002 
3768750000  -4.041789e+001  1.456593e+002 
3771875000  -3.860700e+001  1.386830e+002 
3775000000  -3.866822e+001  1.275558e+002 
3778125000  -3.913408e+001  1.218045e+002 
3781250000  -3.892710e+001  1.174102e+002 
3784375000  -3.866761e+001  1.096688e+002 
3787500000  -3.838573e+001  1.045977e+002 
3790625000  -3.926512e+001  9.514238e+001 
3793750000  -3.930978e+001  9.173420e+001 
3796875000  -3.833424e+001  8.769363e+001 
3800000000  -3.651338e+001  8.368116e+001 
3803125000  -3.799200e+001  6.986507e+001 
3806250000  -3.894237e+001  6.603271e+001 
3809375000  -3.852385e+001  6.200978e+001 
3812500000  -3.866262e+001  5.338887e+001 
3815625000  -3.957233e+001  4.350602e+001 
3818750000  -4.063616e+001  4.307529e+001 
3821875000  -4.059318e+001  5.354390e+001 
3825000000  -3.845683e+001  4.983802e+001 
3828125000  -3.711303e+001  3.340048e+001 
3831250000  -3.828107e+001  1.744496e+001 
3834375000  -4.038601e+001  1.648976e+001 
3837500000  -4.061076e+001  1.941285e+001 
3840625000  -3.921485e+001  1.541645e+001 
3843750000  -3.836374e+001  3.218120e+000 
3846875000  -3.983443e+001  -3.836798e+000 
3850000000  -4.122276e+001  3.005605e-001 
3853125000  -3.992038e+001  3.472016e+000 
3856250000  -3.951936e+001  -5.307264e+000 
3859375000  -3.888602e+001  -1.174130e+001 
3862500000  -3.860863e+001  -2.126463e+001 
3865625000  -3.896829e+001  -2.736529e+001 
3868750000  -3.874651e+001  -2.862894e+001 
3871875000  -3.816596e+001  -3.447198e+001 
3875000000  -3.848662e+001  -4.610250e+001 
3878125000  -3.952432e+001  -4.824599e+001 
3881250000  -3.947799e+001  -4.917498e+001 
3884375000  -3.888659e+001  -5.517433e+001 
3887500000  -3.911364e+001  -6.242245e+001 
3890625000  -3.945905e+001  -6.643407e+001 
3893750000  -3.971728e+001  -6.778039e+001 
3896875000  -4.039861e+001  -7.150636e+001 
3900000000  -3.984723e+001  -7.282822e+001 
3903125000  -3.958935e+001  -7.899775e+001 
3906250000  -3.906588e+001  -8.253986e+001 
3909375000  -3.845237e+001  -8.909843e+001 
3912500000  -3.928437e+001  -9.947921e+001 
3915625000  -4.040382e+001  -1.011356e+002 
3918750000  -4.009469e+001  -1.010217e+002 
3921875000  -3.963955e+001  -1.058317e+002 
3925000000  -3.899485e+001  -1.114015e+002 
3928125000  -3.830099e+001  -1.209479e+002 
3931250000  -3.919437e+001  -1.261757e+002 
3934375000  -3.962476e+001  -1.298675e+002 
3937500000  -3.999697e+001  -1.311254e+002 
3940625000  -4.019919e+001  -1.337075e+002 
3943750000  -3.908562e+001  -1.342398e+002 
3946875000  -3.846824e+001  -1.439391e+002 
3950000000  -3.925763e+001  -1.550558e+002 
3953125000  -4.012050e+001  -1.527841e+002 
3956250000  -3.871233e+001  -1.538181e+002 
3959375000  -3.803851e+001  -1.606843e+002 
3962500000  -3.774641e+001  -1.667487e+002 
3965625000  -3.789005e+001  -1.781584e+002 
3968750000  -3.898655e+001  1.744033e+002 
3971875000  -3.891118e+001  1.704146e+002 
3975000000  -3.867629e+001  1.654562e+002 
3978125000  -3.890051e+001  1.623179e+002 
3981250000  -3.873376e+001  1.530751e+002 
3984375000  -3.915051e+001  1.460859e+002 
3987500000  -3.993145e+001  1.436606e+002 
3990625000  -3.986741e+001  1.425898e+002 
3993750000  -4.027110e+001  1.366886e+002 
3996875000  -4.005328e+001  1.326106e+002 
4000000000  -4.045623e+001  1.277618e+002 
4003125000  -4.124593e+001  1.306465e+002 
4006250000  -3.944857e+001  1.274909e+002 
4009375000  -3.853189e+001  1.126151e+002 
4012500000  -4.035461e+001  1.053801e+002 
4015625000  -4.153424e+001  1.038607e+002 
4018750000  -4.177015e+001  1.080856e+002 
4021875000  -4.089457e+001  1.036651e+002 
4025000000  -4.072884e+001  9.916471e+001 
4028125000  -4.060283e+001  9.016270e+001 
4031250000  -4.145153e+001  8.587473e+001 
4034375000  -4.172029e+001  8.568856e+001 
4037500000  -4.133477e+001  8.842330e+001 
4040625000  -4.081797e+001  8.036394e+001 
4043750000  -4.131826e+001  7.934497e+001 
4046875000  -4.100424e+001  7.515086e+001 
4050000000  -4.074448e+001  6.836626e+001 
4053125000  -4.139213e+001  6.723053e+001 
4056250000  -4.118511e+001  7.111752e+001 
4059375000  -3.979658e+001  6.993806e+001 
4062500000  -3.888311e+001  5.952352e+001 
4065625000  -3.900584e+001  5.612876e+001 
4068750000  -3.841045e+001  4.772759e+001 
4071875000  -3.804210e+001  3.829852e+001 
4075000000  -3.838803e+001  2.978407e+001 
4078125000  -3.892508e+001  2.799296e+001 
4081250000  -3.824752e+001  2.393010e+001 
4084375000  -3.819995e+001  1.324582e+001 
4087500000  -3.871488e+001  5.891927e+000 
4090625000  -3.935880e+001  4.392676e+000 
4093750000  -3.859695e+001  1.791696e+000 
4096875000  -3.851803e+001  -7.257988e+000 
4100000000  -3.946227e+001  -1.463592e+001 
4103125000  -4.056838e+001  -1.349026e+001 
4106250000  -4.024574e+001  -9.680306e+000 
4109375000  -3.944420e+001  -1.204630e+001 
4112500000  -3.878389e+001  -2.386596e+001 
4115625000  -3.936549e+001  -2.954658e+001 
4118750000  -3.924077e+001  -3.383998e+001 
4121875000  -3.917421e+001  -4.090864e+001 
4125000000  -3.978182e+001  -4.884259e+001 
4128125000  -4.085848e+001  -4.843930e+001 
4131250000  -3.983993e+001  -4.105689e+001 
4134375000  -3.805713e+001  -5.052213e+001 
4137500000  -3.818209e+001  -7.072960e+001 
4140625000  -4.043860e+001  -7.867856e+001 
4143750000  -4.152066e+001  -7.237817e+001 
4146875000  -4.074645e+001  -6.755226e+001 
4150000000  -3.990114e+001  -7.535131e+001 
4153125000  -4.003782e+001  -8.315061e+001 
4156250000  -4.134668e+001  -8.881203e+001 
4159375000  -4.131268e+001  -8.198991e+001 
4162500000  -4.010698e+001  -8.091975e+001 
4165625000  -3.925634e+001  -8.748023e+001 
4168750000  -3.851714e+001  -9.738706e+001 
4171875000  -3.861194e+001  -1.073050e+002 
4175000000  -3.941907e+001  -1.144755e+002 
4178125000  -3.998090e+001  -1.150601e+002 
4181250000  -3.967164e+001  -1.163035e+002 
4184375000  -3.975390e+001  -1.234468e+002 
4187500000  -3.954695e+001  -1.277151e+002 
4190625000  -3.965316e+001  -1.353004e+002 
4193750000  -4.093495e+001  -1.387369e+002 
4196875000  -4.153239e+001  -1.420486e+002 
4200000000  -4.255023e+001  -1.367057e+002 
4203125000  -4.132391e+001  -1.245691e+002 
4206250000  -3.787103e+001  -1.300742e+002 
4209375000  -3.719588e+001  -1.555301e+002 
4212500000  -3.978742e+001  -1.616851e+002 
4215625000  -4.039935e+001  -1.577014e+002 
4218750000  -3.858578e+001  -1.542478e+002 
4221875000  -3.666113e+001  -1.643329e+002 
4225000000  -3.822123e+001  -1.763238e+002 
4228125000  -3.806490e+001  -1.746186e+002 
4231250000  -3.667191e+001  1.795289e+002 
4234375000  -3.662830e+001  1.669455e+002 
4237500000  -3.629284e+001  1.631787e+002 
4240625000  -3.647217e+001  1.507740e+002 
4243750000  -3.758382e+001  1.427764e+002 
4246875000  -3.836564e+001  1.425251e+002 
4250000000  -3.855360e+001  1.417752e+002 
4253125000  -3.817661e+001  1.373206e+002 
4256250000  -3.832912e+001  1.335137e+002 
4259375000  -3.773547e+001  1.293183e+002 
4262500000  -3.796108e+001  1.228499e+002 
4265625000  -3.817625e+001  1.215039e+002 
4268750000  -3.714838e+001  1.142609e+002 
4271875000  -3.722078e+001  1.065649e+002 
4275000000  -3.673849e+001  9.664082e+001 
4278125000  -3.785664e+001  8.371387e+001 
4281250000  -3.928267e+001  8.277164e+001 
4284375000  -3.913582e+001  7.961362e+001 
4287500000  -4.013819e+001  7.524211e+001 
4290625000  -4.101928e+001  8.226991e+001 
4293750000  -3.898172e+001  8.699301e+001 
4296875000  -3.813872e+001  7.298742e+001 
4300000000  -3.953096e+001  6.247873e+001 
4303125000  -4.006660e+001  6.473689e+001 
4306250000  -3.906200e+001  6.892213e+001 
4309375000  -3.801879e+001  6.332417e+001 
4312500000  -3.775866e+001  5.220602e+001 
4315625000  -3.826891e+001  4.523691e+001 
4318750000  -3.896650e+001  4.121652e+001 
4321875000  -3.882927e+001  4.112981e+001 
4325000000  -3.843866e+001  3.989298e+001 
4328125000  -3.810796e+001  3.270824e+001 
4331250000  -3.793399e+001  2.084450e+001 
4334375000  -3.859011e+001  1.310124e+001 
4337500000  -3.987661e+001  1.160906e+001 
4340625000  -3.978524e+001  1.710058e+001 
4343750000  -3.899050e+001  1.355555e+001 
4346875000  -3.882508e+001  4.999218e+000 
4350000000  -3.892424e+001  -3.644693e+000 
4353125000  -3.914753e+001  -9.344894e+000 
4356250000  -4.119992e+001  -5.753874e+000 
4359375000  -4.060939e+001  2.699415e+000 
4362500000  -3.727799e+001  1.222147e+000 
4365625000  -3.646940e+001  -1.838820e+001 
4368750000  -3.763083e+001  -2.780872e+001 
4371875000  -3.843073e+001  -2.849577e+001 
4375000000  -3.774060e+001  -3.092306e+001 
4378125000  -3.726095e+001  -3.807997e+001 
4381250000  -3.764387e+001  -4.791362e+001 
4384375000  -3.756543e+001  -5.245008e+001 
4387500000  -3.875771e+001  -5.937363e+001 
4390625000  -3.894616e+001  -6.109949e+001 
4393750000  -3.841031e+001  -6.151221e+001 
4396875000  -3.774169e+001  -6.449567e+001 
4400000000  -3.707972e+001  -7.498541e+001 
4403125000  -3.826948e+001  -8.275808e+001 
4406250000  -3.877833e+001  -8.751756e+001 
4409375000  -3.918763e+001  -9.107301e+001 
4412500000  -3.996923e+001  -9.732339e+001 
4415625000  -3.998369e+001  -9.033502e+001 
