!Agilent Technologies,E8363B,MY43030201,A.06.04.32
!Agilent E8363B: A.06.04.32
!Date: Tuesday, November 11, 2014 21:34:00
!Correction: S21(Response(S21)) 
!S1P File: Measurement: S21:
# Hz S  dB   R 50
3000000000  -4.061658e+001  7.404833e+001 
3003125000  -4.220515e+001  6.516029e+001 
3006250000  -4.219645e+001  6.510867e+001 
3009375000  -4.284729e+001  6.952111e+001 
3012500000  -4.153670e+001  6.354576e+001 
3015625000  -4.145429e+001  5.736164e+001 
3018750000  -4.189658e+001  5.868760e+001 
3021875000  -4.023841e+001  5.996217e+001 
3025000000  -3.886881e+001  5.630147e+001 
3028125000  -3.806184e+001  4.540288e+001 
3031250000  -3.694734e+001  3.306297e+001 
3034375000  -3.681435e+001  2.009115e+001 
3037500000  -3.766288e+001  8.996065e+000 
3040625000  -3.887748e+001  3.622171e+000 
3043750000  -3.916468e+001  -3.082675e+000 
3046875000  -3.992779e+001  -8.137741e+000 
3050000000  -4.092908e+001  -1.377503e+001 
3053125000  -4.044724e+001  -8.782574e+000 
3056250000  -4.056510e+001  -6.155667e+000 
3059375000  -3.978808e+001  -6.599740e+000 
3062500000  -3.823489e+001  -1.256462e+001 
3065625000  -3.795098e+001  -2.325306e+001 
3068750000  -3.762690e+001  -2.992307e+001 
3071875000  -3.754789e+001  -3.221193e+001 
3075000000  -3.696175e+001  -3.847629e+001 
3078125000  -3.712524e+001  -4.521068e+001 
3081250000  -3.722935e+001  -5.144765e+001 
3084375000  -3.636998e+001  -5.611302e+001 
3087500000  -3.634583e+001  -6.295319e+001 
3090625000  -3.591975e+001  -7.494930e+001 
3093750000  -3.696680e+001  -8.296361e+001 
3096875000  -3.743367e+001  -8.840105e+001 
3100000000  -3.711479e+001  -9.131497e+001 
3103125000  -3.751085e+001  -9.512792e+001 
3106250000  -3.720561e+001  -1.002151e+002 
3109375000  -3.724166e+001  -1.042058e+002 
3112500000  -3.726237e+001  -1.099980e+002 
3115625000  -3.708018e+001  -1.136157e+002 
3118750000  -3.732003e+001  -1.175055e+002 
3121875000  -3.670638e+001  -1.272501e+002 
3125000000  -3.860367e+001  -1.303024e+002 
3128125000  -3.847460e+001  -1.243278e+002 
3131250000  -3.605324e+001  -1.299736e+002 
3134375000  -3.530141e+001  -1.474378e+002 
3137500000  -3.600175e+001  -1.596743e+002 
3140625000  -3.742339e+001  -1.621975e+002 
3143750000  -3.818929e+001  -1.646306e+002 
3146875000  -3.763624e+001  -1.622263e+002 
3150000000  -3.692181e+001  -1.666729e+002 
3153125000  -3.722174e+001  -1.740889e+002 
3156250000  -3.784370e+001  -1.706526e+002 
3159375000  -3.555496e+001  -1.717991e+002 
3162500000  -3.425871e+001  1.716969e+002 
3165625000  -3.556210e+001  1.589944e+002 
3168750000  -3.546598e+001  1.576400e+002 
3171875000  -3.488655e+001  1.507768e+002 
3175000000  -3.550946e+001  1.412509e+002 
3178125000  -3.496341e+001  1.401952e+002 
3181250000  -3.448603e+001  1.318787e+002 
3184375000  -3.423345e+001  1.209046e+002 
3187500000  -3.554684e+001  1.048109e+002 
3190625000  -3.717559e+001  9.965965e+001 
3193750000  -3.753023e+001  1.049790e+002 
3196875000  -3.739133e+001  1.057050e+002 
3200000000  -3.617302e+001  1.000715e+002 
3203125000  -3.587304e+001  9.303928e+001 
3206250000  -3.609057e+001  8.529095e+001 
3209375000  -3.581256e+001  7.728168e+001 
3212500000  -3.636664e+001  6.981596e+001 
3215625000  -3.612725e+001  6.649154e+001 
3218750000  -3.679764e+001  5.636549e+001 
3221875000  -3.711142e+001  5.011874e+001 
3225000000  -3.708725e+001  4.629360e+001 
3228125000  -3.776466e+001  3.870861e+001 
3231250000  -3.823592e+001  3.600763e+001 
3234375000  -3.793686e+001  3.332547e+001 
3237500000  -3.813287e+001  2.920730e+001 
3240625000  -3.750162e+001  2.327002e+001 
3243750000  -3.760673e+001  1.382471e+001 
3246875000  -3.832639e+001  7.418556e+000 
3250000000  -3.872172e+001  4.532219e+000 
3253125000  -3.909549e+001  1.114058e+000 
3256250000  -3.855019e+001  -8.385386e+000 
3259375000  -3.910251e+001  -1.939114e+001 
3262500000  -4.054461e+001  -2.306758e+001 
3265625000  -4.089408e+001  -2.054014e+001 
3268750000  -4.104058e+001  -1.905353e+001 
3271875000  -4.062900e+001  -2.308497e+001 
3275000000  -4.017442e+001  -3.127185e+001 
3278125000  -4.090564e+001  -3.682243e+001 
3281250000  -4.079768e+001  -3.716913e+001 
3284375000  -4.057283e+001  -4.416559e+001 
3287500000  -4.070600e+001  -4.861757e+001 
3290625000  -4.137840e+001  -5.558315e+001 
3293750000  -4.119114e+001  -6.152409e+001 
3296875000  -4.242594e+001  -6.195268e+001 
3300000000  -4.171666e+001  -6.279275e+001 
3303125000  -4.086973e+001  -6.756963e+001 
3306250000  -4.092354e+001  -7.598070e+001 
3309375000  -4.036407e+001  -8.327458e+001 
3312500000  -4.107477e+001  -9.651412e+001 
3315625000  -4.240055e+001  -1.033929e+002 
3318750000  -4.373179e+001  -1.077868e+002 
3321875000  -4.489235e+001  -1.046266e+002 
3325000000  -4.472076e+001  -9.789314e+001 
3328125000  -4.347522e+001  -9.557685e+001 
3331250000  -4.218414e+001  -9.510601e+001 
3334375000  -3.975203e+001  -1.094471e+002 
3337500000  -4.061650e+001  -1.301241e+002 
3340625000  -4.233825e+001  -1.394744e+002 
3343750000  -4.413311e+001  -1.372767e+002 
3346875000  -4.306632e+001  -1.398365e+002 
3350000000  -4.293250e+001  -1.418259e+002 
3353125000  -4.293863e+001  -1.514861e+002 
3356250000  -4.256244e+001  -1.580202e+002 
3359375000  -4.329874e+001  -1.688878e+002 
3362500000  -4.422463e+001  -1.742327e+002 
3365625000  -4.483035e+001  -1.774529e+002 
3368750000  -4.545288e+001  1.775846e+002 
3371875000  -4.570799e+001  1.726382e+002 
3375000000  -4.738844e+001  1.708526e+002 
3378125000  -4.834616e+001  1.669418e+002 
3381250000  -5.031206e+001  -1.777787e+002 
3384375000  -4.619958e+001  -1.628372e+002 
3387500000  -4.431656e+001  1.725268e+002 
3390625000  -4.598063e+001  1.540252e+002 
3393750000  -4.719208e+001  1.561925e+002 
3396875000  -4.605286e+001  1.501118e+002 
3400000000  -4.616588e+001  1.405805e+002 
3403125000  -4.719116e+001  1.363476e+002 
3406250000  -4.751148e+001  1.290078e+002 
3409375000  -4.766107e+001  1.231426e+002 
3412500000  -4.903474e+001  1.203860e+002 
3415625000  -5.040696e+001  1.171666e+002 
3418750000  -4.985557e+001  1.189592e+002 
3421875000  -5.130855e+001  1.188871e+002 
3425000000  -4.966390e+001  1.178698e+002 
3428125000  -4.985683e+001  1.167139e+002 
3431250000  -5.003699e+001  1.082755e+002 
3434375000  -5.013565e+001  1.039848e+002 
3437500000  -5.218408e+001  1.027075e+002 
3440625000  -5.188181e+001  1.096598e+002 
3443750000  -5.009503e+001  1.066257e+002 
3446875000  -5.071540e+001  1.052592e+002 
3450000000  -5.009507e+001  9.406787e+001 
3453125000  -5.147732e+001  8.423649e+001 
3456250000  -5.196809e+001  8.374399e+001 
3459375000  -5.352616e+001  8.975385e+001 
3462500000  -5.178837e+001  9.078847e+001 
3465625000  -5.137749e+001  7.535215e+001 
3468750000  -5.201834e+001  8.320125e+001 
3471875000  -5.175695e+001  8.195988e+001 
3475000000  -5.140445e+001  6.872783e+001 
3478125000  -5.106416e+001  6.589046e+001 
3481250000  -5.256501e+001  6.908495e+001 
3484375000  -5.200655e+001  6.460777e+001 
3487500000  -5.141393e+001  6.217075e+001 
3490625000  -5.122097e+001  5.342944e+001 
3493750000  -5.113464e+001  5.173274e+001 
3496875000  -5.168150e+001  5.328674e+001 
3500000000  -5.251438e+001  4.903814e+001 
3503125000  -5.084883e+001  4.630990e+001 
3506250000  -4.973604e+001  3.594481e+001 
3509375000  -4.996210e+001  2.540181e+001 
3512500000  -5.041100e+001  1.042842e+001 
3515625000  -5.086971e+001  1.094879e+001 
3518750000  -5.240158e+001  9.046420e+000 
3521875000  -5.201377e+001  8.220954e+000 
3525000000  -5.316917e+001  -1.772540e+000 
3528125000  -5.244081e+001  4.730177e+000 
3531250000  -5.177342e+001  -4.447110e+000 
3534375000  -5.392726e+001  -2.095368e+001 
3537500000  -5.337332e+001  -1.999947e+001 
3540625000  -5.501976e+001  -2.075483e+001 
3543750000  -5.451400e+001  -2.523259e+001 
3546875000  -5.591459e+001  -7.226109e+000 
3550000000  -5.366473e+001  -2.150487e+001 
3553125000  -5.353251e+001  -3.393064e+001 
3556250000  -5.664375e+001  -3.581030e+001 
3559375000  -5.695900e+001  -3.331487e+001 
3562500000  -5.580086e+001  -4.774576e+001 
3565625000  -5.700001e+001  -5.752360e+001 
3568750000  -5.675490e+001  -3.659485e+001 
3571875000  -5.757759e+001  -3.937026e+001 
3575000000  -5.946677e+001  -5.033982e+001 
3578125000  -5.794692e+001  -4.973853e+001 
3581250000  -5.722488e+001  -4.023907e+001 
3584375000  -5.790852e+001  -4.253612e+001 
3587500000  -5.591616e+001  -3.650320e+001 
3590625000  -5.858109e+001  -4.804031e+001 
3593750000  -5.794160e+001  -5.052573e+001 
3596875000  -5.939585e+001  -3.889153e+001 
3600000000  -5.758302e+001  -3.832847e+001 
3603125000  -5.739619e+001  -4.498326e+001 
3606250000  -5.702708e+001  -4.561616e+001 
3609375000  -5.918518e+001  -4.725478e+001 
3612500000  -5.777626e+001  -5.679679e+001 
3615625000  -6.065437e+001  -5.519576e+001 
3618750000  -5.825421e+001  -4.427205e+001 
3621875000  -5.752431e+001  -4.753985e+001 
3625000000  -5.827517e+001  -4.649417e+001 
3628125000  -5.565960e+001  -4.066010e+001 
3631250000  -5.630444e+001  -5.076173e+001 
3634375000  -5.761090e+001  -5.082047e+001 
3637500000  -5.469737e+001  -4.489877e+001 
3640625000  -5.399566e+001  -3.930190e+001 
3643750000  -5.286874e+001  -4.977065e+001 
3646875000  -5.321566e+001  -6.291440e+001 
3650000000  -5.347442e+001  -5.985611e+001 
3653125000  -5.261983e+001  -5.942445e+001 
3656250000  -5.247989e+001  -6.209791e+001 
3659375000  -5.225971e+001  -6.083959e+001 
3662500000  -5.039404e+001  -6.936392e+001 
3665625000  -5.022601e+001  -7.201057e+001 
3668750000  -4.761855e+001  -7.462439e+001 
3671875000  -4.702471e+001  -8.150423e+001 
3675000000  -4.745187e+001  -9.162375e+001 
3678125000  -4.745004e+001  -9.427972e+001 
3681250000  -4.622678e+001  -1.006374e+002 
3684375000  -4.665106e+001  -1.062553e+002 
3687500000  -4.652711e+001  -1.133824e+002 
3690625000  -4.680246e+001  -1.165018e+002 
3693750000  -4.699906e+001  -1.141761e+002 
3696875000  -4.670472e+001  -1.185090e+002 
3700000000  -4.523399e+001  -1.241307e+002 
3703125000  -4.557772e+001  -1.296272e+002 
3706250000  -4.580957e+001  -1.321309e+002 
3709375000  -4.451852e+001  -1.313792e+002 
3712500000  -4.348835e+001  -1.377365e+002 
3715625000  -4.192574e+001  -1.443306e+002 
3718750000  -4.164640e+001  -1.534409e+002 
3721875000  -4.141878e+001  -1.622107e+002 
3725000000  -4.154403e+001  -1.692647e+002 
3728125000  -4.149931e+001  -1.742074e+002 
3731250000  -4.051517e+001  -1.793940e+002 
3734375000  -4.034485e+001  1.734986e+002 
3737500000  -4.088557e+001  1.656129e+002 
3740625000  -4.102706e+001  1.598171e+002 
3743750000  -4.054597e+001  1.512228e+002 
3746875000  -4.064249e+001  1.459014e+002 
3750000000  -4.104266e+001  1.413945e+002 
3753125000  -4.071017e+001  1.378506e+002 
3756250000  -4.077575e+001  1.356161e+002 
3759375000  -4.033882e+001  1.295362e+002 
3762500000  -4.027149e+001  1.227361e+002 
3765625000  -4.063588e+001  1.180230e+002 
3768750000  -4.013269e+001  1.186340e+002 
3771875000  -3.825237e+001  1.104202e+002 
3775000000  -3.846271e+001  9.969072e+001 
3778125000  -3.897042e+001  9.357266e+001 
3781250000  -3.887366e+001  8.920953e+001 
3784375000  -3.890784e+001  8.301851e+001 
3787500000  -3.856390e+001  7.624673e+001 
3790625000  -3.914155e+001  6.818478e+001 
3793750000  -3.910274e+001  6.402436e+001 
3796875000  -3.806805e+001  6.116212e+001 
3800000000  -3.641743e+001  5.602072e+001 
3803125000  -3.824022e+001  4.374265e+001 
3806250000  -3.888575e+001  3.831321e+001 
3809375000  -3.854387e+001  3.428543e+001 
3812500000  -3.834151e+001  2.377181e+001 
3815625000  -3.954126e+001  1.494532e+001 
3818750000  -4.081937e+001  1.815627e+001 
3821875000  -4.028929e+001  2.561616e+001 
3825000000  -3.806135e+001  2.197432e+001 
3828125000  -3.700999e+001  4.185970e+000 
3831250000  -3.838939e+001  -1.025233e+001 
3834375000  -4.058955e+001  -1.110979e+001 
3837500000  -4.067496e+001  -7.490212e+000 
3840625000  -3.920272e+001  -1.002856e+001 
3843750000  -3.821510e+001  -2.578068e+001 
3846875000  -3.979835e+001  -2.981904e+001 
3850000000  -4.066601e+001  -2.484626e+001 
3853125000  -3.999787e+001  -2.363520e+001 
3856250000  -3.944342e+001  -3.209468e+001 
3859375000  -3.843069e+001  -4.026745e+001 
3862500000  -3.842223e+001  -5.067213e+001 
3865625000  -3.900682e+001  -5.647992e+001 
3868750000  -3.869255e+001  -5.575436e+001 
3871875000  -3.802863e+001  -6.409573e+001 
3875000000  -3.858273e+001  -7.426640e+001 
3878125000  -3.941489e+001  -7.670704e+001 
3881250000  -3.937842e+001  -7.544697e+001 
3884375000  -3.878807e+001  -8.198124e+001 
3887500000  -3.906300e+001  -9.022194e+001 
3890625000  -3.954720e+001  -9.462682e+001 
3893750000  -3.996792e+001  -9.590253e+001 
3896875000  -4.007459e+001  -9.936363e+001 
3900000000  -3.975888e+001  -1.019245e+002 
3903125000  -3.895148e+001  -1.069926e+002 
3906250000  -3.908376e+001  -1.112164e+002 
3909375000  -3.825293e+001  -1.204894e+002 
3912500000  -3.889664e+001  -1.284166e+002 
3915625000  -4.035708e+001  -1.293409e+002 
3918750000  -4.007590e+001  -1.300380e+002 
3921875000  -3.940486e+001  -1.353976e+002 
3925000000  -3.825072e+001  -1.388920e+002 
3928125000  -3.828215e+001  -1.508334e+002 
3931250000  -3.895131e+001  -1.556840e+002 
3934375000  -3.952235e+001  -1.566430e+002 
3937500000  -3.996207e+001  -1.604339e+002 
3940625000  -3.961945e+001  -1.615518e+002 
3943750000  -3.900039e+001  -1.654288e+002 
3946875000  -3.855884e+001  -1.725717e+002 
3950000000  -3.981296e+001  1.790328e+002 
3953125000  -4.024557e+001  1.782792e+002 
3956250000  -3.892513e+001  1.763189e+002 
3959375000  -3.788050e+001  1.701655e+002 
3962500000  -3.782841e+001  1.626651e+002 
3965625000  -3.796320e+001  1.542537e+002 
3968750000  -3.867519e+001  1.459149e+002 
3971875000  -3.855628e+001  1.410127e+002 
3975000000  -3.836525e+001  1.376573e+002 
3978125000  -3.847411e+001  1.326687e+002 
3981250000  -3.862582e+001  1.255387e+002 
3984375000  -3.895848e+001  1.186013e+002 
3987500000  -3.976516e+001  1.157329e+002 
3990625000  -4.019864e+001  1.135321e+002 
3993750000  -3.994019e+001  1.091357e+002 
3996875000  -3.994780e+001  1.050392e+002 
4000000000  -4.066002e+001  9.777718e+001 
4003125000  -4.100494e+001  1.011753e+002 
4006250000  -3.965456e+001  9.843364e+001 
4009375000  -3.888037e+001  8.480952e+001 
4012500000  -4.026352e+001  7.677901e+001 
4015625000  -4.164749e+001  7.623546e+001 
4018750000  -4.163330e+001  7.773743e+001 
4021875000  -4.098295e+001  7.374374e+001 
4025000000  -4.060387e+001  6.821275e+001 
4028125000  -4.035869e+001  5.898457e+001 
4031250000  -4.132725e+001  5.565419e+001 
4034375000  -4.147853e+001  5.817578e+001 
4037500000  -4.075524e+001  5.789631e+001 
4040625000  -4.087782e+001  5.121703e+001 
4043750000  -4.127729e+001  4.855540e+001 
4046875000  -4.085682e+001  4.609790e+001 
4050000000  -4.048487e+001  3.955861e+001 
4053125000  -4.134811e+001  3.837794e+001 
4056250000  -4.119555e+001  4.107842e+001 
4059375000  -3.940977e+001  3.804367e+001 
4062500000  -3.902966e+001  3.221940e+001 
4065625000  -3.887439e+001  2.454811e+001 
4068750000  -3.831233e+001  1.839218e+001 
4071875000  -3.810859e+001  7.791103e+000 
4075000000  -3.835569e+001  1.611147e+000 
4078125000  -3.890120e+001  -2.821509e+000 
4081250000  -3.822552e+001  -8.186610e+000 
4084375000  -3.820275e+001  -1.746138e+001 
4087500000  -3.879940e+001  -2.372813e+001 
4090625000  -3.915462e+001  -2.536796e+001 
4093750000  -3.875705e+001  -2.815466e+001 
4096875000  -3.876705e+001  -3.804051e+001 
4100000000  -3.959029e+001  -4.555867e+001 
4103125000  -4.086738e+001  -4.359183e+001 
4106250000  -4.028106e+001  -3.964873e+001 
4109375000  -3.915149e+001  -4.400769e+001 
4112500000  -3.858755e+001  -5.299343e+001 
4115625000  -3.933345e+001  -6.035471e+001 
4118750000  -3.917669e+001  -6.415957e+001 
4121875000  -3.881444e+001  -7.150080e+001 
4125000000  -3.987777e+001  -7.879816e+001 
4128125000  -4.082122e+001  -7.557401e+001 
4131250000  -3.986944e+001  -6.967911e+001 
4134375000  -3.766295e+001  -8.079522e+001 
4137500000  -3.809781e+001  -1.015138e+002 
4140625000  -4.053954e+001  -1.085117e+002 
4143750000  -4.177133e+001  -1.005306e+002 
4146875000  -4.000973e+001  -9.818536e+001 
4150000000  -3.938922e+001  -1.046728e+002 
4153125000  -3.991475e+001  -1.124434e+002 
4156250000  -4.135313e+001  -1.168441e+002 
4159375000  -4.085265e+001  -1.100961e+002 
4162500000  -3.975883e+001  -1.089319e+002 
4165625000  -3.893304e+001  -1.165443e+002 
4168750000  -3.841771e+001  -1.269715e+002 
4171875000  -3.815709e+001  -1.376089e+002 
4175000000  -3.925956e+001  -1.438722e+002 
4178125000  -3.959764e+001  -1.443203e+002 
4181250000  -3.933541e+001  -1.489987e+002 
4184375000  -3.972702e+001  -1.517566e+002 
4187500000  -3.947745e+001  -1.582804e+002 
4190625000  -3.951838e+001  -1.657087e+002 
4193750000  -4.030659e+001  -1.711680e+002 
4196875000  -4.127701e+001  -1.729835e+002 
4200000000  -4.241676e+001  -1.657357e+002 
4203125000  -4.086261e+001  -1.534917e+002 
4206250000  -3.747744e+001  -1.616772e+002 
4209375000  -3.729411e+001  1.735016e+002 
4212500000  -3.977013e+001  1.669970e+002 
4215625000  -3.997004e+001  1.736381e+002 
4218750000  -3.825972e+001  1.771789e+002 
4221875000  -3.684452e+001  1.670418e+002 
4225000000  -3.788483e+001  1.546854e+002 
4228125000  -3.793551e+001  1.547053e+002 
4231250000  -3.628543e+001  1.465901e+002 
4234375000  -3.642395e+001  1.370076e+002 
4237500000  -3.618407e+001  1.315347e+002 
4240625000  -3.627419e+001  1.194123e+002 
4243750000  -3.737542e+001  1.119247e+002 
4246875000  -3.859764e+001  1.111467e+002 
4250000000  -3.801189e+001  1.115119e+002 
4253125000  -3.803291e+001  1.098468e+002 
4256250000  -3.784080e+001  1.042433e+002 
4259375000  -3.748831e+001  9.855477e+001 
4262500000  -3.791398e+001  9.296811e+001 
4265625000  -3.793856e+001  9.172595e+001 
4268750000  -3.691154e+001  8.570325e+001 
4271875000  -3.661927e+001  7.271774e+001 
4275000000  -3.657426e+001  6.622162e+001 
4278125000  -3.771844e+001  5.599577e+001 
4281250000  -3.900471e+001  5.249640e+001 
4284375000  -3.882526e+001  4.930216e+001 
4287500000  -4.053385e+001  4.729353e+001 
4290625000  -4.072842e+001  5.565223e+001 
4293750000  -3.844161e+001  5.642617e+001 
4296875000  -3.751326e+001  4.170845e+001 
4300000000  -3.891354e+001  3.178302e+001 
4303125000  -3.963366e+001  3.631113e+001 
4306250000  -3.863630e+001  3.985234e+001 
4309375000  -3.785220e+001  3.226165e+001 
4312500000  -3.769245e+001  2.051714e+001 
4315625000  -3.783408e+001  1.264784e+001 
4318750000  -3.846512e+001  9.193426e+000 
4321875000  -3.869369e+001  9.241451e+000 
4325000000  -3.816814e+001  1.024470e+001 
4328125000  -3.723311e+001  -6.176654e-001 
4331250000  -3.746192e+001  -1.163957e+001 
4334375000  -3.826992e+001  -1.864359e+001 
4337500000  -3.944598e+001  -1.944464e+001 
4340625000  -3.949954e+001  -1.435768e+001 
4343750000  -3.844648e+001  -1.793674e+001 
4346875000  -3.813762e+001  -2.590086e+001 
4350000000  -3.849826e+001  -3.471928e+001 
4353125000  -3.915143e+001  -4.189552e+001 
4356250000  -4.115609e+001  -3.904453e+001 
4359375000  -3.981666e+001  -2.342524e+001 
4362500000  -3.660755e+001  -3.286637e+001 
4365625000  -3.606911e+001  -4.858312e+001 
4368750000  -3.726015e+001  -5.937081e+001 
4371875000  -3.779469e+001  -5.977567e+001 
4375000000  -3.744646e+001  -6.344906e+001 
4378125000  -3.691515e+001  -7.002706e+001 
4381250000  -3.710317e+001  -7.853677e+001 
4384375000  -3.705124e+001  -8.596444e+001 
4387500000  -3.803672e+001  -9.204899e+001 
4390625000  -3.850051e+001  -9.252993e+001 
4393750000  -3.813374e+001  -9.126357e+001 
4396875000  -3.718625e+001  -9.703323e+001 
4400000000  -3.670612e+001  -1.059939e+002 
4403125000  -3.788221e+001  -1.163871e+002 
4406250000  -3.840535e+001  -1.197738e+002 
4409375000  -3.859117e+001  -1.225453e+002 
4412500000  -3.983965e+001  -1.267229e+002 
4415625000  -3.959295e+001  -1.215135e+002 
