!Agilent Technologies,E8363B,MY43030201,A.06.04.32
!Agilent E8363B: A.06.04.32
!Date: Tuesday, November 11, 2014 21:32:27
!Correction: S21(Response(S21)) 
!S1P File: Measurement: S21:
# Hz S  dB   R 50
3000000000  -4.052110e+001  7.676856e+001 
3003125000  -4.210199e+001  6.961554e+001 
3006250000  -4.218411e+001  6.814776e+001 
3009375000  -4.278326e+001  7.360757e+001 
3012500000  -4.158007e+001  6.761565e+001 
3015625000  -4.130692e+001  6.052543e+001 
3018750000  -4.168394e+001  6.312901e+001 
3021875000  -4.015792e+001  6.256759e+001 
3025000000  -3.894532e+001  5.966808e+001 
3028125000  -3.790021e+001  4.876600e+001 
3031250000  -3.694842e+001  3.744353e+001 
3034375000  -3.671986e+001  2.344201e+001 
3037500000  -3.757202e+001  1.200699e+001 
3040625000  -3.870379e+001  6.860633e+000 
3043750000  -3.909125e+001  7.321308e-001 
3046875000  -3.978888e+001  -4.712831e+000 
3050000000  -4.109562e+001  -9.754269e+000 
3053125000  -4.055069e+001  -5.277577e+000 
3056250000  -4.027143e+001  -1.513368e+000 
3059375000  -3.977803e+001  -3.344379e+000 
3062500000  -3.800855e+001  -8.237941e+000 
3065625000  -3.789994e+001  -1.892966e+001 
3068750000  -3.744230e+001  -2.676789e+001 
3071875000  -3.751826e+001  -2.840919e+001 
3075000000  -3.685074e+001  -3.511484e+001 
3078125000  -3.706145e+001  -4.146188e+001 
3081250000  -3.716735e+001  -4.758123e+001 
3084375000  -3.628950e+001  -5.242554e+001 
3087500000  -3.637106e+001  -5.933727e+001 
3090625000  -3.589421e+001  -7.110767e+001 
3093750000  -3.680490e+001  -7.911942e+001 
3096875000  -3.730693e+001  -8.482739e+001 
3100000000  -3.717593e+001  -8.767431e+001 
3103125000  -3.757319e+001  -9.131398e+001 
3106250000  -3.725101e+001  -9.634435e+001 
3109375000  -3.732884e+001  -9.986922e+001 
3112500000  -3.697689e+001  -1.061349e+002 
3115625000  -3.714635e+001  -1.095644e+002 
3118750000  -3.718653e+001  -1.130753e+002 
3121875000  -3.654075e+001  -1.240821e+002 
3125000000  -3.846704e+001  -1.274534e+002 
3128125000  -3.859837e+001  -1.195322e+002 
3131250000  -3.600767e+001  -1.265174e+002 
3134375000  -3.539505e+001  -1.433936e+002 
3137500000  -3.603131e+001  -1.555539e+002 
3140625000  -3.730806e+001  -1.577143e+002 
3143750000  -3.810697e+001  -1.613808e+002 
3146875000  -3.761312e+001  -1.587578e+002 
3150000000  -3.687971e+001  -1.631572e+002 
3153125000  -3.714477e+001  -1.713286e+002 
3156250000  -3.790990e+001  -1.667615e+002 
3159375000  -3.573219e+001  -1.680524e+002 
3162500000  -3.431780e+001  1.758242e+002 
3165625000  -3.559742e+001  1.628250e+002 
3168750000  -3.544471e+001  1.620103e+002 
3171875000  -3.491751e+001  1.538018e+002 
3175000000  -3.547926e+001  1.462362e+002 
3178125000  -3.490406e+001  1.443077e+002 
3181250000  -3.444527e+001  1.353349e+002 
3184375000  -3.419313e+001  1.240584e+002 
3187500000  -3.533792e+001  1.098088e+002 
3190625000  -3.706804e+001  1.036685e+002 
3193750000  -3.753908e+001  1.088132e+002 
3196875000  -3.731409e+001  1.091019e+002 
3200000000  -3.629337e+001  1.043692e+002 
3203125000  -3.583904e+001  9.646098e+001 
3206250000  -3.616042e+001  8.870697e+001 
3209375000  -3.584607e+001  8.076649e+001 
3212500000  -3.629949e+001  7.468523e+001 
3215625000  -3.599519e+001  7.178042e+001 
3218750000  -3.673020e+001  5.885905e+001 
3221875000  -3.731118e+001  5.366581e+001 
3225000000  -3.699725e+001  5.060299e+001 
3228125000  -3.781099e+001  4.134539e+001 
3231250000  -3.812297e+001  3.979118e+001 
3234375000  -3.795798e+001  3.781580e+001 
3237500000  -3.805845e+001  3.391539e+001 
3240625000  -3.754343e+001  2.783065e+001 
3243750000  -3.771430e+001  1.779833e+001 
3246875000  -3.812471e+001  1.123980e+001 
3250000000  -3.876105e+001  6.014478e+000 
3253125000  -3.882439e+001  3.009052e+000 
3256250000  -3.840670e+001  -5.350826e+000 
3259375000  -3.917397e+001  -1.681127e+001 
3262500000  -4.080119e+001  -1.953852e+001 
3265625000  -4.134754e+001  -1.594565e+001 
3268750000  -4.136147e+001  -1.480270e+001 
3271875000  -4.059079e+001  -1.955350e+001 
3275000000  -4.013275e+001  -2.867912e+001 
3278125000  -4.079123e+001  -3.287340e+001 
3281250000  -4.106954e+001  -3.394429e+001 
3284375000  -4.049997e+001  -4.034056e+001 
3287500000  -4.113237e+001  -4.410685e+001 
3290625000  -4.118970e+001  -5.170483e+001 
3293750000  -4.130391e+001  -5.768173e+001 
3296875000  -4.265918e+001  -5.974779e+001 
3300000000  -4.199205e+001  -5.807625e+001 
3303125000  -4.096038e+001  -6.454807e+001 
3306250000  -4.087951e+001  -7.182300e+001 
3309375000  -4.061107e+001  -7.994762e+001 
3312500000  -4.104469e+001  -9.283357e+001 
3315625000  -4.233143e+001  -9.879604e+001 
3318750000  -4.340378e+001  -1.035724e+002 
3321875000  -4.477429e+001  -1.009818e+002 
3325000000  -4.494542e+001  -9.334724e+001 
3328125000  -4.389693e+001  -9.279916e+001 
3331250000  -4.224497e+001  -9.037916e+001 
3334375000  -3.978128e+001  -1.057490e+002 
3337500000  -4.022950e+001  -1.260192e+002 
3340625000  -4.239035e+001  -1.354510e+002 
3343750000  -4.406819e+001  -1.329601e+002 
3346875000  -4.329713e+001  -1.353086e+002 
3350000000  -4.296062e+001  -1.390771e+002 
3353125000  -4.280130e+001  -1.455125e+002 
3356250000  -4.256044e+001  -1.554110e+002 
3359375000  -4.341095e+001  -1.671148e+002 
3362500000  -4.430305e+001  -1.720238e+002 
3365625000  -4.492372e+001  -1.747008e+002 
3368750000  -4.503437e+001  -1.785411e+002 
3371875000  -4.560405e+001  1.758910e+002 
3375000000  -4.751097e+001  1.733210e+002 
3378125000  -4.826161e+001  1.725949e+002 
3381250000  -4.978104e+001  -1.789591e+002 
3384375000  -4.715765e+001  -1.618388e+002 
3387500000  -4.385388e+001  1.748984e+002 
3390625000  -4.633961e+001  1.597745e+002 
3393750000  -4.721093e+001  1.555596e+002 
3396875000  -4.627641e+001  1.535521e+002 
3400000000  -4.606250e+001  1.448998e+002 
3403125000  -4.711689e+001  1.387126e+002 
3406250000  -4.783414e+001  1.363967e+002 
3409375000  -4.783174e+001  1.282927e+002 
3412500000  -4.880368e+001  1.245236e+002 
3415625000  -4.977250e+001  1.223019e+002 
3418750000  -5.046025e+001  1.208714e+002 
3421875000  -5.097422e+001  1.296551e+002 
3425000000  -5.029809e+001  1.274587e+002 
3428125000  -4.981348e+001  1.180248e+002 
3431250000  -5.004300e+001  1.141341e+002 
3434375000  -5.147715e+001  1.064311e+002 
3437500000  -5.181681e+001  1.071976e+002 
3440625000  -5.210458e+001  1.080621e+002 
3443750000  -5.002049e+001  1.114874e+002 
3446875000  -5.086845e+001  1.055999e+002 
3450000000  -5.013181e+001  9.600678e+001 
3453125000  -5.059809e+001  8.727487e+001 
3456250000  -5.189238e+001  8.499264e+001 
3459375000  -5.305803e+001  8.592632e+001 
3462500000  -5.291959e+001  8.866846e+001 
3465625000  -5.112985e+001  8.134686e+001 
3468750000  -5.143196e+001  8.177834e+001 
3471875000  -5.206248e+001  7.767427e+001 
3475000000  -5.123769e+001  7.722663e+001 
3478125000  -5.147127e+001  6.580786e+001 
3481250000  -5.263217e+001  6.331636e+001 
3484375000  -5.253650e+001  6.646933e+001 
3487500000  -5.154749e+001  6.786526e+001 
3490625000  -5.124828e+001  5.670410e+001 
3493750000  -5.138983e+001  5.589279e+001 
3496875000  -5.242094e+001  5.104947e+001 
3500000000  -5.211971e+001  4.831999e+001 
3503125000  -5.126107e+001  4.999416e+001 
3506250000  -5.022908e+001  4.701423e+001 
3509375000  -4.970141e+001  3.069996e+001 
3512500000  -5.100780e+001  1.858322e+001 
3515625000  -5.142924e+001  1.212723e+001 
3518750000  -5.254369e+001  1.289693e+001 
3521875000  -5.259446e+001  5.839592e+000 
3525000000  -5.355066e+001  2.401622e+000 
3528125000  -5.210487e+001  1.159349e+001 
3531250000  -5.214818e+001  9.180899e+000 
3534375000  -5.296400e+001  -1.109466e+001 
3537500000  -5.371093e+001  -2.033118e+001 
3540625000  -5.510536e+001  -1.361378e+001 
3543750000  -5.508479e+001  -1.853338e+001 
3546875000  -5.576937e+001  -1.568494e+000 
3550000000  -5.429751e+001  -8.089228e+000 
3553125000  -5.372807e+001  -2.187615e+001 
3556250000  -5.463068e+001  -2.376347e+001 
3559375000  -5.553086e+001  -2.794561e+001 
3562500000  -5.520903e+001  -3.841005e+001 
3565625000  -5.699356e+001  -3.343080e+001 
3568750000  -5.746030e+001  -3.121909e+001 
3571875000  -5.831504e+001  -3.829783e+001 
3575000000  -5.821906e+001  -2.027406e+001 
3578125000  -5.890197e+001  -4.390699e+001 
3581250000  -5.831033e+001  -4.099868e+001 
3584375000  -5.780206e+001  -3.865550e+001 
3587500000  -5.658886e+001  -3.307579e+001 
3590625000  -5.877544e+001  -4.541916e+001 
3593750000  -6.004908e+001  -4.145241e+001 
3596875000  -5.982887e+001  -2.578872e+001 
3600000000  -5.818802e+001  -3.797254e+001 
3603125000  -5.815751e+001  -3.924378e+001 
3606250000  -5.852551e+001  -4.862679e+001 
3609375000  -5.682655e+001  -4.221607e+001 
3612500000  -5.868076e+001  -5.669050e+001 
3615625000  -5.865625e+001  -5.015246e+001 
3618750000  -5.874493e+001  -3.984931e+001 
3621875000  -5.871526e+001  -3.007759e+001 
3625000000  -5.711007e+001  -4.490276e+001 
3628125000  -5.562663e+001  -3.699580e+001 
3631250000  -5.567559e+001  -4.515410e+001 
3634375000  -5.705351e+001  -4.028701e+001 
3637500000  -5.470848e+001  -4.059975e+001 
3640625000  -5.451949e+001  -3.301098e+001 
3643750000  -5.320979e+001  -4.832869e+001 
3646875000  -5.350817e+001  -5.219983e+001 
3650000000  -5.357243e+001  -5.299723e+001 
3653125000  -5.228685e+001  -6.532767e+001 
3656250000  -5.136919e+001  -5.778321e+001 
3659375000  -5.140362e+001  -5.391494e+001 
3662500000  -5.077114e+001  -6.511591e+001 
3665625000  -4.911628e+001  -6.638307e+001 
3668750000  -4.767112e+001  -6.925202e+001 
3671875000  -4.725292e+001  -7.826320e+001 
3675000000  -4.714615e+001  -9.021574e+001 
3678125000  -4.741533e+001  -9.077859e+001 
3681250000  -4.648106e+001  -9.786153e+001 
3684375000  -4.669971e+001  -1.023415e+002 
3687500000  -4.687995e+001  -1.071342e+002 
3690625000  -4.665096e+001  -1.099324e+002 
3693750000  -4.697168e+001  -1.121621e+002 
3696875000  -4.650031e+001  -1.135205e+002 
3700000000  -4.523262e+001  -1.194958e+002 
3703125000  -4.543470e+001  -1.292627e+002 
3706250000  -4.546698e+001  -1.284637e+002 
3709375000  -4.492191e+001  -1.280015e+002 
3712500000  -4.371798e+001  -1.337589e+002 
3715625000  -4.198977e+001  -1.399898e+002 
3718750000  -4.165924e+001  -1.502722e+002 
3721875000  -4.149787e+001  -1.592866e+002 
3725000000  -4.154601e+001  -1.652915e+002 
3728125000  -4.142971e+001  -1.674034e+002 
3731250000  -4.055555e+001  -1.734758e+002 
3734375000  -4.037784e+001  1.789749e+002 
3737500000  -4.093640e+001  1.687643e+002 
3740625000  -4.115464e+001  1.643669e+002 
3743750000  -4.045694e+001  1.562799e+002 
3746875000  -4.075833e+001  1.518684e+002 
3750000000  -4.089924e+001  1.449070e+002 
3753125000  -4.068990e+001  1.425331e+002 
3756250000  -4.088449e+001  1.394697e+002 
3759375000  -4.039127e+001  1.329246e+002 
3762500000  -3.990724e+001  1.273692e+002 
3765625000  -4.052980e+001  1.213706e+002 
3768750000  -4.016172e+001  1.227780e+002 
3771875000  -3.857114e+001  1.159092e+002 
3775000000  -3.847451e+001  1.045182e+002 
3778125000  -3.899512e+001  9.818657e+001 
3781250000  -3.891432e+001  9.408516e+001 
3784375000  -3.878777e+001  8.782948e+001 
3787500000  -3.844265e+001  8.151625e+001 
3790625000  -3.927700e+001  7.304291e+001 
3793750000  -3.923858e+001  6.891102e+001 
3796875000  -3.837435e+001  6.409305e+001 
3800000000  -3.636729e+001  6.087784e+001 
3803125000  -3.810448e+001  4.814794e+001 
3806250000  -3.894883e+001  4.240298e+001 
3809375000  -3.850842e+001  3.898343e+001 
3812500000  -3.855916e+001  2.950093e+001 
3815625000  -3.939474e+001  2.016781e+001 
3818750000  -4.058767e+001  2.194472e+001 
3821875000  -4.043325e+001  3.159990e+001 
3825000000  -3.833810e+001  2.695355e+001 
3828125000  -3.693364e+001  7.736567e+000 
3831250000  -3.824816e+001  -7.097919e+000 
3834375000  -4.043988e+001  -5.433252e+000 
3837500000  -4.073669e+001  -8.566782e-001 
3840625000  -3.918839e+001  -4.900960e+000 
3843750000  -3.856117e+001  -2.139950e+001 
3846875000  -3.998914e+001  -2.778758e+001 
3850000000  -4.064255e+001  -2.033855e+001 
3853125000  -3.981592e+001  -2.135774e+001 
3856250000  -3.930596e+001  -2.919996e+001 
3859375000  -3.871407e+001  -3.673688e+001 
3862500000  -3.859322e+001  -4.600534e+001 
3865625000  -3.888974e+001  -5.022448e+001 
3868750000  -3.842502e+001  -5.141685e+001 
3871875000  -3.796423e+001  -6.040280e+001 
3875000000  -3.859530e+001  -6.898317e+001 
3878125000  -3.952170e+001  -7.252573e+001 
3881250000  -3.922990e+001  -7.077359e+001 
3884375000  -3.852332e+001  -8.044683e+001 
3887500000  -3.913343e+001  -8.502374e+001 
3890625000  -3.947348e+001  -8.969746e+001 
3893750000  -3.975256e+001  -8.964460e+001 
3896875000  -3.981708e+001  -9.449632e+001 
3900000000  -4.008360e+001  -9.882307e+001 
3903125000  -3.917239e+001  -1.011816e+002 
3906250000  -3.904152e+001  -1.065926e+002 
3909375000  -3.829856e+001  -1.150240e+002 
3912500000  -3.931018e+001  -1.246048e+002 
3915625000  -4.055929e+001  -1.247178e+002 
3918750000  -4.001415e+001  -1.260850e+002 
3921875000  -3.929185e+001  -1.296980e+002 
3925000000  -3.841358e+001  -1.355219e+002 
3928125000  -3.816532e+001  -1.455924e+002 
3931250000  -3.894755e+001  -1.507986e+002 
3934375000  -3.979922e+001  -1.531539e+002 
3937500000  -4.025191e+001  -1.547898e+002 
3940625000  -4.002340e+001  -1.566298e+002 
3943750000  -3.878118e+001  -1.606882e+002 
3946875000  -3.850168e+001  -1.696679e+002 
3950000000  -3.963556e+001  -1.777165e+002 
3953125000  -4.009197e+001  -1.748215e+002 
3956250000  -3.887798e+001  -1.778087e+002 
3959375000  -3.792397e+001  1.759477e+002 
3962500000  -3.789369e+001  1.698174e+002 
3965625000  -3.777604e+001  1.579938e+002 
3968750000  -3.843958e+001  1.507564e+002 
3971875000  -3.876858e+001  1.460274e+002 
3975000000  -3.831740e+001  1.415473e+002 
3978125000  -3.853570e+001  1.376342e+002 
3981250000  -3.871529e+001  1.300049e+002 
3984375000  -3.889626e+001  1.241926e+002 
3987500000  -3.960420e+001  1.204861e+002 
3990625000  -3.992328e+001  1.190001e+002 
3993750000  -3.980748e+001  1.113823e+002 
3996875000  -3.992194e+001  1.081788e+002 
4000000000  -4.068451e+001  1.043653e+002 
4003125000  -4.121489e+001  1.060762e+002 
4006250000  -3.947321e+001  1.027595e+002 
4009375000  -3.864101e+001  8.978250e+001 
4012500000  -4.019568e+001  8.030170e+001 
4015625000  -4.150050e+001  8.124937e+001 
4018750000  -4.149350e+001  8.013336e+001 
4021875000  -4.064857e+001  7.782270e+001 
4025000000  -4.065648e+001  7.276538e+001 
4028125000  -4.042819e+001  6.559550e+001 
4031250000  -4.127207e+001  6.109623e+001 
4034375000  -4.155774e+001  6.136618e+001 
4037500000  -4.115596e+001  6.047516e+001 
4040625000  -4.105090e+001  5.627297e+001 
4043750000  -4.115339e+001  5.288245e+001 
4046875000  -4.092672e+001  5.001453e+001 
4050000000  -4.061885e+001  4.604436e+001 
4053125000  -4.128073e+001  4.197404e+001 
4056250000  -4.146937e+001  4.730854e+001 
4059375000  -3.942103e+001  4.276174e+001 
4062500000  -3.898879e+001  3.571806e+001 
4065625000  -3.914822e+001  3.034851e+001 
4068750000  -3.850783e+001  2.223681e+001 
4071875000  -3.757890e+001  1.235338e+001 
4075000000  -3.850362e+001  6.764003e+000 
4078125000  -3.870749e+001  1.637214e+000 
4081250000  -3.833382e+001  -1.765361e+000 
4084375000  -3.813156e+001  -1.146568e+001 
4087500000  -3.873672e+001  -1.832841e+001 
4090625000  -3.931589e+001  -1.936907e+001 
4093750000  -3.879629e+001  -2.357651e+001 
4096875000  -3.888329e+001  -3.358866e+001 
4100000000  -3.980235e+001  -3.951838e+001 
4103125000  -4.065285e+001  -3.854659e+001 
4106250000  -4.016710e+001  -3.559844e+001 
4109375000  -3.906137e+001  -3.647458e+001 
4112500000  -3.889592e+001  -4.803251e+001 
4115625000  -3.920737e+001  -5.325490e+001 
4118750000  -3.903138e+001  -5.917235e+001 
4121875000  -3.909206e+001  -6.699471e+001 
4125000000  -4.006028e+001  -7.170605e+001 
4128125000  -4.094792e+001  -6.911003e+001 
4131250000  -3.979020e+001  -6.539444e+001 
4134375000  -3.759899e+001  -7.490524e+001 
4137500000  -3.821037e+001  -9.532730e+001 
4140625000  -4.034686e+001  -1.028953e+002 
4143750000  -4.130021e+001  -9.688403e+001 
4146875000  -4.028365e+001  -9.267242e+001 
4150000000  -3.950239e+001  -9.999165e+001 
4153125000  -4.006139e+001  -1.085718e+002 
4156250000  -4.134772e+001  -1.140048e+002 
4159375000  -4.116303e+001  -1.083152e+002 
4162500000  -4.010317e+001  -1.044184e+002 
4165625000  -3.854267e+001  -1.142298e+002 
4168750000  -3.840465e+001  -1.240687e+002 
4171875000  -3.826257e+001  -1.337782e+002 
4175000000  -3.931444e+001  -1.396609e+002 
4178125000  -3.974316e+001  -1.388299e+002 
4181250000  -3.944818e+001  -1.430508e+002 
4184375000  -3.965011e+001  -1.484546e+002 
4187500000  -3.931852e+001  -1.536374e+002 
4190625000  -3.963472e+001  -1.610633e+002 
4193750000  -4.058529e+001  -1.656256e+002 
4196875000  -4.167352e+001  -1.641495e+002 
4200000000  -4.246272e+001  -1.593859e+002 
4203125000  -4.102755e+001  -1.490217e+002 
4206250000  -3.736012e+001  -1.587605e+002 
4209375000  -3.722704e+001  1.782478e+002 
4212500000  -3.952996e+001  1.733133e+002 
4215625000  -4.012537e+001  1.796312e+002 
4218750000  -3.842572e+001  -1.795079e+002 
4221875000  -3.700866e+001  1.708907e+002 
4225000000  -3.776537e+001  1.588618e+002 
4228125000  -3.790304e+001  1.609222e+002 
4231250000  -3.627304e+001  1.526703e+002 
4234375000  -3.630666e+001  1.426501e+002 
4237500000  -3.645783e+001  1.365971e+002 
4240625000  -3.617891e+001  1.257936e+002 
4243750000  -3.735865e+001  1.161140e+002 
4246875000  -3.868802e+001  1.158162e+002 
4250000000  -3.832046e+001  1.157871e+002 
4253125000  -3.817919e+001  1.135362e+002 
4256250000  -3.805497e+001  1.083797e+002 
4259375000  -3.780108e+001  1.032617e+002 
4262500000  -3.789629e+001  9.808385e+001 
4265625000  -3.808696e+001  9.674084e+001 
4268750000  -3.687897e+001  8.883789e+001 
4271875000  -3.681296e+001  7.971012e+001 
4275000000  -3.674535e+001  7.091730e+001 
4278125000  -3.761728e+001  5.992762e+001 
4281250000  -3.918040e+001  5.838600e+001 
4284375000  -3.871036e+001  5.444492e+001 
4287500000  -4.032831e+001  5.393386e+001 
4290625000  -4.073506e+001  6.030367e+001 
4293750000  -3.846839e+001  6.048146e+001 
4296875000  -3.803558e+001  4.773945e+001 
4300000000  -3.902576e+001  3.892706e+001 
4303125000  -3.997061e+001  4.143141e+001 
4306250000  -3.871637e+001  4.350445e+001 
4309375000  -3.773167e+001  3.812983e+001 
4312500000  -3.778792e+001  2.644595e+001 
4315625000  -3.783834e+001  1.953810e+001 
4318750000  -3.867432e+001  1.465076e+001 
4321875000  -3.871203e+001  1.593722e+001 
4325000000  -3.842253e+001  1.264996e+001 
4328125000  -3.701915e+001  4.286773e+000 
4331250000  -3.771393e+001  -6.587000e+000 
4334375000  -3.854171e+001  -1.260666e+001 
4337500000  -3.949344e+001  -1.388545e+001 
4340625000  -3.974797e+001  -7.725620e+000 
4343750000  -3.843331e+001  -1.270990e+001 
4346875000  -3.861472e+001  -2.100514e+001 
4350000000  -3.851374e+001  -2.823072e+001 
4353125000  -3.875085e+001  -3.410453e+001 
4356250000  -4.094962e+001  -3.385371e+001 
4359375000  -4.025383e+001  -2.103127e+001 
4362500000  -3.645341e+001  -2.486173e+001 
4365625000  -3.608994e+001  -4.517515e+001 
4368750000  -3.708301e+001  -5.458694e+001 
4371875000  -3.822559e+001  -5.588994e+001 
4375000000  -3.748633e+001  -5.713184e+001 
4378125000  -3.676469e+001  -6.569145e+001 
4381250000  -3.718319e+001  -7.369064e+001 
4384375000  -3.729590e+001  -8.037715e+001 
4387500000  -3.803763e+001  -8.652419e+001 
4390625000  -3.859719e+001  -8.679498e+001 
4393750000  -3.803251e+001  -8.708549e+001 
4396875000  -3.742937e+001  -9.222038e+001 
4400000000  -3.703193e+001  -1.013504e+002 
4403125000  -3.797644e+001  -1.096095e+002 
4406250000  -3.828721e+001  -1.153984e+002 
4409375000  -3.881556e+001  -1.183097e+002 
4412500000  -3.969230e+001  -1.206393e+002 
4415625000  -3.950696e+001  -1.157060e+002 
