!Agilent Technologies,E8363B,MY43030201,A.06.04.32
!Agilent E8363B: A.06.04.32
!Date: Tuesday, November 11, 2014 21:27:24
!Correction: S21(Response(S21)) 
!S1P File: Measurement: S21:
# Hz S  dB   R 50
3000000000  -4.063691e+001  9.333085e+001 
3003125000  -4.237993e+001  8.620710e+001 
3006250000  -4.205406e+001  8.321161e+001 
3009375000  -4.276311e+001  8.862522e+001 
3012500000  -4.172248e+001  8.220300e+001 
3015625000  -4.130903e+001  7.731613e+001 
3018750000  -4.182508e+001  7.749507e+001 
3021875000  -4.030260e+001  7.720584e+001 
3025000000  -3.894131e+001  7.397719e+001 
3028125000  -3.806578e+001  6.565922e+001 
3031250000  -3.702715e+001  5.341309e+001 
3034375000  -3.662451e+001  3.904352e+001 
3037500000  -3.750640e+001  2.834280e+001 
3040625000  -3.872023e+001  2.348250e+001 
3043750000  -3.929761e+001  1.615980e+001 
3046875000  -3.972192e+001  1.027668e+001 
3050000000  -4.091973e+001  4.949870e+000 
3053125000  -4.071920e+001  1.034250e+001 
3056250000  -4.037270e+001  1.312407e+001 
3059375000  -3.978339e+001  1.233076e+001 
3062500000  -3.833754e+001  5.174700e+000 
3065625000  -3.813963e+001  -3.420027e+000 
3068750000  -3.777797e+001  -1.012724e+001 
3071875000  -3.772551e+001  -1.264565e+001 
3075000000  -3.721726e+001  -2.001011e+001 
3078125000  -3.709181e+001  -2.542463e+001 
3081250000  -3.744679e+001  -3.156260e+001 
3084375000  -3.635151e+001  -3.696817e+001 
3087500000  -3.647623e+001  -4.260221e+001 
3090625000  -3.601589e+001  -5.520399e+001 
3093750000  -3.683202e+001  -6.321852e+001 
3096875000  -3.741887e+001  -6.955703e+001 
3100000000  -3.731944e+001  -7.277365e+001 
3103125000  -3.766050e+001  -7.515430e+001 
3106250000  -3.715732e+001  -8.056519e+001 
3109375000  -3.737916e+001  -8.514682e+001 
3112500000  -3.726940e+001  -9.007387e+001 
3115625000  -3.702603e+001  -9.465872e+001 
3118750000  -3.735697e+001  -9.661636e+001 
3121875000  -3.651477e+001  -1.087063e+002 
3125000000  -3.843389e+001  -1.117473e+002 
3128125000  -3.879174e+001  -1.049360e+002 
3131250000  -3.633921e+001  -1.107248e+002 
3134375000  -3.532854e+001  -1.270281e+002 
3137500000  -3.598786e+001  -1.404890e+002 
3140625000  -3.729723e+001  -1.434491e+002 
3143750000  -3.824563e+001  -1.457763e+002 
3146875000  -3.774981e+001  -1.429617e+002 
3150000000  -3.703773e+001  -1.459462e+002 
3153125000  -3.716819e+001  -1.562005e+002 
3156250000  -3.809370e+001  -1.510904e+002 
3159375000  -3.574065e+001  -1.523581e+002 
3162500000  -3.422554e+001  -1.681325e+002 
3165625000  -3.552312e+001  1.792618e+002 
3168750000  -3.552011e+001  1.778286e+002 
3171875000  -3.492259e+001  1.713604e+002 
3175000000  -3.547878e+001  1.618176e+002 
3178125000  -3.510917e+001  1.604539e+002 
3181250000  -3.432156e+001  1.523818e+002 
3184375000  -3.419362e+001  1.399369e+002 
3187500000  -3.532295e+001  1.256633e+002 
3190625000  -3.733975e+001  1.190989e+002 
3193750000  -3.769044e+001  1.248017e+002 
3196875000  -3.744782e+001  1.268532e+002 
3200000000  -3.629343e+001  1.208176e+002 
3203125000  -3.597003e+001  1.130657e+002 
3206250000  -3.625805e+001  1.060412e+002 
3209375000  -3.589754e+001  9.796136e+001 
3212500000  -3.628815e+001  9.006196e+001 
3215625000  -3.600330e+001  8.746278e+001 
3218750000  -3.699731e+001  7.629119e+001 
3221875000  -3.726639e+001  7.045236e+001 
3225000000  -3.713538e+001  6.649554e+001 
3228125000  -3.776295e+001  5.910269e+001 
3231250000  -3.830855e+001  5.680366e+001 
3234375000  -3.794884e+001  5.340634e+001 
3237500000  -3.826249e+001  4.928040e+001 
3240625000  -3.778402e+001  4.502814e+001 
3243750000  -3.787687e+001  3.559035e+001 
3246875000  -3.832884e+001  2.672628e+001 
3250000000  -3.885417e+001  2.381171e+001 
3253125000  -3.890324e+001  2.012815e+001 
3256250000  -3.880468e+001  1.298644e+001 
3259375000  -3.925335e+001  2.902070e+000 
3262500000  -4.059522e+001  -2.350885e+000 
3265625000  -4.101184e+001  -9.690539e-002 
3268750000  -4.099677e+001  1.916551e+000 
3271875000  -4.051658e+001  -2.942206e+000 
3275000000  -4.012781e+001  -1.069737e+001 
3278125000  -4.088382e+001  -1.706004e+001 
3281250000  -4.092575e+001  -1.656431e+001 
3284375000  -4.072132e+001  -2.302373e+001 
3287500000  -4.093991e+001  -2.631223e+001 
3290625000  -4.127088e+001  -3.474554e+001 
3293750000  -4.124400e+001  -4.003432e+001 
3296875000  -4.241730e+001  -4.242174e+001 
3300000000  -4.192523e+001  -4.161695e+001 
3303125000  -4.097049e+001  -4.803740e+001 
3306250000  -4.086598e+001  -5.507646e+001 
3309375000  -4.052745e+001  -6.171784e+001 
3312500000  -4.092017e+001  -7.423070e+001 
3315625000  -4.202372e+001  -8.296863e+001 
3318750000  -4.347989e+001  -8.624152e+001 
3321875000  -4.496350e+001  -8.286580e+001 
3325000000  -4.503762e+001  -7.582294e+001 
3328125000  -4.384452e+001  -7.812636e+001 
3331250000  -4.255619e+001  -7.197115e+001 
3334375000  -3.997158e+001  -8.661105e+001 
3337500000  -4.051035e+001  -1.065767e+002 
3340625000  -4.210252e+001  -1.180282e+002 
3343750000  -4.386183e+001  -1.180480e+002 
3346875000  -4.368549e+001  -1.174930e+002 
3350000000  -4.306127e+001  -1.204404e+002 
3353125000  -4.272183e+001  -1.290973e+002 
3356250000  -4.271391e+001  -1.371697e+002 
3359375000  -4.334910e+001  -1.456972e+002 
3362500000  -4.446132e+001  -1.525964e+002 
3365625000  -4.479493e+001  -1.552104e+002 
3368750000  -4.545092e+001  -1.588648e+002 
3371875000  -4.599284e+001  -1.667283e+002 
3375000000  -4.715668e+001  -1.689952e+002 
3378125000  -4.781274e+001  -1.695813e+002 
3381250000  -4.955719e+001  -1.591517e+002 
3384375000  -4.667405e+001  -1.439815e+002 
3387500000  -4.417165e+001  -1.651310e+002 
3390625000  -4.587375e+001  1.743099e+002 
3393750000  -4.703111e+001  1.735423e+002 
3396875000  -4.588414e+001  1.768446e+002 
3400000000  -4.627581e+001  1.651246e+002 
3403125000  -4.651023e+001  1.570716e+002 
3406250000  -4.755463e+001  1.552786e+002 
3409375000  -4.811522e+001  1.448058e+002 
3412500000  -4.842293e+001  1.395446e+002 
3415625000  -4.929510e+001  1.358797e+002 
3418750000  -4.964864e+001  1.395704e+002 
3421875000  -5.111729e+001  1.461089e+002 
3425000000  -5.054436e+001  1.403388e+002 
3428125000  -4.998083e+001  1.395201e+002 
3431250000  -4.943889e+001  1.248582e+002 
3434375000  -5.043735e+001  1.263904e+002 
3437500000  -5.163037e+001  1.241358e+002 
3440625000  -5.248815e+001  1.257049e+002 
3443750000  -5.075140e+001  1.302452e+002 
3446875000  -5.143114e+001  1.221083e+002 
3450000000  -4.992518e+001  1.160398e+002 
3453125000  -5.073246e+001  1.083569e+002 
3456250000  -5.179294e+001  1.042259e+002 
3459375000  -5.237961e+001  1.096641e+002 
3462500000  -5.301078e+001  1.111050e+002 
3465625000  -5.162541e+001  1.018182e+002 
3468750000  -5.170595e+001  1.010249e+002 
3471875000  -5.170532e+001  1.014228e+002 
3475000000  -5.044247e+001  9.285588e+001 
3478125000  -5.105170e+001  8.981717e+001 
3481250000  -5.201199e+001  8.944680e+001 
3484375000  -5.309579e+001  8.982484e+001 
3487500000  -5.068807e+001  8.983114e+001 
3490625000  -5.061606e+001  8.016885e+001 
3493750000  -5.101555e+001  6.839856e+001 
3496875000  -5.113002e+001  7.337790e+001 
3500000000  -5.086290e+001  7.221316e+001 
3503125000  -5.033346e+001  6.956084e+001 
3506250000  -4.947347e+001  6.252118e+001 
3509375000  -4.893684e+001  5.336787e+001 
3512500000  -4.939858e+001  3.289946e+001 
3515625000  -5.131366e+001  3.286853e+001 
3518750000  -5.170812e+001  3.137697e+001 
3521875000  -5.101154e+001  2.870178e+001 
3525000000  -5.272067e+001  2.416650e+001 
3528125000  -5.239723e+001  2.995065e+001 
3531250000  -5.075007e+001  1.879459e+001 
3534375000  -5.200809e+001  4.244155e+000 
3537500000  -5.246351e+001  2.685413e-001 
3540625000  -5.417141e+001  -3.078229e+000 
3543750000  -5.448716e+001  -1.599875e+000 
3546875000  -5.487971e+001  1.288077e+001 
3550000000  -5.317072e+001  7.503844e+000 
3553125000  -5.354265e+001  -1.806346e+001 
3556250000  -5.455209e+001  -1.212219e+001 
3559375000  -5.512222e+001  -9.382514e+000 
3562500000  -5.474417e+001  -2.327414e+001 
3565625000  -5.625167e+001  -3.031050e+001 
3568750000  -5.764668e+001  -3.007343e+001 
3571875000  -5.683617e+001  -1.004868e+001 
3575000000  -5.769607e+001  -3.820724e+001 
3578125000  -5.933245e+001  -3.219299e+001 
3581250000  -5.932789e+001  -1.630251e+001 
3584375000  -5.615553e+001  -1.713567e+001 
3587500000  -5.714724e+001  -2.212880e+001 
3590625000  -5.762321e+001  -4.028274e+001 
3593750000  -6.037265e+001  -9.869614e+000 
3596875000  -6.031289e+001  -2.627938e+001 
3600000000  -5.734808e+001  -1.657207e+001 
3603125000  -5.720522e+001  -4.197972e+001 
3606250000  -5.798762e+001  -4.527229e+001 
3609375000  -6.070742e+001  -3.395258e+001 
3612500000  -5.822454e+001  -3.015152e+001 
3615625000  -5.803553e+001  -2.979064e+001 
3618750000  -5.826891e+001  -2.761282e+001 
3621875000  -5.732579e+001  -2.318158e+001 
3625000000  -5.715186e+001  -3.587632e+001 
3628125000  -5.618359e+001  -2.448773e+001 
3631250000  -5.682957e+001  -3.042637e+001 
3634375000  -5.750954e+001  -2.515699e+001 
3637500000  -5.679395e+001  -2.928160e+001 
3640625000  -5.443533e+001  -1.740126e+001 
3643750000  -5.323336e+001  -2.722781e+001 
3646875000  -5.313269e+001  -3.475830e+001 
3650000000  -5.308655e+001  -3.936795e+001 
3653125000  -5.163968e+001  -4.272230e+001 
3656250000  -5.187866e+001  -4.759502e+001 
3659375000  -5.165552e+001  -4.049076e+001 
3662500000  -5.091246e+001  -4.945385e+001 
3665625000  -5.088192e+001  -4.975848e+001 
3668750000  -4.826387e+001  -4.951484e+001 
3671875000  -4.792198e+001  -6.545665e+001 
3675000000  -4.834827e+001  -7.024068e+001 
3678125000  -4.762936e+001  -7.602499e+001 
3681250000  -4.738878e+001  -8.039735e+001 
3684375000  -4.728399e+001  -8.461073e+001 
3687500000  -4.676838e+001  -8.544383e+001 
3690625000  -4.677504e+001  -9.588530e+001 
3693750000  -4.696916e+001  -9.367518e+001 
3696875000  -4.681468e+001  -9.423125e+001 
3700000000  -4.570781e+001  -1.023405e+002 
3703125000  -4.525599e+001  -1.085154e+002 
3706250000  -4.671762e+001  -1.085614e+002 
3709375000  -4.513159e+001  -1.094821e+002 
3712500000  -4.381524e+001  -1.141313e+002 
3715625000  -4.234807e+001  -1.251521e+002 
3718750000  -4.226304e+001  -1.295927e+002 
3721875000  -4.146442e+001  -1.416673e+002 
3725000000  -4.190793e+001  -1.456757e+002 
3728125000  -4.158751e+001  -1.482009e+002 
3731250000  -4.077759e+001  -1.556054e+002 
3734375000  -4.041771e+001  -1.622463e+002 
3737500000  -4.074740e+001  -1.725723e+002 
3740625000  -4.086741e+001  -1.788162e+002 
3743750000  -4.041167e+001  1.773450e+002 
3746875000  -4.089853e+001  1.698864e+002 
3750000000  -4.112671e+001  1.644062e+002 
3753125000  -4.072033e+001  1.614663e+002 
3756250000  -4.082472e+001  1.581993e+002 
3759375000  -4.044286e+001  1.534310e+002 
3762500000  -4.018360e+001  1.449512e+002 
3765625000  -4.059188e+001  1.414440e+002 
3768750000  -4.027503e+001  1.425810e+002 
3771875000  -3.857005e+001  1.336646e+002 
3775000000  -3.873778e+001  1.225052e+002 
3778125000  -3.904708e+001  1.182187e+002 
3781250000  -3.891290e+001  1.126679e+002 
3784375000  -3.889940e+001  1.047294e+002 
3787500000  -3.860870e+001  1.010165e+002 
3790625000  -3.923569e+001  9.019695e+001 
3793750000  -3.938396e+001  8.785940e+001 
3796875000  -3.856905e+001  8.307366e+001 
3800000000  -3.634714e+001  7.992275e+001 
3803125000  -3.819204e+001  6.644878e+001 
3806250000  -3.907518e+001  6.286820e+001 
3809375000  -3.859116e+001  5.814546e+001 
3812500000  -3.848002e+001  4.858609e+001 
3815625000  -3.948183e+001  4.042941e+001 
3818750000  -4.083693e+001  3.923176e+001 
3821875000  -4.035453e+001  4.952293e+001 
3825000000  -3.822695e+001  4.748520e+001 
3828125000  -3.710197e+001  2.855907e+001 
3831250000  -3.818026e+001  1.308306e+001 
3834375000  -4.021675e+001  1.249689e+001 
3837500000  -4.094464e+001  1.693972e+001 
3840625000  -3.919217e+001  1.391595e+001 
3843750000  -3.880848e+001  -3.879539e-001 
3846875000  -4.007071e+001  -7.981010e+000 
3850000000  -4.117347e+001  -7.187448e-001 
3853125000  -4.024521e+001  -2.267131e+000 
3856250000  -3.985291e+001  -8.483025e+000 
3859375000  -3.878679e+001  -1.411754e+001 
3862500000  -3.879414e+001  -2.532996e+001 
3865625000  -3.921796e+001  -3.019016e+001 
3868750000  -3.907746e+001  -3.170424e+001 
3871875000  -3.823315e+001  -3.802962e+001 
3875000000  -3.859277e+001  -4.881386e+001 
3878125000  -3.925282e+001  -5.133797e+001 
3881250000  -3.933965e+001  -5.073272e+001 
3884375000  -3.888482e+001  -5.800067e+001 
3887500000  -3.917344e+001  -6.327500e+001 
3890625000  -3.930302e+001  -6.942476e+001 
3893750000  -3.992620e+001  -7.100383e+001 
3896875000  -3.988638e+001  -7.371260e+001 
3900000000  -3.976647e+001  -7.771063e+001 
3903125000  -3.933127e+001  -8.178490e+001 
3906250000  -3.906296e+001  -8.759312e+001 
3909375000  -3.823630e+001  -9.237185e+001 
3912500000  -3.883526e+001  -1.033569e+002 
3915625000  -4.016368e+001  -1.024311e+002 
3918750000  -4.011535e+001  -1.046203e+002 
3921875000  -3.927951e+001  -1.089218e+002 
3925000000  -3.862394e+001  -1.150787e+002 
3928125000  -3.819772e+001  -1.234756e+002 
3931250000  -3.869638e+001  -1.304432e+002 
3934375000  -3.944761e+001  -1.310814e+002 
3937500000  -3.992094e+001  -1.361720e+002 
3940625000  -3.987206e+001  -1.378794e+002 
3943750000  -3.875787e+001  -1.392771e+002 
3946875000  -3.850079e+001  -1.484064e+002 
3950000000  -3.936325e+001  -1.574717e+002 
3953125000  -3.988118e+001  -1.555538e+002 
3956250000  -3.873859e+001  -1.576096e+002 
3959375000  -3.769962e+001  -1.630181e+002 
3962500000  -3.751014e+001  -1.710599e+002 
3965625000  -3.773135e+001  -1.795506e+002 
3968750000  -3.854523e+001  1.718004e+002 
3971875000  -3.887286e+001  1.661385e+002 
3975000000  -3.832431e+001  1.617494e+002 
3978125000  -3.853302e+001  1.588309e+002 
3981250000  -3.870235e+001  1.508710e+002 
3984375000  -3.900902e+001  1.436121e+002 
3987500000  -3.958942e+001  1.402428e+002 
3990625000  -3.991700e+001  1.388528e+002 
3993750000  -4.006569e+001  1.343310e+002 
3996875000  -4.007133e+001  1.299579e+002 
4000000000  -4.051088e+001  1.231261e+002 
4003125000  -4.126685e+001  1.283805e+002 
4006250000  -3.959036e+001  1.261099e+002 
4009375000  -3.859901e+001  1.091498e+002 
4012500000  -4.017073e+001  1.037727e+002 
4015625000  -4.117801e+001  1.034538e+002 
4018750000  -4.122093e+001  1.046943e+002 
4021875000  -4.093900e+001  1.003713e+002 
4025000000  -4.028875e+001  9.456385e+001 
4028125000  -4.045784e+001  8.868995e+001 
4031250000  -4.091750e+001  8.312521e+001 
4034375000  -4.139992e+001  8.094116e+001 
4037500000  -4.103355e+001  8.359659e+001 
4040625000  -4.079076e+001  7.959970e+001 
4043750000  -4.090379e+001  7.639732e+001 
4046875000  -4.056207e+001  7.243389e+001 
4050000000  -4.051741e+001  6.790032e+001 
4053125000  -4.109146e+001  6.448383e+001 
4056250000  -4.106422e+001  6.641590e+001 
4059375000  -3.951902e+001  6.720808e+001 
4062500000  -3.879432e+001  5.722379e+001 
4065625000  -3.847959e+001  5.306796e+001 
4068750000  -3.811072e+001  4.572399e+001 
4071875000  -3.780145e+001  3.664441e+001 
4075000000  -3.809861e+001  2.850128e+001 
4078125000  -3.856538e+001  2.503614e+001 
4081250000  -3.786462e+001  1.912584e+001 
4084375000  -3.778973e+001  1.071747e+001 
4087500000  -3.823542e+001  3.409823e+000 
4090625000  -3.898619e+001  1.272782e+000 
4093750000  -3.835210e+001  -1.333518e-001 
4096875000  -3.826989e+001  -1.110694e+001 
4100000000  -3.919807e+001  -1.899891e+001 
4103125000  -4.035751e+001  -1.605499e+001 
4106250000  -3.968689e+001  -1.493489e+001 
4109375000  -3.893394e+001  -1.651932e+001 
4112500000  -3.831210e+001  -2.644919e+001 
4115625000  -3.879375e+001  -3.140303e+001 
4118750000  -3.892233e+001  -3.769901e+001 
4121875000  -3.874296e+001  -4.442228e+001 
4125000000  -3.948581e+001  -5.169999e+001 
4128125000  -4.037099e+001  -5.042019e+001 
4131250000  -3.965676e+001  -4.476697e+001 
4134375000  -3.739849e+001  -5.349504e+001 
4137500000  -3.754614e+001  -7.525720e+001 
4140625000  -4.015988e+001  -8.233857e+001 
4143750000  -4.120908e+001  -7.488407e+001 
4146875000  -4.033791e+001  -7.173119e+001 
4150000000  -3.919378e+001  -7.772639e+001 
4153125000  -3.962968e+001  -8.746860e+001 
4156250000  -4.092868e+001  -9.157542e+001 
4159375000  -4.079606e+001  -8.732277e+001 
4162500000  -3.947473e+001  -8.276611e+001 
4165625000  -3.866782e+001  -9.247458e+001 
4168750000  -3.825148e+001  -9.996648e+001 
4171875000  -3.826338e+001  -1.095328e+002 
4175000000  -3.891657e+001  -1.176134e+002 
4178125000  -3.920200e+001  -1.174808e+002 
4181250000  -3.909703e+001  -1.219157e+002 
4184375000  -3.906947e+001  -1.271546e+002 
4187500000  -3.924649e+001  -1.307852e+002 
4190625000  -3.918463e+001  -1.372163e+002 
4193750000  -4.028160e+001  -1.431411e+002 
4196875000  -4.097893e+001  -1.434499e+002 
4200000000  -4.191788e+001  -1.407466e+002 
4203125000  -4.057740e+001  -1.266370e+002 
4206250000  -3.739633e+001  -1.327051e+002 
4209375000  -3.696294e+001  -1.586739e+002 
4212500000  -3.920580e+001  -1.644217e+002 
4215625000  -3.956904e+001  -1.581066e+002 
4218750000  -3.778693e+001  -1.558872e+002 
4221875000  -3.621119e+001  -1.670779e+002 
4225000000  -3.759709e+001  -1.798601e+002 
4228125000  -3.761406e+001  -1.762977e+002 
4231250000  -3.591969e+001  1.757225e+002 
4234375000  -3.579208e+001  1.634081e+002 
4237500000  -3.550211e+001  1.586716e+002 
4240625000  -3.579001e+001  1.480270e+002 
4243750000  -3.686868e+001  1.397190e+002 
4246875000  -3.785086e+001  1.383792e+002 
4250000000  -3.770727e+001  1.391906e+002 
4253125000  -3.741665e+001  1.337315e+002 
4256250000  -3.737624e+001  1.288605e+002 
4259375000  -3.700730e+001  1.250093e+002 
4262500000  -3.716103e+001  1.197462e+002 
4265625000  -3.726571e+001  1.166813e+002 
4268750000  -3.632145e+001  1.098403e+002 
4271875000  -3.625853e+001  1.013763e+002 
4275000000  -3.569561e+001  9.191525e+001 
4278125000  -3.686094e+001  8.084231e+001 
4281250000  -3.825441e+001  7.827976e+001 
4284375000  -3.798896e+001  7.589871e+001 
4287500000  -3.955978e+001  7.261858e+001 
4290625000  -4.036772e+001  7.898314e+001 
4293750000  -3.806986e+001  8.153297e+001 
4296875000  -3.706116e+001  6.893126e+001 
4300000000  -3.852980e+001  5.907912e+001 
4303125000  -3.899274e+001  6.078347e+001 
4306250000  -3.823152e+001  6.316178e+001 
4309375000  -3.726925e+001  5.665945e+001 
4312500000  -3.712769e+001  4.552728e+001 
4315625000  -3.745005e+001  3.975360e+001 
4318750000  -3.809516e+001  3.463198e+001 
4321875000  -3.815084e+001  3.615617e+001 
4325000000  -3.759582e+001  3.323397e+001 
4328125000  -3.708538e+001  2.473526e+001 
4331250000  -3.710102e+001  1.421968e+001 
4334375000  -3.781271e+001  8.216194e+000 
4337500000  -3.889432e+001  7.814412e+000 
4340625000  -3.917848e+001  1.073811e+001 
4343750000  -3.823563e+001  8.249526e+000 
4346875000  -3.785609e+001  -8.486599e-001 
4350000000  -3.793261e+001  -8.085286e+000 
4353125000  -3.796545e+001  -1.564014e+001 
4356250000  -4.053605e+001  -1.497131e+001 
4359375000  -3.950932e+001  -6.640487e-001 
4362500000  -3.623625e+001  -5.894618e+000 
4365625000  -3.544070e+001  -2.241253e+001 
4368750000  -3.676713e+001  -3.350140e+001 
4371875000  -3.737555e+001  -3.420253e+001 
4375000000  -3.697675e+001  -3.702810e+001 
4378125000  -3.640719e+001  -4.566346e+001 
4381250000  -3.665348e+001  -5.260138e+001 
4384375000  -3.642645e+001  -5.880262e+001 
4387500000  -3.758736e+001  -6.556250e+001 
4390625000  -3.790798e+001  -6.643426e+001 
4393750000  -3.720097e+001  -6.621201e+001 
4396875000  -3.679992e+001  -7.136388e+001 
4400000000  -3.638902e+001  -8.062943e+001 
4403125000  -3.704066e+001  -9.005830e+001 
4406250000  -3.759024e+001  -9.356039e+001 
4409375000  -3.771945e+001  -9.804390e+001 
4412500000  -3.899415e+001  -1.000226e+002 
4415625000  -3.876839e+001  -9.695376e+001 
