!Agilent Technologies,E8363B,MY43030201,A.06.04.32
!Agilent E8363B: A.06.04.32
!Date: Tuesday, November 11, 2014 21:33:49
!Correction: S21(Response(S21)) 
!S1P File: Measurement: S21:
# Hz S  dB   R 50
3000000000  -4.064537e+001  7.377458e+001 
3003125000  -4.193255e+001  6.599293e+001 
3006250000  -4.224664e+001  6.544381e+001 
3009375000  -4.272770e+001  7.022773e+001 
3012500000  -4.152711e+001  6.438819e+001 
3015625000  -4.138899e+001  5.806757e+001 
3018750000  -4.169812e+001  5.885952e+001 
3021875000  -4.004653e+001  6.018022e+001 
3025000000  -3.888609e+001  5.594677e+001 
3028125000  -3.800748e+001  4.528166e+001 
3031250000  -3.705867e+001  3.331585e+001 
3034375000  -3.673088e+001  1.936297e+001 
3037500000  -3.756710e+001  9.048480e+000 
3040625000  -3.871480e+001  4.001894e+000 
3043750000  -3.911294e+001  -3.713561e+000 
3046875000  -3.985785e+001  -9.519214e+000 
3050000000  -4.089137e+001  -1.228076e+001 
3053125000  -4.055543e+001  -6.970869e+000 
3056250000  -4.045221e+001  -5.172624e+000 
3059375000  -3.986193e+001  -8.176393e+000 
3062500000  -3.825349e+001  -1.186660e+001 
3065625000  -3.769539e+001  -2.214795e+001 
3068750000  -3.754806e+001  -2.947049e+001 
3071875000  -3.760524e+001  -3.228283e+001 
3075000000  -3.701793e+001  -3.904018e+001 
3078125000  -3.721046e+001  -4.496347e+001 
3081250000  -3.722837e+001  -5.158822e+001 
3084375000  -3.632412e+001  -5.636281e+001 
3087500000  -3.658130e+001  -6.360270e+001 
3090625000  -3.597928e+001  -7.545200e+001 
3093750000  -3.701620e+001  -8.288452e+001 
3096875000  -3.723263e+001  -8.833262e+001 
3100000000  -3.724065e+001  -9.110220e+001 
3103125000  -3.756670e+001  -9.498521e+001 
3106250000  -3.720085e+001  -9.963941e+001 
3109375000  -3.723748e+001  -1.041111e+002 
3112500000  -3.710202e+001  -1.096171e+002 
3115625000  -3.706613e+001  -1.131458e+002 
3118750000  -3.715415e+001  -1.169428e+002 
3121875000  -3.667141e+001  -1.277805e+002 
3125000000  -3.846206e+001  -1.313875e+002 
3128125000  -3.838428e+001  -1.232620e+002 
3131250000  -3.606118e+001  -1.305457e+002 
3134375000  -3.545425e+001  -1.469653e+002 
3137500000  -3.602506e+001  -1.601480e+002 
3140625000  -3.738791e+001  -1.638521e+002 
3143750000  -3.809314e+001  -1.639859e+002 
3146875000  -3.749210e+001  -1.627646e+002 
3150000000  -3.671403e+001  -1.662446e+002 
3153125000  -3.717535e+001  -1.747085e+002 
3156250000  -3.792238e+001  -1.707614e+002 
3159375000  -3.561607e+001  -1.719803e+002 
3162500000  -3.428228e+001  1.720917e+002 
3165625000  -3.548220e+001  1.591423e+002 
3168750000  -3.532785e+001  1.580879e+002 
3171875000  -3.488002e+001  1.508042e+002 
3175000000  -3.534961e+001  1.417384e+002 
3178125000  -3.508931e+001  1.399895e+002 
3181250000  -3.444558e+001  1.318950e+002 
3184375000  -3.408176e+001  1.204439e+002 
3187500000  -3.547148e+001  1.060013e+002 
3190625000  -3.713961e+001  9.962017e+001 
3193750000  -3.763751e+001  1.047877e+002 
3196875000  -3.739607e+001  1.053835e+002 
3200000000  -3.606259e+001  1.008353e+002 
3203125000  -3.594778e+001  9.174260e+001 
3206250000  -3.616290e+001  8.537662e+001 
3209375000  -3.578815e+001  7.694848e+001 
3212500000  -3.621399e+001  6.958746e+001 
3215625000  -3.609631e+001  6.769930e+001 
3218750000  -3.673281e+001  5.665071e+001 
3221875000  -3.727568e+001  4.990159e+001 
3225000000  -3.699189e+001  4.567787e+001 
3228125000  -3.776511e+001  3.851794e+001 
3231250000  -3.825593e+001  3.641735e+001 
3234375000  -3.792314e+001  3.299603e+001 
3237500000  -3.804254e+001  2.959509e+001 
3240625000  -3.766623e+001  2.362089e+001 
3243750000  -3.759890e+001  1.362193e+001 
3246875000  -3.812808e+001  6.561827e+000 
3250000000  -3.886806e+001  2.815781e+000 
3253125000  -3.885958e+001  1.229112e-001 
3256250000  -3.856466e+001  -8.423599e+000 
3259375000  -3.902494e+001  -1.978746e+001 
3262500000  -4.054898e+001  -2.159538e+001 
3265625000  -4.134189e+001  -1.988498e+001 
3268750000  -4.105962e+001  -1.831889e+001 
3271875000  -4.049971e+001  -2.250318e+001 
3275000000  -4.012652e+001  -3.167807e+001 
3278125000  -4.081059e+001  -3.625155e+001 
3281250000  -4.111028e+001  -3.763074e+001 
3284375000  -4.052221e+001  -4.335365e+001 
3287500000  -4.096462e+001  -4.760175e+001 
3290625000  -4.137156e+001  -5.626529e+001 
3293750000  -4.113260e+001  -6.190060e+001 
3296875000  -4.244318e+001  -6.207984e+001 
3300000000  -4.212333e+001  -6.236534e+001 
3303125000  -4.107313e+001  -6.922021e+001 
3306250000  -4.080709e+001  -7.585019e+001 
3309375000  -4.029795e+001  -8.211684e+001 
3312500000  -4.097103e+001  -9.600957e+001 
3315625000  -4.234108e+001  -1.024829e+002 
3318750000  -4.357550e+001  -1.076340e+002 
3321875000  -4.459885e+001  -1.035307e+002 
3325000000  -4.478548e+001  -9.627643e+001 
3328125000  -4.405246e+001  -9.430946e+001 
3331250000  -4.211457e+001  -9.411846e+001 
3334375000  -3.967030e+001  -1.105005e+002 
3337500000  -4.025263e+001  -1.302228e+002 
3340625000  -4.238941e+001  -1.389703e+002 
3343750000  -4.396278e+001  -1.382259e+002 
3346875000  -4.345131e+001  -1.390865e+002 
3350000000  -4.304961e+001  -1.433047e+002 
3353125000  -4.272603e+001  -1.511993e+002 
3356250000  -4.245778e+001  -1.577218e+002 
3359375000  -4.332014e+001  -1.699643e+002 
3362500000  -4.461966e+001  -1.735420e+002 
3365625000  -4.478618e+001  -1.794219e+002 
3368750000  -4.533466e+001  1.779673e+002 
3371875000  -4.611573e+001  1.736779e+002 
3375000000  -4.755635e+001  1.690535e+002 
3378125000  -4.823097e+001  1.667265e+002 
3381250000  -4.935252e+001  -1.765596e+002 
3384375000  -4.665977e+001  -1.661365e+002 
3387500000  -4.385637e+001  1.727559e+002 
3390625000  -4.610949e+001  1.519453e+002 
3393750000  -4.689387e+001  1.541638e+002 
3396875000  -4.593588e+001  1.517017e+002 
3400000000  -4.597049e+001  1.417674e+002 
3403125000  -4.627370e+001  1.354582e+002 
3406250000  -4.768871e+001  1.279021e+002 
3409375000  -4.745477e+001  1.265879e+002 
3412500000  -4.942927e+001  1.222184e+002 
3415625000  -5.001706e+001  1.177549e+002 
3418750000  -5.039603e+001  1.201238e+002 
3421875000  -5.089112e+001  1.187701e+002 
3425000000  -4.949015e+001  1.193719e+002 
3428125000  -4.945475e+001  1.171691e+002 
3431250000  -5.005345e+001  1.022816e+002 
3434375000  -5.094915e+001  1.015902e+002 
3437500000  -5.150387e+001  1.021645e+002 
3440625000  -5.179919e+001  1.026829e+002 
3443750000  -5.064719e+001  1.039121e+002 
3446875000  -5.058241e+001  1.034195e+002 
3450000000  -4.978379e+001  9.134278e+001 
3453125000  -5.122295e+001  8.266776e+001 
3456250000  -5.243553e+001  8.118077e+001 
3459375000  -5.317387e+001  7.781925e+001 
3462500000  -5.262206e+001  8.461591e+001 
3465625000  -5.121804e+001  7.354540e+001 
3468750000  -5.195342e+001  7.782868e+001 
3471875000  -5.246187e+001  8.016184e+001 
3475000000  -5.123149e+001  7.047560e+001 
3478125000  -5.125621e+001  5.868737e+001 
3481250000  -5.303326e+001  7.065783e+001 
3484375000  -5.211178e+001  6.829493e+001 
3487500000  -5.268779e+001  6.177357e+001 
3490625000  -5.087014e+001  5.219549e+001 
3493750000  -5.150508e+001  4.952530e+001 
3496875000  -5.228794e+001  4.765799e+001 
3500000000  -5.276672e+001  4.543151e+001 
3503125000  -5.045681e+001  4.819177e+001 
3506250000  -5.079235e+001  3.838905e+001 
3509375000  -4.992740e+001  2.370604e+001 
3512500000  -5.020613e+001  1.289120e+001 
3515625000  -5.209985e+001  1.413912e+001 
3518750000  -5.209352e+001  1.435477e+001 
3521875000  -5.235245e+001  9.299216e+000 
3525000000  -5.424744e+001  -2.269573e+000 
3528125000  -5.305276e+001  3.533734e+000 
3531250000  -5.220393e+001  -1.980379e+000 
3534375000  -5.302877e+001  -1.804282e+001 
3537500000  -5.445535e+001  -2.577286e+001 
3540625000  -5.410102e+001  -2.640598e+001 
3543750000  -5.616130e+001  -1.929899e+001 
3546875000  -5.520702e+001  -8.187709e+000 
3550000000  -5.409131e+001  -1.339500e+001 
3553125000  -5.366373e+001  -3.157193e+001 
3556250000  -5.521765e+001  -3.431859e+001 
3559375000  -5.708795e+001  -2.891457e+001 
3562500000  -5.553370e+001  -4.214876e+001 
3565625000  -5.617707e+001  -4.076587e+001 
3568750000  -5.740591e+001  -3.583610e+001 
3571875000  -5.750460e+001  -3.600704e+001 
3575000000  -5.929014e+001  -5.094535e+001 
3578125000  -5.778168e+001  -4.170863e+001 
3581250000  -5.950574e+001  -4.538280e+001 
3584375000  -5.644538e+001  -3.729366e+001 
3587500000  -5.705573e+001  -3.866731e+001 
3590625000  -5.777148e+001  -6.044211e+001 
3593750000  -5.838074e+001  -3.896652e+001 
3596875000  -5.707960e+001  -3.434237e+001 
3600000000  -5.863843e+001  -3.898108e+001 
3603125000  -5.933478e+001  -6.125573e+001 
3606250000  -5.728283e+001  -5.187165e+001 
3609375000  -5.891150e+001  -4.548095e+001 
3612500000  -5.937796e+001  -4.771136e+001 
3615625000  -5.995050e+001  -5.977816e+001 
3618750000  -5.826091e+001  -4.919342e+001 
3621875000  -5.688493e+001  -4.712131e+001 
3625000000  -5.796494e+001  -5.284456e+001 
3628125000  -5.713712e+001  -3.530875e+001 
3631250000  -5.610984e+001  -5.145089e+001 
3634375000  -5.716684e+001  -3.960289e+001 
3637500000  -5.536432e+001  -4.216941e+001 
3640625000  -5.441185e+001  -3.346277e+001 
3643750000  -5.296714e+001  -4.670017e+001 
3646875000  -5.344080e+001  -5.310656e+001 
3650000000  -5.319489e+001  -6.093342e+001 
3653125000  -5.184536e+001  -5.969871e+001 
3656250000  -5.240500e+001  -5.797601e+001 
3659375000  -5.120055e+001  -6.941375e+001 
3662500000  -5.025826e+001  -6.725233e+001 
3665625000  -4.966692e+001  -6.805824e+001 
3668750000  -4.772719e+001  -7.392897e+001 
3671875000  -4.703927e+001  -8.396395e+001 
3675000000  -4.756464e+001  -9.227419e+001 
3678125000  -4.730463e+001  -9.519718e+001 
3681250000  -4.646704e+001  -9.988470e+001 
3684375000  -4.702419e+001  -1.051857e+002 
3687500000  -4.688590e+001  -1.100104e+002 
3690625000  -4.689492e+001  -1.170500e+002 
3693750000  -4.698592e+001  -1.187631e+002 
3696875000  -4.635161e+001  -1.178083e+002 
3700000000  -4.523337e+001  -1.271423e+002 
3703125000  -4.540733e+001  -1.313453e+002 
3706250000  -4.624323e+001  -1.323376e+002 
3709375000  -4.496198e+001  -1.319244e+002 
3712500000  -4.322117e+001  -1.369614e+002 
3715625000  -4.187246e+001  -1.463469e+002 
3718750000  -4.180559e+001  -1.516984e+002 
3721875000  -4.121770e+001  -1.615548e+002 
3725000000  -4.162326e+001  -1.690863e+002 
3728125000  -4.147302e+001  -1.729801e+002 
3731250000  -4.074208e+001  -1.794540e+002 
3734375000  -4.035692e+001  1.739086e+002 
3737500000  -4.071350e+001  1.632056e+002 
3740625000  -4.102899e+001  1.611488e+002 
3743750000  -4.031565e+001  1.511336e+002 
3746875000  -4.054815e+001  1.456582e+002 
3750000000  -4.091388e+001  1.405119e+002 
3753125000  -4.060450e+001  1.388049e+002 
3756250000  -4.071170e+001  1.353255e+002 
3759375000  -4.044438e+001  1.301220e+002 
3762500000  -4.016466e+001  1.225121e+002 
3765625000  -4.103559e+001  1.184774e+002 
3768750000  -4.016728e+001  1.194503e+002 
3771875000  -3.833216e+001  1.112939e+002 
3775000000  -3.850227e+001  9.830394e+001 
3778125000  -3.895754e+001  9.360187e+001 
3781250000  -3.897822e+001  8.999661e+001 
3784375000  -3.873875e+001  8.374881e+001 
3787500000  -3.847225e+001  7.710835e+001 
3790625000  -3.927800e+001  6.817115e+001 
3793750000  -3.908805e+001  6.510863e+001 
3796875000  -3.829640e+001  5.972723e+001 
3800000000  -3.636614e+001  5.604826e+001 
3803125000  -3.807526e+001  4.172984e+001 
3806250000  -3.896024e+001  3.836219e+001 
3809375000  -3.853973e+001  3.212835e+001 
3812500000  -3.834795e+001  2.541499e+001 
3815625000  -3.956764e+001  1.624600e+001 
3818750000  -4.051871e+001  1.884320e+001 
3821875000  -4.018080e+001  2.711862e+001 
3825000000  -3.827819e+001  2.325486e+001 
3828125000  -3.714274e+001  3.976598e+000 
3831250000  -3.803522e+001  -8.857791e+000 
3834375000  -4.039334e+001  -9.746944e+000 
3837500000  -4.066232e+001  -6.297402e+000 
3840625000  -3.888532e+001  -1.003394e+001 
3843750000  -3.832249e+001  -2.404315e+001 
3846875000  -3.973228e+001  -3.105613e+001 
3850000000  -4.071016e+001  -2.376913e+001 
3853125000  -4.018590e+001  -2.460660e+001 
3856250000  -3.967094e+001  -3.308251e+001 
3859375000  -3.859028e+001  -4.034545e+001 
3862500000  -3.844653e+001  -5.016997e+001 
3865625000  -3.896477e+001  -5.380537e+001 
3868750000  -3.853510e+001  -5.522250e+001 
3871875000  -3.796494e+001  -6.314959e+001 
3875000000  -3.842919e+001  -7.387452e+001 
3878125000  -3.926024e+001  -7.750887e+001 
3881250000  -3.924817e+001  -7.514093e+001 
3884375000  -3.882350e+001  -8.369159e+001 
3887500000  -3.916572e+001  -9.035844e+001 
3890625000  -3.949775e+001  -9.472266e+001 
3893750000  -3.979066e+001  -9.617770e+001 
3896875000  -4.012404e+001  -9.866727e+001 
3900000000  -4.000344e+001  -1.030775e+002 
3903125000  -3.907574e+001  -1.059940e+002 
3906250000  -3.907238e+001  -1.100300e+002 
3909375000  -3.835632e+001  -1.200058e+002 
3912500000  -3.893918e+001  -1.295923e+002 
3915625000  -4.030601e+001  -1.279611e+002 
3918750000  -3.993414e+001  -1.294530e+002 
3921875000  -3.942689e+001  -1.334594e+002 
3925000000  -3.842102e+001  -1.393567e+002 
3928125000  -3.842543e+001  -1.502667e+002 
3931250000  -3.914262e+001  -1.554503e+002 
3934375000  -3.970438e+001  -1.573599e+002 
3937500000  -4.002972e+001  -1.592305e+002 
3940625000  -4.008897e+001  -1.626024e+002 
3943750000  -3.897713e+001  -1.641619e+002 
3946875000  -3.858377e+001  -1.724554e+002 
3950000000  -3.963658e+001  1.771100e+002 
3953125000  -4.024533e+001  1.790236e+002 
3956250000  -3.886041e+001  1.784997e+002 
3959375000  -3.773067e+001  1.736606e+002 
3962500000  -3.782410e+001  1.629789e+002 
3965625000  -3.788705e+001  1.543459e+002 
3968750000  -3.869870e+001  1.445641e+002 
3971875000  -3.869641e+001  1.410684e+002 
3975000000  -3.834562e+001  1.380609e+002 
3978125000  -3.853703e+001  1.325487e+002 
3981250000  -3.857723e+001  1.269229e+002 
3984375000  -3.884982e+001  1.188469e+002 
3987500000  -3.965076e+001  1.146270e+002 
3990625000  -3.989529e+001  1.143663e+002 
3993750000  -3.986196e+001  1.085078e+002 
3996875000  -4.035348e+001  1.038445e+002 
4000000000  -4.077597e+001  1.009785e+002 
4003125000  -4.085662e+001  1.031608e+002 
4006250000  -3.934619e+001  9.835725e+001 
4009375000  -3.866240e+001  8.471136e+001 
4012500000  -4.035357e+001  7.728704e+001 
4015625000  -4.140555e+001  7.617195e+001 
4018750000  -4.147967e+001  7.525629e+001 
4021875000  -4.061006e+001  7.300076e+001 
4025000000  -4.056234e+001  6.835300e+001 
4028125000  -4.037629e+001  6.017921e+001 
4031250000  -4.149550e+001  5.628338e+001 
4034375000  -4.161103e+001  5.797670e+001 
4037500000  -4.080219e+001  5.618079e+001 
4040625000  -4.095428e+001  5.113211e+001 
4043750000  -4.114565e+001  4.642526e+001 
4046875000  -4.077887e+001  4.630631e+001 
4050000000  -4.040932e+001  3.997495e+001 
4053125000  -4.101992e+001  3.715677e+001 
4056250000  -4.177490e+001  4.326255e+001 
4059375000  -3.960389e+001  3.926613e+001 
4062500000  -3.860291e+001  3.007292e+001 
4065625000  -3.880875e+001  2.471193e+001 
4068750000  -3.825203e+001  1.716943e+001 
4071875000  -3.769646e+001  8.199694e+000 
4075000000  -3.829967e+001  1.320633e+000 
4078125000  -3.882691e+001  -2.424890e+000 
4081250000  -3.818075e+001  -7.205346e+000 
4084375000  -3.799329e+001  -1.646413e+001 
4087500000  -3.856963e+001  -2.324512e+001 
4090625000  -3.892412e+001  -2.644034e+001 
4093750000  -3.853641e+001  -2.801976e+001 
4096875000  -3.874992e+001  -3.838707e+001 
4100000000  -3.961959e+001  -4.393722e+001 
4103125000  -4.062419e+001  -4.111194e+001 
4106250000  -3.998177e+001  -3.805315e+001 
4109375000  -3.930987e+001  -4.265926e+001 
4112500000  -3.864857e+001  -5.138912e+001 
4115625000  -3.919159e+001  -5.975749e+001 
4118750000  -3.913955e+001  -6.455428e+001 
4121875000  -3.905191e+001  -7.191632e+001 
4125000000  -3.984333e+001  -7.780302e+001 
4128125000  -4.088729e+001  -7.507982e+001 
4131250000  -3.991794e+001  -6.960876e+001 
4134375000  -3.757661e+001  -7.939480e+001 
4137500000  -3.826373e+001  -9.997812e+001 
4140625000  -4.027179e+001  -1.068594e+002 
4143750000  -4.149257e+001  -1.015896e+002 
4146875000  -4.066654e+001  -1.002234e+002 
4150000000  -3.929674e+001  -1.061561e+002 
4153125000  -3.979330e+001  -1.124685e+002 
4156250000  -4.108674e+001  -1.186807e+002 
4159375000  -4.124906e+001  -1.116550e+002 
4162500000  -3.997493e+001  -1.101257e+002 
4165625000  -3.900793e+001  -1.166091e+002 
4168750000  -3.858130e+001  -1.273304e+002 
4171875000  -3.827336e+001  -1.368878e+002 
4175000000  -3.930173e+001  -1.429825e+002 
4178125000  -3.942358e+001  -1.451592e+002 
4181250000  -3.941343e+001  -1.486709e+002 
4184375000  -3.964412e+001  -1.522816e+002 
4187500000  -3.947389e+001  -1.562839e+002 
4190625000  -3.946336e+001  -1.661625e+002 
4193750000  -4.059742e+001  -1.706268e+002 
4196875000  -4.109312e+001  -1.701776e+002 
4200000000  -4.241541e+001  -1.650950e+002 
4203125000  -4.079323e+001  -1.522938e+002 
4206250000  -3.732423e+001  -1.620352e+002 
4209375000  -3.743428e+001  1.750975e+002 
4212500000  -3.964351e+001  1.670655e+002 
4215625000  -4.006564e+001  1.746255e+002 
4218750000  -3.806262e+001  1.751757e+002 
4221875000  -3.684752e+001  1.652192e+002 
4225000000  -3.773884e+001  1.546381e+002 
4228125000  -3.771598e+001  1.538037e+002 
4231250000  -3.614547e+001  1.468207e+002 
4234375000  -3.663380e+001  1.364308e+002 
4237500000  -3.608966e+001  1.319460e+002 
4240625000  -3.626238e+001  1.196084e+002 
4243750000  -3.740207e+001  1.105906e+002 
4246875000  -3.850367e+001  1.103829e+002 
4250000000  -3.822624e+001  1.120386e+002 
4253125000  -3.803822e+001  1.056075e+002 
4256250000  -3.801931e+001  1.040759e+002 
4259375000  -3.769552e+001  9.818547e+001 
4262500000  -3.806836e+001  9.278272e+001 
4265625000  -3.798345e+001  9.266259e+001 
4268750000  -3.697367e+001  8.365530e+001 
4271875000  -3.675772e+001  7.481341e+001 
4275000000  -3.669468e+001  6.646278e+001 
4278125000  -3.770834e+001  5.483299e+001 
4281250000  -3.927179e+001  5.225680e+001 
4284375000  -3.870310e+001  5.033598e+001 
4287500000  -4.041131e+001  4.687066e+001 
4290625000  -4.064924e+001  5.573408e+001 
4293750000  -3.852847e+001  5.629903e+001 
4296875000  -3.776880e+001  4.212748e+001 
4300000000  -3.910956e+001  3.414550e+001 
4303125000  -3.996556e+001  3.550900e+001 
4306250000  -3.871148e+001  3.712688e+001 
4309375000  -3.774394e+001  3.143183e+001 
4312500000  -3.740557e+001  2.102488e+001 
4315625000  -3.812199e+001  1.508351e+001 
4318750000  -3.852852e+001  9.845323e+000 
4321875000  -3.860788e+001  1.165852e+001 
4325000000  -3.805338e+001  8.639070e+000 
4328125000  -3.721157e+001  -2.144390e+000 
4331250000  -3.743771e+001  -1.185322e+001 
4334375000  -3.824683e+001  -1.912813e+001 
4337500000  -3.927155e+001  -1.788531e+001 
4340625000  -3.969027e+001  -1.565794e+001 
4343750000  -3.856235e+001  -1.739226e+001 
4346875000  -3.840578e+001  -2.640323e+001 
4350000000  -3.818517e+001  -3.542325e+001 
4353125000  -3.892925e+001  -4.306882e+001 
4356250000  -4.062198e+001  -3.860943e+001 
4359375000  -3.990667e+001  -2.352060e+001 
4362500000  -3.673585e+001  -3.206884e+001 
4365625000  -3.621380e+001  -5.136304e+001 
4368750000  -3.725822e+001  -5.963166e+001 
4371875000  -3.765889e+001  -6.064129e+001 
4375000000  -3.729185e+001  -6.258270e+001 
4378125000  -3.686238e+001  -7.058679e+001 
4381250000  -3.707528e+001  -7.987593e+001 
4384375000  -3.730286e+001  -8.504316e+001 
4387500000  -3.830603e+001  -9.127916e+001 
4390625000  -3.848957e+001  -9.187494e+001 
4393750000  -3.793018e+001  -9.229050e+001 
4396875000  -3.739155e+001  -9.652832e+001 
4400000000  -3.678700e+001  -1.060502e+002 
4403125000  -3.773741e+001  -1.154912e+002 
4406250000  -3.845902e+001  -1.205491e+002 
4409375000  -3.899105e+001  -1.245235e+002 
4412500000  -3.968282e+001  -1.251169e+002 
4415625000  -3.950348e+001  -1.221316e+002 
