!Agilent Technologies,E8363B,MY43030201,A.06.04.32
!Agilent E8363B: A.06.04.32
!Date: Tuesday, November 11, 2014 21:33:16
!Correction: S21(Response(S21)) 
!S1P File: Measurement: S21:
# Hz S  dB   R 50
3000000000  -4.063368e+001  7.451975e+001 
3003125000  -4.208742e+001  6.669997e+001 
3006250000  -4.199149e+001  6.760507e+001 
3009375000  -4.260008e+001  7.025866e+001 
3012500000  -4.163478e+001  6.471728e+001 
3015625000  -4.144184e+001  5.849475e+001 
3018750000  -4.168708e+001  5.940046e+001 
3021875000  -4.010779e+001  6.009713e+001 
3025000000  -3.886108e+001  5.719454e+001 
3028125000  -3.801262e+001  4.628040e+001 
3031250000  -3.690319e+001  3.373544e+001 
3034375000  -3.671766e+001  2.109623e+001 
3037500000  -3.764676e+001  1.005308e+001 
3040625000  -3.878128e+001  4.625929e+000 
3043750000  -3.918475e+001  -2.484038e+000 
3046875000  -3.972141e+001  -8.458046e+000 
3050000000  -4.090157e+001  -1.198693e+001 
3053125000  -4.059315e+001  -6.873089e+000 
3056250000  -4.062463e+001  -3.970902e+000 
3059375000  -3.964745e+001  -7.561956e+000 
3062500000  -3.833132e+001  -1.168869e+001 
3065625000  -3.782364e+001  -2.071342e+001 
3068750000  -3.755094e+001  -2.887374e+001 
3071875000  -3.767280e+001  -3.187383e+001 
3075000000  -3.701974e+001  -3.772676e+001 
3078125000  -3.721024e+001  -4.496417e+001 
3081250000  -3.714627e+001  -4.992366e+001 
3084375000  -3.623272e+001  -5.558034e+001 
3087500000  -3.648204e+001  -6.199906e+001 
3090625000  -3.603454e+001  -7.448275e+001 
3093750000  -3.695556e+001  -8.189005e+001 
3096875000  -3.736308e+001  -8.660625e+001 
3100000000  -3.717790e+001  -9.050858e+001 
3103125000  -3.753504e+001  -9.387333e+001 
3106250000  -3.722574e+001  -9.862706e+001 
3109375000  -3.724340e+001  -1.025535e+002 
3112500000  -3.717908e+001  -1.088982e+002 
3115625000  -3.723365e+001  -1.131328e+002 
3118750000  -3.722364e+001  -1.162807e+002 
3121875000  -3.657817e+001  -1.268545e+002 
3125000000  -3.860784e+001  -1.301365e+002 
3128125000  -3.845510e+001  -1.228359e+002 
3131250000  -3.601202e+001  -1.291624e+002 
3134375000  -3.537778e+001  -1.464734e+002 
3137500000  -3.608731e+001  -1.592957e+002 
3140625000  -3.729797e+001  -1.600668e+002 
3143750000  -3.807702e+001  -1.638876e+002 
3146875000  -3.754749e+001  -1.617851e+002 
3150000000  -3.695871e+001  -1.653279e+002 
3153125000  -3.716956e+001  -1.737137e+002 
3156250000  -3.790834e+001  -1.696179e+002 
3159375000  -3.557212e+001  -1.716104e+002 
3162500000  -3.429973e+001  1.728860e+002 
3165625000  -3.540272e+001  1.607828e+002 
3168750000  -3.543257e+001  1.597564e+002 
3171875000  -3.491372e+001  1.524226e+002 
3175000000  -3.546861e+001  1.433490e+002 
3178125000  -3.506618e+001  1.409567e+002 
3181250000  -3.436922e+001  1.327020e+002 
3184375000  -3.423561e+001  1.215859e+002 
3187500000  -3.533207e+001  1.075445e+002 
3190625000  -3.703973e+001  1.012709e+002 
3193750000  -3.750301e+001  1.054393e+002 
3196875000  -3.724274e+001  1.062933e+002 
3200000000  -3.621341e+001  1.015300e+002 
3203125000  -3.588235e+001  9.403664e+001 
3206250000  -3.616898e+001  8.597273e+001 
3209375000  -3.579576e+001  7.753513e+001 
3212500000  -3.631464e+001  7.179461e+001 
3215625000  -3.604859e+001  6.923946e+001 
3218750000  -3.692717e+001  5.707641e+001 
3221875000  -3.725427e+001  5.133281e+001 
3225000000  -3.700257e+001  4.752822e+001 
3228125000  -3.775598e+001  4.012971e+001 
3231250000  -3.818285e+001  3.750444e+001 
3234375000  -3.803938e+001  3.395093e+001 
3237500000  -3.810488e+001  3.028048e+001 
3240625000  -3.748881e+001  2.482987e+001 
3243750000  -3.777115e+001  1.519071e+001 
3246875000  -3.814666e+001  7.068364e+000 
3250000000  -3.887618e+001  3.960344e+000 
3253125000  -3.902531e+001  8.370236e-001 
3256250000  -3.850069e+001  -7.756765e+000 
3259375000  -3.908730e+001  -1.872745e+001 
3262500000  -4.057775e+001  -2.150462e+001 
3265625000  -4.140232e+001  -1.902261e+001 
3268750000  -4.114435e+001  -1.899514e+001 
3271875000  -4.069364e+001  -2.146992e+001 
3275000000  -4.016595e+001  -2.995765e+001 
3278125000  -4.068040e+001  -3.462234e+001 
3281250000  -4.108269e+001  -3.750962e+001 
3284375000  -4.064698e+001  -4.161777e+001 
3287500000  -4.109960e+001  -4.614404e+001 
3290625000  -4.102431e+001  -5.377838e+001 
3293750000  -4.117447e+001  -5.964701e+001 
3296875000  -4.237138e+001  -6.231070e+001 
3300000000  -4.159776e+001  -6.122843e+001 
3303125000  -4.085827e+001  -6.793128e+001 
3306250000  -4.083679e+001  -7.613845e+001 
3309375000  -4.044210e+001  -8.183584e+001 
3312500000  -4.108485e+001  -9.467044e+001 
3315625000  -4.211586e+001  -1.009652e+002 
3318750000  -4.385339e+001  -1.056964e+002 
3321875000  -4.502382e+001  -1.014293e+002 
3325000000  -4.461533e+001  -9.648284e+001 
3328125000  -4.369400e+001  -9.424335e+001 
3331250000  -4.221372e+001  -9.341847e+001 
3334375000  -3.981019e+001  -1.082415e+002 
3337500000  -4.037721e+001  -1.297082e+002 
3340625000  -4.254954e+001  -1.389592e+002 
3343750000  -4.390027e+001  -1.374970e+002 
3346875000  -4.321615e+001  -1.378198e+002 
3350000000  -4.295786e+001  -1.435926e+002 
3353125000  -4.280000e+001  -1.487803e+002 
3356250000  -4.279689e+001  -1.569000e+002 
3359375000  -4.351359e+001  -1.689704e+002 
3362500000  -4.436626e+001  -1.733178e+002 
3365625000  -4.468927e+001  -1.756594e+002 
3368750000  -4.535060e+001  1.783203e+002 
3371875000  -4.592355e+001  1.744755e+002 
3375000000  -4.787944e+001  1.689976e+002 
3378125000  -4.829680e+001  1.692554e+002 
3381250000  -5.001545e+001  1.780227e+002 
3384375000  -4.641582e+001  -1.647769e+002 
3387500000  -4.408900e+001  1.742039e+002 
3390625000  -4.631863e+001  1.541027e+002 
3393750000  -4.685039e+001  1.538483e+002 
3396875000  -4.592722e+001  1.552339e+002 
3400000000  -4.610076e+001  1.398826e+002 
3403125000  -4.691896e+001  1.378172e+002 
3406250000  -4.799347e+001  1.311521e+002 
3409375000  -4.845097e+001  1.238827e+002 
3412500000  -4.868533e+001  1.194544e+002 
3415625000  -5.013420e+001  1.181760e+002 
3418750000  -5.002530e+001  1.187663e+002 
3421875000  -5.128976e+001  1.259363e+002 
3425000000  -5.018745e+001  1.201076e+002 
3428125000  -4.993811e+001  1.182833e+002 
3431250000  -5.006264e+001  1.093935e+002 
3434375000  -5.075628e+001  1.040449e+002 
3437500000  -5.171180e+001  1.054451e+002 
3440625000  -5.170886e+001  1.071523e+002 
3443750000  -5.067582e+001  1.097183e+002 
3446875000  -5.096138e+001  1.037951e+002 
3450000000  -5.007838e+001  8.829337e+001 
3453125000  -5.094392e+001  8.308260e+001 
3456250000  -5.242825e+001  8.266689e+001 
3459375000  -5.301661e+001  8.500924e+001 
3462500000  -5.222446e+001  9.190415e+001 
3465625000  -5.139544e+001  8.145391e+001 
3468750000  -5.247081e+001  8.052770e+001 
3471875000  -5.210737e+001  7.896388e+001 
3475000000  -5.097367e+001  7.266319e+001 
3478125000  -5.183685e+001  6.074763e+001 
3481250000  -5.306236e+001  6.829267e+001 
3484375000  -5.205612e+001  6.271340e+001 
3487500000  -5.136904e+001  6.523268e+001 
3490625000  -5.074104e+001  5.610173e+001 
3493750000  -5.155673e+001  5.084381e+001 
3496875000  -5.051282e+001  4.753451e+001 
3500000000  -5.200863e+001  4.658788e+001 
3503125000  -5.043781e+001  4.944399e+001 
3506250000  -5.007845e+001  3.205509e+001 
3509375000  -4.978831e+001  2.464323e+001 
3512500000  -5.049211e+001  1.371933e+001 
3515625000  -5.212286e+001  1.135585e+001 
3518750000  -5.227883e+001  1.490675e+001 
3521875000  -5.301191e+001  4.233557e+000 
3525000000  -5.357014e+001  -1.470112e+000 
3528125000  -5.294390e+001  9.402955e+000 
3531250000  -5.204573e+001  2.897771e+000 
3534375000  -5.309244e+001  -8.609169e+000 
3537500000  -5.371873e+001  -2.486149e+001 
3540625000  -5.408324e+001  -2.319435e+001 
3543750000  -5.596369e+001  -9.366488e+000 
3546875000  -5.545567e+001  -5.557297e+000 
3550000000  -5.395104e+001  -1.611770e+001 
3553125000  -5.348988e+001  -3.006408e+001 
3556250000  -5.585685e+001  -3.011869e+001 
3559375000  -5.687767e+001  -3.467606e+001 
3562500000  -5.745082e+001  -4.771742e+001 
3565625000  -5.643566e+001  -5.307117e+001 
3568750000  -5.777306e+001  -3.052925e+001 
3571875000  -5.652332e+001  -4.162302e+001 
3575000000  -5.814450e+001  -3.359528e+001 
3578125000  -6.007168e+001  -5.260456e+001 
3581250000  -5.759435e+001  -3.566314e+001 
3584375000  -5.734536e+001  -3.163255e+001 
3587500000  -5.926617e+001  -3.372705e+001 
3590625000  -5.837102e+001  -6.310129e+001 
3593750000  -6.002279e+001  -3.516404e+001 
3596875000  -5.787778e+001  -4.007384e+001 
3600000000  -5.835246e+001  -4.340519e+001 
3603125000  -5.779936e+001  -5.794669e+001 
3606250000  -5.802986e+001  -5.078640e+001 
3609375000  -6.006148e+001  -4.858102e+001 
3612500000  -5.863593e+001  -3.398362e+001 
3615625000  -5.938260e+001  -3.892529e+001 
3618750000  -5.890422e+001  -4.348502e+001 
3621875000  -5.994710e+001  -4.171255e+001 
3625000000  -5.809040e+001  -4.852830e+001 
3628125000  -5.694542e+001  -3.973719e+001 
3631250000  -5.548818e+001  -4.953159e+001 
3634375000  -5.557467e+001  -4.144503e+001 
3637500000  -5.524173e+001  -4.354018e+001 
3640625000  -5.395650e+001  -3.891857e+001 
3643750000  -5.317954e+001  -4.972576e+001 
3646875000  -5.382389e+001  -6.104488e+001 
3650000000  -5.270720e+001  -5.521033e+001 
3653125000  -5.129044e+001  -5.644429e+001 
3656250000  -5.167077e+001  -6.243521e+001 
3659375000  -5.145531e+001  -5.702273e+001 
3662500000  -4.980703e+001  -6.944614e+001 
3665625000  -4.985412e+001  -6.958484e+001 
3668750000  -4.787391e+001  -7.132524e+001 
3671875000  -4.747283e+001  -8.347556e+001 
3675000000  -4.696231e+001  -9.192314e+001 
3678125000  -4.697194e+001  -8.926832e+001 
3681250000  -4.705853e+001  -9.846084e+001 
3684375000  -4.699232e+001  -1.060245e+002 
3687500000  -4.697487e+001  -1.090038e+002 
3690625000  -4.646347e+001  -1.155340e+002 
3693750000  -4.697382e+001  -1.172183e+002 
3696875000  -4.645882e+001  -1.141799e+002 
3700000000  -4.538017e+001  -1.245461e+002 
3703125000  -4.544617e+001  -1.295531e+002 
3706250000  -4.597441e+001  -1.305412e+002 
3709375000  -4.507405e+001  -1.315893e+002 
3712500000  -4.356755e+001  -1.358324e+002 
3715625000  -4.203195e+001  -1.456913e+002 
3718750000  -4.199221e+001  -1.517557e+002 
3721875000  -4.120211e+001  -1.622069e+002 
3725000000  -4.177807e+001  -1.682375e+002 
3728125000  -4.143624e+001  -1.719122e+002 
3731250000  -4.056298e+001  -1.776392e+002 
3734375000  -4.032160e+001  1.758328e+002 
3737500000  -4.086090e+001  1.664536e+002 
3740625000  -4.065001e+001  1.604892e+002 
3743750000  -4.059961e+001  1.541974e+002 
3746875000  -4.085535e+001  1.473688e+002 
3750000000  -4.102916e+001  1.425698e+002 
3753125000  -4.056556e+001  1.404929e+002 
3756250000  -4.060443e+001  1.361120e+002 
3759375000  -4.034982e+001  1.294444e+002 
3762500000  -4.014478e+001  1.249684e+002 
3765625000  -4.062149e+001  1.196804e+002 
3768750000  -4.028852e+001  1.205999e+002 
3771875000  -3.830632e+001  1.130228e+002 
3775000000  -3.853197e+001  1.015611e+002 
3778125000  -3.896357e+001  9.552030e+001 
3781250000  -3.915961e+001  9.086413e+001 
3784375000  -3.874615e+001  8.371827e+001 
3787500000  -3.844952e+001  7.846704e+001 
3790625000  -3.948459e+001  7.061397e+001 
3793750000  -3.914120e+001  6.636135e+001 
3796875000  -3.829550e+001  6.177137e+001 
3800000000  -3.647607e+001  5.732717e+001 
3803125000  -3.823433e+001  4.310044e+001 
3806250000  -3.904969e+001  3.861190e+001 
3809375000  -3.850365e+001  3.554045e+001 
3812500000  -3.864928e+001  2.521700e+001 
3815625000  -3.952679e+001  1.767409e+001 
3818750000  -4.078852e+001  1.949205e+001 
3821875000  -4.024094e+001  2.895892e+001 
3825000000  -3.829318e+001  2.384485e+001 
3828125000  -3.711790e+001  5.859156e+000 
3831250000  -3.816858e+001  -8.919154e+000 
3834375000  -4.059345e+001  -1.076126e+001 
3837500000  -4.039464e+001  -4.250074e+000 
3840625000  -3.933595e+001  -7.318920e+000 
3843750000  -3.842419e+001  -2.333466e+001 
3846875000  -4.009034e+001  -3.075724e+001 
3850000000  -4.107151e+001  -2.235985e+001 
3853125000  -4.014326e+001  -2.253306e+001 
3856250000  -3.942409e+001  -3.273661e+001 
3859375000  -3.872598e+001  -3.818440e+001 
3862500000  -3.856878e+001  -4.854965e+001 
3865625000  -3.890905e+001  -5.298184e+001 
3868750000  -3.863550e+001  -5.455682e+001 
3871875000  -3.793738e+001  -6.242887e+001 
3875000000  -3.829398e+001  -7.327770e+001 
3878125000  -3.950229e+001  -7.422089e+001 
3881250000  -3.919606e+001  -7.610144e+001 
3884375000  -3.862885e+001  -8.248176e+001 
3887500000  -3.900326e+001  -8.790633e+001 
3890625000  -3.945248e+001  -9.298690e+001 
3893750000  -3.977243e+001  -9.475144e+001 
3896875000  -3.996646e+001  -9.723402e+001 
3900000000  -3.983255e+001  -9.904212e+001 
3903125000  -3.933233e+001  -1.066018e+002 
3906250000  -3.872470e+001  -1.093340e+002 
3909375000  -3.821218e+001  -1.203362e+002 
3912500000  -3.913206e+001  -1.283566e+002 
3915625000  -4.055904e+001  -1.273653e+002 
3918750000  -3.993962e+001  -1.284764e+002 
3921875000  -3.941548e+001  -1.329536e+002 
3925000000  -3.850264e+001  -1.381691e+002 
3928125000  -3.827253e+001  -1.490760e+002 
3931250000  -3.906830e+001  -1.549613e+002 
3934375000  -3.953791e+001  -1.561665e+002 
3937500000  -4.015121e+001  -1.575064e+002 
3940625000  -3.980942e+001  -1.602076e+002 
3943750000  -3.890858e+001  -1.644553e+002 
3946875000  -3.846215e+001  -1.715832e+002 
3950000000  -3.960096e+001  1.796773e+002 
3953125000  -4.018747e+001  -1.781119e+002 
3956250000  -3.873933e+001  -1.793470e+002 
3959375000  -3.780923e+001  1.738460e+002 
3962500000  -3.788947e+001  1.657124e+002 
3965625000  -3.777509e+001  1.548763e+002 
3968750000  -3.889620e+001  1.480043e+002 
3971875000  -3.872270e+001  1.434498e+002 
3975000000  -3.855828e+001  1.381797e+002 
3978125000  -3.854667e+001  1.344491e+002 
3981250000  -3.850061e+001  1.280259e+002 
3984375000  -3.898444e+001  1.187767e+002 
3987500000  -3.947522e+001  1.163128e+002 
3990625000  -3.981102e+001  1.139667e+002 
3993750000  -3.984642e+001  1.090350e+002 
3996875000  -3.999152e+001  1.050155e+002 
4000000000  -4.093861e+001  9.963491e+001 
4003125000  -4.122963e+001  1.024852e+002 
4006250000  -3.943649e+001  9.891889e+001 
4009375000  -3.858029e+001  8.707156e+001 
4012500000  -4.023051e+001  7.798356e+001 
4015625000  -4.138350e+001  7.779530e+001 
4018750000  -4.105737e+001  7.807085e+001 
4021875000  -4.076635e+001  7.440542e+001 
4025000000  -4.010719e+001  6.851697e+001 
4028125000  -4.054053e+001  6.187350e+001 
4031250000  -4.122469e+001  5.598502e+001 
4034375000  -4.150806e+001  5.815637e+001 
4037500000  -4.097006e+001  5.729734e+001 
4040625000  -4.085109e+001  5.514185e+001 
4043750000  -4.119683e+001  5.014797e+001 
4046875000  -4.069115e+001  4.528127e+001 
4050000000  -4.066533e+001  4.036111e+001 
4053125000  -4.139904e+001  3.903355e+001 
4056250000  -4.139893e+001  4.260632e+001 
4059375000  -3.943992e+001  4.058077e+001 
4062500000  -3.865168e+001  3.247151e+001 
4065625000  -3.896441e+001  2.795405e+001 
4068750000  -3.815808e+001  2.037101e+001 
4071875000  -3.787197e+001  1.035220e+001 
4075000000  -3.836196e+001  1.002798e+000 
4078125000  -3.859505e+001  -6.099642e-001 
4081250000  -3.829464e+001  -4.500912e+000 
4084375000  -3.821828e+001  -1.587456e+001 
4087500000  -3.883014e+001  -2.058239e+001 
4090625000  -3.942037e+001  -2.384668e+001 
4093750000  -3.891742e+001  -2.538070e+001 
4096875000  -3.862454e+001  -3.623450e+001 
4100000000  -3.978882e+001  -4.424554e+001 
4103125000  -4.073171e+001  -4.160389e+001 
4106250000  -3.993472e+001  -3.830515e+001 
4109375000  -3.915006e+001  -4.292571e+001 
4112500000  -3.857129e+001  -4.977230e+001 
4115625000  -3.917115e+001  -5.912216e+001 
4118750000  -3.917886e+001  -6.355033e+001 
4121875000  -3.890099e+001  -6.898106e+001 
4125000000  -3.995565e+001  -7.712883e+001 
4128125000  -4.091134e+001  -7.492549e+001 
4131250000  -3.999789e+001  -7.007005e+001 
4134375000  -3.763132e+001  -7.866955e+001 
4137500000  -3.817219e+001  -9.976451e+001 
4140625000  -4.036611e+001  -1.065509e+002 
4143750000  -4.133192e+001  -9.786604e+001 
4146875000  -4.058229e+001  -9.724027e+001 
4150000000  -3.942829e+001  -1.033658e+002 
4153125000  -3.981654e+001  -1.111362e+002 
4156250000  -4.144169e+001  -1.160752e+002 
4159375000  -4.078590e+001  -1.094823e+002 
4162500000  -4.002798e+001  -1.071512e+002 
4165625000  -3.868112e+001  -1.157440e+002 
4168750000  -3.851198e+001  -1.260608e+002 
4171875000  -3.873447e+001  -1.359431e+002 
4175000000  -3.912281e+001  -1.428432e+002 
4178125000  -3.944590e+001  -1.414122e+002 
4181250000  -3.946493e+001  -1.480964e+002 
4184375000  -3.936237e+001  -1.514522e+002 
4187500000  -3.942666e+001  -1.573630e+002 
4190625000  -3.961467e+001  -1.646284e+002 
4193750000  -4.027372e+001  -1.676154e+002 
4196875000  -4.151413e+001  -1.700475e+002 
4200000000  -4.255138e+001  -1.629400e+002 
4203125000  -4.093088e+001  -1.537337e+002 
4206250000  -3.719323e+001  -1.607429e+002 
4209375000  -3.739092e+001  1.748638e+002 
4212500000  -3.980613e+001  1.688587e+002 
4215625000  -3.993435e+001  1.761177e+002 
4218750000  -3.847404e+001  1.781341e+002 
4221875000  -3.690177e+001  1.679740e+002 
4225000000  -3.787585e+001  1.552058e+002 
4228125000  -3.774404e+001  1.557019e+002 
4231250000  -3.640564e+001  1.499630e+002 
4234375000  -3.634710e+001  1.385072e+002 
4237500000  -3.638393e+001  1.332087e+002 
4240625000  -3.634580e+001  1.221687e+002 
4243750000  -3.756898e+001  1.142787e+002 
4246875000  -3.849487e+001  1.119605e+002 
4250000000  -3.847116e+001  1.135850e+002 
4253125000  -3.818444e+001  1.100245e+002 
4256250000  -3.783287e+001  1.059831e+002 
4259375000  -3.773248e+001  9.998358e+001 
4262500000  -3.784358e+001  9.381533e+001 
4265625000  -3.786276e+001  9.394548e+001 
4268750000  -3.696566e+001  8.574366e+001 
4271875000  -3.664191e+001  7.458475e+001 
4275000000  -3.669887e+001  6.842380e+001 
4278125000  -3.782118e+001  5.399513e+001 
4281250000  -3.900495e+001  5.488805e+001 
4284375000  -3.874406e+001  5.269576e+001 
4287500000  -4.066698e+001  4.929758e+001 
4290625000  -4.055277e+001  5.554417e+001 
4293750000  -3.838897e+001  5.525020e+001 
4296875000  -3.756097e+001  4.179839e+001 
4300000000  -3.937275e+001  3.566257e+001 
4303125000  -3.985510e+001  3.670565e+001 
4306250000  -3.857067e+001  3.936471e+001 
4309375000  -3.751956e+001  3.239019e+001 
4312500000  -3.760589e+001  2.367314e+001 
4315625000  -3.796100e+001  1.495930e+001 
4318750000  -3.858917e+001  1.108838e+001 
4321875000  -3.854512e+001  1.152300e+001 
4325000000  -3.804185e+001  1.083792e+001 
4328125000  -3.717028e+001  2.291488e-001 
4331250000  -3.755253e+001  -1.051669e+001 
4334375000  -3.816549e+001  -1.656850e+001 
4337500000  -3.959866e+001  -1.645889e+001 
4340625000  -3.955946e+001  -1.183892e+001 
4343750000  -3.833013e+001  -1.581251e+001 
4346875000  -3.839943e+001  -2.588296e+001 
4350000000  -3.840160e+001  -3.351226e+001 
4353125000  -3.890942e+001  -3.893835e+001 
4356250000  -4.120623e+001  -3.532192e+001 
4359375000  -4.014825e+001  -2.293794e+001 
4362500000  -3.647620e+001  -3.024247e+001 
4365625000  -3.593694e+001  -5.083649e+001 
4368750000  -3.707103e+001  -5.647711e+001 
4371875000  -3.782090e+001  -5.782861e+001 
4375000000  -3.727331e+001  -6.239706e+001 
4378125000  -3.690799e+001  -7.120750e+001 
4381250000  -3.701671e+001  -7.652638e+001 
4384375000  -3.713140e+001  -8.461711e+001 
4387500000  -3.805959e+001  -9.186592e+001 
4390625000  -3.851320e+001  -9.177927e+001 
4393750000  -3.790506e+001  -9.212714e+001 
4396875000  -3.742234e+001  -9.605477e+001 
4400000000  -3.692028e+001  -1.040459e+002 
4403125000  -3.776028e+001  -1.157430e+002 
4406250000  -3.839441e+001  -1.185796e+002 
4409375000  -3.881184e+001  -1.232912e+002 
4412500000  -3.986832e+001  -1.242173e+002 
4415625000  -3.952733e+001  -1.195255e+002 
