!Agilent Technologies,E8363B,MY43030201,A.06.04.32
!Agilent E8363B: A.06.04.32
!Date: Tuesday, November 11, 2014 21:34:18
!Correction: S21(Response(S21)) 
!S1P File: Measurement: S21:
# Hz S  dB   R 50
3000000000  -4.059480e+001  7.353176e+001 
3003125000  -4.227195e+001  6.604335e+001 
3006250000  -4.224504e+001  6.496333e+001 
3009375000  -4.270076e+001  7.036948e+001 
3012500000  -4.145362e+001  6.507352e+001 
3015625000  -4.139572e+001  5.846429e+001 
3018750000  -4.178372e+001  5.837656e+001 
3021875000  -4.019797e+001  5.922463e+001 
3025000000  -3.884657e+001  5.548018e+001 
3028125000  -3.787357e+001  4.498588e+001 
3031250000  -3.698013e+001  3.357991e+001 
3034375000  -3.673777e+001  1.968687e+001 
3037500000  -3.770361e+001  8.939573e+000 
3040625000  -3.878605e+001  3.593946e+000 
3043750000  -3.927839e+001  -3.625798e+000 
3046875000  -3.990841e+001  -9.042466e+000 
3050000000  -4.116290e+001  -1.295122e+001 
3053125000  -4.057994e+001  -7.824359e+000 
3056250000  -4.055844e+001  -5.754760e+000 
3059375000  -3.965571e+001  -7.615644e+000 
3062500000  -3.813856e+001  -1.216638e+001 
3065625000  -3.786930e+001  -2.270589e+001 
3068750000  -3.767955e+001  -3.073172e+001 
3071875000  -3.754667e+001  -3.238304e+001 
3075000000  -3.689008e+001  -3.947139e+001 
3078125000  -3.717260e+001  -4.554395e+001 
3081250000  -3.719694e+001  -5.248311e+001 
3084375000  -3.638072e+001  -5.574534e+001 
3087500000  -3.646740e+001  -6.263728e+001 
3090625000  -3.597075e+001  -7.550661e+001 
3093750000  -3.702183e+001  -8.360774e+001 
3096875000  -3.743666e+001  -8.805366e+001 
3100000000  -3.722435e+001  -9.116431e+001 
3103125000  -3.759039e+001  -9.450815e+001 
3106250000  -3.715594e+001  -9.990966e+001 
3109375000  -3.729527e+001  -1.040851e+002 
3112500000  -3.712615e+001  -1.102819e+002 
3115625000  -3.721701e+001  -1.145993e+002 
3118750000  -3.725384e+001  -1.170657e+002 
3121875000  -3.660661e+001  -1.279613e+002 
3125000000  -3.849834e+001  -1.311706e+002 
3128125000  -3.857532e+001  -1.242056e+002 
3131250000  -3.601332e+001  -1.313068e+002 
3134375000  -3.532822e+001  -1.481204e+002 
3137500000  -3.611103e+001  -1.592114e+002 
3140625000  -3.748385e+001  -1.622421e+002 
3143750000  -3.796196e+001  -1.643490e+002 
3146875000  -3.773181e+001  -1.621083e+002 
3150000000  -3.683958e+001  -1.663550e+002 
3153125000  -3.738166e+001  -1.750553e+002 
3156250000  -3.788774e+001  -1.701131e+002 
3159375000  -3.563362e+001  -1.726603e+002 
3162500000  -3.422897e+001  1.718281e+002 
3165625000  -3.555846e+001  1.591291e+002 
3168750000  -3.533764e+001  1.572570e+002 
3171875000  -3.492654e+001  1.507403e+002 
3175000000  -3.550140e+001  1.413380e+002 
3178125000  -3.509768e+001  1.398509e+002 
3181250000  -3.452317e+001  1.315511e+002 
3184375000  -3.417617e+001  1.194205e+002 
3187500000  -3.538197e+001  1.056835e+002 
3190625000  -3.721568e+001  9.963078e+001 
3193750000  -3.744504e+001  1.051416e+002 
3196875000  -3.728083e+001  1.054587e+002 
3200000000  -3.613886e+001  1.006784e+002 
3203125000  -3.586549e+001  9.249496e+001 
3206250000  -3.606443e+001  8.480714e+001 
3209375000  -3.573039e+001  7.664906e+001 
3212500000  -3.632236e+001  6.939936e+001 
3215625000  -3.603975e+001  6.673232e+001 
3218750000  -3.689436e+001  5.635581e+001 
3221875000  -3.729093e+001  5.031059e+001 
3225000000  -3.705309e+001  4.563174e+001 
3228125000  -3.772570e+001  3.764713e+001 
3231250000  -3.816857e+001  3.582318e+001 
3234375000  -3.782714e+001  3.352371e+001 
3237500000  -3.798697e+001  2.967718e+001 
3240625000  -3.752691e+001  2.338736e+001 
3243750000  -3.753337e+001  1.300034e+001 
3246875000  -3.823898e+001  5.759348e+000 
3250000000  -3.870196e+001  1.946949e+000 
3253125000  -3.898630e+001  2.106506e-001 
3256250000  -3.854538e+001  -8.652605e+000 
3259375000  -3.899012e+001  -2.047283e+001 
3262500000  -4.066389e+001  -2.412181e+001 
3265625000  -4.125496e+001  -2.131882e+001 
3268750000  -4.106749e+001  -1.985672e+001 
3271875000  -4.045304e+001  -2.322302e+001 
3275000000  -4.003589e+001  -3.096099e+001 
3278125000  -4.079282e+001  -3.786731e+001 
3281250000  -4.120652e+001  -3.858503e+001 
3284375000  -4.029423e+001  -4.357686e+001 
3287500000  -4.111504e+001  -4.783997e+001 
3290625000  -4.126023e+001  -5.592923e+001 
3293750000  -4.138599e+001  -6.159163e+001 
3296875000  -4.233446e+001  -6.184307e+001 
3300000000  -4.173927e+001  -6.282709e+001 
3303125000  -4.081872e+001  -6.839414e+001 
3306250000  -4.066653e+001  -7.727777e+001 
3309375000  -4.042624e+001  -8.439313e+001 
3312500000  -4.090523e+001  -9.721391e+001 
3315625000  -4.235643e+001  -1.026564e+002 
3318750000  -4.336965e+001  -1.070764e+002 
3321875000  -4.491313e+001  -1.059950e+002 
3325000000  -4.475342e+001  -9.684812e+001 
3328125000  -4.394601e+001  -9.774033e+001 
3331250000  -4.213588e+001  -9.467262e+001 
3334375000  -4.001604e+001  -1.084361e+002 
3337500000  -4.038698e+001  -1.305458e+002 
3340625000  -4.241128e+001  -1.390439e+002 
3343750000  -4.398947e+001  -1.403245e+002 
3346875000  -4.332840e+001  -1.394258e+002 
3350000000  -4.306650e+001  -1.434082e+002 
3353125000  -4.269080e+001  -1.511823e+002 
3356250000  -4.255741e+001  -1.569562e+002 
3359375000  -4.348285e+001  -1.692888e+002 
3362500000  -4.418563e+001  -1.745023e+002 
3365625000  -4.473080e+001  -1.780535e+002 
3368750000  -4.565008e+001  1.786014e+002 
3371875000  -4.623289e+001  1.732160e+002 
3375000000  -4.772932e+001  1.675040e+002 
3378125000  -4.777795e+001  1.667673e+002 
3381250000  -4.985384e+001  1.763261e+002 
3384375000  -4.655190e+001  -1.671746e+002 
3387500000  -4.416679e+001  1.715762e+002 
3390625000  -4.619511e+001  1.510974e+002 
3393750000  -4.686090e+001  1.522030e+002 
3396875000  -4.590670e+001  1.506076e+002 
3400000000  -4.595031e+001  1.382950e+002 
3403125000  -4.704497e+001  1.359033e+002 
3406250000  -4.796637e+001  1.328618e+002 
3409375000  -4.849066e+001  1.235398e+002 
3412500000  -4.848503e+001  1.173593e+002 
3415625000  -4.965755e+001  1.169135e+002 
3418750000  -5.021194e+001  1.149030e+002 
3421875000  -5.164708e+001  1.172751e+002 
3425000000  -5.039894e+001  1.186902e+002 
3428125000  -4.976430e+001  1.206232e+002 
3431250000  -5.013550e+001  1.097849e+002 
3434375000  -5.085554e+001  1.039291e+002 
3437500000  -5.286138e+001  1.046958e+002 
3440625000  -5.230307e+001  1.038280e+002 
3443750000  -5.049893e+001  1.089157e+002 
3446875000  -5.060202e+001  9.869315e+001 
3450000000  -4.974805e+001  9.010949e+001 
3453125000  -5.162728e+001  8.094314e+001 
3456250000  -5.178479e+001  7.695731e+001 
3459375000  -5.292685e+001  8.417415e+001 
3462500000  -5.352785e+001  9.278696e+001 
3465625000  -5.126568e+001  7.717851e+001 
3468750000  -5.149826e+001  7.643983e+001 
3471875000  -5.166558e+001  7.787038e+001 
3475000000  -5.110221e+001  7.142939e+001 
3478125000  -5.091738e+001  6.431728e+001 
3481250000  -5.245750e+001  6.467107e+001 
3484375000  -5.274083e+001  6.679240e+001 
3487500000  -5.149812e+001  6.147679e+001 
3490625000  -5.059872e+001  5.534532e+001 
3493750000  -5.172681e+001  4.792036e+001 
3496875000  -5.220140e+001  4.901345e+001 
3500000000  -5.206809e+001  4.565010e+001 
3503125000  -5.066354e+001  4.507295e+001 
3506250000  -5.030474e+001  3.927287e+001 
3509375000  -5.017039e+001  2.313435e+001 
3512500000  -4.952068e+001  1.366079e+001 
3515625000  -5.140608e+001  8.805013e+000 
3518750000  -5.250050e+001  1.033736e+001 
3521875000  -5.217344e+001  2.586201e+000 
3525000000  -5.386768e+001  -2.361772e+000 
3528125000  -5.207854e+001  5.713346e+000 
3531250000  -5.194128e+001  -3.493253e+000 
3534375000  -5.294269e+001  -1.174455e+001 
3537500000  -5.363012e+001  -3.685165e+001 
3540625000  -5.487657e+001  -2.338336e+001 
3543750000  -5.623130e+001  -1.518902e+001 
3546875000  -5.539346e+001  -9.715969e+000 
3550000000  -5.386985e+001  -1.096532e+001 
3553125000  -5.238414e+001  -3.453547e+001 
3556250000  -5.563480e+001  -3.153750e+001 
3559375000  -5.580270e+001  -3.552959e+001 
3562500000  -5.616744e+001  -3.987055e+001 
3565625000  -5.578425e+001  -5.444124e+001 
3568750000  -5.689024e+001  -3.540681e+001 
3571875000  -5.712992e+001  -4.366124e+001 
3575000000  -5.853695e+001  -3.417249e+001 
3578125000  -5.863317e+001  -5.374376e+001 
3581250000  -5.832515e+001  -3.135159e+001 
3584375000  -5.744079e+001  -3.025876e+001 
3587500000  -5.629494e+001  -4.660526e+001 
3590625000  -5.820877e+001  -5.922250e+001 
3593750000  -5.859057e+001  -4.649913e+001 
3596875000  -5.864920e+001  -3.529596e+001 
3600000000  -5.761312e+001  -4.674687e+001 
3603125000  -5.852371e+001  -5.255671e+001 
3606250000  -5.841875e+001  -5.345140e+001 
3609375000  -5.873192e+001  -5.452600e+001 
3612500000  -5.780315e+001  -4.681954e+001 
3615625000  -6.072261e+001  -5.648810e+001 
3618750000  -5.951727e+001  -5.614935e+001 
3621875000  -5.738483e+001  -4.728652e+001 
3625000000  -5.774827e+001  -4.952696e+001 
3628125000  -5.670664e+001  -3.784617e+001 
3631250000  -5.675651e+001  -5.413515e+001 
3634375000  -5.759762e+001  -4.917379e+001 
3637500000  -5.565797e+001  -4.049231e+001 
3640625000  -5.441610e+001  -4.502437e+001 
3643750000  -5.191573e+001  -5.018148e+001 
3646875000  -5.350034e+001  -6.033638e+001 
3650000000  -5.264263e+001  -6.478757e+001 
3653125000  -5.130387e+001  -5.869005e+001 
3656250000  -5.147951e+001  -6.366621e+001 
3659375000  -5.131223e+001  -6.744176e+001 
3662500000  -5.054945e+001  -6.974016e+001 
3665625000  -4.994692e+001  -7.350061e+001 
3668750000  -4.773481e+001  -7.199117e+001 
3671875000  -4.709233e+001  -8.368260e+001 
3675000000  -4.753023e+001  -9.203173e+001 
3678125000  -4.715494e+001  -9.511156e+001 
3681250000  -4.706477e+001  -1.007171e+002 
3684375000  -4.691775e+001  -1.051203e+002 
3687500000  -4.675722e+001  -1.139247e+002 
3690625000  -4.681644e+001  -1.181439e+002 
3693750000  -4.745187e+001  -1.168374e+002 
3696875000  -4.653299e+001  -1.192407e+002 
3700000000  -4.560469e+001  -1.244882e+002 
3703125000  -4.542405e+001  -1.298327e+002 
3706250000  -4.580748e+001  -1.337845e+002 
3709375000  -4.453883e+001  -1.298326e+002 
3712500000  -4.345552e+001  -1.372446e+002 
3715625000  -4.179519e+001  -1.465732e+002 
3718750000  -4.199828e+001  -1.533734e+002 
3721875000  -4.140282e+001  -1.604490e+002 
3725000000  -4.176671e+001  -1.704016e+002 
3728125000  -4.137176e+001  -1.743393e+002 
3731250000  -4.074770e+001  -1.782860e+002 
3734375000  -4.019401e+001  1.744064e+002 
3737500000  -4.092893e+001  1.651370e+002 
3740625000  -4.078385e+001  1.605184e+002 
3743750000  -4.065710e+001  1.508945e+002 
3746875000  -4.056375e+001  1.453098e+002 
3750000000  -4.087686e+001  1.403237e+002 
3753125000  -4.060762e+001  1.392993e+002 
3756250000  -4.067577e+001  1.349004e+002 
3759375000  -4.026671e+001  1.290393e+002 
3762500000  -4.004343e+001  1.229563e+002 
3765625000  -4.078912e+001  1.172071e+002 
3768750000  -3.996172e+001  1.170664e+002 
3771875000  -3.832303e+001  1.101176e+002 
3775000000  -3.827924e+001  9.945507e+001 
3778125000  -3.886363e+001  9.199055e+001 
3781250000  -3.908949e+001  8.887206e+001 
3784375000  -3.857749e+001  8.332470e+001 
3787500000  -3.849149e+001  7.741142e+001 
3790625000  -3.928381e+001  6.764268e+001 
3793750000  -3.913451e+001  6.405853e+001 
3796875000  -3.826161e+001  6.025467e+001 
3800000000  -3.628564e+001  5.604059e+001 
3803125000  -3.811526e+001  4.249499e+001 
3806250000  -3.898519e+001  3.924796e+001 
3809375000  -3.837526e+001  3.390636e+001 
3812500000  -3.858752e+001  2.491883e+001 
3815625000  -3.960779e+001  1.426937e+001 
3818750000  -4.078366e+001  1.521535e+001 
3821875000  -4.001551e+001  2.620810e+001 
3825000000  -3.826785e+001  2.278114e+001 
3828125000  -3.729241e+001  3.072549e+000 
3831250000  -3.808688e+001  -9.859867e+000 
3834375000  -4.040448e+001  -1.051698e+001 
3837500000  -4.072020e+001  -8.773029e+000 
3840625000  -3.889479e+001  -9.879354e+000 
3843750000  -3.829120e+001  -2.527775e+001 
3846875000  -3.977934e+001  -3.154985e+001 
3850000000  -4.052000e+001  -2.326568e+001 
3853125000  -3.996440e+001  -2.619594e+001 
3856250000  -3.949875e+001  -3.290836e+001 
3859375000  -3.855050e+001  -4.058909e+001 
3862500000  -3.840207e+001  -5.246092e+001 
3865625000  -3.896773e+001  -5.534007e+001 
3868750000  -3.874215e+001  -5.651716e+001 
3871875000  -3.799510e+001  -6.399038e+001 
3875000000  -3.846747e+001  -7.429699e+001 
3878125000  -3.939389e+001  -7.809033e+001 
3881250000  -3.918490e+001  -7.651870e+001 
3884375000  -3.877852e+001  -8.309727e+001 
3887500000  -3.945134e+001  -9.048856e+001 
3890625000  -3.937534e+001  -9.515079e+001 
3893750000  -3.960753e+001  -9.628253e+001 
3896875000  -4.013784e+001  -1.006068e+002 
3900000000  -3.991650e+001  -1.033602e+002 
3903125000  -3.953831e+001  -1.069991e+002 
3906250000  -3.884307e+001  -1.110793e+002 
3909375000  -3.824264e+001  -1.197608e+002 
3912500000  -3.902745e+001  -1.299797e+002 
3915625000  -4.033356e+001  -1.282863e+002 
3918750000  -4.005387e+001  -1.297953e+002 
3921875000  -3.934270e+001  -1.340875e+002 
3925000000  -3.851534e+001  -1.401335e+002 
3928125000  -3.829446e+001  -1.494602e+002 
3931250000  -3.924383e+001  -1.569619e+002 
3934375000  -3.960884e+001  -1.578919e+002 
3937500000  -4.009277e+001  -1.606534e+002 
3940625000  -4.006412e+001  -1.613416e+002 
3943750000  -3.887568e+001  -1.650838e+002 
3946875000  -3.838318e+001  -1.735036e+002 
3950000000  -3.953197e+001  1.773832e+002 
3953125000  -4.014336e+001  1.787079e+002 
3956250000  -3.878545e+001  1.791997e+002 
3959375000  -3.779752e+001  1.702194e+002 
3962500000  -3.750468e+001  1.627359e+002 
3965625000  -3.815207e+001  1.537565e+002 
3968750000  -3.858242e+001  1.459627e+002 
3971875000  -3.878076e+001  1.414604e+002 
3975000000  -3.825345e+001  1.374555e+002 
3978125000  -3.852472e+001  1.332434e+002 
3981250000  -3.854285e+001  1.257312e+002 
3984375000  -3.894223e+001  1.167644e+002 
3987500000  -3.967105e+001  1.133405e+002 
3990625000  -3.989328e+001  1.139811e+002 
3993750000  -3.997372e+001  1.078979e+002 
3996875000  -3.990794e+001  1.025160e+002 
4000000000  -4.081857e+001  9.808046e+001 
4003125000  -4.126750e+001  1.033886e+002 
4006250000  -3.899945e+001  9.789935e+001 
4009375000  -3.858545e+001  8.396976e+001 
4012500000  -4.010244e+001  7.589698e+001 
4015625000  -4.153548e+001  7.427133e+001 
4018750000  -4.136638e+001  7.685432e+001 
4021875000  -4.089637e+001  7.428222e+001 
4025000000  -4.035535e+001  6.563483e+001 
4028125000  -4.044999e+001  6.020277e+001 
4031250000  -4.134006e+001  5.657538e+001 
4034375000  -4.160493e+001  5.550920e+001 
4037500000  -4.134436e+001  5.547234e+001 
4040625000  -4.107136e+001  5.078806e+001 
4043750000  -4.113039e+001  4.688741e+001 
4046875000  -4.055312e+001  4.484764e+001 
4050000000  -4.068946e+001  4.011339e+001 
4053125000  -4.131332e+001  3.827907e+001 
4056250000  -4.166702e+001  4.184876e+001 
4059375000  -3.937123e+001  3.956288e+001 
4062500000  -3.895070e+001  3.025544e+001 
4065625000  -3.882566e+001  2.500422e+001 
4068750000  -3.820446e+001  1.613149e+001 
4071875000  -3.761436e+001  7.858230e+000 
4075000000  -3.851595e+001  1.711143e+000 
4078125000  -3.882937e+001  -1.927486e+000 
4081250000  -3.839635e+001  -7.228440e+000 
4084375000  -3.815356e+001  -1.833210e+001 
4087500000  -3.860972e+001  -2.404399e+001 
4090625000  -3.904180e+001  -2.512744e+001 
4093750000  -3.880734e+001  -2.597050e+001 
4096875000  -3.873543e+001  -3.863966e+001 
4100000000  -3.987591e+001  -4.491264e+001 
4103125000  -4.094337e+001  -4.295268e+001 
4106250000  -4.028934e+001  -4.199408e+001 
4109375000  -3.901291e+001  -4.400750e+001 
4112500000  -3.860043e+001  -5.280517e+001 
4115625000  -3.943013e+001  -6.023698e+001 
4118750000  -3.921234e+001  -6.527126e+001 
4121875000  -3.893210e+001  -7.123530e+001 
4125000000  -4.001059e+001  -7.823836e+001 
4128125000  -4.080449e+001  -7.583492e+001 
4131250000  -4.005817e+001  -7.219983e+001 
4134375000  -3.748150e+001  -8.157325e+001 
4137500000  -3.822135e+001  -1.009701e+002 
4140625000  -4.073045e+001  -1.067718e+002 
4143750000  -4.108082e+001  -9.988441e+001 
4146875000  -4.048682e+001  -9.833664e+001 
4150000000  -3.952083e+001  -1.060389e+002 
4153125000  -3.993420e+001  -1.157030e+002 
4156250000  -4.128184e+001  -1.169520e+002 
4159375000  -4.115805e+001  -1.108317e+002 
4162500000  -3.995173e+001  -1.110181e+002 
4165625000  -3.866943e+001  -1.183416e+002 
4168750000  -3.868613e+001  -1.265393e+002 
4171875000  -3.815675e+001  -1.394191e+002 
4175000000  -3.927652e+001  -1.424262e+002 
4178125000  -3.977581e+001  -1.448457e+002 
4181250000  -3.944178e+001  -1.491467e+002 
4184375000  -3.965948e+001  -1.536479e+002 
4187500000  -3.944249e+001  -1.579455e+002 
4190625000  -3.956352e+001  -1.657175e+002 
4193750000  -4.072027e+001  -1.711127e+002 
4196875000  -4.150227e+001  -1.713294e+002 
4200000000  -4.283821e+001  -1.662196e+002 
4203125000  -4.082103e+001  -1.539556e+002 
4206250000  -3.748264e+001  -1.619845e+002 
4209375000  -3.711283e+001  1.722947e+002 
4212500000  -3.965223e+001  1.654857e+002 
4215625000  -4.042767e+001  1.753443e+002 
4218750000  -3.820182e+001  1.749048e+002 
4221875000  -3.689272e+001  1.664629e+002 
4225000000  -3.783123e+001  1.538409e+002 
4228125000  -3.775204e+001  1.552840e+002 
4231250000  -3.619333e+001  1.478821e+002 
4234375000  -3.646655e+001  1.355389e+002 
4237500000  -3.630324e+001  1.305560e+002 
4240625000  -3.638609e+001  1.194817e+002 
4243750000  -3.754335e+001  1.120564e+002 
4246875000  -3.831365e+001  1.103850e+002 
4250000000  -3.806863e+001  1.110121e+002 
4253125000  -3.805840e+001  1.082575e+002 
4256250000  -3.785462e+001  1.024378e+002 
4259375000  -3.757997e+001  9.795874e+001 
4262500000  -3.794827e+001  9.213261e+001 
4265625000  -3.803215e+001  9.051096e+001 
4268750000  -3.714025e+001  8.252765e+001 
4271875000  -3.665816e+001  7.344377e+001 
4275000000  -3.651329e+001  6.610590e+001 
4278125000  -3.786073e+001  5.311354e+001 
4281250000  -3.901827e+001  5.405281e+001 
4284375000  -3.908763e+001  4.826994e+001 
4287500000  -4.000209e+001  4.607527e+001 
4290625000  -4.080602e+001  5.514272e+001 
4293750000  -3.869498e+001  5.543793e+001 
4296875000  -3.774041e+001  4.154648e+001 
4300000000  -3.919501e+001  3.148928e+001 
4303125000  -3.978968e+001  3.717653e+001 
4306250000  -3.863036e+001  3.825099e+001 
4309375000  -3.765090e+001  3.239189e+001 
4312500000  -3.758672e+001  2.050182e+001 
4315625000  -3.800849e+001  1.238937e+001 
4318750000  -3.862495e+001  8.092584e+000 
4321875000  -3.850244e+001  1.120096e+001 
4325000000  -3.810969e+001  8.092115e+000 
4328125000  -3.720870e+001  -2.326329e+000 
4331250000  -3.754058e+001  -1.134765e+001 
4334375000  -3.843501e+001  -1.674327e+001 
4337500000  -3.958234e+001  -1.871905e+001 
4340625000  -3.958838e+001  -1.418138e+001 
4343750000  -3.863392e+001  -1.720933e+001 
4346875000  -3.828272e+001  -2.559012e+001 
4350000000  -3.847495e+001  -3.571883e+001 
4353125000  -3.918098e+001  -4.169505e+001 
4356250000  -4.101042e+001  -3.682427e+001 
4359375000  -3.983370e+001  -2.171025e+001 
4362500000  -3.640807e+001  -3.105288e+001 
4365625000  -3.590608e+001  -5.066625e+001 
4368750000  -3.723591e+001  -6.040127e+001 
4371875000  -3.795144e+001  -6.178162e+001 
4375000000  -3.737197e+001  -6.417665e+001 
4378125000  -3.680274e+001  -7.105750e+001 
4381250000  -3.698558e+001  -7.992828e+001 
4384375000  -3.730531e+001  -8.817046e+001 
4387500000  -3.838654e+001  -9.248536e+001 
4390625000  -3.861662e+001  -9.387601e+001 
4393750000  -3.790235e+001  -9.170250e+001 
4396875000  -3.719223e+001  -9.809905e+001 
4400000000  -3.701903e+001  -1.067161e+002 
4403125000  -3.778168e+001  -1.163707e+002 
4406250000  -3.834461e+001  -1.204607e+002 
4409375000  -3.875174e+001  -1.242415e+002 
4412500000  -3.986783e+001  -1.253984e+002 
4415625000  -3.950945e+001  -1.217722e+002 
