!Agilent Technologies,E8363B,MY43030201,A.06.04.32
!Agilent E8363B: A.06.04.32
!Date: Tuesday, November 11, 2014 21:30:44
!Correction: S21(Response(S21)) 
!S1P File: Measurement: S21:
# Hz S  dB   R 50
3000000000  -4.063166e+001  8.322430e+001 
3003125000  -4.239038e+001  7.487030e+001 
3006250000  -4.212084e+001  7.322833e+001 
3009375000  -4.281977e+001  7.825260e+001 
3012500000  -4.160285e+001  7.431591e+001 
3015625000  -4.145156e+001  6.878936e+001 
3018750000  -4.181590e+001  6.897945e+001 
3021875000  -4.034668e+001  6.849992e+001 
3025000000  -3.910117e+001  6.645432e+001 
3028125000  -3.792542e+001  5.496938e+001 
3031250000  -3.702931e+001  4.357728e+001 
3034375000  -3.673411e+001  2.947820e+001 
3037500000  -3.752058e+001  1.900751e+001 
3040625000  -3.874366e+001  1.272130e+001 
3043750000  -3.928841e+001  6.568693e+000 
3046875000  -3.992207e+001  1.143804e+000 
3050000000  -4.107825e+001  -4.004961e+000 
3053125000  -4.061264e+001  5.963685e-001 
3056250000  -4.044740e+001  5.243843e+000 
3059375000  -3.968784e+001  6.146254e-001 
3062500000  -3.820247e+001  -2.669987e+000 
3065625000  -3.807680e+001  -1.261879e+001 
3068750000  -3.762827e+001  -1.982773e+001 
3071875000  -3.767176e+001  -2.334379e+001 
3075000000  -3.712939e+001  -3.009068e+001 
3078125000  -3.705526e+001  -3.529503e+001 
3081250000  -3.732423e+001  -4.120971e+001 
3084375000  -3.646313e+001  -4.642404e+001 
3087500000  -3.642424e+001  -5.313822e+001 
3090625000  -3.586731e+001  -6.529359e+001 
3093750000  -3.685467e+001  -7.269677e+001 
3096875000  -3.737020e+001  -7.883480e+001 
3100000000  -3.724819e+001  -8.151272e+001 
3103125000  -3.745362e+001  -8.520929e+001 
3106250000  -3.716138e+001  -8.889458e+001 
3109375000  -3.726285e+001  -9.450143e+001 
3112500000  -3.716939e+001  -9.967086e+001 
3115625000  -3.718537e+001  -1.040839e+002 
3118750000  -3.735232e+001  -1.069439e+002 
3121875000  -3.662130e+001  -1.184458e+002 
3125000000  -3.840252e+001  -1.212285e+002 
3128125000  -3.852769e+001  -1.150618e+002 
3131250000  -3.609008e+001  -1.206935e+002 
3134375000  -3.540341e+001  -1.372128e+002 
3137500000  -3.602182e+001  -1.500145e+002 
3140625000  -3.747145e+001  -1.529022e+002 
3143750000  -3.826923e+001  -1.548741e+002 
3146875000  -3.772274e+001  -1.518165e+002 
3150000000  -3.674428e+001  -1.567318e+002 
3153125000  -3.713577e+001  -1.652273e+002 
3156250000  -3.787621e+001  -1.610470e+002 
3159375000  -3.574737e+001  -1.621925e+002 
3162500000  -3.421672e+001  -1.780582e+002 
3165625000  -3.550502e+001  1.686964e+002 
3168750000  -3.544328e+001  1.681060e+002 
3171875000  -3.489551e+001  1.606023e+002 
3175000000  -3.554119e+001  1.520376e+002 
3178125000  -3.499102e+001  1.502910e+002 
3181250000  -3.440779e+001  1.427037e+002 
3184375000  -3.414526e+001  1.300385e+002 
3187500000  -3.541304e+001  1.156332e+002 
3190625000  -3.736836e+001  1.091209e+002 
3193750000  -3.743829e+001  1.149571e+002 
3196875000  -3.737249e+001  1.160798e+002 
3200000000  -3.625267e+001  1.101476e+002 
3203125000  -3.588585e+001  1.027846e+002 
3206250000  -3.620839e+001  9.439083e+001 
3209375000  -3.571293e+001  8.718482e+001 
3212500000  -3.617794e+001  8.035461e+001 
3215625000  -3.606267e+001  7.709699e+001 
3218750000  -3.679106e+001  6.696720e+001 
3221875000  -3.727195e+001  6.015630e+001 
3225000000  -3.716288e+001  5.619649e+001 
3228125000  -3.764513e+001  4.974801e+001 
3231250000  -3.820656e+001  4.601006e+001 
3234375000  -3.800230e+001  4.261504e+001 
3237500000  -3.804142e+001  3.971215e+001 
3240625000  -3.766133e+001  3.513937e+001 
3243750000  -3.772383e+001  2.405718e+001 
3246875000  -3.816314e+001  1.805119e+001 
3250000000  -3.870251e+001  1.275947e+001 
3253125000  -3.887698e+001  1.027310e+001 
3256250000  -3.866621e+001  2.732580e+000 
3259375000  -3.907793e+001  -8.499869e+000 
3262500000  -4.072755e+001  -1.273834e+001 
3265625000  -4.106791e+001  -8.940452e+000 
3268750000  -4.111311e+001  -8.484076e+000 
3271875000  -4.060815e+001  -1.175709e+001 
3275000000  -4.015872e+001  -2.109415e+001 
3278125000  -4.086155e+001  -2.562218e+001 
3281250000  -4.106487e+001  -2.756759e+001 
3284375000  -4.042971e+001  -3.350132e+001 
3287500000  -4.091531e+001  -3.634661e+001 
3290625000  -4.109414e+001  -4.486472e+001 
3293750000  -4.111912e+001  -4.971546e+001 
3296875000  -4.256934e+001  -5.212650e+001 
3300000000  -4.168815e+001  -5.144274e+001 
3303125000  -4.083319e+001  -5.851075e+001 
3306250000  -4.080513e+001  -6.501556e+001 
3309375000  -4.042033e+001  -7.407205e+001 
3312500000  -4.082466e+001  -8.424308e+001 
3315625000  -4.223901e+001  -9.131811e+001 
3318750000  -4.331314e+001  -9.643688e+001 
3321875000  -4.486295e+001  -9.319299e+001 
3325000000  -4.442598e+001  -8.756380e+001 
3328125000  -4.353815e+001  -8.601573e+001 
3331250000  -4.208476e+001  -8.529501e+001 
3334375000  -3.955220e+001  -9.900302e+001 
3337500000  -4.032767e+001  -1.192892e+002 
3340625000  -4.233955e+001  -1.280321e+002 
3343750000  -4.406612e+001  -1.280494e+002 
3346875000  -4.332997e+001  -1.303232e+002 
3350000000  -4.299907e+001  -1.311083e+002 
3353125000  -4.284734e+001  -1.378661e+002 
3356250000  -4.235667e+001  -1.455336e+002 
3359375000  -4.330354e+001  -1.585056e+002 
3362500000  -4.426789e+001  -1.636629e+002 
3365625000  -4.466954e+001  -1.669577e+002 
3368750000  -4.536208e+001  -1.718123e+002 
3371875000  -4.540844e+001  -1.762766e+002 
3375000000  -4.716416e+001  -1.793959e+002 
3378125000  -4.817495e+001  1.776236e+002 
3381250000  -5.016460e+001  -1.692507e+002 
3384375000  -4.690905e+001  -1.548669e+002 
3387500000  -4.359324e+001  -1.743936e+002 
3390625000  -4.621667e+001  1.646899e+002 
3393750000  -4.710964e+001  1.645709e+002 
3396875000  -4.587969e+001  1.642483e+002 
3400000000  -4.592177e+001  1.523773e+002 
3403125000  -4.661613e+001  1.452341e+002 
3406250000  -4.736366e+001  1.417220e+002 
3409375000  -4.823912e+001  1.359956e+002 
3412500000  -4.852024e+001  1.327387e+002 
3415625000  -4.987253e+001  1.325094e+002 
3418750000  -5.017002e+001  1.302322e+002 
3421875000  -5.092564e+001  1.390023e+002 
3425000000  -4.988410e+001  1.283811e+002 
3428125000  -4.946083e+001  1.278289e+002 
3431250000  -5.023963e+001  1.177357e+002 
3434375000  -5.024952e+001  1.161179e+002 
3437500000  -5.038953e+001  1.128990e+002 
3440625000  -5.118461e+001  1.136525e+002 
3443750000  -5.038395e+001  1.200778e+002 
3446875000  -4.957536e+001  1.120523e+002 
3450000000  -4.966776e+001  1.049189e+002 
3453125000  -5.087925e+001  9.514909e+001 
3456250000  -5.134637e+001  9.710288e+001 
3459375000  -5.290044e+001  9.723459e+001 
3462500000  -5.156327e+001  1.033911e+002 
3465625000  -5.196008e+001  8.728198e+001 
3468750000  -5.151073e+001  9.381339e+001 
3471875000  -5.222823e+001  8.947756e+001 
3475000000  -5.096988e+001  8.471821e+001 
3478125000  -5.077853e+001  7.519119e+001 
3481250000  -5.197437e+001  7.728355e+001 
3484375000  -5.207312e+001  7.679760e+001 
3487500000  -5.114722e+001  7.481617e+001 
3490625000  -5.053382e+001  6.783681e+001 
3493750000  -5.043634e+001  5.821126e+001 
3496875000  -5.096032e+001  6.137297e+001 
3500000000  -5.175500e+001  6.307740e+001 
3503125000  -5.019320e+001  5.845073e+001 
3506250000  -4.940213e+001  5.113720e+001 
3509375000  -4.975239e+001  3.494388e+001 
3512500000  -5.006496e+001  2.717020e+001 
3515625000  -5.093766e+001  1.853363e+001 
3518750000  -5.097905e+001  2.026294e+001 
3521875000  -5.138413e+001  1.289080e+001 
3525000000  -5.308297e+001  1.883850e+000 
3528125000  -5.228347e+001  1.254316e+001 
3531250000  -5.050557e+001  7.504381e+000 
3534375000  -5.208553e+001  -6.021899e+000 
3537500000  -5.349752e+001  -1.359030e+001 
3540625000  -5.492550e+001  -9.465443e+000 
3543750000  -5.493132e+001  -6.872292e+000 
3546875000  -5.482070e+001  3.705241e+000 
3550000000  -5.366466e+001  5.621206e+000 
3553125000  -5.344180e+001  -1.805699e+001 
3556250000  -5.517723e+001  -2.055709e+001 
3559375000  -5.452563e+001  -2.808182e+001 
3562500000  -5.535802e+001  -3.332129e+001 
3565625000  -5.606398e+001  -3.607166e+001 
3568750000  -5.715636e+001  -2.917473e+001 
3571875000  -5.739051e+001  -2.891546e+001 
3575000000  -5.722145e+001  -3.678532e+001 
3578125000  -5.822704e+001  -3.356393e+001 
3581250000  -5.692315e+001  -2.535852e+001 
3584375000  -5.716649e+001  -2.711165e+001 
3587500000  -5.639054e+001  -3.816791e+001 
3590625000  -5.887779e+001  -4.179490e+001 
3593750000  -5.819963e+001  -5.894917e+001 
3596875000  -5.753241e+001  -3.747162e+001 
3600000000  -5.865707e+001  -3.626613e+001 
3603125000  -5.965823e+001  -5.550576e+001 
3606250000  -5.700364e+001  -4.006659e+001 
3609375000  -5.806620e+001  -4.049281e+001 
3612500000  -5.840521e+001  -3.558932e+001 
3615625000  -5.968939e+001  -4.442063e+001 
3618750000  -6.007347e+001  -4.326878e+001 
3621875000  -5.649528e+001  -3.516460e+001 
3625000000  -5.785045e+001  -4.492486e+001 
3628125000  -5.717081e+001  -4.178779e+001 
3631250000  -5.710832e+001  -4.641779e+001 
3634375000  -5.825446e+001  -3.160158e+001 
3637500000  -5.448034e+001  -4.017575e+001 
3640625000  -5.562391e+001  -3.553376e+001 
3643750000  -5.405429e+001  -3.623312e+001 
3646875000  -5.245491e+001  -4.851737e+001 
3650000000  -5.398943e+001  -4.116652e+001 
3653125000  -5.257577e+001  -5.201598e+001 
3656250000  -5.306640e+001  -5.051238e+001 
3659375000  -5.186030e+001  -5.568960e+001 
3662500000  -5.041057e+001  -5.929486e+001 
3665625000  -5.065081e+001  -6.423103e+001 
3668750000  -4.804939e+001  -6.023794e+001 
3671875000  -4.736991e+001  -6.916995e+001 
3675000000  -4.740260e+001  -8.047012e+001 
3678125000  -4.719363e+001  -8.741106e+001 
3681250000  -4.655289e+001  -9.014507e+001 
3684375000  -4.669695e+001  -9.157895e+001 
3687500000  -4.691236e+001  -9.935604e+001 
3690625000  -4.709272e+001  -1.070935e+002 
3693750000  -4.782640e+001  -1.058308e+002 
3696875000  -4.651167e+001  -1.097742e+002 
3700000000  -4.538863e+001  -1.148833e+002 
3703125000  -4.579881e+001  -1.198095e+002 
3706250000  -4.607382e+001  -1.226935e+002 
3709375000  -4.511220e+001  -1.186437e+002 
3712500000  -4.357270e+001  -1.255083e+002 
3715625000  -4.234970e+001  -1.356495e+002 
3718750000  -4.186879e+001  -1.420736e+002 
3721875000  -4.151326e+001  -1.507742e+002 
3725000000  -4.208150e+001  -1.576734e+002 
3728125000  -4.150328e+001  -1.628864e+002 
3731250000  -4.069728e+001  -1.673943e+002 
3734375000  -4.035519e+001  -1.736479e+002 
3737500000  -4.083573e+001  1.767142e+002 
3740625000  -4.107988e+001  1.702138e+002 
3743750000  -4.062497e+001  1.638613e+002 
3746875000  -4.104389e+001  1.574711e+002 
3750000000  -4.086253e+001  1.535483e+002 
3753125000  -4.067950e+001  1.500950e+002 
3756250000  -4.079787e+001  1.451482e+002 
3759375000  -4.043832e+001  1.404750e+002 
3762500000  -4.021799e+001  1.343117e+002 
3765625000  -4.093619e+001  1.299960e+002 
3768750000  -4.028725e+001  1.292278e+002 
3771875000  -3.858138e+001  1.219550e+002 
3775000000  -3.851310e+001  1.110261e+002 
3778125000  -3.915687e+001  1.061277e+002 
3781250000  -3.897984e+001  1.018677e+002 
3784375000  -3.889399e+001  9.452004e+001 
3787500000  -3.857520e+001  8.838064e+001 
3790625000  -3.908989e+001  8.040571e+001 
3793750000  -3.915866e+001  7.606516e+001 
3796875000  -3.835385e+001  7.254558e+001 
3800000000  -3.653466e+001  6.770570e+001 
3803125000  -3.818303e+001  5.466749e+001 
3806250000  -3.880024e+001  4.881709e+001 
3809375000  -3.850170e+001  4.588604e+001 
3812500000  -3.857420e+001  3.608842e+001 
3815625000  -3.938142e+001  2.772668e+001 
3818750000  -4.063076e+001  2.770060e+001 
3821875000  -4.018796e+001  3.933564e+001 
3825000000  -3.831093e+001  3.396068e+001 
3828125000  -3.705493e+001  1.572310e+001 
3831250000  -3.815332e+001  1.361393e+000 
3834375000  -4.036913e+001  1.311346e+000 
3837500000  -4.059876e+001  2.260771e+000 
3840625000  -3.902757e+001  2.154294e+000 
3843750000  -3.856370e+001  -1.142751e+001 
3846875000  -4.000171e+001  -1.961013e+001 
3850000000  -4.086301e+001  -1.314219e+001 
3853125000  -4.002371e+001  -1.198574e+001 
3856250000  -3.961049e+001  -1.819861e+001 
3859375000  -3.871124e+001  -2.805798e+001 
3862500000  -3.856511e+001  -3.872972e+001 
3865625000  -3.909774e+001  -4.255728e+001 
3868750000  -3.860723e+001  -4.388120e+001 
3871875000  -3.809066e+001  -5.108393e+001 
3875000000  -3.859051e+001  -6.063973e+001 
3878125000  -3.927931e+001  -6.388830e+001 
3881250000  -3.922351e+001  -6.378920e+001 
3884375000  -3.864605e+001  -7.093409e+001 
3887500000  -3.913568e+001  -7.600064e+001 
3890625000  -3.954784e+001  -8.098355e+001 
3893750000  -3.989629e+001  -8.474024e+001 
3896875000  -3.996527e+001  -8.789683e+001 
3900000000  -3.966175e+001  -9.151681e+001 
3903125000  -3.942359e+001  -9.390534e+001 
3906250000  -3.901485e+001  -9.848252e+001 
3909375000  -3.800726e+001  -1.072159e+002 
3912500000  -3.919447e+001  -1.175454e+002 
3915625000  -4.059100e+001  -1.152624e+002 
3918750000  -3.997277e+001  -1.171960e+002 
3921875000  -3.917040e+001  -1.207825e+002 
3925000000  -3.835770e+001  -1.270617e+002 
3928125000  -3.814890e+001  -1.364556e+002 
3931250000  -3.886525e+001  -1.433106e+002 
3934375000  -3.936430e+001  -1.452698e+002 
3937500000  -4.003478e+001  -1.479872e+002 
3940625000  -3.994566e+001  -1.504342e+002 
3943750000  -3.909644e+001  -1.529411e+002 
3946875000  -3.836804e+001  -1.617129e+002 
3950000000  -3.950334e+001  -1.692790e+002 
3953125000  -4.021155e+001  -1.685426e+002 
3956250000  -3.862143e+001  -1.670616e+002 
3959375000  -3.779318e+001  -1.755973e+002 
3962500000  -3.761086e+001  1.762089e+002 
3965625000  -3.764116e+001  1.667837e+002 
3968750000  -3.850625e+001  1.602046e+002 
3971875000  -3.876547e+001  1.540079e+002 
3975000000  -3.840964e+001  1.493544e+002 
3978125000  -3.847619e+001  1.457115e+002 
3981250000  -3.850871e+001  1.376076e+002 
3984375000  -3.888016e+001  1.312992e+002 
3987500000  -3.957312e+001  1.279010e+002 
3990625000  -3.976721e+001  1.274483e+002 
3993750000  -3.997482e+001  1.215614e+002 
3996875000  -3.988309e+001  1.178574e+002 
4000000000  -4.066850e+001  1.133958e+002 
4003125000  -4.099555e+001  1.140941e+002 
4006250000  -3.932648e+001  1.131494e+002 
4009375000  -3.879024e+001  9.828519e+001 
4012500000  -4.005113e+001  9.033723e+001 
4015625000  -4.119102e+001  8.845805e+001 
4018750000  -4.131238e+001  8.889187e+001 
4021875000  -4.058379e+001  8.624774e+001 
4025000000  -4.014923e+001  8.053809e+001 
4028125000  -4.032900e+001  7.311188e+001 
4031250000  -4.112556e+001  7.022556e+001 
4034375000  -4.112246e+001  7.185754e+001 
4037500000  -4.107604e+001  6.919581e+001 
4040625000  -4.081778e+001  6.446564e+001 
4043750000  -4.079603e+001  6.208027e+001 
4046875000  -4.050276e+001  5.900721e+001 
4050000000  -4.040372e+001  5.396678e+001 
4053125000  -4.104391e+001  4.895983e+001 
4056250000  -4.118666e+001  5.393832e+001 
4059375000  -3.926501e+001  5.087613e+001 
4062500000  -3.860180e+001  4.314256e+001 
4065625000  -3.864100e+001  3.931205e+001 
4068750000  -3.811483e+001  3.339664e+001 
4071875000  -3.748108e+001  2.178902e+001 
4075000000  -3.804858e+001  1.570077e+001 
4078125000  -3.849120e+001  1.066543e+001 
4081250000  -3.797330e+001  7.406680e+000 
4084375000  -3.780124e+001  -3.335507e+000 
4087500000  -3.842528e+001  -9.153481e+000 
4090625000  -3.896263e+001  -1.179908e+001 
4093750000  -3.857991e+001  -1.588195e+001 
4096875000  -3.847784e+001  -2.585366e+001 
4100000000  -3.922836e+001  -3.053012e+001 
4103125000  -4.022681e+001  -2.939034e+001 
4106250000  -3.957197e+001  -2.620977e+001 
4109375000  -3.884208e+001  -3.000676e+001 
4112500000  -3.842501e+001  -3.975673e+001 
4115625000  -3.872120e+001  -4.741172e+001 
4118750000  -3.878302e+001  -5.121465e+001 
4121875000  -3.854314e+001  -5.752861e+001 
4125000000  -3.967246e+001  -6.453873e+001 
4128125000  -4.040109e+001  -6.255093e+001 
4131250000  -3.943072e+001  -5.598841e+001 
4134375000  -3.732157e+001  -6.613255e+001 
4137500000  -3.765652e+001  -8.740496e+001 
4140625000  -3.986100e+001  -9.460808e+001 
4143750000  -4.109223e+001  -8.728256e+001 
4146875000  -4.045231e+001  -8.500996e+001 
4150000000  -3.915361e+001  -9.222119e+001 
4153125000  -3.946158e+001  -1.009683e+002 
4156250000  -4.054011e+001  -1.056975e+002 
4159375000  -4.079846e+001  -9.825011e+001 
4162500000  -3.962012e+001  -9.417213e+001 
4165625000  -3.850514e+001  -1.053397e+002 
4168750000  -3.812296e+001  -1.140971e+002 
4171875000  -3.772382e+001  -1.245431e+002 
4175000000  -3.884760e+001  -1.292658e+002 
4178125000  -3.889039e+001  -1.324849e+002 
4181250000  -3.905745e+001  -1.357800e+002 
4184375000  -3.906770e+001  -1.406310e+002 
4187500000  -3.903611e+001  -1.454554e+002 
4190625000  -3.876325e+001  -1.527701e+002 
4193750000  -4.001070e+001  -1.567043e+002 
4196875000  -4.081498e+001  -1.574997e+002 
4200000000  -4.161412e+001  -1.518127e+002 
4203125000  -4.057730e+001  -1.399432e+002 
4206250000  -3.724713e+001  -1.499839e+002 
4209375000  -3.674104e+001  -1.741939e+002 
4212500000  -3.906185e+001  -1.790113e+002 
4215625000  -3.937355e+001  -1.735359e+002 
4218750000  -3.791066e+001  -1.713796e+002 
4221875000  -3.612505e+001  1.784985e+002 
4225000000  -3.737138e+001  1.670840e+002 
4228125000  -3.727682e+001  1.684183e+002 
4231250000  -3.591646e+001  1.601924e+002 
4234375000  -3.606063e+001  1.494223e+002 
4237500000  -3.561839e+001  1.441093e+002 
4240625000  -3.592228e+001  1.331533e+002 
4243750000  -3.710620e+001  1.234379e+002 
4246875000  -3.797660e+001  1.244790e+002 
4250000000  -3.754883e+001  1.248728e+002 
4253125000  -3.751342e+001  1.199721e+002 
4256250000  -3.756833e+001  1.153089e+002 
4259375000  -3.697211e+001  1.089806e+002 
4262500000  -3.702386e+001  1.052153e+002 
4265625000  -3.730487e+001  1.034677e+002 
4268750000  -3.643655e+001  9.650702e+001 
4271875000  -3.623715e+001  8.687486e+001 
4275000000  -3.597358e+001  7.896060e+001 
4278125000  -3.695875e+001  6.569035e+001 
4281250000  -3.826057e+001  6.404176e+001 
4284375000  -3.827038e+001  5.992267e+001 
4287500000  -3.961309e+001  5.982594e+001 
4290625000  -4.030379e+001  6.799846e+001 
4293750000  -3.820723e+001  7.006396e+001 
4296875000  -3.691452e+001  5.427302e+001 
4300000000  -3.864797e+001  4.460818e+001 
4303125000  -3.926085e+001  4.772834e+001 
4306250000  -3.789738e+001  5.036297e+001 
4309375000  -3.701843e+001  4.440859e+001 
4312500000  -3.730637e+001  3.356425e+001 
4315625000  -3.746178e+001  2.407063e+001 
4318750000  -3.797141e+001  1.974088e+001 
4321875000  -3.806058e+001  2.036528e+001 
4325000000  -3.736999e+001  1.976956e+001 
4328125000  -3.670498e+001  1.078868e+001 
4331250000  -3.698557e+001  -5.962563e-002 
4334375000  -3.766095e+001  -6.431067e+000 
4337500000  -3.883396e+001  -7.548471e+000 
4340625000  -3.881672e+001  -2.494355e+000 
4343750000  -3.811608e+001  -4.896394e+000 
4346875000  -3.793519e+001  -1.490978e+001 
4350000000  -3.772338e+001  -2.331262e+001 
4353125000  -3.837562e+001  -3.005089e+001 
4356250000  -4.001573e+001  -2.753362e+001 
4359375000  -3.945623e+001  -1.343906e+001 
4362500000  -3.605806e+001  -2.039604e+001 
4365625000  -3.550060e+001  -3.791644e+001 
4368750000  -3.666275e+001  -4.846305e+001 
4371875000  -3.741799e+001  -4.778890e+001 
4375000000  -3.691423e+001  -5.288917e+001 
4378125000  -3.625523e+001  -6.077604e+001 
4381250000  -3.665356e+001  -6.760600e+001 
4384375000  -3.660299e+001  -7.440195e+001 
4387500000  -3.763797e+001  -8.106561e+001 
4390625000  -3.811646e+001  -8.120718e+001 
4393750000  -3.736394e+001  -8.177959e+001 
4396875000  -3.681094e+001  -8.697394e+001 
4400000000  -3.614174e+001  -9.486020e+001 
4403125000  -3.707830e+001  -1.037200e+002 
4406250000  -3.782186e+001  -1.083611e+002 
4409375000  -3.798368e+001  -1.130589e+002 
4412500000  -3.891379e+001  -1.148935e+002 
4415625000  -3.888065e+001  -1.097031e+002 
