!Agilent Technologies,E8363B,MY43030201,A.06.04.32
!Agilent E8363B: A.06.04.32
!Date: Tuesday, November 11, 2014 21:26:14
!Correction: S21(Response(S21)) 
!S1P File: Measurement: S21:
# Hz S  dB   R 50
3000000000  -4.047860e+001  9.548164e+001 
3003125000  -4.207352e+001  8.885975e+001 
3006250000  -4.230355e+001  8.656219e+001 
3009375000  -4.255428e+001  9.182558e+001 
3012500000  -4.161785e+001  8.789249e+001 
3015625000  -4.128558e+001  8.062297e+001 
3018750000  -4.186219e+001  8.032820e+001 
3021875000  -4.031237e+001  8.201936e+001 
3025000000  -3.879922e+001  7.632938e+001 
3028125000  -3.805075e+001  6.770600e+001 
3031250000  -3.698899e+001  5.610440e+001 
3034375000  -3.686262e+001  4.310750e+001 
3037500000  -3.736537e+001  3.097876e+001 
3040625000  -3.868301e+001  2.690104e+001 
3043750000  -3.905902e+001  2.011308e+001 
3046875000  -3.952151e+001  1.425645e+001 
3050000000  -4.068287e+001  8.275033e+000 
3053125000  -4.081643e+001  1.295053e+001 
3056250000  -4.035518e+001  1.521793e+001 
3059375000  -3.997810e+001  1.491839e+001 
3062500000  -3.840871e+001  9.926731e+000 
3065625000  -3.802868e+001  9.220156e-002 
3068750000  -3.758108e+001  -7.392344e+000 
3071875000  -3.761260e+001  -1.055310e+001 
3075000000  -3.717048e+001  -1.620123e+001 
3078125000  -3.705305e+001  -2.253435e+001 
3081250000  -3.733144e+001  -2.850196e+001 
3084375000  -3.639053e+001  -3.296296e+001 
3087500000  -3.653843e+001  -3.919174e+001 
3090625000  -3.601345e+001  -5.155283e+001 
3093750000  -3.666469e+001  -6.033576e+001 
3096875000  -3.745908e+001  -6.554357e+001 
3100000000  -3.722125e+001  -7.009286e+001 
3103125000  -3.772110e+001  -7.153514e+001 
3106250000  -3.720201e+001  -7.735905e+001 
3109375000  -3.737790e+001  -8.138061e+001 
3112500000  -3.716693e+001  -8.649598e+001 
3115625000  -3.724888e+001  -9.107990e+001 
3118750000  -3.725278e+001  -9.368241e+001 
3121875000  -3.647634e+001  -1.053331e+002 
3125000000  -3.822560e+001  -1.081598e+002 
3128125000  -3.857067e+001  -1.011729e+002 
3131250000  -3.617743e+001  -1.066983e+002 
3134375000  -3.524006e+001  -1.239020e+002 
3137500000  -3.610032e+001  -1.372469e+002 
3140625000  -3.737919e+001  -1.393393e+002 
3143750000  -3.822210e+001  -1.419658e+002 
3146875000  -3.783662e+001  -1.405764e+002 
3150000000  -3.680640e+001  -1.438202e+002 
3153125000  -3.702883e+001  -1.526044e+002 
3156250000  -3.799504e+001  -1.477904e+002 
3159375000  -3.589523e+001  -1.496842e+002 
3162500000  -3.424271e+001  -1.653278e+002 
3165625000  -3.546108e+001  -1.782691e+002 
3168750000  -3.552607e+001  -1.785726e+002 
3171875000  -3.500007e+001  1.742175e+002 
3175000000  -3.557270e+001  1.638522e+002 
3178125000  -3.528807e+001  1.649334e+002 
3181250000  -3.441032e+001  1.554566e+002 
3184375000  -3.403880e+001  1.438269e+002 
3187500000  -3.525116e+001  1.279736e+002 
3190625000  -3.737744e+001  1.208329e+002 
3193750000  -3.773666e+001  1.280439e+002 
3196875000  -3.752713e+001  1.294464e+002 
3200000000  -3.648859e+001  1.243830e+002 
3203125000  -3.590425e+001  1.165375e+002 
3206250000  -3.625084e+001  1.083801e+002 
3209375000  -3.586230e+001  1.005060e+002 
3212500000  -3.623328e+001  9.299911e+001 
3215625000  -3.614708e+001  9.011957e+001 
3218750000  -3.687844e+001  7.926610e+001 
3221875000  -3.726470e+001  7.302661e+001 
3225000000  -3.715327e+001  6.932453e+001 
3228125000  -3.787683e+001  6.253453e+001 
3231250000  -3.838708e+001  5.901363e+001 
3234375000  -3.801084e+001  5.770840e+001 
3237500000  -3.817804e+001  5.219556e+001 
3240625000  -3.773745e+001  4.761949e+001 
3243750000  -3.775020e+001  3.843859e+001 
3246875000  -3.829399e+001  3.040048e+001 
3250000000  -3.876312e+001  2.606274e+001 
3253125000  -3.906414e+001  2.323157e+001 
3256250000  -3.873758e+001  1.581853e+001 
3259375000  -3.918767e+001  4.684682e+000 
3262500000  -4.055629e+001  1.176257e+000 
3265625000  -4.128447e+001  3.085360e+000 
3268750000  -4.120713e+001  2.817110e+000 
3271875000  -4.065808e+001  2.872629e-002 
3275000000  -4.024849e+001  -6.662285e+000 
3278125000  -4.084155e+001  -1.205052e+001 
3281250000  -4.107847e+001  -1.439592e+001 
3284375000  -4.072285e+001  -1.983316e+001 
3287500000  -4.100987e+001  -2.664937e+001 
3290625000  -4.139796e+001  -3.028824e+001 
3293750000  -4.130821e+001  -3.762844e+001 
3296875000  -4.250800e+001  -3.884841e+001 
3300000000  -4.188261e+001  -3.800541e+001 
3303125000  -4.093987e+001  -4.384830e+001 
3306250000  -4.100099e+001  -5.229227e+001 
3309375000  -4.062431e+001  -5.895778e+001 
3312500000  -4.085208e+001  -7.237212e+001 
3315625000  -4.214144e+001  -7.892854e+001 
3318750000  -4.348185e+001  -8.288588e+001 
3321875000  -4.490927e+001  -8.331290e+001 
3325000000  -4.529013e+001  -7.311448e+001 
3328125000  -4.407166e+001  -7.374084e+001 
3331250000  -4.282694e+001  -7.129372e+001 
3334375000  -3.984230e+001  -8.485181e+001 
3337500000  -4.045201e+001  -1.040500e+002 
3340625000  -4.221692e+001  -1.153907e+002 
3343750000  -4.427306e+001  -1.162753e+002 
3346875000  -4.343127e+001  -1.156668e+002 
3350000000  -4.309933e+001  -1.191999e+002 
3353125000  -4.301577e+001  -1.245820e+002 
3356250000  -4.262172e+001  -1.333749e+002 
3359375000  -4.345431e+001  -1.439874e+002 
3362500000  -4.453467e+001  -1.499709e+002 
3365625000  -4.501492e+001  -1.526556e+002 
3368750000  -4.563538e+001  -1.596890e+002 
3371875000  -4.568182e+001  -1.613796e+002 
3375000000  -4.783063e+001  -1.656602e+002 
3378125000  -4.825160e+001  -1.680993e+002 
3381250000  -4.929504e+001  -1.597536e+002 
3384375000  -4.698856e+001  -1.411158e+002 
3387500000  -4.424769e+001  -1.647618e+002 
3390625000  -4.623760e+001  1.753743e+002 
3393750000  -4.722848e+001  1.767871e+002 
3396875000  -4.622966e+001  1.756129e+002 
3400000000  -4.611548e+001  1.647949e+002 
3403125000  -4.689284e+001  1.551180e+002 
3406250000  -4.749152e+001  1.558077e+002 
3409375000  -4.800760e+001  1.467139e+002 
3412500000  -4.860966e+001  1.410018e+002 
3415625000  -5.098902e+001  1.390996e+002 
3418750000  -5.070539e+001  1.418439e+002 
3421875000  -5.130989e+001  1.435642e+002 
3425000000  -5.034958e+001  1.433640e+002 
3428125000  -5.030799e+001  1.412171e+002 
3431250000  -5.022979e+001  1.293017e+002 
3434375000  -5.100386e+001  1.228614e+002 
3437500000  -5.225750e+001  1.269167e+002 
3440625000  -5.275420e+001  1.311548e+002 
3443750000  -5.140905e+001  1.314945e+002 
3446875000  -5.162730e+001  1.248359e+002 
3450000000  -5.118710e+001  1.176293e+002 
3453125000  -5.153580e+001  1.117281e+002 
3456250000  -5.211172e+001  1.059871e+002 
3459375000  -5.376877e+001  1.164150e+002 
3462500000  -5.206083e+001  1.143034e+002 
3465625000  -5.230438e+001  1.011734e+002 
3468750000  -5.246255e+001  1.082513e+002 
3471875000  -5.275938e+001  9.951302e+001 
3475000000  -5.122542e+001  9.919384e+001 
3478125000  -5.219123e+001  8.984354e+001 
3481250000  -5.309123e+001  8.782566e+001 
3484375000  -5.306743e+001  9.541691e+001 
3487500000  -5.218988e+001  9.108376e+001 
3490625000  -5.125661e+001  8.050056e+001 
3493750000  -5.180692e+001  7.459858e+001 
3496875000  -5.214066e+001  7.543551e+001 
3500000000  -5.345950e+001  8.011066e+001 
3503125000  -5.198391e+001  6.750150e+001 
3506250000  -5.028666e+001  6.345251e+001 
3509375000  -4.986585e+001  5.381199e+001 
3512500000  -5.070359e+001  4.060339e+001 
3515625000  -5.124839e+001  3.044809e+001 
3518750000  -5.213964e+001  3.914845e+001 
3521875000  -5.226842e+001  2.978570e+001 
3525000000  -5.329446e+001  2.390174e+001 
3528125000  -5.332655e+001  2.589459e+001 
3531250000  -5.180754e+001  2.720822e+001 
3534375000  -5.212893e+001  1.782013e+001 
3537500000  -5.471706e+001  1.645657e+000 
3540625000  -5.423940e+001  2.947463e+000 
3543750000  -5.576762e+001  7.818658e+000 
3546875000  -5.793774e+001  2.291489e+001 
3550000000  -5.394810e+001  7.291250e+000 
3553125000  -5.351959e+001  3.017453e+000 
3556250000  -5.555250e+001  -9.970017e+000 
3559375000  -5.690970e+001  -9.440579e+000 
3562500000  -5.656902e+001  -2.636358e+001 
3565625000  -5.822364e+001  -2.648975e+001 
3568750000  -5.981351e+001  -9.630485e+000 
3571875000  -5.894312e+001  -1.746051e+001 
3575000000  -6.096019e+001  -1.693702e+001 
3578125000  -5.947635e+001  -2.547184e+001 
3581250000  -5.853515e+001  -6.033551e+000 
3584375000  -5.830912e+001  1.294353e+000 
3587500000  -5.674215e+001  -9.048246e+000 
3590625000  -5.815621e+001  -2.951977e+001 
3593750000  -6.036647e+001  -1.170085e+001 
3596875000  -5.920239e+001  4.672281e+000 
3600000000  -5.843764e+001  -5.935401e-001 
3603125000  -5.897736e+001  -2.141786e+001 
3606250000  -5.753077e+001  -2.141419e+001 
3609375000  -5.727099e+001  -1.085273e+001 
3612500000  -5.719285e+001  -1.107328e+001 
3615625000  -5.825504e+001  -2.513803e+001 
3618750000  -5.978735e+001  -2.205803e+001 
3621875000  -5.800731e+001  -2.495096e+001 
3625000000  -5.771676e+001  -1.670625e+001 
3628125000  -5.614102e+001  -1.167234e+001 
3631250000  -5.615422e+001  -1.837030e+001 
3634375000  -5.657029e+001  -2.212708e+001 
3637500000  -5.589091e+001  -2.142348e+000 
3640625000  -5.442301e+001  -8.570363e+000 
3643750000  -5.349083e+001  -1.853816e+001 
3646875000  -5.295203e+001  -2.964435e+001 
3650000000  -5.329645e+001  -3.234917e+001 
3653125000  -5.199209e+001  -3.896808e+001 
3656250000  -5.091854e+001  -3.977776e+001 
3659375000  -5.173317e+001  -3.402085e+001 
3662500000  -5.044333e+001  -5.007687e+001 
3665625000  -4.949316e+001  -4.566895e+001 
3668750000  -4.805557e+001  -4.640863e+001 
3671875000  -4.724190e+001  -5.898743e+001 
3675000000  -4.699402e+001  -6.397475e+001 
3678125000  -4.746214e+001  -7.113825e+001 
3681250000  -4.669838e+001  -7.283714e+001 
3684375000  -4.735025e+001  -7.682427e+001 
3687500000  -4.653470e+001  -8.418015e+001 
3690625000  -4.643941e+001  -9.067516e+001 
3693750000  -4.754749e+001  -9.158997e+001 
3696875000  -4.692918e+001  -9.072960e+001 
3700000000  -4.529133e+001  -1.013486e+002 
3703125000  -4.526819e+001  -1.026297e+002 
3706250000  -4.565493e+001  -1.036397e+002 
3709375000  -4.504970e+001  -1.056086e+002 
3712500000  -4.355510e+001  -1.075660e+002 
3715625000  -4.204519e+001  -1.176767e+002 
3718750000  -4.171790e+001  -1.237782e+002 
3721875000  -4.146874e+001  -1.347955e+002 
3725000000  -4.146236e+001  -1.422039e+002 
3728125000  -4.132011e+001  -1.453433e+002 
3731250000  -4.090924e+001  -1.499562e+002 
3734375000  -4.005045e+001  -1.599540e+002 
3737500000  -4.059546e+001  -1.703950e+002 
3740625000  -4.095790e+001  -1.727236e+002 
3743750000  -4.054510e+001  1.792318e+002 
3746875000  -4.071777e+001  1.727653e+002 
3750000000  -4.095811e+001  1.692966e+002 
3753125000  -4.049994e+001  1.667611e+002 
3756250000  -4.061467e+001  1.608285e+002 
3759375000  -4.061352e+001  1.569359e+002 
3762500000  -4.029282e+001  1.491960e+002 
3765625000  -4.061428e+001  1.468432e+002 
3768750000  -4.017001e+001  1.464136e+002 
3771875000  -3.857490e+001  1.394030e+002 
3775000000  -3.876291e+001  1.273177e+002 
3778125000  -3.933612e+001  1.220003e+002 
3781250000  -3.912575e+001  1.185456e+002 
3784375000  -3.885333e+001  1.119601e+002 
3787500000  -3.869574e+001  1.045889e+002 
3790625000  -3.927547e+001  9.607414e+001 
3793750000  -3.916539e+001  9.268513e+001 
3796875000  -3.829673e+001  8.712498e+001 
3800000000  -3.655859e+001  8.453729e+001 
3803125000  -3.806680e+001  7.081506e+001 
3806250000  -3.907358e+001  6.556479e+001 
3809375000  -3.839265e+001  6.155987e+001 
3812500000  -3.860955e+001  5.285007e+001 
3815625000  -3.939212e+001  4.433836e+001 
3818750000  -4.059626e+001  4.497000e+001 
3821875000  -4.031630e+001  5.399757e+001 
3825000000  -3.842210e+001  5.029070e+001 
3828125000  -3.731824e+001  3.218243e+001 
3831250000  -3.802040e+001  1.773556e+001 
3834375000  -4.018175e+001  1.679302e+001 
3837500000  -4.067207e+001  1.822573e+001 
3840625000  -3.950522e+001  1.811452e+001 
3843750000  -3.867979e+001  3.735988e+000 
3846875000  -3.984792e+001  -3.974121e+000 
3850000000  -4.087483e+001  5.597444e-001 
3853125000  -4.027005e+001  1.789527e+000 
3856250000  -3.976582e+001  -5.599665e+000 
3859375000  -3.901709e+001  -1.115859e+001 
3862500000  -3.875292e+001  -2.394561e+001 
3865625000  -3.917587e+001  -2.796441e+001 
3868750000  -3.912564e+001  -2.894697e+001 
3871875000  -3.810088e+001  -3.453365e+001 
3875000000  -3.861273e+001  -4.434524e+001 
3878125000  -3.990902e+001  -4.808434e+001 
3881250000  -3.946633e+001  -4.599051e+001 
3884375000  -3.885301e+001  -5.337328e+001 
3887500000  -3.907734e+001  -6.054995e+001 
3890625000  -3.967865e+001  -6.614146e+001 
3893750000  -3.988853e+001  -6.703572e+001 
3896875000  -4.009124e+001  -6.876045e+001 
3900000000  -3.984978e+001  -7.402608e+001 
3903125000  -3.940516e+001  -7.856491e+001 
3906250000  -3.905433e+001  -8.334277e+001 
3909375000  -3.851215e+001  -9.071037e+001 
3912500000  -3.915391e+001  -9.837978e+001 
3915625000  -4.034827e+001  -1.016253e+002 
3918750000  -4.026409e+001  -1.003034e+002 
3921875000  -3.931950e+001  -1.063623e+002 
3925000000  -3.873063e+001  -1.104684e+002 
3928125000  -3.831103e+001  -1.206597e+002 
3931250000  -3.909299e+001  -1.272419e+002 
3934375000  -3.935354e+001  -1.288394e+002 
3937500000  -3.986919e+001  -1.311797e+002 
3940625000  -3.998468e+001  -1.321835e+002 
3943750000  -3.899538e+001  -1.349082e+002 
3946875000  -3.840613e+001  -1.448427e+002 
3950000000  -3.950726e+001  -1.531003e+002 
3953125000  -4.041842e+001  -1.520917e+002 
3956250000  -3.919331e+001  -1.531195e+002 
3959375000  -3.795290e+001  -1.593266e+002 
3962500000  -3.772019e+001  -1.668887e+002 
3965625000  -3.763708e+001  -1.775663e+002 
3968750000  -3.868676e+001  1.749993e+002 
3971875000  -3.895234e+001  1.706342e+002 
3975000000  -3.832021e+001  1.659987e+002 
3978125000  -3.844418e+001  1.614774e+002 
3981250000  -3.862350e+001  1.557523e+002 
3984375000  -3.925213e+001  1.481779e+002 
3987500000  -3.984706e+001  1.427731e+002 
3990625000  -4.001377e+001  1.416808e+002 
3993750000  -4.009962e+001  1.368412e+002 
3996875000  -4.000696e+001  1.337966e+002 
4000000000  -4.061287e+001  1.281530e+002 
4003125000  -4.112735e+001  1.299607e+002 
4006250000  -3.964094e+001  1.284379e+002 
4009375000  -3.855664e+001  1.146944e+002 
4012500000  -4.015242e+001  1.062826e+002 
4015625000  -4.135360e+001  1.057901e+002 
4018750000  -4.158439e+001  1.034096e+002 
4021875000  -4.104880e+001  1.046604e+002 
4025000000  -4.064308e+001  9.802905e+001 
4028125000  -4.048414e+001  9.114790e+001 
4031250000  -4.140659e+001  8.492308e+001 
4034375000  -4.156573e+001  8.728278e+001 
4037500000  -4.126381e+001  8.716856e+001 
4040625000  -4.104617e+001  8.117940e+001 
4043750000  -4.122142e+001  7.820891e+001 
4046875000  -4.099189e+001  7.639764e+001 
4050000000  -4.094270e+001  7.032090e+001 
4053125000  -4.166694e+001  6.795924e+001 
4056250000  -4.168396e+001  7.204067e+001 
4059375000  -3.967096e+001  6.918602e+001 
4062500000  -3.896471e+001  6.094399e+001 
4065625000  -3.893719e+001  5.538228e+001 
4068750000  -3.871875e+001  4.855515e+001 
4071875000  -3.778379e+001  3.785352e+001 
4075000000  -3.855625e+001  3.128012e+001 
4078125000  -3.883854e+001  2.765390e+001 
4081250000  -3.858102e+001  2.291747e+001 
4084375000  -3.819991e+001  1.331509e+001 
4087500000  -3.868583e+001  6.369341e+000 
4090625000  -3.933545e+001  3.302896e+000 
4093750000  -3.875716e+001  3.587718e+000 
4096875000  -3.886648e+001  -7.107195e+000 
4100000000  -3.952308e+001  -1.529451e+001 
4103125000  -4.052190e+001  -1.209364e+001 
4106250000  -4.024575e+001  -1.063694e+001 
4109375000  -3.920288e+001  -1.369639e+001 
4112500000  -3.881946e+001  -2.211430e+001 
4115625000  -3.929037e+001  -2.989008e+001 
4118750000  -3.920186e+001  -3.313029e+001 
4121875000  -3.906818e+001  -4.136029e+001 
4125000000  -3.968380e+001  -4.853098e+001 
4128125000  -4.096085e+001  -4.631216e+001 
4131250000  -3.998003e+001  -4.010855e+001 
4134375000  -3.787223e+001  -4.890980e+001 
4137500000  -3.816793e+001  -7.002161e+001 
4140625000  -4.033659e+001  -7.670448e+001 
4143750000  -4.155856e+001  -7.328045e+001 
4146875000  -4.054483e+001  -6.793472e+001 
4150000000  -3.991533e+001  -7.274043e+001 
4153125000  -3.993776e+001  -8.290786e+001 
4156250000  -4.157035e+001  -8.786119e+001 
4159375000  -4.106647e+001  -8.218919e+001 
4162500000  -3.997692e+001  -8.076646e+001 
4165625000  -3.889342e+001  -8.629879e+001 
4168750000  -3.856836e+001  -9.654897e+001 
4171875000  -3.886545e+001  -1.058036e+002 
4175000000  -3.954421e+001  -1.120237e+002 
4178125000  -4.003397e+001  -1.144570e+002 
4181250000  -3.952314e+001  -1.175411e+002 
4184375000  -3.985678e+001  -1.225402e+002 
4187500000  -3.988403e+001  -1.259178e+002 
4190625000  -3.972342e+001  -1.361277e+002 
4193750000  -4.082616e+001  -1.397455e+002 
4196875000  -4.143183e+001  -1.406078e+002 
4200000000  -4.193907e+001  -1.357710e+002 
4203125000  -4.138036e+001  -1.230641e+002 
4206250000  -3.784725e+001  -1.294918e+002 
4209375000  -3.767286e+001  -1.550349e+002 
4212500000  -3.953413e+001  -1.619230e+002 
4215625000  -4.043237e+001  -1.553172e+002 
4218750000  -3.840281e+001  -1.536745e+002 
4221875000  -3.683569e+001  -1.634723e+002 
4225000000  -3.827089e+001  -1.750838e+002 
4228125000  -3.815035e+001  -1.737571e+002 
4231250000  -3.663155e+001  1.784973e+002 
4234375000  -3.678296e+001  1.668809e+002 
4237500000  -3.632764e+001  1.619351e+002 
4240625000  -3.644840e+001  1.521717e+002 
4243750000  -3.780441e+001  1.438117e+002 
4246875000  -3.839147e+001  1.432516e+002 
4250000000  -3.882637e+001  1.430109e+002 
4253125000  -3.819936e+001  1.402988e+002 
4256250000  -3.820547e+001  1.325127e+002 
4259375000  -3.800379e+001  1.281048e+002 
4262500000  -3.788865e+001  1.244998e+002 
4265625000  -3.843301e+001  1.218024e+002 
4268750000  -3.706076e+001  1.159054e+002 
4271875000  -3.702756e+001  1.065900e+002 
4275000000  -3.677153e+001  9.735361e+001 
4278125000  -3.763787e+001  8.590279e+001 
4281250000  -3.953763e+001  8.165729e+001 
4284375000  -3.898177e+001  8.150957e+001 
4287500000  -4.032507e+001  7.615448e+001 
4290625000  -4.090641e+001  8.544485e+001 
4293750000  -3.886119e+001  8.762283e+001 
4296875000  -3.793190e+001  7.364003e+001 
4300000000  -3.913928e+001  6.117730e+001 
4303125000  -4.036826e+001  6.624241e+001 
4306250000  -3.922591e+001  6.947012e+001 
4309375000  -3.813414e+001  6.363719e+001 
4312500000  -3.800030e+001  5.277379e+001 
4315625000  -3.823481e+001  4.502957e+001 
4318750000  -3.899411e+001  4.054023e+001 
4321875000  -3.879396e+001  4.199086e+001 
4325000000  -3.836494e+001  4.049661e+001 
4328125000  -3.755956e+001  3.131463e+001 
4331250000  -3.777122e+001  2.100045e+001 
4334375000  -3.844247e+001  1.293270e+001 
4337500000  -3.955043e+001  1.201354e+001 
4340625000  -3.973700e+001  1.411046e+001 
4343750000  -3.888711e+001  1.274718e+001 
4346875000  -3.870591e+001  4.795441e+000 
4350000000  -3.847404e+001  -2.409293e+000 
4353125000  -3.888695e+001  -8.049907e+000 
4356250000  -4.109976e+001  -6.696657e+000 
4359375000  -4.077828e+001  6.041923e+000 
4362500000  -3.740363e+001  4.912242e-001 
4365625000  -3.644579e+001  -1.623791e+001 
4368750000  -3.754251e+001  -2.691313e+001 
4371875000  -3.842962e+001  -2.664339e+001 
4375000000  -3.794437e+001  -2.954098e+001 
4378125000  -3.722288e+001  -3.742558e+001 
4381250000  -3.749271e+001  -4.614278e+001 
4384375000  -3.745564e+001  -5.292102e+001 
4387500000  -3.855474e+001  -6.071973e+001 
4390625000  -3.899817e+001  -6.005650e+001 
4393750000  -3.837320e+001  -6.050533e+001 
4396875000  -3.776505e+001  -6.331929e+001 
4400000000  -3.719341e+001  -7.465102e+001 
4403125000  -3.820848e+001  -8.398639e+001 
4406250000  -3.876043e+001  -8.779348e+001 
4409375000  -3.889268e+001  -8.953519e+001 
4412500000  -4.013598e+001  -9.380286e+001 
4415625000  -3.983900e+001  -9.123470e+001 
4418750000  -3.832340e+001  -8.788678e+001 
