!Agilent Technologies,E8363B,MY43030201,A.06.04.32
!Agilent E8363B: A.06.04.32
!Date: Tuesday, November 11, 2014 21:28:05
!Correction: S21(Response(S21)) 
!S1P File: Measurement: S21:
# Hz S  dB   R 50
3000000000  -4.043922e+001  9.167100e+001 
3003125000  -4.240547e+001  8.290985e+001 
3006250000  -4.220778e+001  8.142023e+001 
3009375000  -4.292452e+001  8.735712e+001 
3012500000  -4.178646e+001  8.370424e+001 
3015625000  -4.150126e+001  7.614621e+001 
3018750000  -4.179141e+001  7.492535e+001 
3021875000  -4.026206e+001  7.552191e+001 
3025000000  -3.913340e+001  7.324216e+001 
3028125000  -3.815728e+001  6.320191e+001 
3031250000  -3.706969e+001  5.199620e+001 
3034375000  -3.677546e+001  3.807862e+001 
3037500000  -3.765649e+001  2.694919e+001 
3040625000  -3.885479e+001  2.151873e+001 
3043750000  -3.910968e+001  1.455443e+001 
3046875000  -3.968939e+001  9.713229e+000 
3050000000  -4.092229e+001  2.983721e+000 
3053125000  -4.076322e+001  9.073121e+000 
3056250000  -4.035577e+001  1.072423e+001 
3059375000  -3.993660e+001  9.487209e+000 
3062500000  -3.816955e+001  5.866746e+000 
3065625000  -3.803616e+001  -5.407730e+000 
3068750000  -3.759410e+001  -1.216389e+001 
3071875000  -3.781306e+001  -1.476837e+001 
3075000000  -3.718781e+001  -2.209009e+001 
3078125000  -3.708249e+001  -2.734298e+001 
3081250000  -3.736988e+001  -3.358486e+001 
3084375000  -3.644851e+001  -3.807862e+001 
3087500000  -3.648653e+001  -4.502191e+001 
3090625000  -3.594460e+001  -5.692536e+001 
3093750000  -3.680910e+001  -6.460418e+001 
3096875000  -3.737360e+001  -7.122343e+001 
3100000000  -3.723827e+001  -7.412531e+001 
3103125000  -3.763332e+001  -7.715378e+001 
3106250000  -3.717301e+001  -8.111127e+001 
3109375000  -3.734872e+001  -8.691025e+001 
3112500000  -3.731679e+001  -9.184218e+001 
3115625000  -3.707215e+001  -9.542318e+001 
3118750000  -3.725167e+001  -9.885928e+001 
3121875000  -3.650417e+001  -1.102465e+002 
3125000000  -3.842407e+001  -1.144085e+002 
3128125000  -3.858641e+001  -1.063804e+002 
3131250000  -3.616501e+001  -1.116706e+002 
3134375000  -3.553938e+001  -1.292869e+002 
3137500000  -3.609650e+001  -1.415979e+002 
3140625000  -3.729160e+001  -1.458631e+002 
3143750000  -3.829087e+001  -1.458364e+002 
3146875000  -3.766327e+001  -1.445676e+002 
3150000000  -3.684866e+001  -1.482889e+002 
3153125000  -3.712383e+001  -1.570733e+002 
3156250000  -3.823093e+001  -1.525082e+002 
3159375000  -3.581006e+001  -1.533048e+002 
3162500000  -3.426096e+001  -1.696063e+002 
3165625000  -3.545008e+001  1.772838e+002 
3168750000  -3.543631e+001  1.769830e+002 
3171875000  -3.488469e+001  1.691791e+002 
3175000000  -3.546946e+001  1.595760e+002 
3178125000  -3.516731e+001  1.593974e+002 
3181250000  -3.432814e+001  1.510422e+002 
3184375000  -3.404721e+001  1.391031e+002 
3187500000  -3.532381e+001  1.228571e+002 
3190625000  -3.726642e+001  1.166448e+002 
3193750000  -3.764445e+001  1.224130e+002 
3196875000  -3.738483e+001  1.245529e+002 
3200000000  -3.634692e+001  1.197296e+002 
3203125000  -3.595484e+001  1.116500e+002 
3206250000  -3.622536e+001  1.029744e+002 
3209375000  -3.577140e+001  9.650594e+001 
3212500000  -3.624524e+001  8.865580e+001 
3215625000  -3.612669e+001  8.573847e+001 
3218750000  -3.672224e+001  7.449126e+001 
3221875000  -3.742267e+001  6.849020e+001 
3225000000  -3.713446e+001  6.448136e+001 
3228125000  -3.771601e+001  5.748416e+001 
3231250000  -3.842224e+001  5.530660e+001 
3234375000  -3.800508e+001  5.195816e+001 
3237500000  -3.791902e+001  4.764413e+001 
3240625000  -3.769318e+001  4.252962e+001 
3243750000  -3.773770e+001  3.333361e+001 
3246875000  -3.817214e+001  2.595382e+001 
3250000000  -3.874555e+001  2.234831e+001 
3253125000  -3.908997e+001  1.785999e+001 
3256250000  -3.858847e+001  1.023736e+001 
3259375000  -3.937579e+001  -4.557512e-001 
3262500000  -4.057810e+001  -4.606020e+000 
3265625000  -4.117339e+001  -8.808286e-001 
3268750000  -4.126488e+001  -9.009139e-001 
3271875000  -4.097747e+001  -4.736627e+000 
3275000000  -4.005442e+001  -1.119270e+001 
3278125000  -4.073595e+001  -1.770020e+001 
3281250000  -4.119687e+001  -1.954122e+001 
3284375000  -4.064095e+001  -2.513893e+001 
3287500000  -4.093111e+001  -2.833379e+001 
3290625000  -4.120587e+001  -3.649313e+001 
3293750000  -4.111596e+001  -4.273415e+001 
3296875000  -4.234204e+001  -4.413987e+001 
3300000000  -4.195552e+001  -4.233738e+001 
3303125000  -4.115526e+001  -4.961631e+001 
3306250000  -4.080981e+001  -5.687197e+001 
3309375000  -4.055048e+001  -6.392462e+001 
3312500000  -4.103482e+001  -7.674611e+001 
3315625000  -4.217112e+001  -8.388504e+001 
3318750000  -4.360941e+001  -8.668353e+001 
3321875000  -4.465166e+001  -8.411964e+001 
3325000000  -4.506369e+001  -7.891460e+001 
3328125000  -4.358554e+001  -7.741655e+001 
3331250000  -4.261988e+001  -7.762093e+001 
3334375000  -3.994733e+001  -8.932146e+001 
3337500000  -4.017703e+001  -1.091284e+002 
3340625000  -4.215981e+001  -1.204227e+002 
3343750000  -4.413278e+001  -1.204225e+002 
3346875000  -4.347066e+001  -1.193761e+002 
3350000000  -4.273442e+001  -1.227800e+002 
3353125000  -4.296678e+001  -1.307231e+002 
3356250000  -4.266053e+001  -1.387389e+002 
3359375000  -4.306581e+001  -1.483159e+002 
3362500000  -4.423964e+001  -1.537745e+002 
3365625000  -4.456570e+001  -1.570960e+002 
3368750000  -4.534674e+001  -1.613471e+002 
3371875000  -4.559936e+001  -1.676098e+002 
3375000000  -4.722451e+001  -1.688356e+002 
3378125000  -4.788277e+001  -1.733341e+002 
3381250000  -4.903989e+001  -1.624711e+002 
3384375000  -4.699212e+001  -1.465444e+002 
3387500000  -4.361389e+001  -1.677894e+002 
3390625000  -4.590426e+001  1.758798e+002 
3393750000  -4.754506e+001  1.768506e+002 
3396875000  -4.618422e+001  1.721834e+002 
3400000000  -4.617942e+001  1.599615e+002 
3403125000  -4.637257e+001  1.583850e+002 
3406250000  -4.769495e+001  1.534127e+002 
3409375000  -4.791079e+001  1.429931e+002 
3412500000  -4.828482e+001  1.431260e+002 
3415625000  -4.995609e+001  1.397000e+002 
3418750000  -4.991450e+001  1.400378e+002 
3421875000  -5.084683e+001  1.441494e+002 
3425000000  -4.995686e+001  1.417055e+002 
3428125000  -4.962785e+001  1.378932e+002 
3431250000  -4.992665e+001  1.270441e+002 
3434375000  -5.073168e+001  1.268599e+002 
3437500000  -5.177878e+001  1.250474e+002 
3440625000  -5.157109e+001  1.277103e+002 
3443750000  -5.066202e+001  1.279351e+002 
3446875000  -5.022018e+001  1.206893e+002 
3450000000  -5.003197e+001  1.149189e+002 
3453125000  -5.061151e+001  1.014932e+002 
3456250000  -5.146727e+001  1.016027e+002 
3459375000  -5.206760e+001  1.052075e+002 
3462500000  -5.203855e+001  1.124060e+002 
3465625000  -5.104668e+001  1.000592e+002 
3468750000  -5.130458e+001  9.637122e+001 
3471875000  -5.187207e+001  1.000446e+002 
3475000000  -5.027227e+001  8.972821e+001 
3478125000  -5.115862e+001  8.173368e+001 
3481250000  -5.196563e+001  8.277428e+001 
3484375000  -5.208237e+001  8.560085e+001 
3487500000  -5.147255e+001  8.240248e+001 
3490625000  -5.076168e+001  7.528950e+001 
3493750000  -5.102006e+001  6.953828e+001 
3496875000  -5.141927e+001  7.042639e+001 
3500000000  -5.236698e+001  7.381133e+001 
3503125000  -5.114557e+001  6.658315e+001 
3506250000  -4.937788e+001  5.790298e+001 
3509375000  -4.955540e+001  4.911778e+001 
3512500000  -4.997527e+001  3.296366e+001 
3515625000  -5.064908e+001  2.766213e+001 
3518750000  -5.126719e+001  3.515102e+001 
3521875000  -5.138434e+001  2.149391e+001 
3525000000  -5.217198e+001  1.250299e+001 
3528125000  -5.245633e+001  2.370518e+001 
3531250000  -5.112921e+001  2.021459e+001 
3534375000  -5.195906e+001  5.964880e+000 
3537500000  -5.274947e+001  -8.665194e+000 
3540625000  -5.366539e+001  -1.472873e+000 
3543750000  -5.496452e+001  -1.983430e+000 
3546875000  -5.543926e+001  1.063246e+001 
3550000000  -5.417136e+001  2.723769e+000 
3553125000  -5.305401e+001  -6.675841e+000 
3556250000  -5.478850e+001  -1.865720e+001 
3559375000  -5.510818e+001  -1.902978e+001 
3562500000  -5.594368e+001  -3.000516e+001 
3565625000  -5.599212e+001  -2.795155e+001 
3568750000  -5.721722e+001  -2.167734e+001 
3571875000  -5.961847e+001  -2.273344e+001 
3575000000  -5.843749e+001  -2.143255e+001 
3578125000  -5.837714e+001  -1.935922e+001 
3581250000  -5.852855e+001  -1.387540e+001 
3584375000  -5.653693e+001  -2.827493e+001 
3587500000  -5.744059e+001  -3.369542e+001 
3590625000  -5.939397e+001  -3.515604e+001 
3593750000  -6.088853e+001  -2.602864e+001 
3596875000  -5.970412e+001  -4.321545e+001 
3600000000  -5.765311e+001  -2.230273e+001 
3603125000  -5.870498e+001  -3.543454e+001 
3606250000  -5.935691e+001  -3.506128e+001 
3609375000  -5.688577e+001  -3.531767e+001 
3612500000  -5.931879e+001  -2.536585e+001 
3615625000  -5.897158e+001  -4.153940e+001 
3618750000  -5.773927e+001  -3.668965e+001 
3621875000  -5.662920e+001  -2.891200e+001 
3625000000  -5.770552e+001  -3.397777e+001 
3628125000  -5.860455e+001  -2.176268e+001 
3631250000  -5.704353e+001  -3.743052e+001 
3634375000  -5.799455e+001  -2.106452e+001 
3637500000  -5.602638e+001  -2.281760e+001 
3640625000  -5.450388e+001  -1.993900e+001 
3643750000  -5.292576e+001  -2.767896e+001 
3646875000  -5.332563e+001  -3.790251e+001 
3650000000  -5.420280e+001  -4.457576e+001 
3653125000  -5.270471e+001  -4.087183e+001 
3656250000  -5.194922e+001  -4.721873e+001 
3659375000  -5.150854e+001  -4.471401e+001 
3662500000  -5.133436e+001  -5.208679e+001 
3665625000  -5.027153e+001  -5.096786e+001 
3668750000  -4.858218e+001  -5.127661e+001 
3671875000  -4.706046e+001  -6.171598e+001 
3675000000  -4.787590e+001  -7.215309e+001 
3678125000  -4.796525e+001  -7.731451e+001 
3681250000  -4.711644e+001  -7.887613e+001 
3684375000  -4.659587e+001  -8.361386e+001 
3687500000  -4.696472e+001  -9.201974e+001 
3690625000  -4.681095e+001  -9.583882e+001 
3693750000  -4.738665e+001  -9.386777e+001 
3696875000  -4.661016e+001  -9.812819e+001 
3700000000  -4.549890e+001  -1.059862e+002 
3703125000  -4.604436e+001  -1.126578e+002 
3706250000  -4.627929e+001  -1.106251e+002 
3709375000  -4.498228e+001  -1.093226e+002 
3712500000  -4.381657e+001  -1.170896e+002 
3715625000  -4.233479e+001  -1.247531e+002 
3718750000  -4.204396e+001  -1.318532e+002 
3721875000  -4.156875e+001  -1.417288e+002 
3725000000  -4.177673e+001  -1.475165e+002 
3728125000  -4.149119e+001  -1.525918e+002 
3731250000  -4.114575e+001  -1.581422e+002 
3734375000  -4.024239e+001  -1.638732e+002 
3737500000  -4.096293e+001  -1.752362e+002 
3740625000  -4.110075e+001  -1.789360e+002 
3743750000  -4.072782e+001  1.738035e+002 
3746875000  -4.075634e+001  1.682954e+002 
3750000000  -4.090454e+001  1.625266e+002 
3753125000  -4.060226e+001  1.593445e+002 
3756250000  -4.061732e+001  1.571730e+002 
3759375000  -4.044269e+001  1.518432e+002 
3762500000  -4.007509e+001  1.447256e+002 
3765625000  -4.067704e+001  1.389538e+002 
3768750000  -4.038113e+001  1.387848e+002 
3771875000  -3.854913e+001  1.332386e+002 
3775000000  -3.842820e+001  1.208117e+002 
3778125000  -3.930052e+001  1.153579e+002 
3781250000  -3.910579e+001  1.091416e+002 
3784375000  -3.889456e+001  1.051869e+002 
3787500000  -3.824110e+001  9.887721e+001 
3790625000  -3.915214e+001  8.945293e+001 
3793750000  -3.949828e+001  8.686868e+001 
3796875000  -3.850066e+001  8.178861e+001 
3800000000  -3.650171e+001  7.846947e+001 
3803125000  -3.812041e+001  6.409724e+001 
3806250000  -3.893881e+001  6.057056e+001 
3809375000  -3.869746e+001  5.626864e+001 
3812500000  -3.838437e+001  4.810517e+001 
3815625000  -3.940050e+001  3.908362e+001 
3818750000  -4.066533e+001  3.867772e+001 
3821875000  -4.023886e+001  4.744434e+001 
3825000000  -3.858843e+001  4.431680e+001 
3828125000  -3.727694e+001  2.711498e+001 
3831250000  -3.827055e+001  1.175080e+001 
3834375000  -4.040739e+001  1.102262e+001 
3837500000  -4.079580e+001  1.524347e+001 
3840625000  -3.912741e+001  1.146978e+001 
3843750000  -3.834017e+001  -2.755751e+000 
3846875000  -3.964861e+001  -9.795563e+000 
3850000000  -4.063514e+001  -3.713017e+000 
3853125000  -3.981422e+001  -3.940840e+000 
3856250000  -3.957238e+001  -1.144817e+001 
3859375000  -3.879971e+001  -1.620419e+001 
3862500000  -3.854836e+001  -2.810435e+001 
3865625000  -3.936990e+001  -3.237067e+001 
3868750000  -3.872376e+001  -3.529154e+001 
3871875000  -3.818296e+001  -4.055445e+001 
3875000000  -3.836038e+001  -5.021890e+001 
3878125000  -3.945541e+001  -5.301816e+001 
3881250000  -3.948766e+001  -5.412773e+001 
3884375000  -3.866619e+001  -6.119947e+001 
3887500000  -3.925776e+001  -6.576179e+001 
3890625000  -3.940289e+001  -7.146313e+001 
3893750000  -3.973298e+001  -7.465128e+001 
3896875000  -4.010351e+001  -7.656159e+001 
3900000000  -3.969086e+001  -7.979259e+001 
3903125000  -3.930019e+001  -8.482895e+001 
3906250000  -3.899527e+001  -8.842736e+001 
3909375000  -3.805006e+001  -9.626076e+001 
3912500000  -3.886892e+001  -1.056227e+002 
3915625000  -4.011146e+001  -1.041137e+002 
3918750000  -4.007312e+001  -1.072411e+002 
3921875000  -3.926270e+001  -1.105128e+002 
3925000000  -3.865732e+001  -1.174706e+002 
3928125000  -3.813217e+001  -1.253957e+002 
3931250000  -3.887418e+001  -1.334635e+002 
3934375000  -3.938434e+001  -1.342950e+002 
3937500000  -4.000245e+001  -1.382524e+002 
3940625000  -3.998154e+001  -1.384535e+002 
3943750000  -3.907820e+001  -1.413207e+002 
3946875000  -3.840860e+001  -1.504505e+002 
3950000000  -3.934441e+001  -1.594655e+002 
3953125000  -3.988151e+001  -1.592314e+002 
3956250000  -3.872169e+001  -1.600141e+002 
3959375000  -3.778798e+001  -1.660184e+002 
3962500000  -3.760165e+001  -1.730348e+002 
3965625000  -3.757469e+001  1.769975e+002 
3968750000  -3.863666e+001  1.697721e+002 
3971875000  -3.863120e+001  1.659956e+002 
3975000000  -3.829309e+001  1.605733e+002 
3978125000  -3.863988e+001  1.571617e+002 
3981250000  -3.837326e+001  1.493115e+002 
3984375000  -3.907589e+001  1.421609e+002 
3987500000  -3.965260e+001  1.389856e+002 
3990625000  -3.994015e+001  1.358595e+002 
3993750000  -3.985112e+001  1.333977e+002 
3996875000  -4.005082e+001  1.284082e+002 
4000000000  -4.043391e+001  1.238551e+002 
4003125000  -4.108311e+001  1.234952e+002 
4006250000  -3.948167e+001  1.234527e+002 
4009375000  -3.862443e+001  1.095444e+002 
4012500000  -3.993592e+001  1.018051e+002 
4015625000  -4.108122e+001  9.988334e+001 
4018750000  -4.131685e+001  1.017049e+002 
4021875000  -4.060682e+001  9.852141e+001 
4025000000  -4.012013e+001  9.195049e+001 
4028125000  -4.021789e+001  8.557810e+001 
4031250000  -4.128092e+001  8.026961e+001 
4034375000  -4.125245e+001  8.064149e+001 
4037500000  -4.098469e+001  8.033962e+001 
4040625000  -4.072411e+001  7.710770e+001 
4043750000  -4.078707e+001  7.142911e+001 
4046875000  -4.058615e+001  7.097978e+001 
4050000000  -4.076199e+001  6.369927e+001 
4053125000  -4.115584e+001  6.050509e+001 
4056250000  -4.142044e+001  6.428625e+001 
4059375000  -3.939443e+001  6.398246e+001 
4062500000  -3.870092e+001  5.668468e+001 
4065625000  -3.889578e+001  5.098748e+001 
4068750000  -3.837133e+001  4.189913e+001 
4071875000  -3.778143e+001  3.326465e+001 
4075000000  -3.810158e+001  2.579603e+001 
4078125000  -3.832649e+001  2.195579e+001 
4081250000  -3.814142e+001  1.767875e+001 
4084375000  -3.768793e+001  7.486104e+000 
4087500000  -3.830922e+001  -3.276599e-001 
4090625000  -3.891961e+001  -9.443402e-001 
4093750000  -3.858908e+001  -3.510492e+000 
4096875000  -3.827686e+001  -1.107218e+001 
4100000000  -3.923738e+001  -2.171098e+001 
4103125000  -4.026514e+001  -1.858648e+001 
4106250000  -3.970975e+001  -1.607961e+001 
4109375000  -3.874615e+001  -1.892661e+001 
4112500000  -3.834752e+001  -2.806889e+001 
4115625000  -3.878006e+001  -3.466912e+001 
4118750000  -3.892678e+001  -3.966031e+001 
4121875000  -3.869751e+001  -4.735832e+001 
4125000000  -3.968190e+001  -5.449223e+001 
4128125000  -4.055589e+001  -5.012719e+001 
4131250000  -3.938916e+001  -4.739922e+001 
4134375000  -3.747604e+001  -5.561614e+001 
4137500000  -3.774104e+001  -7.582150e+001 
4140625000  -3.997616e+001  -8.333596e+001 
4143750000  -4.127519e+001  -7.856257e+001 
4146875000  -4.029265e+001  -7.372598e+001 
4150000000  -3.936652e+001  -8.089117e+001 
4153125000  -3.962838e+001  -8.969524e+001 
4156250000  -4.057593e+001  -9.275246e+001 
4159375000  -4.104720e+001  -8.866016e+001 
4162500000  -3.976278e+001  -8.596912e+001 
4165625000  -3.839471e+001  -9.320285e+001 
4168750000  -3.793797e+001  -1.020609e+002 
4171875000  -3.791901e+001  -1.137784e+002 
4175000000  -3.878529e+001  -1.206092e+002 
4178125000  -3.937634e+001  -1.189363e+002 
4181250000  -3.901479e+001  -1.248194e+002 
4184375000  -3.909995e+001  -1.298847e+002 
4187500000  -3.881534e+001  -1.340432e+002 
4190625000  -3.898709e+001  -1.407751e+002 
4193750000  -4.003279e+001  -1.470130e+002 
4196875000  -4.101958e+001  -1.474659e+002 
4200000000  -4.200571e+001  -1.403714e+002 
4203125000  -4.063903e+001  -1.319526e+002 
4206250000  -3.738451e+001  -1.363724e+002 
4209375000  -3.677457e+001  -1.597443e+002 
4212500000  -3.896133e+001  -1.673559e+002 
4215625000  -3.966934e+001  -1.604334e+002 
4218750000  -3.776891e+001  -1.599732e+002 
4221875000  -3.596818e+001  -1.699307e+002 
4225000000  -3.719021e+001  1.755219e+002 
4228125000  -3.742175e+001  1.783514e+002 
4231250000  -3.598666e+001  1.720804e+002 
4234375000  -3.583750e+001  1.607784e+002 
4237500000  -3.561684e+001  1.564597e+002 
4240625000  -3.572429e+001  1.440608e+002 
4243750000  -3.682765e+001  1.364151e+002 
4246875000  -3.795952e+001  1.351237e+002 
4250000000  -3.775312e+001  1.347863e+002 
4253125000  -3.749219e+001  1.318830e+002 
4256250000  -3.736840e+001  1.266761e+002 
4259375000  -3.714502e+001  1.211626e+002 
4262500000  -3.733260e+001  1.160655e+002 
4265625000  -3.745467e+001  1.130772e+002 
4268750000  -3.633130e+001  1.073344e+002 
4271875000  -3.619576e+001  9.976033e+001 
4275000000  -3.583205e+001  8.952065e+001 
4278125000  -3.682545e+001  7.841885e+001 
4281250000  -3.873210e+001  7.485719e+001 
4284375000  -3.806602e+001  7.340103e+001 
4287500000  -3.985142e+001  6.931430e+001 
4290625000  -4.011875e+001  7.935602e+001 
4293750000  -3.798407e+001  8.106411e+001 
4296875000  -3.720547e+001  6.657956e+001 
4300000000  -3.818807e+001  5.699582e+001 
4303125000  -3.915662e+001  5.890762e+001 
4306250000  -3.813234e+001  6.185646e+001 
4309375000  -3.704399e+001  5.599434e+001 
4312500000  -3.699035e+001  4.447262e+001 
4315625000  -3.738934e+001  3.715909e+001 
4318750000  -3.810078e+001  3.270824e+001 
4321875000  -3.803878e+001  3.461370e+001 
4325000000  -3.742443e+001  3.112415e+001 
4328125000  -3.689364e+001  2.157451e+001 
4331250000  -3.703016e+001  1.105025e+001 
4334375000  -3.791633e+001  5.881260e+000 
4337500000  -3.873769e+001  3.691914e+000 
4340625000  -3.892052e+001  7.738542e+000 
4343750000  -3.801215e+001  5.640100e+000 
4346875000  -3.779851e+001  -3.111483e+000 
4350000000  -3.795830e+001  -1.120581e+001 
4353125000  -3.826347e+001  -1.962418e+001 
4356250000  -4.012585e+001  -1.501463e+001 
4359375000  -3.937070e+001  -2.671136e+000 
4362500000  -3.642525e+001  -8.568169e+000 
4365625000  -3.543166e+001  -2.638630e+001 
4368750000  -3.662405e+001  -3.607407e+001 
4371875000  -3.727481e+001  -3.761905e+001 
4375000000  -3.679705e+001  -3.804704e+001 
4378125000  -3.627140e+001  -4.719353e+001 
4381250000  -3.651766e+001  -5.614811e+001 
4384375000  -3.652468e+001  -6.286171e+001 
4387500000  -3.749200e+001  -6.767954e+001 
4390625000  -3.814710e+001  -6.913998e+001 
4393750000  -3.736480e+001  -7.011372e+001 
4396875000  -3.690824e+001  -7.425157e+001 
4400000000  -3.621636e+001  -8.454632e+001 
4403125000  -3.706943e+001  -9.415495e+001 
4406250000  -3.751982e+001  -9.577605e+001 
4409375000  -3.782312e+001  -1.008777e+002 
4412500000  -3.914333e+001  -1.042926e+002 
4415625000  -3.909217e+001  -9.972166e+001 
