!Agilent Technologies,E8363B,MY43030201,A.06.04.32
!Agilent E8363B: A.06.04.32
!Date: Tuesday, November 11, 2014 21:27:40
!Correction: S21(Response(S21)) 
!S1P File: Measurement: S21:
# Hz S  dB   R 50
3000000000  -4.049380e+001  9.286828e+001 
3003125000  -4.214246e+001  8.500607e+001 
3006250000  -4.213376e+001  8.319671e+001 
3009375000  -4.280303e+001  8.659108e+001 
3012500000  -4.162457e+001  8.369288e+001 
3015625000  -4.119419e+001  7.727766e+001 
3018750000  -4.189123e+001  7.613783e+001 
3021875000  -4.051114e+001  7.741978e+001 
3025000000  -3.909568e+001  7.336168e+001 
3028125000  -3.808817e+001  6.508681e+001 
3031250000  -3.697607e+001  5.264927e+001 
3034375000  -3.679564e+001  3.845283e+001 
3037500000  -3.755721e+001  2.715507e+001 
3040625000  -3.884160e+001  2.232641e+001 
3043750000  -3.922371e+001  1.564540e+001 
3046875000  -3.965517e+001  9.247793e+000 
3050000000  -4.103228e+001  5.751935e+000 
3053125000  -4.063704e+001  1.056198e+001 
3056250000  -4.054173e+001  1.326622e+001 
3059375000  -3.991415e+001  1.061036e+001 
3062500000  -3.833115e+001  5.054246e+000 
3065625000  -3.796137e+001  -3.162964e+000 
3068750000  -3.767668e+001  -1.130364e+001 
3071875000  -3.779463e+001  -1.360660e+001 
3075000000  -3.708720e+001  -2.066188e+001 
3078125000  -3.705834e+001  -2.675444e+001 
3081250000  -3.734916e+001  -3.251728e+001 
3084375000  -3.642997e+001  -3.684169e+001 
3087500000  -3.645497e+001  -4.324092e+001 
3090625000  -3.594598e+001  -5.516465e+001 
3093750000  -3.681191e+001  -6.353524e+001 
3096875000  -3.741206e+001  -7.070509e+001 
3100000000  -3.720779e+001  -7.287030e+001 
3103125000  -3.763644e+001  -7.575586e+001 
3106250000  -3.726709e+001  -8.082938e+001 
3109375000  -3.730787e+001  -8.543955e+001 
3112500000  -3.731102e+001  -9.125979e+001 
3115625000  -3.721619e+001  -9.561929e+001 
3118750000  -3.717977e+001  -9.759472e+001 
3121875000  -3.640774e+001  -1.091025e+002 
3125000000  -3.831832e+001  -1.134576e+002 
3128125000  -3.873555e+001  -1.055344e+002 
3131250000  -3.643479e+001  -1.098201e+002 
3134375000  -3.536124e+001  -1.275921e+002 
3137500000  -3.606200e+001  -1.419366e+002 
3140625000  -3.751867e+001  -1.434500e+002 
3143750000  -3.828498e+001  -1.453889e+002 
3146875000  -3.756945e+001  -1.437757e+002 
3150000000  -3.700010e+001  -1.473725e+002 
3153125000  -3.722263e+001  -1.568977e+002 
3156250000  -3.800309e+001  -1.516267e+002 
3159375000  -3.592524e+001  -1.527494e+002 
3162500000  -3.424854e+001  -1.684536e+002 
3165625000  -3.549378e+001  1.777934e+002 
3168750000  -3.549378e+001  1.777616e+002 
3171875000  -3.492754e+001  1.710370e+002 
3175000000  -3.558412e+001  1.603833e+002 
3178125000  -3.521663e+001  1.595385e+002 
3181250000  -3.447491e+001  1.520308e+002 
3184375000  -3.419965e+001  1.398982e+002 
3187500000  -3.530061e+001  1.242593e+002 
3190625000  -3.735261e+001  1.172610e+002 
3193750000  -3.766035e+001  1.225714e+002 
3196875000  -3.746085e+001  1.255909e+002 
3200000000  -3.629720e+001  1.199985e+002 
3203125000  -3.591891e+001  1.120515e+002 
3206250000  -3.628671e+001  1.042231e+002 
3209375000  -3.578727e+001  9.722733e+001 
3212500000  -3.616336e+001  8.941669e+001 
3215625000  -3.602614e+001  8.684061e+001 
3218750000  -3.694846e+001  7.608536e+001 
3221875000  -3.734616e+001  6.967525e+001 
3225000000  -3.704291e+001  6.578116e+001 
3228125000  -3.770544e+001  5.780375e+001 
3231250000  -3.824105e+001  5.640211e+001 
3234375000  -3.799590e+001  5.351583e+001 
3237500000  -3.815163e+001  4.847474e+001 
3240625000  -3.754040e+001  4.394470e+001 
3243750000  -3.774918e+001  3.348428e+001 
3246875000  -3.831056e+001  2.668343e+001 
3250000000  -3.864261e+001  2.304197e+001 
3253125000  -3.892168e+001  1.890254e+001 
3256250000  -3.851843e+001  1.184989e+001 
3259375000  -3.916354e+001  4.654684e-001 
3262500000  -4.057689e+001  -2.964102e+000 
3265625000  -4.131358e+001  -1.206910e+000 
3268750000  -4.119996e+001  1.345541e+000 
3271875000  -4.090058e+001  -2.500952e+000 
3275000000  -4.026927e+001  -1.135480e+001 
3278125000  -4.072815e+001  -1.597468e+001 
3281250000  -4.103111e+001  -1.637957e+001 
3284375000  -4.059495e+001  -2.415860e+001 
3287500000  -4.076769e+001  -2.845957e+001 
3290625000  -4.115466e+001  -3.470995e+001 
3293750000  -4.113731e+001  -3.972452e+001 
3296875000  -4.245189e+001  -4.022988e+001 
3300000000  -4.162663e+001  -4.172895e+001 
3303125000  -4.104321e+001  -4.819630e+001 
3306250000  -4.101760e+001  -5.532432e+001 
3309375000  -4.072332e+001  -6.217482e+001 
3312500000  -4.093693e+001  -7.445272e+001 
3315625000  -4.217458e+001  -8.179944e+001 
3318750000  -4.344743e+001  -8.543487e+001 
3321875000  -4.494584e+001  -8.408661e+001 
3325000000  -4.469424e+001  -7.425394e+001 
3328125000  -4.412720e+001  -7.685328e+001 
3331250000  -4.243747e+001  -7.335456e+001 
3334375000  -3.985421e+001  -8.722243e+001 
3337500000  -4.043153e+001  -1.086364e+002 
3340625000  -4.207080e+001  -1.185400e+002 
3343750000  -4.424121e+001  -1.197685e+002 
3346875000  -4.356330e+001  -1.180148e+002 
3350000000  -4.293651e+001  -1.210334e+002 
3353125000  -4.277703e+001  -1.283530e+002 
3356250000  -4.228942e+001  -1.364267e+002 
3359375000  -4.350436e+001  -1.481331e+002 
3362500000  -4.440901e+001  -1.534268e+002 
3365625000  -4.456499e+001  -1.579122e+002 
3368750000  -4.551379e+001  -1.608175e+002 
3371875000  -4.580525e+001  -1.673358e+002 
3375000000  -4.725836e+001  -1.712370e+002 
3378125000  -4.809924e+001  -1.697777e+002 
3381250000  -4.957685e+001  -1.583843e+002 
3384375000  -4.749710e+001  -1.495236e+002 
3387500000  -4.384046e+001  -1.634709e+002 
3390625000  -4.578085e+001  1.710752e+002 
3393750000  -4.681148e+001  1.764941e+002 
3396875000  -4.577316e+001  1.720622e+002 
3400000000  -4.557991e+001  1.664983e+002 
3403125000  -4.646986e+001  1.593879e+002 
3406250000  -4.799022e+001  1.570771e+002 
3409375000  -4.794167e+001  1.454386e+002 
3412500000  -4.860006e+001  1.394046e+002 
3415625000  -4.986378e+001  1.382999e+002 
3418750000  -5.002438e+001  1.390304e+002 
3421875000  -5.086670e+001  1.433184e+002 
3425000000  -5.071065e+001  1.405675e+002 
3428125000  -4.992310e+001  1.360918e+002 
3431250000  -5.006390e+001  1.293866e+002 
3434375000  -5.089153e+001  1.211295e+002 
3437500000  -5.112970e+001  1.214247e+002 
3440625000  -5.160394e+001  1.274858e+002 
3443750000  -5.044840e+001  1.324431e+002 
3446875000  -5.051678e+001  1.221350e+002 
3450000000  -5.032129e+001  1.136503e+002 
3453125000  -5.086796e+001  1.051230e+002 
3456250000  -5.154174e+001  1.045460e+002 
3459375000  -5.254272e+001  1.033554e+002 
3462500000  -5.227156e+001  1.110766e+002 
3465625000  -5.184745e+001  1.058876e+002 
3468750000  -5.155968e+001  1.016921e+002 
3471875000  -5.146073e+001  1.013082e+002 
3475000000  -5.095760e+001  9.555692e+001 
3478125000  -5.103386e+001  8.711448e+001 
3481250000  -5.231786e+001  8.567023e+001 
3484375000  -5.285182e+001  9.449754e+001 
3487500000  -5.152753e+001  8.183616e+001 
3490625000  -5.031491e+001  7.811773e+001 
3493750000  -5.098734e+001  7.319520e+001 
3496875000  -5.110339e+001  6.761655e+001 
3500000000  -5.195052e+001  7.262432e+001 
3503125000  -5.026917e+001  6.532552e+001 
3506250000  -4.971717e+001  5.624299e+001 
3509375000  -4.915408e+001  4.751079e+001 
3512500000  -5.004482e+001  3.664786e+001 
3515625000  -5.059003e+001  3.107370e+001 
3518750000  -5.197038e+001  3.247303e+001 
3521875000  -5.125291e+001  2.863269e+001 
3525000000  -5.258126e+001  1.615690e+001 
3528125000  -5.288200e+001  2.710456e+001 
3531250000  -5.177825e+001  2.014822e+001 
3534375000  -5.175679e+001  8.406400e+000 
3537500000  -5.354560e+001  -2.077692e+000 
3540625000  -5.442672e+001  -3.312007e+000 
3543750000  -5.587126e+001  7.541414e-001 
3546875000  -5.478587e+001  1.135700e+001 
3550000000  -5.280490e+001  1.210999e+000 
3553125000  -5.238887e+001  -1.469594e+001 
3556250000  -5.572092e+001  -7.460347e+000 
3559375000  -5.573729e+001  -1.423948e+001 
3562500000  -5.489244e+001  -2.651317e+001 
3565625000  -5.575325e+001  -3.821639e+001 
3568750000  -5.580496e+001  -2.086569e+001 
3571875000  -5.591640e+001  -1.634367e+001 
3575000000  -5.735091e+001  -1.656878e+001 
3578125000  -5.921746e+001  -4.091629e+001 
3581250000  -5.717278e+001  -2.771448e+001 
3584375000  -5.730159e+001  -2.710540e+001 
3587500000  -5.660494e+001  -2.986270e+001 
3590625000  -5.901424e+001  -3.462615e+001 
3593750000  -5.929579e+001  -2.705071e+001 
3596875000  -5.825343e+001  -2.372235e+001 
3600000000  -5.741023e+001  2.420372e+000 
3603125000  -5.663076e+001  -3.336937e+001 
3606250000  -5.825161e+001  -2.994153e+001 
3609375000  -5.953967e+001  -2.077399e+001 
3612500000  -5.875068e+001  -2.876248e+001 
3615625000  -5.903978e+001  -3.761240e+001 
3618750000  -5.985295e+001  -3.181486e+001 
3621875000  -5.720893e+001  -3.260620e+001 
3625000000  -5.746474e+001  -1.712928e+001 
3628125000  -5.729714e+001  -2.226344e+001 
3631250000  -5.732063e+001  -2.496993e+001 
3634375000  -5.683747e+001  -2.330848e+001 
3637500000  -5.631762e+001  -1.777172e+001 
3640625000  -5.440182e+001  -1.884999e+001 
3643750000  -5.345073e+001  -2.943089e+001 
3646875000  -5.221045e+001  -3.741916e+001 
3650000000  -5.268400e+001  -4.065018e+001 
3653125000  -5.220163e+001  -3.786433e+001 
3656250000  -5.283113e+001  -4.564140e+001 
3659375000  -5.200605e+001  -3.795028e+001 
3662500000  -5.039148e+001  -5.004883e+001 
3665625000  -5.005297e+001  -5.137720e+001 
3668750000  -4.808043e+001  -5.294176e+001 
3671875000  -4.789091e+001  -6.497801e+001 
3675000000  -4.792122e+001  -6.854015e+001 
3678125000  -4.770822e+001  -7.505069e+001 
3681250000  -4.690045e+001  -7.839183e+001 
3684375000  -4.728006e+001  -8.434034e+001 
3687500000  -4.716679e+001  -8.793949e+001 
3690625000  -4.669144e+001  -9.524210e+001 
3693750000  -4.703128e+001  -9.462435e+001 
3696875000  -4.703112e+001  -9.731255e+001 
3700000000  -4.564130e+001  -1.039485e+002 
3703125000  -4.548434e+001  -1.089100e+002 
3706250000  -4.591347e+001  -1.118993e+002 
3709375000  -4.501174e+001  -1.080624e+002 
3712500000  -4.388861e+001  -1.131774e+002 
3715625000  -4.252420e+001  -1.229595e+002 
3718750000  -4.194659e+001  -1.306525e+002 
3721875000  -4.155993e+001  -1.391582e+002 
3725000000  -4.178932e+001  -1.460516e+002 
3728125000  -4.140041e+001  -1.513243e+002 
3731250000  -4.088096e+001  -1.558949e+002 
3734375000  -4.019023e+001  -1.631178e+002 
3737500000  -4.072847e+001  -1.729247e+002 
3740625000  -4.128821e+001  -1.763288e+002 
3743750000  -4.075301e+001  1.768447e+002 
3746875000  -4.060965e+001  1.688173e+002 
3750000000  -4.104017e+001  1.633052e+002 
3753125000  -4.064784e+001  1.601564e+002 
3756250000  -4.072767e+001  1.581463e+002 
3759375000  -4.052848e+001  1.517697e+002 
3762500000  -3.995036e+001  1.444243e+002 
3765625000  -4.065734e+001  1.413146e+002 
3768750000  -4.016561e+001  1.394757e+002 
3771875000  -3.856549e+001  1.342399e+002 
3775000000  -3.862465e+001  1.220518e+002 
3778125000  -3.927345e+001  1.165447e+002 
3781250000  -3.928902e+001  1.122288e+002 
3784375000  -3.896508e+001  1.045713e+002 
3787500000  -3.843596e+001  1.003862e+002 
3790625000  -3.900128e+001  9.065294e+001 
3793750000  -3.941443e+001  8.868845e+001 
3796875000  -3.833627e+001  8.372748e+001 
3800000000  -3.624983e+001  7.940990e+001 
3803125000  -3.818035e+001  6.487125e+001 
3806250000  -3.898088e+001  6.141796e+001 
3809375000  -3.855675e+001  5.696562e+001 
3812500000  -3.829003e+001  4.767305e+001 
3815625000  -3.944773e+001  3.788430e+001 
3818750000  -4.068582e+001  3.993341e+001 
3821875000  -4.018536e+001  4.902599e+001 
3825000000  -3.833020e+001  4.573443e+001 
3828125000  -3.688020e+001  2.631831e+001 
3831250000  -3.814145e+001  1.283129e+001 
3834375000  -4.046034e+001  1.255200e+001 
3837500000  -4.069313e+001  1.612358e+001 
3840625000  -3.942546e+001  1.292733e+001 
3843750000  -3.854929e+001  -1.984593e+000 
3846875000  -3.971666e+001  -8.948174e+000 
3850000000  -4.098302e+001  -2.487453e+000 
3853125000  -3.985614e+001  -2.735431e+000 
3856250000  -3.969831e+001  -9.144062e+000 
3859375000  -3.871711e+001  -1.569976e+001 
3862500000  -3.868875e+001  -2.551686e+001 
3865625000  -3.906516e+001  -3.262341e+001 
3868750000  -3.871077e+001  -3.282006e+001 
3871875000  -3.802068e+001  -3.870243e+001 
3875000000  -3.843536e+001  -5.028645e+001 
3878125000  -3.943032e+001  -5.203180e+001 
3881250000  -3.938645e+001  -5.258895e+001 
3884375000  -3.886729e+001  -5.899544e+001 
3887500000  -3.907795e+001  -6.553166e+001 
3890625000  -3.967418e+001  -7.009211e+001 
3893750000  -3.973237e+001  -7.164936e+001 
3896875000  -4.015196e+001  -7.370270e+001 
3900000000  -3.975798e+001  -7.710262e+001 
3903125000  -3.958338e+001  -8.281159e+001 
3906250000  -3.889079e+001  -8.565747e+001 
3909375000  -3.832215e+001  -9.621308e+001 
3912500000  -3.901474e+001  -1.046086e+002 
3915625000  -4.041425e+001  -1.054179e+002 
3918750000  -4.011897e+001  -1.062307e+002 
3921875000  -3.928165e+001  -1.103896e+002 
3925000000  -3.839737e+001  -1.144421e+002 
3928125000  -3.836841e+001  -1.244424e+002 
3931250000  -3.895861e+001  -1.324435e+002 
3934375000  -3.936364e+001  -1.338472e+002 
3937500000  -4.002502e+001  -1.351728e+002 
3940625000  -4.000453e+001  -1.380344e+002 
3943750000  -3.880081e+001  -1.400498e+002 
3946875000  -3.836320e+001  -1.489344e+002 
3950000000  -3.921904e+001  -1.579874e+002 
3953125000  -3.977678e+001  -1.573634e+002 
3956250000  -3.890240e+001  -1.586612e+002 
3959375000  -3.784098e+001  -1.646281e+002 
3962500000  -3.760056e+001  -1.712691e+002 
3965625000  -3.764154e+001  1.778668e+002 
3968750000  -3.851116e+001  1.706608e+002 
3971875000  -3.876105e+001  1.671551e+002 
3975000000  -3.837769e+001  1.615445e+002 
3978125000  -3.848250e+001  1.587742e+002 
3981250000  -3.860483e+001  1.523717e+002 
3984375000  -3.884840e+001  1.440081e+002 
3987500000  -3.976189e+001  1.391788e+002 
3990625000  -3.985297e+001  1.389280e+002 
3993750000  -3.993690e+001  1.327129e+002 
3996875000  -4.012664e+001  1.266168e+002 
4000000000  -4.011873e+001  1.237561e+002 
4003125000  -4.119791e+001  1.251289e+002 
4006250000  -3.947842e+001  1.229465e+002 
4009375000  -3.868468e+001  1.095870e+002 
4012500000  -3.968607e+001  1.012214e+002 
4015625000  -4.139088e+001  1.013235e+002 
4018750000  -4.136591e+001  1.029632e+002 
4021875000  -4.069088e+001  1.007025e+002 
4025000000  -4.037822e+001  9.173934e+001 
4028125000  -4.034521e+001  8.755390e+001 
4031250000  -4.120972e+001  8.124669e+001 
4034375000  -4.141825e+001  8.080206e+001 
4037500000  -4.110263e+001  8.216138e+001 
4040625000  -4.090031e+001  7.752588e+001 
4043750000  -4.104585e+001  7.348750e+001 
4046875000  -4.051222e+001  7.061252e+001 
4050000000  -4.022328e+001  6.367680e+001 
4053125000  -4.113158e+001  6.416558e+001 
4056250000  -4.128342e+001  6.884220e+001 
4059375000  -3.958092e+001  6.512712e+001 
4062500000  -3.877277e+001  5.712069e+001 
4065625000  -3.869747e+001  5.162717e+001 
4068750000  -3.800795e+001  4.530571e+001 
4071875000  -3.756685e+001  3.377515e+001 
4075000000  -3.807297e+001  2.694913e+001 
4078125000  -3.834310e+001  2.276950e+001 
4081250000  -3.804086e+001  1.913140e+001 
4084375000  -3.788919e+001  8.940200e+000 
4087500000  -3.821761e+001  1.735939e+000 
4090625000  -3.891196e+001  7.999380e-001 
4093750000  -3.854339e+001  -3.211346e+000 
4096875000  -3.846666e+001  -1.065839e+001 
4100000000  -3.943246e+001  -1.755427e+001 
4103125000  -4.027141e+001  -1.729150e+001 
4106250000  -3.980369e+001  -1.533379e+001 
4109375000  -3.872707e+001  -1.705597e+001 
4112500000  -3.841080e+001  -2.767317e+001 
4115625000  -3.906053e+001  -3.409540e+001 
4118750000  -3.867971e+001  -3.856604e+001 
4121875000  -3.855867e+001  -4.647429e+001 
4125000000  -3.958609e+001  -5.197676e+001 
4128125000  -4.059703e+001  -5.202650e+001 
4131250000  -3.951962e+001  -4.452908e+001 
4134375000  -3.726680e+001  -5.254703e+001 
4137500000  -3.762888e+001  -7.610835e+001 
4140625000  -4.013791e+001  -8.277694e+001 
4143750000  -4.127524e+001  -7.679455e+001 
4146875000  -4.013742e+001  -7.064548e+001 
4150000000  -3.945729e+001  -7.967471e+001 
4153125000  -3.969557e+001  -8.760413e+001 
4156250000  -4.075493e+001  -9.194891e+001 
4159375000  -4.093424e+001  -8.735651e+001 
4162500000  -3.968002e+001  -8.317906e+001 
4165625000  -3.857072e+001  -9.024250e+001 
4168750000  -3.801899e+001  -1.001935e+002 
4171875000  -3.793541e+001  -1.107191e+002 
4175000000  -3.899082e+001  -1.190264e+002 
4178125000  -3.919889e+001  -1.185147e+002 
4181250000  -3.888315e+001  -1.216857e+002 
4184375000  -3.907925e+001  -1.260861e+002 
4187500000  -3.919233e+001  -1.336611e+002 
4190625000  -3.889616e+001  -1.406487e+002 
4193750000  -4.009793e+001  -1.453885e+002 
4196875000  -4.063736e+001  -1.444357e+002 
4200000000  -4.171659e+001  -1.401910e+002 
4203125000  -4.036031e+001  -1.298360e+002 
4206250000  -3.713284e+001  -1.349388e+002 
4209375000  -3.701760e+001  -1.588499e+002 
4212500000  -3.927383e+001  -1.659725e+002 
4215625000  -3.982632e+001  -1.588824e+002 
4218750000  -3.783583e+001  -1.563508e+002 
4221875000  -3.626028e+001  -1.691142e+002 
4225000000  -3.731545e+001  1.778251e+002 
4228125000  -3.741108e+001  -1.791480e+002 
4231250000  -3.569016e+001  1.739712e+002 
4234375000  -3.587556e+001  1.619904e+002 
4237500000  -3.583018e+001  1.575072e+002 
4240625000  -3.591009e+001  1.457886e+002 
4243750000  -3.682158e+001  1.377015e+002 
4246875000  -3.771889e+001  1.376753e+002 
4250000000  -3.763046e+001  1.373043e+002 
4253125000  -3.750003e+001  1.339876e+002 
4256250000  -3.732537e+001  1.290951e+002 
4259375000  -3.713852e+001  1.224647e+002 
4262500000  -3.732125e+001  1.172609e+002 
4265625000  -3.741058e+001  1.165117e+002 
4268750000  -3.650082e+001  1.090412e+002 
4271875000  -3.608494e+001  1.021533e+002 
4275000000  -3.581028e+001  9.156373e+001 
4278125000  -3.693492e+001  7.942135e+001 
4281250000  -3.867313e+001  7.727643e+001 
4284375000  -3.817094e+001  7.349960e+001 
4287500000  -3.955215e+001  6.973156e+001 
4290625000  -4.021846e+001  8.052892e+001 
4293750000  -3.819474e+001  8.056844e+001 
4296875000  -3.720800e+001  6.878786e+001 
4300000000  -3.861990e+001  5.827189e+001 
4303125000  -3.899971e+001  6.070736e+001 
4306250000  -3.808547e+001  6.261858e+001 
4309375000  -3.697519e+001  5.669942e+001 
4312500000  -3.703124e+001  4.623118e+001 
4315625000  -3.751884e+001  3.734668e+001 
4318750000  -3.801506e+001  3.209884e+001 
4321875000  -3.802756e+001  3.305090e+001 
4325000000  -3.737870e+001  3.321397e+001 
4328125000  -3.694955e+001  2.399499e+001 
4331250000  -3.734544e+001  1.270300e+001 
4334375000  -3.803595e+001  7.778499e+000 
4337500000  -3.898293e+001  7.385404e+000 
4340625000  -3.965882e+001  7.904105e+000 
4343750000  -3.814077e+001  8.080240e+000 
4346875000  -3.811388e+001  -2.478600e-001 
4350000000  -3.849012e+001  -1.071707e+001 
4353125000  -3.813281e+001  -1.713335e+001 
4356250000  -4.087885e+001  -1.101057e+001 
4359375000  -3.998698e+001  -3.072778e+000 
4362500000  -3.644352e+001  -5.437913e+000 
4365625000  -3.547683e+001  -2.336713e+001 
4368750000  -3.679148e+001  -3.461113e+001 
4371875000  -3.775671e+001  -3.526974e+001 
4375000000  -3.680817e+001  -3.995182e+001 
4378125000  -3.635192e+001  -4.510146e+001 
4381250000  -3.650273e+001  -5.374803e+001 
4384375000  -3.677333e+001  -5.924969e+001 
4387500000  -3.783400e+001  -6.345654e+001 
4390625000  -3.868258e+001  -6.713595e+001 
4393750000  -3.739480e+001  -6.860046e+001 
4396875000  -3.671606e+001  -7.277924e+001 
4400000000  -3.616420e+001  -8.236217e+001 
4403125000  -3.724252e+001  -9.044155e+001 
4406250000  -3.759664e+001  -9.369053e+001 
4409375000  -3.797485e+001  -9.954461e+001 
4412500000  -3.962030e+001  -9.763419e+001 
4415625000  -3.948252e+001  -9.634016e+001 
