!Agilent Technologies,E8363B,MY43030201,A.06.04.32
!Agilent E8363B: A.06.04.32
!Date: Tuesday, November 11, 2014 21:38:22
!Correction: S21(Response(S21)) 
!S1P File: Measurement: S21:
# Hz S  dB   R 50
3000000000  -4.060327e+001  6.994142e+001 
3003125000  -4.208798e+001  6.168986e+001 
3006250000  -4.226785e+001  6.131413e+001 
3009375000  -4.264656e+001  6.611507e+001 
3012500000  -4.157715e+001  6.113713e+001 
3015625000  -4.149520e+001  5.333361e+001 
3018750000  -4.186524e+001  5.543573e+001 
3021875000  -4.027071e+001  5.492303e+001 
3025000000  -3.884330e+001  5.280735e+001 
3028125000  -3.782187e+001  4.205200e+001 
3031250000  -3.705135e+001  2.855495e+001 
3034375000  -3.684667e+001  1.586549e+001 
3037500000  -3.758327e+001  4.530018e+000 
3040625000  -3.879061e+001  1.001484e-001 
3043750000  -3.914337e+001  -7.186480e+000 
3046875000  -3.984386e+001  -1.209710e+001 
3050000000  -4.093839e+001  -1.669854e+001 
3053125000  -4.046689e+001  -1.340874e+001 
3056250000  -4.043182e+001  -9.241135e+000 
3059375000  -3.963385e+001  -1.092711e+001 
3062500000  -3.831092e+001  -1.585560e+001 
3065625000  -3.787119e+001  -2.618892e+001 
3068750000  -3.740332e+001  -3.407383e+001 
3071875000  -3.769053e+001  -3.599250e+001 
3075000000  -3.692807e+001  -4.317185e+001 
3078125000  -3.716899e+001  -4.841951e+001 
3081250000  -3.712695e+001  -5.509182e+001 
3084375000  -3.637963e+001  -5.941988e+001 
3087500000  -3.646417e+001  -6.670504e+001 
3090625000  -3.591848e+001  -7.859047e+001 
3093750000  -3.702087e+001  -8.625367e+001 
3096875000  -3.736061e+001  -9.200317e+001 
3100000000  -3.731155e+001  -9.478200e+001 
3103125000  -3.753846e+001  -9.938910e+001 
3106250000  -3.720046e+001  -1.038746e+002 
3109375000  -3.726060e+001  -1.070029e+002 
3112500000  -3.721223e+001  -1.137340e+002 
3115625000  -3.714987e+001  -1.173549e+002 
3118750000  -3.717570e+001  -1.210992e+002 
3121875000  -3.661259e+001  -1.313737e+002 
3125000000  -3.845650e+001  -1.339197e+002 
3128125000  -3.855765e+001  -1.262728e+002 
3131250000  -3.596299e+001  -1.344963e+002 
3134375000  -3.536320e+001  -1.516105e+002 
3137500000  -3.607396e+001  -1.630678e+002 
3140625000  -3.743466e+001  -1.668342e+002 
3143750000  -3.812032e+001  -1.673952e+002 
3146875000  -3.756086e+001  -1.660489e+002 
3150000000  -3.679548e+001  -1.704626e+002 
3153125000  -3.716960e+001  -1.784048e+002 
3156250000  -3.792324e+001  -1.746089e+002 
3159375000  -3.553974e+001  -1.754324e+002 
3162500000  -3.424593e+001  1.683998e+002 
3165625000  -3.533955e+001  1.561985e+002 
3168750000  -3.541914e+001  1.544183e+002 
3171875000  -3.488992e+001  1.473605e+002 
3175000000  -3.542519e+001  1.381653e+002 
3178125000  -3.500888e+001  1.362003e+002 
3181250000  -3.441534e+001  1.277796e+002 
3184375000  -3.420171e+001  1.165421e+002 
3187500000  -3.557098e+001  1.015045e+002 
3190625000  -3.711701e+001  9.635300e+001 
3193750000  -3.734983e+001  1.005841e+002 
3196875000  -3.728011e+001  1.015600e+002 
3200000000  -3.607412e+001  9.687097e+001 
3203125000  -3.594951e+001  8.857896e+001 
3206250000  -3.601432e+001  8.172701e+001 
3209375000  -3.572523e+001  7.318792e+001 
3212500000  -3.629746e+001  6.598676e+001 
3215625000  -3.607778e+001  6.364140e+001 
3218750000  -3.684851e+001  5.187258e+001 
3221875000  -3.725274e+001  4.679619e+001 
3225000000  -3.687894e+001  4.140772e+001 
3228125000  -3.780139e+001  3.405020e+001 
3231250000  -3.815654e+001  3.373843e+001 
3234375000  -3.789524e+001  2.943612e+001 
3237500000  -3.813598e+001  2.544502e+001 
3240625000  -3.752724e+001  2.033455e+001 
3243750000  -3.765288e+001  9.229372e+000 
3246875000  -3.822155e+001  2.509084e+000 
3250000000  -3.871730e+001  -1.007843e+000 
3253125000  -3.912863e+001  -3.949174e+000 
3256250000  -3.844714e+001  -1.169033e+001 
3259375000  -3.914331e+001  -2.313004e+001 
3262500000  -4.093530e+001  -2.832796e+001 
3265625000  -4.106842e+001  -2.304562e+001 
3268750000  -4.122913e+001  -2.273643e+001 
3271875000  -4.039149e+001  -2.720657e+001 
3275000000  -4.018793e+001  -3.531096e+001 
3278125000  -4.078464e+001  -3.910452e+001 
3281250000  -4.105693e+001  -4.056487e+001 
3284375000  -4.037091e+001  -4.760970e+001 
3287500000  -4.104711e+001  -5.204462e+001 
3290625000  -4.127627e+001  -6.015342e+001 
3293750000  -4.124023e+001  -6.461234e+001 
3296875000  -4.253416e+001  -6.643638e+001 
3300000000  -4.185140e+001  -6.574068e+001 
3303125000  -4.105860e+001  -7.376733e+001 
3306250000  -4.062679e+001  -7.896474e+001 
3309375000  -4.027400e+001  -8.820227e+001 
3312500000  -4.088319e+001  -1.008121e+002 
3315625000  -4.220861e+001  -1.078660e+002 
3318750000  -4.346871e+001  -1.101933e+002 
3321875000  -4.465872e+001  -1.059062e+002 
3325000000  -4.466604e+001  -1.009028e+002 
3328125000  -4.378390e+001  -1.016842e+002 
3331250000  -4.218806e+001  -9.749668e+001 
3334375000  -3.954924e+001  -1.123696e+002 
3337500000  -4.032814e+001  -1.357177e+002 
3340625000  -4.211087e+001  -1.446645e+002 
3343750000  -4.388305e+001  -1.433729e+002 
3346875000  -4.297522e+001  -1.442937e+002 
3350000000  -4.273338e+001  -1.460012e+002 
3353125000  -4.287672e+001  -1.552817e+002 
3356250000  -4.234885e+001  -1.619205e+002 
3359375000  -4.302955e+001  -1.740915e+002 
3362500000  -4.417368e+001  1.796496e+002 
3365625000  -4.466235e+001  1.796965e+002 
3368750000  -4.535943e+001  1.740334e+002 
3371875000  -4.588775e+001  1.684902e+002 
3375000000  -4.750243e+001  1.633987e+002 
3378125000  -4.824907e+001  1.609122e+002 
3381250000  -4.924337e+001  1.737192e+002 
3384375000  -4.628308e+001  -1.705029e+002 
3387500000  -4.401116e+001  1.702496e+002 
3390625000  -4.591539e+001  1.457055e+002 
3393750000  -4.753830e+001  1.508421e+002 
3396875000  -4.585542e+001  1.458536e+002 
3400000000  -4.614939e+001  1.361978e+002 
3403125000  -4.645939e+001  1.285238e+002 
3406250000  -4.724660e+001  1.288053e+002 
3409375000  -4.751922e+001  1.202893e+002 
3412500000  -4.869101e+001  1.137005e+002 
3415625000  -4.963148e+001  1.119942e+002 
3418750000  -5.070902e+001  1.130957e+002 
3421875000  -5.061563e+001  1.179860e+002 
3425000000  -4.965436e+001  1.157597e+002 
3428125000  -5.055867e+001  1.136802e+002 
3431250000  -4.985655e+001  1.024052e+002 
3434375000  -5.059696e+001  9.907880e+001 
3437500000  -5.151553e+001  9.998019e+001 
3440625000  -5.139898e+001  9.895061e+001 
3443750000  -4.973832e+001  1.014014e+002 
3446875000  -5.038976e+001  9.880238e+001 
3450000000  -5.026830e+001  9.256165e+001 
3453125000  -5.090132e+001  8.298552e+001 
3456250000  -5.251634e+001  7.375349e+001 
3459375000  -5.238704e+001  7.858540e+001 
3462500000  -5.176789e+001  7.954494e+001 
3465625000  -5.138139e+001  7.312256e+001 
3468750000  -5.106214e+001  7.235526e+001 
3471875000  -5.144980e+001  7.515929e+001 
3475000000  -5.116391e+001  6.403710e+001 
3478125000  -5.113333e+001  5.887817e+001 
3481250000  -5.244645e+001  6.224591e+001 
3484375000  -5.245201e+001  6.527074e+001 
3487500000  -5.158911e+001  5.820663e+001 
3490625000  -5.089898e+001  4.822232e+001 
3493750000  -5.092204e+001  4.368601e+001 
3496875000  -5.160445e+001  4.668679e+001 
3500000000  -5.188534e+001  4.422719e+001 
3503125000  -5.109403e+001  3.749648e+001 
3506250000  -4.959391e+001  3.302961e+001 
3509375000  -4.962150e+001  2.551292e+001 
3512500000  -5.028964e+001  1.048242e+001 
3515625000  -5.186931e+001  3.828849e+000 
3518750000  -5.264846e+001  1.189262e+001 
3521875000  -5.213348e+001  -6.218439e+000 
3525000000  -5.364140e+001  -4.584161e+000 
3528125000  -5.360813e+001  1.530161e+000 
3531250000  -5.217673e+001  -8.217543e+000 
3534375000  -5.212720e+001  -1.987038e+001 
3537500000  -5.348315e+001  -3.024749e+001 
3540625000  -5.449379e+001  -3.160103e+001 
3543750000  -5.590686e+001  -1.812407e+001 
3546875000  -5.637059e+001  -2.047303e+001 
3550000000  -5.450794e+001  -2.225006e+001 
3553125000  -5.326926e+001  -3.794537e+001 
3556250000  -5.531079e+001  -3.372723e+001 
3559375000  -5.682817e+001  -3.338135e+001 
3562500000  -5.603862e+001  -4.638670e+001 
3565625000  -5.627364e+001  -5.577192e+001 
3568750000  -5.659571e+001  -4.528380e+001 
3571875000  -5.790840e+001  -4.065349e+001 
3575000000  -5.734988e+001  -4.165394e+001 
3578125000  -5.876312e+001  -5.814711e+001 
3581250000  -5.804275e+001  -4.279240e+001 
3584375000  -5.726700e+001  -4.419163e+001 
3587500000  -5.728986e+001  -4.970485e+001 
3590625000  -5.905822e+001  -6.115725e+001 
3593750000  -5.813771e+001  -5.511771e+001 
3596875000  -5.993991e+001  -3.667827e+001 
3600000000  -5.727814e+001  -4.655529e+001 
3603125000  -5.912166e+001  -4.957794e+001 
3606250000  -5.793354e+001  -5.612034e+001 
3609375000  -5.977015e+001  -4.580835e+001 
3612500000  -5.755732e+001  -5.193481e+001 
3615625000  -6.109838e+001  -5.971641e+001 
3618750000  -5.938609e+001  -5.509157e+001 
3621875000  -5.690575e+001  -5.316664e+001 
3625000000  -5.853525e+001  -4.390646e+001 
3628125000  -5.746378e+001  -4.536813e+001 
3631250000  -5.611327e+001  -4.930338e+001 
3634375000  -5.825412e+001  -4.368765e+001 
3637500000  -5.510185e+001  -4.964106e+001 
3640625000  -5.395387e+001  -4.005818e+001 
3643750000  -5.332510e+001  -5.980445e+001 
3646875000  -5.332587e+001  -6.362758e+001 
3650000000  -5.340853e+001  -5.423989e+001 
3653125000  -5.190185e+001  -6.757346e+001 
3656250000  -5.168251e+001  -6.773510e+001 
3659375000  -5.127077e+001  -6.728326e+001 
3662500000  -5.074832e+001  -7.177312e+001 
3665625000  -4.921461e+001  -7.611478e+001 
3668750000  -4.780311e+001  -8.006848e+001 
3671875000  -4.780496e+001  -8.971416e+001 
3675000000  -4.758311e+001  -9.519769e+001 
3678125000  -4.708619e+001  -9.987800e+001 
3681250000  -4.641917e+001  -1.058262e+002 
3684375000  -4.657561e+001  -1.124514e+002 
3687500000  -4.674354e+001  -1.142774e+002 
3690625000  -4.622914e+001  -1.196783e+002 
3693750000  -4.710309e+001  -1.229598e+002 
3696875000  -4.654229e+001  -1.228891e+002 
3700000000  -4.564946e+001  -1.301722e+002 
3703125000  -4.524113e+001  -1.338680e+002 
3706250000  -4.607404e+001  -1.378572e+002 
3709375000  -4.463862e+001  -1.370381e+002 
3712500000  -4.325560e+001  -1.417641e+002 
3715625000  -4.172809e+001  -1.507838e+002 
3718750000  -4.160077e+001  -1.588477e+002 
3721875000  -4.150177e+001  -1.685488e+002 
3725000000  -4.191946e+001  -1.731992e+002 
3728125000  -4.137729e+001  -1.762101e+002 
3731250000  -4.069756e+001  1.762504e+002 
3734375000  -4.012292e+001  1.700708e+002 
3737500000  -4.102079e+001  1.607361e+002 
3740625000  -4.087182e+001  1.554804e+002 
3743750000  -4.049302e+001  1.485190e+002 
3746875000  -4.089491e+001  1.393765e+002 
3750000000  -4.086092e+001  1.365312e+002 
3753125000  -4.064297e+001  1.343252e+002 
3756250000  -4.066357e+001  1.306118e+002 
3759375000  -4.045847e+001  1.239702e+002 
3762500000  -4.009929e+001  1.184951e+002 
3765625000  -4.084374e+001  1.135235e+002 
3768750000  -4.010653e+001  1.136735e+002 
3771875000  -3.818317e+001  1.053630e+002 
3775000000  -3.857911e+001  9.523343e+001 
3778125000  -3.897496e+001  8.765263e+001 
3781250000  -3.875076e+001  8.547086e+001 
3784375000  -3.877020e+001  7.860110e+001 
3787500000  -3.846706e+001  7.277906e+001 
3790625000  -3.904856e+001  6.371532e+001 
3793750000  -3.904718e+001  6.016888e+001 
3796875000  -3.816787e+001  5.580868e+001 
3800000000  -3.631716e+001  5.175153e+001 
3803125000  -3.828103e+001  3.817220e+001 
3806250000  -3.893113e+001  3.492539e+001 
3809375000  -3.845007e+001  2.932839e+001 
3812500000  -3.845443e+001  1.943742e+001 
3815625000  -3.954311e+001  1.027893e+001 
3818750000  -4.102903e+001  1.332052e+001 
3821875000  -3.999269e+001  2.255807e+001 
3825000000  -3.819506e+001  1.828683e+001 
3828125000  -3.695620e+001  -1.318489e+000 
3831250000  -3.823408e+001  -1.646761e+001 
3834375000  -4.042068e+001  -1.521609e+001 
3837500000  -4.084667e+001  -1.292812e+001 
3840625000  -3.893640e+001  -1.405199e+001 
3843750000  -3.826271e+001  -2.941675e+001 
3846875000  -4.011112e+001  -3.671037e+001 
3850000000  -4.065509e+001  -2.957413e+001 
3853125000  -3.992332e+001  -2.918420e+001 
3856250000  -3.941443e+001  -3.750350e+001 
3859375000  -3.831298e+001  -4.510660e+001 
3862500000  -3.847178e+001  -5.538722e+001 
3865625000  -3.896499e+001  -6.085687e+001 
3868750000  -3.854351e+001  -6.059974e+001 
3871875000  -3.784777e+001  -6.964221e+001 
3875000000  -3.836837e+001  -7.827426e+001 
3878125000  -3.950649e+001  -8.154604e+001 
3881250000  -3.925875e+001  -7.993313e+001 
3884375000  -3.869632e+001  -8.904704e+001 
3887500000  -3.912908e+001  -9.396840e+001 
3890625000  -3.943723e+001  -9.860406e+001 
3893750000  -3.975853e+001  -1.001261e+002 
3896875000  -3.999744e+001  -1.026904e+002 
3900000000  -3.979102e+001  -1.074858e+002 
3903125000  -3.949280e+001  -1.130241e+002 
3906250000  -3.874572e+001  -1.158760e+002 
3909375000  -3.800225e+001  -1.248156e+002 
3912500000  -3.918570e+001  -1.336381e+002 
3915625000  -4.071946e+001  -1.333415e+002 
3918750000  -3.996161e+001  -1.350912e+002 
3921875000  -3.916130e+001  -1.390641e+002 
3925000000  -3.835248e+001  -1.452755e+002 
3928125000  -3.840071e+001  -1.559301e+002 
3931250000  -3.908907e+001  -1.616488e+002 
3934375000  -3.955891e+001  -1.614598e+002 
3937500000  -3.996475e+001  -1.649463e+002 
3940625000  -4.001661e+001  -1.665303e+002 
3943750000  -3.879236e+001  -1.690268e+002 
3946875000  -3.871035e+001  -1.785282e+002 
3950000000  -3.956699e+001  1.723062e+002 
3953125000  -3.991706e+001  1.722089e+002 
3956250000  -3.854197e+001  1.728696e+002 
3959375000  -3.775721e+001  1.681358e+002 
3962500000  -3.763641e+001  1.566323e+002 
3965625000  -3.780891e+001  1.473327e+002 
3968750000  -3.866493e+001  1.410112e+002 
3971875000  -3.846814e+001  1.362737e+002 
3975000000  -3.830076e+001  1.319594e+002 
3978125000  -3.862277e+001  1.290649e+002 
3981250000  -3.858834e+001  1.215946e+002 
3984375000  -3.910677e+001  1.131811e+002 
3987500000  -3.975745e+001  1.104530e+002 
3990625000  -4.005811e+001  1.089254e+002 
3993750000  -3.983322e+001  1.040120e+002 
3996875000  -3.979278e+001  9.821553e+001 
4000000000  -4.066260e+001  9.550674e+001 
4003125000  -4.068096e+001  9.539942e+001 
4006250000  -3.920906e+001  9.329310e+001 
4009375000  -3.845247e+001  8.032574e+001 
4012500000  -4.019010e+001  7.055794e+001 
4015625000  -4.134898e+001  7.110418e+001 
4018750000  -4.128414e+001  7.299439e+001 
4021875000  -4.057814e+001  6.804690e+001 
4025000000  -4.046154e+001  6.249716e+001 
4028125000  -4.030544e+001  5.372842e+001 
4031250000  -4.131683e+001  5.167128e+001 
4034375000  -4.139872e+001  5.100647e+001 
4037500000  -4.097877e+001  5.261830e+001 
4040625000  -4.103484e+001  4.759766e+001 
4043750000  -4.115761e+001  4.262398e+001 
4046875000  -4.080237e+001  4.032116e+001 
4050000000  -4.075692e+001  3.542075e+001 
4053125000  -4.158333e+001  3.240750e+001 
4056250000  -4.161221e+001  3.688157e+001 
4059375000  -3.946476e+001  3.335830e+001 
4062500000  -3.879779e+001  2.499450e+001 
4065625000  -3.906158e+001  2.082881e+001 
4068750000  -3.807690e+001  1.344592e+001 
4071875000  -3.781033e+001  3.781649e+000 
4075000000  -3.834373e+001  -6.440319e+000 
4078125000  -3.872872e+001  -8.612475e+000 
4081250000  -3.817968e+001  -1.233010e+001 
4084375000  -3.796212e+001  -2.296149e+001 
4087500000  -3.845432e+001  -2.831231e+001 
4090625000  -3.916341e+001  -2.873442e+001 
4093750000  -3.872921e+001  -3.186906e+001 
4096875000  -3.872712e+001  -4.307253e+001 
4100000000  -3.986051e+001  -5.074929e+001 
4103125000  -4.067953e+001  -4.717051e+001 
4106250000  -4.005160e+001  -4.452155e+001 
4109375000  -3.900389e+001  -4.953123e+001 
4112500000  -3.852256e+001  -5.793781e+001 
4115625000  -3.913144e+001  -6.557350e+001 
4118750000  -3.913107e+001  -6.897356e+001 
4121875000  -3.895308e+001  -7.798412e+001 
4125000000  -3.996104e+001  -8.203014e+001 
4128125000  -4.065286e+001  -7.958527e+001 
4131250000  -3.963191e+001  -7.559548e+001 
4134375000  -3.771329e+001  -8.480471e+001 
4137500000  -3.806354e+001  -1.065433e+002 
4140625000  -4.048027e+001  -1.111287e+002 
4143750000  -4.142937e+001  -1.049765e+002 
4146875000  -4.019587e+001  -1.007334e+002 
4150000000  -3.940081e+001  -1.101262e+002 
4153125000  -3.976008e+001  -1.189479e+002 
4156250000  -4.140591e+001  -1.233428e+002 
4159375000  -4.112143e+001  -1.157038e+002 
4162500000  -3.965302e+001  -1.154640e+002 
4165625000  -3.867431e+001  -1.215346e+002 
4168750000  -3.844257e+001  -1.339576e+002 
4171875000  -3.846386e+001  -1.419527e+002 
4175000000  -3.917977e+001  -1.487219e+002 
4178125000  -3.936552e+001  -1.492182e+002 
4181250000  -3.926999e+001  -1.539886e+002 
4184375000  -3.937484e+001  -1.559096e+002 
4187500000  -3.922876e+001  -1.638125e+002 
4190625000  -3.959131e+001  -1.707156e+002 
4193750000  -4.052692e+001  -1.773878e+002 
4196875000  -4.133900e+001  -1.773728e+002 
4200000000  -4.274694e+001  -1.715267e+002 
4203125000  -4.120176e+001  -1.593475e+002 
4206250000  -3.708365e+001  -1.677358e+002 
4209375000  -3.725580e+001  1.688193e+002 
4212500000  -3.974231e+001  1.614845e+002 
4215625000  -4.020708e+001  1.689778e+002 
4218750000  -3.844629e+001  1.701345e+002 
4221875000  -3.649709e+001  1.609416e+002 
4225000000  -3.778200e+001  1.498626e+002 
4228125000  -3.770217e+001  1.503794e+002 
4231250000  -3.646885e+001  1.418975e+002 
4234375000  -3.625980e+001  1.317277e+002 
4237500000  -3.600956e+001  1.264393e+002 
4240625000  -3.639428e+001  1.149495e+002 
4243750000  -3.735227e+001  1.082554e+002 
4246875000  -3.840378e+001  1.059270e+002 
4250000000  -3.816723e+001  1.052040e+002 
4253125000  -3.811288e+001  1.024341e+002 
4256250000  -3.803469e+001  9.848521e+001 
4259375000  -3.805120e+001  9.265430e+001 
4262500000  -3.791328e+001  8.759354e+001 
4265625000  -3.763804e+001  8.615967e+001 
4268750000  -3.689497e+001  7.783313e+001 
4271875000  -3.659331e+001  7.038979e+001 
4275000000  -3.649920e+001  5.988818e+001 
4278125000  -3.761764e+001  4.959645e+001 
4281250000  -3.884447e+001  4.727562e+001 
4284375000  -3.877129e+001  4.707825e+001 
4287500000  -4.037915e+001  4.300887e+001 
4290625000  -4.035243e+001  4.958706e+001 
4293750000  -3.868139e+001  5.094713e+001 
4296875000  -3.786367e+001  3.841479e+001 
4300000000  -3.912245e+001  2.978586e+001 
4303125000  -3.951925e+001  3.347064e+001 
4306250000  -3.860656e+001  3.432301e+001 
4309375000  -3.747886e+001  2.628310e+001 
4312500000  -3.754513e+001  1.633395e+001 
4315625000  -3.772635e+001  7.231566e+000 
4318750000  -3.851761e+001  4.860827e+000 
4321875000  -3.858159e+001  6.096568e+000 
4325000000  -3.780996e+001  3.532318e+000 
4328125000  -3.714710e+001  -6.217165e+000 
4331250000  -3.742610e+001  -1.740475e+001 
4334375000  -3.830422e+001  -2.426984e+001 
4337500000  -3.937595e+001  -2.570270e+001 
4340625000  -3.952934e+001  -1.970279e+001 
4343750000  -3.844038e+001  -2.400989e+001 
4346875000  -3.821582e+001  -3.214071e+001 
4350000000  -3.809495e+001  -4.027102e+001 
4353125000  -3.922230e+001  -4.491859e+001 
4356250000  -4.093959e+001  -4.374535e+001 
4359375000  -3.954902e+001  -2.836914e+001 
4362500000  -3.631412e+001  -3.838150e+001 
4365625000  -3.600904e+001  -5.682666e+001 
4368750000  -3.699873e+001  -6.553568e+001 
4371875000  -3.771962e+001  -6.324847e+001 
4375000000  -3.702330e+001  -6.946270e+001 
4378125000  -3.666426e+001  -7.624293e+001 
4381250000  -3.711708e+001  -8.450779e+001 
4384375000  -3.695439e+001  -9.087107e+001 
4387500000  -3.788216e+001  -9.658949e+001 
4390625000  -3.850114e+001  -9.754408e+001 
4393750000  -3.787703e+001  -9.789693e+001 
4396875000  -3.711319e+001  -1.028507e+002 
4400000000  -3.671685e+001  -1.125804e+002 
4403125000  -3.789045e+001  -1.217843e+002 
4406250000  -3.844336e+001  -1.243015e+002 
4409375000  -3.861163e+001  -1.283142e+002 
4412500000  -3.979771e+001  -1.313006e+002 
4415625000  -3.926650e+001  -1.276714e+002 
