!Agilent Technologies,E8363B,MY43030201,A.06.04.32
!Agilent E8363B: A.06.04.32
!Date: Tuesday, November 11, 2014 21:29:34
!Correction: S21(Response(S21)) 
!S1P File: Measurement: S21:
# Hz S  dB   R 50
3000000000  -4.050417e+001  8.613599e+001 
3003125000  -4.202813e+001  7.865697e+001 
3006250000  -4.215486e+001  7.719946e+001 
3009375000  -4.275884e+001  8.110293e+001 
3012500000  -4.150980e+001  7.812291e+001 
3015625000  -4.132690e+001  7.125455e+001 
3018750000  -4.183402e+001  7.233151e+001 
3021875000  -4.026602e+001  7.149360e+001 
3025000000  -3.881549e+001  6.775439e+001 
3028125000  -3.795327e+001  5.847585e+001 
3031250000  -3.692955e+001  4.639924e+001 
3034375000  -3.666955e+001  3.293382e+001 
3037500000  -3.753255e+001  2.110392e+001 
3040625000  -3.874923e+001  1.598526e+001 
3043750000  -3.916668e+001  9.509264e+000 
3046875000  -3.975638e+001  5.295915e+000 
3050000000  -4.085903e+001  -8.176197e-001 
3053125000  -4.052061e+001  3.991023e+000 
3056250000  -4.032983e+001  7.312971e+000 
3059375000  -3.970722e+001  4.498690e+000 
3062500000  -3.822804e+001  6.542543e-002 
3065625000  -3.800071e+001  -9.251955e+000 
3068750000  -3.763698e+001  -1.732934e+001 
3071875000  -3.769478e+001  -2.018414e+001 
3075000000  -3.698502e+001  -2.624144e+001 
3078125000  -3.713596e+001  -3.244427e+001 
3081250000  -3.735418e+001  -3.728673e+001 
3084375000  -3.625420e+001  -4.331833e+001 
3087500000  -3.638728e+001  -4.985035e+001 
3090625000  -3.597906e+001  -6.228966e+001 
3093750000  -3.681011e+001  -6.972883e+001 
3096875000  -3.733483e+001  -7.552951e+001 
3100000000  -3.713718e+001  -7.868488e+001 
3103125000  -3.748818e+001  -8.167304e+001 
3106250000  -3.712489e+001  -8.780569e+001 
3109375000  -3.726840e+001  -9.148403e+001 
3112500000  -3.712289e+001  -9.750774e+001 
3115625000  -3.700087e+001  -1.014025e+002 
3118750000  -3.718026e+001  -1.035908e+002 
3121875000  -3.663894e+001  -1.149183e+002 
3125000000  -3.840140e+001  -1.190108e+002 
3128125000  -3.854042e+001  -1.121457e+002 
3131250000  -3.623686e+001  -1.170389e+002 
3134375000  -3.538994e+001  -1.348760e+002 
3137500000  -3.625071e+001  -1.470827e+002 
3140625000  -3.730953e+001  -1.494889e+002 
3143750000  -3.815119e+001  -1.516989e+002 
3146875000  -3.762379e+001  -1.497283e+002 
3150000000  -3.684675e+001  -1.543269e+002 
3153125000  -3.717539e+001  -1.620676e+002 
3156250000  -3.810512e+001  -1.579402e+002 
3159375000  -3.589043e+001  -1.592400e+002 
3162500000  -3.416908e+001  -1.746741e+002 
3165625000  -3.547562e+001  1.724573e+002 
3168750000  -3.543940e+001  1.716458e+002 
3171875000  -3.488242e+001  1.645732e+002 
3175000000  -3.549193e+001  1.545982e+002 
3178125000  -3.507398e+001  1.542998e+002 
3181250000  -3.437000e+001  1.451414e+002 
3184375000  -3.405447e+001  1.335945e+002 
3187500000  -3.542877e+001  1.181407e+002 
3190625000  -3.717220e+001  1.124145e+002 
3193750000  -3.752456e+001  1.179131e+002 
3196875000  -3.739654e+001  1.191966e+002 
3200000000  -3.612834e+001  1.140022e+002 
3203125000  -3.584190e+001  1.061348e+002 
3206250000  -3.606594e+001  9.802448e+001 
3209375000  -3.579762e+001  9.072048e+001 
3212500000  -3.612997e+001  8.292770e+001 
3215625000  -3.602916e+001  8.006327e+001 
3218750000  -3.683394e+001  6.923988e+001 
3221875000  -3.734206e+001  6.337689e+001 
3225000000  -3.714339e+001  5.951746e+001 
3228125000  -3.770865e+001  5.236708e+001 
3231250000  -3.839787e+001  4.919203e+001 
3234375000  -3.805004e+001  4.643809e+001 
3237500000  -3.802853e+001  4.292263e+001 
3240625000  -3.766177e+001  3.752590e+001 
3243750000  -3.775141e+001  2.644803e+001 
3246875000  -3.821447e+001  1.967552e+001 
3250000000  -3.884536e+001  1.528390e+001 
3253125000  -3.890379e+001  1.209633e+001 
3256250000  -3.865058e+001  3.316952e+000 
3259375000  -3.927948e+001  -6.541239e+000 
3262500000  -4.064789e+001  -8.892739e+000 
3265625000  -4.136768e+001  -6.963107e+000 
3268750000  -4.120488e+001  -5.685623e+000 
3271875000  -4.075863e+001  -9.678211e+000 
3275000000  -4.018361e+001  -1.793930e+001 
3278125000  -4.089246e+001  -2.367942e+001 
3281250000  -4.102006e+001  -2.455075e+001 
3284375000  -4.041739e+001  -3.027763e+001 
3287500000  -4.093786e+001  -3.563099e+001 
3290625000  -4.142959e+001  -4.210882e+001 
3293750000  -4.133426e+001  -4.750768e+001 
3296875000  -4.247634e+001  -4.907959e+001 
3300000000  -4.182777e+001  -4.788344e+001 
3303125000  -4.097769e+001  -5.498471e+001 
3306250000  -4.086640e+001  -6.260071e+001 
3309375000  -4.043172e+001  -7.074285e+001 
3312500000  -4.102033e+001  -8.266499e+001 
3315625000  -4.220820e+001  -9.078487e+001 
3318750000  -4.352385e+001  -9.358076e+001 
3321875000  -4.515770e+001  -9.134795e+001 
3325000000  -4.517434e+001  -8.442936e+001 
3328125000  -4.415869e+001  -8.523953e+001 
3331250000  -4.231982e+001  -7.955785e+001 
3334375000  -3.995423e+001  -9.551212e+001 
3337500000  -4.054124e+001  -1.164193e+002 
3340625000  -4.223304e+001  -1.249848e+002 
3343750000  -4.414891e+001  -1.264098e+002 
3346875000  -4.369609e+001  -1.273340e+002 
3350000000  -4.293763e+001  -1.294116e+002 
3353125000  -4.286243e+001  -1.356383e+002 
3356250000  -4.262955e+001  -1.439673e+002 
3359375000  -4.345192e+001  -1.564674e+002 
3362500000  -4.469691e+001  -1.617767e+002 
3365625000  -4.481413e+001  -1.631351e+002 
3368750000  -4.559388e+001  -1.684197e+002 
3371875000  -4.561209e+001  -1.740714e+002 
3375000000  -4.755557e+001  -1.754655e+002 
3378125000  -4.822688e+001  -1.777243e+002 
3381250000  -5.017591e+001  -1.655724e+002 
3384375000  -4.670561e+001  -1.528658e+002 
3387500000  -4.430846e+001  -1.742329e+002 
3390625000  -4.571828e+001  1.659992e+002 
3393750000  -4.717327e+001  1.611653e+002 
3396875000  -4.613443e+001  1.652384e+002 
3400000000  -4.633112e+001  1.558272e+002 
3403125000  -4.686188e+001  1.462620e+002 
3406250000  -4.792057e+001  1.443717e+002 
3409375000  -4.775868e+001  1.410863e+002 
3412500000  -4.888337e+001  1.323845e+002 
3415625000  -4.953552e+001  1.285379e+002 
3418750000  -4.984404e+001  1.323481e+002 
3421875000  -5.148786e+001  1.357970e+002 
3425000000  -5.001021e+001  1.331225e+002 
3428125000  -4.986230e+001  1.299992e+002 
3431250000  -5.001774e+001  1.196071e+002 
3434375000  -5.049183e+001  1.157826e+002 
3437500000  -5.179346e+001  1.156804e+002 
3440625000  -5.209348e+001  1.172307e+002 
3443750000  -5.108707e+001  1.196647e+002 
3446875000  -5.085984e+001  1.144630e+002 
3450000000  -5.030976e+001  1.088937e+002 
3453125000  -5.102246e+001  9.629484e+001 
3456250000  -5.221553e+001  9.891434e+001 
3459375000  -5.391849e+001  9.574387e+001 
3462500000  -5.270207e+001  1.079711e+002 
3465625000  -5.154854e+001  9.329204e+001 
3468750000  -5.265860e+001  9.288673e+001 
3471875000  -5.236994e+001  9.357655e+001 
3475000000  -5.197516e+001  8.742847e+001 
3478125000  -5.198865e+001  8.259637e+001 
3481250000  -5.320067e+001  7.564935e+001 
3484375000  -5.234866e+001  7.527748e+001 
3487500000  -5.235318e+001  8.135464e+001 
3490625000  -5.052672e+001  7.052847e+001 
3493750000  -5.149205e+001  5.880891e+001 
3496875000  -5.158093e+001  6.398279e+001 
3500000000  -5.203574e+001  6.483208e+001 
3503125000  -5.082875e+001  6.054720e+001 
3506250000  -4.964149e+001  5.284266e+001 
3509375000  -5.066062e+001  4.420821e+001 
3512500000  -5.068264e+001  2.806646e+001 
3515625000  -5.174074e+001  2.117866e+001 
3518750000  -5.194527e+001  2.472949e+001 
3521875000  -5.158217e+001  2.051152e+001 
3525000000  -5.356662e+001  1.993217e+001 
3528125000  -5.188304e+001  1.486652e+001 
3531250000  -5.129244e+001  1.022840e+001 
3534375000  -5.361373e+001  -2.936505e+000 
3537500000  -5.470918e+001  -8.159582e+000 
3540625000  -5.500158e+001  -1.250501e+001 
3543750000  -5.540529e+001  5.207199e+000 
3546875000  -5.660822e+001  1.004029e+001 
3550000000  -5.559044e+001  4.652489e+000 
3553125000  -5.314928e+001  -1.490565e+001 
3556250000  -5.491266e+001  -2.429096e+001 
3559375000  -5.571798e+001  -2.226641e+001 
3562500000  -5.679147e+001  -2.554214e+001 
3565625000  -5.911127e+001  -3.697130e+001 
3568750000  -5.771298e+001  -2.514240e+001 
3571875000  -5.711520e+001  -2.782622e+001 
3575000000  -5.803424e+001  -2.419116e+001 
3578125000  -6.050290e+001  -1.751082e+001 
3581250000  -5.945817e+001  -2.799817e+001 
3584375000  -5.987767e+001  -1.505895e+001 
3587500000  -5.753485e+001  -1.668238e+001 
3590625000  -5.804679e+001  -4.884653e+001 
3593750000  -5.918452e+001  -3.302780e+001 
3596875000  -5.915623e+001  -1.123750e+001 
3600000000  -5.582122e+001  -2.407355e+001 
3603125000  -5.800123e+001  -2.676189e+001 
3606250000  -5.685743e+001  -3.677908e+001 
3609375000  -5.861989e+001  -3.093403e+001 
3612500000  -5.885281e+001  -2.948046e+001 
3615625000  -5.804396e+001  -4.052500e+001 
3618750000  -5.918376e+001  -3.261028e+001 
3621875000  -5.714686e+001  -2.785758e+001 
3625000000  -5.941264e+001  -3.113577e+001 
3628125000  -5.687254e+001  -2.170019e+001 
3631250000  -5.596327e+001  -3.283852e+001 
3634375000  -5.679070e+001  -2.844599e+001 
3637500000  -5.507977e+001  -2.897984e+001 
3640625000  -5.358463e+001  -2.032096e+001 
3643750000  -5.301387e+001  -2.555718e+001 
3646875000  -5.331538e+001  -3.717304e+001 
3650000000  -5.383680e+001  -4.698896e+001 
3653125000  -5.190422e+001  -4.155645e+001 
3656250000  -5.163923e+001  -5.081457e+001 
3659375000  -5.082685e+001  -5.236166e+001 
3662500000  -5.070404e+001  -5.743523e+001 
3665625000  -5.031180e+001  -5.586590e+001 
3668750000  -4.789589e+001  -5.592817e+001 
3671875000  -4.790994e+001  -6.605837e+001 
3675000000  -4.727392e+001  -7.439429e+001 
3678125000  -4.725478e+001  -8.002074e+001 
3681250000  -4.700408e+001  -8.704449e+001 
3684375000  -4.638147e+001  -8.893372e+001 
3687500000  -4.671132e+001  -9.620004e+001 
3690625000  -4.647828e+001  -1.040316e+002 
3693750000  -4.670670e+001  -1.006639e+002 
3696875000  -4.640901e+001  -1.042563e+002 
3700000000  -4.540784e+001  -1.116802e+002 
3703125000  -4.542249e+001  -1.172329e+002 
3706250000  -4.606804e+001  -1.177714e+002 
3709375000  -4.517185e+001  -1.176469e+002 
3712500000  -4.357640e+001  -1.231725e+002 
3715625000  -4.216650e+001  -1.309194e+002 
3718750000  -4.188632e+001  -1.353122e+002 
3721875000  -4.132746e+001  -1.469580e+002 
3725000000  -4.182469e+001  -1.544244e+002 
3728125000  -4.136221e+001  -1.582359e+002 
3731250000  -4.065802e+001  -1.630767e+002 
3734375000  -4.011093e+001  -1.703873e+002 
3737500000  -4.075889e+001  1.794508e+002 
3740625000  -4.127507e+001  1.736477e+002 
3743750000  -4.038181e+001  1.675420e+002 
3746875000  -4.056286e+001  1.621559e+002 
3750000000  -4.101687e+001  1.561497e+002 
3753125000  -4.054772e+001  1.537971e+002 
3756250000  -4.061176e+001  1.513823e+002 
3759375000  -4.033612e+001  1.450997e+002 
3762500000  -3.999372e+001  1.378089e+002 
3765625000  -4.063087e+001  1.336522e+002 
3768750000  -4.050124e+001  1.340698e+002 
3771875000  -3.866241e+001  1.258116e+002 
3775000000  -3.856676e+001  1.155722e+002 
3778125000  -3.895012e+001  1.109110e+002 
3781250000  -3.894136e+001  1.043951e+002 
3784375000  -3.897214e+001  9.914333e+001 
3787500000  -3.851558e+001  9.318855e+001 
3790625000  -3.912859e+001  8.423422e+001 
3793750000  -3.903534e+001  7.988521e+001 
3796875000  -3.829403e+001  7.639784e+001 
3800000000  -3.636279e+001  7.174011e+001 
3803125000  -3.815907e+001  5.900317e+001 
3806250000  -3.895555e+001  5.409441e+001 
3809375000  -3.858555e+001  5.067279e+001 
3812500000  -3.842131e+001  4.032156e+001 
3815625000  -3.953128e+001  3.168669e+001 
3818750000  -4.052917e+001  3.296704e+001 
3821875000  -4.037434e+001  4.012694e+001 
3825000000  -3.834451e+001  3.848351e+001 
3828125000  -3.692945e+001  1.970259e+001 
3831250000  -3.802617e+001  5.371533e+000 
3834375000  -4.054143e+001  4.085033e+000 
3837500000  -4.089966e+001  9.476122e+000 
3840625000  -3.923158e+001  5.938425e+000 
3843750000  -3.838967e+001  -1.031435e+001 
3846875000  -3.986716e+001  -1.543094e+001 
3850000000  -4.070044e+001  -1.059379e+001 
3853125000  -3.970597e+001  -7.941181e+000 
3856250000  -3.977010e+001  -1.805002e+001 
3859375000  -3.850986e+001  -2.380923e+001 
3862500000  -3.856733e+001  -3.330962e+001 
3865625000  -3.927448e+001  -3.982484e+001 
3868750000  -3.873878e+001  -4.040440e+001 
3871875000  -3.811009e+001  -4.656639e+001 
3875000000  -3.865755e+001  -5.766981e+001 
3878125000  -3.954537e+001  -6.051664e+001 
3881250000  -3.931496e+001  -6.069957e+001 
3884375000  -3.891223e+001  -6.741319e+001 
3887500000  -3.897710e+001  -7.308421e+001 
3890625000  -3.969079e+001  -7.733444e+001 
3893750000  -3.985808e+001  -7.999857e+001 
3896875000  -3.992521e+001  -8.253201e+001 
3900000000  -3.991542e+001  -8.502684e+001 
3903125000  -3.927750e+001  -9.007966e+001 
3906250000  -3.898391e+001  -9.526824e+001 
3909375000  -3.824466e+001  -1.026103e+002 
3912500000  -3.928915e+001  -1.117705e+002 
3915625000  -4.066130e+001  -1.120025e+002 
3918750000  -4.003956e+001  -1.132896e+002 
3921875000  -3.936894e+001  -1.172043e+002 
3925000000  -3.855985e+001  -1.237349e+002 
3928125000  -3.827353e+001  -1.330601e+002 
3931250000  -3.890557e+001  -1.392394e+002 
3934375000  -3.963637e+001  -1.412693e+002 
3937500000  -4.006459e+001  -1.427660e+002 
3940625000  -3.986825e+001  -1.463985e+002 
3943750000  -3.911692e+001  -1.480817e+002 
3946875000  -3.844786e+001  -1.563448e+002 
3950000000  -3.964159e+001  -1.666395e+002 
3953125000  -4.013601e+001  -1.657510e+002 
3956250000  -3.902312e+001  -1.649568e+002 
3959375000  -3.785419e+001  -1.722480e+002 
3962500000  -3.779253e+001  1.795396e+002 
3965625000  -3.797778e+001  1.706396e+002 
3968750000  -3.902298e+001  1.636835e+002 
3971875000  -3.851948e+001  1.574885e+002 
3975000000  -3.841913e+001  1.518245e+002 
3978125000  -3.878517e+001  1.490629e+002 
3981250000  -3.844280e+001  1.435194e+002 
3984375000  -3.904984e+001  1.354898e+002 
3987500000  -3.960859e+001  1.302406e+002 
3990625000  -4.020432e+001  1.294139e+002 
3993750000  -3.993262e+001  1.243939e+002 
3996875000  -4.021098e+001  1.195982e+002 
4000000000  -4.059372e+001  1.156889e+002 
4003125000  -4.100824e+001  1.188758e+002 
4006250000  -3.949592e+001  1.157335e+002 
4009375000  -3.876032e+001  1.008919e+002 
4012500000  -4.011896e+001  9.220775e+001 
4015625000  -4.122473e+001  9.277477e+001 
4018750000  -4.166216e+001  9.432175e+001 
4021875000  -4.089881e+001  9.075115e+001 
4025000000  -4.060040e+001  8.543758e+001 
4028125000  -4.032119e+001  7.702750e+001 
4031250000  -4.121531e+001  7.283521e+001 
4034375000  -4.135839e+001  7.204818e+001 
4037500000  -4.134775e+001  7.395863e+001 
4040625000  -4.095654e+001  6.833597e+001 
4043750000  -4.111279e+001  6.479167e+001 
4046875000  -4.080511e+001  6.278766e+001 
4050000000  -4.047541e+001  5.948968e+001 
4053125000  -4.127051e+001  5.446923e+001 
4056250000  -4.146584e+001  5.700783e+001 
4059375000  -3.972891e+001  5.583004e+001 
4062500000  -3.897983e+001  4.741286e+001 
4065625000  -3.901792e+001  4.285461e+001 
4068750000  -3.832832e+001  3.586570e+001 
4071875000  -3.784370e+001  2.465294e+001 
4075000000  -3.853824e+001  1.935641e+001 
4078125000  -3.893037e+001  1.518056e+001 
4081250000  -3.847097e+001  1.024693e+001 
4084375000  -3.825889e+001  -1.054030e+000 
4087500000  -3.884449e+001  -7.552715e+000 
4090625000  -3.910336e+001  -8.224935e+000 
4093750000  -3.881306e+001  -1.032322e+001 
4096875000  -3.866713e+001  -2.139484e+001 
4100000000  -3.962928e+001  -2.807446e+001 
4103125000  -4.090647e+001  -2.454857e+001 
4106250000  -4.009630e+001  -2.255115e+001 
4109375000  -3.936961e+001  -2.424788e+001 
4112500000  -3.891909e+001  -3.431992e+001 
4115625000  -3.916978e+001  -3.956752e+001 
4118750000  -3.897671e+001  -4.533957e+001 
4121875000  -3.895478e+001  -5.458068e+001 
4125000000  -3.980476e+001  -6.092171e+001 
4128125000  -4.079527e+001  -5.899119e+001 
4131250000  -3.989638e+001  -5.449371e+001 
4134375000  -3.759660e+001  -6.230597e+001 
4137500000  -3.837710e+001  -8.248632e+001 
4140625000  -4.060301e+001  -8.941306e+001 
4143750000  -4.160333e+001  -8.531744e+001 
4146875000  -4.055132e+001  -8.027187e+001 
4150000000  -3.998449e+001  -8.733849e+001 
4153125000  -3.984508e+001  -9.618768e+001 
4156250000  -4.118696e+001  -1.015393e+002 
4159375000  -4.124609e+001  -9.541521e+001 
4162500000  -3.998196e+001  -9.259426e+001 
4165625000  -3.902028e+001  -1.013512e+002 
4168750000  -3.844286e+001  -1.097543e+002 
4171875000  -3.839628e+001  -1.194419e+002 
4175000000  -3.948788e+001  -1.266202e+002 
4178125000  -3.965351e+001  -1.243111e+002 
4181250000  -3.963483e+001  -1.309670e+002 
4184375000  -3.955827e+001  -1.353037e+002 
4187500000  -3.983661e+001  -1.409986e+002 
4190625000  -3.954432e+001  -1.480461e+002 
4193750000  -4.083218e+001  -1.520314e+002 
4196875000  -4.152377e+001  -1.526255e+002 
4200000000  -4.262597e+001  -1.507617e+002 
4203125000  -4.130940e+001  -1.356597e+002 
4206250000  -3.760731e+001  -1.441203e+002 
4209375000  -3.733282e+001  -1.683444e+002 
4212500000  -3.987378e+001  -1.741560e+002 
4215625000  -4.018974e+001  -1.690596e+002 
4218750000  -3.827558e+001  -1.652028e+002 
4221875000  -3.665632e+001  -1.781070e+002 
4225000000  -3.799621e+001  1.722974e+002 
4228125000  -3.799719e+001  1.727393e+002 
4231250000  -3.635685e+001  1.649862e+002 
4234375000  -3.646236e+001  1.537995e+002 
4237500000  -3.634742e+001  1.490079e+002 
4240625000  -3.634151e+001  1.378350e+002 
4243750000  -3.743780e+001  1.292344e+002 
4246875000  -3.838599e+001  1.270535e+002 
4250000000  -3.827420e+001  1.290790e+002 
4253125000  -3.817158e+001  1.263291e+002 
4256250000  -3.799432e+001  1.214024e+002 
4259375000  -3.791358e+001  1.144012e+002 
4262500000  -3.786757e+001  1.095173e+002 
4265625000  -3.814661e+001  1.097685e+002 
4268750000  -3.700923e+001  1.012107e+002 
4271875000  -3.694086e+001  9.130992e+001 
4275000000  -3.658414e+001  8.318302e+001 
4278125000  -3.765592e+001  7.070612e+001 
4281250000  -3.900503e+001  7.083736e+001 
4284375000  -3.921133e+001  6.938410e+001 
4287500000  -4.042686e+001  6.327034e+001 
4290625000  -4.062188e+001  7.199900e+001 
4293750000  -3.895357e+001  7.555417e+001 
4296875000  -3.786508e+001  6.083215e+001 
4300000000  -3.904247e+001  4.878614e+001 
4303125000  -3.988745e+001  5.305180e+001 
4306250000  -3.898375e+001  5.746272e+001 
4309375000  -3.780851e+001  5.137065e+001 
4312500000  -3.770433e+001  3.993097e+001 
4315625000  -3.817975e+001  3.074828e+001 
4318750000  -3.879848e+001  2.730630e+001 
4321875000  -3.863942e+001  2.815044e+001 
4325000000  -3.819307e+001  2.673374e+001 
4328125000  -3.741527e+001  1.753836e+001 
4331250000  -3.759173e+001  7.188495e+000 
4334375000  -3.828513e+001  -5.155103e-001 
4337500000  -3.955406e+001  -2.621538e-001 
4340625000  -3.978669e+001  1.218891e+000 
4343750000  -3.850409e+001  -4.818806e-002 
4346875000  -3.838808e+001  -7.868839e+000 
4350000000  -3.832063e+001  -1.573343e+001 
4353125000  -3.903258e+001  -2.339801e+001 
4356250000  -4.111005e+001  -2.009284e+001 
4359375000  -4.035826e+001  -5.816577e+000 
4362500000  -3.702305e+001  -1.346449e+001 
4365625000  -3.616191e+001  -3.106312e+001 
4368750000  -3.748717e+001  -4.008995e+001 
4371875000  -3.798490e+001  -4.031672e+001 
4375000000  -3.738273e+001  -4.492969e+001 
4378125000  -3.694624e+001  -5.181220e+001 
4381250000  -3.723880e+001  -6.090404e+001 
4384375000  -3.705840e+001  -6.669205e+001 
4387500000  -3.812806e+001  -7.456351e+001 
4390625000  -3.858685e+001  -7.356583e+001 
4393750000  -3.821272e+001  -7.450149e+001 
4396875000  -3.756380e+001  -7.907137e+001 
4400000000  -3.700254e+001  -8.793368e+001 
4403125000  -3.816977e+001  -9.639904e+001 
4406250000  -3.855785e+001  -1.008371e+002 
4409375000  -3.906071e+001  -1.044353e+002 
4412500000  -3.971223e+001  -1.057071e+002 
4415625000  -3.948589e+001  -1.031477e+002 
