!Agilent Technologies,E8363B,MY43030201,A.06.04.32
!Agilent E8363B: A.06.04.32
!Date: Tuesday, November 11, 2014 21:28:42
!Correction: S21(Response(S21)) 
!S1P File: Measurement: S21:
# Hz S  dB   R 50
3000000000  -4.066177e+001  8.929642e+001 
3003125000  -4.242016e+001  8.225553e+001 
3006250000  -4.213750e+001  8.130740e+001 
3009375000  -4.267596e+001  8.497868e+001 
3012500000  -4.166114e+001  8.062746e+001 
3015625000  -4.131137e+001  7.359685e+001 
3018750000  -4.182275e+001  7.437730e+001 
3021875000  -4.038615e+001  7.626250e+001 
3025000000  -3.902450e+001  6.993964e+001 
3028125000  -3.801556e+001  6.199133e+001 
3031250000  -3.694784e+001  5.025751e+001 
3034375000  -3.682807e+001  3.605162e+001 
3037500000  -3.747017e+001  2.511258e+001 
3040625000  -3.871467e+001  2.013157e+001 
3043750000  -3.922133e+001  1.247770e+001 
3046875000  -3.963577e+001  7.840382e+000 
3050000000  -4.092276e+001  1.308074e+000 
3053125000  -4.059403e+001  6.818214e+000 
3056250000  -4.052209e+001  1.159391e+001 
3059375000  -3.991173e+001  8.020826e+000 
3062500000  -3.825339e+001  2.390461e+000 
3065625000  -3.799426e+001  -5.951746e+000 
3068750000  -3.759390e+001  -1.384031e+001 
3071875000  -3.777040e+001  -1.678638e+001 
3075000000  -3.714753e+001  -2.294605e+001 
3078125000  -3.707991e+001  -2.916906e+001 
3081250000  -3.731981e+001  -3.563202e+001 
3084375000  -3.646542e+001  -3.979327e+001 
3087500000  -3.652699e+001  -4.572646e+001 
3090625000  -3.603097e+001  -5.842089e+001 
3093750000  -3.684263e+001  -6.657055e+001 
3096875000  -3.734098e+001  -7.304806e+001 
3100000000  -3.722914e+001  -7.527061e+001 
3103125000  -3.758433e+001  -7.822417e+001 
3106250000  -3.718034e+001  -8.429215e+001 
3109375000  -3.724025e+001  -8.767717e+001 
3112500000  -3.713616e+001  -9.357930e+001 
3115625000  -3.708514e+001  -9.812593e+001 
3118750000  -3.742900e+001  -1.009000e+002 
3121875000  -3.653232e+001  -1.115003e+002 
3125000000  -3.829001e+001  -1.154054e+002 
3128125000  -3.864489e+001  -1.082757e+002 
3131250000  -3.618956e+001  -1.141942e+002 
3134375000  -3.530744e+001  -1.309624e+002 
3137500000  -3.606378e+001  -1.423001e+002 
3140625000  -3.732871e+001  -1.461176e+002 
3143750000  -3.831279e+001  -1.470584e+002 
3146875000  -3.769437e+001  -1.460333e+002 
3150000000  -3.686447e+001  -1.500671e+002 
3153125000  -3.712346e+001  -1.584089e+002 
3156250000  -3.789124e+001  -1.538282e+002 
3159375000  -3.580233e+001  -1.554930e+002 
3162500000  -3.414841e+001  -1.710697e+002 
3165625000  -3.538382e+001  1.762526e+002 
3168750000  -3.545270e+001  1.748410e+002 
3171875000  -3.493996e+001  1.678513e+002 
3175000000  -3.546930e+001  1.578600e+002 
3178125000  -3.510920e+001  1.572544e+002 
3181250000  -3.432894e+001  1.485306e+002 
3184375000  -3.408269e+001  1.370448e+002 
3187500000  -3.524367e+001  1.211090e+002 
3190625000  -3.748938e+001  1.149057e+002 
3193750000  -3.763039e+001  1.214382e+002 
3196875000  -3.755341e+001  1.219104e+002 
3200000000  -3.636852e+001  1.177608e+002 
3203125000  -3.606564e+001  1.098140e+002 
3206250000  -3.618428e+001  1.020915e+002 
3209375000  -3.575856e+001  9.451640e+001 
3212500000  -3.620052e+001  8.753923e+001 
3215625000  -3.594669e+001  8.392306e+001 
3218750000  -3.698323e+001  7.240606e+001 
3221875000  -3.732386e+001  6.619511e+001 
3225000000  -3.712136e+001  6.268799e+001 
3228125000  -3.780881e+001  5.634252e+001 
3231250000  -3.828079e+001  5.261493e+001 
3234375000  -3.793410e+001  4.946038e+001 
3237500000  -3.800262e+001  4.545755e+001 
3240625000  -3.766939e+001  4.180854e+001 
3243750000  -3.770007e+001  3.074370e+001 
3246875000  -3.836714e+001  2.330330e+001 
3250000000  -3.874971e+001  2.074609e+001 
3253125000  -3.907168e+001  1.675180e+001 
3256250000  -3.864807e+001  7.763621e+000 
3259375000  -3.918931e+001  -1.312120e+000 
3262500000  -4.055453e+001  -5.113165e+000 
3265625000  -4.123093e+001  -2.755883e+000 
3268750000  -4.123211e+001  -1.208923e+000 
3271875000  -4.082952e+001  -6.131932e+000 
3275000000  -4.018756e+001  -1.424980e+001 
3278125000  -4.108766e+001  -1.980410e+001 
3281250000  -4.097674e+001  -2.071874e+001 
3284375000  -4.055865e+001  -2.656634e+001 
3287500000  -4.109116e+001  -2.998054e+001 
3290625000  -4.137639e+001  -3.810868e+001 
3293750000  -4.124634e+001  -4.448029e+001 
3296875000  -4.244172e+001  -4.430266e+001 
3300000000  -4.188173e+001  -4.420769e+001 
3303125000  -4.111490e+001  -5.090892e+001 
3306250000  -4.069521e+001  -5.938857e+001 
3309375000  -4.061522e+001  -6.658369e+001 
3312500000  -4.073013e+001  -7.838721e+001 
3315625000  -4.199293e+001  -8.466348e+001 
3318750000  -4.363594e+001  -8.961676e+001 
3321875000  -4.503340e+001  -8.542954e+001 
3325000000  -4.503176e+001  -7.769223e+001 
3328125000  -4.399479e+001  -8.397662e+001 
3331250000  -4.257666e+001  -7.715929e+001 
3334375000  -4.001130e+001  -8.968887e+001 
3337500000  -4.041858e+001  -1.125699e+002 
3340625000  -4.202174e+001  -1.205210e+002 
3343750000  -4.405952e+001  -1.222395e+002 
3346875000  -4.337417e+001  -1.208377e+002 
3350000000  -4.314890e+001  -1.249453e+002 
3353125000  -4.282653e+001  -1.317193e+002 
3356250000  -4.276274e+001  -1.397600e+002 
3359375000  -4.323241e+001  -1.509407e+002 
3362500000  -4.431115e+001  -1.565565e+002 
3365625000  -4.470926e+001  -1.600056e+002 
3368750000  -4.518002e+001  -1.629156e+002 
3371875000  -4.547023e+001  -1.676567e+002 
3375000000  -4.717592e+001  -1.726656e+002 
3378125000  -4.764875e+001  -1.697952e+002 
3381250000  -4.935436e+001  -1.675439e+002 
3384375000  -4.656707e+001  -1.479052e+002 
3387500000  -4.416584e+001  -1.741409e+002 
3390625000  -4.596735e+001  1.697360e+002 
3393750000  -4.733237e+001  1.709844e+002 
3396875000  -4.601213e+001  1.693378e+002 
3400000000  -4.590842e+001  1.572248e+002 
3403125000  -4.716433e+001  1.546999e+002 
3406250000  -4.777965e+001  1.495061e+002 
3409375000  -4.755404e+001  1.446841e+002 
3412500000  -4.878043e+001  1.352636e+002 
3415625000  -5.014017e+001  1.321133e+002 
3418750000  -4.977233e+001  1.357451e+002 
3421875000  -5.090703e+001  1.367727e+002 
3425000000  -5.010636e+001  1.338448e+002 
3428125000  -4.961354e+001  1.351716e+002 
3431250000  -4.924899e+001  1.270821e+002 
3434375000  -5.066151e+001  1.221009e+002 
3437500000  -5.127533e+001  1.252497e+002 
3440625000  -5.198755e+001  1.230559e+002 
3443750000  -5.007962e+001  1.276685e+002 
3446875000  -5.026891e+001  1.175499e+002 
3450000000  -5.021790e+001  1.105500e+002 
3453125000  -5.055367e+001  1.056961e+002 
3456250000  -5.135748e+001  1.011991e+002 
3459375000  -5.338781e+001  9.831699e+001 
3462500000  -5.297982e+001  1.078716e+002 
3465625000  -5.079592e+001  9.892778e+001 
3468750000  -5.196854e+001  9.710367e+001 
3471875000  -5.178727e+001  9.831817e+001 
3475000000  -5.052612e+001  8.948946e+001 
3478125000  -5.036115e+001  8.301643e+001 
3481250000  -5.178975e+001  8.342860e+001 
3484375000  -5.194238e+001  8.248994e+001 
3487500000  -5.048190e+001  8.045570e+001 
3490625000  -5.053416e+001  7.279129e+001 
3493750000  -5.134726e+001  6.961505e+001 
3496875000  -5.151814e+001  6.870829e+001 
3500000000  -5.185060e+001  7.083618e+001 
3503125000  -5.061713e+001  6.441726e+001 
3506250000  -4.947528e+001  5.504240e+001 
3509375000  -4.949960e+001  4.932669e+001 
3512500000  -4.963071e+001  3.936932e+001 
3515625000  -5.050204e+001  2.915127e+001 
3518750000  -5.159603e+001  3.047021e+001 
3521875000  -5.128165e+001  1.927614e+001 
3525000000  -5.307235e+001  2.190830e+001 
3528125000  -5.203512e+001  2.172352e+001 
3531250000  -5.136527e+001  1.354391e+001 
3534375000  -5.217511e+001  6.035913e-001 
3537500000  -5.235461e+001  -4.405686e+000 
3540625000  -5.399831e+001  -5.292649e+000 
3543750000  -5.515425e+001  5.506366e-001 
3546875000  -5.531174e+001  6.381347e+000 
3550000000  -5.300134e+001  -5.631326e-001 
3553125000  -5.424627e+001  -2.074557e+001 
3556250000  -5.524649e+001  -1.491017e+001 
3559375000  -5.474560e+001  -1.197921e+001 
3562500000  -5.478029e+001  -3.272176e+001 
3565625000  -5.639442e+001  -3.326911e+001 
3568750000  -5.598553e+001  -2.229232e+001 
3571875000  -5.708436e+001  -2.453529e+001 
3575000000  -5.853920e+001  -2.506532e+001 
3578125000  -5.924636e+001  -2.919841e+001 
3581250000  -5.930796e+001  -2.799243e+001 
3584375000  -5.694702e+001  -2.752980e+001 
3587500000  -5.683927e+001  -3.141493e+001 
3590625000  -5.921602e+001  -4.626020e+001 
3593750000  -5.963092e+001  -3.721255e+001 
3596875000  -5.767516e+001  -1.833607e+001 
3600000000  -5.734682e+001  -2.396873e+001 
3603125000  -5.669331e+001  -4.142401e+001 
3606250000  -5.661899e+001  -3.872058e+001 
3609375000  -5.951272e+001  -3.704303e+001 
3612500000  -5.933938e+001  -2.828816e+001 
3615625000  -5.806208e+001  -4.192424e+001 
3618750000  -5.947298e+001  -2.360038e+001 
3621875000  -5.773641e+001  -3.505742e+001 
3625000000  -5.781256e+001  -2.642705e+001 
3628125000  -5.687414e+001  -1.588188e+001 
3631250000  -5.675256e+001  -3.648555e+001 
3634375000  -5.939126e+001  -2.045452e+001 
3637500000  -5.705862e+001  -2.452816e+001 
3640625000  -5.512735e+001  -2.095373e+001 
3643750000  -5.313076e+001  -3.532872e+001 
3646875000  -5.339444e+001  -4.356245e+001 
3650000000  -5.306274e+001  -4.250978e+001 
3653125000  -5.194284e+001  -4.398349e+001 
3656250000  -5.213755e+001  -4.757387e+001 
3659375000  -5.176274e+001  -4.661670e+001 
3662500000  -5.135748e+001  -5.172471e+001 
3665625000  -5.012874e+001  -5.960574e+001 
3668750000  -4.876679e+001  -5.222741e+001 
3671875000  -4.738774e+001  -6.818733e+001 
3675000000  -4.763976e+001  -7.520969e+001 
3678125000  -4.781200e+001  -7.666199e+001 
3681250000  -4.669061e+001  -8.370336e+001 
3684375000  -4.708026e+001  -8.766579e+001 
3687500000  -4.699335e+001  -9.210162e+001 
3690625000  -4.682223e+001  -9.774274e+001 
3693750000  -4.732053e+001  -1.002471e+002 
3696875000  -4.668814e+001  -9.787943e+001 
3700000000  -4.556915e+001  -1.066396e+002 
3703125000  -4.517419e+001  -1.113196e+002 
3706250000  -4.637267e+001  -1.152210e+002 
3709375000  -4.494400e+001  -1.150327e+002 
3712500000  -4.411930e+001  -1.184992e+002 
3715625000  -4.217038e+001  -1.267572e+002 
3718750000  -4.210273e+001  -1.355567e+002 
3721875000  -4.156727e+001  -1.417205e+002 
3725000000  -4.193238e+001  -1.502849e+002 
3728125000  -4.154745e+001  -1.542787e+002 
3731250000  -4.081204e+001  -1.598720e+002 
3734375000  -4.033812e+001  -1.645710e+002 
3737500000  -4.096217e+001  -1.766373e+002 
3740625000  -4.066823e+001  1.791284e+002 
3743750000  -4.056976e+001  1.714703e+002 
3746875000  -4.068485e+001  1.665606e+002 
3750000000  -4.091164e+001  1.610643e+002 
3753125000  -4.030327e+001  1.572245e+002 
3756250000  -4.071460e+001  1.548538e+002 
3759375000  -4.043066e+001  1.492616e+002 
3762500000  -4.005439e+001  1.417311e+002 
3765625000  -4.083840e+001  1.362871e+002 
3768750000  -4.028169e+001  1.362027e+002 
3771875000  -3.838348e+001  1.312667e+002 
3775000000  -3.839978e+001  1.187055e+002 
3778125000  -3.899158e+001  1.134304e+002 
3781250000  -3.910266e+001  1.069517e+002 
3784375000  -3.866611e+001  1.022599e+002 
3787500000  -3.853422e+001  9.578748e+001 
3790625000  -3.923320e+001  8.760873e+001 
3793750000  -3.936425e+001  8.398695e+001 
3796875000  -3.825803e+001  8.134494e+001 
3800000000  -3.643522e+001  7.639297e+001 
3803125000  -3.812271e+001  6.183928e+001 
3806250000  -3.903350e+001  5.843610e+001 
3809375000  -3.860859e+001  5.537009e+001 
3812500000  -3.845867e+001  4.575872e+001 
3815625000  -3.965940e+001  3.636929e+001 
3818750000  -4.047478e+001  3.658012e+001 
3821875000  -4.019056e+001  4.722862e+001 
3825000000  -3.841562e+001  4.199355e+001 
3828125000  -3.727681e+001  2.336709e+001 
3831250000  -3.806855e+001  9.811196e+000 
3834375000  -4.006344e+001  9.875039e+000 
3837500000  -4.091949e+001  1.052217e+001 
3840625000  -3.936447e+001  8.630554e+000 
3843750000  -3.832399e+001  -4.856778e+000 
3846875000  -3.971187e+001  -1.182587e+001 
3850000000  -4.087884e+001  -5.566453e+000 
3853125000  -4.005080e+001  -4.523334e+000 
3856250000  -3.956007e+001  -1.339136e+001 
3859375000  -3.905788e+001  -2.049631e+001 
3862500000  -3.864211e+001  -2.940216e+001 
3865625000  -3.904457e+001  -3.532341e+001 
3868750000  -3.882712e+001  -3.639828e+001 
3871875000  -3.800449e+001  -4.281064e+001 
3875000000  -3.845597e+001  -5.424794e+001 
3878125000  -3.948994e+001  -5.511710e+001 
3881250000  -3.923342e+001  -5.503872e+001 
3884375000  -3.853188e+001  -6.282534e+001 
3887500000  -3.906058e+001  -6.819021e+001 
3890625000  -3.950520e+001  -7.306913e+001 
3893750000  -3.968109e+001  -7.490336e+001 
3896875000  -4.012215e+001  -7.906259e+001 
3900000000  -4.008930e+001  -8.177708e+001 
3903125000  -3.922816e+001  -8.750314e+001 
3906250000  -3.903591e+001  -9.025224e+001 
3909375000  -3.819408e+001  -9.789727e+001 
3912500000  -3.913967e+001  -1.084360e+002 
3915625000  -4.045420e+001  -1.088234e+002 
3918750000  -3.990802e+001  -1.086280e+002 
3921875000  -3.959458e+001  -1.148187e+002 
3925000000  -3.851117e+001  -1.187336e+002 
3928125000  -3.840625e+001  -1.277475e+002 
3931250000  -3.879386e+001  -1.343281e+002 
3934375000  -3.947126e+001  -1.374905e+002 
3937500000  -3.983665e+001  -1.386266e+002 
3940625000  -4.006689e+001  -1.406321e+002 
3943750000  -3.887740e+001  -1.434007e+002 
3946875000  -3.828994e+001  -1.514637e+002 
3950000000  -3.924424e+001  -1.589696e+002 
3953125000  -3.996102e+001  -1.612718e+002 
3956250000  -3.877299e+001  -1.611445e+002 
3959375000  -3.776800e+001  -1.673660e+002 
3962500000  -3.774952e+001  -1.754509e+002 
3965625000  -3.800814e+001  1.741706e+002 
3968750000  -3.873730e+001  1.673596e+002 
3971875000  -3.886105e+001  1.611746e+002 
3975000000  -3.828157e+001  1.592576e+002 
3978125000  -3.876565e+001  1.538635e+002 
3981250000  -3.841749e+001  1.472059e+002 
3984375000  -3.886445e+001  1.396512e+002 
3987500000  -3.955240e+001  1.364137e+002 
3990625000  -3.996456e+001  1.331237e+002 
3993750000  -4.005357e+001  1.310912e+002 
3996875000  -3.987959e+001  1.256759e+002 
4000000000  -4.051990e+001  1.200942e+002 
4003125000  -4.108444e+001  1.223778e+002 
4006250000  -3.944679e+001  1.196650e+002 
4009375000  -3.837354e+001  1.073241e+002 
4012500000  -4.012751e+001  9.993368e+001 
4015625000  -4.117421e+001  9.619238e+001 
4018750000  -4.123974e+001  9.761900e+001 
4021875000  -4.065007e+001  9.678453e+001 
4025000000  -4.024313e+001  9.003039e+001 
4028125000  -4.042943e+001  8.293224e+001 
4031250000  -4.087795e+001  7.853149e+001 
4034375000  -4.112756e+001  7.998849e+001 
4037500000  -4.102022e+001  7.760635e+001 
4040625000  -4.074435e+001  7.402146e+001 
4043750000  -4.086040e+001  7.044630e+001 
4046875000  -4.076369e+001  6.805119e+001 
4050000000  -4.020498e+001  6.216072e+001 
4053125000  -4.113065e+001  6.097123e+001 
4056250000  -4.122457e+001  6.387560e+001 
4059375000  -3.945142e+001  6.018235e+001 
4062500000  -3.880988e+001  5.243414e+001 
4065625000  -3.864985e+001  4.902978e+001 
4068750000  -3.792038e+001  4.152925e+001 
4071875000  -3.758809e+001  3.090504e+001 
4075000000  -3.815802e+001  2.415432e+001 
4078125000  -3.851384e+001  1.991338e+001 
4081250000  -3.805623e+001  1.498910e+001 
4084375000  -3.781002e+001  5.398030e+000 
4087500000  -3.850989e+001  -2.311572e+000 
4090625000  -3.885600e+001  -2.180243e+000 
4093750000  -3.858366e+001  -5.797469e+000 
4096875000  -3.835993e+001  -1.590271e+001 
4100000000  -3.941447e+001  -2.241976e+001 
4103125000  -4.031994e+001  -1.962061e+001 
4106250000  -3.977106e+001  -1.694108e+001 
4109375000  -3.883798e+001  -2.089700e+001 
4112500000  -3.847597e+001  -2.972380e+001 
4115625000  -3.886780e+001  -3.926842e+001 
4118750000  -3.870398e+001  -4.188850e+001 
4121875000  -3.864996e+001  -4.954460e+001 
4125000000  -3.969497e+001  -5.639704e+001 
4128125000  -4.052428e+001  -5.455486e+001 
4131250000  -3.956794e+001  -4.704769e+001 
4134375000  -3.735078e+001  -5.659489e+001 
4137500000  -3.766793e+001  -7.756429e+001 
4140625000  -3.995813e+001  -8.464014e+001 
4143750000  -4.094010e+001  -7.867073e+001 
4146875000  -4.031201e+001  -7.496763e+001 
4150000000  -3.932704e+001  -8.130830e+001 
4153125000  -3.981387e+001  -9.179045e+001 
4156250000  -4.068623e+001  -9.548445e+001 
4159375000  -4.088336e+001  -9.038650e+001 
4162500000  -3.958837e+001  -8.729568e+001 
4165625000  -3.843258e+001  -9.479542e+001 
4168750000  -3.802350e+001  -1.037086e+002 
4171875000  -3.797019e+001  -1.154481e+002 
4175000000  -3.874858e+001  -1.221030e+002 
4178125000  -3.922319e+001  -1.228456e+002 
4181250000  -3.896193e+001  -1.259635e+002 
4184375000  -3.903382e+001  -1.310378e+002 
4187500000  -3.893942e+001  -1.364587e+002 
4190625000  -3.924379e+001  -1.439827e+002 
4193750000  -3.983209e+001  -1.477319e+002 
4196875000  -4.074667e+001  -1.493158e+002 
4200000000  -4.198602e+001  -1.444151e+002 
4203125000  -4.034037e+001  -1.321273e+002 
4206250000  -3.731195e+001  -1.400485e+002 
4209375000  -3.658126e+001  -1.640567e+002 
4212500000  -3.885767e+001  -1.697667e+002 
4215625000  -3.971227e+001  -1.614538e+002 
4218750000  -3.782969e+001  -1.621609e+002 
4221875000  -3.622576e+001  -1.712538e+002 
4225000000  -3.714936e+001  1.736132e+002 
4228125000  -3.726611e+001  1.770344e+002 
4231250000  -3.568894e+001  1.689541e+002 
4234375000  -3.584042e+001  1.599392e+002 
4237500000  -3.557042e+001  1.533912e+002 
4240625000  -3.581630e+001  1.419982e+002 
4243750000  -3.691973e+001  1.346725e+002 
4246875000  -3.797682e+001  1.327751e+002 
4250000000  -3.780997e+001  1.339051e+002 
4253125000  -3.730623e+001  1.303811e+002 
4256250000  -3.722007e+001  1.259181e+002 
4259375000  -3.707729e+001  1.192295e+002 
4262500000  -3.745541e+001  1.119399e+002 
4265625000  -3.762512e+001  1.131213e+002 
4268750000  -3.663075e+001  1.055296e+002 
4271875000  -3.603933e+001  9.658516e+001 
4275000000  -3.583012e+001  8.829178e+001 
4278125000  -3.702648e+001  7.654807e+001 
4281250000  -3.836312e+001  7.344045e+001 
4284375000  -3.831842e+001  7.153101e+001 
4287500000  -3.982099e+001  6.770910e+001 
4290625000  -4.020483e+001  7.756322e+001 
4293750000  -3.810968e+001  7.732809e+001 
4296875000  -3.708057e+001  6.480750e+001 
4300000000  -3.825731e+001  5.377598e+001 
4303125000  -3.906127e+001  5.758356e+001 
4306250000  -3.801328e+001  5.863444e+001 
4309375000  -3.711891e+001  5.323096e+001 
4312500000  -3.727423e+001  4.210673e+001 
4315625000  -3.744823e+001  3.484335e+001 
4318750000  -3.810950e+001  3.003367e+001 
4321875000  -3.810480e+001  3.069553e+001 
4325000000  -3.716761e+001  3.052365e+001 
4328125000  -3.682223e+001  2.078718e+001 
4331250000  -3.707671e+001  9.703070e+000 
4334375000  -3.767977e+001  4.181998e+000 
4337500000  -3.883320e+001  1.679958e+000 
4340625000  -3.902464e+001  4.257499e+000 
4343750000  -3.804115e+001  3.437245e+000 
4346875000  -3.771529e+001  -5.544755e+000 
4350000000  -3.773360e+001  -1.298876e+001 
4353125000  -3.828544e+001  -1.973919e+001 
4356250000  -4.006128e+001  -1.816959e+001 
4359375000  -3.949220e+001  -5.265863e+000 
4362500000  -3.639381e+001  -1.063168e+001 
4365625000  -3.543472e+001  -2.858411e+001 
4368750000  -3.638813e+001  -3.873466e+001 
4371875000  -3.735168e+001  -3.880514e+001 
4375000000  -3.702784e+001  -4.118980e+001 
4378125000  -3.648243e+001  -4.965900e+001 
4381250000  -3.655243e+001  -5.634462e+001 
4384375000  -3.640909e+001  -6.322051e+001 
4387500000  -3.773016e+001  -7.065820e+001 
4390625000  -3.770679e+001  -7.128505e+001 
4393750000  -3.728314e+001  -7.231258e+001 
4396875000  -3.645240e+001  -7.590963e+001 
4400000000  -3.612295e+001  -8.587057e+001 
4403125000  -3.711025e+001  -9.649981e+001 
4406250000  -3.764098e+001  -9.795934e+001 
4409375000  -3.779124e+001  -1.023502e+002 
4412500000  -3.892560e+001  -1.073981e+002 
4415625000  -3.898510e+001  -1.021620e+002 
