!Agilent Technologies,E8363B,MY43030201,A.06.04.32
!Agilent E8363B: A.06.04.32
!Date: Tuesday, November 11, 2014 21:29:11
!Correction: S21(Response(S21)) 
!S1P File: Measurement: S21:
# Hz S  dB   R 50
3000000000  -4.059925e+001  8.749108e+001 
3003125000  -4.234326e+001  7.992112e+001 
3006250000  -4.215690e+001  7.818252e+001 
3009375000  -4.292734e+001  8.248528e+001 
3012500000  -4.158746e+001  7.891630e+001 
3015625000  -4.124718e+001  7.286098e+001 
3018750000  -4.163885e+001  7.282092e+001 
3021875000  -4.018433e+001  7.275827e+001 
3025000000  -3.889279e+001  6.946697e+001 
3028125000  -3.799964e+001  5.946262e+001 
3031250000  -3.693644e+001  4.770783e+001 
3034375000  -3.664063e+001  3.346664e+001 
3037500000  -3.749422e+001  2.293888e+001 
3040625000  -3.864883e+001  1.811169e+001 
3043750000  -3.924277e+001  1.036377e+001 
3046875000  -3.964508e+001  5.642866e+000 
3050000000  -4.070615e+001  6.829030e-002 
3053125000  -4.063396e+001  4.604063e+000 
3056250000  -4.021310e+001  7.734231e+000 
3059375000  -3.984833e+001  6.796410e+000 
3062500000  -3.809405e+001  9.759166e-001 
3065625000  -3.797921e+001  -7.895437e+000 
3068750000  -3.749842e+001  -1.636584e+001 
3071875000  -3.763796e+001  -1.814940e+001 
3075000000  -3.699980e+001  -2.468959e+001 
3078125000  -3.703147e+001  -3.065156e+001 
3081250000  -3.725713e+001  -3.718316e+001 
3084375000  -3.640489e+001  -4.197540e+001 
3087500000  -3.639274e+001  -4.863229e+001 
3090625000  -3.585519e+001  -6.112848e+001 
3093750000  -3.683288e+001  -6.937031e+001 
3096875000  -3.730140e+001  -7.395956e+001 
3100000000  -3.737682e+001  -7.755495e+001 
3103125000  -3.756951e+001  -8.038780e+001 
3106250000  -3.712921e+001  -8.566603e+001 
3109375000  -3.729518e+001  -8.987868e+001 
3112500000  -3.703654e+001  -9.550541e+001 
3115625000  -3.708698e+001  -9.991341e+001 
3118750000  -3.727716e+001  -1.025542e+002 
3121875000  -3.659956e+001  -1.136047e+002 
3125000000  -3.838063e+001  -1.180488e+002 
3128125000  -3.853791e+001  -1.112476e+002 
3131250000  -3.611472e+001  -1.155191e+002 
3134375000  -3.528022e+001  -1.323603e+002 
3137500000  -3.609063e+001  -1.455107e+002 
3140625000  -3.723973e+001  -1.483785e+002 
3143750000  -3.821354e+001  -1.500528e+002 
3146875000  -3.761636e+001  -1.480428e+002 
3150000000  -3.702795e+001  -1.512671e+002 
3153125000  -3.711021e+001  -1.610039e+002 
3156250000  -3.790646e+001  -1.560282e+002 
3159375000  -3.572564e+001  -1.580953e+002 
3162500000  -3.425391e+001  -1.739279e+002 
3165625000  -3.536820e+001  1.731886e+002 
3168750000  -3.542958e+001  1.721583e+002 
3171875000  -3.488928e+001  1.651765e+002 
3175000000  -3.547593e+001  1.563167e+002 
3178125000  -3.504210e+001  1.551750e+002 
3181250000  -3.432979e+001  1.465275e+002 
3184375000  -3.417490e+001  1.352391e+002 
3187500000  -3.534678e+001  1.190754e+002 
3190625000  -3.739480e+001  1.131764e+002 
3193750000  -3.756047e+001  1.193939e+002 
3196875000  -3.735929e+001  1.200064e+002 
3200000000  -3.639730e+001  1.148526e+002 
3203125000  -3.594928e+001  1.065123e+002 
3206250000  -3.620819e+001  1.000031e+002 
3209375000  -3.583342e+001  9.206794e+001 
3212500000  -3.626632e+001  8.472615e+001 
3215625000  -3.609992e+001  8.130601e+001 
3218750000  -3.701522e+001  7.079636e+001 
3221875000  -3.732413e+001  6.451115e+001 
3225000000  -3.702812e+001  5.971544e+001 
3228125000  -3.778725e+001  5.284746e+001 
3231250000  -3.827489e+001  5.021539e+001 
3234375000  -3.789806e+001  4.731684e+001 
3237500000  -3.804119e+001  4.407807e+001 
3240625000  -3.765609e+001  3.853038e+001 
3243750000  -3.759315e+001  2.843783e+001 
3246875000  -3.826365e+001  2.058170e+001 
3250000000  -3.883044e+001  1.755386e+001 
3253125000  -3.912183e+001  1.432023e+001 
3256250000  -3.872493e+001  5.678456e+000 
3259375000  -3.922763e+001  -4.244589e+000 
3262500000  -4.070334e+001  -8.686553e+000 
3265625000  -4.110231e+001  -5.005837e+000 
3268750000  -4.115435e+001  -4.226986e+000 
3271875000  -4.078912e+001  -9.196879e+000 
3275000000  -4.025019e+001  -1.588388e+001 
3278125000  -4.082047e+001  -2.246930e+001 
3281250000  -4.099507e+001  -2.349570e+001 
3284375000  -4.060109e+001  -2.959441e+001 
3287500000  -4.103968e+001  -3.437684e+001 
3290625000  -4.133264e+001  -4.219421e+001 
3293750000  -4.127823e+001  -4.605246e+001 
3296875000  -4.240976e+001  -4.809964e+001 
3300000000  -4.191617e+001  -4.855576e+001 
3303125000  -4.082938e+001  -5.419357e+001 
3306250000  -4.077757e+001  -6.151763e+001 
3309375000  -4.055873e+001  -6.797269e+001 
3312500000  -4.107127e+001  -8.025867e+001 
3315625000  -4.207718e+001  -8.816435e+001 
3318750000  -4.380115e+001  -9.292254e+001 
3321875000  -4.475395e+001  -8.988177e+001 
3325000000  -4.505483e+001  -8.293804e+001 
3328125000  -4.411171e+001  -8.357023e+001 
3331250000  -4.242427e+001  -8.062877e+001 
3334375000  -3.988771e+001  -9.525958e+001 
3337500000  -4.051072e+001  -1.139082e+002 
3340625000  -4.232961e+001  -1.245468e+002 
3343750000  -4.393284e+001  -1.226553e+002 
3346875000  -4.324121e+001  -1.245089e+002 
3350000000  -4.316973e+001  -1.272045e+002 
3353125000  -4.318805e+001  -1.328799e+002 
3356250000  -4.244724e+001  -1.430694e+002 
3359375000  -4.349591e+001  -1.547169e+002 
3362500000  -4.447750e+001  -1.615768e+002 
3365625000  -4.471683e+001  -1.620759e+002 
3368750000  -4.552484e+001  -1.673953e+002 
3371875000  -4.568301e+001  -1.737300e+002 
3375000000  -4.718350e+001  -1.751863e+002 
3378125000  -4.825503e+001  -1.763229e+002 
3381250000  -4.935639e+001  -1.680941e+002 
3384375000  -4.678127e+001  -1.497069e+002 
3387500000  -4.424254e+001  -1.718691e+002 
3390625000  -4.606002e+001  1.673524e+002 
3393750000  -4.733556e+001  1.718547e+002 
3396875000  -4.610061e+001  1.674731e+002 
3400000000  -4.634526e+001  1.555263e+002 
3403125000  -4.654031e+001  1.497720e+002 
3406250000  -4.799447e+001  1.423191e+002 
3409375000  -4.835967e+001  1.401165e+002 
3412500000  -4.918888e+001  1.319546e+002 
3415625000  -5.013864e+001  1.322036e+002 
3418750000  -5.031329e+001  1.368396e+002 
3421875000  -5.108532e+001  1.386925e+002 
3425000000  -5.023665e+001  1.385280e+002 
3428125000  -5.050258e+001  1.317938e+002 
3431250000  -5.043295e+001  1.210157e+002 
3434375000  -5.065424e+001  1.191981e+002 
3437500000  -5.209234e+001  1.165532e+002 
3440625000  -5.269674e+001  1.218038e+002 
3443750000  -5.059544e+001  1.193968e+002 
3446875000  -5.054071e+001  1.189145e+002 
3450000000  -5.029596e+001  1.107962e+002 
3453125000  -5.134875e+001  9.969135e+001 
3456250000  -5.290146e+001  9.929904e+001 
3459375000  -5.359517e+001  9.995910e+001 
3462500000  -5.266653e+001  1.003271e+002 
3465625000  -5.086221e+001  9.307811e+001 
3468750000  -5.165976e+001  9.891725e+001 
3471875000  -5.222229e+001  9.521447e+001 
3475000000  -5.157896e+001  9.002026e+001 
3478125000  -5.067580e+001  8.024119e+001 
3481250000  -5.292432e+001  8.118060e+001 
3484375000  -5.334926e+001  8.274917e+001 
3487500000  -5.185175e+001  8.281527e+001 
3490625000  -5.141781e+001  7.375974e+001 
3493750000  -5.154038e+001  6.280590e+001 
3496875000  -5.237331e+001  6.377449e+001 
3500000000  -5.218374e+001  5.654444e+001 
3503125000  -5.156623e+001  6.508514e+001 
3506250000  -5.030806e+001  5.191202e+001 
3509375000  -5.067237e+001  4.130628e+001 
3512500000  -5.025622e+001  3.043469e+001 
3515625000  -5.242532e+001  2.229004e+001 
3518750000  -5.232699e+001  3.226161e+001 
3521875000  -5.234485e+001  1.790944e+001 
3525000000  -5.297313e+001  1.772551e+001 
3528125000  -5.266822e+001  1.758430e+001 
3531250000  -5.181800e+001  1.940989e+001 
3534375000  -5.325647e+001  4.873609e+000 
3537500000  -5.430332e+001  -9.042290e+000 
3540625000  -5.448975e+001  -6.350668e+000 
3543750000  -5.665598e+001  3.384106e+000 
3546875000  -5.665921e+001  1.124811e+001 
3550000000  -5.373628e+001  1.627538e+000 
3553125000  -5.393771e+001  -1.857877e+001 
3556250000  -5.579609e+001  -2.120645e+001 
3559375000  -5.538896e+001  -1.479641e+001 
3562500000  -5.589248e+001  -2.466228e+001 
3565625000  -5.695147e+001  -2.821106e+001 
3568750000  -5.916641e+001  -2.425532e+001 
3571875000  -5.656747e+001  -2.568786e+001 
3575000000  -5.617749e+001  -2.114009e+001 
3578125000  -5.925993e+001  -2.861766e+001 
3581250000  -5.912829e+001  -1.659852e+001 
3584375000  -5.813594e+001  -8.956175e+000 
3587500000  -5.694231e+001  -1.650939e+001 
3590625000  -5.906813e+001  -3.914748e+001 
3593750000  -6.159510e+001  -1.781498e+001 
3596875000  -6.025568e+001  -2.052027e+001 
3600000000  -5.618446e+001  -1.509451e+001 
3603125000  -5.832179e+001  -3.807849e+001 
3606250000  -5.803989e+001  -3.390090e+001 
3609375000  -5.740369e+001  -3.008301e+001 
3612500000  -5.818545e+001  -3.157126e+001 
3615625000  -5.845771e+001  -2.599968e+001 
3618750000  -5.982175e+001  -3.211311e+001 
3621875000  -5.719795e+001  -3.148801e+001 
3625000000  -5.649884e+001  -3.444740e+001 
3628125000  -5.656128e+001  -2.394977e+001 
3631250000  -5.783398e+001  -2.805506e+001 
3634375000  -5.776589e+001  -3.438907e+001 
3637500000  -5.574034e+001  -2.543970e+001 
3640625000  -5.358691e+001  -1.505951e+001 
3643750000  -5.282525e+001  -2.989458e+001 
3646875000  -5.219384e+001  -3.843827e+001 
3650000000  -5.359208e+001  -4.734696e+001 
3653125000  -5.143043e+001  -4.121846e+001 
3656250000  -5.203434e+001  -5.202447e+001 
3659375000  -5.025597e+001  -4.896168e+001 
3662500000  -5.033040e+001  -5.199427e+001 
3665625000  -5.006604e+001  -5.567414e+001 
3668750000  -4.796017e+001  -5.585961e+001 
3671875000  -4.690500e+001  -6.509779e+001 
3675000000  -4.723673e+001  -7.651761e+001 
3678125000  -4.690707e+001  -7.792870e+001 
3681250000  -4.646605e+001  -8.373103e+001 
3684375000  -4.722648e+001  -8.672810e+001 
3687500000  -4.677925e+001  -9.481316e+001 
3690625000  -4.680262e+001  -1.004733e+002 
3693750000  -4.685160e+001  -1.049040e+002 
3696875000  -4.634260e+001  -1.032146e+002 
3700000000  -4.505616e+001  -1.093133e+002 
3703125000  -4.570480e+001  -1.182019e+002 
3706250000  -4.606592e+001  -1.168271e+002 
3709375000  -4.480688e+001  -1.163855e+002 
3712500000  -4.356740e+001  -1.221063e+002 
3715625000  -4.197736e+001  -1.296535e+002 
3718750000  -4.199715e+001  -1.347274e+002 
3721875000  -4.123619e+001  -1.476190e+002 
3725000000  -4.172981e+001  -1.531482e+002 
3728125000  -4.142224e+001  -1.558607e+002 
3731250000  -4.070617e+001  -1.616962e+002 
3734375000  -3.997897e+001  -1.694102e+002 
3737500000  -4.080921e+001  -1.797527e+002 
3740625000  -4.083663e+001  1.756144e+002 
3743750000  -4.049220e+001  1.703530e+002 
3746875000  -4.065310e+001  1.638762e+002 
3750000000  -4.091910e+001  1.601444e+002 
3753125000  -4.097378e+001  1.549278e+002 
3756250000  -4.071646e+001  1.526555e+002 
3759375000  -4.052185e+001  1.460979e+002 
3762500000  -4.017649e+001  1.395361e+002 
3765625000  -4.041738e+001  1.340291e+002 
3768750000  -3.997386e+001  1.351761e+002 
3771875000  -3.837205e+001  1.271529e+002 
3775000000  -3.862731e+001  1.172251e+002 
3778125000  -3.913099e+001  1.099059e+002 
3781250000  -3.889864e+001  1.059485e+002 
3784375000  -3.889756e+001  1.008400e+002 
3787500000  -3.865876e+001  9.430124e+001 
3790625000  -3.927284e+001  8.570671e+001 
3793750000  -3.916412e+001  8.215646e+001 
3796875000  -3.823808e+001  7.757559e+001 
3800000000  -3.663177e+001  7.336731e+001 
3803125000  -3.807012e+001  5.996747e+001 
3806250000  -3.890006e+001  5.619307e+001 
3809375000  -3.837246e+001  5.042495e+001 
3812500000  -3.866001e+001  4.398309e+001 
3815625000  -3.956919e+001  3.564344e+001 
3818750000  -4.074504e+001  3.277004e+001 
3821875000  -4.030133e+001  4.227734e+001 
3825000000  -3.852570e+001  3.917432e+001 
3828125000  -3.721268e+001  2.063649e+001 
3831250000  -3.811746e+001  8.087375e+000 
3834375000  -4.012714e+001  5.850133e+000 
3837500000  -4.068994e+001  9.717377e+000 
3840625000  -3.905527e+001  7.702844e+000 
3843750000  -3.833313e+001  -7.990622e+000 
3846875000  -3.976414e+001  -1.370015e+001 
3850000000  -4.069776e+001  -8.516930e+000 
3853125000  -3.987262e+001  -8.796212e+000 
3856250000  -3.956415e+001  -1.689496e+001 
3859375000  -3.865987e+001  -2.256594e+001 
3862500000  -3.857613e+001  -3.241761e+001 
3865625000  -3.905675e+001  -3.789579e+001 
3868750000  -3.888124e+001  -3.941786e+001 
3871875000  -3.807507e+001  -4.341998e+001 
3875000000  -3.859188e+001  -5.559656e+001 
3878125000  -3.957800e+001  -5.976622e+001 
3881250000  -3.956544e+001  -5.757901e+001 
3884375000  -3.890110e+001  -6.588029e+001 
3887500000  -3.919721e+001  -7.013580e+001 
3890625000  -3.945732e+001  -7.607524e+001 
3893750000  -3.985365e+001  -7.891154e+001 
3896875000  -4.007162e+001  -8.146961e+001 
3900000000  -4.032096e+001  -8.556756e+001 
3903125000  -3.944880e+001  -9.009265e+001 
3906250000  -3.916998e+001  -9.256187e+001 
3909375000  -3.831038e+001  -1.013443e+002 
3912500000  -3.921106e+001  -1.106810e+002 
3915625000  -4.035514e+001  -1.115987e+002 
3918750000  -4.003225e+001  -1.130310e+002 
3921875000  -3.945583e+001  -1.170989e+002 
3925000000  -3.875342e+001  -1.200578e+002 
3928125000  -3.837226e+001  -1.315387e+002 
3931250000  -3.895665e+001  -1.374268e+002 
3934375000  -3.952901e+001  -1.393599e+002 
3937500000  -4.003913e+001  -1.414846e+002 
3940625000  -3.987177e+001  -1.445923e+002 
3943750000  -3.877744e+001  -1.468038e+002 
3946875000  -3.845095e+001  -1.557998e+002 
3950000000  -3.947605e+001  -1.633856e+002 
3953125000  -4.051487e+001  -1.626772e+002 
3956250000  -3.878329e+001  -1.633091e+002 
3959375000  -3.805813e+001  -1.698074e+002 
3962500000  -3.772195e+001  -1.785073e+002 
3965625000  -3.785552e+001  1.734602e+002 
3968750000  -3.897071e+001  1.652323e+002 
3971875000  -3.890708e+001  1.588549e+002 
3975000000  -3.851307e+001  1.557394e+002 
3978125000  -3.864311e+001  1.494281e+002 
3981250000  -3.867508e+001  1.446220e+002 
3984375000  -3.899537e+001  1.359972e+002 
3987500000  -3.995852e+001  1.327017e+002 
3990625000  -4.012434e+001  1.324400e+002 
3993750000  -4.004796e+001  1.269213e+002 
3996875000  -4.003392e+001  1.219510e+002 
4000000000  -4.048565e+001  1.171809e+002 
4003125000  -4.130516e+001  1.208579e+002 
4006250000  -3.922361e+001  1.171618e+002 
4009375000  -3.860088e+001  1.029359e+002 
4012500000  -4.057115e+001  9.352170e+001 
4015625000  -4.187251e+001  9.386205e+001 
4018750000  -4.143388e+001  9.492582e+001 
4021875000  -4.081330e+001  9.103596e+001 
4025000000  -4.050527e+001  8.505627e+001 
4028125000  -4.074574e+001  7.885676e+001 
4031250000  -4.138971e+001  7.350007e+001 
4034375000  -4.150694e+001  7.364944e+001 
4037500000  -4.109580e+001  7.559949e+001 
4040625000  -4.121613e+001  6.877837e+001 
4043750000  -4.122263e+001  6.789226e+001 
4046875000  -4.085308e+001  6.280521e+001 
4050000000  -4.053054e+001  5.782132e+001 
4053125000  -4.125241e+001  5.696366e+001 
4056250000  -4.138327e+001  6.086803e+001 
4059375000  -3.952408e+001  5.811734e+001 
4062500000  -3.878345e+001  4.964905e+001 
4065625000  -3.887487e+001  4.406643e+001 
4068750000  -3.835948e+001  3.690480e+001 
4071875000  -3.779188e+001  2.838781e+001 
4075000000  -3.856010e+001  1.831460e+001 
4078125000  -3.881425e+001  1.620299e+001 
4081250000  -3.843532e+001  1.162189e+001 
4084375000  -3.835830e+001  2.454265e+000 
4087500000  -3.853066e+001  -4.611269e+000 
4090625000  -3.884976e+001  -5.925017e+000 
4093750000  -3.861808e+001  -9.242008e+000 
4096875000  -3.877312e+001  -1.853229e+001 
4100000000  -3.969526e+001  -2.665462e+001 
4103125000  -4.063671e+001  -2.383725e+001 
4106250000  -4.039192e+001  -2.046700e+001 
4109375000  -3.934293e+001  -2.387548e+001 
4112500000  -3.867062e+001  -3.361356e+001 
4115625000  -3.956169e+001  -4.239706e+001 
4118750000  -3.901414e+001  -4.523687e+001 
4121875000  -3.908751e+001  -5.292016e+001 
4125000000  -4.014857e+001  -5.809838e+001 
4128125000  -4.083323e+001  -5.666183e+001 
4131250000  -3.995923e+001  -5.019237e+001 
4134375000  -3.780425e+001  -6.167866e+001 
4137500000  -3.835252e+001  -8.102093e+001 
4140625000  -4.041066e+001  -8.994477e+001 
4143750000  -4.159002e+001  -8.393369e+001 
4146875000  -4.054618e+001  -7.918050e+001 
4150000000  -3.950616e+001  -8.554321e+001 
4153125000  -4.012258e+001  -9.532444e+001 
4156250000  -4.141266e+001  -9.867216e+001 
4159375000  -4.122404e+001  -9.277436e+001 
4162500000  -4.002493e+001  -8.927563e+001 
4165625000  -3.862847e+001  -9.901008e+001 
4168750000  -3.837173e+001  -1.078957e+002 
4171875000  -3.851039e+001  -1.164011e+002 
4175000000  -3.925271e+001  -1.246054e+002 
4178125000  -3.970560e+001  -1.261280e+002 
4181250000  -3.949759e+001  -1.286753e+002 
4184375000  -3.945842e+001  -1.334522e+002 
4187500000  -3.961670e+001  -1.385444e+002 
4190625000  -3.951962e+001  -1.458815e+002 
4193750000  -4.044853e+001  -1.513850e+002 
4196875000  -4.135359e+001  -1.519453e+002 
4200000000  -4.266066e+001  -1.471279e+002 
4203125000  -4.142573e+001  -1.348478e+002 
4206250000  -3.778550e+001  -1.440175e+002 
4209375000  -3.755761e+001  -1.676902e+002 
4212500000  -3.980444e+001  -1.744525e+002 
4215625000  -4.013153e+001  -1.669722e+002 
4218750000  -3.867285e+001  -1.644426e+002 
4221875000  -3.694907e+001  -1.747897e+002 
4225000000  -3.832722e+001  1.727365e+002 
4228125000  -3.804363e+001  1.749939e+002 
4231250000  -3.653009e+001  1.661647e+002 
4234375000  -3.642813e+001  1.551898e+002 
4237500000  -3.629725e+001  1.517772e+002 
4240625000  -3.643207e+001  1.403064e+002 
4243750000  -3.761430e+001  1.316725e+002 
4246875000  -3.873930e+001  1.318625e+002 
4250000000  -3.833114e+001  1.306108e+002 
4253125000  -3.791048e+001  1.280690e+002 
4256250000  -3.829835e+001  1.226295e+002 
4259375000  -3.787825e+001  1.167693e+002 
4262500000  -3.805159e+001  1.117476e+002 
4265625000  -3.805867e+001  1.104402e+002 
4268750000  -3.708354e+001  1.029967e+002 
4271875000  -3.674704e+001  9.434843e+001 
4275000000  -3.671193e+001  8.616441e+001 
4278125000  -3.770214e+001  7.360346e+001 
4281250000  -3.940799e+001  7.197564e+001 
4284375000  -3.900198e+001  6.825456e+001 
4287500000  -4.016681e+001  6.549769e+001 
4290625000  -4.096471e+001  7.482656e+001 
4293750000  -3.881741e+001  7.624850e+001 
4296875000  -3.782304e+001  6.247649e+001 
4300000000  -3.893856e+001  5.139095e+001 
4303125000  -3.985254e+001  5.652106e+001 
4306250000  -3.875194e+001  5.795600e+001 
4309375000  -3.771950e+001  5.266582e+001 
4312500000  -3.784516e+001  4.111431e+001 
4315625000  -3.797115e+001  3.283146e+001 
4318750000  -3.882190e+001  2.793651e+001 
4321875000  -3.884562e+001  2.989561e+001 
4325000000  -3.801001e+001  2.907840e+001 
4328125000  -3.747045e+001  1.922812e+001 
4331250000  -3.750941e+001  8.896388e+000 
4334375000  -3.842899e+001  1.978027e+000 
4337500000  -3.922530e+001  1.051659e+000 
4340625000  -3.960590e+001  4.495346e+000 
4343750000  -3.844856e+001  2.014139e+000 
4346875000  -3.846812e+001  -6.607791e+000 
4350000000  -3.837059e+001  -1.403429e+001 
4353125000  -3.906268e+001  -2.315354e+001 
4356250000  -4.125280e+001  -2.040110e+001 
4359375000  -4.004273e+001  -7.666136e+000 
4362500000  -3.680387e+001  -1.330714e+001 
4365625000  -3.613640e+001  -2.871059e+001 
4368750000  -3.742043e+001  -3.784308e+001 
4371875000  -3.815158e+001  -3.976138e+001 
4375000000  -3.748603e+001  -4.257603e+001 
4378125000  -3.693467e+001  -5.043990e+001 
4381250000  -3.725108e+001  -5.978073e+001 
4384375000  -3.712837e+001  -6.444265e+001 
4387500000  -3.842496e+001  -7.005986e+001 
4390625000  -3.871289e+001  -7.249704e+001 
4393750000  -3.810408e+001  -7.293337e+001 
4396875000  -3.750387e+001  -7.590687e+001 
4400000000  -3.702276e+001  -8.601604e+001 
4403125000  -3.790807e+001  -9.501297e+001 
4406250000  -3.847185e+001  -9.890704e+001 
4409375000  -3.873448e+001  -1.023781e+002 
4412500000  -3.976923e+001  -1.071031e+002 
4415625000  -3.947200e+001  -1.026394e+002 
