!Agilent Technologies,E8363B,MY43030201,A.06.04.32
!Agilent E8363B: A.06.04.32
!Date: Tuesday, November 11, 2014 21:31:30
!Correction: S21(Response(S21)) 
!S1P File: Measurement: S21:
# Hz S  dB   R 50
3000000000  -4.064635e+001  7.948534e+001 
3003125000  -4.215195e+001  7.305791e+001 
3006250000  -4.192180e+001  7.076511e+001 
3009375000  -4.263431e+001  7.683570e+001 
3012500000  -4.147763e+001  7.084766e+001 
3015625000  -4.142561e+001  6.534613e+001 
3018750000  -4.172169e+001  6.611987e+001 
3021875000  -4.013269e+001  6.555951e+001 
3025000000  -3.881392e+001  6.153822e+001 
3028125000  -3.789589e+001  5.142148e+001 
3031250000  -3.698462e+001  3.997505e+001 
3034375000  -3.675811e+001  2.581336e+001 
3037500000  -3.744691e+001  1.434834e+001 
3040625000  -3.880858e+001  1.023835e+001 
3043750000  -3.914471e+001  3.977375e+000 
3046875000  -3.965735e+001  -1.665841e+000 
3050000000  -4.092891e+001  -7.928005e+000 
3053125000  -4.053179e+001  -1.577754e+000 
3056250000  -4.049601e+001  6.059229e-001 
3059375000  -3.983747e+001  -1.205691e+000 
3062500000  -3.800916e+001  -6.349367e+000 
3065625000  -3.773244e+001  -1.530026e+001 
3068750000  -3.763205e+001  -2.387305e+001 
3071875000  -3.767241e+001  -2.634069e+001 
3075000000  -3.693243e+001  -3.245612e+001 
3078125000  -3.713854e+001  -3.844280e+001 
3081250000  -3.725004e+001  -4.458810e+001 
3084375000  -3.634432e+001  -4.959979e+001 
3087500000  -3.640298e+001  -5.638398e+001 
3090625000  -3.604550e+001  -6.867153e+001 
3093750000  -3.687245e+001  -7.622949e+001 
3096875000  -3.736414e+001  -8.230337e+001 
3100000000  -3.716873e+001  -8.458878e+001 
3103125000  -3.754276e+001  -8.796073e+001 
3106250000  -3.723311e+001  -9.321710e+001 
3109375000  -3.722660e+001  -9.771014e+001 
3112500000  -3.712229e+001  -1.035373e+002 
3115625000  -3.709171e+001  -1.070900e+002 
3118750000  -3.712305e+001  -1.106285e+002 
3121875000  -3.643924e+001  -1.220778e+002 
3125000000  -3.839324e+001  -1.242354e+002 
3128125000  -3.855227e+001  -1.170921e+002 
3131250000  -3.603775e+001  -1.235141e+002 
3134375000  -3.528989e+001  -1.407016e+002 
3137500000  -3.610553e+001  -1.532312e+002 
3140625000  -3.731705e+001  -1.559058e+002 
3143750000  -3.814364e+001  -1.582323e+002 
3146875000  -3.777523e+001  -1.565161e+002 
3150000000  -3.698783e+001  -1.601503e+002 
3153125000  -3.720354e+001  -1.692036e+002 
3156250000  -3.796284e+001  -1.641756e+002 
3159375000  -3.569386e+001  -1.656866e+002 
3162500000  -3.424216e+001  1.782397e+002 
3165625000  -3.549125e+001  1.660827e+002 
3168750000  -3.546973e+001  1.651392e+002 
3171875000  -3.489022e+001  1.573847e+002 
3175000000  -3.546997e+001  1.481166e+002 
3178125000  -3.498622e+001  1.471178e+002 
3181250000  -3.436635e+001  1.387382e+002 
3184375000  -3.408022e+001  1.274810e+002 
3187500000  -3.546008e+001  1.123555e+002 
3190625000  -3.728327e+001  1.055896e+002 
3193750000  -3.756903e+001  1.120806e+002 
3196875000  -3.737767e+001  1.132119e+002 
3200000000  -3.620424e+001  1.064403e+002 
3203125000  -3.586423e+001  9.921804e+001 
3206250000  -3.618679e+001  9.172331e+001 
3209375000  -3.567612e+001  8.372182e+001 
3212500000  -3.624981e+001  7.622551e+001 
3215625000  -3.608103e+001  7.424828e+001 
3218750000  -3.698949e+001  6.257273e+001 
3221875000  -3.728106e+001  5.664885e+001 
3225000000  -3.714890e+001  5.268880e+001 
3228125000  -3.771512e+001  4.439544e+001 
3231250000  -3.831599e+001  4.320728e+001 
3234375000  -3.793384e+001  4.070122e+001 
3237500000  -3.814936e+001  3.607868e+001 
3240625000  -3.761055e+001  3.059293e+001 
3243750000  -3.760177e+001  2.017295e+001 
3246875000  -3.824071e+001  1.346341e+001 
3250000000  -3.877819e+001  9.272399e+000 
3253125000  -3.898593e+001  6.405250e+000 
3256250000  -3.854536e+001  -2.024698e+000 
3259375000  -3.914430e+001  -1.203464e+001 
3262500000  -4.063412e+001  -1.630186e+001 
3265625000  -4.113530e+001  -1.313042e+001 
3268750000  -4.119691e+001  -1.263352e+001 
3271875000  -4.063269e+001  -1.676836e+001 
3275000000  -4.003781e+001  -2.480380e+001 
3278125000  -4.080765e+001  -3.041359e+001 
3281250000  -4.134483e+001  -3.076111e+001 
3284375000  -4.039477e+001  -3.789929e+001 
3287500000  -4.109258e+001  -4.043218e+001 
3290625000  -4.122807e+001  -4.901368e+001 
3293750000  -4.112363e+001  -5.482359e+001 
3296875000  -4.229603e+001  -5.627259e+001 
3300000000  -4.174505e+001  -5.642108e+001 
3303125000  -4.075339e+001  -6.195437e+001 
3306250000  -4.092169e+001  -6.920212e+001 
3309375000  -4.057005e+001  -7.585762e+001 
3312500000  -4.099277e+001  -8.879634e+001 
3315625000  -4.208398e+001  -9.622939e+001 
3318750000  -4.355236e+001  -1.010240e+002 
3321875000  -4.511173e+001  -9.654108e+001 
3325000000  -4.484895e+001  -9.032088e+001 
3328125000  -4.388602e+001  -8.984022e+001 
3331250000  -4.247747e+001  -8.564031e+001 
3334375000  -3.964966e+001  -1.024310e+002 
3337500000  -4.044487e+001  -1.233472e+002 
3340625000  -4.226335e+001  -1.332665e+002 
3343750000  -4.388224e+001  -1.318139e+002 
3346875000  -4.333258e+001  -1.319516e+002 
3350000000  -4.318260e+001  -1.351574e+002 
3353125000  -4.295903e+001  -1.447244e+002 
3356250000  -4.242863e+001  -1.512485e+002 
3359375000  -4.338890e+001  -1.629666e+002 
3362500000  -4.456913e+001  -1.670375e+002 
3365625000  -4.479978e+001  -1.722960e+002 
3368750000  -4.579617e+001  -1.766415e+002 
3371875000  -4.590679e+001  -1.788818e+002 
3375000000  -4.731817e+001  1.736284e+002 
3378125000  -4.845648e+001  1.797232e+002 
3381250000  -4.989782e+001  -1.770147e+002 
3384375000  -4.654649e+001  -1.610359e+002 
3387500000  -4.388396e+001  1.781614e+002 
3390625000  -4.592305e+001  1.605753e+002 
3393750000  -4.714159e+001  1.597630e+002 
3396875000  -4.625698e+001  1.597704e+002 
3400000000  -4.618255e+001  1.479540e+002 
3403125000  -4.718242e+001  1.425780e+002 
3406250000  -4.760983e+001  1.413076e+002 
3409375000  -4.823515e+001  1.370815e+002 
3412500000  -4.941532e+001  1.243349e+002 
3415625000  -4.975848e+001  1.209681e+002 
3418750000  -5.030746e+001  1.266761e+002 
3421875000  -5.173818e+001  1.282884e+002 
3425000000  -5.011691e+001  1.244565e+002 
3428125000  -5.023310e+001  1.208095e+002 
3431250000  -5.016337e+001  1.130424e+002 
3434375000  -5.130857e+001  1.132329e+002 
3437500000  -5.249533e+001  1.123586e+002 
3440625000  -5.144608e+001  1.114863e+002 
3443750000  -5.045950e+001  1.154279e+002 
3446875000  -5.076203e+001  1.096645e+002 
3450000000  -5.071334e+001  1.022258e+002 
3453125000  -5.034341e+001  9.022254e+001 
3456250000  -5.187158e+001  8.861918e+001 
3459375000  -5.344113e+001  9.439185e+001 
3462500000  -5.242244e+001  9.507375e+001 
3465625000  -5.161320e+001  8.491354e+001 
3468750000  -5.286198e+001  8.775410e+001 
3471875000  -5.264650e+001  8.416311e+001 
3475000000  -5.115794e+001  7.787798e+001 
3478125000  -5.166253e+001  7.120036e+001 
3481250000  -5.235979e+001  7.019224e+001 
3484375000  -5.194207e+001  7.472997e+001 
3487500000  -5.125650e+001  6.617534e+001 
3490625000  -5.127256e+001  6.377042e+001 
3493750000  -5.162119e+001  5.708126e+001 
3496875000  -5.174918e+001  5.705013e+001 
3500000000  -5.208767e+001  5.863041e+001 
3503125000  -5.154182e+001  5.351625e+001 
3506250000  -5.034219e+001  4.507217e+001 
3509375000  -4.943358e+001  3.345658e+001 
3512500000  -5.070726e+001  1.944931e+001 
3515625000  -5.184858e+001  1.623286e+001 
3518750000  -5.179479e+001  1.309387e+001 
3521875000  -5.288157e+001  7.591334e+000 
3525000000  -5.352671e+001  1.826046e+000 
3528125000  -5.294539e+001  1.286099e+001 
3531250000  -5.155400e+001  7.344182e+000 
3534375000  -5.329952e+001  -7.541748e+000 
3537500000  -5.382234e+001  -1.574469e+001 
3540625000  -5.448661e+001  -2.274343e+001 
3543750000  -5.593573e+001  -7.842454e+000 
3546875000  -5.501925e+001  -1.860978e+000 
3550000000  -5.481562e+001  -5.977907e+000 
3553125000  -5.397466e+001  -2.523783e+001 
3556250000  -5.607551e+001  -2.173785e+001 
3559375000  -5.551405e+001  -2.538558e+001 
3562500000  -5.764667e+001  -3.085334e+001 
3565625000  -5.614660e+001  -4.869044e+001 
3568750000  -5.813094e+001  -3.331806e+001 
3571875000  -5.920670e+001  -3.411123e+001 
3575000000  -5.819571e+001  -3.505959e+001 
3578125000  -6.006237e+001  -4.108588e+001 
3581250000  -5.794907e+001  -3.085198e+001 
3584375000  -5.825832e+001  -3.473241e+001 
3587500000  -5.829978e+001  -3.364400e+001 
3590625000  -5.814493e+001  -5.106438e+001 
3593750000  -5.844958e+001  -3.202235e+001 
3596875000  -5.852525e+001  -2.302218e+001 
3600000000  -5.790565e+001  -2.521516e+001 
3603125000  -5.908651e+001  -3.740906e+001 
3606250000  -5.894269e+001  -3.596552e+001 
3609375000  -5.829459e+001  -3.479188e+001 
3612500000  -5.726351e+001  -3.446085e+001 
3615625000  -5.737516e+001  -4.144510e+001 
3618750000  -6.011744e+001  -3.119768e+001 
3621875000  -5.712627e+001  -3.896532e+001 
3625000000  -5.682756e+001  -3.076939e+001 
3628125000  -5.517076e+001  -3.816857e+001 
3631250000  -5.676422e+001  -3.971671e+001 
3634375000  -5.781447e+001  -4.032729e+001 
3637500000  -5.459464e+001  -3.715517e+001 
3640625000  -5.374516e+001  -3.282535e+001 
3643750000  -5.296000e+001  -3.504473e+001 
3646875000  -5.359365e+001  -4.842625e+001 
3650000000  -5.353356e+001  -4.477750e+001 
3653125000  -5.148775e+001  -5.416727e+001 
3656250000  -5.249036e+001  -5.073511e+001 
3659375000  -5.148164e+001  -5.713431e+001 
3662500000  -5.050822e+001  -6.338589e+001 
3665625000  -5.002426e+001  -6.206492e+001 
3668750000  -4.783905e+001  -6.720152e+001 
3671875000  -4.749054e+001  -7.869318e+001 
3675000000  -4.705641e+001  -8.622677e+001 
3678125000  -4.746136e+001  -8.605956e+001 
3681250000  -4.636453e+001  -9.356509e+001 
3684375000  -4.672670e+001  -9.555253e+001 
3687500000  -4.655702e+001  -1.042912e+002 
3690625000  -4.634514e+001  -1.105038e+002 
3693750000  -4.707777e+001  -1.091323e+002 
3696875000  -4.638708e+001  -1.076019e+002 
3700000000  -4.558191e+001  -1.194285e+002 
3703125000  -4.545543e+001  -1.240375e+002 
3706250000  -4.555283e+001  -1.252505e+002 
3709375000  -4.498521e+001  -1.245486e+002 
3712500000  -4.353542e+001  -1.291760e+002 
3715625000  -4.187933e+001  -1.385664e+002 
3718750000  -4.173000e+001  -1.456833e+002 
3721875000  -4.137904e+001  -1.542318e+002 
3725000000  -4.152110e+001  -1.612247e+002 
3728125000  -4.135022e+001  -1.648567e+002 
3731250000  -4.083831e+001  -1.712593e+002 
3734375000  -4.029245e+001  -1.765329e+002 
3737500000  -4.078361e+001  1.725287e+002 
3740625000  -4.086966e+001  1.665993e+002 
3743750000  -4.050549e+001  1.601981e+002 
3746875000  -4.098579e+001  1.535754e+002 
3750000000  -4.093232e+001  1.490129e+002 
3753125000  -4.058136e+001  1.467718e+002 
3756250000  -4.078321e+001  1.416958e+002 
3759375000  -4.040223e+001  1.370659e+002 
3762500000  -3.991908e+001  1.295898e+002 
3765625000  -4.076983e+001  1.263918e+002 
3768750000  -4.009571e+001  1.271244e+002 
3771875000  -3.833516e+001  1.195598e+002 
3775000000  -3.863438e+001  1.067086e+002 
3778125000  -3.909379e+001  1.007363e+002 
3781250000  -3.926317e+001  9.737891e+001 
3784375000  -3.899363e+001  9.025727e+001 
3787500000  -3.851992e+001  8.604913e+001 
3790625000  -3.915150e+001  7.669881e+001 
3793750000  -3.917918e+001  7.318530e+001 
3796875000  -3.841445e+001  6.784074e+001 
3800000000  -3.643339e+001  6.471644e+001 
3803125000  -3.810078e+001  5.033315e+001 
3806250000  -3.907950e+001  4.720468e+001 
3809375000  -3.845655e+001  4.211899e+001 
3812500000  -3.842782e+001  3.402637e+001 
3815625000  -3.939824e+001  2.286446e+001 
3818750000  -4.066830e+001  2.391226e+001 
3821875000  -3.999002e+001  3.526686e+001 
3825000000  -3.825533e+001  2.993358e+001 
3828125000  -3.706399e+001  1.137956e+001 
3831250000  -3.820905e+001  -2.241183e+000 
3834375000  -4.026937e+001  -3.335804e+000 
3837500000  -4.060184e+001  9.707361e-001 
3840625000  -3.931788e+001  -2.095033e+000 
3843750000  -3.836197e+001  -1.778539e+001 
3846875000  -4.023114e+001  -2.418485e+001 
3850000000  -4.074514e+001  -1.702246e+001 
3853125000  -3.984369e+001  -1.585887e+001 
3856250000  -3.953942e+001  -2.495255e+001 
3859375000  -3.868624e+001  -3.220948e+001 
3862500000  -3.843120e+001  -4.287588e+001 
3865625000  -3.882543e+001  -4.762238e+001 
3868750000  -3.861711e+001  -4.752751e+001 
3871875000  -3.790324e+001  -5.530866e+001 
3875000000  -3.842009e+001  -6.609479e+001 
3878125000  -3.942950e+001  -6.886966e+001 
3881250000  -3.938685e+001  -6.698228e+001 
3884375000  -3.856732e+001  -7.536815e+001 
3887500000  -3.902286e+001  -8.032207e+001 
3890625000  -3.941008e+001  -8.531874e+001 
3893750000  -3.990553e+001  -8.755295e+001 
3896875000  -4.005408e+001  -9.264070e+001 
3900000000  -3.984193e+001  -9.425317e+001 
3903125000  -3.921114e+001  -9.925919e+001 
3906250000  -3.914281e+001  -1.016333e+002 
3909375000  -3.833054e+001  -1.110065e+002 
3912500000  -3.910971e+001  -1.197199e+002 
3915625000  -4.026370e+001  -1.204342e+002 
3918750000  -3.997112e+001  -1.222820e+002 
3921875000  -3.929197e+001  -1.269669e+002 
3925000000  -3.847643e+001  -1.315708e+002 
3928125000  -3.831301e+001  -1.416531e+002 
3931250000  -3.907013e+001  -1.484952e+002 
3934375000  -3.954790e+001  -1.501244e+002 
3937500000  -3.995053e+001  -1.503141e+002 
3940625000  -3.967302e+001  -1.538960e+002 
3943750000  -3.888959e+001  -1.569780e+002 
3946875000  -3.848932e+001  -1.659827e+002 
3950000000  -3.955466e+001  -1.738826e+002 
3953125000  -3.982466e+001  -1.719843e+002 
3956250000  -3.896748e+001  -1.751064e+002 
3959375000  -3.793543e+001  1.798402e+002 
3962500000  -3.757818e+001  1.735683e+002 
3965625000  -3.785366e+001  1.620568e+002 
3968750000  -3.889068e+001  1.556870e+002 
3971875000  -3.858976e+001  1.506243e+002 
3975000000  -3.826569e+001  1.458516e+002 
3978125000  -3.849725e+001  1.420185e+002 
3981250000  -3.869453e+001  1.349447e+002 
3984375000  -3.905536e+001  1.265178e+002 
3987500000  -3.968338e+001  1.234557e+002 
3990625000  -4.015272e+001  1.207987e+002 
3993750000  -3.979307e+001  1.172402e+002 
3996875000  -4.007796e+001  1.128748e+002 
4000000000  -4.090008e+001  1.076634e+002 
4003125000  -4.123995e+001  1.086637e+002 
4006250000  -3.936027e+001  1.080529e+002 
4009375000  -3.854096e+001  9.264236e+001 
4012500000  -4.039048e+001  8.390255e+001 
4015625000  -4.163846e+001  8.499422e+001 
4018750000  -4.136325e+001  8.158335e+001 
4021875000  -4.093214e+001  8.409720e+001 
4025000000  -4.025109e+001  7.688019e+001 
4028125000  -4.055805e+001  6.969630e+001 
4031250000  -4.141041e+001  6.477810e+001 
4034375000  -4.175727e+001  6.593544e+001 
4037500000  -4.127423e+001  6.620758e+001 
4040625000  -4.096866e+001  5.849375e+001 
4043750000  -4.116640e+001  5.657626e+001 
4046875000  -4.081537e+001  5.485478e+001 
4050000000  -4.076304e+001  4.785280e+001 
4053125000  -4.163591e+001  4.698013e+001 
4056250000  -4.135637e+001  4.797905e+001 
4059375000  -3.932399e+001  4.833853e+001 
4062500000  -3.858951e+001  3.957179e+001 
4065625000  -3.908322e+001  3.395761e+001 
4068750000  -3.823876e+001  2.749244e+001 
4071875000  -3.794233e+001  1.658932e+001 
4075000000  -3.851423e+001  9.827964e+000 
4078125000  -3.877386e+001  7.346146e+000 
4081250000  -3.807058e+001  7.843629e-001 
4084375000  -3.818424e+001  -6.941654e+000 
4087500000  -3.852127e+001  -1.452941e+001 
4090625000  -3.930983e+001  -1.730872e+001 
4093750000  -3.881546e+001  -2.013886e+001 
4096875000  -3.864463e+001  -2.902344e+001 
4100000000  -3.960941e+001  -3.632117e+001 
4103125000  -4.062527e+001  -3.395593e+001 
4106250000  -4.014009e+001  -3.111734e+001 
4109375000  -3.919352e+001  -3.491097e+001 
4112500000  -3.869606e+001  -4.380394e+001 
4115625000  -3.946313e+001  -5.106527e+001 
4118750000  -3.906884e+001  -5.595404e+001 
4121875000  -3.907932e+001  -6.065245e+001 
4125000000  -4.004374e+001  -6.935829e+001 
4128125000  -4.088414e+001  -6.417499e+001 
4131250000  -3.998871e+001  -6.280955e+001 
4134375000  -3.787930e+001  -7.162209e+001 
4137500000  -3.824852e+001  -9.281720e+001 
4140625000  -4.036457e+001  -9.780099e+001 
4143750000  -4.154834e+001  -9.197872e+001 
4146875000  -4.082417e+001  -8.829292e+001 
4150000000  -3.962090e+001  -9.672894e+001 
4153125000  -4.022738e+001  -1.046228e+002 
4156250000  -4.112297e+001  -1.071439e+002 
4159375000  -4.118179e+001  -1.025087e+002 
4162500000  -3.986588e+001  -1.010437e+002 
4165625000  -3.887227e+001  -1.072733e+002 
4168750000  -3.848219e+001  -1.187197e+002 
4171875000  -3.854132e+001  -1.274684e+002 
4175000000  -3.919873e+001  -1.349133e+002 
4178125000  -3.991912e+001  -1.347105e+002 
4181250000  -3.925391e+001  -1.396476e+002 
4184375000  -3.920790e+001  -1.441008e+002 
4187500000  -3.938262e+001  -1.493237e+002 
4190625000  -3.950037e+001  -1.573283e+002 
4193750000  -4.070803e+001  -1.626846e+002 
4196875000  -4.148108e+001  -1.631246e+002 
4200000000  -4.229179e+001  -1.571720e+002 
4203125000  -4.095926e+001  -1.439669e+002 
4206250000  -3.750456e+001  -1.539605e+002 
4209375000  -3.747020e+001  -1.768746e+002 
4212500000  -3.961757e+001  1.756229e+002 
4215625000  -4.009021e+001  -1.777332e+002 
4218750000  -3.830727e+001  -1.766158e+002 
4221875000  -3.661438e+001  1.742204e+002 
4225000000  -3.784340e+001  1.619686e+002 
4228125000  -3.789090e+001  1.646068e+002 
4231250000  -3.627955e+001  1.566334e+002 
4234375000  -3.663129e+001  1.456312e+002 
4237500000  -3.625781e+001  1.400710e+002 
4240625000  -3.621475e+001  1.278877e+002 
4243750000  -3.764000e+001  1.216407e+002 
4246875000  -3.859732e+001  1.200379e+002 
4250000000  -3.844291e+001  1.205433e+002 
4253125000  -3.818164e+001  1.162583e+002 
4256250000  -3.811613e+001  1.126880e+002 
4259375000  -3.777102e+001  1.084081e+002 
4262500000  -3.802358e+001  1.033673e+002 
4265625000  -3.803325e+001  1.015447e+002 
4268750000  -3.706582e+001  9.293813e+001 
4271875000  -3.689903e+001  8.484666e+001 
4275000000  -3.647331e+001  7.486819e+001 
4278125000  -3.793789e+001  6.405164e+001 
4281250000  -3.910590e+001  6.103114e+001 
4284375000  -3.905757e+001  6.049150e+001 
4287500000  -4.046624e+001  5.481256e+001 
4290625000  -4.079103e+001  6.474319e+001 
4293750000  -3.872660e+001  6.646244e+001 
4296875000  -3.766381e+001  5.255657e+001 
4300000000  -3.910793e+001  4.151160e+001 
4303125000  -3.968406e+001  4.543195e+001 
4306250000  -3.891161e+001  4.849971e+001 
4309375000  -3.772141e+001  4.055787e+001 
4312500000  -3.769252e+001  3.130547e+001 
4315625000  -3.791574e+001  2.247454e+001 
4318750000  -3.876173e+001  1.688492e+001 
4321875000  -3.875010e+001  1.845254e+001 
4325000000  -3.807905e+001  1.721462e+001 
4328125000  -3.757093e+001  8.692080e+000 
4331250000  -3.776329e+001  -1.913244e+000 
4334375000  -3.818017e+001  -9.042975e+000 
4337500000  -3.962326e+001  -8.307989e+000 
4340625000  -3.979253e+001  -5.290299e+000 
4343750000  -3.866639e+001  -8.194357e+000 
4346875000  -3.837853e+001  -1.901090e+001 
4350000000  -3.851363e+001  -2.473474e+001 
4353125000  -3.894425e+001  -3.318514e+001 
4356250000  -4.127728e+001  -3.029455e+001 
4359375000  -3.980286e+001  -1.762694e+001 
4362500000  -3.691720e+001  -2.163381e+001 
4365625000  -3.597998e+001  -4.020523e+001 
4368750000  -3.744651e+001  -4.918281e+001 
4371875000  -3.802057e+001  -4.969022e+001 
4375000000  -3.740458e+001  -5.363879e+001 
4378125000  -3.714090e+001  -6.201882e+001 
4381250000  -3.710401e+001  -6.996021e+001 
4384375000  -3.714535e+001  -7.622681e+001 
4387500000  -3.826031e+001  -8.206535e+001 
4390625000  -3.843917e+001  -8.354295e+001 
4393750000  -3.821086e+001  -8.335265e+001 
4396875000  -3.745189e+001  -8.726424e+001 
4400000000  -3.696165e+001  -9.670131e+001 
4403125000  -3.815396e+001  -1.076173e+002 
4406250000  -3.842001e+001  -1.105263e+002 
4409375000  -3.887175e+001  -1.126962e+002 
4412500000  -4.001373e+001  -1.171700e+002 
4415625000  -3.988208e+001  -1.127427e+002 
