!Agilent Technologies,E8363B,MY43030201,A.06.04.32
!Agilent E8363B: A.06.04.32
!Date: Tuesday, November 11, 2014 21:26:12
!Correction: S21(Response(S21)) 
!S1P File: Measurement: S21:
# Hz S  dB   R 50
3000000000  -4.051888e+001  9.584364e+001 
3003125000  -4.210409e+001  8.842459e+001 
3006250000  -4.217125e+001  8.668510e+001 
3009375000  -4.259959e+001  9.124679e+001 
3012500000  -4.150939e+001  8.809796e+001 
3015625000  -4.126265e+001  8.068639e+001 
3018750000  -4.189246e+001  8.079123e+001 
3021875000  -4.018435e+001  8.217584e+001 
3025000000  -3.901426e+001  7.679720e+001 
3028125000  -3.801469e+001  6.841043e+001 
3031250000  -3.699268e+001  5.652482e+001 
3034375000  -3.671804e+001  4.303319e+001 
3037500000  -3.733377e+001  3.094117e+001 
3040625000  -3.882352e+001  2.650980e+001 
3043750000  -3.919894e+001  1.925294e+001 
3046875000  -3.953619e+001  1.344861e+001 
3050000000  -4.081549e+001  8.205070e+000 
3053125000  -4.055018e+001  1.325772e+001 
3056250000  -4.032695e+001  1.720497e+001 
3059375000  -3.985271e+001  1.377695e+001 
3062500000  -3.826043e+001  9.906892e+000 
3065625000  -3.784512e+001  7.676768e-001 
3068750000  -3.768559e+001  -7.162859e+000 
3071875000  -3.758997e+001  -1.052498e+001 
3075000000  -3.713404e+001  -1.631441e+001 
3078125000  -3.703038e+001  -2.188150e+001 
3081250000  -3.739616e+001  -2.855928e+001 
3084375000  -3.638135e+001  -3.339789e+001 
3087500000  -3.648817e+001  -3.949495e+001 
3090625000  -3.606531e+001  -5.135040e+001 
3093750000  -3.680869e+001  -5.978883e+001 
3096875000  -3.736810e+001  -6.577575e+001 
3100000000  -3.735135e+001  -6.821964e+001 
3103125000  -3.746842e+001  -7.135796e+001 
3106250000  -3.717957e+001  -7.693950e+001 
3109375000  -3.731757e+001  -8.101174e+001 
3112500000  -3.720640e+001  -8.648363e+001 
3115625000  -3.719520e+001  -9.045016e+001 
3118750000  -3.733911e+001  -9.306757e+001 
3121875000  -3.660122e+001  -1.051214e+002 
3125000000  -3.833075e+001  -1.090343e+002 
3128125000  -3.872359e+001  -1.020655e+002 
3131250000  -3.609149e+001  -1.062446e+002 
3134375000  -3.538777e+001  -1.240492e+002 
3137500000  -3.607283e+001  -1.367644e+002 
3140625000  -3.721407e+001  -1.406230e+002 
3143750000  -3.836348e+001  -1.416037e+002 
3146875000  -3.757275e+001  -1.391964e+002 
3150000000  -3.685009e+001  -1.434331e+002 
3153125000  -3.706041e+001  -1.528566e+002 
3156250000  -3.797363e+001  -1.486939e+002 
3159375000  -3.599057e+001  -1.486574e+002 
3162500000  -3.426895e+001  -1.644966e+002 
3165625000  -3.546977e+001  -1.780308e+002 
3168750000  -3.553198e+001  -1.777501e+002 
3171875000  -3.497495e+001  1.743626e+002 
3175000000  -3.545070e+001  1.642141e+002 
3178125000  -3.522282e+001  1.637315e+002 
3181250000  -3.445249e+001  1.552923e+002 
3184375000  -3.405233e+001  1.435409e+002 
3187500000  -3.544145e+001  1.289067e+002 
3190625000  -3.730756e+001  1.214760e+002 
3193750000  -3.772819e+001  1.274180e+002 
3196875000  -3.745650e+001  1.289788e+002 
3200000000  -3.645127e+001  1.236272e+002 
3203125000  -3.589362e+001  1.162972e+002 
3206250000  -3.617252e+001  1.084639e+002 
3209375000  -3.581250e+001  1.017490e+002 
3212500000  -3.632275e+001  9.364922e+001 
3215625000  -3.597733e+001  9.004266e+001 
3218750000  -3.691448e+001  7.995998e+001 
3221875000  -3.746819e+001  7.311148e+001 
3225000000  -3.724782e+001  6.938450e+001 
3228125000  -3.782848e+001  6.238451e+001 
3231250000  -3.834441e+001  5.837155e+001 
3234375000  -3.811319e+001  5.662941e+001 
3237500000  -3.806308e+001  5.305838e+001 
3240625000  -3.761403e+001  4.762833e+001 
3243750000  -3.749123e+001  3.751791e+001 
3246875000  -3.824524e+001  2.992002e+001 
3250000000  -3.870804e+001  2.683420e+001 
3253125000  -3.907876e+001  2.284056e+001 
3256250000  -3.863201e+001  1.530311e+001 
3259375000  -3.911101e+001  5.105024e+000 
3262500000  -4.083196e+001  6.602757e-002 
3265625000  -4.122371e+001  3.550187e+000 
3268750000  -4.138599e+001  3.844480e+000 
3271875000  -4.083008e+001  -1.064730e-001 
3275000000  -4.010894e+001  -7.570937e+000 
3278125000  -4.100616e+001  -1.275730e+001 
3281250000  -4.097484e+001  -1.322300e+001 
3284375000  -4.060247e+001  -1.980844e+001 
3287500000  -4.111614e+001  -2.525335e+001 
3290625000  -4.142776e+001  -3.218030e+001 
3293750000  -4.124350e+001  -3.639693e+001 
3296875000  -4.248065e+001  -3.977060e+001 
3300000000  -4.209079e+001  -3.814111e+001 
3303125000  -4.090529e+001  -4.457537e+001 
3306250000  -4.074300e+001  -5.100958e+001 
3309375000  -4.072817e+001  -5.886463e+001 
3312500000  -4.114280e+001  -7.195988e+001 
3315625000  -4.200094e+001  -7.797217e+001 
3318750000  -4.357801e+001  -8.244357e+001 
3321875000  -4.461736e+001  -8.085482e+001 
3325000000  -4.503072e+001  -7.471328e+001 
3328125000  -4.435909e+001  -7.524708e+001 
3331250000  -4.300466e+001  -6.989535e+001 
3334375000  -4.009953e+001  -8.456501e+001 
3337500000  -4.055693e+001  -1.057780e+002 
3340625000  -4.217624e+001  -1.153635e+002 
3343750000  -4.365245e+001  -1.156378e+002 
3346875000  -4.357360e+001  -1.154540e+002 
3350000000  -4.306650e+001  -1.177336e+002 
3353125000  -4.295213e+001  -1.259131e+002 
3356250000  -4.265482e+001  -1.349494e+002 
3359375000  -4.365566e+001  -1.445563e+002 
3362500000  -4.454311e+001  -1.486689e+002 
3365625000  -4.449374e+001  -1.523460e+002 
3368750000  -4.523967e+001  -1.587191e+002 
3371875000  -4.588783e+001  -1.613393e+002 
3375000000  -4.773545e+001  -1.663995e+002 
3378125000  -4.824606e+001  -1.645192e+002 
3381250000  -4.877804e+001  -1.558193e+002 
3384375000  -4.718318e+001  -1.438319e+002 
3387500000  -4.436525e+001  -1.591299e+002 
3390625000  -4.608668e+001  1.782915e+002 
3393750000  -4.727019e+001  1.753195e+002 
3396875000  -4.632027e+001  1.763553e+002 
3400000000  -4.642606e+001  1.654290e+002 
3403125000  -4.685572e+001  1.570684e+002 
3406250000  -4.794254e+001  1.559977e+002 
3409375000  -4.874805e+001  1.480398e+002 
3412500000  -4.881156e+001  1.445610e+002 
3415625000  -4.995705e+001  1.429321e+002 
3418750000  -5.006105e+001  1.410888e+002 
3421875000  -5.135288e+001  1.469356e+002 
3425000000  -5.067889e+001  1.440219e+002 
3428125000  -5.069859e+001  1.406730e+002 
3431250000  -4.999986e+001  1.287571e+002 
3434375000  -5.084009e+001  1.290282e+002 
3437500000  -5.147312e+001  1.258927e+002 
3440625000  -5.301321e+001  1.256477e+002 
3443750000  -5.186017e+001  1.307822e+002 
3446875000  -5.103092e+001  1.312264e+002 
3450000000  -5.117707e+001  1.174545e+002 
3453125000  -5.168853e+001  1.051411e+002 
3456250000  -5.200954e+001  1.030826e+002 
3459375000  -5.340176e+001  1.080551e+002 
3462500000  -5.316477e+001  1.135866e+002 
3465625000  -5.190856e+001  1.049444e+002 
3468750000  -5.272623e+001  1.106533e+002 
3471875000  -5.197734e+001  9.979017e+001 
3475000000  -5.223180e+001  9.721458e+001 
3478125000  -5.207105e+001  8.982671e+001 
3481250000  -5.245527e+001  9.147201e+001 
3484375000  -5.348546e+001  1.010943e+002 
3487500000  -5.220557e+001  8.631634e+001 
3490625000  -5.076212e+001  7.800490e+001 
3493750000  -5.147219e+001  7.933336e+001 
3496875000  -5.189026e+001  7.313631e+001 
3500000000  -5.196045e+001  7.215446e+001 
3503125000  -5.145795e+001  7.718546e+001 
3506250000  -5.125845e+001  6.773032e+001 
3509375000  -4.999794e+001  5.307889e+001 
3512500000  -5.011343e+001  4.435251e+001 
3515625000  -5.195810e+001  3.532576e+001 
3518750000  -5.211676e+001  4.038376e+001 
3521875000  -5.226508e+001  3.020214e+001 
3525000000  -5.338332e+001  2.154241e+001 
3528125000  -5.252784e+001  3.066550e+001 
3531250000  -5.268672e+001  2.944622e+001 
3534375000  -5.269419e+001  1.338459e+001 
3537500000  -5.371593e+001  6.103957e+000 
3540625000  -5.490739e+001  -2.873609e+000 
3543750000  -5.565251e+001  4.059592e+000 
3546875000  -5.578783e+001  1.549358e+001 
3550000000  -5.435639e+001  1.036716e+001 
3553125000  -5.540379e+001  -2.920835e+000 
3556250000  -5.610489e+001  -7.979790e+000 
3559375000  -5.863730e+001  1.350674e+000 
3562500000  -5.624763e+001  -2.433192e+001 
3565625000  -5.672114e+001  -2.904233e+001 
3568750000  -5.673848e+001  -1.543743e+001 
3571875000  -5.742691e+001  -1.263720e+001 
3575000000  -6.218204e+001  2.694020e+000 
3578125000  -6.041311e+001  -2.648559e+001 
3581250000  -5.898828e+001  -1.114643e+001 
3584375000  -5.809534e+001  5.899981e-001 
3587500000  -5.909060e+001  -6.084033e+000 
3590625000  -5.791481e+001  -2.184781e+001 
3593750000  -5.940164e+001  -1.718622e+001 
3596875000  -6.001649e+001  -2.914567e+000 
3600000000  -5.774600e+001  -1.821936e+000 
3603125000  -5.842926e+001  -2.418501e+001 
3606250000  -5.813400e+001  -2.312247e+001 
3609375000  -5.755000e+001  -1.312269e+001 
3612500000  -5.696891e+001  -1.636952e+001 
3615625000  -5.677962e+001  -2.481085e+001 
3618750000  -6.168598e+001  -2.754139e+001 
3621875000  -5.865334e+001  -2.757134e+001 
3625000000  -5.652204e+001  -1.848203e+001 
3628125000  -5.705917e+001  -1.469699e+001 
3631250000  -5.673207e+001  -2.159949e+001 
3634375000  -5.650091e+001  -1.409040e+001 
3637500000  -5.691069e+001  -1.337530e+001 
3640625000  -5.283239e+001  -1.151050e+001 
3643750000  -5.388129e+001  -2.139998e+001 
3646875000  -5.351245e+001  -3.039546e+001 
3650000000  -5.270061e+001  -3.033697e+001 
3653125000  -5.242956e+001  -3.621109e+001 
3656250000  -5.186637e+001  -3.997571e+001 
3659375000  -5.182628e+001  -3.744886e+001 
3662500000  -5.042785e+001  -4.559336e+001 
3665625000  -4.930638e+001  -4.664046e+001 
3668750000  -4.878452e+001  -4.891605e+001 
3671875000  -4.718719e+001  -5.965764e+001 
3675000000  -4.690751e+001  -6.406837e+001 
3678125000  -4.714850e+001  -6.872942e+001 
3681250000  -4.681100e+001  -7.515477e+001 
3684375000  -4.680685e+001  -7.766015e+001 
3687500000  -4.625233e+001  -8.271817e+001 
3690625000  -4.694495e+001  -9.068948e+001 
3693750000  -4.693161e+001  -9.255445e+001 
3696875000  -4.616521e+001  -9.030266e+001 
3700000000  -4.534339e+001  -9.799617e+001 
3703125000  -4.542003e+001  -1.062874e+002 
3706250000  -4.582575e+001  -1.047054e+002 
3709375000  -4.474049e+001  -1.067652e+002 
3712500000  -4.332890e+001  -1.095654e+002 
3715625000  -4.189455e+001  -1.191629e+002 
3718750000  -4.154319e+001  -1.240385e+002 
3721875000  -4.139971e+001  -1.336528e+002 
3725000000  -4.185777e+001  -1.410401e+002 
3728125000  -4.134805e+001  -1.443675e+002 
3731250000  -4.065652e+001  -1.498622e+002 
3734375000  -3.983999e+001  -1.591733e+002 
3737500000  -4.076696e+001  -1.676746e+002 
3740625000  -4.091112e+001  -1.734197e+002 
3743750000  -4.051394e+001  -1.792187e+002 
3746875000  -4.079812e+001  1.745763e+002 
3750000000  -4.113060e+001  1.685123e+002 
3753125000  -4.057532e+001  1.658550e+002 
3756250000  -4.048269e+001  1.619034e+002 
3759375000  -4.063076e+001  1.563017e+002 
3762500000  -4.020182e+001  1.511412e+002 
3765625000  -4.043434e+001  1.461718e+002 
3768750000  -4.030505e+001  1.431611e+002 
3771875000  -3.873001e+001  1.398133e+002 
3775000000  -3.856683e+001  1.267904e+002 
3778125000  -3.898799e+001  1.214700e+002 
3781250000  -3.882078e+001  1.175990e+002 
3784375000  -3.874992e+001  1.102692e+002 
3787500000  -3.847255e+001  1.045498e+002 
3790625000  -3.904673e+001  9.500945e+001 
3793750000  -3.933737e+001  9.435252e+001 
3796875000  -3.827987e+001  8.866880e+001 
3800000000  -3.663225e+001  8.392257e+001 
3803125000  -3.828609e+001  7.110218e+001 
3806250000  -3.906044e+001  6.704252e+001 
3809375000  -3.853621e+001  6.160318e+001 
3812500000  -3.847992e+001  5.168702e+001 
3815625000  -3.949192e+001  4.542202e+001 
3818750000  -4.057948e+001  4.415231e+001 
3821875000  -4.040170e+001  5.368035e+001 
3825000000  -3.843423e+001  4.979657e+001 
3828125000  -3.717434e+001  3.178559e+001 
3831250000  -3.829422e+001  1.998709e+001 
3834375000  -3.996832e+001  1.699442e+001 
3837500000  -4.071289e+001  2.111763e+001 
3840625000  -3.906026e+001  1.793988e+001 
3843750000  -3.828428e+001  3.936930e+000 
3846875000  -3.993555e+001  -3.768434e+000 
3850000000  -4.103361e+001  2.707610e+000 
3853125000  -4.029398e+001  3.687142e+000 
3856250000  -3.982179e+001  -2.999962e+000 
3859375000  -3.897369e+001  -1.093155e+001 
3862500000  -3.852465e+001  -2.199110e+001 
3865625000  -3.902124e+001  -2.692551e+001 
3868750000  -3.897234e+001  -2.753087e+001 
3871875000  -3.815236e+001  -3.350877e+001 
3875000000  -3.866966e+001  -4.492168e+001 
3878125000  -3.980429e+001  -4.595757e+001 
3881250000  -3.965263e+001  -4.831659e+001 
3884375000  -3.904694e+001  -5.442545e+001 
3887500000  -3.935633e+001  -5.982276e+001 
3890625000  -3.978741e+001  -6.455203e+001 
3893750000  -3.989231e+001  -6.742850e+001 
3896875000  -3.996614e+001  -7.162457e+001 
3900000000  -4.002499e+001  -7.340786e+001 
3903125000  -3.943137e+001  -7.914191e+001 
3906250000  -3.900654e+001  -8.129102e+001 
3909375000  -3.825237e+001  -9.125633e+001 
3912500000  -3.904549e+001  -9.954697e+001 
3915625000  -4.033101e+001  -1.010705e+002 
3918750000  -4.041726e+001  -1.013945e+002 
3921875000  -3.947523e+001  -1.054193e+002 
3925000000  -3.878416e+001  -1.103192e+002 
3928125000  -3.827618e+001  -1.200305e+002 
3931250000  -3.907447e+001  -1.258913e+002 
3934375000  -3.949506e+001  -1.283435e+002 
3937500000  -3.995655e+001  -1.311520e+002 
3940625000  -3.968537e+001  -1.339296e+002 
3943750000  -3.916052e+001  -1.349713e+002 
3946875000  -3.850644e+001  -1.429057e+002 
3950000000  -3.942780e+001  -1.530736e+002 
3953125000  -4.021871e+001  -1.520346e+002 
3956250000  -3.909189e+001  -1.555827e+002 
3959375000  -3.799274e+001  -1.605966e+002 
3962500000  -3.768051e+001  -1.674739e+002 
3965625000  -3.783792e+001  -1.755077e+002 
3968750000  -3.890759e+001  1.739566e+002 
3971875000  -3.886157e+001  1.690694e+002 
3975000000  -3.872200e+001  1.664476e+002 
3978125000  -3.864812e+001  1.623290e+002 
3981250000  -3.859373e+001  1.549884e+002 
3984375000  -3.910733e+001  1.480835e+002 
3987500000  -3.972588e+001  1.453715e+002 
3990625000  -3.979711e+001  1.427800e+002 
3993750000  -4.004742e+001  1.390775e+002 
3996875000  -4.000815e+001  1.325995e+002 
4000000000  -4.050802e+001  1.289675e+002 
4003125000  -4.137233e+001  1.302784e+002 
4006250000  -3.969492e+001  1.279896e+002 
4009375000  -3.868068e+001  1.151115e+002 
4012500000  -4.049065e+001  1.063093e+002 
4015625000  -4.171090e+001  1.029238e+002 
4018750000  -4.155883e+001  1.051805e+002 
4021875000  -4.086769e+001  1.037423e+002 
4025000000  -4.078743e+001  9.827220e+001 
4028125000  -4.048810e+001  9.105397e+001 
4031250000  -4.125864e+001  8.510143e+001 
4034375000  -4.188271e+001  8.622791e+001 
4037500000  -4.113844e+001  8.703642e+001 
4040625000  -4.100001e+001  8.222443e+001 
4043750000  -4.118358e+001  7.903174e+001 
4046875000  -4.113174e+001  7.473003e+001 
4050000000  -4.075732e+001  6.935342e+001 
4053125000  -4.150130e+001  6.686565e+001 
4056250000  -4.162889e+001  7.205109e+001 
4059375000  -3.985458e+001  6.856281e+001 
4062500000  -3.888821e+001  6.157030e+001 
4065625000  -3.908808e+001  5.451242e+001 
4068750000  -3.858404e+001  4.864476e+001 
4071875000  -3.801589e+001  3.839430e+001 
4075000000  -3.865169e+001  3.198386e+001 
4078125000  -3.888863e+001  2.860854e+001 
4081250000  -3.823732e+001  2.371533e+001 
4084375000  -3.836717e+001  1.277471e+001 
4087500000  -3.854812e+001  7.105670e+000 
4090625000  -3.921292e+001  4.404455e+000 
4093750000  -3.895914e+001  3.042238e+000 
4096875000  -3.892429e+001  -6.350415e+000 
4100000000  -3.965734e+001  -1.472565e+001 
4103125000  -4.079459e+001  -1.289551e+001 
4106250000  -4.016130e+001  -9.444631e+000 
4109375000  -3.937415e+001  -1.421598e+001 
4112500000  -3.887757e+001  -2.304957e+001 
4115625000  -3.964112e+001  -2.904612e+001 
4118750000  -3.930247e+001  -3.252232e+001 
4121875000  -3.917361e+001  -4.001486e+001 
4125000000  -3.968689e+001  -4.792708e+001 
4128125000  -4.107668e+001  -4.703454e+001 
4131250000  -3.976667e+001  -3.962084e+001 
4134375000  -3.774216e+001  -4.880106e+001 
4137500000  -3.819595e+001  -7.150804e+001 
4140625000  -4.081127e+001  -7.944471e+001 
4143750000  -4.149578e+001  -7.195297e+001 
4146875000  -4.103842e+001  -6.790395e+001 
4150000000  -3.972720e+001  -7.495144e+001 
4153125000  -4.016151e+001  -8.261894e+001 
4156250000  -4.124492e+001  -8.618586e+001 
4159375000  -4.145028e+001  -8.281926e+001 
4162500000  -4.013092e+001  -7.965462e+001 
4165625000  -3.940268e+001  -8.649269e+001 
4168750000  -3.867491e+001  -9.466328e+001 
4171875000  -3.860632e+001  -1.079537e+002 
4175000000  -3.961399e+001  -1.126573e+002 
4178125000  -3.991979e+001  -1.137970e+002 
4181250000  -3.980136e+001  -1.174579e+002 
4184375000  -3.968222e+001  -1.225387e+002 
4187500000  -3.976254e+001  -1.261037e+002 
4190625000  -3.961239e+001  -1.340439e+002 
4193750000  -4.085241e+001  -1.391226e+002 
4196875000  -4.143402e+001  -1.421436e+002 
4200000000  -4.211683e+001  -1.382627e+002 
4203125000  -4.110300e+001  -1.213104e+002 
4206250000  -3.757095e+001  -1.291090e+002 
4209375000  -3.729395e+001  -1.560438e+002 
4212500000  -3.970422e+001  -1.633585e+002 
4215625000  -4.071484e+001  -1.569004e+002 
4218750000  -3.868496e+001  -1.516424e+002 
4221875000  -3.674652e+001  -1.646704e+002 
4225000000  -3.790726e+001  -1.765640e+002 
4228125000  -3.821695e+001  -1.737366e+002 
4231250000  -3.645711e+001  1.794403e+002 
4234375000  -3.671257e+001  1.681286e+002 
4237500000  -3.655272e+001  1.637098e+002 
4240625000  -3.635873e+001  1.517808e+002 
4243750000  -3.780185e+001  1.431098e+002 
4246875000  -3.874416e+001  1.428409e+002 
4250000000  -3.855038e+001  1.433710e+002 
4253125000  -3.803305e+001  1.406731e+002 
4256250000  -3.829357e+001  1.350065e+002 
4259375000  -3.795554e+001  1.280755e+002 
4262500000  -3.810933e+001  1.245446e+002 
4265625000  -3.836693e+001  1.216303e+002 
4268750000  -3.724435e+001  1.156603e+002 
4271875000  -3.688986e+001  1.068203e+002 
4275000000  -3.670034e+001  9.588054e+001 
4278125000  -3.754016e+001  8.450928e+001 
4281250000  -3.929819e+001  8.186507e+001 
4284375000  -3.881202e+001  8.084003e+001 
4287500000  -4.009588e+001  7.807029e+001 
4290625000  -4.105410e+001  8.667272e+001 
4293750000  -3.885344e+001  8.684361e+001 
4296875000  -3.783684e+001  7.158309e+001 
4300000000  -3.925080e+001  6.479835e+001 
4303125000  -3.970889e+001  6.642639e+001 
4306250000  -3.942277e+001  6.916862e+001 
4309375000  -3.813829e+001  6.415879e+001 
4312500000  -3.794654e+001  5.450502e+001 
4315625000  -3.815122e+001  4.453308e+001 
4318750000  -3.892976e+001  4.103181e+001 
4321875000  -3.886878e+001  4.200245e+001 
4325000000  -3.851322e+001  4.128419e+001 
4328125000  -3.773261e+001  3.170080e+001 
4331250000  -3.808757e+001  2.084423e+001 
4334375000  -3.850814e+001  1.430282e+001 
4337500000  -3.972975e+001  1.232520e+001 
4340625000  -3.992051e+001  1.639119e+001 
4343750000  -3.914383e+001  1.574969e+001 
4346875000  -3.868978e+001  6.318326e+000 
4350000000  -3.875251e+001  -2.006180e+000 
4353125000  -3.900395e+001  -9.147181e+000 
4356250000  -4.133345e+001  -6.579977e+000 
4359375000  -4.002824e+001  6.532945e+000 
4362500000  -3.712320e+001  1.723217e+000 
4365625000  -3.624196e+001  -1.723020e+001 
4368750000  -3.756170e+001  -2.812594e+001 
4371875000  -3.868388e+001  -2.563123e+001 
4375000000  -3.768222e+001  -3.189153e+001 
4378125000  -3.727843e+001  -3.925895e+001 
4381250000  -3.749457e+001  -4.547556e+001 
4384375000  -3.730558e+001  -5.291519e+001 
4387500000  -3.836913e+001  -5.862282e+001 
4390625000  -3.885265e+001  -6.044932e+001 
4393750000  -3.817068e+001  -5.895718e+001 
4396875000  -3.761404e+001  -6.371939e+001 
4400000000  -3.730434e+001  -7.343957e+001 
4403125000  -3.831271e+001  -8.325906e+001 
4406250000  -3.876352e+001  -8.690134e+001 
4409375000  -3.882421e+001  -9.104575e+001 
4412500000  -4.010315e+001  -9.394527e+001 
4415625000  -4.005755e+001  -8.973737e+001 
4418750000  -3.849834e+001  -8.706413e+001 
