!Agilent Technologies,E8363B,MY43030201,A.06.04.32
!Agilent E8363B: A.06.04.32
!Date: Tuesday, November 11, 2014 21:32:32
!Correction: S21(Response(S21)) 
!S1P File: Measurement: S21:
# Hz S  dB   R 50
3000000000  -4.063799e+001  7.712157e+001 
3003125000  -4.216739e+001  6.945607e+001 
3006250000  -4.214841e+001  6.876393e+001 
3009375000  -4.247110e+001  7.284559e+001 
3012500000  -4.150908e+001  6.809508e+001 
3015625000  -4.121038e+001  6.199148e+001 
3018750000  -4.186634e+001  6.253193e+001 
3021875000  -4.025491e+001  6.325110e+001 
3025000000  -3.892334e+001  5.930634e+001 
3028125000  -3.793548e+001  4.898807e+001 
3031250000  -3.691457e+001  3.727611e+001 
3034375000  -3.664771e+001  2.225534e+001 
3037500000  -3.752238e+001  1.217568e+001 
3040625000  -3.873347e+001  7.328547e+000 
3043750000  -3.921180e+001  1.079800e+000 
3046875000  -3.976818e+001  -5.011221e+000 
3050000000  -4.092052e+001  -1.125564e+001 
3053125000  -4.054192e+001  -5.424045e+000 
3056250000  -4.051341e+001  -3.093755e+000 
3059375000  -3.981171e+001  -4.554329e+000 
3062500000  -3.822126e+001  -8.843444e+000 
3065625000  -3.780167e+001  -1.883031e+001 
3068750000  -3.764853e+001  -2.610559e+001 
3071875000  -3.769330e+001  -2.755417e+001 
3075000000  -3.695746e+001  -3.521662e+001 
3078125000  -3.708525e+001  -4.214792e+001 
3081250000  -3.729684e+001  -4.788993e+001 
3084375000  -3.633080e+001  -5.326873e+001 
3087500000  -3.637946e+001  -5.934042e+001 
3090625000  -3.590919e+001  -7.216747e+001 
3093750000  -3.684088e+001  -7.974886e+001 
3096875000  -3.740306e+001  -8.505646e+001 
3100000000  -3.727325e+001  -8.767447e+001 
3103125000  -3.753833e+001  -9.136923e+001 
3106250000  -3.708569e+001  -9.623412e+001 
3109375000  -3.721629e+001  -1.007658e+002 
3112500000  -3.713375e+001  -1.059574e+002 
3115625000  -3.720449e+001  -1.100917e+002 
3118750000  -3.715322e+001  -1.133267e+002 
3121875000  -3.654837e+001  -1.243053e+002 
3125000000  -3.838704e+001  -1.286088e+002 
3128125000  -3.850259e+001  -1.207804e+002 
3131250000  -3.607026e+001  -1.266740e+002 
3134375000  -3.527667e+001  -1.434352e+002 
3137500000  -3.609440e+001  -1.565442e+002 
3140625000  -3.732800e+001  -1.596105e+002 
3143750000  -3.824658e+001  -1.616572e+002 
3146875000  -3.769991e+001  -1.583239e+002 
3150000000  -3.680960e+001  -1.628206e+002 
3153125000  -3.715697e+001  -1.713332e+002 
3156250000  -3.790365e+001  -1.663333e+002 
3159375000  -3.559139e+001  -1.678498e+002 
3162500000  -3.426774e+001  1.757232e+002 
3165625000  -3.551546e+001  1.634136e+002 
3168750000  -3.542352e+001  1.621375e+002 
3171875000  -3.484600e+001  1.548333e+002 
3175000000  -3.539259e+001  1.451706e+002 
3178125000  -3.496895e+001  1.440164e+002 
3181250000  -3.441806e+001  1.347498e+002 
3184375000  -3.424601e+001  1.245013e+002 
3187500000  -3.527809e+001  1.095023e+002 
3190625000  -3.723718e+001  1.034498e+002 
3193750000  -3.748137e+001  1.083394e+002 
3196875000  -3.731670e+001  1.102954e+002 
3200000000  -3.610904e+001  1.042952e+002 
3203125000  -3.589990e+001  9.651729e+001 
3206250000  -3.626791e+001  8.869497e+001 
3209375000  -3.574551e+001  8.147430e+001 
3212500000  -3.630549e+001  7.378912e+001 
3215625000  -3.606555e+001  7.041079e+001 
3218750000  -3.672310e+001  6.056064e+001 
3221875000  -3.731977e+001  5.360368e+001 
3225000000  -3.696609e+001  4.981232e+001 
3228125000  -3.779266e+001  4.174905e+001 
3231250000  -3.820725e+001  4.035471e+001 
3234375000  -3.778828e+001  3.682219e+001 
3237500000  -3.816052e+001  3.221238e+001 
3240625000  -3.767064e+001  2.804045e+001 
3243750000  -3.765576e+001  1.763775e+001 
3246875000  -3.820893e+001  9.914370e+000 
3250000000  -3.879947e+001  7.120141e+000 
3253125000  -3.906185e+001  3.444683e+000 
3256250000  -3.854695e+001  -5.812643e+000 
3259375000  -3.907605e+001  -1.529189e+001 
3262500000  -4.058261e+001  -2.034957e+001 
3265625000  -4.111659e+001  -1.838121e+001 
3268750000  -4.138513e+001  -1.647263e+001 
3271875000  -4.049020e+001  -1.993736e+001 
3275000000  -4.009242e+001  -2.802668e+001 
3278125000  -4.058183e+001  -3.249101e+001 
3281250000  -4.111643e+001  -3.399337e+001 
3284375000  -4.063518e+001  -3.901537e+001 
3287500000  -4.090456e+001  -4.567980e+001 
3290625000  -4.122154e+001  -5.186679e+001 
3293750000  -4.125826e+001  -5.779710e+001 
3296875000  -4.253759e+001  -5.810678e+001 
3300000000  -4.188906e+001  -5.771730e+001 
3303125000  -4.096365e+001  -6.486505e+001 
3306250000  -4.100222e+001  -7.255552e+001 
3309375000  -4.050596e+001  -7.985806e+001 
3312500000  -4.078606e+001  -9.332342e+001 
3315625000  -4.225274e+001  -9.977245e+001 
3318750000  -4.388764e+001  -1.012229e+002 
3321875000  -4.498381e+001  -9.907730e+001 
3325000000  -4.492169e+001  -9.376250e+001 
3328125000  -4.372793e+001  -9.370349e+001 
3331250000  -4.223612e+001  -9.003462e+001 
3334375000  -3.992275e+001  -1.056737e+002 
3337500000  -4.037437e+001  -1.260685e+002 
3340625000  -4.216656e+001  -1.350382e+002 
3343750000  -4.417524e+001  -1.365372e+002 
3346875000  -4.320060e+001  -1.360529e+002 
3350000000  -4.306805e+001  -1.385858e+002 
3353125000  -4.283308e+001  -1.464810e+002 
3356250000  -4.246446e+001  -1.551821e+002 
3359375000  -4.342564e+001  -1.658939e+002 
3362500000  -4.450630e+001  -1.726597e+002 
3365625000  -4.471220e+001  -1.750773e+002 
3368750000  -4.540718e+001  -1.786885e+002 
3371875000  -4.586018e+001  1.792644e+002 
3375000000  -4.734062e+001  1.726291e+002 
3378125000  -4.814002e+001  1.721082e+002 
3381250000  -4.993085e+001  -1.777917e+002 
3384375000  -4.688042e+001  -1.629036e+002 
3387500000  -4.413057e+001  1.770101e+002 
3390625000  -4.597321e+001  1.515901e+002 
3393750000  -4.725589e+001  1.581339e+002 
3396875000  -4.616545e+001  1.574507e+002 
3400000000  -4.597403e+001  1.412787e+002 
3403125000  -4.699716e+001  1.380475e+002 
3406250000  -4.757117e+001  1.362234e+002 
3409375000  -4.793616e+001  1.296170e+002 
3412500000  -4.861122e+001  1.238602e+002 
3415625000  -4.996177e+001  1.208473e+002 
3418750000  -5.010017e+001  1.249381e+002 
3421875000  -5.071008e+001  1.261272e+002 
3425000000  -4.998407e+001  1.274174e+002 
3428125000  -4.976199e+001  1.183708e+002 
3431250000  -4.984959e+001  1.132053e+002 
3434375000  -5.067060e+001  1.047191e+002 
3437500000  -5.183085e+001  1.083667e+002 
3440625000  -5.176746e+001  1.110462e+002 
3443750000  -5.038064e+001  1.075890e+002 
3446875000  -5.119639e+001  1.028859e+002 
3450000000  -4.997288e+001  9.662499e+001 
3453125000  -5.106446e+001  8.325134e+001 
3456250000  -5.197525e+001  8.850970e+001 
3459375000  -5.386171e+001  8.461190e+001 
3462500000  -5.265500e+001  9.216855e+001 
3465625000  -5.092344e+001  8.299176e+001 
3468750000  -5.200525e+001  8.091403e+001 
3471875000  -5.179303e+001  8.134778e+001 
3475000000  -5.132298e+001  7.654737e+001 
3478125000  -5.059844e+001  6.585657e+001 
3481250000  -5.312391e+001  6.597776e+001 
3484375000  -5.255476e+001  7.557182e+001 
3487500000  -5.170908e+001  6.895984e+001 
3490625000  -5.039771e+001  5.956877e+001 
3493750000  -5.166034e+001  5.247675e+001 
3496875000  -5.171475e+001  5.307252e+001 
3500000000  -5.219973e+001  5.067632e+001 
3503125000  -5.065137e+001  5.382700e+001 
3506250000  -4.941739e+001  4.387518e+001 
3509375000  -4.911626e+001  3.267658e+001 
3512500000  -5.013854e+001  1.298058e+001 
3515625000  -5.137595e+001  9.746452e+000 
3518750000  -5.289019e+001  1.632959e+001 
3521875000  -5.186587e+001  1.325748e+001 
3525000000  -5.294717e+001  6.128845e+000 
3528125000  -5.175835e+001  1.006523e+001 
3531250000  -5.121986e+001  1.594194e+000 
3534375000  -5.236825e+001  -1.188360e+001 
3537500000  -5.321935e+001  -2.342538e+001 
3540625000  -5.557449e+001  -1.828410e+001 
3543750000  -5.720543e+001  -1.251264e+001 
3546875000  -5.567577e+001  -4.790405e+000 
3550000000  -5.305951e+001  -1.577185e+001 
3553125000  -5.356336e+001  -2.347669e+001 
3556250000  -5.573082e+001  -2.278217e+001 
3559375000  -5.556931e+001  -3.205984e+001 
3562500000  -5.670720e+001  -4.351892e+001 
3565625000  -5.780563e+001  -4.255530e+001 
3568750000  -5.703717e+001  -4.102309e+001 
3571875000  -5.768414e+001  -2.955661e+001 
3575000000  -6.005072e+001  -3.174050e+001 
3578125000  -5.794407e+001  -4.222127e+001 
3581250000  -5.859288e+001  -3.072005e+001 
3584375000  -5.880140e+001  -2.874141e+001 
3587500000  -5.833768e+001  -4.817701e+001 
3590625000  -5.885163e+001  -4.501115e+001 
3593750000  -5.844635e+001  -4.123959e+001 
3596875000  -5.890558e+001  -2.467533e+001 
3600000000  -5.628683e+001  -3.396818e+001 
3603125000  -5.762295e+001  -5.111753e+001 
3606250000  -5.899928e+001  -5.576740e+001 
3609375000  -5.671998e+001  -4.071148e+001 
3612500000  -5.743044e+001  -4.616950e+001 
3615625000  -5.856257e+001  -5.617919e+001 
3618750000  -5.822791e+001  -3.962445e+001 
3621875000  -5.695456e+001  -4.067123e+001 
3625000000  -5.829467e+001  -3.642063e+001 
3628125000  -5.641028e+001  -4.046230e+001 
3631250000  -5.683688e+001  -4.032737e+001 
3634375000  -5.565300e+001  -4.537203e+001 
3637500000  -5.551575e+001  -3.452037e+001 
3640625000  -5.436083e+001  -3.549725e+001 
3643750000  -5.211082e+001  -3.621345e+001 
3646875000  -5.277573e+001  -5.185379e+001 
3650000000  -5.324953e+001  -5.800570e+001 
3653125000  -5.107595e+001  -5.989759e+001 
3656250000  -5.165075e+001  -5.906847e+001 
3659375000  -5.122124e+001  -5.806962e+001 
3662500000  -4.999770e+001  -6.737077e+001 
3665625000  -4.979063e+001  -6.893508e+001 
3668750000  -4.864365e+001  -6.851693e+001 
3671875000  -4.724461e+001  -8.223288e+001 
3675000000  -4.727104e+001  -8.803165e+001 
3678125000  -4.724016e+001  -9.004730e+001 
3681250000  -4.652569e+001  -9.772382e+001 
3684375000  -4.676391e+001  -1.023811e+002 
3687500000  -4.665617e+001  -1.062202e+002 
3690625000  -4.623916e+001  -1.142389e+002 
3693750000  -4.712367e+001  -1.134284e+002 
3696875000  -4.675831e+001  -1.133190e+002 
3700000000  -4.534650e+001  -1.191551e+002 
3703125000  -4.502954e+001  -1.275554e+002 
3706250000  -4.600494e+001  -1.239481e+002 
3709375000  -4.488319e+001  -1.291176e+002 
3712500000  -4.347918e+001  -1.325883e+002 
3715625000  -4.175807e+001  -1.405298e+002 
3718750000  -4.159108e+001  -1.474610e+002 
3721875000  -4.148539e+001  -1.593135e+002 
3725000000  -4.174822e+001  -1.646832e+002 
3728125000  -4.153481e+001  -1.685094e+002 
3731250000  -4.062417e+001  -1.753026e+002 
3734375000  -4.014603e+001  1.790225e+002 
3737500000  -4.090279e+001  1.698721e+002 
3740625000  -4.064535e+001  1.632401e+002 
3743750000  -4.058127e+001  1.564942e+002 
3746875000  -4.092904e+001  1.500165e+002 
3750000000  -4.103102e+001  1.455834e+002 
3753125000  -4.061985e+001  1.425312e+002 
3756250000  -4.079118e+001  1.380268e+002 
3759375000  -4.025663e+001  1.327795e+002 
3762500000  -4.020617e+001  1.252772e+002 
3765625000  -4.091069e+001  1.234334e+002 
3768750000  -4.015727e+001  1.219671e+002 
3771875000  -3.838451e+001  1.157911e+002 
3775000000  -3.858546e+001  1.022284e+002 
3778125000  -3.889914e+001  9.821992e+001 
3781250000  -3.912059e+001  9.394958e+001 
3784375000  -3.878464e+001  8.742750e+001 
3787500000  -3.837655e+001  8.106199e+001 
3790625000  -3.907830e+001  7.296968e+001 
3793750000  -3.919403e+001  6.968983e+001 
3796875000  -3.817153e+001  6.540990e+001 
3800000000  -3.647363e+001  5.979487e+001 
3803125000  -3.816780e+001  4.660986e+001 
3806250000  -3.883730e+001  4.241438e+001 
3809375000  -3.856050e+001  3.859695e+001 
3812500000  -3.851160e+001  2.952781e+001 
3815625000  -3.952962e+001  2.142537e+001 
3818750000  -4.083585e+001  2.271532e+001 
3821875000  -4.008621e+001  3.034118e+001 
3825000000  -3.810948e+001  2.704488e+001 
3828125000  -3.703217e+001  8.360296e+000 
3831250000  -3.815141e+001  -7.205710e+000 
3834375000  -4.039997e+001  -5.462597e+000 
3837500000  -4.042913e+001  -3.236989e+000 
3840625000  -3.917833e+001  -5.298468e+000 
3843750000  -3.839618e+001  -2.058844e+001 
3846875000  -4.013565e+001  -2.672143e+001 
3850000000  -4.087331e+001  -2.312637e+001 
3853125000  -3.966679e+001  -1.955956e+001 
3856250000  -3.922229e+001  -2.796422e+001 
3859375000  -3.876858e+001  -3.708947e+001 
3862500000  -3.854356e+001  -4.522054e+001 
3865625000  -3.897225e+001  -4.993330e+001 
3868750000  -3.909396e+001  -5.312114e+001 
3871875000  -3.791216e+001  -5.963871e+001 
3875000000  -3.873923e+001  -6.941808e+001 
3878125000  -3.946555e+001  -7.159743e+001 
3881250000  -3.949599e+001  -6.975169e+001 
3884375000  -3.891681e+001  -7.767600e+001 
3887500000  -3.921654e+001  -8.561124e+001 
3890625000  -3.926929e+001  -8.953049e+001 
3893750000  -3.996279e+001  -9.270891e+001 
3896875000  -4.015409e+001  -9.463953e+001 
3900000000  -3.996203e+001  -9.878246e+001 
3903125000  -3.909248e+001  -1.026095e+002 
3906250000  -3.901416e+001  -1.068644e+002 
3909375000  -3.829795e+001  -1.149285e+002 
3912500000  -3.910410e+001  -1.238299e+002 
3915625000  -4.033076e+001  -1.232668e+002 
3918750000  -4.007079e+001  -1.236861e+002 
3921875000  -3.919505e+001  -1.302048e+002 
3925000000  -3.843577e+001  -1.350294e+002 
3928125000  -3.815859e+001  -1.448443e+002 
3931250000  -3.902244e+001  -1.515114e+002 
3934375000  -3.944013e+001  -1.539623e+002 
3937500000  -4.037837e+001  -1.548680e+002 
3940625000  -3.981902e+001  -1.563694e+002 
3943750000  -3.894876e+001  -1.607460e+002 
3946875000  -3.847969e+001  -1.696600e+002 
3950000000  -3.938724e+001  -1.782037e+002 
3953125000  -4.023523e+001  -1.777016e+002 
3956250000  -3.887772e+001  -1.780661e+002 
3959375000  -3.824020e+001  1.771780e+002 
3962500000  -3.783037e+001  1.669860e+002 
3965625000  -3.784049e+001  1.591538e+002 
3968750000  -3.890926e+001  1.501763e+002 
3971875000  -3.869909e+001  1.442026e+002 
3975000000  -3.838868e+001  1.424181e+002 
3978125000  -3.860145e+001  1.370834e+002 
3981250000  -3.859815e+001  1.310021e+002 
3984375000  -3.924544e+001  1.233306e+002 
3987500000  -3.968985e+001  1.194750e+002 
3990625000  -3.996186e+001  1.185204e+002 
3993750000  -3.993517e+001  1.137658e+002 
3996875000  -3.999517e+001  1.092519e+002 
4000000000  -4.083343e+001  1.024627e+002 
4003125000  -4.106435e+001  1.043034e+002 
4006250000  -3.913630e+001  1.044003e+002 
4009375000  -3.859092e+001  8.872772e+001 
4012500000  -4.027613e+001  7.851412e+001 
4015625000  -4.139085e+001  8.227447e+001 
4018750000  -4.171005e+001  7.983909e+001 
4021875000  -4.058408e+001  7.632727e+001 
4025000000  -4.051188e+001  7.225863e+001 
4028125000  -4.062057e+001  6.540260e+001 
4031250000  -4.117652e+001  6.032511e+001 
4034375000  -4.140681e+001  6.200970e+001 
4037500000  -4.080952e+001  6.296618e+001 
4040625000  -4.068919e+001  5.607680e+001 
4043750000  -4.115733e+001  5.256565e+001 
4046875000  -4.083866e+001  5.050808e+001 
4050000000  -4.063377e+001  4.428829e+001 
4053125000  -4.136411e+001  4.015133e+001 
4056250000  -4.172757e+001  4.647422e+001 
4059375000  -3.964991e+001  4.147421e+001 
4062500000  -3.862397e+001  3.632045e+001 
4065625000  -3.896508e+001  3.189132e+001 
4068750000  -3.823145e+001  2.156123e+001 
4071875000  -3.767562e+001  1.336024e+001 
4075000000  -3.851614e+001  6.017340e+000 
4078125000  -3.884869e+001  2.576482e+000 
4081250000  -3.830126e+001  -3.749264e+000 
4084375000  -3.809627e+001  -1.162871e+001 
4087500000  -3.887681e+001  -1.813988e+001 
4090625000  -3.934586e+001  -2.104094e+001 
4093750000  -3.869574e+001  -2.427345e+001 
4096875000  -3.855434e+001  -3.282675e+001 
4100000000  -3.980514e+001  -4.013640e+001 
4103125000  -4.072026e+001  -3.757590e+001 
4106250000  -4.014167e+001  -3.706160e+001 
4109375000  -3.916624e+001  -3.781678e+001 
4112500000  -3.877071e+001  -4.973440e+001 
4115625000  -3.932166e+001  -5.412907e+001 
4118750000  -3.925991e+001  -5.963231e+001 
4121875000  -3.881274e+001  -6.656534e+001 
4125000000  -3.969538e+001  -7.254906e+001 
4128125000  -4.081137e+001  -7.091627e+001 
4131250000  -3.993575e+001  -6.534534e+001 
4134375000  -3.757577e+001  -7.612343e+001 
4137500000  -3.827565e+001  -9.492142e+001 
4140625000  -4.056499e+001  -1.008825e+002 
4143750000  -4.149208e+001  -9.485466e+001 
4146875000  -4.043537e+001  -9.349995e+001 
4150000000  -3.965356e+001  -1.014127e+002 
4153125000  -4.000583e+001  -1.106468e+002 
4156250000  -4.131419e+001  -1.114365e+002 
4159375000  -4.129735e+001  -1.072200e+002 
4162500000  -3.986959e+001  -1.064164e+002 
4165625000  -3.894855e+001  -1.131642e+002 
4168750000  -3.843732e+001  -1.234265e+002 
4171875000  -3.826299e+001  -1.326768e+002 
4175000000  -3.942481e+001  -1.385075e+002 
4178125000  -3.946323e+001  -1.406785e+002 
4181250000  -3.951063e+001  -1.427859e+002 
4184375000  -3.953870e+001  -1.470562e+002 
4187500000  -3.945706e+001  -1.537424e+002 
4190625000  -3.933429e+001  -1.617380e+002 
4193750000  -4.045212e+001  -1.650703e+002 
4196875000  -4.164360e+001  -1.671450e+002 
4200000000  -4.240247e+001  -1.610063e+002 
4203125000  -4.077489e+001  -1.488638e+002 
4206250000  -3.737290e+001  -1.582236e+002 
4209375000  -3.729220e+001  1.782599e+002 
4212500000  -3.971888e+001  1.730675e+002 
4215625000  -4.006890e+001  1.796620e+002 
4218750000  -3.826456e+001  1.794570e+002 
4221875000  -3.687892e+001  1.704718e+002 
4225000000  -3.791983e+001  1.586645e+002 
4228125000  -3.799705e+001  1.601578e+002 
4231250000  -3.628372e+001  1.520521e+002 
4234375000  -3.674632e+001  1.431008e+002 
4237500000  -3.602998e+001  1.358951e+002 
4240625000  -3.636032e+001  1.248840e+002 
4243750000  -3.768931e+001  1.167623e+002 
4246875000  -3.845720e+001  1.148665e+002 
4250000000  -3.839721e+001  1.155066e+002 
4253125000  -3.802311e+001  1.128940e+002 
4256250000  -3.807482e+001  1.087989e+002 
4259375000  -3.777898e+001  1.023225e+002 
4262500000  -3.798460e+001  9.654425e+001 
4265625000  -3.794970e+001  9.485942e+001 
4268750000  -3.692968e+001  8.764610e+001 
4271875000  -3.692945e+001  7.976365e+001 
4275000000  -3.666282e+001  6.969098e+001 
4278125000  -3.792464e+001  5.836764e+001 
4281250000  -3.908804e+001  5.684942e+001 
4284375000  -3.892390e+001  5.540731e+001 
4287500000  -4.039438e+001  5.372849e+001 
4290625000  -4.078267e+001  6.153716e+001 
4293750000  -3.877711e+001  5.977815e+001 
4296875000  -3.773461e+001  4.764620e+001 
4300000000  -3.903746e+001  3.830296e+001 
4303125000  -3.988016e+001  4.214472e+001 
4306250000  -3.861517e+001  4.497026e+001 
4309375000  -3.766033e+001  3.680534e+001 
4312500000  -3.750508e+001  2.633733e+001 
4315625000  -3.790692e+001  1.822522e+001 
4318750000  -3.877479e+001  1.575883e+001 
4321875000  -3.864991e+001  1.371621e+001 
4325000000  -3.820530e+001  1.378247e+001 
4328125000  -3.726737e+001  3.839974e+000 
4331250000  -3.752057e+001  -5.713252e+000 
4334375000  -3.845911e+001  -1.160166e+001 
4337500000  -3.938772e+001  -1.277183e+001 
4340625000  -3.961616e+001  -9.617926e+000 
4343750000  -3.864898e+001  -1.236443e+001 
4346875000  -3.843241e+001  -2.007436e+001 
4350000000  -3.834170e+001  -2.961919e+001 
4353125000  -3.898046e+001  -3.640047e+001 
4356250000  -4.131319e+001  -3.237658e+001 
4359375000  -3.985904e+001  -1.786430e+001 
4362500000  -3.672787e+001  -2.722151e+001 
4365625000  -3.603394e+001  -4.397862e+001 
4368750000  -3.749073e+001  -5.412921e+001 
4371875000  -3.805449e+001  -5.473618e+001 
4375000000  -3.716319e+001  -5.891214e+001 
4378125000  -3.694898e+001  -6.654504e+001 
4381250000  -3.724137e+001  -7.114201e+001 
4384375000  -3.712396e+001  -8.020482e+001 
4387500000  -3.819287e+001  -8.620984e+001 
4390625000  -3.851012e+001  -8.678816e+001 
4393750000  -3.809605e+001  -8.683373e+001 
4396875000  -3.748867e+001  -9.338216e+001 
4400000000  -3.702188e+001  -1.016261e+002 
4403125000  -3.796710e+001  -1.113360e+002 
4406250000  -3.843096e+001  -1.151031e+002 
4409375000  -3.872351e+001  -1.190865e+002 
4412500000  -3.975980e+001  -1.196315e+002 
4415625000  -3.931590e+001  -1.168976e+002 
