!Agilent Technologies,E8363B,MY43030201,A.06.04.32
!Agilent E8363B: A.06.04.32
!Date: Tuesday, November 11, 2014 21:31:29
!Correction: S21(Response(S21)) 
!S1P File: Measurement: S21:
# Hz S  dB   R 50
3000000000  -4.049534e+001  8.024998e+001 
3003125000  -4.222017e+001  7.209754e+001 
3006250000  -4.213396e+001  7.080458e+001 
3009375000  -4.259433e+001  7.635707e+001 
3012500000  -4.150044e+001  7.034955e+001 
3015625000  -4.135657e+001  6.396577e+001 
3018750000  -4.189681e+001  6.515034e+001 
3021875000  -4.014232e+001  6.610072e+001 
3025000000  -3.873492e+001  6.160609e+001 
3028125000  -3.782277e+001  5.091063e+001 
3031250000  -3.684744e+001  3.949073e+001 
3034375000  -3.665942e+001  2.590712e+001 
3037500000  -3.747902e+001  1.528872e+001 
3040625000  -3.871809e+001  9.792158e+000 
3043750000  -3.913531e+001  4.359295e+000 
3046875000  -3.972527e+001  -1.441463e+000 
3050000000  -4.074936e+001  -7.162168e+000 
3053125000  -4.048877e+001  -2.604311e+000 
3056250000  -4.047801e+001  1.982830e+000 
3059375000  -3.969081e+001  -3.237090e+000 
3062500000  -3.817020e+001  -5.220410e+000 
3065625000  -3.805946e+001  -1.611168e+001 
3068750000  -3.753853e+001  -2.358421e+001 
3071875000  -3.760861e+001  -2.682986e+001 
3075000000  -3.703405e+001  -3.261347e+001 
3078125000  -3.697403e+001  -3.887266e+001 
3081250000  -3.720863e+001  -4.424434e+001 
3084375000  -3.628709e+001  -4.922930e+001 
3087500000  -3.644250e+001  -5.536874e+001 
3090625000  -3.594602e+001  -6.822870e+001 
3093750000  -3.676325e+001  -7.663776e+001 
3096875000  -3.732615e+001  -8.184592e+001 
3100000000  -3.712923e+001  -8.534946e+001 
3103125000  -3.756302e+001  -8.778968e+001 
3106250000  -3.722677e+001  -9.337812e+001 
3109375000  -3.736885e+001  -9.691195e+001 
3112500000  -3.717337e+001  -1.035269e+002 
3115625000  -3.707308e+001  -1.078234e+002 
3118750000  -3.722432e+001  -1.101206e+002 
3121875000  -3.659526e+001  -1.214756e+002 
3125000000  -3.836938e+001  -1.248408e+002 
3128125000  -3.865669e+001  -1.176710e+002 
3131250000  -3.611773e+001  -1.229196e+002 
3134375000  -3.538743e+001  -1.411134e+002 
3137500000  -3.599074e+001  -1.531237e+002 
3140625000  -3.719859e+001  -1.556578e+002 
3143750000  -3.824236e+001  -1.580366e+002 
3146875000  -3.760384e+001  -1.554535e+002 
3150000000  -3.696154e+001  -1.602025e+002 
3153125000  -3.714130e+001  -1.681492e+002 
3156250000  -3.788891e+001  -1.641533e+002 
3159375000  -3.567923e+001  -1.652114e+002 
3162500000  -3.431912e+001  1.786923e+002 
3165625000  -3.542313e+001  1.667835e+002 
3168750000  -3.544378e+001  1.647004e+002 
3171875000  -3.494101e+001  1.576984e+002 
3175000000  -3.542723e+001  1.485077e+002 
3178125000  -3.514212e+001  1.472617e+002 
3181250000  -3.435096e+001  1.384563e+002 
3184375000  -3.410679e+001  1.269372e+002 
3187500000  -3.544024e+001  1.133855e+002 
3190625000  -3.729887e+001  1.063309e+002 
3193750000  -3.740437e+001  1.114900e+002 
3196875000  -3.741393e+001  1.122415e+002 
3200000000  -3.617673e+001  1.074054e+002 
3203125000  -3.582566e+001  1.000579e+002 
3206250000  -3.619443e+001  9.178094e+001 
3209375000  -3.586816e+001  8.366804e+001 
3212500000  -3.614704e+001  7.684592e+001 
3215625000  -3.614247e+001  7.399487e+001 
3218750000  -3.697796e+001  6.324295e+001 
3221875000  -3.732505e+001  5.651269e+001 
3225000000  -3.698838e+001  5.305669e+001 
3228125000  -3.763386e+001  4.453527e+001 
3231250000  -3.806871e+001  4.229050e+001 
3234375000  -3.798080e+001  3.979224e+001 
3237500000  -3.813153e+001  3.609316e+001 
3240625000  -3.759480e+001  3.027631e+001 
3243750000  -3.769409e+001  2.096282e+001 
3246875000  -3.815496e+001  1.358599e+001 
3250000000  -3.873453e+001  9.505574e+000 
3253125000  -3.903927e+001  6.111863e+000 
3256250000  -3.866593e+001  -1.647647e+000 
3259375000  -3.922211e+001  -1.172533e+001 
3262500000  -4.076370e+001  -1.609306e+001 
3265625000  -4.093961e+001  -1.359224e+001 
3268750000  -4.134312e+001  -1.161540e+001 
3271875000  -4.063237e+001  -1.649610e+001 
3275000000  -4.009731e+001  -2.476421e+001 
3278125000  -4.072727e+001  -3.010350e+001 
3281250000  -4.095057e+001  -3.015430e+001 
3284375000  -4.054484e+001  -3.701165e+001 
3287500000  -4.103765e+001  -4.062040e+001 
3290625000  -4.116613e+001  -4.970319e+001 
3293750000  -4.104216e+001  -5.342481e+001 
3296875000  -4.248960e+001  -5.550942e+001 
3300000000  -4.186553e+001  -5.545572e+001 
3303125000  -4.120689e+001  -6.272110e+001 
3306250000  -4.092059e+001  -6.953850e+001 
3309375000  -4.063951e+001  -7.430289e+001 
3312500000  -4.095679e+001  -9.054197e+001 
3315625000  -4.209939e+001  -9.661516e+001 
3318750000  -4.367144e+001  -1.007726e+002 
3321875000  -4.465556e+001  -9.758420e+001 
3325000000  -4.439413e+001  -8.895132e+001 
3328125000  -4.378436e+001  -9.039034e+001 
3331250000  -4.277599e+001  -8.893995e+001 
3334375000  -3.972949e+001  -1.029356e+002 
3337500000  -4.027785e+001  -1.231777e+002 
3340625000  -4.233195e+001  -1.331981e+002 
3343750000  -4.411195e+001  -1.321467e+002 
3346875000  -4.352859e+001  -1.327043e+002 
3350000000  -4.304839e+001  -1.358676e+002 
3353125000  -4.287845e+001  -1.424371e+002 
3356250000  -4.266251e+001  -1.516063e+002 
3359375000  -4.359915e+001  -1.619856e+002 
3362500000  -4.457569e+001  -1.661120e+002 
3365625000  -4.504323e+001  -1.722889e+002 
3368750000  -4.544884e+001  -1.747666e+002 
3371875000  -4.569363e+001  1.769716e+002 
3375000000  -4.743163e+001  1.765669e+002 
3378125000  -4.779159e+001  1.749296e+002 
3381250000  -4.946070e+001  -1.722872e+002 
3384375000  -4.682774e+001  -1.605672e+002 
3387500000  -4.372867e+001  1.793816e+002 
3390625000  -4.611586e+001  1.573546e+002 
3393750000  -4.682573e+001  1.636822e+002 
3396875000  -4.607012e+001  1.590867e+002 
3400000000  -4.570037e+001  1.458125e+002 
3403125000  -4.712067e+001  1.416013e+002 
3406250000  -4.775660e+001  1.363352e+002 
3409375000  -4.841814e+001  1.300533e+002 
3412500000  -4.860980e+001  1.255548e+002 
3415625000  -4.964649e+001  1.264718e+002 
3418750000  -5.013138e+001  1.253647e+002 
3421875000  -5.147416e+001  1.283680e+002 
3425000000  -5.012311e+001  1.268141e+002 
3428125000  -5.034852e+001  1.236884e+002 
3431250000  -5.027510e+001  1.194653e+002 
3434375000  -5.098489e+001  1.169442e+002 
3437500000  -5.135123e+001  1.096803e+002 
3440625000  -5.253583e+001  1.088608e+002 
3443750000  -5.091746e+001  1.167860e+002 
3446875000  -5.109166e+001  1.075591e+002 
3450000000  -5.093050e+001  9.562809e+001 
3453125000  -5.082709e+001  8.981965e+001 
3456250000  -5.296671e+001  8.441103e+001 
3459375000  -5.217052e+001  9.100596e+001 
3462500000  -5.261738e+001  9.697052e+001 
3465625000  -5.189227e+001  8.364388e+001 
3468750000  -5.215032e+001  8.695107e+001 
3471875000  -5.254506e+001  8.235535e+001 
3475000000  -5.078826e+001  8.059881e+001 
3478125000  -5.099725e+001  7.057018e+001 
3481250000  -5.235608e+001  6.996753e+001 
3484375000  -5.227575e+001  7.209792e+001 
3487500000  -5.163453e+001  7.306995e+001 
3490625000  -5.131037e+001  6.013086e+001 
3493750000  -5.151744e+001  5.742094e+001 
3496875000  -5.183863e+001  5.956511e+001 
3500000000  -5.225099e+001  5.068406e+001 
3503125000  -5.108331e+001  5.527328e+001 
3506250000  -4.995591e+001  4.279658e+001 
3509375000  -4.995391e+001  2.988471e+001 
3512500000  -5.026768e+001  1.838880e+001 
3515625000  -5.101092e+001  1.843053e+001 
3518750000  -5.248324e+001  2.014057e+001 
3521875000  -5.137857e+001  1.341495e+001 
3525000000  -5.354314e+001  1.285487e+001 
3528125000  -5.212497e+001  1.305078e+001 
3531250000  -5.258477e+001  1.447117e+001 
3534375000  -5.342998e+001  -7.317175e+000 
3537500000  -5.429719e+001  -1.683146e+001 
3540625000  -5.467732e+001  -2.028417e+001 
3543750000  -5.575384e+001  -1.095798e+001 
3546875000  -5.583974e+001  1.659660e-001 
3550000000  -5.432062e+001  1.047962e+000 
3553125000  -5.424050e+001  -2.856037e+001 
3556250000  -5.620218e+001  -2.157320e+001 
3559375000  -5.615634e+001  -1.804690e+001 
3562500000  -5.642033e+001  -3.729385e+001 
3565625000  -5.608574e+001  -4.046245e+001 
3568750000  -5.684907e+001  -3.807503e+001 
3571875000  -5.766301e+001  -3.110031e+001 
3575000000  -6.043481e+001  -2.757190e+001 
3578125000  -5.849819e+001  -3.463287e+001 
3581250000  -5.914911e+001  -3.588564e+001 
3584375000  -5.691929e+001  -2.482535e+001 
3587500000  -5.668032e+001  -4.078697e+001 
3590625000  -5.814559e+001  -4.685667e+001 
3593750000  -6.138640e+001  -4.492280e+001 
3596875000  -5.840747e+001  -2.283379e+001 
3600000000  -5.612619e+001  -2.493955e+001 
3603125000  -5.900428e+001  -4.584684e+001 
3606250000  -6.111188e+001  -4.740095e+001 
3609375000  -5.886610e+001  -3.289652e+001 
3612500000  -5.827098e+001  -3.511585e+001 
3615625000  -6.038302e+001  -4.421936e+001 
3618750000  -5.877110e+001  -3.840981e+001 
3621875000  -5.701986e+001  -3.252080e+001 
3625000000  -5.872983e+001  -3.092196e+001 
3628125000  -5.584244e+001  -3.947878e+001 
3631250000  -5.701620e+001  -4.450637e+001 
3634375000  -5.593520e+001  -3.649419e+001 
3637500000  -5.650545e+001  -2.980354e+001 
3640625000  -5.436504e+001  -2.988502e+001 
3643750000  -5.264622e+001  -3.923459e+001 
3646875000  -5.259343e+001  -5.596741e+001 
3650000000  -5.260630e+001  -5.682224e+001 
3653125000  -5.191298e+001  -5.235585e+001 
3656250000  -5.182438e+001  -5.504969e+001 
3659375000  -5.136582e+001  -5.407681e+001 
3662500000  -5.031723e+001  -5.999598e+001 
3665625000  -4.949667e+001  -6.445313e+001 
3668750000  -4.789220e+001  -6.727062e+001 
3671875000  -4.700570e+001  -7.589293e+001 
3675000000  -4.728957e+001  -8.605722e+001 
3678125000  -4.727636e+001  -8.407134e+001 
3681250000  -4.595445e+001  -9.274092e+001 
3684375000  -4.648090e+001  -9.722036e+001 
3687500000  -4.658862e+001  -1.041320e+002 
3690625000  -4.619639e+001  -1.108213e+002 
3693750000  -4.679314e+001  -1.108429e+002 
3696875000  -4.637416e+001  -1.086228e+002 
3700000000  -4.516299e+001  -1.199185e+002 
3703125000  -4.592159e+001  -1.248776e+002 
3706250000  -4.556160e+001  -1.251344e+002 
3709375000  -4.485247e+001  -1.237762e+002 
3712500000  -4.342925e+001  -1.287180e+002 
3715625000  -4.196192e+001  -1.388598e+002 
3718750000  -4.198397e+001  -1.422899e+002 
3721875000  -4.134459e+001  -1.529439e+002 
3725000000  -4.164492e+001  -1.618281e+002 
3728125000  -4.139959e+001  -1.651750e+002 
3731250000  -4.066329e+001  -1.695786e+002 
3734375000  -4.014900e+001  -1.765058e+002 
3737500000  -4.096056e+001  1.719094e+002 
3740625000  -4.102290e+001  1.665977e+002 
3743750000  -4.057031e+001  1.584892e+002 
3746875000  -4.056337e+001  1.526917e+002 
3750000000  -4.103533e+001  1.495693e+002 
3753125000  -4.049672e+001  1.474549e+002 
3756250000  -4.062036e+001  1.427828e+002 
3759375000  -4.040395e+001  1.374505e+002 
3762500000  -4.026142e+001  1.322677e+002 
3765625000  -4.090284e+001  1.259531e+002 
3768750000  -4.018299e+001  1.257769e+002 
3771875000  -3.826495e+001  1.203262e+002 
3775000000  -3.848528e+001  1.066012e+002 
3778125000  -3.904126e+001  1.019071e+002 
3781250000  -3.897593e+001  9.762596e+001 
3784375000  -3.882978e+001  9.161960e+001 
3787500000  -3.859691e+001  8.530557e+001 
3790625000  -3.917233e+001  7.611091e+001 
3793750000  -3.930093e+001  7.391389e+001 
3796875000  -3.831195e+001  6.970832e+001 
3800000000  -3.642736e+001  6.361502e+001 
3803125000  -3.821675e+001  5.025610e+001 
3806250000  -3.892175e+001  4.694235e+001 
3809375000  -3.859164e+001  4.234747e+001 
3812500000  -3.848244e+001  3.386027e+001 
3815625000  -3.940359e+001  2.334937e+001 
3818750000  -4.064812e+001  2.616416e+001 
3821875000  -4.035106e+001  3.414383e+001 
3825000000  -3.838112e+001  3.006788e+001 
3828125000  -3.698460e+001  1.270093e+001 
3831250000  -3.812617e+001  -1.380432e+000 
3834375000  -4.050995e+001  -1.557624e+000 
3837500000  -4.074459e+001  1.073475e+000 
3840625000  -3.889888e+001  -1.811672e+000 
3843750000  -3.833533e+001  -1.757789e+001 
3846875000  -3.994999e+001  -2.326247e+001 
3850000000  -4.081784e+001  -1.581375e+001 
3853125000  -4.028643e+001  -1.763374e+001 
3856250000  -3.944767e+001  -2.352646e+001 
3859375000  -3.867917e+001  -3.272837e+001 
3862500000  -3.853067e+001  -4.342449e+001 
3865625000  -3.887636e+001  -4.772646e+001 
3868750000  -3.877480e+001  -4.849445e+001 
3871875000  -3.814521e+001  -5.743422e+001 
3875000000  -3.865974e+001  -6.576347e+001 
3878125000  -3.942944e+001  -6.867056e+001 
3881250000  -3.916154e+001  -6.788909e+001 
3884375000  -3.886445e+001  -7.571089e+001 
3887500000  -3.937857e+001  -8.005135e+001 
3890625000  -3.956762e+001  -8.719525e+001 
3893750000  -3.976968e+001  -8.703196e+001 
3896875000  -3.995862e+001  -8.935840e+001 
3900000000  -3.979501e+001  -9.496716e+001 
3903125000  -3.944624e+001  -9.791231e+001 
3906250000  -3.905516e+001  -1.021851e+002 
3909375000  -3.839756e+001  -1.120377e+002 
3912500000  -3.920659e+001  -1.205322e+002 
3915625000  -4.046500e+001  -1.211483e+002 
3918750000  -3.974401e+001  -1.210504e+002 
3921875000  -3.931147e+001  -1.259554e+002 
3925000000  -3.834706e+001  -1.314899e+002 
3928125000  -3.834072e+001  -1.393453e+002 
3931250000  -3.906339e+001  -1.484031e+002 
3934375000  -3.974227e+001  -1.501052e+002 
3937500000  -4.008220e+001  -1.524586e+002 
3940625000  -4.002826e+001  -1.542741e+002 
3943750000  -3.896381e+001  -1.574318e+002 
3946875000  -3.845279e+001  -1.648865e+002 
3950000000  -3.969523e+001  -1.747411e+002 
3953125000  -3.999421e+001  -1.719685e+002 
3956250000  -3.878859e+001  -1.719731e+002 
3959375000  -3.805955e+001  1.793628e+002 
3962500000  -3.772347e+001  1.724299e+002 
3965625000  -3.795504e+001  1.618267e+002 
3968750000  -3.870973e+001  1.549401e+002 
3971875000  -3.882892e+001  1.498434e+002 
3975000000  -3.852880e+001  1.455081e+002 
3978125000  -3.864844e+001  1.410932e+002 
3981250000  -3.865864e+001  1.335556e+002 
3984375000  -3.909899e+001  1.269376e+002 
3987500000  -3.980373e+001  1.233904e+002 
3990625000  -3.997078e+001  1.215517e+002 
3993750000  -4.007825e+001  1.169414e+002 
3996875000  -4.010332e+001  1.110490e+002 
4000000000  -4.058418e+001  1.079541e+002 
4003125000  -4.102553e+001  1.093106e+002 
4006250000  -3.936230e+001  1.081556e+002 
4009375000  -3.853116e+001  9.364201e+001 
4012500000  -4.028901e+001  8.557111e+001 
4015625000  -4.146558e+001  8.552340e+001 
4018750000  -4.150861e+001  8.557181e+001 
4021875000  -4.080744e+001  8.333193e+001 
4025000000  -4.031309e+001  7.741081e+001 
4028125000  -4.071584e+001  6.880737e+001 
4031250000  -4.120967e+001  6.508089e+001 
4034375000  -4.173163e+001  6.383334e+001 
4037500000  -4.129771e+001  6.449736e+001 
4040625000  -4.089360e+001  6.031089e+001 
4043750000  -4.103906e+001  5.856359e+001 
4046875000  -4.069450e+001  5.339135e+001 
4050000000  -4.062350e+001  4.804569e+001 
4053125000  -4.126683e+001  4.482158e+001 
4056250000  -4.117044e+001  4.920834e+001 
4059375000  -3.937688e+001  4.595772e+001 
4062500000  -3.892881e+001  3.969894e+001 
4065625000  -3.918341e+001  3.581167e+001 
4068750000  -3.823864e+001  2.621653e+001 
4071875000  -3.783572e+001  1.754818e+001 
4075000000  -3.849788e+001  1.074305e+001 
4078125000  -3.907885e+001  4.648026e+000 
4081250000  -3.821186e+001  1.962848e+000 
4084375000  -3.818281e+001  -9.036680e+000 
4087500000  -3.882560e+001  -1.590372e+001 
4090625000  -3.919413e+001  -1.531036e+001 
4093750000  -3.883579e+001  -1.862193e+001 
4096875000  -3.872208e+001  -2.881752e+001 
4100000000  -3.974200e+001  -3.689860e+001 
4103125000  -4.049001e+001  -3.282159e+001 
4106250000  -3.980228e+001  -3.179812e+001 
4109375000  -3.917789e+001  -3.526427e+001 
4112500000  -3.865729e+001  -4.272328e+001 
4115625000  -3.934077e+001  -5.147274e+001 
4118750000  -3.899502e+001  -5.445272e+001 
4121875000  -3.904498e+001  -6.340990e+001 
4125000000  -3.987436e+001  -6.951823e+001 
4128125000  -4.076557e+001  -6.803302e+001 
4131250000  -3.970351e+001  -6.228865e+001 
4134375000  -3.773998e+001  -7.089087e+001 
4137500000  -3.832068e+001  -9.228442e+001 
4140625000  -4.049811e+001  -9.858937e+001 
4143750000  -4.156309e+001  -9.285853e+001 
4146875000  -4.056937e+001  -8.977032e+001 
4150000000  -3.981168e+001  -9.712582e+001 
4153125000  -4.014236e+001  -1.035163e+002 
4156250000  -4.122587e+001  -1.068961e+002 
4159375000  -4.128455e+001  -1.037576e+002 
4162500000  -4.021687e+001  -1.008358e+002 
4165625000  -3.884903e+001  -1.079088e+002 
4168750000  -3.857397e+001  -1.177653e+002 
4171875000  -3.832794e+001  -1.283154e+002 
4175000000  -3.930511e+001  -1.338349e+002 
4178125000  -3.970884e+001  -1.348862e+002 
4181250000  -3.937131e+001  -1.394339e+002 
4184375000  -3.962741e+001  -1.436130e+002 
4187500000  -3.965024e+001  -1.489600e+002 
4190625000  -3.949140e+001  -1.564868e+002 
4193750000  -4.069834e+001  -1.610040e+002 
4196875000  -4.154214e+001  -1.641244e+002 
4200000000  -4.245110e+001  -1.562207e+002 
4203125000  -4.090599e+001  -1.458104e+002 
4206250000  -3.746640e+001  -1.539642e+002 
4209375000  -3.751516e+001  -1.759591e+002 
4212500000  -3.956041e+001  1.762896e+002 
4215625000  -3.995980e+001  -1.786859e+002 
4218750000  -3.857841e+001  -1.759548e+002 
4221875000  -3.684555e+001  1.766024e+002 
4225000000  -3.823890e+001  1.626988e+002 
4228125000  -3.815564e+001  1.631173e+002 
4231250000  -3.636524e+001  1.573642e+002 
4234375000  -3.649047e+001  1.454738e+002 
4237500000  -3.616355e+001  1.419202e+002 
4240625000  -3.638464e+001  1.278711e+002 
4243750000  -3.767201e+001  1.213020e+002 
4246875000  -3.837847e+001  1.200478e+002 
4250000000  -3.841786e+001  1.193713e+002 
4253125000  -3.812545e+001  1.161950e+002 
4256250000  -3.797625e+001  1.112729e+002 
4259375000  -3.787238e+001  1.069863e+002 
4262500000  -3.809559e+001  1.028352e+002 
4265625000  -3.813531e+001  1.007223e+002 
4268750000  -3.697016e+001  9.233423e+001 
4271875000  -3.685810e+001  8.335239e+001 
4275000000  -3.651480e+001  7.518772e+001 
4278125000  -3.756078e+001  6.272647e+001 
4281250000  -3.936435e+001  6.280525e+001 
4284375000  -3.896147e+001  5.978057e+001 
4287500000  -4.024482e+001  5.747114e+001 
4290625000  -4.068257e+001  6.463464e+001 
4293750000  -3.908577e+001  6.563319e+001 
4296875000  -3.772203e+001  5.106151e+001 
4300000000  -3.934704e+001  4.059253e+001 
4303125000  -3.973641e+001  4.566750e+001 
4306250000  -3.884115e+001  4.860360e+001 
4309375000  -3.778505e+001  4.151915e+001 
4312500000  -3.758828e+001  3.066795e+001 
4315625000  -3.793253e+001  2.198057e+001 
4318750000  -3.857332e+001  1.739603e+001 
4321875000  -3.873822e+001  2.015940e+001 
4325000000  -3.828886e+001  1.761309e+001 
4328125000  -3.754362e+001  8.323474e+000 
4331250000  -3.753230e+001  -9.677377e-001 
4334375000  -3.851723e+001  -9.024546e+000 
4337500000  -3.947969e+001  -9.766910e+000 
4340625000  -3.999299e+001  -5.516435e+000 
4343750000  -3.856377e+001  -8.055882e+000 
4346875000  -3.831113e+001  -1.705138e+001 
4350000000  -3.840229e+001  -2.488400e+001 
4353125000  -3.895042e+001  -3.334378e+001 
4356250000  -4.131768e+001  -2.923164e+001 
4359375000  -3.988042e+001  -1.465220e+001 
4362500000  -3.659231e+001  -2.305949e+001 
4365625000  -3.607986e+001  -4.029557e+001 
4368750000  -3.728036e+001  -5.021400e+001 
4371875000  -3.807113e+001  -5.115253e+001 
4375000000  -3.748242e+001  -5.354910e+001 
4378125000  -3.689073e+001  -6.247328e+001 
4381250000  -3.728052e+001  -7.001546e+001 
4384375000  -3.722201e+001  -7.669893e+001 
4387500000  -3.818143e+001  -8.204784e+001 
4390625000  -3.876250e+001  -8.375448e+001 
4393750000  -3.797921e+001  -8.217342e+001 
4396875000  -3.744395e+001  -8.814683e+001 
4400000000  -3.687665e+001  -9.602681e+001 
4403125000  -3.792995e+001  -1.084170e+002 
4406250000  -3.861954e+001  -1.099039e+002 
4409375000  -3.866426e+001  -1.140541e+002 
4412500000  -4.000240e+001  -1.154345e+002 
4415625000  -3.965073e+001  -1.106164e+002 
