!Agilent Technologies,E8363B,MY43030201,A.06.04.32
!Agilent E8363B: A.06.04.32
!Date: Tuesday, November 11, 2014 21:27:27
!Correction: S21(Response(S21)) 
!S1P File: Measurement: S21:
# Hz S  dB   R 50
3000000000  -4.063058e+001  9.284348e+001 
3003125000  -4.233918e+001  8.465244e+001 
3006250000  -4.215491e+001  8.441834e+001 
3009375000  -4.254690e+001  8.880436e+001 
3012500000  -4.170533e+001  8.514146e+001 
3015625000  -4.125700e+001  7.659908e+001 
3018750000  -4.197301e+001  7.734358e+001 
3021875000  -4.038998e+001  7.850497e+001 
3025000000  -3.908127e+001  7.385383e+001 
3028125000  -3.818551e+001  6.559586e+001 
3031250000  -3.708442e+001  5.306037e+001 
3034375000  -3.678404e+001  3.893640e+001 
3037500000  -3.755246e+001  2.720365e+001 
3040625000  -3.866594e+001  2.377300e+001 
3043750000  -3.916281e+001  1.605824e+001 
3046875000  -3.964604e+001  1.157352e+001 
3050000000  -4.095023e+001  5.348426e+000 
3053125000  -4.070164e+001  1.045474e+001 
3056250000  -4.039178e+001  1.262227e+001 
3059375000  -3.995176e+001  1.109836e+001 
3062500000  -3.817413e+001  5.475918e+000 
3065625000  -3.794654e+001  -4.104469e+000 
3068750000  -3.756318e+001  -1.080574e+001 
3071875000  -3.775845e+001  -1.337459e+001 
3075000000  -3.719304e+001  -1.952824e+001 
3078125000  -3.710386e+001  -2.517720e+001 
3081250000  -3.733829e+001  -3.187812e+001 
3084375000  -3.647465e+001  -3.706392e+001 
3087500000  -3.638035e+001  -4.257481e+001 
3090625000  -3.590821e+001  -5.561826e+001 
3093750000  -3.692085e+001  -6.382948e+001 
3096875000  -3.739732e+001  -6.917204e+001 
3100000000  -3.722509e+001  -7.179397e+001 
3103125000  -3.758152e+001  -7.537312e+001 
3106250000  -3.721037e+001  -8.077625e+001 
3109375000  -3.727158e+001  -8.552671e+001 
3112500000  -3.726078e+001  -8.978017e+001 
3115625000  -3.716719e+001  -9.452560e+001 
3118750000  -3.739009e+001  -9.718918e+001 
3121875000  -3.648866e+001  -1.084061e+002 
3125000000  -3.827690e+001  -1.121410e+002 
3128125000  -3.871337e+001  -1.039977e+002 
3131250000  -3.612999e+001  -1.115626e+002 
3134375000  -3.533684e+001  -1.284093e+002 
3137500000  -3.615023e+001  -1.408810e+002 
3140625000  -3.745568e+001  -1.439371e+002 
3143750000  -3.827168e+001  -1.452190e+002 
3146875000  -3.787092e+001  -1.432203e+002 
3150000000  -3.695185e+001  -1.464869e+002 
3153125000  -3.736000e+001  -1.554628e+002 
3156250000  -3.801989e+001  -1.515235e+002 
3159375000  -3.594260e+001  -1.525008e+002 
3162500000  -3.428999e+001  -1.681526e+002 
3165625000  -3.555993e+001  1.791423e+002 
3168750000  -3.546895e+001  1.780068e+002 
3171875000  -3.491265e+001  1.700457e+002 
3175000000  -3.562160e+001  1.608845e+002 
3178125000  -3.523738e+001  1.602023e+002 
3181250000  -3.439768e+001  1.525311e+002 
3184375000  -3.407019e+001  1.407256e+002 
3187500000  -3.538085e+001  1.256460e+002 
3190625000  -3.739089e+001  1.196244e+002 
3193750000  -3.768957e+001  1.250859e+002 
3196875000  -3.745058e+001  1.252923e+002 
3200000000  -3.648316e+001  1.208878e+002 
3203125000  -3.596981e+001  1.131946e+002 
3206250000  -3.630488e+001  1.051782e+002 
3209375000  -3.574057e+001  9.829152e+001 
3212500000  -3.612087e+001  9.026352e+001 
3215625000  -3.612042e+001  8.661530e+001 
3218750000  -3.698745e+001  7.711542e+001 
3221875000  -3.728037e+001  7.000648e+001 
3225000000  -3.707817e+001  6.584062e+001 
3228125000  -3.776555e+001  5.900027e+001 
3231250000  -3.832727e+001  5.647799e+001 
3234375000  -3.798270e+001  5.371107e+001 
3237500000  -3.825630e+001  4.876625e+001 
3240625000  -3.750162e+001  4.433063e+001 
3243750000  -3.769653e+001  3.420104e+001 
3246875000  -3.816501e+001  2.699059e+001 
3250000000  -3.879055e+001  2.382091e+001 
3253125000  -3.878777e+001  1.988843e+001 
3256250000  -3.871077e+001  1.225441e+001 
3259375000  -3.935613e+001  1.063784e+000 
3262500000  -4.052663e+001  -2.689069e+000 
3265625000  -4.113359e+001  -2.459059e-002 
3268750000  -4.130140e+001  -4.049827e-001 
3271875000  -4.083850e+001  -2.422666e+000 
3275000000  -4.007684e+001  -9.241094e+000 
3278125000  -4.079342e+001  -1.697416e+001 
3281250000  -4.105764e+001  -1.695792e+001 
3284375000  -4.064926e+001  -2.448128e+001 
3287500000  -4.092960e+001  -2.805831e+001 
3290625000  -4.130226e+001  -3.552576e+001 
3293750000  -4.120798e+001  -4.113476e+001 
3296875000  -4.238401e+001  -4.220797e+001 
3300000000  -4.181666e+001  -4.175676e+001 
3303125000  -4.090264e+001  -4.835579e+001 
3306250000  -4.087132e+001  -5.501162e+001 
3309375000  -4.064063e+001  -6.202608e+001 
3312500000  -4.078901e+001  -7.334746e+001 
3315625000  -4.215780e+001  -8.113904e+001 
3318750000  -4.341610e+001  -8.427722e+001 
3321875000  -4.462316e+001  -8.324960e+001 
3325000000  -4.461733e+001  -7.612212e+001 
3328125000  -4.384972e+001  -7.731862e+001 
3331250000  -4.229542e+001  -7.267041e+001 
3334375000  -4.006342e+001  -8.771806e+001 
3337500000  -4.031833e+001  -1.086766e+002 
3340625000  -4.214560e+001  -1.185676e+002 
3343750000  -4.401322e+001  -1.167964e+002 
3346875000  -4.347299e+001  -1.196510e+002 
3350000000  -4.293284e+001  -1.216258e+002 
3353125000  -4.292354e+001  -1.287496e+002 
3356250000  -4.266927e+001  -1.373409e+002 
3359375000  -4.341272e+001  -1.467169e+002 
3362500000  -4.438032e+001  -1.559097e+002 
3365625000  -4.485014e+001  -1.568937e+002 
3368750000  -4.569126e+001  -1.599668e+002 
3371875000  -4.580954e+001  -1.639377e+002 
3375000000  -4.743085e+001  -1.667614e+002 
3378125000  -4.797002e+001  -1.691862e+002 
3381250000  -5.005069e+001  -1.631117e+002 
3384375000  -4.645950e+001  -1.446137e+002 
3387500000  -4.425650e+001  -1.638114e+002 
3390625000  -4.607600e+001  1.745450e+002 
3393750000  -4.675336e+001  1.753183e+002 
3396875000  -4.622719e+001  1.750393e+002 
3400000000  -4.632220e+001  1.646305e+002 
3403125000  -4.637629e+001  1.572296e+002 
3406250000  -4.748439e+001  1.532072e+002 
3409375000  -4.776254e+001  1.443072e+002 
3412500000  -4.859276e+001  1.435350e+002 
3415625000  -4.967370e+001  1.397743e+002 
3418750000  -5.012234e+001  1.379588e+002 
3421875000  -5.118904e+001  1.442453e+002 
3425000000  -4.976655e+001  1.447447e+002 
3428125000  -5.036861e+001  1.383034e+002 
3431250000  -5.049275e+001  1.273974e+002 
3434375000  -5.059239e+001  1.243602e+002 
3437500000  -5.158800e+001  1.231186e+002 
3440625000  -5.188908e+001  1.222337e+002 
3443750000  -5.162182e+001  1.317409e+002 
3446875000  -5.019410e+001  1.201508e+002 
3450000000  -5.058276e+001  1.194714e+002 
3453125000  -5.117149e+001  1.040032e+002 
3456250000  -5.209404e+001  1.053080e+002 
3459375000  -5.311657e+001  1.052716e+002 
3462500000  -5.254972e+001  1.156460e+002 
3465625000  -5.161501e+001  1.005096e+002 
3468750000  -5.240561e+001  1.056356e+002 
3471875000  -5.168502e+001  9.882187e+001 
3475000000  -5.122426e+001  9.759264e+001 
3478125000  -5.133541e+001  9.053593e+001 
3481250000  -5.299568e+001  8.795456e+001 
3484375000  -5.292247e+001  9.244872e+001 
3487500000  -5.143623e+001  8.736752e+001 
3490625000  -5.067690e+001  7.490184e+001 
3493750000  -5.092321e+001  7.403207e+001 
3496875000  -5.122467e+001  7.219675e+001 
3500000000  -5.252637e+001  7.709721e+001 
3503125000  -5.050488e+001  6.984003e+001 
3506250000  -4.927230e+001  6.373392e+001 
3509375000  -4.846671e+001  5.102003e+001 
3512500000  -5.036650e+001  4.059339e+001 
3515625000  -5.063573e+001  3.692781e+001 
3518750000  -5.212809e+001  3.829285e+001 
3521875000  -5.194844e+001  2.884739e+001 
3525000000  -5.210381e+001  1.677254e+001 
3528125000  -5.171983e+001  2.857220e+001 
3531250000  -5.110204e+001  1.741871e+001 
3534375000  -5.164270e+001  1.039973e+001 
3537500000  -5.244394e+001  -7.252389e+000 
3540625000  -5.329409e+001  -1.636536e+000 
3543750000  -5.522027e+001  2.648012e+000 
3546875000  -5.462654e+001  4.761428e+000 
3550000000  -5.275063e+001  9.981360e+000 
3553125000  -5.200499e+001  -1.767467e+001 
3556250000  -5.562623e+001  -1.793345e+001 
3559375000  -5.630663e+001  -9.612580e+000 
3562500000  -5.494524e+001  -2.013692e+001 
3565625000  -5.592509e+001  -3.571793e+001 
3568750000  -5.604415e+001  -2.804701e+001 
3571875000  -5.775526e+001  -1.940798e+001 
3575000000  -5.798641e+001  -2.911986e+001 
3578125000  -5.853055e+001  -2.351313e+001 
3581250000  -5.920179e+001  -1.612697e+001 
3584375000  -5.784457e+001  -1.835270e+001 
3587500000  -5.662873e+001  -2.213249e+001 
3590625000  -5.894481e+001  -4.767478e+001 
3593750000  -5.833046e+001  -2.903129e+001 
3596875000  -6.070974e+001  -8.237553e+000 
3600000000  -5.629588e+001  -1.652843e+001 
3603125000  -5.748852e+001  -3.879793e+001 
3606250000  -5.819722e+001  -4.028507e+001 
3609375000  -5.860078e+001  -1.799413e+001 
3612500000  -5.913927e+001  -2.906068e+001 
3615625000  -5.843322e+001  -3.768165e+001 
3618750000  -5.846787e+001  -1.841928e+001 
3621875000  -5.870313e+001  -1.782935e+001 
3625000000  -5.873101e+001  -2.898384e+001 
3628125000  -5.670865e+001  -2.159979e+001 
3631250000  -5.632034e+001  -2.841624e+001 
3634375000  -5.829726e+001  -2.962109e+001 
3637500000  -5.527762e+001  -2.464269e+001 
3640625000  -5.411746e+001  -2.385074e+001 
3643750000  -5.344850e+001  -2.971438e+001 
3646875000  -5.233526e+001  -3.797063e+001 
3650000000  -5.366826e+001  -3.295599e+001 
3653125000  -5.257957e+001  -4.616802e+001 
3656250000  -5.215144e+001  -4.467825e+001 
3659375000  -5.182857e+001  -4.569038e+001 
3662500000  -5.112377e+001  -5.348132e+001 
3665625000  -5.057280e+001  -4.969735e+001 
3668750000  -4.862693e+001  -5.459074e+001 
3671875000  -4.768161e+001  -6.493926e+001 
3675000000  -4.802986e+001  -7.096223e+001 
3678125000  -4.760365e+001  -7.185197e+001 
3681250000  -4.688048e+001  -8.087719e+001 
3684375000  -4.748083e+001  -8.267690e+001 
3687500000  -4.744761e+001  -8.693587e+001 
3690625000  -4.740983e+001  -9.333897e+001 
3693750000  -4.740236e+001  -9.623422e+001 
3696875000  -4.670813e+001  -9.600482e+001 
3700000000  -4.578317e+001  -1.013834e+002 
3703125000  -4.535908e+001  -1.093684e+002 
3706250000  -4.583611e+001  -1.107784e+002 
3709375000  -4.511154e+001  -1.089236e+002 
3712500000  -4.358036e+001  -1.122426e+002 
3715625000  -4.231989e+001  -1.235058e+002 
3718750000  -4.202938e+001  -1.279580e+002 
3721875000  -4.168545e+001  -1.403156e+002 
3725000000  -4.199318e+001  -1.457181e+002 
3728125000  -4.160820e+001  -1.492757e+002 
3731250000  -4.076778e+001  -1.555134e+002 
3734375000  -4.030518e+001  -1.620141e+002 
3737500000  -4.104272e+001  -1.717627e+002 
3740625000  -4.107787e+001  -1.768189e+002 
3743750000  -4.065337e+001  1.753587e+002 
3746875000  -4.073051e+001  1.706390e+002 
3750000000  -4.096199e+001  1.657548e+002 
3753125000  -4.059083e+001  1.635380e+002 
3756250000  -4.064935e+001  1.570273e+002 
3759375000  -4.073122e+001  1.528231e+002 
3762500000  -3.999584e+001  1.449731e+002 
3765625000  -4.070977e+001  1.403996e+002 
3768750000  -4.016079e+001  1.412876e+002 
3771875000  -3.847223e+001  1.349668e+002 
3775000000  -3.856997e+001  1.219916e+002 
3778125000  -3.890855e+001  1.176478e+002 
3781250000  -3.901336e+001  1.122689e+002 
3784375000  -3.884537e+001  1.058091e+002 
3787500000  -3.843183e+001  1.003218e+002 
3790625000  -3.911627e+001  9.051659e+001 
3793750000  -3.931112e+001  8.781042e+001 
3796875000  -3.822480e+001  8.231118e+001 
3800000000  -3.648692e+001  7.850237e+001 
3803125000  -3.826902e+001  6.553225e+001 
3806250000  -3.897536e+001  6.157277e+001 
3809375000  -3.856335e+001  5.821288e+001 
3812500000  -3.853299e+001  4.760064e+001 
3815625000  -3.962254e+001  3.911412e+001 
3818750000  -4.077881e+001  4.018410e+001 
3821875000  -4.029044e+001  4.741696e+001 
3825000000  -3.843537e+001  4.757108e+001 
3828125000  -3.708126e+001  2.835171e+001 
3831250000  -3.842629e+001  1.295621e+001 
3834375000  -4.026413e+001  1.249346e+001 
3837500000  -4.086194e+001  1.468947e+001 
3840625000  -3.916853e+001  1.153954e+001 
3843750000  -3.830444e+001  -9.896857e-002 
3846875000  -4.002693e+001  -8.438594e+000 
3850000000  -4.089541e+001  -2.388345e+000 
3853125000  -4.000849e+001  -3.985221e-001 
3856250000  -3.960572e+001  -7.236533e+000 
3859375000  -3.892059e+001  -1.634310e+001 
3862500000  -3.852423e+001  -2.662931e+001 
3865625000  -3.921465e+001  -2.972131e+001 
3868750000  -3.883197e+001  -2.999742e+001 
3871875000  -3.818272e+001  -3.680213e+001 
3875000000  -3.830058e+001  -4.810033e+001 
3878125000  -3.959645e+001  -5.295618e+001 
3881250000  -3.961073e+001  -5.004227e+001 
3884375000  -3.877344e+001  -5.840352e+001 
3887500000  -3.895282e+001  -6.465309e+001 
3890625000  -3.970044e+001  -6.788637e+001 
3893750000  -3.984000e+001  -7.026573e+001 
3896875000  -3.991064e+001  -7.424513e+001 
3900000000  -3.991533e+001  -7.781241e+001 
3903125000  -3.927383e+001  -8.245425e+001 
3906250000  -3.878600e+001  -8.571622e+001 
3909375000  -3.825948e+001  -9.360947e+001 
3912500000  -3.882500e+001  -1.025574e+002 
3915625000  -4.040042e+001  -1.029752e+002 
3918750000  -3.993746e+001  -1.041225e+002 
3921875000  -3.949751e+001  -1.093787e+002 
3925000000  -3.867075e+001  -1.133938e+002 
3928125000  -3.798049e+001  -1.233213e+002 
3931250000  -3.896162e+001  -1.323681e+002 
3934375000  -3.946854e+001  -1.326970e+002 
3937500000  -3.991672e+001  -1.351826e+002 
3940625000  -3.977349e+001  -1.357961e+002 
3943750000  -3.893784e+001  -1.381881e+002 
3946875000  -3.834677e+001  -1.484278e+002 
3950000000  -3.929419e+001  -1.581659e+002 
3953125000  -3.964135e+001  -1.559478e+002 
3956250000  -3.878170e+001  -1.574790e+002 
3959375000  -3.785448e+001  -1.642513e+002 
3962500000  -3.774154e+001  -1.704775e+002 
3965625000  -3.754994e+001  1.792924e+002 
3968750000  -3.859276e+001  1.704463e+002 
3971875000  -3.879376e+001  1.648536e+002 
3975000000  -3.851323e+001  1.618088e+002 
3978125000  -3.859244e+001  1.587101e+002 
3981250000  -3.837077e+001  1.510882e+002 
3984375000  -3.893358e+001  1.429129e+002 
3987500000  -3.970438e+001  1.413267e+002 
3990625000  -3.989708e+001  1.392017e+002 
3993750000  -4.004873e+001  1.335160e+002 
3996875000  -4.015808e+001  1.298473e+002 
4000000000  -4.088451e+001  1.246778e+002 
4003125000  -4.107821e+001  1.262213e+002 
4006250000  -3.944517e+001  1.247444e+002 
4009375000  -3.851424e+001  1.107024e+002 
4012500000  -3.986942e+001  1.025892e+002 
4015625000  -4.152504e+001  1.009807e+002 
4018750000  -4.138724e+001  1.046323e+002 
4021875000  -4.096555e+001  9.914974e+001 
4025000000  -4.034566e+001  9.410444e+001 
4028125000  -4.040651e+001  8.827559e+001 
4031250000  -4.115403e+001  8.309612e+001 
4034375000  -4.123829e+001  8.240252e+001 
4037500000  -4.100683e+001  8.490495e+001 
4040625000  -4.117955e+001  7.899023e+001 
4043750000  -4.080398e+001  7.639680e+001 
4046875000  -4.073268e+001  7.200763e+001 
4050000000  -4.068237e+001  6.749520e+001 
4053125000  -4.143188e+001  6.265110e+001 
4056250000  -4.141812e+001  6.860966e+001 
4059375000  -3.936994e+001  6.625582e+001 
4062500000  -3.860879e+001  5.987762e+001 
4065625000  -3.892524e+001  5.118768e+001 
4068750000  -3.812720e+001  4.584752e+001 
4071875000  -3.743178e+001  3.608965e+001 
4075000000  -3.814931e+001  2.851060e+001 
4078125000  -3.849191e+001  2.444367e+001 
4081250000  -3.795905e+001  1.986318e+001 
4084375000  -3.788883e+001  9.981066e+000 
4087500000  -3.847932e+001  2.604840e+000 
4090625000  -3.866135e+001  7.961212e-001 
4093750000  -3.847410e+001  -1.642447e+000 
4096875000  -3.833801e+001  -1.020947e+001 
4100000000  -3.916377e+001  -1.716956e+001 
4103125000  -4.046890e+001  -1.616556e+001 
4106250000  -3.973895e+001  -1.321059e+001 
4109375000  -3.887947e+001  -1.817304e+001 
4112500000  -3.834414e+001  -2.620332e+001 
4115625000  -3.892509e+001  -3.348180e+001 
4118750000  -3.886017e+001  -3.732476e+001 
4121875000  -3.877016e+001  -4.469985e+001 
4125000000  -3.949279e+001  -5.222585e+001 
4128125000  -4.043222e+001  -5.120558e+001 
4131250000  -3.951920e+001  -4.378300e+001 
4134375000  -3.714955e+001  -5.263300e+001 
4137500000  -3.763633e+001  -7.457291e+001 
4140625000  -3.984508e+001  -8.065014e+001 
4143750000  -4.124000e+001  -7.625349e+001 
4146875000  -4.050232e+001  -7.123804e+001 
4150000000  -3.933311e+001  -7.849178e+001 
4153125000  -3.966440e+001  -8.834937e+001 
4156250000  -4.095723e+001  -9.121112e+001 
4159375000  -4.099354e+001  -8.587907e+001 
4162500000  -3.982090e+001  -8.515004e+001 
4165625000  -3.864990e+001  -9.121420e+001 
4168750000  -3.804752e+001  -1.001754e+002 
4171875000  -3.814200e+001  -1.100749e+002 
4175000000  -3.896324e+001  -1.177354e+002 
4178125000  -3.953545e+001  -1.186511e+002 
4181250000  -3.918275e+001  -1.209897e+002 
4184375000  -3.923633e+001  -1.264863e+002 
4187500000  -3.897226e+001  -1.306652e+002 
4190625000  -3.893360e+001  -1.371657e+002 
4193750000  -3.997337e+001  -1.443986e+002 
4196875000  -4.103423e+001  -1.463057e+002 
4200000000  -4.202454e+001  -1.407710e+002 
4203125000  -4.055446e+001  -1.260939e+002 
4206250000  -3.749939e+001  -1.332062e+002 
4209375000  -3.690555e+001  -1.588842e+002 
4212500000  -3.895715e+001  -1.652870e+002 
4215625000  -3.964214e+001  -1.575979e+002 
4218750000  -3.764646e+001  -1.570585e+002 
4221875000  -3.600140e+001  -1.689044e+002 
4225000000  -3.709062e+001  -1.788341e+002 
4228125000  -3.756020e+001  -1.787581e+002 
4231250000  -3.567875e+001  1.747126e+002 
4234375000  -3.606853e+001  1.645460e+002 
4237500000  -3.565014e+001  1.592815e+002 
4240625000  -3.598580e+001  1.479202e+002 
4243750000  -3.687271e+001  1.390140e+002 
4246875000  -3.776915e+001  1.395354e+002 
4250000000  -3.741198e+001  1.382717e+002 
4253125000  -3.753877e+001  1.337871e+002 
4256250000  -3.725935e+001  1.280549e+002 
4259375000  -3.714673e+001  1.226216e+002 
4262500000  -3.728972e+001  1.181689e+002 
4265625000  -3.738291e+001  1.187973e+002 
4268750000  -3.620278e+001  1.112796e+002 
4271875000  -3.621729e+001  1.020746e+002 
4275000000  -3.553886e+001  9.341797e+001 
4278125000  -3.665034e+001  7.987473e+001 
4281250000  -3.809205e+001  7.567142e+001 
4284375000  -3.808591e+001  7.545261e+001 
4287500000  -3.965073e+001  6.971754e+001 
4290625000  -3.998276e+001  7.988139e+001 
4293750000  -3.850079e+001  8.131052e+001 
4296875000  -3.712691e+001  7.026646e+001 
4300000000  -3.819382e+001  5.799992e+001 
4303125000  -3.928813e+001  6.175800e+001 
4306250000  -3.818728e+001  6.126658e+001 
4309375000  -3.716665e+001  5.829837e+001 
4312500000  -3.716567e+001  4.711358e+001 
4315625000  -3.757103e+001  4.019397e+001 
4318750000  -3.823954e+001  3.487309e+001 
4321875000  -3.812714e+001  3.567427e+001 
4325000000  -3.762771e+001  3.443663e+001 
4328125000  -3.700069e+001  2.478333e+001 
4331250000  -3.713316e+001  1.501670e+001 
4334375000  -3.790380e+001  7.386624e+000 
4337500000  -3.874067e+001  5.992198e+000 
4340625000  -3.901398e+001  1.164295e+001 
4343750000  -3.810169e+001  7.874170e+000 
4346875000  -3.791488e+001  -3.157933e-001 
4350000000  -3.791777e+001  -7.372017e+000 
4353125000  -3.816778e+001  -1.750216e+001 
4356250000  -4.015075e+001  -1.448538e+001 
4359375000  -3.982806e+001  7.613308e-001 
4362500000  -3.653450e+001  -5.428040e+000 
4365625000  -3.579002e+001  -2.255288e+001 
4368750000  -3.647288e+001  -3.339219e+001 
4371875000  -3.728301e+001  -3.310682e+001 
4375000000  -3.685096e+001  -3.711967e+001 
4378125000  -3.628783e+001  -4.461074e+001 
4381250000  -3.661543e+001  -5.186829e+001 
4384375000  -3.648404e+001  -5.730698e+001 
4387500000  -3.719887e+001  -6.671565e+001 
4390625000  -3.793385e+001  -6.550837e+001 
4393750000  -3.726701e+001  -6.676684e+001 
4396875000  -3.662623e+001  -6.996525e+001 
4400000000  -3.622977e+001  -8.020169e+001 
4403125000  -3.710141e+001  -9.105581e+001 
4406250000  -3.760094e+001  -9.331031e+001 
4409375000  -3.776904e+001  -9.885014e+001 
4412500000  -3.911965e+001  -9.989930e+001 
4415625000  -3.866029e+001  -9.816852e+001 
