!Agilent Technologies,E8363B,MY43030201,A.06.04.32
!Agilent E8363B: A.06.04.32
!Date: Tuesday, November 11, 2014 21:29:27
!Correction: S21(Response(S21)) 
!S1P File: Measurement: S21:
# Hz S  dB   R 50
3000000000  -4.054816e+001  8.748791e+001 
3003125000  -4.208297e+001  7.835004e+001 
3006250000  -4.224757e+001  7.694427e+001 
3009375000  -4.265844e+001  8.250481e+001 
3012500000  -4.141512e+001  7.787534e+001 
3015625000  -4.128191e+001  7.182878e+001 
3018750000  -4.174772e+001  7.141103e+001 
3021875000  -4.032298e+001  7.410940e+001 
3025000000  -3.889802e+001  6.909874e+001 
3028125000  -3.798295e+001  5.851235e+001 
3031250000  -3.715628e+001  4.663225e+001 
3034375000  -3.661712e+001  3.324727e+001 
3037500000  -3.737337e+001  2.193904e+001 
3040625000  -3.861835e+001  1.733444e+001 
3043750000  -3.914751e+001  9.867686e+000 
3046875000  -3.970759e+001  4.413704e+000 
3050000000  -4.075834e+001  -4.442010e-001 
3053125000  -4.051808e+001  4.443956e+000 
3056250000  -4.025353e+001  7.373329e+000 
3059375000  -3.987455e+001  5.506935e+000 
3062500000  -3.817894e+001  2.852569e-004 
3065625000  -3.795358e+001  -8.542921e+000 
3068750000  -3.763195e+001  -1.720761e+001 
3071875000  -3.780049e+001  -1.969915e+001 
3075000000  -3.723683e+001  -2.556608e+001 
3078125000  -3.711030e+001  -3.180707e+001 
3081250000  -3.739769e+001  -3.820853e+001 
3084375000  -3.635170e+001  -4.304107e+001 
3087500000  -3.640660e+001  -4.850660e+001 
3090625000  -3.598573e+001  -6.176895e+001 
3093750000  -3.693171e+001  -6.907232e+001 
3096875000  -3.731151e+001  -7.562061e+001 
3100000000  -3.711753e+001  -7.773643e+001 
3103125000  -3.761712e+001  -8.159423e+001 
3106250000  -3.719143e+001  -8.654263e+001 
3109375000  -3.716858e+001  -9.115268e+001 
3112500000  -3.723441e+001  -9.636022e+001 
3115625000  -3.719278e+001  -1.005848e+002 
3118750000  -3.721811e+001  -1.035337e+002 
3121875000  -3.656705e+001  -1.147083e+002 
3125000000  -3.831032e+001  -1.179818e+002 
3128125000  -3.850270e+001  -1.120931e+002 
3131250000  -3.607355e+001  -1.166957e+002 
3134375000  -3.542413e+001  -1.342548e+002 
3137500000  -3.587608e+001  -1.458770e+002 
3140625000  -3.732768e+001  -1.488425e+002 
3143750000  -3.834776e+001  -1.512631e+002 
3146875000  -3.764435e+001  -1.503661e+002 
3150000000  -3.695210e+001  -1.537540e+002 
3153125000  -3.714882e+001  -1.619324e+002 
3156250000  -3.796387e+001  -1.575579e+002 
3159375000  -3.580169e+001  -1.582549e+002 
3162500000  -3.419003e+001  -1.750422e+002 
3165625000  -3.538309e+001  1.717500e+002 
3168750000  -3.549691e+001  1.719798e+002 
3171875000  -3.489479e+001  1.645052e+002 
3175000000  -3.551722e+001  1.551830e+002 
3178125000  -3.510328e+001  1.536004e+002 
3181250000  -3.440194e+001  1.459389e+002 
3184375000  -3.410858e+001  1.340956e+002 
3187500000  -3.531421e+001  1.179286e+002 
3190625000  -3.745578e+001  1.125881e+002 
3193750000  -3.766309e+001  1.173586e+002 
3196875000  -3.740156e+001  1.193359e+002 
3200000000  -3.621997e+001  1.143407e+002 
3203125000  -3.586023e+001  1.064084e+002 
3206250000  -3.616735e+001  9.805663e+001 
3209375000  -3.573949e+001  9.024928e+001 
3212500000  -3.621064e+001  8.326431e+001 
3215625000  -3.608613e+001  8.072430e+001 
3218750000  -3.686774e+001  7.012150e+001 
3221875000  -3.744794e+001  6.253648e+001 
3225000000  -3.717774e+001  5.960210e+001 
3228125000  -3.776382e+001  5.257969e+001 
3231250000  -3.840541e+001  5.082079e+001 
3234375000  -3.804279e+001  4.682085e+001 
3237500000  -3.810229e+001  4.311076e+001 
3240625000  -3.771409e+001  3.729063e+001 
3243750000  -3.775261e+001  2.842337e+001 
3246875000  -3.825190e+001  1.940363e+001 
3250000000  -3.863919e+001  1.680754e+001 
3253125000  -3.908350e+001  1.290549e+001 
3256250000  -3.862528e+001  4.602435e+000 
3259375000  -3.922009e+001  -4.728086e+000 
3262500000  -4.061582e+001  -8.888006e+000 
3265625000  -4.123333e+001  -6.786418e+000 
3268750000  -4.128834e+001  -5.508532e+000 
3271875000  -4.056206e+001  -9.444746e+000 
3275000000  -4.015215e+001  -1.787403e+001 
3278125000  -4.076352e+001  -2.299346e+001 
3281250000  -4.112987e+001  -2.409171e+001 
3284375000  -4.060611e+001  -3.023820e+001 
3287500000  -4.088611e+001  -3.318187e+001 
3290625000  -4.119316e+001  -4.146797e+001 
3293750000  -4.165681e+001  -4.891226e+001 
3296875000  -4.243259e+001  -4.735870e+001 
3300000000  -4.183139e+001  -4.875419e+001 
3303125000  -4.094614e+001  -5.474243e+001 
3306250000  -4.070712e+001  -6.171525e+001 
3309375000  -4.044555e+001  -6.990150e+001 
3312500000  -4.075133e+001  -8.194320e+001 
3315625000  -4.207748e+001  -9.016896e+001 
3318750000  -4.342818e+001  -9.228744e+001 
3321875000  -4.500529e+001  -9.068159e+001 
3325000000  -4.443748e+001  -8.385949e+001 
3328125000  -4.366808e+001  -8.322163e+001 
3331250000  -4.219495e+001  -7.912484e+001 
3334375000  -3.994445e+001  -9.552057e+001 
3337500000  -4.041798e+001  -1.142660e+002 
3340625000  -4.226951e+001  -1.254664e+002 
3343750000  -4.410047e+001  -1.252290e+002 
3346875000  -4.364997e+001  -1.244413e+002 
3350000000  -4.314084e+001  -1.283587e+002 
3353125000  -4.300628e+001  -1.353842e+002 
3356250000  -4.275854e+001  -1.444921e+002 
3359375000  -4.341096e+001  -1.553835e+002 
3362500000  -4.440007e+001  -1.588955e+002 
3365625000  -4.487870e+001  -1.648597e+002 
3368750000  -4.541446e+001  -1.662350e+002 
3371875000  -4.593627e+001  -1.738072e+002 
3375000000  -4.752029e+001  -1.773231e+002 
3378125000  -4.770572e+001  -1.744747e+002 
3381250000  -4.949988e+001  -1.712242e+002 
3384375000  -4.673196e+001  -1.553945e+002 
3387500000  -4.377172e+001  -1.707124e+002 
3390625000  -4.634692e+001  1.672823e+002 
3393750000  -4.715391e+001  1.654980e+002 
3396875000  -4.618942e+001  1.662239e+002 
3400000000  -4.653255e+001  1.533095e+002 
3403125000  -4.695031e+001  1.508979e+002 
3406250000  -4.781955e+001  1.416193e+002 
3409375000  -4.810968e+001  1.383911e+002 
3412500000  -4.856153e+001  1.337310e+002 
3415625000  -5.050996e+001  1.335723e+002 
3418750000  -5.048709e+001  1.328127e+002 
3421875000  -5.179416e+001  1.334149e+002 
3425000000  -5.082694e+001  1.363120e+002 
3428125000  -5.005190e+001  1.319198e+002 
3431250000  -5.013405e+001  1.235330e+002 
3434375000  -5.159173e+001  1.184395e+002 
3437500000  -5.232203e+001  1.136001e+002 
3440625000  -5.269467e+001  1.221411e+002 
3443750000  -5.045598e+001  1.192728e+002 
3446875000  -5.099232e+001  1.187367e+002 
3450000000  -5.015136e+001  1.055640e+002 
3453125000  -5.141794e+001  9.721650e+001 
3456250000  -5.164137e+001  9.921508e+001 
3459375000  -5.320679e+001  9.590816e+001 
3462500000  -5.263018e+001  1.013662e+002 
3465625000  -5.229712e+001  9.026824e+001 
3468750000  -5.224672e+001  9.146766e+001 
3471875000  -5.199763e+001  9.445862e+001 
3475000000  -5.074071e+001  9.106349e+001 
3478125000  -5.159343e+001  8.533243e+001 
3481250000  -5.258754e+001  7.378389e+001 
3484375000  -5.284208e+001  8.170709e+001 
3487500000  -5.151080e+001  7.856474e+001 
3490625000  -5.087466e+001  6.604637e+001 
3493750000  -5.131905e+001  5.817528e+001 
3496875000  -5.185363e+001  6.613403e+001 
3500000000  -5.364019e+001  6.533578e+001 
3503125000  -5.131451e+001  6.359419e+001 
3506250000  -5.069073e+001  5.251649e+001 
3509375000  -5.002451e+001  4.308168e+001 
3512500000  -5.045882e+001  2.801144e+001 
3515625000  -5.162859e+001  2.372315e+001 
3518750000  -5.280998e+001  3.093548e+001 
3521875000  -5.208289e+001  1.971297e+001 
3525000000  -5.487413e+001  1.713103e+001 
3528125000  -5.303295e+001  2.472819e+001 
3531250000  -5.222852e+001  1.837225e+001 
3534375000  -5.273325e+001  2.404546e+000 
3537500000  -5.301714e+001  -7.886850e+000 
3540625000  -5.427073e+001  -9.898328e+000 
3543750000  -5.582729e+001  -4.134247e-001 
3546875000  -5.592095e+001  7.655993e+000 
3550000000  -5.436127e+001  6.401696e+000 
3553125000  -5.384542e+001  -1.809768e+001 
3556250000  -5.552929e+001  -1.393458e+001 
3559375000  -5.664630e+001  -1.428926e+001 
3562500000  -5.574322e+001  -2.365924e+001 
3565625000  -5.620116e+001  -4.115054e+001 
3568750000  -5.677528e+001  -3.045954e+001 
3571875000  -5.875768e+001  -2.813984e+001 
3575000000  -6.155792e+001  -1.054650e+001 
3578125000  -6.123872e+001  -2.523089e+001 
3581250000  -5.808551e+001  -2.443713e+001 
3584375000  -5.739640e+001  -3.395986e+001 
3587500000  -5.844841e+001  -2.002168e+001 
3590625000  -5.796606e+001  -2.638020e+001 
3593750000  -5.976053e+001  -4.074658e+001 
3596875000  -5.832736e+001  -2.138773e+001 
3600000000  -5.771177e+001  -2.420360e+001 
3603125000  -6.193407e+001  -4.912214e+001 
3606250000  -5.758165e+001  -3.262234e+001 
3609375000  -5.890278e+001  -1.670025e+001 
3612500000  -5.755717e+001  -3.650706e+001 
3615625000  -5.767501e+001  -2.703265e+001 
3618750000  -5.848272e+001  -2.612626e+001 
3621875000  -5.819947e+001  -3.546495e+001 
3625000000  -6.105145e+001  -3.164546e+001 
3628125000  -5.612703e+001  -2.442324e+001 
3631250000  -5.656829e+001  -2.886131e+001 
3634375000  -5.745089e+001  -2.931326e+001 
3637500000  -5.534357e+001  -3.187425e+001 
3640625000  -5.362117e+001  -2.791193e+001 
3643750000  -5.240014e+001  -3.365171e+001 
3646875000  -5.280192e+001  -4.036792e+001 
3650000000  -5.172252e+001  -4.281935e+001 
3653125000  -5.218106e+001  -4.665263e+001 
3656250000  -5.180789e+001  -4.330313e+001 
3659375000  -5.151024e+001  -4.644220e+001 
3662500000  -5.105342e+001  -5.411476e+001 
3665625000  -5.013187e+001  -5.601073e+001 
3668750000  -4.828703e+001  -5.949879e+001 
3671875000  -4.768582e+001  -7.281241e+001 
3675000000  -4.727451e+001  -8.027589e+001 
3678125000  -4.743314e+001  -7.997375e+001 
3681250000  -4.622954e+001  -8.926424e+001 
3684375000  -4.690143e+001  -9.231368e+001 
3687500000  -4.675653e+001  -9.518678e+001 
3690625000  -4.668599e+001  -1.020357e+002 
3693750000  -4.725793e+001  -1.024771e+002 
3696875000  -4.610947e+001  -1.002612e+002 
3700000000  -4.508184e+001  -1.070044e+002 
3703125000  -4.541680e+001  -1.149314e+002 
3706250000  -4.566748e+001  -1.182091e+002 
3709375000  -4.448435e+001  -1.160545e+002 
3712500000  -4.353301e+001  -1.224295e+002 
3715625000  -4.216535e+001  -1.329777e+002 
3718750000  -4.162749e+001  -1.354277e+002 
3721875000  -4.106593e+001  -1.473010e+002 
3725000000  -4.162177e+001  -1.543269e+002 
3728125000  -4.155194e+001  -1.565177e+002 
3731250000  -4.086290e+001  -1.611186e+002 
3734375000  -4.018019e+001  -1.700002e+002 
3737500000  -4.084728e+001  -1.792187e+002 
3740625000  -4.102105e+001  1.751620e+002 
3743750000  -4.070779e+001  1.680678e+002 
3746875000  -4.078565e+001  1.615735e+002 
3750000000  -4.103699e+001  1.575758e+002 
3753125000  -4.066231e+001  1.536665e+002 
3756250000  -4.068927e+001  1.504793e+002 
3759375000  -4.044085e+001  1.447949e+002 
3762500000  -4.009327e+001  1.406022e+002 
3765625000  -4.051361e+001  1.354807e+002 
3768750000  -4.026004e+001  1.343660e+002 
3771875000  -3.868279e+001  1.263345e+002 
3775000000  -3.867516e+001  1.161009e+002 
3778125000  -3.887953e+001  1.102857e+002 
3781250000  -3.906071e+001  1.051590e+002 
3784375000  -3.892077e+001  9.976921e+001 
3787500000  -3.851200e+001  9.303156e+001 
3790625000  -3.920612e+001  8.335056e+001 
3793750000  -3.918182e+001  8.144178e+001 
3796875000  -3.826279e+001  7.629094e+001 
3800000000  -3.649463e+001  7.258508e+001 
3803125000  -3.810508e+001  5.964985e+001 
3806250000  -3.909595e+001  5.538829e+001 
3809375000  -3.839528e+001  5.135976e+001 
3812500000  -3.841339e+001  4.077692e+001 
3815625000  -3.952512e+001  3.328035e+001 
3818750000  -4.080458e+001  3.128281e+001 
3821875000  -4.043742e+001  4.195074e+001 
3825000000  -3.850601e+001  4.016981e+001 
3828125000  -3.708930e+001  2.074478e+001 
3831250000  -3.799780e+001  5.227713e+000 
3834375000  -4.019201e+001  4.432019e+000 
3837500000  -4.097753e+001  9.649013e+000 
3840625000  -3.902687e+001  5.868336e+000 
3843750000  -3.843916e+001  -9.515380e+000 
3846875000  -3.965507e+001  -1.679887e+001 
3850000000  -4.073151e+001  -9.065155e+000 
3853125000  -4.025197e+001  -9.071151e+000 
3856250000  -3.936456e+001  -1.560835e+001 
3859375000  -3.857527e+001  -2.433034e+001 
3862500000  -3.866225e+001  -3.569932e+001 
3865625000  -3.920128e+001  -3.870585e+001 
3868750000  -3.866178e+001  -3.922141e+001 
3871875000  -3.819246e+001  -4.601485e+001 
3875000000  -3.856332e+001  -5.627658e+001 
3878125000  -3.956828e+001  -5.872553e+001 
3881250000  -3.949873e+001  -5.928673e+001 
3884375000  -3.892965e+001  -6.681248e+001 
3887500000  -3.919534e+001  -7.228582e+001 
3890625000  -3.962120e+001  -7.765535e+001 
3893750000  -3.996204e+001  -7.938012e+001 
3896875000  -3.993843e+001  -8.102901e+001 
3900000000  -4.001134e+001  -8.649921e+001 
3903125000  -3.941173e+001  -9.075256e+001 
3906250000  -3.895787e+001  -9.389840e+001 
3909375000  -3.839983e+001  -1.031762e+002 
3912500000  -3.915819e+001  -1.117701e+002 
3915625000  -4.033484e+001  -1.115243e+002 
3918750000  -4.028461e+001  -1.120191e+002 
3921875000  -3.953584e+001  -1.182656e+002 
3925000000  -3.865768e+001  -1.229540e+002 
3928125000  -3.837879e+001  -1.322966e+002 
3931250000  -3.907329e+001  -1.405839e+002 
3934375000  -3.936622e+001  -1.405946e+002 
3937500000  -4.003067e+001  -1.428658e+002 
3940625000  -4.009546e+001  -1.439512e+002 
3943750000  -3.909575e+001  -1.486877e+002 
3946875000  -3.848392e+001  -1.564444e+002 
3950000000  -3.935346e+001  -1.647791e+002 
3953125000  -3.997567e+001  -1.658258e+002 
3956250000  -3.888795e+001  -1.639176e+002 
3959375000  -3.796486e+001  -1.715044e+002 
3962500000  -3.799675e+001  1.795178e+002 
3965625000  -3.787171e+001  1.712753e+002 
3968750000  -3.886100e+001  1.622512e+002 
3971875000  -3.898808e+001  1.582062e+002 
3975000000  -3.825084e+001  1.540235e+002 
3978125000  -3.857529e+001  1.507175e+002 
3981250000  -3.870586e+001  1.431457e+002 
3984375000  -3.905210e+001  1.360899e+002 
3987500000  -3.981168e+001  1.329236e+002 
3990625000  -4.028484e+001  1.314496e+002 
3993750000  -3.980076e+001  1.271987e+002 
3996875000  -4.010282e+001  1.215776e+002 
4000000000  -4.084184e+001  1.167336e+002 
4003125000  -4.086069e+001  1.154894e+002 
4006250000  -3.966197e+001  1.154437e+002 
4009375000  -3.902752e+001  1.015535e+002 
4012500000  -4.005420e+001  9.483157e+001 
4015625000  -4.162386e+001  9.204527e+001 
4018750000  -4.143633e+001  9.315079e+001 
4021875000  -4.088810e+001  9.128985e+001 
4025000000  -4.086795e+001  8.417256e+001 
4028125000  -4.084956e+001  7.706612e+001 
4031250000  -4.170674e+001  7.287036e+001 
4034375000  -4.159766e+001  7.367295e+001 
4037500000  -4.098832e+001  7.525067e+001 
4040625000  -4.085899e+001  7.051135e+001 
4043750000  -4.125645e+001  6.511877e+001 
4046875000  -4.072852e+001  6.386591e+001 
4050000000  -4.077941e+001  5.840137e+001 
4053125000  -4.150534e+001  5.565631e+001 
4056250000  -4.149232e+001  5.799454e+001 
4059375000  -3.979255e+001  5.694550e+001 
4062500000  -3.902134e+001  4.800134e+001 
4065625000  -3.876213e+001  4.320695e+001 
4068750000  -3.837137e+001  3.629895e+001 
4071875000  -3.813023e+001  2.487890e+001 
4075000000  -3.847027e+001  1.887939e+001 
4078125000  -3.866304e+001  1.542177e+001 
4081250000  -3.811769e+001  1.013038e+001 
4084375000  -3.813384e+001  1.263005e+000 
4087500000  -3.886736e+001  -5.501244e+000 
4090625000  -3.918732e+001  -7.964766e+000 
4093750000  -3.869479e+001  -1.002039e+001 
4096875000  -3.879724e+001  -1.893917e+001 
4100000000  -3.990704e+001  -2.551749e+001 
4103125000  -4.056660e+001  -2.582311e+001 
4106250000  -4.050118e+001  -2.339789e+001 
4109375000  -3.938642e+001  -2.621704e+001 
4112500000  -3.864502e+001  -3.478046e+001 
4115625000  -3.915303e+001  -4.137099e+001 
4118750000  -3.913149e+001  -4.541837e+001 
4121875000  -3.890595e+001  -5.333736e+001 
4125000000  -3.962862e+001  -5.896037e+001 
4128125000  -4.084112e+001  -5.804275e+001 
4131250000  -3.987372e+001  -5.211082e+001 
4134375000  -3.767610e+001  -6.172696e+001 
4137500000  -3.834123e+001  -8.391942e+001 
4140625000  -4.063739e+001  -8.870627e+001 
4143750000  -4.144567e+001  -8.181950e+001 
4146875000  -4.075043e+001  -7.892886e+001 
4150000000  -3.973888e+001  -8.684634e+001 
4153125000  -4.004618e+001  -9.660417e+001 
4156250000  -4.117318e+001  -9.988145e+001 
4159375000  -4.106065e+001  -9.377050e+001 
4162500000  -3.998468e+001  -9.083727e+001 
4165625000  -3.892965e+001  -9.909425e+001 
4168750000  -3.832993e+001  -1.071127e+002 
4171875000  -3.855175e+001  -1.202480e+002 
4175000000  -3.923380e+001  -1.269432e+002 
4178125000  -3.991588e+001  -1.260494e+002 
4181250000  -3.955630e+001  -1.302608e+002 
4184375000  -3.961952e+001  -1.343942e+002 
4187500000  -3.958605e+001  -1.381717e+002 
4190625000  -3.963364e+001  -1.473007e+002 
4193750000  -4.035914e+001  -1.524694e+002 
4196875000  -4.123539e+001  -1.544193e+002 
4200000000  -4.264048e+001  -1.475141e+002 
4203125000  -4.101924e+001  -1.355080e+002 
4206250000  -3.796258e+001  -1.434796e+002 
4209375000  -3.731904e+001  -1.688208e+002 
4212500000  -3.953455e+001  -1.764063e+002 
4215625000  -4.003884e+001  -1.655250e+002 
4218750000  -3.817375e+001  -1.664435e+002 
4221875000  -3.675062e+001  -1.777578e+002 
4225000000  -3.802142e+001  1.710022e+002 
4228125000  -3.778875e+001  1.739756e+002 
4231250000  -3.627464e+001  1.662713e+002 
4234375000  -3.649473e+001  1.551163e+002 
4237500000  -3.621111e+001  1.496033e+002 
4240625000  -3.638021e+001  1.387884e+002 
4243750000  -3.749030e+001  1.305456e+002 
4246875000  -3.842377e+001  1.278568e+002 
4250000000  -3.837939e+001  1.307465e+002 
4253125000  -3.800847e+001  1.280432e+002 
4256250000  -3.808526e+001  1.220717e+002 
4259375000  -3.751920e+001  1.158245e+002 
4262500000  -3.792100e+001  1.114472e+002 
4265625000  -3.779931e+001  1.087544e+002 
4268750000  -3.698141e+001  1.023346e+002 
4271875000  -3.683330e+001  9.387097e+001 
4275000000  -3.639936e+001  8.448908e+001 
4278125000  -3.756516e+001  7.168287e+001 
4281250000  -3.902116e+001  7.245844e+001 
4284375000  -3.891149e+001  6.846067e+001 
4287500000  -4.042544e+001  6.483927e+001 
4290625000  -4.080476e+001  7.465955e+001 
4293750000  -3.869289e+001  7.579285e+001 
4296875000  -3.780622e+001  6.050467e+001 
4300000000  -3.919872e+001  5.221320e+001 
4303125000  -3.984054e+001  5.561937e+001 
4306250000  -3.877215e+001  5.723620e+001 
4309375000  -3.765949e+001  5.020430e+001 
4312500000  -3.772375e+001  3.974608e+001 
4315625000  -3.797403e+001  3.298248e+001 
4318750000  -3.878733e+001  2.818328e+001 
4321875000  -3.870190e+001  2.835389e+001 
4325000000  -3.810406e+001  2.803415e+001 
4328125000  -3.733393e+001  1.737020e+001 
4331250000  -3.763227e+001  7.587568e+000 
4334375000  -3.845417e+001  5.516039e-001 
4337500000  -3.927037e+001  -1.477753e+000 
4340625000  -3.950376e+001  3.997554e+000 
4343750000  -3.865950e+001  9.861533e-001 
4346875000  -3.856616e+001  -8.278698e+000 
4350000000  -3.855806e+001  -1.354489e+001 
4353125000  -3.876290e+001  -2.338386e+001 
4356250000  -4.127171e+001  -2.019503e+001 
4359375000  -3.997738e+001  -5.133462e+000 
4362500000  -3.673186e+001  -1.344707e+001 
4365625000  -3.615136e+001  -3.045575e+001 
4368750000  -3.752558e+001  -3.993045e+001 
4371875000  -3.834645e+001  -4.083056e+001 
4375000000  -3.726239e+001  -4.306067e+001 
4378125000  -3.695288e+001  -5.319870e+001 
4381250000  -3.709571e+001  -6.010375e+001 
4384375000  -3.726925e+001  -6.622982e+001 
4387500000  -3.820298e+001  -7.459903e+001 
4390625000  -3.876746e+001  -7.301695e+001 
4393750000  -3.806764e+001  -7.253786e+001 
4396875000  -3.727378e+001  -7.888616e+001 
4400000000  -3.685953e+001  -8.753722e+001 
4403125000  -3.789186e+001  -9.686858e+001 
4406250000  -3.847961e+001  -1.003142e+002 
4409375000  -3.871666e+001  -1.031124e+002 
4412500000  -3.987571e+001  -1.062516e+002 
4415625000  -3.973839e+001  -1.038058e+002 
