!Agilent Technologies,E8363B,MY43030201,A.06.04.32
!Agilent E8363B: A.06.04.32
!Date: Tuesday, November 11, 2014 21:32:15
!Correction: S21(Response(S21)) 
!S1P File: Measurement: S21:
# Hz S  dB   R 50
3000000000  -4.049088e+001  7.723937e+001 
3003125000  -4.209224e+001  6.931225e+001 
3006250000  -4.219059e+001  6.905389e+001 
3009375000  -4.289017e+001  7.439645e+001 
3012500000  -4.147054e+001  7.002525e+001 
3015625000  -4.133544e+001  6.192714e+001 
3018750000  -4.160391e+001  6.351473e+001 
3021875000  -3.997120e+001  6.338866e+001 
3025000000  -3.896169e+001  6.042186e+001 
3028125000  -3.801287e+001  4.971136e+001 
3031250000  -3.691142e+001  3.784819e+001 
3034375000  -3.665337e+001  2.429662e+001 
3037500000  -3.757173e+001  1.353235e+001 
3040625000  -3.862722e+001  8.784511e+000 
3043750000  -3.919523e+001  1.133333e+000 
3046875000  -3.985126e+001  -4.340034e+000 
3050000000  -4.092393e+001  -8.879229e+000 
3053125000  -4.046963e+001  -4.121423e+000 
3056250000  -4.061176e+001  -1.418943e+000 
3059375000  -3.956720e+001  -3.100565e+000 
3062500000  -3.819838e+001  -8.094322e+000 
3065625000  -3.792898e+001  -1.785133e+001 
3068750000  -3.760950e+001  -2.629430e+001 
3071875000  -3.752275e+001  -2.805304e+001 
3075000000  -3.694489e+001  -3.430473e+001 
3078125000  -3.710101e+001  -4.103479e+001 
3081250000  -3.721100e+001  -4.680849e+001 
3084375000  -3.635888e+001  -5.225933e+001 
3087500000  -3.648677e+001  -5.850633e+001 
3090625000  -3.583292e+001  -7.090916e+001 
3093750000  -3.687039e+001  -7.875323e+001 
3096875000  -3.741111e+001  -8.427346e+001 
3100000000  -3.719423e+001  -8.721980e+001 
3103125000  -3.761124e+001  -9.027431e+001 
3106250000  -3.708676e+001  -9.565849e+001 
3109375000  -3.729607e+001  -9.960444e+001 
3112500000  -3.707973e+001  -1.051539e+002 
3115625000  -3.713118e+001  -1.094931e+002 
3118750000  -3.718133e+001  -1.126315e+002 
3121875000  -3.652979e+001  -1.235113e+002 
3125000000  -3.847327e+001  -1.273212e+002 
3128125000  -3.849855e+001  -1.180451e+002 
3131250000  -3.601072e+001  -1.261454e+002 
3134375000  -3.532463e+001  -1.427894e+002 
3137500000  -3.613728e+001  -1.549671e+002 
3140625000  -3.724645e+001  -1.573981e+002 
3143750000  -3.819266e+001  -1.601338e+002 
3146875000  -3.768502e+001  -1.579212e+002 
3150000000  -3.685384e+001  -1.624765e+002 
3153125000  -3.720155e+001  -1.706783e+002 
3156250000  -3.799480e+001  -1.653630e+002 
3159375000  -3.564801e+001  -1.673163e+002 
3162500000  -3.420350e+001  1.767940e+002 
3165625000  -3.551932e+001  1.627675e+002 
3168750000  -3.543534e+001  1.627664e+002 
3171875000  -3.490108e+001  1.556559e+002 
3175000000  -3.548657e+001  1.466199e+002 
3178125000  -3.513131e+001  1.452344e+002 
3181250000  -3.444264e+001  1.358642e+002 
3184375000  -3.425109e+001  1.245050e+002 
3187500000  -3.555632e+001  1.087091e+002 
3190625000  -3.732350e+001  1.047030e+002 
3193750000  -3.758965e+001  1.087086e+002 
3196875000  -3.737513e+001  1.102021e+002 
3200000000  -3.610274e+001  1.051905e+002 
3203125000  -3.594850e+001  9.688888e+001 
3206250000  -3.616330e+001  8.947656e+001 
3209375000  -3.574928e+001  8.137443e+001 
3212500000  -3.628427e+001  7.497710e+001 
3215625000  -3.609286e+001  7.229675e+001 
3218750000  -3.684742e+001  6.112395e+001 
3221875000  -3.719011e+001  5.451952e+001 
3225000000  -3.691579e+001  5.023222e+001 
3228125000  -3.775328e+001  4.321460e+001 
3231250000  -3.838091e+001  4.152451e+001 
3234375000  -3.795504e+001  3.800350e+001 
3237500000  -3.801192e+001  3.331158e+001 
3240625000  -3.764806e+001  2.904796e+001 
3243750000  -3.762185e+001  1.812888e+001 
3246875000  -3.818905e+001  1.109844e+001 
3250000000  -3.885324e+001  7.126073e+000 
3253125000  -3.896518e+001  4.415978e+000 
3256250000  -3.864991e+001  -5.336318e+000 
3259375000  -3.900347e+001  -1.625437e+001 
3262500000  -4.060378e+001  -1.812209e+001 
3265625000  -4.100095e+001  -1.578973e+001 
3268750000  -4.108083e+001  -1.483189e+001 
3271875000  -4.041317e+001  -1.831873e+001 
3275000000  -3.996317e+001  -2.671652e+001 
3278125000  -4.093428e+001  -3.126471e+001 
3281250000  -4.108295e+001  -3.279543e+001 
3284375000  -4.048496e+001  -4.016851e+001 
3287500000  -4.093471e+001  -4.361705e+001 
3290625000  -4.128394e+001  -5.058345e+001 
3293750000  -4.132012e+001  -5.733378e+001 
3296875000  -4.242401e+001  -5.826845e+001 
3300000000  -4.184703e+001  -5.759351e+001 
3303125000  -4.087357e+001  -6.492915e+001 
3306250000  -4.082533e+001  -7.218873e+001 
3309375000  -4.035107e+001  -7.884515e+001 
3312500000  -4.103621e+001  -9.133148e+001 
3315625000  -4.206364e+001  -9.861368e+001 
3318750000  -4.388697e+001  -1.013948e+002 
3321875000  -4.494756e+001  -9.935588e+001 
3325000000  -4.475945e+001  -9.313379e+001 
3328125000  -4.356019e+001  -9.273345e+001 
3331250000  -4.220203e+001  -9.077966e+001 
3334375000  -3.998654e+001  -1.058738e+002 
3337500000  -4.034453e+001  -1.250734e+002 
3340625000  -4.222298e+001  -1.338997e+002 
3343750000  -4.414206e+001  -1.353180e+002 
3346875000  -4.325565e+001  -1.354455e+002 
3350000000  -4.286170e+001  -1.383563e+002 
3353125000  -4.288586e+001  -1.446414e+002 
3356250000  -4.249909e+001  -1.531503e+002 
3359375000  -4.354467e+001  -1.643100e+002 
3362500000  -4.443214e+001  -1.705372e+002 
3365625000  -4.454168e+001  -1.726264e+002 
3368750000  -4.556866e+001  -1.786254e+002 
3371875000  -4.558178e+001  1.791593e+002 
3375000000  -4.724535e+001  1.736505e+002 
3378125000  -4.817908e+001  1.724611e+002 
3381250000  -5.031635e+001  -1.746150e+002 
3384375000  -4.638617e+001  -1.593310e+002 
3387500000  -4.384907e+001  1.788366e+002 
3390625000  -4.618996e+001  1.544694e+002 
3393750000  -4.708194e+001  1.558815e+002 
3396875000  -4.644140e+001  1.572558e+002 
3400000000  -4.626056e+001  1.450926e+002 
3403125000  -4.670500e+001  1.389607e+002 
3406250000  -4.779898e+001  1.387291e+002 
3409375000  -4.772873e+001  1.309561e+002 
3412500000  -4.881469e+001  1.230659e+002 
3415625000  -5.028062e+001  1.205559e+002 
3418750000  -5.022205e+001  1.233704e+002 
3421875000  -5.154941e+001  1.256751e+002 
3425000000  -5.048608e+001  1.237364e+002 
3428125000  -5.042249e+001  1.207039e+002 
3431250000  -4.961835e+001  1.112920e+002 
3434375000  -5.103219e+001  1.105976e+002 
3437500000  -5.186195e+001  1.082321e+002 
3440625000  -5.232795e+001  1.104873e+002 
3443750000  -5.159730e+001  1.100741e+002 
3446875000  -5.144399e+001  1.074253e+002 
3450000000  -5.030458e+001  9.399317e+001 
3453125000  -5.080847e+001  8.886842e+001 
3456250000  -5.193885e+001  8.930685e+001 
3459375000  -5.295633e+001  9.605640e+001 
3462500000  -5.246661e+001  9.654482e+001 
3465625000  -5.138615e+001  8.398148e+001 
3468750000  -5.139896e+001  8.582214e+001 
3471875000  -5.213327e+001  8.377315e+001 
3475000000  -5.163311e+001  7.275265e+001 
3478125000  -5.135480e+001  7.093351e+001 
3481250000  -5.229665e+001  7.293326e+001 
3484375000  -5.220210e+001  7.348058e+001 
3487500000  -5.186370e+001  7.270219e+001 
3490625000  -5.084166e+001  6.020246e+001 
3493750000  -5.154966e+001  5.219999e+001 
3496875000  -5.154514e+001  5.275294e+001 
3500000000  -5.197392e+001  5.468181e+001 
3503125000  -5.142988e+001  4.902055e+001 
3506250000  -5.024432e+001  4.388400e+001 
3509375000  -4.946236e+001  3.140776e+001 
3512500000  -5.075871e+001  1.994304e+001 
3515625000  -5.219151e+001  1.636885e+001 
3518750000  -5.194638e+001  1.631702e+001 
3521875000  -5.251763e+001  4.185967e+000 
3525000000  -5.272879e+001  3.675841e+000 
3528125000  -5.231742e+001  7.574809e+000 
3531250000  -5.207160e+001  7.048954e+000 
3534375000  -5.242898e+001  -1.298338e+001 
3537500000  -5.369576e+001  -1.865944e+001 
3540625000  -5.509040e+001  -1.621578e+001 
3543750000  -5.511557e+001  -7.312978e+000 
3546875000  -5.569497e+001  -1.428092e+001 
3550000000  -5.436195e+001  -1.483213e+001 
3553125000  -5.240365e+001  -3.108727e+001 
3556250000  -5.463655e+001  -3.016367e+001 
3559375000  -5.757205e+001  -2.837151e+001 
3562500000  -5.647363e+001  -3.422708e+001 
3565625000  -5.601325e+001  -4.154102e+001 
3568750000  -5.669595e+001  -2.881598e+001 
3571875000  -5.734983e+001  -4.428622e+001 
3575000000  -5.905211e+001  -3.418564e+001 
3578125000  -5.902694e+001  -3.221359e+001 
3581250000  -5.812766e+001  -4.095170e+001 
3584375000  -5.844535e+001  -3.795782e+001 
3587500000  -5.759035e+001  -2.901439e+001 
3590625000  -5.835542e+001  -4.675363e+001 
3593750000  -5.958586e+001  -4.283762e+001 
3596875000  -5.909553e+001  -4.117636e+001 
3600000000  -5.998558e+001  -2.705120e+001 
3603125000  -5.952177e+001  -5.193791e+001 
3606250000  -5.739340e+001  -3.169150e+001 
3609375000  -5.892579e+001  -3.371072e+001 
3612500000  -5.763050e+001  -4.797108e+001 
3615625000  -5.861605e+001  -4.279853e+001 
3618750000  -5.970083e+001  -4.364149e+001 
3621875000  -5.729674e+001  -4.601498e+001 
3625000000  -5.691042e+001  -3.599087e+001 
3628125000  -5.685999e+001  -3.953577e+001 
3631250000  -5.693401e+001  -4.879456e+001 
3634375000  -5.701323e+001  -4.190637e+001 
3637500000  -5.468296e+001  -3.715698e+001 
3640625000  -5.388328e+001  -2.835625e+001 
3643750000  -5.302673e+001  -3.846462e+001 
3646875000  -5.313783e+001  -4.999071e+001 
3650000000  -5.258018e+001  -4.789524e+001 
3653125000  -5.173193e+001  -5.870923e+001 
3656250000  -5.121265e+001  -5.587855e+001 
3659375000  -5.141371e+001  -5.494656e+001 
3662500000  -4.998494e+001  -6.274868e+001 
3665625000  -4.999263e+001  -6.556364e+001 
3668750000  -4.763213e+001  -6.932513e+001 
3671875000  -4.736797e+001  -7.942586e+001 
3675000000  -4.782773e+001  -8.642567e+001 
3678125000  -4.751487e+001  -8.863040e+001 
3681250000  -4.691910e+001  -9.858916e+001 
3684375000  -4.702007e+001  -9.961293e+001 
3687500000  -4.684145e+001  -1.093178e+002 
3690625000  -4.662431e+001  -1.105362e+002 
3693750000  -4.709232e+001  -1.133044e+002 
3696875000  -4.647121e+001  -1.131711e+002 
3700000000  -4.525624e+001  -1.207564e+002 
3703125000  -4.543473e+001  -1.269217e+002 
3706250000  -4.607995e+001  -1.262630e+002 
3709375000  -4.478814e+001  -1.271050e+002 
3712500000  -4.334790e+001  -1.297116e+002 
3715625000  -4.213280e+001  -1.403870e+002 
3718750000  -4.176374e+001  -1.482670e+002 
3721875000  -4.131635e+001  -1.569111e+002 
3725000000  -4.164876e+001  -1.637087e+002 
3728125000  -4.149206e+001  -1.679622e+002 
3731250000  -4.062830e+001  -1.717377e+002 
3734375000  -4.014030e+001  1.799227e+002 
3737500000  -4.063030e+001  1.712272e+002 
3740625000  -4.102752e+001  1.664998e+002 
3743750000  -4.053176e+001  1.574171e+002 
3746875000  -4.041346e+001  1.510898e+002 
3750000000  -4.104679e+001  1.465527e+002 
3753125000  -4.064756e+001  1.441037e+002 
3756250000  -4.060888e+001  1.395950e+002 
3759375000  -4.028217e+001  1.357382e+002 
3762500000  -4.006584e+001  1.291391e+002 
3765625000  -4.085880e+001  1.229317e+002 
3768750000  -4.013589e+001  1.234582e+002 
3771875000  -3.833889e+001  1.162515e+002 
3775000000  -3.849373e+001  1.041989e+002 
3778125000  -3.902557e+001  9.898817e+001 
3781250000  -3.881902e+001  9.480419e+001 
3784375000  -3.873816e+001  8.778745e+001 
3787500000  -3.855247e+001  8.293127e+001 
3790625000  -3.886125e+001  7.297769e+001 
3793750000  -3.912461e+001  7.036713e+001 
3796875000  -3.810200e+001  6.664759e+001 
3800000000  -3.629119e+001  6.162429e+001 
3803125000  -3.802294e+001  4.799746e+001 
3806250000  -3.882289e+001  4.376797e+001 
3809375000  -3.853711e+001  3.953058e+001 
3812500000  -3.854921e+001  3.068818e+001 
3815625000  -3.939460e+001  1.993657e+001 
3818750000  -4.056918e+001  2.101063e+001 
3821875000  -4.011822e+001  3.165416e+001 
3825000000  -3.819178e+001  2.907139e+001 
3828125000  -3.712329e+001  1.170751e+001 
3831250000  -3.815206e+001  -4.717195e+000 
3834375000  -4.038646e+001  -4.710938e+000 
3837500000  -4.068885e+001  -1.684497e+000 
3840625000  -3.904044e+001  -5.740537e+000 
3843750000  -3.830945e+001  -1.906777e+001 
3846875000  -4.014192e+001  -2.506332e+001 
3850000000  -4.092193e+001  -2.054096e+001 
3853125000  -3.982059e+001  -1.897861e+001 
3856250000  -3.971944e+001  -2.797942e+001 
3859375000  -3.850128e+001  -3.391022e+001 
3862500000  -3.831182e+001  -4.484257e+001 
3865625000  -3.891898e+001  -4.962994e+001 
3868750000  -3.871572e+001  -5.088293e+001 
3871875000  -3.798832e+001  -5.859561e+001 
3875000000  -3.862754e+001  -6.901294e+001 
3878125000  -3.947733e+001  -7.000245e+001 
3881250000  -3.930355e+001  -7.088562e+001 
3884375000  -3.874784e+001  -7.597849e+001 
3887500000  -3.908723e+001  -8.498438e+001 
3890625000  -3.964526e+001  -8.867087e+001 
3893750000  -3.997326e+001  -9.129718e+001 
3896875000  -3.998980e+001  -9.159355e+001 
3900000000  -3.976154e+001  -9.700222e+001 
3903125000  -3.947040e+001  -1.015654e+002 
3906250000  -3.904317e+001  -1.057796e+002 
3909375000  -3.805522e+001  -1.151004e+002 
3912500000  -3.896932e+001  -1.233175e+002 
3915625000  -4.057832e+001  -1.244366e+002 
3918750000  -4.011326e+001  -1.245520e+002 
3921875000  -3.916805e+001  -1.289365e+002 
3925000000  -3.837204e+001  -1.345129e+002 
3928125000  -3.814244e+001  -1.439723e+002 
3931250000  -3.920656e+001  -1.505316e+002 
3934375000  -3.953610e+001  -1.518778e+002 
3937500000  -3.998499e+001  -1.536485e+002 
3940625000  -3.993838e+001  -1.562635e+002 
3943750000  -3.887127e+001  -1.592012e+002 
3946875000  -3.851273e+001  -1.678059e+002 
3950000000  -3.962041e+001  -1.776467e+002 
3953125000  -4.010465e+001  -1.758287e+002 
3956250000  -3.886517e+001  -1.748146e+002 
3959375000  -3.788013e+001  1.768348e+002 
3962500000  -3.771852e+001  1.688014e+002 
3965625000  -3.785427e+001  1.597266e+002 
3968750000  -3.888555e+001  1.513314e+002 
3971875000  -3.874178e+001  1.473326e+002 
3975000000  -3.842227e+001  1.428701e+002 
3978125000  -3.853256e+001  1.384403e+002 
3981250000  -3.851157e+001  1.305036e+002 
3984375000  -3.898296e+001  1.229860e+002 
3987500000  -3.946929e+001  1.189855e+002 
3990625000  -3.997754e+001  1.191732e+002 
3993750000  -3.993746e+001  1.147481e+002 
3996875000  -3.994865e+001  1.090654e+002 
4000000000  -4.079254e+001  1.047693e+002 
4003125000  -4.105872e+001  1.056836e+002 
4006250000  -3.950599e+001  1.055801e+002 
4009375000  -3.842042e+001  9.217273e+001 
4012500000  -4.034114e+001  8.234132e+001 
4015625000  -4.138105e+001  8.102625e+001 
4018750000  -4.117450e+001  8.266106e+001 
4021875000  -4.079484e+001  7.792442e+001 
4025000000  -4.021273e+001  7.337711e+001 
4028125000  -4.045305e+001  6.734615e+001 
4031250000  -4.126719e+001  6.214538e+001 
4034375000  -4.146186e+001  6.194853e+001 
4037500000  -4.093362e+001  6.232714e+001 
4040625000  -4.084006e+001  5.727412e+001 
4043750000  -4.106204e+001  5.270791e+001 
4046875000  -4.102548e+001  4.901400e+001 
4050000000  -4.066049e+001  4.723272e+001 
4053125000  -4.144584e+001  4.253029e+001 
4056250000  -4.153467e+001  4.746306e+001 
4059375000  -3.937623e+001  4.461927e+001 
4062500000  -3.900011e+001  3.514475e+001 
4065625000  -3.894997e+001  3.190666e+001 
4068750000  -3.843633e+001  2.583976e+001 
4071875000  -3.789593e+001  1.413393e+001 
4075000000  -3.857407e+001  7.649475e+000 
4078125000  -3.882107e+001  3.671297e+000 
4081250000  -3.840537e+001  -1.713820e+000 
4084375000  -3.820415e+001  -1.082425e+001 
4087500000  -3.883049e+001  -1.917971e+001 
4090625000  -3.906367e+001  -1.915037e+001 
4093750000  -3.856816e+001  -2.214443e+001 
4096875000  -3.881345e+001  -2.996055e+001 
4100000000  -3.956327e+001  -3.839466e+001 
4103125000  -4.076244e+001  -3.750543e+001 
4106250000  -3.998117e+001  -3.546360e+001 
4109375000  -3.936864e+001  -3.613519e+001 
4112500000  -3.874373e+001  -4.705435e+001 
4115625000  -3.939071e+001  -5.277356e+001 
4118750000  -3.893953e+001  -5.846239e+001 
4121875000  -3.890063e+001  -6.587386e+001 
4125000000  -3.985934e+001  -7.186475e+001 
4128125000  -4.064280e+001  -6.828729e+001 
4131250000  -3.983347e+001  -6.333908e+001 
4134375000  -3.782388e+001  -7.502010e+001 
4137500000  -3.820567e+001  -9.531401e+001 
4140625000  -4.036355e+001  -1.020071e+002 
4143750000  -4.160035e+001  -9.419177e+001 
4146875000  -4.074514e+001  -9.070889e+001 
4150000000  -3.953238e+001  -1.000658e+002 
4153125000  -4.017968e+001  -1.085484e+002 
4156250000  -4.127316e+001  -1.112426e+002 
4159375000  -4.090717e+001  -1.052002e+002 
4162500000  -4.013466e+001  -1.048190e+002 
4165625000  -3.891299e+001  -1.101430e+002 
4168750000  -3.864339e+001  -1.212761e+002 
4171875000  -3.855290e+001  -1.309562e+002 
4175000000  -3.916489e+001  -1.379967e+002 
4178125000  -3.940432e+001  -1.378943e+002 
4181250000  -3.954618e+001  -1.420622e+002 
4184375000  -3.955612e+001  -1.480642e+002 
4187500000  -3.933900e+001  -1.530206e+002 
4190625000  -3.952712e+001  -1.592804e+002 
4193750000  -4.068426e+001  -1.644882e+002 
4196875000  -4.126621e+001  -1.651484e+002 
4200000000  -4.221342e+001  -1.596445e+002 
4203125000  -4.082188e+001  -1.465697e+002 
4206250000  -3.765964e+001  -1.558678e+002 
4209375000  -3.733764e+001  -1.790037e+002 
4212500000  -3.956828e+001  1.723193e+002 
4215625000  -4.070867e+001  -1.787221e+002 
4218750000  -3.836681e+001  -1.775709e+002 
4221875000  -3.674473e+001  1.712543e+002 
4225000000  -3.790505e+001  1.596106e+002 
4228125000  -3.766193e+001  1.608668e+002 
4231250000  -3.626651e+001  1.546221e+002 
4234375000  -3.627758e+001  1.427762e+002 
4237500000  -3.615078e+001  1.370493e+002 
4240625000  -3.616411e+001  1.244661e+002 
4243750000  -3.748437e+001  1.178682e+002 
4246875000  -3.842803e+001  1.172738e+002 
4250000000  -3.813383e+001  1.168313e+002 
4253125000  -3.806130e+001  1.157247e+002 
4256250000  -3.790166e+001  1.099371e+002 
4259375000  -3.797281e+001  1.037936e+002 
4262500000  -3.792027e+001  9.819099e+001 
4265625000  -3.795721e+001  1.002116e+002 
4268750000  -3.688797e+001  9.169307e+001 
4271875000  -3.679345e+001  8.068618e+001 
4275000000  -3.654396e+001  7.244318e+001 
4278125000  -3.757144e+001  5.956355e+001 
4281250000  -3.924276e+001  6.005292e+001 
4284375000  -3.892002e+001  5.515516e+001 
4287500000  -4.023225e+001  5.305392e+001 
4290625000  -4.086703e+001  6.085761e+001 
4293750000  -3.863764e+001  6.335046e+001 
4296875000  -3.791962e+001  4.898277e+001 
4300000000  -3.924057e+001  3.784327e+001 
4303125000  -3.975501e+001  4.103397e+001 
4306250000  -3.864844e+001  4.269940e+001 
4309375000  -3.772379e+001  3.862825e+001 
4312500000  -3.749969e+001  2.670819e+001 
4315625000  -3.804710e+001  1.946019e+001 
4318750000  -3.873678e+001  1.526877e+001 
4321875000  -3.859127e+001  1.585165e+001 
4325000000  -3.828980e+001  1.527398e+001 
4328125000  -3.735902e+001  6.698870e+000 
4331250000  -3.762067e+001  -4.295810e+000 
4334375000  -3.833162e+001  -1.182375e+001 
4337500000  -3.955818e+001  -1.284238e+001 
4340625000  -3.971518e+001  -6.661975e+000 
4343750000  -3.870958e+001  -1.166463e+001 
4346875000  -3.842978e+001  -2.033483e+001 
4350000000  -3.841642e+001  -2.823107e+001 
4353125000  -3.920190e+001  -3.443145e+001 
4356250000  -4.135463e+001  -3.373075e+001 
4359375000  -4.025452e+001  -1.805773e+001 
4362500000  -3.670303e+001  -2.618498e+001 
4365625000  -3.603210e+001  -4.430386e+001 
4368750000  -3.718058e+001  -5.442870e+001 
4371875000  -3.803370e+001  -5.225904e+001 
4375000000  -3.727393e+001  -5.883709e+001 
4378125000  -3.712491e+001  -6.531699e+001 
4381250000  -3.723378e+001  -7.100484e+001 
4384375000  -3.724768e+001  -7.952743e+001 
4387500000  -3.825098e+001  -8.553795e+001 
4390625000  -3.852435e+001  -8.587961e+001 
4393750000  -3.776107e+001  -8.498354e+001 
4396875000  -3.746101e+001  -9.243256e+001 
4400000000  -3.700859e+001  -1.011168e+002 
4403125000  -3.776904e+001  -1.103899e+002 
4406250000  -3.829779e+001  -1.132389e+002 
4409375000  -3.874177e+001  -1.160745e+002 
4412500000  -3.971790e+001  -1.180082e+002 
4415625000  -3.956387e+001  -1.169106e+002 
