!Agilent Technologies,E8363B,MY43030201,A.06.04.32
!Agilent E8363B: A.06.04.32
!Date: Tuesday, November 11, 2014 21:35:05
!Correction: S21(Response(S21)) 
!S1P File: Measurement: S21:
# Hz S  dB   R 50
3000000000  -4.060109e+001  7.245742e+001 
3003125000  -4.205022e+001  6.468606e+001 
3006250000  -4.223581e+001  6.342029e+001 
3009375000  -4.274457e+001  6.974753e+001 
3012500000  -4.158384e+001  6.384975e+001 
3015625000  -4.148507e+001  5.711111e+001 
3018750000  -4.191325e+001  5.876904e+001 
3021875000  -4.012156e+001  5.888336e+001 
3025000000  -3.887033e+001  5.483818e+001 
3028125000  -3.782265e+001  4.505882e+001 
3031250000  -3.706251e+001  3.203055e+001 
3034375000  -3.677922e+001  1.866073e+001 
3037500000  -3.757447e+001  7.595058e+000 
3040625000  -3.875316e+001  3.344212e+000 
3043750000  -3.922667e+001  -3.423167e+000 
3046875000  -3.992429e+001  -9.787479e+000 
3050000000  -4.086851e+001  -1.393212e+001 
3053125000  -4.060054e+001  -1.002220e+001 
3056250000  -4.021564e+001  -4.934802e+000 
3059375000  -3.999115e+001  -1.025613e+001 
3062500000  -3.836589e+001  -1.334526e+001 
3065625000  -3.786732e+001  -2.318681e+001 
3068750000  -3.750794e+001  -3.085805e+001 
3071875000  -3.774652e+001  -3.343498e+001 
3075000000  -3.696115e+001  -3.926606e+001 
3078125000  -3.714122e+001  -4.631027e+001 
3081250000  -3.717392e+001  -5.235211e+001 
3084375000  -3.631775e+001  -5.717284e+001 
3087500000  -3.642067e+001  -6.360981e+001 
3090625000  -3.602661e+001  -7.586285e+001 
3093750000  -3.687831e+001  -8.395409e+001 
3096875000  -3.745744e+001  -8.950690e+001 
3100000000  -3.722389e+001  -9.128649e+001 
3103125000  -3.747592e+001  -9.541182e+001 
3106250000  -3.712522e+001  -1.003135e+002 
3109375000  -3.725520e+001  -1.045713e+002 
3112500000  -3.720915e+001  -1.105349e+002 
3115625000  -3.712972e+001  -1.145072e+002 
3118750000  -3.729018e+001  -1.179424e+002 
3121875000  -3.659720e+001  -1.284491e+002 
3125000000  -3.862587e+001  -1.316878e+002 
3128125000  -3.848164e+001  -1.241503e+002 
3131250000  -3.596119e+001  -1.310295e+002 
3134375000  -3.530713e+001  -1.478204e+002 
3137500000  -3.603646e+001  -1.599121e+002 
3140625000  -3.742617e+001  -1.625048e+002 
3143750000  -3.815728e+001  -1.653734e+002 
3146875000  -3.763731e+001  -1.635948e+002 
3150000000  -3.689059e+001  -1.680337e+002 
3153125000  -3.723510e+001  -1.750895e+002 
3156250000  -3.791776e+001  -1.718447e+002 
3159375000  -3.567196e+001  -1.736599e+002 
3162500000  -3.417981e+001  1.711078e+002 
3165625000  -3.552522e+001  1.584607e+002 
3168750000  -3.536854e+001  1.570702e+002 
3171875000  -3.487522e+001  1.506808e+002 
3175000000  -3.533492e+001  1.413997e+002 
3178125000  -3.500999e+001  1.394757e+002 
3181250000  -3.443396e+001  1.306773e+002 
3184375000  -3.421233e+001  1.190174e+002 
3187500000  -3.558026e+001  1.050824e+002 
3190625000  -3.731834e+001  1.007273e+002 
3193750000  -3.741906e+001  1.035344e+002 
3196875000  -3.742785e+001  1.046987e+002 
3200000000  -3.622613e+001  9.978262e+001 
3203125000  -3.591948e+001  9.205041e+001 
3206250000  -3.615652e+001  8.422462e+001 
3209375000  -3.577589e+001  7.696809e+001 
3212500000  -3.630056e+001  6.917990e+001 
3215625000  -3.602629e+001  6.739391e+001 
3218750000  -3.685767e+001  5.611100e+001 
3221875000  -3.709205e+001  4.787301e+001 
3225000000  -3.690821e+001  4.425743e+001 
3228125000  -3.778120e+001  3.693654e+001 
3231250000  -3.828588e+001  3.622664e+001 
3234375000  -3.783868e+001  3.254681e+001 
3237500000  -3.808083e+001  2.792165e+001 
3240625000  -3.760002e+001  2.268963e+001 
3243750000  -3.771883e+001  1.132351e+001 
3246875000  -3.821171e+001  5.585149e+000 
3250000000  -3.871844e+001  2.323554e+000 
3253125000  -3.896289e+001  -7.896223e-001 
3256250000  -3.853265e+001  -9.003633e+000 
3259375000  -3.915394e+001  -2.047730e+001 
3262500000  -4.060954e+001  -2.477995e+001 
3265625000  -4.114438e+001  -2.070620e+001 
3268750000  -4.141124e+001  -2.001580e+001 
3271875000  -4.048038e+001  -2.437811e+001 
3275000000  -4.007955e+001  -3.241130e+001 
3278125000  -4.086459e+001  -3.660778e+001 
3281250000  -4.106609e+001  -3.837976e+001 
3284375000  -4.050082e+001  -4.410783e+001 
3287500000  -4.088141e+001  -4.893414e+001 
3290625000  -4.105761e+001  -5.574115e+001 
3293750000  -4.128716e+001  -6.240487e+001 
3296875000  -4.235819e+001  -6.287420e+001 
3300000000  -4.175737e+001  -6.376473e+001 
3303125000  -4.093489e+001  -7.110728e+001 
3306250000  -4.079682e+001  -7.725591e+001 
3309375000  -4.058236e+001  -8.509274e+001 
3312500000  -4.086274e+001  -9.813307e+001 
3315625000  -4.229791e+001  -1.032210e+002 
3318750000  -4.394274e+001  -1.081854e+002 
3321875000  -4.517518e+001  -1.041332e+002 
3325000000  -4.495200e+001  -9.817007e+001 
3328125000  -4.367096e+001  -9.724814e+001 
3331250000  -4.209020e+001  -9.427598e+001 
3334375000  -3.973576e+001  -1.107356e+002 
3337500000  -4.025928e+001  -1.313366e+002 
3340625000  -4.212439e+001  -1.418767e+002 
3343750000  -4.388913e+001  -1.390366e+002 
3346875000  -4.320377e+001  -1.399366e+002 
3350000000  -4.307627e+001  -1.441732e+002 
3353125000  -4.264011e+001  -1.496223e+002 
3356250000  -4.288620e+001  -1.596839e+002 
3359375000  -4.355455e+001  -1.686218e+002 
3362500000  -4.459367e+001  -1.755395e+002 
3365625000  -4.499590e+001  1.788649e+002 
3368750000  -4.520232e+001  1.778028e+002 
3371875000  -4.592298e+001  1.724459e+002 
3375000000  -4.722543e+001  1.685080e+002 
3378125000  -4.816437e+001  1.698193e+002 
3381250000  -4.955334e+001  1.789323e+002 
3384375000  -4.650761e+001  -1.659310e+002 
3387500000  -4.390655e+001  1.709059e+002 
3390625000  -4.638937e+001  1.475260e+002 
3393750000  -4.660523e+001  1.510627e+002 
3396875000  -4.637523e+001  1.496634e+002 
3400000000  -4.613363e+001  1.360099e+002 
3403125000  -4.734968e+001  1.348354e+002 
3406250000  -4.777320e+001  1.297366e+002 
3409375000  -4.796073e+001  1.240104e+002 
3412500000  -4.883256e+001  1.167602e+002 
3415625000  -4.994197e+001  1.130237e+002 
3418750000  -5.020654e+001  1.167000e+002 
3421875000  -5.160027e+001  1.216873e+002 
3425000000  -5.029672e+001  1.169188e+002 
3428125000  -5.070912e+001  1.153155e+002 
3431250000  -5.013346e+001  1.051406e+002 
3434375000  -5.029266e+001  1.009248e+002 
3437500000  -5.120285e+001  1.023772e+002 
3440625000  -5.211650e+001  1.083230e+002 
3443750000  -5.155510e+001  1.044456e+002 
3446875000  -5.027275e+001  9.735056e+001 
3450000000  -5.059703e+001  9.109496e+001 
3453125000  -5.061614e+001  8.121812e+001 
3456250000  -5.212412e+001  8.342333e+001 
3459375000  -5.388597e+001  8.841174e+001 
3462500000  -5.252692e+001  9.026364e+001 
3465625000  -5.112103e+001  7.878481e+001 
3468750000  -5.187243e+001  7.654933e+001 
3471875000  -5.206057e+001  7.846836e+001 
3475000000  -5.166020e+001  7.043293e+001 
3478125000  -5.154867e+001  5.835261e+001 
3481250000  -5.250173e+001  6.441942e+001 
3484375000  -5.266743e+001  6.564474e+001 
3487500000  -5.146348e+001  5.853629e+001 
3490625000  -5.053090e+001  5.652834e+001 
3493750000  -5.167643e+001  4.551426e+001 
3496875000  -5.149800e+001  4.940284e+001 
3500000000  -5.242477e+001  4.453321e+001 
3503125000  -5.066792e+001  4.656155e+001 
3506250000  -4.971395e+001  4.032425e+001 
3509375000  -5.004808e+001  2.519199e+001 
3512500000  -5.003913e+001  8.484096e+000 
3515625000  -5.113567e+001  9.839855e+000 
3518750000  -5.185649e+001  8.281426e+000 
3521875000  -5.340393e+001  6.383615e+000 
3525000000  -5.378886e+001  2.632909e+000 
3528125000  -5.256218e+001  3.100301e+000 
3531250000  -5.222572e+001  -2.221577e+000 
3534375000  -5.308546e+001  -2.398875e+001 
3537500000  -5.401317e+001  -2.177530e+001 
3540625000  -5.434158e+001  -2.121705e+001 
3543750000  -5.570451e+001  -1.771054e+001 
3546875000  -5.618521e+001  -1.577550e+001 
3550000000  -5.499701e+001  -1.216464e+001 
3553125000  -5.357889e+001  -3.809581e+001 
3556250000  -5.493121e+001  -3.704960e+001 
3559375000  -5.707710e+001  -3.896103e+001 
3562500000  -5.581521e+001  -3.954413e+001 
3565625000  -5.613574e+001  -4.944078e+001 
3568750000  -5.721745e+001  -3.622400e+001 
3571875000  -5.714297e+001  -4.910542e+001 
3575000000  -5.822408e+001  -5.006849e+001 
3578125000  -6.022885e+001  -3.818619e+001 
3581250000  -5.713284e+001  -3.374446e+001 
3584375000  -5.932580e+001  -3.437795e+001 
3587500000  -5.864076e+001  -5.057430e+001 
3590625000  -5.877446e+001  -6.260978e+001 
3593750000  -5.870471e+001  -4.652939e+001 
3596875000  -5.941148e+001  -4.449194e+001 
3600000000  -5.619590e+001  -4.624730e+001 
3603125000  -5.854928e+001  -5.392908e+001 
3606250000  -5.905428e+001  -5.810298e+001 
3609375000  -5.783241e+001  -4.509072e+001 
3612500000  -5.833392e+001  -5.896377e+001 
3615625000  -5.881022e+001  -4.869690e+001 
3618750000  -5.901377e+001  -5.249685e+001 
3621875000  -5.739772e+001  -4.928281e+001 
3625000000  -5.724665e+001  -4.722918e+001 
3628125000  -5.608677e+001  -4.456804e+001 
3631250000  -5.766605e+001  -5.438960e+001 
3634375000  -5.773968e+001  -5.035569e+001 
3637500000  -5.502952e+001  -4.482610e+001 
3640625000  -5.386715e+001  -4.133215e+001 
3643750000  -5.281186e+001  -4.821400e+001 
3646875000  -5.257976e+001  -5.448203e+001 
3650000000  -5.285771e+001  -6.082889e+001 
3653125000  -5.117073e+001  -6.437136e+001 
3656250000  -5.228051e+001  -6.160115e+001 
3659375000  -5.161831e+001  -6.423904e+001 
3662500000  -5.048796e+001  -7.491743e+001 
3665625000  -4.993430e+001  -7.266480e+001 
3668750000  -4.793473e+001  -7.057143e+001 
3671875000  -4.728722e+001  -8.564658e+001 
3675000000  -4.670497e+001  -9.393691e+001 
3678125000  -4.764816e+001  -9.604551e+001 
3681250000  -4.617507e+001  -1.021576e+002 
3684375000  -4.698872e+001  -1.067322e+002 
3687500000  -4.683236e+001  -1.133124e+002 
3690625000  -4.670942e+001  -1.187906e+002 
3693750000  -4.685411e+001  -1.175975e+002 
3696875000  -4.629234e+001  -1.186694e+002 
3700000000  -4.494535e+001  -1.280512e+002 
3703125000  -4.535321e+001  -1.293755e+002 
3706250000  -4.596734e+001  -1.363866e+002 
3709375000  -4.510202e+001  -1.297522e+002 
3712500000  -4.357217e+001  -1.401975e+002 
3715625000  -4.214974e+001  -1.465092e+002 
3718750000  -4.182079e+001  -1.557353e+002 
3721875000  -4.116603e+001  -1.614093e+002 
3725000000  -4.132262e+001  -1.712054e+002 
3728125000  -4.160028e+001  -1.742027e+002 
3731250000  -4.059882e+001  -1.795800e+002 
3734375000  -4.014911e+001  1.729714e+002 
3737500000  -4.094694e+001  1.629786e+002 
3740625000  -4.118706e+001  1.564176e+002 
3743750000  -4.042513e+001  1.506263e+002 
3746875000  -4.045615e+001  1.443161e+002 
3750000000  -4.084451e+001  1.412548e+002 
3753125000  -4.049263e+001  1.355980e+002 
3756250000  -4.076390e+001  1.336450e+002 
3759375000  -4.054025e+001  1.280621e+002 
3762500000  -3.993100e+001  1.211033e+002 
3765625000  -4.093229e+001  1.168672e+002 
3768750000  -4.017109e+001  1.190396e+002 
3771875000  -3.839635e+001  1.097136e+002 
3775000000  -3.835587e+001  9.848649e+001 
3778125000  -3.908294e+001  9.195807e+001 
3781250000  -3.896077e+001  8.831702e+001 
3784375000  -3.893289e+001  8.112721e+001 
3787500000  -3.857716e+001  7.741439e+001 
3790625000  -3.915044e+001  6.698917e+001 
3793750000  -3.913132e+001  6.427092e+001 
3796875000  -3.828819e+001  6.068655e+001 
3800000000  -3.647091e+001  5.519074e+001 
3803125000  -3.804244e+001  4.188985e+001 
3806250000  -3.887926e+001  3.629680e+001 
3809375000  -3.840843e+001  3.340287e+001 
3812500000  -3.842457e+001  2.412066e+001 
3815625000  -3.957180e+001  1.386888e+001 
3818750000  -4.068495e+001  1.496517e+001 
3821875000  -4.001418e+001  2.596349e+001 
3825000000  -3.817407e+001  2.242680e+001 
3828125000  -3.688919e+001  2.178606e+000 
3831250000  -3.816146e+001  -1.150196e+001 
3834375000  -4.024986e+001  -1.172427e+001 
3837500000  -4.067249e+001  -6.464192e+000 
3840625000  -3.903754e+001  -1.350274e+001 
3843750000  -3.852908e+001  -2.747481e+001 
3846875000  -4.009197e+001  -3.310871e+001 
3850000000  -4.078218e+001  -2.621941e+001 
3853125000  -3.987471e+001  -2.611928e+001 
3856250000  -3.959388e+001  -3.545517e+001 
3859375000  -3.870459e+001  -4.137392e+001 
3862500000  -3.842375e+001  -5.000145e+001 
3865625000  -3.909441e+001  -5.549992e+001 
3868750000  -3.874080e+001  -5.663665e+001 
3871875000  -3.782735e+001  -6.578225e+001 
3875000000  -3.876728e+001  -7.455809e+001 
3878125000  -3.939866e+001  -7.904060e+001 
3881250000  -3.922850e+001  -7.707988e+001 
3884375000  -3.862672e+001  -8.397184e+001 
3887500000  -3.915926e+001  -9.137935e+001 
3890625000  -3.955994e+001  -9.511780e+001 
3893750000  -3.964184e+001  -9.653725e+001 
3896875000  -3.999348e+001  -1.024276e+002 
3900000000  -4.001752e+001  -1.035472e+002 
3903125000  -3.948846e+001  -1.085301e+002 
3906250000  -3.877842e+001  -1.136423e+002 
3909375000  -3.810547e+001  -1.218861e+002 
3912500000  -3.923022e+001  -1.303910e+002 
3915625000  -4.021915e+001  -1.290623e+002 
3918750000  -3.982902e+001  -1.317958e+002 
3921875000  -3.911935e+001  -1.363024e+002 
3925000000  -3.840620e+001  -1.407981e+002 
3928125000  -3.847475e+001  -1.512695e+002 
3931250000  -3.905288e+001  -1.578923e+002 
3934375000  -3.963937e+001  -1.579396e+002 
3937500000  -3.988279e+001  -1.607837e+002 
3940625000  -3.990617e+001  -1.635770e+002 
3943750000  -3.889949e+001  -1.661086e+002 
3946875000  -3.854556e+001  -1.754978e+002 
3950000000  -3.966163e+001  1.761913e+002 
3953125000  -4.009684e+001  1.784246e+002 
3956250000  -3.911357e+001  1.790202e+002 
3959375000  -3.765342e+001  1.713188e+002 
3962500000  -3.785438e+001  1.616631e+002 
3965625000  -3.776616e+001  1.525294e+002 
3968750000  -3.879926e+001  1.445086e+002 
3971875000  -3.865616e+001  1.395831e+002 
3975000000  -3.843382e+001  1.375773e+002 
3978125000  -3.845536e+001  1.312980e+002 
3981250000  -3.861437e+001  1.248168e+002 
3984375000  -3.910758e+001  1.171069e+002 
3987500000  -3.976667e+001  1.148405e+002 
3990625000  -4.010596e+001  1.127211e+002 
3993750000  -3.999755e+001  1.062386e+002 
3996875000  -3.999520e+001  1.024168e+002 
4000000000  -4.075513e+001  9.904153e+001 
4003125000  -4.115963e+001  9.858225e+001 
4006250000  -3.927186e+001  9.867544e+001 
4009375000  -3.858628e+001  8.459863e+001 
4012500000  -4.028450e+001  7.575377e+001 
4015625000  -4.148269e+001  7.444427e+001 
4018750000  -4.119387e+001  7.533132e+001 
4021875000  -4.057325e+001  7.205320e+001 
4025000000  -4.031293e+001  6.584884e+001 
4028125000  -4.059860e+001  5.903237e+001 
4031250000  -4.093544e+001  5.645543e+001 
4034375000  -4.156889e+001  5.362186e+001 
4037500000  -4.118366e+001  5.398707e+001 
4040625000  -4.096310e+001  5.019440e+001 
4043750000  -4.113992e+001  4.646386e+001 
4046875000  -4.089238e+001  4.328009e+001 
4050000000  -4.048024e+001  3.796400e+001 
4053125000  -4.139231e+001  3.724363e+001 
4056250000  -4.133319e+001  4.041741e+001 
4059375000  -3.951859e+001  3.796304e+001 
4062500000  -3.861293e+001  2.919291e+001 
4065625000  -3.886240e+001  2.397159e+001 
4068750000  -3.828878e+001  1.739914e+001 
4071875000  -3.771011e+001  7.048677e+000 
4075000000  -3.844306e+001  -6.398764e-002 
4078125000  -3.874318e+001  -2.399359e+000 
4081250000  -3.827904e+001  -8.421243e+000 
4084375000  -3.821289e+001  -1.870249e+001 
4087500000  -3.883666e+001  -2.569831e+001 
4090625000  -3.913695e+001  -2.573960e+001 
4093750000  -3.877611e+001  -2.902488e+001 
4096875000  -3.871703e+001  -3.908396e+001 
4100000000  -3.969298e+001  -4.488911e+001 
4103125000  -4.064756e+001  -4.292291e+001 
4106250000  -3.986459e+001  -4.125732e+001 
4109375000  -3.917234e+001  -4.401646e+001 
4112500000  -3.837060e+001  -5.348537e+001 
4115625000  -3.943049e+001  -6.147845e+001 
4118750000  -3.898992e+001  -6.439355e+001 
4121875000  -3.898119e+001  -7.241196e+001 
4125000000  -3.984641e+001  -7.923563e+001 
4128125000  -4.063678e+001  -7.692060e+001 
4131250000  -3.956093e+001  -7.297174e+001 
4134375000  -3.784967e+001  -8.177594e+001 
4137500000  -3.830603e+001  -1.027940e+002 
4140625000  -4.031543e+001  -1.082098e+002 
4143750000  -4.168466e+001  -1.020734e+002 
4146875000  -4.051023e+001  -9.887666e+001 
4150000000  -3.958143e+001  -1.066842e+002 
4153125000  -4.009194e+001  -1.160508e+002 
4156250000  -4.138447e+001  -1.201357e+002 
4159375000  -4.088543e+001  -1.126222e+002 
4162500000  -3.995689e+001  -1.097777e+002 
4165625000  -3.861590e+001  -1.178993e+002 
4168750000  -3.846612e+001  -1.279039e+002 
4171875000  -3.846297e+001  -1.375548e+002 
4175000000  -3.936092e+001  -1.434520e+002 
4178125000  -3.990307e+001  -1.448483e+002 
4181250000  -3.942283e+001  -1.502082e+002 
4184375000  -3.948089e+001  -1.548312e+002 
4187500000  -3.964518e+001  -1.589608e+002 
4190625000  -3.964767e+001  -1.684865e+002 
4193750000  -4.078416e+001  -1.723257e+002 
4196875000  -4.150463e+001  -1.732900e+002 
4200000000  -4.231710e+001  -1.664938e+002 
4203125000  -4.086363e+001  -1.529805e+002 
4206250000  -3.746326e+001  -1.642544e+002 
4209375000  -3.720639e+001  1.724904e+002 
4212500000  -3.971610e+001  1.652450e+002 
4215625000  -4.030371e+001  1.721532e+002 
4218750000  -3.827180e+001  1.756692e+002 
4221875000  -3.671285e+001  1.646896e+002 
4225000000  -3.792759e+001  1.523915e+002 
4228125000  -3.777905e+001  1.553818e+002 
4231250000  -3.626159e+001  1.466724e+002 
4234375000  -3.651240e+001  1.346324e+002 
4237500000  -3.614646e+001  1.300127e+002 
4240625000  -3.648817e+001  1.186501e+002 
4243750000  -3.764318e+001  1.109585e+002 
4246875000  -3.834971e+001  1.109230e+002 
4250000000  -3.837363e+001  1.102410e+002 
4253125000  -3.828244e+001  1.063275e+002 
4256250000  -3.800019e+001  1.019045e+002 
4259375000  -3.773212e+001  9.711642e+001 
4262500000  -3.823059e+001  9.094471e+001 
4265625000  -3.792747e+001  9.076189e+001 
4268750000  -3.702992e+001  8.304546e+001 
4271875000  -3.669910e+001  7.420730e+001 
4275000000  -3.643068e+001  6.481306e+001 
4278125000  -3.790734e+001  5.127152e+001 
4281250000  -3.897961e+001  5.156882e+001 
4284375000  -3.860472e+001  4.906659e+001 
4287500000  -4.028550e+001  4.565820e+001 
4290625000  -4.056579e+001  5.236699e+001 
4293750000  -3.846616e+001  5.537356e+001 
4296875000  -3.799970e+001  4.112488e+001 
4300000000  -3.911829e+001  3.091340e+001 
4303125000  -3.973930e+001  3.592650e+001 
4306250000  -3.873279e+001  3.946424e+001 
4309375000  -3.777473e+001  3.061853e+001 
4312500000  -3.775113e+001  1.924245e+001 
4315625000  -3.803223e+001  1.331329e+001 
4318750000  -3.876154e+001  8.515357e+000 
4321875000  -3.866869e+001  9.883163e+000 
4325000000  -3.816814e+001  7.706804e+000 
4328125000  -3.733670e+001  -2.682291e+000 
4331250000  -3.742265e+001  -1.296951e+001 
4334375000  -3.832473e+001  -1.906454e+001 
4337500000  -3.942798e+001  -2.029436e+001 
4340625000  -3.966574e+001  -1.499518e+001 
4343750000  -3.841263e+001  -1.837420e+001 
4346875000  -3.836583e+001  -2.767828e+001 
4350000000  -3.860510e+001  -3.533043e+001 
4353125000  -3.908223e+001  -4.424619e+001 
4356250000  -4.105447e+001  -3.929600e+001 
4359375000  -3.989115e+001  -2.308179e+001 
4362500000  -3.644423e+001  -3.372059e+001 
4365625000  -3.591506e+001  -5.264867e+001 
4368750000  -3.732726e+001  -6.024765e+001 
4371875000  -3.808007e+001  -5.960264e+001 
4375000000  -3.731155e+001  -6.472903e+001 
4378125000  -3.689762e+001  -7.201485e+001 
4381250000  -3.709855e+001  -8.081402e+001 
4384375000  -3.732563e+001  -8.675790e+001 
4387500000  -3.813701e+001  -9.309772e+001 
4390625000  -3.856508e+001  -9.373302e+001 
4393750000  -3.798186e+001  -9.389227e+001 
4396875000  -3.723712e+001  -9.924772e+001 
4400000000  -3.703672e+001  -1.071545e+002 
4403125000  -3.771370e+001  -1.172826e+002 
4406250000  -3.819917e+001  -1.213361e+002 
4409375000  -3.872046e+001  -1.234211e+002 
4412500000  -3.996682e+001  -1.260878e+002 
4415625000  -3.933417e+001  -1.224107e+002 
