!Agilent Technologies,E8363B,MY43030201,A.06.04.32
!Agilent E8363B: A.06.04.32
!Date: Tuesday, November 11, 2014 21:34:41
!Correction: S21(Response(S21)) 
!S1P File: Measurement: S21:
# Hz S  dB   R 50
3000000000  -4.061370e+001  7.286573e+001 
3003125000  -4.210356e+001  6.483139e+001 
3006250000  -4.199250e+001  6.466547e+001 
3009375000  -4.260775e+001  6.908353e+001 
3012500000  -4.167325e+001  6.320382e+001 
3015625000  -4.137653e+001  5.873429e+001 
3018750000  -4.197209e+001  5.917984e+001 
3021875000  -4.011550e+001  5.901863e+001 
3025000000  -3.869467e+001  5.584234e+001 
3028125000  -3.801972e+001  4.485698e+001 
3031250000  -3.706954e+001  3.272049e+001 
3034375000  -3.679495e+001  2.039563e+001 
3037500000  -3.755713e+001  8.651615e+000 
3040625000  -3.880003e+001  3.650401e+000 
3043750000  -3.924258e+001  -3.848866e+000 
3046875000  -3.996675e+001  -9.651963e+000 
3050000000  -4.086811e+001  -1.406856e+001 
3053125000  -4.041832e+001  -9.451100e+000 
3056250000  -4.058129e+001  -5.460027e+000 
3059375000  -3.967469e+001  -8.461296e+000 
3062500000  -3.836221e+001  -1.401668e+001 
3065625000  -3.784464e+001  -2.282841e+001 
3068750000  -3.753101e+001  -3.084667e+001 
3071875000  -3.770284e+001  -3.202215e+001 
3075000000  -3.703423e+001  -3.946162e+001 
3078125000  -3.711383e+001  -4.554810e+001 
3081250000  -3.715280e+001  -5.251947e+001 
3084375000  -3.634794e+001  -5.626270e+001 
3087500000  -3.638411e+001  -6.384656e+001 
3090625000  -3.588155e+001  -7.576891e+001 
3093750000  -3.695156e+001  -8.393893e+001 
3096875000  -3.738597e+001  -8.857600e+001 
3100000000  -3.716238e+001  -9.136960e+001 
3103125000  -3.753704e+001  -9.559792e+001 
3106250000  -3.712066e+001  -1.005673e+002 
3109375000  -3.718602e+001  -1.050571e+002 
3112500000  -3.710411e+001  -1.102401e+002 
3115625000  -3.718222e+001  -1.140455e+002 
3118750000  -3.721479e+001  -1.180760e+002 
3121875000  -3.666250e+001  -1.283708e+002 
3125000000  -3.864661e+001  -1.319068e+002 
3128125000  -3.867062e+001  -1.239667e+002 
3131250000  -3.604827e+001  -1.302518e+002 
3134375000  -3.537270e+001  -1.481506e+002 
3137500000  -3.606493e+001  -1.593291e+002 
3140625000  -3.739034e+001  -1.636539e+002 
3143750000  -3.813804e+001  -1.652055e+002 
3146875000  -3.757728e+001  -1.629568e+002 
3150000000  -3.683466e+001  -1.666756e+002 
3153125000  -3.714434e+001  -1.752567e+002 
3156250000  -3.788422e+001  -1.709167e+002 
3159375000  -3.560775e+001  -1.734265e+002 
3162500000  -3.424348e+001  1.719089e+002 
3165625000  -3.531617e+001  1.593725e+002 
3168750000  -3.538463e+001  1.575815e+002 
3171875000  -3.482578e+001  1.503297e+002 
3175000000  -3.542841e+001  1.414363e+002 
3178125000  -3.499717e+001  1.390033e+002 
3181250000  -3.436013e+001  1.313428e+002 
3184375000  -3.418814e+001  1.197617e+002 
3187500000  -3.545544e+001  1.056532e+002 
3190625000  -3.725748e+001  9.899773e+001 
3193750000  -3.751333e+001  1.042498e+002 
3196875000  -3.720049e+001  1.050427e+002 
3200000000  -3.620028e+001  9.929533e+001 
3203125000  -3.594236e+001  9.273148e+001 
3206250000  -3.614809e+001  8.447018e+001 
3209375000  -3.568933e+001  7.635873e+001 
3212500000  -3.625788e+001  6.994373e+001 
3215625000  -3.608709e+001  6.722114e+001 
3218750000  -3.686109e+001  5.483837e+001 
3221875000  -3.728415e+001  4.953884e+001 
3225000000  -3.715211e+001  4.513153e+001 
3228125000  -3.778582e+001  3.877363e+001 
3231250000  -3.820102e+001  3.530314e+001 
3234375000  -3.793341e+001  3.283704e+001 
3237500000  -3.814503e+001  2.829953e+001 
3240625000  -3.747281e+001  2.335603e+001 
3243750000  -3.764108e+001  1.344230e+001 
3246875000  -3.820605e+001  5.544396e+000 
3250000000  -3.889142e+001  2.394438e+000 
3253125000  -3.900397e+001  -1.281183e+000 
3256250000  -3.844450e+001  -9.900368e+000 
3259375000  -3.905241e+001  -2.050818e+001 
3262500000  -4.068613e+001  -2.438053e+001 
3265625000  -4.106240e+001  -2.016134e+001 
3268750000  -4.127612e+001  -1.993785e+001 
3271875000  -4.078525e+001  -2.338527e+001 
3275000000  -4.018206e+001  -3.315971e+001 
3278125000  -4.097170e+001  -3.699712e+001 
3281250000  -4.118546e+001  -3.752514e+001 
3284375000  -4.056153e+001  -4.528938e+001 
3287500000  -4.113564e+001  -4.742576e+001 
3290625000  -4.139782e+001  -5.678292e+001 
3293750000  -4.123362e+001  -6.070264e+001 
3296875000  -4.237803e+001  -6.383625e+001 
3300000000  -4.181656e+001  -6.282047e+001 
3303125000  -4.103968e+001  -6.953869e+001 
3306250000  -4.070556e+001  -7.572083e+001 
3309375000  -4.035476e+001  -8.501553e+001 
3312500000  -4.100312e+001  -9.723739e+001 
3315625000  -4.223274e+001  -1.035198e+002 
3318750000  -4.384724e+001  -1.091182e+002 
3321875000  -4.462610e+001  -1.024848e+002 
3325000000  -4.477190e+001  -9.807587e+001 
3328125000  -4.395690e+001  -9.730537e+001 
3331250000  -4.222966e+001  -9.255355e+001 
3334375000  -3.959972e+001  -1.093591e+002 
3337500000  -4.034569e+001  -1.313324e+002 
3340625000  -4.218887e+001  -1.408142e+002 
3343750000  -4.423791e+001  -1.401600e+002 
3346875000  -4.329343e+001  -1.408460e+002 
3350000000  -4.303645e+001  -1.419342e+002 
3353125000  -4.281070e+001  -1.511604e+002 
3356250000  -4.241495e+001  -1.591526e+002 
3359375000  -4.332556e+001  -1.712061e+002 
3362500000  -4.436779e+001  -1.733464e+002 
3365625000  -4.485887e+001  -1.787077e+002 
3368750000  -4.587383e+001  1.762722e+002 
3371875000  -4.586597e+001  1.696551e+002 
3375000000  -4.750434e+001  1.683635e+002 
3378125000  -4.834756e+001  1.661892e+002 
3381250000  -4.902732e+001  -1.788985e+002 
3384375000  -4.634678e+001  -1.678485e+002 
3387500000  -4.417317e+001  1.713121e+002 
3390625000  -4.608113e+001  1.517105e+002 
3393750000  -4.712573e+001  1.523244e+002 
3396875000  -4.610595e+001  1.502339e+002 
3400000000  -4.620851e+001  1.388741e+002 
3403125000  -4.683165e+001  1.329176e+002 
3406250000  -4.784746e+001  1.310883e+002 
3409375000  -4.823641e+001  1.233871e+002 
3412500000  -4.882780e+001  1.159247e+002 
3415625000  -5.020514e+001  1.162060e+002 
3418750000  -4.977912e+001  1.197259e+002 
3421875000  -5.188441e+001  1.249990e+002 
3425000000  -5.011588e+001  1.166479e+002 
3428125000  -5.005513e+001  1.147842e+002 
3431250000  -5.029100e+001  1.060374e+002 
3434375000  -5.073674e+001  1.004504e+002 
3437500000  -5.185284e+001  1.027156e+002 
3440625000  -5.212975e+001  1.049496e+002 
3443750000  -5.066659e+001  1.087890e+002 
3446875000  -5.024318e+001  9.814922e+001 
3450000000  -4.979971e+001  9.630255e+001 
3453125000  -5.096264e+001  8.586343e+001 
3456250000  -5.177629e+001  7.836086e+001 
3459375000  -5.300304e+001  8.071999e+001 
3462500000  -5.276393e+001  9.106908e+001 
3465625000  -5.133662e+001  7.581622e+001 
3468750000  -5.216411e+001  8.069315e+001 
3471875000  -5.157240e+001  7.430854e+001 
3475000000  -5.093840e+001  7.234481e+001 
3478125000  -5.080980e+001  6.024789e+001 
3481250000  -5.223594e+001  5.796099e+001 
3484375000  -5.320283e+001  6.640324e+001 
3487500000  -5.170248e+001  6.585243e+001 
3490625000  -5.120634e+001  5.388300e+001 
3493750000  -5.141193e+001  4.865710e+001 
3496875000  -5.153746e+001  5.071732e+001 
3500000000  -5.158882e+001  4.153156e+001 
3503125000  -5.130198e+001  4.905642e+001 
3506250000  -4.945524e+001  3.424196e+001 
3509375000  -4.935064e+001  2.654933e+001 
3512500000  -5.075587e+001  1.199304e+001 
3515625000  -5.163153e+001  9.237062e+000 
3518750000  -5.289549e+001  5.291832e+000 
3521875000  -5.232249e+001  5.042246e+000 
3525000000  -5.329722e+001  -6.481435e+000 
3528125000  -5.143187e+001  -1.429206e+000 
3531250000  -5.206712e+001  -2.174122e+000 
3534375000  -5.261503e+001  -1.298296e+001 
3537500000  -5.320356e+001  -2.441063e+001 
3540625000  -5.423153e+001  -2.297108e+001 
3543750000  -5.507476e+001  -2.224809e+001 
3546875000  -5.660012e+001  -1.010683e+001 
3550000000  -5.430194e+001  -1.822588e+001 
3553125000  -5.424471e+001  -3.831046e+001 
3556250000  -5.524605e+001  -2.966186e+001 
3559375000  -5.638955e+001  -3.953312e+001 
3562500000  -5.686325e+001  -4.419682e+001 
3565625000  -5.812693e+001  -5.516035e+001 
3568750000  -5.664550e+001  -4.459418e+001 
3571875000  -5.817097e+001  -3.862217e+001 
3575000000  -5.765804e+001  -3.286391e+001 
3578125000  -5.915023e+001  -5.177749e+001 
3581250000  -5.628553e+001  -3.434222e+001 
3584375000  -5.888986e+001  -4.247797e+001 
3587500000  -5.670679e+001  -3.943720e+001 
3590625000  -5.824155e+001  -5.538311e+001 
3593750000  -5.875540e+001  -3.701207e+001 
3596875000  -5.967903e+001  -3.934272e+001 
3600000000  -5.912029e+001  -5.310189e+001 
3603125000  -5.844541e+001  -6.148433e+001 
3606250000  -5.779870e+001  -5.773743e+001 
3609375000  -5.812123e+001  -4.514867e+001 
3612500000  -5.928219e+001  -5.623869e+001 
3615625000  -6.001213e+001  -5.153169e+001 
3618750000  -5.872988e+001  -4.419326e+001 
3621875000  -5.600990e+001  -4.152158e+001 
3625000000  -5.898632e+001  -4.662294e+001 
3628125000  -5.776057e+001  -3.604807e+001 
3631250000  -5.666095e+001  -4.447900e+001 
3634375000  -5.682841e+001  -4.702225e+001 
3637500000  -5.658667e+001  -4.466628e+001 
3640625000  -5.414439e+001  -4.317498e+001 
3643750000  -5.304959e+001  -4.583723e+001 
3646875000  -5.319716e+001  -5.744063e+001 
3650000000  -5.349634e+001  -5.053706e+001 
3653125000  -5.138717e+001  -6.257235e+001 
3656250000  -5.234945e+001  -6.290162e+001 
3659375000  -5.088214e+001  -6.542848e+001 
3662500000  -5.068233e+001  -7.384995e+001 
3665625000  -5.001825e+001  -7.276022e+001 
3668750000  -4.800611e+001  -7.442721e+001 
3671875000  -4.762133e+001  -8.153853e+001 
3675000000  -4.752617e+001  -9.354879e+001 
3678125000  -4.739645e+001  -9.768520e+001 
3681250000  -4.633890e+001  -1.029493e+002 
3684375000  -4.654102e+001  -1.081291e+002 
3687500000  -4.628297e+001  -1.147730e+002 
3690625000  -4.620541e+001  -1.173018e+002 
3693750000  -4.707798e+001  -1.176321e+002 
3696875000  -4.626532e+001  -1.175689e+002 
3700000000  -4.532716e+001  -1.248062e+002 
3703125000  -4.506341e+001  -1.293029e+002 
3706250000  -4.583932e+001  -1.322406e+002 
3709375000  -4.477737e+001  -1.323973e+002 
3712500000  -4.367368e+001  -1.362977e+002 
3715625000  -4.214819e+001  -1.467759e+002 
3718750000  -4.165734e+001  -1.513359e+002 
3721875000  -4.107026e+001  -1.644757e+002 
3725000000  -4.179645e+001  -1.683485e+002 
3728125000  -4.138612e+001  -1.729156e+002 
3731250000  -4.042562e+001  -1.783771e+002 
3734375000  -4.024791e+001  1.748477e+002 
3737500000  -4.085285e+001  1.646250e+002 
3740625000  -4.074925e+001  1.583417e+002 
3743750000  -4.063424e+001  1.513712e+002 
3746875000  -4.083234e+001  1.462246e+002 
3750000000  -4.102138e+001  1.418886e+002 
3753125000  -4.056121e+001  1.376687e+002 
3756250000  -4.067247e+001  1.335141e+002 
3759375000  -4.018811e+001  1.293947e+002 
3762500000  -4.004690e+001  1.202560e+002 
3765625000  -4.082401e+001  1.181813e+002 
3768750000  -4.018290e+001  1.186430e+002 
3771875000  -3.844747e+001  1.097360e+002 
3775000000  -3.842926e+001  9.760155e+001 
3778125000  -3.890490e+001  9.415327e+001 
3781250000  -3.890701e+001  8.886796e+001 
3784375000  -3.868045e+001  8.315475e+001 
3787500000  -3.848900e+001  7.569438e+001 
3790625000  -3.920238e+001  6.822194e+001 
3793750000  -3.906161e+001  6.435898e+001 
3796875000  -3.810813e+001  6.048156e+001 
3800000000  -3.637622e+001  5.510173e+001 
3803125000  -3.797036e+001  4.160626e+001 
3806250000  -3.883707e+001  3.697039e+001 
3809375000  -3.850100e+001  3.341656e+001 
3812500000  -3.833900e+001  2.516039e+001 
3815625000  -3.950828e+001  1.552341e+001 
3818750000  -4.065044e+001  1.490431e+001 
3821875000  -4.004890e+001  2.554747e+001 
3825000000  -3.814251e+001  2.200956e+001 
3828125000  -3.710825e+001  3.756425e+000 
3831250000  -3.811654e+001  -1.212285e+001 
3834375000  -4.039147e+001  -1.143621e+001 
3837500000  -4.093587e+001  -6.161209e+000 
3840625000  -3.876893e+001  -1.008647e+001 
3843750000  -3.851651e+001  -2.507624e+001 
3846875000  -3.992663e+001  -3.399103e+001 
3850000000  -4.086461e+001  -2.465850e+001 
3853125000  -3.985195e+001  -2.455549e+001 
3856250000  -3.939573e+001  -3.181481e+001 
3859375000  -3.851969e+001  -3.950543e+001 
3862500000  -3.846120e+001  -5.106367e+001 
3865625000  -3.898103e+001  -5.577789e+001 
3868750000  -3.879392e+001  -5.641630e+001 
3871875000  -3.818449e+001  -6.475486e+001 
3875000000  -3.846329e+001  -7.478114e+001 
3878125000  -3.941293e+001  -7.740377e+001 
3881250000  -3.928129e+001  -7.911829e+001 
3884375000  -3.870461e+001  -8.494302e+001 
3887500000  -3.897131e+001  -8.964585e+001 
3890625000  -3.950326e+001  -9.444994e+001 
3893750000  -3.987123e+001  -9.793008e+001 
3896875000  -3.998385e+001  -9.916353e+001 
3900000000  -3.983025e+001  -1.028938e+002 
3903125000  -3.921643e+001  -1.070832e+002 
3906250000  -3.876305e+001  -1.120343e+002 
3909375000  -3.824782e+001  -1.210674e+002 
3912500000  -3.897667e+001  -1.299230e+002 
3915625000  -4.061719e+001  -1.287854e+002 
3918750000  -3.972956e+001  -1.314090e+002 
3921875000  -3.932461e+001  -1.344151e+002 
3925000000  -3.859320e+001  -1.401941e+002 
3928125000  -3.826404e+001  -1.508598e+002 
3931250000  -3.899418e+001  -1.558358e+002 
3934375000  -3.944532e+001  -1.580640e+002 
3937500000  -4.004604e+001  -1.599445e+002 
3940625000  -4.008924e+001  -1.619748e+002 
3943750000  -3.866740e+001  -1.664865e+002 
3946875000  -3.829642e+001  -1.754230e+002 
3950000000  -3.950478e+001  1.762177e+002 
3953125000  -4.006533e+001  1.789986e+002 
3956250000  -3.870193e+001  1.777839e+002 
3959375000  -3.792056e+001  1.709037e+002 
3962500000  -3.754449e+001  1.625981e+002 
3965625000  -3.781281e+001  1.526205e+002 
3968750000  -3.877117e+001  1.454834e+002 
3971875000  -3.860514e+001  1.401246e+002 
3975000000  -3.832919e+001  1.362435e+002 
3978125000  -3.846194e+001  1.320008e+002 
3981250000  -3.856686e+001  1.251138e+002 
3984375000  -3.895033e+001  1.177401e+002 
3987500000  -3.961502e+001  1.146559e+002 
3990625000  -3.991450e+001  1.136380e+002 
3993750000  -3.989480e+001  1.086242e+002 
3996875000  -3.978696e+001  1.041141e+002 
4000000000  -4.054835e+001  9.866840e+001 
4003125000  -4.095434e+001  1.015522e+002 
4006250000  -3.914342e+001  9.898524e+001 
4009375000  -3.860633e+001  8.381029e+001 
4012500000  -4.024205e+001  7.591261e+001 
4015625000  -4.152128e+001  7.501215e+001 
4018750000  -4.123336e+001  7.797906e+001 
4021875000  -4.061323e+001  7.137695e+001 
4025000000  -4.054220e+001  6.520183e+001 
4028125000  -4.060231e+001  5.883516e+001 
4031250000  -4.124166e+001  5.549637e+001 
4034375000  -4.165075e+001  5.690707e+001 
4037500000  -4.123104e+001  5.540709e+001 
4040625000  -4.080610e+001  5.148621e+001 
4043750000  -4.096290e+001  4.829152e+001 
4046875000  -4.076309e+001  4.555482e+001 
4050000000  -4.050534e+001  3.788636e+001 
4053125000  -4.136816e+001  3.472095e+001 
4056250000  -4.168224e+001  3.969175e+001 
4059375000  -3.951268e+001  3.742815e+001 
4062500000  -3.879888e+001  2.909971e+001 
4065625000  -3.895474e+001  2.348200e+001 
4068750000  -3.828152e+001  1.707619e+001 
4071875000  -3.784003e+001  6.141078e+000 
4075000000  -3.857873e+001  1.291669e+000 
4078125000  -3.884660e+001  -2.996662e+000 
4081250000  -3.827013e+001  -8.049721e+000 
4084375000  -3.813737e+001  -1.881610e+001 
4087500000  -3.876059e+001  -2.599595e+001 
4090625000  -3.926510e+001  -2.543348e+001 
4093750000  -3.866465e+001  -2.861459e+001 
4096875000  -3.875100e+001  -3.926862e+001 
4100000000  -3.963328e+001  -4.569136e+001 
4103125000  -4.080677e+001  -4.398225e+001 
4106250000  -3.976787e+001  -4.241228e+001 
4109375000  -3.895995e+001  -4.405487e+001 
4112500000  -3.872619e+001  -5.443166e+001 
4115625000  -3.905827e+001  -5.974337e+001 
4118750000  -3.894658e+001  -6.541183e+001 
4121875000  -3.892421e+001  -7.240581e+001 
4125000000  -3.991003e+001  -7.856432e+001 
4128125000  -4.098898e+001  -7.565199e+001 
4131250000  -3.961667e+001  -7.076826e+001 
4134375000  -3.759120e+001  -8.263891e+001 
4137500000  -3.836141e+001  -1.012701e+002 
4140625000  -4.054441e+001  -1.089969e+002 
4143750000  -4.127763e+001  -1.017758e+002 
4146875000  -4.045309e+001  -9.650565e+001 
4150000000  -3.941338e+001  -1.039986e+002 
4153125000  -3.998546e+001  -1.147859e+002 
4156250000  -4.124434e+001  -1.194054e+002 
4159375000  -4.110981e+001  -1.141654e+002 
4162500000  -3.987110e+001  -1.098814e+002 
4165625000  -3.871096e+001  -1.172031e+002 
4168750000  -3.833620e+001  -1.295597e+002 
4171875000  -3.849906e+001  -1.379726e+002 
4175000000  -3.913126e+001  -1.437164e+002 
4178125000  -3.946338e+001  -1.458109e+002 
4181250000  -3.923161e+001  -1.502589e+002 
4184375000  -3.944155e+001  -1.538921e+002 
4187500000  -3.957681e+001  -1.604655e+002 
4190625000  -3.936178e+001  -1.658009e+002 
4193750000  -4.056044e+001  -1.720611e+002 
4196875000  -4.141943e+001  -1.714499e+002 
4200000000  -4.267224e+001  -1.629493e+002 
4203125000  -4.070399e+001  -1.546682e+002 
4206250000  -3.746762e+001  -1.625460e+002 
4209375000  -3.724623e+001  1.725537e+002 
4212500000  -3.959989e+001  1.660563e+002 
4215625000  -4.016961e+001  1.720037e+002 
4218750000  -3.830305e+001  1.751445e+002 
4221875000  -3.661592e+001  1.660436e+002 
4225000000  -3.777455e+001  1.555710e+002 
4228125000  -3.776779e+001  1.530644e+002 
4231250000  -3.637276e+001  1.462739e+002 
4234375000  -3.633469e+001  1.349259e+002 
4237500000  -3.607152e+001  1.292928e+002 
4240625000  -3.629268e+001  1.188241e+002 
4243750000  -3.749830e+001  1.105590e+002 
4246875000  -3.844238e+001  1.115367e+002 
4250000000  -3.846245e+001  1.093321e+002 
4253125000  -3.806569e+001  1.074001e+002 
4256250000  -3.793674e+001  1.028866e+002 
4259375000  -3.778066e+001  9.657764e+001 
4262500000  -3.806412e+001  9.167927e+001 
4265625000  -3.791091e+001  9.115970e+001 
4268750000  -3.700110e+001  8.357843e+001 
4271875000  -3.686961e+001  7.362234e+001 
4275000000  -3.675109e+001  6.525374e+001 
4278125000  -3.785435e+001  5.196439e+001 
4281250000  -3.934542e+001  5.149080e+001 
4284375000  -3.891220e+001  5.031717e+001 
4287500000  -4.025201e+001  4.675331e+001 
4290625000  -4.076236e+001  5.587503e+001 
4293750000  -3.860121e+001  5.425509e+001 
4296875000  -3.782725e+001  4.205849e+001 
4300000000  -3.918525e+001  3.139376e+001 
4303125000  -3.975907e+001  3.569896e+001 
4306250000  -3.879100e+001  3.675519e+001 
4309375000  -3.774248e+001  3.242644e+001 
4312500000  -3.737383e+001  2.133560e+001 
4315625000  -3.768540e+001  9.646474e+000 
4318750000  -3.871960e+001  7.828983e+000 
4321875000  -3.861765e+001  9.217735e+000 
4325000000  -3.796145e+001  7.715352e+000 
4328125000  -3.731429e+001  -2.647853e+000 
4331250000  -3.746620e+001  -1.363590e+001 
4334375000  -3.849173e+001  -1.829507e+001 
4337500000  -3.953836e+001  -1.960649e+001 
4340625000  -3.951767e+001  -1.479051e+001 
4343750000  -3.866769e+001  -1.897974e+001 
4346875000  -3.858139e+001  -2.714579e+001 
4350000000  -3.839911e+001  -3.487889e+001 
4353125000  -3.905244e+001  -4.171433e+001 
4356250000  -4.126915e+001  -3.622169e+001 
4359375000  -3.982799e+001  -2.535842e+001 
4362500000  -3.638768e+001  -3.294278e+001 
4365625000  -3.610310e+001  -5.095531e+001 
4368750000  -3.725845e+001  -5.959389e+001 
4371875000  -3.813444e+001  -5.949636e+001 
4375000000  -3.718462e+001  -6.474096e+001 
4378125000  -3.718240e+001  -7.281232e+001 
4381250000  -3.725286e+001  -8.012776e+001 
4384375000  -3.716051e+001  -8.637574e+001 
4387500000  -3.817605e+001  -9.133802e+001 
4390625000  -3.854224e+001  -9.388056e+001 
4393750000  -3.807242e+001  -9.168486e+001 
4396875000  -3.740941e+001  -9.900878e+001 
4400000000  -3.695347e+001  -1.084951e+002 
4403125000  -3.770035e+001  -1.159577e+002 
4406250000  -3.842828e+001  -1.208636e+002 
4409375000  -3.888297e+001  -1.246465e+002 
4412500000  -3.966026e+001  -1.255778e+002 
4415625000  -3.948952e+001  -1.225734e+002 
