!Agilent Technologies,E8363B,MY43030201,A.06.04.32
!Agilent E8363B: A.06.04.32
!Date: Tuesday, November 11, 2014 21:38:33
!Correction: S21(Response(S21)) 
!S1P File: Measurement: S21:
# Hz S  dB   R 50
3000000000  -4.058419e+001  6.921000e+001 
3003125000  -4.228999e+001  6.057379e+001 
3006250000  -4.224328e+001  6.121446e+001 
3009375000  -4.268242e+001  6.499517e+001 
3012500000  -4.156839e+001  5.890374e+001 
3015625000  -4.145230e+001  5.437415e+001 
3018750000  -4.193012e+001  5.479050e+001 
3021875000  -4.004497e+001  5.468955e+001 
3025000000  -3.883534e+001  5.209034e+001 
3028125000  -3.787238e+001  4.122862e+001 
3031250000  -3.703444e+001  2.900110e+001 
3034375000  -3.675280e+001  1.541655e+001 
3037500000  -3.756713e+001  4.625201e+000 
3040625000  -3.890413e+001  -1.153762e+000 
3043750000  -3.925266e+001  -7.215268e+000 
3046875000  -4.002526e+001  -1.220961e+001 
3050000000  -4.090882e+001  -1.673149e+001 
3053125000  -4.039450e+001  -1.200096e+001 
3056250000  -4.044051e+001  -8.586104e+000 
3059375000  -3.963230e+001  -1.139851e+001 
3062500000  -3.822005e+001  -1.622960e+001 
3065625000  -3.794727e+001  -2.648490e+001 
3068750000  -3.763777e+001  -3.352998e+001 
3071875000  -3.760577e+001  -3.487617e+001 
3075000000  -3.692300e+001  -4.301347e+001 
3078125000  -3.703785e+001  -4.919099e+001 
3081250000  -3.714816e+001  -5.554205e+001 
3084375000  -3.624244e+001  -5.989852e+001 
3087500000  -3.640464e+001  -6.706131e+001 
3090625000  -3.593691e+001  -7.939201e+001 
3093750000  -3.703932e+001  -8.650235e+001 
3096875000  -3.735138e+001  -9.190678e+001 
3100000000  -3.714791e+001  -9.433423e+001 
3103125000  -3.753357e+001  -9.929314e+001 
3106250000  -3.711177e+001  -1.042782e+002 
3109375000  -3.730943e+001  -1.071369e+002 
3112500000  -3.708659e+001  -1.141861e+002 
3115625000  -3.704080e+001  -1.169436e+002 
3118750000  -3.718375e+001  -1.213105e+002 
3121875000  -3.655841e+001  -1.315152e+002 
3125000000  -3.854360e+001  -1.349167e+002 
3128125000  -3.837632e+001  -1.272522e+002 
3131250000  -3.617204e+001  -1.348278e+002 
3134375000  -3.540610e+001  -1.515688e+002 
3137500000  -3.611536e+001  -1.630976e+002 
3140625000  -3.731892e+001  -1.665366e+002 
3143750000  -3.820281e+001  -1.685293e+002 
3146875000  -3.766388e+001  -1.664322e+002 
3150000000  -3.679795e+001  -1.710554e+002 
3153125000  -3.727265e+001  -1.791224e+002 
3156250000  -3.800654e+001  -1.748396e+002 
3159375000  -3.545845e+001  -1.757230e+002 
3162500000  -3.423485e+001  1.679788e+002 
3165625000  -3.546527e+001  1.556288e+002 
3168750000  -3.539727e+001  1.536850e+002 
3171875000  -3.481502e+001  1.465985e+002 
3175000000  -3.546726e+001  1.381702e+002 
3178125000  -3.509916e+001  1.358677e+002 
3181250000  -3.446237e+001  1.278149e+002 
3184375000  -3.415398e+001  1.162131e+002 
3187500000  -3.545159e+001  1.020326e+002 
3190625000  -3.707652e+001  9.604538e+001 
3193750000  -3.748542e+001  1.012420e+002 
3196875000  -3.732353e+001  1.016837e+002 
3200000000  -3.613512e+001  9.694968e+001 
3203125000  -3.587933e+001  8.809631e+001 
3206250000  -3.606046e+001  8.069413e+001 
3209375000  -3.585983e+001  7.317579e+001 
3212500000  -3.634533e+001  6.596408e+001 
3215625000  -3.612176e+001  6.404827e+001 
3218750000  -3.691338e+001  5.213353e+001 
3221875000  -3.722603e+001  4.589262e+001 
3225000000  -3.712535e+001  4.167480e+001 
3228125000  -3.772025e+001  3.452899e+001 
3231250000  -3.812923e+001  3.214283e+001 
3234375000  -3.800056e+001  2.984229e+001 
3237500000  -3.813799e+001  2.452535e+001 
3240625000  -3.752429e+001  2.028087e+001 
3243750000  -3.771657e+001  9.172011e+000 
3246875000  -3.815505e+001  2.093163e+000 
3250000000  -3.881612e+001  -1.237489e+000 
3253125000  -3.905694e+001  -4.471347e+000 
3256250000  -3.854502e+001  -1.264047e+001 
3259375000  -3.906393e+001  -2.362801e+001 
3262500000  -4.074409e+001  -2.725871e+001 
3265625000  -4.119413e+001  -2.367128e+001 
3268750000  -4.132025e+001  -2.352786e+001 
3271875000  -4.047644e+001  -2.684174e+001 
3275000000  -4.011433e+001  -3.557899e+001 
3278125000  -4.077220e+001  -4.019994e+001 
3281250000  -4.085632e+001  -4.227745e+001 
3284375000  -4.055433e+001  -4.785679e+001 
3287500000  -4.110447e+001  -5.297605e+001 
3290625000  -4.118746e+001  -6.028731e+001 
3293750000  -4.122027e+001  -6.523343e+001 
3296875000  -4.220738e+001  -6.749905e+001 
3300000000  -4.159801e+001  -6.609699e+001 
3303125000  -4.072795e+001  -7.432746e+001 
3306250000  -4.059661e+001  -8.008171e+001 
3309375000  -4.046560e+001  -8.794372e+001 
3312500000  -4.092979e+001  -1.012024e+002 
3315625000  -4.243414e+001  -1.081938e+002 
3318750000  -4.400541e+001  -1.102262e+002 
3321875000  -4.502175e+001  -1.075500e+002 
3325000000  -4.457009e+001  -9.947217e+001 
3328125000  -4.359146e+001  -1.020836e+002 
3331250000  -4.216881e+001  -9.888462e+001 
3334375000  -3.971643e+001  -1.145752e+002 
3337500000  -4.020909e+001  -1.341396e+002 
3340625000  -4.217546e+001  -1.429458e+002 
3343750000  -4.387870e+001  -1.412295e+002 
3346875000  -4.322132e+001  -1.446960e+002 
3350000000  -4.295180e+001  -1.453866e+002 
3353125000  -4.260684e+001  -1.546695e+002 
3356250000  -4.252720e+001  -1.641235e+002 
3359375000  -4.352680e+001  -1.738099e+002 
3362500000  -4.407274e+001  -1.783806e+002 
3365625000  -4.473929e+001  1.783923e+002 
3368750000  -4.526325e+001  1.729352e+002 
3371875000  -4.566870e+001  1.705896e+002 
3375000000  -4.751244e+001  1.682792e+002 
3378125000  -4.821513e+001  1.621715e+002 
3381250000  -4.929900e+001  1.790933e+002 
3384375000  -4.633619e+001  -1.694636e+002 
3387500000  -4.368768e+001  1.664177e+002 
3390625000  -4.591413e+001  1.507782e+002 
3393750000  -4.666120e+001  1.506752e+002 
3396875000  -4.623437e+001  1.488323e+002 
3400000000  -4.629505e+001  1.370639e+002 
3403125000  -4.673166e+001  1.303193e+002 
3406250000  -4.795823e+001  1.229613e+002 
3409375000  -4.796352e+001  1.195058e+002 
3412500000  -4.878850e+001  1.138286e+002 
3415625000  -4.952187e+001  1.170358e+002 
3418750000  -5.054749e+001  1.136300e+002 
3421875000  -5.141116e+001  1.185309e+002 
3425000000  -4.966215e+001  1.201785e+002 
3428125000  -4.968307e+001  1.136739e+002 
3431250000  -4.968618e+001  1.041835e+002 
3434375000  -5.130105e+001  1.022217e+002 
3437500000  -5.155570e+001  1.004698e+002 
3440625000  -5.249511e+001  1.016728e+002 
3443750000  -5.068595e+001  1.051038e+002 
3446875000  -5.015003e+001  9.648873e+001 
3450000000  -4.939523e+001  9.482761e+001 
3453125000  -5.021191e+001  7.885311e+001 
3456250000  -5.268584e+001  7.373338e+001 
3459375000  -5.272113e+001  8.220689e+001 
3462500000  -5.164141e+001  8.378572e+001 
3465625000  -5.205156e+001  6.937914e+001 
3468750000  -5.259933e+001  7.609307e+001 
3471875000  -5.169519e+001  7.483594e+001 
3475000000  -5.054947e+001  6.690660e+001 
3478125000  -5.104295e+001  5.944552e+001 
3481250000  -5.206349e+001  5.941539e+001 
3484375000  -5.243320e+001  6.482146e+001 
3487500000  -5.134271e+001  5.368232e+001 
3490625000  -5.048746e+001  5.127452e+001 
3493750000  -5.089950e+001  4.196530e+001 
3496875000  -5.156258e+001  4.323780e+001 
3500000000  -5.201143e+001  4.439183e+001 
3503125000  -5.041079e+001  3.652262e+001 
3506250000  -4.923196e+001  3.096140e+001 
3509375000  -4.909498e+001  1.962332e+001 
3512500000  -5.001545e+001  1.619631e+001 
3515625000  -5.109627e+001  1.006180e+001 
3518750000  -5.191964e+001  6.275294e-001 
3521875000  -5.227079e+001  -1.705629e+000 
3525000000  -5.328504e+001  -6.020676e+000 
3528125000  -5.207668e+001  -5.411218e+000 
3531250000  -5.158109e+001  -7.570492e+000 
3534375000  -5.217574e+001  -1.747496e+001 
3537500000  -5.291251e+001  -3.370907e+001 
3540625000  -5.485103e+001  -2.770011e+001 
3543750000  -5.547152e+001  -1.974810e+001 
3546875000  -5.602560e+001  -9.237007e+000 
3550000000  -5.335585e+001  -2.012453e+001 
3553125000  -5.349686e+001  -3.579153e+001 
3556250000  -5.557336e+001  -3.783025e+001 
3559375000  -5.560229e+001  -3.526447e+001 
3562500000  -5.646057e+001  -5.244016e+001 
3565625000  -5.754088e+001  -5.674791e+001 
3568750000  -5.726253e+001  -4.539246e+001 
3571875000  -5.692368e+001  -5.071903e+001 
3575000000  -5.758915e+001  -4.848160e+001 
3578125000  -5.918537e+001  -5.333717e+001 
3581250000  -5.787006e+001  -4.241301e+001 
3584375000  -5.806382e+001  -4.742837e+001 
3587500000  -5.676427e+001  -5.397150e+001 
3590625000  -5.644389e+001  -7.182230e+001 
3593750000  -5.923370e+001  -6.153170e+001 
3596875000  -5.877102e+001  -4.425510e+001 
3600000000  -5.786734e+001  -3.934466e+001 
3603125000  -5.891715e+001  -8.108381e+001 
3606250000  -5.803149e+001  -6.643520e+001 
3609375000  -5.654190e+001  -5.204396e+001 
3612500000  -5.765028e+001  -5.492183e+001 
3615625000  -5.849234e+001  -5.765788e+001 
3618750000  -5.887152e+001  -4.531915e+001 
3621875000  -5.768943e+001  -5.003392e+001 
3625000000  -5.756715e+001  -5.189146e+001 
3628125000  -5.922132e+001  -3.557106e+001 
3631250000  -5.617367e+001  -6.172723e+001 
3634375000  -5.678100e+001  -4.877841e+001 
3637500000  -5.478202e+001  -4.886555e+001 
3640625000  -5.515237e+001  -3.379935e+001 
3643750000  -5.289196e+001  -5.170986e+001 
3646875000  -5.330896e+001  -6.349309e+001 
3650000000  -5.274535e+001  -5.741207e+001 
3653125000  -5.290382e+001  -6.722950e+001 
3656250000  -5.291708e+001  -6.787597e+001 
3659375000  -5.150002e+001  -6.956702e+001 
3662500000  -5.030953e+001  -7.611086e+001 
3665625000  -4.999640e+001  -7.483983e+001 
3668750000  -4.854665e+001  -7.720368e+001 
3671875000  -4.738780e+001  -8.983005e+001 
3675000000  -4.763114e+001  -9.605212e+001 
3678125000  -4.683792e+001  -1.019692e+002 
3681250000  -4.632877e+001  -1.083251e+002 
3684375000  -4.660811e+001  -1.079816e+002 
3687500000  -4.683814e+001  -1.147126e+002 
3690625000  -4.630156e+001  -1.215630e+002 
3693750000  -4.744534e+001  -1.219396e+002 
3696875000  -4.666769e+001  -1.227022e+002 
3700000000  -4.546543e+001  -1.311632e+002 
3703125000  -4.542782e+001  -1.358887e+002 
3706250000  -4.625391e+001  -1.356256e+002 
3709375000  -4.494710e+001  -1.368110e+002 
3712500000  -4.336096e+001  -1.432381e+002 
3715625000  -4.175693e+001  -1.517861e+002 
3718750000  -4.180553e+001  -1.584218e+002 
3721875000  -4.168694e+001  -1.659509e+002 
3725000000  -4.174185e+001  -1.745695e+002 
3728125000  -4.115509e+001  -1.774207e+002 
3731250000  -4.089473e+001  1.754544e+002 
3734375000  -4.012716e+001  1.689385e+002 
3737500000  -4.104889e+001  1.595764e+002 
3740625000  -4.090347e+001  1.552851e+002 
3743750000  -4.048032e+001  1.476039e+002 
3746875000  -4.071492e+001  1.407442e+002 
3750000000  -4.110688e+001  1.361951e+002 
3753125000  -4.051930e+001  1.335941e+002 
3756250000  -4.059331e+001  1.305963e+002 
3759375000  -4.024888e+001  1.237915e+002 
3762500000  -4.001029e+001  1.181264e+002 
3765625000  -4.078974e+001  1.122644e+002 
3768750000  -4.013449e+001  1.117990e+002 
3771875000  -3.849221e+001  1.052025e+002 
3775000000  -3.847685e+001  9.441158e+001 
3778125000  -3.887523e+001  8.830562e+001 
3781250000  -3.903291e+001  8.343503e+001 
3784375000  -3.893377e+001  7.867616e+001 
3787500000  -3.863692e+001  7.176585e+001 
3790625000  -3.910044e+001  6.343296e+001 
3793750000  -3.895911e+001  6.015868e+001 
3796875000  -3.825218e+001  5.510183e+001 
3800000000  -3.634576e+001  5.056227e+001 
3803125000  -3.819217e+001  3.755199e+001 
3806250000  -3.897149e+001  3.404536e+001 
3809375000  -3.839158e+001  2.904851e+001 
3812500000  -3.840899e+001  1.969068e+001 
3815625000  -3.952151e+001  1.096229e+001 
3818750000  -4.081532e+001  1.305356e+001 
3821875000  -4.028897e+001  2.208306e+001 
3825000000  -3.812508e+001  1.498707e+001 
3828125000  -3.718245e+001  -2.067051e+000 
3831250000  -3.798390e+001  -1.619630e+001 
3834375000  -4.028876e+001  -1.540479e+001 
3837500000  -4.077668e+001  -1.193005e+001 
3840625000  -3.904668e+001  -1.372564e+001 
3843750000  -3.829793e+001  -3.077020e+001 
3846875000  -3.985137e+001  -3.662131e+001 
3850000000  -4.065470e+001  -2.974467e+001 
3853125000  -3.997515e+001  -2.864615e+001 
3856250000  -3.938419e+001  -4.026674e+001 
3859375000  -3.870374e+001  -4.470704e+001 
3862500000  -3.841700e+001  -5.603693e+001 
3865625000  -3.882247e+001  -5.964292e+001 
3868750000  -3.838731e+001  -6.149426e+001 
3871875000  -3.788779e+001  -6.942281e+001 
3875000000  -3.839218e+001  -7.879181e+001 
3878125000  -3.931646e+001  -8.095013e+001 
3881250000  -3.917998e+001  -8.077475e+001 
3884375000  -3.851833e+001  -8.771905e+001 
3887500000  -3.906620e+001  -9.547086e+001 
3890625000  -3.926954e+001  -1.004681e+002 
3893750000  -3.986498e+001  -1.016306e+002 
3896875000  -4.004969e+001  -1.032324e+002 
3900000000  -3.995619e+001  -1.073220e+002 
3903125000  -3.936457e+001  -1.117509e+002 
3906250000  -3.888843e+001  -1.160425e+002 
3909375000  -3.826933e+001  -1.248948e+002 
3912500000  -3.925389e+001  -1.337768e+002 
3915625000  -4.019472e+001  -1.339757e+002 
3918750000  -3.996757e+001  -1.343054e+002 
3921875000  -3.928640e+001  -1.402464e+002 
3925000000  -3.830963e+001  -1.455330e+002 
3928125000  -3.828838e+001  -1.550372e+002 
3931250000  -3.892261e+001  -1.612896e+002 
3934375000  -3.972799e+001  -1.619032e+002 
3937500000  -4.019209e+001  -1.649984e+002 
3940625000  -3.993570e+001  -1.663504e+002 
3943750000  -3.871779e+001  -1.698139e+002 
3946875000  -3.829173e+001  -1.787089e+002 
3950000000  -3.929772e+001  1.732681e+002 
3953125000  -4.003115e+001  1.735355e+002 
3956250000  -3.867242e+001  1.724896e+002 
3959375000  -3.771666e+001  1.674410e+002 
3962500000  -3.750912e+001  1.573169e+002 
3965625000  -3.776468e+001  1.485530e+002 
3968750000  -3.847667e+001  1.417527e+002 
3971875000  -3.857939e+001  1.359271e+002 
3975000000  -3.817717e+001  1.332466e+002 
3978125000  -3.835852e+001  1.276679e+002 
3981250000  -3.864225e+001  1.211255e+002 
3984375000  -3.886928e+001  1.133639e+002 
3987500000  -3.981253e+001  1.110353e+002 
3990625000  -3.999508e+001  1.088324e+002 
3993750000  -3.970368e+001  1.032778e+002 
3996875000  -3.997451e+001  1.009135e+002 
4000000000  -4.059113e+001  9.478873e+001 
4003125000  -4.119527e+001  9.644377e+001 
4006250000  -3.899866e+001  9.364413e+001 
4009375000  -3.848613e+001  7.973305e+001 
4012500000  -4.043763e+001  7.037742e+001 
4015625000  -4.139704e+001  7.175973e+001 
4018750000  -4.117778e+001  7.153038e+001 
4021875000  -4.066397e+001  6.857516e+001 
4025000000  -4.038485e+001  6.236404e+001 
4028125000  -4.043251e+001  5.597023e+001 
4031250000  -4.104207e+001  4.970961e+001 
4034375000  -4.136371e+001  5.088808e+001 
4037500000  -4.077474e+001  5.081723e+001 
4040625000  -4.065158e+001  4.747514e+001 
4043750000  -4.066571e+001  4.443954e+001 
4046875000  -4.085255e+001  3.963711e+001 
4050000000  -4.064008e+001  3.506845e+001 
4053125000  -4.117165e+001  3.230846e+001 
4056250000  -4.124939e+001  3.806607e+001 
4059375000  -3.924457e+001  3.418676e+001 
4062500000  -3.890436e+001  2.556935e+001 
4065625000  -3.894560e+001  2.107067e+001 
4068750000  -3.847803e+001  1.256228e+001 
4071875000  -3.777289e+001  2.689285e+000 
4075000000  -3.835949e+001  -4.194587e+000 
4078125000  -3.871756e+001  -7.871790e+000 
4081250000  -3.814820e+001  -1.251750e+001 
4084375000  -3.809256e+001  -2.296585e+001 
4087500000  -3.879186e+001  -2.955017e+001 
4090625000  -3.938644e+001  -3.031033e+001 
4093750000  -3.874047e+001  -3.375924e+001 
4096875000  -3.866288e+001  -4.344123e+001 
4100000000  -3.980683e+001  -4.873301e+001 
4103125000  -4.056630e+001  -4.663238e+001 
4106250000  -4.000735e+001  -4.443783e+001 
4109375000  -3.912795e+001  -4.966807e+001 
4112500000  -3.852735e+001  -5.864127e+001 
4115625000  -3.908836e+001  -6.475165e+001 
4118750000  -3.893327e+001  -6.910155e+001 
4121875000  -3.911945e+001  -7.625192e+001 
4125000000  -4.006601e+001  -8.255044e+001 
4128125000  -4.074752e+001  -7.943575e+001 
4131250000  -3.992972e+001  -7.504845e+001 
4134375000  -3.756100e+001  -8.702604e+001 
4137500000  -3.816236e+001  -1.055437e+002 
4140625000  -4.057410e+001  -1.120042e+002 
4143750000  -4.133072e+001  -1.048253e+002 
4146875000  -4.043755e+001  -1.008926e+002 
4150000000  -3.941378e+001  -1.108026e+002 
4153125000  -4.011605e+001  -1.184565e+002 
4156250000  -4.090267e+001  -1.238673e+002 
4159375000  -4.092244e+001  -1.145263e+002 
4162500000  -3.989135e+001  -1.158670e+002 
4165625000  -3.871547e+001  -1.207711e+002 
4168750000  -3.824715e+001  -1.334312e+002 
4171875000  -3.813121e+001  -1.427344e+002 
4175000000  -3.898886e+001  -1.494896e+002 
4178125000  -3.946877e+001  -1.500902e+002 
4181250000  -3.956479e+001  -1.538970e+002 
4184375000  -3.941469e+001  -1.589069e+002 
4187500000  -3.935611e+001  -1.643091e+002 
4190625000  -3.931890e+001  -1.703771e+002 
4193750000  -4.041971e+001  -1.768029e+002 
4196875000  -4.142440e+001  -1.761528e+002 
4200000000  -4.272115e+001  -1.721071e+002 
4203125000  -4.047231e+001  -1.595708e+002 
4206250000  -3.738328e+001  -1.670645e+002 
4209375000  -3.741593e+001  1.686440e+002 
4212500000  -3.962465e+001  1.624099e+002 
4215625000  -4.009943e+001  1.702108e+002 
4218750000  -3.837159e+001  1.709181e+002 
4221875000  -3.636495e+001  1.585902e+002 
4225000000  -3.789194e+001  1.472597e+002 
4228125000  -3.759622e+001  1.496632e+002 
4231250000  -3.606952e+001  1.431323e+002 
4234375000  -3.610431e+001  1.325674e+002 
4237500000  -3.603930e+001  1.256771e+002 
4240625000  -3.612922e+001  1.154914e+002 
4243750000  -3.763348e+001  1.064080e+002 
4246875000  -3.848870e+001  1.059431e+002 
4250000000  -3.815445e+001  1.054704e+002 
4253125000  -3.789024e+001  1.033283e+002 
4256250000  -3.791313e+001  9.622403e+001 
4259375000  -3.773819e+001  9.165639e+001 
4262500000  -3.789511e+001  8.704665e+001 
4265625000  -3.785165e+001  8.530406e+001 
4268750000  -3.688572e+001  7.788735e+001 
4271875000  -3.669555e+001  6.842461e+001 
4275000000  -3.646773e+001  6.034689e+001 
4278125000  -3.751247e+001  4.882873e+001 
4281250000  -3.895570e+001  4.683089e+001 
4284375000  -3.849669e+001  4.585217e+001 
4287500000  -4.045073e+001  4.108824e+001 
4290625000  -4.087445e+001  4.989367e+001 
4293750000  -3.845461e+001  5.106533e+001 
4296875000  -3.769079e+001  3.733221e+001 
4300000000  -3.902519e+001  2.755354e+001 
4303125000  -3.942765e+001  3.212164e+001 
4306250000  -3.839227e+001  3.327530e+001 
4309375000  -3.750215e+001  2.626815e+001 
4312500000  -3.764916e+001  1.480678e+001 
4315625000  -3.784915e+001  7.788266e+000 
4318750000  -3.845773e+001  3.732422e+000 
4321875000  -3.811734e+001  3.973212e+000 
4325000000  -3.781036e+001  2.985260e+000 
4328125000  -3.703736e+001  -6.607641e+000 
4331250000  -3.749016e+001  -1.769237e+001 
4334375000  -3.836446e+001  -2.467852e+001 
4337500000  -3.942160e+001  -2.526597e+001 
4340625000  -3.950138e+001  -1.962550e+001 
4343750000  -3.844747e+001  -2.301289e+001 
4346875000  -3.819348e+001  -3.220161e+001 
4350000000  -3.798124e+001  -4.101334e+001 
4353125000  -3.914639e+001  -4.799764e+001 
4356250000  -4.115865e+001  -4.063485e+001 
4359375000  -3.981429e+001  -2.740372e+001 
4362500000  -3.636735e+001  -3.710625e+001 
4365625000  -3.590692e+001  -5.587866e+001 
4368750000  -3.725779e+001  -6.529174e+001 
4371875000  -3.769734e+001  -6.534531e+001 
4375000000  -3.711784e+001  -6.981192e+001 
4378125000  -3.676570e+001  -7.741205e+001 
4381250000  -3.698733e+001  -8.488205e+001 
4384375000  -3.704417e+001  -9.235184e+001 
4387500000  -3.789197e+001  -9.826048e+001 
4390625000  -3.831030e+001  -9.775084e+001 
4393750000  -3.771130e+001  -9.805769e+001 
4396875000  -3.712128e+001  -1.029402e+002 
4400000000  -3.681173e+001  -1.137442e+002 
4403125000  -3.790408e+001  -1.202350e+002 
4406250000  -3.815631e+001  -1.245572e+002 
4409375000  -3.872535e+001  -1.307841e+002 
4412500000  -3.959254e+001  -1.310716e+002 
4415625000  -3.911319e+001  -1.256987e+002 
