!Agilent Technologies,E8363B,MY43030201,A.06.04.32
!Agilent E8363B: A.06.04.32
!Date: Tuesday, November 11, 2014 21:28:55
!Correction: S21(Response(S21)) 
!S1P File: Measurement: S21:
# Hz S  dB   R 50
3000000000  -4.055566e+001  8.855200e+001 
3003125000  -4.226654e+001  8.057642e+001 
3006250000  -4.229900e+001  7.831536e+001 
3009375000  -4.271072e+001  8.474097e+001 
3012500000  -4.157983e+001  7.988203e+001 
3015625000  -4.134132e+001  7.334082e+001 
3018750000  -4.195668e+001  7.220612e+001 
3021875000  -4.030654e+001  7.374083e+001 
3025000000  -3.876798e+001  7.000465e+001 
3028125000  -3.775193e+001  6.067582e+001 
3031250000  -3.698643e+001  4.825751e+001 
3034375000  -3.681203e+001  3.444812e+001 
3037500000  -3.734445e+001  2.300731e+001 
3040625000  -3.876165e+001  1.791835e+001 
3043750000  -3.917754e+001  1.295010e+001 
3046875000  -3.968439e+001  7.206195e+000 
3050000000  -4.079743e+001  6.789308e-001 
3053125000  -4.041882e+001  5.733173e+000 
3056250000  -4.039436e+001  8.468216e+000 
3059375000  -3.982668e+001  6.844725e+000 
3062500000  -3.838120e+001  1.843362e+000 
3065625000  -3.800991e+001  -7.252789e+000 
3068750000  -3.753631e+001  -1.540141e+001 
3071875000  -3.767505e+001  -1.796079e+001 
3075000000  -3.701522e+001  -2.440401e+001 
3078125000  -3.703658e+001  -3.013785e+001 
3081250000  -3.716475e+001  -3.626762e+001 
3084375000  -3.641877e+001  -4.139853e+001 
3087500000  -3.651946e+001  -4.775492e+001 
3090625000  -3.591570e+001  -5.985424e+001 
3093750000  -3.687354e+001  -6.870885e+001 
3096875000  -3.736790e+001  -7.305750e+001 
3100000000  -3.718555e+001  -7.560374e+001 
3103125000  -3.761671e+001  -7.978677e+001 
3106250000  -3.717176e+001  -8.514577e+001 
3109375000  -3.731630e+001  -8.934557e+001 
3112500000  -3.722358e+001  -9.544038e+001 
3115625000  -3.707867e+001  -9.911225e+001 
3118750000  -3.726640e+001  -1.021710e+002 
3121875000  -3.653805e+001  -1.125972e+002 
3125000000  -3.824288e+001  -1.166996e+002 
3128125000  -3.850493e+001  -1.097078e+002 
3131250000  -3.611562e+001  -1.156034e+002 
3134375000  -3.529953e+001  -1.324478e+002 
3137500000  -3.608607e+001  -1.449196e+002 
3140625000  -3.743807e+001  -1.486677e+002 
3143750000  -3.828256e+001  -1.500706e+002 
3146875000  -3.759173e+001  -1.479655e+002 
3150000000  -3.683729e+001  -1.512733e+002 
3153125000  -3.714701e+001  -1.601834e+002 
3156250000  -3.811567e+001  -1.558668e+002 
3159375000  -3.573774e+001  -1.564888e+002 
3162500000  -3.424876e+001  -1.723020e+002 
3165625000  -3.557842e+001  1.741548e+002 
3168750000  -3.553290e+001  1.741457e+002 
3171875000  -3.495611e+001  1.658075e+002 
3175000000  -3.551450e+001  1.565837e+002 
3178125000  -3.510364e+001  1.557318e+002 
3181250000  -3.435606e+001  1.471220e+002 
3184375000  -3.427874e+001  1.352372e+002 
3187500000  -3.541935e+001  1.211264e+002 
3190625000  -3.731797e+001  1.135381e+002 
3193750000  -3.765297e+001  1.202705e+002 
3196875000  -3.740375e+001  1.214385e+002 
3200000000  -3.622021e+001  1.157262e+002 
3203125000  -3.591186e+001  1.077456e+002 
3206250000  -3.622038e+001  1.003635e+002 
3209375000  -3.578249e+001  9.270539e+001 
3212500000  -3.632677e+001  8.581229e+001 
3215625000  -3.602842e+001  8.115936e+001 
3218750000  -3.682678e+001  7.205402e+001 
3221875000  -3.724469e+001  6.469282e+001 
3225000000  -3.705024e+001  6.011239e+001 
3228125000  -3.783185e+001  5.414101e+001 
3231250000  -3.834307e+001  5.160866e+001 
3234375000  -3.794561e+001  4.799883e+001 
3237500000  -3.806209e+001  4.423399e+001 
3240625000  -3.772051e+001  3.977711e+001 
3243750000  -3.763494e+001  2.933035e+001 
3246875000  -3.822735e+001  2.286552e+001 
3250000000  -3.873933e+001  1.773035e+001 
3253125000  -3.897682e+001  1.549441e+001 
3256250000  -3.873821e+001  6.238399e+000 
3259375000  -3.925193e+001  -3.231661e+000 
3262500000  -4.071035e+001  -8.746229e+000 
3265625000  -4.120912e+001  -5.422327e+000 
3268750000  -4.118317e+001  -3.715443e+000 
3271875000  -4.081473e+001  -6.643809e+000 
3275000000  -4.024810e+001  -1.585696e+001 
3278125000  -4.089796e+001  -2.110387e+001 
3281250000  -4.114645e+001  -2.127290e+001 
3284375000  -4.049109e+001  -2.791058e+001 
3287500000  -4.085714e+001  -3.293701e+001 
3290625000  -4.128480e+001  -3.951873e+001 
3293750000  -4.115112e+001  -4.509900e+001 
3296875000  -4.254047e+001  -4.653649e+001 
3300000000  -4.193629e+001  -4.800443e+001 
3303125000  -4.088318e+001  -5.415622e+001 
3306250000  -4.098120e+001  -6.034727e+001 
3309375000  -4.051855e+001  -6.675267e+001 
3312500000  -4.082331e+001  -8.123070e+001 
3315625000  -4.210776e+001  -8.776924e+001 
3318750000  -4.348451e+001  -8.977766e+001 
3321875000  -4.497174e+001  -8.549249e+001 
3325000000  -4.489148e+001  -8.109969e+001 
3328125000  -4.386736e+001  -8.248569e+001 
3331250000  -4.256064e+001  -7.885709e+001 
3334375000  -3.982910e+001  -9.451077e+001 
3337500000  -4.057436e+001  -1.137993e+002 
3340625000  -4.211761e+001  -1.236925e+002 
3343750000  -4.411770e+001  -1.244878e+002 
3346875000  -4.349458e+001  -1.245019e+002 
3350000000  -4.327112e+001  -1.253536e+002 
3353125000  -4.279100e+001  -1.333585e+002 
3356250000  -4.237148e+001  -1.406443e+002 
3359375000  -4.349206e+001  -1.532842e+002 
3362500000  -4.454186e+001  -1.603087e+002 
3365625000  -4.494695e+001  -1.621119e+002 
3368750000  -4.552813e+001  -1.669106e+002 
3371875000  -4.610812e+001  -1.695116e+002 
3375000000  -4.774131e+001  -1.747203e+002 
3378125000  -4.801775e+001  -1.739352e+002 
3381250000  -4.963990e+001  -1.665245e+002 
3384375000  -4.657837e+001  -1.512770e+002 
3387500000  -4.420485e+001  -1.699529e+002 
3390625000  -4.598959e+001  1.688542e+002 
3393750000  -4.690024e+001  1.672821e+002 
3396875000  -4.654029e+001  1.667131e+002 
3400000000  -4.649195e+001  1.552359e+002 
3403125000  -4.712462e+001  1.503418e+002 
3406250000  -4.786341e+001  1.457213e+002 
3409375000  -4.779364e+001  1.381246e+002 
3412500000  -4.911190e+001  1.341592e+002 
3415625000  -4.996314e+001  1.378502e+002 
3418750000  -4.983382e+001  1.333326e+002 
3421875000  -5.129812e+001  1.350173e+002 
3425000000  -5.104551e+001  1.314956e+002 
3428125000  -5.011653e+001  1.321130e+002 
3431250000  -5.009338e+001  1.229388e+002 
3434375000  -5.072596e+001  1.150779e+002 
3437500000  -5.177806e+001  1.185003e+002 
3440625000  -5.293980e+001  1.193477e+002 
3443750000  -5.171029e+001  1.225671e+002 
3446875000  -5.108955e+001  1.158400e+002 
3450000000  -5.070143e+001  1.093416e+002 
3453125000  -5.070351e+001  1.006853e+002 
3456250000  -5.219582e+001  9.563794e+001 
3459375000  -5.405721e+001  9.976746e+001 
3462500000  -5.238985e+001  1.062226e+002 
3465625000  -5.158009e+001  9.564088e+001 
3468750000  -5.166751e+001  1.019372e+002 
3471875000  -5.257780e+001  9.125280e+001 
3475000000  -5.094604e+001  8.514217e+001 
3478125000  -5.187782e+001  7.942187e+001 
3481250000  -5.333150e+001  8.080885e+001 
3484375000  -5.248208e+001  7.603056e+001 
3487500000  -5.130464e+001  7.934454e+001 
3490625000  -5.049792e+001  7.146481e+001 
3493750000  -5.117918e+001  6.338665e+001 
3496875000  -5.139898e+001  6.314095e+001 
3500000000  -5.236843e+001  6.716603e+001 
3503125000  -5.132778e+001  5.887017e+001 
3506250000  -4.982595e+001  5.766825e+001 
3509375000  -4.995913e+001  4.032308e+001 
3512500000  -5.076226e+001  3.193831e+001 
3515625000  -5.103067e+001  2.709312e+001 
3518750000  -5.284502e+001  2.848651e+001 
3521875000  -5.295422e+001  2.321209e+001 
3525000000  -5.357517e+001  2.201874e+001 
3528125000  -5.274224e+001  1.824681e+001 
3531250000  -5.227973e+001  1.396472e+001 
3534375000  -5.306014e+001  -5.326047e-001 
3537500000  -5.323093e+001  -8.471759e+000 
3540625000  -5.514503e+001  -8.889251e+000 
3543750000  -5.581307e+001  -1.730512e-001 
3546875000  -5.667928e+001  2.076063e+000 
3550000000  -5.396074e+001  -1.155716e+000 
3553125000  -5.532698e+001  -1.463393e+001 
3556250000  -5.510914e+001  -8.923217e+000 
3559375000  -5.553002e+001  -3.330446e+000 
3562500000  -5.634084e+001  -2.426218e+001 
3565625000  -5.614084e+001  -3.580144e+001 
3568750000  -5.684457e+001  -1.487921e+001 
3571875000  -5.861719e+001  -1.878677e+001 
3575000000  -5.893571e+001  -1.557075e+001 
3578125000  -5.819203e+001  -3.160667e+001 
3581250000  -5.891021e+001  -2.655886e+001 
3584375000  -5.774122e+001  -6.109337e+000 
3587500000  -5.763076e+001  -2.475957e+001 
3590625000  -5.971221e+001  -3.711636e+001 
3593750000  -5.965791e+001  -2.033341e+001 
3596875000  -5.706466e+001  -1.026824e+001 
3600000000  -5.661949e+001  -1.893937e+001 
3603125000  -5.845515e+001  -2.389398e+001 
3606250000  -6.043940e+001  -2.850694e+001 
3609375000  -5.783629e+001  -1.723261e+001 
3612500000  -5.896698e+001  -2.546114e+001 
3615625000  -5.796967e+001  -3.581323e+001 
3618750000  -5.937798e+001  -2.793464e+001 
3621875000  -5.653175e+001  -2.251135e+001 
3625000000  -5.935411e+001  -1.774836e+001 
3628125000  -5.591975e+001  -2.497430e+001 
3631250000  -5.709148e+001  -2.591269e+001 
3634375000  -5.712530e+001  -2.274858e+001 
3637500000  -5.598950e+001  -2.144186e+001 
3640625000  -5.371639e+001  -2.314884e+001 
3643750000  -5.277804e+001  -3.102263e+001 
3646875000  -5.276197e+001  -4.716571e+001 
3650000000  -5.301006e+001  -4.479131e+001 
3653125000  -5.090782e+001  -4.683774e+001 
3656250000  -5.170556e+001  -4.584451e+001 
3659375000  -5.118822e+001  -4.077019e+001 
3662500000  -5.073900e+001  -4.984773e+001 
3665625000  -4.973990e+001  -5.664113e+001 
3668750000  -4.829364e+001  -5.632692e+001 
3671875000  -4.693026e+001  -6.293304e+001 
3675000000  -4.714464e+001  -7.503931e+001 
3678125000  -4.708587e+001  -7.921905e+001 
3681250000  -4.676107e+001  -8.523537e+001 
3684375000  -4.678613e+001  -8.782152e+001 
3687500000  -4.697123e+001  -9.357288e+001 
3690625000  -4.665395e+001  -1.022846e+002 
3693750000  -4.670433e+001  -1.024709e+002 
3696875000  -4.636618e+001  -1.004424e+002 
3700000000  -4.493484e+001  -1.055080e+002 
3703125000  -4.522550e+001  -1.110378e+002 
3706250000  -4.613088e+001  -1.139901e+002 
3709375000  -4.433354e+001  -1.165177e+002 
3712500000  -4.389655e+001  -1.191729e+002 
3715625000  -4.225357e+001  -1.275772e+002 
3718750000  -4.188593e+001  -1.331781e+002 
3721875000  -4.142519e+001  -1.451146e+002 
3725000000  -4.173149e+001  -1.523462e+002 
3728125000  -4.156199e+001  -1.548521e+002 
3731250000  -4.066820e+001  -1.598561e+002 
3734375000  -4.024636e+001  -1.687170e+002 
3737500000  -4.099882e+001  -1.791281e+002 
3740625000  -4.101965e+001  1.783358e+002 
3743750000  -4.056517e+001  1.699193e+002 
3746875000  -4.059346e+001  1.630016e+002 
3750000000  -4.095475e+001  1.591932e+002 
3753125000  -4.052305e+001  1.564315e+002 
3756250000  -4.089725e+001  1.545817e+002 
3759375000  -4.031426e+001  1.473365e+002 
3762500000  -4.006803e+001  1.407221e+002 
3765625000  -4.047302e+001  1.365648e+002 
3768750000  -4.020938e+001  1.373903e+002 
3771875000  -3.859214e+001  1.286491e+002 
3775000000  -3.865587e+001  1.175595e+002 
3778125000  -3.893627e+001  1.126014e+002 
3781250000  -3.909568e+001  1.059524e+002 
3784375000  -3.879056e+001  1.009055e+002 
3787500000  -3.858937e+001  9.595038e+001 
3790625000  -3.914537e+001  8.624892e+001 
3793750000  -3.918053e+001  8.247067e+001 
3796875000  -3.842066e+001  7.849024e+001 
3800000000  -3.660995e+001  7.420020e+001 
3803125000  -3.799975e+001  6.079945e+001 
3806250000  -3.888517e+001  5.621547e+001 
3809375000  -3.851870e+001  5.154881e+001 
3812500000  -3.862266e+001  4.346033e+001 
3815625000  -3.933671e+001  3.480949e+001 
3818750000  -4.069579e+001  3.409596e+001 
3821875000  -4.026907e+001  4.391018e+001 
3825000000  -3.857835e+001  4.071475e+001 
3828125000  -3.707534e+001  2.223054e+001 
3831250000  -3.799246e+001  8.227554e+000 
3834375000  -4.034965e+001  7.893298e+000 
3837500000  -4.080898e+001  1.169642e+001 
3840625000  -3.924818e+001  8.212807e+000 
3843750000  -3.836816e+001  -6.943055e+000 
3846875000  -3.993446e+001  -1.391807e+001 
3850000000  -4.104258e+001  -7.391593e+000 
3853125000  -4.012608e+001  -4.848079e+000 
3856250000  -3.974427e+001  -1.638813e+001 
3859375000  -3.854002e+001  -2.193843e+001 
3862500000  -3.861237e+001  -3.122268e+001 
3865625000  -3.936057e+001  -3.764408e+001 
3868750000  -3.881095e+001  -3.777582e+001 
3871875000  -3.809948e+001  -4.545916e+001 
3875000000  -3.852514e+001  -5.555177e+001 
3878125000  -3.963575e+001  -5.716480e+001 
3881250000  -3.933241e+001  -5.789154e+001 
3884375000  -3.892928e+001  -6.586526e+001 
3887500000  -3.919309e+001  -7.051219e+001 
3890625000  -3.953094e+001  -7.467134e+001 
3893750000  -3.973306e+001  -7.608562e+001 
3896875000  -3.973650e+001  -7.996436e+001 
3900000000  -3.979340e+001  -8.337415e+001 
3903125000  -3.946201e+001  -8.823359e+001 
3906250000  -3.915055e+001  -9.263949e+001 
3909375000  -3.823206e+001  -1.013555e+002 
3912500000  -3.902361e+001  -1.119459e+002 
3915625000  -4.044853e+001  -1.103318e+002 
3918750000  -4.018659e+001  -1.113265e+002 
3921875000  -3.937914e+001  -1.156162e+002 
3925000000  -3.873058e+001  -1.204154e+002 
3928125000  -3.840460e+001  -1.304944e+002 
3931250000  -3.928086e+001  -1.380070e+002 
3934375000  -3.948519e+001  -1.394348e+002 
3937500000  -3.987052e+001  -1.401380e+002 
3940625000  -4.004145e+001  -1.440964e+002 
3943750000  -3.910009e+001  -1.451006e+002 
3946875000  -3.859545e+001  -1.543943e+002 
3950000000  -3.955364e+001  -1.624015e+002 
3953125000  -4.002578e+001  -1.612247e+002 
3956250000  -3.900355e+001  -1.618135e+002 
3959375000  -3.808922e+001  -1.688487e+002 
3962500000  -3.782981e+001  -1.787570e+002 
3965625000  -3.796439e+001  1.727455e+002 
3968750000  -3.890592e+001  1.632870e+002 
3971875000  -3.878072e+001  1.597244e+002 
3975000000  -3.865005e+001  1.556676e+002 
3978125000  -3.853613e+001  1.522676e+002 
3981250000  -3.873929e+001  1.449707e+002 
3984375000  -3.914992e+001  1.375123e+002 
3987500000  -3.976176e+001  1.322236e+002 
3990625000  -3.994417e+001  1.335706e+002 
3993750000  -3.993779e+001  1.296208e+002 
3996875000  -4.003541e+001  1.227600e+002 
4000000000  -4.038479e+001  1.189635e+002 
4003125000  -4.130672e+001  1.198236e+002 
4006250000  -3.955466e+001  1.183935e+002 
4009375000  -3.907409e+001  1.051369e+002 
4012500000  -4.025982e+001  9.560610e+001 
4015625000  -4.161031e+001  9.527582e+001 
4018750000  -4.134963e+001  9.614862e+001 
4021875000  -4.059326e+001  9.412482e+001 
4025000000  -4.036209e+001  8.842606e+001 
4028125000  -4.046629e+001  8.255214e+001 
4031250000  -4.134702e+001  7.504291e+001 
4034375000  -4.157907e+001  7.534042e+001 
4037500000  -4.115340e+001  7.542926e+001 
4040625000  -4.097654e+001  6.996148e+001 
4043750000  -4.103400e+001  6.996675e+001 
4046875000  -4.071435e+001  6.408051e+001 
4050000000  -4.080930e+001  5.966146e+001 
4053125000  -4.135154e+001  5.678591e+001 
4056250000  -4.128011e+001  6.176777e+001 
4059375000  -3.952133e+001  5.870259e+001 
4062500000  -3.885144e+001  5.003191e+001 
4065625000  -3.894961e+001  4.652797e+001 
4068750000  -3.824400e+001  3.757413e+001 
4071875000  -3.776041e+001  2.793932e+001 
4075000000  -3.852699e+001  2.032089e+001 
4078125000  -3.901461e+001  1.812392e+001 
4081250000  -3.865168e+001  1.323521e+001 
4084375000  -3.830030e+001  2.313764e+000 
4087500000  -3.864500e+001  -3.963084e+000 
4090625000  -3.912481e+001  -6.218052e+000 
4093750000  -3.895235e+001  -8.632069e+000 
4096875000  -3.886247e+001  -1.835087e+001 
4100000000  -3.991507e+001  -2.505040e+001 
4103125000  -4.026994e+001  -2.365878e+001 
4106250000  -4.003488e+001  -2.048770e+001 
4109375000  -3.928422e+001  -2.404102e+001 
4112500000  -3.850013e+001  -3.366855e+001 
4115625000  -3.933091e+001  -3.945588e+001 
4118750000  -3.913308e+001  -4.435803e+001 
4121875000  -3.878188e+001  -5.120223e+001 
4125000000  -4.004756e+001  -5.814561e+001 
4128125000  -4.102176e+001  -5.616942e+001 
4131250000  -4.003204e+001  -5.339144e+001 
4134375000  -3.780616e+001  -5.893201e+001 
4137500000  -3.834430e+001  -8.077554e+001 
4140625000  -4.055883e+001  -8.678610e+001 
4143750000  -4.136440e+001  -8.250314e+001 
4146875000  -4.075761e+001  -7.748715e+001 
4150000000  -3.955705e+001  -8.443354e+001 
4153125000  -3.999902e+001  -9.373080e+001 
4156250000  -4.126377e+001  -9.842390e+001 
4159375000  -4.142884e+001  -9.203130e+001 
4162500000  -3.987355e+001  -8.801781e+001 
4165625000  -3.899741e+001  -9.792570e+001 
4168750000  -3.875191e+001  -1.071379e+002 
4171875000  -3.869505e+001  -1.161819e+002 
4175000000  -3.956794e+001  -1.228938e+002 
4178125000  -3.975550e+001  -1.229979e+002 
4181250000  -3.944294e+001  -1.284770e+002 
4184375000  -3.969271e+001  -1.320949e+002 
4187500000  -3.942115e+001  -1.364126e+002 
4190625000  -3.947902e+001  -1.450348e+002 
4193750000  -4.060084e+001  -1.510861e+002 
4196875000  -4.124703e+001  -1.517732e+002 
4200000000  -4.244571e+001  -1.431164e+002 
4203125000  -4.128192e+001  -1.319440e+002 
4206250000  -3.777751e+001  -1.405440e+002 
4209375000  -3.739494e+001  -1.655098e+002 
4212500000  -3.950716e+001  -1.734840e+002 
4215625000  -4.008492e+001  -1.692799e+002 
4218750000  -3.846901e+001  -1.616874e+002 
4221875000  -3.685557e+001  -1.740895e+002 
4225000000  -3.791425e+001  1.753318e+002 
4228125000  -3.809771e+001  1.744971e+002 
4231250000  -3.650958e+001  1.686246e+002 
4234375000  -3.646570e+001  1.563486e+002 
4237500000  -3.635598e+001  1.510874e+002 
4240625000  -3.635640e+001  1.416196e+002 
4243750000  -3.754708e+001  1.322655e+002 
4246875000  -3.873532e+001  1.312825e+002 
4250000000  -3.839235e+001  1.309183e+002 
4253125000  -3.817519e+001  1.293658e+002 
4256250000  -3.805324e+001  1.233406e+002 
4259375000  -3.748938e+001  1.174445e+002 
4262500000  -3.791085e+001  1.129172e+002 
4265625000  -3.824281e+001  1.107745e+002 
4268750000  -3.704634e+001  1.039841e+002 
4271875000  -3.713517e+001  9.345058e+001 
4275000000  -3.659248e+001  8.687804e+001 
4278125000  -3.747357e+001  7.456733e+001 
4281250000  -3.929339e+001  7.369009e+001 
4284375000  -3.876540e+001  7.088270e+001 
4287500000  -4.027602e+001  6.765743e+001 
4290625000  -4.093461e+001  7.518524e+001 
4293750000  -3.892490e+001  7.563184e+001 
4296875000  -3.775471e+001  6.438181e+001 
4300000000  -3.897462e+001  5.301824e+001 
4303125000  -3.979585e+001  5.585775e+001 
4306250000  -3.860625e+001  6.066275e+001 
4309375000  -3.779286e+001  5.447768e+001 
4312500000  -3.770254e+001  4.154492e+001 
4315625000  -3.787370e+001  3.461463e+001 
4318750000  -3.858109e+001  2.888118e+001 
4321875000  -3.870069e+001  2.949459e+001 
4325000000  -3.794783e+001  2.893823e+001 
4328125000  -3.737670e+001  1.963019e+001 
4331250000  -3.761963e+001  1.033693e+001 
4334375000  -3.843560e+001  3.545972e+000 
4337500000  -3.922551e+001  2.452173e+000 
4340625000  -3.961778e+001  7.214625e+000 
4343750000  -3.857757e+001  1.625275e+000 
4346875000  -3.828748e+001  -4.643487e+000 
4350000000  -3.828584e+001  -1.242922e+001 
4353125000  -3.862606e+001  -2.144757e+001 
4356250000  -4.053880e+001  -1.637265e+001 
4359375000  -3.987641e+001  -3.792059e+000 
4362500000  -3.681759e+001  -1.213310e+001 
4365625000  -3.592901e+001  -2.813300e+001 
4368750000  -3.712040e+001  -3.702751e+001 
4371875000  -3.799697e+001  -3.812233e+001 
4375000000  -3.734729e+001  -4.131729e+001 
4378125000  -3.695876e+001  -5.082883e+001 
4381250000  -3.718188e+001  -5.657464e+001 
4384375000  -3.696520e+001  -6.378352e+001 
4387500000  -3.829234e+001  -6.903939e+001 
4390625000  -3.837148e+001  -7.073237e+001 
4393750000  -3.804592e+001  -7.137231e+001 
4396875000  -3.727686e+001  -7.592178e+001 
4400000000  -3.712534e+001  -8.441243e+001 
4403125000  -3.756673e+001  -9.398068e+001 
4406250000  -3.809491e+001  -9.694681e+001 
4409375000  -3.879658e+001  -1.025419e+002 
4412500000  -3.957836e+001  -1.036487e+002 
4415625000  -3.957941e+001  -1.021724e+002 
