!Agilent Technologies,E8363B,MY43030201,A.06.04.32
!Agilent E8363B: A.06.04.32
!Date: Tuesday, November 11, 2014 21:37:23
!Correction: S21(Response(S21)) 
!S1P File: Measurement: S21:
# Hz S  dB   R 50
3000000000  -4.059516e+001  7.051594e+001 
3003125000  -4.216546e+001  6.264604e+001 
3006250000  -4.209612e+001  6.117058e+001 
3009375000  -4.292959e+001  6.803914e+001 
3012500000  -4.152596e+001  6.153944e+001 
3015625000  -4.143113e+001  5.639556e+001 
3018750000  -4.170012e+001  5.699962e+001 
3021875000  -4.025530e+001  5.670698e+001 
3025000000  -3.876689e+001  5.270991e+001 
3028125000  -3.788762e+001  4.224801e+001 
3031250000  -3.683185e+001  2.942673e+001 
3034375000  -3.678944e+001  1.706227e+001 
3037500000  -3.757591e+001  6.483711e+000 
3040625000  -3.886737e+001  7.088895e-001 
3043750000  -3.915004e+001  -5.377223e+000 
3046875000  -3.969991e+001  -1.102470e+001 
3050000000  -4.071646e+001  -1.638982e+001 
3053125000  -4.044709e+001  -1.135607e+001 
3056250000  -4.048446e+001  -8.595515e+000 
3059375000  -3.982936e+001  -1.115441e+001 
3062500000  -3.825099e+001  -1.420599e+001 
3065625000  -3.798750e+001  -2.524124e+001 
3068750000  -3.749561e+001  -3.366942e+001 
3071875000  -3.768922e+001  -3.472206e+001 
3075000000  -3.694403e+001  -4.240213e+001 
3078125000  -3.709041e+001  -4.836105e+001 
3081250000  -3.720745e+001  -5.478676e+001 
3084375000  -3.638501e+001  -5.875292e+001 
3087500000  -3.639119e+001  -6.651012e+001 
3090625000  -3.583608e+001  -7.821794e+001 
3093750000  -3.691717e+001  -8.593066e+001 
3096875000  -3.733549e+001  -9.142589e+001 
3100000000  -3.726215e+001  -9.352563e+001 
3103125000  -3.750246e+001  -9.735752e+001 
3106250000  -3.720062e+001  -1.028458e+002 
3109375000  -3.722729e+001  -1.064801e+002 
3112500000  -3.714149e+001  -1.131641e+002 
3115625000  -3.713280e+001  -1.164226e+002 
3118750000  -3.711337e+001  -1.201325e+002 
3121875000  -3.656914e+001  -1.307677e+002 
3125000000  -3.861572e+001  -1.341646e+002 
3128125000  -3.839267e+001  -1.266316e+002 
3131250000  -3.596383e+001  -1.329965e+002 
3134375000  -3.537012e+001  -1.511933e+002 
3137500000  -3.605710e+001  -1.623289e+002 
3140625000  -3.736096e+001  -1.655484e+002 
3143750000  -3.806902e+001  -1.674827e+002 
3146875000  -3.767215e+001  -1.651905e+002 
3150000000  -3.689621e+001  -1.695466e+002 
3153125000  -3.735603e+001  -1.779930e+002 
3156250000  -3.801968e+001  -1.727927e+002 
3159375000  -3.565331e+001  -1.752053e+002 
3162500000  -3.407609e+001  1.693248e+002 
3165625000  -3.541469e+001  1.560483e+002 
3168750000  -3.536641e+001  1.550208e+002 
3171875000  -3.499734e+001  1.477219e+002 
3175000000  -3.540728e+001  1.391507e+002 
3178125000  -3.502972e+001  1.373897e+002 
3181250000  -3.447787e+001  1.287311e+002 
3184375000  -3.421361e+001  1.172080e+002 
3187500000  -3.525229e+001  1.014523e+002 
3190625000  -3.721043e+001  9.696497e+001 
3193750000  -3.748324e+001  1.021273e+002 
3196875000  -3.733067e+001  1.030253e+002 
3200000000  -3.610288e+001  9.758533e+001 
3203125000  -3.594065e+001  8.996308e+001 
3206250000  -3.615158e+001  8.206689e+001 
3209375000  -3.584036e+001  7.390325e+001 
3212500000  -3.637242e+001  6.715259e+001 
3215625000  -3.603811e+001  6.520021e+001 
3218750000  -3.682564e+001  5.386331e+001 
3221875000  -3.720287e+001  4.649372e+001 
3225000000  -3.692737e+001  4.246552e+001 
3228125000  -3.755294e+001  3.542658e+001 
3231250000  -3.821946e+001  3.354161e+001 
3234375000  -3.791059e+001  2.997557e+001 
3237500000  -3.803745e+001  2.633868e+001 
3240625000  -3.747604e+001  2.100537e+001 
3243750000  -3.761885e+001  1.086643e+001 
3246875000  -3.819523e+001  2.933747e+000 
3250000000  -3.870900e+001  -1.644162e-001 
3253125000  -3.903135e+001  -3.099190e+000 
3256250000  -3.849894e+001  -1.212194e+001 
3259375000  -3.913363e+001  -2.248861e+001 
3262500000  -4.061683e+001  -2.621116e+001 
3265625000  -4.107172e+001  -2.367062e+001 
3268750000  -4.145180e+001  -2.266845e+001 
3271875000  -4.049252e+001  -2.701992e+001 
3275000000  -4.000436e+001  -3.461172e+001 
3278125000  -4.086949e+001  -3.999071e+001 
3281250000  -4.092541e+001  -4.157547e+001 
3284375000  -4.033109e+001  -4.681296e+001 
3287500000  -4.101208e+001  -5.111206e+001 
3290625000  -4.116160e+001  -5.882887e+001 
3293750000  -4.118504e+001  -6.411714e+001 
3296875000  -4.238080e+001  -6.457450e+001 
3300000000  -4.159342e+001  -6.372678e+001 
3303125000  -4.073706e+001  -7.389495e+001 
3306250000  -4.072397e+001  -7.911325e+001 
3309375000  -4.055536e+001  -8.745215e+001 
3312500000  -4.090131e+001  -9.852796e+001 
3315625000  -4.180674e+001  -1.068140e+002 
3318750000  -4.367493e+001  -1.118572e+002 
3321875000  -4.472766e+001  -1.056614e+002 
3325000000  -4.477661e+001  -9.983253e+001 
3328125000  -4.379932e+001  -1.010224e+002 
3331250000  -4.214585e+001  -9.708568e+001 
3334375000  -3.988644e+001  -1.135028e+002 
3337500000  -4.029136e+001  -1.330594e+002 
3340625000  -4.223994e+001  -1.416427e+002 
3343750000  -4.432225e+001  -1.411912e+002 
3346875000  -4.344439e+001  -1.448322e+002 
3350000000  -4.317930e+001  -1.456740e+002 
3353125000  -4.271340e+001  -1.542273e+002 
3356250000  -4.247719e+001  -1.624535e+002 
3359375000  -4.332038e+001  -1.723503e+002 
3362500000  -4.459809e+001  -1.784271e+002 
3365625000  -4.463228e+001  1.782467e+002 
3368750000  -4.566140e+001  1.731449e+002 
3371875000  -4.567107e+001  1.708483e+002 
3375000000  -4.749570e+001  1.654540e+002 
3378125000  -4.812912e+001  1.665365e+002 
3381250000  -4.964194e+001  -1.794844e+002 
3384375000  -4.641969e+001  -1.677650e+002 
3387500000  -4.419853e+001  1.696363e+002 
3390625000  -4.602346e+001  1.513737e+002 
3393750000  -4.689069e+001  1.492955e+002 
3396875000  -4.588978e+001  1.475407e+002 
3400000000  -4.617771e+001  1.382635e+002 
3403125000  -4.716750e+001  1.332330e+002 
3406250000  -4.769526e+001  1.269449e+002 
3409375000  -4.800520e+001  1.178050e+002 
3412500000  -4.877666e+001  1.165222e+002 
3415625000  -4.971097e+001  1.138997e+002 
3418750000  -5.000095e+001  1.115589e+002 
3421875000  -5.110561e+001  1.234312e+002 
3425000000  -5.019032e+001  1.191451e+002 
3428125000  -5.014588e+001  1.135494e+002 
3431250000  -4.996516e+001  1.031659e+002 
3434375000  -5.088969e+001  1.031091e+002 
3437500000  -5.129778e+001  1.031005e+002 
3440625000  -5.186923e+001  9.939696e+001 
3443750000  -5.032078e+001  9.936866e+001 
3446875000  -5.041296e+001  1.025990e+002 
3450000000  -5.036522e+001  9.005653e+001 
3453125000  -5.063398e+001  7.802275e+001 
3456250000  -5.170315e+001  7.704407e+001 
3459375000  -5.305981e+001  7.897116e+001 
3462500000  -5.247723e+001  8.511060e+001 
3465625000  -5.120457e+001  7.574125e+001 
3468750000  -5.159835e+001  7.472624e+001 
3471875000  -5.200433e+001  7.390910e+001 
3475000000  -5.086992e+001  6.456824e+001 
3478125000  -5.099460e+001  5.998299e+001 
3481250000  -5.228235e+001  5.972290e+001 
3484375000  -5.334700e+001  5.904911e+001 
3487500000  -5.108858e+001  6.242250e+001 
3490625000  -5.068351e+001  5.099381e+001 
3493750000  -5.109465e+001  4.356708e+001 
3496875000  -5.155962e+001  4.818523e+001 
3500000000  -5.269809e+001  4.358755e+001 
3503125000  -5.093664e+001  4.016011e+001 
3506250000  -5.025643e+001  3.600006e+001 
3509375000  -4.945341e+001  2.081728e+001 
3512500000  -5.047582e+001  7.563804e+000 
3515625000  -5.192289e+001  6.047138e+000 
3518750000  -5.243947e+001  8.708540e+000 
3521875000  -5.233598e+001  3.242544e+000 
3525000000  -5.468486e+001  -5.308362e+000 
3528125000  -5.310787e+001  2.131159e+000 
3531250000  -5.154883e+001  2.400602e+000 
3534375000  -5.369635e+001  -1.438971e+001 
3537500000  -5.369211e+001  -2.817399e+001 
3540625000  -5.512234e+001  -2.496207e+001 
3543750000  -5.616256e+001  -1.697854e+001 
3546875000  -5.556885e+001  -1.501536e+001 
3550000000  -5.398568e+001  -2.234887e+001 
3553125000  -5.432909e+001  -3.214752e+001 
3556250000  -5.566569e+001  -3.658783e+001 
3559375000  -5.574080e+001  -3.412350e+001 
3562500000  -5.551653e+001  -4.982189e+001 
3565625000  -5.669754e+001  -5.385873e+001 
3568750000  -5.864965e+001  -4.626823e+001 
3571875000  -5.648191e+001  -4.541047e+001 
3575000000  -5.866890e+001  -4.146632e+001 
3578125000  -5.974863e+001  -4.386555e+001 
3581250000  -5.731068e+001  -4.411945e+001 
3584375000  -5.705989e+001  -3.542826e+001 
3587500000  -5.852367e+001  -5.504861e+001 
3590625000  -5.994482e+001  -5.463851e+001 
3593750000  -6.041840e+001  -5.324557e+001 
3596875000  -5.795042e+001  -4.479298e+001 
3600000000  -5.762872e+001  -4.553358e+001 
3603125000  -5.892115e+001  -6.649420e+001 
3606250000  -5.855702e+001  -5.419210e+001 
3609375000  -5.918758e+001  -4.253359e+001 
3612500000  -5.766589e+001  -5.995570e+001 
3615625000  -5.869647e+001  -5.999864e+001 
3618750000  -5.897982e+001  -5.663454e+001 
3621875000  -5.711692e+001  -5.306750e+001 
3625000000  -5.776366e+001  -4.578104e+001 
3628125000  -5.650856e+001  -4.170916e+001 
3631250000  -5.663636e+001  -4.537629e+001 
3634375000  -5.725782e+001  -5.864293e+001 
3637500000  -5.437545e+001  -4.862413e+001 
3640625000  -5.508737e+001  -4.521718e+001 
3643750000  -5.438235e+001  -4.950056e+001 
3646875000  -5.271426e+001  -6.614808e+001 
3650000000  -5.279110e+001  -6.376538e+001 
3653125000  -5.190306e+001  -5.834132e+001 
3656250000  -5.217569e+001  -7.168546e+001 
3659375000  -5.110762e+001  -6.767421e+001 
3662500000  -5.137798e+001  -7.278700e+001 
3665625000  -5.040911e+001  -7.208534e+001 
3668750000  -4.806244e+001  -7.802878e+001 
3671875000  -4.718095e+001  -8.483538e+001 
3675000000  -4.752971e+001  -9.694777e+001 
3678125000  -4.688622e+001  -9.800301e+001 
3681250000  -4.625805e+001  -1.051412e+002 
3684375000  -4.695323e+001  -1.114429e+002 
3687500000  -4.635462e+001  -1.167666e+002 
3690625000  -4.667585e+001  -1.219458e+002 
3693750000  -4.723130e+001  -1.223077e+002 
3696875000  -4.672260e+001  -1.213683e+002 
3700000000  -4.530860e+001  -1.284630e+002 
3703125000  -4.520528e+001  -1.350568e+002 
3706250000  -4.615976e+001  -1.342462e+002 
3709375000  -4.486003e+001  -1.378502e+002 
3712500000  -4.345411e+001  -1.399059e+002 
3715625000  -4.201158e+001  -1.495001e+002 
3718750000  -4.160234e+001  -1.568357e+002 
3721875000  -4.127964e+001  -1.657755e+002 
3725000000  -4.151725e+001  -1.741703e+002 
3728125000  -4.143994e+001  -1.774080e+002 
3731250000  -4.051271e+001  1.772252e+002 
3734375000  -3.996529e+001  1.701940e+002 
3737500000  -4.108139e+001  1.621573e+002 
3740625000  -4.074281e+001  1.565408e+002 
3743750000  -4.041301e+001  1.499518e+002 
3746875000  -4.060847e+001  1.408538e+002 
3750000000  -4.076667e+001  1.379523e+002 
3753125000  -4.073658e+001  1.354155e+002 
3756250000  -4.073933e+001  1.300653e+002 
3759375000  -4.034674e+001  1.254802e+002 
3762500000  -4.023095e+001  1.192925e+002 
3765625000  -4.087626e+001  1.136610e+002 
3768750000  -4.014206e+001  1.152909e+002 
3771875000  -3.850373e+001  1.081296e+002 
3775000000  -3.848992e+001  9.542535e+001 
3778125000  -3.905973e+001  8.914942e+001 
3781250000  -3.910033e+001  8.679743e+001 
3784375000  -3.870615e+001  7.913313e+001 
3787500000  -3.850470e+001  7.341479e+001 
3790625000  -3.914333e+001  6.518736e+001 
3793750000  -3.921068e+001  6.073174e+001 
3796875000  -3.815960e+001  5.606655e+001 
3800000000  -3.639265e+001  5.216762e+001 
3803125000  -3.806469e+001  3.869019e+001 
3806250000  -3.906609e+001  3.400236e+001 
3809375000  -3.844359e+001  3.103218e+001 
3812500000  -3.846624e+001  2.123673e+001 
3815625000  -3.945220e+001  1.155904e+001 
3818750000  -4.057331e+001  1.349067e+001 
3821875000  -4.031432e+001  2.342758e+001 
3825000000  -3.820092e+001  1.957692e+001 
3828125000  -3.711421e+001  7.406109e-002 
3831250000  -3.807088e+001  -1.417056e+001 
3834375000  -4.054359e+001  -1.369569e+001 
3837500000  -4.071383e+001  -1.138492e+001 
3840625000  -3.904044e+001  -1.325809e+001 
3843750000  -3.848453e+001  -2.897777e+001 
3846875000  -4.006384e+001  -3.565858e+001 
3850000000  -4.052907e+001  -2.806843e+001 
3853125000  -3.984365e+001  -2.867189e+001 
3856250000  -3.941947e+001  -3.753457e+001 
3859375000  -3.849124e+001  -4.202937e+001 
3862500000  -3.830188e+001  -5.372360e+001 
3865625000  -3.870470e+001  -5.931239e+001 
3868750000  -3.856808e+001  -5.941268e+001 
3871875000  -3.798846e+001  -6.777741e+001 
3875000000  -3.839467e+001  -7.715591e+001 
3878125000  -3.957063e+001  -8.026789e+001 
3881250000  -3.924937e+001  -7.977429e+001 
3884375000  -3.878628e+001  -8.835407e+001 
3887500000  -3.904065e+001  -9.236626e+001 
3890625000  -3.943104e+001  -9.761674e+001 
3893750000  -3.957661e+001  -9.928299e+001 
3896875000  -4.006224e+001  -1.024993e+002 
3900000000  -4.015552e+001  -1.064007e+002 
3903125000  -3.935666e+001  -1.120141e+002 
3906250000  -3.894203e+001  -1.138278e+002 
3909375000  -3.830759e+001  -1.250606e+002 
3912500000  -3.917010e+001  -1.321502e+002 
3915625000  -4.020249e+001  -1.308583e+002 
3918750000  -3.980035e+001  -1.335530e+002 
3921875000  -3.910561e+001  -1.379577e+002 
3925000000  -3.849950e+001  -1.448697e+002 
3928125000  -3.835426e+001  -1.537290e+002 
3931250000  -3.904133e+001  -1.607715e+002 
3934375000  -3.938386e+001  -1.604119e+002 
3937500000  -3.997335e+001  -1.642263e+002 
3940625000  -3.996461e+001  -1.648830e+002 
3943750000  -3.891885e+001  -1.692558e+002 
3946875000  -3.861104e+001  -1.766828e+002 
3950000000  -3.964377e+001  1.738911e+002 
3953125000  -3.995378e+001  1.739924e+002 
3956250000  -3.878930e+001  1.749921e+002 
3959375000  -3.781447e+001  1.683210e+002 
3962500000  -3.744519e+001  1.585197e+002 
3965625000  -3.781558e+001  1.497339e+002 
3968750000  -3.852556e+001  1.411110e+002 
3971875000  -3.847311e+001  1.368034e+002 
3975000000  -3.825257e+001  1.333548e+002 
3978125000  -3.851041e+001  1.293541e+002 
3981250000  -3.846455e+001  1.214485e+002 
3984375000  -3.903004e+001  1.140857e+002 
3987500000  -3.978946e+001  1.120690e+002 
3990625000  -3.991261e+001  1.095556e+002 
3993750000  -3.990569e+001  1.035791e+002 
3996875000  -3.993866e+001  9.955060e+001 
4000000000  -4.082357e+001  9.667640e+001 
4003125000  -4.080922e+001  9.804432e+001 
4006250000  -3.908241e+001  9.423309e+001 
4009375000  -3.844199e+001  8.002256e+001 
4012500000  -4.038095e+001  7.172092e+001 
4015625000  -4.135281e+001  7.123138e+001 
4018750000  -4.120103e+001  7.342612e+001 
4021875000  -4.077632e+001  6.956910e+001 
4025000000  -4.060087e+001  6.367662e+001 
4028125000  -4.067135e+001  5.676230e+001 
4031250000  -4.113699e+001  5.022169e+001 
4034375000  -4.127166e+001  5.140182e+001 
4037500000  -4.088394e+001  5.216240e+001 
4040625000  -4.084830e+001  4.821450e+001 
4043750000  -4.087161e+001  4.382607e+001 
4046875000  -4.088312e+001  4.037062e+001 
4050000000  -4.026284e+001  3.499049e+001 
4053125000  -4.144825e+001  3.424541e+001 
4056250000  -4.127172e+001  3.726204e+001 
4059375000  -3.933752e+001  3.566730e+001 
4062500000  -3.883297e+001  2.551287e+001 
4065625000  -3.889247e+001  2.066067e+001 
4068750000  -3.840861e+001  1.456569e+001 
4071875000  -3.778308e+001  4.669370e+000 
4075000000  -3.840243e+001  -1.621886e+000 
4078125000  -3.884158e+001  -6.128376e+000 
4081250000  -3.828013e+001  -1.158562e+001 
4084375000  -3.800081e+001  -2.035497e+001 
4087500000  -3.863465e+001  -2.692808e+001 
4090625000  -3.931807e+001  -2.955253e+001 
4093750000  -3.868509e+001  -3.142152e+001 
4096875000  -3.875388e+001  -4.253117e+001 
4100000000  -3.962442e+001  -4.880860e+001 
4103125000  -4.045319e+001  -4.834300e+001 
4106250000  -4.001377e+001  -4.354763e+001 
4109375000  -3.916781e+001  -4.923419e+001 
4112500000  -3.860503e+001  -5.690201e+001 
4115625000  -3.921638e+001  -6.306113e+001 
4118750000  -3.900927e+001  -6.888977e+001 
4121875000  -3.915134e+001  -7.585425e+001 
4125000000  -3.992421e+001  -8.224435e+001 
4128125000  -4.086296e+001  -8.026350e+001 
4131250000  -3.954527e+001  -7.399774e+001 
4134375000  -3.761585e+001  -8.362690e+001 
4137500000  -3.836061e+001  -1.066886e+002 
4140625000  -4.053564e+001  -1.101298e+002 
4143750000  -4.158482e+001  -1.048925e+002 
4146875000  -4.056413e+001  -1.002912e+002 
4150000000  -3.949511e+001  -1.083667e+002 
4153125000  -4.004089e+001  -1.176560e+002 
4156250000  -4.125823e+001  -1.214220e+002 
4159375000  -4.113028e+001  -1.152720e+002 
4162500000  -3.993583e+001  -1.135796e+002 
4165625000  -3.870334e+001  -1.205752e+002 
4168750000  -3.852686e+001  -1.320269e+002 
4171875000  -3.816710e+001  -1.424143e+002 
4175000000  -3.940389e+001  -1.465983e+002 
4178125000  -3.960263e+001  -1.485301e+002 
4181250000  -3.916038e+001  -1.526407e+002 
4184375000  -3.927111e+001  -1.571136e+002 
4187500000  -3.948077e+001  -1.621082e+002 
4190625000  -3.948478e+001  -1.692028e+002 
4193750000  -4.084836e+001  -1.736237e+002 
4196875000  -4.128587e+001  -1.755327e+002 
4200000000  -4.264853e+001  -1.674176e+002 
4203125000  -4.079978e+001  -1.566339e+002 
4206250000  -3.733602e+001  -1.675015e+002 
4209375000  -3.713798e+001  1.697569e+002 
4212500000  -3.973376e+001  1.620700e+002 
4215625000  -3.988729e+001  1.686272e+002 
4218750000  -3.844733e+001  1.713922e+002 
4221875000  -3.656506e+001  1.612813e+002 
4225000000  -3.794054e+001  1.534103e+002 
4228125000  -3.779377e+001  1.502855e+002 
4231250000  -3.616690e+001  1.433809e+002 
4234375000  -3.629575e+001  1.327619e+002 
4237500000  -3.603020e+001  1.272628e+002 
4240625000  -3.630698e+001  1.151005e+002 
4243750000  -3.751911e+001  1.077602e+002 
4246875000  -3.848425e+001  1.067809e+002 
4250000000  -3.816421e+001  1.077082e+002 
4253125000  -3.814775e+001  1.036616e+002 
4256250000  -3.803129e+001  9.976048e+001 
4259375000  -3.758949e+001  9.352844e+001 
4262500000  -3.779994e+001  8.962101e+001 
4265625000  -3.777323e+001  8.579685e+001 
4268750000  -3.685138e+001  8.012222e+001 
4271875000  -3.687098e+001  7.115738e+001 
4275000000  -3.652147e+001  6.257104e+001 
4278125000  -3.777359e+001  4.970996e+001 
4281250000  -3.916304e+001  4.795148e+001 
4284375000  -3.880984e+001  4.556244e+001 
4287500000  -4.033072e+001  4.438451e+001 
4290625000  -4.044547e+001  5.044001e+001 
4293750000  -3.848116e+001  5.217708e+001 
4296875000  -3.758081e+001  3.816901e+001 
4300000000  -3.923005e+001  2.738817e+001 
4303125000  -3.963854e+001  3.262309e+001 
4306250000  -3.843860e+001  3.455238e+001 
4309375000  -3.769351e+001  2.794446e+001 
4312500000  -3.753687e+001  1.544898e+001 
4315625000  -3.783073e+001  9.823745e+000 
4318750000  -3.853450e+001  4.811224e+000 
4321875000  -3.867445e+001  5.859667e+000 
4325000000  -3.791395e+001  4.213315e+000 
4328125000  -3.734348e+001  -4.969045e+000 
4331250000  -3.729950e+001  -1.510614e+001 
4334375000  -3.814972e+001  -2.317988e+001 
4337500000  -3.956139e+001  -2.197187e+001 
4340625000  -3.983292e+001  -1.732376e+001 
4343750000  -3.851627e+001  -2.205764e+001 
4346875000  -3.828806e+001  -3.084174e+001 
4350000000  -3.838444e+001  -3.975220e+001 
4353125000  -3.874477e+001  -4.637172e+001 
4356250000  -4.147554e+001  -4.206241e+001 
4359375000  -3.942187e+001  -2.723998e+001 
4362500000  -3.636093e+001  -3.552393e+001 
4365625000  -3.594011e+001  -5.370221e+001 
4368750000  -3.700280e+001  -6.354389e+001 
4371875000  -3.774803e+001  -6.358422e+001 
4375000000  -3.695100e+001  -6.836659e+001 
4378125000  -3.669104e+001  -7.690774e+001 
4381250000  -3.717846e+001  -8.453450e+001 
4384375000  -3.694824e+001  -9.031389e+001 
4387500000  -3.828130e+001  -9.573087e+001 
4390625000  -3.862971e+001  -9.695850e+001 
4393750000  -3.789083e+001  -9.657040e+001 
4396875000  -3.738345e+001  -1.020644e+002 
4400000000  -3.697100e+001  -1.111336e+002 
4403125000  -3.771177e+001  -1.201696e+002 
4406250000  -3.814543e+001  -1.243301e+002 
4409375000  -3.875620e+001  -1.280038e+002 
4412500000  -3.965608e+001  -1.314415e+002 
4415625000  -3.933347e+001  -1.266881e+002 
