!Agilent Technologies,E8363B,MY43030201,A.06.04.32
!Agilent E8363B: A.06.04.32
!Date: Tuesday, November 11, 2014 21:38:03
!Correction: S21(Response(S21)) 
!S1P File: Measurement: S21:
# Hz S  dB   R 50
3000000000  -4.046200e+001  7.029043e+001 
3003125000  -4.211170e+001  6.207251e+001 
3006250000  -4.222145e+001  6.017998e+001 
3009375000  -4.292942e+001  6.668742e+001 
3012500000  -4.154666e+001  6.069162e+001 
3015625000  -4.156010e+001  5.430098e+001 
3018750000  -4.178261e+001  5.594678e+001 
3021875000  -4.010891e+001  5.706012e+001 
3025000000  -3.871214e+001  5.269201e+001 
3028125000  -3.797760e+001  4.203594e+001 
3031250000  -3.703920e+001  2.956858e+001 
3034375000  -3.687363e+001  1.595193e+001 
3037500000  -3.758558e+001  6.221066e+000 
3040625000  -3.870509e+001  1.975404e-002 
3043750000  -3.928016e+001  -6.563737e+000 
3046875000  -3.982779e+001  -1.250604e+001 
3050000000  -4.086282e+001  -1.605242e+001 
3053125000  -4.058410e+001  -1.040917e+001 
3056250000  -4.062518e+001  -1.003767e+001 
3059375000  -3.981426e+001  -1.243054e+001 
3062500000  -3.822728e+001  -1.530375e+001 
3065625000  -3.772364e+001  -2.524067e+001 
3068750000  -3.752364e+001  -3.398932e+001 
3071875000  -3.765791e+001  -3.535631e+001 
3075000000  -3.691484e+001  -4.222268e+001 
3078125000  -3.711322e+001  -4.858476e+001 
3081250000  -3.717300e+001  -5.463062e+001 
3084375000  -3.633784e+001  -5.901201e+001 
3087500000  -3.633310e+001  -6.622465e+001 
3090625000  -3.600149e+001  -7.831512e+001 
3093750000  -3.691562e+001  -8.597316e+001 
3096875000  -3.733389e+001  -9.142261e+001 
3100000000  -3.737017e+001  -9.410901e+001 
3103125000  -3.742632e+001  -9.875623e+001 
3106250000  -3.709319e+001  -1.031665e+002 
3109375000  -3.727733e+001  -1.071176e+002 
3112500000  -3.716870e+001  -1.127493e+002 
3115625000  -3.720352e+001  -1.172568e+002 
3118750000  -3.724441e+001  -1.201402e+002 
3121875000  -3.652824e+001  -1.316823e+002 
3125000000  -3.855141e+001  -1.337704e+002 
3128125000  -3.853642e+001  -1.263388e+002 
3131250000  -3.599852e+001  -1.333176e+002 
3134375000  -3.531285e+001  -1.505355e+002 
3137500000  -3.605800e+001  -1.624061e+002 
3140625000  -3.729315e+001  -1.658495e+002 
3143750000  -3.810385e+001  -1.676672e+002 
3146875000  -3.740383e+001  -1.659931e+002 
3150000000  -3.677909e+001  -1.691221e+002 
3153125000  -3.718798e+001  -1.782613e+002 
3156250000  -3.790206e+001  -1.745300e+002 
3159375000  -3.555518e+001  -1.757860e+002 
3162500000  -3.422818e+001  1.685419e+002 
3165625000  -3.543503e+001  1.559395e+002 
3168750000  -3.536877e+001  1.545147e+002 
3171875000  -3.482623e+001  1.477763e+002 
3175000000  -3.544469e+001  1.382373e+002 
3178125000  -3.496730e+001  1.364915e+002 
3181250000  -3.441566e+001  1.278278e+002 
3184375000  -3.417537e+001  1.169216e+002 
3187500000  -3.543976e+001  1.025944e+002 
3190625000  -3.737835e+001  9.607751e+001 
3193750000  -3.743710e+001  1.012336e+002 
3196875000  -3.734043e+001  1.024485e+002 
3200000000  -3.622369e+001  9.719627e+001 
3203125000  -3.589885e+001  8.889658e+001 
3206250000  -3.604995e+001  8.185179e+001 
3209375000  -3.575728e+001  7.331209e+001 
3212500000  -3.622289e+001  6.769465e+001 
3215625000  -3.605072e+001  6.409004e+001 
3218750000  -3.687900e+001  5.265260e+001 
3221875000  -3.719546e+001  4.568612e+001 
3225000000  -3.700901e+001  4.201121e+001 
3228125000  -3.777834e+001  3.459322e+001 
3231250000  -3.813699e+001  3.258228e+001 
3234375000  -3.779036e+001  2.982989e+001 
3237500000  -3.803739e+001  2.598677e+001 
3240625000  -3.752428e+001  2.021405e+001 
3243750000  -3.771976e+001  9.401525e+000 
3246875000  -3.801964e+001  3.961972e+000 
3250000000  -3.868639e+001  -2.521914e-001 
3253125000  -3.900926e+001  -3.953790e+000 
3256250000  -3.852523e+001  -1.178243e+001 
3259375000  -3.909286e+001  -2.271739e+001 
3262500000  -4.055636e+001  -2.610674e+001 
3265625000  -4.089814e+001  -2.333821e+001 
3268750000  -4.118156e+001  -2.372808e+001 
3271875000  -4.048899e+001  -2.671971e+001 
3275000000  -4.005681e+001  -3.582302e+001 
3278125000  -4.080756e+001  -3.938184e+001 
3281250000  -4.098244e+001  -4.232862e+001 
3284375000  -4.060073e+001  -4.758503e+001 
3287500000  -4.104508e+001  -5.241026e+001 
3290625000  -4.102419e+001  -5.875903e+001 
3293750000  -4.117442e+001  -6.488281e+001 
3296875000  -4.229880e+001  -6.691890e+001 
3300000000  -4.160676e+001  -6.593018e+001 
3303125000  -4.080831e+001  -7.294136e+001 
3306250000  -4.086318e+001  -7.998479e+001 
3309375000  -4.058313e+001  -8.844739e+001 
3312500000  -4.105073e+001  -1.006566e+002 
3315625000  -4.227440e+001  -1.058418e+002 
3318750000  -4.354046e+001  -1.084063e+002 
3321875000  -4.504910e+001  -1.034556e+002 
3325000000  -4.478155e+001  -9.855952e+001 
3328125000  -4.395035e+001  -1.006590e+002 
3331250000  -4.216575e+001  -9.631055e+001 
3334375000  -3.984649e+001  -1.128107e+002 
3337500000  -4.017438e+001  -1.352537e+002 
3340625000  -4.218361e+001  -1.437800e+002 
3343750000  -4.403665e+001  -1.433291e+002 
3346875000  -4.315403e+001  -1.426485e+002 
3350000000  -4.311267e+001  -1.476772e+002 
3353125000  -4.287439e+001  -1.529347e+002 
3356250000  -4.239970e+001  -1.629593e+002 
3359375000  -4.336767e+001  -1.711017e+002 
3362500000  -4.408763e+001  -1.788914e+002 
3365625000  -4.511724e+001  1.776654e+002 
3368750000  -4.545259e+001  1.712799e+002 
3371875000  -4.576427e+001  1.689332e+002 
3375000000  -4.758859e+001  1.614588e+002 
3378125000  -4.860998e+001  1.640583e+002 
3381250000  -4.930331e+001  1.750166e+002 
3384375000  -4.599737e+001  -1.680893e+002 
3387500000  -4.406042e+001  1.686710e+002 
3390625000  -4.588351e+001  1.513052e+002 
3393750000  -4.735405e+001  1.518376e+002 
3396875000  -4.568193e+001  1.483356e+002 
3400000000  -4.596326e+001  1.367493e+002 
3403125000  -4.732809e+001  1.326341e+002 
3406250000  -4.759083e+001  1.266132e+002 
3409375000  -4.758701e+001  1.209930e+002 
3412500000  -4.888972e+001  1.151944e+002 
3415625000  -4.998971e+001  1.161437e+002 
3418750000  -5.031922e+001  1.171054e+002 
3421875000  -5.138041e+001  1.166686e+002 
3425000000  -4.943687e+001  1.180107e+002 
3428125000  -4.968451e+001  1.148359e+002 
3431250000  -4.948299e+001  1.052206e+002 
3434375000  -5.042364e+001  1.020651e+002 
3437500000  -5.189860e+001  9.782726e+001 
3440625000  -5.206602e+001  1.031896e+002 
3443750000  -5.078396e+001  1.051910e+002 
3446875000  -5.041822e+001  9.450572e+001 
3450000000  -5.063697e+001  8.539362e+001 
3453125000  -5.021436e+001  8.306242e+001 
3456250000  -5.154511e+001  8.049435e+001 
3459375000  -5.317496e+001  7.834273e+001 
3462500000  -5.270234e+001  8.375486e+001 
3465625000  -5.131407e+001  7.873191e+001 
3468750000  -5.130526e+001  7.569809e+001 
3471875000  -5.175014e+001  7.225967e+001 
3475000000  -5.125642e+001  6.874006e+001 
3478125000  -5.143765e+001  5.817869e+001 
3481250000  -5.225944e+001  6.005213e+001 
3484375000  -5.233877e+001  6.012943e+001 
3487500000  -5.163600e+001  5.614888e+001 
3490625000  -5.130989e+001  5.124343e+001 
3493750000  -5.157880e+001  4.035436e+001 
3496875000  -5.160569e+001  4.545561e+001 
3500000000  -5.207715e+001  4.314933e+001 
3503125000  -5.101825e+001  4.280352e+001 
3506250000  -4.946201e+001  3.544653e+001 
3509375000  -5.008459e+001  2.031008e+001 
3512500000  -5.070931e+001  8.823032e+000 
3515625000  -5.087516e+001  5.141345e+000 
3518750000  -5.190273e+001  5.366855e+000 
3521875000  -5.125968e+001  3.140921e+000 
3525000000  -5.227794e+001  7.790071e-001 
3528125000  -5.276854e+001  4.128938e+000 
3531250000  -5.063135e+001  -6.474637e+000 
3534375000  -5.217505e+001  -1.698137e+001 
3537500000  -5.352717e+001  -2.983481e+001 
3540625000  -5.448960e+001  -3.504131e+001 
3543750000  -5.611422e+001  -2.767619e+001 
3546875000  -5.590743e+001  -1.466595e+001 
3550000000  -5.372824e+001  -1.937121e+001 
3553125000  -5.373188e+001  -3.858231e+001 
3556250000  -5.540444e+001  -3.783452e+001 
3559375000  -5.514241e+001  -3.065154e+001 
3562500000  -5.572946e+001  -4.783229e+001 
3565625000  -5.657129e+001  -5.462577e+001 
3568750000  -5.766952e+001  -4.004413e+001 
3571875000  -5.710242e+001  -4.264003e+001 
3575000000  -5.675947e+001  -3.999153e+001 
3578125000  -5.913869e+001  -5.427057e+001 
3581250000  -5.797602e+001  -3.112186e+001 
3584375000  -5.786751e+001  -3.784539e+001 
3587500000  -5.603378e+001  -3.957534e+001 
3590625000  -5.773628e+001  -6.513790e+001 
3593750000  -6.183965e+001  -5.792602e+001 
3596875000  -5.891510e+001  -3.770990e+001 
3600000000  -5.722192e+001  -4.894657e+001 
3603125000  -5.604292e+001  -6.010138e+001 
3606250000  -5.869079e+001  -6.431679e+001 
3609375000  -5.824566e+001  -5.189406e+001 
3612500000  -5.869631e+001  -5.443588e+001 
3615625000  -5.777585e+001  -5.688764e+001 
3618750000  -5.817563e+001  -4.279586e+001 
3621875000  -5.622592e+001  -5.266098e+001 
3625000000  -5.970705e+001  -4.691784e+001 
3628125000  -5.771777e+001  -5.400734e+001 
3631250000  -5.700751e+001  -5.597033e+001 
3634375000  -5.618911e+001  -5.267627e+001 
3637500000  -5.630693e+001  -4.591552e+001 
3640625000  -5.482437e+001  -4.422821e+001 
3643750000  -5.308270e+001  -4.904585e+001 
3646875000  -5.295462e+001  -6.067580e+001 
3650000000  -5.261258e+001  -6.177587e+001 
3653125000  -5.207578e+001  -6.385644e+001 
3656250000  -5.203082e+001  -6.462488e+001 
3659375000  -5.231337e+001  -6.653026e+001 
3662500000  -5.045851e+001  -6.983791e+001 
3665625000  -4.983276e+001  -7.515540e+001 
3668750000  -4.863737e+001  -7.603987e+001 
3671875000  -4.753404e+001  -8.473477e+001 
3675000000  -4.728604e+001  -1.010484e+002 
3678125000  -4.784960e+001  -9.702094e+001 
3681250000  -4.647168e+001  -1.059164e+002 
3684375000  -4.664724e+001  -1.106205e+002 
3687500000  -4.691965e+001  -1.143141e+002 
3690625000  -4.643795e+001  -1.226476e+002 
3693750000  -4.688467e+001  -1.217621e+002 
3696875000  -4.670042e+001  -1.218345e+002 
3700000000  -4.531841e+001  -1.308788e+002 
3703125000  -4.547306e+001  -1.342955e+002 
3706250000  -4.557645e+001  -1.337983e+002 
3709375000  -4.464769e+001  -1.346340e+002 
3712500000  -4.341224e+001  -1.416116e+002 
3715625000  -4.208638e+001  -1.505185e+002 
3718750000  -4.159662e+001  -1.574003e+002 
3721875000  -4.133638e+001  -1.678504e+002 
3725000000  -4.163516e+001  -1.741751e+002 
3728125000  -4.152467e+001  -1.768863e+002 
3731250000  -4.074065e+001  1.779705e+002 
3734375000  -4.030676e+001  1.712134e+002 
3737500000  -4.092201e+001  1.601475e+002 
3740625000  -4.074646e+001  1.541051e+002 
3743750000  -4.047242e+001  1.488188e+002 
3746875000  -4.074577e+001  1.410862e+002 
3750000000  -4.110480e+001  1.357840e+002 
3753125000  -4.047301e+001  1.353402e+002 
3756250000  -4.056228e+001  1.299351e+002 
3759375000  -4.055299e+001  1.263961e+002 
3762500000  -4.007771e+001  1.194630e+002 
3765625000  -4.080587e+001  1.140338e+002 
3768750000  -4.004660e+001  1.135004e+002 
3771875000  -3.836274e+001  1.059284e+002 
3775000000  -3.848676e+001  9.477435e+001 
3778125000  -3.900403e+001  9.014899e+001 
3781250000  -3.902595e+001  8.449456e+001 
3784375000  -3.885307e+001  7.882706e+001 
3787500000  -3.849810e+001  7.415295e+001 
3790625000  -3.906590e+001  6.431096e+001 
3793750000  -3.909497e+001  6.118238e+001 
3796875000  -3.807440e+001  5.716721e+001 
3800000000  -3.635550e+001  5.134293e+001 
3803125000  -3.798926e+001  3.889943e+001 
3806250000  -3.898423e+001  3.476296e+001 
3809375000  -3.833718e+001  3.038652e+001 
3812500000  -3.849718e+001  2.002973e+001 
3815625000  -3.974082e+001  1.107626e+001 
3818750000  -4.094965e+001  1.407213e+001 
3821875000  -4.015978e+001  2.540012e+001 
3825000000  -3.810723e+001  1.933865e+001 
3828125000  -3.713753e+001  -1.044351e+000 
3831250000  -3.806815e+001  -1.559579e+001 
3834375000  -4.058077e+001  -1.459005e+001 
3837500000  -4.058543e+001  -1.154390e+001 
3840625000  -3.895507e+001  -1.358978e+001 
3843750000  -3.838841e+001  -2.970635e+001 
3846875000  -3.985727e+001  -3.584772e+001 
3850000000  -4.069436e+001  -2.738794e+001 
3853125000  -3.982387e+001  -2.929536e+001 
3856250000  -3.899199e+001  -3.752003e+001 
3859375000  -3.864812e+001  -4.477914e+001 
3862500000  -3.848218e+001  -5.428760e+001 
3865625000  -3.895418e+001  -5.931376e+001 
3868750000  -3.862841e+001  -5.990294e+001 
3871875000  -3.811813e+001  -6.733276e+001 
3875000000  -3.842498e+001  -7.747813e+001 
3878125000  -3.957350e+001  -8.015672e+001 
3881250000  -3.923209e+001  -8.013744e+001 
3884375000  -3.869907e+001  -8.740891e+001 
3887500000  -3.917036e+001  -9.404317e+001 
3890625000  -3.967410e+001  -9.933534e+001 
3893750000  -3.975080e+001  -9.913225e+001 
3896875000  -3.999450e+001  -1.019105e+002 
3900000000  -3.986967e+001  -1.060567e+002 
3903125000  -3.955812e+001  -1.117818e+002 
3906250000  -3.899514e+001  -1.161375e+002 
3909375000  -3.826953e+001  -1.239682e+002 
3912500000  -3.919308e+001  -1.342218e+002 
3915625000  -4.046281e+001  -1.335104e+002 
3918750000  -3.990137e+001  -1.340366e+002 
3921875000  -3.942274e+001  -1.384889e+002 
3925000000  -3.850163e+001  -1.460104e+002 
3928125000  -3.826973e+001  -1.540544e+002 
3931250000  -3.902538e+001  -1.594453e+002 
3934375000  -3.955557e+001  -1.612084e+002 
3937500000  -4.005526e+001  -1.636257e+002 
3940625000  -3.981580e+001  -1.649233e+002 
3943750000  -3.873278e+001  -1.679949e+002 
3946875000  -3.860945e+001  -1.787433e+002 
3950000000  -3.960440e+001  1.737518e+002 
3953125000  -4.006206e+001  1.740161e+002 
3956250000  -3.840223e+001  1.730913e+002 
3959375000  -3.801247e+001  1.684706e+002 
3962500000  -3.751467e+001  1.571678e+002 
3965625000  -3.799059e+001  1.498953e+002 
3968750000  -3.853270e+001  1.413168e+002 
3971875000  -3.865186e+001  1.373609e+002 
3975000000  -3.826153e+001  1.318622e+002 
3978125000  -3.854050e+001  1.288062e+002 
3981250000  -3.838471e+001  1.218927e+002 
3984375000  -3.903292e+001  1.131143e+002 
3987500000  -3.967181e+001  1.111949e+002 
3990625000  -3.972261e+001  1.095945e+002 
3993750000  -3.980966e+001  1.060235e+002 
3996875000  -3.998870e+001  9.900170e+001 
4000000000  -4.078864e+001  9.453132e+001 
4003125000  -4.092765e+001  9.563772e+001 
4006250000  -3.923555e+001  9.385525e+001 
4009375000  -3.865659e+001  7.924380e+001 
4012500000  -4.013241e+001  7.133008e+001 
4015625000  -4.144118e+001  7.270400e+001 
4018750000  -4.128007e+001  7.423917e+001 
4021875000  -4.034851e+001  7.014941e+001 
4025000000  -4.015847e+001  6.420962e+001 
4028125000  -4.040781e+001  5.633486e+001 
4031250000  -4.108598e+001  5.265540e+001 
4034375000  -4.135344e+001  5.086287e+001 
4037500000  -4.100600e+001  5.208934e+001 
4040625000  -4.100702e+001  4.692224e+001 
4043750000  -4.108367e+001  4.361574e+001 
4046875000  -4.073484e+001  3.988787e+001 
4050000000  -4.049108e+001  3.419453e+001 
4053125000  -4.143857e+001  3.396005e+001 
4056250000  -4.126019e+001  3.704471e+001 
4059375000  -3.948289e+001  3.417527e+001 
4062500000  -3.880854e+001  2.568444e+001 
4065625000  -3.885384e+001  2.043010e+001 
4068750000  -3.819991e+001  1.454107e+001 
4071875000  -3.783591e+001  3.468118e+000 
4075000000  -3.826341e+001  -2.076598e+000 
4078125000  -3.857607e+001  -6.791579e+000 
4081250000  -3.834180e+001  -1.108812e+001 
4084375000  -3.826752e+001  -2.115870e+001 
4087500000  -3.859430e+001  -2.649177e+001 
4090625000  -3.910165e+001  -2.996495e+001 
4093750000  -3.869593e+001  -3.240511e+001 
4096875000  -3.869086e+001  -4.159571e+001 
4100000000  -3.976622e+001  -4.891008e+001 
4103125000  -4.061212e+001  -4.595949e+001 
4106250000  -4.018163e+001  -4.428127e+001 
4109375000  -3.912675e+001  -4.871488e+001 
4112500000  -3.858990e+001  -5.789648e+001 
4115625000  -3.917334e+001  -6.354152e+001 
4118750000  -3.899611e+001  -6.977473e+001 
4121875000  -3.881957e+001  -7.543764e+001 
4125000000  -3.980412e+001  -8.272989e+001 
4128125000  -4.094734e+001  -7.849629e+001 
4131250000  -3.976151e+001  -7.343915e+001 
4134375000  -3.746102e+001  -8.582162e+001 
4137500000  -3.811345e+001  -1.041154e+002 
4140625000  -4.056313e+001  -1.108729e+002 
4143750000  -4.147785e+001  -1.046630e+002 
4146875000  -4.026704e+001  -1.003992e+002 
4150000000  -3.964837e+001  -1.099031e+002 
4153125000  -4.006197e+001  -1.168998e+002 
4156250000  -4.118043e+001  -1.214832e+002 
4159375000  -4.105085e+001  -1.170746e+002 
4162500000  -3.981256e+001  -1.146793e+002 
4165625000  -3.890357e+001  -1.227027e+002 
4168750000  -3.853413e+001  -1.317047e+002 
4171875000  -3.816758e+001  -1.427130e+002 
4175000000  -3.924414e+001  -1.464439e+002 
4178125000  -3.952034e+001  -1.475385e+002 
4181250000  -3.930874e+001  -1.532112e+002 
4184375000  -3.953075e+001  -1.589074e+002 
4187500000  -3.938017e+001  -1.646698e+002 
4190625000  -3.952816e+001  -1.701011e+002 
4193750000  -4.057465e+001  -1.745897e+002 
4196875000  -4.169003e+001  -1.770692e+002 
4200000000  -4.249272e+001  -1.660414e+002 
4203125000  -4.079010e+001  -1.587410e+002 
4206250000  -3.742246e+001  -1.659526e+002 
4209375000  -3.739409e+001  1.693390e+002 
4212500000  -3.982227e+001  1.628800e+002 
4215625000  -3.989140e+001  1.699766e+002 
4218750000  -3.805778e+001  1.719943e+002 
4221875000  -3.667358e+001  1.610130e+002 
4225000000  -3.782333e+001  1.501491e+002 
4228125000  -3.781797e+001  1.510216e+002 
4231250000  -3.623890e+001  1.427450e+002 
4234375000  -3.623058e+001  1.316120e+002 
4237500000  -3.612653e+001  1.272137e+002 
4240625000  -3.630354e+001  1.150947e+002 
4243750000  -3.746045e+001  1.078241e+002 
4246875000  -3.841041e+001  1.065152e+002 
4250000000  -3.811238e+001  1.079435e+002 
4253125000  -3.802751e+001  1.052016e+002 
4256250000  -3.787425e+001  9.941928e+001 
4259375000  -3.758094e+001  9.263364e+001 
4262500000  -3.783283e+001  8.906083e+001 
4265625000  -3.774670e+001  8.644182e+001 
4268750000  -3.701457e+001  7.880674e+001 
4271875000  -3.682700e+001  6.823595e+001 
4275000000  -3.665210e+001  6.148467e+001 
4278125000  -3.764164e+001  4.841854e+001 
4281250000  -3.867714e+001  4.715425e+001 
4284375000  -3.891225e+001  4.581384e+001 
4287500000  -4.052547e+001  4.155136e+001 
4290625000  -4.059761e+001  5.177354e+001 
4293750000  -3.847863e+001  5.036720e+001 
4296875000  -3.777452e+001  3.641354e+001 
4300000000  -3.904012e+001  2.665511e+001 
4303125000  -3.959087e+001  3.100855e+001 
4306250000  -3.854840e+001  3.359197e+001 
4309375000  -3.760662e+001  2.707310e+001 
4312500000  -3.739613e+001  1.682185e+001 
4315625000  -3.798290e+001  8.508315e+000 
4318750000  -3.875982e+001  4.890109e+000 
4321875000  -3.876398e+001  6.755463e+000 
4325000000  -3.788759e+001  4.140420e+000 
4328125000  -3.722183e+001  -6.368936e+000 
4331250000  -3.742676e+001  -1.689923e+001 
4334375000  -3.846321e+001  -2.315380e+001 
4337500000  -3.950474e+001  -2.284272e+001 
4340625000  -3.952614e+001  -1.871475e+001 
4343750000  -3.840908e+001  -2.363486e+001 
4346875000  -3.836185e+001  -3.046871e+001 
4350000000  -3.824662e+001  -4.041492e+001 
4353125000  -3.932422e+001  -4.486883e+001 
4356250000  -4.098191e+001  -4.207214e+001 
4359375000  -3.984665e+001  -2.808285e+001 
4362500000  -3.674767e+001  -3.694590e+001 
4365625000  -3.582854e+001  -5.398725e+001 
4368750000  -3.734927e+001  -6.302988e+001 
4371875000  -3.767571e+001  -6.325678e+001 
4375000000  -3.717913e+001  -6.797423e+001 
4378125000  -3.674854e+001  -7.613839e+001 
4381250000  -3.714080e+001  -8.413773e+001 
4384375000  -3.721611e+001  -9.004574e+001 
4387500000  -3.829491e+001  -9.560032e+001 
4390625000  -3.856803e+001  -9.727331e+001 
4393750000  -3.793237e+001  -9.707372e+001 
4396875000  -3.712923e+001  -1.036598e+002 
4400000000  -3.679937e+001  -1.118633e+002 
4403125000  -3.772536e+001  -1.189755e+002 
4406250000  -3.835216e+001  -1.232261e+002 
4409375000  -3.871990e+001  -1.288744e+002 
4412500000  -3.994647e+001  -1.310842e+002 
4415625000  -3.921851e+001  -1.269773e+002 
