!Agilent Technologies,E8363B,MY43030201,A.06.04.32
!Agilent E8363B: A.06.04.32
!Date: Tuesday, November 11, 2014 21:26:55
!Correction: S21(Response(S21)) 
!S1P File: Measurement: S21:
# Hz S  dB   R 50
3000000000  -4.057834e+001  9.466766e+001 
3003125000  -4.231498e+001  8.561807e+001 
3006250000  -4.222441e+001  8.562176e+001 
3009375000  -4.288064e+001  8.973924e+001 
3012500000  -4.163070e+001  8.655597e+001 
3015625000  -4.161110e+001  7.917722e+001 
3018750000  -4.185806e+001  7.884829e+001 
3021875000  -4.029358e+001  8.040233e+001 
3025000000  -3.909887e+001  7.604927e+001 
3028125000  -3.804286e+001  6.692985e+001 
3031250000  -3.698066e+001  5.515646e+001 
3034375000  -3.674588e+001  4.095937e+001 
3037500000  -3.753879e+001  2.990484e+001 
3040625000  -3.880165e+001  2.444747e+001 
3043750000  -3.927015e+001  1.777249e+001 
3046875000  -3.960738e+001  1.237042e+001 
3050000000  -4.095242e+001  6.285511e+000 
3053125000  -4.052020e+001  1.187474e+001 
3056250000  -4.034096e+001  1.445222e+001 
3059375000  -3.997025e+001  1.388684e+001 
3062500000  -3.814943e+001  8.367327e+000 
3065625000  -3.805204e+001  -1.366626e+000 
3068750000  -3.767254e+001  -8.726866e+000 
3071875000  -3.767915e+001  -1.124896e+001 
3075000000  -3.719445e+001  -1.902441e+001 
3078125000  -3.707002e+001  -2.385928e+001 
3081250000  -3.738958e+001  -3.023860e+001 
3084375000  -3.648107e+001  -3.452415e+001 
3087500000  -3.649076e+001  -4.118676e+001 
3090625000  -3.598673e+001  -5.319294e+001 
3093750000  -3.681212e+001  -6.124153e+001 
3096875000  -3.749017e+001  -6.671007e+001 
3100000000  -3.728970e+001  -7.047768e+001 
3103125000  -3.770261e+001  -7.324466e+001 
3106250000  -3.720507e+001  -7.889334e+001 
3109375000  -3.728073e+001  -8.344273e+001 
3112500000  -3.714769e+001  -8.740788e+001 
3115625000  -3.708145e+001  -9.187257e+001 
3118750000  -3.740764e+001  -9.533730e+001 
3121875000  -3.647055e+001  -1.072747e+002 
3125000000  -3.837319e+001  -1.109184e+002 
3128125000  -3.865245e+001  -1.029546e+002 
3131250000  -3.624474e+001  -1.072940e+002 
3134375000  -3.541619e+001  -1.252814e+002 
3137500000  -3.610593e+001  -1.387403e+002 
3140625000  -3.728264e+001  -1.417724e+002 
3143750000  -3.823970e+001  -1.436774e+002 
3146875000  -3.768144e+001  -1.413548e+002 
3150000000  -3.700051e+001  -1.450536e+002 
3153125000  -3.722042e+001  -1.536417e+002 
3156250000  -3.807955e+001  -1.493495e+002 
3159375000  -3.583925e+001  -1.505508e+002 
3162500000  -3.424725e+001  -1.660898e+002 
3165625000  -3.546770e+001  -1.789143e+002 
3168750000  -3.559609e+001  1.797930e+002 
3171875000  -3.502907e+001  1.731584e+002 
3175000000  -3.548684e+001  1.634617e+002 
3178125000  -3.520198e+001  1.627485e+002 
3181250000  -3.446968e+001  1.544679e+002 
3184375000  -3.405964e+001  1.425110e+002 
3187500000  -3.539241e+001  1.274366e+002 
3190625000  -3.739997e+001  1.200152e+002 
3193750000  -3.759842e+001  1.257466e+002 
3196875000  -3.739544e+001  1.269770e+002 
3200000000  -3.634557e+001  1.231131e+002 
3203125000  -3.591840e+001  1.150613e+002 
3206250000  -3.625891e+001  1.070606e+002 
3209375000  -3.586627e+001  1.001365e+002 
3212500000  -3.612138e+001  9.299287e+001 
3215625000  -3.611295e+001  8.826627e+001 
3218750000  -3.690588e+001  7.789156e+001 
3221875000  -3.735344e+001  7.197933e+001 
3225000000  -3.707626e+001  6.849239e+001 
3228125000  -3.761090e+001  6.067034e+001 
3231250000  -3.831534e+001  5.837752e+001 
3234375000  -3.804410e+001  5.563169e+001 
3237500000  -3.825587e+001  5.195571e+001 
3240625000  -3.760766e+001  4.694255e+001 
3243750000  -3.762600e+001  3.697062e+001 
3246875000  -3.839995e+001  2.904526e+001 
3250000000  -3.868969e+001  2.433518e+001 
3253125000  -3.909113e+001  2.089912e+001 
3256250000  -3.874583e+001  1.391598e+001 
3259375000  -3.918459e+001  2.584748e+000 
3262500000  -4.056302e+001  -1.932305e-001 
3265625000  -4.117156e+001  1.015652e+000 
3268750000  -4.111768e+001  1.383517e+000 
3271875000  -4.086233e+001  5.784141e-001 
3275000000  -4.001692e+001  -8.726715e+000 
3278125000  -4.087071e+001  -1.374238e+001 
3281250000  -4.106031e+001  -1.472715e+001 
3284375000  -4.079118e+001  -2.201122e+001 
3287500000  -4.108836e+001  -2.496597e+001 
3290625000  -4.125443e+001  -3.068040e+001 
3293750000  -4.111049e+001  -3.951657e+001 
3296875000  -4.236552e+001  -4.030323e+001 
3300000000  -4.172856e+001  -3.887159e+001 
3303125000  -4.098920e+001  -4.499466e+001 
3306250000  -4.065443e+001  -5.329198e+001 
3309375000  -4.069927e+001  -5.936213e+001 
3312500000  -4.083146e+001  -7.186333e+001 
3315625000  -4.209267e+001  -8.075542e+001 
3318750000  -4.345955e+001  -8.316715e+001 
3321875000  -4.483183e+001  -8.092978e+001 
3325000000  -4.462360e+001  -7.350018e+001 
3328125000  -4.423451e+001  -7.731331e+001 
3331250000  -4.273998e+001  -7.140736e+001 
3334375000  -4.006479e+001  -8.579024e+001 
3337500000  -4.035114e+001  -1.048461e+002 
3340625000  -4.201159e+001  -1.151771e+002 
3343750000  -4.409493e+001  -1.155603e+002 
3346875000  -4.358958e+001  -1.166761e+002 
3350000000  -4.276778e+001  -1.183069e+002 
3353125000  -4.289675e+001  -1.259619e+002 
3356250000  -4.271502e+001  -1.341688e+002 
3359375000  -4.316669e+001  -1.451864e+002 
3362500000  -4.458064e+001  -1.496610e+002 
3365625000  -4.473619e+001  -1.547684e+002 
3368750000  -4.569958e+001  -1.600213e+002 
3371875000  -4.550382e+001  -1.649734e+002 
3375000000  -4.730454e+001  -1.678348e+002 
3378125000  -4.803239e+001  -1.712653e+002 
3381250000  -4.964526e+001  -1.579600e+002 
3384375000  -4.666906e+001  -1.462901e+002 
3387500000  -4.392828e+001  -1.648447e+002 
3390625000  -4.626432e+001  1.775686e+002 
3393750000  -4.695637e+001  1.778810e+002 
3396875000  -4.565710e+001  1.775093e+002 
3400000000  -4.540740e+001  1.628271e+002 
3403125000  -4.703626e+001  1.606111e+002 
3406250000  -4.801349e+001  1.571239e+002 
3409375000  -4.795960e+001  1.478974e+002 
3412500000  -4.858755e+001  1.391053e+002 
3415625000  -4.997853e+001  1.388706e+002 
3418750000  -5.013372e+001  1.418752e+002 
3421875000  -5.086462e+001  1.417687e+002 
3425000000  -5.000027e+001  1.442204e+002 
3428125000  -5.006700e+001  1.396018e+002 
3431250000  -4.993285e+001  1.298219e+002 
3434375000  -5.022656e+001  1.320725e+002 
3437500000  -5.157992e+001  1.245406e+002 
3440625000  -5.200091e+001  1.280520e+002 
3443750000  -5.030055e+001  1.309998e+002 
3446875000  -5.047565e+001  1.220073e+002 
3450000000  -4.993473e+001  1.159901e+002 
3453125000  -5.103482e+001  1.093954e+002 
3456250000  -5.165094e+001  1.059930e+002 
3459375000  -5.281270e+001  1.112237e+002 
3462500000  -5.238012e+001  1.132139e+002 
3465625000  -5.137809e+001  1.031892e+002 
3468750000  -5.197392e+001  1.042824e+002 
3471875000  -5.112875e+001  1.046292e+002 
3475000000  -5.075233e+001  9.665121e+001 
3478125000  -5.164588e+001  8.805614e+001 
3481250000  -5.186782e+001  9.186293e+001 
3484375000  -5.291286e+001  9.527771e+001 
3487500000  -5.087805e+001  8.485213e+001 
3490625000  -5.124649e+001  8.219329e+001 
3493750000  -5.169644e+001  7.114114e+001 
3496875000  -5.126612e+001  7.013065e+001 
3500000000  -5.155099e+001  6.823433e+001 
3503125000  -5.131097e+001  7.135020e+001 
3506250000  -5.023166e+001  6.098206e+001 
3509375000  -4.918540e+001  4.980817e+001 
3512500000  -4.990664e+001  4.077166e+001 
3515625000  -5.081076e+001  3.379628e+001 
3518750000  -5.144667e+001  3.609909e+001 
3521875000  -5.242082e+001  2.918765e+001 
3525000000  -5.267728e+001  2.620888e+001 
3528125000  -5.193901e+001  2.644635e+001 
3531250000  -5.177475e+001  2.711654e+001 
3534375000  -5.170394e+001  6.337550e+000 
3537500000  -5.388284e+001  -7.661187e-001 
3540625000  -5.388317e+001  1.016507e+000 
3543750000  -5.568370e+001  -5.640149e+000 
3546875000  -5.474060e+001  1.720273e+001 
3550000000  -5.252703e+001  1.056517e+001 
3553125000  -5.334245e+001  -1.721120e+001 
3556250000  -5.458330e+001  -1.319374e+001 
3559375000  -5.567423e+001  -1.581187e+001 
3562500000  -5.526146e+001  -2.035492e+001 
3565625000  -5.535918e+001  -2.688750e+001 
3568750000  -5.664265e+001  -2.018929e+001 
3571875000  -5.779408e+001  -2.084799e+001 
3575000000  -5.750076e+001  -1.378572e+001 
3578125000  -5.744567e+001  -2.425209e+001 
3581250000  -5.743914e+001  -1.963101e+001 
3584375000  -5.741731e+001  -1.790379e+001 
3587500000  -5.722192e+001  -2.038756e+001 
3590625000  -5.665343e+001  -2.979026e+001 
3593750000  -5.779338e+001  -3.715338e+001 
3596875000  -5.882207e+001  -1.335344e+001 
3600000000  -5.869437e+001  -1.139734e+001 
3603125000  -5.801712e+001  -3.213011e+001 
3606250000  -5.799200e+001  -3.156387e+001 
3609375000  -5.804499e+001  -2.990393e+001 
3612500000  -5.911096e+001  -3.561209e+001 
3615625000  -5.890878e+001  -3.363823e+001 
3618750000  -6.036566e+001  -3.263757e+001 
3621875000  -5.732893e+001  -1.553528e+001 
3625000000  -5.803868e+001  -3.221182e+001 
3628125000  -5.610243e+001  -2.659177e+001 
3631250000  -5.591742e+001  -3.057886e+001 
3634375000  -5.915219e+001  -2.480197e+001 
3637500000  -5.579417e+001  -2.500149e+001 
3640625000  -5.463957e+001  -8.408661e+000 
3643750000  -5.341328e+001  -2.705935e+001 
3646875000  -5.414541e+001  -3.209544e+001 
3650000000  -5.276651e+001  -3.796778e+001 
3653125000  -5.238955e+001  -4.081139e+001 
3656250000  -5.227100e+001  -4.526253e+001 
3659375000  -5.156443e+001  -4.198742e+001 
3662500000  -5.124804e+001  -4.856784e+001 
3665625000  -5.097088e+001  -5.042658e+001 
3668750000  -4.816197e+001  -4.804876e+001 
3671875000  -4.770440e+001  -6.126157e+001 
3675000000  -4.785360e+001  -6.578295e+001 
3678125000  -4.781149e+001  -7.414359e+001 
3681250000  -4.719977e+001  -7.799037e+001 
3684375000  -4.715910e+001  -8.273223e+001 
3687500000  -4.695831e+001  -8.435825e+001 
3690625000  -4.698534e+001  -9.307560e+001 
3693750000  -4.711041e+001  -9.559585e+001 
3696875000  -4.601024e+001  -9.279578e+001 
3700000000  -4.538998e+001  -1.015433e+002 
3703125000  -4.536131e+001  -1.057060e+002 
3706250000  -4.593102e+001  -1.088586e+002 
3709375000  -4.529522e+001  -1.078748e+002 
3712500000  -4.396450e+001  -1.117482e+002 
3715625000  -4.221767e+001  -1.211365e+002 
3718750000  -4.198204e+001  -1.283720e+002 
3721875000  -4.141248e+001  -1.377372e+002 
3725000000  -4.184899e+001  -1.430678e+002 
3728125000  -4.150531e+001  -1.468649e+002 
3731250000  -4.082673e+001  -1.535218e+002 
3734375000  -4.017952e+001  -1.597243e+002 
3737500000  -4.097238e+001  -1.698591e+002 
3740625000  -4.099363e+001  -1.761778e+002 
3743750000  -4.072682e+001  1.775793e+002 
3746875000  -4.070348e+001  1.711682e+002 
3750000000  -4.115356e+001  1.686253e+002 
3753125000  -4.071334e+001  1.639447e+002 
3756250000  -4.057071e+001  1.595214e+002 
3759375000  -4.057652e+001  1.551270e+002 
3762500000  -3.996970e+001  1.497621e+002 
3765625000  -4.080473e+001  1.435889e+002 
3768750000  -4.061202e+001  1.437385e+002 
3771875000  -3.862077e+001  1.361880e+002 
3775000000  -3.845125e+001  1.256762e+002 
3778125000  -3.914192e+001  1.193678e+002 
3781250000  -3.890747e+001  1.151529e+002 
3784375000  -3.910450e+001  1.085330e+002 
3787500000  -3.849052e+001  1.030333e+002 
3790625000  -3.938533e+001  9.476809e+001 
3793750000  -3.913610e+001  9.120814e+001 
3796875000  -3.841513e+001  8.653380e+001 
3800000000  -3.647388e+001  8.235697e+001 
3803125000  -3.801634e+001  6.899545e+001 
3806250000  -3.917163e+001  6.461815e+001 
3809375000  -3.847973e+001  6.077913e+001 
3812500000  -3.845079e+001  5.107287e+001 
3815625000  -3.937754e+001  4.162280e+001 
3818750000  -4.068608e+001  4.238629e+001 
3821875000  -4.042113e+001  5.199345e+001 
3825000000  -3.847210e+001  4.864006e+001 
3828125000  -3.724915e+001  3.152821e+001 
3831250000  -3.821399e+001  1.657655e+001 
3834375000  -4.001660e+001  1.419282e+001 
3837500000  -4.074088e+001  2.060809e+001 
3840625000  -3.912804e+001  1.515040e+001 
3843750000  -3.855616e+001  1.047827e+000 
3846875000  -3.987041e+001  -5.273005e+000 
3850000000  -4.081844e+001  1.158198e+000 
3853125000  -4.028081e+001  8.040316e-001 
3856250000  -3.972260e+001  -4.465958e+000 
3859375000  -3.856039e+001  -1.442649e+001 
3862500000  -3.865253e+001  -2.372182e+001 
3865625000  -3.903807e+001  -2.985542e+001 
3868750000  -3.896920e+001  -2.964409e+001 
3871875000  -3.807259e+001  -3.618152e+001 
3875000000  -3.837442e+001  -4.482952e+001 
3878125000  -3.961480e+001  -4.960313e+001 
3881250000  -3.927377e+001  -4.930829e+001 
3884375000  -3.882853e+001  -5.566682e+001 
3887500000  -3.899507e+001  -6.235275e+001 
3890625000  -3.948762e+001  -6.689305e+001 
3893750000  -3.980791e+001  -6.910733e+001 
3896875000  -3.979494e+001  -7.182808e+001 
3900000000  -3.953534e+001  -7.479597e+001 
3903125000  -3.923267e+001  -8.021359e+001 
3906250000  -3.895364e+001  -8.296484e+001 
3909375000  -3.831407e+001  -9.164493e+001 
3912500000  -3.897008e+001  -1.014282e+002 
3915625000  -4.040128e+001  -9.953455e+001 
3918750000  -4.027696e+001  -1.027320e+002 
3921875000  -3.926024e+001  -1.067931e+002 
3925000000  -3.863528e+001  -1.123674e+002 
3928125000  -3.809275e+001  -1.217495e+002 
3931250000  -3.890604e+001  -1.283574e+002 
3934375000  -3.974604e+001  -1.293242e+002 
3937500000  -4.013149e+001  -1.329364e+002 
3940625000  -3.994898e+001  -1.354703e+002 
3943750000  -3.910141e+001  -1.363641e+002 
3946875000  -3.832116e+001  -1.456242e+002 
3950000000  -3.926834e+001  -1.548481e+002 
3953125000  -4.003444e+001  -1.541339e+002 
3956250000  -3.894366e+001  -1.541202e+002 
3959375000  -3.784119e+001  -1.601594e+002 
3962500000  -3.767006e+001  -1.680785e+002 
3965625000  -3.743161e+001  -1.772002e+002 
3968750000  -3.842219e+001  1.723951e+002 
3971875000  -3.868156e+001  1.689643e+002 
3975000000  -3.838183e+001  1.652555e+002 
3978125000  -3.849208e+001  1.609007e+002 
3981250000  -3.847508e+001  1.533706e+002 
3984375000  -3.880602e+001  1.464345e+002 
3987500000  -3.980179e+001  1.430423e+002 
3990625000  -3.966385e+001  1.406714e+002 
3993750000  -3.999669e+001  1.379816e+002 
3996875000  -3.977188e+001  1.320430e+002 
4000000000  -4.062186e+001  1.276726e+002 
4003125000  -4.126581e+001  1.298680e+002 
4006250000  -3.954541e+001  1.278240e+002 
4009375000  -3.858215e+001  1.134008e+002 
4012500000  -3.991457e+001  1.054794e+002 
4015625000  -4.139425e+001  1.043356e+002 
4018750000  -4.133989e+001  1.058503e+002 
4021875000  -4.066311e+001  1.018342e+002 
4025000000  -4.038505e+001  9.616489e+001 
4028125000  -4.029152e+001  8.928812e+001 
4031250000  -4.112038e+001  8.416472e+001 
4034375000  -4.121330e+001  8.545753e+001 
4037500000  -4.091230e+001  8.588750e+001 
4040625000  -4.079784e+001  8.018310e+001 
4043750000  -4.110459e+001  7.855792e+001 
4046875000  -4.085068e+001  7.477551e+001 
4050000000  -4.015650e+001  6.867191e+001 
4053125000  -4.105345e+001  6.595456e+001 
4056250000  -4.126930e+001  6.992188e+001 
4059375000  -3.933318e+001  6.615523e+001 
4062500000  -3.877295e+001  5.943055e+001 
4065625000  -3.908295e+001  5.497831e+001 
4068750000  -3.838024e+001  4.710230e+001 
4071875000  -3.762031e+001  3.674044e+001 
4075000000  -3.807194e+001  3.012910e+001 
4078125000  -3.858775e+001  2.581745e+001 
4081250000  -3.792602e+001  2.228817e+001 
4084375000  -3.778008e+001  1.256969e+001 
4087500000  -3.849819e+001  4.665665e+000 
4090625000  -3.886669e+001  3.335475e+000 
4093750000  -3.837749e+001  7.507836e-001 
4096875000  -3.826668e+001  -8.984284e+000 
4100000000  -3.921491e+001  -1.658116e+001 
4103125000  -4.039733e+001  -1.398044e+001 
4106250000  -3.986398e+001  -1.256804e+001 
4109375000  -3.881564e+001  -1.510037e+001 
4112500000  -3.840924e+001  -2.424315e+001 
4115625000  -3.882432e+001  -3.125189e+001 
4118750000  -3.883188e+001  -3.460287e+001 
4121875000  -3.879287e+001  -4.185087e+001 
4125000000  -3.947723e+001  -4.896819e+001 
4128125000  -4.050748e+001  -4.562402e+001 
4131250000  -3.947424e+001  -4.132157e+001 
4134375000  -3.730877e+001  -5.041698e+001 
4137500000  -3.740913e+001  -7.122844e+001 
4140625000  -3.995192e+001  -7.715921e+001 
4143750000  -4.124868e+001  -7.100438e+001 
4146875000  -3.996207e+001  -6.768418e+001 
4150000000  -3.937622e+001  -7.646045e+001 
4153125000  -3.945815e+001  -8.408188e+001 
4156250000  -4.081474e+001  -8.789376e+001 
4159375000  -4.081721e+001  -8.393909e+001 
4162500000  -3.993706e+001  -8.174849e+001 
4165625000  -3.861021e+001  -8.743006e+001 
4168750000  -3.785846e+001  -9.716409e+001 
4171875000  -3.792279e+001  -1.088025e+002 
4175000000  -3.901696e+001  -1.138294e+002 
4178125000  -3.931826e+001  -1.158388e+002 
4181250000  -3.899744e+001  -1.196969e+002 
4184375000  -3.887053e+001  -1.239099e+002 
4187500000  -3.900910e+001  -1.283334e+002 
4190625000  -3.902061e+001  -1.375112e+002 
4193750000  -4.018539e+001  -1.393842e+002 
4196875000  -4.092264e+001  -1.414216e+002 
4200000000  -4.211499e+001  -1.398134e+002 
4203125000  -4.088301e+001  -1.267873e+002 
4206250000  -3.730743e+001  -1.326541e+002 
4209375000  -3.691504e+001  -1.559217e+002 
4212500000  -3.907359e+001  -1.632042e+002 
4215625000  -3.946319e+001  -1.567381e+002 
4218750000  -3.763234e+001  -1.543687e+002 
4221875000  -3.599724e+001  -1.657529e+002 
4225000000  -3.726173e+001  -1.765815e+002 
4228125000  -3.725018e+001  -1.776225e+002 
4231250000  -3.578115e+001  1.776716e+002 
4234375000  -3.581255e+001  1.659247e+002 
4237500000  -3.578292e+001  1.601441e+002 
4240625000  -3.590273e+001  1.492177e+002 
4243750000  -3.710993e+001  1.406312e+002 
4246875000  -3.794551e+001  1.395516e+002 
4250000000  -3.784062e+001  1.413565e+002 
4253125000  -3.743225e+001  1.367709e+002 
4256250000  -3.731746e+001  1.305211e+002 
4259375000  -3.697173e+001  1.258682e+002 
4262500000  -3.742264e+001  1.220203e+002 
4265625000  -3.740727e+001  1.188084e+002 
4268750000  -3.660250e+001  1.109466e+002 
4271875000  -3.614844e+001  1.052575e+002 
4275000000  -3.588771e+001  9.495619e+001 
4278125000  -3.679154e+001  8.318259e+001 
4281250000  -3.818064e+001  7.880293e+001 
4284375000  -3.815169e+001  7.782880e+001 
4287500000  -3.961992e+001  7.479751e+001 
4290625000  -4.007510e+001  8.413237e+001 
4293750000  -3.825733e+001  8.652631e+001 
4296875000  -3.726509e+001  7.119539e+001 
4300000000  -3.838044e+001  6.254367e+001 
4303125000  -3.898146e+001  6.306739e+001 
4306250000  -3.829884e+001  6.825530e+001 
4309375000  -3.707459e+001  6.029900e+001 
4312500000  -3.716039e+001  4.977298e+001 
4315625000  -3.768715e+001  4.289945e+001 
4318750000  -3.811635e+001  3.643767e+001 
4321875000  -3.788772e+001  3.770578e+001 
4325000000  -3.747146e+001  3.609078e+001 
4328125000  -3.692627e+001  2.690676e+001 
4331250000  -3.706794e+001  1.696300e+001 
4334375000  -3.764228e+001  1.154375e+001 
4337500000  -3.876439e+001  8.382174e+000 
4340625000  -3.893678e+001  1.445862e+001 
4343750000  -3.826513e+001  1.036544e+001 
4346875000  -3.772619e+001  6.668352e-001 
4350000000  -3.763397e+001  -5.174543e+000 
4353125000  -3.823293e+001  -1.415607e+001 
4356250000  -4.043917e+001  -1.365485e+001 
4359375000  -3.977101e+001  -4.023263e-001 
4362500000  -3.651477e+001  -5.920366e+000 
4365625000  -3.532589e+001  -2.123880e+001 
4368750000  -3.646775e+001  -3.275128e+001 
4371875000  -3.773949e+001  -3.136354e+001 
4375000000  -3.669470e+001  -3.406360e+001 
4378125000  -3.650449e+001  -4.288248e+001 
4381250000  -3.649579e+001  -4.889025e+001 
4384375000  -3.651852e+001  -5.712303e+001 
4387500000  -3.743936e+001  -6.409831e+001 
4390625000  -3.824172e+001  -6.419136e+001 
4393750000  -3.742240e+001  -6.304633e+001 
4396875000  -3.682303e+001  -6.998253e+001 
4400000000  -3.625410e+001  -7.849749e+001 
4403125000  -3.723378e+001  -8.750424e+001 
4406250000  -3.797020e+001  -9.130552e+001 
4409375000  -3.781285e+001  -9.604799e+001 
4412500000  -3.896644e+001  -9.781972e+001 
4415625000  -3.911069e+001  -9.529835e+001 
