!Agilent Technologies,E8363B,MY43030201,A.06.04.32
!Agilent E8363B: A.06.04.32
!Date: Tuesday, November 11, 2014 21:26:30
!Correction: S21(Response(S21)) 
!S1P File: Measurement: S21:
# Hz S  dB   R 50
3000000000  -4.052312e+001  9.558700e+001 
3003125000  -4.209220e+001  8.777888e+001 
3006250000  -4.187981e+001  8.592855e+001 
3009375000  -4.259599e+001  9.168790e+001 
3012500000  -4.160860e+001  8.601672e+001 
3015625000  -4.113242e+001  7.941216e+001 
3018750000  -4.190831e+001  8.000004e+001 
3021875000  -4.025668e+001  8.006449e+001 
3025000000  -3.904473e+001  7.659741e+001 
3028125000  -3.809573e+001  6.664948e+001 
3031250000  -3.704805e+001  5.595242e+001 
3034375000  -3.670795e+001  4.179849e+001 
3037500000  -3.758791e+001  3.049526e+001 
3040625000  -3.870033e+001  2.578712e+001 
3043750000  -3.911324e+001  1.930091e+001 
3046875000  -3.964943e+001  1.217819e+001 
3050000000  -4.100142e+001  6.578687e+000 
3053125000  -4.053240e+001  1.256380e+001 
3056250000  -4.028039e+001  1.461590e+001 
3059375000  -3.984812e+001  1.342804e+001 
3062500000  -3.814711e+001  8.148221e+000 
3065625000  -3.793348e+001  -3.846169e-001 
3068750000  -3.761377e+001  -7.988916e+000 
3071875000  -3.764435e+001  -1.116023e+001 
3075000000  -3.713308e+001  -1.748472e+001 
3078125000  -3.706818e+001  -2.365272e+001 
3081250000  -3.724018e+001  -2.911881e+001 
3084375000  -3.642650e+001  -3.429886e+001 
3087500000  -3.650105e+001  -4.051949e+001 
3090625000  -3.602581e+001  -5.234864e+001 
3093750000  -3.682323e+001  -6.091761e+001 
3096875000  -3.738100e+001  -6.741130e+001 
3100000000  -3.731115e+001  -6.917801e+001 
3103125000  -3.766282e+001  -7.172982e+001 
3106250000  -3.716588e+001  -7.800220e+001 
3109375000  -3.737970e+001  -8.208842e+001 
3112500000  -3.722308e+001  -8.662321e+001 
3115625000  -3.709525e+001  -9.211894e+001 
3118750000  -3.729695e+001  -9.345265e+001 
3121875000  -3.652624e+001  -1.059046e+002 
3125000000  -3.824441e+001  -1.109767e+002 
3128125000  -3.858341e+001  -1.032902e+002 
3131250000  -3.619405e+001  -1.082841e+002 
3134375000  -3.535603e+001  -1.251796e+002 
3137500000  -3.606158e+001  -1.379124e+002 
3140625000  -3.734624e+001  -1.403198e+002 
3143750000  -3.816575e+001  -1.422671e+002 
3146875000  -3.757700e+001  -1.407005e+002 
3150000000  -3.684684e+001  -1.436487e+002 
3153125000  -3.718419e+001  -1.530291e+002 
3156250000  -3.798262e+001  -1.484288e+002 
3159375000  -3.593837e+001  -1.496821e+002 
3162500000  -3.425512e+001  -1.655345e+002 
3165625000  -3.541924e+001  -1.777233e+002 
3168750000  -3.552101e+001  -1.792444e+002 
3171875000  -3.495930e+001  1.735347e+002 
3175000000  -3.555961e+001  1.638075e+002 
3178125000  -3.520433e+001  1.626356e+002 
3181250000  -3.448679e+001  1.554590e+002 
3184375000  -3.404567e+001  1.422542e+002 
3187500000  -3.535561e+001  1.274388e+002 
3190625000  -3.739355e+001  1.204641e+002 
3193750000  -3.768966e+001  1.264844e+002 
3196875000  -3.748690e+001  1.289133e+002 
3200000000  -3.635610e+001  1.236724e+002 
3203125000  -3.602779e+001  1.149329e+002 
3206250000  -3.624886e+001  1.077497e+002 
3209375000  -3.575961e+001  9.971526e+001 
3212500000  -3.620128e+001  9.307899e+001 
3215625000  -3.613441e+001  8.866858e+001 
3218750000  -3.693324e+001  7.897132e+001 
3221875000  -3.749444e+001  7.135720e+001 
3225000000  -3.705427e+001  6.830289e+001 
3228125000  -3.785116e+001  6.110489e+001 
3231250000  -3.845088e+001  5.918459e+001 
3234375000  -3.808123e+001  5.566880e+001 
3237500000  -3.805941e+001  5.133550e+001 
3240625000  -3.755516e+001  4.650719e+001 
3243750000  -3.765042e+001  3.712057e+001 
3246875000  -3.816356e+001  2.910909e+001 
3250000000  -3.888547e+001  2.447728e+001 
3253125000  -3.897810e+001  2.307838e+001 
3256250000  -3.865796e+001  1.412311e+001 
3259375000  -3.912117e+001  3.991735e+000 
3262500000  -4.043415e+001  -4.629731e-001 
3265625000  -4.130940e+001  1.179820e+000 
3268750000  -4.133086e+001  3.360372e+000 
3271875000  -4.075801e+001  2.540159e-001 
3275000000  -4.023416e+001  -7.553921e+000 
3278125000  -4.100497e+001  -1.432387e+001 
3281250000  -4.109948e+001  -1.362823e+001 
3284375000  -4.061799e+001  -2.078583e+001 
3287500000  -4.093175e+001  -2.399547e+001 
3290625000  -4.126838e+001  -3.260891e+001 
3293750000  -4.126463e+001  -3.837629e+001 
3296875000  -4.238712e+001  -3.817550e+001 
3300000000  -4.214346e+001  -3.858978e+001 
3303125000  -4.130763e+001  -4.522924e+001 
3306250000  -4.083146e+001  -5.368198e+001 
3309375000  -4.059941e+001  -6.033433e+001 
3312500000  -4.092052e+001  -7.199003e+001 
3315625000  -4.219645e+001  -8.132502e+001 
3318750000  -4.354531e+001  -8.343465e+001 
3321875000  -4.487288e+001  -8.188969e+001 
3325000000  -4.502765e+001  -7.438914e+001 
3328125000  -4.418568e+001  -7.697221e+001 
3331250000  -4.283604e+001  -7.135229e+001 
3334375000  -4.008157e+001  -8.648502e+001 
3337500000  -4.047772e+001  -1.049013e+002 
3340625000  -4.227662e+001  -1.141641e+002 
3343750000  -4.430508e+001  -1.164913e+002 
3346875000  -4.351015e+001  -1.156661e+002 
3350000000  -4.318860e+001  -1.204791e+002 
3353125000  -4.296686e+001  -1.260788e+002 
3356250000  -4.257968e+001  -1.355809e+002 
3359375000  -4.364091e+001  -1.457556e+002 
3362500000  -4.426585e+001  -1.504684e+002 
3365625000  -4.477295e+001  -1.548696e+002 
3368750000  -4.560833e+001  -1.584614e+002 
3371875000  -4.602999e+001  -1.632010e+002 
3375000000  -4.726341e+001  -1.659209e+002 
3378125000  -4.833975e+001  -1.677504e+002 
3381250000  -4.963167e+001  -1.576379e+002 
3384375000  -4.724522e+001  -1.453487e+002 
3387500000  -4.439458e+001  -1.586802e+002 
3390625000  -4.585073e+001  1.748853e+002 
3393750000  -4.728092e+001  1.776788e+002 
3396875000  -4.600061e+001  1.754951e+002 
3400000000  -4.616521e+001  1.631975e+002 
3403125000  -4.710447e+001  1.587789e+002 
3406250000  -4.773367e+001  1.542711e+002 
3409375000  -4.790669e+001  1.464246e+002 
3412500000  -4.920388e+001  1.417086e+002 
3415625000  -5.031073e+001  1.424056e+002 
3418750000  -5.026088e+001  1.418343e+002 
3421875000  -5.204469e+001  1.474004e+002 
3425000000  -5.047799e+001  1.438748e+002 
3428125000  -4.972787e+001  1.381171e+002 
3431250000  -4.988857e+001  1.277722e+002 
3434375000  -5.048303e+001  1.266211e+002 
3437500000  -5.136057e+001  1.216454e+002 
3440625000  -5.223090e+001  1.225777e+002 
3443750000  -5.103171e+001  1.276159e+002 
3446875000  -5.084150e+001  1.249328e+002 
3450000000  -5.047853e+001  1.219263e+002 
3453125000  -5.108173e+001  1.080417e+002 
3456250000  -5.246972e+001  1.059178e+002 
3459375000  -5.371457e+001  1.124253e+002 
3462500000  -5.265002e+001  1.154809e+002 
3465625000  -5.192189e+001  1.015090e+002 
3468750000  -5.215826e+001  1.028781e+002 
3471875000  -5.253223e+001  1.032483e+002 
3475000000  -5.179315e+001  1.011914e+002 
3478125000  -5.135066e+001  8.755792e+001 
3481250000  -5.240321e+001  8.971140e+001 
3484375000  -5.411526e+001  8.988058e+001 
3487500000  -5.239322e+001  8.739577e+001 
3490625000  -5.123652e+001  8.129187e+001 
3493750000  -5.278064e+001  7.747681e+001 
3496875000  -5.234303e+001  7.667414e+001 
3500000000  -5.229771e+001  7.241582e+001 
3503125000  -5.169915e+001  6.845805e+001 
3506250000  -4.982526e+001  6.833289e+001 
3509375000  -4.963005e+001  5.478996e+001 
3512500000  -5.015594e+001  3.965377e+001 
3515625000  -5.179155e+001  3.750556e+001 
3518750000  -5.221927e+001  3.899966e+001 
3521875000  -5.212185e+001  2.612720e+001 
3525000000  -5.423415e+001  2.654834e+001 
3528125000  -5.300746e+001  3.638398e+001 
3531250000  -5.224668e+001  2.912573e+001 
3534375000  -5.341219e+001  1.256632e+001 
3537500000  -5.416040e+001  3.434243e+000 
3540625000  -5.468433e+001  -3.854605e+000 
3543750000  -5.638177e+001  3.944473e+000 
3546875000  -5.548013e+001  1.325112e+001 
3550000000  -5.343830e+001  1.250807e+001 
3553125000  -5.326162e+001  -5.316616e+000 
3556250000  -5.656252e+001  -1.131553e+001 
3559375000  -5.615446e+001  -1.381081e+001 
3562500000  -5.667186e+001  -2.112446e+001 
3565625000  -5.689304e+001  -3.017892e+001 
3568750000  -5.709161e+001  -3.554454e+000 
3571875000  -5.902951e+001  -7.964333e+000 
3575000000  -5.749603e+001  -4.524412e+000 
3578125000  -5.908592e+001  -2.233517e+001 
3581250000  -5.908469e+001  -9.675441e+000 
3584375000  -5.786825e+001  -1.524341e+001 
3587500000  -5.857447e+001  -1.295291e+001 
3590625000  -5.924504e+001  -3.082026e+001 
3593750000  -5.890159e+001  -1.203786e+001 
3596875000  -6.049795e+001  -5.904420e+000 
3600000000  -5.687686e+001  -5.951244e+000 
3603125000  -5.800315e+001  -3.093796e+001 
3606250000  -5.872383e+001  -1.343918e+001 
3609375000  -5.802260e+001  -2.329823e+001 
3612500000  -5.649757e+001  -1.331146e+001 
3615625000  -5.816938e+001  -1.578831e+001 
3618750000  -5.847420e+001  -2.068876e+001 
3621875000  -5.627639e+001  -2.394591e+001 
3625000000  -5.535954e+001  -1.772698e+001 
3628125000  -5.667346e+001  -3.898375e+000 
3631250000  -5.646739e+001  -2.597653e+001 
3634375000  -5.726813e+001  -1.685181e+001 
3637500000  -5.525312e+001  -1.755215e+001 
3640625000  -5.321397e+001  -1.150979e+001 
3643750000  -5.290218e+001  -2.150874e+001 
3646875000  -5.201542e+001  -2.711573e+001 
3650000000  -5.233329e+001  -3.351799e+001 
3653125000  -5.118629e+001  -3.330023e+001 
3656250000  -5.198091e+001  -4.060470e+001 
3659375000  -5.146852e+001  -3.910859e+001 
3662500000  -5.047973e+001  -4.381057e+001 
3665625000  -4.947383e+001  -4.584999e+001 
3668750000  -4.829486e+001  -4.904584e+001 
3671875000  -4.800378e+001  -5.799972e+001 
3675000000  -4.727253e+001  -6.797113e+001 
3678125000  -4.714345e+001  -6.992979e+001 
3681250000  -4.656097e+001  -7.309001e+001 
3684375000  -4.679640e+001  -8.127245e+001 
3687500000  -4.663506e+001  -8.500497e+001 
3690625000  -4.664275e+001  -9.100362e+001 
3693750000  -4.666545e+001  -9.139192e+001 
3696875000  -4.609484e+001  -9.398737e+001 
3700000000  -4.544988e+001  -1.006261e+002 
3703125000  -4.559004e+001  -1.037012e+002 
3706250000  -4.585672e+001  -1.065324e+002 
3709375000  -4.497142e+001  -1.071558e+002 
3712500000  -4.334360e+001  -1.146302e+002 
3715625000  -4.211461e+001  -1.204962e+002 
3718750000  -4.170369e+001  -1.275441e+002 
3721875000  -4.151522e+001  -1.347249e+002 
3725000000  -4.185146e+001  -1.418177e+002 
3728125000  -4.140231e+001  -1.466407e+002 
3731250000  -4.067140e+001  -1.516422e+002 
3734375000  -4.007064e+001  -1.585398e+002 
3737500000  -4.109147e+001  -1.681908e+002 
3740625000  -4.099703e+001  -1.753444e+002 
3743750000  -4.049329e+001  1.788005e+002 
3746875000  -4.058718e+001  1.725826e+002 
3750000000  -4.110127e+001  1.677479e+002 
3753125000  -4.066962e+001  1.654054e+002 
3756250000  -4.086374e+001  1.623339e+002 
3759375000  -4.043189e+001  1.555623e+002 
3762500000  -3.999774e+001  1.496646e+002 
3765625000  -4.086280e+001  1.448265e+002 
3768750000  -4.050885e+001  1.456370e+002 
3771875000  -3.865172e+001  1.376173e+002 
3775000000  -3.851973e+001  1.255978e+002 
3778125000  -3.912104e+001  1.205744e+002 
3781250000  -3.895967e+001  1.171815e+002 
3784375000  -3.868316e+001  1.107626e+002 
3787500000  -3.847164e+001  1.047658e+002 
3790625000  -3.943863e+001  9.430898e+001 
3793750000  -3.923962e+001  9.253768e+001 
3796875000  -3.826067e+001  8.804607e+001 
3800000000  -3.654050e+001  8.293846e+001 
3803125000  -3.812574e+001  7.033405e+001 
3806250000  -3.915201e+001  6.551479e+001 
3809375000  -3.877676e+001  6.121124e+001 
3812500000  -3.846938e+001  5.241046e+001 
3815625000  -3.954124e+001  4.227705e+001 
3818750000  -4.052503e+001  4.274225e+001 
3821875000  -4.045663e+001  5.089611e+001 
3825000000  -3.861301e+001  5.180543e+001 
3828125000  -3.717833e+001  3.147196e+001 
3831250000  -3.818533e+001  1.710816e+001 
3834375000  -4.016027e+001  1.780211e+001 
3837500000  -4.107897e+001  1.971874e+001 
3840625000  -3.905820e+001  1.754690e+001 
3843750000  -3.843764e+001  1.265061e+000 
3846875000  -3.989145e+001  -4.731238e+000 
3850000000  -4.058777e+001  2.687210e+000 
3853125000  -4.014997e+001  9.230199e-001 
3856250000  -3.982152e+001  -5.835289e+000 
3859375000  -3.880659e+001  -1.254801e+001 
3862500000  -3.866361e+001  -2.250764e+001 
3865625000  -3.916288e+001  -2.722388e+001 
3868750000  -3.898577e+001  -2.781480e+001 
3871875000  -3.830106e+001  -3.515541e+001 
3875000000  -3.845787e+001  -4.493454e+001 
3878125000  -3.954406e+001  -4.984839e+001 
3881250000  -3.942975e+001  -4.769621e+001 
3884375000  -3.890568e+001  -5.582926e+001 
3887500000  -3.915610e+001  -6.034706e+001 
3890625000  -3.954554e+001  -6.643138e+001 
3893750000  -3.982807e+001  -7.026107e+001 
3896875000  -4.024600e+001  -7.063035e+001 
3900000000  -3.994336e+001  -7.511884e+001 
3903125000  -3.951389e+001  -7.925220e+001 
3906250000  -3.919349e+001  -8.415170e+001 
3909375000  -3.856313e+001  -9.160424e+001 
3912500000  -3.888998e+001  -1.008957e+002 
3915625000  -4.043082e+001  -1.017105e+002 
3918750000  -4.027816e+001  -1.023503e+002 
3921875000  -3.946696e+001  -1.056510e+002 
3925000000  -3.849580e+001  -1.114740e+002 
3928125000  -3.840295e+001  -1.209295e+002 
3931250000  -3.909283e+001  -1.282448e+002 
3934375000  -3.953649e+001  -1.283257e+002 
3937500000  -3.987424e+001  -1.327163e+002 
3940625000  -3.999981e+001  -1.338329e+002 
3943750000  -3.889090e+001  -1.363023e+002 
3946875000  -3.843098e+001  -1.460460e+002 
3950000000  -3.938377e+001  -1.529926e+002 
3953125000  -4.022739e+001  -1.541738e+002 
3956250000  -3.927471e+001  -1.541497e+002 
3959375000  -3.824041e+001  -1.611528e+002 
3962500000  -3.775601e+001  -1.681304e+002 
3965625000  -3.769725e+001  -1.771319e+002 
3968750000  -3.891447e+001  1.735823e+002 
3971875000  -3.868209e+001  1.706629e+002 
3975000000  -3.858724e+001  1.656573e+002 
3978125000  -3.871527e+001  1.602932e+002 
3981250000  -3.859626e+001  1.545354e+002 
3984375000  -3.912150e+001  1.462261e+002 
3987500000  -3.994000e+001  1.427855e+002 
3990625000  -3.992426e+001  1.423855e+002 
3993750000  -3.983617e+001  1.377684e+002 
3996875000  -4.044437e+001  1.321392e+002 
4000000000  -4.086426e+001  1.289697e+002 
4003125000  -4.126963e+001  1.276477e+002 
4006250000  -3.953633e+001  1.291409e+002 
4009375000  -3.866232e+001  1.134697e+002 
4012500000  -4.013401e+001  1.065576e+002 
4015625000  -4.171210e+001  1.046053e+002 
4018750000  -4.145710e+001  1.040201e+002 
4021875000  -4.104599e+001  1.024276e+002 
4025000000  -4.094495e+001  9.604461e+001 
4028125000  -4.043491e+001  9.094718e+001 
4031250000  -4.131218e+001  8.445292e+001 
4034375000  -4.165650e+001  8.370063e+001 
4037500000  -4.123178e+001  8.598467e+001 
4040625000  -4.084007e+001  8.063630e+001 
4043750000  -4.120455e+001  7.862900e+001 
4046875000  -4.102252e+001  7.444426e+001 
4050000000  -4.052664e+001  6.988554e+001 
4053125000  -4.124737e+001  6.499531e+001 
4056250000  -4.157681e+001  7.104446e+001 
4059375000  -4.010134e+001  6.741880e+001 
4062500000  -3.872758e+001  6.132453e+001 
4065625000  -3.889021e+001  5.325647e+001 
4068750000  -3.837412e+001  4.712230e+001 
4071875000  -3.813213e+001  3.695139e+001 
4075000000  -3.848514e+001  3.192926e+001 
4078125000  -3.901272e+001  2.729935e+001 
4081250000  -3.841520e+001  2.146978e+001 
4084375000  -3.828263e+001  1.325191e+001 
4087500000  -3.879990e+001  5.100849e+000 
4090625000  -3.950811e+001  2.475391e+000 
4093750000  -3.877752e+001  8.296816e-001 
4096875000  -3.861824e+001  -8.079862e+000 
4100000000  -3.980793e+001  -1.615138e+001 
4103125000  -4.069114e+001  -1.209702e+001 
4106250000  -4.009850e+001  -1.038317e+001 
4109375000  -3.924210e+001  -1.498286e+001 
4112500000  -3.879208e+001  -2.268785e+001 
4115625000  -3.939122e+001  -3.068799e+001 
4118750000  -3.904668e+001  -3.395402e+001 
4121875000  -3.908983e+001  -4.065496e+001 
4125000000  -3.989439e+001  -4.818774e+001 
4128125000  -4.109871e+001  -4.720676e+001 
4131250000  -3.977579e+001  -4.095484e+001 
4134375000  -3.771670e+001  -4.929023e+001 
4137500000  -3.820515e+001  -7.272546e+001 
4140625000  -4.028716e+001  -7.810670e+001 
4143750000  -4.145732e+001  -7.065978e+001 
4146875000  -4.069581e+001  -6.639531e+001 
4150000000  -4.011043e+001  -7.526871e+001 
4153125000  -4.016689e+001  -8.327060e+001 
4156250000  -4.134758e+001  -8.814203e+001 
4159375000  -4.115110e+001  -8.291656e+001 
4162500000  -4.042258e+001  -8.103224e+001 
4165625000  -3.898038e+001  -8.812235e+001 
4168750000  -3.872417e+001  -9.621450e+001 
4171875000  -3.862958e+001  -1.074318e+002 
4175000000  -3.924660e+001  -1.129687e+002 
4178125000  -3.991808e+001  -1.153822e+002 
4181250000  -3.959530e+001  -1.176591e+002 
4184375000  -3.968236e+001  -1.240819e+002 
4187500000  -3.971692e+001  -1.278567e+002 
4190625000  -3.950859e+001  -1.342958e+002 
4193750000  -4.073966e+001  -1.408857e+002 
4196875000  -4.126632e+001  -1.435719e+002 
4200000000  -4.259297e+001  -1.376558e+002 
4203125000  -4.152797e+001  -1.251865e+002 
4206250000  -3.783312e+001  -1.299520e+002 
4209375000  -3.719870e+001  -1.557551e+002 
4212500000  -3.969426e+001  -1.630309e+002 
4215625000  -4.034872e+001  -1.566522e+002 
4218750000  -3.869612e+001  -1.537529e+002 
4221875000  -3.660453e+001  -1.652727e+002 
4225000000  -3.801832e+001  -1.746948e+002 
4228125000  -3.806417e+001  -1.748584e+002 
4231250000  -3.640072e+001  1.775124e+002 
4234375000  -3.635636e+001  1.665295e+002 
4237500000  -3.643891e+001  1.614592e+002 
4240625000  -3.652259e+001  1.511640e+002 
4243750000  -3.747234e+001  1.420946e+002 
4246875000  -3.839512e+001  1.423856e+002 
4250000000  -3.851765e+001  1.407954e+002 
4253125000  -3.815418e+001  1.391502e+002 
4256250000  -3.816885e+001  1.335258e+002 
4259375000  -3.783848e+001  1.276634e+002 
4262500000  -3.793085e+001  1.230421e+002 
4265625000  -3.817374e+001  1.204113e+002 
4268750000  -3.745672e+001  1.144003e+002 
4271875000  -3.689175e+001  1.058162e+002 
4275000000  -3.651123e+001  9.742046e+001 
4278125000  -3.789612e+001  8.474157e+001 
4281250000  -3.903005e+001  8.302946e+001 
4284375000  -3.874130e+001  7.978042e+001 
4287500000  -4.060485e+001  7.555317e+001 
4290625000  -4.109501e+001  8.432012e+001 
4293750000  -3.897870e+001  8.634403e+001 
4296875000  -3.782891e+001  7.164760e+001 
4300000000  -3.901793e+001  6.351524e+001 
4303125000  -4.005476e+001  6.533138e+001 
4306250000  -3.913641e+001  6.994109e+001 
4309375000  -3.795619e+001  6.331671e+001 
4312500000  -3.786708e+001  5.241366e+001 
4315625000  -3.838891e+001  4.517027e+001 
4318750000  -3.885233e+001  4.012898e+001 
4321875000  -3.886389e+001  4.089776e+001 
4325000000  -3.817031e+001  3.937062e+001 
4328125000  -3.759702e+001  2.988342e+001 
4331250000  -3.783884e+001  1.869126e+001 
4334375000  -3.853367e+001  1.462787e+001 
4337500000  -3.946564e+001  1.083767e+001 
4340625000  -3.971267e+001  1.840592e+001 
4343750000  -3.873742e+001  1.343103e+001 
4346875000  -3.850374e+001  5.040736e+000 
4350000000  -3.881935e+001  -4.273672e+000 
4353125000  -3.902669e+001  -1.074664e+001 
4356250000  -4.088425e+001  -1.004913e+001 
4359375000  -4.062285e+001  5.961806e+000 
4362500000  -3.677269e+001  -2.100443e+000 
4365625000  -3.614361e+001  -1.776490e+001 
4368750000  -3.736028e+001  -2.890008e+001 
4371875000  -3.846654e+001  -2.975879e+001 
4375000000  -3.788141e+001  -3.128955e+001 
4378125000  -3.714472e+001  -4.021271e+001 
4381250000  -3.739104e+001  -4.614242e+001 
4384375000  -3.743284e+001  -5.335781e+001 
4387500000  -3.826436e+001  -5.882776e+001 
4390625000  -3.884002e+001  -6.130128e+001 
4393750000  -3.821733e+001  -6.025188e+001 
4396875000  -3.766956e+001  -6.507523e+001 
4400000000  -3.704096e+001  -7.448699e+001 
4403125000  -3.783847e+001  -8.347890e+001 
4406250000  -3.877436e+001  -8.756358e+001 
4409375000  -3.891736e+001  -9.113509e+001 
4412500000  -3.974659e+001  -9.391078e+001 
4415625000  -3.969645e+001  -9.144489e+001 
