!Agilent Technologies,E8363B,MY43030201,A.06.04.32
!Agilent E8363B: A.06.04.32
!Date: Tuesday, November 11, 2014 21:32:01
!Correction: S21(Response(S21)) 
!S1P File: Measurement: S21:
# Hz S  dB   R 50
3000000000  -4.061254e+001  7.811670e+001 
3003125000  -4.211638e+001  7.075163e+001 
3006250000  -4.209731e+001  7.100758e+001 
3009375000  -4.258319e+001  7.497645e+001 
3012500000  -4.146075e+001  7.000385e+001 
3015625000  -4.142751e+001  6.319582e+001 
3018750000  -4.175094e+001  6.526353e+001 
3021875000  -3.999289e+001  6.498666e+001 
3025000000  -3.882222e+001  6.101061e+001 
3028125000  -3.791843e+001  5.026306e+001 
3031250000  -3.705022e+001  3.850655e+001 
3034375000  -3.677511e+001  2.482512e+001 
3037500000  -3.756558e+001  1.335218e+001 
3040625000  -3.870699e+001  8.269820e+000 
3043750000  -3.913046e+001  2.036301e+000 
3046875000  -3.976751e+001  -2.623355e+000 
3050000000  -4.098949e+001  -8.523635e+000 
3053125000  -4.056791e+001  -3.108363e+000 
3056250000  -4.028242e+001  -2.585748e-001 
3059375000  -3.962528e+001  -3.485543e+000 
3062500000  -3.809663e+001  -7.268643e+000 
3065625000  -3.781255e+001  -1.697000e+001 
3068750000  -3.747305e+001  -2.460881e+001 
3071875000  -3.766263e+001  -2.716940e+001 
3075000000  -3.701918e+001  -3.396265e+001 
3078125000  -3.703463e+001  -4.036031e+001 
3081250000  -3.712748e+001  -4.576469e+001 
3084375000  -3.629961e+001  -5.064732e+001 
3087500000  -3.643442e+001  -5.782922e+001 
3090625000  -3.586155e+001  -6.931013e+001 
3093750000  -3.691600e+001  -7.786208e+001 
3096875000  -3.732297e+001  -8.305257e+001 
3100000000  -3.713789e+001  -8.596304e+001 
3103125000  -3.755768e+001  -8.977735e+001 
3106250000  -3.714989e+001  -9.529319e+001 
3109375000  -3.731200e+001  -9.938538e+001 
3112500000  -3.717133e+001  -1.045277e+002 
3115625000  -3.709737e+001  -1.081373e+002 
3118750000  -3.724432e+001  -1.117751e+002 
3121875000  -3.651025e+001  -1.231320e+002 
3125000000  -3.841761e+001  -1.264826e+002 
3128125000  -3.851120e+001  -1.183692e+002 
3131250000  -3.601794e+001  -1.249720e+002 
3134375000  -3.532077e+001  -1.423205e+002 
3137500000  -3.604286e+001  -1.545600e+002 
3140625000  -3.733725e+001  -1.571071e+002 
3143750000  -3.835162e+001  -1.592960e+002 
3146875000  -3.765923e+001  -1.579504e+002 
3150000000  -3.700182e+001  -1.615865e+002 
3153125000  -3.708265e+001  -1.700997e+002 
3156250000  -3.792582e+001  -1.658800e+002 
3159375000  -3.571184e+001  -1.670360e+002 
3162500000  -3.422713e+001  1.775208e+002 
3165625000  -3.543916e+001  1.641057e+002 
3168750000  -3.541467e+001  1.627175e+002 
3171875000  -3.485350e+001  1.551279e+002 
3175000000  -3.544853e+001  1.468947e+002 
3178125000  -3.503336e+001  1.452632e+002 
3181250000  -3.430030e+001  1.364913e+002 
3184375000  -3.435392e+001  1.254919e+002 
3187500000  -3.545023e+001  1.107892e+002 
3190625000  -3.719366e+001  1.036801e+002 
3193750000  -3.745144e+001  1.097483e+002 
3196875000  -3.751129e+001  1.101934e+002 
3200000000  -3.626864e+001  1.056951e+002 
3203125000  -3.588953e+001  9.766264e+001 
3206250000  -3.604482e+001  8.995168e+001 
3209375000  -3.564630e+001  8.252022e+001 
3212500000  -3.626885e+001  7.553819e+001 
3215625000  -3.611861e+001  7.226902e+001 
3218750000  -3.689504e+001  6.120252e+001 
3221875000  -3.728960e+001  5.470223e+001 
3225000000  -3.716923e+001  5.128245e+001 
3228125000  -3.768725e+001  4.395842e+001 
3231250000  -3.833277e+001  4.134004e+001 
3234375000  -3.794240e+001  3.831988e+001 
3237500000  -3.807497e+001  3.408764e+001 
3240625000  -3.760020e+001  2.943850e+001 
3243750000  -3.767779e+001  1.908051e+001 
3246875000  -3.844607e+001  1.088342e+001 
3250000000  -3.873237e+001  8.628922e+000 
3253125000  -3.890044e+001  4.662883e+000 
3256250000  -3.852414e+001  -4.064199e+000 
3259375000  -3.914888e+001  -1.422105e+001 
3262500000  -4.055783e+001  -1.792442e+001 
3265625000  -4.114103e+001  -1.537988e+001 
3268750000  -4.105991e+001  -1.379033e+001 
3271875000  -4.051094e+001  -1.827550e+001 
3275000000  -4.006239e+001  -2.590351e+001 
3278125000  -4.082883e+001  -3.091467e+001 
3281250000  -4.130952e+001  -3.308059e+001 
3284375000  -4.043996e+001  -3.901178e+001 
3287500000  -4.074437e+001  -4.365060e+001 
3290625000  -4.117095e+001  -4.977999e+001 
3293750000  -4.138796e+001  -5.510330e+001 
3296875000  -4.237455e+001  -5.826828e+001 
3300000000  -4.181589e+001  -5.666579e+001 
3303125000  -4.114422e+001  -6.423919e+001 
3306250000  -4.101718e+001  -7.085481e+001 
3309375000  -4.054559e+001  -7.809034e+001 
3312500000  -4.075543e+001  -9.035576e+001 
3315625000  -4.223335e+001  -9.685004e+001 
3318750000  -4.336518e+001  -1.020371e+002 
3321875000  -4.500206e+001  -9.630795e+001 
3325000000  -4.450640e+001  -9.159231e+001 
3328125000  -4.362207e+001  -9.070961e+001 
3331250000  -4.217824e+001  -8.885177e+001 
3334375000  -4.002693e+001  -1.042707e+002 
3337500000  -4.025647e+001  -1.242349e+002 
3340625000  -4.226016e+001  -1.361556e+002 
3343750000  -4.424796e+001  -1.312407e+002 
3346875000  -4.342891e+001  -1.359740e+002 
3350000000  -4.320179e+001  -1.379818e+002 
3353125000  -4.275354e+001  -1.458533e+002 
3356250000  -4.257327e+001  -1.519731e+002 
3359375000  -4.362432e+001  -1.636240e+002 
3362500000  -4.444526e+001  -1.706642e+002 
3365625000  -4.461189e+001  -1.716462e+002 
3368750000  -4.542772e+001  -1.771668e+002 
3371875000  -4.612391e+001  1.798293e+002 
3375000000  -4.763026e+001  1.748145e+002 
3378125000  -4.794469e+001  1.740847e+002 
3381250000  -4.987880e+001  -1.761719e+002 
3384375000  -4.604838e+001  -1.594817e+002 
3387500000  -4.397936e+001  1.770264e+002 
3390625000  -4.594149e+001  1.606239e+002 
3393750000  -4.720387e+001  1.602742e+002 
3396875000  -4.622784e+001  1.586810e+002 
3400000000  -4.642703e+001  1.446420e+002 
3403125000  -4.669244e+001  1.400070e+002 
3406250000  -4.751919e+001  1.369718e+002 
3409375000  -4.771713e+001  1.276013e+002 
3412500000  -4.876426e+001  1.239911e+002 
3415625000  -5.013457e+001  1.197162e+002 
3418750000  -5.054640e+001  1.265249e+002 
3421875000  -5.212269e+001  1.268695e+002 
3425000000  -5.025190e+001  1.244340e+002 
3428125000  -5.039228e+001  1.234692e+002 
3431250000  -5.013731e+001  1.126858e+002 
3434375000  -5.115896e+001  1.122373e+002 
3437500000  -5.220749e+001  1.108974e+002 
3440625000  -5.199211e+001  1.131700e+002 
3443750000  -5.127678e+001  1.145625e+002 
3446875000  -5.062254e+001  1.042777e+002 
3450000000  -5.016770e+001  9.853159e+001 
3453125000  -5.064553e+001  8.903093e+001 
3456250000  -5.211129e+001  8.465472e+001 
3459375000  -5.325353e+001  8.783928e+001 
3462500000  -5.249308e+001  9.443681e+001 
3465625000  -5.192751e+001  8.232977e+001 
3468750000  -5.187834e+001  8.557298e+001 
3471875000  -5.249673e+001  8.306389e+001 
3475000000  -5.128621e+001  8.245881e+001 
3478125000  -5.105995e+001  6.497621e+001 
3481250000  -5.291785e+001  7.180101e+001 
3484375000  -5.357246e+001  7.539307e+001 
3487500000  -5.151791e+001  6.845582e+001 
3490625000  -5.106973e+001  6.147854e+001 
3493750000  -5.148245e+001  5.127377e+001 
3496875000  -5.159962e+001  5.522912e+001 
3500000000  -5.282544e+001  4.961827e+001 
3503125000  -5.085687e+001  5.398786e+001 
3506250000  -4.966178e+001  4.528787e+001 
3509375000  -4.984856e+001  3.130877e+001 
3512500000  -5.078991e+001  1.617730e+001 
3515625000  -5.141217e+001  1.734628e+001 
3518750000  -5.192565e+001  1.755082e+001 
3521875000  -5.171000e+001  1.200093e+001 
3525000000  -5.406544e+001  -2.010090e+000 
3528125000  -5.226318e+001  1.040335e+001 
3531250000  -5.215297e+001  2.468435e+000 
3534375000  -5.325686e+001  -1.135847e+001 
3537500000  -5.394284e+001  -1.057405e+001 
3540625000  -5.521961e+001  -1.890313e+001 
3543750000  -5.564361e+001  -1.180686e+001 
3546875000  -5.543793e+001  5.271112e+000 
3550000000  -5.391536e+001  -1.207792e+001 
3553125000  -5.441870e+001  -2.836761e+001 
3556250000  -5.504297e+001  -2.673137e+001 
3559375000  -5.584570e+001  -2.714797e+001 
3562500000  -5.719784e+001  -3.681507e+001 
3565625000  -5.651160e+001  -4.119547e+001 
3568750000  -5.813541e+001  -2.933072e+001 
3571875000  -5.949402e+001  -3.529277e+001 
3575000000  -5.797742e+001  -1.826936e+001 
3578125000  -5.933487e+001  -3.847068e+001 
3581250000  -5.790083e+001  -3.177127e+001 
3584375000  -5.667854e+001  -2.913966e+001 
3587500000  -5.926267e+001  -3.047221e+001 
3590625000  -5.852873e+001  -6.016309e+001 
3593750000  -5.954094e+001  -3.867749e+001 
3596875000  -6.174775e+001  -1.907387e+001 
3600000000  -5.783776e+001  -2.472531e+001 
3603125000  -5.813287e+001  -5.128090e+001 
3606250000  -5.778455e+001  -4.742405e+001 
3609375000  -5.742522e+001  -3.641797e+001 
3612500000  -5.859311e+001  -3.634748e+001 
3615625000  -5.926371e+001  -4.646360e+001 
3618750000  -5.850644e+001  -4.128302e+001 
3621875000  -5.668351e+001  -3.931070e+001 
3625000000  -5.837755e+001  -4.462153e+001 
3628125000  -5.682433e+001  -3.259746e+001 
3631250000  -5.590267e+001  -3.676193e+001 
3634375000  -5.648671e+001  -4.224729e+001 
3637500000  -5.575371e+001  -3.187829e+001 
3640625000  -5.370903e+001  -3.656691e+001 
3643750000  -5.365885e+001  -3.958438e+001 
3646875000  -5.208492e+001  -5.308543e+001 
3650000000  -5.279567e+001  -5.226552e+001 
3653125000  -5.227097e+001  -5.382668e+001 
3656250000  -5.126869e+001  -6.001223e+001 
3659375000  -5.237417e+001  -5.692661e+001 
3662500000  -5.013849e+001  -6.446484e+001 
3665625000  -4.982481e+001  -6.806876e+001 
3668750000  -4.831598e+001  -6.736225e+001 
3671875000  -4.754142e+001  -7.617820e+001 
3675000000  -4.750590e+001  -8.456158e+001 
3678125000  -4.781916e+001  -8.866640e+001 
3681250000  -4.656946e+001  -9.529868e+001 
3684375000  -4.689212e+001  -9.947797e+001 
3687500000  -4.642744e+001  -1.061918e+002 
3690625000  -4.661754e+001  -1.101956e+002 
3693750000  -4.668032e+001  -1.127932e+002 
3696875000  -4.640376e+001  -1.134847e+002 
3700000000  -4.500578e+001  -1.172628e+002 
3703125000  -4.516624e+001  -1.248548e+002 
3706250000  -4.617698e+001  -1.269962e+002 
3709375000  -4.465248e+001  -1.280330e+002 
3712500000  -4.362143e+001  -1.315144e+002 
3715625000  -4.201356e+001  -1.412290e+002 
3718750000  -4.168762e+001  -1.451109e+002 
3721875000  -4.150758e+001  -1.557850e+002 
3725000000  -4.163127e+001  -1.642420e+002 
3728125000  -4.154713e+001  -1.680575e+002 
3731250000  -4.055912e+001  -1.735542e+002 
3734375000  -4.017735e+001  -1.797951e+002 
3737500000  -4.090998e+001  1.707672e+002 
3740625000  -4.075315e+001  1.648619e+002 
3743750000  -4.056020e+001  1.597421e+002 
3746875000  -4.061351e+001  1.498087e+002 
3750000000  -4.095125e+001  1.467408e+002 
3753125000  -4.034574e+001  1.450664e+002 
3756250000  -4.062564e+001  1.415644e+002 
3759375000  -4.050246e+001  1.339143e+002 
3762500000  -4.017646e+001  1.294755e+002 
3765625000  -4.085234e+001  1.268116e+002 
3768750000  -4.003703e+001  1.246367e+002 
3771875000  -3.858299e+001  1.150130e+002 
3775000000  -3.841188e+001  1.065519e+002 
3778125000  -3.896366e+001  9.941404e+001 
3781250000  -3.896884e+001  9.607861e+001 
3784375000  -3.875306e+001  8.917487e+001 
3787500000  -3.862125e+001  8.366780e+001 
3790625000  -3.898883e+001  7.531580e+001 
3793750000  -3.905679e+001  7.153924e+001 
3796875000  -3.833083e+001  6.668119e+001 
3800000000  -3.656637e+001  6.258503e+001 
3803125000  -3.810633e+001  4.880165e+001 
3806250000  -3.892822e+001  4.505429e+001 
3809375000  -3.846638e+001  3.963964e+001 
3812500000  -3.829197e+001  3.245039e+001 
3815625000  -3.952642e+001  2.118972e+001 
3818750000  -4.079941e+001  2.275965e+001 
3821875000  -4.054336e+001  3.266650e+001 
3825000000  -3.839719e+001  2.980825e+001 
3828125000  -3.665224e+001  1.011986e+001 
3831250000  -3.807532e+001  -3.670771e+000 
3834375000  -4.035277e+001  -4.868989e+000 
3837500000  -4.082109e+001  -3.566563e-001 
3840625000  -3.912198e+001  -3.118605e+000 
3843750000  -3.828915e+001  -1.862372e+001 
3846875000  -3.989498e+001  -2.502898e+001 
3850000000  -4.060267e+001  -1.683045e+001 
3853125000  -3.989193e+001  -1.575152e+001 
3856250000  -3.927330e+001  -2.637729e+001 
3859375000  -3.851563e+001  -3.440577e+001 
3862500000  -3.878990e+001  -4.492957e+001 
3865625000  -3.889143e+001  -4.955333e+001 
3868750000  -3.876187e+001  -4.996538e+001 
3871875000  -3.786263e+001  -5.809599e+001 
3875000000  -3.870119e+001  -6.865963e+001 
3878125000  -3.945564e+001  -6.908036e+001 
3881250000  -3.945142e+001  -7.044488e+001 
3884375000  -3.881550e+001  -7.697552e+001 
3887500000  -3.936574e+001  -8.338026e+001 
3890625000  -3.947084e+001  -8.608030e+001 
3893750000  -3.980789e+001  -9.105684e+001 
3896875000  -4.001340e+001  -9.217651e+001 
3900000000  -4.000968e+001  -9.723624e+001 
3903125000  -3.944718e+001  -1.007742e+002 
3906250000  -3.876259e+001  -1.059403e+002 
3909375000  -3.801162e+001  -1.146470e+002 
3912500000  -3.909421e+001  -1.224418e+002 
3915625000  -4.027127e+001  -1.212377e+002 
3918750000  -4.000850e+001  -1.233485e+002 
3921875000  -3.965319e+001  -1.283931e+002 
3925000000  -3.856071e+001  -1.341556e+002 
3928125000  -3.830154e+001  -1.427998e+002 
3931250000  -3.896558e+001  -1.498647e+002 
3934375000  -3.974667e+001  -1.513130e+002 
3937500000  -4.011977e+001  -1.529161e+002 
3940625000  -3.985212e+001  -1.554356e+002 
3943750000  -3.891557e+001  -1.596182e+002 
3946875000  -3.853758e+001  -1.684561e+002 
3950000000  -3.922258e+001  -1.756027e+002 
3953125000  -4.003505e+001  -1.727451e+002 
3956250000  -3.877608e+001  -1.754620e+002 
3959375000  -3.822270e+001  1.771397e+002 
3962500000  -3.784344e+001  1.696332e+002 
3965625000  -3.788118e+001  1.592440e+002 
3968750000  -3.887715e+001  1.516840e+002 
3971875000  -3.893036e+001  1.481054e+002 
3975000000  -3.832068e+001  1.435905e+002 
3978125000  -3.846974e+001  1.393725e+002 
3981250000  -3.872528e+001  1.317355e+002 
3984375000  -3.910285e+001  1.253567e+002 
3987500000  -3.980566e+001  1.225711e+002 
3990625000  -3.990895e+001  1.205751e+002 
3993750000  -3.992095e+001  1.161869e+002 
3996875000  -3.986084e+001  1.092227e+002 
4000000000  -4.074828e+001  1.058399e+002 
4003125000  -4.094250e+001  1.066524e+002 
4006250000  -3.924726e+001  1.056508e+002 
4009375000  -3.860828e+001  9.109122e+001 
4012500000  -3.993554e+001  8.194345e+001 
4015625000  -4.131825e+001  8.105180e+001 
4018750000  -4.137495e+001  8.307293e+001 
4021875000  -4.059756e+001  7.948898e+001 
4025000000  -4.063749e+001  7.293149e+001 
4028125000  -4.037864e+001  6.794042e+001 
4031250000  -4.131042e+001  6.297457e+001 
4034375000  -4.169923e+001  6.449160e+001 
4037500000  -4.132651e+001  6.298725e+001 
4040625000  -4.080650e+001  5.915032e+001 
4043750000  -4.110392e+001  5.700853e+001 
4046875000  -4.084482e+001  5.010183e+001 
4050000000  -4.030711e+001  4.633257e+001 
4053125000  -4.139258e+001  4.420871e+001 
4056250000  -4.149229e+001  4.918908e+001 
4059375000  -3.938361e+001  4.607683e+001 
4062500000  -3.861271e+001  3.746796e+001 
4065625000  -3.900606e+001  3.209708e+001 
4068750000  -3.831479e+001  2.457681e+001 
4071875000  -3.791442e+001  1.514997e+001 
4075000000  -3.839530e+001  8.915386e+000 
4078125000  -3.884105e+001  3.681304e+000 
4081250000  -3.831583e+001  1.076748e-001 
4084375000  -3.815974e+001  -9.724085e+000 
4087500000  -3.870547e+001  -1.694228e+001 
4090625000  -3.905687e+001  -1.848063e+001 
4093750000  -3.873421e+001  -2.039265e+001 
4096875000  -3.867880e+001  -3.244153e+001 
4100000000  -3.955306e+001  -3.786759e+001 
4103125000  -4.051545e+001  -3.643271e+001 
4106250000  -3.992876e+001  -3.333444e+001 
4109375000  -3.913666e+001  -3.553458e+001 
4112500000  -3.877104e+001  -4.621445e+001 
4115625000  -3.913800e+001  -5.345245e+001 
4118750000  -3.911840e+001  -5.619835e+001 
4121875000  -3.883805e+001  -6.328534e+001 
4125000000  -3.976171e+001  -7.139650e+001 
4128125000  -4.095186e+001  -6.835291e+001 
4131250000  -3.995084e+001  -6.317423e+001 
4134375000  -3.775512e+001  -7.263898e+001 
4137500000  -3.814172e+001  -9.340491e+001 
4140625000  -4.033739e+001  -9.907548e+001 
4143750000  -4.156737e+001  -9.277959e+001 
4146875000  -4.076289e+001  -9.154687e+001 
4150000000  -3.962327e+001  -9.867370e+001 
4153125000  -4.020574e+001  -1.061780e+002 
4156250000  -4.093890e+001  -1.099016e+002 
4159375000  -4.094923e+001  -1.041070e+002 
4162500000  -3.989492e+001  -1.047905e+002 
4165625000  -3.904107e+001  -1.096049e+002 
4168750000  -3.853324e+001  -1.216713e+002 
4171875000  -3.832757e+001  -1.295443e+002 
4175000000  -3.937219e+001  -1.374730e+002 
4178125000  -3.985984e+001  -1.372619e+002 
4181250000  -3.923095e+001  -1.416569e+002 
4184375000  -3.962357e+001  -1.481264e+002 
4187500000  -3.931152e+001  -1.499408e+002 
4190625000  -3.940760e+001  -1.583828e+002 
4193750000  -4.068090e+001  -1.631450e+002 
4196875000  -4.169172e+001  -1.644688e+002 
4200000000  -4.254940e+001  -1.582351e+002 
4203125000  -4.090294e+001  -1.460477e+002 
4206250000  -3.740714e+001  -1.554706e+002 
4209375000  -3.742405e+001  -1.791835e+002 
4212500000  -3.990043e+001  1.719713e+002 
4215625000  -4.014638e+001  -1.783809e+002 
4218750000  -3.834254e+001  -1.784349e+002 
4221875000  -3.669455e+001  1.736717e+002 
4225000000  -3.775165e+001  1.611428e+002 
4228125000  -3.770062e+001  1.617350e+002 
4231250000  -3.620045e+001  1.536941e+002 
4234375000  -3.638237e+001  1.435882e+002 
4237500000  -3.611792e+001  1.374549e+002 
4240625000  -3.642307e+001  1.266252e+002 
4243750000  -3.745981e+001  1.185524e+002 
4246875000  -3.862097e+001  1.187360e+002 
4250000000  -3.831739e+001  1.183929e+002 
4253125000  -3.802441e+001  1.156379e+002 
4256250000  -3.801313e+001  1.094733e+002 
4259375000  -3.788618e+001  1.046641e+002 
4262500000  -3.797998e+001  9.927193e+001 
4265625000  -3.794433e+001  9.648620e+001 
4268750000  -3.681468e+001  9.114527e+001 
4271875000  -3.698075e+001  8.148278e+001 
4275000000  -3.651574e+001  7.297575e+001 
4278125000  -3.766363e+001  6.029235e+001 
4281250000  -3.880278e+001  5.874427e+001 
4284375000  -3.844027e+001  5.706037e+001 
4287500000  -4.026461e+001  5.384953e+001 
4290625000  -4.079498e+001  6.414517e+001 
4293750000  -3.885112e+001  6.357341e+001 
4296875000  -3.797551e+001  4.960663e+001 
4300000000  -3.914050e+001  3.803216e+001 
4303125000  -3.986275e+001  4.396637e+001 
4306250000  -3.854150e+001  4.558189e+001 
4309375000  -3.761859e+001  4.016288e+001 
4312500000  -3.768959e+001  2.978322e+001 
4315625000  -3.795652e+001  2.121737e+001 
4318750000  -3.866622e+001  1.680630e+001 
4321875000  -3.866106e+001  1.700122e+001 
4325000000  -3.804570e+001  1.625960e+001 
4328125000  -3.735314e+001  6.261954e+000 
4331250000  -3.756755e+001  -3.684331e+000 
4334375000  -3.848630e+001  -1.019028e+001 
4337500000  -3.953606e+001  -1.108283e+001 
4340625000  -3.988282e+001  -6.258557e+000 
4343750000  -3.865049e+001  -1.061006e+001 
4346875000  -3.831010e+001  -2.064362e+001 
4350000000  -3.836548e+001  -2.695445e+001 
4353125000  -3.911115e+001  -3.431061e+001 
4356250000  -4.113607e+001  -3.076141e+001 
4359375000  -4.005145e+001  -1.642798e+001 
4362500000  -3.674226e+001  -2.376299e+001 
4365625000  -3.585648e+001  -4.305651e+001 
4368750000  -3.721407e+001  -5.144720e+001 
4371875000  -3.782238e+001  -5.263620e+001 
4375000000  -3.730465e+001  -5.651234e+001 
4378125000  -3.712156e+001  -6.386900e+001 
4381250000  -3.715940e+001  -7.264711e+001 
4384375000  -3.733546e+001  -7.973653e+001 
4387500000  -3.809504e+001  -8.322529e+001 
4390625000  -3.855145e+001  -8.391729e+001 
4393750000  -3.797822e+001  -8.385747e+001 
4396875000  -3.736882e+001  -8.766020e+001 
4400000000  -3.703271e+001  -9.950795e+001 
4403125000  -3.789036e+001  -1.086321e+002 
4406250000  -3.841761e+001  -1.132110e+002 
4409375000  -3.874403e+001  -1.162669e+002 
4412500000  -3.978967e+001  -1.174140e+002 
4415625000  -3.945146e+001  -1.153358e+002 
