!Agilent Technologies,E8363B,MY43030201,A.06.04.32
!Agilent E8363B: A.06.04.32
!Date: Tuesday, November 11, 2014 21:27:05
!Correction: S21(Response(S21)) 
!S1P File: Measurement: S21:
# Hz S  dB   R 50
3000000000  -4.061052e+001  9.405530e+001 
3003125000  -4.216205e+001  8.653806e+001 
3006250000  -4.206428e+001  8.501975e+001 
3009375000  -4.263566e+001  8.972739e+001 
3012500000  -4.136864e+001  8.576546e+001 
3015625000  -4.133910e+001  7.785851e+001 
3018750000  -4.192831e+001  7.935184e+001 
3021875000  -4.031117e+001  7.954247e+001 
3025000000  -3.887090e+001  7.492300e+001 
3028125000  -3.811032e+001  6.580143e+001 
3031250000  -3.708694e+001  5.539262e+001 
3034375000  -3.669284e+001  4.019572e+001 
3037500000  -3.754320e+001  2.890948e+001 
3040625000  -3.865493e+001  2.401772e+001 
3043750000  -3.921125e+001  1.747020e+001 
3046875000  -3.954554e+001  1.215946e+001 
3050000000  -4.086975e+001  6.401133e+000 
3053125000  -4.051724e+001  1.087363e+001 
3056250000  -4.039169e+001  1.366008e+001 
3059375000  -3.981262e+001  1.156640e+001 
3062500000  -3.820215e+001  7.629927e+000 
3065625000  -3.811514e+001  -1.396477e+000 
3068750000  -3.758992e+001  -9.580838e+000 
3071875000  -3.768870e+001  -1.233011e+001 
3075000000  -3.721015e+001  -1.830097e+001 
3078125000  -3.700326e+001  -2.417104e+001 
3081250000  -3.741471e+001  -3.040760e+001 
3084375000  -3.639492e+001  -3.553230e+001 
3087500000  -3.641971e+001  -4.168195e+001 
3090625000  -3.597238e+001  -5.438927e+001 
3093750000  -3.672068e+001  -6.140696e+001 
3096875000  -3.732335e+001  -6.795377e+001 
3100000000  -3.731876e+001  -7.097108e+001 
3103125000  -3.769338e+001  -7.391151e+001 
3106250000  -3.728291e+001  -7.878549e+001 
3109375000  -3.732414e+001  -8.324539e+001 
3112500000  -3.725296e+001  -8.885912e+001 
3115625000  -3.720446e+001  -9.324040e+001 
3118750000  -3.733565e+001  -9.551946e+001 
3121875000  -3.659272e+001  -1.070284e+002 
3125000000  -3.852355e+001  -1.108117e+002 
3128125000  -3.874214e+001  -1.039352e+002 
3131250000  -3.620967e+001  -1.080136e+002 
3134375000  -3.516555e+001  -1.255683e+002 
3137500000  -3.613322e+001  -1.391830e+002 
3140625000  -3.732260e+001  -1.424254e+002 
3143750000  -3.837121e+001  -1.431210e+002 
3146875000  -3.780739e+001  -1.425923e+002 
3150000000  -3.694778e+001  -1.449953e+002 
3153125000  -3.720569e+001  -1.542830e+002 
3156250000  -3.807574e+001  -1.499204e+002 
3159375000  -3.580269e+001  -1.511301e+002 
3162500000  -3.437954e+001  -1.666325e+002 
3165625000  -3.547008e+001  -1.795657e+002 
3168750000  -3.547497e+001  -1.798700e+002 
3171875000  -3.489005e+001  1.726997e+002 
3175000000  -3.549218e+001  1.628044e+002 
3178125000  -3.514375e+001  1.621195e+002 
3181250000  -3.442334e+001  1.539296e+002 
3184375000  -3.411596e+001  1.420420e+002 
3187500000  -3.515378e+001  1.272708e+002 
3190625000  -3.730934e+001  1.204204e+002 
3193750000  -3.765634e+001  1.247296e+002 
3196875000  -3.758826e+001  1.270587e+002 
3200000000  -3.641094e+001  1.226284e+002 
3203125000  -3.590945e+001  1.140371e+002 
3206250000  -3.618213e+001  1.058512e+002 
3209375000  -3.574104e+001  9.857030e+001 
3212500000  -3.619624e+001  9.032340e+001 
3215625000  -3.601172e+001  8.794067e+001 
3218750000  -3.690216e+001  7.767912e+001 
3221875000  -3.738068e+001  7.054950e+001 
3225000000  -3.722407e+001  6.676469e+001 
3228125000  -3.773052e+001  6.023120e+001 
3231250000  -3.828165e+001  5.802840e+001 
3234375000  -3.791713e+001  5.552014e+001 
3237500000  -3.799098e+001  5.029670e+001 
3240625000  -3.771871e+001  4.528275e+001 
3243750000  -3.770088e+001  3.598809e+001 
3246875000  -3.823760e+001  2.805066e+001 
3250000000  -3.861738e+001  2.445850e+001 
3253125000  -3.892025e+001  2.032410e+001 
3256250000  -3.872740e+001  1.339673e+001 
3259375000  -3.916500e+001  1.014143e+000 
3262500000  -4.064391e+001  5.799766e-001 
3265625000  -4.137740e+001  1.359239e+000 
3268750000  -4.112146e+001  1.866381e+000 
3271875000  -4.070567e+001  -1.714801e+000 
3275000000  -4.008055e+001  -8.522495e+000 
3278125000  -4.076139e+001  -1.423799e+001 
3281250000  -4.103460e+001  -1.479055e+001 
3284375000  -4.059556e+001  -2.264942e+001 
3287500000  -4.117839e+001  -2.542801e+001 
3290625000  -4.121712e+001  -3.351027e+001 
3293750000  -4.115371e+001  -3.881688e+001 
3296875000  -4.249154e+001  -3.960671e+001 
3300000000  -4.170354e+001  -4.113229e+001 
3303125000  -4.096394e+001  -4.746319e+001 
3306250000  -4.067358e+001  -5.302617e+001 
3309375000  -4.054055e+001  -6.067054e+001 
3312500000  -4.099588e+001  -7.252154e+001 
3315625000  -4.201996e+001  -8.099078e+001 
3318750000  -4.339860e+001  -8.511004e+001 
3321875000  -4.475733e+001  -8.107387e+001 
3325000000  -4.492311e+001  -7.642379e+001 
3328125000  -4.416693e+001  -7.689820e+001 
3331250000  -4.282067e+001  -7.102457e+001 
3334375000  -3.983609e+001  -8.586002e+001 
3337500000  -4.049132e+001  -1.071115e+002 
3340625000  -4.209085e+001  -1.177450e+002 
3343750000  -4.412053e+001  -1.162417e+002 
3346875000  -4.356774e+001  -1.170027e+002 
3350000000  -4.316182e+001  -1.193244e+002 
3353125000  -4.303186e+001  -1.280641e+002 
3356250000  -4.261568e+001  -1.343781e+002 
3359375000  -4.332740e+001  -1.462451e+002 
3362500000  -4.411265e+001  -1.507315e+002 
3365625000  -4.450427e+001  -1.542914e+002 
3368750000  -4.540256e+001  -1.599865e+002 
3371875000  -4.585037e+001  -1.671712e+002 
3375000000  -4.769226e+001  -1.652460e+002 
3378125000  -4.795253e+001  -1.693215e+002 
3381250000  -4.965099e+001  -1.617350e+002 
3384375000  -4.671802e+001  -1.420770e+002 
3387500000  -4.391118e+001  -1.619408e+002 
3390625000  -4.572508e+001  1.757766e+002 
3393750000  -4.720178e+001  1.790635e+002 
3396875000  -4.612114e+001  1.750532e+002 
3400000000  -4.589550e+001  1.648364e+002 
3403125000  -4.667305e+001  1.573468e+002 
3406250000  -4.750963e+001  1.552593e+002 
3409375000  -4.814654e+001  1.466831e+002 
3412500000  -4.857784e+001  1.404623e+002 
3415625000  -5.031730e+001  1.390359e+002 
3418750000  -4.993710e+001  1.379238e+002 
3421875000  -5.049770e+001  1.440470e+002 
3425000000  -5.022404e+001  1.438008e+002 
3428125000  -5.005487e+001  1.388341e+002 
3431250000  -5.030053e+001  1.299818e+002 
3434375000  -5.102458e+001  1.250633e+002 
3437500000  -5.126780e+001  1.275287e+002 
3440625000  -5.235632e+001  1.283925e+002 
3443750000  -5.130379e+001  1.284618e+002 
3446875000  -5.040422e+001  1.203870e+002 
3450000000  -5.013510e+001  1.175878e+002 
3453125000  -5.028797e+001  1.042729e+002 
3456250000  -5.143220e+001  1.059087e+002 
3459375000  -5.292488e+001  1.078143e+002 
3462500000  -5.122943e+001  1.113877e+002 
3465625000  -5.157121e+001  1.035256e+002 
3468750000  -5.160417e+001  1.052171e+002 
3471875000  -5.179413e+001  1.031715e+002 
3475000000  -5.114894e+001  1.013326e+002 
3478125000  -5.072048e+001  8.787621e+001 
3481250000  -5.217827e+001  8.647086e+001 
3484375000  -5.168997e+001  8.313555e+001 
3487500000  -5.086812e+001  8.605505e+001 
3490625000  -5.016210e+001  7.964533e+001 
3493750000  -5.073587e+001  6.969785e+001 
3496875000  -5.079166e+001  7.459383e+001 
3500000000  -5.198209e+001  6.838908e+001 
3503125000  -5.053379e+001  7.056612e+001 
3506250000  -4.961948e+001  5.445893e+001 
3509375000  -4.971029e+001  5.313204e+001 
3512500000  -4.938587e+001  3.731318e+001 
3515625000  -5.108986e+001  3.583543e+001 
3518750000  -5.167293e+001  3.693831e+001 
3521875000  -5.173079e+001  2.517288e+001 
3525000000  -5.285179e+001  2.045096e+001 
3528125000  -5.225564e+001  2.300366e+001 
3531250000  -5.076896e+001  2.366614e+001 
3534375000  -5.161414e+001  9.211108e+000 
3537500000  -5.311209e+001  -7.235937e-001 
3540625000  -5.407899e+001  -5.580161e-001 
3543750000  -5.559038e+001  3.566351e+000 
3546875000  -5.448587e+001  1.426182e+001 
3550000000  -5.351596e+001  1.197153e+001 
3553125000  -5.299865e+001  -1.511733e+001 
3556250000  -5.500815e+001  -1.279450e+001 
3559375000  -5.514487e+001  -1.078921e+001 
3562500000  -5.561172e+001  -2.619984e+001 
3565625000  -5.667087e+001  -2.374619e+001 
3568750000  -5.586449e+001  -1.379047e+001 
3571875000  -5.612107e+001  -2.336120e+001 
3575000000  -5.737750e+001  -2.252059e+001 
3578125000  -5.864622e+001  -2.407028e+001 
3581250000  -5.822882e+001  -2.077790e+001 
3584375000  -5.731906e+001  -2.101857e+001 
3587500000  -5.644831e+001  -3.175262e+001 
3590625000  -5.810146e+001  -3.165775e+001 
3593750000  -5.882008e+001  -3.388766e+001 
3596875000  -5.866626e+001  -1.606976e+001 
3600000000  -5.808865e+001  -2.699599e+001 
3603125000  -5.694827e+001  -3.653782e+001 
3606250000  -5.841872e+001  -3.584599e+001 
3609375000  -5.833435e+001  -2.212792e+001 
3612500000  -5.818892e+001  -3.316042e+001 
3615625000  -5.861296e+001  -2.662784e+001 
3618750000  -5.789954e+001  -2.138344e+001 
3621875000  -5.760772e+001  -2.565639e+001 
3625000000  -5.707602e+001  -2.924189e+001 
3628125000  -5.715612e+001  -1.659764e+001 
3631250000  -5.630476e+001  -3.394312e+001 
3634375000  -5.786520e+001  -2.318531e+001 
3637500000  -5.637794e+001  -2.059229e+001 
3640625000  -5.489316e+001  -1.296555e+001 
3643750000  -5.211155e+001  -2.258313e+001 
3646875000  -5.339357e+001  -3.241985e+001 
3650000000  -5.466455e+001  -3.374525e+001 
3653125000  -5.297721e+001  -4.098534e+001 
3656250000  -5.223228e+001  -4.136127e+001 
3659375000  -5.260700e+001  -3.821451e+001 
3662500000  -5.125877e+001  -4.749203e+001 
3665625000  -5.004001e+001  -4.629952e+001 
3668750000  -4.853826e+001  -5.241362e+001 
3671875000  -4.809692e+001  -5.623376e+001 
3675000000  -4.738338e+001  -6.831330e+001 
3678125000  -4.749806e+001  -7.393672e+001 
3681250000  -4.692837e+001  -7.879475e+001 
3684375000  -4.727668e+001  -8.478969e+001 
3687500000  -4.700482e+001  -8.548716e+001 
3690625000  -4.672930e+001  -9.355807e+001 
3693750000  -4.702510e+001  -9.384248e+001 
3696875000  -4.653778e+001  -9.346756e+001 
3700000000  -4.543980e+001  -1.005807e+002 
3703125000  -4.561531e+001  -1.067679e+002 
3706250000  -4.601151e+001  -1.066989e+002 
3709375000  -4.510132e+001  -1.049346e+002 
3712500000  -4.343283e+001  -1.125910e+002 
3715625000  -4.218855e+001  -1.218443e+002 
3718750000  -4.184717e+001  -1.285025e+002 
3721875000  -4.146643e+001  -1.378253e+002 
3725000000  -4.177068e+001  -1.460059e+002 
3728125000  -4.159548e+001  -1.463503e+002 
3731250000  -4.066977e+001  -1.526977e+002 
3734375000  -4.005611e+001  -1.613889e+002 
3737500000  -4.082158e+001  -1.707364e+002 
3740625000  -4.111437e+001  -1.763246e+002 
3743750000  -4.032643e+001  1.785331e+002 
3746875000  -4.094771e+001  1.701040e+002 
3750000000  -4.106200e+001  1.655113e+002 
3753125000  -4.066331e+001  1.632546e+002 
3756250000  -4.092710e+001  1.594685e+002 
3759375000  -4.050427e+001  1.554506e+002 
3762500000  -4.025551e+001  1.475506e+002 
3765625000  -4.081816e+001  1.427673e+002 
3768750000  -4.037069e+001  1.425998e+002 
3771875000  -3.868611e+001  1.345831e+002 
3775000000  -3.846400e+001  1.249143e+002 
3778125000  -3.926479e+001  1.180301e+002 
3781250000  -3.906240e+001  1.141283e+002 
3784375000  -3.874503e+001  1.078717e+002 
3787500000  -3.827650e+001  1.012744e+002 
3790625000  -3.918953e+001  9.141827e+001 
3793750000  -3.929524e+001  8.991100e+001 
3796875000  -3.823471e+001  8.609393e+001 
3800000000  -3.644610e+001  8.117805e+001 
3803125000  -3.813684e+001  6.794839e+001 
3806250000  -3.889746e+001  6.347641e+001 
3809375000  -3.846345e+001  6.024752e+001 
3812500000  -3.842968e+001  5.122596e+001 
3815625000  -3.944438e+001  4.014790e+001 
3818750000  -4.069373e+001  4.089521e+001 
3821875000  -4.039652e+001  5.055693e+001 
3825000000  -3.873372e+001  4.877489e+001 
3828125000  -3.736806e+001  3.000720e+001 
3831250000  -3.804991e+001  1.572630e+001 
3834375000  -4.012411e+001  1.612342e+001 
3837500000  -4.063304e+001  1.664974e+001 
3840625000  -3.937911e+001  1.582117e+001 
3843750000  -3.846515e+001  1.161149e+000 
3846875000  -3.967193e+001  -6.069999e+000 
3850000000  -4.083006e+001  -1.291606e+000 
3853125000  -4.000382e+001  8.025609e-001 
3856250000  -3.981748e+001  -6.468218e+000 
3859375000  -3.897969e+001  -1.446427e+001 
3862500000  -3.869351e+001  -2.420921e+001 
3865625000  -3.914390e+001  -2.999346e+001 
3868750000  -3.874389e+001  -3.097475e+001 
3871875000  -3.817648e+001  -3.599889e+001 
3875000000  -3.855903e+001  -4.643235e+001 
3878125000  -3.945987e+001  -5.151939e+001 
3881250000  -3.941422e+001  -5.076540e+001 
3884375000  -3.875032e+001  -5.663293e+001 
3887500000  -3.903962e+001  -6.312495e+001 
3890625000  -3.947256e+001  -6.806010e+001 
3893750000  -3.969767e+001  -6.965490e+001 
3896875000  -3.980916e+001  -7.193415e+001 
3900000000  -3.982965e+001  -7.741945e+001 
3903125000  -3.941496e+001  -7.926865e+001 
3906250000  -3.886433e+001  -8.307402e+001 
3909375000  -3.827938e+001  -9.299137e+001 
3912500000  -3.909743e+001  -1.029228e+002 
3915625000  -4.030964e+001  -1.010328e+002 
3918750000  -3.992803e+001  -1.049906e+002 
3921875000  -3.923722e+001  -1.075341e+002 
3925000000  -3.856955e+001  -1.124880e+002 
3928125000  -3.823304e+001  -1.216404e+002 
3931250000  -3.892450e+001  -1.298597e+002 
3934375000  -3.936259e+001  -1.302477e+002 
3937500000  -3.990606e+001  -1.322647e+002 
3940625000  -4.011252e+001  -1.356286e+002 
3943750000  -3.888276e+001  -1.377045e+002 
3946875000  -3.833693e+001  -1.469201e+002 
3950000000  -3.940501e+001  -1.548335e+002 
3953125000  -4.013223e+001  -1.543988e+002 
3956250000  -3.878275e+001  -1.551383e+002 
3959375000  -3.762602e+001  -1.630794e+002 
3962500000  -3.764670e+001  -1.699129e+002 
3965625000  -3.768144e+001  1.790496e+002 
3968750000  -3.858299e+001  1.731929e+002 
3971875000  -3.870028e+001  1.661814e+002 
3975000000  -3.836169e+001  1.638229e+002 
3978125000  -3.847442e+001  1.599933e+002 
3981250000  -3.854463e+001  1.545153e+002 
3984375000  -3.888070e+001  1.464542e+002 
3987500000  -3.984302e+001  1.412014e+002 
3990625000  -4.012659e+001  1.386944e+002 
3993750000  -4.021814e+001  1.360960e+002 
3996875000  -3.975100e+001  1.311451e+002 
4000000000  -4.079680e+001  1.266335e+002 
4003125000  -4.126291e+001  1.283784e+002 
4006250000  -3.920794e+001  1.268125e+002 
4009375000  -3.842987e+001  1.127112e+002 
4012500000  -4.004885e+001  1.028896e+002 
4015625000  -4.129833e+001  1.040392e+002 
4018750000  -4.114856e+001  1.045783e+002 
4021875000  -4.076274e+001  1.018506e+002 
4025000000  -4.052126e+001  9.521914e+001 
4028125000  -4.027729e+001  8.838120e+001 
4031250000  -4.109337e+001  8.457036e+001 
4034375000  -4.120308e+001  8.418640e+001 
4037500000  -4.081710e+001  8.565807e+001 
4040625000  -4.085329e+001  7.979894e+001 
4043750000  -4.092523e+001  7.791106e+001 
4046875000  -4.050432e+001  7.037831e+001 
4050000000  -4.048465e+001  6.715975e+001 
4053125000  -4.126009e+001  6.481630e+001 
4056250000  -4.159424e+001  6.756788e+001 
4059375000  -3.915472e+001  6.777559e+001 
4062500000  -3.869677e+001  5.822280e+001 
4065625000  -3.873531e+001  5.374162e+001 
4068750000  -3.801173e+001  4.766972e+001 
4071875000  -3.745415e+001  3.723869e+001 
4075000000  -3.815150e+001  3.189428e+001 
4078125000  -3.843801e+001  2.497358e+001 
4081250000  -3.798595e+001  2.062715e+001 
4084375000  -3.776857e+001  1.158636e+001 
4087500000  -3.824823e+001  3.142606e+000 
4090625000  -3.893076e+001  1.992787e-001 
4093750000  -3.856074e+001  1.471636e+000 
4096875000  -3.862257e+001  -8.425462e+000 
4100000000  -3.926201e+001  -1.581793e+001 
4103125000  -4.035441e+001  -1.506971e+001 
4106250000  -3.969527e+001  -1.025362e+001 
4109375000  -3.885588e+001  -1.504305e+001 
4112500000  -3.852851e+001  -2.422239e+001 
4115625000  -3.932219e+001  -3.241702e+001 
4118750000  -3.874772e+001  -3.633256e+001 
4121875000  -3.853966e+001  -4.352029e+001 
4125000000  -3.962214e+001  -4.901571e+001 
4128125000  -4.056141e+001  -4.817511e+001 
4131250000  -3.973487e+001  -4.204445e+001 
4134375000  -3.723564e+001  -4.965375e+001 
4137500000  -3.765797e+001  -7.292444e+001 
4140625000  -3.985703e+001  -7.869298e+001 
4143750000  -4.137960e+001  -7.349567e+001 
4146875000  -4.019964e+001  -7.013953e+001 
4150000000  -3.944381e+001  -7.556780e+001 
4153125000  -3.950905e+001  -8.595253e+001 
4156250000  -4.066809e+001  -9.018127e+001 
4159375000  -4.073709e+001  -8.396818e+001 
4162500000  -3.931040e+001  -8.074480e+001 
4165625000  -3.832511e+001  -8.813400e+001 
4168750000  -3.797321e+001  -9.909863e+001 
4171875000  -3.801740e+001  -1.109440e+002 
4175000000  -3.876400e+001  -1.145573e+002 
4178125000  -3.915936e+001  -1.157097e+002 
4181250000  -3.914659e+001  -1.198239e+002 
4184375000  -3.900605e+001  -1.248196e+002 
4187500000  -3.885109e+001  -1.301662e+002 
4190625000  -3.875813e+001  -1.378700e+002 
4193750000  -4.015245e+001  -1.423527e+002 
4196875000  -4.061739e+001  -1.447935e+002 
4200000000  -4.190917e+001  -1.386722e+002 
4203125000  -4.042689e+001  -1.280203e+002 
4206250000  -3.709162e+001  -1.345049e+002 
4209375000  -3.693855e+001  -1.563002e+002 
4212500000  -3.912069e+001  -1.650991e+002 
4215625000  -3.967278e+001  -1.573022e+002 
4218750000  -3.778629e+001  -1.549043e+002 
4221875000  -3.591129e+001  -1.653536e+002 
4225000000  -3.711814e+001  -1.783685e+002 
4228125000  -3.766827e+001  -1.756276e+002 
4231250000  -3.595973e+001  1.751500e+002 
4234375000  -3.593660e+001  1.637934e+002 
4237500000  -3.555182e+001  1.594794e+002 
4240625000  -3.570826e+001  1.479057e+002 
4243750000  -3.683838e+001  1.394731e+002 
4246875000  -3.786396e+001  1.388874e+002 
4250000000  -3.787782e+001  1.399230e+002 
4253125000  -3.726651e+001  1.356261e+002 
4256250000  -3.763314e+001  1.302410e+002 
4259375000  -3.723008e+001  1.257978e+002 
4262500000  -3.713090e+001  1.204563e+002 
4265625000  -3.742375e+001  1.184656e+002 
4268750000  -3.650306e+001  1.129238e+002 
4271875000  -3.633293e+001  1.028829e+002 
4275000000  -3.589999e+001  9.388480e+001 
4278125000  -3.683024e+001  8.178593e+001 
4281250000  -3.850603e+001  7.859118e+001 
4284375000  -3.835157e+001  7.654790e+001 
4287500000  -3.976086e+001  7.354711e+001 
4290625000  -3.987629e+001  8.238766e+001 
4293750000  -3.808375e+001  8.374239e+001 
4296875000  -3.711207e+001  7.157312e+001 
4300000000  -3.843985e+001  6.161092e+001 
4303125000  -3.921691e+001  6.362559e+001 
4306250000  -3.807678e+001  6.502483e+001 
4309375000  -3.697440e+001  5.884057e+001 
4312500000  -3.717793e+001  4.948213e+001 
4315625000  -3.740343e+001  4.125309e+001 
4318750000  -3.779613e+001  3.827607e+001 
4321875000  -3.805522e+001  3.688207e+001 
4325000000  -3.763437e+001  3.626536e+001 
4328125000  -3.674528e+001  2.638670e+001 
4331250000  -3.705355e+001  1.568002e+001 
4334375000  -3.757314e+001  1.043031e+001 
4337500000  -3.862926e+001  8.280377e+000 
4340625000  -3.879210e+001  1.110230e+001 
4343750000  -3.801352e+001  9.398540e+000 
4346875000  -3.763504e+001  2.239338e+000 
4350000000  -3.762313e+001  -6.783506e+000 
4353125000  -3.808261e+001  -1.306102e+001 
4356250000  -4.015793e+001  -1.349015e+001 
4359375000  -3.992101e+001  -5.783533e-001 
4362500000  -3.627306e+001  -5.442371e+000 
4365625000  -3.558961e+001  -2.101233e+001 
4368750000  -3.658105e+001  -3.125934e+001 
4371875000  -3.757398e+001  -3.420551e+001 
4375000000  -3.699451e+001  -3.558587e+001 
4378125000  -3.648092e+001  -4.328289e+001 
4381250000  -3.658134e+001  -5.046009e+001 
4384375000  -3.675084e+001  -5.786506e+001 
4387500000  -3.740500e+001  -6.394448e+001 
4390625000  -3.793727e+001  -6.640797e+001 
4393750000  -3.741257e+001  -6.510542e+001 
4396875000  -3.677296e+001  -6.902000e+001 
4400000000  -3.635357e+001  -7.836354e+001 
4403125000  -3.716740e+001  -8.845836e+001 
4406250000  -3.767332e+001  -9.310293e+001 
4409375000  -3.795032e+001  -9.653168e+001 
4412500000  -3.902695e+001  -9.945991e+001 
4415625000  -3.875150e+001  -9.641647e+001 
