!Agilent Technologies,E8363B,MY43030201,A.06.04.32
!Agilent E8363B: A.06.04.32
!Date: Tuesday, November 11, 2014 21:30:09
!Correction: S21(Response(S21)) 
!S1P File: Measurement: S21:
# Hz S  dB   R 50
3000000000  -4.052076e+001  8.430057e+001 
3003125000  -4.206350e+001  7.598882e+001 
3006250000  -4.211809e+001  7.501958e+001 
3009375000  -4.288233e+001  8.048875e+001 
3012500000  -4.149767e+001  7.564036e+001 
3015625000  -4.127364e+001  6.934888e+001 
3018750000  -4.201867e+001  7.106474e+001 
3021875000  -4.028444e+001  7.061301e+001 
3025000000  -3.891879e+001  6.769219e+001 
3028125000  -3.785592e+001  5.635773e+001 
3031250000  -3.699697e+001  4.423124e+001 
3034375000  -3.681405e+001  3.045693e+001 
3037500000  -3.753997e+001  1.934607e+001 
3040625000  -3.880923e+001  1.411680e+001 
3043750000  -3.915109e+001  9.068911e+000 
3046875000  -3.958443e+001  2.269000e+000 
3050000000  -4.093058e+001  -3.792991e+000 
3053125000  -4.065823e+001  2.497227e+000 
3056250000  -4.040100e+001  6.093484e+000 
3059375000  -3.986917e+001  3.110903e+000 
3062500000  -3.835609e+001  -9.097961e-001 
3065625000  -3.777831e+001  -1.157274e+001 
3068750000  -3.753304e+001  -1.846867e+001 
3071875000  -3.771569e+001  -2.266518e+001 
3075000000  -3.715672e+001  -2.791921e+001 
3078125000  -3.710081e+001  -3.444099e+001 
3081250000  -3.735700e+001  -4.110200e+001 
3084375000  -3.631197e+001  -4.479670e+001 
3087500000  -3.652568e+001  -5.199679e+001 
3090625000  -3.602622e+001  -6.363936e+001 
3093750000  -3.678962e+001  -7.238325e+001 
3096875000  -3.743341e+001  -7.751554e+001 
3100000000  -3.733102e+001  -8.081845e+001 
3103125000  -3.748160e+001  -8.369074e+001 
3106250000  -3.718004e+001  -8.881193e+001 
3109375000  -3.726859e+001  -9.372440e+001 
3112500000  -3.711656e+001  -9.860088e+001 
3115625000  -3.704580e+001  -1.030311e+002 
3118750000  -3.727094e+001  -1.054119e+002 
3121875000  -3.648622e+001  -1.170307e+002 
3125000000  -3.833930e+001  -1.224292e+002 
3128125000  -3.864119e+001  -1.130596e+002 
3131250000  -3.618574e+001  -1.188963e+002 
3134375000  -3.531115e+001  -1.361405e+002 
3137500000  -3.618890e+001  -1.494785e+002 
3140625000  -3.730645e+001  -1.516748e+002 
3143750000  -3.826603e+001  -1.527582e+002 
3146875000  -3.769145e+001  -1.510799e+002 
3150000000  -3.682389e+001  -1.552346e+002 
3153125000  -3.717045e+001  -1.641137e+002 
3156250000  -3.796568e+001  -1.597929e+002 
3159375000  -3.578184e+001  -1.603533e+002 
3162500000  -3.422997e+001  -1.765647e+002 
3165625000  -3.552953e+001  1.704959e+002 
3168750000  -3.554555e+001  1.689939e+002 
3171875000  -3.489520e+001  1.619885e+002 
3175000000  -3.555172e+001  1.528577e+002 
3178125000  -3.499270e+001  1.507579e+002 
3181250000  -3.434125e+001  1.434587e+002 
3184375000  -3.408492e+001  1.322894e+002 
3187500000  -3.550334e+001  1.165688e+002 
3190625000  -3.721371e+001  1.101115e+002 
3193750000  -3.762531e+001  1.156448e+002 
3196875000  -3.740561e+001  1.172500e+002 
3200000000  -3.616848e+001  1.122330e+002 
3203125000  -3.597685e+001  1.034329e+002 
3206250000  -3.617061e+001  9.589353e+001 
3209375000  -3.577391e+001  8.899599e+001 
3212500000  -3.631019e+001  8.094904e+001 
3215625000  -3.592662e+001  7.729524e+001 
3218750000  -3.692720e+001  6.758784e+001 
3221875000  -3.729117e+001  6.035954e+001 
3225000000  -3.718102e+001  5.755376e+001 
3228125000  -3.771419e+001  4.932314e+001 
3231250000  -3.814216e+001  4.724681e+001 
3234375000  -3.802484e+001  4.480366e+001 
3237500000  -3.817750e+001  4.062828e+001 
3240625000  -3.762075e+001  3.445341e+001 
3243750000  -3.771502e+001  2.523909e+001 
3246875000  -3.832582e+001  1.838818e+001 
3250000000  -3.874721e+001  1.373499e+001 
3253125000  -3.904242e+001  1.080747e+001 
3256250000  -3.861697e+001  1.841259e+000 
3259375000  -3.923862e+001  -7.695128e+000 
3262500000  -4.067672e+001  -1.174332e+001 
3265625000  -4.139884e+001  -9.354995e+000 
3268750000  -4.114678e+001  -7.627532e+000 
3271875000  -4.079010e+001  -1.204778e+001 
3275000000  -4.028031e+001  -1.962233e+001 
3278125000  -4.064943e+001  -2.481959e+001 
3281250000  -4.107427e+001  -2.686098e+001 
3284375000  -4.052798e+001  -3.292192e+001 
3287500000  -4.112579e+001  -3.619043e+001 
3290625000  -4.126917e+001  -4.396747e+001 
3293750000  -4.110279e+001  -4.983214e+001 
3296875000  -4.255908e+001  -5.114077e+001 
3300000000  -4.195477e+001  -5.070487e+001 
3303125000  -4.103777e+001  -5.821957e+001 
3306250000  -4.077999e+001  -6.435294e+001 
3309375000  -4.049170e+001  -7.184470e+001 
3312500000  -4.089943e+001  -8.388928e+001 
3315625000  -4.213805e+001  -9.179476e+001 
3318750000  -4.391872e+001  -9.522165e+001 
3321875000  -4.469044e+001  -9.177977e+001 
3325000000  -4.466117e+001  -8.182802e+001 
3328125000  -4.387841e+001  -8.699995e+001 
3331250000  -4.252997e+001  -8.184496e+001 
3334375000  -3.995041e+001  -9.797430e+001 
3337500000  -4.036361e+001  -1.193952e+002 
3340625000  -4.225026e+001  -1.290998e+002 
3343750000  -4.411880e+001  -1.287958e+002 
3346875000  -4.337033e+001  -1.280810e+002 
3350000000  -4.327591e+001  -1.312968e+002 
3353125000  -4.287948e+001  -1.391884e+002 
3356250000  -4.259273e+001  -1.455625e+002 
3359375000  -4.332979e+001  -1.569085e+002 
3362500000  -4.430986e+001  -1.629264e+002 
3365625000  -4.472202e+001  -1.656582e+002 
3368750000  -4.527116e+001  -1.723769e+002 
3371875000  -4.560329e+001  -1.748610e+002 
3375000000  -4.753738e+001  -1.785766e+002 
3378125000  -4.808270e+001  -1.794740e+002 
3381250000  -4.958727e+001  -1.726232e+002 
3384375000  -4.719818e+001  -1.546236e+002 
3387500000  -4.426146e+001  -1.769083e+002 
3390625000  -4.626072e+001  1.633692e+002 
3393750000  -4.746889e+001  1.659992e+002 
3396875000  -4.616757e+001  1.649012e+002 
3400000000  -4.598573e+001  1.525066e+002 
3403125000  -4.734782e+001  1.457204e+002 
3406250000  -4.812424e+001  1.463186e+002 
3409375000  -4.806890e+001  1.357018e+002 
3412500000  -4.870367e+001  1.292257e+002 
3415625000  -5.049318e+001  1.305636e+002 
3418750000  -5.020053e+001  1.345686e+002 
3421875000  -5.118739e+001  1.307890e+002 
3425000000  -4.990082e+001  1.322284e+002 
3428125000  -5.041901e+001  1.261087e+002 
3431250000  -5.022433e+001  1.203243e+002 
3434375000  -5.106700e+001  1.122808e+002 
3437500000  -5.234926e+001  1.159529e+002 
3440625000  -5.240953e+001  1.141216e+002 
3443750000  -5.101585e+001  1.196827e+002 
3446875000  -5.076461e+001  1.207418e+002 
3450000000  -5.105397e+001  1.041372e+002 
3453125000  -5.095338e+001  9.468898e+001 
3456250000  -5.160706e+001  9.490636e+001 
3459375000  -5.371755e+001  1.007536e+002 
3462500000  -5.212576e+001  9.837467e+001 
3465625000  -5.154869e+001  9.043075e+001 
3468750000  -5.254771e+001  9.444740e+001 
3471875000  -5.307113e+001  8.916418e+001 
3475000000  -5.125732e+001  8.892520e+001 
3478125000  -5.105204e+001  7.694773e+001 
3481250000  -5.294206e+001  7.514308e+001 
3484375000  -5.336286e+001  7.550095e+001 
3487500000  -5.210179e+001  7.917103e+001 
3490625000  -5.116726e+001  6.924892e+001 
3493750000  -5.145326e+001  6.256088e+001 
3496875000  -5.131859e+001  6.281432e+001 
3500000000  -5.230705e+001  6.120590e+001 
3503125000  -5.118530e+001  5.337133e+001 
3506250000  -5.053697e+001  5.038653e+001 
3509375000  -5.054414e+001  3.719765e+001 
3512500000  -5.049712e+001  2.553829e+001 
3515625000  -5.161631e+001  2.490197e+001 
3518750000  -5.290078e+001  2.569131e+001 
3521875000  -5.181009e+001  2.261493e+001 
3525000000  -5.364490e+001  1.314520e+001 
3528125000  -5.322390e+001  2.402427e+001 
3531250000  -5.223677e+001  1.375889e+001 
3534375000  -5.276751e+001  -4.100918e+000 
3537500000  -5.359594e+001  -1.083362e+001 
3540625000  -5.330861e+001  -7.636270e+000 
3543750000  -5.637418e+001  -9.292622e+000 
3546875000  -5.763634e+001  3.704439e+000 
3550000000  -5.370982e+001  -2.052734e+000 
3553125000  -5.346854e+001  -1.801162e+001 
3556250000  -5.518036e+001  -2.360938e+001 
3559375000  -5.587378e+001  -2.873460e+001 
3562500000  -5.604819e+001  -3.355248e+001 
3565625000  -5.823719e+001  -3.014631e+001 
3568750000  -5.733095e+001  -2.684730e+001 
3571875000  -5.823614e+001  -2.058391e+001 
3575000000  -5.994110e+001  -3.389725e+001 
3578125000  -5.836798e+001  -3.560738e+001 
3581250000  -5.722678e+001  -2.844670e+001 
3584375000  -5.718116e+001  -2.049788e+001 
3587500000  -5.738932e+001  -2.813039e+001 
3590625000  -5.738545e+001  -4.226140e+001 
3593750000  -5.881144e+001  -2.942038e+001 
3596875000  -5.966109e+001  -1.897763e+001 
3600000000  -5.838308e+001  -2.463072e+001 
3603125000  -6.023637e+001  -2.596451e+001 
3606250000  -5.801469e+001  -3.471865e+001 
3609375000  -5.899148e+001  -4.044973e+001 
3612500000  -5.771009e+001  -3.287733e+001 
3615625000  -5.777632e+001  -2.642690e+001 
3618750000  -5.942337e+001  -3.996245e+001 
3621875000  -5.794754e+001  -3.671502e+001 
3625000000  -5.739708e+001  -2.655404e+001 
3628125000  -5.460370e+001  -3.135728e+001 
3631250000  -5.653724e+001  -3.879943e+001 
3634375000  -5.624662e+001  -3.669188e+001 
3637500000  -5.564470e+001  -2.712605e+001 
3640625000  -5.343904e+001  -2.280069e+001 
3643750000  -5.242303e+001  -3.634476e+001 
3646875000  -5.249242e+001  -4.876185e+001 
3650000000  -5.299656e+001  -4.101833e+001 
3653125000  -5.199644e+001  -4.647182e+001 
3656250000  -5.206984e+001  -5.052171e+001 
3659375000  -5.082320e+001  -5.415437e+001 
3662500000  -5.050071e+001  -6.198429e+001 
3665625000  -4.967197e+001  -5.887140e+001 
3668750000  -4.766764e+001  -6.004329e+001 
3671875000  -4.725407e+001  -6.974644e+001 
3675000000  -4.728799e+001  -8.190018e+001 
3678125000  -4.720568e+001  -8.296262e+001 
3681250000  -4.667538e+001  -8.694496e+001 
3684375000  -4.653425e+001  -9.134831e+001 
3687500000  -4.660275e+001  -9.977582e+001 
3690625000  -4.654692e+001  -1.053079e+002 
3693750000  -4.733547e+001  -1.039808e+002 
3696875000  -4.655381e+001  -1.082454e+002 
3700000000  -4.531547e+001  -1.120739e+002 
3703125000  -4.542329e+001  -1.171022e+002 
3706250000  -4.604451e+001  -1.188253e+002 
3709375000  -4.492382e+001  -1.168071e+002 
3712500000  -4.343522e+001  -1.237143e+002 
3715625000  -4.200600e+001  -1.315182e+002 
3718750000  -4.191105e+001  -1.397748e+002 
3721875000  -4.126891e+001  -1.497803e+002 
3725000000  -4.149006e+001  -1.563428e+002 
3728125000  -4.165934e+001  -1.596242e+002 
3731250000  -4.083766e+001  -1.659721e+002 
3734375000  -4.022023e+001  -1.738528e+002 
3737500000  -4.080442e+001  1.776377e+002 
3740625000  -4.103012e+001  1.729909e+002 
3743750000  -4.060446e+001  1.656449e+002 
3746875000  -4.062630e+001  1.592713e+002 
3750000000  -4.112012e+001  1.539666e+002 
3753125000  -4.057611e+001  1.509231e+002 
3756250000  -4.065878e+001  1.487475e+002 
3759375000  -4.046044e+001  1.427606e+002 
3762500000  -3.999830e+001  1.351187e+002 
3765625000  -4.063438e+001  1.321715e+002 
3768750000  -4.010030e+001  1.312549e+002 
3771875000  -3.859275e+001  1.242759e+002 
3775000000  -3.831359e+001  1.129934e+002 
3778125000  -3.906111e+001  1.058084e+002 
3781250000  -3.875679e+001  1.027259e+002 
3784375000  -3.873819e+001  9.539475e+001 
3787500000  -3.835874e+001  9.080086e+001 
3790625000  -3.918414e+001  8.132815e+001 
3793750000  -3.916999e+001  7.786466e+001 
3796875000  -3.831404e+001  7.424674e+001 
3800000000  -3.643502e+001  7.018356e+001 
3803125000  -3.805405e+001  5.473680e+001 
3806250000  -3.886616e+001  5.213010e+001 
3809375000  -3.861277e+001  4.759287e+001 
3812500000  -3.827814e+001  3.975287e+001 
3815625000  -3.952291e+001  2.974776e+001 
3818750000  -4.069483e+001  2.970096e+001 
3821875000  -4.039618e+001  3.880196e+001 
3825000000  -3.831141e+001  3.755302e+001 
3828125000  -3.696724e+001  1.773095e+001 
3831250000  -3.830579e+001  3.391158e+000 
3834375000  -4.053667e+001  2.459429e+000 
3837500000  -4.092860e+001  8.258077e+000 
3840625000  -3.898504e+001  3.609980e+000 
3843750000  -3.860418e+001  -1.186310e+001 
3846875000  -4.008690e+001  -1.759419e+001 
3850000000  -4.102991e+001  -1.213607e+001 
3853125000  -3.986885e+001  -9.516640e+000 
3856250000  -3.945867e+001  -1.931747e+001 
3859375000  -3.849688e+001  -2.619954e+001 
3862500000  -3.850974e+001  -3.670715e+001 
3865625000  -3.887804e+001  -4.180998e+001 
3868750000  -3.888280e+001  -4.195775e+001 
3871875000  -3.819464e+001  -4.889440e+001 
3875000000  -3.871627e+001  -5.994339e+001 
3878125000  -3.963818e+001  -6.370501e+001 
3881250000  -3.921510e+001  -6.237678e+001 
3884375000  -3.875946e+001  -6.994146e+001 
3887500000  -3.931956e+001  -7.526067e+001 
3890625000  -3.964581e+001  -8.069155e+001 
3893750000  -3.968320e+001  -8.155154e+001 
3896875000  -4.000924e+001  -8.555920e+001 
3900000000  -3.977567e+001  -8.826198e+001 
3903125000  -3.927309e+001  -9.417691e+001 
3906250000  -3.895106e+001  -9.736169e+001 
3909375000  -3.824693e+001  -1.043591e+002 
3912500000  -3.927986e+001  -1.151532e+002 
3915625000  -4.052494e+001  -1.153477e+002 
3918750000  -4.011818e+001  -1.163354e+002 
3921875000  -3.921974e+001  -1.192342e+002 
3925000000  -3.848602e+001  -1.255235e+002 
3928125000  -3.840162e+001  -1.342899e+002 
3931250000  -3.902952e+001  -1.430771e+002 
3934375000  -3.975316e+001  -1.429201e+002 
3937500000  -4.000370e+001  -1.454052e+002 
3940625000  -3.995126e+001  -1.487229e+002 
3943750000  -3.888510e+001  -1.502056e+002 
3946875000  -3.851031e+001  -1.598213e+002 
3950000000  -3.962623e+001  -1.690696e+002 
3953125000  -4.004602e+001  -1.670568e+002 
3956250000  -3.904114e+001  -1.675421e+002 
3959375000  -3.790890e+001  -1.753816e+002 
3962500000  -3.780098e+001  1.768733e+002 
3965625000  -3.784098e+001  1.675108e+002 
3968750000  -3.888544e+001  1.615688e+002 
3971875000  -3.851559e+001  1.553881e+002 
3975000000  -3.825863e+001  1.505188e+002 
3978125000  -3.846343e+001  1.474990e+002 
3981250000  -3.864862e+001  1.417257e+002 
3984375000  -3.924747e+001  1.332269e+002 
3987500000  -3.993763e+001  1.282134e+002 
3990625000  -4.009870e+001  1.267292e+002 
3993750000  -4.006331e+001  1.217687e+002 
3996875000  -4.001871e+001  1.188974e+002 
4000000000  -4.080286e+001  1.140916e+002 
4003125000  -4.127547e+001  1.166617e+002 
4006250000  -3.952742e+001  1.127596e+002 
4009375000  -3.872747e+001  9.906665e+001 
4012500000  -4.022581e+001  8.955602e+001 
4015625000  -4.121425e+001  8.996342e+001 
4018750000  -4.129958e+001  9.148105e+001 
4021875000  -4.083189e+001  8.845679e+001 
4025000000  -4.068997e+001  8.230578e+001 
4028125000  -4.064808e+001  7.529407e+001 
4031250000  -4.138554e+001  7.071073e+001 
4034375000  -4.171799e+001  7.180452e+001 
4037500000  -4.120207e+001  7.373398e+001 
4040625000  -4.079277e+001  6.617671e+001 
4043750000  -4.131506e+001  6.335450e+001 
4046875000  -4.087716e+001  5.887775e+001 
4050000000  -4.066721e+001  5.466677e+001 
4053125000  -4.166169e+001  5.056937e+001 
4056250000  -4.139703e+001  5.719825e+001 
4059375000  -3.923294e+001  5.447734e+001 
4062500000  -3.913109e+001  4.551374e+001 
4065625000  -3.879710e+001  3.973757e+001 
4068750000  -3.831163e+001  3.282548e+001 
4071875000  -3.778823e+001  2.383778e+001 
4075000000  -3.824051e+001  1.453810e+001 
4078125000  -3.898617e+001  1.265025e+001 
4081250000  -3.828988e+001  7.022207e+000 
4084375000  -3.804195e+001  -2.482410e+000 
4087500000  -3.852301e+001  -1.027561e+001 
4090625000  -3.920837e+001  -1.072036e+001 
4093750000  -3.874853e+001  -1.246091e+001 
4096875000  -3.885413e+001  -2.251820e+001 
4100000000  -3.956138e+001  -3.191577e+001 
4103125000  -4.077148e+001  -2.887177e+001 
4106250000  -3.979399e+001  -2.518106e+001 
4109375000  -3.903482e+001  -2.776630e+001 
4112500000  -3.868303e+001  -3.777509e+001 
4115625000  -3.906626e+001  -4.322101e+001 
4118750000  -3.901495e+001  -4.925944e+001 
4121875000  -3.878547e+001  -5.637497e+001 
4125000000  -3.986111e+001  -6.191099e+001 
4128125000  -4.087220e+001  -6.081680e+001 
4131250000  -3.995557e+001  -5.562038e+001 
4134375000  -3.775937e+001  -6.405680e+001 
4137500000  -3.838936e+001  -8.421521e+001 
4140625000  -4.058976e+001  -9.208344e+001 
4143750000  -4.144175e+001  -8.688026e+001 
4146875000  -4.081427e+001  -8.307614e+001 
4150000000  -3.971854e+001  -9.094788e+001 
4153125000  -3.979471e+001  -9.872427e+001 
4156250000  -4.098378e+001  -1.025512e+002 
4159375000  -4.110822e+001  -9.663634e+001 
4162500000  -4.028417e+001  -9.472826e+001 
4165625000  -3.923696e+001  -1.031737e+002 
4168750000  -3.868103e+001  -1.122688e+002 
4171875000  -3.838048e+001  -1.227908e+002 
4175000000  -3.902270e+001  -1.309188e+002 
4178125000  -3.968974e+001  -1.280976e+002 
4181250000  -3.962129e+001  -1.332043e+002 
4184375000  -3.972324e+001  -1.376992e+002 
4187500000  -3.954033e+001  -1.413807e+002 
4190625000  -3.934242e+001  -1.494286e+002 
4193750000  -4.072509e+001  -1.550996e+002 
4196875000  -4.138376e+001  -1.580683e+002 
4200000000  -4.270377e+001  -1.503982e+002 
4203125000  -4.107722e+001  -1.390913e+002 
4206250000  -3.761599e+001  -1.459990e+002 
4209375000  -3.731875e+001  -1.701447e+002 
4212500000  -3.972341e+001  -1.780697e+002 
4215625000  -4.012416e+001  -1.712042e+002 
4218750000  -3.841318e+001  -1.683248e+002 
4221875000  -3.715406e+001  -1.783743e+002 
4225000000  -3.808249e+001  1.677110e+002 
4228125000  -3.796534e+001  1.702277e+002 
4231250000  -3.641853e+001  1.627046e+002 
4234375000  -3.651024e+001  1.520411e+002 
4237500000  -3.608092e+001  1.477820e+002 
4240625000  -3.637335e+001  1.355415e+002 
4243750000  -3.745066e+001  1.272371e+002 
4246875000  -3.854163e+001  1.264155e+002 
4250000000  -3.828682e+001  1.267233e+002 
4253125000  -3.800570e+001  1.232119e+002 
4256250000  -3.808533e+001  1.198296e+002 
4259375000  -3.782605e+001  1.125984e+002 
4262500000  -3.798440e+001  1.075566e+002 
4265625000  -3.816729e+001  1.055669e+002 
4268750000  -3.685155e+001  1.004455e+002 
4271875000  -3.692838e+001  9.072998e+001 
4275000000  -3.658738e+001  8.336594e+001 
4278125000  -3.769951e+001  6.935042e+001 
4281250000  -3.925853e+001  6.760390e+001 
4284375000  -3.894387e+001  6.528053e+001 
4287500000  -4.026657e+001  6.217178e+001 
4290625000  -4.063026e+001  7.276952e+001 
4293750000  -3.889390e+001  6.921115e+001 
4296875000  -3.788098e+001  5.809482e+001 
4300000000  -3.926322e+001  4.772511e+001 
4303125000  -3.970874e+001  5.104222e+001 
4306250000  -3.880761e+001  5.433828e+001 
4309375000  -3.755617e+001  4.893967e+001 
4312500000  -3.753761e+001  3.653419e+001 
4315625000  -3.820008e+001  2.922734e+001 
4318750000  -3.879268e+001  2.580889e+001 
4321875000  -3.871294e+001  2.602594e+001 
4325000000  -3.812248e+001  2.447684e+001 
4328125000  -3.761122e+001  1.401002e+001 
4331250000  -3.741254e+001  3.505059e+000 
4334375000  -3.853500e+001  -1.320860e+000 
4337500000  -3.943340e+001  -3.010106e+000 
4340625000  -3.963267e+001  1.170738e+000 
4343750000  -3.867905e+001  -2.259294e+000 
4346875000  -3.844777e+001  -1.050414e+001 
4350000000  -3.848111e+001  -1.865430e+001 
4353125000  -3.892148e+001  -2.539442e+001 
4356250000  -4.114739e+001  -2.132177e+001 
4359375000  -3.985214e+001  -7.822401e+000 
4362500000  -3.654459e+001  -1.628507e+001 
4365625000  -3.596988e+001  -3.271663e+001 
4368750000  -3.717178e+001  -4.309303e+001 
4371875000  -3.830767e+001  -4.345570e+001 
4375000000  -3.724514e+001  -4.664252e+001 
4378125000  -3.702316e+001  -5.533347e+001 
4381250000  -3.712780e+001  -6.309652e+001 
4384375000  -3.726913e+001  -6.940250e+001 
4387500000  -3.824283e+001  -7.514363e+001 
4390625000  -3.865451e+001  -7.655634e+001 
4393750000  -3.796746e+001  -7.647698e+001 
4396875000  -3.737566e+001  -8.048681e+001 
4400000000  -3.698343e+001  -8.975871e+001 
4403125000  -3.792181e+001  -9.965924e+001 
4406250000  -3.837341e+001  -1.024968e+002 
4409375000  -3.875167e+001  -1.054067e+002 
4412500000  -3.988353e+001  -1.085163e+002 
4415625000  -3.964117e+001  -1.062685e+002 
