!Agilent Technologies,E8363B,MY43030201,A.06.04.32
!Agilent E8363B: A.06.04.32
!Date: Tuesday, November 11, 2014 21:35:31
!Correction: S21(Response(S21)) 
!S1P File: Measurement: S21:
# Hz S  dB   R 50
3000000000  -4.053367e+001  7.237154e+001 
3003125000  -4.214025e+001  6.334996e+001 
3006250000  -4.225931e+001  6.380233e+001 
3009375000  -4.272761e+001  6.877181e+001 
3012500000  -4.155382e+001  6.308495e+001 
3015625000  -4.130072e+001  5.613164e+001 
3018750000  -4.176613e+001  5.729958e+001 
3021875000  -4.019696e+001  5.884726e+001 
3025000000  -3.874504e+001  5.500055e+001 
3028125000  -3.780899e+001  4.416775e+001 
3031250000  -3.696720e+001  3.188034e+001 
3034375000  -3.688531e+001  1.875690e+001 
3037500000  -3.761856e+001  7.465323e+000 
3040625000  -3.875808e+001  1.099886e+000 
3043750000  -3.934447e+001  -3.998324e+000 
3046875000  -3.987099e+001  -9.960623e+000 
3050000000  -4.076761e+001  -1.419755e+001 
3053125000  -4.061466e+001  -9.499694e+000 
3056250000  -4.051522e+001  -6.158647e+000 
3059375000  -3.993938e+001  -9.363325e+000 
3062500000  -3.823299e+001  -1.437249e+001 
3065625000  -3.775967e+001  -2.394038e+001 
3068750000  -3.768013e+001  -3.119637e+001 
3071875000  -3.759931e+001  -3.342338e+001 
3075000000  -3.697927e+001  -4.051456e+001 
3078125000  -3.703554e+001  -4.718820e+001 
3081250000  -3.712247e+001  -5.297593e+001 
3084375000  -3.643246e+001  -5.769418e+001 
3087500000  -3.637832e+001  -6.374406e+001 
3090625000  -3.593106e+001  -7.665005e+001 
3093750000  -3.689045e+001  -8.376265e+001 
3096875000  -3.728771e+001  -8.889238e+001 
3100000000  -3.719193e+001  -9.236683e+001 
3103125000  -3.755064e+001  -9.632621e+001 
3106250000  -3.722963e+001  -1.011924e+002 
3109375000  -3.734443e+001  -1.050717e+002 
3112500000  -3.709833e+001  -1.107312e+002 
3115625000  -3.721812e+001  -1.148532e+002 
3118750000  -3.723864e+001  -1.182662e+002 
3121875000  -3.669543e+001  -1.295759e+002 
3125000000  -3.852801e+001  -1.324783e+002 
3128125000  -3.854661e+001  -1.249159e+002 
3131250000  -3.606482e+001  -1.318558e+002 
3134375000  -3.533474e+001  -1.484260e+002 
3137500000  -3.611342e+001  -1.604252e+002 
3140625000  -3.723253e+001  -1.629539e+002 
3143750000  -3.829324e+001  -1.649803e+002 
3146875000  -3.758424e+001  -1.632343e+002 
3150000000  -3.702036e+001  -1.682598e+002 
3153125000  -3.730246e+001  -1.753383e+002 
3156250000  -3.792158e+001  -1.712063e+002 
3159375000  -3.566117e+001  -1.736791e+002 
3162500000  -3.413745e+001  1.703369e+002 
3165625000  -3.548020e+001  1.578945e+002 
3168750000  -3.547226e+001  1.565110e+002 
3171875000  -3.488033e+001  1.498540e+002 
3175000000  -3.547343e+001  1.398969e+002 
3178125000  -3.500980e+001  1.389403e+002 
3181250000  -3.445057e+001  1.306890e+002 
3184375000  -3.413602e+001  1.194784e+002 
3187500000  -3.554155e+001  1.056616e+002 
3190625000  -3.735265e+001  9.782075e+001 
3193750000  -3.748877e+001  1.035985e+002 
3196875000  -3.736040e+001  1.045057e+002 
3200000000  -3.610571e+001  9.922017e+001 
3203125000  -3.594980e+001  9.089859e+001 
3206250000  -3.612366e+001  8.391973e+001 
3209375000  -3.579857e+001  7.564504e+001 
3212500000  -3.622074e+001  6.972328e+001 
3215625000  -3.607391e+001  6.680180e+001 
3218750000  -3.694186e+001  5.553452e+001 
3221875000  -3.728693e+001  4.964460e+001 
3225000000  -3.705204e+001  4.513787e+001 
3228125000  -3.778896e+001  3.800863e+001 
3231250000  -3.810190e+001  3.559642e+001 
3234375000  -3.791695e+001  3.120154e+001 
3237500000  -3.806878e+001  2.805368e+001 
3240625000  -3.755949e+001  2.342690e+001 
3243750000  -3.755560e+001  1.261907e+001 
3246875000  -3.816955e+001  5.288116e+000 
3250000000  -3.876705e+001  1.073905e+000 
3253125000  -3.907741e+001  -2.670669e+000 
3256250000  -3.852909e+001  -9.399920e+000 
3259375000  -3.918893e+001  -2.078007e+001 
3262500000  -4.072453e+001  -2.505919e+001 
3265625000  -4.108943e+001  -2.098298e+001 
3268750000  -4.116818e+001  -2.067359e+001 
3271875000  -4.062219e+001  -2.453184e+001 
3275000000  -4.001410e+001  -3.296463e+001 
3278125000  -4.075283e+001  -3.691251e+001 
3281250000  -4.110867e+001  -3.880500e+001 
3284375000  -4.054985e+001  -4.445041e+001 
3287500000  -4.096584e+001  -4.933636e+001 
3290625000  -4.103564e+001  -5.673973e+001 
3293750000  -4.105212e+001  -6.153072e+001 
3296875000  -4.245379e+001  -6.457108e+001 
3300000000  -4.176874e+001  -6.423172e+001 
3303125000  -4.076447e+001  -7.058838e+001 
3306250000  -4.088464e+001  -7.724776e+001 
3309375000  -4.038489e+001  -8.598199e+001 
3312500000  -4.081001e+001  -9.756938e+001 
3315625000  -4.226298e+001  -1.035440e+002 
3318750000  -4.351059e+001  -1.083525e+002 
3321875000  -4.507091e+001  -1.024004e+002 
3325000000  -4.470152e+001  -9.912576e+001 
3328125000  -4.385061e+001  -9.908878e+001 
3331250000  -4.210937e+001  -9.481280e+001 
3334375000  -3.988789e+001  -1.110725e+002 
3337500000  -4.035194e+001  -1.317400e+002 
3340625000  -4.222880e+001  -1.405134e+002 
3343750000  -4.398531e+001  -1.411723e+002 
3346875000  -4.311242e+001  -1.404904e+002 
3350000000  -4.305639e+001  -1.454957e+002 
3353125000  -4.296041e+001  -1.516430e+002 
3356250000  -4.244667e+001  -1.602521e+002 
3359375000  -4.343354e+001  -1.704208e+002 
3362500000  -4.424062e+001  -1.762756e+002 
3365625000  -4.489395e+001  -1.783549e+002 
3368750000  -4.547823e+001  1.763053e+002 
3371875000  -4.557449e+001  1.708040e+002 
3375000000  -4.746432e+001  1.682291e+002 
3378125000  -4.817485e+001  1.667500e+002 
3381250000  -4.881179e+001  -1.798003e+002 
3384375000  -4.652170e+001  -1.662554e+002 
3387500000  -4.392275e+001  1.716588e+002 
3390625000  -4.576660e+001  1.524535e+002 
3393750000  -4.734967e+001  1.521735e+002 
3396875000  -4.628770e+001  1.503139e+002 
3400000000  -4.611658e+001  1.365841e+002 
3403125000  -4.700199e+001  1.329879e+002 
3406250000  -4.807880e+001  1.307820e+002 
3409375000  -4.773354e+001  1.262386e+002 
3412500000  -4.873817e+001  1.131764e+002 
3415625000  -5.019901e+001  1.182033e+002 
3418750000  -5.021028e+001  1.163697e+002 
3421875000  -5.131511e+001  1.210522e+002 
3425000000  -5.018987e+001  1.205794e+002 
3428125000  -5.028463e+001  1.179916e+002 
3431250000  -5.005919e+001  1.062850e+002 
3434375000  -5.100072e+001  1.092572e+002 
3437500000  -5.152386e+001  1.003182e+002 
3440625000  -5.223171e+001  1.065421e+002 
3443750000  -5.133322e+001  1.070404e+002 
3446875000  -5.135841e+001  9.825586e+001 
3450000000  -4.979601e+001  9.281118e+001 
3453125000  -5.123692e+001  8.264341e+001 
3456250000  -5.198711e+001  7.936106e+001 
3459375000  -5.315704e+001  8.280171e+001 
3462500000  -5.205544e+001  8.718618e+001 
3465625000  -5.122787e+001  7.587794e+001 
3468750000  -5.265451e+001  8.314343e+001 
3471875000  -5.260405e+001  7.407663e+001 
3475000000  -5.111788e+001  6.815113e+001 
3478125000  -5.111573e+001  6.197413e+001 
3481250000  -5.297015e+001  6.577283e+001 
3484375000  -5.256060e+001  5.894839e+001 
3487500000  -5.156143e+001  5.986463e+001 
3490625000  -5.088314e+001  5.359539e+001 
3493750000  -5.181946e+001  4.331835e+001 
3496875000  -5.126849e+001  4.865535e+001 
3500000000  -5.255884e+001  4.307948e+001 
3503125000  -5.128211e+001  4.423401e+001 
3506250000  -4.955051e+001  3.256487e+001 
3509375000  -4.962220e+001  2.297906e+001 
3512500000  -5.028028e+001  1.406449e+001 
3515625000  -5.116934e+001  7.219168e+000 
3518750000  -5.288434e+001  1.002520e+001 
3521875000  -5.151670e+001  3.018708e+000 
3525000000  -5.357129e+001  -2.487505e+000 
3528125000  -5.239780e+001  3.614502e+000 
3531250000  -5.116497e+001  -7.718588e+000 
3534375000  -5.326007e+001  -1.301561e+001 
3537500000  -5.414227e+001  -2.546996e+001 
3540625000  -5.442697e+001  -2.554939e+001 
3543750000  -5.518473e+001  -1.792383e+001 
3546875000  -5.741602e+001  -3.022921e+000 
3550000000  -5.316793e+001  -1.274927e+001 
3553125000  -5.376758e+001  -3.476647e+001 
3556250000  -5.623983e+001  -2.932469e+001 
3559375000  -5.544087e+001  -3.153193e+001 
3562500000  -5.564071e+001  -3.500302e+001 
3565625000  -5.626741e+001  -5.069916e+001 
3568750000  -5.674277e+001  -3.750305e+001 
3571875000  -5.909266e+001  -4.539164e+001 
3575000000  -5.837130e+001  -4.645557e+001 
3578125000  -5.758017e+001  -4.203536e+001 
3581250000  -5.737826e+001  -4.839975e+001 
3584375000  -5.765922e+001  -2.897458e+001 
3587500000  -5.823651e+001  -4.734307e+001 
3590625000  -5.826234e+001  -4.288203e+001 
3593750000  -6.016547e+001  -5.052116e+001 
3596875000  -5.959027e+001  -2.983856e+001 
3600000000  -5.674665e+001  -3.745559e+001 
3603125000  -5.849934e+001  -5.512872e+001 
3606250000  -5.840940e+001  -5.886856e+001 
3609375000  -5.814737e+001  -4.068957e+001 
3612500000  -5.869608e+001  -5.317857e+001 
3615625000  -5.869396e+001  -6.020942e+001 
3618750000  -5.846179e+001  -4.169656e+001 
3621875000  -5.858253e+001  -5.080511e+001 
3625000000  -5.823193e+001  -4.774159e+001 
3628125000  -5.704675e+001  -5.063285e+001 
3631250000  -5.607745e+001  -4.506065e+001 
3634375000  -5.626183e+001  -5.238693e+001 
3637500000  -5.622824e+001  -4.225425e+001 
3640625000  -5.406339e+001  -3.555934e+001 
3643750000  -5.257187e+001  -4.863308e+001 
3646875000  -5.292341e+001  -5.330384e+001 
3650000000  -5.322080e+001  -6.418171e+001 
3653125000  -5.230087e+001  -6.523822e+001 
3656250000  -5.174109e+001  -6.418788e+001 
3659375000  -5.172299e+001  -6.681319e+001 
3662500000  -5.017581e+001  -7.225886e+001 
3665625000  -5.027608e+001  -7.006901e+001 
3668750000  -4.861104e+001  -7.567117e+001 
3671875000  -4.765665e+001  -8.423795e+001 
3675000000  -4.703336e+001  -9.613026e+001 
3678125000  -4.745463e+001  -9.438786e+001 
3681250000  -4.665687e+001  -1.018723e+002 
3684375000  -4.698823e+001  -1.088620e+002 
3687500000  -4.629027e+001  -1.114698e+002 
3690625000  -4.665277e+001  -1.179128e+002 
3693750000  -4.647195e+001  -1.184342e+002 
3696875000  -4.602991e+001  -1.204616e+002 
3700000000  -4.539764e+001  -1.241922e+002 
3703125000  -4.537054e+001  -1.338200e+002 
3706250000  -4.590324e+001  -1.337735e+002 
3709375000  -4.484473e+001  -1.351565e+002 
3712500000  -4.352207e+001  -1.385984e+002 
3715625000  -4.207067e+001  -1.455096e+002 
3718750000  -4.179677e+001  -1.542096e+002 
3721875000  -4.124736e+001  -1.656450e+002 
3725000000  -4.193795e+001  -1.700347e+002 
3728125000  -4.162000e+001  -1.733472e+002 
3731250000  -4.044868e+001  1.795731e+002 
3734375000  -4.025634e+001  1.729677e+002 
3737500000  -4.125050e+001  1.645019e+002 
3740625000  -4.092073e+001  1.579185e+002 
3743750000  -4.085832e+001  1.508720e+002 
3746875000  -4.057690e+001  1.437053e+002 
3750000000  -4.093013e+001  1.394532e+002 
3753125000  -4.060649e+001  1.368405e+002 
3756250000  -4.075663e+001  1.336895e+002 
3759375000  -4.033616e+001  1.283246e+002 
3762500000  -4.024027e+001  1.216050e+002 
3765625000  -4.083438e+001  1.165452e+002 
3768750000  -4.036388e+001  1.171701e+002 
3771875000  -3.847120e+001  1.098372e+002 
3775000000  -3.857564e+001  9.882204e+001 
3778125000  -3.910121e+001  9.225712e+001 
3781250000  -3.904257e+001  8.595602e+001 
3784375000  -3.864750e+001  8.323934e+001 
3787500000  -3.862036e+001  7.608758e+001 
3790625000  -3.908331e+001  6.584692e+001 
3793750000  -3.911595e+001  6.283577e+001 
3796875000  -3.804825e+001  5.761879e+001 
3800000000  -3.634176e+001  5.405329e+001 
3803125000  -3.817711e+001  4.212370e+001 
3806250000  -3.889552e+001  3.686126e+001 
3809375000  -3.850088e+001  3.361935e+001 
3812500000  -3.842409e+001  2.311574e+001 
3815625000  -3.973193e+001  1.395032e+001 
3818750000  -4.061661e+001  1.617198e+001 
3821875000  -3.981668e+001  2.471918e+001 
3825000000  -3.818848e+001  2.147372e+001 
3828125000  -3.700845e+001  1.323621e+000 
3831250000  -3.831039e+001  -1.293810e+001 
3834375000  -4.025874e+001  -1.124979e+001 
3837500000  -4.077530e+001  -7.302492e+000 
3840625000  -3.894367e+001  -1.029570e+001 
3843750000  -3.819049e+001  -2.787676e+001 
3846875000  -3.973608e+001  -3.207461e+001 
3850000000  -4.074540e+001  -2.475538e+001 
3853125000  -3.979380e+001  -2.585971e+001 
3856250000  -3.916405e+001  -3.412732e+001 
3859375000  -3.864036e+001  -4.294844e+001 
3862500000  -3.832783e+001  -5.287898e+001 
3865625000  -3.901356e+001  -5.724799e+001 
3868750000  -3.856916e+001  -5.714122e+001 
3871875000  -3.803601e+001  -6.482243e+001 
3875000000  -3.835218e+001  -7.608094e+001 
3878125000  -3.956008e+001  -7.713375e+001 
3881250000  -3.930725e+001  -7.789584e+001 
3884375000  -3.859671e+001  -8.636583e+001 
3887500000  -3.913604e+001  -9.114699e+001 
3890625000  -3.958498e+001  -9.542666e+001 
3893750000  -3.984407e+001  -9.846577e+001 
3896875000  -4.018258e+001  -1.009253e+002 
3900000000  -4.015363e+001  -1.047985e+002 
3903125000  -3.944909e+001  -1.081082e+002 
3906250000  -3.903957e+001  -1.112492e+002 
3909375000  -3.811786e+001  -1.216873e+002 
3912500000  -3.902604e+001  -1.305434e+002 
3915625000  -4.040840e+001  -1.295468e+002 
3918750000  -4.007175e+001  -1.306383e+002 
3921875000  -3.921313e+001  -1.359430e+002 
3925000000  -3.855280e+001  -1.412289e+002 
3928125000  -3.823162e+001  -1.520341e+002 
3931250000  -3.891808e+001  -1.578298e+002 
3934375000  -3.943936e+001  -1.594314e+002 
3937500000  -4.022683e+001  -1.610878e+002 
3940625000  -3.993871e+001  -1.629060e+002 
3943750000  -3.889993e+001  -1.653379e+002 
3946875000  -3.866510e+001  -1.756690e+002 
3950000000  -3.974473e+001  1.762868e+002 
3953125000  -4.015714e+001  1.783439e+002 
3956250000  -3.860177e+001  1.766504e+002 
3959375000  -3.792034e+001  1.715615e+002 
3962500000  -3.764687e+001  1.627893e+002 
3965625000  -3.786345e+001  1.536636e+002 
3968750000  -3.855697e+001  1.424516e+002 
3971875000  -3.856339e+001  1.394649e+002 
3975000000  -3.828339e+001  1.348773e+002 
3978125000  -3.851375e+001  1.302677e+002 
3981250000  -3.840325e+001  1.252401e+002 
3984375000  -3.901783e+001  1.169317e+002 
3987500000  -4.001651e+001  1.144464e+002 
3990625000  -4.007542e+001  1.114514e+002 
3993750000  -4.002773e+001  1.070487e+002 
3996875000  -3.986535e+001  1.014442e+002 
4000000000  -4.071519e+001  9.758296e+001 
4003125000  -4.083725e+001  9.981503e+001 
4006250000  -3.932294e+001  9.665646e+001 
4009375000  -3.860442e+001  8.164261e+001 
4012500000  -4.027644e+001  7.500443e+001 
4015625000  -4.143389e+001  7.351393e+001 
4018750000  -4.143631e+001  7.624640e+001 
4021875000  -4.094678e+001  7.227020e+001 
4025000000  -4.049070e+001  6.669323e+001 
4028125000  -4.052943e+001  5.978784e+001 
4031250000  -4.106506e+001  5.502309e+001 
4034375000  -4.144831e+001  5.339387e+001 
4037500000  -4.101407e+001  5.521341e+001 
4040625000  -4.092492e+001  4.864303e+001 
4043750000  -4.097572e+001  4.668191e+001 
4046875000  -4.069216e+001  4.172973e+001 
4050000000  -4.068569e+001  3.719505e+001 
4053125000  -4.147077e+001  3.537120e+001 
4056250000  -4.142717e+001  3.992985e+001 
4059375000  -3.949382e+001  3.799195e+001 
4062500000  -3.888277e+001  2.885096e+001 
4065625000  -3.870606e+001  2.308920e+001 
4068750000  -3.815466e+001  1.490101e+001 
4071875000  -3.769069e+001  5.223885e+000 
4075000000  -3.846967e+001  -1.162084e+000 
4078125000  -3.867994e+001  -3.339761e+000 
4081250000  -3.799626e+001  -9.177205e+000 
4084375000  -3.800932e+001  -1.910564e+001 
4087500000  -3.869507e+001  -2.561567e+001 
4090625000  -3.903006e+001  -2.838539e+001 
4093750000  -3.868935e+001  -2.985673e+001 
4096875000  -3.870024e+001  -3.953832e+001 
4100000000  -3.968352e+001  -4.702943e+001 
4103125000  -4.060101e+001  -4.392955e+001 
4106250000  -3.991576e+001  -4.121320e+001 
4109375000  -3.921672e+001  -4.507744e+001 
4112500000  -3.887101e+001  -5.474123e+001 
4115625000  -3.934852e+001  -6.251766e+001 
4118750000  -3.898650e+001  -6.562914e+001 
4121875000  -3.888662e+001  -7.259082e+001 
4125000000  -3.994913e+001  -7.859139e+001 
4128125000  -4.080666e+001  -7.777057e+001 
4131250000  -3.984319e+001  -7.240602e+001 
4134375000  -3.753833e+001  -8.267143e+001 
4137500000  -3.804422e+001  -1.027286e+002 
4140625000  -4.037834e+001  -1.069137e+002 
4143750000  -4.147216e+001  -1.029742e+002 
4146875000  -4.053838e+001  -9.796099e+001 
4150000000  -3.967404e+001  -1.064620e+002 
4153125000  -4.052186e+001  -1.149760e+002 
4156250000  -4.125673e+001  -1.180987e+002 
4159375000  -4.126168e+001  -1.135861e+002 
4162500000  -3.994817e+001  -1.114074e+002 
4165625000  -3.878430e+001  -1.197627e+002 
4168750000  -3.869066e+001  -1.286903e+002 
4171875000  -3.856664e+001  -1.400299e+002 
4175000000  -3.913346e+001  -1.450304e+002 
4178125000  -3.956069e+001  -1.456592e+002 
4181250000  -3.932309e+001  -1.499830e+002 
4184375000  -3.938478e+001  -1.550479e+002 
4187500000  -3.947055e+001  -1.605195e+002 
4190625000  -3.946123e+001  -1.676387e+002 
4193750000  -4.062074e+001  -1.728159e+002 
4196875000  -4.143652e+001  -1.730096e+002 
4200000000  -4.257008e+001  -1.663324e+002 
4203125000  -4.088198e+001  -1.553930e+002 
4206250000  -3.772050e+001  -1.656099e+002 
4209375000  -3.734354e+001  1.710118e+002 
4212500000  -3.971009e+001  1.650116e+002 
4215625000  -4.009079e+001  1.718226e+002 
4218750000  -3.824428e+001  1.737713e+002 
4221875000  -3.687994e+001  1.651103e+002 
4225000000  -3.791037e+001  1.533034e+002 
4228125000  -3.751009e+001  1.531950e+002 
4231250000  -3.624521e+001  1.444813e+002 
4234375000  -3.654066e+001  1.355486e+002 
4237500000  -3.602811e+001  1.299879e+002 
4240625000  -3.631896e+001  1.172346e+002 
4243750000  -3.768406e+001  1.100237e+002 
4246875000  -3.861654e+001  1.103402e+002 
4250000000  -3.811047e+001  1.101324e+002 
4253125000  -3.814096e+001  1.054964e+002 
4256250000  -3.814656e+001  1.016446e+002 
4259375000  -3.769535e+001  9.680133e+001 
4262500000  -3.811296e+001  9.143282e+001 
4265625000  -3.773843e+001  8.952369e+001 
4268750000  -3.687313e+001  8.356324e+001 
4271875000  -3.694491e+001  7.333358e+001 
4275000000  -3.654697e+001  6.462513e+001 
4278125000  -3.764447e+001  5.222759e+001 
4281250000  -3.919456e+001  5.174417e+001 
4284375000  -3.904537e+001  4.830024e+001 
4287500000  -4.058496e+001  4.617880e+001 
4290625000  -4.067283e+001  5.296007e+001 
4293750000  -3.863316e+001  5.346665e+001 
4296875000  -3.771517e+001  4.021222e+001 
4300000000  -3.913651e+001  3.181332e+001 
4303125000  -4.000498e+001  3.529017e+001 
4306250000  -3.856046e+001  3.605732e+001 
4309375000  -3.772418e+001  3.076939e+001 
4312500000  -3.787565e+001  1.817745e+001 
4315625000  -3.811738e+001  1.046325e+001 
4318750000  -3.872527e+001  8.341194e+000 
4321875000  -3.860275e+001  8.521926e+000 
4325000000  -3.800774e+001  6.901175e+000 
4328125000  -3.726777e+001  -3.743492e+000 
4331250000  -3.736429e+001  -1.316661e+001 
4334375000  -3.827180e+001  -2.106108e+001 
4337500000  -3.961701e+001  -2.057162e+001 
4340625000  -3.970227e+001  -1.523052e+001 
4343750000  -3.851313e+001  -1.963444e+001 
4346875000  -3.847627e+001  -2.865549e+001 
4350000000  -3.799223e+001  -3.595244e+001 
4353125000  -3.923118e+001  -4.179536e+001 
4356250000  -4.107456e+001  -3.807237e+001 
4359375000  -4.017305e+001  -2.455523e+001 
4362500000  -3.665873e+001  -3.468150e+001 
4365625000  -3.587951e+001  -5.098039e+001 
4368750000  -3.719798e+001  -6.243391e+001 
4371875000  -3.785423e+001  -5.997379e+001 
4375000000  -3.721392e+001  -6.639030e+001 
4378125000  -3.698829e+001  -7.374129e+001 
4381250000  -3.713798e+001  -8.012956e+001 
4384375000  -3.708277e+001  -8.721812e+001 
4387500000  -3.831475e+001  -9.267924e+001 
4390625000  -3.846912e+001  -9.453890e+001 
4393750000  -3.789126e+001  -9.355288e+001 
4396875000  -3.756115e+001  -9.926442e+001 
4400000000  -3.698357e+001  -1.077089e+002 
4403125000  -3.803918e+001  -1.165952e+002 
4406250000  -3.825358e+001  -1.209766e+002 
4409375000  -3.863570e+001  -1.247335e+002 
4412500000  -3.962089e+001  -1.258619e+002 
4415625000  -3.937731e+001  -1.240794e+002 
