!Agilent Technologies,E8363B,MY43030201,A.06.04.32
!Agilent E8363B: A.06.04.32
!Date: Tuesday, November 11, 2014 21:34:21
!Correction: S21(Response(S21)) 
!S1P File: Measurement: S21:
# Hz S  dB   R 50
3000000000  -4.060649e+001  7.371548e+001 
3003125000  -4.206872e+001  6.569524e+001 
3006250000  -4.208667e+001  6.576058e+001 
3009375000  -4.290820e+001  7.010422e+001 
3012500000  -4.143930e+001  6.422533e+001 
3015625000  -4.144250e+001  5.784028e+001 
3018750000  -4.170418e+001  5.857814e+001 
3021875000  -4.032249e+001  5.954792e+001 
3025000000  -3.890390e+001  5.534367e+001 
3028125000  -3.784236e+001  4.489581e+001 
3031250000  -3.704576e+001  3.362631e+001 
3034375000  -3.680241e+001  1.894893e+001 
3037500000  -3.760620e+001  9.184223e+000 
3040625000  -3.880123e+001  3.616898e+000 
3043750000  -3.919104e+001  -3.551547e+000 
3046875000  -3.999417e+001  -9.333053e+000 
3050000000  -4.116196e+001  -1.306410e+001 
3053125000  -4.044525e+001  -8.472909e+000 
3056250000  -4.044921e+001  -5.628408e+000 
3059375000  -3.972200e+001  -6.648551e+000 
3062500000  -3.819582e+001  -1.323748e+001 
3065625000  -3.788268e+001  -2.229584e+001 
3068750000  -3.758841e+001  -3.001535e+001 
3071875000  -3.767638e+001  -3.311030e+001 
3075000000  -3.696633e+001  -3.950742e+001 
3078125000  -3.716197e+001  -4.596837e+001 
3081250000  -3.717905e+001  -5.195002e+001 
3084375000  -3.638247e+001  -5.618848e+001 
3087500000  -3.646681e+001  -6.323210e+001 
3090625000  -3.598513e+001  -7.525427e+001 
3093750000  -3.686119e+001  -8.377766e+001 
3096875000  -3.729629e+001  -8.788679e+001 
3100000000  -3.725011e+001  -9.125980e+001 
3103125000  -3.748384e+001  -9.484223e+001 
3106250000  -3.715771e+001  -1.004046e+002 
3109375000  -3.731324e+001  -1.040175e+002 
3112500000  -3.720277e+001  -1.097048e+002 
3115625000  -3.717598e+001  -1.135922e+002 
3118750000  -3.722940e+001  -1.170615e+002 
3121875000  -3.666225e+001  -1.284515e+002 
3125000000  -3.865486e+001  -1.314472e+002 
3128125000  -3.839645e+001  -1.243185e+002 
3131250000  -3.595557e+001  -1.295403e+002 
3134375000  -3.521372e+001  -1.481184e+002 
3137500000  -3.616949e+001  -1.601550e+002 
3140625000  -3.723096e+001  -1.631413e+002 
3143750000  -3.826685e+001  -1.646968e+002 
3146875000  -3.763830e+001  -1.626650e+002 
3150000000  -3.682288e+001  -1.669424e+002 
3153125000  -3.707222e+001  -1.746524e+002 
3156250000  -3.798068e+001  -1.706144e+002 
3159375000  -3.569181e+001  -1.720582e+002 
3162500000  -3.413969e+001  1.709824e+002 
3165625000  -3.547438e+001  1.589834e+002 
3168750000  -3.542621e+001  1.578699e+002 
3171875000  -3.491014e+001  1.496799e+002 
3175000000  -3.546242e+001  1.414458e+002 
3178125000  -3.501621e+001  1.405733e+002 
3181250000  -3.441488e+001  1.316244e+002 
3184375000  -3.425196e+001  1.201223e+002 
3187500000  -3.554855e+001  1.058819e+002 
3190625000  -3.729113e+001  1.000150e+002 
3193750000  -3.769547e+001  1.045870e+002 
3196875000  -3.736450e+001  1.058492e+002 
3200000000  -3.621248e+001  1.004464e+002 
3203125000  -3.599720e+001  9.243564e+001 
3206250000  -3.622358e+001  8.523100e+001 
3209375000  -3.573477e+001  7.700580e+001 
3212500000  -3.631207e+001  7.019737e+001 
3215625000  -3.620995e+001  6.767339e+001 
3218750000  -3.686093e+001  5.541433e+001 
3221875000  -3.726796e+001  4.851868e+001 
3225000000  -3.698749e+001  4.510517e+001 
3228125000  -3.778536e+001  3.907232e+001 
3231250000  -3.810565e+001  3.598144e+001 
3234375000  -3.796739e+001  3.358956e+001 
3237500000  -3.798149e+001  2.875922e+001 
3240625000  -3.754266e+001  2.413895e+001 
3243750000  -3.764055e+001  1.387452e+001 
3246875000  -3.821532e+001  6.974812e+000 
3250000000  -3.872916e+001  2.216414e+000 
3253125000  -3.899834e+001  4.250167e-001 
3256250000  -3.843650e+001  -8.273483e+000 
3259375000  -3.911824e+001  -1.902783e+001 
3262500000  -4.059795e+001  -2.407490e+001 
3265625000  -4.140197e+001  -2.005722e+001 
3268750000  -4.103310e+001  -1.996043e+001 
3271875000  -4.044586e+001  -2.355570e+001 
3275000000  -4.014117e+001  -3.307586e+001 
3278125000  -4.080835e+001  -3.611192e+001 
3281250000  -4.110902e+001  -3.837794e+001 
3284375000  -4.059335e+001  -4.484918e+001 
3287500000  -4.069602e+001  -4.832431e+001 
3290625000  -4.123500e+001  -5.544759e+001 
3293750000  -4.106832e+001  -6.145485e+001 
3296875000  -4.235275e+001  -6.283199e+001 
3300000000  -4.181421e+001  -6.258059e+001 
3303125000  -4.078460e+001  -6.931932e+001 
3306250000  -4.082589e+001  -7.657275e+001 
3309375000  -4.042411e+001  -8.422416e+001 
3312500000  -4.088633e+001  -9.715906e+001 
3315625000  -4.254588e+001  -1.030415e+002 
3318750000  -4.356503e+001  -1.070310e+002 
3321875000  -4.499161e+001  -1.032983e+002 
3325000000  -4.519850e+001  -9.636285e+001 
3328125000  -4.355518e+001  -9.904411e+001 
3331250000  -4.237254e+001  -9.458489e+001 
3334375000  -3.960591e+001  -1.100470e+002 
3337500000  -4.046688e+001  -1.298872e+002 
3340625000  -4.198373e+001  -1.387106e+002 
3343750000  -4.427069e+001  -1.394789e+002 
3346875000  -4.336864e+001  -1.395357e+002 
3350000000  -4.300743e+001  -1.451566e+002 
3353125000  -4.273543e+001  -1.508680e+002 
3356250000  -4.228741e+001  -1.590212e+002 
3359375000  -4.350999e+001  -1.699902e+002 
3362500000  -4.452043e+001  -1.738263e+002 
3365625000  -4.448237e+001  -1.780329e+002 
3368750000  -4.535073e+001  1.791150e+002 
3371875000  -4.589075e+001  1.720615e+002 
3375000000  -4.739370e+001  1.676345e+002 
3378125000  -4.816297e+001  1.681330e+002 
3381250000  -4.999616e+001  -1.795429e+002 
3384375000  -4.613190e+001  -1.692549e+002 
3387500000  -4.408128e+001  1.717786e+002 
3390625000  -4.608981e+001  1.524371e+002 
3393750000  -4.694206e+001  1.535709e+002 
3396875000  -4.621080e+001  1.517275e+002 
3400000000  -4.565657e+001  1.379481e+002 
3403125000  -4.684900e+001  1.347932e+002 
3406250000  -4.748601e+001  1.295796e+002 
3409375000  -4.837790e+001  1.250003e+002 
3412500000  -4.925628e+001  1.136440e+002 
3415625000  -4.996748e+001  1.186387e+002 
3418750000  -5.009899e+001  1.190640e+002 
3421875000  -5.126235e+001  1.222199e+002 
3425000000  -4.970922e+001  1.206123e+002 
3428125000  -4.993939e+001  1.147824e+002 
3431250000  -5.040591e+001  1.092307e+002 
3434375000  -5.066272e+001  1.031214e+002 
3437500000  -5.095069e+001  1.023430e+002 
3440625000  -5.192111e+001  1.034723e+002 
3443750000  -4.985550e+001  1.094278e+002 
3446875000  -5.073225e+001  1.010443e+002 
3450000000  -4.957765e+001  9.008894e+001 
3453125000  -5.069415e+001  8.139851e+001 
3456250000  -5.174658e+001  7.913064e+001 
3459375000  -5.271769e+001  8.190279e+001 
3462500000  -5.250904e+001  8.782923e+001 
3465625000  -5.106145e+001  8.170953e+001 
3468750000  -5.181785e+001  7.766824e+001 
3471875000  -5.140140e+001  7.896309e+001 
3475000000  -5.113013e+001  7.593230e+001 
3478125000  -5.162409e+001  6.124856e+001 
3481250000  -5.285535e+001  6.538996e+001 
3484375000  -5.253815e+001  6.473715e+001 
3487500000  -5.145224e+001  6.023892e+001 
3490625000  -5.052122e+001  5.719076e+001 
3493750000  -5.169574e+001  4.970838e+001 
3496875000  -5.123401e+001  5.002884e+001 
3500000000  -5.226189e+001  4.936067e+001 
3503125000  -5.090638e+001  4.881510e+001 
3506250000  -4.962086e+001  3.437478e+001 
3509375000  -4.979600e+001  3.101955e+001 
3512500000  -5.026844e+001  1.790378e+001 
3515625000  -5.193772e+001  1.057519e+001 
3518750000  -5.159015e+001  1.631214e+001 
3521875000  -5.238493e+001  5.280613e+000 
3525000000  -5.345466e+001  -5.785421e-001 
3528125000  -5.296741e+001  4.452458e+000 
3531250000  -5.239413e+001  1.671813e+000 
3534375000  -5.177456e+001  -1.450182e+001 
3537500000  -5.365381e+001  -2.309597e+001 
3540625000  -5.416897e+001  -2.439167e+001 
3543750000  -5.615256e+001  -1.666929e+001 
3546875000  -5.474026e+001  -7.252297e+000 
3550000000  -5.334154e+001  -1.805773e+001 
3553125000  -5.375008e+001  -2.892964e+001 
3556250000  -5.686670e+001  -2.881210e+001 
3559375000  -5.602319e+001  -3.075948e+001 
3562500000  -5.676607e+001  -4.422773e+001 
3565625000  -5.738210e+001  -4.280678e+001 
3568750000  -5.724206e+001  -4.042294e+001 
3571875000  -5.863786e+001  -4.567372e+001 
3575000000  -5.773359e+001  -4.234227e+001 
3578125000  -6.022150e+001  -3.926396e+001 
3581250000  -5.895210e+001  -4.415448e+001 
3584375000  -5.873399e+001  -3.089772e+001 
3587500000  -5.683152e+001  -4.029192e+001 
3590625000  -5.945070e+001  -6.144533e+001 
3593750000  -5.910467e+001  -5.757998e+001 
3596875000  -5.883532e+001  -2.458202e+001 
3600000000  -5.738118e+001  -3.630572e+001 
3603125000  -5.829037e+001  -5.861449e+001 
3606250000  -5.738330e+001  -4.519913e+001 
3609375000  -5.755240e+001  -4.562530e+001 
3612500000  -5.928548e+001  -3.264532e+001 
3615625000  -6.201096e+001  -5.980962e+001 
3618750000  -5.955000e+001  -5.302244e+001 
3621875000  -5.738320e+001  -4.353090e+001 
3625000000  -5.726715e+001  -4.003249e+001 
3628125000  -5.659815e+001  -3.512646e+001 
3631250000  -5.680136e+001  -4.942936e+001 
3634375000  -5.560639e+001  -4.463828e+001 
3637500000  -5.594582e+001  -3.116453e+001 
3640625000  -5.387725e+001  -3.433378e+001 
3643750000  -5.256948e+001  -4.097913e+001 
3646875000  -5.427609e+001  -6.353020e+001 
3650000000  -5.298869e+001  -6.010747e+001 
3653125000  -5.233225e+001  -5.384856e+001 
3656250000  -5.188623e+001  -6.309366e+001 
3659375000  -5.192145e+001  -5.827688e+001 
3662500000  -5.105428e+001  -7.022495e+001 
3665625000  -4.939156e+001  -6.816174e+001 
3668750000  -4.772963e+001  -7.213889e+001 
3671875000  -4.722253e+001  -8.652491e+001 
3675000000  -4.742028e+001  -9.350246e+001 
3678125000  -4.732444e+001  -9.672301e+001 
3681250000  -4.678406e+001  -1.032786e+002 
3684375000  -4.697857e+001  -1.043938e+002 
3687500000  -4.654721e+001  -1.138478e+002 
3690625000  -4.682913e+001  -1.172369e+002 
3693750000  -4.703645e+001  -1.151857e+002 
3696875000  -4.650932e+001  -1.172850e+002 
3700000000  -4.508052e+001  -1.242392e+002 
3703125000  -4.528342e+001  -1.310902e+002 
3706250000  -4.550325e+001  -1.343811e+002 
3709375000  -4.487555e+001  -1.309660e+002 
3712500000  -4.365887e+001  -1.380975e+002 
3715625000  -4.196564e+001  -1.461575e+002 
3718750000  -4.174726e+001  -1.533878e+002 
3721875000  -4.124447e+001  -1.633958e+002 
3725000000  -4.169225e+001  -1.694531e+002 
3728125000  -4.165545e+001  -1.721432e+002 
3731250000  -4.052353e+001  -1.797353e+002 
3734375000  -3.995375e+001  1.734864e+002 
3737500000  -4.067487e+001  1.639223e+002 
3740625000  -4.110572e+001  1.597331e+002 
3743750000  -4.026429e+001  1.523138e+002 
3746875000  -4.082659e+001  1.448759e+002 
3750000000  -4.092966e+001  1.417205e+002 
3753125000  -4.082241e+001  1.384206e+002 
3756250000  -4.081925e+001  1.343746e+002 
3759375000  -4.047365e+001  1.287833e+002 
3762500000  -4.016424e+001  1.235938e+002 
3765625000  -4.095189e+001  1.173805e+002 
3768750000  -4.016418e+001  1.191883e+002 
3771875000  -3.850394e+001  1.102380e+002 
3775000000  -3.844881e+001  9.980120e+001 
3778125000  -3.892236e+001  9.272728e+001 
3781250000  -3.903425e+001  8.920670e+001 
3784375000  -3.870173e+001  8.226597e+001 
3787500000  -3.854028e+001  7.693910e+001 
3790625000  -3.929418e+001  6.723947e+001 
3793750000  -3.892943e+001  6.395536e+001 
3796875000  -3.813840e+001  6.164405e+001 
3800000000  -3.630593e+001  5.483071e+001 
3803125000  -3.816163e+001  4.306666e+001 
3806250000  -3.881667e+001  3.876873e+001 
3809375000  -3.848480e+001  3.384871e+001 
3812500000  -3.844707e+001  2.439381e+001 
3815625000  -3.973175e+001  1.679909e+001 
3818750000  -4.085110e+001  1.842065e+001 
3821875000  -3.997118e+001  2.582486e+001 
3825000000  -3.822303e+001  2.293336e+001 
3828125000  -3.691449e+001  3.646369e+000 
3831250000  -3.809888e+001  -1.074598e+001 
3834375000  -4.053867e+001  -1.053281e+001 
3837500000  -4.067362e+001  -6.176952e+000 
3840625000  -3.916048e+001  -1.106280e+001 
3843750000  -3.836315e+001  -2.615199e+001 
3846875000  -3.967563e+001  -3.070364e+001 
3850000000  -4.088351e+001  -2.314560e+001 
3853125000  -4.006737e+001  -2.470793e+001 
3856250000  -3.936679e+001  -3.296152e+001 
3859375000  -3.858321e+001  -4.045236e+001 
3862500000  -3.866480e+001  -5.148088e+001 
3865625000  -3.895223e+001  -5.545904e+001 
3868750000  -3.865829e+001  -5.632605e+001 
3871875000  -3.806703e+001  -6.389516e+001 
3875000000  -3.845751e+001  -7.299380e+001 
3878125000  -3.934225e+001  -7.721636e+001 
3881250000  -3.920307e+001  -7.668186e+001 
3884375000  -3.874152e+001  -8.364101e+001 
3887500000  -3.935472e+001  -8.916888e+001 
3890625000  -3.950639e+001  -9.428481e+001 
3893750000  -3.964906e+001  -9.672984e+001 
3896875000  -4.003816e+001  -9.938943e+001 
3900000000  -3.985838e+001  -1.021394e+002 
3903125000  -3.940518e+001  -1.084267e+002 
3906250000  -3.877176e+001  -1.103480e+002 
3909375000  -3.813259e+001  -1.215049e+002 
3912500000  -3.930797e+001  -1.301062e+002 
3915625000  -4.057454e+001  -1.293578e+002 
3918750000  -3.986329e+001  -1.303286e+002 
3921875000  -3.926906e+001  -1.348773e+002 
3925000000  -3.852135e+001  -1.399697e+002 
3928125000  -3.832671e+001  -1.501842e+002 
3931250000  -3.905497e+001  -1.558751e+002 
3934375000  -3.964923e+001  -1.583899e+002 
3937500000  -4.014020e+001  -1.593660e+002 
3940625000  -4.027493e+001  -1.632858e+002 
3943750000  -3.896074e+001  -1.652612e+002 
3946875000  -3.835315e+001  -1.751917e+002 
3950000000  -3.951389e+001  1.777843e+002 
3953125000  -3.988651e+001  1.787442e+002 
3956250000  -3.856546e+001  1.788170e+002 
3959375000  -3.772375e+001  1.710888e+002 
3962500000  -3.754152e+001  1.628955e+002 
3965625000  -3.797063e+001  1.540686e+002 
3968750000  -3.855595e+001  1.456382e+002 
3971875000  -3.849051e+001  1.408432e+002 
3975000000  -3.846264e+001  1.367828e+002 
3978125000  -3.852025e+001  1.318996e+002 
3981250000  -3.856479e+001  1.261016e+002 
3984375000  -3.889973e+001  1.172971e+002 
3987500000  -3.968383e+001  1.137689e+002 
3990625000  -3.980531e+001  1.123275e+002 
3993750000  -3.999041e+001  1.077139e+002 
3996875000  -3.965142e+001  1.038241e+002 
4000000000  -4.083481e+001  9.951685e+001 
4003125000  -4.110878e+001  1.008676e+002 
4006250000  -3.912274e+001  9.912428e+001 
4009375000  -3.873640e+001  8.336619e+001 
4012500000  -4.024195e+001  7.664489e+001 
4015625000  -4.151752e+001  7.472238e+001 
4018750000  -4.115651e+001  7.557616e+001 
4021875000  -4.088862e+001  7.249642e+001 
4025000000  -4.029253e+001  6.628121e+001 
4028125000  -4.068299e+001  5.911237e+001 
4031250000  -4.095301e+001  5.657833e+001 
4034375000  -4.151538e+001  5.536140e+001 
4037500000  -4.123537e+001  5.558753e+001 
4040625000  -4.092543e+001  5.141243e+001 
4043750000  -4.087032e+001  4.767517e+001 
4046875000  -4.069931e+001  4.381965e+001 
4050000000  -4.065593e+001  3.962413e+001 
4053125000  -4.124124e+001  3.904408e+001 
4056250000  -4.122370e+001  4.166287e+001 
4059375000  -3.932507e+001  3.923949e+001 
4062500000  -3.896430e+001  3.012687e+001 
4065625000  -3.878446e+001  2.653477e+001 
4068750000  -3.813623e+001  1.754057e+001 
4071875000  -3.787805e+001  9.170236e+000 
4075000000  -3.854134e+001  1.519506e+000 
4078125000  -3.876593e+001  -2.185839e+000 
4081250000  -3.823674e+001  -7.276165e+000 
4084375000  -3.784740e+001  -1.750399e+001 
4087500000  -3.855895e+001  -2.361884e+001 
4090625000  -3.942633e+001  -2.508335e+001 
4093750000  -3.859077e+001  -2.896332e+001 
4096875000  -3.872931e+001  -3.832655e+001 
4100000000  -3.970177e+001  -4.372048e+001 
4103125000  -4.068730e+001  -4.234894e+001 
4106250000  -3.991912e+001  -4.062581e+001 
4109375000  -3.933898e+001  -4.523341e+001 
4112500000  -3.889192e+001  -5.358564e+001 
4115625000  -3.927505e+001  -5.952325e+001 
4118750000  -3.903482e+001  -6.474132e+001 
4121875000  -3.897191e+001  -7.094378e+001 
4125000000  -3.997255e+001  -7.785269e+001 
4128125000  -4.074895e+001  -7.493711e+001 
4131250000  -3.960054e+001  -7.135568e+001 
4134375000  -3.797832e+001  -7.994975e+001 
4137500000  -3.830436e+001  -1.007473e+002 
4140625000  -4.065956e+001  -1.068388e+002 
4143750000  -4.115728e+001  -1.010672e+002 
4146875000  -4.049056e+001  -9.782458e+001 
4150000000  -3.953274e+001  -1.058270e+002 
4153125000  -3.979110e+001  -1.131435e+002 
4156250000  -4.121251e+001  -1.169091e+002 
4159375000  -4.100144e+001  -1.117900e+002 
4162500000  -3.994565e+001  -1.094821e+002 
4165625000  -3.906581e+001  -1.188607e+002 
4168750000  -3.833073e+001  -1.280241e+002 
4171875000  -3.852570e+001  -1.377967e+002 
4175000000  -3.927361e+001  -1.433160e+002 
4178125000  -3.959315e+001  -1.439658e+002 
4181250000  -3.927144e+001  -1.487522e+002 
4184375000  -3.965839e+001  -1.542627e+002 
4187500000  -3.944770e+001  -1.593649e+002 
4190625000  -3.947735e+001  -1.655627e+002 
4193750000  -4.049545e+001  -1.686279e+002 
4196875000  -4.158596e+001  -1.727276e+002 
4200000000  -4.233150e+001  -1.649862e+002 
4203125000  -4.079259e+001  -1.532589e+002 
4206250000  -3.763480e+001  -1.644528e+002 
4209375000  -3.744028e+001  1.733851e+002 
4212500000  -3.974514e+001  1.678987e+002 
4215625000  -4.025061e+001  1.744537e+002 
4218750000  -3.833787e+001  1.739942e+002 
4221875000  -3.686882e+001  1.641267e+002 
4225000000  -3.790600e+001  1.540230e+002 
4228125000  -3.780420e+001  1.553105e+002 
4231250000  -3.619720e+001  1.472560e+002 
4234375000  -3.635801e+001  1.366822e+002 
4237500000  -3.613449e+001  1.322641e+002 
4240625000  -3.635261e+001  1.196651e+002 
4243750000  -3.730065e+001  1.113579e+002 
4246875000  -3.834262e+001  1.117684e+002 
4250000000  -3.839700e+001  1.107324e+002 
4253125000  -3.805579e+001  1.096850e+002 
4256250000  -3.791257e+001  1.031400e+002 
4259375000  -3.773919e+001  9.828252e+001 
4262500000  -3.795306e+001  9.243186e+001 
4265625000  -3.806020e+001  8.946125e+001 
4268750000  -3.698721e+001  8.276582e+001 
4271875000  -3.686797e+001  7.351842e+001 
4275000000  -3.663023e+001  6.733885e+001 
4278125000  -3.782197e+001  5.314186e+001 
4281250000  -3.897654e+001  5.278132e+001 
4284375000  -3.901154e+001  5.086282e+001 
4287500000  -4.060632e+001  4.663920e+001 
4290625000  -4.044175e+001  5.468845e+001 
4293750000  -3.905544e+001  5.411071e+001 
4296875000  -3.780070e+001  4.198405e+001 
4300000000  -3.915968e+001  3.333792e+001 
4303125000  -3.975046e+001  3.760064e+001 
4306250000  -3.848379e+001  3.825160e+001 
4309375000  -3.757991e+001  3.292645e+001 
4312500000  -3.748838e+001  2.192614e+001 
4315625000  -3.771686e+001  1.360586e+001 
4318750000  -3.875692e+001  9.021056e+000 
4321875000  -3.852054e+001  8.541616e+000 
4325000000  -3.812222e+001  8.972372e+000 
4328125000  -3.720192e+001  -6.603494e-001 
4331250000  -3.748405e+001  -1.104883e+001 
4334375000  -3.844039e+001  -1.921295e+001 
4337500000  -3.957705e+001  -1.931178e+001 
4340625000  -3.969302e+001  -1.518386e+001 
4343750000  -3.845190e+001  -1.881688e+001 
4346875000  -3.844177e+001  -2.708819e+001 
4350000000  -3.847395e+001  -3.497884e+001 
4353125000  -3.899723e+001  -4.139035e+001 
4356250000  -4.112662e+001  -3.821862e+001 
4359375000  -3.954827e+001  -2.041807e+001 
4362500000  -3.664816e+001  -3.228566e+001 
4365625000  -3.594970e+001  -5.003928e+001 
4368750000  -3.716440e+001  -5.985959e+001 
4371875000  -3.829412e+001  -6.012957e+001 
4375000000  -3.734465e+001  -6.383368e+001 
4378125000  -3.679907e+001  -7.091470e+001 
4381250000  -3.710388e+001  -8.009885e+001 
4384375000  -3.720243e+001  -8.540235e+001 
4387500000  -3.831487e+001  -9.301978e+001 
4390625000  -3.867857e+001  -9.253682e+001 
4393750000  -3.792853e+001  -9.182691e+001 
4396875000  -3.739351e+001  -9.738262e+001 
4400000000  -3.676658e+001  -1.075926e+002 
4403125000  -3.791333e+001  -1.162125e+002 
4406250000  -3.831814e+001  -1.206979e+002 
4409375000  -3.869875e+001  -1.240514e+002 
4412500000  -3.956257e+001  -1.250551e+002 
4415625000  -3.933868e+001  -1.237445e+002 
