!Agilent Technologies,E8363B,MY43030201,A.06.04.32
!Agilent E8363B: A.06.04.32
!Date: Tuesday, November 11, 2014 21:35:43
!Correction: S21(Response(S21)) 
!S1P File: Measurement: S21:
# Hz S  dB   R 50
3000000000  -4.058816e+001  7.140311e+001 
3003125000  -4.229383e+001  6.536642e+001 
3006250000  -4.231931e+001  6.377041e+001 
3009375000  -4.284748e+001  6.851550e+001 
3012500000  -4.142421e+001  6.403623e+001 
3015625000  -4.165232e+001  5.702944e+001 
3018750000  -4.178048e+001  5.767602e+001 
3021875000  -4.011675e+001  5.861917e+001 
3025000000  -3.878774e+001  5.389137e+001 
3028125000  -3.788361e+001  4.446850e+001 
3031250000  -3.699606e+001  3.184565e+001 
3034375000  -3.691513e+001  1.782278e+001 
3037500000  -3.759147e+001  7.426763e+000 
3040625000  -3.888306e+001  1.043149e+000 
3043750000  -3.913936e+001  -5.169941e+000 
3046875000  -3.980624e+001  -1.054226e+001 
3050000000  -4.114191e+001  -1.403536e+001 
3053125000  -4.050884e+001  -9.922287e+000 
3056250000  -4.043204e+001  -6.285000e+000 
3059375000  -3.960180e+001  -8.764781e+000 
3062500000  -3.821078e+001  -1.412303e+001 
3065625000  -3.784632e+001  -2.407459e+001 
3068750000  -3.774046e+001  -3.113279e+001 
3071875000  -3.771858e+001  -3.366484e+001 
3075000000  -3.700197e+001  -4.126308e+001 
3078125000  -3.698985e+001  -4.641563e+001 
3081250000  -3.722800e+001  -5.281849e+001 
3084375000  -3.635592e+001  -5.748528e+001 
3087500000  -3.642810e+001  -6.462360e+001 
3090625000  -3.583832e+001  -7.647878e+001 
3093750000  -3.691131e+001  -8.436996e+001 
3096875000  -3.740677e+001  -8.961629e+001 
3100000000  -3.726854e+001  -9.199220e+001 
3103125000  -3.756537e+001  -9.636955e+001 
3106250000  -3.719529e+001  -1.007387e+002 
3109375000  -3.726812e+001  -1.055140e+002 
3112500000  -3.717384e+001  -1.110785e+002 
3115625000  -3.716575e+001  -1.150451e+002 
3118750000  -3.721087e+001  -1.189876e+002 
3121875000  -3.660935e+001  -1.293727e+002 
3125000000  -3.835795e+001  -1.319144e+002 
3128125000  -3.842790e+001  -1.261319e+002 
3131250000  -3.607034e+001  -1.322656e+002 
3134375000  -3.543055e+001  -1.488019e+002 
3137500000  -3.619571e+001  -1.610625e+002 
3140625000  -3.727068e+001  -1.635371e+002 
3143750000  -3.816432e+001  -1.664813e+002 
3146875000  -3.763300e+001  -1.636086e+002 
3150000000  -3.678261e+001  -1.675246e+002 
3153125000  -3.723842e+001  -1.758976e+002 
3156250000  -3.800777e+001  -1.720267e+002 
3159375000  -3.562274e+001  -1.736635e+002 
3162500000  -3.420049e+001  1.705280e+002 
3165625000  -3.550623e+001  1.579536e+002 
3168750000  -3.536139e+001  1.566217e+002 
3171875000  -3.486076e+001  1.497033e+002 
3175000000  -3.550571e+001  1.400985e+002 
3178125000  -3.496899e+001  1.392825e+002 
3181250000  -3.449947e+001  1.301124e+002 
3184375000  -3.413494e+001  1.193021e+002 
3187500000  -3.542380e+001  1.046779e+002 
3190625000  -3.720613e+001  9.774738e+001 
3193750000  -3.759358e+001  1.033783e+002 
3196875000  -3.735289e+001  1.042367e+002 
3200000000  -3.611535e+001  9.931102e+001 
3203125000  -3.596784e+001  9.060165e+001 
3206250000  -3.614978e+001  8.342103e+001 
3209375000  -3.569788e+001  7.561392e+001 
3212500000  -3.641999e+001  6.840578e+001 
3215625000  -3.593290e+001  6.653554e+001 
3218750000  -3.663245e+001  5.360493e+001 
3221875000  -3.723361e+001  4.861202e+001 
3225000000  -3.710236e+001  4.439129e+001 
3228125000  -3.773798e+001  3.717084e+001 
3231250000  -3.829345e+001  3.527755e+001 
3234375000  -3.796527e+001  3.167938e+001 
3237500000  -3.804585e+001  2.760627e+001 
3240625000  -3.762093e+001  2.231108e+001 
3243750000  -3.761159e+001  1.287674e+001 
3246875000  -3.822534e+001  4.687195e+000 
3250000000  -3.876242e+001  1.450953e+000 
3253125000  -3.893111e+001  -8.803864e-001 
3256250000  -3.861140e+001  -9.705654e+000 
3259375000  -3.911553e+001  -2.069620e+001 
3262500000  -4.063885e+001  -2.440208e+001 
3265625000  -4.130653e+001  -2.133903e+001 
3268750000  -4.125919e+001  -1.998882e+001 
3271875000  -4.054839e+001  -2.516643e+001 
3275000000  -4.007025e+001  -3.381790e+001 
3278125000  -4.079171e+001  -3.820760e+001 
3281250000  -4.125803e+001  -3.828672e+001 
3284375000  -4.059754e+001  -4.535711e+001 
3287500000  -4.078299e+001  -4.975638e+001 
3290625000  -4.106329e+001  -5.828249e+001 
3293750000  -4.116718e+001  -6.261766e+001 
3296875000  -4.230615e+001  -6.429051e+001 
3300000000  -4.156386e+001  -6.337463e+001 
3303125000  -4.101451e+001  -7.085193e+001 
3306250000  -4.071973e+001  -7.704536e+001 
3309375000  -4.050275e+001  -8.584687e+001 
3312500000  -4.105798e+001  -9.798140e+001 
3315625000  -4.223027e+001  -1.041263e+002 
3318750000  -4.350573e+001  -1.080478e+002 
3321875000  -4.483028e+001  -1.069976e+002 
3325000000  -4.469561e+001  -9.817101e+001 
3328125000  -4.391117e+001  -9.908314e+001 
3331250000  -4.192656e+001  -9.447517e+001 
3334375000  -3.983709e+001  -1.120143e+002 
3337500000  -4.042658e+001  -1.324950e+002 
3340625000  -4.235957e+001  -1.412337e+002 
3343750000  -4.407541e+001  -1.398741e+002 
3346875000  -4.339280e+001  -1.412640e+002 
3350000000  -4.295193e+001  -1.440638e+002 
3353125000  -4.271684e+001  -1.510246e+002 
3356250000  -4.251377e+001  -1.587478e+002 
3359375000  -4.343620e+001  -1.709571e+002 
3362500000  -4.428178e+001  -1.782395e+002 
3365625000  -4.506306e+001  -1.796011e+002 
3368750000  -4.515232e+001  1.746933e+002 
3371875000  -4.582908e+001  1.707209e+002 
3375000000  -4.745748e+001  1.681091e+002 
3378125000  -4.847289e+001  1.685582e+002 
3381250000  -4.922855e+001  1.767218e+002 
3384375000  -4.664672e+001  -1.650695e+002 
3387500000  -4.382838e+001  1.713479e+002 
3390625000  -4.626991e+001  1.513945e+002 
3393750000  -4.698622e+001  1.533083e+002 
3396875000  -4.644602e+001  1.487572e+002 
3400000000  -4.614199e+001  1.345844e+002 
3403125000  -4.672471e+001  1.339036e+002 
3406250000  -4.786782e+001  1.288221e+002 
3409375000  -4.791891e+001  1.207180e+002 
3412500000  -4.909224e+001  1.157223e+002 
3415625000  -5.008675e+001  1.164009e+002 
3418750000  -5.037141e+001  1.153722e+002 
3421875000  -5.122308e+001  1.186676e+002 
3425000000  -5.025414e+001  1.172108e+002 
3428125000  -5.022354e+001  1.150196e+002 
3431250000  -4.966710e+001  1.066819e+002 
3434375000  -5.045549e+001  1.011587e+002 
3437500000  -5.137395e+001  1.010366e+002 
3440625000  -5.218798e+001  1.079062e+002 
3443750000  -5.017065e+001  1.065904e+002 
3446875000  -5.082743e+001  1.015670e+002 
3450000000  -5.038096e+001  9.051781e+001 
3453125000  -5.089038e+001  8.424105e+001 
3456250000  -5.217207e+001  8.512303e+001 
3459375000  -5.381029e+001  8.708034e+001 
3462500000  -5.266336e+001  8.946085e+001 
3465625000  -5.102096e+001  7.540508e+001 
3468750000  -5.242115e+001  7.879736e+001 
3471875000  -5.208962e+001  7.568739e+001 
3475000000  -5.092751e+001  7.031481e+001 
3478125000  -5.137522e+001  6.009854e+001 
3481250000  -5.191967e+001  6.435397e+001 
3484375000  -5.257347e+001  6.282950e+001 
3487500000  -5.235736e+001  5.759700e+001 
3490625000  -5.149721e+001  4.975698e+001 
3493750000  -5.120301e+001  4.647723e+001 
3496875000  -5.122804e+001  4.714230e+001 
3500000000  -5.208068e+001  4.583007e+001 
3503125000  -5.052707e+001  4.070473e+001 
3506250000  -4.986073e+001  3.463921e+001 
3509375000  -4.985184e+001  3.104237e+001 
3512500000  -5.085737e+001  1.435167e+001 
3515625000  -5.103411e+001  9.443524e+000 
3518750000  -5.243313e+001  9.053855e+000 
3521875000  -5.312964e+001  3.786832e+000 
3525000000  -5.279784e+001  -3.161121e+000 
3528125000  -5.220219e+001  4.937066e+000 
3531250000  -5.169319e+001  -2.060588e+000 
3534375000  -5.291986e+001  -1.834035e+001 
3537500000  -5.309477e+001  -2.656467e+001 
3540625000  -5.372636e+001  -2.784947e+001 
3543750000  -5.579287e+001  -2.191905e+001 
3546875000  -5.574459e+001  -7.295808e+000 
3550000000  -5.421230e+001  -2.149316e+001 
3553125000  -5.366144e+001  -3.421845e+001 
3556250000  -5.563098e+001  -3.181704e+001 
3559375000  -5.736804e+001  -4.022044e+001 
3562500000  -5.727473e+001  -4.889777e+001 
3565625000  -5.683921e+001  -4.497762e+001 
3568750000  -5.639257e+001  -3.772120e+001 
3571875000  -5.888483e+001  -4.637279e+001 
3575000000  -5.950229e+001  -4.633558e+001 
3578125000  -5.919039e+001  -3.837210e+001 
3581250000  -5.790358e+001  -4.089035e+001 
3584375000  -5.692131e+001  -3.149451e+001 
3587500000  -5.823512e+001  -4.467338e+001 
3590625000  -5.795815e+001  -6.820256e+001 
3593750000  -5.951988e+001  -3.636556e+001 
3596875000  -5.937647e+001  -4.547633e+001 
3600000000  -5.776484e+001  -2.938023e+001 
3603125000  -5.966983e+001  -5.243435e+001 
3606250000  -5.902660e+001  -6.115099e+001 
3609375000  -5.756981e+001  -4.423597e+001 
3612500000  -5.843782e+001  -5.003611e+001 
3615625000  -5.812331e+001  -4.861221e+001 
3618750000  -5.898917e+001  -5.047937e+001 
3621875000  -5.724418e+001  -4.556223e+001 
3625000000  -5.827565e+001  -4.760989e+001 
3628125000  -5.663153e+001  -4.328111e+001 
3631250000  -5.756397e+001  -4.322884e+001 
3634375000  -5.834773e+001  -4.098617e+001 
3637500000  -5.607914e+001  -4.275865e+001 
3640625000  -5.425309e+001  -3.584348e+001 
3643750000  -5.276783e+001  -4.875475e+001 
3646875000  -5.201680e+001  -5.687880e+001 
3650000000  -5.304491e+001  -5.717849e+001 
3653125000  -5.101745e+001  -6.185551e+001 
3656250000  -5.175742e+001  -6.497129e+001 
3659375000  -5.131781e+001  -6.622928e+001 
3662500000  -5.120087e+001  -7.461510e+001 
3665625000  -4.957157e+001  -6.969283e+001 
3668750000  -4.757282e+001  -7.101703e+001 
3671875000  -4.771818e+001  -8.596474e+001 
3675000000  -4.756599e+001  -9.428271e+001 
3678125000  -4.762508e+001  -9.658543e+001 
3681250000  -4.664629e+001  -1.035414e+002 
3684375000  -4.660672e+001  -1.069159e+002 
3687500000  -4.681674e+001  -1.139562e+002 
3690625000  -4.654312e+001  -1.186381e+002 
3693750000  -4.631568e+001  -1.209124e+002 
3696875000  -4.676825e+001  -1.205732e+002 
3700000000  -4.490369e+001  -1.272919e+002 
3703125000  -4.517021e+001  -1.321876e+002 
3706250000  -4.598618e+001  -1.344196e+002 
3709375000  -4.487447e+001  -1.331802e+002 
3712500000  -4.334918e+001  -1.397140e+002 
3715625000  -4.154629e+001  -1.491483e+002 
3718750000  -4.190894e+001  -1.540203e+002 
3721875000  -4.109557e+001  -1.654313e+002 
3725000000  -4.163116e+001  -1.717407e+002 
3728125000  -4.125530e+001  -1.745759e+002 
3731250000  -4.061458e+001  1.795274e+002 
3734375000  -4.018333e+001  1.731882e+002 
3737500000  -4.082502e+001  1.627606e+002 
3740625000  -4.077776e+001  1.593783e+002 
3743750000  -4.050680e+001  1.526835e+002 
3746875000  -4.087268e+001  1.437542e+002 
3750000000  -4.086334e+001  1.381889e+002 
3753125000  -4.070151e+001  1.371987e+002 
3756250000  -4.069662e+001  1.317835e+002 
3759375000  -4.026820e+001  1.267916e+002 
3762500000  -4.030115e+001  1.207011e+002 
3765625000  -4.083567e+001  1.167204e+002 
3768750000  -3.984692e+001  1.174456e+002 
3771875000  -3.824298e+001  1.092088e+002 
3775000000  -3.845584e+001  9.764369e+001 
3778125000  -3.911027e+001  9.115382e+001 
3781250000  -3.908223e+001  8.734985e+001 
3784375000  -3.878226e+001  8.026369e+001 
3787500000  -3.851403e+001  7.661291e+001 
3790625000  -3.923046e+001  6.488501e+001 
3793750000  -3.919397e+001  6.346618e+001 
3796875000  -3.816915e+001  5.917085e+001 
3800000000  -3.642412e+001  5.397525e+001 
3803125000  -3.826574e+001  4.162379e+001 
3806250000  -3.892846e+001  3.718692e+001 
3809375000  -3.832803e+001  3.212099e+001 
3812500000  -3.832698e+001  2.349127e+001 
3815625000  -3.958406e+001  1.417467e+001 
3818750000  -4.045427e+001  1.547076e+001 
3821875000  -4.029293e+001  2.481430e+001 
3825000000  -3.811908e+001  2.230078e+001 
3828125000  -3.694959e+001  1.454457e+000 
3831250000  -3.802761e+001  -1.314277e+001 
3834375000  -4.049681e+001  -1.144101e+001 
3837500000  -4.061103e+001  -8.500552e+000 
3840625000  -3.912745e+001  -1.153805e+001 
3843750000  -3.832101e+001  -2.653844e+001 
3846875000  -3.999430e+001  -3.340727e+001 
3850000000  -4.074454e+001  -2.818036e+001 
3853125000  -4.002578e+001  -2.623942e+001 
3856250000  -3.927875e+001  -3.420531e+001 
3859375000  -3.842346e+001  -4.242559e+001 
3862500000  -3.861920e+001  -5.216418e+001 
3865625000  -3.884624e+001  -5.774546e+001 
3868750000  -3.868389e+001  -5.595698e+001 
3871875000  -3.804095e+001  -6.586884e+001 
3875000000  -3.846318e+001  -7.595589e+001 
3878125000  -3.930196e+001  -7.865827e+001 
3881250000  -3.918730e+001  -7.863553e+001 
3884375000  -3.877605e+001  -8.522676e+001 
3887500000  -3.911021e+001  -9.268518e+001 
3890625000  -3.941775e+001  -9.606545e+001 
3893750000  -3.985286e+001  -9.908388e+001 
3896875000  -4.011565e+001  -1.021858e+002 
3900000000  -3.991328e+001  -1.053571e+002 
3903125000  -3.941376e+001  -1.091644e+002 
3906250000  -3.889755e+001  -1.138633e+002 
3909375000  -3.809750e+001  -1.219011e+002 
3912500000  -3.879886e+001  -1.285358e+002 
3915625000  -4.049963e+001  -1.292723e+002 
3918750000  -3.963463e+001  -1.317563e+002 
3921875000  -3.937111e+001  -1.377870e+002 
3925000000  -3.872255e+001  -1.414334e+002 
3928125000  -3.826532e+001  -1.510286e+002 
3931250000  -3.912132e+001  -1.587249e+002 
3934375000  -3.967733e+001  -1.592460e+002 
3937500000  -3.986270e+001  -1.617698e+002 
3940625000  -3.981061e+001  -1.627864e+002 
3943750000  -3.878496e+001  -1.660822e+002 
3946875000  -3.847167e+001  -1.749799e+002 
3950000000  -3.955734e+001  1.760472e+002 
3953125000  -3.999093e+001  1.768834e+002 
3956250000  -3.856369e+001  1.772121e+002 
3959375000  -3.794179e+001  1.703916e+002 
3962500000  -3.753133e+001  1.613665e+002 
3965625000  -3.783963e+001  1.521935e+002 
3968750000  -3.872459e+001  1.457207e+002 
3971875000  -3.854694e+001  1.385456e+002 
3975000000  -3.818591e+001  1.351488e+002 
3978125000  -3.857833e+001  1.305739e+002 
3981250000  -3.854243e+001  1.234576e+002 
3984375000  -3.885694e+001  1.162895e+002 
3987500000  -3.977163e+001  1.137189e+002 
3990625000  -3.973028e+001  1.104065e+002 
3993750000  -3.982175e+001  1.056445e+002 
3996875000  -3.992749e+001  1.006315e+002 
4000000000  -4.049251e+001  9.771674e+001 
4003125000  -4.092347e+001  9.805283e+001 
4006250000  -3.917442e+001  9.556004e+001 
4009375000  -3.870683e+001  8.219584e+001 
4012500000  -4.030897e+001  7.362155e+001 
4015625000  -4.128175e+001  7.183882e+001 
4018750000  -4.124595e+001  7.478244e+001 
4021875000  -4.045768e+001  7.199332e+001 
4025000000  -4.028124e+001  6.651822e+001 
4028125000  -4.014495e+001  5.829196e+001 
4031250000  -4.121850e+001  5.373731e+001 
4034375000  -4.129985e+001  5.627777e+001 
4037500000  -4.091751e+001  5.419873e+001 
4040625000  -4.093848e+001  4.939752e+001 
4043750000  -4.102414e+001  4.811861e+001 
4046875000  -4.083025e+001  4.325999e+001 
4050000000  -4.077251e+001  3.761503e+001 
4053125000  -4.146169e+001  3.478809e+001 
4056250000  -4.155032e+001  4.006647e+001 
4059375000  -3.938660e+001  3.800188e+001 
4062500000  -3.900901e+001  2.767418e+001 
4065625000  -3.876181e+001  2.416078e+001 
4068750000  -3.812684e+001  1.510934e+001 
4071875000  -3.778157e+001  5.777586e+000 
4075000000  -3.837371e+001  -3.130166e-001 
4078125000  -3.853934e+001  -4.300274e+000 
4081250000  -3.836723e+001  -8.129362e+000 
4084375000  -3.790294e+001  -1.866074e+001 
4087500000  -3.865999e+001  -2.524063e+001 
4090625000  -3.925676e+001  -2.687667e+001 
4093750000  -3.865627e+001  -3.063511e+001 
4096875000  -3.877201e+001  -4.073095e+001 
4100000000  -3.964882e+001  -4.690670e+001 
4103125000  -4.051683e+001  -4.387646e+001 
4106250000  -4.005648e+001  -4.025074e+001 
4109375000  -3.888443e+001  -4.477392e+001 
4112500000  -3.856968e+001  -5.518594e+001 
4115625000  -3.921994e+001  -6.001462e+001 
4118750000  -3.906227e+001  -6.669364e+001 
4121875000  -3.886621e+001  -7.445595e+001 
4125000000  -3.981693e+001  -7.939289e+001 
4128125000  -4.097732e+001  -7.816417e+001 
4131250000  -3.970885e+001  -7.145303e+001 
4134375000  -3.781513e+001  -8.319868e+001 
4137500000  -3.801280e+001  -1.014943e+002 
4140625000  -4.050705e+001  -1.087367e+002 
4143750000  -4.117768e+001  -1.034235e+002 
4146875000  -4.063367e+001  -9.694368e+001 
4150000000  -3.968218e+001  -1.074483e+002 
4153125000  -3.979991e+001  -1.152620e+002 
4156250000  -4.099327e+001  -1.223672e+002 
4159375000  -4.103753e+001  -1.137076e+002 
4162500000  -3.977665e+001  -1.110201e+002 
4165625000  -3.857797e+001  -1.187334e+002 
4168750000  -3.867658e+001  -1.292364e+002 
4171875000  -3.848731e+001  -1.368453e+002 
4175000000  -3.942933e+001  -1.440836e+002 
4178125000  -3.952347e+001  -1.473136e+002 
4181250000  -3.938359e+001  -1.497018e+002 
4184375000  -3.935308e+001  -1.544261e+002 
4187500000  -3.939104e+001  -1.608366e+002 
4190625000  -3.961794e+001  -1.679270e+002 
4193750000  -4.069857e+001  -1.719843e+002 
4196875000  -4.143689e+001  -1.739230e+002 
4200000000  -4.217750e+001  -1.672950e+002 
4203125000  -4.101074e+001  -1.545449e+002 
4206250000  -3.744074e+001  -1.648670e+002 
4209375000  -3.705246e+001  1.704290e+002 
4212500000  -3.947194e+001  1.655008e+002 
4215625000  -4.001829e+001  1.732634e+002 
4218750000  -3.840227e+001  1.741728e+002 
4221875000  -3.648812e+001  1.652613e+002 
4225000000  -3.794715e+001  1.527059e+002 
4228125000  -3.773397e+001  1.528015e+002 
4231250000  -3.614610e+001  1.441320e+002 
4234375000  -3.656636e+001  1.351012e+002 
4237500000  -3.626916e+001  1.303680e+002 
4240625000  -3.632457e+001  1.184787e+002 
4243750000  -3.751539e+001  1.100003e+002 
4246875000  -3.841031e+001  1.084905e+002 
4250000000  -3.830181e+001  1.094893e+002 
4253125000  -3.820919e+001  1.066433e+002 
4256250000  -3.800176e+001  1.011094e+002 
4259375000  -3.739684e+001  9.529675e+001 
4262500000  -3.795636e+001  9.050432e+001 
4265625000  -3.786756e+001  8.952304e+001 
4268750000  -3.676802e+001  8.071837e+001 
4271875000  -3.692713e+001  7.227196e+001 
4275000000  -3.660014e+001  6.465382e+001 
4278125000  -3.750462e+001  5.147825e+001 
4281250000  -3.906908e+001  5.062479e+001 
4284375000  -3.882348e+001  4.766861e+001 
4287500000  -4.045726e+001  4.465232e+001 
4290625000  -4.043982e+001  5.403872e+001 
4293750000  -3.884435e+001  5.438659e+001 
4296875000  -3.775421e+001  4.151920e+001 
4300000000  -3.905717e+001  3.037027e+001 
4303125000  -3.981154e+001  3.254337e+001 
4306250000  -3.900887e+001  3.734574e+001 
4309375000  -3.769814e+001  3.161877e+001 
4312500000  -3.765295e+001  1.931209e+001 
4315625000  -3.798719e+001  1.014076e+001 
4318750000  -3.868624e+001  7.255685e+000 
4321875000  -3.853043e+001  7.604863e+000 
4325000000  -3.800000e+001  5.701278e+000 
4328125000  -3.730931e+001  -2.995966e+000 
4331250000  -3.733508e+001  -1.397851e+001 
4334375000  -3.841919e+001  -2.148150e+001 
4337500000  -3.960316e+001  -2.056554e+001 
4340625000  -3.973229e+001  -1.522639e+001 
4343750000  -3.847383e+001  -2.001204e+001 
4346875000  -3.825059e+001  -2.883277e+001 
4350000000  -3.833347e+001  -3.588157e+001 
4353125000  -3.907792e+001  -4.251753e+001 
4356250000  -4.121502e+001  -3.893274e+001 
4359375000  -3.983467e+001  -2.676551e+001 
4362500000  -3.655449e+001  -3.582426e+001 
4365625000  -3.590226e+001  -5.259905e+001 
4368750000  -3.739348e+001  -6.086771e+001 
4371875000  -3.792834e+001  -6.093195e+001 
4375000000  -3.760133e+001  -6.514138e+001 
4378125000  -3.687086e+001  -7.279332e+001 
4381250000  -3.714307e+001  -8.141608e+001 
4384375000  -3.725814e+001  -8.769038e+001 
4387500000  -3.814022e+001  -9.316510e+001 
4390625000  -3.845349e+001  -9.480959e+001 
4393750000  -3.799306e+001  -9.387772e+001 
4396875000  -3.736234e+001  -1.007005e+002 
4400000000  -3.690848e+001  -1.101028e+002 
4403125000  -3.780955e+001  -1.173637e+002 
4406250000  -3.845753e+001  -1.208915e+002 
4409375000  -3.876294e+001  -1.270634e+002 
4412500000  -3.996878e+001  -1.270106e+002 
4415625000  -3.929978e+001  -1.234114e+002 
