!Agilent Technologies,E8363B,MY43030201,A.06.04.32
!Agilent E8363B: A.06.04.32
!Date: Tuesday, November 11, 2014 21:33:13
!Correction: S21(Response(S21)) 
!S1P File: Measurement: S21:
# Hz S  dB   R 50
3000000000  -4.063029e+001  7.487508e+001 
3003125000  -4.234530e+001  6.665690e+001 
3006250000  -4.208229e+001  6.620827e+001 
3009375000  -4.273702e+001  7.128683e+001 
3012500000  -4.148546e+001  6.640658e+001 
3015625000  -4.132320e+001  5.834034e+001 
3018750000  -4.175826e+001  5.998067e+001 
3021875000  -4.021173e+001  6.053017e+001 
3025000000  -3.885859e+001  5.711546e+001 
3028125000  -3.794558e+001  4.700698e+001 
3031250000  -3.705688e+001  3.438675e+001 
3034375000  -3.669612e+001  2.096423e+001 
3037500000  -3.754054e+001  1.000085e+001 
3040625000  -3.865574e+001  4.792358e+000 
3043750000  -3.910976e+001  -9.810612e-001 
3046875000  -3.988511e+001  -7.460831e+000 
3050000000  -4.080857e+001  -1.262322e+001 
3053125000  -4.055024e+001  -7.892190e+000 
3056250000  -4.031036e+001  -4.580756e+000 
3059375000  -3.971372e+001  -6.314162e+000 
3062500000  -3.817682e+001  -1.112826e+001 
3065625000  -3.800621e+001  -2.230121e+001 
3068750000  -3.766294e+001  -2.861566e+001 
3071875000  -3.771434e+001  -3.136838e+001 
3075000000  -3.702147e+001  -3.730894e+001 
3078125000  -3.714193e+001  -4.443756e+001 
3081250000  -3.722835e+001  -5.030471e+001 
3084375000  -3.632684e+001  -5.503596e+001 
3087500000  -3.641964e+001  -6.132302e+001 
3090625000  -3.596281e+001  -7.412580e+001 
3093750000  -3.695852e+001  -8.153647e+001 
3096875000  -3.743631e+001  -8.692021e+001 
3100000000  -3.723964e+001  -8.973537e+001 
3103125000  -3.753207e+001  -9.357439e+001 
3106250000  -3.722916e+001  -9.917357e+001 
3109375000  -3.715148e+001  -1.027853e+002 
3112500000  -3.709613e+001  -1.083949e+002 
3115625000  -3.720325e+001  -1.123963e+002 
3118750000  -3.725208e+001  -1.153696e+002 
3121875000  -3.655660e+001  -1.273146e+002 
3125000000  -3.841167e+001  -1.299175e+002 
3128125000  -3.850577e+001  -1.218365e+002 
3131250000  -3.608623e+001  -1.290694e+002 
3134375000  -3.529375e+001  -1.461828e+002 
3137500000  -3.601958e+001  -1.583030e+002 
3140625000  -3.728101e+001  -1.612255e+002 
3143750000  -3.819232e+001  -1.630284e+002 
3146875000  -3.759130e+001  -1.611881e+002 
3150000000  -3.693013e+001  -1.656558e+002 
3153125000  -3.719332e+001  -1.734618e+002 
3156250000  -3.802477e+001  -1.690580e+002 
3159375000  -3.572828e+001  -1.709670e+002 
3162500000  -3.421856e+001  1.734636e+002 
3165625000  -3.540892e+001  1.607597e+002 
3168750000  -3.538814e+001  1.593131e+002 
3171875000  -3.489910e+001  1.518858e+002 
3175000000  -3.550802e+001  1.428324e+002 
3178125000  -3.508329e+001  1.416826e+002 
3181250000  -3.441900e+001  1.323831e+002 
3184375000  -3.414171e+001  1.221625e+002 
3187500000  -3.545006e+001  1.067451e+002 
3190625000  -3.720208e+001  1.007763e+002 
3193750000  -3.746898e+001  1.063602e+002 
3196875000  -3.740445e+001  1.068239e+002 
3200000000  -3.623262e+001  1.014906e+002 
3203125000  -3.590884e+001  9.369018e+001 
3206250000  -3.606826e+001  8.572366e+001 
3209375000  -3.583004e+001  7.836604e+001 
3212500000  -3.640420e+001  7.125790e+001 
3215625000  -3.601419e+001  6.876025e+001 
3218750000  -3.683645e+001  5.744470e+001 
3221875000  -3.724794e+001  5.100768e+001 
3225000000  -3.709199e+001  4.768221e+001 
3228125000  -3.773277e+001  3.887684e+001 
3231250000  -3.817861e+001  3.625084e+001 
3234375000  -3.794151e+001  3.389032e+001 
3237500000  -3.803430e+001  3.102052e+001 
3240625000  -3.760435e+001  2.479343e+001 
3243750000  -3.762308e+001  1.436265e+001 
3246875000  -3.824108e+001  7.975299e+000 
3250000000  -3.895173e+001  5.045200e+000 
3253125000  -3.893036e+001  7.594067e-001 
3256250000  -3.868975e+001  -6.376840e+000 
3259375000  -3.905700e+001  -1.789681e+001 
3262500000  -4.050856e+001  -2.235180e+001 
3265625000  -4.105038e+001  -1.980524e+001 
3268750000  -4.145999e+001  -1.743666e+001 
3271875000  -4.041047e+001  -2.252102e+001 
3275000000  -4.023092e+001  -3.053284e+001 
3278125000  -4.075936e+001  -3.590644e+001 
3281250000  -4.110701e+001  -3.654462e+001 
3284375000  -4.059561e+001  -4.352662e+001 
3287500000  -4.086401e+001  -4.719831e+001 
3290625000  -4.130853e+001  -5.391569e+001 
3293750000  -4.113803e+001  -5.887875e+001 
3296875000  -4.227554e+001  -6.160415e+001 
3300000000  -4.177052e+001  -6.040034e+001 
3303125000  -4.095744e+001  -6.766181e+001 
3306250000  -4.071095e+001  -7.613747e+001 
3309375000  -4.053992e+001  -8.249334e+001 
3312500000  -4.110233e+001  -9.558466e+001 
3315625000  -4.222530e+001  -1.027317e+002 
3318750000  -4.382402e+001  -1.049991e+002 
3321875000  -4.517717e+001  -1.020320e+002 
3325000000  -4.498274e+001  -9.712754e+001 
3328125000  -4.405983e+001  -9.581913e+001 
3331250000  -4.220425e+001  -9.390434e+001 
3334375000  -3.982492e+001  -1.084116e+002 
3337500000  -4.034398e+001  -1.294393e+002 
3340625000  -4.233101e+001  -1.395204e+002 
3343750000  -4.397251e+001  -1.367202e+002 
3346875000  -4.325337e+001  -1.374206e+002 
3350000000  -4.310153e+001  -1.419949e+002 
3353125000  -4.273110e+001  -1.490094e+002 
3356250000  -4.282723e+001  -1.574386e+002 
3359375000  -4.320433e+001  -1.671118e+002 
3362500000  -4.434163e+001  -1.742464e+002 
3365625000  -4.460522e+001  -1.756031e+002 
3368750000  -4.561237e+001  1.790204e+002 
3371875000  -4.609119e+001  1.736092e+002 
3375000000  -4.727559e+001  1.708995e+002 
3378125000  -4.807339e+001  1.707796e+002 
3381250000  -4.954627e+001  1.782445e+002 
3384375000  -4.672352e+001  -1.653758e+002 
3387500000  -4.404316e+001  1.718437e+002 
3390625000  -4.612243e+001  1.566441e+002 
3393750000  -4.750506e+001  1.530629e+002 
3396875000  -4.606392e+001  1.524805e+002 
3400000000  -4.600260e+001  1.409286e+002 
3403125000  -4.730033e+001  1.378467e+002 
3406250000  -4.774446e+001  1.331299e+002 
3409375000  -4.791556e+001  1.263601e+002 
3412500000  -4.892415e+001  1.204093e+002 
3415625000  -4.981230e+001  1.191904e+002 
3418750000  -5.049971e+001  1.187722e+002 
3421875000  -5.136437e+001  1.247414e+002 
3425000000  -4.995262e+001  1.187717e+002 
3428125000  -5.024818e+001  1.168540e+002 
3431250000  -5.010500e+001  1.087261e+002 
3434375000  -5.077126e+001  1.073584e+002 
3437500000  -5.127286e+001  1.060736e+002 
3440625000  -5.160796e+001  1.054679e+002 
3443750000  -5.056306e+001  1.068724e+002 
3446875000  -5.056016e+001  1.028307e+002 
3450000000  -4.976322e+001  8.733049e+001 
3453125000  -5.017103e+001  9.005161e+001 
3456250000  -5.194411e+001  8.349557e+001 
3459375000  -5.280742e+001  8.442176e+001 
3462500000  -5.141409e+001  9.177625e+001 
3465625000  -5.098439e+001  7.973562e+001 
3468750000  -5.145440e+001  8.147897e+001 
3471875000  -5.150284e+001  7.882059e+001 
3475000000  -5.089916e+001  7.128967e+001 
3478125000  -5.045192e+001  6.201816e+001 
3481250000  -5.231628e+001  6.481524e+001 
3484375000  -5.282329e+001  6.655957e+001 
3487500000  -5.133149e+001  5.771797e+001 
3490625000  -5.089353e+001  5.460742e+001 
3493750000  -5.119159e+001  5.039213e+001 
3496875000  -5.169940e+001  4.824326e+001 
3500000000  -5.267070e+001  5.244837e+001 
3503125000  -5.059660e+001  4.394191e+001 
3506250000  -5.006715e+001  3.776742e+001 
3509375000  -4.987885e+001  2.959046e+001 
3512500000  -5.020004e+001  1.299345e+001 
3515625000  -5.064561e+001  9.018509e+000 
3518750000  -5.252910e+001  1.015437e+001 
3521875000  -5.234299e+001  2.958416e+000 
3525000000  -5.351162e+001  2.271194e+000 
3528125000  -5.287912e+001  5.188877e+000 
3531250000  -5.195150e+001  1.819266e+000 
3534375000  -5.243479e+001  -1.142041e+001 
3537500000  -5.444064e+001  -2.575157e+001 
3540625000  -5.574476e+001  -2.083443e+001 
3543750000  -5.661167e+001  -2.063000e+001 
3546875000  -5.666281e+001  -8.951277e+000 
3550000000  -5.320128e+001  -1.356257e+001 
3553125000  -5.400029e+001  -3.012379e+001 
3556250000  -5.571182e+001  -2.784867e+001 
3559375000  -5.598083e+001  -3.026554e+001 
3562500000  -5.653078e+001  -4.170462e+001 
3565625000  -5.707645e+001  -5.168156e+001 
3568750000  -5.921683e+001  -2.913984e+001 
3571875000  -5.706359e+001  -3.535166e+001 
3575000000  -5.788649e+001  -3.132475e+001 
3578125000  -5.826516e+001  -3.705516e+001 
3581250000  -5.858494e+001  -2.124479e+001 
3584375000  -5.765094e+001  -4.997937e+001 
3587500000  -5.666819e+001  -4.509855e+001 
3590625000  -5.844600e+001  -5.115921e+001 
3593750000  -5.958001e+001  -5.254054e+001 
3596875000  -5.818810e+001  -3.741402e+001 
3600000000  -5.687379e+001  -3.034041e+001 
3603125000  -5.919433e+001  -5.860027e+001 
3606250000  -5.735398e+001  -4.427213e+001 
3609375000  -5.785041e+001  -4.419568e+001 
3612500000  -5.885874e+001  -4.869511e+001 
3615625000  -5.896116e+001  -4.810840e+001 
3618750000  -6.045128e+001  -5.851269e+001 
3621875000  -5.592723e+001  -4.597787e+001 
3625000000  -5.705506e+001  -3.898117e+001 
3628125000  -5.719161e+001  -3.751272e+001 
3631250000  -5.723819e+001  -5.206531e+001 
3634375000  -5.705339e+001  -4.729069e+001 
3637500000  -5.659674e+001  -3.351655e+001 
3640625000  -5.350380e+001  -3.669727e+001 
3643750000  -5.367837e+001  -4.345202e+001 
3646875000  -5.267017e+001  -5.392336e+001 
3650000000  -5.289211e+001  -5.497578e+001 
3653125000  -5.203115e+001  -5.954319e+001 
3656250000  -5.162022e+001  -6.000035e+001 
3659375000  -5.090776e+001  -5.742061e+001 
3662500000  -5.072943e+001  -6.518020e+001 
3665625000  -5.063901e+001  -7.140561e+001 
3668750000  -4.778129e+001  -7.109546e+001 
3671875000  -4.729810e+001  -8.269590e+001 
3675000000  -4.781417e+001  -8.971187e+001 
3678125000  -4.711277e+001  -9.546474e+001 
3681250000  -4.659316e+001  -9.652509e+001 
3684375000  -4.657260e+001  -1.081299e+002 
3687500000  -4.655249e+001  -1.106620e+002 
3690625000  -4.666627e+001  -1.189139e+002 
3693750000  -4.709111e+001  -1.130825e+002 
3696875000  -4.627871e+001  -1.182490e+002 
3700000000  -4.518427e+001  -1.228271e+002 
3703125000  -4.494757e+001  -1.282384e+002 
3706250000  -4.575932e+001  -1.299561e+002 
3709375000  -4.477740e+001  -1.288441e+002 
3712500000  -4.334376e+001  -1.360218e+002 
3715625000  -4.170943e+001  -1.445105e+002 
3718750000  -4.166111e+001  -1.537449e+002 
3721875000  -4.133159e+001  -1.610314e+002 
3725000000  -4.162680e+001  -1.679903e+002 
3728125000  -4.136118e+001  -1.720468e+002 
3731250000  -4.041479e+001  -1.788751e+002 
3734375000  -4.016496e+001  1.763292e+002 
3737500000  -4.078973e+001  1.671840e+002 
3740625000  -4.082330e+001  1.604986e+002 
3743750000  -4.036917e+001  1.544286e+002 
3746875000  -4.108926e+001  1.469635e+002 
3750000000  -4.100391e+001  1.434044e+002 
3753125000  -4.068079e+001  1.390085e+002 
3756250000  -4.069991e+001  1.370251e+002 
3759375000  -4.031060e+001  1.314431e+002 
3762500000  -3.999768e+001  1.235373e+002 
3765625000  -4.080496e+001  1.196267e+002 
3768750000  -4.003441e+001  1.208364e+002 
3771875000  -3.842519e+001  1.124786e+002 
3775000000  -3.827082e+001  1.002740e+002 
3778125000  -3.895897e+001  9.427834e+001 
3781250000  -3.907210e+001  8.846363e+001 
3784375000  -3.854890e+001  8.515575e+001 
3787500000  -3.846717e+001  7.854957e+001 
3790625000  -3.931563e+001  6.956168e+001 
3793750000  -3.934743e+001  6.707172e+001 
3796875000  -3.808682e+001  6.298902e+001 
3800000000  -3.642697e+001  5.748417e+001 
3803125000  -3.799207e+001  4.318718e+001 
3806250000  -3.878832e+001  4.026538e+001 
3809375000  -3.833408e+001  3.472358e+001 
3812500000  -3.840071e+001  2.606312e+001 
3815625000  -3.962377e+001  1.700284e+001 
3818750000  -4.069133e+001  1.954400e+001 
3821875000  -4.042312e+001  2.975422e+001 
3825000000  -3.831388e+001  2.402122e+001 
3828125000  -3.703399e+001  4.515373e+000 
3831250000  -3.801066e+001  -9.189463e+000 
3834375000  -4.055119e+001  -1.043663e+001 
3837500000  -4.086174e+001  -6.782454e+000 
3840625000  -3.887572e+001  -9.432095e+000 
3843750000  -3.825149e+001  -2.357161e+001 
3846875000  -3.971926e+001  -3.015499e+001 
3850000000  -4.085123e+001  -2.445041e+001 
3853125000  -3.991521e+001  -2.404292e+001 
3856250000  -3.946659e+001  -3.064666e+001 
3859375000  -3.849387e+001  -3.811029e+001 
3862500000  -3.861476e+001  -4.791449e+001 
3865625000  -3.888671e+001  -5.364521e+001 
3868750000  -3.851828e+001  -5.405174e+001 
3871875000  -3.799594e+001  -6.122378e+001 
3875000000  -3.857068e+001  -7.327579e+001 
3878125000  -3.948853e+001  -7.519502e+001 
3881250000  -3.922454e+001  -7.548901e+001 
3884375000  -3.864393e+001  -8.264523e+001 
3887500000  -3.923156e+001  -8.891679e+001 
3890625000  -3.939824e+001  -9.411223e+001 
3893750000  -3.976281e+001  -9.426938e+001 
3896875000  -3.988865e+001  -9.827256e+001 
3900000000  -3.981823e+001  -9.988281e+001 
3903125000  -3.922909e+001  -1.059981e+002 
3906250000  -3.907426e+001  -1.082524e+002 
3909375000  -3.811399e+001  -1.186869e+002 
3912500000  -3.902637e+001  -1.269023e+002 
3915625000  -4.029532e+001  -1.271908e+002 
3918750000  -3.998909e+001  -1.288354e+002 
3921875000  -3.946040e+001  -1.347307e+002 
3925000000  -3.834775e+001  -1.379960e+002 
3928125000  -3.818311e+001  -1.487531e+002 
3931250000  -3.911753e+001  -1.552913e+002 
3934375000  -3.945407e+001  -1.558522e+002 
3937500000  -4.013168e+001  -1.586133e+002 
3940625000  -3.999956e+001  -1.609833e+002 
3943750000  -3.902891e+001  -1.630480e+002 
3946875000  -3.865936e+001  -1.724632e+002 
3950000000  -3.945652e+001  -1.798304e+002 
3953125000  -4.001152e+001  -1.791878e+002 
3956250000  -3.889895e+001  -1.793558e+002 
3959375000  -3.801888e+001  1.727551e+002 
3962500000  -3.753397e+001  1.638267e+002 
3965625000  -3.769312e+001  1.557350e+002 
3968750000  -3.887317e+001  1.477383e+002 
3971875000  -3.854901e+001  1.422125e+002 
3975000000  -3.857618e+001  1.386969e+002 
3978125000  -3.849408e+001  1.352251e+002 
3981250000  -3.862269e+001  1.290232e+002 
3984375000  -3.894775e+001  1.199271e+002 
3987500000  -3.970538e+001  1.170416e+002 
3990625000  -3.988353e+001  1.156511e+002 
3993750000  -3.980246e+001  1.110403e+002 
3996875000  -3.977593e+001  1.034273e+002 
4000000000  -4.063403e+001  1.009017e+002 
4003125000  -4.112488e+001  1.028291e+002 
4006250000  -3.926673e+001  1.006384e+002 
4009375000  -3.859699e+001  8.640937e+001 
4012500000  -4.037310e+001  7.850104e+001 
4015625000  -4.144412e+001  7.718980e+001 
4018750000  -4.126511e+001  7.789218e+001 
4021875000  -4.066433e+001  7.675745e+001 
4025000000  -4.020814e+001  6.896122e+001 
4028125000  -4.078007e+001  6.106564e+001 
4031250000  -4.133344e+001  5.845223e+001 
4034375000  -4.153524e+001  5.777003e+001 
4037500000  -4.126714e+001  5.864403e+001 
4040625000  -4.104628e+001  5.317727e+001 
4043750000  -4.137573e+001  5.149274e+001 
4046875000  -4.083149e+001  4.527848e+001 
4050000000  -4.060900e+001  4.107710e+001 
4053125000  -4.105313e+001  3.946225e+001 
4056250000  -4.160345e+001  4.293729e+001 
4059375000  -3.928716e+001  4.172939e+001 
4062500000  -3.867391e+001  3.084059e+001 
4065625000  -3.895651e+001  2.699896e+001 
4068750000  -3.852715e+001  2.094001e+001 
4071875000  -3.789668e+001  9.606609e+000 
4075000000  -3.842158e+001  2.886922e+000 
4078125000  -3.880619e+001  4.127723e-001 
4081250000  -3.842502e+001  -5.084891e+000 
4084375000  -3.800858e+001  -1.543015e+001 
4087500000  -3.865182e+001  -2.091652e+001 
4090625000  -3.933451e+001  -2.282486e+001 
4093750000  -3.860623e+001  -2.646055e+001 
4096875000  -3.872662e+001  -3.588173e+001 
4100000000  -3.976738e+001  -4.334486e+001 
4103125000  -4.060368e+001  -4.067341e+001 
4106250000  -3.982716e+001  -3.827422e+001 
4109375000  -3.887921e+001  -4.248620e+001 
4112500000  -3.856197e+001  -5.162545e+001 
4115625000  -3.914412e+001  -5.785471e+001 
4118750000  -3.919638e+001  -6.198076e+001 
4121875000  -3.899779e+001  -6.912022e+001 
4125000000  -3.975996e+001  -7.721998e+001 
4128125000  -4.088456e+001  -7.508697e+001 
4131250000  -3.963778e+001  -6.762002e+001 
4134375000  -3.772999e+001  -7.837340e+001 
4137500000  -3.794359e+001  -9.886323e+001 
4140625000  -4.031258e+001  -1.056142e+002 
4143750000  -4.144131e+001  -9.732087e+001 
4146875000  -4.047748e+001  -9.379213e+001 
4150000000  -3.977934e+001  -1.034026e+002 
4153125000  -3.988840e+001  -1.119193e+002 
4156250000  -4.133101e+001  -1.150664e+002 
4159375000  -4.134002e+001  -1.092309e+002 
4162500000  -3.983932e+001  -1.072512e+002 
4165625000  -3.896412e+001  -1.142546e+002 
4168750000  -3.848139e+001  -1.254352e+002 
4171875000  -3.851950e+001  -1.358407e+002 
4175000000  -3.927886e+001  -1.424893e+002 
4178125000  -3.972002e+001  -1.430844e+002 
4181250000  -3.935208e+001  -1.474190e+002 
4184375000  -3.958635e+001  -1.527404e+002 
4187500000  -3.957942e+001  -1.557562e+002 
4190625000  -3.962151e+001  -1.628325e+002 
4193750000  -4.055862e+001  -1.683631e+002 
4196875000  -4.142703e+001  -1.687732e+002 
4200000000  -4.212926e+001  -1.636705e+002 
4203125000  -4.083580e+001  -1.502549e+002 
4206250000  -3.749982e+001  -1.619617e+002 
4209375000  -3.736873e+001  1.748470e+002 
4212500000  -3.981732e+001  1.693856e+002 
4215625000  -4.026967e+001  1.767018e+002 
4218750000  -3.841590e+001  1.775334e+002 
4221875000  -3.670801e+001  1.663403e+002 
4225000000  -3.802199e+001  1.554786e+002 
4228125000  -3.769450e+001  1.573462e+002 
4231250000  -3.625248e+001  1.486134e+002 
4234375000  -3.634958e+001  1.380249e+002 
4237500000  -3.614979e+001  1.332179e+002 
4240625000  -3.615260e+001  1.216773e+002 
4243750000  -3.748776e+001  1.128238e+002 
4246875000  -3.842836e+001  1.120739e+002 
4250000000  -3.830256e+001  1.144263e+002 
4253125000  -3.809859e+001  1.085503e+002 
4256250000  -3.808886e+001  1.056214e+002 
4259375000  -3.790983e+001  9.920776e+001 
4262500000  -3.784803e+001  9.391610e+001 
4265625000  -3.792867e+001  9.311162e+001 
4268750000  -3.696759e+001  8.419907e+001 
4271875000  -3.676072e+001  7.454316e+001 
4275000000  -3.672135e+001  6.883714e+001 
4278125000  -3.786235e+001  5.565887e+001 
4281250000  -3.909687e+001  5.432916e+001 
4284375000  -3.901833e+001  5.339830e+001 
4287500000  -4.034379e+001  4.838955e+001 
4290625000  -4.063794e+001  5.711184e+001 
4293750000  -3.866410e+001  5.852241e+001 
4296875000  -3.779411e+001  4.468013e+001 
4300000000  -3.898756e+001  3.453085e+001 
4303125000  -3.964908e+001  3.766951e+001 
4306250000  -3.853505e+001  3.972076e+001 
4309375000  -3.761322e+001  3.441436e+001 
4312500000  -3.739952e+001  2.263579e+001 
4315625000  -3.808372e+001  1.558042e+001 
4318750000  -3.845684e+001  1.066547e+001 
4321875000  -3.871616e+001  1.192107e+001 
4325000000  -3.802522e+001  1.073853e+001 
4328125000  -3.724154e+001  2.109248e-001 
4331250000  -3.749141e+001  -1.016489e+001 
4334375000  -3.851866e+001  -1.720203e+001 
4337500000  -3.932487e+001  -1.730773e+001 
4340625000  -3.949702e+001  -1.129282e+001 
4343750000  -3.862444e+001  -1.526612e+001 
4346875000  -3.830275e+001  -2.418413e+001 
4350000000  -3.834749e+001  -3.214764e+001 
4353125000  -3.894216e+001  -3.996956e+001 
4356250000  -4.106595e+001  -3.563684e+001 
4359375000  -3.969645e+001  -2.097672e+001 
4362500000  -3.650655e+001  -2.909177e+001 
4365625000  -3.580867e+001  -4.878544e+001 
4368750000  -3.747043e+001  -5.552092e+001 
4371875000  -3.787964e+001  -5.840875e+001 
4375000000  -3.708267e+001  -6.185091e+001 
4378125000  -3.662116e+001  -6.982132e+001 
4381250000  -3.704539e+001  -7.682030e+001 
4384375000  -3.729417e+001  -8.414490e+001 
4387500000  -3.816427e+001  -9.067654e+001 
4390625000  -3.849660e+001  -8.863210e+001 
4393750000  -3.803999e+001  -9.090966e+001 
4396875000  -3.738020e+001  -9.511147e+001 
4400000000  -3.685030e+001  -1.049065e+002 
4403125000  -3.786803e+001  -1.147502e+002 
4406250000  -3.824640e+001  -1.173441e+002 
4409375000  -3.871431e+001  -1.216020e+002 
4412500000  -3.985113e+001  -1.240053e+002 
4415625000  -3.963688e+001  -1.201512e+002 
