!Agilent Technologies,E8363B,MY43030201,A.06.04.32
!Agilent E8363B: A.06.04.32
!Date: Tuesday, November 11, 2014 21:35:02
!Correction: S21(Response(S21)) 
!S1P File: Measurement: S21:
# Hz S  dB   R 50
3000000000  -4.050690e+001  7.281256e+001 
3003125000  -4.225700e+001  6.526635e+001 
3006250000  -4.221339e+001  6.319889e+001 
3009375000  -4.301977e+001  6.924577e+001 
3012500000  -4.138034e+001  6.312831e+001 
3015625000  -4.151720e+001  5.634319e+001 
3018750000  -4.181487e+001  5.866661e+001 
3021875000  -4.013089e+001  5.868435e+001 
3025000000  -3.873731e+001  5.497532e+001 
3028125000  -3.785151e+001  4.467853e+001 
3031250000  -3.699362e+001  3.196974e+001 
3034375000  -3.682309e+001  1.846000e+001 
3037500000  -3.757720e+001  7.794339e+000 
3040625000  -3.892269e+001  2.475740e+000 
3043750000  -3.930353e+001  -4.102207e+000 
3046875000  -3.964467e+001  -9.956806e+000 
3050000000  -4.098222e+001  -1.369326e+001 
3053125000  -4.061700e+001  -8.679703e+000 
3056250000  -4.054359e+001  -6.011559e+000 
3059375000  -3.975005e+001  -9.091250e+000 
3062500000  -3.833457e+001  -1.305563e+001 
3065625000  -3.788676e+001  -2.284011e+001 
3068750000  -3.762343e+001  -3.074944e+001 
3071875000  -3.756882e+001  -3.292942e+001 
3075000000  -3.699422e+001  -4.046384e+001 
3078125000  -3.709374e+001  -4.592307e+001 
3081250000  -3.724240e+001  -5.186494e+001 
3084375000  -3.647082e+001  -5.687061e+001 
3087500000  -3.644036e+001  -6.405804e+001 
3090625000  -3.589212e+001  -7.584388e+001 
3093750000  -3.703824e+001  -8.387540e+001 
3096875000  -3.737825e+001  -8.885165e+001 
3100000000  -3.723301e+001  -9.257375e+001 
3103125000  -3.754018e+001  -9.575383e+001 
3106250000  -3.706716e+001  -1.009087e+002 
3109375000  -3.724715e+001  -1.045373e+002 
3112500000  -3.711433e+001  -1.103608e+002 
3115625000  -3.716824e+001  -1.145872e+002 
3118750000  -3.714539e+001  -1.177269e+002 
3121875000  -3.655985e+001  -1.296202e+002 
3125000000  -3.850426e+001  -1.322963e+002 
3128125000  -3.837484e+001  -1.239194e+002 
3131250000  -3.602343e+001  -1.316623e+002 
3134375000  -3.535178e+001  -1.486732e+002 
3137500000  -3.614134e+001  -1.598421e+002 
3140625000  -3.737822e+001  -1.619710e+002 
3143750000  -3.819623e+001  -1.653247e+002 
3146875000  -3.763567e+001  -1.629933e+002 
3150000000  -3.684053e+001  -1.669709e+002 
3153125000  -3.702798e+001  -1.750463e+002 
3156250000  -3.789402e+001  -1.715615e+002 
3159375000  -3.567096e+001  -1.728092e+002 
3162500000  -3.428329e+001  1.708004e+002 
3165625000  -3.548727e+001  1.587581e+002 
3168750000  -3.543777e+001  1.571064e+002 
3171875000  -3.479543e+001  1.501014e+002 
3175000000  -3.538656e+001  1.411208e+002 
3178125000  -3.501291e+001  1.390184e+002 
3181250000  -3.440810e+001  1.312226e+002 
3184375000  -3.418532e+001  1.193230e+002 
3187500000  -3.548031e+001  1.057040e+002 
3190625000  -3.725754e+001  9.878522e+001 
3193750000  -3.747736e+001  1.035845e+002 
3196875000  -3.739856e+001  1.045156e+002 
3200000000  -3.612325e+001  1.003011e+002 
3203125000  -3.596476e+001  9.165652e+001 
3206250000  -3.609024e+001  8.387544e+001 
3209375000  -3.580463e+001  7.656799e+001 
3212500000  -3.625424e+001  6.950523e+001 
3215625000  -3.609153e+001  6.620399e+001 
3218750000  -3.681113e+001  5.501823e+001 
3221875000  -3.718239e+001  4.844097e+001 
3225000000  -3.704789e+001  4.437088e+001 
3228125000  -3.774728e+001  3.832889e+001 
3231250000  -3.825623e+001  3.607390e+001 
3234375000  -3.785141e+001  3.202348e+001 
3237500000  -3.801651e+001  2.824923e+001 
3240625000  -3.753568e+001  2.317888e+001 
3243750000  -3.771147e+001  1.269911e+001 
3246875000  -3.822946e+001  5.359570e+000 
3250000000  -3.877396e+001  2.042639e+000 
3253125000  -3.899668e+001  -1.384585e+000 
3256250000  -3.860981e+001  -1.007991e+001 
3259375000  -3.894587e+001  -1.971187e+001 
3262500000  -4.060506e+001  -2.378717e+001 
3265625000  -4.114476e+001  -2.055786e+001 
3268750000  -4.132148e+001  -2.053284e+001 
3271875000  -4.055524e+001  -2.425031e+001 
3275000000  -4.021207e+001  -3.194572e+001 
3278125000  -4.090729e+001  -3.688745e+001 
3281250000  -4.101218e+001  -3.988695e+001 
3284375000  -4.043796e+001  -4.622396e+001 
3287500000  -4.115575e+001  -4.716537e+001 
3290625000  -4.109014e+001  -5.613250e+001 
3293750000  -4.122879e+001  -6.204142e+001 
3296875000  -4.253871e+001  -6.382145e+001 
3300000000  -4.164387e+001  -6.336839e+001 
3303125000  -4.095657e+001  -6.953614e+001 
3306250000  -4.087389e+001  -7.733517e+001 
3309375000  -4.059669e+001  -8.510162e+001 
3312500000  -4.084617e+001  -9.750377e+001 
3315625000  -4.221848e+001  -1.043368e+002 
3318750000  -4.367946e+001  -1.068492e+002 
3321875000  -4.484805e+001  -1.017636e+002 
3325000000  -4.475000e+001  -9.569617e+001 
3328125000  -4.356055e+001  -9.745676e+001 
3331250000  -4.237342e+001  -9.611666e+001 
3334375000  -3.965274e+001  -1.111972e+002 
3337500000  -4.062810e+001  -1.306482e+002 
3340625000  -4.227897e+001  -1.397634e+002 
3343750000  -4.443122e+001  -1.405770e+002 
3346875000  -4.347993e+001  -1.420209e+002 
3350000000  -4.313826e+001  -1.439723e+002 
3353125000  -4.291411e+001  -1.513944e+002 
3356250000  -4.256364e+001  -1.605159e+002 
3359375000  -4.353193e+001  -1.697994e+002 
3362500000  -4.421298e+001  -1.763444e+002 
3365625000  -4.461759e+001  -1.791783e+002 
3368750000  -4.527382e+001  1.768081e+002 
3371875000  -4.605048e+001  1.712084e+002 
3375000000  -4.723837e+001  1.687094e+002 
3378125000  -4.854884e+001  1.692664e+002 
3381250000  -4.990358e+001  -1.781644e+002 
3384375000  -4.650035e+001  -1.660208e+002 
3387500000  -4.399958e+001  1.723251e+002 
3390625000  -4.597122e+001  1.493219e+002 
3393750000  -4.704200e+001  1.526215e+002 
3396875000  -4.617883e+001  1.511134e+002 
3400000000  -4.595157e+001  1.406361e+002 
3403125000  -4.716984e+001  1.338813e+002 
3406250000  -4.763133e+001  1.295687e+002 
3409375000  -4.835745e+001  1.219331e+002 
3412500000  -4.881861e+001  1.193092e+002 
3415625000  -4.989607e+001  1.180541e+002 
3418750000  -5.078558e+001  1.163266e+002 
3421875000  -5.107692e+001  1.205207e+002 
3425000000  -5.024231e+001  1.165274e+002 
3428125000  -5.016846e+001  1.142106e+002 
3431250000  -4.996255e+001  1.058577e+002 
3434375000  -5.040894e+001  1.033807e+002 
3437500000  -5.204402e+001  1.013336e+002 
3440625000  -5.235476e+001  1.070623e+002 
3443750000  -5.039743e+001  1.028576e+002 
3446875000  -4.993896e+001  9.930239e+001 
3450000000  -5.016952e+001  9.303272e+001 
3453125000  -5.043065e+001  8.007239e+001 
3456250000  -5.213248e+001  8.302145e+001 
3459375000  -5.255207e+001  9.351212e+001 
3462500000  -5.182395e+001  8.727068e+001 
3465625000  -5.117786e+001  7.679485e+001 
3468750000  -5.223814e+001  8.382503e+001 
3471875000  -5.205466e+001  7.783499e+001 
3475000000  -5.160788e+001  7.206342e+001 
3478125000  -5.094220e+001  5.689178e+001 
3481250000  -5.258491e+001  6.471642e+001 
3484375000  -5.231608e+001  6.345072e+001 
3487500000  -5.160728e+001  5.593994e+001 
3490625000  -5.122567e+001  5.435154e+001 
3493750000  -5.164726e+001  4.482368e+001 
3496875000  -5.157724e+001  4.652032e+001 
3500000000  -5.312019e+001  4.856463e+001 
3503125000  -5.073944e+001  4.424590e+001 
3506250000  -5.022149e+001  3.783834e+001 
3509375000  -4.945924e+001  2.474733e+001 
3512500000  -4.972685e+001  1.088878e+001 
3515625000  -5.171102e+001  6.643798e+000 
3518750000  -5.256742e+001  1.047828e+001 
3521875000  -5.202196e+001  5.206392e+000 
3525000000  -5.379303e+001  -1.904883e+000 
3528125000  -5.360609e+001  4.422009e+000 
3531250000  -5.216364e+001  -1.616988e+000 
3534375000  -5.334490e+001  -1.280706e+001 
3537500000  -5.374696e+001  -1.929063e+001 
3540625000  -5.503124e+001  -2.723567e+001 
3543750000  -5.678746e+001  -2.364979e+001 
3546875000  -5.503294e+001  -1.161263e+001 
3550000000  -5.495937e+001  -1.781806e+001 
3553125000  -5.342908e+001  -3.112770e+001 
3556250000  -5.486593e+001  -3.033063e+001 
3559375000  -5.713768e+001  -3.082906e+001 
3562500000  -5.720267e+001  -3.991022e+001 
3565625000  -5.596680e+001  -5.005507e+001 
3568750000  -5.764722e+001  -4.825129e+001 
3571875000  -5.765333e+001  -3.811435e+001 
3575000000  -5.772394e+001  -4.913525e+001 
3578125000  -5.925504e+001  -4.537351e+001 
3581250000  -5.705324e+001  -3.853518e+001 
3584375000  -5.628576e+001  -4.216332e+001 
3587500000  -5.685573e+001  -3.771149e+001 
3590625000  -5.810046e+001  -5.774713e+001 
3593750000  -5.944689e+001  -5.591234e+001 
3596875000  -5.947231e+001  -3.252227e+001 
3600000000  -5.813552e+001  -2.244194e+001 
3603125000  -5.785038e+001  -5.176748e+001 
3606250000  -5.945700e+001  -5.282564e+001 
3609375000  -5.945939e+001  -5.103794e+001 
3612500000  -5.941331e+001  -5.164176e+001 
3615625000  -5.801925e+001  -4.824616e+001 
3618750000  -5.890027e+001  -4.232491e+001 
3621875000  -5.717508e+001  -4.332521e+001 
3625000000  -5.847269e+001  -4.416887e+001 
3628125000  -5.705217e+001  -3.886468e+001 
3631250000  -5.714624e+001  -5.563285e+001 
3634375000  -5.651296e+001  -4.696227e+001 
3637500000  -5.449063e+001  -4.718502e+001 
3640625000  -5.404461e+001  -3.671912e+001 
3643750000  -5.417782e+001  -4.622087e+001 
3646875000  -5.261980e+001  -5.954315e+001 
3650000000  -5.254929e+001  -5.858904e+001 
3653125000  -5.130130e+001  -6.079032e+001 
3656250000  -5.156612e+001  -6.368656e+001 
3659375000  -5.193089e+001  -6.421045e+001 
3662500000  -5.060923e+001  -7.209756e+001 
3665625000  -4.980297e+001  -7.158391e+001 
3668750000  -4.795354e+001  -7.301017e+001 
3671875000  -4.656297e+001  -8.511996e+001 
3675000000  -4.751844e+001  -9.269775e+001 
3678125000  -4.718932e+001  -9.589083e+001 
3681250000  -4.636381e+001  -1.028425e+002 
3684375000  -4.686626e+001  -1.073155e+002 
3687500000  -4.637275e+001  -1.132129e+002 
3690625000  -4.686647e+001  -1.187061e+002 
3693750000  -4.739169e+001  -1.187159e+002 
3696875000  -4.645624e+001  -1.172156e+002 
3700000000  -4.551363e+001  -1.261304e+002 
3703125000  -4.590140e+001  -1.310573e+002 
3706250000  -4.544091e+001  -1.353787e+002 
3709375000  -4.497156e+001  -1.315776e+002 
3712500000  -4.351979e+001  -1.392332e+002 
3715625000  -4.184628e+001  -1.477456e+002 
3718750000  -4.162294e+001  -1.543993e+002 
3721875000  -4.150189e+001  -1.639017e+002 
3725000000  -4.166956e+001  -1.701232e+002 
3728125000  -4.149230e+001  -1.728555e+002 
3731250000  -4.055291e+001  -1.795591e+002 
3734375000  -3.999842e+001  1.737291e+002 
3737500000  -4.088858e+001  1.639401e+002 
3740625000  -4.099981e+001  1.583233e+002 
3743750000  -4.040551e+001  1.518762e+002 
3746875000  -4.081792e+001  1.441398e+002 
3750000000  -4.100866e+001  1.409669e+002 
3753125000  -4.040567e+001  1.374273e+002 
3756250000  -4.088347e+001  1.344105e+002 
3759375000  -4.049897e+001  1.288419e+002 
3762500000  -4.020569e+001  1.211004e+002 
3765625000  -4.082660e+001  1.174041e+002 
3768750000  -4.010168e+001  1.183932e+002 
3771875000  -3.840283e+001  1.093801e+002 
3775000000  -3.850332e+001  9.789816e+001 
3778125000  -3.900454e+001  9.244168e+001 
3781250000  -3.898222e+001  8.873280e+001 
3784375000  -3.872118e+001  8.243463e+001 
3787500000  -3.862418e+001  7.659460e+001 
3790625000  -3.922064e+001  6.677884e+001 
3793750000  -3.915534e+001  6.329027e+001 
3796875000  -3.821425e+001  6.083610e+001 
3800000000  -3.635181e+001  5.486204e+001 
3803125000  -3.810577e+001  4.198005e+001 
3806250000  -3.902506e+001  3.690108e+001 
3809375000  -3.838099e+001  3.364797e+001 
3812500000  -3.864355e+001  2.477379e+001 
3815625000  -3.957887e+001  1.481782e+001 
3818750000  -4.050720e+001  1.576072e+001 
3821875000  -4.009126e+001  2.653063e+001 
3825000000  -3.795268e+001  2.260215e+001 
3828125000  -3.703542e+001  1.983940e+000 
3831250000  -3.835018e+001  -1.157251e+001 
3834375000  -4.041996e+001  -1.246498e+001 
3837500000  -4.055046e+001  -7.752616e+000 
3840625000  -3.894978e+001  -1.215996e+001 
3843750000  -3.827473e+001  -2.469652e+001 
3846875000  -3.988020e+001  -3.116543e+001 
3850000000  -4.053194e+001  -2.708395e+001 
3853125000  -3.990099e+001  -2.400282e+001 
3856250000  -3.923734e+001  -3.361807e+001 
3859375000  -3.860612e+001  -3.954090e+001 
3862500000  -3.836397e+001  -5.186110e+001 
3865625000  -3.878878e+001  -5.592625e+001 
3868750000  -3.870101e+001  -5.754596e+001 
3871875000  -3.809770e+001  -6.537020e+001 
3875000000  -3.844680e+001  -7.531748e+001 
3878125000  -3.948802e+001  -7.807561e+001 
3881250000  -3.920818e+001  -7.798703e+001 
3884375000  -3.861017e+001  -8.405247e+001 
3887500000  -3.918450e+001  -9.091035e+001 
3890625000  -3.954842e+001  -9.428360e+001 
3893750000  -3.958257e+001  -9.701761e+001 
3896875000  -4.002698e+001  -1.004144e+002 
3900000000  -3.973925e+001  -1.043237e+002 
3903125000  -3.953360e+001  -1.071220e+002 
3906250000  -3.890002e+001  -1.121467e+002 
3909375000  -3.827144e+001  -1.211467e+002 
3912500000  -3.900093e+001  -1.300896e+002 
3915625000  -4.036607e+001  -1.281152e+002 
3918750000  -4.003309e+001  -1.306957e+002 
3921875000  -3.921203e+001  -1.359762e+002 
3925000000  -3.867861e+001  -1.431166e+002 
3928125000  -3.832590e+001  -1.505759e+002 
3931250000  -3.897698e+001  -1.585005e+002 
3934375000  -3.966770e+001  -1.585191e+002 
3937500000  -4.006696e+001  -1.614314e+002 
3940625000  -3.974635e+001  -1.635706e+002 
3943750000  -3.878516e+001  -1.668390e+002 
3946875000  -3.852752e+001  -1.760473e+002 
3950000000  -3.963681e+001  1.746111e+002 
3953125000  -4.007391e+001  1.778832e+002 
3956250000  -3.879547e+001  1.782889e+002 
3959375000  -3.799469e+001  1.712815e+002 
3962500000  -3.743972e+001  1.619712e+002 
3965625000  -3.794207e+001  1.530166e+002 
3968750000  -3.847320e+001  1.448891e+002 
3971875000  -3.846661e+001  1.407707e+002 
3975000000  -3.823511e+001  1.358145e+002 
3978125000  -3.860246e+001  1.322240e+002 
3981250000  -3.858563e+001  1.255548e+002 
3984375000  -3.907156e+001  1.186189e+002 
3987500000  -3.976109e+001  1.138512e+002 
3990625000  -4.015760e+001  1.131980e+002 
3993750000  -3.993107e+001  1.079877e+002 
3996875000  -3.989638e+001  1.023636e+002 
4000000000  -4.078211e+001  9.838380e+001 
4003125000  -4.091854e+001  9.994546e+001 
4006250000  -3.922952e+001  9.607866e+001 
4009375000  -3.843786e+001  8.271468e+001 
4012500000  -4.037172e+001  7.477179e+001 
4015625000  -4.144289e+001  7.536052e+001 
4018750000  -4.126414e+001  7.518644e+001 
4021875000  -4.061370e+001  7.244963e+001 
4025000000  -4.008047e+001  6.747194e+001 
4028125000  -4.041681e+001  5.836902e+001 
4031250000  -4.149774e+001  5.396000e+001 
4034375000  -4.109871e+001  5.605051e+001 
4037500000  -4.126879e+001  5.426695e+001 
4040625000  -4.107575e+001  4.978188e+001 
4043750000  -4.109658e+001  4.720554e+001 
4046875000  -4.104165e+001  4.191539e+001 
4050000000  -4.053203e+001  3.917356e+001 
4053125000  -4.149976e+001  3.643249e+001 
4056250000  -4.156264e+001  4.113522e+001 
4059375000  -3.940302e+001  3.734916e+001 
4062500000  -3.906355e+001  3.051043e+001 
4065625000  -3.885989e+001  2.355182e+001 
4068750000  -3.825478e+001  1.804212e+001 
4071875000  -3.800266e+001  7.055280e+000 
4075000000  -3.831338e+001  -1.277292e+000 
4078125000  -3.875200e+001  -3.971750e+000 
4081250000  -3.809009e+001  -9.613411e+000 
4084375000  -3.801864e+001  -1.722764e+001 
4087500000  -3.856338e+001  -2.609900e+001 
4090625000  -3.921686e+001  -2.652113e+001 
4093750000  -3.885454e+001  -2.982257e+001 
4096875000  -3.871613e+001  -3.899083e+001 
4100000000  -3.984101e+001  -4.578090e+001 
4103125000  -4.067928e+001  -4.452980e+001 
4106250000  -3.990532e+001  -4.018605e+001 
4109375000  -3.915067e+001  -4.510723e+001 
4112500000  -3.885261e+001  -5.362438e+001 
4115625000  -3.927519e+001  -6.022240e+001 
4118750000  -3.902351e+001  -6.579356e+001 
4121875000  -3.868675e+001  -7.289059e+001 
4125000000  -3.979783e+001  -7.933488e+001 
4128125000  -4.083940e+001  -7.706345e+001 
4131250000  -3.992342e+001  -7.082975e+001 
4134375000  -3.741749e+001  -8.094589e+001 
4137500000  -3.803554e+001  -1.028502e+002 
4140625000  -4.069180e+001  -1.098042e+002 
4143750000  -4.155391e+001  -1.009180e+002 
4146875000  -4.063347e+001  -9.735861e+001 
4150000000  -3.985160e+001  -1.070575e+002 
4153125000  -4.010084e+001  -1.150444e+002 
4156250000  -4.128251e+001  -1.182936e+002 
4159375000  -4.067854e+001  -1.137051e+002 
4162500000  -3.993112e+001  -1.121125e+002 
4165625000  -3.894064e+001  -1.198773e+002 
4168750000  -3.843970e+001  -1.280683e+002 
4171875000  -3.843930e+001  -1.393564e+002 
4175000000  -3.934472e+001  -1.439521e+002 
4178125000  -3.935783e+001  -1.457765e+002 
4181250000  -3.925887e+001  -1.485737e+002 
4184375000  -3.965606e+001  -1.550813e+002 
4187500000  -3.937289e+001  -1.598214e+002 
4190625000  -3.952153e+001  -1.662205e+002 
4193750000  -4.026611e+001  -1.712597e+002 
4196875000  -4.164700e+001  -1.727065e+002 
4200000000  -4.246693e+001  -1.653971e+002 
4203125000  -4.110915e+001  -1.563411e+002 
4206250000  -3.762099e+001  -1.629169e+002 
4209375000  -3.747758e+001  1.720909e+002 
4212500000  -3.973695e+001  1.678297e+002 
4215625000  -3.978777e+001  1.727426e+002 
4218750000  -3.830763e+001  1.740293e+002 
4221875000  -3.671695e+001  1.646062e+002 
4225000000  -3.803821e+001  1.523254e+002 
4228125000  -3.784481e+001  1.538984e+002 
4231250000  -3.618650e+001  1.456530e+002 
4234375000  -3.650425e+001  1.352412e+002 
4237500000  -3.618523e+001  1.300193e+002 
4240625000  -3.609232e+001  1.187714e+002 
4243750000  -3.751986e+001  1.106928e+002 
4246875000  -3.848419e+001  1.100078e+002 
4250000000  -3.832537e+001  1.114288e+002 
4253125000  -3.812706e+001  1.053757e+002 
4256250000  -3.810123e+001  1.025981e+002 
4259375000  -3.767361e+001  9.642029e+001 
4262500000  -3.814360e+001  9.161578e+001 
4265625000  -3.801517e+001  8.988285e+001 
4268750000  -3.675792e+001  8.187453e+001 
4271875000  -3.673416e+001  7.389059e+001 
4275000000  -3.675383e+001  6.515460e+001 
4278125000  -3.771814e+001  5.408096e+001 
4281250000  -3.911246e+001  5.156678e+001 
4284375000  -3.913970e+001  5.002292e+001 
4287500000  -4.027858e+001  4.617662e+001 
4290625000  -4.047290e+001  5.506519e+001 
4293750000  -3.858759e+001  5.375107e+001 
4296875000  -3.781459e+001  4.037421e+001 
4300000000  -3.925207e+001  3.141276e+001 
4303125000  -3.976816e+001  3.576605e+001 
4306250000  -3.838415e+001  3.697945e+001 
4309375000  -3.761638e+001  3.173691e+001 
4312500000  -3.751331e+001  1.916879e+001 
4315625000  -3.803347e+001  1.154070e+001 
4318750000  -3.877221e+001  8.347215e+000 
4321875000  -3.862709e+001  9.286355e+000 
4325000000  -3.802917e+001  7.409975e+000 
4328125000  -3.736647e+001  -2.543397e+000 
4331250000  -3.752144e+001  -1.245961e+001 
4334375000  -3.817072e+001  -1.956189e+001 
4337500000  -3.966649e+001  -1.889869e+001 
4340625000  -3.957103e+001  -1.415488e+001 
4343750000  -3.841151e+001  -1.892566e+001 
4346875000  -3.827531e+001  -2.929630e+001 
4350000000  -3.829741e+001  -3.581635e+001 
4353125000  -3.862790e+001  -4.371587e+001 
4356250000  -4.107345e+001  -3.879166e+001 
4359375000  -3.970214e+001  -2.311517e+001 
4362500000  -3.667102e+001  -3.299390e+001 
4365625000  -3.596993e+001  -5.131628e+001 
4368750000  -3.736295e+001  -6.139506e+001 
4371875000  -3.773160e+001  -6.006116e+001 
4375000000  -3.727346e+001  -6.497286e+001 
4378125000  -3.698649e+001  -7.167679e+001 
4381250000  -3.723021e+001  -7.982999e+001 
4384375000  -3.704299e+001  -8.721717e+001 
4387500000  -3.823902e+001  -9.082177e+001 
4390625000  -3.856928e+001  -9.226055e+001 
4393750000  -3.817598e+001  -9.470655e+001 
4396875000  -3.731155e+001  -9.858416e+001 
4400000000  -3.686170e+001  -1.089239e+002 
4403125000  -3.775932e+001  -1.160529e+002 
4406250000  -3.844768e+001  -1.217893e+002 
4409375000  -3.872971e+001  -1.242623e+002 
4412500000  -3.989270e+001  -1.249084e+002 
4415625000  -3.943661e+001  -1.217211e+002 
