!Agilent Technologies,E8363B,MY43030201,A.06.04.32
!Agilent E8363B: A.06.04.32
!Date: Tuesday, November 11, 2014 21:26:53
!Correction: S21(Response(S21)) 
!S1P File: Measurement: S21:
# Hz S  dB   R 50
3000000000  -4.058261e+001  9.502290e+001 
3003125000  -4.239477e+001  8.751289e+001 
3006250000  -4.218005e+001  8.426476e+001 
3009375000  -4.267994e+001  8.975800e+001 
3012500000  -4.162035e+001  8.559084e+001 
3015625000  -4.130775e+001  7.908997e+001 
3018750000  -4.157579e+001  7.944675e+001 
3021875000  -4.026105e+001  7.999030e+001 
3025000000  -3.897028e+001  7.610407e+001 
3028125000  -3.813607e+001  6.731783e+001 
3031250000  -3.698351e+001  5.487015e+001 
3034375000  -3.672091e+001  4.127216e+001 
3037500000  -3.748260e+001  2.943725e+001 
3040625000  -3.875046e+001  2.434787e+001 
3043750000  -3.914003e+001  1.817435e+001 
3046875000  -3.968361e+001  1.187651e+001 
3050000000  -4.087387e+001  7.413696e+000 
3053125000  -4.053086e+001  1.298266e+001 
3056250000  -4.041208e+001  1.595777e+001 
3059375000  -3.990175e+001  1.475737e+001 
3062500000  -3.836030e+001  7.642068e+000 
3065625000  -3.802593e+001  -2.190808e+000 
3068750000  -3.768182e+001  -8.821801e+000 
3071875000  -3.775382e+001  -1.182310e+001 
3075000000  -3.719843e+001  -1.784657e+001 
3078125000  -3.706658e+001  -2.329760e+001 
3081250000  -3.731083e+001  -2.978473e+001 
3084375000  -3.644653e+001  -3.428440e+001 
3087500000  -3.643254e+001  -4.121330e+001 
3090625000  -3.604895e+001  -5.323611e+001 
3093750000  -3.663884e+001  -6.118653e+001 
3096875000  -3.743877e+001  -6.706145e+001 
3100000000  -3.715191e+001  -6.970825e+001 
3103125000  -3.748875e+001  -7.347427e+001 
3106250000  -3.719014e+001  -7.802838e+001 
3109375000  -3.731184e+001  -8.266997e+001 
3112500000  -3.724509e+001  -8.836104e+001 
3115625000  -3.719897e+001  -9.256163e+001 
3118750000  -3.741395e+001  -9.492044e+001 
3121875000  -3.659952e+001  -1.073925e+002 
3125000000  -3.830645e+001  -1.107341e+002 
3128125000  -3.867332e+001  -1.022266e+002 
3131250000  -3.624454e+001  -1.071936e+002 
3134375000  -3.521540e+001  -1.255395e+002 
3137500000  -3.606159e+001  -1.376430e+002 
3140625000  -3.725404e+001  -1.406853e+002 
3143750000  -3.822208e+001  -1.436575e+002 
3146875000  -3.789797e+001  -1.417821e+002 
3150000000  -3.681746e+001  -1.447963e+002 
3153125000  -3.711254e+001  -1.542431e+002 
3156250000  -3.797701e+001  -1.502564e+002 
3159375000  -3.587635e+001  -1.504868e+002 
3162500000  -3.430359e+001  -1.661912e+002 
3165625000  -3.556398e+001  -1.791012e+002 
3168750000  -3.556322e+001  1.793610e+002 
3171875000  -3.489636e+001  1.726037e+002 
3175000000  -3.557701e+001  1.639614e+002 
3178125000  -3.513352e+001  1.625159e+002 
3181250000  -3.445565e+001  1.542760e+002 
3184375000  -3.415128e+001  1.421283e+002 
3187500000  -3.530082e+001  1.267175e+002 
3190625000  -3.732062e+001  1.217497e+002 
3193750000  -3.761718e+001  1.258811e+002 
3196875000  -3.742505e+001  1.269438e+002 
3200000000  -3.643047e+001  1.230588e+002 
3203125000  -3.599157e+001  1.139461e+002 
3206250000  -3.623067e+001  1.067354e+002 
3209375000  -3.572309e+001  1.000249e+002 
3212500000  -3.620740e+001  9.243417e+001 
3215625000  -3.607030e+001  8.957423e+001 
3218750000  -3.676899e+001  7.756641e+001 
3221875000  -3.738149e+001  7.199100e+001 
3225000000  -3.713414e+001  6.857106e+001 
3228125000  -3.773688e+001  6.060942e+001 
3231250000  -3.842461e+001  5.832143e+001 
3234375000  -3.793904e+001  5.613877e+001 
3237500000  -3.807038e+001  5.150684e+001 
3240625000  -3.768769e+001  4.682359e+001 
3243750000  -3.755217e+001  3.643581e+001 
3246875000  -3.825655e+001  2.908399e+001 
3250000000  -3.875262e+001  2.550254e+001 
3253125000  -3.899137e+001  2.231449e+001 
3256250000  -3.857172e+001  1.318184e+001 
3259375000  -3.909473e+001  3.630738e+000 
3262500000  -4.054954e+001  -5.202146e-001 
3265625000  -4.119824e+001  1.803863e+000 
3268750000  -4.137931e+001  3.719748e+000 
3271875000  -4.091854e+001  -3.940049e-001 
3275000000  -4.012364e+001  -8.463528e+000 
3278125000  -4.079860e+001  -1.344341e+001 
3281250000  -4.119799e+001  -1.388236e+001 
3284375000  -4.043925e+001  -2.020823e+001 
3287500000  -4.078849e+001  -2.486679e+001 
3290625000  -4.147516e+001  -3.256535e+001 
3293750000  -4.119289e+001  -3.739815e+001 
3296875000  -4.245095e+001  -3.953121e+001 
3300000000  -4.194162e+001  -3.935173e+001 
3303125000  -4.096636e+001  -4.502061e+001 
3306250000  -4.091108e+001  -5.277795e+001 
3309375000  -4.071247e+001  -5.950466e+001 
3312500000  -4.102667e+001  -7.343376e+001 
3315625000  -4.218603e+001  -7.925971e+001 
3318750000  -4.348104e+001  -8.479278e+001 
3321875000  -4.508653e+001  -8.094505e+001 
3325000000  -4.500590e+001  -7.405345e+001 
3328125000  -4.373204e+001  -7.560055e+001 
3331250000  -4.242421e+001  -7.215490e+001 
3334375000  -4.010324e+001  -8.457243e+001 
3337500000  -4.051532e+001  -1.056764e+002 
3340625000  -4.194243e+001  -1.150291e+002 
3343750000  -4.388010e+001  -1.153719e+002 
3346875000  -4.365561e+001  -1.160951e+002 
3350000000  -4.299795e+001  -1.177010e+002 
3353125000  -4.297297e+001  -1.251081e+002 
3356250000  -4.256730e+001  -1.352591e+002 
3359375000  -4.336391e+001  -1.448540e+002 
3362500000  -4.412141e+001  -1.509165e+002 
3365625000  -4.465420e+001  -1.527516e+002 
3368750000  -4.529018e+001  -1.594839e+002 
3371875000  -4.571564e+001  -1.629875e+002 
3375000000  -4.740881e+001  -1.679090e+002 
3378125000  -4.780873e+001  -1.670728e+002 
3381250000  -4.910682e+001  -1.600479e+002 
3384375000  -4.669344e+001  -1.422912e+002 
3387500000  -4.426214e+001  -1.608082e+002 
3390625000  -4.670156e+001  1.768143e+002 
3393750000  -4.729656e+001  1.777207e+002 
3396875000  -4.577630e+001  1.770355e+002 
3400000000  -4.643923e+001  1.646890e+002 
3403125000  -4.706163e+001  1.595343e+002 
3406250000  -4.721847e+001  1.557898e+002 
3409375000  -4.832890e+001  1.503919e+002 
3412500000  -4.894968e+001  1.431069e+002 
3415625000  -4.971372e+001  1.412063e+002 
3418750000  -5.051172e+001  1.423336e+002 
3421875000  -5.081525e+001  1.432743e+002 
3425000000  -4.982070e+001  1.435752e+002 
3428125000  -4.980453e+001  1.392255e+002 
3431250000  -5.084245e+001  1.307963e+002 
3434375000  -5.019817e+001  1.286739e+002 
3437500000  -5.159587e+001  1.190721e+002 
3440625000  -5.301511e+001  1.221958e+002 
3443750000  -5.093700e+001  1.349586e+002 
3446875000  -5.077744e+001  1.224366e+002 
3450000000  -5.021148e+001  1.140504e+002 
3453125000  -5.032993e+001  1.077448e+002 
3456250000  -5.183163e+001  1.042056e+002 
3459375000  -5.211211e+001  1.094903e+002 
3462500000  -5.189919e+001  1.143876e+002 
3465625000  -5.164762e+001  1.033914e+002 
3468750000  -5.169180e+001  1.031460e+002 
3471875000  -5.226695e+001  9.880930e+001 
3475000000  -5.113350e+001  9.617126e+001 
3478125000  -5.151365e+001  8.654704e+001 
3481250000  -5.208279e+001  8.266763e+001 
3484375000  -5.159944e+001  9.463904e+001 
3487500000  -5.146264e+001  8.470541e+001 
3490625000  -5.090244e+001  7.927419e+001 
3493750000  -5.166733e+001  7.232127e+001 
3496875000  -5.074184e+001  7.485338e+001 
3500000000  -5.083736e+001  7.015559e+001 
3503125000  -5.146134e+001  7.179225e+001 
3506250000  -4.974807e+001  6.585475e+001 
3509375000  -4.923869e+001  5.248995e+001 
3512500000  -4.957917e+001  4.037384e+001 
3515625000  -5.102911e+001  3.364679e+001 
3518750000  -5.252095e+001  3.458943e+001 
3521875000  -5.216557e+001  2.813337e+001 
3525000000  -5.279927e+001  2.138459e+001 
3528125000  -5.195925e+001  2.715335e+001 
3531250000  -5.206173e+001  2.594931e+001 
3534375000  -5.230512e+001  1.038471e+001 
3537500000  -5.276740e+001  2.452379e+000 
3540625000  -5.472036e+001  -1.866370e+000 
3543750000  -5.481798e+001  4.701912e+000 
3546875000  -5.606825e+001  8.128759e+000 
3550000000  -5.270724e+001  1.323371e+001 
3553125000  -5.329327e+001  -1.317801e+001 
3556250000  -5.550645e+001  -1.115010e+001 
3559375000  -5.574654e+001  -1.478190e+001 
3562500000  -5.511963e+001  -2.324376e+001 
3565625000  -5.572969e+001  -2.774846e+001 
3568750000  -5.678534e+001  -1.239738e+001 
3571875000  -5.661519e+001  -1.901905e+001 
3575000000  -5.755710e+001  -2.069648e+001 
3578125000  -5.846326e+001  -1.950910e+001 
3581250000  -5.714004e+001  -2.346342e+001 
3584375000  -5.725308e+001  -1.617985e+001 
3587500000  -5.671409e+001  -1.927639e+001 
3590625000  -6.032365e+001  -4.415081e+001 
3593750000  -5.862885e+001  -1.621497e+001 
3596875000  -5.944858e+001  -1.820667e+001 
3600000000  -5.991099e+001  -1.343257e+001 
3603125000  -5.854301e+001  -4.199928e+001 
3606250000  -5.930283e+001  -4.103265e+001 
3609375000  -5.998989e+001  -2.493824e+001 
3612500000  -5.777232e+001  -3.131336e+001 
3615625000  -5.705452e+001  -3.141996e+001 
3618750000  -6.148571e+001  -2.587020e+001 
3621875000  -5.815197e+001  -1.684808e+001 
3625000000  -5.732923e+001  -2.291040e+001 
3628125000  -5.852494e+001  -1.322552e+001 
3631250000  -5.723534e+001  -2.938426e+001 
3634375000  -5.668021e+001  -1.687293e+001 
3637500000  -5.588254e+001  -1.080481e+001 
3640625000  -5.532191e+001  -1.102605e+001 
3643750000  -5.327110e+001  -2.060304e+001 
3646875000  -5.317172e+001  -3.571741e+001 
3650000000  -5.364701e+001  -3.114499e+001 
3653125000  -5.244321e+001  -3.239782e+001 
3656250000  -5.375418e+001  -4.255579e+001 
3659375000  -5.242683e+001  -4.050948e+001 
3662500000  -5.077512e+001  -4.251723e+001 
3665625000  -4.995792e+001  -4.509815e+001 
3668750000  -4.840808e+001  -4.903724e+001 
3671875000  -4.810683e+001  -6.031151e+001 
3675000000  -4.775698e+001  -6.639109e+001 
3678125000  -4.761327e+001  -7.451804e+001 
3681250000  -4.689448e+001  -7.718514e+001 
3684375000  -4.658114e+001  -8.293040e+001 
3687500000  -4.674299e+001  -8.743980e+001 
3690625000  -4.678332e+001  -9.327189e+001 
3693750000  -4.721561e+001  -9.234145e+001 
3696875000  -4.667710e+001  -9.297890e+001 
3700000000  -4.537474e+001  -1.018791e+002 
3703125000  -4.557644e+001  -1.057174e+002 
3706250000  -4.576470e+001  -1.079432e+002 
3709375000  -4.518861e+001  -1.066628e+002 
3712500000  -4.409970e+001  -1.115444e+002 
3715625000  -4.218230e+001  -1.217435e+002 
3718750000  -4.176285e+001  -1.263519e+002 
3721875000  -4.152632e+001  -1.367836e+002 
3725000000  -4.199660e+001  -1.454615e+002 
3728125000  -4.174751e+001  -1.474671e+002 
3731250000  -4.083918e+001  -1.515255e+002 
3734375000  -4.012355e+001  -1.612131e+002 
3737500000  -4.103658e+001  -1.700848e+002 
3740625000  -4.095805e+001  -1.752017e+002 
3743750000  -4.071051e+001  1.769919e+002 
3746875000  -4.082085e+001  1.715074e+002 
3750000000  -4.126735e+001  1.663122e+002 
3753125000  -4.077660e+001  1.650679e+002 
3756250000  -4.066390e+001  1.613273e+002 
3759375000  -4.029447e+001  1.556994e+002 
3762500000  -4.018744e+001  1.478010e+002 
3765625000  -4.095674e+001  1.440047e+002 
3768750000  -4.038254e+001  1.441226e+002 
3771875000  -3.854346e+001  1.365464e+002 
3775000000  -3.856054e+001  1.252205e+002 
3778125000  -3.915834e+001  1.192726e+002 
3781250000  -3.920963e+001  1.162577e+002 
3784375000  -3.889410e+001  1.093548e+002 
3787500000  -3.848740e+001  1.035723e+002 
3790625000  -3.923069e+001  9.433193e+001 
3793750000  -3.915133e+001  9.003942e+001 
3796875000  -3.853424e+001  8.568507e+001 
3800000000  -3.659105e+001  8.170366e+001 
3803125000  -3.805699e+001  6.699156e+001 
3806250000  -3.896705e+001  6.469534e+001 
3809375000  -3.876534e+001  6.046643e+001 
3812500000  -3.842706e+001  5.191525e+001 
3815625000  -3.952949e+001  4.225212e+001 
3818750000  -4.092284e+001  4.359603e+001 
3821875000  -4.042563e+001  5.199423e+001 
3825000000  -3.853150e+001  4.931970e+001 
3828125000  -3.710530e+001  3.218485e+001 
3831250000  -3.810560e+001  1.669655e+001 
3834375000  -4.009735e+001  1.534082e+001 
3837500000  -4.082464e+001  2.019000e+001 
3840625000  -3.951566e+001  1.466405e+001 
3843750000  -3.847061e+001  1.967556e+000 
3846875000  -3.947572e+001  -5.018493e+000 
3850000000  -4.062699e+001  -7.413691e-001 
3853125000  -4.019488e+001  1.646680e+000 
3856250000  -3.957182e+001  -8.313437e+000 
3859375000  -3.885160e+001  -1.265219e+001 
3862500000  -3.869461e+001  -2.304180e+001 
3865625000  -3.929691e+001  -2.946793e+001 
3868750000  -3.895172e+001  -2.831404e+001 
3871875000  -3.827089e+001  -3.529142e+001 
3875000000  -3.867463e+001  -4.520092e+001 
3878125000  -3.951249e+001  -4.812013e+001 
3881250000  -3.937214e+001  -4.841185e+001 
3884375000  -3.883396e+001  -5.603091e+001 
3887500000  -3.902586e+001  -6.270420e+001 
3890625000  -3.961128e+001  -6.618616e+001 
3893750000  -4.002885e+001  -6.878392e+001 
3896875000  -3.995124e+001  -7.119518e+001 
3900000000  -3.976291e+001  -7.559187e+001 
3903125000  -3.941418e+001  -7.892615e+001 
3906250000  -3.913476e+001  -8.389261e+001 
3909375000  -3.820747e+001  -9.272340e+001 
3912500000  -3.882295e+001  -1.012967e+002 
3915625000  -4.041643e+001  -1.021531e+002 
3918750000  -4.015098e+001  -1.017016e+002 
3921875000  -3.943297e+001  -1.085878e+002 
3925000000  -3.854795e+001  -1.116349e+002 
3928125000  -3.811758e+001  -1.210006e+002 
3931250000  -3.921408e+001  -1.285774e+002 
3934375000  -3.953744e+001  -1.303654e+002 
3937500000  -4.003055e+001  -1.325813e+002 
3940625000  -4.015116e+001  -1.341131e+002 
3943750000  -3.871130e+001  -1.369759e+002 
3946875000  -3.835670e+001  -1.458249e+002 
3950000000  -3.952096e+001  -1.551536e+002 
3953125000  -4.001759e+001  -1.538518e+002 
3956250000  -3.849139e+001  -1.541076e+002 
3959375000  -3.784542e+001  -1.608269e+002 
3962500000  -3.778210e+001  -1.664983e+002 
3965625000  -3.770033e+001  -1.780836e+002 
3968750000  -3.848750e+001  1.734650e+002 
3971875000  -3.867842e+001  1.705281e+002 
3975000000  -3.849799e+001  1.661836e+002 
3978125000  -3.847687e+001  1.623905e+002 
3981250000  -3.866645e+001  1.530600e+002 
3984375000  -3.884078e+001  1.463787e+002 
3987500000  -3.968135e+001  1.441304e+002 
3990625000  -3.978676e+001  1.402256e+002 
3993750000  -3.988482e+001  1.368531e+002 
3996875000  -4.008474e+001  1.327454e+002 
4000000000  -4.045913e+001  1.264848e+002 
4003125000  -4.085720e+001  1.299254e+002 
4006250000  -3.962166e+001  1.283795e+002 
4009375000  -3.852927e+001  1.142109e+002 
4012500000  -3.993989e+001  1.053902e+002 
4015625000  -4.098418e+001  1.030228e+002 
4018750000  -4.128312e+001  1.048708e+002 
4021875000  -4.054704e+001  1.033492e+002 
4025000000  -3.998774e+001  9.555283e+001 
4028125000  -4.024152e+001  9.059690e+001 
4031250000  -4.091011e+001  8.467807e+001 
4034375000  -4.134910e+001  8.359071e+001 
4037500000  -4.080218e+001  8.461945e+001 
4040625000  -4.039771e+001  8.044665e+001 
4043750000  -4.107095e+001  7.873709e+001 
4046875000  -4.055797e+001  7.566409e+001 
4050000000  -4.048864e+001  6.842992e+001 
4053125000  -4.109887e+001  6.611387e+001 
4056250000  -4.124381e+001  7.002062e+001 
4059375000  -3.982635e+001  6.894069e+001 
4062500000  -3.865750e+001  5.970224e+001 
4065625000  -3.880604e+001  5.398455e+001 
4068750000  -3.819613e+001  4.724635e+001 
4071875000  -3.746697e+001  3.781834e+001 
4075000000  -3.785803e+001  3.041714e+001 
4078125000  -3.854188e+001  2.582048e+001 
4081250000  -3.794227e+001  2.255715e+001 
4084375000  -3.792791e+001  1.301415e+001 
4087500000  -3.828878e+001  5.885969e+000 
4090625000  -3.891209e+001  3.480471e+000 
4093750000  -3.834089e+001  2.246719e+000 
4096875000  -3.840313e+001  -8.551619e+000 
4100000000  -3.921647e+001  -1.541048e+001 
4103125000  -4.022369e+001  -1.260750e+001 
4106250000  -3.968287e+001  -1.109861e+001 
4109375000  -3.908572e+001  -1.478985e+001 
4112500000  -3.848831e+001  -2.382254e+001 
4115625000  -3.902358e+001  -2.909324e+001 
4118750000  -3.874312e+001  -3.546222e+001 
4121875000  -3.869055e+001  -4.270782e+001 
4125000000  -3.950299e+001  -4.781575e+001 
4128125000  -4.052297e+001  -4.779926e+001 
4131250000  -3.933108e+001  -4.055498e+001 
4134375000  -3.727744e+001  -5.122773e+001 
4137500000  -3.776147e+001  -7.172963e+001 
4140625000  -4.009229e+001  -7.844728e+001 
4143750000  -4.085458e+001  -7.258376e+001 
4146875000  -4.018791e+001  -6.837154e+001 
4150000000  -3.923121e+001  -7.692955e+001 
4153125000  -3.975242e+001  -8.503400e+001 
4156250000  -4.082667e+001  -8.797253e+001 
4159375000  -4.083805e+001  -8.381707e+001 
4162500000  -3.964464e+001  -8.131252e+001 
4165625000  -3.837837e+001  -8.782070e+001 
4168750000  -3.840660e+001  -9.744630e+001 
4171875000  -3.815196e+001  -1.087390e+002 
4175000000  -3.857948e+001  -1.159187e+002 
4178125000  -3.922348e+001  -1.155319e+002 
4181250000  -3.899289e+001  -1.199557e+002 
4184375000  -3.890878e+001  -1.235571e+002 
4187500000  -3.913433e+001  -1.290558e+002 
4190625000  -3.904108e+001  -1.358208e+002 
4193750000  -4.025874e+001  -1.412048e+002 
4196875000  -4.092291e+001  -1.421331e+002 
4200000000  -4.165099e+001  -1.382899e+002 
4203125000  -4.062392e+001  -1.267129e+002 
4206250000  -3.718547e+001  -1.324270e+002 
4209375000  -3.666995e+001  -1.561986e+002 
4212500000  -3.928532e+001  -1.631776e+002 
4215625000  -3.982516e+001  -1.573823e+002 
4218750000  -3.799847e+001  -1.544512e+002 
4221875000  -3.587503e+001  -1.652702e+002 
4225000000  -3.731732e+001  -1.794501e+002 
4228125000  -3.754504e+001  -1.769252e+002 
4231250000  -3.582453e+001  1.770666e+002 
4234375000  -3.608082e+001  1.668255e+002 
4237500000  -3.575089e+001  1.599634e+002 
4240625000  -3.574682e+001  1.493102e+002 
4243750000  -3.704440e+001  1.424046e+002 
4246875000  -3.794901e+001  1.415175e+002 
4250000000  -3.781319e+001  1.397270e+002 
4253125000  -3.748966e+001  1.375617e+002 
4256250000  -3.770407e+001  1.313996e+002 
4259375000  -3.730006e+001  1.265366e+002 
4262500000  -3.763117e+001  1.218687e+002 
4265625000  -3.744855e+001  1.191828e+002 
4268750000  -3.670328e+001  1.118755e+002 
4271875000  -3.613039e+001  1.043654e+002 
4275000000  -3.601025e+001  9.572635e+001 
4278125000  -3.681816e+001  8.225021e+001 
4281250000  -3.834542e+001  7.979648e+001 
4284375000  -3.810094e+001  7.861806e+001 
4287500000  -4.001907e+001  7.528922e+001 
4290625000  -4.015445e+001  8.428828e+001 
4293750000  -3.823701e+001  8.370842e+001 
4296875000  -3.754787e+001  7.114266e+001 
4300000000  -3.818465e+001  6.327232e+001 
4303125000  -3.924604e+001  6.290435e+001 
4306250000  -3.820316e+001  6.607750e+001 
4309375000  -3.703093e+001  6.059150e+001 
4312500000  -3.719151e+001  5.040220e+001 
4315625000  -3.732794e+001  4.167611e+001 
4318750000  -3.813143e+001  3.807700e+001 
4321875000  -3.827958e+001  3.818836e+001 
4325000000  -3.733268e+001  3.642789e+001 
4328125000  -3.677036e+001  2.674389e+001 
4331250000  -3.704669e+001  1.677343e+001 
4334375000  -3.757321e+001  1.091560e+001 
4337500000  -3.884174e+001  8.370539e+000 
4340625000  -3.911084e+001  1.297011e+001 
4343750000  -3.815650e+001  9.447827e+000 
4346875000  -3.790496e+001  1.731159e+000 
4350000000  -3.768626e+001  -5.612704e+000 
4353125000  -3.823781e+001  -1.207338e+001 
4356250000  -4.015932e+001  -1.319124e+001 
4359375000  -3.993288e+001  2.818711e+000 
4362500000  -3.630931e+001  -3.625023e+000 
4365625000  -3.533783e+001  -2.018497e+001 
4368750000  -3.638604e+001  -3.182664e+001 
4371875000  -3.732992e+001  -3.200628e+001 
4375000000  -3.697485e+001  -3.468528e+001 
4378125000  -3.649661e+001  -4.303270e+001 
4381250000  -3.655094e+001  -5.021721e+001 
4384375000  -3.634184e+001  -5.718413e+001 
4387500000  -3.747989e+001  -6.499286e+001 
4390625000  -3.796650e+001  -6.531101e+001 
4393750000  -3.762759e+001  -6.417222e+001 
4396875000  -3.696634e+001  -6.990355e+001 
4400000000  -3.626510e+001  -7.774252e+001 
4403125000  -3.722031e+001  -8.833937e+001 
4406250000  -3.762199e+001  -8.845670e+001 
4409375000  -3.799896e+001  -9.541516e+001 
4412500000  -3.888014e+001  -9.814082e+001 
4415625000  -3.896796e+001  -9.402818e+001 
