!Agilent Technologies,E8363B,MY43030201,A.06.04.32
!Agilent E8363B: A.06.04.32
!Date: Tuesday, November 11, 2014 21:33:07
!Correction: S21(Response(S21)) 
!S1P File: Measurement: S21:
# Hz S  dB   R 50
3000000000  -4.049832e+001  7.482225e+001 
3003125000  -4.235869e+001  6.681026e+001 
3006250000  -4.203455e+001  6.659232e+001 
3009375000  -4.283088e+001  7.269217e+001 
3012500000  -4.143037e+001  6.583829e+001 
3015625000  -4.141886e+001  6.007262e+001 
3018750000  -4.185512e+001  6.064737e+001 
3021875000  -4.026578e+001  6.192633e+001 
3025000000  -3.893172e+001  5.697067e+001 
3028125000  -3.791838e+001  4.692010e+001 
3031250000  -3.701401e+001  3.488017e+001 
3034375000  -3.671648e+001  2.091423e+001 
3037500000  -3.753666e+001  9.986384e+000 
3040625000  -3.882901e+001  5.631021e+000 
3043750000  -3.906417e+001  -1.514513e+000 
3046875000  -3.988717e+001  -7.492083e+000 
3050000000  -4.091312e+001  -1.287053e+001 
3053125000  -4.065503e+001  -7.904701e+000 
3056250000  -4.046891e+001  -3.728768e+000 
3059375000  -3.976428e+001  -6.682590e+000 
3062500000  -3.822450e+001  -1.210135e+001 
3065625000  -3.783765e+001  -2.174919e+001 
3068750000  -3.757339e+001  -2.828631e+001 
3071875000  -3.768093e+001  -3.046265e+001 
3075000000  -3.706798e+001  -3.725651e+001 
3078125000  -3.707701e+001  -4.373702e+001 
3081250000  -3.711055e+001  -4.894085e+001 
3084375000  -3.637013e+001  -5.402483e+001 
3087500000  -3.634231e+001  -6.156420e+001 
3090625000  -3.590795e+001  -7.388708e+001 
3093750000  -3.694933e+001  -8.159865e+001 
3096875000  -3.724532e+001  -8.684760e+001 
3100000000  -3.722802e+001  -8.989914e+001 
3103125000  -3.747477e+001  -9.384492e+001 
3106250000  -3.707666e+001  -9.877470e+001 
3109375000  -3.736499e+001  -1.025464e+002 
3112500000  -3.716565e+001  -1.076545e+002 
3115625000  -3.715311e+001  -1.121842e+002 
3118750000  -3.712497e+001  -1.161932e+002 
3121875000  -3.649475e+001  -1.272299e+002 
3125000000  -3.842043e+001  -1.298947e+002 
3128125000  -3.860829e+001  -1.222118e+002 
3131250000  -3.605740e+001  -1.282576e+002 
3134375000  -3.539156e+001  -1.464185e+002 
3137500000  -3.601711e+001  -1.588078e+002 
3140625000  -3.740429e+001  -1.606572e+002 
3143750000  -3.831454e+001  -1.631980e+002 
3146875000  -3.751313e+001  -1.616807e+002 
3150000000  -3.696501e+001  -1.654111e+002 
3153125000  -3.720919e+001  -1.736448e+002 
3156250000  -3.808079e+001  -1.689151e+002 
3159375000  -3.567697e+001  -1.713096e+002 
3162500000  -3.413065e+001  1.730824e+002 
3165625000  -3.547107e+001  1.607837e+002 
3168750000  -3.539976e+001  1.599508e+002 
3171875000  -3.485147e+001  1.528160e+002 
3175000000  -3.541273e+001  1.430030e+002 
3178125000  -3.500334e+001  1.423197e+002 
3181250000  -3.440110e+001  1.332408e+002 
3184375000  -3.414557e+001  1.222840e+002 
3187500000  -3.546013e+001  1.068219e+002 
3190625000  -3.717521e+001  1.010874e+002 
3193750000  -3.745698e+001  1.058494e+002 
3196875000  -3.743829e+001  1.072282e+002 
3200000000  -3.616825e+001  1.024438e+002 
3203125000  -3.593087e+001  9.404617e+001 
3206250000  -3.613079e+001  8.617251e+001 
3209375000  -3.569140e+001  7.872647e+001 
3212500000  -3.630766e+001  7.175603e+001 
3215625000  -3.607436e+001  6.920321e+001 
3218750000  -3.671394e+001  5.744278e+001 
3221875000  -3.723227e+001  5.103024e+001 
3225000000  -3.702747e+001  4.763317e+001 
3228125000  -3.772603e+001  4.003603e+001 
3231250000  -3.829578e+001  3.796783e+001 
3234375000  -3.792696e+001  3.541911e+001 
3237500000  -3.805562e+001  3.033882e+001 
3240625000  -3.758719e+001  2.540217e+001 
3243750000  -3.770365e+001  1.536218e+001 
3246875000  -3.822092e+001  7.821777e+000 
3250000000  -3.875927e+001  4.739136e+000 
3253125000  -3.906541e+001  1.297075e+000 
3256250000  -3.860117e+001  -7.428049e+000 
3259375000  -3.926199e+001  -1.899438e+001 
3262500000  -4.063013e+001  -2.271166e+001 
3265625000  -4.113264e+001  -1.826995e+001 
3268750000  -4.124900e+001  -1.802272e+001 
3271875000  -4.060753e+001  -2.065100e+001 
3275000000  -4.013356e+001  -3.045282e+001 
3278125000  -4.114034e+001  -3.559069e+001 
3281250000  -4.114141e+001  -3.683586e+001 
3284375000  -4.050946e+001  -4.200629e+001 
3287500000  -4.083525e+001  -4.814477e+001 
3290625000  -4.119542e+001  -5.405351e+001 
3293750000  -4.108778e+001  -5.950979e+001 
3296875000  -4.240208e+001  -6.049637e+001 
3300000000  -4.162851e+001  -6.118222e+001 
3303125000  -4.090784e+001  -6.722287e+001 
3306250000  -4.091264e+001  -7.475670e+001 
3309375000  -4.047498e+001  -8.244935e+001 
3312500000  -4.084713e+001  -9.348280e+001 
3315625000  -4.250031e+001  -1.005208e+002 
3318750000  -4.378337e+001  -1.044870e+002 
3321875000  -4.490398e+001  -1.017559e+002 
3325000000  -4.453868e+001  -9.436196e+001 
3328125000  -4.348902e+001  -9.579787e+001 
3331250000  -4.212599e+001  -9.336115e+001 
3334375000  -3.966453e+001  -1.081075e+002 
3337500000  -4.025824e+001  -1.286321e+002 
3340625000  -4.264650e+001  -1.382103e+002 
3343750000  -4.389441e+001  -1.372318e+002 
3346875000  -4.347304e+001  -1.369948e+002 
3350000000  -4.296162e+001  -1.387880e+002 
3353125000  -4.287380e+001  -1.495027e+002 
3356250000  -4.268247e+001  -1.568063e+002 
3359375000  -4.343999e+001  -1.669476e+002 
3362500000  -4.453006e+001  -1.720869e+002 
3365625000  -4.463929e+001  -1.776430e+002 
3368750000  -4.557042e+001  1.783008e+002 
3371875000  -4.583095e+001  1.727235e+002 
3375000000  -4.728474e+001  1.687123e+002 
3378125000  -4.848806e+001  1.703175e+002 
3381250000  -5.029619e+001  -1.772753e+002 
3384375000  -4.668618e+001  -1.631832e+002 
3387500000  -4.333479e+001  1.736482e+002 
3390625000  -4.621322e+001  1.561095e+002 
3393750000  -4.740376e+001  1.547216e+002 
3396875000  -4.620760e+001  1.578399e+002 
3400000000  -4.590771e+001  1.416264e+002 
3403125000  -4.729808e+001  1.374678e+002 
3406250000  -4.816916e+001  1.288954e+002 
3409375000  -4.772424e+001  1.273542e+002 
3412500000  -4.903871e+001  1.232872e+002 
3415625000  -4.971148e+001  1.175690e+002 
3418750000  -4.969777e+001  1.193991e+002 
3421875000  -5.130231e+001  1.245490e+002 
3425000000  -5.018286e+001  1.219620e+002 
3428125000  -5.011872e+001  1.178953e+002 
3431250000  -5.084897e+001  1.073224e+002 
3434375000  -5.073077e+001  1.032645e+002 
3437500000  -5.158978e+001  1.044022e+002 
3440625000  -5.169365e+001  1.111961e+002 
3443750000  -5.015443e+001  1.072229e+002 
3446875000  -5.065648e+001  1.046312e+002 
3450000000  -5.005430e+001  8.883436e+001 
3453125000  -5.126857e+001  9.038779e+001 
3456250000  -5.204533e+001  8.619894e+001 
3459375000  -5.311720e+001  8.820732e+001 
3462500000  -5.198939e+001  8.860548e+001 
3465625000  -5.156318e+001  8.177007e+001 
3468750000  -5.276686e+001  8.139127e+001 
3471875000  -5.250011e+001  7.595350e+001 
3475000000  -5.107271e+001  7.229873e+001 
3478125000  -5.065056e+001  5.994356e+001 
3481250000  -5.290129e+001  6.325165e+001 
3484375000  -5.265425e+001  6.244378e+001 
3487500000  -5.141183e+001  6.422968e+001 
3490625000  -5.100505e+001  5.743277e+001 
3493750000  -5.120791e+001  4.828550e+001 
3496875000  -5.207390e+001  5.237783e+001 
3500000000  -5.139156e+001  5.088444e+001 
3503125000  -5.140398e+001  5.081942e+001 
3506250000  -5.023926e+001  4.131331e+001 
3509375000  -4.981069e+001  2.570140e+001 
3512500000  -5.045898e+001  1.329800e+001 
3515625000  -5.113358e+001  6.672122e+000 
3518750000  -5.128934e+001  1.113649e+001 
3521875000  -5.202612e+001  8.366102e+000 
3525000000  -5.415552e+001  2.057733e+000 
3528125000  -5.225770e+001  5.566316e+000 
3531250000  -5.111623e+001  8.400949e-002 
3534375000  -5.215772e+001  -8.435865e+000 
3537500000  -5.431573e+001  -2.415995e+001 
3540625000  -5.384201e+001  -1.802494e+001 
3543750000  -5.507093e+001  -1.079393e+001 
3546875000  -5.501969e+001  -6.596929e+000 
3550000000  -5.387074e+001  -1.513279e+001 
3553125000  -5.324964e+001  -2.957162e+001 
3556250000  -5.683979e+001  -2.979184e+001 
3559375000  -5.538342e+001  -3.010469e+001 
3562500000  -5.669426e+001  -4.049112e+001 
3565625000  -5.670097e+001  -4.049376e+001 
3568750000  -5.766915e+001  -3.683804e+001 
3571875000  -5.760502e+001  -4.438963e+001 
3575000000  -5.902594e+001  -2.009381e+001 
3578125000  -5.864277e+001  -3.620545e+001 
3581250000  -5.734120e+001  -4.633447e+001 
3584375000  -5.826054e+001  -4.036047e+001 
3587500000  -5.768472e+001  -3.716607e+001 
3590625000  -5.691719e+001  -5.510394e+001 
3593750000  -5.797700e+001  -4.374536e+001 
3596875000  -6.018264e+001  -2.843266e+001 
3600000000  -5.646931e+001  -3.794003e+001 
3603125000  -5.852275e+001  -4.624640e+001 
3606250000  -5.871179e+001  -4.546541e+001 
3609375000  -5.624530e+001  -3.942951e+001 
3612500000  -5.649262e+001  -5.219698e+001 
3615625000  -5.862410e+001  -5.371651e+001 
3618750000  -5.947711e+001  -3.376787e+001 
3621875000  -5.707181e+001  -4.884401e+001 
3625000000  -5.967418e+001  -3.722656e+001 
3628125000  -5.752157e+001  -4.156164e+001 
3631250000  -5.723106e+001  -4.363644e+001 
3634375000  -5.760139e+001  -3.996306e+001 
3637500000  -5.507736e+001  -3.952223e+001 
3640625000  -5.533926e+001  -3.110205e+001 
3643750000  -5.280701e+001  -4.035927e+001 
3646875000  -5.251912e+001  -5.671105e+001 
3650000000  -5.178613e+001  -5.793171e+001 
3653125000  -5.220241e+001  -6.095362e+001 
3656250000  -5.156598e+001  -6.007055e+001 
3659375000  -5.143725e+001  -5.742971e+001 
3662500000  -5.100047e+001  -6.839313e+001 
3665625000  -4.991133e+001  -7.119174e+001 
3668750000  -4.832147e+001  -7.466866e+001 
3671875000  -4.736447e+001  -8.347589e+001 
3675000000  -4.785286e+001  -9.142155e+001 
3678125000  -4.692193e+001  -9.400813e+001 
3681250000  -4.675609e+001  -1.001737e+002 
3684375000  -4.714043e+001  -1.054392e+002 
3687500000  -4.634869e+001  -1.119587e+002 
3690625000  -4.656386e+001  -1.163536e+002 
3693750000  -4.732106e+001  -1.159680e+002 
3696875000  -4.598846e+001  -1.138394e+002 
3700000000  -4.558899e+001  -1.233512e+002 
3703125000  -4.487309e+001  -1.291337e+002 
3706250000  -4.604224e+001  -1.309114e+002 
3709375000  -4.503256e+001  -1.297072e+002 
3712500000  -4.356863e+001  -1.332681e+002 
3715625000  -4.186917e+001  -1.440451e+002 
3718750000  -4.167905e+001  -1.506937e+002 
3721875000  -4.132954e+001  -1.610208e+002 
3725000000  -4.179571e+001  -1.683134e+002 
3728125000  -4.161816e+001  -1.720092e+002 
3731250000  -4.076624e+001  -1.772333e+002 
3734375000  -4.022567e+001  1.763443e+002 
3737500000  -4.070956e+001  1.670540e+002 
3740625000  -4.097873e+001  1.618644e+002 
3743750000  -4.044054e+001  1.545297e+002 
3746875000  -4.063072e+001  1.482928e+002 
3750000000  -4.088375e+001  1.426427e+002 
3753125000  -4.061568e+001  1.381498e+002 
3756250000  -4.074555e+001  1.370181e+002 
3759375000  -4.053449e+001  1.307905e+002 
3762500000  -4.007879e+001  1.236858e+002 
3765625000  -4.061813e+001  1.198751e+002 
3768750000  -4.012494e+001  1.205382e+002 
3771875000  -3.839573e+001  1.128040e+002 
3775000000  -3.840836e+001  1.018407e+002 
3778125000  -3.894114e+001  9.441283e+001 
3781250000  -3.914150e+001  9.058930e+001 
3784375000  -3.872064e+001  8.583112e+001 
3787500000  -3.845658e+001  7.851883e+001 
3790625000  -3.923624e+001  6.919946e+001 
3793750000  -3.930967e+001  6.696281e+001 
3796875000  -3.818053e+001  6.386660e+001 
3800000000  -3.644017e+001  5.831713e+001 
3803125000  -3.807434e+001  4.503647e+001 
3806250000  -3.896597e+001  4.009369e+001 
3809375000  -3.828303e+001  3.665873e+001 
3812500000  -3.860576e+001  2.770285e+001 
3815625000  -3.957018e+001  1.744146e+001 
3818750000  -4.084435e+001  1.995793e+001 
3821875000  -4.007825e+001  2.763404e+001 
3825000000  -3.819817e+001  2.352853e+001 
3828125000  -3.696164e+001  5.187499e+000 
3831250000  -3.806040e+001  -8.204813e+000 
3834375000  -4.031128e+001  -9.206583e+000 
3837500000  -4.046542e+001  -5.598048e+000 
3840625000  -3.905515e+001  -6.612621e+000 
3843750000  -3.850213e+001  -2.317784e+001 
3846875000  -3.989437e+001  -2.830070e+001 
3850000000  -4.079855e+001  -2.315464e+001 
3853125000  -4.013340e+001  -2.432207e+001 
3856250000  -3.926441e+001  -3.229963e+001 
3859375000  -3.850211e+001  -3.914886e+001 
3862500000  -3.840445e+001  -4.928420e+001 
3865625000  -3.898223e+001  -5.415457e+001 
3868750000  -3.883865e+001  -5.343988e+001 
3871875000  -3.816244e+001  -6.165726e+001 
3875000000  -3.848628e+001  -7.358900e+001 
3878125000  -3.938596e+001  -7.653754e+001 
3881250000  -3.924140e+001  -7.518847e+001 
3884375000  -3.873991e+001  -8.129012e+001 
3887500000  -3.899866e+001  -8.763710e+001 
3890625000  -3.947880e+001  -9.287278e+001 
3893750000  -3.995826e+001  -9.480032e+001 
3896875000  -4.001418e+001  -9.623281e+001 
3900000000  -3.990836e+001  -1.016326e+002 
3903125000  -3.935111e+001  -1.060827e+002 
3906250000  -3.891714e+001  -1.087762e+002 
3909375000  -3.801302e+001  -1.173787e+002 
3912500000  -3.892891e+001  -1.277427e+002 
3915625000  -4.040521e+001  -1.260122e+002 
3918750000  -3.985038e+001  -1.282321e+002 
3921875000  -3.946548e+001  -1.327559e+002 
3925000000  -3.851700e+001  -1.376670e+002 
3928125000  -3.834943e+001  -1.472441e+002 
3931250000  -3.904580e+001  -1.547964e+002 
3934375000  -3.954852e+001  -1.552388e+002 
3937500000  -4.005544e+001  -1.591014e+002 
3940625000  -3.996826e+001  -1.591126e+002 
3943750000  -3.879160e+001  -1.615680e+002 
3946875000  -3.827996e+001  -1.720131e+002 
3950000000  -3.946853e+001  -1.786814e+002 
3953125000  -3.981783e+001  -1.798195e+002 
3956250000  -3.886052e+001  -1.794797e+002 
3959375000  -3.785155e+001  1.741337e+002 
3962500000  -3.757641e+001  1.655039e+002 
3965625000  -3.778055e+001  1.561090e+002 
3968750000  -3.865425e+001  1.500047e+002 
3971875000  -3.864553e+001  1.437140e+002 
3975000000  -3.850974e+001  1.394447e+002 
3978125000  -3.854393e+001  1.340762e+002 
3981250000  -3.866671e+001  1.289992e+002 
3984375000  -3.900564e+001  1.205050e+002 
3987500000  -3.970904e+001  1.187927e+002 
3990625000  -4.002680e+001  1.152638e+002 
3993750000  -4.002361e+001  1.114001e+002 
3996875000  -4.005029e+001  1.052614e+002 
4000000000  -4.073330e+001  1.007473e+002 
4003125000  -4.081095e+001  1.033953e+002 
4006250000  -3.952379e+001  1.002861e+002 
4009375000  -3.864355e+001  8.633401e+001 
4012500000  -4.001431e+001  8.009550e+001 
4015625000  -4.147309e+001  7.759041e+001 
4018750000  -4.096714e+001  8.069160e+001 
4021875000  -4.054874e+001  7.479611e+001 
4025000000  -4.034716e+001  6.799910e+001 
4028125000  -4.048311e+001  6.109214e+001 
4031250000  -4.129848e+001  5.830537e+001 
4034375000  -4.144466e+001  5.809064e+001 
4037500000  -4.116331e+001  5.810835e+001 
4040625000  -4.099823e+001  5.120390e+001 
4043750000  -4.114754e+001  4.923333e+001 
4046875000  -4.067779e+001  4.825272e+001 
4050000000  -4.078016e+001  3.997130e+001 
4053125000  -4.132320e+001  3.948713e+001 
4056250000  -4.139323e+001  4.152776e+001 
4059375000  -3.946005e+001  4.128669e+001 
4062500000  -3.860241e+001  3.297022e+001 
4065625000  -3.908741e+001  2.641114e+001 
4068750000  -3.838814e+001  2.089429e+001 
4071875000  -3.788366e+001  9.338184e+000 
4075000000  -3.835814e+001  3.584127e+000 
4078125000  -3.865549e+001  -3.009192e-001 
4081250000  -3.825946e+001  -6.066082e+000 
4084375000  -3.818177e+001  -1.453444e+001 
4087500000  -3.891454e+001  -2.191600e+001 
4090625000  -3.929822e+001  -2.417241e+001 
4093750000  -3.872584e+001  -2.698447e+001 
4096875000  -3.872904e+001  -3.642545e+001 
4100000000  -3.998537e+001  -4.300045e+001 
4103125000  -4.070225e+001  -4.130789e+001 
4106250000  -4.019139e+001  -3.625747e+001 
4109375000  -3.918270e+001  -4.036409e+001 
4112500000  -3.869296e+001  -5.094363e+001 
4115625000  -3.956799e+001  -5.693771e+001 
4118750000  -3.877696e+001  -6.089635e+001 
4121875000  -3.888620e+001  -6.863560e+001 
4125000000  -3.979900e+001  -7.666044e+001 
4128125000  -4.079887e+001  -7.255418e+001 
4131250000  -4.038420e+001  -6.860484e+001 
4134375000  -3.761324e+001  -7.911590e+001 
4137500000  -3.796407e+001  -9.967803e+001 
4140625000  -4.073433e+001  -1.041378e+002 
4143750000  -4.125829e+001  -9.838237e+001 
4146875000  -4.079409e+001  -9.460630e+001 
4150000000  -3.960256e+001  -1.043281e+002 
4153125000  -4.001031e+001  -1.116696e+002 
4156250000  -4.149737e+001  -1.151179e+002 
4159375000  -4.115284e+001  -1.098405e+002 
4162500000  -3.975245e+001  -1.079442e+002 
4165625000  -3.878579e+001  -1.157907e+002 
4168750000  -3.851985e+001  -1.254202e+002 
4171875000  -3.822556e+001  -1.353841e+002 
4175000000  -3.947360e+001  -1.407865e+002 
4178125000  -3.960997e+001  -1.434171e+002 
4181250000  -3.910739e+001  -1.460414e+002 
4184375000  -3.961718e+001  -1.502154e+002 
4187500000  -3.960559e+001  -1.550869e+002 
4190625000  -3.939285e+001  -1.631447e+002 
4193750000  -4.062883e+001  -1.704697e+002 
4196875000  -4.165681e+001  -1.715215e+002 
4200000000  -4.222807e+001  -1.631233e+002 
4203125000  -4.092218e+001  -1.522212e+002 
4206250000  -3.756690e+001  -1.608152e+002 
4209375000  -3.742800e+001  1.749065e+002 
4212500000  -3.985802e+001  1.683442e+002 
4215625000  -4.009296e+001  1.758529e+002 
4218750000  -3.835788e+001  1.751065e+002 
4221875000  -3.675692e+001  1.674813e+002 
4225000000  -3.760363e+001  1.571255e+002 
4228125000  -3.761954e+001  1.574400e+002 
4231250000  -3.640536e+001  1.503960e+002 
4234375000  -3.639877e+001  1.390179e+002 
4237500000  -3.604302e+001  1.337697e+002 
4240625000  -3.634914e+001  1.210451e+002 
4243750000  -3.736574e+001  1.138095e+002 
4246875000  -3.853648e+001  1.133787e+002 
4250000000  -3.816152e+001  1.127266e+002 
4253125000  -3.813483e+001  1.108121e+002 
4256250000  -3.796284e+001  1.041362e+002 
4259375000  -3.776907e+001  9.778486e+001 
4262500000  -3.769419e+001  9.487309e+001 
4265625000  -3.800738e+001  9.231823e+001 
4268750000  -3.696901e+001  8.543370e+001 
4271875000  -3.693054e+001  7.472954e+001 
4275000000  -3.655284e+001  6.887310e+001 
4278125000  -3.783037e+001  5.657727e+001 
4281250000  -3.906967e+001  5.384907e+001 
4284375000  -3.863413e+001  5.167973e+001 
4287500000  -4.047185e+001  5.180458e+001 
4290625000  -4.055784e+001  5.837671e+001 
4293750000  -3.880147e+001  5.934377e+001 
4296875000  -3.764870e+001  4.445008e+001 
4300000000  -3.911536e+001  3.508819e+001 
4303125000  -3.950267e+001  3.782510e+001 
4306250000  -3.861127e+001  4.120876e+001 
4309375000  -3.764368e+001  3.413337e+001 
4312500000  -3.765298e+001  2.377928e+001 
4315625000  -3.815944e+001  1.557007e+001 
4318750000  -3.864365e+001  1.193691e+001 
4321875000  -3.848372e+001  1.140176e+001 
4325000000  -3.797801e+001  1.138342e+001 
4328125000  -3.743190e+001  1.226558e+000 
4331250000  -3.739660e+001  -9.405022e+000 
4334375000  -3.831532e+001  -1.603237e+001 
4337500000  -3.946713e+001  -1.767555e+001 
4340625000  -3.955941e+001  -1.065063e+001 
4343750000  -3.839506e+001  -1.426982e+001 
4346875000  -3.818708e+001  -2.377361e+001 
4350000000  -3.832165e+001  -3.117094e+001 
4353125000  -3.891142e+001  -3.884272e+001 
4356250000  -4.077950e+001  -3.563029e+001 
4359375000  -3.982805e+001  -1.956070e+001 
4362500000  -3.628694e+001  -3.033578e+001 
4365625000  -3.591451e+001  -4.950602e+001 
4368750000  -3.720961e+001  -5.660878e+001 
4371875000  -3.781087e+001  -5.644291e+001 
4375000000  -3.720870e+001  -6.089337e+001 
4378125000  -3.681985e+001  -6.854192e+001 
4381250000  -3.680708e+001  -7.755183e+001 
4384375000  -3.689112e+001  -8.320335e+001 
4387500000  -3.799916e+001  -9.022862e+001 
4390625000  -3.867730e+001  -9.071834e+001 
4393750000  -3.795186e+001  -8.886375e+001 
4396875000  -3.726208e+001  -9.485166e+001 
4400000000  -3.689648e+001  -1.062768e+002 
4403125000  -3.763911e+001  -1.150894e+002 
4406250000  -3.825547e+001  -1.170404e+002 
4409375000  -3.851817e+001  -1.204271e+002 
4412500000  -3.969069e+001  -1.223206e+002 
4415625000  -3.935940e+001  -1.195570e+002 
