!Agilent Technologies,E8363B,MY43030201,A.06.04.32
!Agilent E8363B: A.06.04.32
!Date: Tuesday, November 11, 2014 21:33:26
!Correction: S21(Response(S21)) 
!S1P File: Measurement: S21:
# Hz S  dB   R 50
3000000000  -4.051305e+001  7.408070e+001 
3003125000  -4.219654e+001  6.603259e+001 
3006250000  -4.222798e+001  6.650796e+001 
3009375000  -4.274490e+001  6.965398e+001 
3012500000  -4.140899e+001  6.491590e+001 
3015625000  -4.136010e+001  5.868774e+001 
3018750000  -4.181310e+001  5.944653e+001 
3021875000  -4.016021e+001  6.032407e+001 
3025000000  -3.884356e+001  5.653607e+001 
3028125000  -3.790965e+001  4.645833e+001 
3031250000  -3.702122e+001  3.379723e+001 
3034375000  -3.677033e+001  2.018475e+001 
3037500000  -3.767796e+001  9.154179e+000 
3040625000  -3.879727e+001  3.944253e+000 
3043750000  -3.922640e+001  -2.203108e+000 
3046875000  -3.993079e+001  -7.918377e+000 
3050000000  -4.100841e+001  -1.258163e+001 
3053125000  -4.054526e+001  -7.508377e+000 
3056250000  -4.037764e+001  -5.851027e+000 
3059375000  -3.954455e+001  -6.612648e+000 
3062500000  -3.833144e+001  -1.161387e+001 
3065625000  -3.792861e+001  -2.098519e+001 
3068750000  -3.765770e+001  -2.940725e+001 
3071875000  -3.747377e+001  -3.094676e+001 
3075000000  -3.698717e+001  -3.840630e+001 
3078125000  -3.710762e+001  -4.492881e+001 
3081250000  -3.722396e+001  -5.096957e+001 
3084375000  -3.629720e+001  -5.559220e+001 
3087500000  -3.649829e+001  -6.251951e+001 
3090625000  -3.585517e+001  -7.449092e+001 
3093750000  -3.692551e+001  -8.243468e+001 
3096875000  -3.735905e+001  -8.663395e+001 
3100000000  -3.730281e+001  -9.031503e+001 
3103125000  -3.753968e+001  -9.426881e+001 
3106250000  -3.713360e+001  -9.993539e+001 
3109375000  -3.721025e+001  -1.028397e+002 
3112500000  -3.722336e+001  -1.088173e+002 
3115625000  -3.717081e+001  -1.132923e+002 
3118750000  -3.709646e+001  -1.157674e+002 
3121875000  -3.647980e+001  -1.273711e+002 
3125000000  -3.839161e+001  -1.294782e+002 
3128125000  -3.854398e+001  -1.221393e+002 
3131250000  -3.604746e+001  -1.299794e+002 
3134375000  -3.527331e+001  -1.470116e+002 
3137500000  -3.612091e+001  -1.590421e+002 
3140625000  -3.734358e+001  -1.617121e+002 
3143750000  -3.809415e+001  -1.643900e+002 
3146875000  -3.763494e+001  -1.616014e+002 
3150000000  -3.681677e+001  -1.651950e+002 
3153125000  -3.719803e+001  -1.743314e+002 
3156250000  -3.800180e+001  -1.694066e+002 
3159375000  -3.556981e+001  -1.720726e+002 
3162500000  -3.421544e+001  1.733391e+002 
3165625000  -3.546585e+001  1.594856e+002 
3168750000  -3.546389e+001  1.592225e+002 
3171875000  -3.504988e+001  1.518369e+002 
3175000000  -3.557622e+001  1.427328e+002 
3178125000  -3.502773e+001  1.415713e+002 
3181250000  -3.438875e+001  1.319437e+002 
3184375000  -3.427355e+001  1.211044e+002 
3187500000  -3.551246e+001  1.068665e+002 
3190625000  -3.722559e+001  9.991587e+001 
3193750000  -3.749134e+001  1.053968e+002 
3196875000  -3.730273e+001  1.069790e+002 
3200000000  -3.628098e+001  1.012845e+002 
3203125000  -3.594259e+001  9.335122e+001 
3206250000  -3.622208e+001  8.624219e+001 
3209375000  -3.580754e+001  7.802803e+001 
3212500000  -3.619776e+001  7.059142e+001 
3215625000  -3.605985e+001  6.895183e+001 
3218750000  -3.687861e+001  5.651269e+001 
3221875000  -3.725175e+001  5.006484e+001 
3225000000  -3.710002e+001  4.694729e+001 
3228125000  -3.770008e+001  3.985969e+001 
3231250000  -3.819033e+001  3.668568e+001 
3234375000  -3.790743e+001  3.375149e+001 
3237500000  -3.804082e+001  2.950362e+001 
3240625000  -3.745949e+001  2.444248e+001 
3243750000  -3.768288e+001  1.351643e+001 
3246875000  -3.817680e+001  6.948902e+000 
3250000000  -3.880151e+001  4.545076e+000 
3253125000  -3.905448e+001  -1.151008e-001 
3256250000  -3.859585e+001  -7.919024e+000 
3259375000  -3.902179e+001  -1.938986e+001 
3262500000  -4.081852e+001  -2.350951e+001 
3265625000  -4.117858e+001  -1.814606e+001 
3268750000  -4.118074e+001  -1.871902e+001 
3271875000  -4.045543e+001  -2.160648e+001 
3275000000  -3.988192e+001  -3.074664e+001 
3278125000  -4.089377e+001  -3.576900e+001 
3281250000  -4.092522e+001  -3.755673e+001 
3284375000  -4.048506e+001  -4.357527e+001 
3287500000  -4.106800e+001  -4.594391e+001 
3290625000  -4.111220e+001  -5.405986e+001 
3293750000  -4.127836e+001  -6.070178e+001 
3296875000  -4.225510e+001  -6.156210e+001 
3300000000  -4.165222e+001  -6.053433e+001 
3303125000  -4.106459e+001  -6.824695e+001 
3306250000  -4.080776e+001  -7.590562e+001 
3309375000  -4.061660e+001  -8.247052e+001 
3312500000  -4.079953e+001  -9.484357e+001 
3315625000  -4.228545e+001  -1.026640e+002 
3318750000  -4.348226e+001  -1.073164e+002 
3321875000  -4.519723e+001  -1.003930e+002 
3325000000  -4.470726e+001  -9.642030e+001 
3328125000  -4.384611e+001  -9.683987e+001 
3331250000  -4.214382e+001  -9.258522e+001 
3334375000  -3.986005e+001  -1.086815e+002 
3337500000  -4.050517e+001  -1.289615e+002 
3340625000  -4.237841e+001  -1.396932e+002 
3343750000  -4.407849e+001  -1.385797e+002 
3346875000  -4.329028e+001  -1.390215e+002 
3350000000  -4.298011e+001  -1.417507e+002 
3353125000  -4.281517e+001  -1.487750e+002 
3356250000  -4.240347e+001  -1.576773e+002 
3359375000  -4.336616e+001  -1.685034e+002 
3362500000  -4.437709e+001  -1.731673e+002 
3365625000  -4.490260e+001  -1.781781e+002 
3368750000  -4.538956e+001  1.784164e+002 
3371875000  -4.584006e+001  1.732131e+002 
3375000000  -4.730998e+001  1.679199e+002 
3378125000  -4.800185e+001  1.694112e+002 
3381250000  -4.944015e+001  -1.758850e+002 
3384375000  -4.630582e+001  -1.679071e+002 
3387500000  -4.460375e+001  1.731245e+002 
3390625000  -4.607775e+001  1.550804e+002 
3393750000  -4.685722e+001  1.535923e+002 
3396875000  -4.608155e+001  1.505877e+002 
3400000000  -4.629094e+001  1.415721e+002 
3403125000  -4.651057e+001  1.354274e+002 
3406250000  -4.767627e+001  1.310219e+002 
3409375000  -4.800201e+001  1.248902e+002 
3412500000  -4.905554e+001  1.192623e+002 
3415625000  -4.970549e+001  1.220879e+002 
3418750000  -5.005450e+001  1.214162e+002 
3421875000  -5.103952e+001  1.221349e+002 
3425000000  -5.040302e+001  1.218909e+002 
3428125000  -5.072886e+001  1.156023e+002 
3431250000  -5.014634e+001  1.050409e+002 
3434375000  -5.143471e+001  1.022899e+002 
3437500000  -5.180367e+001  1.055932e+002 
3440625000  -5.119930e+001  1.049380e+002 
3443750000  -5.046007e+001  1.055275e+002 
3446875000  -5.056394e+001  1.024109e+002 
3450000000  -5.000690e+001  9.093230e+001 
3453125000  -5.069675e+001  8.548504e+001 
3456250000  -5.199487e+001  8.255223e+001 
3459375000  -5.301266e+001  8.664926e+001 
3462500000  -5.213236e+001  9.006920e+001 
3465625000  -5.079173e+001  7.938901e+001 
3468750000  -5.157787e+001  8.296403e+001 
3471875000  -5.231408e+001  7.870910e+001 
3475000000  -5.066474e+001  7.279292e+001 
3478125000  -5.177578e+001  6.968157e+001 
3481250000  -5.302222e+001  6.805949e+001 
3484375000  -5.332055e+001  6.816042e+001 
3487500000  -5.163136e+001  6.219547e+001 
3490625000  -5.050916e+001  5.457178e+001 
3493750000  -5.197958e+001  4.670762e+001 
3496875000  -5.162229e+001  4.953251e+001 
3500000000  -5.181609e+001  4.834155e+001 
3503125000  -5.156062e+001  4.686265e+001 
3506250000  -5.000075e+001  4.244885e+001 
3509375000  -4.981999e+001  2.686566e+001 
3512500000  -5.011678e+001  1.176616e+001 
3515625000  -5.085098e+001  8.199388e+000 
3518750000  -5.243122e+001  1.133043e+001 
3521875000  -5.232135e+001  4.233150e+000 
3525000000  -5.329027e+001  -2.191036e-001 
3528125000  -5.174366e+001  6.725477e+000 
3531250000  -5.189380e+001  -4.708933e+000 
3534375000  -5.298335e+001  -1.291792e+001 
3537500000  -5.314200e+001  -2.743583e+001 
3540625000  -5.562980e+001  -2.433431e+001 
3543750000  -5.707477e+001  -1.682251e+001 
3546875000  -5.538689e+001  -1.282793e+001 
3550000000  -5.372975e+001  -8.549026e+000 
3553125000  -5.293480e+001  -3.190547e+001 
3556250000  -5.565772e+001  -4.145012e+001 
3559375000  -5.529183e+001  -3.284898e+001 
3562500000  -5.536979e+001  -4.522589e+001 
3565625000  -5.620318e+001  -4.524118e+001 
3568750000  -5.877492e+001  -3.431068e+001 
3571875000  -5.917712e+001  -3.862653e+001 
3575000000  -5.711614e+001  -3.798010e+001 
3578125000  -6.078269e+001  -4.201902e+001 
3581250000  -5.738089e+001  -3.324139e+001 
3584375000  -5.845248e+001  -2.710191e+001 
3587500000  -5.679759e+001  -4.094467e+001 
3590625000  -5.907295e+001  -6.127419e+001 
3593750000  -6.104234e+001  -4.381771e+001 
3596875000  -5.810386e+001  -4.103855e+001 
3600000000  -5.553968e+001  -3.622821e+001 
3603125000  -5.826709e+001  -5.673282e+001 
3606250000  -5.787391e+001  -4.258499e+001 
3609375000  -5.819894e+001  -4.843317e+001 
3612500000  -5.808492e+001  -4.998136e+001 
3615625000  -5.974417e+001  -5.125979e+001 
3618750000  -5.921838e+001  -3.711157e+001 
3621875000  -5.751767e+001  -5.350813e+001 
3625000000  -5.932240e+001  -3.427272e+001 
3628125000  -5.571783e+001  -3.149132e+001 
3631250000  -5.581443e+001  -4.543050e+001 
3634375000  -5.743484e+001  -4.678349e+001 
3637500000  -5.540422e+001  -4.434688e+001 
3640625000  -5.402211e+001  -3.742094e+001 
3643750000  -5.381136e+001  -4.340548e+001 
3646875000  -5.336539e+001  -5.326980e+001 
3650000000  -5.282294e+001  -5.467301e+001 
3653125000  -5.223573e+001  -5.853660e+001 
3656250000  -5.209743e+001  -6.165345e+001 
3659375000  -5.128567e+001  -6.243158e+001 
3662500000  -5.039209e+001  -6.724667e+001 
3665625000  -4.973262e+001  -7.200655e+001 
3668750000  -4.858505e+001  -7.211026e+001 
3671875000  -4.757471e+001  -8.299328e+001 
3675000000  -4.754599e+001  -9.026530e+001 
3678125000  -4.787317e+001  -9.471017e+001 
3681250000  -4.642187e+001  -9.711346e+001 
3684375000  -4.697934e+001  -1.057606e+002 
3687500000  -4.648543e+001  -1.122600e+002 
3690625000  -4.671437e+001  -1.171350e+002 
3693750000  -4.686481e+001  -1.154402e+002 
3696875000  -4.605564e+001  -1.181752e+002 
3700000000  -4.516706e+001  -1.253017e+002 
3703125000  -4.550644e+001  -1.293185e+002 
3706250000  -4.630242e+001  -1.308161e+002 
3709375000  -4.447152e+001  -1.304551e+002 
3712500000  -4.370377e+001  -1.378014e+002 
3715625000  -4.237310e+001  -1.437204e+002 
3718750000  -4.159493e+001  -1.517200e+002 
3721875000  -4.121193e+001  -1.622527e+002 
3725000000  -4.165924e+001  -1.698065e+002 
3728125000  -4.141533e+001  -1.713776e+002 
3731250000  -4.094626e+001  -1.777852e+002 
3734375000  -4.025402e+001  1.766030e+002 
3737500000  -4.080714e+001  1.658259e+002 
3740625000  -4.095883e+001  1.613427e+002 
3743750000  -4.020816e+001  1.530255e+002 
3746875000  -4.071262e+001  1.463761e+002 
3750000000  -4.085469e+001  1.418853e+002 
3753125000  -4.062657e+001  1.404483e+002 
3756250000  -4.075225e+001  1.358375e+002 
3759375000  -4.052646e+001  1.301899e+002 
3762500000  -4.027715e+001  1.233397e+002 
3765625000  -4.067337e+001  1.193300e+002 
3768750000  -4.019025e+001  1.192872e+002 
3771875000  -3.851976e+001  1.123271e+002 
3775000000  -3.860876e+001  1.001859e+002 
3778125000  -3.902138e+001  9.392870e+001 
3781250000  -3.883190e+001  8.862003e+001 
3784375000  -3.880302e+001  8.338377e+001 
3787500000  -3.876952e+001  7.855208e+001 
3790625000  -3.911407e+001  6.911205e+001 
3793750000  -3.916169e+001  6.609495e+001 
3796875000  -3.822823e+001  6.134518e+001 
3800000000  -3.639430e+001  5.761460e+001 
3803125000  -3.832912e+001  4.366704e+001 
3806250000  -3.901046e+001  3.990388e+001 
3809375000  -3.839475e+001  3.527086e+001 
3812500000  -3.836631e+001  2.609414e+001 
3815625000  -3.953292e+001  1.644799e+001 
3818750000  -4.080988e+001  1.778920e+001 
3821875000  -4.008878e+001  2.674047e+001 
3825000000  -3.837352e+001  2.336928e+001 
3828125000  -3.682519e+001  3.441271e+000 
3831250000  -3.799613e+001  -7.362989e+000 
3834375000  -4.040197e+001  -8.834917e+000 
3837500000  -4.052764e+001  -4.788163e+000 
3840625000  -3.925013e+001  -1.009700e+001 
3843750000  -3.838270e+001  -2.416568e+001 
3846875000  -3.999807e+001  -3.141821e+001 
3850000000  -4.102875e+001  -2.543362e+001 
3853125000  -4.017138e+001  -2.407022e+001 
3856250000  -3.954688e+001  -3.117203e+001 
3859375000  -3.862948e+001  -3.961600e+001 
3862500000  -3.847268e+001  -4.910453e+001 
3865625000  -3.904248e+001  -5.473804e+001 
3868750000  -3.857688e+001  -5.649240e+001 
3871875000  -3.790351e+001  -6.242168e+001 
3875000000  -3.867910e+001  -7.201850e+001 
3878125000  -3.948853e+001  -7.627616e+001 
3881250000  -3.914730e+001  -7.640233e+001 
3884375000  -3.879289e+001  -8.243097e+001 
3887500000  -3.923901e+001  -8.928141e+001 
3890625000  -3.933673e+001  -9.396371e+001 
3893750000  -3.985922e+001  -9.645352e+001 
3896875000  -4.019266e+001  -9.848751e+001 
3900000000  -3.952903e+001  -1.013911e+002 
3903125000  -3.922847e+001  -1.050137e+002 
3906250000  -3.892580e+001  -1.107578e+002 
3909375000  -3.822389e+001  -1.180775e+002 
3912500000  -3.894382e+001  -1.282645e+002 
3915625000  -4.036707e+001  -1.282975e+002 
3918750000  -3.992944e+001  -1.282113e+002 
3921875000  -3.945126e+001  -1.337288e+002 
3925000000  -3.850740e+001  -1.385057e+002 
3928125000  -3.832060e+001  -1.482715e+002 
3931250000  -3.904248e+001  -1.548576e+002 
3934375000  -3.944189e+001  -1.562677e+002 
3937500000  -4.013705e+001  -1.591879e+002 
3940625000  -4.015839e+001  -1.609476e+002 
3943750000  -3.889699e+001  -1.646905e+002 
3946875000  -3.844133e+001  -1.735754e+002 
3950000000  -3.947412e+001  1.798992e+002 
3953125000  -3.998228e+001  1.785016e+002 
3956250000  -3.881143e+001  1.788409e+002 
3959375000  -3.785148e+001  1.731855e+002 
3962500000  -3.751360e+001  1.642247e+002 
3965625000  -3.798044e+001  1.539932e+002 
3968750000  -3.875826e+001  1.461432e+002 
3971875000  -3.858037e+001  1.429174e+002 
3975000000  -3.832056e+001  1.382017e+002 
3978125000  -3.845475e+001  1.333923e+002 
3981250000  -3.854922e+001  1.262330e+002 
3984375000  -3.911008e+001  1.189312e+002 
3987500000  -3.978329e+001  1.157733e+002 
3990625000  -3.989506e+001  1.139217e+002 
3993750000  -3.983603e+001  1.103314e+002 
3996875000  -3.996908e+001  1.043934e+002 
4000000000  -4.061271e+001  1.019333e+002 
4003125000  -4.094848e+001  1.028902e+002 
4006250000  -3.921083e+001  9.943118e+001 
4009375000  -3.843634e+001  8.545473e+001 
4012500000  -4.015443e+001  7.832373e+001 
4015625000  -4.157699e+001  7.874707e+001 
4018750000  -4.125049e+001  7.862496e+001 
4021875000  -4.069131e+001  7.467377e+001 
4025000000  -4.039424e+001  6.829175e+001 
4028125000  -4.048790e+001  6.217950e+001 
4031250000  -4.139502e+001  5.661975e+001 
4034375000  -4.143886e+001  5.758633e+001 
4037500000  -4.094870e+001  5.614091e+001 
4040625000  -4.082681e+001  5.360427e+001 
4043750000  -4.102262e+001  5.206306e+001 
4046875000  -4.111852e+001  4.590684e+001 
4050000000  -4.067501e+001  4.057158e+001 
4053125000  -4.138826e+001  3.885776e+001 
4056250000  -4.127968e+001  4.229612e+001 
4059375000  -3.934027e+001  3.950354e+001 
4062500000  -3.853759e+001  2.942219e+001 
4065625000  -3.891344e+001  2.637646e+001 
4068750000  -3.829005e+001  1.868945e+001 
4071875000  -3.782346e+001  8.591959e+000 
4075000000  -3.846438e+001  2.750077e+000 
4078125000  -3.868879e+001  -7.855077e-001 
4081250000  -3.839573e+001  -6.651949e+000 
4084375000  -3.828592e+001  -1.655061e+001 
4087500000  -3.871232e+001  -2.347615e+001 
4090625000  -3.921146e+001  -2.445053e+001 
4093750000  -3.886560e+001  -2.620949e+001 
4096875000  -3.881093e+001  -3.700422e+001 
4100000000  -3.955034e+001  -4.414008e+001 
4103125000  -4.088433e+001  -4.158564e+001 
4106250000  -4.029913e+001  -3.814404e+001 
4109375000  -3.886227e+001  -4.144572e+001 
4112500000  -3.841333e+001  -5.127042e+001 
4115625000  -3.937769e+001  -5.738108e+001 
4118750000  -3.875938e+001  -6.258924e+001 
4121875000  -3.889915e+001  -7.068938e+001 
4125000000  -3.991811e+001  -7.725566e+001 
4128125000  -4.109935e+001  -7.359962e+001 
4131250000  -3.981808e+001  -6.777164e+001 
4134375000  -3.769947e+001  -7.852989e+001 
4137500000  -3.816315e+001  -1.008247e+002 
4140625000  -4.055025e+001  -1.061531e+002 
4143750000  -4.117737e+001  -9.781210e+001 
4146875000  -4.048309e+001  -9.564426e+001 
4150000000  -3.973374e+001  -1.039488e+002 
4153125000  -3.993567e+001  -1.123284e+002 
4156250000  -4.119527e+001  -1.158680e+002 
4159375000  -4.102240e+001  -1.101530e+002 
4162500000  -3.969662e+001  -1.071504e+002 
4165625000  -3.890345e+001  -1.158958e+002 
4168750000  -3.849250e+001  -1.261203e+002 
4171875000  -3.841801e+001  -1.366071e+002 
4175000000  -3.915005e+001  -1.430309e+002 
4178125000  -3.958252e+001  -1.410197e+002 
4181250000  -3.965845e+001  -1.471217e+002 
4184375000  -3.957414e+001  -1.514762e+002 
4187500000  -3.962893e+001  -1.567273e+002 
4190625000  -3.920478e+001  -1.631616e+002 
4193750000  -4.053491e+001  -1.696136e+002 
4196875000  -4.139031e+001  -1.704179e+002 
4200000000  -4.241933e+001  -1.643903e+002 
4203125000  -4.081573e+001  -1.538055e+002 
4206250000  -3.725950e+001  -1.616512e+002 
4209375000  -3.738734e+001  1.738875e+002 
4212500000  -3.957946e+001  1.671972e+002 
4215625000  -4.009487e+001  1.759647e+002 
4218750000  -3.844778e+001  1.763887e+002 
4221875000  -3.686261e+001  1.661060e+002 
4225000000  -3.764845e+001  1.543690e+002 
4228125000  -3.775611e+001  1.576475e+002 
4231250000  -3.632763e+001  1.485964e+002 
4234375000  -3.638963e+001  1.373924e+002 
4237500000  -3.612195e+001  1.327216e+002 
4240625000  -3.648973e+001  1.206973e+002 
4243750000  -3.739318e+001  1.132392e+002 
4246875000  -3.827839e+001  1.114834e+002 
4250000000  -3.829786e+001  1.124147e+002 
4253125000  -3.800759e+001  1.109359e+002 
4256250000  -3.783902e+001  1.037108e+002 
4259375000  -3.772458e+001  9.806483e+001 
4262500000  -3.782882e+001  9.370724e+001 
4265625000  -3.814562e+001  9.292094e+001 
4268750000  -3.682272e+001  8.370637e+001 
4271875000  -3.685362e+001  7.488012e+001 
4275000000  -3.654228e+001  6.793024e+001 
4278125000  -3.771458e+001  5.544492e+001 
4281250000  -3.929533e+001  5.494574e+001 
4284375000  -3.894270e+001  5.093988e+001 
4287500000  -4.043847e+001  4.770932e+001 
4290625000  -4.090011e+001  5.627122e+001 
4293750000  -3.836191e+001  5.692910e+001 
4296875000  -3.778751e+001  4.195803e+001 
4300000000  -3.903958e+001  3.281152e+001 
4303125000  -3.976523e+001  3.615874e+001 
4306250000  -3.860048e+001  3.959980e+001 
4309375000  -3.774671e+001  3.367543e+001 
4312500000  -3.745732e+001  2.160455e+001 
4315625000  -3.781749e+001  1.455448e+001 
4318750000  -3.877123e+001  8.958792e+000 
4321875000  -3.854064e+001  1.110534e+001 
4325000000  -3.804506e+001  9.948351e+000 
4328125000  -3.714468e+001  -2.675264e-001 
4331250000  -3.759937e+001  -9.835580e+000 
4334375000  -3.831009e+001  -1.705075e+001 
4337500000  -3.947954e+001  -1.693661e+001 
4340625000  -3.961900e+001  -1.394152e+001 
4343750000  -3.839122e+001  -1.660472e+001 
4346875000  -3.817799e+001  -2.536794e+001 
4350000000  -3.850917e+001  -3.367021e+001 
4353125000  -3.914690e+001  -4.149815e+001 
4356250000  -4.058009e+001  -3.643613e+001 
4359375000  -3.996308e+001  -2.035807e+001 
4362500000  -3.641647e+001  -3.076041e+001 
4365625000  -3.551005e+001  -5.023009e+001 
4368750000  -3.714949e+001  -5.849481e+001 
4371875000  -3.785851e+001  -5.932989e+001 
4375000000  -3.715785e+001  -6.336466e+001 
4378125000  -3.697378e+001  -7.046036e+001 
4381250000  -3.709775e+001  -7.985791e+001 
4384375000  -3.700705e+001  -8.423943e+001 
4387500000  -3.824587e+001  -9.034278e+001 
4390625000  -3.837554e+001  -8.996675e+001 
4393750000  -3.792179e+001  -9.090168e+001 
4396875000  -3.725036e+001  -9.526772e+001 
4400000000  -3.684769e+001  -1.049827e+002 
4403125000  -3.755985e+001  -1.160399e+002 
4406250000  -3.825136e+001  -1.189137e+002 
4409375000  -3.882913e+001  -1.229678e+002 
4412500000  -3.943082e+001  -1.256360e+002 
4415625000  -3.924769e+001  -1.210978e+002 
