!Agilent Technologies,E8363B,MY43030201,A.06.04.32
!Agilent E8363B: A.06.04.32
!Date: Tuesday, November 11, 2014 21:32:33
!Correction: S21(Response(S21)) 
!S1P File: Measurement: S21:
# Hz S  dB   R 50
3000000000  -4.058470e+001  7.680083e+001 
3003125000  -4.211737e+001  6.864448e+001 
3006250000  -4.222840e+001  6.738713e+001 
3009375000  -4.272293e+001  7.208656e+001 
3012500000  -4.136443e+001  6.785107e+001 
3015625000  -4.160679e+001  6.143061e+001 
3018750000  -4.169159e+001  6.325377e+001 
3021875000  -4.017694e+001  6.324633e+001 
3025000000  -3.889703e+001  5.957813e+001 
3028125000  -3.793983e+001  4.809827e+001 
3031250000  -3.691622e+001  3.686661e+001 
3034375000  -3.678952e+001  2.307460e+001 
3037500000  -3.743627e+001  1.214983e+001 
3040625000  -3.867676e+001  7.898152e+000 
3043750000  -3.907784e+001  2.045435e-001 
3046875000  -3.976158e+001  -6.459495e+000 
3050000000  -4.094093e+001  -1.051982e+001 
3053125000  -4.058229e+001  -6.084044e+000 
3056250000  -4.045828e+001  -2.102192e+000 
3059375000  -3.985654e+001  -5.528769e+000 
3062500000  -3.805101e+001  -9.154415e+000 
3065625000  -3.790144e+001  -1.831510e+001 
3068750000  -3.743600e+001  -2.598056e+001 
3071875000  -3.772243e+001  -2.926976e+001 
3075000000  -3.700282e+001  -3.542986e+001 
3078125000  -3.699944e+001  -4.132237e+001 
3081250000  -3.714559e+001  -4.806075e+001 
3084375000  -3.631800e+001  -5.227284e+001 
3087500000  -3.648402e+001  -5.938999e+001 
3090625000  -3.595642e+001  -7.182150e+001 
3093750000  -3.698492e+001  -7.906738e+001 
3096875000  -3.713085e+001  -8.508670e+001 
3100000000  -3.723898e+001  -8.821394e+001 
3103125000  -3.748806e+001  -9.040283e+001 
3106250000  -3.710918e+001  -9.635225e+001 
3109375000  -3.726506e+001  -1.006342e+002 
3112500000  -3.710942e+001  -1.058960e+002 
3115625000  -3.717278e+001  -1.101531e+002 
3118750000  -3.712287e+001  -1.129858e+002 
3121875000  -3.652707e+001  -1.247260e+002 
3125000000  -3.860501e+001  -1.278320e+002 
3128125000  -3.854890e+001  -1.204754e+002 
3131250000  -3.609785e+001  -1.269072e+002 
3134375000  -3.538907e+001  -1.437616e+002 
3137500000  -3.611575e+001  -1.562619e+002 
3140625000  -3.721731e+001  -1.599313e+002 
3143750000  -3.829395e+001  -1.603822e+002 
3146875000  -3.758401e+001  -1.588909e+002 
3150000000  -3.691780e+001  -1.629154e+002 
3153125000  -3.711107e+001  -1.715836e+002 
3156250000  -3.779552e+001  -1.671456e+002 
3159375000  -3.576969e+001  -1.686629e+002 
3162500000  -3.429010e+001  1.751531e+002 
3165625000  -3.553537e+001  1.621305e+002 
3168750000  -3.540808e+001  1.613589e+002 
3171875000  -3.493816e+001  1.544352e+002 
3175000000  -3.547379e+001  1.453301e+002 
3178125000  -3.505770e+001  1.437083e+002 
3181250000  -3.441842e+001  1.352531e+002 
3184375000  -3.419525e+001  1.237641e+002 
3187500000  -3.547827e+001  1.089256e+002 
3190625000  -3.732088e+001  1.030983e+002 
3193750000  -3.744414e+001  1.087497e+002 
3196875000  -3.730639e+001  1.091360e+002 
3200000000  -3.622211e+001  1.041362e+002 
3203125000  -3.588475e+001  9.654412e+001 
3206250000  -3.606295e+001  8.885683e+001 
3209375000  -3.565422e+001  8.075391e+001 
3212500000  -3.631009e+001  7.386501e+001 
3215625000  -3.603005e+001  7.092887e+001 
3218750000  -3.687052e+001  5.951718e+001 
3221875000  -3.716393e+001  5.297614e+001 
3225000000  -3.700047e+001  4.944259e+001 
3228125000  -3.777355e+001  4.092326e+001 
3231250000  -3.835259e+001  3.955964e+001 
3234375000  -3.794595e+001  3.675964e+001 
3237500000  -3.805175e+001  3.251565e+001 
3240625000  -3.747914e+001  2.753984e+001 
3243750000  -3.765169e+001  1.709735e+001 
3246875000  -3.813596e+001  1.016398e+001 
3250000000  -3.884673e+001  5.236578e+000 
3253125000  -3.915894e+001  3.547135e+000 
3256250000  -3.863568e+001  -4.486684e+000 
3259375000  -3.915349e+001  -1.534268e+001 
3262500000  -4.049820e+001  -2.032064e+001 
3265625000  -4.118456e+001  -1.575515e+001 
3268750000  -4.117858e+001  -1.571054e+001 
3271875000  -4.056999e+001  -1.958478e+001 
3275000000  -4.015189e+001  -2.792429e+001 
3278125000  -4.081350e+001  -3.274727e+001 
3281250000  -4.101385e+001  -3.478572e+001 
3284375000  -4.063610e+001  -4.093661e+001 
3287500000  -4.098173e+001  -4.419126e+001 
3290625000  -4.129615e+001  -5.286726e+001 
3293750000  -4.132698e+001  -5.691081e+001 
3296875000  -4.230226e+001  -5.891163e+001 
3300000000  -4.174703e+001  -5.765334e+001 
3303125000  -4.082073e+001  -6.526117e+001 
3306250000  -4.052336e+001  -7.254630e+001 
3309375000  -4.052758e+001  -8.097450e+001 
3312500000  -4.088681e+001  -9.223923e+001 
3315625000  -4.218015e+001  -9.978897e+001 
3318750000  -4.354459e+001  -1.029397e+002 
3321875000  -4.476567e+001  -9.986000e+001 
3325000000  -4.532744e+001  -9.030408e+001 
3328125000  -4.375549e+001  -9.027528e+001 
3331250000  -4.229996e+001  -9.000118e+001 
3334375000  -3.974713e+001  -1.070363e+002 
3337500000  -4.047149e+001  -1.262952e+002 
3340625000  -4.226540e+001  -1.366310e+002 
3343750000  -4.386961e+001  -1.349678e+002 
3346875000  -4.351665e+001  -1.353801e+002 
3350000000  -4.304436e+001  -1.397268e+002 
3353125000  -4.252964e+001  -1.460639e+002 
3356250000  -4.278688e+001  -1.545360e+002 
3359375000  -4.320681e+001  -1.656509e+002 
3362500000  -4.433509e+001  -1.714168e+002 
3365625000  -4.488100e+001  -1.757023e+002 
3368750000  -4.553712e+001  -1.789673e+002 
3371875000  -4.580069e+001  1.770759e+002 
3375000000  -4.733740e+001  1.723259e+002 
3378125000  -4.821618e+001  1.726603e+002 
3381250000  -4.957069e+001  -1.762488e+002 
3384375000  -4.628434e+001  -1.623208e+002 
3387500000  -4.422550e+001  1.732804e+002 
3390625000  -4.615739e+001  1.563403e+002 
3393750000  -4.694769e+001  1.561138e+002 
3396875000  -4.575149e+001  1.567751e+002 
3400000000  -4.610638e+001  1.425177e+002 
3403125000  -4.681588e+001  1.369208e+002 
3406250000  -4.771344e+001  1.345515e+002 
3409375000  -4.831614e+001  1.275605e+002 
3412500000  -4.849870e+001  1.219492e+002 
3415625000  -4.974498e+001  1.205893e+002 
3418750000  -5.046058e+001  1.226270e+002 
3421875000  -5.071668e+001  1.285515e+002 
3425000000  -4.965402e+001  1.241632e+002 
3428125000  -5.057499e+001  1.173443e+002 
3431250000  -4.999707e+001  1.096846e+002 
3434375000  -5.054185e+001  1.084709e+002 
3437500000  -5.164858e+001  1.107464e+002 
3440625000  -5.203259e+001  1.072971e+002 
3443750000  -5.096283e+001  1.096535e+002 
3446875000  -5.077812e+001  1.025912e+002 
3450000000  -5.030649e+001  9.571812e+001 
3453125000  -5.052941e+001  8.657710e+001 
3456250000  -5.218053e+001  8.351496e+001 
3459375000  -5.333136e+001  9.239280e+001 
3462500000  -5.308453e+001  9.452335e+001 
3465625000  -5.167304e+001  8.377920e+001 
3468750000  -5.203727e+001  8.756773e+001 
3471875000  -5.196357e+001  8.508504e+001 
3475000000  -5.115414e+001  7.839260e+001 
3478125000  -5.155444e+001  6.783261e+001 
3481250000  -5.358189e+001  6.980210e+001 
3484375000  -5.203250e+001  6.622361e+001 
3487500000  -5.171323e+001  6.553632e+001 
3490625000  -5.035045e+001  5.914286e+001 
3493750000  -5.138444e+001  5.096016e+001 
3496875000  -5.129873e+001  5.187434e+001 
3500000000  -5.245771e+001  5.094579e+001 
3503125000  -5.171119e+001  5.072654e+001 
3506250000  -5.007790e+001  4.724224e+001 
3509375000  -5.033724e+001  3.186512e+001 
3512500000  -5.072041e+001  1.495064e+001 
3515625000  -5.154176e+001  1.009878e+001 
3518750000  -5.209681e+001  1.814446e+001 
3521875000  -5.193694e+001  7.434973e+000 
3525000000  -5.286133e+001  2.016396e+000 
3528125000  -5.282717e+001  1.182664e+001 
3531250000  -5.127707e+001  -3.005503e+000 
3534375000  -5.334136e+001  -1.318033e+001 
3537500000  -5.367825e+001  -1.769787e+001 
3540625000  -5.537553e+001  -2.151400e+001 
3543750000  -5.575291e+001  -1.822784e+001 
3546875000  -5.639915e+001  -1.260985e+001 
3550000000  -5.384970e+001  -7.019646e+000 
3553125000  -5.474280e+001  -2.857994e+001 
3556250000  -5.503385e+001  -2.845078e+001 
3559375000  -5.462492e+001  -2.595390e+001 
3562500000  -5.571510e+001  -3.847111e+001 
3565625000  -5.624907e+001  -4.690745e+001 
3568750000  -5.652632e+001  -3.336151e+001 
3571875000  -5.762661e+001  -2.607090e+001 
3575000000  -5.850346e+001  -3.875154e+001 
3578125000  -5.879239e+001  -4.138236e+001 
3581250000  -5.929707e+001  -3.163432e+001 
3584375000  -5.783615e+001  -4.788101e+001 
3587500000  -5.839208e+001  -3.771632e+001 
3590625000  -5.800142e+001  -3.955048e+001 
3593750000  -5.724300e+001  -3.897234e+001 
3596875000  -6.001189e+001  -2.999470e+001 
3600000000  -5.757936e+001  -2.171525e+001 
3603125000  -5.866651e+001  -5.120689e+001 
3606250000  -6.039436e+001  -3.802262e+001 
3609375000  -5.878514e+001  -4.083250e+001 
3612500000  -5.997105e+001  -4.884710e+001 
3615625000  -5.856683e+001  -4.814128e+001 
3618750000  -5.986671e+001  -3.821307e+001 
3621875000  -5.977737e+001  -4.183903e+001 
3625000000  -5.730793e+001  -5.232372e+001 
3628125000  -5.674769e+001  -3.530918e+001 
3631250000  -5.583393e+001  -4.856688e+001 
3634375000  -5.765296e+001  -3.945130e+001 
3637500000  -5.495296e+001  -3.702868e+001 
3640625000  -5.347912e+001  -3.643029e+001 
3643750000  -5.282266e+001  -4.086485e+001 
3646875000  -5.311099e+001  -4.967569e+001 
3650000000  -5.332281e+001  -5.384248e+001 
3653125000  -5.174235e+001  -5.556609e+001 
3656250000  -5.201976e+001  -6.126460e+001 
3659375000  -5.132499e+001  -6.464761e+001 
3662500000  -5.043716e+001  -6.276155e+001 
3665625000  -4.898058e+001  -7.005022e+001 
3668750000  -4.805782e+001  -7.242889e+001 
3671875000  -4.752441e+001  -8.165355e+001 
3675000000  -4.724583e+001  -8.824840e+001 
3678125000  -4.756094e+001  -9.092848e+001 
3681250000  -4.653255e+001  -9.547153e+001 
3684375000  -4.700701e+001  -1.018580e+002 
3687500000  -4.671991e+001  -1.048693e+002 
3690625000  -4.669134e+001  -1.138896e+002 
3693750000  -4.719030e+001  -1.128273e+002 
3696875000  -4.622467e+001  -1.179148e+002 
3700000000  -4.504677e+001  -1.220615e+002 
3703125000  -4.533283e+001  -1.271613e+002 
3706250000  -4.571958e+001  -1.265756e+002 
3709375000  -4.494217e+001  -1.295339e+002 
3712500000  -4.360980e+001  -1.318680e+002 
3715625000  -4.206194e+001  -1.434108e+002 
3718750000  -4.187020e+001  -1.492863e+002 
3721875000  -4.120585e+001  -1.584561e+002 
3725000000  -4.179954e+001  -1.648227e+002 
3728125000  -4.147039e+001  -1.683773e+002 
3731250000  -4.075450e+001  -1.739283e+002 
3734375000  -4.014549e+001  1.786262e+002 
3737500000  -4.114013e+001  1.685063e+002 
3740625000  -4.092969e+001  1.630856e+002 
3743750000  -4.031049e+001  1.570414e+002 
3746875000  -4.088135e+001  1.493408e+002 
3750000000  -4.098632e+001  1.457916e+002 
3753125000  -4.068845e+001  1.437098e+002 
3756250000  -4.072484e+001  1.389870e+002 
3759375000  -4.047863e+001  1.330396e+002 
3762500000  -4.036531e+001  1.264481e+002 
3765625000  -4.093038e+001  1.229308e+002 
3768750000  -4.025297e+001  1.206757e+002 
3771875000  -3.845258e+001  1.154106e+002 
3775000000  -3.862121e+001  1.033921e+002 
3778125000  -3.902281e+001  9.803321e+001 
3781250000  -3.918539e+001  9.166523e+001 
3784375000  -3.885429e+001  8.641728e+001 
3787500000  -3.852034e+001  8.221815e+001 
3790625000  -3.921800e+001  7.326509e+001 
3793750000  -3.901393e+001  6.975855e+001 
3796875000  -3.813597e+001  6.439399e+001 
3800000000  -3.639463e+001  6.083372e+001 
3803125000  -3.805270e+001  4.753315e+001 
3806250000  -3.910959e+001  4.148413e+001 
3809375000  -3.849202e+001  3.702468e+001 
3812500000  -3.841665e+001  2.988659e+001 
3815625000  -3.949159e+001  1.917901e+001 
3818750000  -4.086223e+001  2.087025e+001 
3821875000  -4.045418e+001  3.200343e+001 
3825000000  -3.834400e+001  2.786690e+001 
3828125000  -3.698679e+001  8.288503e+000 
3831250000  -3.817263e+001  -5.667745e+000 
3834375000  -4.027167e+001  -6.777582e+000 
3837500000  -4.058828e+001  -2.441061e+000 
3840625000  -3.903033e+001  -5.624283e+000 
3843750000  -3.830124e+001  -2.009976e+001 
3846875000  -3.986312e+001  -2.738731e+001 
3850000000  -4.062391e+001  -1.945458e+001 
3853125000  -3.986808e+001  -1.979553e+001 
3856250000  -3.935275e+001  -3.051715e+001 
3859375000  -3.868238e+001  -3.535303e+001 
3862500000  -3.865584e+001  -4.678080e+001 
3865625000  -3.917819e+001  -5.091217e+001 
3868750000  -3.870182e+001  -5.208628e+001 
3871875000  -3.788832e+001  -5.862946e+001 
3875000000  -3.846931e+001  -6.845918e+001 
3878125000  -3.955347e+001  -7.281171e+001 
3881250000  -3.930896e+001  -7.234675e+001 
3884375000  -3.887335e+001  -7.988067e+001 
3887500000  -3.917540e+001  -8.617509e+001 
3890625000  -3.959067e+001  -8.930038e+001 
3893750000  -3.967870e+001  -9.278056e+001 
3896875000  -3.997089e+001  -9.290235e+001 
3900000000  -4.009815e+001  -9.716472e+001 
3903125000  -3.962273e+001  -1.027533e+002 
3906250000  -3.902521e+001  -1.086283e+002 
3909375000  -3.833211e+001  -1.167382e+002 
3912500000  -3.909077e+001  -1.235611e+002 
3915625000  -4.059171e+001  -1.250456e+002 
3918750000  -4.019241e+001  -1.263843e+002 
3921875000  -3.956057e+001  -1.295994e+002 
3925000000  -3.859340e+001  -1.349586e+002 
3928125000  -3.815736e+001  -1.452056e+002 
3931250000  -3.922195e+001  -1.519769e+002 
3934375000  -3.969995e+001  -1.535780e+002 
3937500000  -4.020037e+001  -1.569269e+002 
3940625000  -3.979013e+001  -1.586466e+002 
3943750000  -3.879609e+001  -1.618098e+002 
3946875000  -3.841703e+001  -1.686032e+002 
3950000000  -3.943861e+001  -1.783071e+002 
3953125000  -3.999354e+001  -1.765262e+002 
3956250000  -3.871067e+001  -1.783870e+002 
3959375000  -3.790143e+001  1.752355e+002 
3962500000  -3.738324e+001  1.686133e+002 
3965625000  -3.787923e+001  1.572015e+002 
3968750000  -3.893091e+001  1.498572e+002 
3971875000  -3.862418e+001  1.447419e+002 
3975000000  -3.837194e+001  1.411180e+002 
3978125000  -3.844794e+001  1.379015e+002 
3981250000  -3.855402e+001  1.302642e+002 
3984375000  -3.910702e+001  1.225351e+002 
3987500000  -3.966175e+001  1.205963e+002 
3990625000  -3.998092e+001  1.190404e+002 
3993750000  -3.982040e+001  1.128469e+002 
3996875000  -3.985072e+001  1.088685e+002 
4000000000  -4.055730e+001  1.037108e+002 
4003125000  -4.101855e+001  1.068123e+002 
4006250000  -3.926385e+001  1.022810e+002 
4009375000  -3.858176e+001  8.796608e+001 
4012500000  -4.018403e+001  8.034544e+001 
4015625000  -4.162931e+001  7.765328e+001 
4018750000  -4.153275e+001  8.186188e+001 
4021875000  -4.104834e+001  7.674069e+001 
4025000000  -4.043270e+001  7.309392e+001 
4028125000  -4.060263e+001  6.452424e+001 
4031250000  -4.126840e+001  6.021760e+001 
4034375000  -4.144271e+001  6.131071e+001 
4037500000  -4.108758e+001  6.022387e+001 
4040625000  -4.095170e+001  5.780688e+001 
4043750000  -4.100861e+001  5.357788e+001 
4046875000  -4.057335e+001  4.940888e+001 
4050000000  -4.087992e+001  4.484420e+001 
4053125000  -4.120142e+001  4.310648e+001 
4056250000  -4.138136e+001  4.689429e+001 
4059375000  -3.948315e+001  4.508450e+001 
4062500000  -3.878424e+001  3.503347e+001 
4065625000  -3.899556e+001  2.987332e+001 
4068750000  -3.840862e+001  2.227030e+001 
4071875000  -3.785707e+001  1.378826e+001 
4075000000  -3.839911e+001  5.719689e+000 
4078125000  -3.878775e+001  1.073603e+000 
4081250000  -3.834532e+001  -2.338552e+000 
4084375000  -3.819861e+001  -1.208876e+001 
4087500000  -3.860728e+001  -1.785741e+001 
4090625000  -3.927550e+001  -2.103755e+001 
4093750000  -3.861993e+001  -2.255402e+001 
4096875000  -3.876682e+001  -3.245438e+001 
4100000000  -3.970683e+001  -4.030933e+001 
4103125000  -4.049934e+001  -3.740569e+001 
4106250000  -4.018945e+001  -3.495203e+001 
4109375000  -3.918798e+001  -3.668215e+001 
4112500000  -3.868236e+001  -4.855086e+001 
4115625000  -3.950345e+001  -5.500845e+001 
4118750000  -3.881920e+001  -5.896021e+001 
4121875000  -3.905914e+001  -6.726082e+001 
4125000000  -3.992451e+001  -7.323115e+001 
4128125000  -4.085891e+001  -7.022368e+001 
4131250000  -4.005373e+001  -6.685141e+001 
4134375000  -3.760466e+001  -7.617999e+001 
4137500000  -3.851560e+001  -9.536523e+001 
4140625000  -4.043428e+001  -1.021156e+002 
4143750000  -4.135422e+001  -9.421396e+001 
4146875000  -4.039725e+001  -9.403386e+001 
4150000000  -3.996838e+001  -1.000999e+002 
4153125000  -3.981966e+001  -1.099883e+002 
4156250000  -4.131788e+001  -1.134041e+002 
4159375000  -4.142338e+001  -1.077686e+002 
4162500000  -3.999566e+001  -1.052646e+002 
4165625000  -3.880278e+001  -1.121449e+002 
4168750000  -3.849534e+001  -1.235454e+002 
4171875000  -3.817992e+001  -1.332178e+002 
4175000000  -3.942213e+001  -1.389426e+002 
4178125000  -3.969362e+001  -1.405991e+002 
4181250000  -3.959373e+001  -1.419723e+002 
4184375000  -3.969522e+001  -1.499054e+002 
4187500000  -3.953569e+001  -1.551004e+002 
4190625000  -3.966394e+001  -1.600334e+002 
4193750000  -4.080536e+001  -1.661857e+002 
4196875000  -4.141577e+001  -1.672745e+002 
4200000000  -4.256556e+001  -1.597536e+002 
4203125000  -4.065888e+001  -1.488017e+002 
4206250000  -3.724319e+001  -1.568348e+002 
4209375000  -3.729375e+001  1.794995e+002 
4212500000  -3.958436e+001  1.730103e+002 
4215625000  -3.996386e+001  -1.796746e+002 
4218750000  -3.835239e+001  1.792255e+002 
4221875000  -3.696815e+001  1.709885e+002 
4225000000  -3.774873e+001  1.583597e+002 
4228125000  -3.762777e+001  1.598063e+002 
4231250000  -3.623153e+001  1.524879e+002 
4234375000  -3.635929e+001  1.412964e+002 
4237500000  -3.619805e+001  1.353411e+002 
4240625000  -3.650393e+001  1.253555e+002 
4243750000  -3.763813e+001  1.173594e+002 
4246875000  -3.842747e+001  1.171140e+002 
4250000000  -3.838463e+001  1.170629e+002 
4253125000  -3.809580e+001  1.132319e+002 
4256250000  -3.777142e+001  1.074939e+002 
4259375000  -3.786428e+001  1.014947e+002 
4262500000  -3.808490e+001  9.716142e+001 
4265625000  -3.798339e+001  9.651999e+001 
4268750000  -3.691959e+001  8.812096e+001 
4271875000  -3.676219e+001  7.760842e+001 
4275000000  -3.655002e+001  7.011314e+001 
4278125000  -3.778500e+001  5.802238e+001 
4281250000  -3.926572e+001  5.717461e+001 
4284375000  -3.885978e+001  5.555996e+001 
4287500000  -4.065494e+001  4.940073e+001 
4290625000  -4.086154e+001  6.208368e+001 
4293750000  -3.878045e+001  6.112446e+001 
4296875000  -3.774397e+001  4.637413e+001 
4300000000  -3.923910e+001  3.807903e+001 
4303125000  -3.978962e+001  4.130806e+001 
4306250000  -3.868216e+001  4.295543e+001 
4309375000  -3.787323e+001  3.606462e+001 
4312500000  -3.765093e+001  2.645162e+001 
4315625000  -3.804874e+001  1.671778e+001 
4318750000  -3.885023e+001  1.537915e+001 
4321875000  -3.867173e+001  1.524171e+001 
4325000000  -3.796621e+001  1.311281e+001 
4328125000  -3.736041e+001  4.580439e+000 
4331250000  -3.740921e+001  -5.480401e+000 
4334375000  -3.834128e+001  -1.460585e+001 
4337500000  -3.954784e+001  -1.410319e+001 
4340625000  -3.966384e+001  -8.272510e+000 
4343750000  -3.857239e+001  -1.306024e+001 
4346875000  -3.835357e+001  -2.219962e+001 
4350000000  -3.827815e+001  -3.166645e+001 
4353125000  -3.945773e+001  -3.486391e+001 
4356250000  -4.130435e+001  -3.257517e+001 
4359375000  -4.038797e+001  -1.891869e+001 
4362500000  -3.664600e+001  -2.588708e+001 
4365625000  -3.622099e+001  -4.503280e+001 
4368750000  -3.740301e+001  -5.460792e+001 
4371875000  -3.794798e+001  -5.500354e+001 
4375000000  -3.707965e+001  -5.840762e+001 
4378125000  -3.718314e+001  -6.621666e+001 
4381250000  -3.707559e+001  -7.435371e+001 
4384375000  -3.717178e+001  -8.174021e+001 
4387500000  -3.827029e+001  -8.688434e+001 
4390625000  -3.876628e+001  -8.754212e+001 
4393750000  -3.800690e+001  -8.834008e+001 
4396875000  -3.745201e+001  -9.305678e+001 
4400000000  -3.693081e+001  -1.018880e+002 
4403125000  -3.790885e+001  -1.115367e+002 
4406250000  -3.818327e+001  -1.131659e+002 
4409375000  -3.888893e+001  -1.172661e+002 
4412500000  -4.002166e+001  -1.226842e+002 
4415625000  -3.937613e+001  -1.167841e+002 
