!Agilent Technologies,E8363B,MY43030201,A.06.04.32
!Agilent E8363B: A.06.04.32
!Date: Tuesday, November 11, 2014 21:36:33
!Correction: S21(Response(S21)) 
!S1P File: Measurement: S21:
# Hz S  dB   R 50
3000000000  -4.061999e+001  7.101702e+001 
3003125000  -4.211467e+001  6.289033e+001 
3006250000  -4.215594e+001  6.285061e+001 
3009375000  -4.275918e+001  6.798997e+001 
3012500000  -4.156539e+001  6.203905e+001 
3015625000  -4.152304e+001  5.695453e+001 
3018750000  -4.162186e+001  5.828350e+001 
3021875000  -4.017254e+001  5.671621e+001 
3025000000  -3.878628e+001  5.333499e+001 
3028125000  -3.791121e+001  4.343739e+001 
3031250000  -3.701864e+001  3.103384e+001 
3034375000  -3.664973e+001  1.697790e+001 
3037500000  -3.762513e+001  6.702108e+000 
3040625000  -3.892093e+001  1.800194e+000 
3043750000  -3.913873e+001  -5.289155e+000 
3046875000  -3.980092e+001  -1.070257e+001 
3050000000  -4.094841e+001  -1.500905e+001 
3053125000  -4.050018e+001  -1.013808e+001 
3056250000  -4.036225e+001  -7.974494e+000 
3059375000  -3.978377e+001  -1.044955e+001 
3062500000  -3.811932e+001  -1.456724e+001 
3065625000  -3.787059e+001  -2.508163e+001 
3068750000  -3.754693e+001  -3.174998e+001 
3071875000  -3.763609e+001  -3.394246e+001 
3075000000  -3.696154e+001  -4.220844e+001 
3078125000  -3.706758e+001  -4.774731e+001 
3081250000  -3.717866e+001  -5.305383e+001 
3084375000  -3.643851e+001  -5.832362e+001 
3087500000  -3.643475e+001  -6.541869e+001 
3090625000  -3.601234e+001  -7.726180e+001 
3093750000  -3.694573e+001  -8.488361e+001 
3096875000  -3.732933e+001  -9.058260e+001 
3100000000  -3.732415e+001  -9.330032e+001 
3103125000  -3.741642e+001  -9.739703e+001 
3106250000  -3.723351e+001  -1.025594e+002 
3109375000  -3.722674e+001  -1.057640e+002 
3112500000  -3.722575e+001  -1.124282e+002 
3115625000  -3.720773e+001  -1.151289e+002 
3118750000  -3.725441e+001  -1.203797e+002 
3121875000  -3.656402e+001  -1.307738e+002 
3125000000  -3.849548e+001  -1.330945e+002 
3128125000  -3.867440e+001  -1.260562e+002 
3131250000  -3.598773e+001  -1.323058e+002 
3134375000  -3.526061e+001  -1.495375e+002 
3137500000  -3.613560e+001  -1.617362e+002 
3140625000  -3.733652e+001  -1.649075e+002 
3143750000  -3.825738e+001  -1.672919e+002 
3146875000  -3.754895e+001  -1.645979e+002 
3150000000  -3.675811e+001  -1.697501e+002 
3153125000  -3.721947e+001  -1.769730e+002 
3156250000  -3.794160e+001  -1.728450e+002 
3159375000  -3.555795e+001  -1.746871e+002 
3162500000  -3.420486e+001  1.697924e+002 
3165625000  -3.547290e+001  1.572886e+002 
3168750000  -3.537882e+001  1.563712e+002 
3171875000  -3.488128e+001  1.494947e+002 
3175000000  -3.546102e+001  1.396368e+002 
3178125000  -3.500794e+001  1.377214e+002 
3181250000  -3.430404e+001  1.292625e+002 
3184375000  -3.410472e+001  1.179652e+002 
3187500000  -3.538758e+001  1.026648e+002 
3190625000  -3.722372e+001  9.784435e+001 
3193750000  -3.744036e+001  1.023712e+002 
3196875000  -3.737318e+001  1.033021e+002 
3200000000  -3.616665e+001  9.751743e+001 
3203125000  -3.595122e+001  9.001552e+001 
3206250000  -3.612402e+001  8.261507e+001 
3209375000  -3.575193e+001  7.495940e+001 
3212500000  -3.633385e+001  6.845050e+001 
3215625000  -3.615255e+001  6.551251e+001 
3218750000  -3.668089e+001  5.257151e+001 
3221875000  -3.715408e+001  4.743321e+001 
3225000000  -3.703309e+001  4.350638e+001 
3228125000  -3.766900e+001  3.582496e+001 
3231250000  -3.812030e+001  3.428341e+001 
3234375000  -3.788181e+001  3.043763e+001 
3237500000  -3.808406e+001  2.663543e+001 
3240625000  -3.749099e+001  2.120237e+001 
3243750000  -3.773774e+001  1.068330e+001 
3246875000  -3.816067e+001  3.582403e+000 
3250000000  -3.864132e+001  -7.499823e-003 
3253125000  -3.896230e+001  -3.172541e+000 
3256250000  -3.847145e+001  -1.161500e+001 
3259375000  -3.901712e+001  -2.223156e+001 
3262500000  -4.075211e+001  -2.640264e+001 
3265625000  -4.111244e+001  -2.184742e+001 
3268750000  -4.136265e+001  -2.064087e+001 
3271875000  -4.042410e+001  -2.476540e+001 
3275000000  -4.010566e+001  -3.346896e+001 
3278125000  -4.072977e+001  -3.817941e+001 
3281250000  -4.114009e+001  -3.993095e+001 
3284375000  -4.059202e+001  -4.621401e+001 
3287500000  -4.124627e+001  -4.976025e+001 
3290625000  -4.120244e+001  -5.787112e+001 
3293750000  -4.116957e+001  -6.323663e+001 
3296875000  -4.266306e+001  -6.585713e+001 
3300000000  -4.192656e+001  -6.469306e+001 
3303125000  -4.082962e+001  -7.106519e+001 
3306250000  -4.072680e+001  -7.816593e+001 
3309375000  -4.044360e+001  -8.676526e+001 
3312500000  -4.099433e+001  -9.947967e+001 
3315625000  -4.247424e+001  -1.055609e+002 
3318750000  -4.354223e+001  -1.092545e+002 
3321875000  -4.483945e+001  -1.070925e+002 
3325000000  -4.504313e+001  -9.943204e+001 
3328125000  -4.412970e+001  -9.856493e+001 
3331250000  -4.249878e+001  -9.978694e+001 
3334375000  -3.967004e+001  -1.115987e+002 
3337500000  -4.033502e+001  -1.324718e+002 
3340625000  -4.227533e+001  -1.418395e+002 
3343750000  -4.376247e+001  -1.390098e+002 
3346875000  -4.346231e+001  -1.418166e+002 
3350000000  -4.305132e+001  -1.461107e+002 
3353125000  -4.286056e+001  -1.521946e+002 
3356250000  -4.243887e+001  -1.609367e+002 
3359375000  -4.336143e+001  -1.710447e+002 
3362500000  -4.428965e+001  -1.763208e+002 
3365625000  -4.471851e+001  1.790367e+002 
3368750000  -4.545630e+001  1.742030e+002 
3371875000  -4.585812e+001  1.712944e+002 
3375000000  -4.730186e+001  1.653687e+002 
3378125000  -4.819826e+001  1.655915e+002 
3381250000  -4.958285e+001  1.778586e+002 
3384375000  -4.668440e+001  -1.706831e+002 
3387500000  -4.377011e+001  1.686490e+002 
3390625000  -4.592631e+001  1.529356e+002 
3393750000  -4.718157e+001  1.509810e+002 
3396875000  -4.577674e+001  1.507667e+002 
3400000000  -4.599642e+001  1.355851e+002 
3403125000  -4.689243e+001  1.330488e+002 
3406250000  -4.743402e+001  1.281649e+002 
3409375000  -4.827762e+001  1.187595e+002 
3412500000  -4.932764e+001  1.165597e+002 
3415625000  -4.988306e+001  1.166689e+002 
3418750000  -5.000031e+001  1.138033e+002 
3421875000  -5.176168e+001  1.145867e+002 
3425000000  -5.042823e+001  1.167177e+002 
3428125000  -4.986935e+001  1.135818e+002 
3431250000  -4.990760e+001  1.008973e+002 
3434375000  -5.047032e+001  1.010015e+002 
3437500000  -5.167582e+001  1.006777e+002 
3440625000  -5.149583e+001  1.009459e+002 
3443750000  -5.025060e+001  1.043451e+002 
3446875000  -5.095257e+001  1.006433e+002 
3450000000  -5.012102e+001  8.744298e+001 
3453125000  -5.051351e+001  8.389040e+001 
3456250000  -5.230150e+001  8.277290e+001 
3459375000  -5.284089e+001  8.245164e+001 
3462500000  -5.193477e+001  8.370545e+001 
3465625000  -5.082189e+001  7.595724e+001 
3468750000  -5.109378e+001  7.837296e+001 
3471875000  -5.248680e+001  7.744175e+001 
3475000000  -5.118540e+001  7.087215e+001 
3478125000  -5.091446e+001  6.094376e+001 
3481250000  -5.184604e+001  6.106959e+001 
3484375000  -5.247462e+001  5.953241e+001 
3487500000  -5.211594e+001  6.078677e+001 
3490625000  -5.057894e+001  4.860447e+001 
3493750000  -5.129570e+001  4.576283e+001 
3496875000  -5.094824e+001  4.638820e+001 
3500000000  -5.193264e+001  3.943556e+001 
3503125000  -5.061423e+001  4.453539e+001 
3506250000  -4.995201e+001  3.086189e+001 
3509375000  -4.963850e+001  2.509299e+001 
3512500000  -4.949008e+001  1.039207e+001 
3515625000  -5.161239e+001  6.419631e+000 
3518750000  -5.226142e+001  1.037574e+001 
3521875000  -5.182529e+001  1.591365e+000 
3525000000  -5.267692e+001  -9.330827e-001 
3528125000  -5.216513e+001  4.196778e+000 
3531250000  -5.211321e+001  -4.744913e+000 
3534375000  -5.289302e+001  -1.527037e+001 
3537500000  -5.308372e+001  -3.123882e+001 
3540625000  -5.476658e+001  -3.239565e+001 
3543750000  -5.532928e+001  -1.408263e+001 
3546875000  -5.603814e+001  -1.631115e+001 
3550000000  -5.356044e+001  -2.017986e+001 
3553125000  -5.398925e+001  -3.675028e+001 
3556250000  -5.549205e+001  -2.632978e+001 
3559375000  -5.571782e+001  -3.427869e+001 
3562500000  -5.628923e+001  -5.318251e+001 
3565625000  -5.593475e+001  -4.401020e+001 
3568750000  -5.721814e+001  -4.480326e+001 
3571875000  -5.606458e+001  -4.316793e+001 
3575000000  -5.752134e+001  -3.992986e+001 
3578125000  -5.967089e+001  -2.562319e+001 
3581250000  -5.666324e+001  -5.071761e+001 
3584375000  -5.810426e+001  -3.546393e+001 
3587500000  -5.683209e+001  -4.734127e+001 
3590625000  -5.776769e+001  -6.482545e+001 
3593750000  -6.064494e+001  -5.183934e+001 
3596875000  -5.723256e+001  -4.770157e+001 
3600000000  -5.679027e+001  -3.990761e+001 
3603125000  -5.731640e+001  -5.119375e+001 
3606250000  -5.836368e+001  -5.139709e+001 
3609375000  -5.683077e+001  -5.751834e+001 
3612500000  -5.860231e+001  -5.222975e+001 
3615625000  -5.862121e+001  -6.156892e+001 
3618750000  -5.894885e+001  -5.641350e+001 
3621875000  -5.651786e+001  -5.043593e+001 
3625000000  -5.654264e+001  -4.244142e+001 
3628125000  -5.685568e+001  -4.293938e+001 
3631250000  -5.743836e+001  -5.532116e+001 
3634375000  -5.653391e+001  -4.453752e+001 
3637500000  -5.505489e+001  -4.665276e+001 
3640625000  -5.430255e+001  -4.576152e+001 
3643750000  -5.316373e+001  -4.714862e+001 
3646875000  -5.329591e+001  -6.261817e+001 
3650000000  -5.227475e+001  -6.919097e+001 
3653125000  -5.190580e+001  -6.235084e+001 
3656250000  -5.229200e+001  -6.661871e+001 
3659375000  -5.207415e+001  -6.635929e+001 
3662500000  -5.070420e+001  -7.638110e+001 
3665625000  -4.998888e+001  -7.602431e+001 
3668750000  -4.793950e+001  -7.576453e+001 
3671875000  -4.701904e+001  -8.876911e+001 
3675000000  -4.786166e+001  -9.577253e+001 
3678125000  -4.730692e+001  -1.004858e+002 
3681250000  -4.611297e+001  -1.036933e+002 
3684375000  -4.631608e+001  -1.070767e+002 
3687500000  -4.649305e+001  -1.152973e+002 
3690625000  -4.694573e+001  -1.199741e+002 
3693750000  -4.706512e+001  -1.207964e+002 
3696875000  -4.617661e+001  -1.189344e+002 
3700000000  -4.537356e+001  -1.282329e+002 
3703125000  -4.544457e+001  -1.326042e+002 
3706250000  -4.567936e+001  -1.346314e+002 
3709375000  -4.480438e+001  -1.357732e+002 
3712500000  -4.380533e+001  -1.393161e+002 
3715625000  -4.191579e+001  -1.494950e+002 
3718750000  -4.187092e+001  -1.560826e+002 
3721875000  -4.121495e+001  -1.650115e+002 
3725000000  -4.172813e+001  -1.719159e+002 
3728125000  -4.151324e+001  -1.755638e+002 
3731250000  -4.059202e+001  1.778775e+002 
3734375000  -4.022530e+001  1.698259e+002 
3737500000  -4.094812e+001  1.606797e+002 
3740625000  -4.077164e+001  1.556892e+002 
3743750000  -4.041877e+001  1.485907e+002 
3746875000  -4.075006e+001  1.441793e+002 
3750000000  -4.081973e+001  1.387233e+002 
3753125000  -4.060439e+001  1.357418e+002 
3756250000  -4.061180e+001  1.326825e+002 
3759375000  -4.035833e+001  1.269810e+002 
3762500000  -4.013667e+001  1.209415e+002 
3765625000  -4.098867e+001  1.144437e+002 
3768750000  -4.015244e+001  1.165563e+002 
3771875000  -3.828090e+001  1.075672e+002 
3775000000  -3.868685e+001  9.782889e+001 
3778125000  -3.907253e+001  9.038078e+001 
3781250000  -3.898364e+001  8.605790e+001 
3784375000  -3.889971e+001  8.001867e+001 
3787500000  -3.856071e+001  7.419430e+001 
3790625000  -3.914076e+001  6.546928e+001 
3793750000  -3.890783e+001  6.289022e+001 
3796875000  -3.823536e+001  5.763772e+001 
3800000000  -3.639397e+001  5.327818e+001 
3803125000  -3.807853e+001  3.910030e+001 
3806250000  -3.897149e+001  3.628154e+001 
3809375000  -3.839423e+001  3.191936e+001 
3812500000  -3.841197e+001  2.088937e+001 
3815625000  -3.925333e+001  1.320359e+001 
3818750000  -4.100258e+001  1.444412e+001 
3821875000  -3.993291e+001  2.231754e+001 
3825000000  -3.822873e+001  1.938231e+001 
3828125000  -3.698826e+001  2.701529e-001 
3831250000  -3.788548e+001  -1.441992e+001 
3834375000  -4.036770e+001  -1.368565e+001 
3837500000  -4.072161e+001  -9.679575e+000 
3840625000  -3.908022e+001  -1.128923e+001 
3843750000  -3.828047e+001  -2.837745e+001 
3846875000  -3.992992e+001  -3.361590e+001 
3850000000  -4.069736e+001  -2.742346e+001 
3853125000  -3.984361e+001  -2.753857e+001 
3856250000  -3.927658e+001  -3.480011e+001 
3859375000  -3.856842e+001  -4.379907e+001 
3862500000  -3.834302e+001  -5.339870e+001 
3865625000  -3.906275e+001  -5.793352e+001 
3868750000  -3.870830e+001  -5.919624e+001 
3871875000  -3.815508e+001  -6.677714e+001 
3875000000  -3.855447e+001  -7.660532e+001 
3878125000  -3.932676e+001  -7.951320e+001 
3881250000  -3.906130e+001  -8.013393e+001 
3884375000  -3.879413e+001  -8.682191e+001 
3887500000  -3.927279e+001  -9.191473e+001 
3890625000  -3.958307e+001  -9.719568e+001 
3893750000  -3.964852e+001  -9.997690e+001 
3896875000  -4.016867e+001  -1.017935e+002 
3900000000  -3.973389e+001  -1.047836e+002 
3903125000  -3.951973e+001  -1.107589e+002 
3906250000  -3.862704e+001  -1.138278e+002 
3909375000  -3.814478e+001  -1.231421e+002 
3912500000  -3.920938e+001  -1.305899e+002 
3915625000  -4.041135e+001  -1.316099e+002 
3918750000  -3.984696e+001  -1.326291e+002 
3921875000  -3.932855e+001  -1.361872e+002 
3925000000  -3.852705e+001  -1.427953e+002 
3928125000  -3.821912e+001  -1.530253e+002 
3931250000  -3.903063e+001  -1.592372e+002 
3934375000  -3.975757e+001  -1.600151e+002 
3937500000  -3.986438e+001  -1.625332e+002 
3940625000  -3.996794e+001  -1.641301e+002 
3943750000  -3.882824e+001  -1.677049e+002 
3946875000  -3.838558e+001  -1.773815e+002 
3950000000  -3.958785e+001  1.755994e+002 
3953125000  -3.999360e+001  1.751914e+002 
3956250000  -3.867473e+001  1.749366e+002 
3959375000  -3.794944e+001  1.687557e+002 
3962500000  -3.746882e+001  1.603956e+002 
3965625000  -3.793190e+001  1.514487e+002 
3968750000  -3.879018e+001  1.429256e+002 
3971875000  -3.870760e+001  1.389424e+002 
3975000000  -3.823792e+001  1.340239e+002 
3978125000  -3.848591e+001  1.294076e+002 
3981250000  -3.848703e+001  1.247336e+002 
3984375000  -3.893312e+001  1.155443e+002 
3987500000  -3.968647e+001  1.121311e+002 
3990625000  -3.975698e+001  1.107331e+002 
3993750000  -3.998257e+001  1.058058e+002 
3996875000  -3.964222e+001  1.018011e+002 
4000000000  -4.071708e+001  9.557416e+001 
4003125000  -4.115197e+001  9.867555e+001 
4006250000  -3.902261e+001  9.428698e+001 
4009375000  -3.840710e+001  8.108607e+001 
4012500000  -4.023507e+001  7.311475e+001 
4015625000  -4.154781e+001  7.230087e+001 
4018750000  -4.152471e+001  7.407142e+001 
4021875000  -4.066568e+001  7.066214e+001 
4025000000  -4.025217e+001  6.518696e+001 
4028125000  -4.049514e+001  5.687983e+001 
4031250000  -4.145121e+001  5.327311e+001 
4034375000  -4.143441e+001  5.407911e+001 
4037500000  -4.112982e+001  5.310416e+001 
4040625000  -4.084814e+001  4.871709e+001 
4043750000  -4.091414e+001  4.628357e+001 
4046875000  -4.073749e+001  4.148933e+001 
4050000000  -4.090166e+001  3.839467e+001 
4053125000  -4.134861e+001  3.491367e+001 
4056250000  -4.137415e+001  3.953115e+001 
4059375000  -3.936953e+001  3.628096e+001 
4062500000  -3.869946e+001  2.759091e+001 
4065625000  -3.892735e+001  2.291969e+001 
4068750000  -3.816560e+001  1.527499e+001 
4071875000  -3.770841e+001  4.693487e+000 
4075000000  -3.856777e+001  -2.689511e+000 
4078125000  -3.866006e+001  -4.661531e+000 
4081250000  -3.813829e+001  -9.845008e+000 
4084375000  -3.807539e+001  -1.988293e+001 
4087500000  -3.878085e+001  -2.672284e+001 
4090625000  -3.915216e+001  -2.677847e+001 
4093750000  -3.878025e+001  -3.008984e+001 
4096875000  -3.859554e+001  -4.172057e+001 
4100000000  -3.972212e+001  -4.856609e+001 
4103125000  -4.057859e+001  -4.391930e+001 
4106250000  -4.010344e+001  -4.338570e+001 
4109375000  -3.918892e+001  -4.762322e+001 
4112500000  -3.867676e+001  -5.583532e+001 
4115625000  -3.920800e+001  -6.196668e+001 
4118750000  -3.894341e+001  -6.870791e+001 
4121875000  -3.887854e+001  -7.353622e+001 
4125000000  -4.007647e+001  -8.066411e+001 
4128125000  -4.099915e+001  -7.811613e+001 
4131250000  -3.996525e+001  -7.301992e+001 
4134375000  -3.769600e+001  -8.364500e+001 
4137500000  -3.805613e+001  -1.036413e+002 
4140625000  -4.047933e+001  -1.110975e+002 
4143750000  -4.163294e+001  -1.019428e+002 
4146875000  -4.054216e+001  -1.015161e+002 
4150000000  -3.972829e+001  -1.082464e+002 
4153125000  -3.982407e+001  -1.179165e+002 
4156250000  -4.124532e+001  -1.201453e+002 
4159375000  -4.120091e+001  -1.127970e+002 
4162500000  -3.950662e+001  -1.128482e+002 
4165625000  -3.867887e+001  -1.207818e+002 
4168750000  -3.854274e+001  -1.305799e+002 
4171875000  -3.838173e+001  -1.417517e+002 
4175000000  -3.939325e+001  -1.481290e+002 
4178125000  -3.953995e+001  -1.471819e+002 
4181250000  -3.927959e+001  -1.510925e+002 
4184375000  -3.963151e+001  -1.557599e+002 
4187500000  -3.965853e+001  -1.623592e+002 
4190625000  -3.964317e+001  -1.694610e+002 
4193750000  -4.051473e+001  -1.754896e+002 
4196875000  -4.142374e+001  -1.764544e+002 
4200000000  -4.252443e+001  -1.676788e+002 
4203125000  -4.100307e+001  -1.575622e+002 
4206250000  -3.710924e+001  -1.658990e+002 
4209375000  -3.747284e+001  1.721305e+002 
4212500000  -3.957039e+001  1.643014e+002 
4215625000  -3.981015e+001  1.717724e+002 
4218750000  -3.850402e+001  1.743759e+002 
4221875000  -3.678302e+001  1.634807e+002 
4225000000  -3.779565e+001  1.496995e+002 
4228125000  -3.769991e+001  1.529541e+002 
4231250000  -3.631575e+001  1.429953e+002 
4234375000  -3.651578e+001  1.345388e+002 
4237500000  -3.604606e+001  1.265709e+002 
4240625000  -3.620978e+001  1.159613e+002 
4243750000  -3.761621e+001  1.083443e+002 
4246875000  -3.852065e+001  1.093049e+002 
4250000000  -3.836852e+001  1.085009e+002 
4253125000  -3.793734e+001  1.040164e+002 
4256250000  -3.814028e+001  1.007323e+002 
4259375000  -3.775042e+001  9.486254e+001 
4262500000  -3.800564e+001  8.842633e+001 
4265625000  -3.800098e+001  8.891077e+001 
4268750000  -3.676730e+001  7.987802e+001 
4271875000  -3.686345e+001  7.122774e+001 
4275000000  -3.646139e+001  6.380089e+001 
4278125000  -3.798380e+001  5.086859e+001 
4281250000  -3.878565e+001  4.843588e+001 
4284375000  -3.878830e+001  4.554607e+001 
4287500000  -4.035119e+001  4.392616e+001 
4290625000  -4.057052e+001  5.293905e+001 
4293750000  -3.863101e+001  5.417130e+001 
4296875000  -3.790437e+001  3.839873e+001 
4300000000  -3.908565e+001  3.002655e+001 
4303125000  -3.969565e+001  3.505178e+001 
4306250000  -3.842039e+001  3.674716e+001 
4309375000  -3.761685e+001  2.746184e+001 
4312500000  -3.759888e+001  1.844053e+001 
4315625000  -3.792820e+001  1.054570e+001 
4318750000  -3.850320e+001  5.271297e+000 
4321875000  -3.862095e+001  6.089861e+000 
4325000000  -3.801355e+001  5.261868e+000 
4328125000  -3.725713e+001  -4.638344e+000 
4331250000  -3.735980e+001  -1.526760e+001 
4334375000  -3.835293e+001  -2.177847e+001 
4337500000  -3.958857e+001  -2.222874e+001 
4340625000  -3.965179e+001  -1.722525e+001 
4343750000  -3.846578e+001  -1.948294e+001 
4346875000  -3.838444e+001  -3.100984e+001 
4350000000  -3.829104e+001  -3.773088e+001 
4353125000  -3.900502e+001  -4.394974e+001 
4356250000  -4.124973e+001  -3.835795e+001 
4359375000  -3.981229e+001  -2.410811e+001 
4362500000  -3.647401e+001  -3.564710e+001 
4365625000  -3.603537e+001  -5.346108e+001 
4368750000  -3.718960e+001  -6.171078e+001 
4371875000  -3.788241e+001  -6.203024e+001 
4375000000  -3.726569e+001  -6.704399e+001 
4378125000  -3.685004e+001  -7.352184e+001 
4381250000  -3.716731e+001  -8.094180e+001 
4384375000  -3.713329e+001  -8.897744e+001 
4387500000  -3.821931e+001  -9.574837e+001 
4390625000  -3.856408e+001  -9.441290e+001 
4393750000  -3.788330e+001  -9.510179e+001 
4396875000  -3.716360e+001  -1.016655e+002 
4400000000  -3.664579e+001  -1.108920e+002 
4403125000  -3.783400e+001  -1.200956e+002 
4406250000  -3.842128e+001  -1.222061e+002 
4409375000  -3.876244e+001  -1.268218e+002 
4412500000  -3.998732e+001  -1.293564e+002 
4415625000  -3.924105e+001  -1.261453e+002 
