!Agilent Technologies,E8363B,MY43030201,A.06.04.32
!Agilent E8363B: A.06.04.32
!Date: Tuesday, November 11, 2014 21:28:04
!Correction: S21(Response(S21)) 
!S1P File: Measurement: S21:
# Hz S  dB   R 50
3000000000  -4.062711e+001  9.118649e+001 
3003125000  -4.238990e+001  8.327474e+001 
3006250000  -4.232423e+001  8.139444e+001 
3009375000  -4.293750e+001  8.744805e+001 
3012500000  -4.167730e+001  8.199937e+001 
3015625000  -4.127702e+001  7.574270e+001 
3018750000  -4.181036e+001  7.528417e+001 
3021875000  -4.037969e+001  7.583951e+001 
3025000000  -3.914068e+001  7.233158e+001 
3028125000  -3.805212e+001  6.345098e+001 
3031250000  -3.711926e+001  5.149184e+001 
3034375000  -3.674305e+001  3.745880e+001 
3037500000  -3.749683e+001  2.639298e+001 
3040625000  -3.877762e+001  2.107482e+001 
3043750000  -3.922686e+001  1.552457e+001 
3046875000  -3.971976e+001  9.414419e+000 
3050000000  -4.099374e+001  3.186549e+000 
3053125000  -4.057032e+001  9.088320e+000 
3056250000  -4.035156e+001  1.226633e+001 
3059375000  -3.989008e+001  1.098039e+001 
3062500000  -3.831390e+001  4.811563e+000 
3065625000  -3.787393e+001  -4.515867e+000 
3068750000  -3.766856e+001  -1.272676e+001 
3071875000  -3.765924e+001  -1.468118e+001 
3075000000  -3.715872e+001  -2.182957e+001 
3078125000  -3.707755e+001  -2.787903e+001 
3081250000  -3.740544e+001  -3.342918e+001 
3084375000  -3.649854e+001  -3.832135e+001 
3087500000  -3.642542e+001  -4.415532e+001 
3090625000  -3.601997e+001  -5.739481e+001 
3093750000  -3.679973e+001  -6.488483e+001 
3096875000  -3.731840e+001  -7.123218e+001 
3100000000  -3.722545e+001  -7.467096e+001 
3103125000  -3.763132e+001  -7.700008e+001 
3106250000  -3.721272e+001  -8.161630e+001 
3109375000  -3.732604e+001  -8.636530e+001 
3112500000  -3.727834e+001  -9.088483e+001 
3115625000  -3.710267e+001  -9.566309e+001 
3118750000  -3.732782e+001  -9.826378e+001 
3121875000  -3.654660e+001  -1.093109e+002 
3125000000  -3.833905e+001  -1.130638e+002 
3128125000  -3.868238e+001  -1.060829e+002 
3131250000  -3.613960e+001  -1.119440e+002 
3134375000  -3.535815e+001  -1.289080e+002 
3137500000  -3.598536e+001  -1.419798e+002 
3140625000  -3.741231e+001  -1.438889e+002 
3143750000  -3.848877e+001  -1.466181e+002 
3146875000  -3.762980e+001  -1.455430e+002 
3150000000  -3.680403e+001  -1.478433e+002 
3153125000  -3.726073e+001  -1.570465e+002 
3156250000  -3.783808e+001  -1.531553e+002 
3159375000  -3.586900e+001  -1.532421e+002 
3162500000  -3.427481e+001  -1.696777e+002 
3165625000  -3.553431e+001  1.778821e+002 
3168750000  -3.546846e+001  1.767232e+002 
3171875000  -3.489745e+001  1.690876e+002 
3175000000  -3.559041e+001  1.603401e+002 
3178125000  -3.519360e+001  1.592575e+002 
3181250000  -3.433680e+001  1.508021e+002 
3184375000  -3.396771e+001  1.383550e+002 
3187500000  -3.529259e+001  1.233663e+002 
3190625000  -3.717921e+001  1.170098e+002 
3193750000  -3.757747e+001  1.227388e+002 
3196875000  -3.754655e+001  1.237528e+002 
3200000000  -3.628750e+001  1.196807e+002 
3203125000  -3.596520e+001  1.108142e+002 
3206250000  -3.620454e+001  1.035341e+002 
3209375000  -3.582865e+001  9.679613e+001 
3212500000  -3.625156e+001  8.915079e+001 
3215625000  -3.603267e+001  8.530229e+001 
3218750000  -3.676617e+001  7.422849e+001 
3221875000  -3.738512e+001  6.888171e+001 
3225000000  -3.709218e+001  6.362550e+001 
3228125000  -3.770457e+001  5.720844e+001 
3231250000  -3.829910e+001  5.410035e+001 
3234375000  -3.793964e+001  5.109052e+001 
3237500000  -3.803833e+001  4.795664e+001 
3240625000  -3.777532e+001  4.272924e+001 
3243750000  -3.765977e+001  3.320274e+001 
3246875000  -3.826065e+001  2.541368e+001 
3250000000  -3.874099e+001  2.156538e+001 
3253125000  -3.887809e+001  1.832177e+001 
3256250000  -3.868001e+001  1.020580e+001 
3259375000  -3.919639e+001  -4.309025e-002 
3262500000  -4.055857e+001  -4.189340e+000 
3265625000  -4.125370e+001  -2.929280e+000 
3268750000  -4.128724e+001  -1.145975e+000 
3271875000  -4.097497e+001  -3.057327e+000 
3275000000  -4.021022e+001  -1.314618e+001 
3278125000  -4.087455e+001  -1.649092e+001 
3281250000  -4.107309e+001  -1.924999e+001 
3284375000  -4.070950e+001  -2.431323e+001 
3287500000  -4.110382e+001  -2.892593e+001 
3290625000  -4.133643e+001  -3.684343e+001 
3293750000  -4.112374e+001  -4.270544e+001 
3296875000  -4.251606e+001  -4.457263e+001 
3300000000  -4.177882e+001  -4.428139e+001 
3303125000  -4.089497e+001  -4.944793e+001 
3306250000  -4.105344e+001  -5.777730e+001 
3309375000  -4.063587e+001  -6.376182e+001 
3312500000  -4.078458e+001  -7.523143e+001 
3315625000  -4.205819e+001  -8.298256e+001 
3318750000  -4.348508e+001  -8.676834e+001 
3321875000  -4.448510e+001  -8.544341e+001 
3325000000  -4.459278e+001  -7.855772e+001 
3328125000  -4.365300e+001  -7.940040e+001 
3331250000  -4.264740e+001  -7.465897e+001 
3334375000  -3.977118e+001  -8.982664e+001 
3337500000  -4.032727e+001  -1.096137e+002 
3340625000  -4.234874e+001  -1.220840e+002 
3343750000  -4.396996e+001  -1.198891e+002 
3346875000  -4.337139e+001  -1.196814e+002 
3350000000  -4.311022e+001  -1.227329e+002 
3353125000  -4.299232e+001  -1.303372e+002 
3356250000  -4.252502e+001  -1.383343e+002 
3359375000  -4.337416e+001  -1.486213e+002 
3362500000  -4.426525e+001  -1.554707e+002 
3365625000  -4.465613e+001  -1.573806e+002 
3368750000  -4.526320e+001  -1.619991e+002 
3371875000  -4.561751e+001  -1.658524e+002 
3375000000  -4.733597e+001  -1.703016e+002 
3378125000  -4.830072e+001  -1.721181e+002 
3381250000  -4.965879e+001  -1.631352e+002 
3384375000  -4.682232e+001  -1.472404e+002 
3387500000  -4.377102e+001  -1.677951e+002 
3390625000  -4.620424e+001  1.709879e+002 
3393750000  -4.734172e+001  1.739859e+002 
3396875000  -4.588514e+001  1.715401e+002 
3400000000  -4.599916e+001  1.608938e+002 
3403125000  -4.656762e+001  1.571885e+002 
3406250000  -4.756925e+001  1.523983e+002 
3409375000  -4.819814e+001  1.465322e+002 
3412500000  -4.833208e+001  1.395128e+002 
3415625000  -4.993516e+001  1.362303e+002 
3418750000  -5.065850e+001  1.408884e+002 
3421875000  -5.133398e+001  1.417092e+002 
3425000000  -5.005341e+001  1.399690e+002 
3428125000  -4.975586e+001  1.373828e+002 
3431250000  -4.982474e+001  1.285333e+002 
3434375000  -5.039944e+001  1.225564e+002 
3437500000  -5.116332e+001  1.245676e+002 
3440625000  -5.226443e+001  1.250897e+002 
3443750000  -5.020500e+001  1.306194e+002 
3446875000  -5.081392e+001  1.230726e+002 
3450000000  -4.974255e+001  1.135860e+002 
3453125000  -5.005042e+001  1.023992e+002 
3456250000  -5.142068e+001  1.052023e+002 
3459375000  -5.303425e+001  1.090664e+002 
3462500000  -5.118848e+001  1.097501e+002 
3465625000  -5.102743e+001  1.015896e+002 
3468750000  -5.171429e+001  1.024498e+002 
3471875000  -5.184946e+001  9.310952e+001 
3475000000  -5.047440e+001  9.211576e+001 
3478125000  -5.129021e+001  8.446609e+001 
3481250000  -5.224728e+001  8.934859e+001 
3484375000  -5.173276e+001  8.850503e+001 
3487500000  -5.111378e+001  8.590528e+001 
3490625000  -5.047745e+001  7.704726e+001 
3493750000  -5.129458e+001  6.857081e+001 
3496875000  -5.115998e+001  6.886072e+001 
3500000000  -5.140268e+001  6.401761e+001 
3503125000  -5.083558e+001  6.502277e+001 
3506250000  -4.962538e+001  5.874328e+001 
3509375000  -4.993524e+001  4.788449e+001 
3512500000  -5.050069e+001  3.432067e+001 
3515625000  -5.057439e+001  2.686104e+001 
3518750000  -5.107731e+001  2.959011e+001 
3521875000  -5.231354e+001  2.425233e+001 
3525000000  -5.253893e+001  1.691561e+001 
3528125000  -5.188340e+001  2.311166e+001 
3531250000  -5.209265e+001  2.127275e+001 
3534375000  -5.215027e+001  1.881530e+000 
3537500000  -5.330098e+001  -3.181343e+000 
3540625000  -5.450473e+001  -3.093560e+000 
3543750000  -5.412835e+001  5.693308e+000 
3546875000  -5.606722e+001  1.076129e+001 
3550000000  -5.306921e+001  4.708790e+000 
3553125000  -5.312741e+001  -1.721849e+001 
3556250000  -5.496744e+001  -2.225953e+001 
3559375000  -5.527284e+001  -1.763024e+001 
3562500000  -5.616203e+001  -2.256751e+001 
3565625000  -5.664444e+001  -4.099696e+001 
3568750000  -5.649673e+001  -2.116704e+001 
3571875000  -5.795767e+001  -2.382957e+001 
3575000000  -5.817714e+001  -1.996213e+001 
3578125000  -5.855567e+001  -3.926831e+001 
3581250000  -5.662103e+001  -2.161090e+001 
3584375000  -5.867172e+001  -2.852599e+001 
3587500000  -5.728629e+001  -1.976066e+001 
3590625000  -5.840387e+001  -4.427400e+001 
3593750000  -5.817902e+001  -3.128771e+001 
3596875000  -5.958115e+001  -3.009285e+001 
3600000000  -5.846289e+001  -3.161333e+001 
3603125000  -5.694031e+001  -3.610301e+001 
3606250000  -5.930936e+001  -4.002827e+001 
3609375000  -5.784062e+001  -2.818741e+001 
3612500000  -5.990529e+001  -3.284540e+001 
3615625000  -5.896867e+001  -4.002360e+001 
3618750000  -5.942706e+001  -2.663314e+001 
3621875000  -5.761615e+001  -3.935912e+001 
3625000000  -5.896746e+001  -1.957279e+001 
3628125000  -5.716912e+001  -2.964201e+001 
3631250000  -5.695402e+001  -3.186919e+001 
3634375000  -5.751654e+001  -2.771376e+001 
3637500000  -5.624189e+001  -2.569347e+001 
3640625000  -5.525874e+001  -1.871418e+001 
3643750000  -5.357257e+001  -2.772160e+001 
3646875000  -5.275612e+001  -4.375628e+001 
3650000000  -5.413346e+001  -3.995397e+001 
3653125000  -5.253097e+001  -4.189676e+001 
3656250000  -5.250056e+001  -4.000068e+001 
3659375000  -5.139582e+001  -4.625765e+001 
3662500000  -5.158865e+001  -5.107365e+001 
3665625000  -4.986126e+001  -4.876618e+001 
3668750000  -4.866957e+001  -4.682610e+001 
3671875000  -4.747704e+001  -6.465079e+001 
3675000000  -4.813105e+001  -7.177248e+001 
3678125000  -4.729714e+001  -7.377894e+001 
3681250000  -4.645381e+001  -7.932882e+001 
3684375000  -4.748900e+001  -8.700586e+001 
3687500000  -4.671436e+001  -8.915252e+001 
3690625000  -4.658163e+001  -9.621874e+001 
3693750000  -4.708871e+001  -9.487965e+001 
3696875000  -4.665238e+001  -1.011234e+002 
3700000000  -4.587550e+001  -1.007773e+002 
3703125000  -4.550508e+001  -1.092946e+002 
3706250000  -4.641022e+001  -1.114552e+002 
3709375000  -4.515115e+001  -1.139975e+002 
3712500000  -4.363471e+001  -1.137853e+002 
3715625000  -4.243604e+001  -1.253366e+002 
3718750000  -4.195934e+001  -1.326313e+002 
3721875000  -4.160820e+001  -1.410475e+002 
3725000000  -4.178872e+001  -1.461426e+002 
3728125000  -4.171935e+001  -1.512287e+002 
3731250000  -4.076237e+001  -1.566192e+002 
3734375000  -4.033082e+001  -1.624841e+002 
3737500000  -4.097190e+001  -1.756222e+002 
3740625000  -4.103431e+001  1.799703e+002 
3743750000  -4.057206e+001  1.748245e+002 
3746875000  -4.049847e+001  1.681070e+002 
3750000000  -4.096177e+001  1.629676e+002 
3753125000  -4.068725e+001  1.602747e+002 
3756250000  -4.080983e+001  1.560600e+002 
3759375000  -4.066641e+001  1.509923e+002 
3762500000  -4.011643e+001  1.425794e+002 
3765625000  -4.060222e+001  1.394958e+002 
3768750000  -4.034772e+001  1.386753e+002 
3771875000  -3.858417e+001  1.329885e+002 
3775000000  -3.844822e+001  1.217446e+002 
3778125000  -3.900912e+001  1.147957e+002 
3781250000  -3.931092e+001  1.097007e+002 
3784375000  -3.881247e+001  1.050185e+002 
3787500000  -3.840360e+001  9.901152e+001 
3790625000  -3.900631e+001  9.015101e+001 
3793750000  -3.924061e+001  8.642249e+001 
3796875000  -3.839542e+001  8.209635e+001 
3800000000  -3.635444e+001  7.885567e+001 
3803125000  -3.797674e+001  6.361790e+001 
3806250000  -3.890714e+001  5.909230e+001 
3809375000  -3.879572e+001  5.654169e+001 
3812500000  -3.855927e+001  4.683565e+001 
3815625000  -3.937106e+001  3.700401e+001 
3818750000  -4.065287e+001  3.730085e+001 
3821875000  -4.041933e+001  4.698425e+001 
3825000000  -3.844852e+001  4.348370e+001 
3828125000  -3.716281e+001  2.665061e+001 
3831250000  -3.828525e+001  1.063801e+001 
3834375000  -4.026958e+001  1.116127e+001 
3837500000  -4.056139e+001  1.474701e+001 
3840625000  -3.911980e+001  1.334256e+001 
3843750000  -3.830156e+001  -2.062436e+000 
3846875000  -3.962868e+001  -8.548222e+000 
3850000000  -4.088995e+001  -5.004166e+000 
3853125000  -3.980376e+001  -1.910002e+000 
3856250000  -3.981440e+001  -1.045554e+001 
3859375000  -3.903891e+001  -1.695446e+001 
3862500000  -3.872938e+001  -2.730785e+001 
3865625000  -3.891912e+001  -3.155270e+001 
3868750000  -3.873809e+001  -3.409011e+001 
3871875000  -3.817657e+001  -3.976430e+001 
3875000000  -3.848902e+001  -5.127682e+001 
3878125000  -3.961161e+001  -5.213782e+001 
3881250000  -3.908702e+001  -5.282069e+001 
3884375000  -3.877807e+001  -5.969451e+001 
3887500000  -3.908891e+001  -6.645036e+001 
3890625000  -3.931198e+001  -7.195334e+001 
3893750000  -3.983154e+001  -7.394662e+001 
3896875000  -3.976366e+001  -7.519495e+001 
3900000000  -3.972141e+001  -7.936909e+001 
3903125000  -3.948525e+001  -8.506203e+001 
3906250000  -3.879485e+001  -8.792402e+001 
3909375000  -3.810184e+001  -9.542339e+001 
3912500000  -3.902806e+001  -1.062271e+002 
3915625000  -4.045156e+001  -1.057096e+002 
3918750000  -4.006441e+001  -1.064203e+002 
3921875000  -3.933312e+001  -1.115021e+002 
3925000000  -3.853616e+001  -1.168600e+002 
3928125000  -3.816883e+001  -1.266849e+002 
3931250000  -3.891866e+001  -1.338040e+002 
3934375000  -3.963065e+001  -1.342834e+002 
3937500000  -3.968034e+001  -1.363923e+002 
3940625000  -3.998426e+001  -1.405785e+002 
3943750000  -3.903294e+001  -1.388673e+002 
3946875000  -3.839925e+001  -1.483290e+002 
3950000000  -3.937801e+001  -1.592548e+002 
3953125000  -3.998694e+001  -1.579827e+002 
3956250000  -3.872002e+001  -1.598389e+002 
3959375000  -3.761758e+001  -1.639543e+002 
3962500000  -3.771383e+001  -1.731148e+002 
3965625000  -3.772994e+001  1.766763e+002 
3968750000  -3.855843e+001  1.681324e+002 
3971875000  -3.867758e+001  1.629104e+002 
3975000000  -3.825506e+001  1.612482e+002 
3978125000  -3.858422e+001  1.564991e+002 
3981250000  -3.858884e+001  1.493482e+002 
3984375000  -3.896448e+001  1.416958e+002 
3987500000  -3.946257e+001  1.364384e+002 
3990625000  -3.984927e+001  1.385167e+002 
3993750000  -3.979689e+001  1.333006e+002 
3996875000  -3.998168e+001  1.277977e+002 
4000000000  -4.083030e+001  1.210236e+002 
4003125000  -4.107069e+001  1.243529e+002 
4006250000  -3.920149e+001  1.233841e+002 
4009375000  -3.849753e+001  1.090580e+002 
4012500000  -3.993678e+001  1.012976e+002 
4015625000  -4.123085e+001  1.009736e+002 
4018750000  -4.122490e+001  1.002479e+002 
4021875000  -4.074103e+001  9.772372e+001 
4025000000  -4.030123e+001  9.176845e+001 
4028125000  -4.022600e+001  8.404265e+001 
4031250000  -4.104725e+001  8.177125e+001 
4034375000  -4.124933e+001  7.968972e+001 
4037500000  -4.112693e+001  8.078949e+001 
4040625000  -4.059505e+001  7.563032e+001 
4043750000  -4.107103e+001  7.331063e+001 
4046875000  -4.052814e+001  6.982901e+001 
4050000000  -4.044714e+001  6.268009e+001 
4053125000  -4.115196e+001  6.180628e+001 
4056250000  -4.140731e+001  6.540166e+001 
4059375000  -3.937491e+001  6.377915e+001 
4062500000  -3.871136e+001  5.519390e+001 
4065625000  -3.884946e+001  4.975151e+001 
4068750000  -3.818824e+001  4.392099e+001 
4071875000  -3.757721e+001  3.235891e+001 
4075000000  -3.806266e+001  2.591425e+001 
4078125000  -3.851465e+001  2.289448e+001 
4081250000  -3.803111e+001  1.754544e+001 
4084375000  -3.761939e+001  7.942987e+000 
4087500000  -3.813898e+001  2.005928e-001 
4090625000  -3.904453e+001  -1.515368e+000 
4093750000  -3.846742e+001  -3.539976e+000 
4096875000  -3.808261e+001  -1.245137e+001 
4100000000  -3.960154e+001  -1.959871e+001 
4103125000  -4.022683e+001  -1.909613e+001 
4106250000  -3.969557e+001  -1.552136e+001 
4109375000  -3.885673e+001  -1.859918e+001 
4112500000  -3.859340e+001  -2.921408e+001 
4115625000  -3.890713e+001  -3.346125e+001 
4118750000  -3.862218e+001  -3.940506e+001 
4121875000  -3.862351e+001  -4.654117e+001 
4125000000  -3.934525e+001  -5.361228e+001 
4128125000  -4.052072e+001  -5.118904e+001 
4131250000  -3.949451e+001  -4.434276e+001 
4134375000  -3.736917e+001  -5.390432e+001 
4137500000  -3.763720e+001  -7.550169e+001 
4140625000  -4.013849e+001  -8.293601e+001 
4143750000  -4.142593e+001  -7.889200e+001 
4146875000  -4.049166e+001  -7.347920e+001 
4150000000  -3.917588e+001  -8.093142e+001 
4153125000  -3.959942e+001  -8.941637e+001 
4156250000  -4.072043e+001  -9.337605e+001 
4159375000  -4.088809e+001  -8.766972e+001 
4162500000  -3.975657e+001  -8.592495e+001 
4165625000  -3.840129e+001  -9.330893e+001 
4168750000  -3.784649e+001  -1.022574e+002 
4171875000  -3.798490e+001  -1.128943e+002 
4175000000  -3.881935e+001  -1.198254e+002 
4178125000  -3.926346e+001  -1.186272e+002 
4181250000  -3.900371e+001  -1.236170e+002 
4184375000  -3.907686e+001  -1.290070e+002 
4187500000  -3.906359e+001  -1.329050e+002 
4190625000  -3.894918e+001  -1.406545e+002 
4193750000  -4.023483e+001  -1.453796e+002 
4196875000  -4.048913e+001  -1.474452e+002 
4200000000  -4.182805e+001  -1.426524e+002 
4203125000  -4.057210e+001  -1.291832e+002 
4206250000  -3.718280e+001  -1.363644e+002 
4209375000  -3.672433e+001  -1.612421e+002 
4212500000  -3.900342e+001  -1.688993e+002 
4215625000  -3.945134e+001  -1.618697e+002 
4218750000  -3.786522e+001  -1.607710e+002 
4221875000  -3.611797e+001  -1.690226e+002 
4225000000  -3.746341e+001  1.767080e+002 
4228125000  -3.722603e+001  1.789480e+002 
4231250000  -3.607195e+001  1.715348e+002 
4234375000  -3.596527e+001  1.609902e+002 
4237500000  -3.581821e+001  1.537141e+002 
4240625000  -3.606755e+001  1.454151e+002 
4243750000  -3.680385e+001  1.360010e+002 
4246875000  -3.789141e+001  1.353677e+002 
4250000000  -3.779495e+001  1.371015e+002 
4253125000  -3.761539e+001  1.323774e+002 
4256250000  -3.764308e+001  1.279724e+002 
4259375000  -3.726030e+001  1.213690e+002 
4262500000  -3.725709e+001  1.158375e+002 
4265625000  -3.740108e+001  1.138397e+002 
4268750000  -3.659843e+001  1.094640e+002 
4271875000  -3.644682e+001  1.002933e+002 
4275000000  -3.582790e+001  8.925656e+001 
4278125000  -3.692235e+001  7.832271e+001 
4281250000  -3.842326e+001  7.636141e+001 
4284375000  -3.838593e+001  7.327132e+001 
4287500000  -3.988207e+001  6.727382e+001 
4290625000  -4.042689e+001  7.905006e+001 
4293750000  -3.830458e+001  8.037147e+001 
4296875000  -3.757772e+001  6.712025e+001 
4300000000  -3.843693e+001  5.568106e+001 
4303125000  -3.920226e+001  5.924954e+001 
4306250000  -3.816952e+001  6.180950e+001 
4309375000  -3.727135e+001  5.589280e+001 
4312500000  -3.711676e+001  4.394817e+001 
4315625000  -3.737741e+001  3.580271e+001 
4318750000  -3.795388e+001  3.316320e+001 
4321875000  -3.793472e+001  3.264924e+001 
4325000000  -3.750337e+001  3.211845e+001 
4328125000  -3.669851e+001  2.406158e+001 
4331250000  -3.731096e+001  1.209824e+001 
4334375000  -3.764987e+001  6.400229e+000 
4337500000  -3.872477e+001  4.526427e+000 
4340625000  -3.893095e+001  7.606716e+000 
4343750000  -3.831017e+001  7.467720e+000 
4346875000  -3.795010e+001  -2.684202e+000 
4350000000  -3.762498e+001  -9.964543e+000 
4353125000  -3.799740e+001  -1.829337e+001 
4356250000  -4.023871e+001  -1.699940e+001 
4359375000  -3.949614e+001  -2.117408e+000 
4362500000  -3.610277e+001  -8.563344e+000 
4365625000  -3.546729e+001  -2.621359e+001 
4368750000  -3.663950e+001  -3.613039e+001 
4371875000  -3.750039e+001  -3.878801e+001 
4375000000  -3.676434e+001  -3.920670e+001 
4378125000  -3.628626e+001  -4.884851e+001 
4381250000  -3.658763e+001  -5.698717e+001 
4384375000  -3.642249e+001  -6.266225e+001 
4387500000  -3.732141e+001  -6.953298e+001 
4390625000  -3.811394e+001  -6.934579e+001 
4393750000  -3.748001e+001  -6.912665e+001 
4396875000  -3.692334e+001  -7.341462e+001 
4400000000  -3.635910e+001  -8.363515e+001 
4403125000  -3.698511e+001  -9.218150e+001 
4406250000  -3.769487e+001  -9.632673e+001 
4409375000  -3.782726e+001  -1.010197e+002 
4412500000  -3.898249e+001  -1.032834e+002 
4415625000  -3.887094e+001  -9.946403e+001 
