!Agilent Technologies,E8363B,MY43030201,A.06.04.32
!Agilent E8363B: A.06.04.32
!Date: Tuesday, November 11, 2014 21:30:32
!Correction: S21(Response(S21)) 
!S1P File: Measurement: S21:
# Hz S  dB   R 50
3000000000  -4.065912e+001  8.362834e+001 
3003125000  -4.228520e+001  7.623090e+001 
3006250000  -4.214688e+001  7.599175e+001 
3009375000  -4.281761e+001  8.131020e+001 
3012500000  -4.158569e+001  7.284285e+001 
3015625000  -4.151502e+001  6.885015e+001 
3018750000  -4.176564e+001  6.843591e+001 
3021875000  -4.027442e+001  6.955748e+001 
3025000000  -3.896218e+001  6.525853e+001 
3028125000  -3.795673e+001  5.629327e+001 
3031250000  -3.698780e+001  4.384077e+001 
3034375000  -3.684173e+001  3.011217e+001 
3037500000  -3.749918e+001  1.814453e+001 
3040625000  -3.884320e+001  1.345158e+001 
3043750000  -3.916424e+001  7.222896e+000 
3046875000  -3.974663e+001  1.892762e+000 
3050000000  -4.096853e+001  -3.223751e+000 
3053125000  -4.048786e+001  1.196439e+000 
3056250000  -4.038875e+001  4.335555e+000 
3059375000  -3.974119e+001  2.585649e+000 
3062500000  -3.822216e+001  -1.584107e+000 
3065625000  -3.794346e+001  -1.236328e+001 
3068750000  -3.762047e+001  -2.027129e+001 
3071875000  -3.757079e+001  -2.219191e+001 
3075000000  -3.704615e+001  -2.857732e+001 
3078125000  -3.716258e+001  -3.499463e+001 
3081250000  -3.726885e+001  -4.114153e+001 
3084375000  -3.637247e+001  -4.555221e+001 
3087500000  -3.648951e+001  -5.224873e+001 
3090625000  -3.595448e+001  -6.537740e+001 
3093750000  -3.688755e+001  -7.286921e+001 
3096875000  -3.737036e+001  -7.822461e+001 
3100000000  -3.729839e+001  -8.093665e+001 
3103125000  -3.757864e+001  -8.380673e+001 
3106250000  -3.718463e+001  -8.941201e+001 
3109375000  -3.724577e+001  -9.424110e+001 
3112500000  -3.719516e+001  -9.945815e+001 
3115625000  -3.722930e+001  -1.038619e+002 
3118750000  -3.716768e+001  -1.060547e+002 
3121875000  -3.658853e+001  -1.177505e+002 
3125000000  -3.849903e+001  -1.221310e+002 
3128125000  -3.856982e+001  -1.135279e+002 
3131250000  -3.617517e+001  -1.192817e+002 
3134375000  -3.529087e+001  -1.367088e+002 
3137500000  -3.615086e+001  -1.488763e+002 
3140625000  -3.724678e+001  -1.519282e+002 
3143750000  -3.823331e+001  -1.542116e+002 
3146875000  -3.770889e+001  -1.525748e+002 
3150000000  -3.690392e+001  -1.560824e+002 
3153125000  -3.716874e+001  -1.644591e+002 
3156250000  -3.786693e+001  -1.606374e+002 
3159375000  -3.564643e+001  -1.619093e+002 
3162500000  -3.432798e+001  -1.772252e+002 
3165625000  -3.547396e+001  1.696751e+002 
3168750000  -3.542138e+001  1.688105e+002 
3171875000  -3.486449e+001  1.614888e+002 
3175000000  -3.554189e+001  1.525084e+002 
3178125000  -3.502587e+001  1.513234e+002 
3181250000  -3.446824e+001  1.425514e+002 
3184375000  -3.418195e+001  1.306458e+002 
3187500000  -3.548154e+001  1.160050e+002 
3190625000  -3.726944e+001  1.103021e+002 
3193750000  -3.750402e+001  1.159022e+002 
3196875000  -3.733980e+001  1.164101e+002 
3200000000  -3.626765e+001  1.114999e+002 
3203125000  -3.596294e+001  1.032160e+002 
3206250000  -3.615192e+001  9.562375e+001 
3209375000  -3.577163e+001  8.810725e+001 
3212500000  -3.627510e+001  8.122864e+001 
3215625000  -3.600365e+001  7.775426e+001 
3218750000  -3.678325e+001  6.723695e+001 
3221875000  -3.727699e+001  6.073274e+001 
3225000000  -3.695807e+001  5.753895e+001 
3228125000  -3.774474e+001  5.043121e+001 
3231250000  -3.817012e+001  4.672606e+001 
3234375000  -3.790574e+001  4.547931e+001 
3237500000  -3.808939e+001  3.914378e+001 
3240625000  -3.748691e+001  3.506369e+001 
3243750000  -3.782098e+001  2.496115e+001 
3246875000  -3.818411e+001  1.718359e+001 
3250000000  -3.879678e+001  1.362966e+001 
3253125000  -3.913437e+001  9.866712e+000 
3256250000  -3.852392e+001  2.005812e+000 
3259375000  -3.924419e+001  -8.223697e+000 
3262500000  -4.073405e+001  -1.146216e+001 
3265625000  -4.125862e+001  -9.183535e+000 
3268750000  -4.107872e+001  -9.206034e+000 
3271875000  -4.065408e+001  -1.132503e+001 
3275000000  -4.013639e+001  -1.975673e+001 
3278125000  -4.084336e+001  -2.529682e+001 
3281250000  -4.105601e+001  -2.646370e+001 
3284375000  -4.054372e+001  -3.309474e+001 
3287500000  -4.090129e+001  -3.545373e+001 
3290625000  -4.126672e+001  -4.528897e+001 
3293750000  -4.097921e+001  -4.879645e+001 
3296875000  -4.231013e+001  -5.137964e+001 
3300000000  -4.177428e+001  -5.092912e+001 
3303125000  -4.095960e+001  -5.705017e+001 
3306250000  -4.068675e+001  -6.369637e+001 
3309375000  -4.036150e+001  -7.315892e+001 
3312500000  -4.076343e+001  -8.490796e+001 
3315625000  -4.220823e+001  -9.012337e+001 
3318750000  -4.350077e+001  -9.693519e+001 
3321875000  -4.472497e+001  -9.337812e+001 
3325000000  -4.484567e+001  -8.557005e+001 
3328125000  -4.349468e+001  -8.544657e+001 
3331250000  -4.217356e+001  -8.170308e+001 
3334375000  -3.969334e+001  -9.801635e+001 
3337500000  -4.044677e+001  -1.178249e+002 
3340625000  -4.198625e+001  -1.274088e+002 
3343750000  -4.370598e+001  -1.276173e+002 
3346875000  -4.330796e+001  -1.289407e+002 
3350000000  -4.302728e+001  -1.304207e+002 
3353125000  -4.262206e+001  -1.385470e+002 
3356250000  -4.243405e+001  -1.466162e+002 
3359375000  -4.363496e+001  -1.582286e+002 
3362500000  -4.433777e+001  -1.631639e+002 
3365625000  -4.457066e+001  -1.653316e+002 
3368750000  -4.540163e+001  -1.713196e+002 
3371875000  -4.602705e+001  -1.741265e+002 
3375000000  -4.733376e+001  -1.782053e+002 
3378125000  -4.790081e+001  1.796083e+002 
3381250000  -4.943338e+001  -1.701185e+002 
3384375000  -4.728707e+001  -1.543681e+002 
3387500000  -4.390479e+001  -1.738389e+002 
3390625000  -4.585223e+001  1.653542e+002 
3393750000  -4.697820e+001  1.661229e+002 
3396875000  -4.597666e+001  1.652021e+002 
3400000000  -4.584282e+001  1.530908e+002 
3403125000  -4.647485e+001  1.505175e+002 
3406250000  -4.743060e+001  1.447203e+002 
3409375000  -4.766438e+001  1.354128e+002 
3412500000  -4.913687e+001  1.323336e+002 
3415625000  -4.955842e+001  1.286363e+002 
3418750000  -5.046078e+001  1.286494e+002 
3421875000  -5.049531e+001  1.320427e+002 
3425000000  -4.981563e+001  1.324726e+002 
3428125000  -4.992279e+001  1.303376e+002 
3431250000  -5.014365e+001  1.154387e+002 
3434375000  -5.026409e+001  1.161401e+002 
3437500000  -5.130285e+001  1.160113e+002 
3440625000  -5.171284e+001  1.173842e+002 
3443750000  -5.105775e+001  1.178900e+002 
3446875000  -5.066549e+001  1.159715e+002 
3450000000  -4.948020e+001  1.011203e+002 
3453125000  -5.058755e+001  9.274155e+001 
3456250000  -5.143349e+001  9.405193e+001 
3459375000  -5.261478e+001  9.688226e+001 
3462500000  -5.214056e+001  1.013286e+002 
3465625000  -5.086976e+001  8.947642e+001 
3468750000  -5.191168e+001  9.013279e+001 
3471875000  -5.164822e+001  8.635293e+001 
3475000000  -5.142385e+001  8.471958e+001 
3478125000  -5.118272e+001  7.657870e+001 
3481250000  -5.195356e+001  7.586510e+001 
3484375000  -5.210818e+001  8.034924e+001 
3487500000  -5.111892e+001  7.350123e+001 
3490625000  -5.061562e+001  6.423582e+001 
3493750000  -5.143018e+001  5.892479e+001 
3496875000  -5.100385e+001  5.936339e+001 
3500000000  -5.194205e+001  5.952090e+001 
3503125000  -5.095636e+001  5.681670e+001 
3506250000  -5.004521e+001  4.989507e+001 
3509375000  -4.995105e+001  3.689786e+001 
3512500000  -4.957660e+001  2.236057e+001 
3515625000  -5.073040e+001  2.277587e+001 
3518750000  -5.106716e+001  1.938536e+001 
3521875000  -5.134818e+001  1.167939e+001 
3525000000  -5.239375e+001  5.644499e+000 
3528125000  -5.313699e+001  1.927227e+001 
3531250000  -5.125760e+001  1.011294e+001 
3534375000  -5.163773e+001  -3.328019e-001 
3537500000  -5.304940e+001  -1.386688e+001 
3540625000  -5.473283e+001  -1.335831e+001 
3543750000  -5.539528e+001  -1.268448e+001 
3546875000  -5.418917e+001  -8.395706e+000 
3550000000  -5.239996e+001  -7.249639e+000 
3553125000  -5.319400e+001  -2.261110e+001 
3556250000  -5.512564e+001  -2.579033e+001 
3559375000  -5.487409e+001  -2.945512e+001 
3562500000  -5.498846e+001  -2.711813e+001 
3565625000  -5.525668e+001  -4.355429e+001 
3568750000  -5.603404e+001  -2.872272e+001 
3571875000  -5.742160e+001  -3.061912e+001 
3575000000  -5.884183e+001  -4.022408e+001 
3578125000  -5.814983e+001  -4.420523e+001 
3581250000  -5.766906e+001  -2.628125e+001 
3584375000  -5.675578e+001  -2.016855e+001 
3587500000  -5.712315e+001  -3.688434e+001 
3590625000  -6.056488e+001  -5.787103e+001 
3593750000  -6.158608e+001  -4.697192e+001 
3596875000  -6.067229e+001  -3.925359e+001 
3600000000  -5.906743e+001  -3.289254e+001 
3603125000  -5.856991e+001  -5.597128e+001 
3606250000  -5.836887e+001  -4.976487e+001 
3609375000  -5.904626e+001  -3.793294e+001 
3612500000  -5.843753e+001  -4.383809e+001 
3615625000  -5.935079e+001  -5.177568e+001 
3618750000  -6.033486e+001  -5.680308e+001 
3621875000  -5.809184e+001  -4.605085e+001 
3625000000  -5.666462e+001  -3.903240e+001 
3628125000  -5.779250e+001  -2.181375e+001 
3631250000  -5.687780e+001  -4.213456e+001 
3634375000  -5.717772e+001  -4.162776e+001 
3637500000  -5.464645e+001  -2.778032e+001 
3640625000  -5.582896e+001  -3.312418e+001 
3643750000  -5.378092e+001  -3.596730e+001 
3646875000  -5.271002e+001  -4.713231e+001 
3650000000  -5.314518e+001  -4.806279e+001 
3653125000  -5.204843e+001  -5.172571e+001 
3656250000  -5.234275e+001  -5.420840e+001 
3659375000  -5.233085e+001  -5.403033e+001 
3662500000  -5.048533e+001  -5.929648e+001 
3665625000  -4.972976e+001  -6.685738e+001 
3668750000  -4.908526e+001  -5.493125e+001 
3671875000  -4.765580e+001  -7.149705e+001 
3675000000  -4.832253e+001  -8.087711e+001 
3678125000  -4.785999e+001  -8.410717e+001 
3681250000  -4.720485e+001  -9.013969e+001 
3684375000  -4.718932e+001  -9.148940e+001 
3687500000  -4.691796e+001  -9.925472e+001 
3690625000  -4.689627e+001  -1.050766e+002 
3693750000  -4.719773e+001  -1.072905e+002 
3696875000  -4.652383e+001  -1.033591e+002 
3700000000  -4.553044e+001  -1.151677e+002 
3703125000  -4.545915e+001  -1.213310e+002 
3706250000  -4.603802e+001  -1.195021e+002 
3709375000  -4.490329e+001  -1.208893e+002 
3712500000  -4.373137e+001  -1.239377e+002 
3715625000  -4.214205e+001  -1.355519e+002 
3718750000  -4.208062e+001  -1.423408e+002 
3721875000  -4.149908e+001  -1.502068e+002 
3725000000  -4.169808e+001  -1.566797e+002 
3728125000  -4.159591e+001  -1.607386e+002 
3731250000  -4.081623e+001  -1.653069e+002 
3734375000  -3.998264e+001  -1.726487e+002 
3737500000  -4.090744e+001  1.751028e+002 
3740625000  -4.101749e+001  1.703503e+002 
3743750000  -4.059943e+001  1.648537e+002 
3746875000  -4.075172e+001  1.581218e+002 
3750000000  -4.102530e+001  1.526425e+002 
3753125000  -4.057810e+001  1.517649e+002 
3756250000  -4.077110e+001  1.469982e+002 
3759375000  -4.056277e+001  1.419659e+002 
3762500000  -4.020485e+001  1.360339e+002 
3765625000  -4.091822e+001  1.312935e+002 
3768750000  -4.035023e+001  1.300797e+002 
3771875000  -3.859331e+001  1.236979e+002 
3775000000  -3.865498e+001  1.127371e+002 
3778125000  -3.922769e+001  1.057095e+002 
3781250000  -3.886306e+001  1.014849e+002 
3784375000  -3.874963e+001  9.548949e+001 
3787500000  -3.884293e+001  8.824223e+001 
3790625000  -3.917967e+001  8.057591e+001 
3793750000  -3.920561e+001  7.623949e+001 
3796875000  -3.847778e+001  7.317507e+001 
3800000000  -3.635215e+001  6.836849e+001 
3803125000  -3.797033e+001  5.413858e+001 
3806250000  -3.910801e+001  5.089788e+001 
3809375000  -3.831326e+001  4.683704e+001 
3812500000  -3.845866e+001  3.741147e+001 
3815625000  -3.963761e+001  2.875506e+001 
3818750000  -4.076755e+001  2.952320e+001 
3821875000  -4.042337e+001  3.648460e+001 
3825000000  -3.827616e+001  3.581471e+001 
3828125000  -3.694178e+001  1.728791e+001 
3831250000  -3.800666e+001  2.569723e+000 
3834375000  -4.048285e+001  3.707136e+000 
3837500000  -4.086302e+001  5.840761e+000 
3840625000  -3.932952e+001  1.750306e+000 
3843750000  -3.812370e+001  -1.337862e+001 
3846875000  -3.976570e+001  -1.715887e+001 
3850000000  -4.081158e+001  -1.282375e+001 
3853125000  -4.000412e+001  -1.240967e+001 
3856250000  -3.972390e+001  -2.005730e+001 
3859375000  -3.880312e+001  -2.646047e+001 
3862500000  -3.829590e+001  -3.760006e+001 
3865625000  -3.880789e+001  -4.286536e+001 
3868750000  -3.874200e+001  -4.260772e+001 
3871875000  -3.789768e+001  -5.051907e+001 
3875000000  -3.850181e+001  -6.007641e+001 
3878125000  -3.930408e+001  -6.344498e+001 
3881250000  -3.919317e+001  -6.368938e+001 
3884375000  -3.865740e+001  -6.982555e+001 
3887500000  -3.908445e+001  -7.447141e+001 
3890625000  -3.947540e+001  -8.081387e+001 
3893750000  -3.984623e+001  -8.319019e+001 
3896875000  -3.981055e+001  -8.613786e+001 
3900000000  -3.982420e+001  -8.790955e+001 
3903125000  -3.928825e+001  -9.341387e+001 
3906250000  -3.878537e+001  -9.817167e+001 
3909375000  -3.830666e+001  -1.069695e+002 
3912500000  -3.880250e+001  -1.161887e+002 
3915625000  -4.032305e+001  -1.145306e+002 
3918750000  -4.004963e+001  -1.166516e+002 
3921875000  -3.912924e+001  -1.194443e+002 
3925000000  -3.849301e+001  -1.252715e+002 
3928125000  -3.829580e+001  -1.348307e+002 
3931250000  -3.887606e+001  -1.425373e+002 
3934375000  -3.932669e+001  -1.430453e+002 
3937500000  -3.968279e+001  -1.463562e+002 
3940625000  -3.999117e+001  -1.490477e+002 
3943750000  -3.873819e+001  -1.524912e+002 
3946875000  -3.835878e+001  -1.584216e+002 
3950000000  -3.949022e+001  -1.678300e+002 
3953125000  -4.000039e+001  -1.687183e+002 
3956250000  -3.884674e+001  -1.690218e+002 
3959375000  -3.768284e+001  -1.753665e+002 
3962500000  -3.769469e+001  1.771445e+002 
3965625000  -3.759436e+001  1.669822e+002 
3968750000  -3.852166e+001  1.589362e+002 
3971875000  -3.876723e+001  1.552512e+002 
3975000000  -3.831892e+001  1.508233e+002 
3978125000  -3.846892e+001  1.463218e+002 
3981250000  -3.824251e+001  1.396970e+002 
3984375000  -3.888132e+001  1.321191e+002 
3987500000  -3.938735e+001  1.284008e+002 
3990625000  -3.993248e+001  1.274502e+002 
3993750000  -4.015421e+001  1.235422e+002 
3996875000  -3.974615e+001  1.160228e+002 
4000000000  -4.027446e+001  1.136727e+002 
4003125000  -4.117429e+001  1.151190e+002 
4006250000  -3.911861e+001  1.144233e+002 
4009375000  -3.845935e+001  9.881278e+001 
4012500000  -3.996554e+001  9.107829e+001 
4015625000  -4.121969e+001  8.982085e+001 
4018750000  -4.123463e+001  9.150746e+001 
4021875000  -4.045859e+001  8.877477e+001 
4025000000  -4.043586e+001  8.109063e+001 
4028125000  -4.026545e+001  7.389500e+001 
4031250000  -4.123426e+001  7.025681e+001 
4034375000  -4.135784e+001  7.064545e+001 
4037500000  -4.089359e+001  7.095059e+001 
4040625000  -4.101866e+001  6.686736e+001 
4043750000  -4.098222e+001  6.303056e+001 
4046875000  -4.043282e+001  5.855715e+001 
4050000000  -4.016270e+001  5.579677e+001 
4053125000  -4.103850e+001  5.086098e+001 
4056250000  -4.130682e+001  5.646618e+001 
4059375000  -3.944516e+001  5.309168e+001 
4062500000  -3.863916e+001  4.557618e+001 
4065625000  -3.842630e+001  3.899342e+001 
4068750000  -3.795218e+001  3.227313e+001 
4071875000  -3.739972e+001  2.218247e+001 
4075000000  -3.817105e+001  1.604762e+001 
4078125000  -3.833990e+001  1.138893e+001 
4081250000  -3.781502e+001  8.084898e+000 
4084375000  -3.764674e+001  -2.226538e+000 
4087500000  -3.828090e+001  -9.370727e+000 
4090625000  -3.887351e+001  -1.070948e+001 
4093750000  -3.846149e+001  -1.409797e+001 
4096875000  -3.822325e+001  -2.438296e+001 
4100000000  -3.935906e+001  -3.017189e+001 
4103125000  -4.023308e+001  -2.883686e+001 
4106250000  -3.971810e+001  -2.541580e+001 
4109375000  -3.897910e+001  -3.008789e+001 
4112500000  -3.841382e+001  -3.744354e+001 
4115625000  -3.893231e+001  -4.459810e+001 
4118750000  -3.865566e+001  -5.099759e+001 
4121875000  -3.865253e+001  -5.614556e+001 
4125000000  -3.969333e+001  -6.247818e+001 
4128125000  -4.065919e+001  -6.150779e+001 
4131250000  -3.940327e+001  -5.675348e+001 
4134375000  -3.742509e+001  -6.612636e+001 
4137500000  -3.781011e+001  -8.648050e+001 
4140625000  -3.991341e+001  -9.337569e+001 
4143750000  -4.135946e+001  -8.604079e+001 
4146875000  -4.041824e+001  -8.266930e+001 
4150000000  -3.920435e+001  -8.976337e+001 
4153125000  -3.934761e+001  -1.000118e+002 
4156250000  -4.077914e+001  -1.042453e+002 
4159375000  -4.074861e+001  -9.712350e+001 
4162500000  -3.945647e+001  -9.579488e+001 
4165625000  -3.832433e+001  -1.028238e+002 
4168750000  -3.789486e+001  -1.134535e+002 
4171875000  -3.811146e+001  -1.230956e+002 
4175000000  -3.886532e+001  -1.321001e+002 
4178125000  -3.917344e+001  -1.302248e+002 
4181250000  -3.893108e+001  -1.344874e+002 
4184375000  -3.893137e+001  -1.390511e+002 
4187500000  -3.896243e+001  -1.438174e+002 
4190625000  -3.892771e+001  -1.518290e+002 
4193750000  -4.008201e+001  -1.563600e+002 
4196875000  -4.088562e+001  -1.574726e+002 
4200000000  -4.205991e+001  -1.511499e+002 
4203125000  -4.049713e+001  -1.411821e+002 
4206250000  -3.707320e+001  -1.467882e+002 
4209375000  -3.681978e+001  -1.715582e+002 
4212500000  -3.934447e+001  -1.774031e+002 
4215625000  -3.942982e+001  -1.712932e+002 
4218750000  -3.768618e+001  -1.698076e+002 
4221875000  -3.613570e+001  -1.799770e+002 
4225000000  -3.730073e+001  1.683566e+002 
4228125000  -3.731964e+001  1.671722e+002 
4231250000  -3.577138e+001  1.614710e+002 
4234375000  -3.574947e+001  1.507283e+002 
4237500000  -3.558620e+001  1.443687e+002 
4240625000  -3.580630e+001  1.335896e+002 
4243750000  -3.688966e+001  1.256653e+002 
4246875000  -3.793150e+001  1.247578e+002 
4250000000  -3.765268e+001  1.248005e+002 
4253125000  -3.753957e+001  1.220014e+002 
4256250000  -3.768256e+001  1.166824e+002 
4259375000  -3.721133e+001  1.118316e+002 
4262500000  -3.734247e+001  1.044535e+002 
4265625000  -3.757698e+001  1.056541e+002 
4268750000  -3.656960e+001  9.872739e+001 
4271875000  -3.613874e+001  8.771702e+001 
4275000000  -3.597947e+001  7.916708e+001 
4278125000  -3.685454e+001  6.566430e+001 
4281250000  -3.850483e+001  6.565355e+001 
4284375000  -3.822449e+001  6.298294e+001 
4287500000  -3.975701e+001  5.784625e+001 
4290625000  -3.988241e+001  6.832631e+001 
4293750000  -3.817458e+001  7.018616e+001 
4296875000  -3.725208e+001  5.610148e+001 
4300000000  -3.826348e+001  4.551707e+001 
4303125000  -3.901199e+001  4.790048e+001 
4306250000  -3.796136e+001  5.091960e+001 
4309375000  -3.724785e+001  4.502525e+001 
4312500000  -3.717638e+001  3.350714e+001 
4315625000  -3.747205e+001  2.630558e+001 
4318750000  -3.810147e+001  2.241303e+001 
4321875000  -3.785655e+001  2.266129e+001 
4325000000  -3.737357e+001  2.127427e+001 
4328125000  -3.691258e+001  1.287708e+001 
4331250000  -3.691386e+001  1.936800e+000 
4334375000  -3.790958e+001  -5.282036e+000 
4337500000  -3.892075e+001  -7.575520e+000 
4340625000  -3.904873e+001  -8.602592e-001 
4343750000  -3.786684e+001  -5.401172e+000 
4346875000  -3.780399e+001  -1.303563e+001 
4350000000  -3.758956e+001  -2.124202e+001 
4353125000  -3.815004e+001  -3.003840e+001 
4356250000  -4.028585e+001  -2.720893e+001 
4359375000  -3.956525e+001  -1.442186e+001 
4362500000  -3.612312e+001  -1.863525e+001 
4365625000  -3.543869e+001  -3.636223e+001 
4368750000  -3.657600e+001  -4.623172e+001 
4371875000  -3.741316e+001  -4.697050e+001 
4375000000  -3.659714e+001  -5.173487e+001 
4378125000  -3.632061e+001  -5.900309e+001 
4381250000  -3.666008e+001  -6.610738e+001 
4384375000  -3.653788e+001  -7.303110e+001 
4387500000  -3.752278e+001  -8.003295e+001 
4390625000  -3.774007e+001  -7.979562e+001 
4393750000  -3.746667e+001  -7.947643e+001 
4396875000  -3.678261e+001  -8.399393e+001 
4400000000  -3.622536e+001  -9.475069e+001 
4403125000  -3.707952e+001  -1.060648e+002 
4406250000  -3.787984e+001  -1.073175e+002 
4409375000  -3.791103e+001  -1.117757e+002 
4412500000  -3.908401e+001  -1.137480e+002 
4415625000  -3.864618e+001  -1.103664e+002 
