!Agilent Technologies,E8363B,MY43030201,A.06.04.32
!Agilent E8363B: A.06.04.32
!Date: Tuesday, November 11, 2014 21:36:20
!Correction: S21(Response(S21)) 
!S1P File: Measurement: S21:
# Hz S  dB   R 50
3000000000  -4.049588e+001  7.084631e+001 
3003125000  -4.229596e+001  6.436911e+001 
3006250000  -4.212078e+001  6.298999e+001 
3009375000  -4.295274e+001  6.869783e+001 
3012500000  -4.139038e+001  6.249432e+001 
3015625000  -4.134804e+001  5.687529e+001 
3018750000  -4.181489e+001  5.659299e+001 
3021875000  -4.026603e+001  5.702099e+001 
3025000000  -3.888089e+001  5.404039e+001 
3028125000  -3.778130e+001  4.320137e+001 
3031250000  -3.696753e+001  3.146212e+001 
3034375000  -3.678082e+001  1.760473e+001 
3037500000  -3.750772e+001  7.374402e+000 
3040625000  -3.882148e+001  1.431337e+000 
3043750000  -3.928094e+001  -4.458646e+000 
3046875000  -3.983208e+001  -1.111048e+001 
3050000000  -4.096099e+001  -1.497863e+001 
3053125000  -4.076644e+001  -9.584846e+000 
3056250000  -4.041183e+001  -7.409225e+000 
3059375000  -3.973154e+001  -1.051840e+001 
3062500000  -3.822447e+001  -1.409322e+001 
3065625000  -3.783811e+001  -2.457143e+001 
3068750000  -3.751115e+001  -3.224659e+001 
3071875000  -3.760728e+001  -3.389238e+001 
3075000000  -3.704004e+001  -4.101522e+001 
3078125000  -3.707095e+001  -4.759811e+001 
3081250000  -3.718481e+001  -5.290426e+001 
3084375000  -3.632825e+001  -5.846381e+001 
3087500000  -3.644122e+001  -6.475352e+001 
3090625000  -3.587698e+001  -7.660004e+001 
3093750000  -3.691666e+001  -8.473125e+001 
3096875000  -3.725606e+001  -9.104459e+001 
3100000000  -3.719756e+001  -9.358840e+001 
3103125000  -3.755109e+001  -9.711405e+001 
3106250000  -3.720896e+001  -1.031575e+002 
3109375000  -3.718743e+001  -1.055964e+002 
3112500000  -3.719815e+001  -1.120074e+002 
3115625000  -3.716011e+001  -1.158915e+002 
3118750000  -3.721497e+001  -1.193674e+002 
3121875000  -3.649889e+001  -1.303306e+002 
3125000000  -3.854158e+001  -1.329548e+002 
3128125000  -3.847488e+001  -1.251457e+002 
3131250000  -3.602597e+001  -1.324824e+002 
3134375000  -3.540591e+001  -1.493958e+002 
3137500000  -3.595231e+001  -1.610738e+002 
3140625000  -3.730657e+001  -1.645361e+002 
3143750000  -3.832410e+001  -1.668176e+002 
3146875000  -3.766376e+001  -1.646759e+002 
3150000000  -3.675155e+001  -1.689305e+002 
3153125000  -3.720821e+001  -1.772631e+002 
3156250000  -3.798747e+001  -1.724433e+002 
3159375000  -3.562194e+001  -1.738273e+002 
3162500000  -3.414386e+001  1.698799e+002 
3165625000  -3.540671e+001  1.574063e+002 
3168750000  -3.545592e+001  1.561586e+002 
3171875000  -3.488927e+001  1.484519e+002 
3175000000  -3.545633e+001  1.403362e+002 
3178125000  -3.491407e+001  1.383010e+002 
3181250000  -3.450249e+001  1.300489e+002 
3184375000  -3.419761e+001  1.176763e+002 
3187500000  -3.534050e+001  1.034090e+002 
3190625000  -3.721133e+001  9.783136e+001 
3193750000  -3.743096e+001  1.031515e+002 
3196875000  -3.728819e+001  1.036203e+002 
3200000000  -3.608306e+001  9.829237e+001 
3203125000  -3.588777e+001  9.029234e+001 
3206250000  -3.611615e+001  8.358081e+001 
3209375000  -3.580152e+001  7.472402e+001 
3212500000  -3.635759e+001  6.850768e+001 
3215625000  -3.597900e+001  6.616346e+001 
3218750000  -3.688914e+001  5.490742e+001 
3221875000  -3.717458e+001  4.745033e+001 
3225000000  -3.708944e+001  4.393805e+001 
3228125000  -3.779225e+001  3.674221e+001 
3231250000  -3.810664e+001  3.469869e+001 
3234375000  -3.785954e+001  3.078350e+001 
3237500000  -3.803185e+001  2.720623e+001 
3240625000  -3.769528e+001  2.174576e+001 
3243750000  -3.761225e+001  1.138300e+001 
3246875000  -3.825774e+001  4.814317e+000 
3250000000  -3.870846e+001  8.321418e-001 
3253125000  -3.890160e+001  -2.115208e+000 
3256250000  -3.837581e+001  -1.120470e+001 
3259375000  -3.917824e+001  -2.155447e+001 
3262500000  -4.050287e+001  -2.509728e+001 
3265625000  -4.116996e+001  -2.180750e+001 
3268750000  -4.134106e+001  -2.184556e+001 
3271875000  -4.069582e+001  -2.456836e+001 
3275000000  -4.022690e+001  -3.422974e+001 
3278125000  -4.081362e+001  -3.749169e+001 
3281250000  -4.105916e+001  -4.078461e+001 
3284375000  -4.045516e+001  -4.590094e+001 
3287500000  -4.095229e+001  -5.120092e+001 
3290625000  -4.123906e+001  -5.822152e+001 
3293750000  -4.103658e+001  -6.250076e+001 
3296875000  -4.264950e+001  -6.506213e+001 
3300000000  -4.174824e+001  -6.558254e+001 
3303125000  -4.075288e+001  -7.069205e+001 
3306250000  -4.065120e+001  -7.761983e+001 
3309375000  -4.052312e+001  -8.662060e+001 
3312500000  -4.092333e+001  -9.878269e+001 
3315625000  -4.216389e+001  -1.050065e+002 
3318750000  -4.363909e+001  -1.080218e+002 
3321875000  -4.519030e+001  -1.059529e+002 
3325000000  -4.470286e+001  -9.785899e+001 
3328125000  -4.351139e+001  -9.864487e+001 
3331250000  -4.216199e+001  -9.645731e+001 
3334375000  -3.985849e+001  -1.118007e+002 
3337500000  -4.026495e+001  -1.334404e+002 
3340625000  -4.217194e+001  -1.407646e+002 
3343750000  -4.399687e+001  -1.396579e+002 
3346875000  -4.321992e+001  -1.418813e+002 
3350000000  -4.291126e+001  -1.455851e+002 
3353125000  -4.284636e+001  -1.539727e+002 
3356250000  -4.277162e+001  -1.595469e+002 
3359375000  -4.328129e+001  -1.723068e+002 
3362500000  -4.427871e+001  -1.771141e+002 
3365625000  -4.487602e+001  1.791179e+002 
3368750000  -4.517314e+001  1.755417e+002 
3371875000  -4.622120e+001  1.695625e+002 
3375000000  -4.774855e+001  1.667216e+002 
3378125000  -4.818099e+001  1.684669e+002 
3381250000  -5.013850e+001  -1.783791e+002 
3384375000  -4.644013e+001  -1.693607e+002 
3387500000  -4.444890e+001  1.703738e+002 
3390625000  -4.620069e+001  1.491703e+002 
3393750000  -4.667648e+001  1.519919e+002 
3396875000  -4.593801e+001  1.485073e+002 
3400000000  -4.635840e+001  1.381420e+002 
3403125000  -4.669711e+001  1.323978e+002 
3406250000  -4.765738e+001  1.310951e+002 
3409375000  -4.797961e+001  1.206589e+002 
3412500000  -4.854090e+001  1.191486e+002 
3415625000  -4.984374e+001  1.153745e+002 
3418750000  -5.033557e+001  1.191758e+002 
3421875000  -5.073316e+001  1.185409e+002 
3425000000  -4.918111e+001  1.189689e+002 
3428125000  -4.987111e+001  1.134430e+002 
3431250000  -4.949734e+001  1.038209e+002 
3434375000  -5.037946e+001  1.058871e+002 
3437500000  -5.155074e+001  1.005943e+002 
3440625000  -5.196820e+001  1.003555e+002 
3443750000  -4.981268e+001  1.074268e+002 
3446875000  -5.079747e+001  9.813458e+001 
3450000000  -4.965348e+001  8.795564e+001 
3453125000  -5.062572e+001  7.843124e+001 
3456250000  -5.156213e+001  7.975362e+001 
3459375000  -5.264200e+001  8.483024e+001 
3462500000  -5.240493e+001  8.921292e+001 
3465625000  -5.119659e+001  7.384070e+001 
3468750000  -5.160554e+001  7.813084e+001 
3471875000  -5.177160e+001  7.490595e+001 
3475000000  -5.041783e+001  6.989209e+001 
3478125000  -5.063837e+001  5.830577e+001 
3481250000  -5.237346e+001  6.407516e+001 
3484375000  -5.211375e+001  6.191930e+001 
3487500000  -5.180637e+001  5.624162e+001 
3490625000  -5.022058e+001  4.801917e+001 
3493750000  -5.190258e+001  4.396119e+001 
3496875000  -5.110482e+001  4.744099e+001 
3500000000  -5.257762e+001  5.219428e+001 
3503125000  -5.175698e+001  3.855712e+001 
3506250000  -5.018778e+001  3.974002e+001 
3509375000  -4.946780e+001  2.609570e+001 
3512500000  -4.972829e+001  1.299622e+001 
3515625000  -5.120427e+001  8.058735e+000 
3518750000  -5.222856e+001  1.133235e+001 
3521875000  -5.228334e+001  6.771409e-001 
3525000000  -5.377087e+001  -1.281188e+000 
3528125000  -5.206345e+001  5.655446e+000 
3531250000  -5.186676e+001  1.710029e+000 
3534375000  -5.265043e+001  -1.859920e+001 
3537500000  -5.345531e+001  -2.710159e+001 
3540625000  -5.473756e+001  -3.499190e+001 
3543750000  -5.578839e+001  -1.893291e+001 
3546875000  -5.537577e+001  -1.301766e+001 
3550000000  -5.348122e+001  -1.193239e+001 
3553125000  -5.383955e+001  -3.775735e+001 
3556250000  -5.545827e+001  -3.798124e+001 
3559375000  -5.552773e+001  -3.670523e+001 
3562500000  -5.606016e+001  -4.403055e+001 
3565625000  -5.607677e+001  -5.893279e+001 
3568750000  -5.683567e+001  -4.784464e+001 
3571875000  -5.795810e+001  -3.714291e+001 
3575000000  -5.861102e+001  -4.762239e+001 
3578125000  -5.840004e+001  -4.701803e+001 
3581250000  -5.791794e+001  -4.948431e+001 
3584375000  -5.891270e+001  -3.614944e+001 
3587500000  -5.826424e+001  -4.658983e+001 
3590625000  -5.894975e+001  -6.498911e+001 
3593750000  -5.913956e+001  -4.944735e+001 
3596875000  -6.050705e+001  -4.007459e+001 
3600000000  -5.743111e+001  -5.025078e+001 
3603125000  -5.918563e+001  -5.675787e+001 
3606250000  -5.840345e+001  -3.756058e+001 
3609375000  -5.803117e+001  -5.247060e+001 
3612500000  -5.978302e+001  -4.886276e+001 
3615625000  -5.850431e+001  -6.011301e+001 
3618750000  -5.921378e+001  -5.282160e+001 
3621875000  -5.775132e+001  -4.136712e+001 
3625000000  -5.776733e+001  -5.004077e+001 
3628125000  -5.661093e+001  -5.341548e+001 
3631250000  -5.671275e+001  -5.421193e+001 
3634375000  -5.615598e+001  -4.134019e+001 
3637500000  -5.529167e+001  -4.682359e+001 
3640625000  -5.434621e+001  -4.081130e+001 
3643750000  -5.321962e+001  -4.608244e+001 
3646875000  -5.286280e+001  -5.843368e+001 
3650000000  -5.252597e+001  -5.519324e+001 
3653125000  -5.187526e+001  -5.959679e+001 
3656250000  -5.221106e+001  -6.528777e+001 
3659375000  -5.173695e+001  -6.523328e+001 
3662500000  -5.046608e+001  -7.499357e+001 
3665625000  -5.018435e+001  -7.429362e+001 
3668750000  -4.776368e+001  -7.838985e+001 
3671875000  -4.750507e+001  -8.558357e+001 
3675000000  -4.737859e+001  -9.520063e+001 
3678125000  -4.728242e+001  -9.706389e+001 
3681250000  -4.636229e+001  -1.056882e+002 
3684375000  -4.651576e+001  -1.104966e+002 
3687500000  -4.693297e+001  -1.140013e+002 
3690625000  -4.644587e+001  -1.168777e+002 
3693750000  -4.718584e+001  -1.200142e+002 
3696875000  -4.649767e+001  -1.183032e+002 
3700000000  -4.512437e+001  -1.289211e+002 
3703125000  -4.525890e+001  -1.366234e+002 
3706250000  -4.598920e+001  -1.328833e+002 
3709375000  -4.458139e+001  -1.343913e+002 
3712500000  -4.343695e+001  -1.366168e+002 
3715625000  -4.211447e+001  -1.483125e+002 
3718750000  -4.168058e+001  -1.544727e+002 
3721875000  -4.147689e+001  -1.637922e+002 
3725000000  -4.172134e+001  -1.720377e+002 
3728125000  -4.145124e+001  -1.759790e+002 
3731250000  -4.071109e+001  1.795402e+002 
3734375000  -4.025681e+001  1.725572e+002 
3737500000  -4.094933e+001  1.623294e+002 
3740625000  -4.067853e+001  1.577301e+002 
3743750000  -4.056219e+001  1.504185e+002 
3746875000  -4.047235e+001  1.446848e+002 
3750000000  -4.082241e+001  1.395774e+002 
3753125000  -4.056327e+001  1.365225e+002 
3756250000  -4.063472e+001  1.324149e+002 
3759375000  -4.043167e+001  1.276755e+002 
3762500000  -4.013218e+001  1.206692e+002 
3765625000  -4.080539e+001  1.160186e+002 
3768750000  -4.013781e+001  1.175247e+002 
3771875000  -3.854933e+001  1.087464e+002 
3775000000  -3.840186e+001  9.692187e+001 
3778125000  -3.909701e+001  9.153611e+001 
3781250000  -3.887229e+001  8.622121e+001 
3784375000  -3.882296e+001  7.967738e+001 
3787500000  -3.848851e+001  7.521470e+001 
3790625000  -3.928554e+001  6.543294e+001 
3793750000  -3.919668e+001  6.319441e+001 
3796875000  -3.828946e+001  5.742506e+001 
3800000000  -3.641055e+001  5.287333e+001 
3803125000  -3.800281e+001  3.942181e+001 
3806250000  -3.893123e+001  3.489077e+001 
3809375000  -3.834015e+001  3.286066e+001 
3812500000  -3.862027e+001  2.259272e+001 
3815625000  -3.963262e+001  1.271285e+001 
3818750000  -4.091832e+001  1.572709e+001 
3821875000  -4.020568e+001  2.462276e+001 
3825000000  -3.816660e+001  2.200039e+001 
3828125000  -3.709636e+001  1.909864e-001 
3831250000  -3.811107e+001  -1.421973e+001 
3834375000  -4.051361e+001  -1.358125e+001 
3837500000  -4.075684e+001  -9.777420e+000 
3840625000  -3.891504e+001  -1.260960e+001 
3843750000  -3.812333e+001  -2.696440e+001 
3846875000  -3.985489e+001  -3.428548e+001 
3850000000  -4.071258e+001  -2.640478e+001 
3853125000  -4.005939e+001  -2.710789e+001 
3856250000  -3.934679e+001  -3.567708e+001 
3859375000  -3.867132e+001  -4.186179e+001 
3862500000  -3.830453e+001  -5.419506e+001 
3865625000  -3.893861e+001  -5.678454e+001 
3868750000  -3.866593e+001  -5.788764e+001 
3871875000  -3.812074e+001  -6.603175e+001 
3875000000  -3.843527e+001  -7.682796e+001 
3878125000  -3.931505e+001  -7.910850e+001 
3881250000  -3.924670e+001  -7.904632e+001 
3884375000  -3.869192e+001  -8.613290e+001 
3887500000  -3.892222e+001  -9.188038e+001 
3890625000  -3.932159e+001  -9.640964e+001 
3893750000  -3.983607e+001  -9.843489e+001 
3896875000  -3.991677e+001  -1.019032e+002 
3900000000  -3.986136e+001  -1.047831e+002 
3903125000  -3.926322e+001  -1.098330e+002 
3906250000  -3.894513e+001  -1.132263e+002 
3909375000  -3.814051e+001  -1.216922e+002 
3912500000  -3.910311e+001  -1.318543e+002 
3915625000  -4.040202e+001  -1.300759e+002 
3918750000  -3.997307e+001  -1.320561e+002 
3921875000  -3.914086e+001  -1.374820e+002 
3925000000  -3.859276e+001  -1.425983e+002 
3928125000  -3.806828e+001  -1.518542e+002 
3931250000  -3.887704e+001  -1.583336e+002 
3934375000  -3.954527e+001  -1.609181e+002 
3937500000  -4.013329e+001  -1.622085e+002 
3940625000  -3.979147e+001  -1.641662e+002 
3943750000  -3.886760e+001  -1.674536e+002 
3946875000  -3.850903e+001  -1.779910e+002 
3950000000  -3.965428e+001  1.762768e+002 
3953125000  -3.991398e+001  1.760313e+002 
3956250000  -3.872888e+001  1.748713e+002 
3959375000  -3.789613e+001  1.702840e+002 
3962500000  -3.755239e+001  1.604735e+002 
3965625000  -3.760991e+001  1.524766e+002 
3968750000  -3.853172e+001  1.437894e+002 
3971875000  -3.859293e+001  1.376485e+002 
3975000000  -3.829912e+001  1.341720e+002 
3978125000  -3.858733e+001  1.306247e+002 
3981250000  -3.848634e+001  1.239483e+002 
3984375000  -3.886852e+001  1.156579e+002 
3987500000  -3.988585e+001  1.136297e+002 
3990625000  -3.992421e+001  1.117000e+002 
3993750000  -3.998180e+001  1.052809e+002 
3996875000  -3.973467e+001  1.025126e+002 
4000000000  -4.070525e+001  9.807995e+001 
4003125000  -4.106317e+001  9.882308e+001 
4006250000  -3.933697e+001  9.635497e+001 
4009375000  -3.863087e+001  8.113695e+001 
4012500000  -4.007447e+001  7.362572e+001 
4015625000  -4.142977e+001  7.422775e+001 
4018750000  -4.117399e+001  7.532533e+001 
4021875000  -4.065410e+001  7.101077e+001 
4025000000  -4.048829e+001  6.310068e+001 
4028125000  -4.061605e+001  5.834622e+001 
4031250000  -4.080179e+001  5.369967e+001 
4034375000  -4.132700e+001  5.137288e+001 
4037500000  -4.115551e+001  5.307734e+001 
4040625000  -4.095155e+001  4.761736e+001 
4043750000  -4.094044e+001  4.370648e+001 
4046875000  -4.075797e+001  4.017440e+001 
4050000000  -4.042587e+001  3.573927e+001 
4053125000  -4.138768e+001  3.529402e+001 
4056250000  -4.139142e+001  4.022718e+001 
4059375000  -3.946640e+001  3.590330e+001 
4062500000  -3.889868e+001  2.849342e+001 
4065625000  -3.904113e+001  2.088265e+001 
4068750000  -3.826529e+001  1.526790e+001 
4071875000  -3.796159e+001  6.135377e+000 
4075000000  -3.859132e+001  -9.326725e-001 
4078125000  -3.872047e+001  -5.257913e+000 
4081250000  -3.812715e+001  -1.009765e+001 
4084375000  -3.789130e+001  -1.883812e+001 
4087500000  -3.845452e+001  -2.713992e+001 
4090625000  -3.915438e+001  -2.703324e+001 
4093750000  -3.861864e+001  -3.099148e+001 
4096875000  -3.862644e+001  -4.026960e+001 
4100000000  -3.968074e+001  -4.644767e+001 
4103125000  -4.054997e+001  -4.479010e+001 
4106250000  -3.994996e+001  -4.243327e+001 
4109375000  -3.923941e+001  -4.689490e+001 
4112500000  -3.878802e+001  -5.461301e+001 
4115625000  -3.938573e+001  -6.269590e+001 
4118750000  -3.896539e+001  -6.694254e+001 
4121875000  -3.918492e+001  -7.447919e+001 
4125000000  -3.994242e+001  -8.112434e+001 
4128125000  -4.087039e+001  -7.733760e+001 
4131250000  -3.985072e+001  -7.340420e+001 
4134375000  -3.778151e+001  -8.297944e+001 
4137500000  -3.819761e+001  -1.049458e+002 
4140625000  -4.066079e+001  -1.084447e+002 
4143750000  -4.146161e+001  -1.030622e+002 
4146875000  -4.061872e+001  -9.922902e+001 
4150000000  -3.979517e+001  -1.077219e+002 
4153125000  -3.991557e+001  -1.150713e+002 
4156250000  -4.131227e+001  -1.186166e+002 
4159375000  -4.120985e+001  -1.160165e+002 
4162500000  -3.966545e+001  -1.124757e+002 
4165625000  -3.856639e+001  -1.210173e+002 
4168750000  -3.845920e+001  -1.307340e+002 
4171875000  -3.855988e+001  -1.400460e+002 
4175000000  -3.933366e+001  -1.474917e+002 
4178125000  -3.934330e+001  -1.472410e+002 
4181250000  -3.922744e+001  -1.513554e+002 
4184375000  -3.948011e+001  -1.564087e+002 
4187500000  -3.928990e+001  -1.611378e+002 
4190625000  -3.971003e+001  -1.687691e+002 
4193750000  -4.071976e+001  -1.756048e+002 
4196875000  -4.151628e+001  -1.747128e+002 
4200000000  -4.218655e+001  -1.690826e+002 
4203125000  -4.073385e+001  -1.566257e+002 
4206250000  -3.774807e+001  -1.651338e+002 
4209375000  -3.741072e+001  1.704459e+002 
4212500000  -3.963150e+001  1.654760e+002 
4215625000  -3.994117e+001  1.720708e+002 
4218750000  -3.829243e+001  1.740937e+002 
4221875000  -3.659924e+001  1.633640e+002 
4225000000  -3.809084e+001  1.497238e+002 
4228125000  -3.764697e+001  1.517332e+002 
4231250000  -3.647240e+001  1.464298e+002 
4234375000  -3.653049e+001  1.329154e+002 
4237500000  -3.626913e+001  1.293224e+002 
4240625000  -3.632623e+001  1.157516e+002 
4243750000  -3.746911e+001  1.095574e+002 
4246875000  -3.836179e+001  1.080122e+002 
4250000000  -3.829302e+001  1.075377e+002 
4253125000  -3.815572e+001  1.058998e+002 
4256250000  -3.797367e+001  1.008047e+002 
4259375000  -3.758419e+001  9.466505e+001 
4262500000  -3.813906e+001  8.943181e+001 
4265625000  -3.788266e+001  8.646480e+001 
4268750000  -3.696296e+001  7.994170e+001 
4271875000  -3.693130e+001  7.176891e+001 
4275000000  -3.659404e+001  6.390087e+001 
4278125000  -3.783498e+001  5.095604e+001 
4281250000  -3.902828e+001  5.031640e+001 
4284375000  -3.886466e+001  4.698886e+001 
4287500000  -4.056699e+001  4.381591e+001 
4290625000  -4.068971e+001  5.343862e+001 
4293750000  -3.872647e+001  5.395370e+001 
4296875000  -3.772848e+001  4.045211e+001 
4300000000  -3.897345e+001  2.814005e+001 
4303125000  -3.965733e+001  3.475956e+001 
4306250000  -3.857716e+001  3.619302e+001 
4309375000  -3.764908e+001  2.967164e+001 
4312500000  -3.772050e+001  1.838516e+001 
4315625000  -3.801470e+001  1.115731e+001 
4318750000  -3.877159e+001  7.339300e+000 
4321875000  -3.878031e+001  8.150639e+000 
4325000000  -3.804256e+001  5.703703e+000 
4328125000  -3.709278e+001  -3.650510e+000 
4331250000  -3.762273e+001  -1.462347e+001 
4334375000  -3.856148e+001  -2.179897e+001 
4337500000  -3.952111e+001  -2.037894e+001 
4340625000  -3.970405e+001  -1.622151e+001 
4343750000  -3.838089e+001  -1.956263e+001 
4346875000  -3.843337e+001  -3.041403e+001 
4350000000  -3.848109e+001  -3.858934e+001 
4353125000  -3.911712e+001  -4.535857e+001 
4356250000  -4.119014e+001  -3.903204e+001 
4359375000  -3.972086e+001  -2.597641e+001 
4362500000  -3.655540e+001  -3.516682e+001 
4365625000  -3.577349e+001  -5.366861e+001 
4368750000  -3.736280e+001  -6.044969e+001 
4371875000  -3.785147e+001  -6.197467e+001 
4375000000  -3.735287e+001  -6.739701e+001 
4378125000  -3.684224e+001  -7.403797e+001 
4381250000  -3.695845e+001  -8.237682e+001 
4384375000  -3.717539e+001  -8.828321e+001 
4387500000  -3.818723e+001  -9.470429e+001 
4390625000  -3.835942e+001  -9.453333e+001 
4393750000  -3.792329e+001  -9.665207e+001 
4396875000  -3.747813e+001  -9.931956e+001 
4400000000  -3.704528e+001  -1.098913e+002 
4403125000  -3.801611e+001  -1.188260e+002 
4406250000  -3.844145e+001  -1.226524e+002 
4409375000  -3.858917e+001  -1.265443e+002 
4412500000  -3.972219e+001  -1.277529e+002 
4415625000  -3.935229e+001  -1.241294e+002 
