!Agilent Technologies,E8363B,MY43030201,A.06.04.32
!Agilent E8363B: A.06.04.32
!Date: Tuesday, November 11, 2014 21:33:55
!Correction: S21(Response(S21)) 
!S1P File: Measurement: S21:
# Hz S  dB   R 50
3000000000  -4.055531e+001  7.373730e+001 
3003125000  -4.227744e+001  6.502369e+001 
3006250000  -4.209316e+001  6.544190e+001 
3009375000  -4.273901e+001  6.890566e+001 
3012500000  -4.139422e+001  6.572998e+001 
3015625000  -4.152810e+001  5.905855e+001 
3018750000  -4.171904e+001  5.891721e+001 
3021875000  -4.017543e+001  5.952594e+001 
3025000000  -3.891560e+001  5.609911e+001 
3028125000  -3.788108e+001  4.532682e+001 
3031250000  -3.709312e+001  3.419548e+001 
3034375000  -3.684492e+001  1.894559e+001 
3037500000  -3.754792e+001  9.150445e+000 
3040625000  -3.880335e+001  3.462584e+000 
3043750000  -3.912956e+001  -3.926613e+000 
3046875000  -3.988552e+001  -8.877769e+000 
3050000000  -4.093155e+001  -1.402019e+001 
3053125000  -4.056821e+001  -7.874918e+000 
3056250000  -4.058783e+001  -6.218175e+000 
3059375000  -3.971775e+001  -8.080151e+000 
3062500000  -3.825404e+001  -1.143512e+001 
3065625000  -3.800996e+001  -2.207436e+001 
3068750000  -3.762609e+001  -3.005807e+001 
3071875000  -3.754877e+001  -3.148141e+001 
3075000000  -3.695195e+001  -3.958701e+001 
3078125000  -3.710574e+001  -4.539356e+001 
3081250000  -3.724064e+001  -5.146840e+001 
3084375000  -3.641536e+001  -5.600748e+001 
3087500000  -3.646843e+001  -6.269126e+001 
3090625000  -3.587812e+001  -7.547192e+001 
3093750000  -3.697544e+001  -8.298233e+001 
3096875000  -3.721341e+001  -8.778958e+001 
3100000000  -3.725414e+001  -9.120951e+001 
3103125000  -3.746438e+001  -9.411226e+001 
3106250000  -3.725552e+001  -1.001898e+002 
3109375000  -3.734182e+001  -1.034176e+002 
3112500000  -3.722880e+001  -1.096699e+002 
3115625000  -3.709178e+001  -1.134465e+002 
3118750000  -3.716340e+001  -1.173340e+002 
3121875000  -3.654436e+001  -1.276357e+002 
3125000000  -3.852538e+001  -1.312329e+002 
3128125000  -3.848934e+001  -1.228968e+002 
3131250000  -3.616082e+001  -1.305697e+002 
3134375000  -3.546801e+001  -1.468114e+002 
3137500000  -3.617263e+001  -1.600097e+002 
3140625000  -3.745915e+001  -1.620592e+002 
3143750000  -3.820312e+001  -1.640291e+002 
3146875000  -3.769329e+001  -1.628869e+002 
3150000000  -3.679689e+001  -1.668394e+002 
3153125000  -3.723443e+001  -1.754178e+002 
3156250000  -3.790516e+001  -1.709985e+002 
3159375000  -3.557668e+001  -1.721074e+002 
3162500000  -3.422536e+001  1.722029e+002 
3165625000  -3.553313e+001  1.590692e+002 
3168750000  -3.543525e+001  1.586917e+002 
3171875000  -3.495084e+001  1.510444e+002 
3175000000  -3.546300e+001  1.418751e+002 
3178125000  -3.509807e+001  1.400778e+002 
3181250000  -3.439572e+001  1.318726e+002 
3184375000  -3.417709e+001  1.205154e+002 
3187500000  -3.553793e+001  1.058046e+002 
3190625000  -3.724490e+001  9.995997e+001 
3193750000  -3.747772e+001  1.048482e+002 
3196875000  -3.730122e+001  1.066159e+002 
3200000000  -3.621544e+001  1.008372e+002 
3203125000  -3.589286e+001  9.197195e+001 
3206250000  -3.613910e+001  8.488512e+001 
3209375000  -3.568931e+001  7.719646e+001 
3212500000  -3.627549e+001  7.064603e+001 
3215625000  -3.600306e+001  6.781394e+001 
3218750000  -3.694753e+001  5.613633e+001 
3221875000  -3.729649e+001  4.997914e+001 
3225000000  -3.703949e+001  4.609546e+001 
3228125000  -3.768441e+001  3.821526e+001 
3231250000  -3.814906e+001  3.603371e+001 
3234375000  -3.786686e+001  3.299874e+001 
3237500000  -3.806873e+001  2.965318e+001 
3240625000  -3.762550e+001  2.451678e+001 
3243750000  -3.770279e+001  1.388222e+001 
3246875000  -3.826192e+001  6.671759e+000 
3250000000  -3.888641e+001  2.594982e+000 
3253125000  -3.901091e+001  3.395321e-001 
3256250000  -3.853434e+001  -8.777210e+000 
3259375000  -3.918736e+001  -1.873273e+001 
3262500000  -4.084374e+001  -2.345076e+001 
3265625000  -4.113593e+001  -2.088173e+001 
3268750000  -4.132987e+001  -2.016261e+001 
3271875000  -4.060449e+001  -2.316310e+001 
3275000000  -4.014019e+001  -3.167616e+001 
3278125000  -4.086969e+001  -3.695618e+001 
3281250000  -4.116618e+001  -3.731651e+001 
3284375000  -4.070742e+001  -4.360446e+001 
3287500000  -4.108479e+001  -4.816579e+001 
3290625000  -4.116232e+001  -5.540854e+001 
3293750000  -4.110958e+001  -6.027182e+001 
3296875000  -4.246632e+001  -6.239077e+001 
3300000000  -4.173924e+001  -6.100435e+001 
3303125000  -4.084378e+001  -6.829297e+001 
3306250000  -4.068239e+001  -7.551173e+001 
3309375000  -4.046101e+001  -8.284515e+001 
3312500000  -4.099404e+001  -9.597754e+001 
3315625000  -4.239592e+001  -1.032038e+002 
3318750000  -4.355715e+001  -1.055883e+002 
3321875000  -4.499434e+001  -1.028290e+002 
3325000000  -4.468984e+001  -9.431035e+001 
3328125000  -4.406068e+001  -9.588381e+001 
3331250000  -4.193062e+001  -9.272665e+001 
3334375000  -3.995464e+001  -1.089834e+002 
3337500000  -4.033141e+001  -1.305244e+002 
3340625000  -4.234850e+001  -1.386806e+002 
3343750000  -4.393910e+001  -1.389857e+002 
3346875000  -4.353540e+001  -1.399011e+002 
3350000000  -4.301091e+001  -1.431900e+002 
3353125000  -4.286757e+001  -1.499395e+002 
3356250000  -4.246237e+001  -1.575253e+002 
3359375000  -4.364737e+001  -1.682948e+002 
3362500000  -4.416551e+001  -1.730089e+002 
3365625000  -4.483461e+001  -1.798882e+002 
3368750000  -4.556122e+001  1.748887e+002 
3371875000  -4.583514e+001  1.711215e+002 
3375000000  -4.704148e+001  1.700400e+002 
3378125000  -4.821431e+001  1.693925e+002 
3381250000  -4.998883e+001  1.797828e+002 
3384375000  -4.651465e+001  -1.667264e+002 
3387500000  -4.385993e+001  1.714661e+002 
3390625000  -4.595410e+001  1.550132e+002 
3393750000  -4.676769e+001  1.532449e+002 
3396875000  -4.616398e+001  1.518022e+002 
3400000000  -4.627896e+001  1.411470e+002 
3403125000  -4.701678e+001  1.336485e+002 
3406250000  -4.749643e+001  1.349374e+002 
3409375000  -4.793293e+001  1.240929e+002 
3412500000  -4.900357e+001  1.206686e+002 
3415625000  -5.011685e+001  1.159592e+002 
3418750000  -5.016467e+001  1.159778e+002 
3421875000  -5.053851e+001  1.214540e+002 
3425000000  -4.963785e+001  1.191599e+002 
3428125000  -4.980078e+001  1.161315e+002 
3431250000  -5.006910e+001  1.041331e+002 
3434375000  -5.081010e+001  1.060792e+002 
3437500000  -5.220397e+001  1.045030e+002 
3440625000  -5.208298e+001  1.066724e+002 
3443750000  -5.083484e+001  1.097219e+002 
3446875000  -5.031900e+001  1.028267e+002 
3450000000  -4.997079e+001  9.199164e+001 
3453125000  -5.180983e+001  8.110116e+001 
3456250000  -5.164213e+001  8.100275e+001 
3459375000  -5.226080e+001  8.306269e+001 
3462500000  -5.167065e+001  8.348763e+001 
3465625000  -5.147709e+001  8.117255e+001 
3468750000  -5.140838e+001  8.308814e+001 
3471875000  -5.212473e+001  7.750133e+001 
3475000000  -5.078488e+001  7.093391e+001 
3478125000  -5.088948e+001  6.677596e+001 
3481250000  -5.231160e+001  7.013858e+001 
3484375000  -5.180568e+001  6.995689e+001 
3487500000  -5.118062e+001  6.047230e+001 
3490625000  -5.031588e+001  5.823389e+001 
3493750000  -5.087996e+001  4.868787e+001 
3496875000  -5.178794e+001  4.617934e+001 
3500000000  -5.227148e+001  4.864036e+001 
3503125000  -5.110920e+001  4.624417e+001 
3506250000  -4.979797e+001  3.566007e+001 
3509375000  -4.990950e+001  2.190806e+001 
3512500000  -4.996921e+001  1.699654e+001 
3515625000  -5.129654e+001  9.143282e+000 
3518750000  -5.242154e+001  1.528392e+001 
3521875000  -5.298485e+001  1.753511e+000 
3525000000  -5.373465e+001  -1.060385e+000 
3528125000  -5.265819e+001  6.165228e+000 
3531250000  -5.242878e+001  -2.824544e+000 
3534375000  -5.258345e+001  -1.097600e+001 
3537500000  -5.471033e+001  -2.584431e+001 
3540625000  -5.431916e+001  -2.802934e+001 
3543750000  -5.509335e+001  -2.104906e+001 
3546875000  -5.505790e+001  -1.248036e+001 
3550000000  -5.413783e+001  -1.327278e+001 
3553125000  -5.382958e+001  -3.213986e+001 
3556250000  -5.586673e+001  -3.077666e+001 
3559375000  -5.685018e+001  -2.696951e+001 
3562500000  -5.622151e+001  -4.140189e+001 
3565625000  -5.706221e+001  -4.633075e+001 
3568750000  -5.723497e+001  -3.146628e+001 
3571875000  -5.691051e+001  -3.714775e+001 
3575000000  -6.085269e+001  -4.362830e+001 
3578125000  -5.961587e+001  -3.985656e+001 
3581250000  -5.794487e+001  -3.344965e+001 
3584375000  -5.757614e+001  -3.702235e+001 
3587500000  -5.634351e+001  -4.041246e+001 
3590625000  -5.817925e+001  -5.944096e+001 
3593750000  -5.914946e+001  -4.022675e+001 
3596875000  -5.770601e+001  -3.370253e+001 
3600000000  -5.747310e+001  -3.308323e+001 
3603125000  -5.819390e+001  -5.121230e+001 
3606250000  -5.872739e+001  -5.070271e+001 
3609375000  -5.782987e+001  -5.039707e+001 
3612500000  -5.718361e+001  -5.085356e+001 
3615625000  -5.866901e+001  -5.333295e+001 
3618750000  -5.858191e+001  -4.713737e+001 
3621875000  -5.605316e+001  -4.553364e+001 
3625000000  -5.804388e+001  -4.106945e+001 
3628125000  -5.661262e+001  -4.930529e+001 
3631250000  -5.662166e+001  -4.897872e+001 
3634375000  -5.788223e+001  -5.126329e+001 
3637500000  -5.561447e+001  -4.029950e+001 
3640625000  -5.502225e+001  -4.000924e+001 
3643750000  -5.367110e+001  -5.044616e+001 
3646875000  -5.314585e+001  -5.950689e+001 
3650000000  -5.240075e+001  -5.963353e+001 
3653125000  -5.151108e+001  -5.942871e+001 
3656250000  -5.162718e+001  -6.217051e+001 
3659375000  -5.155216e+001  -6.448858e+001 
3662500000  -5.132770e+001  -6.811092e+001 
3665625000  -4.995373e+001  -7.108875e+001 
3668750000  -4.836805e+001  -7.530877e+001 
3671875000  -4.739796e+001  -8.530590e+001 
3675000000  -4.744250e+001  -9.073198e+001 
3678125000  -4.684685e+001  -9.709375e+001 
3681250000  -4.635746e+001  -1.028709e+002 
3684375000  -4.688569e+001  -1.062468e+002 
3687500000  -4.650815e+001  -1.105272e+002 
3690625000  -4.656300e+001  -1.148842e+002 
3693750000  -4.652974e+001  -1.172235e+002 
3696875000  -4.624875e+001  -1.206314e+002 
3700000000  -4.561239e+001  -1.240832e+002 
3703125000  -4.556816e+001  -1.314160e+002 
3706250000  -4.612308e+001  -1.316425e+002 
3709375000  -4.445794e+001  -1.318080e+002 
3712500000  -4.342906e+001  -1.366284e+002 
3715625000  -4.199232e+001  -1.467920e+002 
3718750000  -4.182411e+001  -1.526954e+002 
3721875000  -4.140753e+001  -1.628634e+002 
3725000000  -4.174113e+001  -1.699714e+002 
3728125000  -4.151366e+001  -1.739527e+002 
3731250000  -4.052706e+001  1.798181e+002 
3734375000  -4.007759e+001  1.748219e+002 
3737500000  -4.083044e+001  1.658630e+002 
3740625000  -4.077636e+001  1.597745e+002 
3743750000  -4.047771e+001  1.544776e+002 
3746875000  -4.075216e+001  1.457649e+002 
3750000000  -4.084472e+001  1.406396e+002 
3753125000  -4.051510e+001  1.378610e+002 
3756250000  -4.055352e+001  1.350644e+002 
3759375000  -4.045794e+001  1.292780e+002 
3762500000  -4.031041e+001  1.230740e+002 
3765625000  -4.071538e+001  1.173013e+002 
3768750000  -4.038314e+001  1.200332e+002 
3771875000  -3.844705e+001  1.095619e+002 
3775000000  -3.862283e+001  9.921221e+001 
3778125000  -3.904557e+001  9.381680e+001 
3781250000  -3.898683e+001  8.897218e+001 
3784375000  -3.883819e+001  8.248620e+001 
3787500000  -3.861737e+001  7.591468e+001 
3790625000  -3.915133e+001  6.737840e+001 
3793750000  -3.915397e+001  6.519936e+001 
3796875000  -3.809856e+001  5.927787e+001 
3800000000  -3.654682e+001  5.598645e+001 
3803125000  -3.828822e+001  4.202941e+001 
3806250000  -3.897731e+001  3.874009e+001 
3809375000  -3.852487e+001  3.482648e+001 
3812500000  -3.840765e+001  2.511834e+001 
3815625000  -3.956773e+001  1.603889e+001 
3818750000  -4.071564e+001  1.816827e+001 
3821875000  -4.022233e+001  2.729403e+001 
3825000000  -3.811502e+001  2.270199e+001 
3828125000  -3.709511e+001  4.797080e+000 
3831250000  -3.818868e+001  -1.043303e+001 
3834375000  -4.035967e+001  -1.193382e+001 
3837500000  -4.072902e+001  -8.361895e+000 
3840625000  -3.894028e+001  -1.098464e+001 
3843750000  -3.836249e+001  -2.421086e+001 
3846875000  -3.995871e+001  -3.124426e+001 
3850000000  -4.073814e+001  -2.555582e+001 
3853125000  -3.995896e+001  -2.441212e+001 
3856250000  -3.956608e+001  -3.281435e+001 
3859375000  -3.864745e+001  -4.180909e+001 
3862500000  -3.864397e+001  -5.120045e+001 
3865625000  -3.884315e+001  -5.557544e+001 
3868750000  -3.866013e+001  -5.576806e+001 
3871875000  -3.790256e+001  -6.409562e+001 
3875000000  -3.841443e+001  -7.399711e+001 
3878125000  -3.944250e+001  -7.683086e+001 
3881250000  -3.924680e+001  -7.748325e+001 
3884375000  -3.879212e+001  -8.477760e+001 
3887500000  -3.913717e+001  -9.113677e+001 
3890625000  -3.941183e+001  -9.381345e+001 
3893750000  -4.001318e+001  -9.394846e+001 
3896875000  -4.029676e+001  -9.776682e+001 
3900000000  -3.994183e+001  -1.027936e+002 
3903125000  -3.917291e+001  -1.062405e+002 
3906250000  -3.876633e+001  -1.103472e+002 
3909375000  -3.826135e+001  -1.208601e+002 
3912500000  -3.916728e+001  -1.286680e+002 
3915625000  -4.048341e+001  -1.294335e+002 
3918750000  -3.983038e+001  -1.309412e+002 
3921875000  -3.916738e+001  -1.337262e+002 
3925000000  -3.849261e+001  -1.397184e+002 
3928125000  -3.828049e+001  -1.490005e+002 
3931250000  -3.915066e+001  -1.541411e+002 
3934375000  -3.954617e+001  -1.581454e+002 
3937500000  -4.002407e+001  -1.590395e+002 
3940625000  -3.999983e+001  -1.607704e+002 
3943750000  -3.886344e+001  -1.655308e+002 
3946875000  -3.846286e+001  -1.744193e+002 
3950000000  -3.954359e+001  1.760924e+002 
3953125000  -4.009925e+001  1.789618e+002 
3956250000  -3.869145e+001  1.790274e+002 
3959375000  -3.769272e+001  1.723016e+002 
3962500000  -3.790234e+001  1.640311e+002 
3965625000  -3.774401e+001  1.541189e+002 
3968750000  -3.865363e+001  1.482882e+002 
3971875000  -3.870895e+001  1.407421e+002 
3975000000  -3.826824e+001  1.366183e+002 
3978125000  -3.845866e+001  1.339211e+002 
3981250000  -3.862294e+001  1.273186e+002 
3984375000  -3.884783e+001  1.185017e+002 
3987500000  -3.984119e+001  1.144465e+002 
3990625000  -3.996334e+001  1.142811e+002 
3993750000  -3.993294e+001  1.089657e+002 
3996875000  -3.993843e+001  1.025835e+002 
4000000000  -4.072282e+001  9.977911e+001 
4003125000  -4.103998e+001  1.010314e+002 
4006250000  -3.927347e+001  9.844332e+001 
4009375000  -3.861228e+001  8.442580e+001 
4012500000  -4.037679e+001  7.567248e+001 
4015625000  -4.133299e+001  7.650915e+001 
4018750000  -4.112466e+001  7.499324e+001 
4021875000  -4.071460e+001  7.516624e+001 
4025000000  -4.045710e+001  6.695542e+001 
4028125000  -4.066249e+001  5.990653e+001 
4031250000  -4.119590e+001  5.530017e+001 
4034375000  -4.136388e+001  5.570440e+001 
4037500000  -4.116237e+001  5.642472e+001 
4040625000  -4.078221e+001  5.249480e+001 
4043750000  -4.102799e+001  4.878592e+001 
4046875000  -4.068608e+001  4.561972e+001 
4050000000  -4.064782e+001  3.957468e+001 
4053125000  -4.138949e+001  3.927460e+001 
4056250000  -4.127679e+001  4.395500e+001 
4059375000  -3.955906e+001  3.882431e+001 
4062500000  -3.898760e+001  3.198814e+001 
4065625000  -3.890611e+001  2.582394e+001 
4068750000  -3.797982e+001  1.715033e+001 
4071875000  -3.776949e+001  7.857449e+000 
4075000000  -3.849667e+001  5.949963e-001 
4078125000  -3.877519e+001  -2.515494e+000 
4081250000  -3.801308e+001  -6.918999e+000 
4084375000  -3.805766e+001  -1.663523e+001 
4087500000  -3.868171e+001  -2.247406e+001 
4090625000  -3.921534e+001  -2.510527e+001 
4093750000  -3.884206e+001  -2.850630e+001 
4096875000  -3.889534e+001  -3.808063e+001 
4100000000  -3.965043e+001  -4.462306e+001 
4103125000  -4.049099e+001  -4.273161e+001 
4106250000  -4.022776e+001  -3.911056e+001 
4109375000  -3.918611e+001  -4.417941e+001 
4112500000  -3.873114e+001  -5.242493e+001 
4115625000  -3.925087e+001  -5.915045e+001 
4118750000  -3.908451e+001  -6.322969e+001 
4121875000  -3.894207e+001  -7.170873e+001 
4125000000  -4.001621e+001  -7.748795e+001 
4128125000  -4.076797e+001  -7.712017e+001 
4131250000  -3.996306e+001  -7.173666e+001 
4134375000  -3.755441e+001  -7.848627e+001 
4137500000  -3.821414e+001  -1.017495e+002 
4140625000  -4.057876e+001  -1.072215e+002 
4143750000  -4.156578e+001  -1.000949e+002 
4146875000  -4.050064e+001  -9.614602e+001 
4150000000  -3.964341e+001  -1.044751e+002 
4153125000  -3.986311e+001  -1.129603e+002 
4156250000  -4.145057e+001  -1.186239e+002 
4159375000  -4.101643e+001  -1.119340e+002 
4162500000  -3.989772e+001  -1.095521e+002 
4165625000  -3.884459e+001  -1.162389e+002 
4168750000  -3.847712e+001  -1.285464e+002 
4171875000  -3.843976e+001  -1.380969e+002 
4175000000  -3.922865e+001  -1.441646e+002 
4178125000  -3.927190e+001  -1.443107e+002 
4181250000  -3.910566e+001  -1.482246e+002 
4184375000  -3.958500e+001  -1.523514e+002 
4187500000  -3.946474e+001  -1.591410e+002 
4190625000  -3.952313e+001  -1.648702e+002 
4193750000  -4.072199e+001  -1.719524e+002 
4196875000  -4.134588e+001  -1.728487e+002 
4200000000  -4.272039e+001  -1.654826e+002 
4203125000  -4.100423e+001  -1.514325e+002 
4206250000  -3.723423e+001  -1.631391e+002 
4209375000  -3.731562e+001  1.723903e+002 
4212500000  -3.980466e+001  1.671515e+002 
4215625000  -4.008147e+001  1.733591e+002 
4218750000  -3.820751e+001  1.759736e+002 
4221875000  -3.684167e+001  1.650974e+002 
4225000000  -3.768792e+001  1.555318e+002 
4228125000  -3.787037e+001  1.556163e+002 
4231250000  -3.627800e+001  1.485628e+002 
4234375000  -3.628954e+001  1.369082e+002 
4237500000  -3.613217e+001  1.314178e+002 
4240625000  -3.618214e+001  1.205551e+002 
4243750000  -3.754383e+001  1.120265e+002 
4246875000  -3.847493e+001  1.114247e+002 
4250000000  -3.812949e+001  1.121413e+002 
4253125000  -3.817057e+001  1.078329e+002 
4256250000  -3.788224e+001  1.035378e+002 
4259375000  -3.767054e+001  9.731025e+001 
4262500000  -3.787657e+001  8.985763e+001 
4265625000  -3.805126e+001  9.168307e+001 
4268750000  -3.714824e+001  8.326250e+001 
4271875000  -3.674634e+001  7.278895e+001 
4275000000  -3.665850e+001  6.552391e+001 
4278125000  -3.781667e+001  5.525956e+001 
4281250000  -3.903150e+001  5.183208e+001 
4284375000  -3.877541e+001  4.910559e+001 
4287500000  -4.043256e+001  4.738963e+001 
4290625000  -4.043235e+001  5.823759e+001 
4293750000  -3.862420e+001  5.310254e+001 
4296875000  -3.774090e+001  4.383116e+001 
4300000000  -3.927477e+001  3.349142e+001 
4303125000  -3.973220e+001  3.532063e+001 
4306250000  -3.858095e+001  3.886005e+001 
4309375000  -3.761603e+001  3.285088e+001 
4312500000  -3.756906e+001  2.124414e+001 
4315625000  -3.784867e+001  1.326226e+001 
4318750000  -3.862035e+001  7.582029e+000 
4321875000  -3.886440e+001  8.923155e+000 
4325000000  -3.798858e+001  9.116298e+000 
4328125000  -3.733818e+001  -1.912965e+000 
4331250000  -3.738186e+001  -1.262280e+001 
4334375000  -3.829623e+001  -1.789064e+001 
4337500000  -3.942340e+001  -1.795614e+001 
4340625000  -3.957212e+001  -1.383635e+001 
4343750000  -3.850699e+001  -1.642983e+001 
4346875000  -3.852827e+001  -2.734190e+001 
4350000000  -3.818814e+001  -3.510921e+001 
4353125000  -3.906192e+001  -4.279644e+001 
4356250000  -4.053671e+001  -3.804397e+001 
4359375000  -3.983429e+001  -2.315485e+001 
4362500000  -3.656822e+001  -3.249914e+001 
4365625000  -3.584687e+001  -5.055161e+001 
4368750000  -3.717864e+001  -5.935684e+001 
4371875000  -3.775140e+001  -5.881888e+001 
4375000000  -3.730158e+001  -6.463367e+001 
4378125000  -3.690919e+001  -7.114971e+001 
4381250000  -3.734611e+001  -7.925818e+001 
4384375000  -3.725366e+001  -8.547070e+001 
4387500000  -3.798308e+001  -9.177402e+001 
4390625000  -3.879706e+001  -9.065701e+001 
4393750000  -3.794574e+001  -9.270115e+001 
4396875000  -3.733468e+001  -9.691193e+001 
4400000000  -3.703862e+001  -1.070498e+002 
4403125000  -3.786106e+001  -1.155259e+002 
4406250000  -3.830328e+001  -1.202013e+002 
4409375000  -3.877949e+001  -1.247090e+002 
4412500000  -3.967010e+001  -1.264804e+002 
4415625000  -3.944159e+001  -1.216279e+002 
