!Agilent Technologies,E8363B,MY43030201,A.06.04.32
!Agilent E8363B: A.06.04.32
!Date: Tuesday, November 11, 2014 21:32:56
!Correction: S21(Response(S21)) 
!S1P File: Measurement: S21:
# Hz S  dB   R 50
3000000000  -4.055178e+001  7.526559e+001 
3003125000  -4.215879e+001  6.672710e+001 
3006250000  -4.213708e+001  6.765285e+001 
3009375000  -4.274833e+001  7.168034e+001 
3012500000  -4.147401e+001  6.756219e+001 
3015625000  -4.137132e+001  6.012735e+001 
3018750000  -4.182770e+001  6.171512e+001 
3021875000  -4.005148e+001  6.088873e+001 
3025000000  -3.886927e+001  5.837073e+001 
3028125000  -3.796233e+001  4.759108e+001 
3031250000  -3.702148e+001  3.536003e+001 
3034375000  -3.678469e+001  2.135984e+001 
3037500000  -3.749622e+001  1.100826e+001 
3040625000  -3.870931e+001  6.500396e+000 
3043750000  -3.910324e+001  -7.793468e-001 
3046875000  -3.980328e+001  -6.210705e+000 
3050000000  -4.101833e+001  -9.707952e+000 
3053125000  -4.039414e+001  -6.232384e+000 
3056250000  -4.034940e+001  -2.877925e+000 
3059375000  -3.987229e+001  -6.185582e+000 
3062500000  -3.804795e+001  -1.064252e+001 
3065625000  -3.785366e+001  -1.993197e+001 
3068750000  -3.756403e+001  -2.764142e+001 
3071875000  -3.758769e+001  -3.086275e+001 
3075000000  -3.694830e+001  -3.639600e+001 
3078125000  -3.705370e+001  -4.322786e+001 
3081250000  -3.708537e+001  -4.899119e+001 
3084375000  -3.639378e+001  -5.456430e+001 
3087500000  -3.642429e+001  -6.090588e+001 
3090625000  -3.596294e+001  -7.266972e+001 
3093750000  -3.693919e+001  -8.057261e+001 
3096875000  -3.738414e+001  -8.644992e+001 
3100000000  -3.723531e+001  -8.914915e+001 
3103125000  -3.748845e+001  -9.256342e+001 
3106250000  -3.717462e+001  -9.786106e+001 
3109375000  -3.727249e+001  -1.021780e+002 
3112500000  -3.727125e+001  -1.072840e+002 
3115625000  -3.717909e+001  -1.115580e+002 
3118750000  -3.714401e+001  -1.153172e+002 
3121875000  -3.653917e+001  -1.263515e+002 
3125000000  -3.856273e+001  -1.283846e+002 
3128125000  -3.851251e+001  -1.219327e+002 
3131250000  -3.601223e+001  -1.277201e+002 
3134375000  -3.536158e+001  -1.449807e+002 
3137500000  -3.622415e+001  -1.578432e+002 
3140625000  -3.724776e+001  -1.592195e+002 
3143750000  -3.820246e+001  -1.627066e+002 
3146875000  -3.757860e+001  -1.608289e+002 
3150000000  -3.687474e+001  -1.639981e+002 
3153125000  -3.714943e+001  -1.728640e+002 
3156250000  -3.794075e+001  -1.685125e+002 
3159375000  -3.554615e+001  -1.699359e+002 
3162500000  -3.428467e+001  1.745772e+002 
3165625000  -3.538834e+001  1.618948e+002 
3168750000  -3.546658e+001  1.600842e+002 
3171875000  -3.490280e+001  1.525262e+002 
3175000000  -3.545852e+001  1.436689e+002 
3178125000  -3.508049e+001  1.427265e+002 
3181250000  -3.438592e+001  1.335051e+002 
3184375000  -3.415882e+001  1.217244e+002 
3187500000  -3.557985e+001  1.073898e+002 
3190625000  -3.728163e+001  1.011096e+002 
3193750000  -3.745884e+001  1.060285e+002 
3196875000  -3.728783e+001  1.085677e+002 
3200000000  -3.615462e+001  1.032685e+002 
3203125000  -3.589720e+001  9.399799e+001 
3206250000  -3.618114e+001  8.699842e+001 
3209375000  -3.568466e+001  7.881099e+001 
3212500000  -3.628551e+001  7.308643e+001 
3215625000  -3.610491e+001  6.926292e+001 
3218750000  -3.671696e+001  5.868018e+001 
3221875000  -3.722578e+001  5.146130e+001 
3225000000  -3.702582e+001  4.698046e+001 
3228125000  -3.764270e+001  4.076110e+001 
3231250000  -3.835390e+001  3.958369e+001 
3234375000  -3.794857e+001  3.620995e+001 
3237500000  -3.796774e+001  3.148292e+001 
3240625000  -3.764120e+001  2.619034e+001 
3243750000  -3.763145e+001  1.554735e+001 
3246875000  -3.817756e+001  8.783328e+000 
3250000000  -3.875668e+001  4.457367e+000 
3253125000  -3.903268e+001  1.826154e+000 
3256250000  -3.860852e+001  -7.558944e+000 
3259375000  -3.908601e+001  -1.698584e+001 
3262500000  -4.044115e+001  -2.208566e+001 
3265625000  -4.137598e+001  -1.850718e+001 
3268750000  -4.123828e+001  -1.771400e+001 
3271875000  -4.048881e+001  -2.041983e+001 
3275000000  -4.015127e+001  -2.932891e+001 
3278125000  -4.089396e+001  -3.466582e+001 
3281250000  -4.110592e+001  -3.454762e+001 
3284375000  -4.061314e+001  -4.220446e+001 
3287500000  -4.099726e+001  -4.642450e+001 
3290625000  -4.136006e+001  -5.395482e+001 
3293750000  -4.125471e+001  -5.840291e+001 
3296875000  -4.241458e+001  -6.054956e+001 
3300000000  -4.188436e+001  -6.010956e+001 
3303125000  -4.086232e+001  -6.714320e+001 
3306250000  -4.077045e+001  -7.386021e+001 
3309375000  -4.038419e+001  -8.141280e+001 
3312500000  -4.094110e+001  -9.489111e+001 
3315625000  -4.241629e+001  -1.004353e+002 
3318750000  -4.371874e+001  -1.036967e+002 
3321875000  -4.472765e+001  -1.017055e+002 
3325000000  -4.459530e+001  -9.481293e+001 
3328125000  -4.395255e+001  -9.372557e+001 
3331250000  -4.217444e+001  -9.345959e+001 
3334375000  -3.976010e+001  -1.074307e+002 
3337500000  -4.034240e+001  -1.289396e+002 
3340625000  -4.222671e+001  -1.381857e+002 
3343750000  -4.390529e+001  -1.377964e+002 
3346875000  -4.319464e+001  -1.384024e+002 
3350000000  -4.314980e+001  -1.401092e+002 
3353125000  -4.290477e+001  -1.477555e+002 
3356250000  -4.237881e+001  -1.556410e+002 
3359375000  -4.347245e+001  -1.682320e+002 
3362500000  -4.422818e+001  -1.722542e+002 
3365625000  -4.465818e+001  -1.772253e+002 
3368750000  -4.537101e+001  1.790138e+002 
3371875000  -4.593739e+001  1.749539e+002 
3375000000  -4.737704e+001  1.717755e+002 
3378125000  -4.864663e+001  1.695058e+002 
3381250000  -5.001891e+001  -1.782911e+002 
3384375000  -4.687255e+001  -1.641170e+002 
3387500000  -4.386840e+001  1.759634e+002 
3390625000  -4.603039e+001  1.527738e+002 
3393750000  -4.676645e+001  1.543164e+002 
3396875000  -4.606382e+001  1.526973e+002 
3400000000  -4.653643e+001  1.420371e+002 
3403125000  -4.708800e+001  1.370451e+002 
3406250000  -4.751091e+001  1.334595e+002 
3409375000  -4.759773e+001  1.283458e+002 
3412500000  -4.861063e+001  1.201943e+002 
3415625000  -5.003568e+001  1.200451e+002 
3418750000  -5.080852e+001  1.217356e+002 
3421875000  -5.124426e+001  1.217304e+002 
3425000000  -4.987060e+001  1.216955e+002 
3428125000  -5.032734e+001  1.188810e+002 
3431250000  -4.982575e+001  1.084632e+002 
3434375000  -5.080494e+001  1.015686e+002 
3437500000  -5.126854e+001  1.066342e+002 
3440625000  -5.230815e+001  1.094200e+002 
3443750000  -5.137906e+001  1.085328e+002 
3446875000  -5.069749e+001  1.066405e+002 
3450000000  -4.973735e+001  9.803822e+001 
3453125000  -5.111599e+001  8.215680e+001 
3456250000  -5.140303e+001  8.356555e+001 
3459375000  -5.308984e+001  8.243620e+001 
3462500000  -5.216240e+001  9.047790e+001 
3465625000  -5.146592e+001  8.396944e+001 
3468750000  -5.184725e+001  8.294342e+001 
3471875000  -5.256016e+001  7.910590e+001 
3475000000  -5.101024e+001  7.449767e+001 
3478125000  -5.128040e+001  6.641285e+001 
3481250000  -5.298661e+001  6.756178e+001 
3484375000  -5.245557e+001  7.523655e+001 
3487500000  -5.095678e+001  6.064882e+001 
3490625000  -5.082088e+001  5.778547e+001 
3493750000  -5.204109e+001  5.470569e+001 
3496875000  -5.177677e+001  5.217777e+001 
3500000000  -5.203111e+001  5.278681e+001 
3503125000  -5.122575e+001  5.094274e+001 
3506250000  -4.939871e+001  3.591856e+001 
3509375000  -4.947542e+001  2.522864e+001 
3512500000  -5.013373e+001  1.764570e+001 
3515625000  -5.114024e+001  6.851794e+000 
3518750000  -5.246301e+001  1.498749e+001 
3521875000  -5.245959e+001  6.998940e+000 
3525000000  -5.298386e+001  2.887597e+000 
3528125000  -5.249774e+001  1.297867e+001 
3531250000  -5.190300e+001  -2.490524e+000 
3534375000  -5.272097e+001  -1.248887e+001 
3537500000  -5.363820e+001  -2.517805e+001 
3540625000  -5.488043e+001  -2.287308e+001 
3543750000  -5.481194e+001  -1.492247e+001 
3546875000  -5.649160e+001  -1.015206e+001 
3550000000  -5.443153e+001  -1.130812e+001 
3553125000  -5.426111e+001  -2.831796e+001 
3556250000  -5.581981e+001  -2.123875e+001 
3559375000  -5.580618e+001  -3.213355e+001 
3562500000  -5.530946e+001  -3.983051e+001 
3565625000  -5.628217e+001  -5.294166e+001 
3568750000  -5.787545e+001  -2.556654e+001 
3571875000  -5.877655e+001  -3.032489e+001 
3575000000  -5.876840e+001  -4.567957e+001 
3578125000  -5.873381e+001  -3.855155e+001 
3581250000  -5.838952e+001  -3.814512e+001 
3584375000  -5.808644e+001  -2.355508e+001 
3587500000  -5.816298e+001  -3.269839e+001 
3590625000  -6.001205e+001  -5.453074e+001 
3593750000  -5.790275e+001  -5.375315e+001 
3596875000  -5.838177e+001  -2.747258e+001 
3600000000  -5.763972e+001  -3.280016e+001 
3603125000  -5.841926e+001  -5.790769e+001 
3606250000  -5.814961e+001  -5.445704e+001 
3609375000  -5.672517e+001  -3.893287e+001 
3612500000  -5.707236e+001  -5.131046e+001 
3615625000  -5.948044e+001  -5.192670e+001 
3618750000  -5.955547e+001  -3.455800e+001 
3621875000  -5.637386e+001  -3.836953e+001 
3625000000  -5.835900e+001  -3.406205e+001 
3628125000  -5.598273e+001  -3.506160e+001 
3631250000  -5.736213e+001  -4.211437e+001 
3634375000  -5.713147e+001  -4.302465e+001 
3637500000  -5.610519e+001  -4.477887e+001 
3640625000  -5.471563e+001  -3.448580e+001 
3643750000  -5.295122e+001  -4.319112e+001 
3646875000  -5.284504e+001  -5.306630e+001 
3650000000  -5.276250e+001  -5.985770e+001 
3653125000  -5.297574e+001  -5.324570e+001 
3656250000  -5.151674e+001  -6.022519e+001 
3659375000  -5.073114e+001  -5.808373e+001 
3662500000  -5.039806e+001  -7.331866e+001 
3665625000  -4.992727e+001  -6.557901e+001 
3668750000  -4.834497e+001  -7.179427e+001 
3671875000  -4.736605e+001  -8.271871e+001 
3675000000  -4.775705e+001  -9.432629e+001 
3678125000  -4.800749e+001  -9.156034e+001 
3681250000  -4.666352e+001  -9.799309e+001 
3684375000  -4.690845e+001  -1.069121e+002 
3687500000  -4.673005e+001  -1.092882e+002 
3690625000  -4.671369e+001  -1.149833e+002 
3693750000  -4.676600e+001  -1.154560e+002 
3696875000  -4.623711e+001  -1.183399e+002 
3700000000  -4.512662e+001  -1.236066e+002 
3703125000  -4.521968e+001  -1.280999e+002 
3706250000  -4.558617e+001  -1.247171e+002 
3709375000  -4.490206e+001  -1.292805e+002 
3712500000  -4.334298e+001  -1.341463e+002 
3715625000  -4.209581e+001  -1.446751e+002 
3718750000  -4.173246e+001  -1.501414e+002 
3721875000  -4.135028e+001  -1.611067e+002 
3725000000  -4.170256e+001  -1.663220e+002 
3728125000  -4.145241e+001  -1.694225e+002 
3731250000  -4.055782e+001  -1.762871e+002 
3734375000  -4.023964e+001  1.750955e+002 
3737500000  -4.074474e+001  1.672371e+002 
3740625000  -4.071135e+001  1.638086e+002 
3743750000  -4.042665e+001  1.541947e+002 
3746875000  -4.081847e+001  1.473283e+002 
3750000000  -4.086020e+001  1.430437e+002 
3753125000  -4.073627e+001  1.403832e+002 
3756250000  -4.056325e+001  1.361532e+002 
3759375000  -4.051043e+001  1.300284e+002 
3762500000  -4.020726e+001  1.258054e+002 
3765625000  -4.064632e+001  1.219204e+002 
3768750000  -4.024819e+001  1.226968e+002 
3771875000  -3.846999e+001  1.141873e+002 
3775000000  -3.856590e+001  1.012351e+002 
3778125000  -3.894123e+001  9.472458e+001 
3781250000  -3.897434e+001  9.108226e+001 
3784375000  -3.875105e+001  8.552297e+001 
3787500000  -3.861091e+001  7.937923e+001 
3790625000  -3.922071e+001  6.914405e+001 
3793750000  -3.923705e+001  6.810810e+001 
3796875000  -3.813691e+001  6.198233e+001 
3800000000  -3.647517e+001  5.796324e+001 
3803125000  -3.811671e+001  4.625496e+001 
3806250000  -3.885953e+001  4.033285e+001 
3809375000  -3.857967e+001  3.616502e+001 
3812500000  -3.854309e+001  2.737280e+001 
3815625000  -3.959023e+001  1.846419e+001 
3818750000  -4.085278e+001  1.927887e+001 
3821875000  -4.016044e+001  3.002093e+001 
3825000000  -3.821921e+001  2.547296e+001 
3828125000  -3.696643e+001  7.039099e+000 
3831250000  -3.835216e+001  -7.210718e+000 
3834375000  -4.034967e+001  -9.159056e+000 
3837500000  -4.061180e+001  -6.222496e+000 
3840625000  -3.896136e+001  -6.598375e+000 
3843750000  -3.834345e+001  -2.351862e+001 
3846875000  -4.003797e+001  -2.754251e+001 
3850000000  -4.074695e+001  -2.236935e+001 
3853125000  -4.011210e+001  -2.439566e+001 
3856250000  -3.922401e+001  -3.039552e+001 
3859375000  -3.873066e+001  -3.821944e+001 
3862500000  -3.855839e+001  -4.858585e+001 
3865625000  -3.901281e+001  -5.322335e+001 
3868750000  -3.871170e+001  -5.416381e+001 
3871875000  -3.798247e+001  -6.146472e+001 
3875000000  -3.841965e+001  -7.026717e+001 
3878125000  -3.945275e+001  -7.380592e+001 
3881250000  -3.929004e+001  -7.295300e+001 
3884375000  -3.867743e+001  -8.155087e+001 
3887500000  -3.921739e+001  -8.598342e+001 
3890625000  -3.937180e+001  -9.040692e+001 
3893750000  -3.989500e+001  -9.396242e+001 
3896875000  -4.009363e+001  -9.648772e+001 
3900000000  -3.986443e+001  -9.943215e+001 
3903125000  -3.931947e+001  -1.052025e+002 
3906250000  -3.907108e+001  -1.092803e+002 
3909375000  -3.815110e+001  -1.180679e+002 
3912500000  -3.914367e+001  -1.257360e+002 
3915625000  -4.051622e+001  -1.254529e+002 
3918750000  -3.998559e+001  -1.280464e+002 
3921875000  -3.922859e+001  -1.333022e+002 
3925000000  -3.862734e+001  -1.368799e+002 
3928125000  -3.832557e+001  -1.468554e+002 
3931250000  -3.918517e+001  -1.542991e+002 
3934375000  -3.943948e+001  -1.553146e+002 
3937500000  -4.011105e+001  -1.576381e+002 
3940625000  -4.001445e+001  -1.601980e+002 
3943750000  -3.892371e+001  -1.626450e+002 
3946875000  -3.866205e+001  -1.729349e+002 
3950000000  -3.947523e+001  1.788000e+002 
3953125000  -4.030506e+001  -1.781977e+002 
3956250000  -3.896436e+001  1.791931e+002 
3959375000  -3.780959e+001  1.723447e+002 
3962500000  -3.780922e+001  1.667968e+002 
3965625000  -3.791604e+001  1.560947e+002 
3968750000  -3.871228e+001  1.483976e+002 
3971875000  -3.864516e+001  1.451034e+002 
3975000000  -3.839923e+001  1.395625e+002 
3978125000  -3.867574e+001  1.359260e+002 
3981250000  -3.838024e+001  1.286218e+002 
3984375000  -3.896233e+001  1.217526e+002 
3987500000  -3.961791e+001  1.176162e+002 
3990625000  -4.006516e+001  1.170053e+002 
3993750000  -3.977303e+001  1.106303e+002 
3996875000  -3.987638e+001  1.066892e+002 
4000000000  -4.077641e+001  1.039381e+002 
4003125000  -4.113828e+001  1.035439e+002 
4006250000  -3.932057e+001  1.032194e+002 
4009375000  -3.900241e+001  8.746996e+001 
4012500000  -4.045289e+001  8.062401e+001 
4015625000  -4.147857e+001  7.672925e+001 
4018750000  -4.149520e+001  8.037102e+001 
4021875000  -4.090345e+001  7.744627e+001 
4025000000  -4.049936e+001  7.160963e+001 
4028125000  -4.004512e+001  6.283416e+001 
4031250000  -4.113268e+001  5.853226e+001 
4034375000  -4.141528e+001  5.916578e+001 
4037500000  -4.122816e+001  5.924496e+001 
4040625000  -4.107712e+001  5.376981e+001 
4043750000  -4.113788e+001  5.077731e+001 
4046875000  -4.076725e+001  4.813389e+001 
4050000000  -4.058767e+001  4.260025e+001 
4053125000  -4.152404e+001  4.166798e+001 
4056250000  -4.137054e+001  4.578659e+001 
4059375000  -3.944537e+001  3.980740e+001 
4062500000  -3.898868e+001  3.266982e+001 
4065625000  -3.871280e+001  2.867496e+001 
4068750000  -3.821488e+001  1.966521e+001 
4071875000  -3.776385e+001  1.054455e+001 
4075000000  -3.852074e+001  2.410298e+000 
4078125000  -3.866442e+001  -7.473350e-001 
4081250000  -3.815113e+001  -3.862212e+000 
4084375000  -3.805871e+001  -1.462665e+001 
4087500000  -3.874921e+001  -2.067683e+001 
4090625000  -3.923130e+001  -2.228351e+001 
4093750000  -3.862740e+001  -2.601343e+001 
4096875000  -3.873382e+001  -3.627757e+001 
4100000000  -3.958316e+001  -4.160840e+001 
4103125000  -4.063515e+001  -3.876018e+001 
4106250000  -3.990996e+001  -3.611349e+001 
4109375000  -3.916814e+001  -4.066586e+001 
4112500000  -3.856432e+001  -5.080303e+001 
4115625000  -3.920117e+001  -5.598592e+001 
4118750000  -3.900698e+001  -6.102077e+001 
4121875000  -3.897145e+001  -6.969633e+001 
4125000000  -3.987326e+001  -7.578181e+001 
4128125000  -4.120787e+001  -7.376649e+001 
4131250000  -3.968750e+001  -6.602264e+001 
4134375000  -3.756443e+001  -7.726785e+001 
4137500000  -3.807247e+001  -9.740586e+001 
4140625000  -4.021560e+001  -1.042775e+002 
4143750000  -4.169709e+001  -9.844633e+001 
4146875000  -4.064326e+001  -9.406607e+001 
4150000000  -3.961190e+001  -1.018881e+002 
4153125000  -3.992672e+001  -1.101046e+002 
4156250000  -4.121193e+001  -1.152230e+002 
4159375000  -4.109439e+001  -1.097167e+002 
4162500000  -4.023560e+001  -1.077754e+002 
4165625000  -3.877052e+001  -1.142059e+002 
4168750000  -3.853833e+001  -1.253176e+002 
4171875000  -3.818053e+001  -1.343719e+002 
4175000000  -3.936755e+001  -1.399373e+002 
4178125000  -3.978574e+001  -1.403003e+002 
4181250000  -3.923304e+001  -1.456093e+002 
4184375000  -3.944165e+001  -1.500417e+002 
4187500000  -3.939516e+001  -1.561741e+002 
4190625000  -3.939566e+001  -1.623306e+002 
4193750000  -4.067245e+001  -1.697342e+002 
4196875000  -4.160289e+001  -1.686033e+002 
4200000000  -4.263880e+001  -1.627038e+002 
4203125000  -4.092987e+001  -1.503704e+002 
4206250000  -3.737149e+001  -1.598738e+002 
4209375000  -3.751639e+001  1.773661e+002 
4212500000  -3.943504e+001  1.705572e+002 
4215625000  -4.029957e+001  1.777292e+002 
4218750000  -3.825163e+001  1.781366e+002 
4221875000  -3.666825e+001  1.681465e+002 
4225000000  -3.781448e+001  1.567855e+002 
4228125000  -3.781335e+001  1.571297e+002 
4231250000  -3.623793e+001  1.503377e+002 
4234375000  -3.638702e+001  1.388185e+002 
4237500000  -3.613997e+001  1.341725e+002 
4240625000  -3.624580e+001  1.214263e+002 
4243750000  -3.774432e+001  1.150062e+002 
4246875000  -3.865218e+001  1.132842e+002 
4250000000  -3.818753e+001  1.140005e+002 
4253125000  -3.816903e+001  1.115066e+002 
4256250000  -3.791359e+001  1.063998e+002 
4259375000  -3.764376e+001  1.014423e+002 
4262500000  -3.793939e+001  9.523357e+001 
4265625000  -3.795539e+001  9.573267e+001 
4268750000  -3.690713e+001  8.655901e+001 
4271875000  -3.690006e+001  7.706632e+001 
4275000000  -3.669122e+001  6.857205e+001 
4278125000  -3.760639e+001  5.689069e+001 
4281250000  -3.905763e+001  5.605173e+001 
4284375000  -3.892926e+001  5.341769e+001 
4287500000  -4.056050e+001  5.049675e+001 
4290625000  -4.048576e+001  6.035992e+001 
4293750000  -3.863890e+001  5.789895e+001 
4296875000  -3.768835e+001  4.610111e+001 
4300000000  -3.918862e+001  3.460466e+001 
4303125000  -3.967250e+001  4.005497e+001 
4306250000  -3.860833e+001  4.172934e+001 
4309375000  -3.777149e+001  3.541323e+001 
4312500000  -3.754096e+001  2.462823e+001 
4315625000  -3.777139e+001  1.589179e+001 
4318750000  -3.864974e+001  1.381512e+001 
4321875000  -3.854726e+001  1.337518e+001 
4325000000  -3.772439e+001  1.165928e+001 
4328125000  -3.730951e+001  9.245282e-001 
4331250000  -3.723368e+001  -8.922255e+000 
4334375000  -3.838866e+001  -1.639761e+001 
4337500000  -3.939342e+001  -1.708815e+001 
4340625000  -3.928381e+001  -1.073608e+001 
4343750000  -3.844742e+001  -1.604348e+001 
4346875000  -3.806612e+001  -2.486561e+001 
4350000000  -3.815570e+001  -3.208795e+001 
4353125000  -3.904617e+001  -3.866145e+001 
4356250000  -4.100298e+001  -3.338229e+001 
4359375000  -4.002107e+001  -2.198776e+001 
4362500000  -3.619871e+001  -2.760560e+001 
4365625000  -3.576085e+001  -4.678769e+001 
4368750000  -3.717688e+001  -5.609659e+001 
4371875000  -3.768353e+001  -5.704461e+001 
4375000000  -3.708305e+001  -6.029081e+001 
4378125000  -3.661031e+001  -6.885927e+001 
4381250000  -3.698618e+001  -7.556022e+001 
4384375000  -3.696384e+001  -8.133678e+001 
4387500000  -3.810318e+001  -8.816455e+001 
4390625000  -3.846745e+001  -8.904852e+001 
4393750000  -3.796820e+001  -8.951016e+001 
4396875000  -3.726944e+001  -9.581256e+001 
4400000000  -3.670685e+001  -1.036938e+002 
4403125000  -3.786622e+001  -1.130944e+002 
4406250000  -3.794761e+001  -1.165511e+002 
4409375000  -3.863978e+001  -1.203869e+002 
4412500000  -3.957952e+001  -1.238655e+002 
4415625000  -3.934527e+001  -1.204453e+002 
