!Agilent Technologies,E8363B,MY43030201,A.06.04.32
!Agilent E8363B: A.06.04.32
!Date: Tuesday, November 11, 2014 22:11:22
!Correction: S21(Response(S21)) 
!S1P File: Measurement: S21:
# Hz S  dB   R 50
3000000000  -4.874851e+001  -7.424740e+001 
3003125000  -5.197913e+001  -8.543595e+001 
3006250000  -5.163932e+001  -8.966199e+001 
3009375000  -5.223818e+001  -9.129012e+001 
3012500000  -5.087619e+001  -9.804778e+001 
3015625000  -5.150277e+001  -1.064029e+002 
3018750000  -5.129486e+001  -1.147104e+002 
3021875000  -4.974275e+001  -1.202669e+002 
3025000000  -4.841220e+001  -1.307783e+002 
3028125000  -4.806223e+001  -1.441885e+002 
3031250000  -4.714679e+001  -1.642323e+002 
3034375000  -4.682477e+001  1.788052e+002 
3037500000  -4.800872e+001  1.667425e+002 
3040625000  -4.927742e+001  1.497564e+002 
3043750000  -4.984277e+001  1.418195e+002 
3046875000  -5.087067e+001  1.301695e+002 
3050000000  -5.159531e+001  1.238829e+002 
3053125000  -5.144683e+001  1.202201e+002 
3056250000  -5.129747e+001  1.223373e+002 
3059375000  -5.025746e+001  1.094339e+002 
3062500000  -4.966460e+001  9.977309e+001 
3065625000  -4.886427e+001  8.779240e+001 
3068750000  -4.914959e+001  7.485918e+001 
3071875000  -4.920713e+001  6.895158e+001 
3075000000  -4.843238e+001  5.565351e+001 
3078125000  -4.837148e+001  4.648394e+001 
3081250000  -4.865927e+001  3.552221e+001 
3084375000  -4.813369e+001  2.120172e+001 
3087500000  -4.810868e+001  1.120239e+001 
3090625000  -4.795390e+001  -4.864505e+000 
3093750000  -4.911614e+001  -1.625993e+001 
3096875000  -5.007454e+001  -2.824208e+001 
3100000000  -4.948434e+001  -3.405947e+001 
3103125000  -4.995039e+001  -3.789396e+001 
3106250000  -4.902882e+001  -5.199087e+001 
3109375000  -5.024854e+001  -6.369852e+001 
3112500000  -4.924855e+001  -7.073093e+001 
3115625000  -4.928948e+001  -8.203656e+001 
3118750000  -4.998460e+001  -8.637532e+001 
3121875000  -4.911230e+001  -9.915402e+001 
3125000000  -5.086691e+001  -1.043554e+002 
3128125000  -5.096809e+001  -1.100079e+002 
3131250000  -4.826013e+001  -1.155599e+002 
3134375000  -4.750304e+001  -1.405877e+002 
3137500000  -4.915033e+001  -1.601953e+002 
3140625000  -4.971252e+001  -1.630806e+002 
3143750000  -5.098283e+001  -1.709493e+002 
3146875000  -4.966164e+001  -1.739171e+002 
3150000000  -4.961311e+001  1.791642e+002 
3153125000  -4.921865e+001  1.646699e+002 
3156250000  -5.015299e+001  1.607329e+002 
3159375000  -4.813364e+001  1.600064e+002 
3162500000  -4.620691e+001  1.336255e+002 
3165625000  -4.803276e+001  1.188940e+002 
3168750000  -4.766108e+001  1.158555e+002 
3171875000  -4.732962e+001  1.008881e+002 
3175000000  -4.761839e+001  8.498952e+001 
3178125000  -4.738804e+001  8.137389e+001 
3181250000  -4.676521e+001  6.683920e+001 
3184375000  -4.672551e+001  5.304756e+001 
3187500000  -4.757152e+001  3.599598e+001 
3190625000  -4.915431e+001  2.056090e+001 
3193750000  -4.980130e+001  2.078624e+001 
3196875000  -4.954927e+001  1.835610e+001 
3200000000  -4.854963e+001  5.560394e+000 
3203125000  -4.847843e+001  -6.926576e+000 
3206250000  -4.862171e+001  -1.637807e+001 
3209375000  -4.808976e+001  -3.369711e+001 
3212500000  -4.845193e+001  -4.088527e+001 
3215625000  -4.858504e+001  -4.802713e+001 
3218750000  -4.887578e+001  -6.846328e+001 
3221875000  -4.990637e+001  -7.853236e+001 
3225000000  -4.968060e+001  -8.905489e+001 
3228125000  -5.009940e+001  -9.321464e+001 
3231250000  -5.037687e+001  -1.052847e+002 
3234375000  -4.990862e+001  -1.099402e+002 
3237500000  -5.070906e+001  -1.200263e+002 
3240625000  -5.025897e+001  -1.307805e+002 
3243750000  -4.955172e+001  -1.449254e+002 
3246875000  -5.059173e+001  -1.568727e+002 
3250000000  -5.082599e+001  -1.694695e+002 
3253125000  -5.137248e+001  -1.740459e+002 
3256250000  -5.034932e+001  1.748576e+002 
3259375000  -5.139851e+001  1.536740e+002 
3262500000  -5.303846e+001  1.507880e+002 
3265625000  -5.321376e+001  1.486550e+002 
3268750000  -5.373233e+001  1.349323e+002 
3271875000  -5.235614e+001  1.356196e+002 
3275000000  -5.233384e+001  1.242273e+002 
3278125000  -5.249881e+001  1.108988e+002 
3281250000  -5.326152e+001  1.074482e+002 
3284375000  -5.170119e+001  9.250417e+001 
3287500000  -5.378245e+001  8.158967e+001 
3290625000  -5.266381e+001  6.596176e+001 
3293750000  -5.315656e+001  6.133237e+001 
3296875000  -5.455772e+001  5.437455e+001 
3300000000  -5.468371e+001  4.979797e+001 
3303125000  -5.221766e+001  4.007152e+001 
3306250000  -5.337996e+001  1.800334e+001 
3309375000  -5.240582e+001  1.728716e+001 
3312500000  -5.322823e+001  -1.874484e+000 
3315625000  -5.484489e+001  -1.338680e+001 
3318750000  -5.537213e+001  -2.081194e+001 
3321875000  -5.862823e+001  -1.427323e+001 
3325000000  -5.672781e+001  -2.226840e+001 
3328125000  -5.746480e+001  -2.601829e+001 
3331250000  -5.274277e+001  -2.918456e+001 
3334375000  -5.196196e+001  -4.644263e+001 
3337500000  -5.148863e+001  -7.573450e+001 
3340625000  -5.495605e+001  -8.741703e+001 
3343750000  -5.627278e+001  -8.803771e+001 
3346875000  -5.500820e+001  -9.859782e+001 
3350000000  -5.449925e+001  -1.036676e+002 
3353125000  -5.447495e+001  -1.168336e+002 
3356250000  -5.491964e+001  -1.291635e+002 
3359375000  -5.436798e+001  -1.439335e+002 
3362500000  -5.693979e+001  -1.568938e+002 
3365625000  -5.593989e+001  -1.651674e+002 
3368750000  -5.683816e+001  -1.735194e+002 
3371875000  -5.661877e+001  1.724169e+002 
3375000000  -5.853641e+001  1.699470e+002 
3378125000  -5.964668e+001  1.600748e+002 
3381250000  -5.879609e+001  1.759813e+002 
3384375000  -5.642571e+001  1.680199e+002 
3387500000  -5.409177e+001  1.563144e+002 
3390625000  -5.509530e+001  1.284397e+002 
3393750000  -5.735398e+001  1.132047e+002 
3396875000  -5.683434e+001  1.101104e+002 
3400000000  -5.550817e+001  8.950928e+001 
3403125000  -5.754343e+001  8.907677e+001 
3406250000  -5.703281e+001  7.310322e+001 
3409375000  -5.767381e+001  5.480028e+001 
3412500000  -5.790979e+001  5.288980e+001 
3415625000  -5.927915e+001  3.665561e+001 
3418750000  -5.930719e+001  3.388909e+001 
3421875000  -6.035757e+001  3.552155e+001 
3425000000  -6.077213e+001  3.629554e+001 
3428125000  -5.941089e+001  1.145298e+001 
3431250000  -6.013555e+001  -1.464293e+000 
3434375000  -5.987645e+001  -2.504735e+001 
3437500000  -6.209967e+001  -1.879984e+001 
3440625000  -6.129679e+001  -2.685985e+001 
3443750000  -6.074092e+001  -2.306307e+001 
3446875000  -6.158091e+001  -6.530134e+001 
3450000000  -6.035196e+001  -7.086989e+001 
3453125000  -6.217908e+001  -7.201234e+001 
3456250000  -6.725224e+001  -9.450868e+001 
3459375000  -6.348576e+001  -8.187286e+001 
3462500000  -6.446413e+001  -1.079642e+002 
3465625000  -6.685225e+001  -9.654712e+001 
3468750000  -6.591655e+001  -1.358169e+002 
3471875000  -6.678648e+001  -8.514684e+001 
3475000000  -6.658719e+001  -1.211310e+002 
3478125000  -6.991148e+001  -1.006522e+002 
3481250000  -7.177856e+001  -1.743990e+002 
3484375000  -6.803109e+001  -1.281401e+002 
3487500000  -6.776757e+001  -1.426088e+002 
3490625000  -6.512885e+001  -1.483991e+002 
3493750000  -7.222203e+001  -1.380083e+002 
3496875000  -6.905475e+001  -1.503623e+002 
3500000000  -6.456270e+001  -1.494349e+002 
3503125000  -6.555850e+001  -1.148305e+002 
3506250000  -6.364187e+001  -1.754420e+002 
3509375000  -6.388765e+001  -1.737288e+002 
3512500000  -6.792294e+001  1.452812e+002 
3515625000  -6.913212e+001  1.601221e+002 
3518750000  -6.921614e+001  1.117762e+002 
3521875000  -6.497074e+001  1.147129e+002 
3525000000  -6.318789e+001  1.041155e+002 
3528125000  -7.609528e+001  7.206496e+001 
3531250000  -6.848103e+001  1.141810e+002 
3534375000  -6.620893e+001  9.375532e+001 
3537500000  -6.604166e+001  8.022955e+001 
3540625000  -7.520351e+001  5.107040e+001 
3543750000  -7.210033e+001  1.095519e+002 
3546875000  -7.586257e+001  7.307986e+001 
3550000000  -6.888059e+001  1.062381e+002 
3553125000  -6.891816e+001  2.340762e+000 
3556250000  -7.354976e+001  3.796834e+001 
3559375000  -6.561374e+001  9.000413e-001 
3562500000  -7.505591e+001  1.260704e+001 
3565625000  -7.118907e+001  -7.268298e+000 
3568750000  -6.832749e+001  1.401196e+002 
3571875000  -7.010939e+001  7.304562e+001 
3575000000  -6.528841e+001  -1.023330e+000 
3578125000  -7.020611e+001  5.705552e+001 
3581250000  -7.437838e+001  4.474981e+001 
3584375000  -7.050887e+001  9.678957e+001 
3587500000  -7.395968e+001  3.575897e+001 
3590625000  -7.413044e+001  -9.341640e+000 
3593750000  -6.926452e+001  1.232785e+001 
3596875000  -6.827133e+001  2.766597e+001 
3600000000  -6.303653e+001  -2.508138e+001 
3603125000  -7.159810e+001  -3.912669e+001 
3606250000  -6.423983e+001  -4.036392e+001 
3609375000  -6.628889e+001  -4.565127e+001 
3612500000  -6.401872e+001  -4.322266e+001 
3615625000  -6.954661e+001  -6.968651e+001 
3618750000  -6.341039e+001  -6.347099e+001 
3621875000  -6.519839e+001  -8.171964e+001 
3625000000  -6.378614e+001  -6.613974e+001 
3628125000  -6.603189e+001  -1.066538e+002 
3631250000  -6.284652e+001  -1.058340e+002 
3634375000  -6.324695e+001  -1.270299e+002 
3637500000  -6.274369e+001  -8.962018e+001 
3640625000  -6.229373e+001  -1.230255e+002 
3643750000  -6.256421e+001  -1.454676e+002 
3646875000  -6.250361e+001  -1.504889e+002 
3650000000  -6.170414e+001  -1.755024e+002 
3653125000  -6.353779e+001  1.675277e+002 
3656250000  -6.492546e+001  1.749648e+002 
3659375000  -6.404128e+001  1.637779e+002 
3662500000  -6.290771e+001  1.514967e+002 
3665625000  -6.279464e+001  1.561492e+002 
3668750000  -6.342122e+001  1.379662e+002 
3671875000  -6.768432e+001  1.163680e+002 
3675000000  -6.442417e+001  9.659634e+001 
3678125000  -6.477232e+001  1.068633e+002 
3681250000  -6.025773e+001  9.082839e+001 
3684375000  -6.785346e+001  8.438947e+001 
3687500000  -6.727037e+001  8.480576e+001 
3690625000  -6.890886e+001  3.834293e+001 
3693750000  -6.389349e+001  7.118874e+001 
3696875000  -7.545384e+001  4.993713e+001 
3700000000  -6.408166e+001  9.901671e+001 
3703125000  -6.806587e+001  6.428660e+001 
3706250000  -6.385485e+001  5.129476e+001 
3709375000  -6.723976e+001  5.622458e+001 
3712500000  -6.829489e+001  7.273674e+001 
3715625000  -6.298843e+001  1.732959e+001 
3718750000  -6.187675e+001  3.897022e+001 
3721875000  -6.208878e+001  1.233748e+001 
3725000000  -6.215368e+001  -8.811658e+000 
3728125000  -5.829109e+001  -3.283192e-001 
3731250000  -5.977198e+001  -8.103892e+000 
3734375000  -6.049984e+001  -1.548391e+000 
3737500000  -6.039816e+001  -2.266204e+001 
3740625000  -5.875501e+001  -3.292442e+001 
3743750000  -5.878340e+001  -6.900485e+001 
3746875000  -6.054797e+001  -6.557992e+001 
3750000000  -5.961463e+001  -9.442223e+001 
3753125000  -5.837628e+001  -7.363199e+001 
3756250000  -5.711575e+001  -9.327812e+001 
3759375000  -5.858833e+001  -1.088625e+002 
3762500000  -5.782314e+001  -1.094314e+002 
3765625000  -5.799967e+001  -1.183529e+002 
3768750000  -5.678434e+001  -1.442749e+002 
3771875000  -5.624915e+001  -1.475721e+002 
3775000000  -5.385762e+001  -1.520174e+002 
3778125000  -5.848218e+001  1.732718e+002 
3781250000  -5.768861e+001  1.679229e+002 
3784375000  -5.634241e+001  1.573637e+002 
3787500000  -5.621887e+001  1.489243e+002 
3790625000  -5.975776e+001  1.356924e+002 
3793750000  -5.752305e+001  1.244419e+002 
3796875000  -5.586941e+001  1.234292e+002 
3800000000  -5.360003e+001  8.379425e+001 
3803125000  -5.744458e+001  1.028941e+002 
3806250000  -5.923774e+001  8.376027e+001 
3809375000  -5.846333e+001  7.644094e+001 
3812500000  -5.771032e+001  6.173201e+001 
3815625000  -6.040915e+001  3.840201e+001 
3818750000  -6.512946e+001  6.541845e+001 
3821875000  -5.980975e+001  4.949102e+001 
3825000000  -6.053426e+001  2.831613e+001 
3828125000  -5.835762e+001  2.604893e+001 
3831250000  -6.000066e+001  1.126093e+001 
3834375000  -6.266121e+001  1.611208e+001 
3837500000  -6.512205e+001  -2.630222e+001 
3840625000  -6.066116e+001  -1.749986e+000 
3843750000  -6.036121e+001  -1.118483e+001 
3846875000  -6.420607e+001  -3.659976e+001 
3850000000  -6.166218e+001  9.321644e+000 
3853125000  -6.341635e+001  -1.135090e+001 
3856250000  -6.071177e+001  -1.281681e+001 
3859375000  -5.872151e+001  -3.159661e+001 
3862500000  -5.973650e+001  -3.231303e+001 
3865625000  -5.853050e+001  -5.057734e+001 
3868750000  -5.874773e+001  -5.148094e+001 
3871875000  -5.665797e+001  -7.854973e+001 
3875000000  -6.137195e+001  -6.345653e+001 
3878125000  -5.780896e+001  -8.672554e+001 
3881250000  -5.708929e+001  -8.953630e+001 
3884375000  -5.692709e+001  -9.116183e+001 
3887500000  -5.720042e+001  -1.246145e+002 
3890625000  -5.655568e+001  -1.047660e+002 
3893750000  -5.705693e+001  -1.232930e+002 
3896875000  -5.869789e+001  -1.312222e+002 
3900000000  -5.618852e+001  -1.531882e+002 
3903125000  -5.544115e+001  -1.450883e+002 
3906250000  -5.429055e+001  -1.771470e+002 
3909375000  -5.321092e+001  1.748036e+002 
3912500000  -5.516790e+001  1.681147e+002 
3915625000  -5.595667e+001  1.520245e+002 
3918750000  -5.532769e+001  1.553069e+002 
3921875000  -5.584652e+001  1.434287e+002 
3925000000  -5.283864e+001  1.237090e+002 
3928125000  -5.247281e+001  1.054104e+002 
3931250000  -5.279293e+001  9.442969e+001 
3934375000  -5.353882e+001  8.143714e+001 
3937500000  -5.583870e+001  8.990730e+001 
3940625000  -5.427571e+001  7.882707e+001 
3943750000  -5.441282e+001  6.801983e+001 
3946875000  -5.315564e+001  5.498558e+001 
3950000000  -5.544547e+001  3.189952e+001 
3953125000  -5.464591e+001  2.295284e+001 
3956250000  -5.340642e+001  3.047475e+001 
3959375000  -5.151093e+001  2.026573e+001 
3962500000  -5.251704e+001  -9.777845e+000 
3965625000  -5.427442e+001  -1.936600e+001 
3968750000  -5.311939e+001  -3.373506e+001 
3971875000  -5.439900e+001  -3.519149e+001 
3975000000  -5.338300e+001  -5.909731e+001 
3978125000  -5.481197e+001  -6.222483e+001 
3981250000  -5.617200e+001  -7.526116e+001 
3984375000  -5.424566e+001  -9.651952e+001 
3987500000  -5.588428e+001  -8.940917e+001 
3990625000  -5.670767e+001  -1.058559e+002 
3993750000  -5.551844e+001  -1.177433e+002 
3996875000  -5.842251e+001  -1.191000e+002 
4000000000  -5.891394e+001  -1.361977e+002 
4003125000  -6.159103e+001  -1.170137e+002 
4006250000  -5.733467e+001  -1.398172e+002 
4009375000  -5.704036e+001  -1.476585e+002 
4012500000  -6.027491e+001  -1.582310e+002 
4015625000  -6.360759e+001  -1.720898e+002 
4018750000  -5.863779e+001  -1.781286e+002 
4021875000  -5.790421e+001  -1.759083e+002 
4025000000  -5.796080e+001  1.717324e+002 
4028125000  -5.807955e+001  1.779127e+002 
4031250000  -6.097870e+001  1.635802e+002 
4034375000  -5.842925e+001  1.624912e+002 
4037500000  -5.778883e+001  1.563851e+002 
4040625000  -5.914494e+001  1.526738e+002 
4043750000  -6.181555e+001  1.515297e+002 
4046875000  -5.652844e+001  1.318342e+002 
4050000000  -5.631516e+001  1.252391e+002 
4053125000  -5.777415e+001  1.153248e+002 
4056250000  -5.819614e+001  9.978281e+001 
4059375000  -5.655738e+001  1.088279e+002 
4062500000  -5.480280e+001  9.568710e+001 
4065625000  -5.478432e+001  8.778181e+001 
4068750000  -5.550828e+001  7.912391e+001 
4071875000  -5.227180e+001  5.825748e+001 
4075000000  -5.329327e+001  4.756848e+001 
4078125000  -5.194806e+001  3.350109e+001 
4081250000  -5.282541e+001  3.084837e+001 
4084375000  -5.284192e+001  1.295127e+001 
4087500000  -5.283201e+001  -5.935734e+000 
4090625000  -5.325295e+001  -1.190498e+001 
4093750000  -5.296417e+001  -2.361751e+001 
4096875000  -5.245517e+001  -3.229221e+001 
4100000000  -5.503355e+001  -4.955426e+001 
4103125000  -5.556664e+001  -5.130870e+001 
4106250000  -5.461102e+001  -6.315099e+001 
4109375000  -5.378883e+001  -6.155211e+001 
4112500000  -5.241752e+001  -8.105905e+001 
4115625000  -5.350268e+001  -9.142546e+001 
4118750000  -5.301780e+001  -1.114049e+002 
4121875000  -5.287347e+001  -1.234074e+002 
4125000000  -5.284504e+001  -1.287251e+002 
4128125000  -5.370854e+001  -1.380641e+002 
4131250000  -5.301999e+001  -1.391329e+002 
4134375000  -5.140093e+001  -1.474831e+002 
4137500000  -5.179467e+001  -1.780746e+002 
4140625000  -5.350849e+001  1.654120e+002 
4143750000  -5.413308e+001  1.694931e+002 
4146875000  -5.319545e+001  1.654927e+002 
4150000000  -5.471805e+001  1.550948e+002 
4153125000  -5.275998e+001  1.360204e+002 
4156250000  -5.528294e+001  1.345172e+002 
4159375000  -5.513045e+001  1.235637e+002 
4162500000  -5.419653e+001  1.148319e+002 
4165625000  -5.330666e+001  1.075882e+002 
4168750000  -5.486687e+001  8.999982e+001 
4171875000  -5.479666e+001  8.224037e+001 
4175000000  -5.545399e+001  6.094951e+001 
4178125000  -5.716649e+001  6.740688e+001 
4181250000  -5.823069e+001  4.834951e+001 
4184375000  -6.164058e+001  3.705333e+001 
4187500000  -5.740425e+001  2.742604e+001 
4190625000  -5.894868e+001  3.431627e+001 
4193750000  -6.136720e+001  -6.197411e+000 
4196875000  -6.262836e+001  -1.047377e+001 
4200000000  -6.090879e+001  2.391717e+001 
4203125000  -6.503356e+001  1.886135e+001 
4206250000  -5.813752e+001  3.049782e+001 
4209375000  -6.296733e+001  -5.239631e+000 
4212500000  -6.772476e+001  2.678300e+001 
4215625000  -6.542824e+001  1.208276e+001 
4218750000  -6.220388e+001  3.660179e+001 
4221875000  -5.961612e+001  -1.381127e+001 
4225000000  -6.319547e+001  -1.825259e+001 
4228125000  -5.813889e+001  -2.535996e+001 
4231250000  -6.147799e+001  -3.204858e+001 
4234375000  -5.743056e+001  -5.430672e+001 
4237500000  -5.961836e+001  -4.044116e+001 
4240625000  -5.667853e+001  -5.932945e+001 
4243750000  -5.806874e+001  -7.652847e+001 
4246875000  -5.557121e+001  -7.711038e+001 
4250000000  -5.681273e+001  -7.686716e+001 
4253125000  -5.609585e+001  -8.120397e+001 
4256250000  -5.544771e+001  -9.747654e+001 
4259375000  -5.599786e+001  -9.895609e+001 
4262500000  -5.525116e+001  -1.385420e+002 
4265625000  -5.339129e+001  -1.243138e+002 
4268750000  -5.298759e+001  -1.473088e+002 
4271875000  -5.189849e+001  -1.636080e+002 
4275000000  -5.119102e+001  -1.744662e+002 
4278125000  -5.421970e+001  1.574543e+002 
4281250000  -5.592131e+001  1.624902e+002 
4284375000  -5.554370e+001  1.624539e+002 
4287500000  -5.525098e+001  1.518659e+002 
4290625000  -5.530097e+001  1.557652e+002 
4293750000  -5.164302e+001  1.409545e+002 
4296875000  -5.161626e+001  1.216250e+002 
4300000000  -5.262719e+001  9.994814e+001 
4303125000  -5.371875e+001  9.173999e+001 
4306250000  -5.272198e+001  9.615463e+001 
4309375000  -5.185605e+001  8.015433e+001 
4312500000  -5.240367e+001  5.895795e+001 
4315625000  -5.129753e+001  4.897090e+001 
4318750000  -5.361408e+001  3.965128e+001 
4321875000  -5.211835e+001  3.972707e+001 
4325000000  -5.243609e+001  2.033684e+001 
4328125000  -5.164807e+001  7.491426e+000 
4331250000  -5.340670e+001  1.001759e+000 
4334375000  -5.427215e+001  -1.123088e+001 
4337500000  -5.419418e+001  -3.184243e+001 
4340625000  -5.569713e+001  -3.492607e+001 
4343750000  -5.526239e+001  -3.240505e+001 
4346875000  -5.488949e+001  -3.677073e+001 
4350000000  -5.535622e+001  -6.808343e+001 
4353125000  -5.832707e+001  -7.386089e+001 
4356250000  -5.495243e+001  -6.607001e+001 
4359375000  -5.717060e+001  -7.346247e+001 
4362500000  -5.513506e+001  -8.350256e+001 
4365625000  -5.485542e+001  -9.293443e+001 
4368750000  -5.654372e+001  -1.063413e+002 
4371875000  -5.607233e+001  -1.082212e+002 
4375000000  -5.630644e+001  -1.071099e+002 
4378125000  -5.745926e+001  -1.344750e+002 
4381250000  -5.864388e+001  -1.346766e+002 
4384375000  -5.556623e+001  -1.489017e+002 
4387500000  -5.825285e+001  -1.556409e+002 
4390625000  -5.928248e+001  -1.566800e+002 
4393750000  -5.714064e+001  -1.483257e+002 
4396875000  -5.452438e+001  -1.582106e+002 
4400000000  -5.560307e+001  -1.741217e+002 
4403125000  -5.707860e+001  1.722020e+002 
4406250000  -5.636926e+001  1.716318e+002 
4409375000  -5.689529e+001  1.741675e+002 
4412500000  -5.813281e+001  1.593714e+002 
4415625000  -5.543861e+001  1.616594e+002 
4418750000  -5.411997e+001  1.591612e+002 
