!Agilent Technologies,E8363B,MY43030201,A.06.04.32
!Agilent E8363B: A.06.04.32
!Date: Tuesday, November 11, 2014 22:11:14
!Correction: S21(Response(S21)) 
!S1P File: Measurement: S21:
# Hz S  dB   R 50
3000000000  -4.909221e+001  -7.512841e+001 
3003125000  -5.116072e+001  -8.329779e+001 
3006250000  -5.175632e+001  -9.123106e+001 
3009375000  -5.200020e+001  -9.154565e+001 
3012500000  -5.127110e+001  -9.868363e+001 
3015625000  -5.162544e+001  -1.094471e+002 
3018750000  -5.121993e+001  -1.162967e+002 
3021875000  -5.016019e+001  -1.229350e+002 
3025000000  -4.872075e+001  -1.293379e+002 
3028125000  -4.824878e+001  -1.455283e+002 
3031250000  -4.695069e+001  -1.624336e+002 
3034375000  -4.710826e+001  1.799050e+002 
3037500000  -4.790745e+001  1.634114e+002 
3040625000  -4.894217e+001  1.511933e+002 
3043750000  -4.940452e+001  1.404236e+002 
3046875000  -5.039286e+001  1.308738e+002 
3050000000  -5.145928e+001  1.206523e+002 
3053125000  -5.174662e+001  1.241250e+002 
3056250000  -5.109986e+001  1.172031e+002 
3059375000  -5.065361e+001  1.114862e+002 
3062500000  -4.953586e+001  9.818166e+001 
3065625000  -4.860814e+001  8.782894e+001 
3068750000  -4.901292e+001  7.806762e+001 
3071875000  -4.942265e+001  6.549384e+001 
3075000000  -4.839824e+001  5.222196e+001 
3078125000  -4.861683e+001  4.456099e+001 
3081250000  -4.870947e+001  3.109750e+001 
3084375000  -4.814090e+001  2.389099e+001 
3087500000  -4.801340e+001  1.296606e+001 
3090625000  -4.759494e+001  -3.736609e+000 
3093750000  -4.856266e+001  -1.838539e+001 
3096875000  -4.894342e+001  -2.330691e+001 
3100000000  -4.940997e+001  -3.606240e+001 
3103125000  -4.982570e+001  -3.863564e+001 
3106250000  -4.946257e+001  -5.186013e+001 
3109375000  -4.979840e+001  -6.199806e+001 
3112500000  -4.944052e+001  -7.069812e+001 
3115625000  -4.931341e+001  -7.964414e+001 
3118750000  -4.981584e+001  -8.745769e+001 
3121875000  -4.895134e+001  -1.010305e+002 
3125000000  -5.077036e+001  -1.088834e+002 
3128125000  -5.069739e+001  -1.123831e+002 
3131250000  -4.866068e+001  -1.144232e+002 
3134375000  -4.757972e+001  -1.415325e+002 
3137500000  -4.859591e+001  -1.522164e+002 
3140625000  -4.998878e+001  -1.626662e+002 
3143750000  -5.014487e+001  -1.707941e+002 
3146875000  -4.966037e+001  -1.736363e+002 
3150000000  -4.847713e+001  1.764948e+002 
3153125000  -4.916121e+001  1.650929e+002 
3156250000  -5.052061e+001  1.625943e+002 
3159375000  -4.779260e+001  1.562886e+002 
3162500000  -4.625484e+001  1.382017e+002 
3165625000  -4.820964e+001  1.210882e+002 
3168750000  -4.815723e+001  1.151990e+002 
3171875000  -4.740217e+001  1.024749e+002 
3175000000  -4.764653e+001  8.532575e+001 
3178125000  -4.763337e+001  8.187441e+001 
3181250000  -4.647470e+001  6.742570e+001 
3184375000  -4.636704e+001  5.281408e+001 
3187500000  -4.790604e+001  3.090319e+001 
3190625000  -4.972343e+001  1.938571e+001 
3193750000  -4.951741e+001  2.204618e+001 
3196875000  -4.970523e+001  1.751442e+001 
3200000000  -4.832028e+001  5.280198e+000 
3203125000  -4.835432e+001  -4.884788e+000 
3206250000  -4.856449e+001  -1.581744e+001 
3209375000  -4.814346e+001  -3.238973e+001 
3212500000  -4.836139e+001  -3.896857e+001 
3215625000  -4.822466e+001  -5.011396e+001 
3218750000  -5.030540e+001  -6.047795e+001 
3221875000  -4.946523e+001  -7.486133e+001 
3225000000  -4.993739e+001  -8.588057e+001 
3228125000  -4.992807e+001  -9.562706e+001 
3231250000  -5.046487e+001  -1.003785e+002 
3234375000  -5.012409e+001  -1.108881e+002 
3237500000  -5.023289e+001  -1.191207e+002 
3240625000  -5.009601e+001  -1.316685e+002 
3243750000  -5.022611e+001  -1.451887e+002 
3246875000  -5.049857e+001  -1.595675e+002 
3250000000  -5.052702e+001  -1.678801e+002 
3253125000  -5.103638e+001  -1.736134e+002 
3256250000  -5.084435e+001  1.713743e+002 
3259375000  -5.128075e+001  1.601394e+002 
3262500000  -5.197746e+001  1.512851e+002 
3265625000  -5.320271e+001  1.431861e+002 
3268750000  -5.301369e+001  1.463420e+002 
3271875000  -5.203593e+001  1.387908e+002 
3275000000  -5.212361e+001  1.212007e+002 
3278125000  -5.275429e+001  1.075467e+002 
3281250000  -5.218398e+001  1.012851e+002 
3284375000  -5.236227e+001  9.140437e+001 
3287500000  -5.347869e+001  8.791199e+001 
3290625000  -5.270164e+001  7.323124e+001 
3293750000  -5.393779e+001  6.074184e+001 
3296875000  -5.400174e+001  5.157519e+001 
3300000000  -5.472502e+001  4.740581e+001 
3303125000  -5.257592e+001  3.849677e+001 
3306250000  -5.369696e+001  2.362904e+001 
3309375000  -5.294085e+001  1.769475e+001 
3312500000  -5.297367e+001  -8.817657e-001 
3315625000  -5.461938e+001  -1.458449e+001 
3318750000  -5.513223e+001  -2.611213e+001 
3321875000  -5.775097e+001  -2.466929e+001 
3325000000  -5.574288e+001  -1.588877e+001 
3328125000  -5.610448e+001  -2.263461e+001 
3331250000  -5.368613e+001  -2.478973e+001 
3334375000  -5.193304e+001  -5.453851e+001 
3337500000  -5.265951e+001  -7.718194e+001 
3340625000  -5.450699e+001  -8.381274e+001 
3343750000  -5.647337e+001  -8.666140e+001 
3346875000  -5.601468e+001  -9.732468e+001 
3350000000  -5.425243e+001  -9.673146e+001 
3353125000  -5.491289e+001  -1.166278e+002 
3356250000  -5.519299e+001  -1.279408e+002 
3359375000  -5.395625e+001  -1.440378e+002 
3362500000  -5.645890e+001  -1.568755e+002 
3365625000  -5.573969e+001  -1.597591e+002 
3368750000  -5.623719e+001  -1.720077e+002 
3371875000  -5.659370e+001  1.757008e+002 
3375000000  -5.780009e+001  1.655988e+002 
3378125000  -5.862415e+001  1.779515e+002 
3381250000  -6.004676e+001  1.691901e+002 
3384375000  -5.694281e+001  -1.726056e+002 
3387500000  -5.419712e+001  1.509741e+002 
3390625000  -5.685789e+001  1.197744e+002 
3393750000  -5.788342e+001  1.227284e+002 
3396875000  -5.694252e+001  1.127283e+002 
3400000000  -5.569482e+001  9.063399e+001 
3403125000  -5.721465e+001  8.012147e+001 
3406250000  -5.745388e+001  7.257193e+001 
3409375000  -5.702054e+001  5.198175e+001 
3412500000  -5.885619e+001  5.288866e+001 
3415625000  -5.944967e+001  4.786865e+001 
3418750000  -6.015526e+001  4.285229e+001 
3421875000  -5.986763e+001  3.167527e+001 
3425000000  -5.824357e+001  2.110006e+001 
3428125000  -5.816714e+001  -2.609001e+000 
3431250000  -6.002658e+001  -3.425107e+000 
3434375000  -6.055333e+001  -1.579849e+001 
3437500000  -6.437668e+001  -2.642961e+001 
3440625000  -6.125966e+001  -3.407409e+001 
3443750000  -6.263246e+001  -3.464016e+001 
3446875000  -5.860591e+001  -4.708979e+001 
3450000000  -6.139080e+001  -7.538786e+001 
3453125000  -6.420516e+001  -7.339947e+001 
3456250000  -6.908339e+001  -9.276952e+001 
3459375000  -6.465608e+001  -7.872789e+001 
3462500000  -6.651149e+001  -7.989091e+001 
3465625000  -6.786279e+001  -1.002738e+002 
3468750000  -6.656910e+001  -1.104526e+002 
3471875000  -6.422465e+001  -1.032032e+002 
3475000000  -6.424970e+001  -9.847202e+001 
3478125000  -6.981594e+001  -9.398846e+001 
3481250000  -7.019379e+001  -1.448044e+002 
3484375000  -6.694305e+001  -1.322087e+002 
3487500000  -6.521040e+001  -1.205154e+002 
3490625000  -6.766566e+001  -1.435515e+002 
3493750000  -7.858508e+001  -1.420971e+002 
3496875000  -6.695513e+001  -1.407613e+002 
3500000000  -6.676630e+001  -1.433863e+002 
3503125000  -6.781288e+001  -1.635622e+002 
3506250000  -6.432335e+001  -1.541004e+002 
3509375000  -6.767045e+001  1.704207e+002 
3512500000  -6.436626e+001  1.477923e+002 
3515625000  -6.533589e+001  1.379724e+002 
3518750000  -6.336391e+001  1.349608e+002 
3521875000  -6.715466e+001  1.492831e+002 
3525000000  -6.664439e+001  9.884871e+001 
3528125000  -6.581058e+001  1.417735e+002 
3531250000  -6.424023e+001  1.013874e+002 
3534375000  -7.890763e+001  1.158274e+002 
3537500000  -7.052883e+001  1.065008e+002 
3540625000  -7.622956e+001  7.075877e+000 
3543750000  -6.970543e+001  5.191419e+001 
3546875000  -6.583997e+001  3.056109e+001 
3550000000  -7.145544e+001  -1.260375e+002 
3553125000  -7.320578e+001  -2.587558e+000 
3556250000  -7.333248e+001  4.181627e+001 
3559375000  -6.733875e+001  1.926992e+001 
3562500000  -7.205164e+001  3.182237e+001 
3565625000  -7.780223e+001  5.043395e+000 
3568750000  -7.502105e+001  -3.562197e+001 
3571875000  -7.008877e+001  -1.283807e+001 
3575000000  -7.290686e+001  1.246452e+000 
3578125000  -7.305429e+001  2.920741e+001 
3581250000  -7.717274e+001  3.394810e+001 
3584375000  -6.626358e+001  4.007771e+001 
3587500000  -7.531864e+001  -9.137249e+001 
3590625000  -6.780140e+001  1.056041e+000 
3593750000  -6.883631e+001  -3.507817e+001 
3596875000  -6.733864e+001  5.284333e+001 
3600000000  -6.899415e+001  3.586365e-001 
3603125000  -6.650637e+001  -4.335727e+000 
3606250000  -6.986190e+001  -2.294097e+001 
3609375000  -6.358688e+001  -4.465659e+001 
3612500000  -6.342672e+001  -5.791618e+001 
3615625000  -6.724270e+001  -9.805316e+001 
3618750000  -6.241260e+001  -6.761144e+001 
3621875000  -6.231387e+001  -7.702426e+001 
3625000000  -6.328616e+001  -8.073654e+001 
3628125000  -6.230767e+001  -9.693581e+001 
3631250000  -6.329631e+001  -1.087924e+002 
3634375000  -6.509514e+001  -1.365983e+002 
3637500000  -6.460822e+001  -1.141926e+002 
3640625000  -6.205692e+001  -1.490087e+002 
3643750000  -6.169886e+001  -1.376202e+002 
3646875000  -5.979908e+001  -1.668254e+002 
3650000000  -6.393227e+001  1.760429e+002 
3653125000  -6.152896e+001  -1.718180e+002 
3656250000  -6.463262e+001  1.587712e+002 
3659375000  -6.309963e+001  1.580034e+002 
3662500000  -6.364900e+001  1.395700e+002 
3665625000  -6.265692e+001  1.381994e+002 
3668750000  -6.441651e+001  1.292937e+002 
3671875000  -6.432922e+001  1.389843e+002 
3675000000  -6.404115e+001  8.944065e+001 
3678125000  -6.535811e+001  1.102606e+002 
3681250000  -6.428105e+001  9.078707e+001 
3684375000  -6.572746e+001  1.102128e+002 
3687500000  -6.720567e+001  8.530040e+001 
3690625000  -6.745338e+001  7.592348e+001 
3693750000  -6.540631e+001  7.605022e+001 
3696875000  -6.838333e+001  9.825908e+001 
3700000000  -6.447346e+001  8.246786e+001 
3703125000  -6.171666e+001  4.252423e+001 
3706250000  -6.554598e+001  5.790322e+001 
3709375000  -7.016170e+001  4.723024e+001 
3712500000  -6.463882e+001  6.804972e+001 
3715625000  -6.359638e+001  4.301951e+001 
3718750000  -6.200867e+001  4.381696e+001 
3721875000  -6.003720e+001  6.012307e+000 
3725000000  -6.214928e+001  2.889065e+001 
3728125000  -6.104863e+001  -2.122639e+000 
3731250000  -6.116271e+001  -1.151897e+001 
3734375000  -5.894822e+001  -1.748016e+001 
3737500000  -6.031717e+001  -3.688818e+001 
3740625000  -6.033225e+001  -4.023221e+001 
3743750000  -6.040606e+001  -4.816103e+001 
3746875000  -5.787469e+001  -6.279125e+001 
3750000000  -5.782794e+001  -8.682185e+001 
3753125000  -5.858601e+001  -6.292510e+001 
3756250000  -5.850937e+001  -1.106533e+002 
3759375000  -5.820931e+001  -1.067081e+002 
3762500000  -5.863412e+001  -1.079459e+002 
3765625000  -5.798362e+001  -1.286852e+002 
3768750000  -5.727555e+001  -1.462990e+002 
3771875000  -5.646414e+001  -1.431738e+002 
3775000000  -5.631640e+001  -1.637968e+002 
3778125000  -5.824663e+001  1.789418e+002 
3781250000  -5.629166e+001  1.735181e+002 
3784375000  -5.872251e+001  1.543342e+002 
3787500000  -5.875901e+001  1.486261e+002 
3790625000  -5.828497e+001  1.421735e+002 
3793750000  -5.751559e+001  1.301225e+002 
3796875000  -5.652143e+001  1.201253e+002 
3800000000  -5.329476e+001  7.694939e+001 
3803125000  -5.758691e+001  8.907503e+001 
3806250000  -6.036629e+001  5.704871e+001 
3809375000  -5.776409e+001  8.054875e+001 
3812500000  -5.806128e+001  6.865362e+001 
3815625000  -6.087286e+001  5.985792e+001 
3818750000  -6.286509e+001  2.501997e+001 
3821875000  -6.408015e+001  6.381229e+001 
3825000000  -5.930104e+001  4.394082e+001 
3828125000  -5.692564e+001  2.691501e+001 
3831250000  -5.948786e+001  2.018504e+001 
3834375000  -6.524794e+001  -5.083411e+000 
3837500000  -6.403178e+001  -3.158911e-001 
3840625000  -6.373812e+001  -4.106613e+000 
3843750000  -6.247630e+001  -1.835439e+001 
3846875000  -6.317188e+001  -2.688122e+001 
3850000000  -6.547616e+001  -5.633437e+000 
3853125000  -6.399584e+001  6.298041e-001 
3856250000  -6.097225e+001  2.442412e+000 
3859375000  -5.840723e+001  -4.278475e+001 
3862500000  -6.115299e+001  -3.896632e+001 
3865625000  -5.915764e+001  -4.180338e+001 
3868750000  -6.056725e+001  -4.051113e+001 
3871875000  -5.701221e+001  -6.037622e+001 
3875000000  -5.908725e+001  -7.588365e+001 
3878125000  -5.628214e+001  -7.630982e+001 
3881250000  -5.808408e+001  -9.462157e+001 
3884375000  -5.654618e+001  -1.013792e+002 
3887500000  -5.624841e+001  -1.172202e+002 
3890625000  -5.656707e+001  -1.196490e+002 
3893750000  -5.629420e+001  -1.329306e+002 
3896875000  -5.677583e+001  -1.329917e+002 
3900000000  -5.689146e+001  -1.309273e+002 
3903125000  -5.473067e+001  -1.478853e+002 
3906250000  -5.355037e+001  -1.768170e+002 
3909375000  -5.458498e+001  -1.792484e+002 
3912500000  -5.374408e+001  1.671897e+002 
3915625000  -5.583044e+001  1.562381e+002 
3918750000  -5.481031e+001  1.569824e+002 
3921875000  -5.350943e+001  1.440773e+002 
3925000000  -5.274901e+001  1.232734e+002 
3928125000  -5.362046e+001  1.096306e+002 
3931250000  -5.342962e+001  1.059667e+002 
3934375000  -5.466268e+001  9.265645e+001 
3937500000  -5.601352e+001  8.660177e+001 
3940625000  -5.468410e+001  7.862522e+001 
3943750000  -5.448288e+001  6.714337e+001 
3946875000  -5.323685e+001  5.601590e+001 
3950000000  -5.536225e+001  3.062057e+001 
3953125000  -5.586011e+001  2.593302e+001 
3956250000  -5.276517e+001  2.382978e+001 
3959375000  -5.251011e+001  2.111298e+001 
3962500000  -5.191173e+001  -2.828965e+000 
3965625000  -5.354273e+001  -2.466986e+001 
3968750000  -5.457333e+001  -3.713431e+001 
3971875000  -5.504937e+001  -4.327457e+001 
3975000000  -5.357530e+001  -4.703003e+001 
3978125000  -5.460616e+001  -6.059687e+001 
3981250000  -5.515385e+001  -7.819893e+001 
3984375000  -5.535754e+001  -7.790797e+001 
3987500000  -5.552603e+001  -8.407327e+001 
3990625000  -5.579457e+001  -1.033594e+002 
3993750000  -5.950890e+001  -1.190082e+002 
3996875000  -5.722729e+001  -1.165657e+002 
4000000000  -5.905117e+001  -1.394249e+002 
4003125000  -6.153682e+001  -1.452952e+002 
4006250000  -5.629588e+001  -1.390302e+002 
4009375000  -5.745366e+001  -1.520183e+002 
4012500000  -5.927193e+001  -1.594501e+002 
4015625000  -6.027862e+001  -1.699401e+002 
4018750000  -5.979728e+001  -1.758015e+002 
4021875000  -5.779788e+001  1.742841e+002 
4025000000  -6.217155e+001  1.668474e+002 
4028125000  -5.957492e+001  1.772001e+002 
4031250000  -5.875140e+001  1.617387e+002 
4034375000  -5.969316e+001  1.651700e+002 
4037500000  -5.737711e+001  1.680705e+002 
4040625000  -5.913932e+001  1.401441e+002 
4043750000  -5.854072e+001  1.582168e+002 
4046875000  -5.604720e+001  1.373702e+002 
4050000000  -5.898279e+001  1.276851e+002 
4053125000  -5.860695e+001  1.149135e+002 
4056250000  -5.934445e+001  1.216970e+002 
4059375000  -5.543249e+001  1.038919e+002 
4062500000  -5.524666e+001  9.097077e+001 
4065625000  -5.395241e+001  8.089222e+001 
4068750000  -5.420554e+001  6.986317e+001 
4071875000  -5.238400e+001  4.928042e+001 
4075000000  -5.376539e+001  4.229961e+001 
4078125000  -5.354800e+001  3.736967e+001 
4081250000  -5.263849e+001  2.545177e+001 
4084375000  -5.215136e+001  1.006553e+001 
4087500000  -5.334049e+001  -5.529722e+000 
4090625000  -5.319672e+001  -1.044155e+001 
4093750000  -5.372605e+001  -2.646054e+001 
4096875000  -5.250436e+001  -3.398708e+001 
4100000000  -5.381633e+001  -4.868975e+001 
4103125000  -5.419697e+001  -5.702121e+001 
4106250000  -5.426142e+001  -5.772156e+001 
4109375000  -5.313472e+001  -6.043943e+001 
4112500000  -5.255003e+001  -8.164864e+001 
4115625000  -5.375203e+001  -9.247540e+001 
4118750000  -5.298892e+001  -1.020763e+002 
4121875000  -5.319954e+001  -1.115363e+002 
4125000000  -5.321478e+001  -1.248254e+002 
4128125000  -5.352696e+001  -1.356585e+002 
4131250000  -5.443589e+001  -1.323717e+002 
4134375000  -5.192375e+001  -1.498846e+002 
4137500000  -5.248920e+001  -1.727670e+002 
4140625000  -5.323686e+001  1.672878e+002 
4143750000  -5.535706e+001  -1.744172e+002 
4146875000  -5.427140e+001  1.604965e+002 
4150000000  -5.446987e+001  1.456302e+002 
4153125000  -5.374674e+001  1.408754e+002 
4156250000  -5.625728e+001  1.200922e+002 
4159375000  -5.633928e+001  1.282744e+002 
4162500000  -5.537461e+001  1.197249e+002 
4165625000  -5.575241e+001  1.090508e+002 
4168750000  -5.506538e+001  8.970757e+001 
4171875000  -5.329465e+001  6.998965e+001 
4175000000  -5.452513e+001  6.167574e+001 
4178125000  -5.798515e+001  7.197846e+001 
4181250000  -5.694463e+001  3.787439e+001 
4184375000  -5.935215e+001  3.349530e+001 
4187500000  -5.895040e+001  2.799667e+001 
4190625000  -6.139615e+001  1.563610e+001 
4193750000  -6.326155e+001  1.221063e+001 
4196875000  -6.589609e+001  4.140499e+000 
4200000000  -6.219881e+001  1.392887e+001 
4203125000  -6.428014e+001  5.167314e+001 
4206250000  -5.941007e+001  2.861127e+001 
4209375000  -6.507690e+001  -3.181398e+001 
4212500000  -6.024871e+001  2.109463e+000 
4215625000  -6.359874e+001  -1.121390e+001 
4218750000  -6.252719e+001  9.601371e+000 
4221875000  -5.917433e+001  -1.471261e+001 
4225000000  -5.979554e+001  -2.716054e+001 
4228125000  -5.781139e+001  -1.753596e+001 
4231250000  -6.198312e+001  -2.306236e+001 
4234375000  -5.846614e+001  -3.998729e+001 
4237500000  -5.739157e+001  -4.580368e+001 
4240625000  -5.455031e+001  -6.199612e+001 
4243750000  -5.722616e+001  -8.292570e+001 
4246875000  -5.715950e+001  -7.455346e+001 
4250000000  -5.603308e+001  -9.226108e+001 
4253125000  -5.625975e+001  -8.686178e+001 
4256250000  -5.506207e+001  -1.101849e+002 
4259375000  -5.691222e+001  -1.197740e+002 
4262500000  -5.629092e+001  -1.297158e+002 
4265625000  -5.329848e+001  -1.317395e+002 
4268750000  -5.286174e+001  -1.431100e+002 
4271875000  -5.310480e+001  -1.589705e+002 
4275000000  -5.229945e+001  -1.760881e+002 
4278125000  -5.389050e+001  1.748968e+002 
4281250000  -5.446243e+001  1.570077e+002 
4284375000  -5.467544e+001  1.529862e+002 
4287500000  -5.500853e+001  1.542956e+002 
4290625000  -5.532822e+001  1.470195e+002 
4293750000  -5.245137e+001  1.424709e+002 
4296875000  -5.110794e+001  1.175552e+002 
4300000000  -5.284134e+001  1.105566e+002 
4303125000  -5.423908e+001  9.307646e+001 
4306250000  -5.335412e+001  9.015991e+001 
4309375000  -5.255398e+001  8.188695e+001 
4312500000  -5.197458e+001  6.594108e+001 
4315625000  -5.092463e+001  5.235931e+001 
4318750000  -5.352418e+001  4.537348e+001 
4321875000  -5.305064e+001  3.733770e+001 
4325000000  -5.389577e+001  2.675876e+001 
4328125000  -5.177002e+001  1.205603e+001 
4331250000  -5.344642e+001  -6.120867e+000 
4334375000  -5.424790e+001  -2.135451e+001 
4337500000  -5.404451e+001  -3.695936e+001 
4340625000  -5.607061e+001  -2.373393e+001 
4343750000  -5.595478e+001  -2.949803e+001 
4346875000  -5.766744e+001  -4.480225e+001 
4350000000  -5.554257e+001  -6.098017e+001 
4353125000  -5.758785e+001  -7.193175e+001 
4356250000  -5.851847e+001  -6.969024e+001 
4359375000  -6.398773e+001  -3.723933e+001 
4362500000  -5.517949e+001  -7.105645e+001 
4365625000  -5.481764e+001  -9.684801e+001 
4368750000  -5.423637e+001  -9.730337e+001 
4371875000  -5.578889e+001  -1.011496e+002 
4375000000  -5.756368e+001  -1.150604e+002 
4378125000  -5.748297e+001  -1.265537e+002 
4381250000  -5.791809e+001  -1.357780e+002 
4384375000  -5.602920e+001  -1.491933e+002 
4387500000  -5.860322e+001  -1.513852e+002 
4390625000  -5.767922e+001  -1.440402e+002 
4393750000  -5.727293e+001  -1.498000e+002 
4396875000  -5.596048e+001  -1.606540e+002 
4400000000  -5.729968e+001  -1.662030e+002 
4403125000  -5.599952e+001  1.639423e+002 
4406250000  -5.658844e+001  -1.777681e+002 
4409375000  -5.500330e+001  1.677770e+002 
4412500000  -5.737366e+001  1.681667e+002 
4415625000  -5.491565e+001  1.662468e+002 
