!Agilent Technologies,E8363B,MY43030201,A.06.04.32
!Agilent E8363B: A.06.04.32
!Date: Tuesday, November 11, 2014 22:15:43
!Correction: S21(Response(S21)) 
!S1P File: Measurement: S21:
# Hz S  dB   R 50
3000000000  -4.881008e+001  -7.250792e+001 
3003125000  -5.160808e+001  -7.819337e+001 
3006250000  -5.163569e+001  -8.926913e+001 
3009375000  -5.209268e+001  -9.067312e+001 
3012500000  -5.155767e+001  -9.374290e+001 
3015625000  -5.114042e+001  -1.073114e+002 
3018750000  -5.107359e+001  -1.137911e+002 
3021875000  -4.961285e+001  -1.193135e+002 
3025000000  -4.863011e+001  -1.273634e+002 
3028125000  -4.817109e+001  -1.413088e+002 
3031250000  -4.712500e+001  -1.609206e+002 
3034375000  -4.671547e+001  -1.784613e+002 
3037500000  -4.819951e+001  1.667021e+002 
3040625000  -4.918494e+001  1.528596e+002 
3043750000  -4.915516e+001  1.437515e+002 
3046875000  -5.069511e+001  1.318572e+002 
3050000000  -5.191836e+001  1.245705e+002 
3053125000  -5.149350e+001  1.216002e+002 
3056250000  -5.135342e+001  1.206803e+002 
3059375000  -5.072548e+001  1.105563e+002 
3062500000  -4.960130e+001  1.047554e+002 
3065625000  -4.883517e+001  9.169641e+001 
3068750000  -4.887978e+001  7.776426e+001 
3071875000  -4.919477e+001  6.811993e+001 
3075000000  -4.826708e+001  5.513773e+001 
3078125000  -4.832541e+001  4.802208e+001 
3081250000  -4.894909e+001  3.657761e+001 
3084375000  -4.792807e+001  2.817883e+001 
3087500000  -4.849514e+001  1.610888e+001 
3090625000  -4.823346e+001  -3.996816e+000 
3093750000  -4.892919e+001  -1.418792e+001 
3096875000  -4.951951e+001  -2.621937e+001 
3100000000  -4.927140e+001  -3.420436e+001 
3103125000  -4.998701e+001  -3.854230e+001 
3106250000  -4.957744e+001  -5.157915e+001 
3109375000  -4.951807e+001  -5.834582e+001 
3112500000  -4.931451e+001  -6.719332e+001 
3115625000  -4.944232e+001  -7.785098e+001 
3118750000  -4.995111e+001  -8.564170e+001 
3121875000  -4.921141e+001  -1.014084e+002 
3125000000  -5.100124e+001  -1.070187e+002 
3128125000  -5.127012e+001  -1.074490e+002 
3131250000  -4.898215e+001  -1.182811e+002 
3134375000  -4.736510e+001  -1.380118e+002 
3137500000  -4.881552e+001  -1.555535e+002 
3140625000  -4.946062e+001  -1.612698e+002 
3143750000  -5.102613e+001  -1.679153e+002 
3146875000  -4.987109e+001  -1.713710e+002 
3150000000  -4.889738e+001  -1.763316e+002 
3153125000  -4.910135e+001  1.684578e+002 
3156250000  -5.028671e+001  1.640288e+002 
3159375000  -4.793118e+001  1.565853e+002 
3162500000  -4.613650e+001  1.374036e+002 
3165625000  -4.767885e+001  1.204482e+002 
3168750000  -4.750215e+001  1.154493e+002 
3171875000  -4.751040e+001  1.024974e+002 
3175000000  -4.756641e+001  8.986457e+001 
3178125000  -4.733860e+001  8.426577e+001 
3181250000  -4.627185e+001  6.916095e+001 
3184375000  -4.689972e+001  5.457635e+001 
3187500000  -4.756547e+001  3.609985e+001 
3190625000  -4.908088e+001  2.229462e+001 
3193750000  -4.919278e+001  2.485464e+001 
3196875000  -4.991105e+001  1.564252e+001 
3200000000  -4.836326e+001  8.810092e+000 
3203125000  -4.774907e+001  -2.895145e+000 
3206250000  -4.849430e+001  -1.740871e+001 
3209375000  -4.805888e+001  -2.973368e+001 
3212500000  -4.856508e+001  -3.644662e+001 
3215625000  -4.793967e+001  -4.465282e+001 
3218750000  -4.915183e+001  -6.204504e+001 
3221875000  -4.900048e+001  -7.537487e+001 
3225000000  -4.974376e+001  -8.179887e+001 
3228125000  -5.050507e+001  -9.136939e+001 
3231250000  -5.061345e+001  -1.034588e+002 
3234375000  -5.030844e+001  -1.050961e+002 
3237500000  -5.044133e+001  -1.112845e+002 
3240625000  -4.980399e+001  -1.259029e+002 
3243750000  -4.992821e+001  -1.442787e+002 
3246875000  -4.964720e+001  -1.533255e+002 
3250000000  -5.045827e+001  -1.644122e+002 
3253125000  -5.244215e+001  -1.658589e+002 
3256250000  -5.010565e+001  1.767663e+002 
3259375000  -5.083532e+001  1.608887e+002 
3262500000  -5.239330e+001  1.550143e+002 
3265625000  -5.290152e+001  1.408504e+002 
3268750000  -5.296695e+001  1.428158e+002 
3271875000  -5.255093e+001  1.344812e+002 
3275000000  -5.142422e+001  1.218002e+002 
3278125000  -5.283005e+001  1.115962e+002 
3281250000  -5.367144e+001  1.064548e+002 
3284375000  -5.224877e+001  9.335137e+001 
3287500000  -5.353269e+001  8.334579e+001 
3290625000  -5.313688e+001  7.733006e+001 
3293750000  -5.327196e+001  6.308083e+001 
3296875000  -5.379243e+001  5.856541e+001 
3300000000  -5.477673e+001  5.309492e+001 
3303125000  -5.331685e+001  3.997052e+001 
3306250000  -5.259398e+001  2.602635e+001 
3309375000  -5.207504e+001  1.907243e+001 
3312500000  -5.334903e+001  -4.532218e+000 
3315625000  -5.461625e+001  -6.154371e+000 
3318750000  -5.508992e+001  -2.108896e+001 
3321875000  -5.678769e+001  -2.157034e+001 
3325000000  -5.758060e+001  -1.003346e+001 
3328125000  -5.622838e+001  -2.311304e+001 
3331250000  -5.385125e+001  -1.895902e+001 
3334375000  -5.252666e+001  -4.716410e+001 
3337500000  -5.265994e+001  -6.989353e+001 
3340625000  -5.405466e+001  -8.400108e+001 
3343750000  -5.608903e+001  -8.190611e+001 
3346875000  -5.614971e+001  -9.550519e+001 
3350000000  -5.521731e+001  -9.489451e+001 
3353125000  -5.446540e+001  -1.130967e+002 
3356250000  -5.607762e+001  -1.281105e+002 
3359375000  -5.426835e+001  -1.402545e+002 
3362500000  -5.573525e+001  -1.473507e+002 
3365625000  -5.599302e+001  -1.612561e+002 
3368750000  -5.669612e+001  -1.710810e+002 
3371875000  -5.691538e+001  1.758227e+002 
3375000000  -5.963313e+001  1.694315e+002 
3378125000  -6.086744e+001  1.734145e+002 
3381250000  -6.003913e+001  1.777253e+002 
3384375000  -5.579938e+001  1.779760e+002 
3387500000  -5.464510e+001  1.496498e+002 
3390625000  -5.670358e+001  1.192869e+002 
3393750000  -5.869350e+001  1.281729e+002 
3396875000  -5.560389e+001  1.180177e+002 
3400000000  -5.583522e+001  1.009420e+002 
3403125000  -5.628796e+001  8.157814e+001 
3406250000  -5.737398e+001  8.263614e+001 
3409375000  -5.848467e+001  5.246949e+001 
3412500000  -5.763922e+001  5.594780e+001 
3415625000  -6.086226e+001  4.864614e+001 
3418750000  -5.991004e+001  4.790153e+001 
3421875000  -6.092329e+001  3.916692e+001 
3425000000  -5.861922e+001  2.397517e+001 
3428125000  -5.821787e+001  9.389576e+000 
3431250000  -5.882426e+001  -4.718265e+000 
3434375000  -5.880022e+001  -9.757430e+000 
3437500000  -6.284306e+001  -2.321214e+001 
3440625000  -6.086139e+001  -1.578369e+001 
3443750000  -6.239091e+001  -2.427608e+001 
3446875000  -6.128914e+001  -5.444867e+001 
3450000000  -6.350368e+001  -8.094232e+001 
3453125000  -6.441652e+001  -7.218739e+001 
3456250000  -6.734035e+001  -8.620209e+001 
3459375000  -6.483668e+001  -6.599102e+001 
3462500000  -6.792043e+001  -9.610910e+001 
3465625000  -6.205403e+001  -1.108781e+002 
3468750000  -6.493250e+001  -1.008693e+002 
3471875000  -6.580585e+001  -9.776910e+001 
3475000000  -6.885049e+001  -1.076166e+002 
3478125000  -7.217732e+001  -1.428870e+002 
3481250000  -6.911845e+001  -1.667601e+002 
3484375000  -7.215264e+001  -1.243552e+002 
3487500000  -6.590099e+001  -1.514923e+002 
3490625000  -6.707387e+001  -1.283573e+002 
3493750000  -8.350861e+001  -1.296882e+002 
3496875000  -7.052663e+001  -1.641970e+002 
3500000000  -7.365971e+001  -1.560377e+002 
3503125000  -7.106554e+001  -1.505532e+002 
3506250000  -6.284775e+001  -1.617729e+002 
3509375000  -6.454994e+001  1.594024e+002 
3512500000  -6.587263e+001  1.059363e+002 
3515625000  -6.761727e+001  1.458510e+002 
3518750000  -6.757156e+001  1.510962e+002 
3521875000  -6.677348e+001  1.385182e+002 
3525000000  -6.706329e+001  9.750723e+001 
3528125000  -7.174409e+001  1.540147e+002 
3531250000  -6.530004e+001  1.186391e+002 
3534375000  -6.663937e+001  8.945139e+001 
3537500000  -6.944172e+001  8.610385e+001 
3540625000  -6.935285e+001  3.653652e+001 
3543750000  -7.188334e+001  1.117601e+002 
3546875000  -7.294056e+001  7.167685e+001 
3550000000  -6.952875e+001  3.916403e+001 
3553125000  -6.513530e+001  4.778024e+001 
3556250000  -6.888687e+001  4.743315e+001 
3559375000  -7.062920e+001  -2.261662e+001 
3562500000  -7.586434e+001  7.423876e+001 
3565625000  -6.965070e+001  -3.033546e+001 
3568750000  -7.143363e+001  1.117659e+002 
3571875000  -7.892335e+001  1.625128e+002 
3575000000  -7.501644e+001  -2.186617e+001 
3578125000  -6.651569e+001  5.851160e+001 
3581250000  -7.354313e+001  1.237684e+002 
3584375000  -8.455379e+001  3.094177e+000 
3587500000  -7.151707e+001  -2.395892e+001 
3590625000  -7.464111e+001  3.098528e+001 
3593750000  -7.324017e+001  1.053114e+001 
3596875000  -6.417014e+001  2.400310e+001 
3600000000  -6.528219e+001  6.037324e+000 
3603125000  -6.529400e+001  -2.843760e+001 
3606250000  -6.615896e+001  -4.256433e+001 
3609375000  -6.526725e+001  -4.522520e+001 
3612500000  -6.276355e+001  -6.021471e+001 
3615625000  -6.550909e+001  -3.248972e+001 
3618750000  -6.398736e+001  -8.546721e+001 
3621875000  -6.654433e+001  -8.437009e+001 
3625000000  -6.602383e+001  -9.294373e+001 
3628125000  -6.306997e+001  -8.611350e+001 
3631250000  -6.327382e+001  -9.933395e+001 
3634375000  -6.315832e+001  -1.308360e+002 
3637500000  -6.283927e+001  -1.135609e+002 
3640625000  -6.274568e+001  -1.403761e+002 
3643750000  -6.076094e+001  -1.301832e+002 
3646875000  -6.211569e+001  -1.742883e+002 
3650000000  -6.432472e+001  1.762331e+002 
3653125000  -6.223324e+001  -1.786902e+002 
3656250000  -6.548066e+001  1.745499e+002 
3659375000  -6.604587e+001  -1.734733e+002 
3662500000  -6.317630e+001  1.652035e+002 
3665625000  -6.414629e+001  1.299077e+002 
3668750000  -6.421307e+001  1.200299e+002 
3671875000  -6.558581e+001  1.198653e+002 
3675000000  -6.235740e+001  8.744806e+001 
3678125000  -6.680799e+001  1.083312e+002 
3681250000  -6.217490e+001  1.059173e+002 
3684375000  -6.611826e+001  6.531487e+001 
3687500000  -6.870098e+001  8.547958e+001 
3690625000  -6.798000e+001  1.029306e+002 
3693750000  -6.630013e+001  1.193548e+002 
3696875000  -6.964774e+001  8.681256e+001 
3700000000  -6.237717e+001  9.422144e+001 
3703125000  -6.863625e+001  1.767524e+001 
3706250000  -6.730615e+001  8.269304e+001 
3709375000  -6.555473e+001  3.359352e+001 
3712500000  -6.469752e+001  8.352988e+001 
3715625000  -6.086149e+001  4.115646e+001 
3718750000  -6.050147e+001  3.870593e+001 
3721875000  -6.199691e+001  2.092510e+001 
3725000000  -6.315436e+001  2.535923e+001 
3728125000  -5.961767e+001  2.177809e+001 
3731250000  -5.892633e+001  -1.054177e-002 
3734375000  -5.650883e+001  -1.892931e+001 
3737500000  -5.833918e+001  -3.682515e+001 
3740625000  -5.890891e+001  -3.726986e+001 
3743750000  -5.862386e+001  -4.758349e+001 
3746875000  -5.958614e+001  -5.252976e+001 
3750000000  -5.875828e+001  -7.601164e+001 
3753125000  -6.012004e+001  -8.797247e+001 
3756250000  -5.688176e+001  -1.036308e+002 
3759375000  -5.895818e+001  -1.069583e+002 
3762500000  -5.599973e+001  -1.116774e+002 
3765625000  -6.055506e+001  -1.256525e+002 
3768750000  -5.688021e+001  -1.267186e+002 
3771875000  -5.716221e+001  -1.366389e+002 
3775000000  -5.694137e+001  -1.586340e+002 
3778125000  -5.747835e+001  -1.711050e+002 
3781250000  -5.678982e+001  1.743412e+002 
3784375000  -5.647314e+001  1.626997e+002 
3787500000  -5.802502e+001  1.574910e+002 
3790625000  -5.845007e+001  1.447484e+002 
3793750000  -5.984742e+001  1.359038e+002 
3796875000  -5.714169e+001  1.214775e+002 
3800000000  -5.401382e+001  8.119686e+001 
3803125000  -6.017147e+001  9.185138e+001 
3806250000  -5.754819e+001  7.967122e+001 
3809375000  -5.755272e+001  7.372919e+001 
3812500000  -5.742567e+001  6.700105e+001 
3815625000  -5.895839e+001  4.884629e+001 
3818750000  -6.255648e+001  4.496594e+001 
3821875000  -6.057724e+001  7.164230e+001 
3825000000  -5.957877e+001  5.722070e+001 
3828125000  -5.787222e+001  2.927225e+001 
3831250000  -5.926416e+001  1.653037e+001 
3834375000  -6.572182e+001  3.583121e+001 
3837500000  -6.325634e+001  1.509607e+001 
3840625000  -6.457323e+001  2.190796e+001 
3843750000  -6.103730e+001  3.378173e+001 
3846875000  -5.934748e+001  -2.680793e+001 
3850000000  -6.220235e+001  -8.508403e-001 
3853125000  -5.955879e+001  -2.629171e+001 
3856250000  -6.026143e+001  -4.238802e-001 
3859375000  -5.902875e+001  -3.889998e+001 
3862500000  -6.589068e+001  -2.400471e+001 
3865625000  -5.820885e+001  -4.169401e+001 
3868750000  -6.054467e+001  -5.117461e+001 
3871875000  -5.681286e+001  -6.565394e+001 
3875000000  -5.841816e+001  -7.513584e+001 
3878125000  -5.864779e+001  -8.594499e+001 
3881250000  -5.833748e+001  -7.453648e+001 
3884375000  -5.544296e+001  -1.008450e+002 
3887500000  -5.584748e+001  -1.064498e+002 
3890625000  -5.596367e+001  -1.144009e+002 
3893750000  -5.798259e+001  -1.176990e+002 
3896875000  -5.585416e+001  -1.433763e+002 
3900000000  -5.726849e+001  -1.494236e+002 
3903125000  -5.460526e+001  -1.523422e+002 
3906250000  -5.361931e+001  -1.643041e+002 
3909375000  -5.569020e+001  1.755481e+002 
3912500000  -5.291601e+001  1.693644e+002 
3915625000  -5.554413e+001  1.570560e+002 
3918750000  -5.400664e+001  1.555440e+002 
3921875000  -5.540739e+001  1.525089e+002 
3925000000  -5.327585e+001  1.282426e+002 
3928125000  -5.279773e+001  1.070246e+002 
3931250000  -5.426099e+001  1.017159e+002 
3934375000  -5.390775e+001  9.640957e+001 
3937500000  -5.622979e+001  7.947098e+001 
3940625000  -5.381943e+001  7.813092e+001 
3943750000  -5.362500e+001  6.563949e+001 
3946875000  -5.296844e+001  4.929398e+001 
3950000000  -5.477190e+001  4.608842e+001 
3953125000  -5.425317e+001  3.624095e+001 
3956250000  -5.322255e+001  2.318286e+001 
3959375000  -5.177674e+001  1.736621e+001 
3962500000  -5.274667e+001  -2.797897e+000 
3965625000  -5.496348e+001  -2.093204e+001 
3968750000  -5.511409e+001  -2.597689e+001 
3971875000  -5.428339e+001  -3.849643e+001 
3975000000  -5.255209e+001  -4.583058e+001 
3978125000  -5.418612e+001  -5.662708e+001 
3981250000  -5.624914e+001  -7.635540e+001 
3984375000  -5.690543e+001  -8.116843e+001 
3987500000  -5.781279e+001  -8.545338e+001 
3990625000  -5.772190e+001  -9.743130e+001 
3993750000  -5.834702e+001  -1.248921e+002 
3996875000  -5.594316e+001  -1.248063e+002 
4000000000  -5.869796e+001  -1.307330e+002 
4003125000  -6.040038e+001  -1.177203e+002 
4006250000  -5.658030e+001  -1.353371e+002 
4009375000  -5.779580e+001  -1.551699e+002 
4012500000  -5.867480e+001  -1.694381e+002 
4015625000  -6.157751e+001  -1.371547e+002 
4018750000  -5.856034e+001  -1.635824e+002 
4021875000  -6.023262e+001  -1.695930e+002 
4025000000  -5.855579e+001  -1.683167e+002 
4028125000  -5.857952e+001  1.650876e+002 
4031250000  -6.026897e+001  1.725771e+002 
4034375000  -6.036954e+001  1.593388e+002 
4037500000  -5.959098e+001  1.658887e+002 
4040625000  -6.013950e+001  1.463438e+002 
4043750000  -5.829659e+001  1.544166e+002 
4046875000  -5.760751e+001  1.485608e+002 
4050000000  -5.755709e+001  1.230552e+002 
4053125000  -5.733472e+001  1.272448e+002 
4056250000  -5.716103e+001  1.199777e+002 
4059375000  -5.520534e+001  1.274448e+002 
4062500000  -5.507352e+001  1.090881e+002 
4065625000  -5.447505e+001  8.619022e+001 
4068750000  -5.467405e+001  8.321746e+001 
4071875000  -5.164745e+001  7.039586e+001 
4075000000  -5.365693e+001  5.319353e+001 
4078125000  -5.261196e+001  4.084128e+001 
4081250000  -5.371775e+001  2.895032e+001 
4084375000  -5.257761e+001  1.712712e+001 
4087500000  -5.336184e+001  1.248787e+000 
4090625000  -5.333888e+001  -2.913914e+000 
4093750000  -5.333800e+001  -1.835547e+001 
4096875000  -5.357290e+001  -3.414875e+001 
4100000000  -5.411623e+001  -5.344236e+001 
4103125000  -5.516732e+001  -4.518830e+001 
4106250000  -5.499137e+001  -6.136596e+001 
4109375000  -5.387559e+001  -6.406315e+001 
4112500000  -5.290672e+001  -8.415572e+001 
4115625000  -5.451205e+001  -9.143286e+001 
4118750000  -5.297647e+001  -1.017088e+002 
4121875000  -5.266481e+001  -1.098132e+002 
4125000000  -5.377056e+001  -1.178050e+002 
4128125000  -5.499506e+001  -1.262926e+002 
4131250000  -5.468874e+001  -1.286575e+002 
4134375000  -5.199298e+001  -1.435805e+002 
4137500000  -5.263411e+001  -1.646598e+002 
4140625000  -5.390486e+001  1.715033e+002 
4143750000  -5.536786e+001  -1.794241e+002 
4146875000  -5.317673e+001  1.702940e+002 
4150000000  -5.421930e+001  1.623633e+002 
4153125000  -5.314105e+001  1.409762e+002 
4156250000  -5.613003e+001  1.272080e+002 
4159375000  -5.558691e+001  1.286831e+002 
4162500000  -5.643458e+001  1.308553e+002 
4165625000  -5.435615e+001  1.212762e+002 
4168750000  -5.348783e+001  9.325049e+001 
4171875000  -5.445404e+001  7.945358e+001 
4175000000  -5.679145e+001  6.934452e+001 
4178125000  -5.682336e+001  7.704985e+001 
4181250000  -5.904619e+001  3.985085e+001 
4184375000  -5.954356e+001  4.607610e+001 
4187500000  -5.721109e+001  3.701543e+001 
4190625000  -6.114093e+001  2.685320e+001 
4193750000  -5.875369e+001  2.984591e+001 
4196875000  -6.004135e+001  1.031782e+001 
4200000000  -6.189614e+001  2.539642e+001 
4203125000  -6.157409e+001  -9.058976e+000 
4206250000  -5.962384e+001  2.039129e+001 
4209375000  -6.207958e+001  -4.712992e+000 
4212500000  -6.300378e+001  -5.637195e+000 
4215625000  -6.242744e+001  -2.902831e+001 
4218750000  -6.647079e+001  1.979206e+001 
4221875000  -5.895681e+001  -3.094053e+001 
4225000000  -6.105423e+001  1.192170e+001 
4228125000  -6.053619e+001  -3.951867e+001 
4231250000  -5.950940e+001  -2.021017e+001 
4234375000  -5.697952e+001  -4.074220e+001 
4237500000  -5.640540e+001  -3.619557e+001 
4240625000  -5.462580e+001  -4.390017e+001 
4243750000  -5.849191e+001  -9.065694e+001 
4246875000  -5.715469e+001  -7.530543e+001 
4250000000  -5.582642e+001  -7.862028e+001 
4253125000  -5.549578e+001  -8.837946e+001 
4256250000  -5.506406e+001  -1.025014e+002 
4259375000  -5.779089e+001  -1.000032e+002 
4262500000  -5.556699e+001  -1.237971e+002 
4265625000  -5.259745e+001  -1.259033e+002 
4268750000  -5.310664e+001  -1.369673e+002 
4271875000  -5.345724e+001  -1.525407e+002 
4275000000  -5.207045e+001  -1.785180e+002 
4278125000  -5.403798e+001  1.738265e+002 
4281250000  -5.446682e+001  1.699148e+002 
4284375000  -5.495155e+001  1.542648e+002 
4287500000  -5.497678e+001  1.529805e+002 
4290625000  -5.579410e+001  1.491084e+002 
4293750000  -5.454160e+001  1.441425e+002 
4296875000  -5.201365e+001  1.176580e+002 
4300000000  -5.337214e+001  1.078453e+002 
4303125000  -5.364733e+001  9.270625e+001 
4306250000  -5.361939e+001  9.780605e+001 
4309375000  -5.249833e+001  7.639928e+001 
4312500000  -5.278801e+001  6.701788e+001 
4315625000  -5.127132e+001  6.114864e+001 
4318750000  -5.351602e+001  4.153832e+001 
4321875000  -5.218863e+001  4.076627e+001 
4325000000  -5.344637e+001  2.854107e+001 
4328125000  -5.160574e+001  9.073658e+000 
4331250000  -5.265282e+001  -7.521524e+000 
4334375000  -5.530434e+001  -1.471611e+001 
4337500000  -5.587245e+001  -3.055943e+001 
4340625000  -5.519180e+001  -2.885764e+001 
4343750000  -5.762186e+001  -3.442917e+001 
4346875000  -5.611098e+001  -4.955579e+001 
4350000000  -5.531311e+001  -6.474289e+001 
4353125000  -5.623987e+001  -6.930193e+001 
4356250000  -5.781420e+001  -6.335178e+001 
4359375000  -5.886814e+001  -3.752117e+001 
4362500000  -5.546476e+001  -6.861043e+001 
4365625000  -5.587387e+001  -9.384205e+001 
4368750000  -5.620076e+001  -8.952804e+001 
4371875000  -5.705371e+001  -1.088614e+002 
4375000000  -5.737574e+001  -1.150261e+002 
4378125000  -5.673860e+001  -1.230041e+002 
4381250000  -5.687259e+001  -1.247616e+002 
4384375000  -5.613461e+001  -1.496853e+002 
4387500000  -5.771342e+001  -1.342258e+002 
4390625000  -5.701162e+001  -1.558636e+002 
4393750000  -5.897383e+001  -1.557702e+002 
4396875000  -5.614416e+001  -1.524123e+002 
4400000000  -5.631423e+001  -1.692797e+002 
4403125000  -5.734925e+001  1.752949e+002 
4406250000  -5.725284e+001  -1.744861e+002 
4409375000  -5.658136e+001  1.768116e+002 
4412500000  -5.586020e+001  1.549425e+002 
4415625000  -5.547340e+001  1.648710e+002 
4418750000  -5.492163e+001  1.567168e+002 
