!Agilent Technologies,E8363B,MY43030201,A.06.04.32
!Agilent E8363B: A.06.04.32
!Date: Tuesday, November 11, 2014 22:16:23
!Correction: S21(Response(S21)) 
!S1P File: Measurement: S21:
# Hz S  dB   R 50
3000000000  -4.888710e+001  -7.321052e+001 
3003125000  -5.166451e+001  -7.967085e+001 
3006250000  -5.164615e+001  -8.390340e+001 
3009375000  -5.280393e+001  -8.802014e+001 
3012500000  -5.115274e+001  -9.741040e+001 
3015625000  -5.135449e+001  -1.091257e+002 
3018750000  -5.141816e+001  -1.111786e+002 
3021875000  -4.995362e+001  -1.163274e+002 
3025000000  -4.841305e+001  -1.276367e+002 
3028125000  -4.846187e+001  -1.420564e+002 
3031250000  -4.699639e+001  -1.597112e+002 
3034375000  -4.721801e+001  -1.764613e+002 
3037500000  -4.735543e+001  1.673589e+002 
3040625000  -4.902797e+001  1.564014e+002 
3043750000  -4.968062e+001  1.417056e+002 
3046875000  -5.034363e+001  1.310617e+002 
3050000000  -5.179873e+001  1.245102e+002 
3053125000  -5.136401e+001  1.277700e+002 
3056250000  -5.136695e+001  1.216289e+002 
3059375000  -5.064481e+001  1.107818e+002 
3062500000  -4.984232e+001  1.040449e+002 
3065625000  -4.900212e+001  8.852773e+001 
3068750000  -4.901685e+001  7.671283e+001 
3071875000  -4.928758e+001  6.932571e+001 
3075000000  -4.803923e+001  5.782847e+001 
3078125000  -4.859655e+001  4.598536e+001 
3081250000  -4.883820e+001  3.508088e+001 
3084375000  -4.811126e+001  2.832071e+001 
3087500000  -4.800672e+001  1.494687e+001 
3090625000  -4.802269e+001  -3.509686e+000 
3093750000  -4.916223e+001  -1.640512e+001 
3096875000  -5.014745e+001  -2.346876e+001 
3100000000  -4.924256e+001  -3.191463e+001 
3103125000  -5.003402e+001  -3.461332e+001 
3106250000  -4.948475e+001  -4.732088e+001 
3109375000  -4.975893e+001  -5.974955e+001 
3112500000  -4.959357e+001  -6.883069e+001 
3115625000  -4.899223e+001  -7.580650e+001 
3118750000  -4.949854e+001  -8.570458e+001 
3121875000  -4.916427e+001  -1.016687e+002 
3125000000  -5.055163e+001  -1.083500e+002 
3128125000  -5.099784e+001  -1.032893e+002 
3131250000  -4.834082e+001  -1.134474e+002 
3134375000  -4.756980e+001  -1.379238e+002 
3137500000  -4.842543e+001  -1.542287e+002 
3140625000  -5.015351e+001  -1.598953e+002 
3143750000  -5.092353e+001  -1.685793e+002 
3146875000  -5.032157e+001  -1.665061e+002 
3150000000  -4.903423e+001  -1.794772e+002 
3153125000  -4.957676e+001  1.666414e+002 
3156250000  -5.021808e+001  1.635765e+002 
3159375000  -4.769783e+001  1.572909e+002 
3162500000  -4.653183e+001  1.404236e+002 
3165625000  -4.780373e+001  1.194368e+002 
3168750000  -4.761679e+001  1.188619e+002 
3171875000  -4.712025e+001  1.039238e+002 
3175000000  -4.781870e+001  9.016660e+001 
3178125000  -4.767962e+001  8.724528e+001 
3181250000  -4.706439e+001  7.103150e+001 
3184375000  -4.661623e+001  5.552414e+001 
3187500000  -4.777063e+001  3.879552e+001 
3190625000  -4.934988e+001  2.108254e+001 
3193750000  -4.993039e+001  2.269991e+001 
3196875000  -4.953929e+001  1.930164e+001 
3200000000  -4.827517e+001  1.053187e+001 
3203125000  -4.811957e+001  -2.354203e+000 
3206250000  -4.851141e+001  -1.712728e+001 
3209375000  -4.784708e+001  -2.648980e+001 
3212500000  -4.820370e+001  -3.776428e+001 
3215625000  -4.830082e+001  -4.582220e+001 
3218750000  -4.922725e+001  -6.142833e+001 
3221875000  -4.948775e+001  -7.575920e+001 
3225000000  -4.931621e+001  -8.395185e+001 
3228125000  -4.984504e+001  -9.029813e+001 
3231250000  -5.043310e+001  -1.023933e+002 
3234375000  -5.080513e+001  -1.048997e+002 
3237500000  -5.014107e+001  -1.203247e+002 
3240625000  -5.031835e+001  -1.260397e+002 
3243750000  -4.983706e+001  -1.443484e+002 
3246875000  -4.976318e+001  -1.528324e+002 
3250000000  -5.109640e+001  -1.650145e+002 
3253125000  -5.172650e+001  -1.712571e+002 
3256250000  -5.071771e+001  1.763415e+002 
3259375000  -5.171718e+001  1.602275e+002 
3262500000  -5.198505e+001  1.554895e+002 
3265625000  -5.347610e+001  1.437736e+002 
3268750000  -5.348932e+001  1.454635e+002 
3271875000  -5.290866e+001  1.333243e+002 
3275000000  -5.224517e+001  1.215249e+002 
3278125000  -5.298896e+001  1.103203e+002 
3281250000  -5.414363e+001  1.110873e+002 
3284375000  -5.194068e+001  8.972034e+001 
3287500000  -5.349691e+001  8.266138e+001 
3290625000  -5.241142e+001  7.091879e+001 
3293750000  -5.269385e+001  6.412862e+001 
3296875000  -5.365520e+001  5.115659e+001 
3300000000  -5.361453e+001  5.089751e+001 
3303125000  -5.249455e+001  4.592768e+001 
3306250000  -5.385192e+001  2.552885e+001 
3309375000  -5.288181e+001  1.586330e+001 
3312500000  -5.333165e+001  7.557194e-001 
3315625000  -5.440866e+001  -7.284280e+000 
3318750000  -5.584544e+001  -2.019096e+001 
3321875000  -5.776911e+001  -2.422948e+001 
3325000000  -5.567348e+001  -1.506534e+001 
3328125000  -5.747055e+001  -2.372700e+001 
3331250000  -5.428421e+001  -1.953433e+001 
3334375000  -5.236496e+001  -4.659798e+001 
3337500000  -5.242767e+001  -6.523090e+001 
3340625000  -5.423299e+001  -8.300477e+001 
3343750000  -5.517028e+001  -8.499678e+001 
3346875000  -5.542239e+001  -9.227309e+001 
3350000000  -5.471293e+001  -9.648186e+001 
3353125000  -5.481531e+001  -1.137552e+002 
3356250000  -5.509108e+001  -1.293604e+002 
3359375000  -5.426677e+001  -1.421950e+002 
3362500000  -5.793218e+001  -1.504280e+002 
3365625000  -5.591861e+001  -1.615253e+002 
3368750000  -5.721830e+001  -1.747164e+002 
3371875000  -5.642151e+001  -1.786190e+002 
3375000000  -5.784469e+001  1.764762e+002 
3378125000  -5.880758e+001  1.749965e+002 
3381250000  -5.855240e+001  1.696970e+002 
3384375000  -5.644056e+001  -1.770829e+002 
3387500000  -5.336369e+001  1.514684e+002 
3390625000  -5.704656e+001  1.354590e+002 
3393750000  -5.623285e+001  1.214740e+002 
3396875000  -5.741442e+001  1.274210e+002 
3400000000  -5.580482e+001  9.810033e+001 
3403125000  -5.762653e+001  7.998970e+001 
3406250000  -5.866160e+001  8.199469e+001 
3409375000  -5.631277e+001  5.660477e+001 
3412500000  -5.867724e+001  5.621742e+001 
3415625000  -6.090085e+001  4.892370e+001 
3418750000  -6.018838e+001  4.645966e+001 
3421875000  -6.073193e+001  2.845656e+001 
3425000000  -5.919255e+001  2.053575e+001 
3428125000  -5.996988e+001  1.036980e+001 
3431250000  -5.949748e+001  1.331692e+001 
3434375000  -5.955612e+001  -2.449764e+001 
3437500000  -6.192746e+001  -1.709610e+001 
3440625000  -5.952299e+001  -2.329828e+001 
3443750000  -6.170086e+001  -2.037805e+001 
3446875000  -6.031739e+001  -3.694315e+001 
3450000000  -6.178585e+001  -7.638907e+001 
3453125000  -6.535497e+001  -8.049928e+001 
3456250000  -6.817573e+001  -1.043006e+002 
3459375000  -6.535445e+001  -8.242317e+001 
3462500000  -6.825564e+001  -1.216189e+002 
3465625000  -6.638093e+001  -8.705353e+001 
3468750000  -6.710075e+001  -1.133062e+002 
3471875000  -6.413441e+001  -8.822800e+001 
3475000000  -6.405074e+001  -9.107556e+001 
3478125000  -6.777737e+001  -1.112523e+002 
3481250000  -8.052257e+001  -1.684132e+002 
3484375000  -6.946008e+001  -1.159502e+002 
3487500000  -6.634632e+001  -1.252367e+002 
3490625000  -6.860429e+001  -1.450799e+002 
3493750000  -6.885923e+001  -1.783757e+002 
3496875000  -6.518458e+001  -1.450642e+002 
3500000000  -6.395544e+001  -1.711242e+002 
3503125000  -7.227771e+001  -1.247187e+002 
3506250000  -6.352596e+001  -1.592096e+002 
3509375000  -6.978873e+001  1.473539e+002 
3512500000  -6.608891e+001  1.418990e+002 
3515625000  -6.856497e+001  1.469398e+002 
3518750000  -6.656616e+001  1.397330e+002 
3521875000  -7.063348e+001  1.305634e+002 
3525000000  -6.268533e+001  1.112327e+002 
3528125000  -6.827807e+001  1.044717e+002 
3531250000  -6.581951e+001  1.232649e+002 
3534375000  -6.632523e+001  9.293385e+001 
3537500000  -6.404358e+001  7.818625e+001 
3540625000  -7.090783e+001  7.124508e+001 
3543750000  -7.332350e+001  1.054999e+002 
3546875000  -7.447208e+001  6.815546e+001 
3550000000  -6.823426e+001  1.136472e+002 
3553125000  -7.326391e+001  1.165601e+002 
3556250000  -7.483273e+001  1.509281e+002 
3559375000  -6.889726e+001  4.481982e+001 
3562500000  -7.409990e+001  -1.773077e+002 
3565625000  -6.740898e+001  6.107614e+001 
3568750000  -7.241460e+001  -4.705147e+001 
3571875000  -7.673506e+001  8.503095e+001 
3575000000  -6.930051e+001  -1.261800e+002 
3578125000  -7.250002e+001  8.396009e+001 
3581250000  -7.271189e+001  3.855656e+001 
3584375000  -7.107550e+001  9.344133e+001 
3587500000  -7.474684e+001  2.376319e+001 
3590625000  -6.696285e+001  3.977663e+001 
3593750000  -7.090823e+001  -1.395122e+001 
3596875000  -6.663228e+001  2.685772e+001 
3600000000  -6.897704e+001  -1.502957e+001 
3603125000  -7.322594e+001  9.379355e+000 
3606250000  -6.199509e+001  -4.195907e+001 
3609375000  -6.563164e+001  -3.938338e+001 
3612500000  -6.463298e+001  -5.542628e+001 
3615625000  -6.457500e+001  -3.715197e+001 
3618750000  -6.608878e+001  -6.149965e+001 
3621875000  -6.221420e+001  -6.889011e+001 
3625000000  -6.510452e+001  -8.635331e+001 
3628125000  -6.708315e+001  -8.459238e+001 
3631250000  -6.385047e+001  -1.186113e+002 
3634375000  -6.626263e+001  -1.244867e+002 
3637500000  -6.477605e+001  -1.193223e+002 
3640625000  -6.168099e+001  -1.294784e+002 
3643750000  -6.145072e+001  -1.549995e+002 
3646875000  -6.197055e+001  -1.687128e+002 
3650000000  -6.485110e+001  -1.712437e+002 
3653125000  -6.284019e+001  1.628105e+002 
3656250000  -6.483396e+001  1.462191e+002 
3659375000  -6.603598e+001  1.613707e+002 
3662500000  -6.235770e+001  1.492297e+002 
3665625000  -6.466901e+001  1.683298e+002 
3668750000  -6.600023e+001  1.183399e+002 
3671875000  -6.209290e+001  1.414991e+002 
3675000000  -6.277020e+001  1.197365e+002 
3678125000  -6.423247e+001  1.084502e+002 
3681250000  -6.319218e+001  9.084110e+001 
3684375000  -7.011488e+001  1.270514e+002 
3687500000  -6.599509e+001  7.987579e+001 
3690625000  -6.663647e+001  9.139079e+001 
3693750000  -6.531313e+001  1.096527e+002 
3696875000  -7.074865e+001  8.164534e+001 
3700000000  -6.390392e+001  8.300359e+001 
3703125000  -6.506281e+001  4.402004e+001 
3706250000  -6.923869e+001  7.590833e+001 
3709375000  -6.372654e+001  3.959266e+001 
3712500000  -6.018855e+001  5.010271e+001 
3715625000  -6.340340e+001  3.778103e+001 
3718750000  -6.294021e+001  3.256821e+001 
3721875000  -6.078129e+001  1.517211e+001 
3725000000  -6.245941e+001  2.122465e+001 
3728125000  -6.026323e+001  5.637503e+000 
3731250000  -5.969036e+001  -6.281880e+000 
3734375000  -5.941242e+001  -1.748961e+001 
3737500000  -5.872980e+001  -2.277452e+001 
3740625000  -5.870146e+001  -3.401539e+001 
3743750000  -5.912529e+001  -6.867589e+001 
3746875000  -5.834026e+001  -5.764645e+001 
3750000000  -5.802170e+001  -8.405498e+001 
3753125000  -5.897491e+001  -7.083591e+001 
3756250000  -5.787477e+001  -9.793482e+001 
3759375000  -5.818238e+001  -1.022605e+002 
3762500000  -5.767397e+001  -1.104619e+002 
3765625000  -5.846999e+001  -1.272608e+002 
3768750000  -5.861869e+001  -1.375924e+002 
3771875000  -5.498341e+001  -1.429464e+002 
3775000000  -5.745194e+001  -1.686676e+002 
3778125000  -5.720899e+001  1.797442e+002 
3781250000  -5.572459e+001  1.760902e+002 
3784375000  -5.737114e+001  1.686222e+002 
3787500000  -5.743956e+001  1.661612e+002 
3790625000  -5.779679e+001  1.508881e+002 
3793750000  -5.792679e+001  1.313374e+002 
3796875000  -5.620664e+001  1.201946e+002 
3800000000  -5.322898e+001  8.279153e+001 
3803125000  -5.679420e+001  9.701361e+001 
3806250000  -6.202032e+001  7.448170e+001 
3809375000  -6.026391e+001  9.037376e+001 
3812500000  -5.821280e+001  5.700525e+001 
3815625000  -6.567989e+001  4.273848e+001 
3818750000  -6.253207e+001  3.074762e+001 
3821875000  -6.056689e+001  7.124139e+001 
3825000000  -6.098570e+001  4.607177e+001 
3828125000  -5.805410e+001  4.065224e+001 
3831250000  -6.074079e+001  1.230712e+001 
3834375000  -6.093892e+001  5.601947e+000 
3837500000  -6.220852e+001  5.364853e+000 
3840625000  -6.274408e+001  9.952836e+000 
3843750000  -6.027534e+001  6.868790e+000 
3846875000  -6.470328e+001  -3.686301e+001 
3850000000  -6.075592e+001  -6.276684e+000 
3853125000  -6.018229e+001  -1.672366e+001 
3856250000  -6.201231e+001  -7.680333e+000 
3859375000  -5.820226e+001  -3.057563e+001 
3862500000  -6.556808e+001  -4.077867e+001 
3865625000  -6.326831e+001  -6.194585e+001 
3868750000  -5.912099e+001  -4.376551e+001 
3871875000  -5.744621e+001  -5.772998e+001 
3875000000  -5.984190e+001  -6.998347e+001 
3878125000  -5.899207e+001  -8.924692e+001 
3881250000  -5.782719e+001  -8.437807e+001 
3884375000  -5.577100e+001  -9.617921e+001 
3887500000  -5.740510e+001  -1.149149e+002 
3890625000  -5.604318e+001  -1.187979e+002 
3893750000  -5.702727e+001  -1.290106e+002 
3896875000  -5.688954e+001  -1.281551e+002 
3900000000  -5.671379e+001  -1.476214e+002 
3903125000  -5.586015e+001  -1.520061e+002 
3906250000  -5.387405e+001  -1.662560e+002 
3909375000  -5.388388e+001  -1.780579e+002 
3912500000  -5.409737e+001  1.686335e+002 
3915625000  -5.556857e+001  1.669540e+002 
3918750000  -5.461120e+001  1.649939e+002 
3921875000  -5.500223e+001  1.356324e+002 
3925000000  -5.453906e+001  1.366521e+002 
3928125000  -5.328083e+001  1.150233e+002 
3931250000  -5.412609e+001  1.107690e+002 
3934375000  -5.525010e+001  9.002309e+001 
3937500000  -5.601112e+001  8.693433e+001 
3940625000  -5.456943e+001  8.154935e+001 
3943750000  -5.324279e+001  6.440108e+001 
3946875000  -5.324257e+001  5.709256e+001 
3950000000  -5.558863e+001  3.261958e+001 
3953125000  -5.466587e+001  3.397825e+001 
3956250000  -5.365211e+001  3.087669e+001 
3959375000  -5.133300e+001  1.497548e+001 
3962500000  -5.237397e+001  -6.427569e+000 
3965625000  -5.322541e+001  -2.404499e+001 
3968750000  -5.475545e+001  -2.814244e+001 
3971875000  -5.271159e+001  -3.711628e+001 
3975000000  -5.498765e+001  -4.845878e+001 
3978125000  -5.449699e+001  -4.882422e+001 
3981250000  -5.437503e+001  -7.888982e+001 
3984375000  -5.586191e+001  -8.463390e+001 
3987500000  -5.511219e+001  -8.991339e+001 
3990625000  -5.792463e+001  -9.945053e+001 
3993750000  -5.672911e+001  -1.138741e+002 
3996875000  -5.768577e+001  -1.252812e+002 
4000000000  -5.737106e+001  -1.237666e+002 
4003125000  -5.803300e+001  -1.269531e+002 
4006250000  -5.653093e+001  -1.443274e+002 
4009375000  -5.756142e+001  -1.537406e+002 
4012500000  -6.180127e+001  -1.659034e+002 
4015625000  -5.992445e+001  -1.707458e+002 
4018750000  -6.469505e+001  -1.547715e+002 
4021875000  -5.996285e+001  -1.789445e+002 
4025000000  -5.996257e+001  -1.692725e+002 
4028125000  -5.861307e+001  -1.795318e+002 
4031250000  -5.911948e+001  -1.793174e+002 
4034375000  -6.153739e+001  1.636655e+002 
4037500000  -5.809517e+001  1.550002e+002 
4040625000  -5.840684e+001  1.509821e+002 
4043750000  -5.795626e+001  1.472922e+002 
4046875000  -5.816286e+001  1.307788e+002 
4050000000  -5.698453e+001  1.266929e+002 
4053125000  -5.816172e+001  1.220280e+002 
4056250000  -5.818910e+001  1.150405e+002 
4059375000  -5.624854e+001  9.975726e+001 
4062500000  -5.406520e+001  9.848035e+001 
4065625000  -5.387788e+001  8.210635e+001 
4068750000  -5.281514e+001  7.283690e+001 
4071875000  -5.369499e+001  5.731130e+001 
4075000000  -5.217324e+001  4.399104e+001 
4078125000  -5.382563e+001  3.488285e+001 
4081250000  -5.271287e+001  2.993560e+001 
4084375000  -5.219484e+001  1.479472e+001 
4087500000  -5.386830e+001  3.358702e+000 
4090625000  -5.279670e+001  -6.488731e+000 
4093750000  -5.339243e+001  -1.226858e+001 
4096875000  -5.365287e+001  -3.271498e+001 
4100000000  -5.309404e+001  -5.185864e+001 
4103125000  -5.416350e+001  -4.754393e+001 
4106250000  -5.398540e+001  -5.500281e+001 
4109375000  -5.323612e+001  -6.399697e+001 
4112500000  -5.226332e+001  -7.556203e+001 
4115625000  -5.359750e+001  -8.852795e+001 
4118750000  -5.265228e+001  -1.012308e+002 
4121875000  -5.330293e+001  -1.086718e+002 
4125000000  -5.371558e+001  -1.204985e+002 
4128125000  -5.547266e+001  -1.352626e+002 
4131250000  -5.236604e+001  -1.303788e+002 
4134375000  -5.188523e+001  -1.474572e+002 
4137500000  -5.280163e+001  -1.714938e+002 
4140625000  -5.415235e+001  1.672412e+002 
4143750000  -5.617054e+001  1.771335e+002 
4146875000  -5.370694e+001  1.742605e+002 
4150000000  -5.428423e+001  1.570675e+002 
4153125000  -5.358324e+001  1.361394e+002 
4156250000  -5.584580e+001  1.268139e+002 
4159375000  -5.659246e+001  1.182885e+002 
4162500000  -5.712525e+001  1.133287e+002 
4165625000  -5.509968e+001  1.223339e+002 
4168750000  -5.492215e+001  9.471598e+001 
4171875000  -5.706380e+001  8.017900e+001 
4175000000  -5.576754e+001  5.845096e+001 
4178125000  -5.783270e+001  6.444236e+001 
4181250000  -5.828868e+001  3.453628e+001 
4184375000  -6.108292e+001  4.192793e+001 
4187500000  -5.989844e+001  3.033370e+001 
4190625000  -5.936766e+001  3.686444e+001 
4193750000  -5.826818e+001  1.466433e+001 
4196875000  -6.419103e+001  1.272296e+001 
4200000000  -6.332283e+001  -1.409407e+000 
4203125000  -6.574130e+001  4.208764e+001 
4206250000  -6.180739e+001  2.634980e+001 
4209375000  -5.870097e+001  -2.817437e+001 
4212500000  -6.486823e+001  -2.880742e+000 
4215625000  -6.603240e+001  -4.683426e-001 
4218750000  -5.857920e+001  2.344915e+001 
4221875000  -5.869910e+001  3.083670e+000 
4225000000  -5.976426e+001  3.546874e+000 
4228125000  -5.987112e+001  -3.493289e+001 
4231250000  -6.009204e+001  -9.542736e+000 
4234375000  -5.667537e+001  -2.866408e+001 
4237500000  -5.977919e+001  -4.161268e+001 
4240625000  -5.489773e+001  -5.423447e+001 
4243750000  -5.735334e+001  -6.995453e+001 
4246875000  -5.816330e+001  -5.857735e+001 
4250000000  -5.809494e+001  -8.258516e+001 
4253125000  -5.508097e+001  -8.546805e+001 
4256250000  -5.540783e+001  -9.962957e+001 
4259375000  -5.455565e+001  -1.056224e+002 
4262500000  -5.492660e+001  -1.158970e+002 
4265625000  -5.388676e+001  -1.253294e+002 
4268750000  -5.196489e+001  -1.427851e+002 
4271875000  -5.335902e+001  -1.468880e+002 
4275000000  -5.072783e+001  -1.708880e+002 
4278125000  -5.365262e+001  1.770042e+002 
4281250000  -5.458041e+001  1.666096e+002 
4284375000  -5.523461e+001  1.546051e+002 
4287500000  -5.519760e+001  1.364768e+002 
4290625000  -5.554787e+001  1.504494e+002 
4293750000  -5.267337e+001  1.474843e+002 
4296875000  -5.205276e+001  1.216214e+002 
4300000000  -5.342872e+001  1.105542e+002 
4303125000  -5.408258e+001  9.983038e+001 
4306250000  -5.269435e+001  9.535905e+001 
4309375000  -5.129619e+001  8.484206e+001 
4312500000  -5.209071e+001  6.789817e+001 
4315625000  -5.186774e+001  5.426533e+001 
4318750000  -5.310765e+001  4.590239e+001 
4321875000  -5.179497e+001  4.120974e+001 
4325000000  -5.256240e+001  3.314510e+001 
4328125000  -5.197496e+001  8.599978e+000 
4331250000  -5.365145e+001  -1.119388e+001 
4334375000  -5.358546e+001  -1.120818e+001 
4337500000  -5.424007e+001  -2.339422e+001 
4340625000  -5.531267e+001  -1.936598e+001 
4343750000  -5.576776e+001  -2.773998e+001 
4346875000  -5.448082e+001  -3.968156e+001 
4350000000  -5.716033e+001  -6.306883e+001 
4353125000  -5.443102e+001  -6.637453e+001 
4356250000  -5.773957e+001  -7.463013e+001 
4359375000  -6.232991e+001  -5.251376e+001 
4362500000  -5.581646e+001  -6.912051e+001 
4365625000  -5.673276e+001  -9.667542e+001 
4368750000  -5.511227e+001  -9.580499e+001 
4371875000  -5.787974e+001  -1.073396e+002 
4375000000  -5.637919e+001  -1.056685e+002 
4378125000  -5.625744e+001  -1.256140e+002 
4381250000  -5.734760e+001  -1.434786e+002 
4384375000  -5.635831e+001  -1.514901e+002 
4387500000  -5.935238e+001  -1.525254e+002 
4390625000  -5.664059e+001  -1.598387e+002 
4393750000  -5.817867e+001  -1.503486e+002 
4396875000  -5.706419e+001  -1.560910e+002 
4400000000  -5.644878e+001  -1.646079e+002 
4403125000  -5.590596e+001  1.783971e+002 
4406250000  -5.869806e+001  1.731081e+002 
4409375000  -5.482041e+001  1.698690e+002 
4412500000  -5.800433e+001  1.497021e+002 
4415625000  -5.522211e+001  1.677061e+002 
4418750000  -5.494894e+001  1.535880e+002 
