!Agilent Technologies,E8363B,MY43030201,A.06.04.32
!Agilent E8363B: A.06.04.32
!Date: Tuesday, November 11, 2014 22:12:59
!Correction: S21(Response(S21)) 
!S1P File: Measurement: S21:
# Hz S  dB   R 50
3000000000  -4.877051e+001  -7.554893e+001 
3003125000  -5.184452e+001  -8.171201e+001 
3006250000  -5.143017e+001  -8.627521e+001 
3009375000  -5.240664e+001  -8.537985e+001 
3012500000  -5.119238e+001  -1.011328e+002 
3015625000  -5.055124e+001  -1.060283e+002 
3018750000  -5.125341e+001  -1.139390e+002 
3021875000  -4.993834e+001  -1.177817e+002 
3025000000  -4.869046e+001  -1.292080e+002 
3028125000  -4.833319e+001  -1.449813e+002 
3031250000  -4.735249e+001  -1.602270e+002 
3034375000  -4.716651e+001  -1.793891e+002 
3037500000  -4.779309e+001  1.672668e+002 
3040625000  -4.917652e+001  1.513249e+002 
3043750000  -4.954045e+001  1.401387e+002 
3046875000  -5.029043e+001  1.336128e+002 
3050000000  -5.223300e+001  1.231262e+002 
3053125000  -5.128123e+001  1.220324e+002 
3056250000  -5.108886e+001  1.178820e+002 
3059375000  -5.103492e+001  1.101889e+002 
3062500000  -4.975343e+001  9.836657e+001 
3065625000  -4.938784e+001  8.530029e+001 
3068750000  -4.915992e+001  7.635786e+001 
3071875000  -4.896616e+001  6.526632e+001 
3075000000  -4.816070e+001  5.646622e+001 
3078125000  -4.826984e+001  4.521402e+001 
3081250000  -4.889413e+001  3.083348e+001 
3084375000  -4.877651e+001  2.832190e+001 
3087500000  -4.837424e+001  1.397087e+001 
3090625000  -4.777665e+001  -7.273833e+000 
3093750000  -4.927062e+001  -1.711437e+001 
3096875000  -4.982394e+001  -2.509828e+001 
3100000000  -4.930256e+001  -3.300691e+001 
3103125000  -4.947841e+001  -4.118315e+001 
3106250000  -4.877649e+001  -4.900162e+001 
3109375000  -4.964677e+001  -5.896238e+001 
3112500000  -4.949653e+001  -6.930730e+001 
3115625000  -4.967301e+001  -7.807841e+001 
3118750000  -4.999599e+001  -8.627811e+001 
3121875000  -4.926485e+001  -1.021821e+002 
3125000000  -5.103695e+001  -1.084036e+002 
3128125000  -5.083809e+001  -1.073233e+002 
3131250000  -4.819253e+001  -1.174074e+002 
3134375000  -4.780001e+001  -1.390964e+002 
3137500000  -4.871954e+001  -1.534975e+002 
3140625000  -4.995733e+001  -1.600276e+002 
3143750000  -4.995161e+001  -1.689724e+002 
3146875000  -5.061441e+001  -1.702347e+002 
3150000000  -4.867885e+001  1.762139e+002 
3153125000  -4.914252e+001  1.645799e+002 
3156250000  -5.040764e+001  1.691658e+002 
3159375000  -4.779532e+001  1.607428e+002 
3162500000  -4.620373e+001  1.346290e+002 
3165625000  -4.771207e+001  1.193919e+002 
3168750000  -4.815213e+001  1.161385e+002 
3171875000  -4.752911e+001  9.907618e+001 
3175000000  -4.747396e+001  8.797871e+001 
3178125000  -4.734933e+001  8.271343e+001 
3181250000  -4.667714e+001  6.936471e+001 
3184375000  -4.641667e+001  5.098346e+001 
3187500000  -4.756816e+001  3.151112e+001 
3190625000  -4.937213e+001  2.543624e+001 
3193750000  -5.035416e+001  1.905775e+001 
3196875000  -4.985933e+001  2.276482e+001 
3200000000  -4.827938e+001  1.078513e+001 
3203125000  -4.897709e+001  -4.617086e+000 
3206250000  -4.849905e+001  -1.636583e+001 
3209375000  -4.767727e+001  -3.028037e+001 
3212500000  -4.888694e+001  -4.535151e+001 
3215625000  -4.828879e+001  -4.843687e+001 
3218750000  -4.916345e+001  -6.434702e+001 
3221875000  -4.969881e+001  -7.310855e+001 
3225000000  -4.933518e+001  -8.582603e+001 
3228125000  -5.024392e+001  -9.239465e+001 
3231250000  -5.031075e+001  -1.025279e+002 
3234375000  -5.050420e+001  -1.077669e+002 
3237500000  -4.998691e+001  -1.210042e+002 
3240625000  -4.979559e+001  -1.295956e+002 
3243750000  -4.993448e+001  -1.460892e+002 
3246875000  -5.043232e+001  -1.565097e+002 
3250000000  -5.097107e+001  -1.647538e+002 
3253125000  -5.146849e+001  -1.693470e+002 
3256250000  -5.006203e+001  1.743173e+002 
3259375000  -5.086791e+001  1.575437e+002 
3262500000  -5.202452e+001  1.525078e+002 
3265625000  -5.293537e+001  1.462945e+002 
3268750000  -5.333939e+001  1.433839e+002 
3271875000  -5.237709e+001  1.362777e+002 
3275000000  -5.179303e+001  1.178975e+002 
3278125000  -5.186324e+001  1.077117e+002 
3281250000  -5.317481e+001  1.060023e+002 
3284375000  -5.173067e+001  8.828401e+001 
3287500000  -5.319222e+001  8.267291e+001 
3290625000  -5.276037e+001  6.808044e+001 
3293750000  -5.263942e+001  5.912743e+001 
3296875000  -5.459127e+001  5.685451e+001 
3300000000  -5.427315e+001  4.718037e+001 
3303125000  -5.334231e+001  3.758191e+001 
3306250000  -5.322717e+001  2.077652e+001 
3309375000  -5.269261e+001  1.513846e+001 
3312500000  -5.308533e+001  -8.295102e+000 
3315625000  -5.453244e+001  -8.675714e+000 
3318750000  -5.622293e+001  -1.959448e+001 
3321875000  -5.713925e+001  -2.821707e+001 
3325000000  -5.644271e+001  -3.006372e+001 
3328125000  -5.458954e+001  -2.486934e+001 
3331250000  -5.350246e+001  -3.141581e+001 
3334375000  -5.169614e+001  -5.248831e+001 
3337500000  -5.275259e+001  -7.789609e+001 
3340625000  -5.450054e+001  -8.907104e+001 
3343750000  -5.595597e+001  -8.048452e+001 
3346875000  -5.582325e+001  -9.886432e+001 
3350000000  -5.405528e+001  -9.765284e+001 
3353125000  -5.482497e+001  -1.156357e+002 
3356250000  -5.471545e+001  -1.324962e+002 
3359375000  -5.441967e+001  -1.432494e+002 
3362500000  -5.591732e+001  -1.411130e+002 
3365625000  -5.612682e+001  -1.630240e+002 
3368750000  -5.672709e+001  -1.716856e+002 
3371875000  -5.632515e+001  1.765413e+002 
3375000000  -5.853662e+001  1.696038e+002 
3378125000  -5.826685e+001  1.634591e+002 
3381250000  -6.034373e+001  1.643224e+002 
3384375000  -5.755040e+001  -1.728531e+002 
3387500000  -5.341355e+001  1.496456e+002 
3390625000  -5.692363e+001  1.285983e+002 
3393750000  -5.679168e+001  1.338662e+002 
3396875000  -5.730564e+001  1.152852e+002 
3400000000  -5.487171e+001  9.394981e+001 
3403125000  -5.691412e+001  8.549609e+001 
3406250000  -5.722257e+001  7.392807e+001 
3409375000  -5.815816e+001  5.866655e+001 
3412500000  -5.750528e+001  5.214193e+001 
3415625000  -6.064741e+001  4.282485e+001 
3418750000  -5.923412e+001  3.307565e+001 
3421875000  -5.967215e+001  2.459812e+001 
3425000000  -6.097356e+001  2.566982e+001 
3428125000  -6.056999e+001  1.919419e-001 
3431250000  -6.006718e+001  -1.037191e+001 
3434375000  -6.138346e+001  -1.128175e+001 
3437500000  -6.153038e+001  -3.144446e+001 
3440625000  -6.269314e+001  -1.278893e+001 
3443750000  -6.077617e+001  -2.668591e+001 
3446875000  -5.994854e+001  -4.136893e+001 
3450000000  -6.332558e+001  -7.410017e+001 
3453125000  -6.200060e+001  -7.845010e+001 
3456250000  -6.642568e+001  -1.143401e+002 
3459375000  -6.079620e+001  -7.336552e+001 
3462500000  -6.539184e+001  -9.068021e+001 
3465625000  -6.640572e+001  -1.208040e+002 
3468750000  -7.958007e+001  -1.199886e+002 
3471875000  -6.339700e+001  -8.865453e+001 
3475000000  -6.976360e+001  -1.254670e+002 
3478125000  -6.697681e+001  -1.193374e+002 
3481250000  -7.258150e+001  -1.557825e+002 
3484375000  -7.062008e+001  -1.253742e+002 
3487500000  -6.867561e+001  -1.342191e+002 
3490625000  -7.019040e+001  -1.276179e+002 
3493750000  -7.058179e+001  -1.243126e+002 
3496875000  -6.460995e+001  -1.617367e+002 
3500000000  -6.499170e+001  -1.626573e+002 
3503125000  -6.802626e+001  -1.540878e+002 
3506250000  -6.194623e+001  -1.738733e+002 
3509375000  -6.514505e+001  -1.656045e+002 
3512500000  -6.908256e+001  1.518026e+002 
3515625000  -6.733827e+001  1.535822e+002 
3518750000  -6.326331e+001  1.314255e+002 
3521875000  -6.670686e+001  1.639803e+002 
3525000000  -7.122183e+001  1.325645e+002 
3528125000  -6.819989e+001  1.208968e+002 
3531250000  -6.936869e+001  1.054379e+002 
3534375000  -6.780770e+001  1.082409e+002 
3537500000  -7.032626e+001  3.790871e+001 
3540625000  -6.875535e+001  5.419356e+001 
3543750000  -6.970019e+001  1.125197e+002 
3546875000  -7.077310e+001  3.637664e+001 
3550000000  -6.909849e+001  4.699454e+001 
3553125000  -7.707063e+001  9.457021e+001 
3556250000  -7.372737e+001  4.364092e+001 
3559375000  -6.664985e+001  2.700108e+001 
3562500000  -8.240275e+001  -7.138735e+001 
3565625000  -7.054876e+001  -5.421924e+001 
3568750000  -8.566845e+001  3.981118e+001 
3571875000  -6.952098e+001  1.197810e+001 
3575000000  -8.224809e+001  4.595223e+001 
3578125000  -7.291361e+001  5.089623e+001 
3581250000  -7.193304e+001  5.093266e+000 
3584375000  -7.349624e+001  1.267688e+002 
3587500000  -7.492590e+001  -2.170285e+001 
3590625000  -7.303478e+001  -2.156879e+000 
3593750000  -7.281507e+001  -1.004442e+001 
3596875000  -7.062135e+001  6.721911e+001 
3600000000  -6.944788e+001  -4.981133e+000 
3603125000  -6.977227e+001  3.744089e+001 
3606250000  -6.401340e+001  -3.452688e+001 
3609375000  -6.959344e+001  -4.767947e+001 
3612500000  -6.317859e+001  -6.592632e+001 
3615625000  -6.838069e+001  -3.283536e+001 
3618750000  -6.237881e+001  -6.381567e+001 
3621875000  -6.484941e+001  -8.440639e+001 
3625000000  -6.548772e+001  -6.339534e+001 
3628125000  -6.572945e+001  -1.116681e+002 
3631250000  -6.533411e+001  -1.208836e+002 
3634375000  -6.319532e+001  -1.203202e+002 
3637500000  -6.515636e+001  -1.174409e+002 
3640625000  -6.112583e+001  -1.382933e+002 
3643750000  -6.182035e+001  -1.293753e+002 
3646875000  -6.183565e+001  -1.556277e+002 
3650000000  -6.466253e+001  -1.634916e+002 
3653125000  -6.663260e+001  -1.680972e+002 
3656250000  -6.171542e+001  1.443752e+002 
3659375000  -6.282247e+001  1.543892e+002 
3662500000  -6.496237e+001  1.429245e+002 
3665625000  -6.255188e+001  1.724549e+002 
3668750000  -6.256041e+001  1.252408e+002 
3671875000  -6.294588e+001  1.073940e+002 
3675000000  -6.073168e+001  1.070659e+002 
3678125000  -6.180192e+001  1.180323e+002 
3681250000  -6.103235e+001  1.023367e+002 
3684375000  -6.489258e+001  1.107135e+002 
3687500000  -6.954256e+001  5.236839e+001 
3690625000  -7.447854e+001  6.858788e+001 
3693750000  -6.563622e+001  7.685394e+001 
3696875000  -6.596184e+001  5.962457e+001 
3700000000  -6.192928e+001  6.225999e+001 
3703125000  -7.091277e+001  2.548807e+001 
3706250000  -6.432829e+001  5.238966e+001 
3709375000  -6.535901e+001  3.836927e+001 
3712500000  -6.405757e+001  4.929036e+001 
3715625000  -6.568533e+001  7.411359e+001 
3718750000  -6.067938e+001  2.508253e+001 
3721875000  -5.960320e+001  1.609223e+001 
3725000000  -6.235815e+001  2.757865e+001 
3728125000  -5.953656e+001  3.636832e+000 
3731250000  -6.092370e+001  -2.199884e+001 
3734375000  -5.931382e+001  -3.148667e+001 
3737500000  -5.881569e+001  -3.599517e+001 
3740625000  -5.744158e+001  -3.311871e+001 
3743750000  -5.805899e+001  -5.924018e+001 
3746875000  -5.905419e+001  -5.078956e+001 
3750000000  -5.828244e+001  -8.314578e+001 
3753125000  -5.992293e+001  -8.192365e+001 
3756250000  -5.769138e+001  -1.024030e+002 
3759375000  -5.834457e+001  -1.090847e+002 
3762500000  -5.789282e+001  -1.132993e+002 
3765625000  -5.762587e+001  -1.138251e+002 
3768750000  -5.774627e+001  -1.358426e+002 
3771875000  -5.641960e+001  -1.492139e+002 
3775000000  -5.614671e+001  -1.685425e+002 
3778125000  -5.806315e+001  1.778214e+002 
3781250000  -5.796402e+001  1.680421e+002 
3784375000  -5.708056e+001  1.641372e+002 
3787500000  -5.601178e+001  1.526916e+002 
3790625000  -5.693565e+001  1.326196e+002 
3793750000  -5.674131e+001  1.328371e+002 
3796875000  -5.778316e+001  1.256260e+002 
3800000000  -5.282119e+001  8.157661e+001 
3803125000  -5.764966e+001  1.006846e+002 
3806250000  -5.964785e+001  8.053014e+001 
3809375000  -5.801892e+001  6.807640e+001 
3812500000  -5.610675e+001  6.369112e+001 
3815625000  -6.349277e+001  5.629215e+001 
3818750000  -6.034007e+001  3.877305e+001 
3821875000  -6.025644e+001  4.044290e+001 
3825000000  -5.966281e+001  5.783147e+001 
3828125000  -5.789323e+001  1.543077e+001 
3831250000  -5.906514e+001  3.618953e-001 
3834375000  -6.210034e+001  9.892451e+000 
3837500000  -6.168599e+001  3.554980e+001 
3840625000  -6.291606e+001  3.184383e+000 
3843750000  -5.879027e+001  1.203046e+001 
3846875000  -6.460088e+001  -2.066463e+001 
3850000000  -6.328587e+001  -7.094478e+000 
3853125000  -6.785960e+001  -5.828807e+000 
3856250000  -6.096533e+001  6.759303e+000 
3859375000  -5.955322e+001  -2.351236e+001 
3862500000  -6.138313e+001  -4.540741e+001 
3865625000  -5.910641e+001  -5.097572e+001 
3868750000  -6.023861e+001  -5.283617e+001 
3871875000  -5.660852e+001  -6.039719e+001 
3875000000  -5.887041e+001  -7.728211e+001 
3878125000  -5.640832e+001  -7.391102e+001 
3881250000  -5.721381e+001  -8.998895e+001 
3884375000  -5.726226e+001  -9.502010e+001 
3887500000  -5.726307e+001  -1.143197e+002 
3890625000  -5.747891e+001  -1.180232e+002 
3893750000  -5.635917e+001  -1.320931e+002 
3896875000  -5.687365e+001  -1.305167e+002 
3900000000  -5.541118e+001  -1.355616e+002 
3903125000  -5.487436e+001  -1.448652e+002 
3906250000  -5.522061e+001  -1.694608e+002 
3909375000  -5.339701e+001  1.730960e+002 
3912500000  -5.540520e+001  1.557766e+002 
3915625000  -5.657141e+001  1.569691e+002 
3918750000  -5.478905e+001  1.502278e+002 
3921875000  -5.399810e+001  1.430508e+002 
3925000000  -5.292564e+001  1.257728e+002 
3928125000  -5.358884e+001  1.148743e+002 
3931250000  -5.377928e+001  1.092646e+002 
3934375000  -5.447543e+001  9.145251e+001 
3937500000  -5.558479e+001  7.703620e+001 
3940625000  -5.355316e+001  7.140828e+001 
3943750000  -5.528464e+001  6.710764e+001 
3946875000  -5.355842e+001  5.141650e+001 
3950000000  -5.530848e+001  3.783823e+001 
3953125000  -5.456616e+001  3.045233e+001 
3956250000  -5.550219e+001  1.894232e+001 
3959375000  -5.332766e+001  1.592741e+001 
3962500000  -5.315609e+001  -7.162908e+000 
3965625000  -5.292681e+001  -2.654947e+001 
3968750000  -5.347932e+001  -3.001369e+001 
3971875000  -5.415160e+001  -4.088741e+001 
3975000000  -5.510836e+001  -4.971329e+001 
3978125000  -5.420896e+001  -5.746468e+001 
3981250000  -5.473247e+001  -7.536810e+001 
3984375000  -5.569072e+001  -8.012254e+001 
3987500000  -5.526748e+001  -9.015897e+001 
3990625000  -5.580994e+001  -1.028034e+002 
3993750000  -5.791811e+001  -1.242052e+002 
3996875000  -5.887256e+001  -1.215725e+002 
4000000000  -5.932145e+001  -1.205666e+002 
4003125000  -6.038268e+001  -1.248240e+002 
4006250000  -5.716247e+001  -1.382521e+002 
4009375000  -5.674826e+001  -1.531989e+002 
4012500000  -6.093928e+001  -1.717704e+002 
4015625000  -6.109715e+001  -1.641143e+002 
4018750000  -6.091035e+001  -1.718998e+002 
4021875000  -5.836169e+001  -1.681061e+002 
4025000000  -5.872622e+001  -1.798067e+002 
4028125000  -5.768081e+001  1.715851e+002 
4031250000  -6.079936e+001  1.489371e+002 
4034375000  -6.006830e+001  1.682032e+002 
4037500000  -5.701879e+001  1.584131e+002 
4040625000  -5.894112e+001  1.532371e+002 
4043750000  -5.708392e+001  1.376107e+002 
4046875000  -5.965389e+001  1.369087e+002 
4050000000  -5.760484e+001  1.304359e+002 
4053125000  -5.939691e+001  1.162526e+002 
4056250000  -5.643956e+001  1.270649e+002 
4059375000  -5.554087e+001  1.129486e+002 
4062500000  -5.557526e+001  9.513768e+001 
4065625000  -5.469910e+001  9.161168e+001 
4068750000  -5.458731e+001  6.903061e+001 
4071875000  -5.318306e+001  5.959615e+001 
4075000000  -5.308586e+001  3.570593e+001 
4078125000  -5.462136e+001  3.705795e+001 
4081250000  -5.284417e+001  2.478639e+001 
4084375000  -5.240399e+001  1.125339e+001 
4087500000  -5.432710e+001  -1.086963e+001 
4090625000  -5.314808e+001  1.294206e+000 
4093750000  -5.341770e+001  -1.206506e+001 
4096875000  -5.260637e+001  -3.257703e+001 
4100000000  -5.298529e+001  -4.974935e+001 
4103125000  -5.567801e+001  -4.311652e+001 
4106250000  -5.282037e+001  -4.593846e+001 
4109375000  -5.271312e+001  -6.237522e+001 
4112500000  -5.265676e+001  -8.394510e+001 
4115625000  -5.485828e+001  -9.294797e+001 
4118750000  -5.339093e+001  -1.024488e+002 
4121875000  -5.297126e+001  -1.216763e+002 
4125000000  -5.459717e+001  -1.236826e+002 
4128125000  -5.395153e+001  -1.272882e+002 
4131250000  -5.439447e+001  -1.281707e+002 
4134375000  -5.076314e+001  -1.538662e+002 
4137500000  -5.222367e+001  -1.715264e+002 
4140625000  -5.314334e+001  1.742716e+002 
4143750000  -5.666353e+001  1.768044e+002 
4146875000  -5.312127e+001  1.718702e+002 
4150000000  -5.500398e+001  1.604549e+002 
4153125000  -5.508360e+001  1.346977e+002 
4156250000  -5.534827e+001  1.326676e+002 
4159375000  -5.579926e+001  1.246916e+002 
4162500000  -5.635794e+001  1.177507e+002 
4165625000  -5.544843e+001  1.040958e+002 
4168750000  -5.350292e+001  9.526756e+001 
4171875000  -5.725345e+001  9.003224e+001 
4175000000  -5.454544e+001  6.359900e+001 
4178125000  -5.722059e+001  6.993932e+001 
4181250000  -5.815338e+001  4.725201e+001 
4184375000  -5.899937e+001  2.136876e+001 
4187500000  -5.763914e+001  2.701318e+001 
4190625000  -6.001794e+001  2.578505e+001 
4193750000  -6.165283e+001  1.507764e+001 
4196875000  -6.199928e+001  1.337982e+001 
4200000000  -6.514352e+001  1.776778e+001 
4203125000  -6.345132e+001  3.189479e+001 
4206250000  -6.132470e+001  1.759532e+001 
4209375000  -6.139996e+001  -3.346700e+001 
4212500000  -6.256721e+001  -7.079024e-001 
4215625000  -6.578532e+001  -2.671418e+001 
4218750000  -6.341954e+001  2.985773e+001 
4221875000  -6.187913e+001  2.002898e+000 
4225000000  -5.992023e+001  2.205057e+001 
4228125000  -5.921182e+001  -4.472882e+001 
4231250000  -5.936886e+001  -2.768778e+001 
4234375000  -5.862927e+001  -4.252719e+001 
4237500000  -5.715104e+001  -3.659725e+001 
4240625000  -5.597344e+001  -5.559094e+001 
4243750000  -5.703378e+001  -5.992949e+001 
4246875000  -5.631702e+001  -6.779975e+001 
4250000000  -5.667892e+001  -8.255576e+001 
4253125000  -5.509218e+001  -8.410328e+001 
4256250000  -5.541237e+001  -1.055850e+002 
4259375000  -5.438549e+001  -1.101951e+002 
4262500000  -5.494412e+001  -1.206229e+002 
4265625000  -5.364961e+001  -1.220980e+002 
4268750000  -5.138158e+001  -1.403053e+002 
4271875000  -5.180374e+001  -1.556734e+002 
4275000000  -5.025603e+001  -1.704665e+002 
4278125000  -5.493232e+001  1.781390e+002 
4281250000  -5.425743e+001  1.657137e+002 
4284375000  -5.342145e+001  1.508171e+002 
4287500000  -5.350361e+001  1.458043e+002 
4290625000  -5.374759e+001  1.526782e+002 
4293750000  -5.230287e+001  1.387789e+002 
4296875000  -5.096209e+001  1.214795e+002 
4300000000  -5.204169e+001  1.100222e+002 
4303125000  -5.267614e+001  9.745640e+001 
4306250000  -5.235610e+001  9.489019e+001 
4309375000  -5.078559e+001  8.209851e+001 
4312500000  -5.232064e+001  7.487920e+001 
4315625000  -5.294466e+001  4.385295e+001 
4318750000  -5.184425e+001  3.751993e+001 
4321875000  -5.302685e+001  3.411624e+001 
4325000000  -5.244755e+001  2.590961e+001 
4328125000  -5.179154e+001  1.228587e+001 
4331250000  -5.285435e+001  -1.416303e+000 
4334375000  -5.543909e+001  -1.157549e+001 
4337500000  -5.368011e+001  -3.194082e+001 
4340625000  -5.486985e+001  -1.899044e+001 
4343750000  -5.528437e+001  -3.643947e+001 
4346875000  -5.554854e+001  -4.366881e+001 
4350000000  -5.514077e+001  -6.335865e+001 
4353125000  -5.768609e+001  -6.826943e+001 
4356250000  -6.025389e+001  -6.433595e+001 
4359375000  -6.109190e+001  -5.530399e+001 
4362500000  -5.568692e+001  -7.965453e+001 
4365625000  -5.318530e+001  -9.558760e+001 
4368750000  -5.535033e+001  -9.992572e+001 
4371875000  -5.833119e+001  -1.148636e+002 
4375000000  -5.560334e+001  -1.090774e+002 
4378125000  -5.673188e+001  -1.346592e+002 
4381250000  -5.741537e+001  -1.274859e+002 
4384375000  -5.632628e+001  -1.540954e+002 
4387500000  -5.794889e+001  -1.637089e+002 
4390625000  -5.881015e+001  -1.537047e+002 
4393750000  -5.906094e+001  -1.509799e+002 
4396875000  -5.549519e+001  -1.573717e+002 
4400000000  -5.576969e+001  -1.631202e+002 
4403125000  -5.628930e+001  1.735804e+002 
4406250000  -5.666323e+001  1.588644e+002 
4409375000  -5.497622e+001  1.601095e+002 
4412500000  -5.871967e+001  1.671401e+002 
4415625000  -5.545891e+001  1.572130e+002 
4418750000  -5.370984e+001  1.564489e+002 
