!Agilent Technologies,E8363B,MY43030201,A.06.04.32
!Agilent E8363B: A.06.04.32
!Date: Tuesday, November 11, 2014 22:14:28
!Correction: S21(Response(S21)) 
!S1P File: Measurement: S21:
# Hz S  dB   R 50
3000000000  -4.893525e+001  -7.366868e+001 
3003125000  -5.187194e+001  -8.092958e+001 
3006250000  -5.165793e+001  -8.780087e+001 
3009375000  -5.226909e+001  -8.851116e+001 
3012500000  -5.075284e+001  -9.923757e+001 
3015625000  -5.141718e+001  -1.074255e+002 
3018750000  -5.210512e+001  -1.155303e+002 
3021875000  -4.971568e+001  -1.152563e+002 
3025000000  -4.840979e+001  -1.284815e+002 
3028125000  -4.826879e+001  -1.450922e+002 
3031250000  -4.720665e+001  -1.634489e+002 
3034375000  -4.733625e+001  -1.789814e+002 
3037500000  -4.757187e+001  1.660408e+002 
3040625000  -4.946116e+001  1.550978e+002 
3043750000  -4.965908e+001  1.410345e+002 
3046875000  -5.065210e+001  1.297223e+002 
3050000000  -5.110504e+001  1.280930e+002 
3053125000  -5.134128e+001  1.183545e+002 
3056250000  -5.171170e+001  1.193433e+002 
3059375000  -5.040303e+001  1.106784e+002 
3062500000  -4.941482e+001  1.013946e+002 
3065625000  -4.893247e+001  8.956298e+001 
3068750000  -4.914747e+001  7.973225e+001 
3071875000  -4.931482e+001  6.917818e+001 
3075000000  -4.812932e+001  5.291646e+001 
3078125000  -4.868051e+001  4.550809e+001 
3081250000  -4.861419e+001  3.369883e+001 
3084375000  -4.834928e+001  2.396969e+001 
3087500000  -4.829352e+001  1.077206e+001 
3090625000  -4.793735e+001  -4.263014e+000 
3093750000  -4.883850e+001  -1.581308e+001 
3096875000  -4.959546e+001  -2.478421e+001 
3100000000  -4.911257e+001  -3.312493e+001 
3103125000  -4.959029e+001  -4.056281e+001 
3106250000  -4.952247e+001  -4.914627e+001 
3109375000  -4.965884e+001  -6.078616e+001 
3112500000  -4.890450e+001  -6.651239e+001 
3115625000  -4.923177e+001  -7.587988e+001 
3118750000  -4.902218e+001  -8.480891e+001 
3121875000  -4.888753e+001  -1.008426e+002 
3125000000  -5.113721e+001  -1.110581e+002 
3128125000  -5.108537e+001  -1.066956e+002 
3131250000  -4.861676e+001  -1.136298e+002 
3134375000  -4.727642e+001  -1.375395e+002 
3137500000  -4.892349e+001  -1.536178e+002 
3140625000  -4.950817e+001  -1.600307e+002 
3143750000  -5.032958e+001  -1.693946e+002 
3146875000  -4.964020e+001  -1.720403e+002 
3150000000  -4.919213e+001  1.770420e+002 
3153125000  -4.962358e+001  1.683345e+002 
3156250000  -5.039665e+001  1.656187e+002 
3159375000  -4.805560e+001  1.574513e+002 
3162500000  -4.629641e+001  1.394489e+002 
3165625000  -4.775256e+001  1.216721e+002 
3168750000  -4.784986e+001  1.179382e+002 
3171875000  -4.666449e+001  1.048700e+002 
3175000000  -4.767242e+001  8.910234e+001 
3178125000  -4.738143e+001  8.439866e+001 
3181250000  -4.644081e+001  6.852426e+001 
3184375000  -4.675248e+001  5.331929e+001 
3187500000  -4.715860e+001  3.677511e+001 
3190625000  -4.940111e+001  2.439263e+001 
3193750000  -4.985683e+001  2.277287e+001 
3196875000  -4.994922e+001  1.909120e+001 
3200000000  -4.829733e+001  8.221781e+000 
3203125000  -4.847862e+001  -1.486186e+000 
3206250000  -4.860192e+001  -1.502839e+001 
3209375000  -4.800543e+001  -3.183275e+001 
3212500000  -4.867140e+001  -4.110678e+001 
3215625000  -4.844400e+001  -4.535779e+001 
3218750000  -4.929307e+001  -6.287723e+001 
3221875000  -4.934176e+001  -7.577340e+001 
3225000000  -4.966635e+001  -8.418306e+001 
3228125000  -5.039022e+001  -9.118898e+001 
3231250000  -5.071362e+001  -1.031482e+002 
3234375000  -5.020417e+001  -1.097555e+002 
3237500000  -5.068919e+001  -1.185583e+002 
3240625000  -5.021584e+001  -1.263399e+002 
3243750000  -4.995406e+001  -1.447108e+002 
3246875000  -4.964547e+001  -1.577615e+002 
3250000000  -5.095930e+001  -1.659778e+002 
3253125000  -5.137168e+001  -1.656937e+002 
3256250000  -5.025040e+001  1.711290e+002 
3259375000  -5.186392e+001  1.603577e+002 
3262500000  -5.172091e+001  1.502696e+002 
3265625000  -5.288263e+001  1.467285e+002 
3268750000  -5.311765e+001  1.428052e+002 
3271875000  -5.223118e+001  1.348778e+002 
3275000000  -5.208587e+001  1.237838e+002 
3278125000  -5.276519e+001  1.087047e+002 
3281250000  -5.358468e+001  1.122025e+002 
3284375000  -5.211304e+001  9.020353e+001 
3287500000  -5.354454e+001  8.203992e+001 
3290625000  -5.325132e+001  7.381116e+001 
3293750000  -5.273785e+001  6.225383e+001 
3296875000  -5.469600e+001  5.917650e+001 
3300000000  -5.449434e+001  5.071945e+001 
3303125000  -5.301664e+001  4.380318e+001 
3306250000  -5.333154e+001  2.307407e+001 
3309375000  -5.323117e+001  1.742308e+001 
3312500000  -5.362072e+001  3.115019e-002 
3315625000  -5.364882e+001  -1.007346e+001 
3318750000  -5.635061e+001  -1.008369e+001 
3321875000  -5.891338e+001  -2.483480e+001 
3325000000  -5.643967e+001  -1.573557e+001 
3328125000  -5.563305e+001  -2.156800e+001 
3331250000  -5.456252e+001  -2.270767e+001 
3334375000  -5.170934e+001  -4.452149e+001 
3337500000  -5.269153e+001  -6.912601e+001 
3340625000  -5.434361e+001  -8.462881e+001 
3343750000  -5.559145e+001  -8.185833e+001 
3346875000  -5.426445e+001  -9.523459e+001 
3350000000  -5.425902e+001  -1.004311e+002 
3353125000  -5.507924e+001  -1.138910e+002 
3356250000  -5.547678e+001  -1.311430e+002 
3359375000  -5.514571e+001  -1.512269e+002 
3362500000  -5.544164e+001  -1.468382e+002 
3365625000  -5.572458e+001  -1.581903e+002 
3368750000  -5.715205e+001  -1.682379e+002 
3371875000  -5.601002e+001  1.778883e+002 
3375000000  -5.900541e+001  1.648006e+002 
3378125000  -5.815281e+001  1.646130e+002 
3381250000  -5.947015e+001  1.655266e+002 
3384375000  -5.637564e+001  -1.792427e+002 
3387500000  -5.411012e+001  1.560459e+002 
3390625000  -5.634126e+001  1.329677e+002 
3393750000  -5.615791e+001  1.172208e+002 
3396875000  -5.750304e+001  1.148793e+002 
3400000000  -5.581913e+001  9.815401e+001 
3403125000  -5.804715e+001  7.987090e+001 
3406250000  -5.699937e+001  7.744852e+001 
3409375000  -5.786546e+001  5.734858e+001 
3412500000  -5.704241e+001  4.467778e+001 
3415625000  -5.982125e+001  4.058612e+001 
3418750000  -5.883726e+001  4.423812e+001 
3421875000  -6.080662e+001  3.571453e+001 
3425000000  -5.987280e+001  3.483226e+001 
3428125000  -6.019260e+001  1.172276e+001 
3431250000  -6.067077e+001  -4.082964e+000 
3434375000  -6.000117e+001  -2.017574e+001 
3437500000  -6.111770e+001  -3.163126e+001 
3440625000  -6.083364e+001  -2.399224e+001 
3443750000  -6.220965e+001  -2.430795e+001 
3446875000  -5.901794e+001  -5.248186e+001 
3450000000  -6.280157e+001  -8.478233e+001 
3453125000  -6.184781e+001  -7.993236e+001 
3456250000  -6.441271e+001  -7.275083e+001 
3459375000  -6.598019e+001  -7.434517e+001 
3462500000  -6.641792e+001  -9.923287e+001 
3465625000  -6.791668e+001  -1.311286e+002 
3468750000  -6.946749e+001  -1.343572e+002 
3471875000  -6.325256e+001  -8.523225e+001 
3475000000  -6.413889e+001  -1.091546e+002 
3478125000  -6.695135e+001  -1.323657e+002 
3481250000  -7.006313e+001  -1.505045e+002 
3484375000  -6.791206e+001  -1.391386e+002 
3487500000  -6.654172e+001  -1.526779e+002 
3490625000  -6.826027e+001  -1.527925e+002 
3493750000  -6.786230e+001  -1.551204e+002 
3496875000  -6.784807e+001  -1.673176e+002 
3500000000  -6.869216e+001  1.743012e+002 
3503125000  -6.560455e+001  -1.259151e+002 
3506250000  -6.985527e+001  -1.699243e+002 
3509375000  -6.675121e+001  1.717147e+002 
3512500000  -6.569043e+001  1.641070e+002 
3515625000  -6.629179e+001  1.472143e+002 
3518750000  -6.639576e+001  1.362890e+002 
3521875000  -7.018862e+001  9.592822e+001 
3525000000  -6.950283e+001  1.440445e+002 
3528125000  -7.055867e+001  9.950171e+001 
3531250000  -6.977453e+001  1.428875e+002 
3534375000  -6.624798e+001  9.541800e+001 
3537500000  -6.283437e+001  7.293018e+001 
3540625000  -7.056461e+001  3.831241e+001 
3543750000  -7.201294e+001  7.799482e+001 
3546875000  -7.206474e+001  4.721268e+001 
3550000000  -6.893906e+001  8.917984e+001 
3553125000  -8.076907e+001  1.588277e+002 
3556250000  -7.372091e+001  5.190250e+001 
3559375000  -7.042307e+001  1.888803e+001 
3562500000  -7.615849e+001  -5.026200e+000 
3565625000  -6.920459e+001  -1.414082e+001 
3568750000  -8.757111e+001  -1.639637e+002 
3571875000  -8.193661e+001  7.805278e+001 
3575000000  -7.897787e+001  1.630000e+002 
3578125000  -6.747193e+001  4.795961e+001 
3581250000  -8.401694e+001  -2.081386e-001 
3584375000  -7.352599e+001  1.275564e+002 
3587500000  -7.494220e+001  2.896023e+001 
3590625000  -6.660515e+001  5.542850e+001 
3593750000  -7.147808e+001  7.059340e+000 
3596875000  -6.664332e+001  4.343256e+001 
3600000000  -6.850011e+001  -1.465686e+001 
3603125000  -6.861883e+001  -1.108643e+001 
3606250000  -6.806416e+001  -5.586447e+001 
3609375000  -6.534082e+001  -5.394004e+001 
3612500000  -6.280048e+001  -4.490892e+001 
3615625000  -6.782322e+001  -7.762156e+001 
3618750000  -6.545260e+001  -4.764915e+001 
3621875000  -6.331995e+001  -1.046981e+002 
3625000000  -6.837205e+001  -6.450806e+001 
3628125000  -6.501952e+001  -9.347979e+001 
3631250000  -6.264973e+001  -1.099519e+002 
3634375000  -6.309484e+001  -1.246933e+002 
3637500000  -6.263346e+001  -1.108589e+002 
3640625000  -6.342123e+001  -1.531083e+002 
3643750000  -6.455846e+001  -1.476029e+002 
3646875000  -6.175146e+001  -1.582248e+002 
3650000000  -6.304229e+001  -1.656720e+002 
3653125000  -6.282523e+001  1.690347e+002 
3656250000  -6.480729e+001  1.663361e+002 
3659375000  -6.316515e+001  1.619982e+002 
3662500000  -6.373532e+001  1.546378e+002 
3665625000  -6.166758e+001  -1.792728e+002 
3668750000  -6.327861e+001  1.151183e+002 
3671875000  -6.409853e+001  1.237336e+002 
3675000000  -6.373085e+001  1.039648e+002 
3678125000  -6.638751e+001  1.001829e+002 
3681250000  -6.615697e+001  1.130110e+002 
3684375000  -6.604939e+001  1.067736e+002 
3687500000  -6.545636e+001  6.515699e+001 
3690625000  -6.796134e+001  6.950981e+001 
3693750000  -6.530424e+001  8.432797e+001 
3696875000  -6.706111e+001  4.889788e+001 
3700000000  -6.585402e+001  5.607302e+001 
3703125000  -6.474931e+001  3.506855e+001 
3706250000  -6.688499e+001  5.836361e+001 
3709375000  -6.658624e+001  4.672800e+001 
3712500000  -6.216879e+001  7.268203e+001 
3715625000  -6.455089e+001  5.903100e+001 
3718750000  -6.244924e+001  4.019139e+001 
3721875000  -6.099374e+001  1.821866e+001 
3725000000  -6.059288e+001  2.516201e+001 
3728125000  -5.899712e+001  2.565612e+000 
3731250000  -6.099451e+001  -1.516584e+001 
3734375000  -5.963565e+001  -1.595623e+001 
3737500000  -5.798169e+001  -3.263662e+001 
3740625000  -5.928931e+001  -2.635774e+001 
3743750000  -5.850694e+001  -5.679518e+001 
3746875000  -5.913110e+001  -6.955315e+001 
3750000000  -5.723151e+001  -7.608989e+001 
3753125000  -5.941117e+001  -7.292188e+001 
3756250000  -5.965338e+001  -1.117262e+002 
3759375000  -5.818660e+001  -1.061913e+002 
3762500000  -5.619337e+001  -1.139100e+002 
3765625000  -5.798466e+001  -1.303908e+002 
3768750000  -5.652460e+001  -1.321265e+002 
3771875000  -5.611804e+001  -1.457932e+002 
3775000000  -5.651038e+001  -1.565668e+002 
3778125000  -5.772113e+001  1.767971e+002 
3781250000  -5.674961e+001  1.732577e+002 
3784375000  -5.716486e+001  1.604135e+002 
3787500000  -5.698126e+001  1.595538e+002 
3790625000  -6.029227e+001  1.495318e+002 
3793750000  -5.780506e+001  1.295074e+002 
3796875000  -5.591499e+001  1.265689e+002 
3800000000  -5.321177e+001  8.546449e+001 
3803125000  -5.835872e+001  9.353341e+001 
3806250000  -5.966441e+001  8.897256e+001 
3809375000  -5.754099e+001  7.886389e+001 
3812500000  -5.778363e+001  7.653973e+001 
3815625000  -6.179531e+001  3.737333e+001 
3818750000  -6.297438e+001  3.210806e+001 
3821875000  -6.198830e+001  6.430662e+001 
3825000000  -5.810807e+001  3.997296e+001 
3828125000  -5.899142e+001  2.687885e+001 
3831250000  -6.043418e+001  2.115813e+001 
3834375000  -6.702968e+001  -1.898786e+001 
3837500000  -6.162622e+001  4.762447e+000 
3840625000  -6.105532e+001  2.256717e+001 
3843750000  -6.002927e+001  7.118879e+000 
3846875000  -6.078390e+001  -1.667681e+001 
3850000000  -6.158979e+001  -1.575823e+001 
3853125000  -6.312332e+001  -1.787349e+000 
3856250000  -5.930811e+001  -9.458566e+000 
3859375000  -5.890482e+001  -2.213819e+001 
3862500000  -5.805247e+001  -2.678724e+001 
3865625000  -6.133313e+001  -5.270759e+001 
3868750000  -5.803823e+001  -3.864484e+001 
3871875000  -5.726873e+001  -5.538002e+001 
3875000000  -5.912167e+001  -7.504977e+001 
3878125000  -5.787367e+001  -8.441682e+001 
3881250000  -5.692684e+001  -9.331796e+001 
3884375000  -5.590145e+001  -9.977129e+001 
3887500000  -5.614473e+001  -1.034809e+002 
3890625000  -5.875011e+001  -1.082373e+002 
3893750000  -5.617646e+001  -1.309061e+002 
3896875000  -5.686958e+001  -1.267029e+002 
3900000000  -5.626635e+001  -1.453153e+002 
3903125000  -5.435073e+001  -1.578970e+002 
3906250000  -5.380091e+001  -1.624205e+002 
3909375000  -5.488464e+001  -1.766105e+002 
3912500000  -5.416335e+001  1.646902e+002 
3915625000  -5.493937e+001  1.679707e+002 
3918750000  -5.478125e+001  1.616326e+002 
3921875000  -5.493703e+001  1.406040e+002 
3925000000  -5.329076e+001  1.259710e+002 
3928125000  -5.255900e+001  1.054668e+002 
3931250000  -5.315173e+001  1.070594e+002 
3934375000  -5.420026e+001  9.533263e+001 
3937500000  -5.549394e+001  8.529502e+001 
3940625000  -5.473128e+001  7.447546e+001 
3943750000  -5.371795e+001  6.115803e+001 
3946875000  -5.436168e+001  5.481702e+001 
3950000000  -5.424520e+001  3.677710e+001 
3953125000  -5.719266e+001  2.733294e+001 
3956250000  -5.527472e+001  1.930826e+001 
3959375000  -5.325714e+001  1.010781e+001 
3962500000  -5.198730e+001  -8.301821e+000 
3965625000  -5.298986e+001  -2.010104e+001 
3968750000  -5.464283e+001  -4.062821e+001 
3971875000  -5.453280e+001  -4.041986e+001 
3975000000  -5.321005e+001  -5.566412e+001 
3978125000  -5.451675e+001  -5.883478e+001 
3981250000  -5.374558e+001  -7.467088e+001 
3984375000  -5.531152e+001  -9.015550e+001 
3987500000  -5.459354e+001  -9.749702e+001 
3990625000  -5.874974e+001  -9.031409e+001 
3993750000  -5.695145e+001  -1.145025e+002 
3996875000  -5.820333e+001  -1.200057e+002 
4000000000  -5.883402e+001  -1.320493e+002 
4003125000  -5.894871e+001  -1.285751e+002 
4006250000  -5.710310e+001  -1.231822e+002 
4009375000  -5.721197e+001  -1.501313e+002 
4012500000  -5.942038e+001  -1.671674e+002 
4015625000  -5.904364e+001  -1.635933e+002 
4018750000  -5.989117e+001  -1.632565e+002 
4021875000  -5.946887e+001  -1.655712e+002 
4025000000  -6.037001e+001  1.769879e+002 
4028125000  -6.001093e+001  1.787810e+002 
4031250000  -5.813717e+001  1.681570e+002 
4034375000  -5.923953e+001  1.757326e+002 
4037500000  -5.777399e+001  1.508676e+002 
4040625000  -6.118907e+001  1.418222e+002 
4043750000  -5.802320e+001  1.451579e+002 
4046875000  -5.666440e+001  1.250335e+002 
4050000000  -5.759708e+001  1.192192e+002 
4053125000  -5.687799e+001  1.205222e+002 
4056250000  -5.715007e+001  1.238542e+002 
4059375000  -5.775398e+001  1.190347e+002 
4062500000  -5.491894e+001  1.066400e+002 
4065625000  -5.350033e+001  8.980170e+001 
4068750000  -5.452869e+001  7.122054e+001 
4071875000  -5.301442e+001  6.159949e+001 
4075000000  -5.340577e+001  4.786787e+001 
4078125000  -5.359467e+001  4.543424e+001 
4081250000  -5.347324e+001  2.675191e+001 
4084375000  -5.236908e+001  6.622071e+000 
4087500000  -5.362802e+001  -6.082646e+000 
4090625000  -5.339295e+001  -7.967529e+000 
4093750000  -5.420158e+001  -1.677707e+001 
4096875000  -5.354221e+001  -2.973813e+001 
4100000000  -5.426226e+001  -4.388045e+001 
4103125000  -5.540379e+001  -3.497464e+001 
4106250000  -5.401530e+001  -5.713695e+001 
4109375000  -5.348981e+001  -6.320334e+001 
4112500000  -5.283485e+001  -7.465858e+001 
4115625000  -5.406546e+001  -8.646420e+001 
4118750000  -5.367268e+001  -9.491291e+001 
4121875000  -5.302069e+001  -1.170968e+002 
4125000000  -5.315349e+001  -1.197717e+002 
4128125000  -5.421203e+001  -1.309176e+002 
4131250000  -5.381512e+001  -1.269478e+002 
4134375000  -5.126967e+001  -1.486347e+002 
4137500000  -5.313404e+001  -1.691172e+002 
4140625000  -5.359143e+001  1.685303e+002 
4143750000  -5.486054e+001  1.782252e+002 
4146875000  -5.334455e+001  1.746455e+002 
4150000000  -5.406690e+001  1.617614e+002 
4153125000  -5.409403e+001  1.447332e+002 
4156250000  -5.546793e+001  1.282864e+002 
4159375000  -5.736039e+001  1.284926e+002 
4162500000  -5.640749e+001  1.117578e+002 
4165625000  -5.607812e+001  1.083168e+002 
4168750000  -5.595583e+001  7.700697e+001 
4171875000  -5.539746e+001  8.259554e+001 
4175000000  -5.543964e+001  6.052447e+001 
4178125000  -5.914312e+001  7.477927e+001 
4181250000  -5.707952e+001  5.053354e+001 
4184375000  -5.936384e+001  2.748826e+001 
4187500000  -5.784005e+001  3.585188e+001 
4190625000  -6.120042e+001  2.948092e+001 
4193750000  -6.036594e+001  1.387760e+001 
4196875000  -6.213060e+001  1.228399e+001 
4200000000  -6.427115e+001  1.077128e+001 
4203125000  -6.398755e+001  3.567626e+001 
4206250000  -5.925010e+001  1.706149e+001 
4209375000  -6.223963e+001  -1.677621e+001 
4212500000  -6.384274e+001  2.606889e+001 
4215625000  -6.372936e+001  2.020804e+000 
4218750000  -6.195774e+001  2.959025e+001 
4221875000  -6.014607e+001  -5.045662e+001 
4225000000  -5.893710e+001  -1.602739e+001 
4228125000  -5.963105e+001  -3.590485e+001 
4231250000  -6.422289e+001  -4.112352e+001 
4234375000  -5.890658e+001  -4.699125e+001 
4237500000  -5.850339e+001  -4.859305e+001 
4240625000  -5.710675e+001  -6.489384e+001 
4243750000  -5.866171e+001  -7.161945e+001 
4246875000  -5.680574e+001  -7.068434e+001 
4250000000  -5.770597e+001  -9.006615e+001 
4253125000  -5.525233e+001  -8.573722e+001 
4256250000  -5.541024e+001  -9.737395e+001 
4259375000  -5.639122e+001  -1.109159e+002 
4262500000  -5.449605e+001  -1.225421e+002 
4265625000  -5.416806e+001  -1.211507e+002 
4268750000  -5.308796e+001  -1.475014e+002 
4271875000  -5.324620e+001  -1.566915e+002 
4275000000  -5.086770e+001  -1.712739e+002 
4278125000  -5.370587e+001  1.619244e+002 
4281250000  -5.421323e+001  1.701540e+002 
4284375000  -5.388475e+001  1.598689e+002 
4287500000  -5.428746e+001  1.445353e+002 
4290625000  -5.578095e+001  1.526927e+002 
4293750000  -5.319265e+001  1.509392e+002 
4296875000  -5.213861e+001  1.144403e+002 
4300000000  -5.373153e+001  1.040057e+002 
4303125000  -5.421230e+001  9.369540e+001 
4306250000  -5.435526e+001  1.090447e+002 
4309375000  -5.106798e+001  8.178020e+001 
4312500000  -5.327103e+001  7.017582e+001 
4315625000  -5.135749e+001  4.739402e+001 
4318750000  -5.271482e+001  4.861242e+001 
4321875000  -5.242530e+001  3.836649e+001 
4325000000  -5.318385e+001  2.834888e+001 
4328125000  -5.214604e+001  1.354443e+001 
4331250000  -5.378615e+001  1.699618e+000 
4334375000  -5.380402e+001  -8.941871e+000 
4337500000  -5.474680e+001  -3.198932e+001 
4340625000  -5.516784e+001  -1.808972e+001 
4343750000  -5.510678e+001  -3.300064e+001 
4346875000  -5.476633e+001  -3.544872e+001 
4350000000  -5.461275e+001  -6.072063e+001 
4353125000  -5.530344e+001  -7.333495e+001 
4356250000  -5.820884e+001  -7.057261e+001 
4359375000  -5.713817e+001  -4.247831e+001 
4362500000  -5.459557e+001  -5.704535e+001 
4365625000  -5.458072e+001  -9.936765e+001 
4368750000  -5.391361e+001  -9.758543e+001 
4371875000  -5.799229e+001  -1.139383e+002 
4375000000  -5.753480e+001  -1.074931e+002 
4378125000  -5.736973e+001  -1.187930e+002 
4381250000  -5.888996e+001  -1.321491e+002 
4384375000  -5.833033e+001  -1.525858e+002 
4387500000  -5.716975e+001  -1.362156e+002 
4390625000  -5.830444e+001  -1.589332e+002 
4393750000  -5.719952e+001  -1.525914e+002 
4396875000  -5.520960e+001  -1.500639e+002 
4400000000  -5.492087e+001  -1.697415e+002 
4403125000  -5.632373e+001  1.729311e+002 
4406250000  -5.793255e+001  1.563998e+002 
4409375000  -5.559336e+001  1.690038e+002 
4412500000  -5.797513e+001  1.610858e+002 
4415625000  -5.728839e+001  1.764768e+002 
4418750000  -5.561495e+001  1.565645e+002 
