!Agilent Technologies,E8363B,MY43030201,A.06.04.32
!Agilent E8363B: A.06.04.32
!Date: Tuesday, November 11, 2014 22:13:27
!Correction: S21(Response(S21)) 
!S1P File: Measurement: S21:
# Hz S  dB   R 50
3000000000  -4.877827e+001  -7.172210e+001 
3003125000  -5.148395e+001  -8.150859e+001 
3006250000  -5.176023e+001  -8.772279e+001 
3009375000  -5.259926e+001  -8.374481e+001 
3012500000  -5.132971e+001  -9.658707e+001 
3015625000  -5.085939e+001  -1.076872e+002 
3018750000  -5.116444e+001  -1.143432e+002 
3021875000  -4.964194e+001  -1.189082e+002 
3025000000  -4.881018e+001  -1.264058e+002 
3028125000  -4.801479e+001  -1.438565e+002 
3031250000  -4.684563e+001  -1.624345e+002 
3034375000  -4.695360e+001  -1.776196e+002 
3037500000  -4.831802e+001  1.695513e+002 
3040625000  -4.900336e+001  1.543990e+002 
3043750000  -4.982909e+001  1.417074e+002 
3046875000  -5.029772e+001  1.294825e+002 
3050000000  -5.159900e+001  1.229359e+002 
3053125000  -5.077385e+001  1.204481e+002 
3056250000  -5.138573e+001  1.233947e+002 
3059375000  -5.058200e+001  1.092358e+002 
3062500000  -4.968158e+001  9.804027e+001 
3065625000  -4.950811e+001  8.715593e+001 
3068750000  -4.949968e+001  7.589745e+001 
3071875000  -4.913538e+001  6.847852e+001 
3075000000  -4.877259e+001  5.686901e+001 
3078125000  -4.890567e+001  4.440886e+001 
3081250000  -4.895565e+001  3.456422e+001 
3084375000  -4.804194e+001  2.647643e+001 
3087500000  -4.832882e+001  1.189217e+001 
3090625000  -4.798457e+001  -5.695739e+000 
3093750000  -4.855806e+001  -1.520876e+001 
3096875000  -4.941469e+001  -2.902547e+001 
3100000000  -4.908794e+001  -3.122442e+001 
3103125000  -4.990373e+001  -3.952114e+001 
3106250000  -4.904895e+001  -4.892474e+001 
3109375000  -4.955725e+001  -5.942220e+001 
3112500000  -4.952869e+001  -6.784382e+001 
3115625000  -4.904606e+001  -7.857719e+001 
3118750000  -4.942830e+001  -8.514942e+001 
3121875000  -4.903923e+001  -1.009619e+002 
3125000000  -5.121838e+001  -1.068479e+002 
3128125000  -5.043490e+001  -1.045728e+002 
3131250000  -4.840792e+001  -1.157151e+002 
3134375000  -4.774995e+001  -1.392548e+002 
3137500000  -4.870686e+001  -1.540370e+002 
3140625000  -4.956301e+001  -1.622018e+002 
3143750000  -5.060889e+001  -1.726664e+002 
3146875000  -5.043486e+001  -1.728923e+002 
3150000000  -4.869815e+001  -1.783683e+002 
3153125000  -4.914929e+001  1.666659e+002 
3156250000  -5.040963e+001  1.674148e+002 
3159375000  -4.795602e+001  1.552831e+002 
3162500000  -4.676950e+001  1.380014e+002 
3165625000  -4.784435e+001  1.181070e+002 
3168750000  -4.723029e+001  1.140710e+002 
3171875000  -4.707588e+001  1.030688e+002 
3175000000  -4.760851e+001  8.736666e+001 
3178125000  -4.735001e+001  8.168063e+001 
3181250000  -4.698631e+001  6.829165e+001 
3184375000  -4.619150e+001  5.151658e+001 
3187500000  -4.780079e+001  3.207144e+001 
3190625000  -4.943959e+001  2.159302e+001 
3193750000  -4.979905e+001  2.134487e+001 
3196875000  -4.958594e+001  1.565677e+001 
3200000000  -4.892578e+001  1.194553e+001 
3203125000  -4.820377e+001  -4.724412e+000 
3206250000  -4.827798e+001  -1.542338e+001 
3209375000  -4.802850e+001  -3.011086e+001 
3212500000  -4.909072e+001  -3.992545e+001 
3215625000  -4.765405e+001  -4.570055e+001 
3218750000  -4.935675e+001  -6.580707e+001 
3221875000  -4.972642e+001  -7.531248e+001 
3225000000  -4.957104e+001  -8.677732e+001 
3228125000  -4.995128e+001  -9.206531e+001 
3231250000  -5.165291e+001  -1.031194e+002 
3234375000  -5.031314e+001  -1.107914e+002 
3237500000  -5.074444e+001  -1.187108e+002 
3240625000  -5.017537e+001  -1.262911e+002 
3243750000  -5.027850e+001  -1.458797e+002 
3246875000  -5.040312e+001  -1.568359e+002 
3250000000  -5.131718e+001  -1.647770e+002 
3253125000  -5.146040e+001  -1.725972e+002 
3256250000  -4.977258e+001  1.749151e+002 
3259375000  -5.117443e+001  1.561242e+002 
3262500000  -5.246424e+001  1.484052e+002 
3265625000  -5.296199e+001  1.441072e+002 
3268750000  -5.328757e+001  1.421066e+002 
3271875000  -5.261023e+001  1.346886e+002 
3275000000  -5.250449e+001  1.199344e+002 
3278125000  -5.205794e+001  1.111417e+002 
3281250000  -5.297658e+001  1.062462e+002 
3284375000  -5.259847e+001  9.355061e+001 
3287500000  -5.367112e+001  8.654375e+001 
3290625000  -5.303137e+001  7.551490e+001 
3293750000  -5.278724e+001  5.619470e+001 
3296875000  -5.471134e+001  5.619851e+001 
3300000000  -5.427505e+001  4.711106e+001 
3303125000  -5.303782e+001  3.568760e+001 
3306250000  -5.414425e+001  2.477149e+001 
3309375000  -5.321244e+001  1.588324e+001 
3312500000  -5.384452e+001  -1.763098e+000 
3315625000  -5.430544e+001  -7.956553e+000 
3318750000  -5.578560e+001  -1.104147e+001 
3321875000  -5.862664e+001  -2.150133e+001 
3325000000  -5.476409e+001  -9.998634e+000 
3328125000  -5.559587e+001  -2.005931e+001 
3331250000  -5.310812e+001  -2.356469e+001 
3334375000  -5.270079e+001  -4.749376e+001 
3337500000  -5.215698e+001  -7.485250e+001 
3340625000  -5.416128e+001  -8.884292e+001 
3343750000  -5.461130e+001  -8.788676e+001 
3346875000  -5.584436e+001  -1.034243e+002 
3350000000  -5.447772e+001  -1.007129e+002 
3353125000  -5.508553e+001  -1.175505e+002 
3356250000  -5.489767e+001  -1.313998e+002 
3359375000  -5.527554e+001  -1.521789e+002 
3362500000  -5.723198e+001  -1.615325e+002 
3365625000  -5.580779e+001  -1.635593e+002 
3368750000  -5.660759e+001  -1.707520e+002 
3371875000  -5.648940e+001  1.741853e+002 
3375000000  -5.879131e+001  1.662645e+002 
3378125000  -5.820383e+001  1.729333e+002 
3381250000  -6.059821e+001  1.642140e+002 
3384375000  -5.640814e+001  -1.713884e+002 
3387500000  -5.542358e+001  1.499427e+002 
3390625000  -5.659126e+001  1.260914e+002 
3393750000  -5.705224e+001  1.185413e+002 
3396875000  -5.693328e+001  1.215701e+002 
3400000000  -5.464380e+001  9.996648e+001 
3403125000  -5.694693e+001  7.478371e+001 
3406250000  -5.793682e+001  7.475061e+001 
3409375000  -5.756624e+001  6.294445e+001 
3412500000  -5.873162e+001  6.070984e+001 
3415625000  -6.242770e+001  5.132967e+001 
3418750000  -6.144312e+001  3.489811e+001 
3421875000  -6.114265e+001  2.749096e+001 
3425000000  -6.074352e+001  3.077095e+001 
3428125000  -5.969927e+001  1.059157e+001 
3431250000  -6.186360e+001  1.514539e+001 
3434375000  -5.969500e+001  -2.393374e+001 
3437500000  -6.152164e+001  -1.500770e+001 
3440625000  -6.046434e+001  -3.087313e+001 
3443750000  -6.035518e+001  -4.438066e+001 
3446875000  -6.040586e+001  -4.820380e+001 
3450000000  -6.127356e+001  -7.610703e+001 
3453125000  -6.239796e+001  -7.771735e+001 
3456250000  -6.443347e+001  -9.193444e+001 
3459375000  -6.854859e+001  -8.075217e+001 
3462500000  -6.672191e+001  -1.121928e+002 
3465625000  -6.735100e+001  -1.055612e+002 
3468750000  -6.460354e+001  -1.191132e+002 
3471875000  -6.520097e+001  -1.024584e+002 
3475000000  -6.518684e+001  -1.171656e+002 
3478125000  -6.967535e+001  -1.117264e+002 
3481250000  -6.973544e+001  -1.643695e+002 
3484375000  -6.859243e+001  -1.147559e+002 
3487500000  -6.785613e+001  -1.385579e+002 
3490625000  -6.779849e+001  -1.380160e+002 
3493750000  -7.064497e+001  -1.673177e+002 
3496875000  -6.786067e+001  -1.600566e+002 
3500000000  -6.689045e+001  -1.709602e+002 
3503125000  -6.953124e+001  -1.231570e+002 
3506250000  -6.599986e+001  -1.432063e+002 
3509375000  -6.560690e+001  1.700601e+002 
3512500000  -6.579773e+001  1.530664e+002 
3515625000  -7.010905e+001  1.105383e+002 
3518750000  -6.599978e+001  1.470446e+002 
3521875000  -6.667561e+001  1.136077e+002 
3525000000  -6.616763e+001  1.264626e+002 
3528125000  -6.989399e+001  1.579266e+002 
3531250000  -6.694260e+001  1.228612e+002 
3534375000  -6.647143e+001  8.547684e+001 
3537500000  -7.038506e+001  8.122310e+001 
3540625000  -6.872134e+001  1.847502e+001 
3543750000  -7.292030e+001  4.767712e+001 
3546875000  -6.701063e+001  5.368814e+001 
3550000000  -7.556585e+001  6.449168e+001 
3553125000  -7.231889e+001  5.422156e+001 
3556250000  -7.096996e+001  5.648115e+001 
3559375000  -7.154190e+001  -4.103708e+000 
3562500000  -6.866119e+001  9.049110e+001 
3565625000  -7.386383e+001  6.610718e+001 
3568750000  -7.753855e+001  -1.521756e+002 
3571875000  -6.755237e+001  4.531376e+001 
3575000000  -7.453761e+001  -4.685727e+001 
3578125000  -7.635649e+001  6.695480e+001 
3581250000  -7.180218e+001  -3.103913e+001 
3584375000  -6.742165e+001  3.883112e+001 
3587500000  -7.744890e+001  -3.157574e+001 
3590625000  -7.452814e+001  7.641320e+001 
3593750000  -6.598121e+001  -1.095751e+001 
3596875000  -7.401072e+001  1.652897e+001 
3600000000  -6.287602e+001  -5.973156e+000 
3603125000  -6.720186e+001  -1.293429e+000 
3606250000  -6.387249e+001  -5.303439e+001 
3609375000  -6.700552e+001  -3.907506e+001 
3612500000  -6.550997e+001  -5.321748e+001 
3615625000  -6.525277e+001  -4.516047e+001 
3618750000  -6.533416e+001  -6.414108e+001 
3621875000  -6.462441e+001  -9.418677e+001 
3625000000  -6.363995e+001  -8.503889e+001 
3628125000  -6.421845e+001  -9.989571e+001 
3631250000  -6.412065e+001  -1.134279e+002 
3634375000  -6.535926e+001  -1.359804e+002 
3637500000  -6.407479e+001  -1.209745e+002 
3640625000  -6.267226e+001  -1.272323e+002 
3643750000  -6.389570e+001  -1.428024e+002 
3646875000  -6.284984e+001  -1.668500e+002 
3650000000  -6.670712e+001  -1.656378e+002 
3653125000  -6.349307e+001  -1.684289e+002 
3656250000  -6.318467e+001  1.603412e+002 
3659375000  -6.411385e+001  1.469005e+002 
3662500000  -6.142910e+001  1.434530e+002 
3665625000  -6.549102e+001  1.463542e+002 
3668750000  -6.228699e+001  1.274003e+002 
3671875000  -6.155584e+001  1.190143e+002 
3675000000  -6.331071e+001  1.246445e+002 
3678125000  -6.681245e+001  9.197393e+001 
3681250000  -6.245265e+001  1.008412e+002 
3684375000  -7.197024e+001  1.280328e+002 
3687500000  -6.376440e+001  6.528341e+001 
3690625000  -6.841071e+001  5.436704e+001 
3693750000  -6.672687e+001  9.183347e+001 
3696875000  -6.736246e+001  8.551747e+001 
3700000000  -6.170472e+001  8.118153e+001 
3703125000  -6.744456e+001  7.230547e+001 
3706250000  -6.638799e+001  7.619820e+001 
3709375000  -6.345771e+001  7.344759e+001 
3712500000  -6.463595e+001  7.122565e+001 
3715625000  -6.206315e+001  4.097605e+001 
3718750000  -6.102513e+001  9.997299e+000 
3721875000  -6.174454e+001  2.831568e+001 
3725000000  -6.384692e+001  1.383656e+001 
3728125000  -6.175800e+001  3.049024e+001 
3731250000  -6.027574e+001  -1.940691e+001 
3734375000  -5.970398e+001  -7.420633e+000 
3737500000  -5.773756e+001  -3.474411e+001 
3740625000  -5.795327e+001  -3.801406e+001 
3743750000  -5.878638e+001  -6.283574e+001 
3746875000  -5.959453e+001  -5.206136e+001 
3750000000  -5.799334e+001  -7.817611e+001 
3753125000  -5.822844e+001  -8.139666e+001 
3756250000  -5.790404e+001  -9.931662e+001 
3759375000  -6.075032e+001  -1.010213e+002 
3762500000  -5.634443e+001  -1.188267e+002 
3765625000  -5.967150e+001  -1.208229e+002 
3768750000  -5.673016e+001  -1.321949e+002 
3771875000  -5.732351e+001  -1.408597e+002 
3775000000  -5.622013e+001  -1.578107e+002 
3778125000  -5.813741e+001  -1.705494e+002 
3781250000  -5.872290e+001  1.776638e+002 
3784375000  -5.780468e+001  1.737611e+002 
3787500000  -5.596357e+001  1.544255e+002 
3790625000  -5.876818e+001  1.377750e+002 
3793750000  -5.761749e+001  1.350761e+002 
3796875000  -5.618317e+001  1.151943e+002 
3800000000  -5.306369e+001  7.872393e+001 
3803125000  -5.616556e+001  1.004785e+002 
3806250000  -6.068341e+001  8.983213e+001 
3809375000  -5.816967e+001  8.874905e+001 
3812500000  -5.701365e+001  6.173006e+001 
3815625000  -6.088828e+001  5.675062e+001 
3818750000  -6.473914e+001  5.176440e+001 
3821875000  -6.420325e+001  7.190891e+001 
3825000000  -5.740865e+001  4.459780e+001 
3828125000  -5.925224e+001  2.211772e+001 
3831250000  -6.102373e+001  6.105934e+000 
3834375000  -6.559934e+001  -2.350322e+001 
3837500000  -6.507110e+001  2.514540e+001 
3840625000  -6.507136e+001  6.157863e+000 
3843750000  -6.157794e+001  -1.491278e+001 
3846875000  -6.066882e+001  -2.404647e+001 
3850000000  -6.477763e+001  3.280807e+001 
3853125000  -6.279713e+001  -3.132806e+001 
3856250000  -6.010225e+001  -4.921811e+000 
3859375000  -5.871697e+001  -3.732240e+001 
3862500000  -6.505731e+001  -3.320100e+001 
3865625000  -5.930472e+001  -4.851648e+001 
3868750000  -5.915401e+001  -3.631676e+001 
3871875000  -5.814500e+001  -5.589491e+001 
3875000000  -5.864887e+001  -7.918473e+001 
3878125000  -5.779137e+001  -7.209922e+001 
3881250000  -5.725589e+001  -7.689425e+001 
3884375000  -5.588508e+001  -1.039736e+002 
3887500000  -5.743961e+001  -1.094007e+002 
3890625000  -5.598944e+001  -1.261533e+002 
3893750000  -5.666985e+001  -1.262440e+002 
3896875000  -5.905910e+001  -1.325959e+002 
3900000000  -5.595328e+001  -1.452136e+002 
3903125000  -5.582765e+001  -1.538536e+002 
3906250000  -5.312785e+001  -1.737343e+002 
3909375000  -5.530421e+001  1.724314e+002 
3912500000  -5.467424e+001  1.603688e+002 
3915625000  -5.455149e+001  1.558850e+002 
3918750000  -5.509233e+001  1.543970e+002 
3921875000  -5.438240e+001  1.440320e+002 
3925000000  -5.381317e+001  1.344862e+002 
3928125000  -5.275694e+001  1.028988e+002 
3931250000  -5.376818e+001  1.062673e+002 
3934375000  -5.347388e+001  9.370618e+001 
3937500000  -5.581164e+001  7.772170e+001 
3940625000  -5.353411e+001  7.561111e+001 
3943750000  -5.379358e+001  6.257027e+001 
3946875000  -5.265966e+001  4.826278e+001 
3950000000  -5.404181e+001  3.782215e+001 
3953125000  -5.521685e+001  3.208591e+001 
3956250000  -5.362593e+001  3.053467e+001 
3959375000  -5.203272e+001  1.171349e+001 
3962500000  -5.297482e+001  3.331287e+000 
3965625000  -5.573504e+001  -2.049485e+001 
3968750000  -5.384445e+001  -2.237445e+001 
3971875000  -5.475582e+001  -3.459941e+001 
3975000000  -5.385179e+001  -5.653798e+001 
3978125000  -5.454358e+001  -4.905051e+001 
3981250000  -5.584348e+001  -6.944970e+001 
3984375000  -5.512131e+001  -8.547160e+001 
3987500000  -5.559124e+001  -9.762181e+001 
3990625000  -5.754707e+001  -9.914325e+001 
3993750000  -5.693497e+001  -1.208338e+002 
3996875000  -5.754654e+001  -1.197975e+002 
4000000000  -5.835033e+001  -1.069331e+002 
4003125000  -5.836646e+001  -1.319009e+002 
4006250000  -5.639914e+001  -1.353051e+002 
4009375000  -5.717204e+001  -1.451996e+002 
4012500000  -5.794880e+001  -1.481814e+002 
4015625000  -6.169753e+001  -1.681403e+002 
4018750000  -6.102668e+001  -1.584862e+002 
4021875000  -5.978590e+001  1.788883e+002 
4025000000  -5.853365e+001  1.719290e+002 
4028125000  -5.840411e+001  1.723766e+002 
4031250000  -6.117085e+001  1.623980e+002 
4034375000  -6.044979e+001  1.650247e+002 
4037500000  -5.773602e+001  1.638153e+002 
4040625000  -5.924386e+001  1.475960e+002 
4043750000  -6.014352e+001  1.451344e+002 
4046875000  -5.740703e+001  1.301904e+002 
4050000000  -5.704947e+001  1.327398e+002 
4053125000  -5.758380e+001  1.254242e+002 
4056250000  -5.881894e+001  1.249307e+002 
4059375000  -5.695374e+001  1.202552e+002 
4062500000  -5.553919e+001  9.420005e+001 
4065625000  -5.431779e+001  9.106055e+001 
4068750000  -5.464770e+001  7.429392e+001 
4071875000  -5.340589e+001  5.559564e+001 
4075000000  -5.367189e+001  4.766080e+001 
4078125000  -5.357371e+001  3.847744e+001 
4081250000  -5.367217e+001  2.356127e+001 
4084375000  -5.211919e+001  1.172294e+001 
4087500000  -5.301124e+001  -4.684320e+000 
4090625000  -5.350581e+001  -6.955038e+000 
4093750000  -5.235802e+001  -1.965036e+001 
4096875000  -5.361978e+001  -3.826645e+001 
4100000000  -5.353056e+001  -4.798742e+001 
4103125000  -5.530814e+001  -4.104447e+001 
4106250000  -5.337250e+001  -4.839598e+001 
4109375000  -5.210175e+001  -5.560272e+001 
4112500000  -5.160994e+001  -8.524890e+001 
4115625000  -5.339428e+001  -8.873266e+001 
4118750000  -5.286249e+001  -9.510889e+001 
4121875000  -5.286665e+001  -1.184447e+002 
4125000000  -5.373010e+001  -1.237953e+002 
4128125000  -5.437589e+001  -1.294509e+002 
4131250000  -5.263642e+001  -1.290278e+002 
4134375000  -5.008582e+001  -1.510348e+002 
4137500000  -5.302668e+001  -1.717813e+002 
4140625000  -5.395388e+001  1.672550e+002 
4143750000  -5.445019e+001  1.720744e+002 
4146875000  -5.477771e+001  1.607248e+002 
4150000000  -5.501421e+001  1.523274e+002 
4153125000  -5.324654e+001  1.441054e+002 
4156250000  -5.669847e+001  1.366270e+002 
4159375000  -5.553125e+001  1.327841e+002 
4162500000  -5.583327e+001  1.229499e+002 
4165625000  -5.491885e+001  1.240963e+002 
4168750000  -5.530641e+001  1.036514e+002 
4171875000  -5.546661e+001  8.222311e+001 
4175000000  -5.526145e+001  5.887798e+001 
4178125000  -5.845736e+001  7.241928e+001 
4181250000  -5.879745e+001  4.550176e+001 
4184375000  -5.972448e+001  4.490852e+001 
4187500000  -5.830426e+001  3.050660e+001 
4190625000  -6.035003e+001  2.021075e+001 
4193750000  -6.166750e+001  1.812721e+001 
4196875000  -6.209486e+001  4.464265e+000 
4200000000  -6.273916e+001  4.662347e+001 
4203125000  -6.820354e+001  4.048573e+001 
4206250000  -5.801581e+001  3.127810e+001 
4209375000  -6.066068e+001  -9.003855e-002 
4212500000  -6.380437e+001  2.536032e+001 
4215625000  -6.317803e+001  -1.474473e+001 
4218750000  -6.163549e+001  2.846744e+001 
4221875000  -6.150212e+001  -3.979158e+001 
4225000000  -6.045138e+001  -1.757373e+001 
4228125000  -5.889869e+001  -1.713497e+001 
4231250000  -6.176331e+001  -3.135294e+001 
4234375000  -5.785649e+001  -4.164853e+001 
4237500000  -5.923362e+001  -5.302940e+001 
4240625000  -5.501847e+001  -5.672853e+001 
4243750000  -5.733866e+001  -6.039862e+001 
4246875000  -5.717350e+001  -7.468098e+001 
4250000000  -5.696891e+001  -9.129671e+001 
4253125000  -5.494036e+001  -7.879350e+001 
4256250000  -5.549394e+001  -1.088110e+002 
4259375000  -5.443493e+001  -1.077506e+002 
4262500000  -5.686851e+001  -1.143155e+002 
4265625000  -5.331284e+001  -1.130499e+002 
4268750000  -5.276066e+001  -1.508040e+002 
4271875000  -5.327337e+001  -1.513114e+002 
4275000000  -5.082457e+001  -1.677179e+002 
4278125000  -5.442679e+001  1.648729e+002 
4281250000  -5.444306e+001  1.680117e+002 
4284375000  -5.474976e+001  1.553029e+002 
4287500000  -5.356005e+001  1.495726e+002 
4290625000  -5.469832e+001  1.459595e+002 
4293750000  -5.195444e+001  1.394926e+002 
4296875000  -5.240322e+001  1.227701e+002 
4300000000  -5.166098e+001  1.042199e+002 
4303125000  -5.170182e+001  9.653125e+001 
4306250000  -5.285892e+001  1.005842e+002 
4309375000  -5.115615e+001  8.867732e+001 
4312500000  -5.239166e+001  6.904946e+001 
4315625000  -5.248222e+001  5.974861e+001 
4318750000  -5.316265e+001  4.334312e+001 
4321875000  -5.368797e+001  3.907309e+001 
4325000000  -5.245150e+001  1.823517e+001 
4328125000  -5.189667e+001  1.786014e+001 
4331250000  -5.239258e+001  -1.200739e+001 
4334375000  -5.315889e+001  -1.854967e+001 
4337500000  -5.568341e+001  -3.206534e+001 
4340625000  -5.411801e+001  -2.925839e+001 
4343750000  -5.497997e+001  -2.738396e+001 
4346875000  -5.354052e+001  -4.847502e+001 
4350000000  -5.571109e+001  -7.404879e+001 
4353125000  -5.883833e+001  -7.085334e+001 
4356250000  -5.766545e+001  -6.741220e+001 
4359375000  -5.629188e+001  -5.085836e+001 
4362500000  -5.496014e+001  -7.234593e+001 
4365625000  -5.417877e+001  -9.680232e+001 
4368750000  -5.744114e+001  -1.013209e+002 
4371875000  -5.584259e+001  -1.160422e+002 
4375000000  -5.536143e+001  -1.166209e+002 
4378125000  -5.813566e+001  -1.285681e+002 
4381250000  -5.609761e+001  -1.379446e+002 
4384375000  -5.658690e+001  -1.326158e+002 
4387500000  -5.666873e+001  -1.477982e+002 
4390625000  -6.077320e+001  -1.539240e+002 
4393750000  -5.939268e+001  -1.496522e+002 
4396875000  -5.620695e+001  -1.547610e+002 
4400000000  -5.672016e+001  1.743535e+002 
4403125000  -5.581712e+001  1.770425e+002 
4406250000  -5.594336e+001  -1.799808e+002 
4409375000  -5.624752e+001  1.789590e+002 
4412500000  -5.704382e+001  1.526929e+002 
4415625000  -5.553064e+001  1.593465e+002 
4418750000  -5.566281e+001  1.547367e+002 
