!Agilent Technologies,E8363B,MY43030201,A.06.04.32
!Agilent E8363B: A.06.04.32
!Date: Tuesday, November 11, 2014 22:10:25
!Correction: S21(Response(S21)) 
!S1P File: Measurement: S21:
# Hz S  dB   R 50
3000000000  -4.903864e+001  -7.637663e+001 
3003125000  -5.088257e+001  -8.605602e+001 
3006250000  -5.180089e+001  -8.991163e+001 
3009375000  -5.212463e+001  -8.856344e+001 
3012500000  -5.062215e+001  -9.995175e+001 
3015625000  -5.059076e+001  -1.065375e+002 
3018750000  -5.153173e+001  -1.150970e+002 
3021875000  -4.975303e+001  -1.199784e+002 
3025000000  -4.851072e+001  -1.317715e+002 
3028125000  -4.853605e+001  -1.479088e+002 
3031250000  -4.711728e+001  -1.640706e+002 
3034375000  -4.720719e+001  1.774316e+002 
3037500000  -4.819169e+001  1.644404e+002 
3040625000  -4.905266e+001  1.516468e+002 
3043750000  -4.955672e+001  1.413476e+002 
3046875000  -5.034594e+001  1.319585e+002 
3050000000  -5.137043e+001  1.232746e+002 
3053125000  -5.140676e+001  1.209401e+002 
3056250000  -5.172116e+001  1.152915e+002 
3059375000  -5.016056e+001  1.101293e+002 
3062500000  -4.955487e+001  1.009498e+002 
3065625000  -4.900876e+001  8.587938e+001 
3068750000  -4.991566e+001  7.424777e+001 
3071875000  -4.936856e+001  6.650077e+001 
3075000000  -4.901738e+001  5.338336e+001 
3078125000  -4.852388e+001  4.222342e+001 
3081250000  -4.900071e+001  3.111498e+001 
3084375000  -4.784386e+001  2.423846e+001 
3087500000  -4.816187e+001  1.203632e+001 
3090625000  -4.827676e+001  -4.451263e+000 
3093750000  -4.905708e+001  -1.915039e+001 
3096875000  -4.939136e+001  -2.706305e+001 
3100000000  -4.949166e+001  -3.662067e+001 
3103125000  -5.016065e+001  -4.097002e+001 
3106250000  -4.966536e+001  -5.073361e+001 
3109375000  -4.987186e+001  -6.148425e+001 
3112500000  -4.953440e+001  -7.047417e+001 
3115625000  -4.923370e+001  -7.678284e+001 
3118750000  -4.958731e+001  -8.431712e+001 
3121875000  -4.914600e+001  -1.030498e+002 
3125000000  -5.073467e+001  -1.066322e+002 
3128125000  -5.081353e+001  -1.062266e+002 
3131250000  -4.862412e+001  -1.176866e+002 
3134375000  -4.761629e+001  -1.379981e+002 
3137500000  -4.854202e+001  -1.582657e+002 
3140625000  -4.925871e+001  -1.615491e+002 
3143750000  -5.032867e+001  -1.699243e+002 
3146875000  -5.004679e+001  -1.701523e+002 
3150000000  -4.954536e+001  1.742232e+002 
3153125000  -4.938944e+001  1.662235e+002 
3156250000  -5.020759e+001  1.656191e+002 
3159375000  -4.761902e+001  1.595531e+002 
3162500000  -4.600242e+001  1.321286e+002 
3165625000  -4.739508e+001  1.185088e+002 
3168750000  -4.785138e+001  1.134994e+002 
3171875000  -4.733457e+001  1.049077e+002 
3175000000  -4.770855e+001  8.532961e+001 
3178125000  -4.737428e+001  7.897314e+001 
3181250000  -4.668792e+001  6.741861e+001 
3184375000  -4.684771e+001  4.954570e+001 
3187500000  -4.728245e+001  3.425097e+001 
3190625000  -4.980503e+001  1.904176e+001 
3193750000  -4.956788e+001  2.131523e+001 
3196875000  -4.942300e+001  1.405464e+001 
3200000000  -4.789363e+001  6.648027e+000 
3203125000  -4.864685e+001  -8.363268e+000 
3206250000  -4.854733e+001  -1.717118e+001 
3209375000  -4.824953e+001  -3.330064e+001 
3212500000  -4.819481e+001  -4.437370e+001 
3215625000  -4.829523e+001  -5.096575e+001 
3218750000  -4.897965e+001  -6.801882e+001 
3221875000  -4.952510e+001  -8.332243e+001 
3225000000  -4.944673e+001  -8.904117e+001 
3228125000  -5.048349e+001  -9.354726e+001 
3231250000  -5.040781e+001  -1.034201e+002 
3234375000  -5.055934e+001  -1.099643e+002 
3237500000  -5.047986e+001  -1.232028e+002 
3240625000  -5.000156e+001  -1.316303e+002 
3243750000  -5.005719e+001  -1.465949e+002 
3246875000  -5.038447e+001  -1.556103e+002 
3250000000  -5.086447e+001  -1.669307e+002 
3253125000  -5.166722e+001  -1.710456e+002 
3256250000  -5.020089e+001  1.716301e+002 
3259375000  -5.076474e+001  1.573590e+002 
3262500000  -5.264291e+001  1.534079e+002 
3265625000  -5.273440e+001  1.399577e+002 
3268750000  -5.397408e+001  1.442613e+002 
3271875000  -5.307362e+001  1.289867e+002 
3275000000  -5.219690e+001  1.169264e+002 
3278125000  -5.269214e+001  1.061876e+002 
3281250000  -5.304227e+001  1.043499e+002 
3284375000  -5.321904e+001  8.741299e+001 
3287500000  -5.372807e+001  8.424301e+001 
3290625000  -5.380712e+001  7.190886e+001 
3293750000  -5.343794e+001  6.239587e+001 
3296875000  -5.352373e+001  4.916415e+001 
3300000000  -5.446077e+001  4.972196e+001 
3303125000  -5.267227e+001  3.844644e+001 
3306250000  -5.370727e+001  2.596828e+001 
3309375000  -5.318265e+001  1.502109e+001 
3312500000  -5.274715e+001  -2.068767e+000 
3315625000  -5.380372e+001  -8.824259e+000 
3318750000  -5.516297e+001  -2.362111e+001 
3321875000  -5.754444e+001  -1.773730e+001 
3325000000  -5.697652e+001  -3.005253e+001 
3328125000  -5.801287e+001  -1.473028e+001 
3331250000  -5.354224e+001  -2.828736e+001 
3334375000  -5.248664e+001  -4.872073e+001 
3337500000  -5.249020e+001  -7.350877e+001 
3340625000  -5.305357e+001  -8.690327e+001 
3343750000  -5.642911e+001  -7.948041e+001 
3346875000  -5.542035e+001  -1.040670e+002 
3350000000  -5.441263e+001  -1.049055e+002 
3353125000  -5.471939e+001  -1.139475e+002 
3356250000  -5.518405e+001  -1.283974e+002 
3359375000  -5.431102e+001  -1.495426e+002 
3362500000  -5.566693e+001  -1.521865e+002 
3365625000  -5.638498e+001  -1.508662e+002 
3368750000  -5.708237e+001  -1.728522e+002 
3371875000  -5.696148e+001  -1.709315e+002 
3375000000  -5.925006e+001  1.683199e+002 
3378125000  -5.980950e+001  1.652126e+002 
3381250000  -5.936515e+001  1.507848e+002 
3384375000  -5.738578e+001  -1.734946e+002 
3387500000  -5.404707e+001  1.453275e+002 
3390625000  -5.702473e+001  1.296203e+002 
3393750000  -5.765049e+001  1.122313e+002 
3396875000  -5.744575e+001  1.177385e+002 
3400000000  -5.472163e+001  9.655595e+001 
3403125000  -5.688536e+001  8.438548e+001 
3406250000  -5.720150e+001  7.079765e+001 
3409375000  -5.822029e+001  4.877803e+001 
3412500000  -5.771341e+001  5.441200e+001 
3415625000  -6.044654e+001  3.452765e+001 
3418750000  -6.113271e+001  4.052773e+001 
3421875000  -5.886430e+001  1.870058e+001 
3425000000  -5.941185e+001  2.740476e+001 
3428125000  -6.009301e+001  3.765800e+000 
3431250000  -6.049657e+001  -5.938352e+000 
3434375000  -5.978527e+001  -9.296945e+000 
3437500000  -6.393674e+001  -1.902841e+001 
3440625000  -5.960117e+001  -1.907367e+001 
3443750000  -6.006814e+001  -3.539013e+001 
3446875000  -5.951527e+001  -4.483929e+001 
3450000000  -6.232674e+001  -7.239088e+001 
3453125000  -6.543485e+001  -7.650631e+001 
3456250000  -6.704867e+001  -7.144760e+001 
3459375000  -6.624699e+001  -7.513739e+001 
3462500000  -6.971169e+001  -8.782880e+001 
3465625000  -6.430315e+001  -1.279546e+002 
3468750000  -6.668642e+001  -1.565894e+002 
3471875000  -6.800201e+001  -9.110691e+001 
3475000000  -6.512590e+001  -1.104352e+002 
3478125000  -6.509000e+001  -1.083840e+002 
3481250000  -6.656635e+001  -1.459792e+002 
3484375000  -6.717298e+001  -1.242615e+002 
3487500000  -6.606658e+001  -1.412668e+002 
3490625000  -6.711758e+001  -1.202256e+002 
3493750000  -6.663016e+001  -1.369731e+002 
3496875000  -7.061490e+001  -1.644081e+002 
3500000000  -6.790316e+001  1.789611e+002 
3503125000  -6.761121e+001  1.730851e+002 
3506250000  -6.309931e+001  -1.615643e+002 
3509375000  -6.163319e+001  1.558225e+002 
3512500000  -6.707718e+001  1.690466e+002 
3515625000  -6.521537e+001  1.343774e+002 
3518750000  -6.726092e+001  1.365606e+002 
3521875000  -7.194892e+001  1.495419e+002 
3525000000  -6.609126e+001  1.045534e+002 
3528125000  -6.472184e+001  1.002163e+002 
3531250000  -6.973943e+001  1.150931e+002 
3534375000  -6.832493e+001  7.989400e+001 
3537500000  -6.519521e+001  6.464913e+001 
3540625000  -6.634613e+001  3.877237e+001 
3543750000  -7.432109e+001  6.371984e+001 
3546875000  -7.306963e+001  3.195319e+001 
3550000000  -6.900926e+001  8.117419e+001 
3553125000  -7.217292e+001  1.887888e+001 
3556250000  -7.202132e+001  5.324490e+001 
3559375000  -7.055154e+001  -2.223023e+000 
3562500000  -6.787339e+001  8.478895e+001 
3565625000  -7.555696e+001  7.982314e+001 
3568750000  -7.337409e+001  5.848025e+001 
3571875000  -7.327174e+001  4.585657e+001 
3575000000  -7.149940e+001  6.037469e+001 
3578125000  -7.245516e+001  1.356312e+001 
3581250000  -7.723711e+001  1.646919e+001 
3584375000  -7.012331e+001  5.148655e+001 
3587500000  -7.644817e+001  3.456448e+001 
3590625000  -6.539107e+001  1.784099e+001 
3593750000  -7.169195e+001  -4.501476e+001 
3596875000  -6.516803e+001  1.556703e+001 
3600000000  -6.343497e+001  1.387622e+001 
3603125000  -6.380581e+001  -8.206162e-002 
3606250000  -6.418775e+001  -4.010379e+001 
3609375000  -6.780447e+001  -1.792684e+001 
3612500000  -6.368411e+001  -5.504956e+001 
3615625000  -6.401992e+001  -6.707500e+001 
3618750000  -6.835901e+001  -6.147454e+001 
3621875000  -6.309708e+001  -6.625368e+001 
3625000000  -6.418658e+001  -7.708151e+001 
3628125000  -6.217530e+001  -1.005837e+002 
3631250000  -6.145857e+001  -1.090793e+002 
3634375000  -6.855361e+001  -1.386700e+002 
3637500000  -6.451113e+001  -1.122348e+002 
3640625000  -6.168575e+001  -1.386622e+002 
3643750000  -6.697954e+001  -1.472601e+002 
3646875000  -6.146233e+001  -1.758875e+002 
3650000000  -6.135212e+001  -1.745473e+002 
3653125000  -6.092004e+001  1.686430e+002 
3656250000  -6.831246e+001  1.564851e+002 
3659375000  -6.606651e+001  1.520813e+002 
3662500000  -6.459908e+001  1.638076e+002 
3665625000  -6.394707e+001  1.504276e+002 
3668750000  -6.324611e+001  1.116268e+002 
3671875000  -6.268434e+001  1.357745e+002 
3675000000  -6.879830e+001  9.825108e+001 
3678125000  -6.730201e+001  1.197915e+002 
3681250000  -6.209040e+001  9.945818e+001 
3684375000  -6.922915e+001  1.214627e+002 
3687500000  -6.639381e+001  6.574284e+001 
3690625000  -7.065503e+001  7.095278e+001 
3693750000  -6.541681e+001  7.772250e+001 
3696875000  -6.589005e+001  7.537055e+001 
3700000000  -6.434350e+001  8.883092e+001 
3703125000  -6.362901e+001  2.266551e+001 
3706250000  -6.545217e+001  6.633925e+001 
3709375000  -6.774011e+001  2.821397e+001 
3712500000  -6.483247e+001  5.457692e+001 
3715625000  -6.160698e+001  3.690041e+001 
3718750000  -5.978563e+001  4.065944e+001 
3721875000  -6.114071e+001  1.354576e+001 
3725000000  -5.978741e+001  2.371571e+001 
3728125000  -6.019635e+001  2.639133e+000 
3731250000  -5.959328e+001  -5.480292e+000 
3734375000  -6.050288e+001  -4.048040e+000 
3737500000  -6.068730e+001  -5.234453e+001 
3740625000  -5.954175e+001  -3.473187e+001 
3743750000  -5.939893e+001  -6.544527e+001 
3746875000  -6.122478e+001  -6.580026e+001 
3750000000  -5.968295e+001  -7.862556e+001 
3753125000  -5.710294e+001  -8.361617e+001 
3756250000  -5.904300e+001  -9.771459e+001 
3759375000  -5.741619e+001  -1.058535e+002 
3762500000  -5.826120e+001  -1.266676e+002 
3765625000  -5.973746e+001  -1.184119e+002 
3768750000  -5.667744e+001  -1.375143e+002 
3771875000  -5.468375e+001  -1.502452e+002 
3775000000  -5.653122e+001  -1.594360e+002 
3778125000  -5.720197e+001  1.744262e+002 
3781250000  -5.833439e+001  -1.797564e+002 
3784375000  -5.838207e+001  1.712457e+002 
3787500000  -5.571104e+001  1.563275e+002 
3790625000  -5.954078e+001  1.428344e+002 
3793750000  -5.717245e+001  1.318240e+002 
3796875000  -5.605721e+001  1.270618e+002 
3800000000  -5.249795e+001  7.348737e+001 
3803125000  -5.606183e+001  8.830086e+001 
3806250000  -5.864511e+001  7.078730e+001 
3809375000  -5.770837e+001  8.098082e+001 
3812500000  -5.826455e+001  6.512380e+001 
3815625000  -6.005607e+001  3.700054e+001 
3818750000  -5.912361e+001  3.415254e+001 
3821875000  -6.324556e+001  5.752638e+001 
3825000000  -5.827255e+001  4.791484e+001 
3828125000  -5.976763e+001  3.698077e+001 
3831250000  -5.965694e+001  1.041911e+001 
3834375000  -6.501805e+001  1.003182e+000 
3837500000  -6.420035e+001  9.110159e+000 
3840625000  -6.250993e+001  3.740254e+000 
3843750000  -6.133038e+001  2.899097e+000 
3846875000  -6.066235e+001  -1.257747e+001 
3850000000  -6.418121e+001  -2.538152e+001 
3853125000  -6.483363e+001  -3.471608e+001 
3856250000  -6.092394e+001  -1.828948e+001 
3859375000  -6.082506e+001  -4.078798e+001 
3862500000  -6.110208e+001  -3.810204e+001 
3865625000  -6.021429e+001  -5.559843e+001 
3868750000  -5.871770e+001  -4.291207e+001 
3871875000  -5.534473e+001  -6.431778e+001 
3875000000  -5.948141e+001  -7.100031e+001 
3878125000  -5.824975e+001  -7.455836e+001 
3881250000  -5.989942e+001  -9.121496e+001 
3884375000  -5.582925e+001  -1.039369e+002 
3887500000  -5.690056e+001  -1.151225e+002 
3890625000  -5.673984e+001  -1.210841e+002 
3893750000  -5.555762e+001  -1.286460e+002 
3896875000  -5.572559e+001  -1.452914e+002 
3900000000  -5.548548e+001  -1.466343e+002 
3903125000  -5.507298e+001  -1.381304e+002 
3906250000  -5.359159e+001  -1.737890e+002 
3909375000  -5.258875e+001  1.768858e+002 
3912500000  -5.514994e+001  1.663042e+002 
3915625000  -5.619678e+001  1.549828e+002 
3918750000  -5.491764e+001  1.682298e+002 
3921875000  -5.478085e+001  1.308241e+002 
3925000000  -5.234062e+001  1.287871e+002 
3928125000  -5.353137e+001  1.031997e+002 
3931250000  -5.369227e+001  1.064330e+002 
3934375000  -5.433707e+001  8.157161e+001 
3937500000  -5.622546e+001  8.388840e+001 
3940625000  -5.351332e+001  7.382069e+001 
3943750000  -5.383777e+001  6.080297e+001 
3946875000  -5.306419e+001  4.205236e+001 
3950000000  -5.552421e+001  3.016991e+001 
3953125000  -5.422428e+001  3.146260e+001 
3956250000  -5.387184e+001  1.722138e+001 
3959375000  -5.177657e+001  7.706821e+000 
3962500000  -5.367578e+001  -1.519002e+001 
3965625000  -5.261092e+001  -1.982222e+001 
3968750000  -5.418550e+001  -3.058683e+001 
3971875000  -5.470944e+001  -3.948618e+001 
3975000000  -5.430371e+001  -6.027879e+001 
3978125000  -5.398555e+001  -6.712864e+001 
3981250000  -5.649977e+001  -7.771911e+001 
3984375000  -5.666984e+001  -8.105581e+001 
3987500000  -5.546645e+001  -9.135699e+001 
3990625000  -5.963212e+001  -1.184059e+002 
3993750000  -5.695986e+001  -1.210635e+002 
3996875000  -5.713676e+001  -1.189371e+002 
4000000000  -6.010744e+001  -1.391993e+002 
4003125000  -5.763097e+001  -1.214976e+002 
4006250000  -5.776709e+001  -1.395408e+002 
4009375000  -5.545091e+001  -1.503097e+002 
4012500000  -5.984778e+001  -1.625387e+002 
4015625000  -6.050076e+001  -1.525402e+002 
4018750000  -5.797406e+001  -1.732014e+002 
4021875000  -5.923792e+001  1.695531e+002 
4025000000  -5.942809e+001  1.782003e+002 
4028125000  -6.007515e+001  1.671916e+002 
4031250000  -5.975890e+001  1.575354e+002 
4034375000  -6.030762e+001  1.722176e+002 
4037500000  -6.007361e+001  1.633875e+002 
4040625000  -6.073100e+001  1.395132e+002 
4043750000  -5.807111e+001  1.488099e+002 
4046875000  -5.868074e+001  1.365614e+002 
4050000000  -5.712287e+001  1.330954e+002 
4053125000  -5.858944e+001  1.224476e+002 
4056250000  -5.835575e+001  1.144395e+002 
4059375000  -5.502758e+001  1.065156e+002 
4062500000  -5.496702e+001  1.071382e+002 
4065625000  -5.317019e+001  8.471936e+001 
4068750000  -5.457062e+001  6.298370e+001 
4071875000  -5.285333e+001  5.758562e+001 
4075000000  -5.311203e+001  3.840363e+001 
4078125000  -5.275978e+001  4.060379e+001 
4081250000  -5.361777e+001  3.214462e+001 
4084375000  -5.271922e+001  9.357316e+000 
4087500000  -5.328838e+001  -4.279167e+000 
4090625000  -5.256041e+001  -6.210502e+000 
4093750000  -5.331701e+001  -2.113549e+001 
4096875000  -5.218248e+001  -3.188224e+001 
4100000000  -5.360799e+001  -5.644402e+001 
4103125000  -5.535492e+001  -4.604783e+001 
4106250000  -5.349791e+001  -5.702005e+001 
4109375000  -5.252829e+001  -6.082886e+001 
4112500000  -5.094293e+001  -8.713812e+001 
4115625000  -5.433538e+001  -9.245086e+001 
4118750000  -5.194425e+001  -1.006497e+002 
4121875000  -5.480116e+001  -1.212852e+002 
4125000000  -5.374212e+001  -1.275431e+002 
4128125000  -5.432285e+001  -1.445574e+002 
4131250000  -5.217726e+001  -1.288397e+002 
4134375000  -5.127997e+001  -1.530321e+002 
4137500000  -5.148064e+001  -1.727945e+002 
4140625000  -5.435735e+001  1.718164e+002 
4143750000  -5.671497e+001  1.731344e+002 
4146875000  -5.392205e+001  1.603626e+002 
4150000000  -5.631924e+001  1.629871e+002 
4153125000  -5.286784e+001  1.403091e+002 
4156250000  -5.512396e+001  1.220714e+002 
4159375000  -5.606697e+001  1.225545e+002 
4162500000  -5.555523e+001  1.068909e+002 
4165625000  -5.458468e+001  1.100042e+002 
4168750000  -5.644992e+001  8.500339e+001 
4171875000  -5.421220e+001  6.873819e+001 
4175000000  -5.728611e+001  5.492128e+001 
4178125000  -5.819394e+001  6.246731e+001 
4181250000  -5.836918e+001  4.729959e+001 
4184375000  -6.184769e+001  1.856429e+001 
4187500000  -5.939123e+001  2.249813e+001 
4190625000  -6.056130e+001  3.687423e+001 
4193750000  -5.873196e+001  2.853961e+001 
4196875000  -6.120648e+001  1.035690e+001 
4200000000  -6.533805e+001  1.877906e+001 
4203125000  -6.492348e+001  -1.507897e+001 
4206250000  -5.880367e+001  3.054370e+001 
4209375000  -6.037088e+001  -4.494887e-002 
4212500000  -6.593259e+001  4.519378e-001 
4215625000  -6.138271e+001  -1.783414e+001 
4218750000  -6.220903e+001  1.366837e+001 
4221875000  -5.808654e+001  -3.005651e+001 
4225000000  -5.884860e+001  -3.135737e+001 
4228125000  -6.089447e+001  -3.418746e+001 
4231250000  -6.264146e+001  -2.739582e+001 
4234375000  -5.732467e+001  -4.263733e+001 
4237500000  -5.729738e+001  -2.975909e+001 
4240625000  -5.620302e+001  -7.231920e+001 
4243750000  -5.963634e+001  -7.469201e+001 
4246875000  -5.703140e+001  -7.375683e+001 
4250000000  -5.759650e+001  -9.201112e+001 
4253125000  -5.569258e+001  -8.932462e+001 
4256250000  -5.667463e+001  -9.711582e+001 
4259375000  -5.435923e+001  -1.155110e+002 
4262500000  -5.503749e+001  -1.226716e+002 
4265625000  -5.486464e+001  -1.279222e+002 
4268750000  -5.294091e+001  -1.418802e+002 
4271875000  -5.265546e+001  -1.611324e+002 
4275000000  -5.201152e+001  -1.780728e+002 
4278125000  -5.318954e+001  1.654270e+002 
4281250000  -5.419005e+001  1.492922e+002 
4284375000  -5.500873e+001  1.539494e+002 
4287500000  -5.578435e+001  1.378943e+002 
4290625000  -5.567195e+001  1.424469e+002 
4293750000  -5.210907e+001  1.339934e+002 
4296875000  -5.217807e+001  1.171390e+002 
4300000000  -5.254125e+001  1.114317e+002 
4303125000  -5.290235e+001  1.004226e+002 
4306250000  -5.258252e+001  9.675558e+001 
4309375000  -5.224714e+001  7.632951e+001 
4312500000  -5.166126e+001  6.535150e+001 
4315625000  -5.234283e+001  4.363956e+001 
4318750000  -5.315255e+001  3.592331e+001 
4321875000  -5.255824e+001  3.456065e+001 
4325000000  -5.343011e+001  2.188520e+001 
4328125000  -5.179548e+001  1.058816e+001 
4331250000  -5.330158e+001  -8.977975e+000 
4334375000  -5.423098e+001  -1.327853e+001 
4337500000  -5.538417e+001  -4.025385e+001 
4340625000  -5.452214e+001  -2.356827e+001 
4343750000  -5.408550e+001  -4.621656e+001 
4346875000  -5.567319e+001  -4.666935e+001 
4350000000  -5.516232e+001  -6.935397e+001 
4353125000  -5.898525e+001  -7.273792e+001 
4356250000  -5.881628e+001  -7.068753e+001 
4359375000  -5.787312e+001  -5.406744e+001 
4362500000  -5.419473e+001  -7.458919e+001 
4365625000  -5.658513e+001  -1.080781e+002 
4368750000  -5.639216e+001  -1.000527e+002 
4371875000  -5.765051e+001  -1.140325e+002 
4375000000  -5.724331e+001  -1.193043e+002 
4378125000  -5.694096e+001  -1.346407e+002 
4381250000  -5.709515e+001  -1.275891e+002 
4384375000  -5.712444e+001  -1.334738e+002 
4387500000  -5.544947e+001  -1.465643e+002 
4390625000  -5.854393e+001  -1.650974e+002 
4393750000  -5.807931e+001  -1.450034e+002 
4396875000  -5.539790e+001  -1.578386e+002 
4400000000  -5.845114e+001  1.790650e+002 
4403125000  -5.652732e+001  1.744140e+002 
4406250000  -5.578288e+001  1.749539e+002 
4409375000  -5.660799e+001  1.671551e+002 
4412500000  -5.666982e+001  1.513618e+002 
4415625000  -5.617211e+001  1.640564e+002 
4418750000  -5.504175e+001  1.496635e+002 
