!Agilent Technologies,E8363B,MY43030201,A.06.04.32
!Agilent E8363B: A.06.04.32
!Date: Tuesday, November 11, 2014 22:09:04
!Correction: S21(Response(S21)) 
!S1P File: Measurement: S21:
# Hz S  dB   R 50
3000000000  -4.899393e+001  -7.636304e+001 
3003125000  -5.135078e+001  -8.417242e+001 
3006250000  -5.137856e+001  -8.647166e+001 
3009375000  -5.207255e+001  -9.121118e+001 
3012500000  -5.139365e+001  -9.797307e+001 
3015625000  -5.190446e+001  -1.097797e+002 
3018750000  -5.123253e+001  -1.139431e+002 
3021875000  -4.995808e+001  -1.199169e+002 
3025000000  -4.906913e+001  -1.310726e+002 
3028125000  -4.821940e+001  -1.473240e+002 
3031250000  -4.724556e+001  -1.634511e+002 
3034375000  -4.710950e+001  1.789076e+002 
3037500000  -4.815304e+001  1.638828e+002 
3040625000  -4.926752e+001  1.509023e+002 
3043750000  -4.909561e+001  1.401443e+002 
3046875000  -5.070321e+001  1.312250e+002 
3050000000  -5.200381e+001  1.211049e+002 
3053125000  -5.146719e+001  1.193042e+002 
3056250000  -5.125826e+001  1.183348e+002 
3059375000  -5.053936e+001  1.071849e+002 
3062500000  -4.941307e+001  1.007430e+002 
3065625000  -4.902052e+001  8.651682e+001 
3068750000  -4.888046e+001  7.537598e+001 
3071875000  -4.893689e+001  6.985736e+001 
3075000000  -4.847319e+001  5.559033e+001 
3078125000  -4.850919e+001  4.041765e+001 
3081250000  -4.864103e+001  3.297805e+001 
3084375000  -4.837743e+001  2.342945e+001 
3087500000  -4.798684e+001  1.160379e+001 
3090625000  -4.791394e+001  -5.618894e+000 
3093750000  -4.879752e+001  -1.775982e+001 
3096875000  -4.927397e+001  -2.984757e+001 
3100000000  -4.941112e+001  -3.319942e+001 
3103125000  -4.988445e+001  -4.132131e+001 
3106250000  -4.958903e+001  -5.139585e+001 
3109375000  -4.941737e+001  -5.880256e+001 
3112500000  -4.892027e+001  -7.054016e+001 
3115625000  -4.896822e+001  -7.801805e+001 
3118750000  -4.969134e+001  -8.827984e+001 
3121875000  -4.887642e+001  -9.942150e+001 
3125000000  -5.116153e+001  -1.104015e+002 
3128125000  -5.168188e+001  -1.079240e+002 
3131250000  -4.814874e+001  -1.199824e+002 
3134375000  -4.772500e+001  -1.410698e+002 
3137500000  -4.881512e+001  -1.574640e+002 
3140625000  -5.017688e+001  -1.619250e+002 
3143750000  -4.989159e+001  -1.690981e+002 
3146875000  -4.956321e+001  -1.736670e+002 
3150000000  -4.910528e+001  1.778515e+002 
3153125000  -4.882593e+001  1.620827e+002 
3156250000  -5.026029e+001  1.644987e+002 
3159375000  -4.786592e+001  1.521773e+002 
3162500000  -4.629747e+001  1.332639e+002 
3165625000  -4.763244e+001  1.181562e+002 
3168750000  -4.739636e+001  1.132360e+002 
3171875000  -4.731681e+001  9.921051e+001 
3175000000  -4.753766e+001  8.802599e+001 
3178125000  -4.705043e+001  8.145488e+001 
3181250000  -4.663313e+001  6.803887e+001 
3184375000  -4.638375e+001  5.181429e+001 
3187500000  -4.738636e+001  3.176195e+001 
3190625000  -4.920104e+001  1.817698e+001 
3193750000  -4.977586e+001  2.097890e+001 
3196875000  -4.985184e+001  1.718084e+001 
3200000000  -4.833669e+001  4.099555e+000 
3203125000  -4.876102e+001  -4.126960e+000 
3206250000  -4.850098e+001  -1.603240e+001 
3209375000  -4.796362e+001  -3.279013e+001 
3212500000  -4.844022e+001  -4.115870e+001 
3215625000  -4.782944e+001  -4.810085e+001 
3218750000  -4.996935e+001  -6.957812e+001 
3221875000  -4.954516e+001  -7.714304e+001 
3225000000  -4.937366e+001  -8.652901e+001 
3228125000  -4.980236e+001  -9.848409e+001 
3231250000  -5.047623e+001  -1.069898e+002 
3234375000  -5.051691e+001  -1.149732e+002 
3237500000  -5.053332e+001  -1.193699e+002 
3240625000  -4.969607e+001  -1.317448e+002 
3243750000  -4.917654e+001  -1.464622e+002 
3246875000  -4.991535e+001  -1.589566e+002 
3250000000  -5.135125e+001  -1.719710e+002 
3253125000  -5.150477e+001  -1.751429e+002 
3256250000  -4.991103e+001  1.704603e+002 
3259375000  -5.073137e+001  1.536288e+002 
3262500000  -5.301732e+001  1.531557e+002 
3265625000  -5.336049e+001  1.425680e+002 
3268750000  -5.272681e+001  1.399040e+002 
3271875000  -5.269769e+001  1.324491e+002 
3275000000  -5.179337e+001  1.207319e+002 
3278125000  -5.204783e+001  1.099931e+002 
3281250000  -5.316370e+001  1.010399e+002 
3284375000  -5.178641e+001  8.641611e+001 
3287500000  -5.328814e+001  7.944019e+001 
3290625000  -5.347683e+001  7.110879e+001 
3293750000  -5.272464e+001  5.614817e+001 
3296875000  -5.420478e+001  5.294071e+001 
3300000000  -5.408418e+001  4.475046e+001 
3303125000  -5.325356e+001  3.948328e+001 
3306250000  -5.224276e+001  2.335250e+001 
3309375000  -5.208461e+001  1.740096e+001 
3312500000  -5.269267e+001  -4.768978e+000 
3315625000  -5.472945e+001  -1.585057e+001 
3318750000  -5.509729e+001  -2.123500e+001 
3321875000  -6.008085e+001  -1.562223e+001 
3325000000  -5.676232e+001  -1.941325e+001 
3328125000  -5.693667e+001  -2.742751e+001 
3331250000  -5.318516e+001  -3.630299e+001 
3334375000  -5.203032e+001  -4.726327e+001 
3337500000  -5.183315e+001  -7.800739e+001 
3340625000  -5.509410e+001  -8.505121e+001 
3343750000  -5.472629e+001  -8.604258e+001 
3346875000  -5.581470e+001  -1.004800e+002 
3350000000  -5.443000e+001  -1.113678e+002 
3353125000  -5.510450e+001  -1.146816e+002 
3356250000  -5.513646e+001  -1.308389e+002 
3359375000  -5.494240e+001  -1.488612e+002 
3362500000  -5.683125e+001  -1.496496e+002 
3365625000  -5.584254e+001  -1.658800e+002 
3368750000  -5.760591e+001  1.794498e+002 
3371875000  -5.858630e+001  1.730072e+002 
3375000000  -5.805742e+001  1.733129e+002 
3378125000  -5.911343e+001  1.724558e+002 
3381250000  -5.888432e+001  1.668197e+002 
3384375000  -5.520232e+001  1.731832e+002 
3387500000  -5.502570e+001  1.433761e+002 
3390625000  -5.659226e+001  1.222815e+002 
3393750000  -5.611845e+001  1.285278e+002 
3396875000  -5.750008e+001  1.189905e+002 
3400000000  -5.449279e+001  9.414744e+001 
3403125000  -5.733613e+001  8.300155e+001 
3406250000  -5.942660e+001  6.939015e+001 
3409375000  -5.724213e+001  5.655455e+001 
3412500000  -5.807325e+001  5.795230e+001 
3415625000  -5.779677e+001  4.211314e+001 
3418750000  -5.845539e+001  3.786486e+001 
3421875000  -6.003957e+001  3.139756e+001 
3425000000  -5.936443e+001  3.197134e+001 
3428125000  -5.925096e+001  1.444484e+001 
3431250000  -6.006486e+001  -6.172625e+000 
3434375000  -5.935814e+001  -2.301315e+001 
3437500000  -6.260384e+001  -2.350282e+001 
3440625000  -6.157346e+001  -3.124530e+001 
3443750000  -6.205097e+001  -2.356808e+001 
3446875000  -6.258570e+001  -3.259620e+001 
3450000000  -5.980452e+001  -7.193275e+001 
3453125000  -6.227242e+001  -7.929959e+001 
3456250000  -6.781017e+001  -7.991696e+001 
3459375000  -6.590058e+001  -8.795010e+001 
3462500000  -6.857095e+001  -1.190469e+002 
3465625000  -6.442044e+001  -1.197396e+002 
3468750000  -6.696330e+001  -1.378430e+002 
3471875000  -6.479799e+001  -1.110604e+002 
3475000000  -6.622591e+001  -1.289658e+002 
3478125000  -7.004636e+001  -1.408477e+002 
3481250000  -6.788544e+001  -1.534952e+002 
3484375000  -6.691129e+001  -1.299786e+002 
3487500000  -6.619133e+001  -1.357352e+002 
3490625000  -6.476010e+001  -1.273279e+002 
3493750000  -6.789907e+001  -1.639967e+002 
3496875000  -6.802165e+001  -1.323736e+002 
3500000000  -6.479021e+001  -1.710807e+002 
3503125000  -6.883224e+001  -1.406556e+002 
3506250000  -6.376448e+001  -1.570629e+002 
3509375000  -6.661159e+001  1.472633e+002 
3512500000  -6.352304e+001  1.586050e+002 
3515625000  -6.926604e+001  1.544863e+002 
3518750000  -6.515480e+001  1.376874e+002 
3521875000  -6.685654e+001  1.578313e+002 
3525000000  -6.695274e+001  1.029109e+002 
3528125000  -6.830534e+001  1.493085e+002 
3531250000  -6.242512e+001  1.076531e+002 
3534375000  -6.785252e+001  1.049455e+002 
3537500000  -6.584695e+001  6.951200e+001 
3540625000  -6.953600e+001  4.467653e+001 
3543750000  -7.299569e+001  6.828442e+001 
3546875000  -6.784625e+001  2.642662e+001 
3550000000  -6.900697e+001  6.432475e+001 
3553125000  -7.042982e+001  7.019308e+001 
3556250000  -7.094788e+001  8.214532e+001 
3559375000  -6.806362e+001  2.702389e+001 
3562500000  -7.506673e+001  4.124134e+001 
3565625000  -7.952453e+001  3.860085e+001 
3568750000  -7.591573e+001  8.281231e+001 
3571875000  -7.309715e+001  5.473117e+001 
3575000000  -7.313901e+001  2.634923e+001 
3578125000  -7.284526e+001  5.879925e+001 
3581250000  -8.169914e+001  -1.104163e+002 
3584375000  -7.277074e+001  3.474596e+001 
3587500000  -7.456860e+001  -2.610997e+001 
3590625000  -6.927248e+001  -1.009252e+001 
3593750000  -6.978637e+001  -7.281875e+000 
3596875000  -7.949125e+001  -4.239296e+000 
3600000000  -6.683542e+001  -2.837366e+001 
3603125000  -6.567950e+001  -2.480649e+001 
3606250000  -6.632840e+001  -2.378015e+001 
3609375000  -6.525255e+001  -5.777358e+001 
3612500000  -6.243908e+001  -6.110813e+001 
3615625000  -6.613784e+001  -5.414176e+001 
3618750000  -6.224177e+001  -7.431892e+001 
3621875000  -6.641533e+001  -7.986198e+001 
3625000000  -6.624535e+001  -9.112077e+001 
3628125000  -6.289170e+001  -1.076134e+002 
3631250000  -6.212645e+001  -1.029894e+002 
3634375000  -6.478824e+001  -1.197800e+002 
3637500000  -6.901181e+001  -1.336835e+002 
3640625000  -6.130025e+001  -1.349389e+002 
3643750000  -6.302044e+001  -1.498685e+002 
3646875000  -6.164802e+001  -1.621193e+002 
3650000000  -6.553073e+001  -1.520375e+002 
3653125000  -6.116745e+001  -1.786252e+002 
3656250000  -6.359491e+001  1.539284e+002 
3659375000  -6.160812e+001  1.525339e+002 
3662500000  -6.340375e+001  1.559046e+002 
3665625000  -6.240485e+001  1.575894e+002 
3668750000  -6.194032e+001  1.244815e+002 
3671875000  -6.664767e+001  1.155504e+002 
3675000000  -6.213271e+001  1.149150e+002 
3678125000  -6.737675e+001  6.426154e+001 
3681250000  -6.338113e+001  1.128064e+002 
3684375000  -6.622032e+001  8.152830e+001 
3687500000  -6.974416e+001  7.921836e+001 
3690625000  -6.661967e+001  3.812312e+001 
3693750000  -6.530405e+001  6.492545e+001 
3696875000  -6.775958e+001  1.053046e+002 
3700000000  -6.268795e+001  8.116504e+001 
3703125000  -6.487019e+001  3.420295e+001 
3706250000  -6.886906e+001  7.158648e+001 
3709375000  -6.687988e+001  7.200959e+001 
3712500000  -6.067950e+001  7.637479e+001 
3715625000  -6.229484e+001  3.276380e+001 
3718750000  -6.199863e+001  4.679020e+001 
3721875000  -6.180733e+001  1.318431e+001 
3725000000  -6.040881e+001  1.699312e+001 
3728125000  -5.876638e+001  2.319326e+000 
3731250000  -6.051059e+001  -1.267233e+001 
3734375000  -5.884756e+001  -1.043574e+001 
3737500000  -5.920581e+001  -3.857471e+001 
3740625000  -5.680448e+001  -4.333021e+001 
3743750000  -5.965030e+001  -6.334276e+001 
3746875000  -5.984523e+001  -5.073031e+001 
3750000000  -5.908869e+001  -7.923852e+001 
3753125000  -5.843827e+001  -9.054905e+001 
3756250000  -5.825081e+001  -1.058618e+002 
3759375000  -5.658767e+001  -1.088422e+002 
3762500000  -5.782603e+001  -1.218930e+002 
3765625000  -5.968843e+001  -1.152289e+002 
3768750000  -5.763719e+001  -1.332911e+002 
3771875000  -5.500078e+001  -1.413696e+002 
3775000000  -5.693853e+001  -1.604595e+002 
3778125000  -5.679318e+001  -1.793133e+002 
3781250000  -5.738715e+001  1.677396e+002 
3784375000  -5.554002e+001  1.640885e+002 
3787500000  -5.812116e+001  1.509435e+002 
3790625000  -5.805175e+001  1.381732e+002 
3793750000  -5.776061e+001  1.121810e+002 
3796875000  -5.688026e+001  1.153922e+002 
3800000000  -5.304324e+001  8.228165e+001 
3803125000  -5.701632e+001  9.315984e+001 
3806250000  -5.988591e+001  6.777879e+001 
3809375000  -5.721862e+001  8.373488e+001 
3812500000  -5.884948e+001  7.111153e+001 
3815625000  -6.296259e+001  5.089948e+001 
3818750000  -6.125916e+001  4.345969e+001 
3821875000  -6.020473e+001  6.699532e+001 
3825000000  -5.888158e+001  4.578004e+001 
3828125000  -6.043262e+001  3.079250e+001 
3831250000  -6.062003e+001  1.416079e+001 
3834375000  -6.405014e+001  -9.198486e+000 
3837500000  -6.214492e+001  2.475372e+001 
3840625000  -5.892173e+001  -1.058620e+001 
3843750000  -6.419552e+001  -7.740274e+000 
3846875000  -6.139274e+001  -2.358567e+001 
3850000000  -6.617493e+001  6.803037e+000 
3853125000  -6.099841e+001  -1.862730e+001 
3856250000  -5.927927e+001  -5.125081e+000 
3859375000  -5.934882e+001  -2.271882e+001 
3862500000  -5.798404e+001  -4.003258e+001 
3865625000  -5.864754e+001  -4.008917e+001 
3868750000  -5.870689e+001  -4.634168e+001 
3871875000  -5.607258e+001  -6.809561e+001 
3875000000  -6.072161e+001  -7.393294e+001 
3878125000  -5.728647e+001  -8.172288e+001 
3881250000  -5.931043e+001  -8.804429e+001 
3884375000  -5.572332e+001  -9.352689e+001 
3887500000  -5.642105e+001  -1.215438e+002 
3890625000  -5.462220e+001  -1.164232e+002 
3893750000  -5.743014e+001  -1.382922e+002 
3896875000  -5.628217e+001  -1.391961e+002 
3900000000  -5.683717e+001  -1.504306e+002 
3903125000  -5.518721e+001  -1.530866e+002 
3906250000  -5.341383e+001  -1.696586e+002 
3909375000  -5.344178e+001  1.682816e+002 
3912500000  -5.638984e+001  1.576137e+002 
3915625000  -5.684054e+001  1.582367e+002 
3918750000  -5.457655e+001  1.415941e+002 
3921875000  -5.508816e+001  1.437430e+002 
3925000000  -5.349450e+001  1.317843e+002 
3928125000  -5.286013e+001  1.093182e+002 
3931250000  -5.374707e+001  9.647525e+001 
3934375000  -5.503532e+001  8.838374e+001 
3937500000  -5.631109e+001  8.503919e+001 
3940625000  -5.522958e+001  7.958363e+001 
3943750000  -5.381929e+001  6.460121e+001 
3946875000  -5.355817e+001  5.185786e+001 
3950000000  -5.433216e+001  4.593995e+001 
3953125000  -5.409296e+001  3.304247e+001 
3956250000  -5.398236e+001  1.890052e+001 
3959375000  -5.323996e+001  4.553812e+000 
3962500000  -5.399088e+001  -8.105806e+000 
3965625000  -5.375451e+001  -2.139050e+001 
3968750000  -5.475710e+001  -3.362178e+001 
3971875000  -5.417680e+001  -4.401581e+001 
3975000000  -5.335395e+001  -5.179837e+001 
3978125000  -5.394506e+001  -6.536020e+001 
3981250000  -5.547107e+001  -6.574131e+001 
3984375000  -5.582532e+001  -9.238409e+001 
3987500000  -5.519881e+001  -9.838865e+001 
3990625000  -5.686923e+001  -1.090042e+002 
3993750000  -5.726320e+001  -1.198780e+002 
3996875000  -6.062395e+001  -1.298126e+002 
4000000000  -5.972866e+001  -1.277953e+002 
4003125000  -5.846069e+001  -1.268293e+002 
4006250000  -5.766857e+001  -1.550096e+002 
4009375000  -5.792160e+001  -1.446595e+002 
4012500000  -6.048252e+001  -1.642829e+002 
4015625000  -5.973214e+001  -1.672281e+002 
4018750000  -6.139516e+001  1.742995e+002 
4021875000  -5.895737e+001  -1.700233e+002 
4025000000  -5.740561e+001  -1.799166e+002 
4028125000  -5.782228e+001  1.662293e+002 
4031250000  -6.169254e+001  1.668593e+002 
4034375000  -5.913027e+001  1.721452e+002 
4037500000  -5.730130e+001  1.387106e+002 
4040625000  -5.809660e+001  1.493132e+002 
4043750000  -6.000636e+001  1.425900e+002 
4046875000  -5.821912e+001  1.240647e+002 
4050000000  -5.841742e+001  1.236925e+002 
4053125000  -5.954445e+001  1.114722e+002 
4056250000  -5.741990e+001  1.024430e+002 
4059375000  -5.646124e+001  1.045065e+002 
4062500000  -5.484121e+001  1.027986e+002 
4065625000  -5.373489e+001  8.128123e+001 
4068750000  -5.376343e+001  6.987122e+001 
4071875000  -5.280612e+001  6.210720e+001 
4075000000  -5.197823e+001  4.154667e+001 
4078125000  -5.386409e+001  3.983069e+001 
4081250000  -5.395597e+001  2.362857e+001 
4084375000  -5.240697e+001  1.073217e+001 
4087500000  -5.261867e+001  -1.120069e+001 
4090625000  -5.210210e+001  -8.439822e+000 
4093750000  -5.344562e+001  -1.832490e+001 
4096875000  -5.288524e+001  -3.863884e+001 
4100000000  -5.421507e+001  -5.381323e+001 
4103125000  -5.535539e+001  -4.494161e+001 
4106250000  -5.385827e+001  -5.602340e+001 
4109375000  -5.423929e+001  -6.336270e+001 
4112500000  -5.239616e+001  -8.212687e+001 
4115625000  -5.488168e+001  -9.384419e+001 
4118750000  -5.169952e+001  -9.921255e+001 
4121875000  -5.285351e+001  -1.199963e+002 
4125000000  -5.449794e+001  -1.253477e+002 
4128125000  -5.430708e+001  -1.306762e+002 
4131250000  -5.339372e+001  -1.320992e+002 
4134375000  -5.113405e+001  -1.514203e+002 
4137500000  -5.129407e+001  -1.658486e+002 
4140625000  -5.219063e+001  1.714855e+002 
4143750000  -5.696105e+001  1.696348e+002 
4146875000  -5.308381e+001  1.627809e+002 
4150000000  -5.559233e+001  1.540353e+002 
4153125000  -5.328782e+001  1.383099e+002 
4156250000  -5.542392e+001  1.265838e+002 
4159375000  -5.465033e+001  1.363456e+002 
4162500000  -5.563669e+001  1.180310e+002 
4165625000  -5.384520e+001  1.092459e+002 
4168750000  -5.397239e+001  8.532234e+001 
4171875000  -5.377922e+001  8.068815e+001 
4175000000  -5.586491e+001  6.002048e+001 
4178125000  -5.858446e+001  6.252523e+001 
4181250000  -5.757012e+001  4.838143e+001 
4184375000  -6.218468e+001  3.934789e+001 
4187500000  -5.825600e+001  2.730865e+001 
4190625000  -6.091679e+001  2.934935e+001 
4193750000  -5.933627e+001  1.326834e+001 
4196875000  -6.378482e+001  -3.755915e+000 
4200000000  -6.300338e+001  1.286328e+001 
4203125000  -6.231192e+001  2.707364e+001 
4206250000  -6.216635e+001  1.810561e+001 
4209375000  -5.748471e+001  -2.978240e+000 
4212500000  -6.353666e+001  -5.462044e-001 
4215625000  -6.757851e+001  1.099576e+001 
4218750000  -6.252861e+001  2.395739e+000 
4221875000  -6.155762e+001  -1.884519e+001 
4225000000  -6.119060e+001  -3.147904e+000 
4228125000  -6.154444e+001  -2.611188e+001 
4231250000  -5.871612e+001  -2.699063e+001 
4234375000  -5.764979e+001  -4.698874e+001 
4237500000  -5.743692e+001  -4.439514e+001 
4240625000  -5.596704e+001  -7.312312e+001 
4243750000  -5.753289e+001  -7.161446e+001 
4246875000  -5.651933e+001  -7.104413e+001 
4250000000  -5.947489e+001  -9.735952e+001 
4253125000  -5.577911e+001  -9.623238e+001 
4256250000  -5.561961e+001  -9.980462e+001 
4259375000  -5.691749e+001  -1.190776e+002 
4262500000  -5.607491e+001  -1.389196e+002 
4265625000  -5.358469e+001  -1.313912e+002 
4268750000  -5.250031e+001  -1.443629e+002 
4271875000  -5.154237e+001  -1.603249e+002 
4275000000  -5.090891e+001  -1.728315e+002 
4278125000  -5.375859e+001  1.719153e+002 
4281250000  -5.288393e+001  1.493845e+002 
4284375000  -5.585356e+001  1.575602e+002 
4287500000  -5.504762e+001  1.466843e+002 
4290625000  -5.540861e+001  1.573720e+002 
4293750000  -5.264235e+001  1.420078e+002 
4296875000  -5.216371e+001  1.239113e+002 
4300000000  -5.319812e+001  1.028185e+002 
4303125000  -5.296513e+001  9.107053e+001 
4306250000  -5.226055e+001  1.003364e+002 
4309375000  -5.134841e+001  7.556916e+001 
4312500000  -5.264613e+001  6.892904e+001 
4315625000  -5.178385e+001  4.668792e+001 
4318750000  -5.440138e+001  4.266461e+001 
4321875000  -5.273007e+001  3.141412e+001 
4325000000  -5.315567e+001  1.385072e+001 
4328125000  -5.227106e+001  1.032057e+001 
4331250000  -5.221414e+001  2.213690e+000 
4334375000  -5.482495e+001  -1.605135e+001 
4337500000  -5.420377e+001  -3.032193e+001 
4340625000  -5.577763e+001  -1.956815e+001 
4343750000  -5.444572e+001  -3.267482e+001 
4346875000  -5.322211e+001  -4.369424e+001 
4350000000  -5.488751e+001  -7.629296e+001 
4353125000  -5.693352e+001  -7.364610e+001 
4356250000  -5.784444e+001  -7.753556e+001 
4359375000  -6.171607e+001  -5.902034e+001 
4362500000  -5.400619e+001  -7.749496e+001 
4365625000  -5.408660e+001  -9.874408e+001 
4368750000  -5.482576e+001  -1.173934e+002 
4371875000  -5.777078e+001  -1.173446e+002 
4375000000  -5.782384e+001  -1.156186e+002 
4378125000  -5.602532e+001  -1.309468e+002 
4381250000  -5.736492e+001  -1.369065e+002 
4384375000  -5.674144e+001  -1.495260e+002 
4387500000  -5.783393e+001  -1.595229e+002 
4390625000  -5.671687e+001  -1.534765e+002 
4393750000  -5.720408e+001  -1.553056e+002 
4396875000  -5.522840e+001  -1.714225e+002 
4400000000  -5.572161e+001  1.776685e+002 
4403125000  -5.452403e+001  1.773364e+002 
4406250000  -5.724858e+001  1.784209e+002 
4409375000  -5.634624e+001  1.682137e+002 
4412500000  -5.745474e+001  1.680780e+002 
4415625000  -5.579587e+001  1.577816e+002 
4418750000  -5.456089e+001  1.546418e+002 
