!Agilent Technologies,E8363B,MY43030201,A.06.04.32
!Agilent E8363B: A.06.04.32
!Date: Tuesday, November 11, 2014 22:13:28
!Correction: S21(Response(S21)) 
!S1P File: Measurement: S21:
# Hz S  dB   R 50
3000000000  -4.880010e+001  -7.200729e+001 
3003125000  -5.160859e+001  -8.080972e+001 
3006250000  -5.154231e+001  -8.484322e+001 
3009375000  -5.264326e+001  -8.477874e+001 
3012500000  -5.104559e+001  -9.459486e+001 
3015625000  -5.137690e+001  -1.079283e+002 
3018750000  -5.156871e+001  -1.109371e+002 
3021875000  -5.009592e+001  -1.176112e+002 
3025000000  -4.853695e+001  -1.271092e+002 
3028125000  -4.826757e+001  -1.439962e+002 
3031250000  -4.709698e+001  -1.613477e+002 
3034375000  -4.691023e+001  1.796738e+002 
3037500000  -4.817963e+001  1.670820e+002 
3040625000  -4.898613e+001  1.521695e+002 
3043750000  -4.923700e+001  1.429561e+002 
3046875000  -5.122800e+001  1.269264e+002 
3050000000  -5.119423e+001  1.218420e+002 
3053125000  -5.179818e+001  1.233051e+002 
3056250000  -5.134974e+001  1.183141e+002 
3059375000  -5.078012e+001  1.114692e+002 
3062500000  -4.932515e+001  9.846204e+001 
3065625000  -4.913278e+001  8.637297e+001 
3068750000  -4.907753e+001  7.700155e+001 
3071875000  -4.905041e+001  7.118713e+001 
3075000000  -4.861456e+001  5.469035e+001 
3078125000  -4.844482e+001  4.590670e+001 
3081250000  -4.843567e+001  3.293204e+001 
3084375000  -4.813512e+001  2.509244e+001 
3087500000  -4.830639e+001  1.400561e+001 
3090625000  -4.800410e+001  -4.109054e+000 
3093750000  -4.868180e+001  -1.671847e+001 
3096875000  -4.936249e+001  -2.323178e+001 
3100000000  -4.949409e+001  -3.243835e+001 
3103125000  -4.978602e+001  -3.909499e+001 
3106250000  -4.925827e+001  -4.932640e+001 
3109375000  -4.931493e+001  -6.008922e+001 
3112500000  -4.993281e+001  -6.859312e+001 
3115625000  -4.944649e+001  -7.741669e+001 
3118750000  -4.934657e+001  -8.454205e+001 
3121875000  -4.910007e+001  -9.854338e+001 
3125000000  -5.048036e+001  -1.100664e+002 
3128125000  -5.096910e+001  -1.061903e+002 
3131250000  -4.805458e+001  -1.168662e+002 
3134375000  -4.758567e+001  -1.382633e+002 
3137500000  -4.878680e+001  -1.554353e+002 
3140625000  -4.933595e+001  -1.595467e+002 
3143750000  -5.008934e+001  -1.709459e+002 
3146875000  -4.983427e+001  -1.718651e+002 
3150000000  -4.899095e+001  -1.795975e+002 
3153125000  -4.915742e+001  1.684979e+002 
3156250000  -5.081068e+001  1.664831e+002 
3159375000  -4.780118e+001  1.610411e+002 
3162500000  -4.588312e+001  1.351506e+002 
3165625000  -4.781416e+001  1.207906e+002 
3168750000  -4.778896e+001  1.171099e+002 
3171875000  -4.742181e+001  9.993013e+001 
3175000000  -4.764149e+001  8.943171e+001 
3178125000  -4.696847e+001  8.328844e+001 
3181250000  -4.684677e+001  6.955267e+001 
3184375000  -4.628002e+001  5.337213e+001 
3187500000  -4.741495e+001  3.336943e+001 
3190625000  -4.964647e+001  2.814816e+001 
3193750000  -5.031681e+001  2.406276e+001 
3196875000  -5.020334e+001  1.845428e+001 
3200000000  -4.847489e+001  9.401083e+000 
3203125000  -4.783768e+001  -3.603333e+000 
3206250000  -4.885212e+001  -1.489137e+001 
3209375000  -4.766034e+001  -2.989486e+001 
3212500000  -4.908448e+001  -4.153407e+001 
3215625000  -4.795082e+001  -4.549660e+001 
3218750000  -4.898708e+001  -6.100466e+001 
3221875000  -4.964550e+001  -7.689666e+001 
3225000000  -4.962225e+001  -8.545645e+001 
3228125000  -4.950162e+001  -9.742020e+001 
3231250000  -5.089922e+001  -1.013259e+002 
3234375000  -5.003238e+001  -1.112529e+002 
3237500000  -5.077384e+001  -1.192174e+002 
3240625000  -4.994093e+001  -1.283845e+002 
3243750000  -4.973305e+001  -1.440137e+002 
3246875000  -5.055302e+001  -1.569239e+002 
3250000000  -5.101464e+001  -1.649130e+002 
3253125000  -5.138541e+001  -1.698523e+002 
3256250000  -4.967008e+001  1.755824e+002 
3259375000  -5.125360e+001  1.585080e+002 
3262500000  -5.241827e+001  1.479065e+002 
3265625000  -5.323541e+001  1.440333e+002 
3268750000  -5.275402e+001  1.418752e+002 
3271875000  -5.227090e+001  1.386342e+002 
3275000000  -5.192122e+001  1.192206e+002 
3278125000  -5.266372e+001  1.066314e+002 
3281250000  -5.327639e+001  1.036777e+002 
3284375000  -5.197689e+001  9.630206e+001 
3287500000  -5.323634e+001  8.588379e+001 
3290625000  -5.247787e+001  6.870706e+001 
3293750000  -5.340797e+001  6.137226e+001 
3296875000  -5.320864e+001  5.291529e+001 
3300000000  -5.398013e+001  5.174088e+001 
3303125000  -5.322499e+001  3.955706e+001 
3306250000  -5.372254e+001  2.452744e+001 
3309375000  -5.324094e+001  1.598733e+001 
3312500000  -5.346459e+001  -2.755967e+000 
3315625000  -5.389691e+001  -8.438785e+000 
3318750000  -5.521221e+001  -1.917886e+001 
3321875000  -5.848686e+001  -2.457713e+001 
3325000000  -5.688255e+001  -6.454018e+000 
3328125000  -5.614023e+001  -2.836861e+001 
3331250000  -5.356781e+001  -1.570440e+001 
3334375000  -5.210282e+001  -5.043871e+001 
3337500000  -5.209682e+001  -7.207307e+001 
3340625000  -5.380377e+001  -8.827583e+001 
3343750000  -5.546638e+001  -9.193816e+001 
3346875000  -5.524214e+001  -1.015668e+002 
3350000000  -5.463105e+001  -9.574718e+001 
3353125000  -5.487560e+001  -1.153179e+002 
3356250000  -5.507084e+001  -1.290692e+002 
3359375000  -5.503149e+001  -1.484955e+002 
3362500000  -5.663884e+001  -1.523853e+002 
3365625000  -5.577907e+001  -1.638919e+002 
3368750000  -5.770148e+001  -1.711142e+002 
3371875000  -5.695816e+001  -1.789728e+002 
3375000000  -5.847900e+001  1.717709e+002 
3378125000  -5.945345e+001  1.630565e+002 
3381250000  -6.007407e+001  1.655677e+002 
3384375000  -5.770556e+001  1.793528e+002 
3387500000  -5.333561e+001  1.497079e+002 
3390625000  -5.702649e+001  1.319154e+002 
3393750000  -5.628745e+001  1.217639e+002 
3396875000  -5.728090e+001  1.093169e+002 
3400000000  -5.458020e+001  9.162454e+001 
3403125000  -5.633971e+001  7.967794e+001 
3406250000  -5.593481e+001  7.722119e+001 
3409375000  -5.769362e+001  5.702917e+001 
3412500000  -5.793241e+001  6.303176e+001 
3415625000  -5.968293e+001  4.226788e+001 
3418750000  -6.088963e+001  4.531557e+001 
3421875000  -6.029782e+001  2.777497e+001 
3425000000  -5.842780e+001  3.004926e+001 
3428125000  -5.823653e+001  8.747001e+000 
3431250000  -6.354420e+001  -1.373074e+001 
3434375000  -6.068951e+001  -2.329428e+001 
3437500000  -6.204468e+001  -2.044573e+001 
3440625000  -6.124590e+001  -3.203538e+001 
3443750000  -6.242721e+001  -1.378955e+001 
3446875000  -6.201791e+001  -4.194141e+001 
3450000000  -6.198108e+001  -6.804436e+001 
3453125000  -6.407166e+001  -7.131744e+001 
3456250000  -6.641223e+001  -9.195311e+001 
3459375000  -6.785172e+001  -8.956998e+001 
3462500000  -6.706188e+001  -1.131770e+002 
3465625000  -6.676887e+001  -9.279054e+001 
3468750000  -6.774651e+001  -1.045492e+002 
3471875000  -6.515839e+001  -9.270933e+001 
3475000000  -6.849219e+001  -1.157667e+002 
3478125000  -7.655764e+001  -1.797023e+002 
3481250000  -7.376331e+001  -1.378537e+002 
3484375000  -7.754642e+001  -1.607310e+002 
3487500000  -6.824875e+001  -1.326045e+002 
3490625000  -6.674065e+001  -1.399100e+002 
3493750000  -7.134539e+001  -1.588540e+002 
3496875000  -6.843887e+001  -1.452369e+002 
3500000000  -6.694813e+001  -1.574049e+002 
3503125000  -6.584921e+001  -1.438642e+002 
3506250000  -7.002048e+001  1.721363e+002 
3509375000  -6.630632e+001  1.551418e+002 
3512500000  -6.680214e+001  1.370878e+002 
3515625000  -6.712515e+001  1.796996e+002 
3518750000  -6.400954e+001  1.639080e+002 
3521875000  -6.991026e+001  1.314221e+002 
3525000000  -6.817897e+001  1.226448e+002 
3528125000  -6.826774e+001  1.106114e+002 
3531250000  -6.405405e+001  1.204724e+002 
3534375000  -6.926523e+001  6.043478e+001 
3537500000  -6.554090e+001  8.707698e+001 
3540625000  -7.443052e+001  7.741467e+001 
3543750000  -7.293120e+001  8.763583e+001 
3546875000  -6.912464e+001  1.294238e+002 
3550000000  -7.074690e+001  6.906514e+001 
3553125000  -7.074960e+001  9.638348e+001 
3556250000  -6.878183e+001  3.412733e+001 
3559375000  -6.692505e+001  5.731084e+001 
3562500000  -7.607545e+001  1.578972e+001 
3565625000  -7.247075e+001  -3.646275e+001 
3568750000  -7.520552e+001  1.012459e+002 
3571875000  -7.130626e+001  -1.242995e+001 
3575000000  -7.266591e+001  2.052416e+001 
3578125000  -6.994784e+001  7.226769e+001 
3581250000  -8.217628e+001  8.662681e+001 
3584375000  -7.737534e+001  6.853765e+001 
3587500000  -8.720084e+001  -1.407917e+002 
3590625000  -7.598893e+001  4.645141e+001 
3593750000  -6.570617e+001  -3.100127e+001 
3596875000  -6.394996e+001  1.645771e+000 
3600000000  -6.943558e+001  -4.197861e+001 
3603125000  -6.853934e+001  1.242599e+001 
3606250000  -6.405415e+001  -4.244762e+001 
3609375000  -7.253728e+001  -2.539586e+001 
3612500000  -6.327226e+001  -3.998971e+001 
3615625000  -6.839755e+001  -4.824899e+001 
3618750000  -6.322128e+001  -7.850175e+001 
3621875000  -6.505143e+001  -7.375915e+001 
3625000000  -6.247152e+001  -7.153628e+001 
3628125000  -6.438846e+001  -1.145734e+002 
3631250000  -6.354540e+001  -1.207606e+002 
3634375000  -6.526152e+001  -1.346302e+002 
3637500000  -6.361014e+001  -1.138272e+002 
3640625000  -6.475742e+001  -1.305486e+002 
3643750000  -6.251609e+001  -1.348346e+002 
3646875000  -6.196960e+001  -1.558914e+002 
3650000000  -6.407100e+001  1.762737e+002 
3653125000  -6.315604e+001  1.621542e+002 
3656250000  -6.615102e+001  1.330437e+002 
3659375000  -6.519819e+001  1.538353e+002 
3662500000  -6.280080e+001  1.484832e+002 
3665625000  -6.187411e+001  1.507559e+002 
3668750000  -6.218818e+001  1.162113e+002 
3671875000  -6.564008e+001  1.129603e+002 
3675000000  -6.208538e+001  1.194846e+002 
3678125000  -6.640406e+001  1.118969e+002 
3681250000  -6.440815e+001  9.670412e+001 
3684375000  -7.324404e+001  1.382853e+002 
3687500000  -6.664964e+001  7.319662e+001 
3690625000  -6.755468e+001  8.178665e+001 
3693750000  -6.723858e+001  1.144374e+002 
3696875000  -6.689050e+001  8.361079e+001 
3700000000  -6.164128e+001  8.851601e+001 
3703125000  -6.612475e+001  2.987252e+001 
3706250000  -6.689951e+001  5.178572e+001 
3709375000  -6.583526e+001  6.151027e+001 
3712500000  -6.593856e+001  7.448923e+001 
3715625000  -6.258535e+001  4.376068e+001 
3718750000  -6.431264e+001  4.092260e+001 
3721875000  -6.145674e+001  2.217634e+001 
3725000000  -6.379726e+001  1.128499e+001 
3728125000  -5.971226e+001  2.509583e+000 
3731250000  -5.965951e+001  -5.610760e+000 
3734375000  -6.052021e+001  -2.406394e+001 
3737500000  -5.998644e+001  -3.648892e+001 
3740625000  -5.771938e+001  -5.034298e+001 
3743750000  -5.880788e+001  -6.180817e+001 
3746875000  -5.870013e+001  -6.531455e+001 
3750000000  -5.728456e+001  -8.276198e+001 
3753125000  -5.791941e+001  -6.499162e+001 
3756250000  -5.797327e+001  -1.085415e+002 
3759375000  -6.008799e+001  -1.163566e+002 
3762500000  -5.646886e+001  -1.201585e+002 
3765625000  -5.970026e+001  -1.099851e+002 
3768750000  -5.587128e+001  -1.307913e+002 
3771875000  -5.650047e+001  -1.487682e+002 
3775000000  -5.711907e+001  -1.601654e+002 
3778125000  -5.888237e+001  1.728715e+002 
3781250000  -5.749875e+001  1.706754e+002 
3784375000  -5.687015e+001  1.674669e+002 
3787500000  -5.773282e+001  1.600876e+002 
3790625000  -5.823922e+001  1.382370e+002 
3793750000  -6.025465e+001  1.401585e+002 
3796875000  -5.684794e+001  1.236613e+002 
3800000000  -5.300606e+001  7.984599e+001 
3803125000  -5.821465e+001  1.055147e+002 
3806250000  -5.928910e+001  7.996592e+001 
3809375000  -5.870916e+001  8.759168e+001 
3812500000  -5.733147e+001  7.013104e+001 
3815625000  -6.072917e+001  5.156873e+001 
3818750000  -6.078770e+001  4.603326e+001 
3821875000  -6.432185e+001  5.826484e+001 
3825000000  -5.950686e+001  6.788416e+001 
3828125000  -6.366427e+001  5.410987e+001 
3831250000  -6.083495e+001  1.046393e+001 
3834375000  -6.678292e+001  9.611526e+000 
3837500000  -5.965987e+001  2.363876e+001 
3840625000  -6.219703e+001  2.947249e+000 
3843750000  -6.091851e+001  1.336834e+001 
3846875000  -6.137219e+001  -2.711622e+001 
3850000000  -6.187797e+001  -3.812876e+000 
3853125000  -6.045856e+001  -1.737565e+001 
3856250000  -5.872691e+001  -1.716702e+001 
3859375000  -5.862912e+001  -2.543871e+001 
3862500000  -6.054724e+001  -3.516458e+001 
3865625000  -5.911884e+001  -4.378740e+001 
3868750000  -5.942364e+001  -4.494128e+001 
3871875000  -5.735303e+001  -6.037077e+001 
3875000000  -6.029060e+001  -8.805801e+001 
3878125000  -5.856587e+001  -7.851983e+001 
3881250000  -5.731062e+001  -8.440302e+001 
3884375000  -5.659523e+001  -9.118139e+001 
3887500000  -5.742758e+001  -1.216887e+002 
3890625000  -5.703944e+001  -1.155667e+002 
3893750000  -5.631960e+001  -1.201528e+002 
3896875000  -5.769170e+001  -1.270550e+002 
3900000000  -5.710373e+001  -1.481510e+002 
3903125000  -5.649530e+001  -1.493777e+002 
3906250000  -5.297757e+001  -1.639659e+002 
3909375000  -5.386518e+001  1.756319e+002 
3912500000  -5.605143e+001  1.684005e+002 
3915625000  -5.687420e+001  1.566716e+002 
3918750000  -5.483720e+001  1.511352e+002 
3921875000  -5.516402e+001  1.437096e+002 
3925000000  -5.240414e+001  1.298063e+002 
3928125000  -5.293267e+001  1.082989e+002 
3931250000  -5.434645e+001  1.088605e+002 
3934375000  -5.482764e+001  9.271899e+001 
3937500000  -5.606989e+001  7.313637e+001 
3940625000  -5.470170e+001  8.048383e+001 
3943750000  -5.309323e+001  6.313044e+001 
3946875000  -5.360107e+001  4.975896e+001 
3950000000  -5.408503e+001  4.355973e+001 
3953125000  -5.407010e+001  2.995802e+001 
3956250000  -5.382903e+001  2.418314e+001 
3959375000  -5.173014e+001  9.981088e+000 
3962500000  -5.305281e+001  -4.968745e+000 
3965625000  -5.282356e+001  -2.303596e+001 
3968750000  -5.514938e+001  -2.804575e+001 
3971875000  -5.395314e+001  -4.007948e+001 
3975000000  -5.483598e+001  -6.099194e+001 
3978125000  -5.369930e+001  -5.528230e+001 
3981250000  -5.371661e+001  -7.517229e+001 
3984375000  -5.545586e+001  -7.858279e+001 
3987500000  -5.642141e+001  -9.270967e+001 
3990625000  -5.591567e+001  -1.069413e+002 
3993750000  -5.814840e+001  -1.192645e+002 
3996875000  -5.751343e+001  -1.165206e+002 
4000000000  -5.846497e+001  -1.297748e+002 
4003125000  -6.003997e+001  -1.153765e+002 
4006250000  -5.856115e+001  -1.447240e+002 
4009375000  -5.789854e+001  -1.513130e+002 
4012500000  -6.184501e+001  -1.674986e+002 
4015625000  -6.006220e+001  -1.734213e+002 
4018750000  -6.145767e+001  -1.722905e+002 
4021875000  -5.980977e+001  -1.756097e+002 
4025000000  -5.718818e+001  1.712720e+002 
4028125000  -6.339061e+001  -1.754338e+002 
4031250000  -6.001504e+001  1.626333e+002 
4034375000  -6.217142e+001  1.643376e+002 
4037500000  -5.790048e+001  1.596325e+002 
4040625000  -6.199343e+001  1.489792e+002 
4043750000  -5.919093e+001  1.485566e+002 
4046875000  -5.675471e+001  1.407402e+002 
4050000000  -5.774567e+001  1.300309e+002 
4053125000  -5.928835e+001  1.176173e+002 
4056250000  -5.723172e+001  1.283766e+002 
4059375000  -5.444677e+001  1.173069e+002 
4062500000  -5.544872e+001  9.538300e+001 
4065625000  -5.458534e+001  8.970235e+001 
4068750000  -5.440597e+001  7.971236e+001 
4071875000  -5.282418e+001  5.818359e+001 
4075000000  -5.392786e+001  4.417112e+001 
4078125000  -5.355891e+001  4.818254e+001 
4081250000  -5.269792e+001  2.526157e+001 
4084375000  -5.228302e+001  1.124733e+001 
4087500000  -5.333500e+001  -7.165646e+000 
4090625000  -5.308883e+001  -4.523643e+000 
4093750000  -5.438628e+001  -2.137801e+001 
4096875000  -5.242644e+001  -3.096195e+001 
4100000000  -5.436897e+001  -4.538464e+001 
4103125000  -5.593559e+001  -4.907774e+001 
4106250000  -5.344579e+001  -5.919178e+001 
4109375000  -5.259318e+001  -6.062045e+001 
4112500000  -5.272885e+001  -7.868713e+001 
4115625000  -5.342912e+001  -9.440607e+001 
4118750000  -5.318347e+001  -9.611840e+001 
4121875000  -5.266830e+001  -1.169401e+002 
4125000000  -5.395097e+001  -1.264529e+002 
4128125000  -5.520224e+001  -1.304173e+002 
4131250000  -5.281189e+001  -1.313563e+002 
4134375000  -5.113134e+001  -1.480670e+002 
4137500000  -5.159452e+001  -1.723718e+002 
4140625000  -5.425696e+001  1.718740e+002 
4143750000  -5.781316e+001  1.726993e+002 
4146875000  -5.543727e+001  1.666843e+002 
4150000000  -5.608671e+001  1.634625e+002 
4153125000  -5.353620e+001  1.355006e+002 
4156250000  -5.563623e+001  1.246947e+002 
4159375000  -5.472681e+001  1.326509e+002 
4162500000  -5.538857e+001  1.232147e+002 
4165625000  -5.377755e+001  1.169948e+002 
4168750000  -5.558891e+001  8.964642e+001 
4171875000  -5.543846e+001  8.064454e+001 
4175000000  -5.636340e+001  6.363205e+001 
4178125000  -5.784787e+001  6.715346e+001 
4181250000  -5.886438e+001  3.634774e+001 
4184375000  -5.981964e+001  3.842160e+001 
4187500000  -5.870708e+001  3.185772e+001 
4190625000  -6.215971e+001  2.051016e+001 
4193750000  -6.120934e+001  1.356243e+001 
4196875000  -6.396275e+001  7.897181e+000 
4200000000  -6.630112e+001  8.459254e+000 
4203125000  -6.496551e+001  -1.610482e+000 
4206250000  -6.428627e+001  3.580296e+001 
4209375000  -6.003394e+001  2.566538e+000 
4212500000  -6.892338e+001  -2.221397e+001 
4215625000  -6.367173e+001  -1.382813e+001 
4218750000  -5.887038e+001  9.624034e+000 
4221875000  -6.355489e+001  -4.670831e+001 
4225000000  -5.909875e+001  -2.411672e+001 
4228125000  -5.742281e+001  -3.428257e+001 
4231250000  -6.137150e+001  9.991453e+000 
4234375000  -5.548306e+001  -4.107072e+001 
4237500000  -6.106872e+001  -5.780378e+001 
4240625000  -5.541408e+001  -6.871777e+001 
4243750000  -6.021821e+001  -6.483935e+001 
4246875000  -5.803349e+001  -7.383608e+001 
4250000000  -5.854532e+001  -8.325497e+001 
4253125000  -5.572664e+001  -8.520122e+001 
4256250000  -5.691882e+001  -1.141612e+002 
4259375000  -5.474152e+001  -1.000797e+002 
4262500000  -5.510844e+001  -1.186723e+002 
4265625000  -5.210300e+001  -1.291276e+002 
4268750000  -5.297416e+001  -1.409221e+002 
4271875000  -5.136384e+001  -1.602969e+002 
4275000000  -5.176266e+001  -1.764555e+002 
4278125000  -5.354552e+001  1.749287e+002 
4281250000  -5.501255e+001  1.797161e+002 
4284375000  -5.508819e+001  1.605497e+002 
4287500000  -5.372291e+001  1.480314e+002 
4290625000  -5.590378e+001  1.548334e+002 
4293750000  -5.420395e+001  1.459786e+002 
4296875000  -5.301528e+001  1.210315e+002 
4300000000  -5.245210e+001  1.092514e+002 
4303125000  -5.399297e+001  1.012532e+002 
4306250000  -5.228683e+001  9.977825e+001 
4309375000  -5.074830e+001  7.556757e+001 
4312500000  -5.389139e+001  5.797345e+001 
4315625000  -5.221804e+001  5.693793e+001 
4318750000  -5.364280e+001  3.987353e+001 
4321875000  -5.221674e+001  3.733117e+001 
4325000000  -5.284402e+001  2.215619e+001 
4328125000  -5.189019e+001  1.367360e+001 
4331250000  -5.316383e+001  -6.139718e+000 
4334375000  -5.406500e+001  -1.448188e+001 
4337500000  -5.452399e+001  -3.542767e+001 
4340625000  -5.599583e+001  -2.850950e+001 
4343750000  -5.463541e+001  -3.062958e+001 
4346875000  -5.664124e+001  -5.197615e+001 
4350000000  -5.478616e+001  -5.418013e+001 
4353125000  -5.594709e+001  -7.936409e+001 
4356250000  -5.705940e+001  -6.455707e+001 
4359375000  -5.856839e+001  -5.948420e+001 
4362500000  -5.906168e+001  -5.004726e+001 
4365625000  -5.394563e+001  -8.750018e+001 
4368750000  -5.530015e+001  -8.997755e+001 
4371875000  -5.813242e+001  -1.003544e+002 
4375000000  -5.616418e+001  -1.270112e+002 
4378125000  -5.843903e+001  -1.179709e+002 
4381250000  -5.524189e+001  -1.248961e+002 
4384375000  -5.758892e+001  -1.495937e+002 
4387500000  -5.709140e+001  -1.569480e+002 
4390625000  -5.853586e+001  -1.598831e+002 
4393750000  -5.948574e+001  -1.584646e+002 
4396875000  -5.563115e+001  -1.628000e+002 
4400000000  -5.562159e+001  1.787910e+002 
4403125000  -5.713094e+001  1.753067e+002 
4406250000  -5.835895e+001  1.768925e+002 
4409375000  -5.644156e+001  1.657229e+002 
4412500000  -5.667167e+001  1.509332e+002 
4415625000  -5.645078e+001  1.617935e+002 
4418750000  -5.468672e+001  1.551043e+002 
