!Agilent Technologies,E8363B,MY43030201,A.06.04.32
!Agilent E8363B: A.06.04.32
!Date: Tuesday, November 11, 2014 22:09:21
!Correction: S21(Response(S21)) 
!S1P File: Measurement: S21:
# Hz S  dB   R 50
3000000000  -4.894058e+001  -7.679107e+001 
3003125000  -5.166153e+001  -8.374789e+001 
3006250000  -5.161011e+001  -8.822225e+001 
3009375000  -5.180825e+001  -9.025684e+001 
3012500000  -5.090936e+001  -9.878767e+001 
3015625000  -5.111472e+001  -1.128358e+002 
3018750000  -5.108372e+001  -1.176544e+002 
3021875000  -4.962695e+001  -1.181550e+002 
3025000000  -4.839260e+001  -1.301783e+002 
3028125000  -4.808707e+001  -1.453608e+002 
3031250000  -4.707724e+001  -1.645021e+002 
3034375000  -4.696894e+001  1.775742e+002 
3037500000  -4.778835e+001  1.646105e+002 
3040625000  -4.912531e+001  1.533881e+002 
3043750000  -4.918358e+001  1.368307e+002 
3046875000  -5.032630e+001  1.291126e+002 
3050000000  -5.156987e+001  1.206610e+002 
3053125000  -5.179373e+001  1.197233e+002 
3056250000  -5.224468e+001  1.193727e+002 
3059375000  -5.039835e+001  1.100574e+002 
3062500000  -4.968761e+001  9.889858e+001 
3065625000  -4.878032e+001  8.367066e+001 
3068750000  -4.890679e+001  7.574731e+001 
3071875000  -4.917402e+001  6.554706e+001 
3075000000  -4.856500e+001  5.395159e+001 
3078125000  -4.887489e+001  4.580361e+001 
3081250000  -4.855440e+001  3.517358e+001 
3084375000  -4.847556e+001  2.659585e+001 
3087500000  -4.799653e+001  1.073778e+001 
3090625000  -4.811134e+001  -3.778295e+000 
3093750000  -4.921472e+001  -1.633203e+001 
3096875000  -4.898042e+001  -2.622017e+001 
3100000000  -4.986472e+001  -3.503960e+001 
3103125000  -4.996252e+001  -4.131925e+001 
3106250000  -4.914243e+001  -5.105111e+001 
3109375000  -4.985922e+001  -6.274645e+001 
3112500000  -4.928707e+001  -7.062643e+001 
3115625000  -4.962261e+001  -8.013773e+001 
3118750000  -4.955321e+001  -8.627198e+001 
3121875000  -4.892195e+001  -1.001158e+002 
3125000000  -5.103878e+001  -1.071442e+002 
3128125000  -5.069006e+001  -1.087782e+002 
3131250000  -4.845339e+001  -1.188736e+002 
3134375000  -4.823525e+001  -1.390789e+002 
3137500000  -4.863691e+001  -1.556551e+002 
3140625000  -5.001868e+001  -1.681936e+002 
3143750000  -5.030867e+001  -1.718594e+002 
3146875000  -4.965821e+001  -1.756387e+002 
3150000000  -4.896254e+001  -1.792525e+002 
3153125000  -4.957993e+001  1.635413e+002 
3156250000  -5.051518e+001  1.650182e+002 
3159375000  -4.807295e+001  1.597747e+002 
3162500000  -4.637598e+001  1.338929e+002 
3165625000  -4.748465e+001  1.174343e+002 
3168750000  -4.759470e+001  1.132277e+002 
3171875000  -4.737838e+001  1.011541e+002 
3175000000  -4.775191e+001  8.722896e+001 
3178125000  -4.768913e+001  8.106635e+001 
3181250000  -4.704071e+001  6.842239e+001 
3184375000  -4.682915e+001  5.082631e+001 
3187500000  -4.810625e+001  3.565873e+001 
3190625000  -4.908997e+001  2.025499e+001 
3193750000  -4.993010e+001  2.166167e+001 
3196875000  -4.969269e+001  1.627719e+001 
3200000000  -4.804581e+001  3.603890e+000 
3203125000  -4.832339e+001  -6.601698e+000 
3206250000  -4.882353e+001  -1.637662e+001 
3209375000  -4.786766e+001  -3.331402e+001 
3212500000  -4.863073e+001  -4.344753e+001 
3215625000  -4.863952e+001  -5.005454e+001 
3218750000  -4.901481e+001  -6.260136e+001 
3221875000  -4.946181e+001  -7.544574e+001 
3225000000  -4.986525e+001  -8.831269e+001 
3228125000  -5.011148e+001  -9.533976e+001 
3231250000  -5.042147e+001  -1.043990e+002 
3234375000  -5.046159e+001  -1.131104e+002 
3237500000  -5.065388e+001  -1.232481e+002 
3240625000  -4.976820e+001  -1.294358e+002 
3243750000  -4.970298e+001  -1.441563e+002 
3246875000  -5.023706e+001  -1.595209e+002 
3250000000  -5.071457e+001  -1.671791e+002 
3253125000  -5.134154e+001  -1.750970e+002 
3256250000  -5.049945e+001  1.720463e+002 
3259375000  -5.095092e+001  1.578581e+002 
3262500000  -5.261957e+001  1.491570e+002 
3265625000  -5.314321e+001  1.487736e+002 
3268750000  -5.323170e+001  1.414925e+002 
3271875000  -5.249577e+001  1.309382e+002 
3275000000  -5.195635e+001  1.224844e+002 
3278125000  -5.278048e+001  1.067437e+002 
3281250000  -5.341459e+001  1.053300e+002 
3284375000  -5.282040e+001  8.987619e+001 
3287500000  -5.434144e+001  7.929916e+001 
3290625000  -5.330509e+001  6.910448e+001 
3293750000  -5.300673e+001  6.131076e+001 
3296875000  -5.479665e+001  5.174546e+001 
3300000000  -5.490094e+001  4.971806e+001 
3303125000  -5.265421e+001  3.905529e+001 
3306250000  -5.291497e+001  1.944464e+001 
3309375000  -5.251072e+001  1.387354e+001 
3312500000  -5.334389e+001  -4.605428e+000 
3315625000  -5.426772e+001  -1.009567e+001 
3318750000  -5.511980e+001  -1.613827e+001 
3321875000  -5.777546e+001  -2.934322e+001 
3325000000  -5.516371e+001  -1.880156e+001 
3328125000  -5.580734e+001  -2.862012e+001 
3331250000  -5.405519e+001  -3.034261e+001 
3334375000  -5.186303e+001  -5.102599e+001 
3337500000  -5.195898e+001  -7.473000e+001 
3340625000  -5.428762e+001  -8.702457e+001 
3343750000  -5.627111e+001  -8.314742e+001 
3346875000  -5.596362e+001  -1.009746e+002 
3350000000  -5.493451e+001  -1.041755e+002 
3353125000  -5.384173e+001  -1.119922e+002 
3356250000  -5.425076e+001  -1.309514e+002 
3359375000  -5.483492e+001  -1.403843e+002 
3362500000  -5.584510e+001  -1.515220e+002 
3365625000  -5.593013e+001  -1.622806e+002 
3368750000  -5.754057e+001  -1.788118e+002 
3371875000  -5.674199e+001  1.741846e+002 
3375000000  -5.945953e+001  1.668045e+002 
3378125000  -5.809785e+001  1.713553e+002 
3381250000  -6.330938e+001  1.655350e+002 
3384375000  -5.629094e+001  1.769453e+002 
3387500000  -5.425476e+001  1.418775e+002 
3390625000  -5.651995e+001  1.364855e+002 
3393750000  -5.632253e+001  1.233737e+002 
3396875000  -5.618695e+001  1.140158e+002 
3400000000  -5.704384e+001  9.315076e+001 
3403125000  -5.759284e+001  8.019290e+001 
3406250000  -5.755136e+001  8.410359e+001 
3409375000  -5.755546e+001  5.501587e+001 
3412500000  -5.810237e+001  5.226850e+001 
3415625000  -6.035415e+001  4.662582e+001 
3418750000  -5.996275e+001  3.732439e+001 
3421875000  -6.133175e+001  2.026702e+001 
3425000000  -5.829665e+001  1.863083e+001 
3428125000  -5.837721e+001  6.497337e+000 
3431250000  -6.281316e+001  -7.119957e-001 
3434375000  -5.960414e+001  -2.195031e+001 
3437500000  -6.574337e+001  -1.439813e+001 
3440625000  -6.077708e+001  -2.892691e+001 
3443750000  -6.132158e+001  -3.846747e+001 
3446875000  -6.082417e+001  -5.840829e+001 
3450000000  -6.195158e+001  -7.316653e+001 
3453125000  -6.426997e+001  -6.988660e+001 
3456250000  -6.677180e+001  -1.030245e+002 
3459375000  -6.351308e+001  -8.351063e+001 
3462500000  -6.957686e+001  -9.641057e+001 
3465625000  -6.643370e+001  -1.252114e+002 
3468750000  -6.623235e+001  -1.062333e+002 
3471875000  -6.501083e+001  -1.070376e+002 
3475000000  -6.867197e+001  -1.518021e+002 
3478125000  -7.088150e+001  -9.574467e+001 
3481250000  -6.974473e+001  -1.467712e+002 
3484375000  -6.965945e+001  -1.609427e+002 
3487500000  -6.894073e+001  -1.278564e+002 
3490625000  -6.719250e+001  -1.437023e+002 
3493750000  -7.071225e+001  -1.573896e+002 
3496875000  -7.263107e+001  -1.572765e+002 
3500000000  -6.826888e+001  -1.714752e+002 
3503125000  -6.772005e+001  -1.539877e+002 
3506250000  -6.444036e+001  -1.733015e+002 
3509375000  -6.610176e+001  1.507550e+002 
3512500000  -6.373806e+001  1.317718e+002 
3515625000  -6.640392e+001  1.425076e+002 
3518750000  -6.714537e+001  1.467866e+002 
3521875000  -7.200436e+001  -1.709564e+002 
3525000000  -6.900262e+001  1.472332e+002 
3528125000  -7.197350e+001  1.078661e+002 
3531250000  -7.096118e+001  1.099318e+002 
3534375000  -6.506020e+001  1.087899e+002 
3537500000  -6.799231e+001  8.507547e+001 
3540625000  -6.782990e+001  5.708991e+001 
3543750000  -7.271859e+001  1.188286e+002 
3546875000  -6.820804e+001  6.115440e+001 
3550000000  -7.265759e+001  6.463764e+001 
3553125000  -8.626953e+001  1.120719e+002 
3556250000  -7.357356e+001  1.724934e+001 
3559375000  -7.047749e+001  3.523780e+001 
3562500000  -8.145396e+001  3.540306e+001 
3565625000  -7.223586e+001  -1.146449e+001 
3568750000  -8.972992e+001  -9.961761e+001 
3571875000  -7.061695e+001  5.880154e+001 
3575000000  -7.156908e+001  -8.495100e+001 
3578125000  -6.730655e+001  5.611641e+001 
3581250000  -8.092879e+001  -2.521468e+001 
3584375000  -7.064564e+001  9.643622e+001 
3587500000  -7.070091e+001  5.819498e+000 
3590625000  -6.852734e+001  2.700665e+001 
3593750000  -7.313624e+001  -5.482923e+000 
3596875000  -6.583469e+001  1.895062e+001 
3600000000  -6.810049e+001  -2.071448e+001 
3603125000  -7.253400e+001  -3.080058e+001 
3606250000  -6.462775e+001  -4.955343e+001 
3609375000  -6.513080e+001  -4.004238e+001 
3612500000  -6.404044e+001  -5.386934e+001 
3615625000  -6.576690e+001  -5.012523e+001 
3618750000  -6.438937e+001  -7.265152e+001 
3621875000  -6.716314e+001  -6.393782e+001 
3625000000  -6.507576e+001  -7.850499e+001 
3628125000  -6.226526e+001  -9.996920e+001 
3631250000  -6.563225e+001  -1.030282e+002 
3634375000  -6.460176e+001  -1.261898e+002 
3637500000  -6.362365e+001  -1.246107e+002 
3640625000  -6.381509e+001  -1.293402e+002 
3643750000  -6.562204e+001  -1.561309e+002 
3646875000  -6.129329e+001  -1.763131e+002 
3650000000  -6.290574e+001  -1.588104e+002 
3653125000  -6.152331e+001  1.560993e+002 
3656250000  -6.456327e+001  1.630188e+002 
3659375000  -6.553692e+001  1.682825e+002 
3662500000  -6.395003e+001  1.494869e+002 
3665625000  -6.376560e+001  1.518516e+002 
3668750000  -6.260305e+001  1.246017e+002 
3671875000  -6.271321e+001  1.252260e+002 
3675000000  -6.183128e+001  1.034135e+002 
3678125000  -6.408239e+001  9.872129e+001 
3681250000  -6.332484e+001  8.121503e+001 
3684375000  -7.204633e+001  6.722483e+001 
3687500000  -6.666264e+001  6.971729e+001 
3690625000  -7.055253e+001  8.806004e+001 
3693750000  -6.766846e+001  8.743233e+001 
3696875000  -6.850336e+001  5.495411e+001 
3700000000  -6.620484e+001  6.987130e+001 
3703125000  -6.580608e+001  3.310569e+001 
3706250000  -6.510752e+001  4.885397e+001 
3709375000  -6.329012e+001  5.544061e+001 
3712500000  -6.189853e+001  5.346343e+001 
3715625000  -6.251062e+001  3.391597e+001 
3718750000  -6.135777e+001  1.904082e+001 
3721875000  -6.151873e+001  2.139697e+001 
3725000000  -6.255704e+001  1.516685e+001 
3728125000  -5.981866e+001  3.914119e+000 
3731250000  -6.024285e+001  -1.021471e+001 
3734375000  -5.960441e+001  -4.393095e+000 
3737500000  -5.748184e+001  -3.751851e+001 
3740625000  -5.831291e+001  -3.250985e+001 
3743750000  -5.947216e+001  -7.166281e+001 
3746875000  -6.104814e+001  -6.423421e+001 
3750000000  -5.814507e+001  -6.897026e+001 
3753125000  -5.735402e+001  -8.016759e+001 
3756250000  -5.749086e+001  -9.657938e+001 
3759375000  -5.783281e+001  -1.092121e+002 
3762500000  -5.773053e+001  -1.180120e+002 
3765625000  -5.815590e+001  -1.278342e+002 
3768750000  -5.598859e+001  -1.308480e+002 
3771875000  -5.725768e+001  -1.487500e+002 
3775000000  -5.546231e+001  -1.650979e+002 
3778125000  -5.683588e+001  1.765340e+002 
3781250000  -5.731067e+001  1.737430e+002 
3784375000  -5.762963e+001  1.612022e+002 
3787500000  -5.684664e+001  1.480029e+002 
3790625000  -5.657082e+001  1.372117e+002 
3793750000  -5.773941e+001  1.245176e+002 
3796875000  -5.690605e+001  1.177625e+002 
3800000000  -5.342194e+001  7.775282e+001 
3803125000  -5.731757e+001  8.550864e+001 
3806250000  -5.833780e+001  7.014301e+001 
3809375000  -5.992257e+001  7.440284e+001 
3812500000  -5.695605e+001  5.692790e+001 
3815625000  -5.963778e+001  6.229182e+001 
3818750000  -5.835414e+001  4.252866e+001 
3821875000  -6.236332e+001  4.562996e+001 
3825000000  -5.924850e+001  2.850124e+001 
3828125000  -6.052494e+001  1.553226e+001 
3831250000  -5.804610e+001  8.790482e+000 
3834375000  -6.351446e+001  6.636415e+000 
3837500000  -6.148994e+001  1.793963e+001 
3840625000  -5.881449e+001  1.154740e+001 
3843750000  -5.951515e+001  -3.028044e+000 
3846875000  -6.158294e+001  -1.323674e+001 
3850000000  -6.366632e+001  -3.172533e+001 
3853125000  -6.352539e+001  -1.065451e+001 
3856250000  -5.980534e+001  -7.909814e+000 
3859375000  -6.122158e+001  -3.810324e+001 
3862500000  -6.207059e+001  -3.363181e+001 
3865625000  -6.084822e+001  -7.378102e+001 
3868750000  -5.946894e+001  -5.132236e+001 
3871875000  -5.722931e+001  -7.061498e+001 
3875000000  -5.767664e+001  -6.420393e+001 
3878125000  -5.946549e+001  -8.825741e+001 
3881250000  -5.869815e+001  -8.134563e+001 
3884375000  -5.782746e+001  -9.229961e+001 
3887500000  -5.558381e+001  -1.139900e+002 
3890625000  -5.764348e+001  -1.209014e+002 
3893750000  -5.651303e+001  -1.357759e+002 
3896875000  -5.626778e+001  -1.391561e+002 
3900000000  -5.932586e+001  -1.496290e+002 
3903125000  -5.613901e+001  -1.510348e+002 
3906250000  -5.455660e+001  -1.695397e+002 
3909375000  -5.359165e+001  1.764532e+002 
3912500000  -5.458460e+001  1.573164e+002 
3915625000  -5.615397e+001  1.527846e+002 
3918750000  -5.514796e+001  1.511123e+002 
3921875000  -5.498032e+001  1.361947e+002 
3925000000  -5.351453e+001  1.229347e+002 
3928125000  -5.365817e+001  1.036722e+002 
3931250000  -5.558602e+001  1.098124e+002 
3934375000  -5.492031e+001  9.183416e+001 
3937500000  -5.567992e+001  8.512262e+001 
3940625000  -5.453719e+001  7.618404e+001 
3943750000  -5.348600e+001  6.109425e+001 
3946875000  -5.403485e+001  4.352748e+001 
3950000000  -5.405673e+001  4.093414e+001 
3953125000  -5.418131e+001  3.159944e+001 
3956250000  -5.521511e+001  1.901704e+001 
3959375000  -5.230825e+001  1.169424e+001 
3962500000  -5.276164e+001  -7.761865e+000 
3965625000  -5.253851e+001  -2.084945e+001 
3968750000  -5.463374e+001  -2.981421e+001 
3971875000  -5.363280e+001  -5.001976e+001 
3975000000  -5.392259e+001  -5.106484e+001 
3978125000  -5.398555e+001  -6.222235e+001 
3981250000  -5.532196e+001  -7.522356e+001 
3984375000  -5.540292e+001  -8.903935e+001 
3987500000  -5.534299e+001  -9.260825e+001 
3990625000  -5.650575e+001  -9.614902e+001 
3993750000  -5.665084e+001  -1.246857e+002 
3996875000  -5.815660e+001  -1.293540e+002 
4000000000  -6.047397e+001  -1.350960e+002 
4003125000  -5.932034e+001  -1.319336e+002 
4006250000  -5.731377e+001  -1.411974e+002 
4009375000  -5.671478e+001  -1.540223e+002 
4012500000  -5.741160e+001  -1.528225e+002 
4015625000  -6.101915e+001  -1.611343e+002 
4018750000  -6.110258e+001  -1.793050e+002 
4021875000  -5.853443e+001  -1.656990e+002 
4025000000  -5.942315e+001  1.715676e+002 
4028125000  -5.880270e+001  1.672009e+002 
4031250000  -5.974093e+001  1.531059e+002 
4034375000  -5.928249e+001  1.713950e+002 
4037500000  -5.912833e+001  1.665248e+002 
4040625000  -5.983007e+001  1.441241e+002 
4043750000  -6.015427e+001  1.375577e+002 
4046875000  -5.748832e+001  1.303194e+002 
4050000000  -5.714326e+001  1.300176e+002 
4053125000  -5.691301e+001  1.124288e+002 
4056250000  -6.032767e+001  1.179554e+002 
4059375000  -5.749333e+001  1.040204e+002 
4062500000  -5.471191e+001  1.137962e+002 
4065625000  -5.428453e+001  8.280485e+001 
4068750000  -5.470808e+001  6.308339e+001 
4071875000  -5.385183e+001  5.533043e+001 
4075000000  -5.296636e+001  4.552168e+001 
4078125000  -5.314839e+001  3.148450e+001 
4081250000  -5.383712e+001  2.217210e+001 
4084375000  -5.280325e+001  1.103802e+001 
4087500000  -5.354840e+001  -6.414366e+000 
4090625000  -5.332213e+001  -4.125047e+000 
4093750000  -5.398119e+001  -2.523664e+001 
4096875000  -5.280791e+001  -3.637056e+001 
4100000000  -5.340710e+001  -4.971716e+001 
4103125000  -5.458529e+001  -4.923878e+001 
4106250000  -5.435947e+001  -5.744054e+001 
4109375000  -5.396910e+001  -6.376598e+001 
4112500000  -5.296066e+001  -8.636348e+001 
4115625000  -5.297906e+001  -9.268736e+001 
4118750000  -5.294844e+001  -1.072398e+002 
4121875000  -5.212779e+001  -1.193884e+002 
4125000000  -5.296114e+001  -1.286628e+002 
4128125000  -5.527649e+001  -1.409655e+002 
4131250000  -5.354411e+001  -1.326053e+002 
4134375000  -5.080586e+001  -1.508738e+002 
4137500000  -5.198996e+001  -1.763157e+002 
4140625000  -5.286377e+001  1.677657e+002 
4143750000  -5.564617e+001  1.707182e+002 
4146875000  -5.522821e+001  1.603028e+002 
4150000000  -5.435035e+001  1.543470e+002 
4153125000  -5.439652e+001  1.423740e+002 
4156250000  -5.589185e+001  1.286598e+002 
4159375000  -5.542842e+001  1.235176e+002 
4162500000  -5.626509e+001  1.172439e+002 
4165625000  -5.528002e+001  1.125438e+002 
4168750000  -5.586608e+001  8.653112e+001 
4171875000  -5.489985e+001  7.490317e+001 
4175000000  -5.586125e+001  5.054178e+001 
4178125000  -5.647334e+001  7.375879e+001 
4181250000  -5.887144e+001  2.273768e+001 
4184375000  -6.069298e+001  4.049697e+001 
4187500000  -5.766227e+001  1.378850e+001 
4190625000  -6.242202e+001  3.207200e+000 
4193750000  -5.980547e+001  8.122870e+000 
4196875000  -6.497318e+001  1.046848e+001 
4200000000  -6.167826e+001  2.882713e+001 
4203125000  -6.408640e+001  1.381249e+001 
4206250000  -5.883535e+001  1.599555e+001 
4209375000  -6.331723e+001  -2.120350e+001 
4212500000  -6.663582e+001  7.558049e-001 
4215625000  -6.199970e+001  -2.461335e+001 
4218750000  -6.126688e+001  1.413167e+001 
4221875000  -6.275266e+001  -3.232150e+001 
4225000000  -5.998317e+001  -1.059975e+001 
4228125000  -5.882167e+001  -4.816485e+001 
4231250000  -6.299866e+001  -3.804364e+001 
4234375000  -5.776262e+001  -5.529395e+001 
4237500000  -5.787819e+001  -4.712093e+001 
4240625000  -5.528325e+001  -5.715159e+001 
4243750000  -5.778049e+001  -7.371696e+001 
4246875000  -5.895725e+001  -8.027447e+001 
4250000000  -5.833946e+001  -1.012015e+002 
4253125000  -5.570018e+001  -9.927161e+001 
4256250000  -5.645788e+001  -1.058172e+002 
4259375000  -5.482477e+001  -1.061086e+002 
4262500000  -5.527668e+001  -1.233293e+002 
4265625000  -5.552428e+001  -1.210919e+002 
4268750000  -5.400082e+001  -1.498733e+002 
4271875000  -5.225043e+001  -1.571717e+002 
4275000000  -5.201675e+001  -1.715506e+002 
4278125000  -5.265378e+001  1.725746e+002 
4281250000  -5.493392e+001  1.609821e+002 
4284375000  -5.414751e+001  1.462248e+002 
4287500000  -5.469801e+001  1.464320e+002 
4290625000  -5.396276e+001  1.401367e+002 
4293750000  -5.318990e+001  1.433041e+002 
4296875000  -5.356802e+001  1.184322e+002 
4300000000  -5.179352e+001  1.058029e+002 
4303125000  -5.278974e+001  9.127477e+001 
4306250000  -5.339624e+001  9.969164e+001 
4309375000  -5.056585e+001  7.812241e+001 
4312500000  -5.258358e+001  6.982447e+001 
4315625000  -5.217198e+001  4.362376e+001 
4318750000  -5.277133e+001  4.294159e+001 
4321875000  -5.253883e+001  3.133272e+001 
4325000000  -5.348972e+001  2.886123e+001 
4328125000  -5.058082e+001  9.290753e+000 
4331250000  -5.253792e+001  -7.654830e+000 
4334375000  -5.545195e+001  -1.897901e+001 
4337500000  -5.516313e+001  -3.022179e+001 
4340625000  -5.555079e+001  -1.909313e+001 
4343750000  -5.479258e+001  -4.399155e+001 
4346875000  -5.628572e+001  -4.788826e+001 
4350000000  -5.415723e+001  -7.095625e+001 
4353125000  -5.806720e+001  -7.581401e+001 
4356250000  -5.668910e+001  -8.616800e+001 
4359375000  -5.918577e+001  -5.149126e+001 
4362500000  -5.520951e+001  -7.556934e+001 
4365625000  -5.423641e+001  -9.175311e+001 
4368750000  -5.573391e+001  -1.013505e+002 
4371875000  -5.795818e+001  -1.167976e+002 
4375000000  -5.708490e+001  -1.136716e+002 
4378125000  -5.533019e+001  -1.323644e+002 
4381250000  -5.688587e+001  -1.328147e+002 
4384375000  -5.570564e+001  -1.533501e+002 
4387500000  -5.585921e+001  -1.532153e+002 
4390625000  -5.730889e+001  1.786796e+002 
4393750000  -5.844104e+001  -1.531869e+002 
4396875000  -5.527676e+001  -1.661275e+002 
4400000000  -5.710012e+001  1.787425e+002 
4403125000  -5.776561e+001  1.768539e+002 
4406250000  -5.700594e+001  1.686426e+002 
4409375000  -5.729966e+001  1.679410e+002 
4412500000  -5.563125e+001  1.565459e+002 
4415625000  -5.690554e+001  1.619055e+002 
4418750000  -5.541238e+001  1.472743e+002 
