!Agilent Technologies,E8363B,MY43030201,A.06.04.32
!Agilent E8363B: A.06.04.32
!Date: Tuesday, November 11, 2014 22:11:19
!Correction: S21(Response(S21)) 
!S1P File: Measurement: S21:
# Hz S  dB   R 50
3000000000  -4.885092e+001  -7.443103e+001 
3003125000  -5.128231e+001  -8.583278e+001 
3006250000  -5.143222e+001  -8.704709e+001 
3009375000  -5.224532e+001  -8.751412e+001 
3012500000  -5.134267e+001  -1.005762e+002 
3015625000  -5.112958e+001  -1.110718e+002 
3018750000  -5.164858e+001  -1.125896e+002 
3021875000  -4.968877e+001  -1.214169e+002 
3025000000  -4.849379e+001  -1.290724e+002 
3028125000  -4.824295e+001  -1.448122e+002 
3031250000  -4.698022e+001  -1.619657e+002 
3034375000  -4.730725e+001  1.792408e+002 
3037500000  -4.782191e+001  1.664765e+002 
3040625000  -4.875130e+001  1.524031e+002 
3043750000  -4.973128e+001  1.420969e+002 
3046875000  -5.029499e+001  1.320458e+002 
3050000000  -5.147241e+001  1.210929e+002 
3053125000  -5.078891e+001  1.207276e+002 
3056250000  -5.083612e+001  1.267846e+002 
3059375000  -5.021024e+001  1.109570e+002 
3062500000  -4.894578e+001  9.749489e+001 
3065625000  -4.908370e+001  8.514854e+001 
3068750000  -4.899028e+001  7.131773e+001 
3071875000  -4.897625e+001  6.639825e+001 
3075000000  -4.848721e+001  5.621801e+001 
3078125000  -4.811946e+001  4.430631e+001 
3081250000  -4.880758e+001  3.414526e+001 
3084375000  -4.797687e+001  2.406561e+001 
3087500000  -4.833539e+001  1.106364e+001 
3090625000  -4.799308e+001  -6.353386e+000 
3093750000  -4.881773e+001  -1.785763e+001 
3096875000  -4.964178e+001  -2.628201e+001 
3100000000  -4.907952e+001  -3.334400e+001 
3103125000  -4.961353e+001  -4.331567e+001 
3106250000  -4.953348e+001  -5.090741e+001 
3109375000  -4.942122e+001  -6.287561e+001 
3112500000  -4.923089e+001  -6.839474e+001 
3115625000  -4.941946e+001  -7.898103e+001 
3118750000  -4.958381e+001  -8.754219e+001 
3121875000  -4.914431e+001  -1.032949e+002 
3125000000  -5.089635e+001  -1.120435e+002 
3128125000  -5.040652e+001  -1.077393e+002 
3131250000  -4.860780e+001  -1.148658e+002 
3134375000  -4.693358e+001  -1.410306e+002 
3137500000  -4.879589e+001  -1.559824e+002 
3140625000  -4.916138e+001  -1.631347e+002 
3143750000  -5.017000e+001  -1.733283e+002 
3146875000  -4.941293e+001  -1.744297e+002 
3150000000  -4.907566e+001  1.775971e+002 
3153125000  -4.888186e+001  1.666576e+002 
3156250000  -5.035965e+001  1.626192e+002 
3159375000  -4.768557e+001  1.604378e+002 
3162500000  -4.617842e+001  1.349888e+002 
3165625000  -4.763823e+001  1.181271e+002 
3168750000  -4.759520e+001  1.126793e+002 
3171875000  -4.715187e+001  1.001200e+002 
3175000000  -4.765424e+001  8.584400e+001 
3178125000  -4.725045e+001  8.211472e+001 
3181250000  -4.672145e+001  6.745609e+001 
3184375000  -4.663338e+001  4.792585e+001 
3187500000  -4.735751e+001  3.621263e+001 
3190625000  -4.936490e+001  2.020490e+001 
3193750000  -5.009819e+001  2.181328e+001 
3196875000  -4.965221e+001  1.771140e+001 
3200000000  -4.833140e+001  9.342407e+000 
3203125000  -4.863424e+001  -6.505332e+000 
3206250000  -4.862137e+001  -1.745512e+001 
3209375000  -4.861127e+001  -3.416271e+001 
3212500000  -4.908862e+001  -4.021469e+001 
3215625000  -4.812716e+001  -4.737943e+001 
3218750000  -4.891019e+001  -6.709071e+001 
3221875000  -4.955241e+001  -7.455178e+001 
3225000000  -4.903215e+001  -8.521590e+001 
3228125000  -4.950359e+001  -9.280743e+001 
3231250000  -5.108131e+001  -1.050848e+002 
3234375000  -4.956490e+001  -1.101786e+002 
3237500000  -5.062062e+001  -1.194735e+002 
3240625000  -4.992130e+001  -1.306529e+002 
3243750000  -4.949471e+001  -1.454862e+002 
3246875000  -4.996106e+001  -1.551352e+002 
3250000000  -5.080605e+001  -1.670922e+002 
3253125000  -5.119151e+001  -1.726282e+002 
3256250000  -5.054280e+001  1.741422e+002 
3259375000  -5.191113e+001  1.539403e+002 
3262500000  -5.283005e+001  1.503335e+002 
3265625000  -5.258072e+001  1.471306e+002 
3268750000  -5.344533e+001  1.485081e+002 
3271875000  -5.241359e+001  1.299354e+002 
3275000000  -5.228133e+001  1.235110e+002 
3278125000  -5.255576e+001  1.087814e+002 
3281250000  -5.355124e+001  1.039427e+002 
3284375000  -5.236111e+001  9.556367e+001 
3287500000  -5.393440e+001  8.137636e+001 
3290625000  -5.343274e+001  7.154841e+001 
3293750000  -5.291020e+001  5.809836e+001 
3296875000  -5.462762e+001  5.248897e+001 
3300000000  -5.359805e+001  5.139891e+001 
3303125000  -5.299718e+001  4.023719e+001 
3306250000  -5.338823e+001  2.428701e+001 
3309375000  -5.268546e+001  1.927925e+001 
3312500000  -5.277759e+001  -3.114743e+000 
3315625000  -5.443668e+001  -1.418284e+001 
3318750000  -5.530154e+001  -1.744808e+001 
3321875000  -5.743892e+001  -1.728549e+001 
3325000000  -5.518994e+001  -2.416850e+001 
3328125000  -5.551426e+001  -2.744118e+001 
3331250000  -5.341567e+001  -2.457562e+001 
3334375000  -5.111559e+001  -4.467392e+001 
3337500000  -5.193713e+001  -7.284558e+001 
3340625000  -5.439205e+001  -9.385797e+001 
3343750000  -5.618911e+001  -9.323943e+001 
3346875000  -5.639299e+001  -9.415100e+001 
3350000000  -5.474705e+001  -9.973706e+001 
3353125000  -5.480415e+001  -1.157411e+002 
3356250000  -5.580825e+001  -1.297381e+002 
3359375000  -5.439056e+001  -1.422167e+002 
3362500000  -5.613177e+001  -1.512223e+002 
3365625000  -5.654038e+001  -1.559545e+002 
3368750000  -5.627222e+001  -1.724895e+002 
3371875000  -5.635602e+001  -1.778469e+002 
3375000000  -5.828284e+001  1.647592e+002 
3378125000  -5.870844e+001  1.686563e+002 
3381250000  -6.038613e+001  1.660948e+002 
3384375000  -5.590181e+001  -1.726722e+002 
3387500000  -5.429245e+001  1.443993e+002 
3390625000  -5.678133e+001  1.283675e+002 
3393750000  -5.695342e+001  1.191568e+002 
3396875000  -5.854990e+001  1.156031e+002 
3400000000  -5.575691e+001  9.200187e+001 
3403125000  -5.690064e+001  8.431361e+001 
3406250000  -5.804331e+001  7.407838e+001 
3409375000  -5.739219e+001  5.355942e+001 
3412500000  -5.694688e+001  5.285158e+001 
3415625000  -6.028347e+001  3.741762e+001 
3418750000  -5.881617e+001  4.635544e+001 
3421875000  -6.028049e+001  2.806586e+001 
3425000000  -6.133564e+001  2.391572e+001 
3428125000  -5.815977e+001  8.296031e+000 
3431250000  -5.951596e+001  -6.125064e-001 
3434375000  -6.008706e+001  -3.115661e+001 
3437500000  -6.086401e+001  -3.451455e+001 
3440625000  -6.145710e+001  -2.095440e+001 
3443750000  -6.217948e+001  -4.258934e+001 
3446875000  -6.373388e+001  -5.972237e+001 
3450000000  -6.322732e+001  -9.116058e+001 
3453125000  -6.256349e+001  -8.503750e+001 
3456250000  -6.561702e+001  -8.988456e+001 
3459375000  -6.235333e+001  -6.508571e+001 
3462500000  -6.577869e+001  -9.626893e+001 
3465625000  -6.728518e+001  -1.110882e+002 
3468750000  -6.870370e+001  -1.232160e+002 
3471875000  -6.816261e+001  -1.183242e+002 
3475000000  -6.376128e+001  -1.035838e+002 
3478125000  -6.833180e+001  -1.386098e+002 
3481250000  -7.043069e+001  -1.340051e+002 
3484375000  -6.816689e+001  -1.582746e+002 
3487500000  -6.605979e+001  -1.513712e+002 
3490625000  -6.737230e+001  -1.559182e+002 
3493750000  -6.799117e+001  -1.358332e+002 
3496875000  -6.927966e+001  -1.452327e+002 
3500000000  -6.724529e+001  -1.557551e+002 
3503125000  -6.675897e+001  -1.541272e+002 
3506250000  -6.796513e+001  1.476626e+002 
3509375000  -6.340276e+001  1.682272e+002 
3512500000  -6.592337e+001  1.473582e+002 
3515625000  -6.749831e+001  1.240919e+002 
3518750000  -6.597928e+001  1.282872e+002 
3521875000  -6.703143e+001  1.302866e+002 
3525000000  -6.728481e+001  1.234153e+002 
3528125000  -6.820841e+001  6.680071e+001 
3531250000  -6.755852e+001  1.355197e+002 
3534375000  -6.680661e+001  9.042594e+001 
3537500000  -6.742944e+001  6.820818e+001 
3540625000  -7.099808e+001  5.327493e+001 
3543750000  -7.279256e+001  6.043783e+001 
3546875000  -7.364881e+001  6.111926e+001 
3550000000  -8.338623e+001  1.743623e+001 
3553125000  -6.737525e+001  3.545086e+001 
3556250000  -7.290614e+001  7.233746e+001 
3559375000  -6.990025e+001  3.827274e+001 
3562500000  -7.519087e+001  4.919739e+001 
3565625000  -6.955383e+001  4.185223e+001 
3568750000  -8.613861e+001  -1.266760e+002 
3571875000  -6.735715e+001  3.747264e+001 
3575000000  -7.407289e+001  6.477394e+001 
3578125000  -7.110819e+001  2.029785e+001 
3581250000  -6.731415e+001  1.750653e+001 
3584375000  -7.308447e+001  6.265208e+001 
3587500000  -7.584248e+001  -6.567007e+001 
3590625000  -6.700596e+001  1.267450e+001 
3593750000  -7.206988e+001  -5.906720e+001 
3596875000  -6.805578e+001  6.089668e+000 
3600000000  -6.309873e+001  -1.754252e+001 
3603125000  -6.603170e+001  -3.084679e+001 
3606250000  -6.431929e+001  -1.992320e+001 
3609375000  -6.590655e+001  -3.249200e+001 
3612500000  -6.191084e+001  -8.085300e+001 
3615625000  -6.979755e+001  -6.600566e+001 
3618750000  -6.532941e+001  -5.393732e+001 
3621875000  -6.433632e+001  -7.654269e+001 
3625000000  -6.321319e+001  -9.006236e+001 
3628125000  -6.464693e+001  -7.603312e+001 
3631250000  -6.155434e+001  -1.131670e+002 
3634375000  -6.448917e+001  -1.167538e+002 
3637500000  -6.458170e+001  -1.005785e+002 
3640625000  -6.357356e+001  -1.288087e+002 
3643750000  -6.397116e+001  -1.603078e+002 
3646875000  -6.179249e+001  -1.669291e+002 
3650000000  -6.786086e+001  -1.675694e+002 
3653125000  -6.523232e+001  1.740294e+002 
3656250000  -6.367577e+001  1.729527e+002 
3659375000  -6.440162e+001  1.337056e+002 
3662500000  -6.255248e+001  1.385889e+002 
3665625000  -6.346037e+001  1.480899e+002 
3668750000  -6.388855e+001  1.392813e+002 
3671875000  -6.252010e+001  1.099622e+002 
3675000000  -6.285155e+001  8.881205e+001 
3678125000  -6.583969e+001  1.045580e+002 
3681250000  -6.341492e+001  1.021168e+002 
3684375000  -6.829173e+001  5.189199e+001 
3687500000  -6.607090e+001  9.688361e+001 
3690625000  -7.060580e+001  1.130514e+002 
3693750000  -6.433371e+001  8.671573e+001 
3696875000  -6.851546e+001  6.415364e+001 
3700000000  -6.282117e+001  7.252945e+001 
3703125000  -6.265686e+001  4.632469e+001 
3706250000  -6.868393e+001  6.395306e+001 
3709375000  -6.659978e+001  4.699083e+001 
3712500000  -6.196266e+001  6.920360e+001 
3715625000  -5.954106e+001  4.514795e+001 
3718750000  -6.210431e+001  2.877250e+001 
3721875000  -6.152974e+001  -2.977394e+000 
3725000000  -6.095592e+001  1.754269e+001 
3728125000  -5.896089e+001  -7.793367e+000 
3731250000  -5.854555e+001  -2.075781e+001 
3734375000  -5.946339e+001  -1.097127e+001 
3737500000  -6.083093e+001  -5.904988e+001 
3740625000  -5.824957e+001  -3.700831e+001 
3743750000  -5.896389e+001  -6.247500e+001 
3746875000  -5.999602e+001  -8.043798e+001 
3750000000  -5.856460e+001  -7.816685e+001 
3753125000  -5.789091e+001  -7.975716e+001 
3756250000  -5.874962e+001  -1.007881e+002 
3759375000  -5.760165e+001  -1.067072e+002 
3762500000  -5.735592e+001  -1.178099e+002 
3765625000  -5.782277e+001  -1.264608e+002 
3768750000  -5.698723e+001  -1.428560e+002 
3771875000  -5.577087e+001  -1.406645e+002 
3775000000  -5.686705e+001  -1.649549e+002 
3778125000  -5.702779e+001  1.798982e+002 
3781250000  -5.726738e+001  -1.746545e+002 
3784375000  -5.696416e+001  1.691060e+002 
3787500000  -5.748220e+001  1.495533e+002 
3790625000  -5.723031e+001  1.425942e+002 
3793750000  -5.718373e+001  1.373929e+002 
3796875000  -5.739797e+001  1.198382e+002 
3800000000  -5.469873e+001  7.866432e+001 
3803125000  -5.679082e+001  9.354704e+001 
3806250000  -6.063461e+001  7.746709e+001 
3809375000  -5.724162e+001  7.988148e+001 
3812500000  -5.892507e+001  4.696797e+001 
3815625000  -5.962063e+001  4.460118e+001 
3818750000  -6.219878e+001  4.135880e+001 
3821875000  -6.305766e+001  5.450063e+001 
3825000000  -6.058439e+001  3.546000e+001 
3828125000  -5.826281e+001  2.700890e+001 
3831250000  -6.009656e+001  4.660666e+000 
3834375000  -6.299893e+001  -1.073936e+001 
3837500000  -6.192912e+001  2.594162e+001 
3840625000  -6.350911e+001  -3.953101e+000 
3843750000  -6.197742e+001  -7.374766e+000 
3846875000  -6.121469e+001  -9.872623e+000 
3850000000  -6.993366e+001  -3.435076e+001 
3853125000  -6.233686e+001  -1.132442e+001 
3856250000  -6.201767e+001  -7.954481e+000 
3859375000  -6.009571e+001  -3.882584e+001 
3862500000  -5.979003e+001  -3.888040e+001 
3865625000  -6.129607e+001  -3.916848e+001 
3868750000  -5.859653e+001  -5.199473e+001 
3871875000  -5.604475e+001  -6.119918e+001 
3875000000  -5.924585e+001  -6.522144e+001 
3878125000  -5.714791e+001  -8.235598e+001 
3881250000  -5.686945e+001  -8.298815e+001 
3884375000  -5.618779e+001  -1.098549e+002 
3887500000  -5.627232e+001  -1.085560e+002 
3890625000  -5.762404e+001  -1.196729e+002 
3893750000  -5.751508e+001  -1.424917e+002 
3896875000  -5.725216e+001  -1.458704e+002 
3900000000  -5.612362e+001  -1.530905e+002 
3903125000  -5.644852e+001  -1.688663e+002 
3906250000  -5.391927e+001  -1.738537e+002 
3909375000  -5.434851e+001  1.784729e+002 
3912500000  -5.413435e+001  1.608811e+002 
3915625000  -5.642963e+001  1.533430e+002 
3918750000  -5.494124e+001  1.561264e+002 
3921875000  -5.444109e+001  1.431513e+002 
3925000000  -5.316834e+001  1.276813e+002 
3928125000  -5.269003e+001  1.070309e+002 
3931250000  -5.426050e+001  1.087640e+002 
3934375000  -5.535275e+001  8.933798e+001 
3937500000  -5.591190e+001  8.476405e+001 
3940625000  -5.434328e+001  7.147017e+001 
3943750000  -5.353583e+001  6.275524e+001 
3946875000  -5.294331e+001  4.946684e+001 
3950000000  -5.484855e+001  4.694607e+001 
3953125000  -5.321869e+001  3.544931e+001 
3956250000  -5.380074e+001  2.192871e+001 
3959375000  -5.172062e+001  1.659249e+001 
3962500000  -5.181334e+001  -1.897197e+001 
3965625000  -5.430960e+001  -2.353887e+001 
3968750000  -5.329742e+001  -3.254270e+001 
3971875000  -5.525767e+001  -4.538403e+001 
3975000000  -5.353466e+001  -5.653120e+001 
3978125000  -5.352057e+001  -5.240730e+001 
3981250000  -5.385817e+001  -8.070432e+001 
3984375000  -5.586336e+001  -8.540134e+001 
3987500000  -5.741598e+001  -9.655811e+001 
3990625000  -5.756695e+001  -9.559780e+001 
3993750000  -5.825809e+001  -1.142613e+002 
3996875000  -5.728750e+001  -1.134975e+002 
4000000000  -5.899389e+001  -1.226452e+002 
4003125000  -6.080926e+001  -1.330980e+002 
4006250000  -5.630957e+001  -1.359656e+002 
4009375000  -5.788445e+001  -1.549806e+002 
4012500000  -5.943228e+001  -1.525904e+002 
4015625000  -6.316644e+001  -1.793443e+002 
4018750000  -5.766505e+001  -1.607703e+002 
4021875000  -5.850568e+001  -1.732004e+002 
4025000000  -5.868134e+001  -1.781159e+002 
4028125000  -5.892928e+001  1.749677e+002 
4031250000  -5.929766e+001  1.609069e+002 
4034375000  -6.247257e+001  1.609616e+002 
4037500000  -5.687326e+001  1.602529e+002 
4040625000  -6.273845e+001  1.521025e+002 
4043750000  -5.812696e+001  1.492816e+002 
4046875000  -5.860306e+001  1.328657e+002 
4050000000  -5.816090e+001  1.305582e+002 
4053125000  -5.672955e+001  1.131736e+002 
4056250000  -5.735849e+001  1.165968e+002 
4059375000  -5.652666e+001  1.140581e+002 
4062500000  -5.397475e+001  9.668385e+001 
4065625000  -5.389759e+001  8.264197e+001 
4068750000  -5.474907e+001  7.392786e+001 
4071875000  -5.327159e+001  5.903492e+001 
4075000000  -5.303582e+001  4.440217e+001 
4078125000  -5.350269e+001  4.070925e+001 
4081250000  -5.296266e+001  2.848179e+001 
4084375000  -5.320756e+001  7.426811e+000 
4087500000  -5.328792e+001  -1.905500e+000 
4090625000  -5.299884e+001  -4.652859e+000 
4093750000  -5.320430e+001  -2.080995e+001 
4096875000  -5.235109e+001  -3.591127e+001 
4100000000  -5.295385e+001  -4.140346e+001 
4103125000  -5.467351e+001  -5.429805e+001 
4106250000  -5.410178e+001  -5.625063e+001 
4109375000  -5.292062e+001  -6.549712e+001 
4112500000  -5.278388e+001  -9.008801e+001 
4115625000  -5.285468e+001  -9.277494e+001 
4118750000  -5.126086e+001  -1.026432e+002 
4121875000  -5.365110e+001  -1.149231e+002 
4125000000  -5.436969e+001  -1.192346e+002 
4128125000  -5.611657e+001  -1.311108e+002 
4131250000  -5.230663e+001  -1.275917e+002 
4134375000  -5.077657e+001  -1.502300e+002 
4137500000  -5.280923e+001  -1.775047e+002 
4140625000  -5.413245e+001  1.707344e+002 
4143750000  -5.711099e+001  1.765372e+002 
4146875000  -5.356808e+001  1.714938e+002 
4150000000  -5.320737e+001  1.576826e+002 
4153125000  -5.380190e+001  1.415368e+002 
4156250000  -5.557743e+001  1.236443e+002 
4159375000  -5.579806e+001  1.425125e+002 
4162500000  -5.557463e+001  1.231773e+002 
4165625000  -5.516264e+001  1.095946e+002 
4168750000  -5.405409e+001  8.164524e+001 
4171875000  -5.423446e+001  8.199255e+001 
4175000000  -5.610543e+001  5.451019e+001 
4178125000  -5.646788e+001  6.092934e+001 
4181250000  -5.551697e+001  4.542327e+001 
4184375000  -6.165842e+001  3.578953e+001 
4187500000  -5.922248e+001  3.802573e+001 
4190625000  -6.112708e+001  8.546241e+000 
4193750000  -6.003587e+001  1.443228e+001 
4196875000  -6.413166e+001  1.081809e+001 
4200000000  -6.356871e+001  3.290177e+001 
4203125000  -7.227328e+001  -4.341281e+001 
4206250000  -5.919952e+001  3.809543e+001 
4209375000  -5.926918e+001  1.232305e+001 
4212500000  -6.296104e+001  2.020763e+000 
4215625000  -6.240051e+001  -1.283485e+001 
4218750000  -6.519234e+001  -1.184871e+001 
4221875000  -5.934917e+001  -1.790903e+001 
4225000000  -6.204076e+001  1.949878e+001 
4228125000  -6.049749e+001  -1.364196e+001 
4231250000  -6.082873e+001  -1.977153e+001 
4234375000  -5.880676e+001  -2.959192e+001 
4237500000  -5.632837e+001  -4.338568e+001 
4240625000  -5.536318e+001  -6.798872e+001 
4243750000  -5.847459e+001  -7.331076e+001 
4246875000  -5.539788e+001  -8.401983e+001 
4250000000  -6.051023e+001  -8.697006e+001 
4253125000  -5.538156e+001  -9.245168e+001 
4256250000  -5.555465e+001  -1.018416e+002 
4259375000  -5.471815e+001  -1.020385e+002 
4262500000  -5.559841e+001  -1.195871e+002 
4265625000  -5.403647e+001  -1.294114e+002 
4268750000  -5.240100e+001  -1.465465e+002 
4271875000  -5.258542e+001  -1.546200e+002 
4275000000  -5.189721e+001  -1.737097e+002 
4278125000  -5.332024e+001  1.654596e+002 
4281250000  -5.355000e+001  1.608661e+002 
4284375000  -5.388202e+001  1.631992e+002 
4287500000  -5.429988e+001  1.417436e+002 
4290625000  -5.386089e+001  1.421745e+002 
4293750000  -5.289727e+001  1.477104e+002 
4296875000  -5.287268e+001  1.183188e+002 
4300000000  -5.243143e+001  1.039123e+002 
4303125000  -5.282173e+001  1.009398e+002 
4306250000  -5.244846e+001  9.095292e+001 
4309375000  -5.192505e+001  8.092713e+001 
4312500000  -5.136691e+001  5.992069e+001 
4315625000  -5.275191e+001  4.815596e+001 
4318750000  -5.299688e+001  4.383723e+001 
4321875000  -5.267988e+001  4.138158e+001 
4325000000  -5.299911e+001  2.172758e+001 
4328125000  -5.344905e+001  7.204653e+000 
4331250000  -5.345554e+001  -6.066171e+000 
4334375000  -5.482590e+001  -1.569434e+001 
4337500000  -5.419656e+001  -3.413591e+001 
4340625000  -5.554623e+001  -2.891354e+001 
4343750000  -5.661517e+001  -4.728223e+001 
4346875000  -5.478328e+001  -4.273278e+001 
4350000000  -5.452622e+001  -6.454498e+001 
4353125000  -5.801349e+001  -8.056013e+001 
4356250000  -5.855904e+001  -6.360849e+001 
4359375000  -6.088533e+001  -1.957634e+001 
4362500000  -5.641272e+001  -8.935488e+001 
4365625000  -5.437082e+001  -8.807671e+001 
4368750000  -5.686702e+001  -9.347428e+001 
4371875000  -5.516520e+001  -1.033400e+002 
4375000000  -5.554219e+001  -1.254900e+002 
4378125000  -5.600841e+001  -1.268523e+002 
4381250000  -5.671545e+001  -1.238740e+002 
4384375000  -5.689853e+001  -1.520616e+002 
4387500000  -5.756275e+001  -1.505780e+002 
4390625000  -6.003396e+001  -1.547913e+002 
4393750000  -5.905959e+001  -1.389212e+002 
4396875000  -5.594189e+001  -1.570717e+002 
4400000000  -5.707627e+001  -1.671235e+002 
4403125000  -5.659164e+001  1.720242e+002 
4406250000  -5.726764e+001  1.778299e+002 
4409375000  -5.733758e+001  1.739089e+002 
4412500000  -5.834562e+001  1.613499e+002 
4415625000  -5.451696e+001  1.701280e+002 
