!Agilent Technologies,E8363B,MY43030201,A.06.04.32
!Agilent E8363B: A.06.04.32
!Date: Tuesday, November 11, 2014 22:10:13
!Correction: S21(Response(S21)) 
!S1P File: Measurement: S21:
# Hz S  dB   R 50
3000000000  -4.894422e+001  -7.623130e+001 
3003125000  -5.148872e+001  -8.187653e+001 
3006250000  -5.149976e+001  -8.471205e+001 
3009375000  -5.218233e+001  -8.876772e+001 
3012500000  -5.097050e+001  -1.015082e+002 
3015625000  -5.114332e+001  -1.100654e+002 
3018750000  -5.111817e+001  -1.119238e+002 
3021875000  -4.985871e+001  -1.189668e+002 
3025000000  -4.854404e+001  -1.314957e+002 
3028125000  -4.788173e+001  -1.451163e+002 
3031250000  -4.701628e+001  -1.624291e+002 
3034375000  -4.699351e+001  1.767152e+002 
3037500000  -4.797808e+001  1.637239e+002 
3040625000  -4.939683e+001  1.494396e+002 
3043750000  -4.983008e+001  1.374430e+002 
3046875000  -5.049032e+001  1.290605e+002 
3050000000  -5.174129e+001  1.235381e+002 
3053125000  -5.133422e+001  1.202684e+002 
3056250000  -5.092973e+001  1.188425e+002 
3059375000  -5.048169e+001  1.096889e+002 
3062500000  -4.931429e+001  1.020263e+002 
3065625000  -4.886158e+001  8.597122e+001 
3068750000  -4.901407e+001  7.366747e+001 
3071875000  -4.871034e+001  6.837531e+001 
3075000000  -4.895122e+001  5.600931e+001 
3078125000  -4.892679e+001  4.441796e+001 
3081250000  -4.843722e+001  3.193887e+001 
3084375000  -4.819475e+001  2.422980e+001 
3087500000  -4.821686e+001  1.173014e+001 
3090625000  -4.828598e+001  -4.225918e+000 
3093750000  -4.882950e+001  -1.796317e+001 
3096875000  -4.888475e+001  -2.903953e+001 
3100000000  -4.936788e+001  -3.688046e+001 
3103125000  -4.943702e+001  -3.974075e+001 
3106250000  -4.927470e+001  -5.272309e+001 
3109375000  -4.962392e+001  -6.219527e+001 
3112500000  -4.926601e+001  -6.842530e+001 
3115625000  -4.915387e+001  -8.168745e+001 
3118750000  -4.949049e+001  -8.749919e+001 
3121875000  -4.905252e+001  -1.030424e+002 
3125000000  -5.066514e+001  -1.115674e+002 
3128125000  -5.172689e+001  -1.061242e+002 
3131250000  -4.857853e+001  -1.219607e+002 
3134375000  -4.728016e+001  -1.413779e+002 
3137500000  -4.874487e+001  -1.548978e+002 
3140625000  -4.935196e+001  -1.620574e+002 
3143750000  -5.088191e+001  -1.716531e+002 
3146875000  -4.975636e+001  -1.734949e+002 
3150000000  -4.913551e+001  1.750377e+002 
3153125000  -4.970460e+001  1.662735e+002 
3156250000  -5.034385e+001  1.634518e+002 
3159375000  -4.795889e+001  1.560844e+002 
3162500000  -4.600586e+001  1.334521e+002 
3165625000  -4.738316e+001  1.197375e+002 
3168750000  -4.780285e+001  1.134044e+002 
3171875000  -4.724047e+001  1.012323e+002 
3175000000  -4.784442e+001  8.409049e+001 
3178125000  -4.759433e+001  7.916695e+001 
3181250000  -4.655655e+001  6.718766e+001 
3184375000  -4.647813e+001  5.151825e+001 
3187500000  -4.753223e+001  3.490446e+001 
3190625000  -4.923459e+001  2.209014e+001 
3193750000  -5.052274e+001  1.994764e+001 
3196875000  -4.914762e+001  1.547643e+001 
3200000000  -4.825265e+001  5.625996e+000 
3203125000  -4.831191e+001  -4.819924e+000 
3206250000  -4.932639e+001  -1.892896e+001 
3209375000  -4.744863e+001  -3.240290e+001 
3212500000  -4.844173e+001  -4.332728e+001 
3215625000  -4.863483e+001  -4.845450e+001 
3218750000  -4.884212e+001  -7.069618e+001 
3221875000  -4.957334e+001  -8.112620e+001 
3225000000  -4.919178e+001  -8.375197e+001 
3228125000  -5.006045e+001  -9.534254e+001 
3231250000  -5.040421e+001  -1.083352e+002 
3234375000  -4.965588e+001  -1.131444e+002 
3237500000  -5.071447e+001  -1.203461e+002 
3240625000  -5.003856e+001  -1.275878e+002 
3243750000  -4.987811e+001  -1.479269e+002 
3246875000  -5.004051e+001  -1.577327e+002 
3250000000  -5.144283e+001  -1.666564e+002 
3253125000  -5.157468e+001  -1.759243e+002 
3256250000  -5.058518e+001  1.716723e+002 
3259375000  -5.124316e+001  1.550955e+002 
3262500000  -5.317028e+001  1.545849e+002 
3265625000  -5.333239e+001  1.453009e+002 
3268750000  -5.259366e+001  1.386217e+002 
3271875000  -5.207926e+001  1.339610e+002 
3275000000  -5.172857e+001  1.202998e+002 
3278125000  -5.245921e+001  1.089606e+002 
3281250000  -5.320644e+001  9.733097e+001 
3284375000  -5.224997e+001  8.692852e+001 
3287500000  -5.353745e+001  8.515852e+001 
3290625000  -5.317493e+001  6.852975e+001 
3293750000  -5.250124e+001  5.881632e+001 
3296875000  -5.473644e+001  5.634765e+001 
3300000000  -5.500287e+001  4.706998e+001 
3303125000  -5.277396e+001  4.281386e+001 
3306250000  -5.362177e+001  2.541789e+001 
3309375000  -5.258212e+001  1.299239e+001 
3312500000  -5.296653e+001  -2.717162e+000 
3315625000  -5.480316e+001  -1.235558e+001 
3318750000  -5.571086e+001  -2.166675e+001 
3321875000  -5.793519e+001  -1.932788e+001 
3325000000  -5.608549e+001  -2.815077e+001 
3328125000  -5.591383e+001  -2.745829e+001 
3331250000  -5.454436e+001  -2.874999e+001 
3334375000  -5.261278e+001  -5.033897e+001 
3337500000  -5.219579e+001  -7.673380e+001 
3340625000  -5.381505e+001  -9.145839e+001 
3343750000  -5.523305e+001  -8.582121e+001 
3346875000  -5.444896e+001  -9.504461e+001 
3350000000  -5.589676e+001  -1.037346e+002 
3353125000  -5.493601e+001  -1.142619e+002 
3356250000  -5.442781e+001  -1.311526e+002 
3359375000  -5.541600e+001  -1.515835e+002 
3362500000  -5.576839e+001  -1.552860e+002 
3365625000  -5.515025e+001  -1.610097e+002 
3368750000  -5.788947e+001  -1.792092e+002 
3371875000  -5.712736e+001  1.799135e+002 
3375000000  -5.879879e+001  1.653994e+002 
3378125000  -5.853531e+001  1.622961e+002 
3381250000  -6.075378e+001  1.586133e+002 
3384375000  -5.607405e+001  -1.734559e+002 
3387500000  -5.298603e+001  1.439126e+002 
3390625000  -5.648190e+001  1.202853e+002 
3393750000  -5.630995e+001  1.171938e+002 
3396875000  -5.667020e+001  1.141687e+002 
3400000000  -5.628486e+001  9.604504e+001 
3403125000  -5.625619e+001  8.454907e+001 
3406250000  -5.815797e+001  7.629748e+001 
3409375000  -5.695282e+001  5.195749e+001 
3412500000  -5.838410e+001  5.356285e+001 
3415625000  -5.989710e+001  3.524995e+001 
3418750000  -6.047010e+001  3.901035e+001 
3421875000  -5.968302e+001  1.423515e+001 
3425000000  -6.015691e+001  3.548174e+001 
3428125000  -5.877361e+001  8.836178e+000 
3431250000  -6.088742e+001  2.513023e-001 
3434375000  -5.969102e+001  -2.385725e+001 
3437500000  -6.199978e+001  -2.064153e+001 
3440625000  -6.090559e+001  -2.631087e+001 
3443750000  -6.382424e+001  -3.808654e+001 
3446875000  -5.962223e+001  -4.599255e+001 
3450000000  -5.973100e+001  -6.908001e+001 
3453125000  -6.431067e+001  -8.279249e+001 
3456250000  -6.906557e+001  -8.935506e+001 
3459375000  -6.226202e+001  -6.791536e+001 
3462500000  -7.236852e+001  -1.448011e+002 
3465625000  -6.325972e+001  -9.386734e+001 
3468750000  -6.751783e+001  -9.752979e+001 
3471875000  -6.324653e+001  -1.007728e+002 
3475000000  -6.706454e+001  -1.041123e+002 
3478125000  -7.272981e+001  -1.405693e+002 
3481250000  -6.919650e+001  -1.690637e+002 
3484375000  -6.963328e+001  -1.067326e+002 
3487500000  -6.804731e+001  -1.440166e+002 
3490625000  -6.712844e+001  -1.331692e+002 
3493750000  -7.035172e+001  -1.701936e+002 
3496875000  -7.352113e+001  -1.663947e+002 
3500000000  -6.310490e+001  -1.508036e+002 
3503125000  -6.834511e+001  1.696118e+002 
3506250000  -7.056525e+001  -1.764839e+002 
3509375000  -6.144941e+001  1.668351e+002 
3512500000  -6.610129e+001  1.414791e+002 
3515625000  -7.154928e+001  1.587014e+002 
3518750000  -6.237005e+001  1.356865e+002 
3521875000  -6.885621e+001  1.604823e+002 
3525000000  -6.563220e+001  9.404665e+001 
3528125000  -6.718719e+001  9.435339e+001 
3531250000  -6.888541e+001  1.231686e+002 
3534375000  -6.839191e+001  1.070248e+002 
3537500000  -6.787314e+001  8.487373e+001 
3540625000  -6.803989e+001  6.051321e+001 
3543750000  -7.423168e+001  1.727336e+002 
3546875000  -7.342320e+001  5.438094e+001 
3550000000  -7.041360e+001  9.114325e+001 
3553125000  -6.669643e+001  6.380525e+001 
3556250000  -7.255356e+001  2.095992e+001 
3559375000  -7.478701e+001  1.207207e+001 
3562500000  -6.646070e+001  4.649658e+001 
3565625000  -7.124900e+001  5.765290e+001 
3568750000  -7.627330e+001  7.260902e+001 
3571875000  -6.554799e+001  9.070971e+000 
3575000000  -7.080047e+001  -1.646164e+001 
3578125000  -7.050272e+001  4.743466e+001 
3581250000  -8.050816e+001  8.609784e+000 
3584375000  -6.763725e+001  4.170130e+001 
3587500000  -7.111189e+001  4.803825e+001 
3590625000  -6.943181e+001  1.507265e+001 
3593750000  -6.562824e+001  -4.168015e+001 
3596875000  -6.531978e+001  6.053800e+000 
3600000000  -7.189165e+001  -6.609051e+000 
3603125000  -6.843544e+001  -3.944448e+001 
3606250000  -6.860764e+001  -3.590481e+000 
3609375000  -6.531542e+001  -2.581886e+001 
3612500000  -6.283741e+001  -5.525244e+001 
3615625000  -6.847748e+001  -5.741746e+001 
3618750000  -6.386647e+001  -6.784506e+001 
3621875000  -6.944605e+001  -7.887904e+001 
3625000000  -6.395208e+001  -8.772189e+001 
3628125000  -6.220711e+001  -1.166889e+002 
3631250000  -6.120298e+001  -1.005382e+002 
3634375000  -6.620084e+001  -1.398829e+002 
3637500000  -6.551650e+001  -1.215967e+002 
3640625000  -6.135419e+001  -1.266049e+002 
3643750000  -6.201241e+001  -1.425982e+002 
3646875000  -6.149485e+001  -1.627785e+002 
3650000000  -6.299107e+001  1.795552e+002 
3653125000  -6.098299e+001  -1.792943e+002 
3656250000  -6.429478e+001  1.525957e+002 
3659375000  -6.200449e+001  1.510010e+002 
3662500000  -6.719149e+001  1.451567e+002 
3665625000  -6.236172e+001  1.432850e+002 
3668750000  -6.184623e+001  1.120228e+002 
3671875000  -6.769128e+001  1.254851e+002 
3675000000  -6.223910e+001  1.036339e+002 
3678125000  -6.391394e+001  9.981019e+001 
3681250000  -6.327693e+001  9.827309e+001 
3684375000  -6.622574e+001  9.223119e+001 
3687500000  -6.508677e+001  6.980194e+001 
3690625000  -6.623670e+001  5.638659e+001 
3693750000  -6.602357e+001  8.946956e+001 
3696875000  -6.931419e+001  7.299131e+001 
3700000000  -6.357598e+001  6.274890e+001 
3703125000  -6.724107e+001  5.785749e+001 
3706250000  -6.684502e+001  7.734113e+001 
3709375000  -6.855857e+001  1.603644e+001 
3712500000  -6.483409e+001  5.627434e+001 
3715625000  -6.536536e+001  4.692494e+001 
3718750000  -6.038587e+001  2.823275e+001 
3721875000  -6.125664e+001  6.656405e+000 
3725000000  -6.189489e+001  1.057563e+001 
3728125000  -5.995252e+001  1.269632e+001 
3731250000  -5.777174e+001  -1.911475e+001 
3734375000  -5.866085e+001  -2.359995e+001 
3737500000  -5.932396e+001  -3.956231e+001 
3740625000  -5.898040e+001  -4.613573e+001 
3743750000  -6.057571e+001  -5.017964e+001 
3746875000  -5.861031e+001  -7.107383e+001 
3750000000  -5.791740e+001  -8.837196e+001 
3753125000  -5.806474e+001  -8.216966e+001 
3756250000  -6.006986e+001  -9.835773e+001 
3759375000  -5.808015e+001  -1.049823e+002 
3762500000  -5.726730e+001  -1.228033e+002 
3765625000  -6.009089e+001  -1.338459e+002 
3768750000  -5.808257e+001  -1.337458e+002 
3771875000  -5.463933e+001  -1.477070e+002 
3775000000  -5.750242e+001  -1.630789e+002 
3778125000  -5.629957e+001  1.756390e+002 
3781250000  -5.575552e+001  -1.770146e+002 
3784375000  -5.736271e+001  1.531286e+002 
3787500000  -5.549139e+001  1.559012e+002 
3790625000  -5.702261e+001  1.379468e+002 
3793750000  -5.669794e+001  1.264030e+002 
3796875000  -5.651069e+001  1.155634e+002 
3800000000  -5.342558e+001  7.889114e+001 
3803125000  -5.770581e+001  1.011706e+002 
3806250000  -6.067841e+001  8.880620e+001 
3809375000  -5.984269e+001  7.122704e+001 
3812500000  -5.771031e+001  6.589973e+001 
3815625000  -5.912621e+001  5.492599e+001 
3818750000  -6.129168e+001  1.326406e+001 
3821875000  -6.220481e+001  5.916827e+001 
3825000000  -6.112978e+001  5.355369e+001 
3828125000  -5.815779e+001  2.897255e+001 
3831250000  -5.968768e+001  7.254279e+000 
3834375000  -6.426859e+001  3.765044e+000 
3837500000  -6.584422e+001  -4.733168e+000 
3840625000  -6.129701e+001  -1.558069e-001 
3843750000  -5.872832e+001  1.795597e-001 
3846875000  -6.293972e+001  -1.427035e+001 
3850000000  -6.675417e+001  1.173713e+001 
3853125000  -6.961511e+001  -3.298838e+001 
3856250000  -5.969040e+001  -8.244385e+000 
3859375000  -5.927562e+001  -3.252029e+001 
3862500000  -6.116283e+001  -3.153619e+001 
3865625000  -5.765831e+001  -4.874970e+001 
3868750000  -5.873837e+001  -4.667717e+001 
3871875000  -5.790627e+001  -6.810732e+001 
3875000000  -6.120808e+001  -5.772036e+001 
3878125000  -5.797069e+001  -7.566589e+001 
3881250000  -5.793494e+001  -8.607584e+001 
3884375000  -5.638543e+001  -9.673979e+001 
3887500000  -5.663728e+001  -1.153490e+002 
3890625000  -5.593013e+001  -1.124156e+002 
3893750000  -5.527681e+001  -1.313468e+002 
3896875000  -5.619081e+001  -1.299795e+002 
3900000000  -5.495277e+001  -1.577974e+002 
3903125000  -5.621698e+001  -1.627088e+002 
3906250000  -5.496863e+001  -1.696306e+002 
3909375000  -5.361538e+001  1.765354e+002 
3912500000  -5.380881e+001  1.615853e+002 
3915625000  -5.648862e+001  1.643646e+002 
3918750000  -5.502307e+001  1.563872e+002 
3921875000  -5.425731e+001  1.393171e+002 
3925000000  -5.334727e+001  1.260603e+002 
3928125000  -5.268981e+001  1.092498e+002 
3931250000  -5.406382e+001  1.012110e+002 
3934375000  -5.314052e+001  8.917506e+001 
3937500000  -5.476658e+001  8.457021e+001 
3940625000  -5.380307e+001  6.965115e+001 
3943750000  -5.455625e+001  6.128199e+001 
3946875000  -5.347497e+001  4.813747e+001 
3950000000  -5.405004e+001  4.050097e+001 
3953125000  -5.386484e+001  3.411521e+001 
3956250000  -5.461604e+001  2.114649e+001 
3959375000  -5.233384e+001  7.665672e+000 
3962500000  -5.310323e+001  -6.281023e+000 
3965625000  -5.392309e+001  -2.023446e+001 
3968750000  -5.314526e+001  -2.403654e+001 
3971875000  -5.424361e+001  -3.374111e+001 
3975000000  -5.379210e+001  -6.087636e+001 
3978125000  -5.443302e+001  -5.919782e+001 
3981250000  -5.466769e+001  -7.763583e+001 
3984375000  -5.675430e+001  -9.942667e+001 
3987500000  -5.517828e+001  -8.777763e+001 
3990625000  -5.653233e+001  -9.939948e+001 
3993750000  -5.658210e+001  -1.162227e+002 
3996875000  -5.700219e+001  -1.148194e+002 
4000000000  -5.854576e+001  -1.291402e+002 
4003125000  -6.004689e+001  -1.491061e+002 
4006250000  -5.408188e+001  -1.384164e+002 
4009375000  -5.574689e+001  -1.497690e+002 
4012500000  -6.047779e+001  -1.791065e+002 
4015625000  -6.149447e+001  -1.672309e+002 
4018750000  -5.812237e+001  -1.778356e+002 
4021875000  -5.982537e+001  -1.791548e+002 
4025000000  -5.889289e+001  -1.771431e+002 
4028125000  -6.027610e+001  1.786843e+002 
4031250000  -6.373579e+001  1.654373e+002 
4034375000  -6.003885e+001  1.652433e+002 
4037500000  -5.884463e+001  1.663959e+002 
4040625000  -6.083181e+001  1.481368e+002 
4043750000  -5.910516e+001  1.434216e+002 
4046875000  -5.839215e+001  1.535977e+002 
4050000000  -5.762830e+001  1.174891e+002 
4053125000  -5.843142e+001  1.047515e+002 
4056250000  -5.638440e+001  1.325089e+002 
4059375000  -5.544886e+001  1.011120e+002 
4062500000  -5.451472e+001  1.052277e+002 
4065625000  -5.439077e+001  8.233913e+001 
4068750000  -5.535148e+001  7.415936e+001 
4071875000  -5.398035e+001  5.832689e+001 
4075000000  -5.297629e+001  4.573350e+001 
4078125000  -5.356692e+001  4.045488e+001 
4081250000  -5.393842e+001  2.804922e+001 
4084375000  -5.247820e+001  6.243485e+000 
4087500000  -5.266139e+001  -1.494912e+001 
4090625000  -5.378698e+001  -4.023034e+000 
4093750000  -5.278857e+001  -2.142632e+001 
4096875000  -5.310149e+001  -2.865276e+001 
4100000000  -5.360719e+001  -4.838545e+001 
4103125000  -5.439653e+001  -5.551806e+001 
4106250000  -5.404255e+001  -4.788175e+001 
4109375000  -5.272576e+001  -7.013733e+001 
4112500000  -5.253261e+001  -8.104041e+001 
4115625000  -5.319722e+001  -9.010277e+001 
4118750000  -5.230550e+001  -1.014501e+002 
4121875000  -5.359690e+001  -1.209260e+002 
4125000000  -5.482377e+001  -1.327862e+002 
4128125000  -5.481062e+001  -1.384486e+002 
4131250000  -5.308307e+001  -1.385961e+002 
4134375000  -5.180687e+001  -1.549762e+002 
4137500000  -5.295690e+001  -1.762281e+002 
4140625000  -5.447600e+001  1.754852e+002 
4143750000  -5.542559e+001  1.686675e+002 
4146875000  -5.487550e+001  1.630783e+002 
4150000000  -5.436634e+001  1.488891e+002 
4153125000  -5.447652e+001  1.380800e+002 
4156250000  -5.811249e+001  1.173447e+002 
4159375000  -5.898711e+001  1.251701e+002 
4162500000  -5.614005e+001  1.223102e+002 
4165625000  -5.295054e+001  1.174375e+002 
4168750000  -5.496558e+001  8.508683e+001 
4171875000  -5.432247e+001  6.739235e+001 
4175000000  -5.606677e+001  6.127404e+001 
4178125000  -5.842377e+001  6.300270e+001 
4181250000  -5.848552e+001  4.192871e+001 
4184375000  -6.089697e+001  2.528718e+001 
4187500000  -5.855012e+001  6.532019e+000 
4190625000  -5.969031e+001  2.167587e+001 
4193750000  -5.920797e+001  1.645499e+001 
4196875000  -6.736304e+001  1.345532e+001 
4200000000  -6.171456e+001  2.104205e+001 
4203125000  -6.120503e+001  2.028143e+001 
4206250000  -5.892742e+001  5.688502e+000 
4209375000  -5.984593e+001  3.882943e+000 
4212500000  -6.161341e+001  3.324184e+001 
4215625000  -6.307381e+001  -2.922904e+001 
4218750000  -5.909724e+001  1.021525e+001 
4221875000  -6.458200e+001  -9.652128e+000 
4225000000  -6.004153e+001  1.323397e+001 
4228125000  -5.786959e+001  -1.402487e+001 
4231250000  -6.029102e+001  -3.292815e+001 
4234375000  -5.930732e+001  -5.404470e+001 
4237500000  -5.762277e+001  -3.340389e+001 
4240625000  -5.575508e+001  -6.069743e+001 
4243750000  -5.747719e+001  -6.778556e+001 
4246875000  -5.633099e+001  -7.719050e+001 
4250000000  -5.793790e+001  -8.449280e+001 
4253125000  -5.488849e+001  -8.860576e+001 
4256250000  -5.725475e+001  -1.022182e+002 
4259375000  -5.346892e+001  -1.038302e+002 
4262500000  -5.567865e+001  -1.251856e+002 
4265625000  -5.466536e+001  -1.235119e+002 
4268750000  -5.264175e+001  -1.534563e+002 
4271875000  -5.222744e+001  -1.678601e+002 
4275000000  -5.184952e+001  1.775192e+002 
4278125000  -5.305670e+001  1.673914e+002 
4281250000  -5.396957e+001  1.569932e+002 
4284375000  -5.412413e+001  1.628579e+002 
4287500000  -5.477883e+001  1.557952e+002 
4290625000  -5.493926e+001  1.418081e+002 
4293750000  -5.239049e+001  1.347659e+002 
4296875000  -5.084756e+001  1.136804e+002 
4300000000  -5.337719e+001  1.087594e+002 
4303125000  -5.291829e+001  9.593243e+001 
4306250000  -5.292776e+001  8.896631e+001 
4309375000  -5.091864e+001  7.938755e+001 
4312500000  -5.220967e+001  6.137855e+001 
4315625000  -5.299868e+001  4.288567e+001 
4318750000  -5.412355e+001  3.416519e+001 
4321875000  -5.164252e+001  4.005235e+001 
4325000000  -5.221673e+001  2.561887e+001 
4328125000  -5.144947e+001  1.150977e+001 
4331250000  -5.370093e+001  -6.582732e+000 
4334375000  -5.486945e+001  -2.008587e+001 
4337500000  -5.586948e+001  -2.883279e+001 
4340625000  -5.523362e+001  -3.854149e+001 
4343750000  -5.426255e+001  -3.552171e+001 
4346875000  -5.431897e+001  -4.955525e+001 
4350000000  -5.393325e+001  -7.222794e+001 
4353125000  -5.657066e+001  -6.659276e+001 
4356250000  -5.844569e+001  -5.663401e+001 
4359375000  -5.892808e+001  -6.469614e+001 
4362500000  -5.423965e+001  -7.346365e+001 
4365625000  -5.580439e+001  -9.317353e+001 
4368750000  -5.541875e+001  -8.804128e+001 
4371875000  -5.672591e+001  -1.209912e+002 
4375000000  -5.737304e+001  -1.211658e+002 
4378125000  -5.645144e+001  -1.388298e+002 
4381250000  -5.666069e+001  -1.320801e+002 
4384375000  -5.571586e+001  -1.416158e+002 
4387500000  -5.689394e+001  -1.511900e+002 
4390625000  -5.865110e+001  -1.629010e+002 
4393750000  -5.783439e+001  -1.540247e+002 
4396875000  -5.607351e+001  -1.657668e+002 
4400000000  -5.628228e+001  -1.715406e+002 
4403125000  -5.487172e+001  1.771254e+002 
4406250000  -5.665364e+001  1.648460e+002 
4409375000  -5.403748e+001  1.632654e+002 
4412500000  -5.842057e+001  1.623461e+002 
4415625000  -5.495113e+001  1.691606e+002 
4418750000  -5.405981e+001  1.390359e+002 
