!Agilent Technologies,E8363B,MY43030201,A.06.04.32
!Agilent E8363B: A.06.04.32
!Date: Tuesday, November 11, 2014 22:12:15
!Correction: S21(Response(S21)) 
!S1P File: Measurement: S21:
# Hz S  dB   R 50
3000000000  -4.905036e+001  -7.510296e+001 
3003125000  -5.105136e+001  -8.066899e+001 
3006250000  -5.202004e+001  -8.698833e+001 
3009375000  -5.165034e+001  -8.833836e+001 
3012500000  -5.148492e+001  -1.007350e+002 
3015625000  -5.118763e+001  -1.109499e+002 
3018750000  -5.120127e+001  -1.146474e+002 
3021875000  -4.959500e+001  -1.189229e+002 
3025000000  -4.889430e+001  -1.289925e+002 
3028125000  -4.767012e+001  -1.452514e+002 
3031250000  -4.677528e+001  -1.633783e+002 
3034375000  -4.681731e+001  -1.797451e+002 
3037500000  -4.765708e+001  1.620125e+002 
3040625000  -4.901864e+001  1.501765e+002 
3043750000  -4.993598e+001  1.412721e+002 
3046875000  -5.044646e+001  1.352469e+002 
3050000000  -5.113942e+001  1.227330e+002 
3053125000  -5.092794e+001  1.220768e+002 
3056250000  -5.110685e+001  1.188520e+002 
3059375000  -5.066874e+001  1.073624e+002 
3062500000  -4.920265e+001  9.715453e+001 
3065625000  -4.931664e+001  9.029567e+001 
3068750000  -4.857188e+001  7.362151e+001 
3071875000  -4.870525e+001  6.528919e+001 
3075000000  -4.823394e+001  5.710019e+001 
3078125000  -4.840663e+001  4.524901e+001 
3081250000  -4.897366e+001  3.264882e+001 
3084375000  -4.817820e+001  2.213866e+001 
3087500000  -4.828034e+001  1.218214e+001 
3090625000  -4.817139e+001  -8.335813e+000 
3093750000  -4.901127e+001  -1.617311e+001 
3096875000  -4.918096e+001  -2.403560e+001 
3100000000  -4.929003e+001  -3.483750e+001 
3103125000  -5.008017e+001  -4.075783e+001 
3106250000  -4.929571e+001  -4.791677e+001 
3109375000  -4.982456e+001  -5.970858e+001 
3112500000  -4.902818e+001  -6.512849e+001 
3115625000  -4.981046e+001  -8.037675e+001 
3118750000  -4.985824e+001  -8.956397e+001 
3121875000  -4.956054e+001  -1.020839e+002 
3125000000  -5.102936e+001  -1.078647e+002 
3128125000  -5.101355e+001  -1.093440e+002 
3131250000  -4.826596e+001  -1.166305e+002 
3134375000  -4.803608e+001  -1.395854e+002 
3137500000  -4.872863e+001  -1.578335e+002 
3140625000  -4.975628e+001  -1.597720e+002 
3143750000  -5.058189e+001  -1.703759e+002 
3146875000  -4.972137e+001  -1.729027e+002 
3150000000  -4.895166e+001  1.789477e+002 
3153125000  -4.928732e+001  1.658062e+002 
3156250000  -5.012327e+001  1.622840e+002 
3159375000  -4.744654e+001  1.590054e+002 
3162500000  -4.664266e+001  1.365571e+002 
3165625000  -4.729056e+001  1.210609e+002 
3168750000  -4.784617e+001  1.162140e+002 
3171875000  -4.723341e+001  1.016965e+002 
3175000000  -4.773664e+001  8.757934e+001 
3178125000  -4.753122e+001  8.168037e+001 
3181250000  -4.660314e+001  6.856637e+001 
3184375000  -4.665644e+001  5.242276e+001 
3187500000  -4.774870e+001  3.267436e+001 
3190625000  -4.970226e+001  1.989812e+001 
3193750000  -4.973640e+001  2.223409e+001 
3196875000  -4.942649e+001  1.753731e+001 
3200000000  -4.821399e+001  5.800455e+000 
3203125000  -4.857714e+001  -3.520694e+000 
3206250000  -4.865644e+001  -1.696575e+001 
3209375000  -4.818842e+001  -3.155738e+001 
3212500000  -4.831577e+001  -4.082563e+001 
3215625000  -4.854951e+001  -4.895138e+001 
3218750000  -4.930060e+001  -6.240347e+001 
3221875000  -4.973560e+001  -7.605296e+001 
3225000000  -4.985548e+001  -8.306971e+001 
3228125000  -5.025995e+001  -9.474859e+001 
3231250000  -5.111837e+001  -1.030857e+002 
3234375000  -5.041130e+001  -1.070891e+002 
3237500000  -5.029880e+001  -1.212126e+002 
3240625000  -5.021514e+001  -1.301572e+002 
3243750000  -5.016489e+001  -1.456742e+002 
3246875000  -5.032393e+001  -1.570334e+002 
3250000000  -5.129032e+001  -1.654162e+002 
3253125000  -5.071840e+001  -1.695181e+002 
3256250000  -5.007249e+001  1.723400e+002 
3259375000  -5.139087e+001  1.543632e+002 
3262500000  -5.299810e+001  1.479066e+002 
3265625000  -5.302829e+001  1.443493e+002 
3268750000  -5.348527e+001  1.420770e+002 
3271875000  -5.292404e+001  1.323527e+002 
3275000000  -5.237177e+001  1.216670e+002 
3278125000  -5.256445e+001  1.085142e+002 
3281250000  -5.307294e+001  1.061428e+002 
3284375000  -5.175488e+001  9.297285e+001 
3287500000  -5.317560e+001  8.573930e+001 
3290625000  -5.301781e+001  7.042247e+001 
3293750000  -5.327819e+001  6.282717e+001 
3296875000  -5.422067e+001  5.296165e+001 
3300000000  -5.507259e+001  5.199488e+001 
3303125000  -5.262314e+001  3.761100e+001 
3306250000  -5.250394e+001  2.763211e+001 
3309375000  -5.188195e+001  2.089724e+001 
3312500000  -5.341909e+001  -4.431272e+000 
3315625000  -5.392450e+001  -9.088883e+000 
3318750000  -5.506152e+001  -2.260479e+001 
3321875000  -5.884909e+001  -2.299657e+001 
3325000000  -5.699974e+001  -1.629546e+001 
3328125000  -5.528483e+001  -2.383891e+001 
3331250000  -5.443234e+001  -2.840969e+001 
3334375000  -5.255817e+001  -5.321969e+001 
3337500000  -5.228455e+001  -7.662782e+001 
3340625000  -5.367763e+001  -8.928444e+001 
3343750000  -5.631514e+001  -8.746910e+001 
3346875000  -5.516698e+001  -1.043156e+002 
3350000000  -5.445597e+001  -1.004023e+002 
3353125000  -5.576551e+001  -1.171152e+002 
3356250000  -5.557593e+001  -1.337476e+002 
3359375000  -5.467880e+001  -1.437888e+002 
3362500000  -5.729164e+001  -1.493322e+002 
3365625000  -5.634855e+001  -1.523586e+002 
3368750000  -5.730770e+001  -1.701392e+002 
3371875000  -5.673672e+001  1.770432e+002 
3375000000  -5.788433e+001  1.702257e+002 
3378125000  -5.876140e+001  1.726309e+002 
3381250000  -6.075113e+001  1.785577e+002 
3384375000  -5.679172e+001  -1.686855e+002 
3387500000  -5.354757e+001  1.477399e+002 
3390625000  -5.700330e+001  1.273061e+002 
3393750000  -5.745849e+001  1.140858e+002 
3396875000  -5.709346e+001  1.227062e+002 
3400000000  -5.597849e+001  9.393946e+001 
3403125000  -5.672741e+001  8.443976e+001 
3406250000  -5.830080e+001  6.791837e+001 
3409375000  -5.842784e+001  4.701226e+001 
3412500000  -5.757027e+001  5.273602e+001 
3415625000  -6.025602e+001  3.208154e+001 
3418750000  -5.993869e+001  3.581472e+001 
3421875000  -6.039689e+001  3.106504e+001 
3425000000  -5.785664e+001  2.299072e+001 
3428125000  -5.838520e+001  1.173743e+001 
3431250000  -6.038210e+001  -3.609826e-001 
3434375000  -5.936966e+001  -1.591825e+001 
3437500000  -6.266460e+001  -2.026594e+001 
3440625000  -6.016389e+001  -2.231450e+001 
3443750000  -6.015239e+001  -4.030736e+001 
3446875000  -6.136875e+001  -4.533734e+001 
3450000000  -6.254199e+001  -7.104473e+001 
3453125000  -6.567242e+001  -8.379218e+001 
3456250000  -7.011787e+001  -7.455646e+001 
3459375000  -6.257203e+001  -9.555692e+001 
3462500000  -6.558370e+001  -1.081130e+002 
3465625000  -6.739963e+001  -1.105408e+002 
3468750000  -6.659212e+001  -1.271574e+002 
3471875000  -6.628111e+001  -1.151648e+002 
3475000000  -6.619718e+001  -1.336629e+002 
3478125000  -7.130517e+001  -7.679121e+001 
3481250000  -6.772586e+001  -1.469069e+002 
3484375000  -6.972169e+001  -1.233849e+002 
3487500000  -6.466131e+001  -1.537046e+002 
3490625000  -6.874261e+001  -1.052551e+002 
3493750000  -7.906427e+001  1.672489e+002 
3496875000  -7.257779e+001  -1.526532e+002 
3500000000  -6.659811e+001  -1.243744e+002 
3503125000  -6.480592e+001  -1.621429e+002 
3506250000  -6.293275e+001  -1.357251e+002 
3509375000  -6.594987e+001  1.590565e+002 
3512500000  -6.452168e+001  1.254971e+002 
3515625000  -6.532718e+001  1.526581e+002 
3518750000  -6.724822e+001  1.549595e+002 
3521875000  -6.745433e+001  1.491164e+002 
3525000000  -6.927429e+001  1.176708e+002 
3528125000  -6.703141e+001  1.103694e+002 
3531250000  -6.547931e+001  9.629387e+001 
3534375000  -7.282871e+001  8.935432e+001 
3537500000  -6.333323e+001  8.391087e+001 
3540625000  -6.848100e+001  5.535896e+001 
3543750000  -8.105083e+001  8.811506e+001 
3546875000  -7.127685e+001  4.061710e+001 
3550000000  -7.073726e+001  5.938104e+001 
3553125000  -6.611472e+001  4.997835e+001 
3556250000  -8.226733e+001  -1.713737e+002 
3559375000  -7.072985e+001  -5.678262e+001 
3562500000  -7.490233e+001  -6.901532e+000 
3565625000  -7.003024e+001  -3.812753e+000 
3568750000  -7.835611e+001  -1.383596e+001 
3571875000  -6.816658e+001  -3.920401e+000 
3575000000  -6.793526e+001  -7.500864e+001 
3578125000  -7.883320e+001  3.715042e+001 
3581250000  -7.550983e+001  2.824760e+001 
3584375000  -7.497779e+001  3.724237e+001 
3587500000  -7.074641e+001  -1.643201e+001 
3590625000  -6.852386e+001  1.668143e+001 
3593750000  -7.120049e+001  6.301319e+000 
3596875000  -6.559720e+001  3.121384e+001 
3600000000  -6.312718e+001  -2.107139e+001 
3603125000  -6.649853e+001  -3.428428e+000 
3606250000  -6.380215e+001  -4.669326e+001 
3609375000  -7.027978e+001  -6.882319e+001 
3612500000  -6.491887e+001  -5.020140e+001 
3615625000  -7.889128e+001  -7.872968e+001 
3618750000  -6.622594e+001  -7.445460e+001 
3621875000  -6.595630e+001  -9.146360e+001 
3625000000  -6.374155e+001  -7.212439e+001 
3628125000  -6.544171e+001  -9.623825e+001 
3631250000  -6.433835e+001  -1.110889e+002 
3634375000  -6.367934e+001  -1.216652e+002 
3637500000  -6.485660e+001  -9.599381e+001 
3640625000  -6.396365e+001  -1.201882e+002 
3643750000  -6.240891e+001  -1.421189e+002 
3646875000  -6.046702e+001  -1.578079e+002 
3650000000  -6.727376e+001  -1.777872e+002 
3653125000  -6.397647e+001  1.722267e+002 
3656250000  -6.354047e+001  1.513797e+002 
3659375000  -6.192471e+001  1.483784e+002 
3662500000  -6.495776e+001  1.510847e+002 
3665625000  -6.358169e+001  1.606929e+002 
3668750000  -6.153959e+001  1.201894e+002 
3671875000  -7.581145e+001  1.317465e+002 
3675000000  -6.331316e+001  1.048948e+002 
3678125000  -6.583576e+001  1.261240e+002 
3681250000  -6.154072e+001  1.016370e+002 
3684375000  -6.907286e+001  1.145869e+002 
3687500000  -6.992022e+001  4.136984e+001 
3690625000  -7.174010e+001  1.190099e+002 
3693750000  -6.822552e+001  9.563259e+001 
3696875000  -7.275366e+001  5.983321e+001 
3700000000  -6.298975e+001  9.093584e+001 
3703125000  -6.320260e+001  5.428933e+001 
3706250000  -6.666517e+001  5.929742e+001 
3709375000  -6.174707e+001  6.804491e+001 
3712500000  -6.277102e+001  5.749753e+001 
3715625000  -6.020297e+001  2.833811e+001 
3718750000  -6.276812e+001  7.881138e+000 
3721875000  -6.088193e+001  2.939971e+001 
3725000000  -6.246891e+001  1.450614e+001 
3728125000  -6.166457e+001  1.184005e+001 
3731250000  -6.052298e+001  -1.697995e+001 
3734375000  -5.846857e+001  -9.955339e+000 
3737500000  -6.051466e+001  -3.033974e+001 
3740625000  -5.783747e+001  -2.331608e+001 
3743750000  -5.918140e+001  -6.623907e+001 
3746875000  -5.954733e+001  -6.318462e+001 
3750000000  -5.847359e+001  -8.068630e+001 
3753125000  -5.815725e+001  -8.083376e+001 
3756250000  -6.002101e+001  -9.578490e+001 
3759375000  -5.833106e+001  -1.175037e+002 
3762500000  -5.744177e+001  -1.161997e+002 
3765625000  -5.881367e+001  -1.178858e+002 
3768750000  -5.665524e+001  -1.404781e+002 
3771875000  -5.633597e+001  -1.449789e+002 
3775000000  -5.741984e+001  -1.529059e+002 
3778125000  -5.761152e+001  -1.763749e+002 
3781250000  -5.661713e+001  1.740337e+002 
3784375000  -5.609493e+001  1.681155e+002 
3787500000  -5.735522e+001  1.587107e+002 
3790625000  -5.726599e+001  1.454209e+002 
3793750000  -5.953905e+001  1.343067e+002 
3796875000  -5.695707e+001  1.272187e+002 
3800000000  -5.294567e+001  8.211767e+001 
3803125000  -5.796394e+001  9.106374e+001 
3806250000  -5.930859e+001  7.594449e+001 
3809375000  -5.750594e+001  8.884655e+001 
3812500000  -5.809595e+001  7.053515e+001 
3815625000  -6.122432e+001  2.674399e+001 
3818750000  -6.025354e+001  3.171423e+001 
3821875000  -6.244247e+001  6.741033e+001 
3825000000  -5.994662e+001  6.051311e+001 
3828125000  -5.935540e+001  2.176430e+001 
3831250000  -5.850946e+001  7.959388e+000 
3834375000  -6.419057e+001  1.577138e+001 
3837500000  -6.319315e+001  2.834068e+001 
3840625000  -6.497116e+001  -6.262532e+000 
3843750000  -6.234522e+001  -1.488424e+001 
3846875000  -6.332840e+001  -2.796646e+001 
3850000000  -6.405253e+001  9.341024e+000 
3853125000  -6.404787e+001  -2.608143e+001 
3856250000  -6.094405e+001  -1.061766e+001 
3859375000  -5.922198e+001  -1.887289e+001 
3862500000  -6.150636e+001  -3.446769e+001 
3865625000  -6.217803e+001  -6.068575e+001 
3868750000  -5.814457e+001  -4.727683e+001 
3871875000  -5.682986e+001  -4.568284e+001 
3875000000  -5.847834e+001  -7.345686e+001 
3878125000  -5.739995e+001  -6.825695e+001 
3881250000  -5.850232e+001  -8.367325e+001 
3884375000  -5.568199e+001  -8.952866e+001 
3887500000  -5.623576e+001  -1.259968e+002 
3890625000  -5.593000e+001  -1.232797e+002 
3893750000  -5.657963e+001  -1.167319e+002 
3896875000  -5.550766e+001  -1.304924e+002 
3900000000  -5.632422e+001  -1.493324e+002 
3903125000  -5.476486e+001  -1.565540e+002 
3906250000  -5.360723e+001  -1.779084e+002 
3909375000  -5.390550e+001  1.795832e+002 
3912500000  -5.421078e+001  1.675195e+002 
3915625000  -5.696689e+001  1.581851e+002 
3918750000  -5.591296e+001  1.511669e+002 
3921875000  -5.536582e+001  1.404277e+002 
3925000000  -5.305613e+001  1.307598e+002 
3928125000  -5.208798e+001  1.074675e+002 
3931250000  -5.347099e+001  1.027539e+002 
3934375000  -5.460263e+001  8.362546e+001 
3937500000  -5.453618e+001  7.729628e+001 
3940625000  -5.295879e+001  8.078130e+001 
3943750000  -5.387669e+001  6.539327e+001 
3946875000  -5.294896e+001  5.532321e+001 
3950000000  -5.481100e+001  3.987948e+001 
3953125000  -5.451836e+001  3.471062e+001 
3956250000  -5.366453e+001  2.239072e+001 
3959375000  -5.118550e+001  1.474893e+001 
3962500000  -5.141473e+001  6.287366e-001 
3965625000  -5.402374e+001  -1.414357e+001 
3968750000  -5.360435e+001  -2.794581e+001 
3971875000  -5.394149e+001  -4.040520e+001 
3975000000  -5.391049e+001  -6.364524e+001 
3978125000  -5.358149e+001  -5.899393e+001 
3981250000  -5.410860e+001  -8.025271e+001 
3984375000  -5.567239e+001  -8.958006e+001 
3987500000  -5.414697e+001  -9.479784e+001 
3990625000  -5.677680e+001  -8.691114e+001 
3993750000  -5.609784e+001  -1.216322e+002 
3996875000  -5.762081e+001  -1.268542e+002 
4000000000  -5.869580e+001  -1.228214e+002 
4003125000  -5.704840e+001  -1.285118e+002 
4006250000  -5.679862e+001  -1.364055e+002 
4009375000  -5.681699e+001  -1.455356e+002 
4012500000  -6.034161e+001  -1.671003e+002 
4015625000  -5.909689e+001  -1.636604e+002 
4018750000  -6.102793e+001  -1.572858e+002 
4021875000  -5.905157e+001  -1.650789e+002 
4025000000  -5.972750e+001  1.705861e+002 
4028125000  -5.793867e+001  1.715069e+002 
4031250000  -5.975040e+001  -1.793338e+002 
4034375000  -6.296129e+001  1.753843e+002 
4037500000  -5.792736e+001  1.518176e+002 
4040625000  -5.888831e+001  1.541824e+002 
4043750000  -6.011880e+001  1.504175e+002 
4046875000  -5.796925e+001  1.420092e+002 
4050000000  -5.582195e+001  1.235096e+002 
4053125000  -5.768925e+001  1.182344e+002 
4056250000  -5.771326e+001  1.107500e+002 
4059375000  -5.615252e+001  1.069639e+002 
4062500000  -5.561031e+001  1.032727e+002 
4065625000  -5.476110e+001  8.082545e+001 
4068750000  -5.441143e+001  7.517661e+001 
4071875000  -5.231004e+001  6.135913e+001 
4075000000  -5.252465e+001  4.199920e+001 
4078125000  -5.356924e+001  3.708761e+001 
4081250000  -5.277037e+001  3.449174e+001 
4084375000  -5.180737e+001  6.938791e+000 
4087500000  -5.327179e+001  -7.240950e+000 
4090625000  -5.262208e+001  -5.652736e+000 
4093750000  -5.294709e+001  -2.207085e+001 
4096875000  -5.264626e+001  -3.327303e+001 
4100000000  -5.396728e+001  -5.181491e+001 
4103125000  -5.444466e+001  -4.850485e+001 
4106250000  -5.391933e+001  -5.300014e+001 
4109375000  -5.319248e+001  -5.981434e+001 
4112500000  -5.265603e+001  -8.837019e+001 
4115625000  -5.397033e+001  -9.088577e+001 
4118750000  -5.244698e+001  -1.042259e+002 
4121875000  -5.247905e+001  -1.208639e+002 
4125000000  -5.452147e+001  -1.204386e+002 
4128125000  -5.349154e+001  -1.338072e+002 
4131250000  -5.368465e+001  -1.378189e+002 
4134375000  -5.191404e+001  -1.522351e+002 
4137500000  -5.233346e+001  -1.787278e+002 
4140625000  -5.428805e+001  1.586877e+002 
4143750000  -5.439435e+001  1.691442e+002 
4146875000  -5.396392e+001  1.717332e+002 
4150000000  -5.490580e+001  1.544294e+002 
4153125000  -5.411868e+001  1.399885e+002 
4156250000  -5.774171e+001  1.292102e+002 
4159375000  -5.483355e+001  1.248401e+002 
4162500000  -5.547790e+001  1.190784e+002 
4165625000  -5.678913e+001  1.127241e+002 
4168750000  -5.393520e+001  8.814720e+001 
4171875000  -5.418798e+001  8.347569e+001 
4175000000  -5.481967e+001  6.203691e+001 
4178125000  -5.786432e+001  6.113437e+001 
4181250000  -5.930662e+001  3.560823e+001 
4184375000  -5.751142e+001  2.438710e+001 
4187500000  -5.950253e+001  3.263237e+001 
4190625000  -6.104208e+001  1.471602e+001 
4193750000  -5.992010e+001  2.269616e+001 
4196875000  -6.268690e+001  -1.275347e+001 
4200000000  -6.305473e+001  2.446615e+001 
4203125000  -6.405415e+001  2.531903e+001 
4206250000  -5.983891e+001  3.114028e+001 
4209375000  -6.055794e+001  1.757232e+001 
4212500000  -6.688308e+001  -2.594504e+000 
4215625000  -6.451689e+001  -1.098092e+001 
4218750000  -6.040023e+001  1.449481e+001 
4221875000  -6.072888e+001  -2.909561e+001 
4225000000  -6.425172e+001  -5.579925e+000 
4228125000  -5.834669e+001  -2.871294e+001 
4231250000  -6.001944e+001  -1.208917e+001 
4234375000  -5.961766e+001  -4.724270e+001 
4237500000  -5.971479e+001  -4.190464e+001 
4240625000  -5.660507e+001  -6.097688e+001 
4243750000  -5.789989e+001  -6.740354e+001 
4246875000  -5.585842e+001  -7.316116e+001 
4250000000  -5.970338e+001  -9.192726e+001 
4253125000  -5.619804e+001  -7.966785e+001 
4256250000  -5.617801e+001  -9.724178e+001 
4259375000  -5.524576e+001  -1.082447e+002 
4262500000  -5.703015e+001  -1.274080e+002 
4265625000  -5.536033e+001  -1.221834e+002 
4268750000  -5.232571e+001  -1.437946e+002 
4271875000  -5.224843e+001  -1.568800e+002 
4275000000  -5.075431e+001  -1.759877e+002 
4278125000  -5.332065e+001  1.628015e+002 
4281250000  -5.387181e+001  1.633732e+002 
4284375000  -5.368808e+001  1.587398e+002 
4287500000  -5.356901e+001  1.333888e+002 
4290625000  -5.604269e+001  1.522212e+002 
4293750000  -5.238074e+001  1.434063e+002 
4296875000  -5.204096e+001  1.185979e+002 
4300000000  -5.305713e+001  1.065066e+002 
4303125000  -5.279716e+001  1.011511e+002 
4306250000  -5.338872e+001  9.388261e+001 
4309375000  -5.041095e+001  7.696383e+001 
4312500000  -5.215564e+001  6.874730e+001 
4315625000  -5.169878e+001  5.252942e+001 
4318750000  -5.317415e+001  4.096657e+001 
4321875000  -5.362134e+001  2.517221e+001 
4325000000  -5.278864e+001  2.356363e+001 
4328125000  -5.105055e+001  9.702986e+000 
4331250000  -5.330431e+001  -8.474377e+000 
4334375000  -5.401423e+001  -1.987221e+001 
4337500000  -5.445248e+001  -2.244680e+001 
4340625000  -5.456344e+001  -3.041952e+001 
4343750000  -5.434641e+001  -4.137980e+001 
4346875000  -5.513664e+001  -4.690270e+001 
4350000000  -5.517087e+001  -6.795422e+001 
4353125000  -5.706542e+001  -7.412969e+001 
4356250000  -5.800311e+001  -7.914223e+001 
4359375000  -6.182257e+001  -8.598272e+001 
4362500000  -5.728190e+001  -8.489132e+001 
4365625000  -5.475889e+001  -9.866152e+001 
4368750000  -5.421964e+001  -9.379340e+001 
4371875000  -5.597671e+001  -1.106984e+002 
4375000000  -5.771305e+001  -1.275715e+002 
4378125000  -5.754685e+001  -1.183659e+002 
4381250000  -5.572677e+001  -1.347795e+002 
4384375000  -5.627286e+001  -1.459508e+002 
4387500000  -5.994231e+001  -1.438666e+002 
4390625000  -5.677942e+001  -1.562549e+002 
4393750000  -5.708632e+001  -1.556947e+002 
4396875000  -5.513309e+001  -1.660268e+002 
4400000000  -5.718393e+001  -1.691427e+002 
4403125000  -5.436768e+001  1.708660e+002 
4406250000  -5.611388e+001  1.700761e+002 
4409375000  -5.460045e+001  1.650393e+002 
4412500000  -5.705412e+001  1.635856e+002 
4415625000  -5.560382e+001  1.604716e+002 
