!Agilent Technologies,E8363B,MY43030201,A.06.04.32
!Agilent E8363B: A.06.04.32
!Date: Tuesday, November 11, 2014 22:16:04
!Correction: S21(Response(S21)) 
!S1P File: Measurement: S21:
# Hz S  dB   R 50
3000000000  -4.869614e+001  -7.304095e+001 
3003125000  -5.187168e+001  -8.108102e+001 
3006250000  -5.184341e+001  -8.556020e+001 
3009375000  -5.212673e+001  -8.784114e+001 
3012500000  -5.149394e+001  -9.625056e+001 
3015625000  -5.156146e+001  -1.074034e+002 
3018750000  -5.133503e+001  -1.115550e+002 
3021875000  -4.953099e+001  -1.161093e+002 
3025000000  -4.875357e+001  -1.285237e+002 
3028125000  -4.725340e+001  -1.418475e+002 
3031250000  -4.720406e+001  -1.586696e+002 
3034375000  -4.686335e+001  -1.785251e+002 
3037500000  -4.766606e+001  1.681288e+002 
3040625000  -4.900964e+001  1.567327e+002 
3043750000  -4.955813e+001  1.446251e+002 
3046875000  -5.073874e+001  1.357846e+002 
3050000000  -5.148309e+001  1.218953e+002 
3053125000  -5.111599e+001  1.231289e+002 
3056250000  -5.123262e+001  1.263872e+002 
3059375000  -5.055491e+001  1.110456e+002 
3062500000  -4.941944e+001  1.033935e+002 
3065625000  -4.928243e+001  8.570746e+001 
3068750000  -4.898903e+001  7.902195e+001 
3071875000  -4.896965e+001  6.854633e+001 
3075000000  -4.842154e+001  5.444781e+001 
3078125000  -4.860012e+001  4.670983e+001 
3081250000  -4.859363e+001  3.526516e+001 
3084375000  -4.808946e+001  2.681940e+001 
3087500000  -4.796143e+001  1.475320e+001 
3090625000  -4.800692e+001  -5.598071e+000 
3093750000  -4.872989e+001  -1.439274e+001 
3096875000  -4.964645e+001  -2.297497e+001 
3100000000  -4.922253e+001  -3.223890e+001 
3103125000  -4.998146e+001  -3.883703e+001 
3106250000  -4.931199e+001  -5.016177e+001 
3109375000  -4.967337e+001  -5.884728e+001 
3112500000  -4.912666e+001  -6.839875e+001 
3115625000  -4.936218e+001  -7.992049e+001 
3118750000  -4.941098e+001  -8.253918e+001 
3121875000  -4.938990e+001  -1.005448e+002 
3125000000  -5.063778e+001  -1.086722e+002 
3128125000  -5.056942e+001  -1.065576e+002 
3131250000  -4.804899e+001  -1.140828e+002 
3134375000  -4.719136e+001  -1.372990e+002 
3137500000  -4.867691e+001  -1.514879e+002 
3140625000  -4.975520e+001  -1.608937e+002 
3143750000  -5.032170e+001  -1.696435e+002 
3146875000  -5.012288e+001  -1.684446e+002 
3150000000  -4.929213e+001  1.789675e+002 
3153125000  -4.925006e+001  1.659009e+002 
3156250000  -5.007783e+001  1.656367e+002 
3159375000  -4.756182e+001  1.607172e+002 
3162500000  -4.611080e+001  1.352299e+002 
3165625000  -4.767323e+001  1.235706e+002 
3168750000  -4.748885e+001  1.131520e+002 
3171875000  -4.702762e+001  1.040352e+002 
3175000000  -4.747435e+001  9.033498e+001 
3178125000  -4.701023e+001  8.466545e+001 
3181250000  -4.625615e+001  7.060188e+001 
3184375000  -4.685118e+001  5.436663e+001 
3187500000  -4.826659e+001  3.717157e+001 
3190625000  -4.936023e+001  2.282836e+001 
3193750000  -5.005608e+001  2.222476e+001 
3196875000  -4.967144e+001  2.003998e+001 
3200000000  -4.860579e+001  1.000138e+001 
3203125000  -4.838482e+001  -9.374264e-001 
3206250000  -4.874843e+001  -1.482771e+001 
3209375000  -4.815388e+001  -2.824654e+001 
3212500000  -4.874117e+001  -3.744276e+001 
3215625000  -4.841141e+001  -4.470148e+001 
3218750000  -4.916709e+001  -6.361877e+001 
3221875000  -4.938137e+001  -7.640996e+001 
3225000000  -4.977864e+001  -8.326122e+001 
3228125000  -4.972076e+001  -9.165967e+001 
3231250000  -5.136301e+001  -1.043645e+002 
3234375000  -5.028787e+001  -1.080825e+002 
3237500000  -5.061563e+001  -1.175512e+002 
3240625000  -5.017577e+001  -1.283606e+002 
3243750000  -4.967056e+001  -1.430237e+002 
3246875000  -4.994599e+001  -1.516298e+002 
3250000000  -5.085924e+001  -1.643680e+002 
3253125000  -5.129815e+001  -1.705060e+002 
3256250000  -5.072897e+001  1.726880e+002 
3259375000  -5.084551e+001  1.609418e+002 
3262500000  -5.249318e+001  1.564942e+002 
3265625000  -5.256932e+001  1.473257e+002 
3268750000  -5.314778e+001  1.441691e+002 
3271875000  -5.304520e+001  1.384955e+002 
3275000000  -5.148019e+001  1.223376e+002 
3278125000  -5.282420e+001  1.083932e+002 
3281250000  -5.293653e+001  1.038108e+002 
3284375000  -5.278257e+001  8.921298e+001 
3287500000  -5.428721e+001  9.057690e+001 
3290625000  -5.286379e+001  7.589419e+001 
3293750000  -5.322134e+001  6.324562e+001 
3296875000  -5.506179e+001  5.174528e+001 
3300000000  -5.387626e+001  5.562896e+001 
3303125000  -5.248950e+001  4.309586e+001 
3306250000  -5.352075e+001  2.435058e+001 
3309375000  -5.255828e+001  1.217536e+001 
3312500000  -5.328409e+001  -2.375653e+000 
3315625000  -5.446116e+001  -8.984355e+000 
3318750000  -5.598175e+001  -2.322837e+001 
3321875000  -5.921102e+001  -1.489232e+001 
3325000000  -5.564839e+001  -1.747235e+001 
3328125000  -5.697387e+001  -3.177498e+001 
3331250000  -5.428464e+001  -2.512959e+001 
3334375000  -5.145127e+001  -4.958190e+001 
3337500000  -5.180056e+001  -6.743906e+001 
3340625000  -5.394744e+001  -7.957394e+001 
3343750000  -5.581024e+001  -8.150450e+001 
3346875000  -5.538137e+001  -9.884628e+001 
3350000000  -5.425526e+001  -1.013036e+002 
3353125000  -5.448136e+001  -1.148517e+002 
3356250000  -5.503128e+001  -1.296305e+002 
3359375000  -5.519748e+001  -1.509626e+002 
3362500000  -5.626563e+001  -1.458744e+002 
3365625000  -5.601804e+001  -1.580482e+002 
3368750000  -5.741517e+001  -1.796376e+002 
3371875000  -5.739097e+001  1.747724e+002 
3375000000  -5.832551e+001  1.714151e+002 
3378125000  -6.015662e+001  1.735769e+002 
3381250000  -5.921187e+001  1.609626e+002 
3384375000  -5.674329e+001  1.764642e+002 
3387500000  -5.390215e+001  1.568337e+002 
3390625000  -5.442653e+001  1.247512e+002 
3393750000  -5.734921e+001  1.309279e+002 
3396875000  -5.657495e+001  1.264662e+002 
3400000000  -5.575006e+001  9.744749e+001 
3403125000  -5.674669e+001  8.443141e+001 
3406250000  -5.740123e+001  7.733338e+001 
3409375000  -5.801906e+001  5.176247e+001 
3412500000  -5.765890e+001  6.015111e+001 
3415625000  -5.971950e+001  4.977652e+001 
3418750000  -5.840365e+001  4.353865e+001 
3421875000  -6.055905e+001  2.737130e+001 
3425000000  -6.005024e+001  2.094861e+001 
3428125000  -5.897785e+001  1.041765e+001 
3431250000  -6.010710e+001  -2.720587e+000 
3434375000  -5.917044e+001  -2.793760e+001 
3437500000  -6.287343e+001  -2.985243e+001 
3440625000  -6.119956e+001  -2.556320e+001 
3443750000  -6.101193e+001  -2.803981e+001 
3446875000  -6.189705e+001  -3.786633e+001 
3450000000  -5.988742e+001  -8.022882e+001 
3453125000  -6.237463e+001  -6.736286e+001 
3456250000  -6.198018e+001  -8.933350e+001 
3459375000  -6.543090e+001  -6.840551e+001 
3462500000  -6.321393e+001  -1.113929e+002 
3465625000  -6.331795e+001  -8.395540e+001 
3468750000  -6.918080e+001  -1.124761e+002 
3471875000  -6.601302e+001  -1.093214e+002 
3475000000  -6.723364e+001  -1.077973e+002 
3478125000  -6.997295e+001  -1.239149e+002 
3481250000  -7.871518e+001  1.505085e+002 
3484375000  -6.908351e+001  -1.223988e+002 
3487500000  -6.686698e+001  -1.235421e+002 
3490625000  -6.685052e+001  -1.392165e+002 
3493750000  -7.246870e+001  -1.443437e+002 
3496875000  -6.975684e+001  -1.774778e+002 
3500000000  -6.669087e+001  -1.331359e+002 
3503125000  -6.871950e+001  -1.425235e+002 
3506250000  -6.380756e+001  -1.619766e+002 
3509375000  -6.281161e+001  1.650477e+002 
3512500000  -6.760288e+001  1.388719e+002 
3515625000  -6.791529e+001  1.528046e+002 
3518750000  -6.533399e+001  1.347640e+002 
3521875000  -7.302994e+001  1.372069e+002 
3525000000  -6.845339e+001  8.137704e+001 
3528125000  -6.531448e+001  1.135575e+002 
3531250000  -7.185375e+001  9.603828e+001 
3534375000  -7.111970e+001  9.949438e+001 
3537500000  -6.539992e+001  1.047817e+002 
3540625000  -6.954917e+001  4.888691e+001 
3543750000  -7.425586e+001  1.210219e+002 
3546875000  -6.600558e+001  8.095061e+001 
3550000000  -6.629984e+001  9.393618e+001 
3553125000  -6.803926e+001  4.570739e+001 
3556250000  -7.004660e+001  6.591765e+001 
3559375000  -6.701235e+001  4.819331e+001 
3562500000  -8.153207e+001  9.735378e+001 
3565625000  -7.388017e+001  1.157420e+002 
3568750000  -7.476560e+001  -3.113214e+001 
3571875000  -6.783015e+001  4.090125e+001 
3575000000  -7.495083e+001  1.213421e+001 
3578125000  -7.254415e+001  3.197155e+001 
3581250000  -7.277380e+001  2.294805e+001 
3584375000  -6.824722e+001  6.415509e+001 
3587500000  -8.527683e+001  -1.940543e+001 
3590625000  -7.362495e+001  1.993890e+000 
3593750000  -6.579279e+001  -1.418868e+001 
3596875000  -6.432112e+001  3.351672e+001 
3600000000  -7.033963e+001  -7.491663e+000 
3603125000  -6.690414e+001  2.387389e+001 
3606250000  -6.598391e+001  3.830435e+000 
3609375000  -6.330348e+001  -3.457993e+001 
3612500000  -6.376697e+001  -5.568699e+001 
3615625000  -6.602209e+001  -3.420073e+001 
3618750000  -6.945729e+001  -4.068625e+001 
3621875000  -6.476384e+001  -7.172456e+001 
3625000000  -6.285340e+001  -8.382684e+001 
3628125000  -6.624299e+001  -1.101239e+002 
3631250000  -6.195038e+001  -1.090847e+002 
3634375000  -6.615799e+001  -1.024076e+002 
3637500000  -6.272640e+001  -1.101304e+002 
3640625000  -6.270348e+001  -1.285614e+002 
3643750000  -6.399937e+001  -1.571742e+002 
3646875000  -5.994292e+001  -1.786778e+002 
3650000000  -6.259337e+001  1.796655e+002 
3653125000  -6.660843e+001  1.687777e+002 
3656250000  -6.728916e+001  1.549417e+002 
3659375000  -6.787907e+001  1.396450e+002 
3662500000  -6.521107e+001  1.596988e+002 
3665625000  -6.264930e+001  1.755011e+002 
3668750000  -6.316232e+001  1.169293e+002 
3671875000  -6.335265e+001  1.354903e+002 
3675000000  -6.460629e+001  1.206931e+002 
3678125000  -6.597101e+001  1.131220e+002 
3681250000  -6.275864e+001  9.178078e+001 
3684375000  -6.842288e+001  1.126485e+002 
3687500000  -6.804730e+001  7.170855e+001 
3690625000  -7.234304e+001  1.183908e+002 
3693750000  -6.426150e+001  1.227861e+002 
3696875000  -6.626170e+001  9.894970e+001 
3700000000  -6.227658e+001  9.032986e+001 
3703125000  -6.647697e+001  7.234423e+001 
3706250000  -7.126110e+001  6.559569e+001 
3709375000  -7.218280e+001  1.156222e+002 
3712500000  -6.320882e+001  6.466106e+001 
3715625000  -6.183342e+001  2.469544e+001 
3718750000  -6.223676e+001  1.986864e+001 
3721875000  -6.196564e+001  3.311837e+001 
3725000000  -6.276535e+001  1.538534e+001 
3728125000  -6.042691e+001  1.292532e+001 
3731250000  -6.258110e+001  6.401892e+000 
3734375000  -5.908425e+001  -6.404507e+000 
3737500000  -5.761568e+001  -5.200161e+001 
3740625000  -5.886903e+001  -3.358437e+001 
3743750000  -5.959880e+001  -4.884635e+001 
3746875000  -5.755323e+001  -6.300927e+001 
3750000000  -5.808040e+001  -7.636564e+001 
3753125000  -5.855579e+001  -8.220901e+001 
3756250000  -5.813211e+001  -8.990697e+001 
3759375000  -5.816362e+001  -1.010086e+002 
3762500000  -5.674501e+001  -1.201146e+002 
3765625000  -5.947843e+001  -1.290155e+002 
3768750000  -5.753483e+001  -1.394568e+002 
3771875000  -5.660133e+001  -1.441486e+002 
3775000000  -5.519098e+001  -1.579426e+002 
3778125000  -5.839935e+001  -1.725928e+002 
3781250000  -5.754279e+001  -1.754277e+002 
3784375000  -5.719500e+001  1.690560e+002 
3787500000  -5.603027e+001  1.500442e+002 
3790625000  -5.826871e+001  1.427488e+002 
3793750000  -5.701419e+001  1.436874e+002 
3796875000  -5.728248e+001  1.198248e+002 
3800000000  -5.366047e+001  8.599155e+001 
3803125000  -5.765037e+001  1.012878e+002 
3806250000  -6.031849e+001  7.092152e+001 
3809375000  -5.855735e+001  8.331544e+001 
3812500000  -5.829051e+001  7.137150e+001 
3815625000  -6.014605e+001  5.113382e+001 
3818750000  -6.005578e+001  5.954428e+001 
3821875000  -6.138838e+001  6.281100e+001 
3825000000  -5.891851e+001  4.344487e+001 
3828125000  -5.809037e+001  2.693625e+001 
3831250000  -5.926504e+001  1.713531e+001 
3834375000  -6.769744e+001  2.694330e+001 
3837500000  -6.359425e+001  2.686270e+001 
3840625000  -6.383581e+001  1.125589e+001 
3843750000  -6.216895e+001  -3.509170e+000 
3846875000  -6.270655e+001  -2.114696e+001 
3850000000  -6.234430e+001  5.438669e+000 
3853125000  -6.490540e+001  2.642078e+001 
3856250000  -5.933744e+001  -3.049402e+000 
3859375000  -5.895945e+001  -3.502369e+001 
3862500000  -6.221195e+001  -1.204321e+001 
3865625000  -5.986518e+001  -5.258773e+001 
3868750000  -5.883349e+001  -4.488269e+001 
3871875000  -5.611572e+001  -5.833210e+001 
3875000000  -5.890501e+001  -7.713571e+001 
3878125000  -5.851264e+001  -7.869538e+001 
3881250000  -5.778861e+001  -7.458232e+001 
3884375000  -5.580496e+001  -8.802145e+001 
3887500000  -5.845934e+001  -1.131207e+002 
3890625000  -5.674641e+001  -1.196856e+002 
3893750000  -5.687692e+001  -1.160329e+002 
3896875000  -5.547678e+001  -1.256297e+002 
3900000000  -5.622889e+001  -1.428414e+002 
3903125000  -5.504803e+001  -1.407519e+002 
3906250000  -5.404387e+001  -1.711550e+002 
3909375000  -5.399980e+001  1.778353e+002 
3912500000  -5.336562e+001  1.657536e+002 
3915625000  -5.444337e+001  1.558766e+002 
3918750000  -5.355581e+001  1.548496e+002 
3921875000  -5.476076e+001  1.379414e+002 
3925000000  -5.294559e+001  1.305279e+002 
3928125000  -5.307273e+001  1.073051e+002 
3931250000  -5.264178e+001  1.044833e+002 
3934375000  -5.530225e+001  8.861214e+001 
3937500000  -5.515395e+001  8.721991e+001 
3940625000  -5.450890e+001  7.515806e+001 
3943750000  -5.428989e+001  6.186488e+001 
3946875000  -5.474203e+001  5.539783e+001 
3950000000  -5.418865e+001  4.236059e+001 
3953125000  -5.486255e+001  3.457393e+001 
3956250000  -5.371791e+001  2.567361e+001 
3959375000  -5.350674e+001  1.278538e+001 
3962500000  -5.326182e+001  -3.415218e-001 
3965625000  -5.286365e+001  -1.365296e+001 
3968750000  -5.456047e+001  -2.944530e+001 
3971875000  -5.401223e+001  -4.273825e+001 
3975000000  -5.368056e+001  -5.078198e+001 
3978125000  -5.489870e+001  -5.728151e+001 
3981250000  -5.447366e+001  -6.604453e+001 
3984375000  -5.599934e+001  -7.802533e+001 
3987500000  -5.510454e+001  -8.035690e+001 
3990625000  -5.587791e+001  -1.010503e+002 
3993750000  -5.654303e+001  -1.055630e+002 
3996875000  -5.811538e+001  -1.216086e+002 
4000000000  -5.956926e+001  -1.264290e+002 
4003125000  -6.133345e+001  -1.180915e+002 
4006250000  -5.730962e+001  -1.353611e+002 
4009375000  -5.763437e+001  -1.517755e+002 
4012500000  -6.134030e+001  -1.637710e+002 
4015625000  -6.355128e+001  -1.487126e+002 
4018750000  -5.864314e+001  -1.574821e+002 
4021875000  -5.809417e+001  -1.767194e+002 
4025000000  -5.862790e+001  -1.776581e+002 
4028125000  -5.976362e+001  1.699535e+002 
4031250000  -6.176686e+001  1.732977e+002 
4034375000  -6.040445e+001  1.589662e+002 
4037500000  -5.813782e+001  1.642169e+002 
4040625000  -5.900657e+001  1.582114e+002 
4043750000  -5.793633e+001  1.525177e+002 
4046875000  -5.807921e+001  1.407778e+002 
4050000000  -5.947424e+001  1.283842e+002 
4053125000  -5.722263e+001  1.184627e+002 
4056250000  -5.827367e+001  1.248405e+002 
4059375000  -5.458518e+001  1.066717e+002 
4062500000  -5.528998e+001  9.876567e+001 
4065625000  -5.448945e+001  8.642966e+001 
4068750000  -5.491670e+001  8.327480e+001 
4071875000  -5.213342e+001  6.250584e+001 
4075000000  -5.356996e+001  3.696430e+001 
4078125000  -5.303584e+001  3.570636e+001 
4081250000  -5.362154e+001  2.875488e+001 
4084375000  -5.213506e+001  1.151097e+001 
4087500000  -5.320901e+001  -4.286189e+000 
4090625000  -5.275488e+001  6.290315e-001 
4093750000  -5.300393e+001  -1.828975e+001 
4096875000  -5.313547e+001  -2.833006e+001 
4100000000  -5.297784e+001  -5.238350e+001 
4103125000  -5.474095e+001  -4.873807e+001 
4106250000  -5.409408e+001  -5.104832e+001 
4109375000  -5.373001e+001  -6.111816e+001 
4112500000  -5.218955e+001  -8.150337e+001 
4115625000  -5.446962e+001  -8.508315e+001 
4118750000  -5.323319e+001  -1.029883e+002 
4121875000  -5.310657e+001  -1.169865e+002 
4125000000  -5.341509e+001  -1.201535e+002 
4128125000  -5.531867e+001  -1.326308e+002 
4131250000  -5.350167e+001  -1.256756e+002 
4134375000  -5.091368e+001  -1.500889e+002 
4137500000  -5.188109e+001  -1.643851e+002 
4140625000  -5.256173e+001  1.769063e+002 
4143750000  -5.589990e+001  1.742939e+002 
4146875000  -5.595893e+001  1.675187e+002 
4150000000  -5.454878e+001  1.444324e+002 
4153125000  -5.438625e+001  1.517953e+002 
4156250000  -5.579763e+001  1.319040e+002 
4159375000  -5.430404e+001  1.296661e+002 
4162500000  -5.531190e+001  1.215042e+002 
4165625000  -5.473093e+001  1.199181e+002 
4168750000  -5.520247e+001  9.895682e+001 
4171875000  -5.833748e+001  8.317647e+001 
4175000000  -5.427152e+001  6.843410e+001 
4178125000  -5.739527e+001  7.261825e+001 
4181250000  -5.624332e+001  5.080005e+001 
4184375000  -5.869120e+001  3.437360e+001 
4187500000  -5.775540e+001  3.138914e+001 
4190625000  -6.028532e+001  2.553947e+001 
4193750000  -5.967057e+001  1.659259e+001 
4196875000  -6.231297e+001  -3.276075e+000 
4200000000  -6.318209e+001  6.638325e+000 
4203125000  -6.670230e+001  4.549988e+001 
4206250000  -5.842142e+001  3.975470e+001 
4209375000  -6.082116e+001  -3.267152e+000 
4212500000  -6.562669e+001  1.597566e+001 
4215625000  -6.221982e+001  2.178571e+001 
4218750000  -6.192076e+001  4.596380e+000 
4221875000  -5.851320e+001  -1.730075e+001 
4225000000  -6.147520e+001  -3.325002e+001 
4228125000  -5.712069e+001  -3.764551e+000 
4231250000  -5.774146e+001  -2.462498e+001 
4234375000  -5.650944e+001  -4.354840e+001 
4237500000  -5.718661e+001  -5.320058e+001 
4240625000  -5.464279e+001  -6.284047e+001 
4243750000  -5.749943e+001  -7.335284e+001 
4246875000  -5.665922e+001  -6.667847e+001 
4250000000  -5.876913e+001  -7.807872e+001 
4253125000  -5.678743e+001  -9.151546e+001 
4256250000  -5.757475e+001  -9.989312e+001 
4259375000  -5.502871e+001  -9.889725e+001 
4262500000  -5.506985e+001  -1.327605e+002 
4265625000  -5.404327e+001  -1.241658e+002 
4268750000  -5.362307e+001  -1.458808e+002 
4271875000  -5.200352e+001  -1.534098e+002 
4275000000  -5.106973e+001  -1.738127e+002 
4278125000  -5.361378e+001  1.589364e+002 
4281250000  -5.452667e+001  1.579600e+002 
4284375000  -5.310300e+001  1.533551e+002 
4287500000  -5.415042e+001  1.551068e+002 
4290625000  -5.429237e+001  1.544684e+002 
4293750000  -5.205138e+001  1.470150e+002 
4296875000  -5.151026e+001  1.217880e+002 
4300000000  -5.200121e+001  1.086993e+002 
4303125000  -5.337438e+001  9.930225e+001 
4306250000  -5.232134e+001  9.993379e+001 
4309375000  -5.178686e+001  8.621578e+001 
4312500000  -5.227122e+001  7.034783e+001 
4315625000  -5.285501e+001  5.834892e+001 
4318750000  -5.380876e+001  3.552421e+001 
4321875000  -5.269385e+001  3.248803e+001 
4325000000  -5.320633e+001  2.415514e+001 
4328125000  -5.074307e+001  7.525003e+000 
4331250000  -5.189130e+001  -3.916284e+000 
4334375000  -5.470986e+001  -1.003116e+001 
4337500000  -5.385487e+001  -3.390911e+001 
4340625000  -5.499683e+001  -2.022922e+001 
4343750000  -5.566016e+001  -3.935445e+001 
4346875000  -5.439279e+001  -4.090408e+001 
4350000000  -5.357608e+001  -5.995213e+001 
4353125000  -5.751771e+001  -7.405482e+001 
4356250000  -5.803822e+001  -6.833086e+001 
4359375000  -5.865313e+001  -5.126722e+001 
4362500000  -5.689572e+001  -7.261831e+001 
4365625000  -5.548610e+001  -7.776316e+001 
4368750000  -5.512673e+001  -9.281091e+001 
4371875000  -5.550313e+001  -1.090522e+002 
4375000000  -5.716867e+001  -1.084195e+002 
4378125000  -5.749737e+001  -1.222417e+002 
4381250000  -5.710269e+001  -1.204641e+002 
4384375000  -5.645072e+001  -1.361288e+002 
4387500000  -5.942923e+001  -1.469084e+002 
4390625000  -5.951840e+001  -1.573626e+002 
4393750000  -5.754325e+001  -1.407619e+002 
4396875000  -5.803616e+001  -1.621233e+002 
4400000000  -5.530373e+001  -1.670376e+002 
4403125000  -5.635328e+001  -1.700679e+002 
4406250000  -5.666095e+001  -1.768011e+002 
4409375000  -5.526406e+001  1.627996e+002 
4412500000  -5.767343e+001  1.767897e+002 
4415625000  -5.571445e+001  1.663993e+002 
4418750000  -5.413654e+001  1.460786e+002 
