!Agilent Technologies,E8363B,MY43030201,A.06.04.32
!Agilent E8363B: A.06.04.32
!Date: Tuesday, November 11, 2014 22:14:22
!Correction: S21(Response(S21)) 
!S1P File: Measurement: S21:
# Hz S  dB   R 50
3000000000  -4.872945e+001  -7.356940e+001 
3003125000  -5.101788e+001  -8.262469e+001 
3006250000  -5.149139e+001  -8.543187e+001 
3009375000  -5.231958e+001  -8.718688e+001 
3012500000  -5.144289e+001  -9.454946e+001 
3015625000  -5.116932e+001  -1.098512e+002 
3018750000  -5.162944e+001  -1.154375e+002 
3021875000  -4.980822e+001  -1.168171e+002 
3025000000  -4.832526e+001  -1.289432e+002 
3028125000  -4.818871e+001  -1.435821e+002 
3031250000  -4.720171e+001  -1.626415e+002 
3034375000  -4.739637e+001  -1.789321e+002 
3037500000  -4.784101e+001  1.657303e+002 
3040625000  -4.875629e+001  1.534614e+002 
3043750000  -4.967650e+001  1.419250e+002 
3046875000  -5.122531e+001  1.336316e+002 
3050000000  -5.146512e+001  1.221397e+002 
3053125000  -5.140603e+001  1.268664e+002 
3056250000  -5.089588e+001  1.231191e+002 
3059375000  -5.108718e+001  1.112169e+002 
3062500000  -4.961220e+001  9.893772e+001 
3065625000  -4.931197e+001  9.000526e+001 
3068750000  -4.876171e+001  7.605421e+001 
3071875000  -4.924383e+001  7.072881e+001 
3075000000  -4.797546e+001  5.155295e+001 
3078125000  -4.843812e+001  4.460826e+001 
3081250000  -4.916350e+001  3.453539e+001 
3084375000  -4.829201e+001  2.557851e+001 
3087500000  -4.806876e+001  1.385243e+001 
3090625000  -4.794903e+001  -4.297859e+000 
3093750000  -4.914289e+001  -1.744255e+001 
3096875000  -4.946154e+001  -2.479343e+001 
3100000000  -4.955888e+001  -3.587498e+001 
3103125000  -4.958332e+001  -3.860798e+001 
3106250000  -4.941422e+001  -5.118491e+001 
3109375000  -4.994347e+001  -5.942681e+001 
3112500000  -4.916216e+001  -6.939311e+001 
3115625000  -4.959208e+001  -7.651047e+001 
3118750000  -4.961339e+001  -8.542670e+001 
3121875000  -4.906465e+001  -1.010052e+002 
3125000000  -5.062659e+001  -1.039134e+002 
3128125000  -5.053449e+001  -1.084335e+002 
3131250000  -4.835229e+001  -1.176876e+002 
3134375000  -4.773578e+001  -1.414200e+002 
3137500000  -4.900303e+001  -1.516339e+002 
3140625000  -4.935238e+001  -1.560530e+002 
3143750000  -5.072126e+001  -1.711444e+002 
3146875000  -4.986519e+001  -1.714067e+002 
3150000000  -4.913800e+001  -1.795160e+002 
3153125000  -4.947307e+001  1.636173e+002 
3156250000  -5.064552e+001  1.642492e+002 
3159375000  -4.791484e+001  1.599371e+002 
3162500000  -4.624463e+001  1.376393e+002 
3165625000  -4.757045e+001  1.187203e+002 
3168750000  -4.763421e+001  1.131334e+002 
3171875000  -4.689336e+001  1.053590e+002 
3175000000  -4.766541e+001  8.593104e+001 
3178125000  -4.743577e+001  8.327080e+001 
3181250000  -4.633933e+001  6.925166e+001 
3184375000  -4.634758e+001  5.454639e+001 
3187500000  -4.740065e+001  3.471167e+001 
3190625000  -4.984533e+001  2.273676e+001 
3193750000  -4.987221e+001  2.314744e+001 
3196875000  -4.937214e+001  1.477142e+001 
3200000000  -4.847778e+001  6.034631e+000 
3203125000  -4.832054e+001  -3.550615e+000 
3206250000  -4.890626e+001  -1.403411e+001 
3209375000  -4.770130e+001  -2.706821e+001 
3212500000  -4.865000e+001  -4.022128e+001 
3215625000  -4.820771e+001  -4.467710e+001 
3218750000  -4.834270e+001  -6.364529e+001 
3221875000  -4.950150e+001  -7.754022e+001 
3225000000  -4.996539e+001  -8.618291e+001 
3228125000  -5.001341e+001  -9.647242e+001 
3231250000  -5.098722e+001  -1.015828e+002 
3234375000  -4.999598e+001  -1.094063e+002 
3237500000  -5.030025e+001  -1.192631e+002 
3240625000  -4.998869e+001  -1.300975e+002 
3243750000  -5.012386e+001  -1.436574e+002 
3246875000  -4.996936e+001  -1.549697e+002 
3250000000  -5.082714e+001  -1.680772e+002 
3253125000  -5.121976e+001  -1.686452e+002 
3256250000  -5.017224e+001  1.784448e+002 
3259375000  -5.162903e+001  1.590080e+002 
3262500000  -5.305291e+001  1.525694e+002 
3265625000  -5.271572e+001  1.460813e+002 
3268750000  -5.327173e+001  1.456375e+002 
3271875000  -5.245208e+001  1.378949e+002 
3275000000  -5.216689e+001  1.232111e+002 
3278125000  -5.301763e+001  1.052300e+002 
3281250000  -5.339734e+001  1.089920e+002 
3284375000  -5.202181e+001  9.497880e+001 
3287500000  -5.391055e+001  8.308400e+001 
3290625000  -5.255679e+001  7.525204e+001 
3293750000  -5.254668e+001  6.009144e+001 
3296875000  -5.395754e+001  5.136269e+001 
3300000000  -5.450829e+001  5.286799e+001 
3303125000  -5.280717e+001  3.423413e+001 
3306250000  -5.378938e+001  2.252933e+001 
3309375000  -5.287154e+001  1.685030e+001 
3312500000  -5.368566e+001  -3.262923e+000 
3315625000  -5.545542e+001  -6.437782e+000 
3318750000  -5.478949e+001  -2.384436e+001 
3321875000  -5.657443e+001  -2.488062e+001 
3325000000  -5.536750e+001  -1.482288e+001 
3328125000  -5.641211e+001  -2.458810e+001 
3331250000  -5.364013e+001  -3.261905e+001 
3334375000  -5.224000e+001  -4.747144e+001 
3337500000  -5.193624e+001  -7.670396e+001 
3340625000  -5.436012e+001  -8.948945e+001 
3343750000  -5.553041e+001  -8.351761e+001 
3346875000  -5.552202e+001  -1.004174e+002 
3350000000  -5.463828e+001  -1.005215e+002 
3353125000  -5.433046e+001  -1.194978e+002 
3356250000  -5.483929e+001  -1.313151e+002 
3359375000  -5.527457e+001  -1.449447e+002 
3362500000  -5.609369e+001  -1.530272e+002 
3365625000  -5.553516e+001  -1.635442e+002 
3368750000  -5.727253e+001  -1.699984e+002 
3371875000  -5.688584e+001  -1.799096e+002 
3375000000  -6.124568e+001  1.637179e+002 
3378125000  -5.998363e+001  1.696836e+002 
3381250000  -5.940969e+001  1.740120e+002 
3384375000  -5.625952e+001  -1.768737e+002 
3387500000  -5.513683e+001  1.465453e+002 
3390625000  -5.618294e+001  1.321160e+002 
3393750000  -5.786738e+001  1.134742e+002 
3396875000  -5.758417e+001  1.165328e+002 
3400000000  -5.554552e+001  9.857192e+001 
3403125000  -5.772447e+001  8.181651e+001 
3406250000  -5.694355e+001  7.740944e+001 
3409375000  -5.756424e+001  5.657267e+001 
3412500000  -5.693993e+001  4.824060e+001 
3415625000  -5.898270e+001  3.926622e+001 
3418750000  -6.125283e+001  3.604646e+001 
3421875000  -5.992613e+001  2.315626e+001 
3425000000  -6.013848e+001  3.332728e+001 
3428125000  -5.980007e+001  1.050664e+001 
3431250000  -6.039434e+001  8.341968e+000 
3434375000  -5.830172e+001  -1.987280e+001 
3437500000  -6.291920e+001  -4.039850e+001 
3440625000  -6.153145e+001  -1.941739e+001 
3443750000  -6.226372e+001  -2.975755e+001 
3446875000  -6.096186e+001  -4.190097e+001 
3450000000  -6.176524e+001  -7.810869e+001 
3453125000  -6.168422e+001  -7.560584e+001 
3456250000  -6.543701e+001  -1.123468e+002 
3459375000  -6.455679e+001  -8.134530e+001 
3462500000  -6.503329e+001  -9.069539e+001 
3465625000  -6.608721e+001  -1.079856e+002 
3468750000  -6.990205e+001  -1.024691e+002 
3471875000  -6.663632e+001  -1.227053e+002 
3475000000  -6.597540e+001  -1.141487e+002 
3478125000  -6.950555e+001  -1.024113e+002 
3481250000  -6.921133e+001  -1.294938e+002 
3484375000  -7.090775e+001  -1.463958e+002 
3487500000  -6.882961e+001  -1.327871e+002 
3490625000  -6.934467e+001  -1.372679e+002 
3493750000  -6.676566e+001  -1.657334e+002 
3496875000  -7.043572e+001  -1.557631e+002 
3500000000  -6.663644e+001  -1.531052e+002 
3503125000  -6.760413e+001  -1.410964e+002 
3506250000  -6.711582e+001  -1.490914e+002 
3509375000  -6.746445e+001  1.649891e+002 
3512500000  -7.018945e+001  1.235707e+002 
3515625000  -6.652284e+001  1.553135e+002 
3518750000  -6.706629e+001  1.400138e+002 
3521875000  -7.079259e+001  1.043905e+002 
3525000000  -6.778129e+001  1.237438e+002 
3528125000  -6.663714e+001  1.336176e+002 
3531250000  -7.044845e+001  1.441150e+002 
3534375000  -6.753418e+001  7.318875e+001 
3537500000  -6.540616e+001  6.331389e+001 
3540625000  -7.137064e+001  4.517318e+001 
3543750000  -7.779702e+001  7.917533e+001 
3546875000  -6.697839e+001  3.375181e+001 
3550000000  -7.093121e+001  7.901710e+001 
3553125000  -6.889083e+001  2.722630e+000 
3556250000  -7.194787e+001  6.640652e+001 
3559375000  -6.948211e+001  5.496206e+001 
3562500000  -7.199493e+001  4.425430e+001 
3565625000  -7.368989e+001  2.363749e+001 
3568750000  -7.241236e+001  4.791643e+001 
3571875000  -7.020307e+001  5.250957e+001 
3575000000  -8.363160e+001  -2.848783e+000 
3578125000  -6.948444e+001  2.304624e+001 
3581250000  -7.064207e+001  6.139054e+001 
3584375000  -7.344663e+001  3.619191e+001 
3587500000  -1.112749e+002  -1.561187e+002 
3590625000  -6.605518e+001  8.242032e+000 
3593750000  -8.962597e+001  1.619123e+001 
3596875000  -6.758123e+001  3.545147e+001 
3600000000  -6.586702e+001  -1.115069e+001 
3603125000  -6.680492e+001  8.625589e+000 
3606250000  -6.722206e+001  -2.284471e+001 
3609375000  -7.231311e+001  -2.642871e+001 
3612500000  -6.338090e+001  -5.817382e+001 
3615625000  -6.724757e+001  -4.369683e+001 
3618750000  -6.180949e+001  -5.213826e+001 
3621875000  -6.589323e+001  -9.393530e+001 
3625000000  -6.691841e+001  -6.804001e+001 
3628125000  -6.181245e+001  -9.674299e+001 
3631250000  -6.614268e+001  -1.128854e+002 
3634375000  -6.983394e+001  -1.086074e+002 
3637500000  -6.651004e+001  -1.398340e+002 
3640625000  -6.344178e+001  -1.281728e+002 
3643750000  -6.417096e+001  -1.532055e+002 
3646875000  -6.023228e+001  -1.709634e+002 
3650000000  -6.461732e+001  1.772369e+002 
3653125000  -6.504470e+001  -1.797396e+002 
3656250000  -6.639092e+001  1.629745e+002 
3659375000  -6.394241e+001  1.670106e+002 
3662500000  -6.310889e+001  1.425597e+002 
3665625000  -6.599396e+001  1.573006e+002 
3668750000  -6.094257e+001  1.410630e+002 
3671875000  -6.293215e+001  1.208954e+002 
3675000000  -6.432017e+001  1.058265e+002 
3678125000  -6.919639e+001  1.557246e+002 
3681250000  -6.348209e+001  1.019871e+002 
3684375000  -6.494003e+001  7.650462e+001 
3687500000  -6.589055e+001  8.025158e+001 
3690625000  -6.944356e+001  5.639182e+001 
3693750000  -6.762652e+001  8.650283e+001 
3696875000  -6.611662e+001  8.742403e+001 
3700000000  -6.430106e+001  8.286573e+001 
3703125000  -7.373656e+001  1.911128e+001 
3706250000  -6.805266e+001  6.392271e+001 
3709375000  -6.392657e+001  5.082014e+001 
3712500000  -6.117831e+001  7.419584e+001 
3715625000  -6.438951e+001  4.434493e+001 
3718750000  -6.254360e+001  2.466489e+001 
3721875000  -6.054487e+001  6.058631e+000 
3725000000  -6.171623e+001  2.274852e+001 
3728125000  -5.951834e+001  2.945562e+000 
3731250000  -5.911059e+001  -3.315499e+000 
3734375000  -6.034996e+001  2.736816e-001 
3737500000  -5.958923e+001  -4.129529e+001 
3740625000  -5.891680e+001  -3.549999e+001 
3743750000  -5.766181e+001  -6.425091e+001 
3746875000  -5.848388e+001  -6.539429e+001 
3750000000  -5.883815e+001  -8.068221e+001 
3753125000  -5.802116e+001  -8.020631e+001 
3756250000  -5.874794e+001  -1.094674e+002 
3759375000  -5.867699e+001  -1.079842e+002 
3762500000  -5.638787e+001  -1.206218e+002 
3765625000  -5.791881e+001  -1.213243e+002 
3768750000  -5.789811e+001  -1.416306e+002 
3771875000  -5.634372e+001  -1.395015e+002 
3775000000  -5.701727e+001  -1.637412e+002 
3778125000  -5.768493e+001  1.773460e+002 
3781250000  -5.676807e+001  -1.689179e+002 
3784375000  -5.766403e+001  1.603665e+002 
3787500000  -5.697122e+001  1.526316e+002 
3790625000  -5.771585e+001  1.525245e+002 
3793750000  -5.839911e+001  1.343107e+002 
3796875000  -5.615817e+001  1.296951e+002 
3800000000  -5.353029e+001  8.154836e+001 
3803125000  -5.783047e+001  9.947357e+001 
3806250000  -6.047131e+001  8.522897e+001 
3809375000  -6.157101e+001  7.891435e+001 
3812500000  -5.783772e+001  7.434200e+001 
3815625000  -6.078452e+001  4.339344e+001 
3818750000  -6.237637e+001  3.418349e+001 
3821875000  -6.030236e+001  7.197857e+001 
3825000000  -6.037873e+001  5.279900e+001 
3828125000  -5.926720e+001  2.193483e+001 
3831250000  -5.798138e+001  9.550479e+000 
3834375000  -6.479134e+001  -1.486654e+001 
3837500000  -6.782689e+001  2.999969e+001 
3840625000  -6.408363e+001  1.134462e+001 
3843750000  -6.114104e+001  1.265776e+000 
3846875000  -6.146356e+001  -2.498669e+001 
3850000000  -6.425594e+001  4.487555e+001 
3853125000  -6.506312e+001  -1.844081e+001 
3856250000  -6.145065e+001  2.133484e+000 
3859375000  -6.077074e+001  -3.362960e+001 
3862500000  -6.207949e+001  -3.947650e+001 
3865625000  -6.371140e+001  -5.549658e+001 
3868750000  -6.071171e+001  -3.608500e+001 
3871875000  -5.559074e+001  -5.900098e+001 
3875000000  -5.955920e+001  -7.361806e+001 
3878125000  -5.707608e+001  -7.875837e+001 
3881250000  -5.772542e+001  -9.985223e+001 
3884375000  -5.457240e+001  -9.287476e+001 
3887500000  -5.576837e+001  -1.110587e+002 
3890625000  -5.641053e+001  -1.258364e+002 
3893750000  -5.697379e+001  -1.333371e+002 
3896875000  -5.793573e+001  -1.259059e+002 
3900000000  -5.684868e+001  -1.503074e+002 
3903125000  -5.409751e+001  -1.548402e+002 
3906250000  -5.385682e+001  -1.582118e+002 
3909375000  -5.334749e+001  1.782346e+002 
3912500000  -5.353874e+001  1.633176e+002 
3915625000  -5.616238e+001  1.541803e+002 
3918750000  -5.435998e+001  1.481757e+002 
3921875000  -5.524538e+001  1.402490e+002 
3925000000  -5.416328e+001  1.332409e+002 
3928125000  -5.354860e+001  1.098475e+002 
3931250000  -5.445567e+001  1.106971e+002 
3934375000  -5.437278e+001  9.100158e+001 
3937500000  -5.446721e+001  8.866745e+001 
3940625000  -5.496107e+001  7.821328e+001 
3943750000  -5.425530e+001  6.956618e+001 
3946875000  -5.296707e+001  4.740668e+001 
3950000000  -5.467042e+001  3.716398e+001 
3953125000  -5.528842e+001  4.267963e+001 
3956250000  -5.549931e+001  2.304233e+001 
3959375000  -5.324608e+001  2.264327e+001 
3962500000  -5.211219e+001  -5.196098e+000 
3965625000  -5.426130e+001  -8.594081e+000 
3968750000  -5.445346e+001  -4.143853e+001 
3971875000  -5.350136e+001  -4.406982e+001 
3975000000  -5.375863e+001  -5.330396e+001 
3978125000  -5.491810e+001  -5.352516e+001 
3981250000  -5.558538e+001  -7.654932e+001 
3984375000  -5.604662e+001  -8.750135e+001 
3987500000  -5.522645e+001  -8.750957e+001 
3990625000  -5.634760e+001  -9.817320e+001 
3993750000  -5.765430e+001  -1.097581e+002 
3996875000  -5.839410e+001  -1.162916e+002 
4000000000  -6.056263e+001  -1.248430e+002 
4003125000  -5.857719e+001  -1.215666e+002 
4006250000  -5.610416e+001  -1.451312e+002 
4009375000  -5.675592e+001  -1.627265e+002 
4012500000  -6.154805e+001  -1.619401e+002 
4015625000  -6.062767e+001  -1.668728e+002 
4018750000  -6.292363e+001  1.790772e+002 
4021875000  -6.043281e+001  -1.651971e+002 
4025000000  -5.996782e+001  1.664921e+002 
4028125000  -5.831958e+001  1.644072e+002 
4031250000  -5.766246e+001  1.650045e+002 
4034375000  -5.942389e+001  1.785888e+002 
4037500000  -5.944691e+001  1.580628e+002 
4040625000  -6.079581e+001  1.532313e+002 
4043750000  -5.895815e+001  1.371967e+002 
4046875000  -5.716000e+001  1.342223e+002 
4050000000  -5.638005e+001  1.233118e+002 
4053125000  -5.797424e+001  1.248177e+002 
4056250000  -5.905702e+001  1.079202e+002 
4059375000  -5.576260e+001  1.184337e+002 
4062500000  -5.510774e+001  1.049052e+002 
4065625000  -5.323956e+001  8.514409e+001 
4068750000  -5.563686e+001  8.026560e+001 
4071875000  -5.438199e+001  6.723132e+001 
4075000000  -5.279199e+001  4.737329e+001 
4078125000  -5.218906e+001  3.464783e+001 
4081250000  -5.299778e+001  3.323320e+001 
4084375000  -5.210545e+001  1.455685e+001 
4087500000  -5.423061e+001  -7.804639e+000 
4090625000  -5.285960e+001  3.948740e-003 
4093750000  -5.256232e+001  -2.097899e+001 
4096875000  -5.217488e+001  -2.681807e+001 
4100000000  -5.343003e+001  -4.724486e+001 
4103125000  -5.433364e+001  -3.943626e+001 
4106250000  -5.329501e+001  -4.548780e+001 
4109375000  -5.281730e+001  -6.000097e+001 
4112500000  -5.185843e+001  -7.753350e+001 
4115625000  -5.283371e+001  -8.314277e+001 
4118750000  -5.294096e+001  -1.007756e+002 
4121875000  -5.324673e+001  -1.142350e+002 
4125000000  -5.393059e+001  -1.216546e+002 
4128125000  -5.450043e+001  -1.386107e+002 
4131250000  -5.268385e+001  -1.401044e+002 
4134375000  -5.148987e+001  -1.568723e+002 
4137500000  -5.098869e+001  -1.702269e+002 
4140625000  -5.348347e+001  1.773217e+002 
4143750000  -5.687607e+001  1.791226e+002 
4146875000  -5.311682e+001  1.683358e+002 
4150000000  -5.524547e+001  1.621767e+002 
4153125000  -5.380807e+001  1.346162e+002 
4156250000  -5.608149e+001  1.241412e+002 
4159375000  -5.487275e+001  1.274782e+002 
4162500000  -5.469576e+001  1.158149e+002 
4165625000  -5.388988e+001  1.144101e+002 
4168750000  -5.493388e+001  8.959349e+001 
4171875000  -5.372281e+001  6.898261e+001 
4175000000  -5.731660e+001  6.164620e+001 
4178125000  -5.871339e+001  5.710250e+001 
4181250000  -5.757262e+001  5.699496e+001 
4184375000  -6.294408e+001  5.333284e+001 
4187500000  -5.871733e+001  4.079773e+001 
4190625000  -6.367891e+001  1.238721e+001 
4193750000  -6.148905e+001  1.027682e+001 
4196875000  -6.247578e+001  8.705217e+000 
4200000000  -6.217420e+001  2.473294e+001 
4203125000  -6.545669e+001  5.219310e+000 
4206250000  -6.191080e+001  2.457679e+001 
4209375000  -6.497219e+001  -5.581091e+001 
4212500000  -6.363342e+001  -8.723172e-001 
4215625000  -6.144612e+001  -1.941090e+001 
4218750000  -6.011630e+001  2.883298e+001 
4221875000  -5.851620e+001  -1.424639e+001 
4225000000  -5.839481e+001  3.282882e+000 
4228125000  -5.844811e+001  -3.539076e+001 
4231250000  -6.366601e+001  -1.100436e+001 
4234375000  -5.809374e+001  -4.625469e+001 
4237500000  -5.818954e+001  -4.828024e+001 
4240625000  -5.623361e+001  -6.510023e+001 
4243750000  -5.723368e+001  -6.837006e+001 
4246875000  -5.679535e+001  -7.224265e+001 
4250000000  -5.672771e+001  -8.024825e+001 
4253125000  -5.522462e+001  -8.743606e+001 
4256250000  -5.804869e+001  -1.045197e+002 
4259375000  -5.625233e+001  -1.030348e+002 
4262500000  -5.512543e+001  -1.217776e+002 
4265625000  -5.370917e+001  -1.167397e+002 
4268750000  -5.263141e+001  -1.411403e+002 
4271875000  -5.188106e+001  -1.502310e+002 
4275000000  -5.127312e+001  -1.710718e+002 
4278125000  -5.365283e+001  1.748166e+002 
4281250000  -5.349059e+001  1.586001e+002 
4284375000  -5.381210e+001  1.579366e+002 
4287500000  -5.500868e+001  1.446681e+002 
4290625000  -5.567481e+001  1.556290e+002 
4293750000  -5.338441e+001  1.449076e+002 
4296875000  -5.080747e+001  1.197665e+002 
4300000000  -5.232518e+001  1.123703e+002 
4303125000  -5.340491e+001  1.052488e+002 
4306250000  -5.169428e+001  1.048843e+002 
4309375000  -5.299600e+001  7.831981e+001 
4312500000  -5.176323e+001  7.191848e+001 
4315625000  -5.211037e+001  4.454017e+001 
4318750000  -5.310628e+001  4.769560e+001 
4321875000  -5.279978e+001  3.638770e+001 
4325000000  -5.396247e+001  2.411362e+001 
4328125000  -5.301016e+001  6.908468e+000 
4331250000  -5.296271e+001  -5.783853e+000 
4334375000  -5.522257e+001  -2.277375e+001 
4337500000  -5.458288e+001  -3.137860e+001 
4340625000  -5.489953e+001  -2.478363e+001 
4343750000  -5.467210e+001  -3.859601e+001 
4346875000  -5.424261e+001  -3.750410e+001 
4350000000  -5.540163e+001  -5.290270e+001 
4353125000  -5.821758e+001  -6.413282e+001 
4356250000  -5.603557e+001  -5.995420e+001 
4359375000  -5.907930e+001  -5.596883e+001 
4362500000  -5.644949e+001  -7.212805e+001 
4365625000  -5.545466e+001  -9.104781e+001 
4368750000  -5.515060e+001  -1.192575e+002 
4371875000  -5.507918e+001  -1.071040e+002 
4375000000  -5.430653e+001  -1.139116e+002 
4378125000  -5.662401e+001  -1.274225e+002 
4381250000  -6.025021e+001  -1.312831e+002 
4384375000  -5.533758e+001  -1.431457e+002 
4387500000  -5.694023e+001  -1.406543e+002 
4390625000  -5.780842e+001  -1.535283e+002 
4393750000  -5.685143e+001  -1.579091e+002 
4396875000  -5.643822e+001  -1.577749e+002 
4400000000  -5.662668e+001  -1.790775e+002 
4403125000  -5.504863e+001  1.765453e+002 
4406250000  -5.590258e+001  1.695568e+002 
4409375000  -5.603497e+001  1.613749e+002 
4412500000  -5.664972e+001  1.589889e+002 
4415625000  -5.623627e+001  1.668838e+002 
4418750000  -5.508833e+001  1.519654e+002 
