!Agilent Technologies,E8363B,MY43030201,A.06.04.32
!Agilent E8363B: A.06.04.32
!Date: Tuesday, November 11, 2014 22:13:24
!Correction: S21(Response(S21)) 
!S1P File: Measurement: S21:
# Hz S  dB   R 50
3000000000  -4.877522e+001  -7.382018e+001 
3003125000  -5.225429e+001  -7.572590e+001 
3006250000  -5.156461e+001  -8.609332e+001 
3009375000  -5.249512e+001  -8.327513e+001 
3012500000  -5.059400e+001  -9.662583e+001 
3015625000  -5.181419e+001  -1.069450e+002 
3018750000  -5.119614e+001  -1.124705e+002 
3021875000  -4.968855e+001  -1.191880e+002 
3025000000  -4.857018e+001  -1.288237e+002 
3028125000  -4.801300e+001  -1.439375e+002 
3031250000  -4.723268e+001  -1.608367e+002 
3034375000  -4.749592e+001  -1.797546e+002 
3037500000  -4.793142e+001  1.626936e+002 
3040625000  -4.910920e+001  1.564198e+002 
3043750000  -4.991177e+001  1.416768e+002 
3046875000  -5.023560e+001  1.328966e+002 
3050000000  -5.188746e+001  1.250990e+002 
3053125000  -5.102984e+001  1.202341e+002 
3056250000  -5.077981e+001  1.239014e+002 
3059375000  -5.054279e+001  1.144095e+002 
3062500000  -4.957125e+001  9.947115e+001 
3065625000  -4.956911e+001  8.732442e+001 
3068750000  -4.865618e+001  7.740659e+001 
3071875000  -4.927989e+001  6.715512e+001 
3075000000  -4.845261e+001  5.574039e+001 
3078125000  -4.863703e+001  4.426920e+001 
3081250000  -4.866615e+001  3.326328e+001 
3084375000  -4.805669e+001  2.418280e+001 
3087500000  -4.814592e+001  1.310757e+001 
3090625000  -4.790511e+001  -5.029600e+000 
3093750000  -4.895408e+001  -1.630297e+001 
3096875000  -4.922594e+001  -2.570498e+001 
3100000000  -4.920477e+001  -3.347638e+001 
3103125000  -4.995124e+001  -3.932085e+001 
3106250000  -4.901403e+001  -5.199704e+001 
3109375000  -4.975586e+001  -6.034339e+001 
3112500000  -4.959178e+001  -7.114036e+001 
3115625000  -4.960548e+001  -7.816869e+001 
3118750000  -4.957630e+001  -8.484184e+001 
3121875000  -4.919171e+001  -9.980088e+001 
3125000000  -5.116437e+001  -1.071016e+002 
3128125000  -5.055656e+001  -1.086849e+002 
3131250000  -4.848217e+001  -1.171487e+002 
3134375000  -4.755772e+001  -1.412957e+002 
3137500000  -4.898557e+001  -1.537072e+002 
3140625000  -4.981105e+001  -1.591072e+002 
3143750000  -5.032108e+001  -1.669104e+002 
3146875000  -4.960980e+001  -1.757170e+002 
3150000000  -4.851546e+001  1.782144e+002 
3153125000  -4.883734e+001  1.669928e+002 
3156250000  -5.042802e+001  1.647092e+002 
3159375000  -4.788455e+001  1.582465e+002 
3162500000  -4.635782e+001  1.388517e+002 
3165625000  -4.762761e+001  1.202182e+002 
3168750000  -4.726570e+001  1.150169e+002 
3171875000  -4.748619e+001  1.045835e+002 
3175000000  -4.756183e+001  8.619906e+001 
3178125000  -4.756195e+001  8.204453e+001 
3181250000  -4.657967e+001  6.816328e+001 
3184375000  -4.687224e+001  5.229898e+001 
3187500000  -4.780938e+001  3.785777e+001 
3190625000  -4.916124e+001  1.856764e+001 
3193750000  -5.001221e+001  2.249997e+001 
3196875000  -4.931268e+001  1.904191e+001 
3200000000  -4.823449e+001  8.849773e+000 
3203125000  -4.851397e+001  -2.882987e+000 
3206250000  -4.873365e+001  -1.650037e+001 
3209375000  -4.772895e+001  -2.862620e+001 
3212500000  -4.872399e+001  -4.120996e+001 
3215625000  -4.805904e+001  -4.788062e+001 
3218750000  -4.942287e+001  -6.689366e+001 
3221875000  -4.880913e+001  -7.917351e+001 
3225000000  -4.973737e+001  -8.442987e+001 
3228125000  -5.033726e+001  -9.446605e+001 
3231250000  -5.075050e+001  -1.046275e+002 
3234375000  -5.056947e+001  -1.090235e+002 
3237500000  -5.069693e+001  -1.200513e+002 
3240625000  -5.067076e+001  -1.296365e+002 
3243750000  -4.990432e+001  -1.461870e+002 
3246875000  -5.003740e+001  -1.551794e+002 
3250000000  -5.114181e+001  -1.642442e+002 
3253125000  -5.073356e+001  -1.756145e+002 
3256250000  -5.094912e+001  1.757536e+002 
3259375000  -5.110352e+001  1.562193e+002 
3262500000  -5.234562e+001  1.545855e+002 
3265625000  -5.266539e+001  1.461059e+002 
3268750000  -5.273389e+001  1.382783e+002 
3271875000  -5.261355e+001  1.352537e+002 
3275000000  -5.248837e+001  1.237818e+002 
3278125000  -5.283628e+001  1.112685e+002 
3281250000  -5.282806e+001  1.085553e+002 
3284375000  -5.182573e+001  9.429470e+001 
3287500000  -5.386173e+001  8.861948e+001 
3290625000  -5.248574e+001  7.192547e+001 
3293750000  -5.263272e+001  6.192687e+001 
3296875000  -5.406384e+001  5.730677e+001 
3300000000  -5.390638e+001  5.060387e+001 
3303125000  -5.205379e+001  3.780745e+001 
3306250000  -5.281329e+001  2.181103e+001 
3309375000  -5.383920e+001  1.718632e+001 
3312500000  -5.338438e+001  -2.379893e+000 
3315625000  -5.493772e+001  -1.337913e+001 
3318750000  -5.525632e+001  -2.612010e+001 
3321875000  -5.678469e+001  -3.373022e+001 
3325000000  -5.688707e+001  -2.060406e+001 
3328125000  -5.762790e+001  -1.289202e+001 
3331250000  -5.383887e+001  -2.512371e+001 
3334375000  -5.249197e+001  -4.233755e+001 
3337500000  -5.157006e+001  -7.111317e+001 
3340625000  -5.408953e+001  -8.872055e+001 
3343750000  -5.625493e+001  -8.496272e+001 
3346875000  -5.565832e+001  -9.513737e+001 
3350000000  -5.430616e+001  -1.015292e+002 
3353125000  -5.466605e+001  -1.171557e+002 
3356250000  -5.399523e+001  -1.309106e+002 
3359375000  -5.434996e+001  -1.408320e+002 
3362500000  -5.537092e+001  -1.550726e+002 
3365625000  -5.597015e+001  -1.562389e+002 
3368750000  -5.817624e+001  -1.762746e+002 
3371875000  -5.717141e+001  -1.799448e+002 
3375000000  -5.777576e+001  1.691462e+002 
3378125000  -5.994108e+001  1.544680e+002 
3381250000  -5.964395e+001  1.636074e+002 
3384375000  -5.661323e+001  1.749489e+002 
3387500000  -5.454200e+001  1.445738e+002 
3390625000  -5.676113e+001  1.280734e+002 
3393750000  -5.797644e+001  1.186098e+002 
3396875000  -5.705081e+001  1.167819e+002 
3400000000  -5.591592e+001  9.000807e+001 
3403125000  -5.737030e+001  8.086071e+001 
3406250000  -5.862141e+001  7.872555e+001 
3409375000  -5.762222e+001  5.013020e+001 
3412500000  -5.812225e+001  5.701405e+001 
3415625000  -6.041880e+001  3.083870e+001 
3418750000  -5.858762e+001  3.075957e+001 
3421875000  -6.151354e+001  2.601204e+001 
3425000000  -6.067568e+001  3.604496e+001 
3428125000  -5.936479e+001  1.420537e+001 
3431250000  -6.249735e+001  -4.090682e+000 
3434375000  -5.951273e+001  -2.225856e+001 
3437500000  -6.430721e+001  -3.551633e+001 
3440625000  -5.978791e+001  -1.586484e+001 
3443750000  -6.122867e+001  -2.983698e+001 
3446875000  -6.168831e+001  -5.278855e+001 
3450000000  -6.333144e+001  -6.831828e+001 
3453125000  -6.605768e+001  -7.364538e+001 
3456250000  -6.520412e+001  -1.049620e+002 
3459375000  -6.618275e+001  -7.991729e+001 
3462500000  -6.500658e+001  -1.046086e+002 
3465625000  -6.595492e+001  -1.235228e+002 
3468750000  -6.403479e+001  -1.553141e+002 
3471875000  -6.696001e+001  -8.788379e+001 
3475000000  -6.773384e+001  -1.175065e+002 
3478125000  -7.170169e+001  -1.099351e+002 
3481250000  -7.042332e+001  -1.494023e+002 
3484375000  -6.471928e+001  -1.235516e+002 
3487500000  -6.596621e+001  -1.193126e+002 
3490625000  -6.598121e+001  -1.322668e+002 
3493750000  -6.694917e+001  -1.539044e+002 
3496875000  -7.071292e+001  -1.477853e+002 
3500000000  -6.437079e+001  -1.766928e+002 
3503125000  -6.631061e+001  -1.492256e+002 
3506250000  -6.630531e+001  1.599353e+002 
3509375000  -6.668908e+001  -1.775932e+002 
3512500000  -6.593563e+001  1.486935e+002 
3515625000  -6.924107e+001  1.434880e+002 
3518750000  -6.680186e+001  1.474879e+002 
3521875000  -6.553990e+001  1.335307e+002 
3525000000  -7.062479e+001  9.755309e+001 
3528125000  -6.499570e+001  1.391156e+002 
3531250000  -6.507263e+001  1.110565e+002 
3534375000  -6.648206e+001  1.194235e+002 
3537500000  -6.563568e+001  8.897817e+001 
3540625000  -6.567558e+001  8.655547e+001 
3543750000  -7.479250e+001  1.494883e+002 
3546875000  -7.032152e+001  5.696254e+001 
3550000000  -7.095876e+001  8.583405e+001 
3553125000  -7.023656e+001  2.843786e+001 
3556250000  -7.527768e+001  3.670078e+001 
3559375000  -6.650981e+001  2.839407e+001 
3562500000  -7.673625e+001  5.989379e+001 
3565625000  -7.069749e+001  1.843583e+001 
3568750000  -8.577612e+001  4.349143e+001 
3571875000  -6.971999e+001  4.595488e+000 
3575000000  -7.281937e+001  -1.029926e+001 
3578125000  -6.876054e+001  3.893711e+001 
3581250000  -8.245972e+001  -6.094150e+001 
3584375000  -7.163705e+001  -6.190903e+001 
3587500000  -7.593266e+001  2.238992e+001 
3590625000  -6.757371e+001  3.636239e+001 
3593750000  -6.914934e+001  -3.046281e+001 
3596875000  -6.725890e+001  5.482082e+000 
3600000000  -6.729061e+001  1.029480e+001 
3603125000  -6.568626e+001  -2.250588e+001 
3606250000  -6.267684e+001  -3.358047e+001 
3609375000  -6.605340e+001  -4.496257e+001 
3612500000  -6.420103e+001  -7.632582e+001 
3615625000  -7.280979e+001  -5.967285e+001 
3618750000  -6.584098e+001  -6.672097e+001 
3621875000  -6.290431e+001  -1.014565e+002 
3625000000  -6.242539e+001  -8.745415e+001 
3628125000  -6.209383e+001  -1.073762e+002 
3631250000  -6.598476e+001  -1.436909e+002 
3634375000  -6.586499e+001  -1.225301e+002 
3637500000  -6.496909e+001  -9.130849e+001 
3640625000  -6.320499e+001  -1.403572e+002 
3643750000  -6.432891e+001  -1.604740e+002 
3646875000  -6.126635e+001  -1.784690e+002 
3650000000  -6.449429e+001  -1.762749e+002 
3653125000  -6.419207e+001  -1.559174e+002 
3656250000  -6.748563e+001  1.759226e+002 
3659375000  -6.470162e+001  1.582525e+002 
3662500000  -6.245838e+001  1.482573e+002 
3665625000  -6.522736e+001  1.688047e+002 
3668750000  -6.170193e+001  1.338330e+002 
3671875000  -6.461546e+001  1.180633e+002 
3675000000  -6.424754e+001  1.031322e+002 
3678125000  -6.268777e+001  1.029000e+002 
3681250000  -6.248390e+001  1.066399e+002 
3684375000  -6.361479e+001  8.035764e+001 
3687500000  -6.608099e+001  8.516462e+001 
3690625000  -6.485219e+001  7.844685e+001 
3693750000  -6.170740e+001  7.884377e+001 
3696875000  -6.462860e+001  8.186504e+001 
3700000000  -6.554896e+001  7.150272e+001 
3703125000  -6.488075e+001  8.395033e+001 
3706250000  -6.283826e+001  3.486558e+001 
3709375000  -6.699893e+001  1.021806e+001 
3712500000  -6.118157e+001  5.382460e+001 
3715625000  -6.162608e+001  4.638692e+001 
3718750000  -6.107908e+001  3.185449e+001 
3721875000  -6.079652e+001  2.553474e+001 
3725000000  -6.267059e+001  1.622484e+001 
3728125000  -5.920532e+001  1.261265e+001 
3731250000  -5.876271e+001  8.013560e+000 
3734375000  -6.051984e+001  -9.630568e+000 
3737500000  -5.831108e+001  -3.500834e+001 
3740625000  -5.870693e+001  -3.604137e+001 
3743750000  -5.772214e+001  -6.054134e+001 
3746875000  -5.865750e+001  -6.322366e+001 
3750000000  -5.780000e+001  -7.872134e+001 
3753125000  -5.736924e+001  -6.825218e+001 
3756250000  -5.850588e+001  -9.951854e+001 
3759375000  -5.925259e+001  -1.125352e+002 
3762500000  -6.035698e+001  -1.180287e+002 
3765625000  -5.730799e+001  -1.127482e+002 
3768750000  -5.798055e+001  -1.333791e+002 
3771875000  -5.655997e+001  -1.424049e+002 
3775000000  -5.556089e+001  -1.593340e+002 
3778125000  -5.887798e+001  1.796761e+002 
3781250000  -5.711607e+001  -1.795117e+002 
3784375000  -5.688646e+001  1.569182e+002 
3787500000  -5.868057e+001  1.547634e+002 
3790625000  -5.721031e+001  1.495863e+002 
3793750000  -6.046955e+001  1.310988e+002 
3796875000  -5.668753e+001  1.351811e+002 
3800000000  -5.303833e+001  8.401975e+001 
3803125000  -5.813496e+001  9.740129e+001 
3806250000  -5.726902e+001  7.820822e+001 
3809375000  -5.917077e+001  8.066522e+001 
3812500000  -5.820148e+001  5.796510e+001 
3815625000  -5.942889e+001  4.472951e+001 
3818750000  -6.178611e+001  4.383605e+001 
3821875000  -6.274232e+001  4.903510e+001 
3825000000  -5.746232e+001  4.611055e+001 
3828125000  -5.961175e+001  3.064970e+001 
3831250000  -5.728276e+001  -7.596447e+000 
3834375000  -6.285884e+001  -2.528363e+000 
3837500000  -6.410564e+001  -1.394025e+001 
3840625000  -6.137243e+001  -1.245853e+001 
3843750000  -6.012656e+001  1.653163e+000 
3846875000  -6.122318e+001  -3.515994e+001 
3850000000  -6.582439e+001  -1.515083e+001 
3853125000  -6.092349e+001  -4.047140e+001 
3856250000  -6.227490e+001  -9.738638e+000 
3859375000  -6.015176e+001  -3.993019e+001 
3862500000  -6.033002e+001  -3.739786e+001 
3865625000  -5.856815e+001  -4.221516e+001 
3868750000  -6.005434e+001  -3.189357e+001 
3871875000  -5.652456e+001  -5.541250e+001 
3875000000  -6.011361e+001  -7.317669e+001 
3878125000  -5.799509e+001  -8.349738e+001 
3881250000  -5.842586e+001  -9.614603e+001 
3884375000  -5.683419e+001  -9.604080e+001 
3887500000  -5.557188e+001  -1.209253e+002 
3890625000  -5.645379e+001  -1.105414e+002 
3893750000  -5.527243e+001  -1.297086e+002 
3896875000  -5.621657e+001  -1.333709e+002 
3900000000  -5.588235e+001  -1.511512e+002 
3903125000  -5.549941e+001  -1.568396e+002 
3906250000  -5.437614e+001  -1.686869e+002 
3909375000  -5.295710e+001  1.759019e+002 
3912500000  -5.443680e+001  1.662901e+002 
3915625000  -5.687599e+001  1.522212e+002 
3918750000  -5.472309e+001  1.550109e+002 
3921875000  -5.464015e+001  1.355022e+002 
3925000000  -5.194442e+001  1.249670e+002 
3928125000  -5.389441e+001  1.140131e+002 
3931250000  -5.339021e+001  1.080180e+002 
3934375000  -5.450440e+001  9.014972e+001 
3937500000  -5.548983e+001  8.605524e+001 
3940625000  -5.366773e+001  8.489366e+001 
3943750000  -5.356626e+001  6.661227e+001 
3946875000  -5.315298e+001  5.515086e+001 
3950000000  -5.508782e+001  3.911905e+001 
3953125000  -5.574779e+001  3.468736e+001 
3956250000  -5.383121e+001  3.063420e+001 
3959375000  -5.288868e+001  1.181426e+001 
3962500000  -5.312912e+001  -1.358204e+001 
3965625000  -5.484223e+001  -1.936036e+001 
3968750000  -5.433716e+001  -3.102853e+001 
3971875000  -5.437239e+001  -4.259191e+001 
3975000000  -5.412799e+001  -5.032124e+001 
3978125000  -5.383320e+001  -5.737109e+001 
3981250000  -5.518551e+001  -7.117343e+001 
3984375000  -5.601224e+001  -7.934845e+001 
3987500000  -5.579928e+001  -9.498296e+001 
3990625000  -5.709676e+001  -1.116550e+002 
3993750000  -5.737705e+001  -1.139469e+002 
3996875000  -5.837731e+001  -1.231135e+002 
4000000000  -6.068968e+001  -1.354105e+002 
4003125000  -5.999792e+001  -1.267085e+002 
4006250000  -5.659016e+001  -1.492993e+002 
4009375000  -5.587101e+001  -1.498009e+002 
4012500000  -5.835158e+001  -1.595346e+002 
4015625000  -5.983550e+001  -1.600510e+002 
4018750000  -5.920134e+001  -1.545618e+002 
4021875000  -5.784176e+001  -1.738685e+002 
4025000000  -6.029597e+001  1.757934e+002 
4028125000  -5.941695e+001  1.705666e+002 
4031250000  -5.920237e+001  1.681455e+002 
4034375000  -6.349965e+001  1.652728e+002 
4037500000  -5.969149e+001  1.430996e+002 
4040625000  -5.878283e+001  1.578338e+002 
4043750000  -5.872451e+001  1.555598e+002 
4046875000  -5.833965e+001  1.407994e+002 
4050000000  -5.797351e+001  1.168243e+002 
4053125000  -5.759498e+001  1.181320e+002 
4056250000  -5.836953e+001  1.241667e+002 
4059375000  -5.643520e+001  1.065137e+002 
4062500000  -5.605607e+001  9.370063e+001 
4065625000  -5.428618e+001  9.384444e+001 
4068750000  -5.413103e+001  7.203335e+001 
4071875000  -5.266073e+001  6.074060e+001 
4075000000  -5.383149e+001  4.066658e+001 
4078125000  -5.336609e+001  3.910282e+001 
4081250000  -5.307990e+001  2.942930e+001 
4084375000  -5.312290e+001  1.070840e+001 
4087500000  -5.367263e+001  -2.559967e-001 
4090625000  -5.339968e+001  -5.967124e+000 
4093750000  -5.199733e+001  -2.152219e+001 
4096875000  -5.290337e+001  -3.520798e+001 
4100000000  -5.420776e+001  -4.962891e+001 
4103125000  -5.524986e+001  -4.610752e+001 
4106250000  -5.554241e+001  -4.902099e+001 
4109375000  -5.295562e+001  -5.871134e+001 
4112500000  -5.169881e+001  -8.065628e+001 
4115625000  -5.347548e+001  -8.246301e+001 
4118750000  -5.236255e+001  -1.007374e+002 
4121875000  -5.334086e+001  -1.244403e+002 
4125000000  -5.309676e+001  -1.173184e+002 
4128125000  -5.453888e+001  -1.322192e+002 
4131250000  -5.327807e+001  -1.293877e+002 
4134375000  -5.032471e+001  -1.554323e+002 
4137500000  -5.149114e+001  -1.738553e+002 
4140625000  -5.287016e+001  1.657304e+002 
4143750000  -5.763758e+001  1.698286e+002 
4146875000  -5.327160e+001  1.702673e+002 
4150000000  -5.431217e+001  1.511436e+002 
4153125000  -5.397025e+001  1.437137e+002 
4156250000  -5.579698e+001  1.286998e+002 
4159375000  -5.619696e+001  1.307990e+002 
4162500000  -5.564820e+001  1.185697e+002 
4165625000  -5.385374e+001  1.202372e+002 
4168750000  -5.530668e+001  8.970323e+001 
4171875000  -5.619719e+001  8.481171e+001 
4175000000  -5.616400e+001  6.240297e+001 
4178125000  -5.780893e+001  5.962080e+001 
4181250000  -5.686591e+001  4.178099e+001 
4184375000  -5.924319e+001  3.962522e+001 
4187500000  -5.813167e+001  3.627091e+001 
4190625000  -6.089167e+001  1.913968e+001 
4193750000  -5.899477e+001  1.413501e+000 
4196875000  -6.113454e+001  9.768399e+000 
4200000000  -6.773978e+001  3.996222e+001 
4203125000  -6.640254e+001  1.301624e+001 
4206250000  -5.779018e+001  2.088881e+001 
4209375000  -6.119647e+001  -8.034198e+000 
4212500000  -6.280874e+001  6.250373e+000 
4215625000  -6.513103e+001  1.198302e+000 
4218750000  -6.368065e+001  4.003657e+001 
4221875000  -6.046635e+001  -6.907848e+000 
4225000000  -6.107534e+001  -2.581324e+001 
4228125000  -6.177501e+001  -2.419987e+001 
4231250000  -5.838990e+001  -2.591186e+001 
4234375000  -5.905424e+001  -5.439369e+001 
4237500000  -5.674553e+001  -4.561096e+001 
4240625000  -5.483297e+001  -6.574492e+001 
4243750000  -5.927164e+001  -6.648817e+001 
4246875000  -5.545035e+001  -7.431429e+001 
4250000000  -5.540635e+001  -8.013668e+001 
4253125000  -5.349559e+001  -8.522817e+001 
4256250000  -5.573441e+001  -1.062449e+002 
4259375000  -5.360295e+001  -1.086011e+002 
4262500000  -5.371621e+001  -1.259422e+002 
4265625000  -5.309790e+001  -1.207600e+002 
4268750000  -5.339471e+001  -1.462248e+002 
4271875000  -5.127249e+001  -1.553584e+002 
4275000000  -5.144414e+001  -1.795954e+002 
4278125000  -5.339590e+001  1.734877e+002 
4281250000  -5.347089e+001  1.602512e+002 
4284375000  -5.413240e+001  1.480045e+002 
4287500000  -5.649988e+001  1.487231e+002 
4290625000  -5.522563e+001  1.470307e+002 
4293750000  -5.341418e+001  1.356552e+002 
4296875000  -5.176820e+001  1.227744e+002 
4300000000  -5.286839e+001  1.087555e+002 
4303125000  -5.355484e+001  9.672996e+001 
4306250000  -5.282608e+001  1.019176e+002 
4309375000  -5.177387e+001  8.546526e+001 
4312500000  -5.145374e+001  5.781773e+001 
4315625000  -5.254958e+001  5.692310e+001 
4318750000  -5.353910e+001  4.082991e+001 
4321875000  -5.247045e+001  3.495440e+001 
4325000000  -5.360495e+001  2.760292e+001 
4328125000  -5.181962e+001  1.282667e+001 
4331250000  -5.361876e+001  -4.444088e+000 
4334375000  -5.371743e+001  -9.917954e+000 
4337500000  -5.536022e+001  -4.453651e+001 
4340625000  -5.551627e+001  -2.752707e+001 
4343750000  -5.536706e+001  -3.138192e+001 
4346875000  -5.566092e+001  -4.918166e+001 
4350000000  -5.481711e+001  -6.962870e+001 
4353125000  -5.663686e+001  -7.216078e+001 
4356250000  -5.828733e+001  -6.456152e+001 
4359375000  -6.010538e+001  -5.352908e+001 
4362500000  -5.409558e+001  -6.791597e+001 
4365625000  -5.484385e+001  -8.929449e+001 
4368750000  -5.429737e+001  -1.026851e+002 
4371875000  -5.721384e+001  -1.055742e+002 
4375000000  -5.675572e+001  -1.033038e+002 
4378125000  -5.529685e+001  -1.247974e+002 
4381250000  -5.930244e+001  -1.274145e+002 
4384375000  -5.798157e+001  -1.470849e+002 
4387500000  -5.636634e+001  -1.426536e+002 
4390625000  -6.002364e+001  -1.488219e+002 
4393750000  -5.689680e+001  -1.480466e+002 
4396875000  -5.579887e+001  -1.527961e+002 
4400000000  -5.759406e+001  1.693636e+002 
4403125000  -5.663222e+001  1.688469e+002 
4406250000  -5.504581e+001  -1.762539e+002 
4409375000  -5.669531e+001  1.569368e+002 
4412500000  -5.924423e+001  1.510856e+002 
4415625000  -5.599207e+001  1.503032e+002 
4418750000  -5.472327e+001  1.631406e+002 
