!Agilent Technologies,E8363B,MY43030201,A.06.04.32
!Agilent E8363B: A.06.04.32
!Date: Tuesday, November 11, 2014 22:14:25
!Correction: S21(Response(S21)) 
!S1P File: Measurement: S21:
# Hz S  dB   R 50
3000000000  -4.896191e+001  -7.230036e+001 
3003125000  -5.181728e+001  -7.807713e+001 
3006250000  -5.156301e+001  -8.735623e+001 
3009375000  -5.224139e+001  -8.498233e+001 
3012500000  -5.092374e+001  -9.996323e+001 
3015625000  -5.117924e+001  -1.037360e+002 
3018750000  -5.130019e+001  -1.100719e+002 
3021875000  -5.021591e+001  -1.159372e+002 
3025000000  -4.869866e+001  -1.272298e+002 
3028125000  -4.831176e+001  -1.441918e+002 
3031250000  -4.727151e+001  -1.623820e+002 
3034375000  -4.730138e+001  -1.790077e+002 
3037500000  -4.808969e+001  1.666140e+002 
3040625000  -4.897033e+001  1.528970e+002 
3043750000  -4.966082e+001  1.432985e+002 
3046875000  -5.101831e+001  1.308046e+002 
3050000000  -5.143125e+001  1.265661e+002 
3053125000  -5.139531e+001  1.224550e+002 
3056250000  -5.109755e+001  1.214295e+002 
3059375000  -5.070002e+001  1.127842e+002 
3062500000  -4.955662e+001  1.002027e+002 
3065625000  -4.911325e+001  9.052082e+001 
3068750000  -4.875637e+001  7.779571e+001 
3071875000  -4.910305e+001  6.608582e+001 
3075000000  -4.860849e+001  5.506453e+001 
3078125000  -4.846445e+001  4.479851e+001 
3081250000  -4.885605e+001  3.512177e+001 
3084375000  -4.779264e+001  2.591945e+001 
3087500000  -4.826906e+001  1.394769e+001 
3090625000  -4.804649e+001  -4.765207e+000 
3093750000  -4.903825e+001  -1.694020e+001 
3096875000  -4.905368e+001  -2.120362e+001 
3100000000  -4.923000e+001  -3.162098e+001 
3103125000  -4.972668e+001  -3.934032e+001 
3106250000  -4.926451e+001  -5.084479e+001 
3109375000  -4.962928e+001  -6.090256e+001 
3112500000  -4.939374e+001  -6.886055e+001 
3115625000  -4.928747e+001  -7.925036e+001 
3118750000  -4.913346e+001  -8.673962e+001 
3121875000  -4.922542e+001  -1.013118e+002 
3125000000  -5.130131e+001  -1.083026e+002 
3128125000  -5.095337e+001  -1.036930e+002 
3131250000  -4.866148e+001  -1.204431e+002 
3134375000  -4.783667e+001  -1.388983e+002 
3137500000  -4.924014e+001  -1.546718e+002 
3140625000  -4.963859e+001  -1.614340e+002 
3143750000  -5.062720e+001  -1.700908e+002 
3146875000  -4.993941e+001  -1.742240e+002 
3150000000  -4.897911e+001  -1.785890e+002 
3153125000  -4.897602e+001  1.661316e+002 
3156250000  -5.047358e+001  1.645892e+002 
3159375000  -4.797241e+001  1.623959e+002 
3162500000  -4.607740e+001  1.352366e+002 
3165625000  -4.764562e+001  1.196412e+002 
3168750000  -4.710639e+001  1.160697e+002 
3171875000  -4.721822e+001  1.047392e+002 
3175000000  -4.726951e+001  9.174645e+001 
3178125000  -4.745848e+001  8.434278e+001 
3181250000  -4.690577e+001  6.865443e+001 
3184375000  -4.658446e+001  5.282682e+001 
3187500000  -4.789970e+001  3.483410e+001 
3190625000  -4.894101e+001  2.026648e+001 
3193750000  -4.988503e+001  2.369826e+001 
3196875000  -4.943435e+001  1.723869e+001 
3200000000  -4.826811e+001  8.047547e+000 
3203125000  -4.802389e+001  -4.709504e+000 
3206250000  -4.884921e+001  -1.770168e+001 
3209375000  -4.808588e+001  -3.108002e+001 
3212500000  -4.836556e+001  -3.900983e+001 
3215625000  -4.854624e+001  -4.515233e+001 
3218750000  -4.977956e+001  -6.517051e+001 
3221875000  -4.944360e+001  -7.629923e+001 
3225000000  -4.920809e+001  -8.264360e+001 
3228125000  -5.071834e+001  -9.287468e+001 
3231250000  -5.048627e+001  -1.016404e+002 
3234375000  -4.994752e+001  -1.100459e+002 
3237500000  -5.061621e+001  -1.171215e+002 
3240625000  -4.997546e+001  -1.284908e+002 
3243750000  -4.950901e+001  -1.420952e+002 
3246875000  -5.020385e+001  -1.529395e+002 
3250000000  -5.087355e+001  -1.668782e+002 
3253125000  -5.110736e+001  -1.657403e+002 
3256250000  -4.975004e+001  1.736745e+002 
3259375000  -5.171708e+001  1.569916e+002 
3262500000  -5.217483e+001  1.497059e+002 
3265625000  -5.212210e+001  1.463335e+002 
3268750000  -5.289127e+001  1.432260e+002 
3271875000  -5.267634e+001  1.382399e+002 
3275000000  -5.235221e+001  1.199409e+002 
3278125000  -5.212855e+001  1.100030e+002 
3281250000  -5.360902e+001  1.018488e+002 
3284375000  -5.210999e+001  9.256507e+001 
3287500000  -5.337840e+001  8.223163e+001 
3290625000  -5.309262e+001  7.237356e+001 
3293750000  -5.313984e+001  6.305941e+001 
3296875000  -5.392064e+001  6.001062e+001 
3300000000  -5.518626e+001  4.683037e+001 
3303125000  -5.257027e+001  4.115677e+001 
3306250000  -5.307340e+001  3.064382e+001 
3309375000  -5.205742e+001  1.461433e+001 
3312500000  -5.309684e+001  -3.655626e+000 
3315625000  -5.462985e+001  -1.353955e+001 
3318750000  -5.577166e+001  -2.422758e+001 
3321875000  -5.938698e+001  -2.660495e+001 
3325000000  -5.741449e+001  -2.047909e+001 
3328125000  -5.593074e+001  -2.095006e+001 
3331250000  -5.329972e+001  -2.626632e+001 
3334375000  -5.116888e+001  -4.440998e+001 
3337500000  -5.266334e+001  -6.892925e+001 
3340625000  -5.360867e+001  -8.635599e+001 
3343750000  -5.622952e+001  -8.667570e+001 
3346875000  -5.561441e+001  -9.592091e+001 
3350000000  -5.411589e+001  -9.937203e+001 
3353125000  -5.429494e+001  -1.215255e+002 
3356250000  -5.471458e+001  -1.256840e+002 
3359375000  -5.477834e+001  -1.502510e+002 
3362500000  -5.675157e+001  -1.490670e+002 
3365625000  -5.667624e+001  -1.498550e+002 
3368750000  -5.683477e+001  -1.726686e+002 
3371875000  -5.692808e+001  -1.722682e+002 
3375000000  -5.838353e+001  1.651537e+002 
3378125000  -6.019224e+001  1.656245e+002 
3381250000  -6.114111e+001  1.678742e+002 
3384375000  -5.662608e+001  -1.788570e+002 
3387500000  -5.374467e+001  1.463339e+002 
3390625000  -5.608147e+001  1.235982e+002 
3393750000  -5.830692e+001  1.222595e+002 
3396875000  -5.679235e+001  1.228496e+002 
3400000000  -5.461889e+001  9.454093e+001 
3403125000  -5.747717e+001  8.549503e+001 
3406250000  -5.644765e+001  8.058554e+001 
3409375000  -5.668855e+001  5.253418e+001 
3412500000  -5.810250e+001  5.365769e+001 
3415625000  -6.105588e+001  5.195024e+001 
3418750000  -5.973652e+001  3.558032e+001 
3421875000  -5.912595e+001  3.124030e+001 
3425000000  -6.024629e+001  2.523764e+001 
3428125000  -5.809261e+001  2.874910e+000 
3431250000  -6.101227e+001  -1.594654e+000 
3434375000  -6.007056e+001  -2.806167e+001 
3437500000  -6.281411e+001  -1.963905e+001 
3440625000  -6.153689e+001  -2.619874e+001 
3443750000  -6.183967e+001  -7.463426e+000 
3446875000  -6.026307e+001  -5.772617e+001 
3450000000  -6.147821e+001  -7.400755e+001 
3453125000  -6.361068e+001  -6.735303e+001 
3456250000  -6.473296e+001  -9.932740e+001 
3459375000  -6.662357e+001  -7.782141e+001 
3462500000  -6.670486e+001  -8.745084e+001 
3465625000  -6.597132e+001  -9.675811e+001 
3468750000  -6.503454e+001  -1.039724e+002 
3471875000  -6.287302e+001  -1.040085e+002 
3475000000  -6.660870e+001  -1.207207e+002 
3478125000  -6.644827e+001  -1.054321e+002 
3481250000  -7.968820e+001  1.354111e+002 
3484375000  -6.665853e+001  -1.013475e+002 
3487500000  -6.810714e+001  -1.312867e+002 
3490625000  -7.020252e+001  -1.637518e+002 
3493750000  -6.800658e+001  -1.438157e+002 
3496875000  -6.565823e+001  -1.575453e+002 
3500000000  -6.388848e+001  -1.712810e+002 
3503125000  -6.552981e+001  -1.669508e+002 
3506250000  -6.634789e+001  -1.764843e+002 
3509375000  -6.558202e+001  1.705756e+002 
3512500000  -6.711723e+001  1.200901e+002 
3515625000  -6.865283e+001  1.503417e+002 
3518750000  -6.495915e+001  1.550302e+002 
3521875000  -6.717416e+001  1.483665e+002 
3525000000  -6.456052e+001  1.290441e+002 
3528125000  -6.512387e+001  1.270764e+002 
3531250000  -6.642110e+001  1.498728e+002 
3534375000  -6.996720e+001  1.083087e+002 
3537500000  -6.583717e+001  4.367677e+001 
3540625000  -7.096333e+001  2.400475e+001 
3543750000  -6.818944e+001  8.266501e+001 
3546875000  -7.619971e+001  5.096340e+001 
3550000000  -6.843674e+001  1.047133e+002 
3553125000  -6.509514e+001  4.915445e+001 
3556250000  -7.995701e+001  9.681032e+001 
3559375000  -6.614098e+001  1.276148e+001 
3562500000  -7.111732e+001  2.153891e+001 
3565625000  -7.127558e+001  4.268962e+001 
3568750000  -7.808028e+001  -4.406918e+001 
3571875000  -7.133327e+001  5.814084e+001 
3575000000  -7.699979e+001  -6.552071e+001 
3578125000  -6.756168e+001  2.099111e+001 
3581250000  -8.282050e+001  6.489862e+001 
3584375000  -7.140176e+001  8.260852e+001 
3587500000  -7.727591e+001  3.998381e+001 
3590625000  -7.268391e+001  5.514112e+001 
3593750000  -7.069226e+001  3.239436e+001 
3596875000  -7.256224e+001  3.990051e+001 
3600000000  -6.776370e+001  7.389375e+000 
3603125000  -6.902269e+001  -8.660396e+000 
3606250000  -6.233792e+001  -2.547752e+001 
3609375000  -6.792462e+001  -3.819987e+001 
3612500000  -6.605372e+001  -3.661824e+001 
3615625000  -6.891419e+001  -2.934322e+001 
3618750000  -6.749378e+001  -7.980441e+001 
3621875000  -6.191797e+001  -8.059325e+001 
3625000000  -6.677670e+001  -5.746834e+001 
3628125000  -6.577545e+001  -1.042393e+002 
3631250000  -6.508853e+001  -1.255058e+002 
3634375000  -6.400864e+001  -1.210892e+002 
3637500000  -6.341996e+001  -1.442948e+002 
3640625000  -6.300023e+001  -1.119446e+002 
3643750000  -6.288273e+001  -1.440952e+002 
3646875000  -6.155136e+001  -1.709313e+002 
3650000000  -6.664976e+001  -1.713523e+002 
3653125000  -6.249938e+001  1.678603e+002 
3656250000  -6.469526e+001  1.625548e+002 
3659375000  -6.354863e+001  -1.731089e+002 
3662500000  -6.362988e+001  1.453055e+002 
3665625000  -6.302119e+001  1.429757e+002 
3668750000  -6.264822e+001  1.189598e+002 
3671875000  -6.321274e+001  1.418105e+002 
3675000000  -6.551871e+001  7.090067e+001 
3678125000  -6.274295e+001  1.090230e+002 
3681250000  -6.065429e+001  9.736153e+001 
3684375000  -6.783387e+001  9.368587e+001 
3687500000  -6.402085e+001  8.611214e+001 
3690625000  -6.828106e+001  7.149944e+001 
3693750000  -6.826510e+001  8.683077e+001 
3696875000  -6.299656e+001  8.472093e+001 
3700000000  -6.307846e+001  9.183960e+001 
3703125000  -6.659888e+001  3.607017e+001 
3706250000  -6.566614e+001  6.119514e+001 
3709375000  -6.391254e+001  4.634896e+001 
3712500000  -6.146049e+001  7.369818e+001 
3715625000  -6.246454e+001  4.591520e+001 
3718750000  -6.078232e+001  2.665361e+001 
3721875000  -5.810378e+001  1.969635e+001 
3725000000  -6.082668e+001  1.704457e+001 
3728125000  -5.949439e+001  1.316597e+001 
3731250000  -5.981496e+001  3.720193e+000 
3734375000  -5.828963e+001  -1.113631e+001 
3737500000  -5.896248e+001  -2.985392e+001 
3740625000  -5.926908e+001  -3.667217e+001 
3743750000  -5.786066e+001  -5.092672e+001 
3746875000  -5.811010e+001  -7.050325e+001 
3750000000  -5.760727e+001  -8.087640e+001 
3753125000  -5.774186e+001  -8.377139e+001 
3756250000  -5.847631e+001  -9.008806e+001 
3759375000  -5.854190e+001  -1.149606e+002 
3762500000  -5.691499e+001  -1.201994e+002 
3765625000  -6.048473e+001  -1.269617e+002 
3768750000  -5.665908e+001  -1.335334e+002 
3771875000  -5.633552e+001  -1.447787e+002 
3775000000  -5.527343e+001  -1.609846e+002 
3778125000  -5.602473e+001  -1.774285e+002 
3781250000  -5.686007e+001  -1.718449e+002 
3784375000  -5.642524e+001  1.678268e+002 
3787500000  -5.546646e+001  1.499670e+002 
3790625000  -5.879872e+001  1.389827e+002 
3793750000  -5.657300e+001  1.287671e+002 
3796875000  -5.581742e+001  1.199437e+002 
3800000000  -5.330744e+001  7.995866e+001 
3803125000  -5.713431e+001  1.001399e+002 
3806250000  -6.039766e+001  7.581007e+001 
3809375000  -5.719713e+001  8.093489e+001 
3812500000  -5.733368e+001  5.816653e+001 
3815625000  -6.091410e+001  5.234034e+001 
3818750000  -5.927209e+001  4.486116e+001 
3821875000  -6.100827e+001  5.993637e+001 
3825000000  -5.932520e+001  4.900821e+001 
3828125000  -5.809627e+001  3.806999e+001 
3831250000  -5.966539e+001  1.292360e+001 
3834375000  -6.524718e+001  -1.624675e+001 
3837500000  -6.326944e+001  3.180863e+000 
3840625000  -6.129932e+001  8.319941e+000 
3843750000  -6.150607e+001  3.516205e+000 
3846875000  -6.367608e+001  -3.062690e+001 
3850000000  -6.294931e+001  8.389772e+000 
3853125000  -6.061366e+001  -5.400879e-002 
3856250000  -6.241160e+001  -2.399659e+001 
3859375000  -5.973756e+001  -2.538628e+001 
3862500000  -6.135125e+001  -3.130778e+001 
3865625000  -5.888550e+001  -5.322988e+001 
3868750000  -6.122111e+001  -3.818568e+001 
3871875000  -5.902024e+001  -5.979435e+001 
3875000000  -5.955144e+001  -8.114597e+001 
3878125000  -6.019501e+001  -7.219145e+001 
3881250000  -5.623930e+001  -9.591257e+001 
3884375000  -5.765511e+001  -9.777043e+001 
3887500000  -5.674226e+001  -1.300694e+002 
3890625000  -5.631039e+001  -1.127901e+002 
3893750000  -5.730586e+001  -1.269690e+002 
3896875000  -5.644541e+001  -1.316670e+002 
3900000000  -5.685224e+001  -1.398468e+002 
3903125000  -5.465512e+001  -1.476602e+002 
3906250000  -5.372990e+001  -1.662115e+002 
3909375000  -5.372961e+001  1.761736e+002 
3912500000  -5.422836e+001  1.637292e+002 
3915625000  -5.541940e+001  1.532948e+002 
3918750000  -5.472416e+001  1.579462e+002 
3921875000  -5.451615e+001  1.412572e+002 
3925000000  -5.301733e+001  1.335118e+002 
3928125000  -5.256904e+001  1.074769e+002 
3931250000  -5.507399e+001  1.058551e+002 
3934375000  -5.450448e+001  8.940527e+001 
3937500000  -5.502332e+001  8.185564e+001 
3940625000  -5.411127e+001  7.445122e+001 
3943750000  -5.417164e+001  6.731319e+001 
3946875000  -5.329630e+001  4.841139e+001 
3950000000  -5.432821e+001  3.417192e+001 
3953125000  -5.470130e+001  3.941268e+001 
3956250000  -5.479308e+001  2.828453e+001 
3959375000  -5.173515e+001  1.860750e+001 
3962500000  -5.277076e+001  -6.869763e+000 
3965625000  -5.299673e+001  -1.311716e+001 
3968750000  -5.444052e+001  -2.299818e+001 
3971875000  -5.370007e+001  -4.173072e+001 
3975000000  -5.346675e+001  -5.784829e+001 
3978125000  -5.456273e+001  -6.564877e+001 
3981250000  -5.474524e+001  -6.495827e+001 
3984375000  -5.662214e+001  -8.278945e+001 
3987500000  -5.625077e+001  -9.317744e+001 
3990625000  -5.725145e+001  -9.309940e+001 
3993750000  -5.732078e+001  -1.146323e+002 
3996875000  -5.659642e+001  -1.116113e+002 
4000000000  -5.776590e+001  -1.256705e+002 
4003125000  -5.936558e+001  -1.133454e+002 
4006250000  -5.685404e+001  -1.472272e+002 
4009375000  -5.660415e+001  -1.559322e+002 
4012500000  -5.934026e+001  -1.624302e+002 
4015625000  -6.009788e+001  -1.577633e+002 
4018750000  -6.000866e+001  -1.582280e+002 
4021875000  -5.823511e+001  -1.732395e+002 
4025000000  -5.830966e+001  1.786545e+002 
4028125000  -5.865622e+001  1.760571e+002 
4031250000  -6.110444e+001  1.689730e+002 
4034375000  -5.948251e+001  1.645761e+002 
4037500000  -5.796453e+001  1.409499e+002 
4040625000  -5.903784e+001  1.479794e+002 
4043750000  -5.838626e+001  1.606754e+002 
4046875000  -5.884891e+001  1.462831e+002 
4050000000  -5.918943e+001  1.267175e+002 
4053125000  -6.045753e+001  1.141412e+002 
4056250000  -5.722340e+001  1.088404e+002 
4059375000  -5.617361e+001  1.118605e+002 
4062500000  -5.493426e+001  1.051510e+002 
4065625000  -5.382252e+001  8.904464e+001 
4068750000  -5.515803e+001  7.883730e+001 
4071875000  -5.267781e+001  5.815246e+001 
4075000000  -5.381848e+001  4.130888e+001 
4078125000  -5.330360e+001  4.121074e+001 
4081250000  -5.253912e+001  2.428480e+001 
4084375000  -5.253669e+001  1.473824e+001 
4087500000  -5.330090e+001  -5.119092e+000 
4090625000  -5.384536e+001  2.008838e+000 
4093750000  -5.302974e+001  -2.051180e+001 
4096875000  -5.254909e+001  -3.004025e+001 
4100000000  -5.262265e+001  -4.323044e+001 
4103125000  -5.635468e+001  -5.707937e+001 
4106250000  -5.340411e+001  -5.457020e+001 
4109375000  -5.288966e+001  -6.104257e+001 
4112500000  -5.283438e+001  -8.063210e+001 
4115625000  -5.372325e+001  -8.991641e+001 
4118750000  -5.351593e+001  -1.035877e+002 
4121875000  -5.321788e+001  -1.106957e+002 
4125000000  -5.455072e+001  -1.219165e+002 
4128125000  -5.638134e+001  -1.347339e+002 
4131250000  -5.462924e+001  -1.398085e+002 
4134375000  -5.079512e+001  -1.458295e+002 
4137500000  -5.259061e+001  -1.689785e+002 
4140625000  -5.366643e+001  1.753793e+002 
4143750000  -5.629229e+001  1.734816e+002 
4146875000  -5.364358e+001  1.656181e+002 
4150000000  -5.428736e+001  1.611288e+002 
4153125000  -5.401578e+001  1.435234e+002 
4156250000  -5.538715e+001  1.232569e+002 
4159375000  -5.678928e+001  1.210411e+002 
4162500000  -5.692678e+001  1.074724e+002 
4165625000  -5.457322e+001  1.096008e+002 
4168750000  -5.565103e+001  8.828714e+001 
4171875000  -5.471672e+001  8.332878e+001 
4175000000  -5.538040e+001  6.016108e+001 
4178125000  -5.700058e+001  7.381810e+001 
4181250000  -5.892976e+001  5.698048e+001 
4184375000  -5.803495e+001  3.583748e+001 
4187500000  -5.711856e+001  2.796136e+001 
4190625000  -6.250785e+001  2.165526e+001 
4193750000  -6.193751e+001  1.781039e+001 
4196875000  -6.375689e+001  1.104738e+001 
4200000000  -6.143956e+001  3.812432e+001 
4203125000  -6.637708e+001  4.966912e+000 
4206250000  -6.516508e+001  3.765900e+001 
4209375000  -6.152983e+001  1.821074e+000 
4212500000  -6.217067e+001  -8.512456e+000 
4215625000  -7.110677e+001  -3.333741e+000 
4218750000  -5.972040e+001  2.224578e+000 
4221875000  -6.017060e+001  -4.013926e+001 
4225000000  -6.147179e+001  -2.536141e+001 
4228125000  -5.742607e+001  -3.656357e+000 
4231250000  -6.250648e+001  -1.178557e+000 
4234375000  -5.735619e+001  -2.144995e+001 
4237500000  -5.923597e+001  -4.612223e+001 
4240625000  -5.490950e+001  -5.450072e+001 
4243750000  -5.778600e+001  -6.187438e+001 
4246875000  -5.634744e+001  -6.089844e+001 
4250000000  -5.680584e+001  -8.115469e+001 
4253125000  -5.366725e+001  -9.264672e+001 
4256250000  -5.886344e+001  -1.003090e+002 
4259375000  -5.638076e+001  -1.075937e+002 
4262500000  -5.505219e+001  -1.166517e+002 
4265625000  -5.526277e+001  -1.244328e+002 
4268750000  -5.210447e+001  -1.440916e+002 
4271875000  -5.173708e+001  -1.462764e+002 
4275000000  -5.139561e+001  -1.714343e+002 
4278125000  -5.420659e+001  1.655315e+002 
4281250000  -5.468104e+001  1.642126e+002 
4284375000  -5.257372e+001  1.610278e+002 
4287500000  -5.476048e+001  1.379631e+002 
4290625000  -5.593629e+001  1.528842e+002 
4293750000  -5.328803e+001  1.458648e+002 
4296875000  -5.188683e+001  1.130727e+002 
4300000000  -5.303753e+001  1.064932e+002 
4303125000  -5.351351e+001  8.872992e+001 
4306250000  -5.341309e+001  9.008313e+001 
4309375000  -5.189423e+001  8.525919e+001 
4312500000  -5.171456e+001  6.513420e+001 
4315625000  -5.121325e+001  5.435493e+001 
4318750000  -5.336683e+001  3.731380e+001 
4321875000  -5.348838e+001  4.594331e+001 
4325000000  -5.347901e+001  3.091450e+001 
4328125000  -5.170565e+001  1.724975e+001 
4331250000  -5.230129e+001  2.486066e-001 
4334375000  -5.457954e+001  -2.214933e+001 
4337500000  -5.501644e+001  -2.274266e+001 
4340625000  -5.564317e+001  -2.884379e+001 
4343750000  -5.491697e+001  -4.042521e+001 
4346875000  -5.647868e+001  -3.948231e+001 
4350000000  -5.395730e+001  -4.744327e+001 
4353125000  -5.509105e+001  -6.214750e+001 
4356250000  -5.623350e+001  -6.372137e+001 
4359375000  -5.888111e+001  -2.518757e+001 
4362500000  -5.552563e+001  -7.431182e+001 
4365625000  -5.470965e+001  -9.787045e+001 
4368750000  -5.599053e+001  -9.457133e+001 
4371875000  -5.616529e+001  -1.030043e+002 
4375000000  -5.578508e+001  -1.247902e+002 
4378125000  -5.703930e+001  -1.247183e+002 
4381250000  -5.542365e+001  -1.360700e+002 
4384375000  -5.814942e+001  -1.310294e+002 
4387500000  -5.776635e+001  -1.392358e+002 
4390625000  -5.518130e+001  -1.526281e+002 
4393750000  -5.815199e+001  -1.427857e+002 
4396875000  -5.562999e+001  -1.629146e+002 
4400000000  -5.613147e+001  -1.691851e+002 
4403125000  -5.640678e+001  1.733272e+002 
4406250000  -5.716512e+001  1.722771e+002 
4409375000  -5.562867e+001  1.686459e+002 
4412500000  -5.673102e+001  1.575066e+002 
4415625000  -5.534872e+001  1.592682e+002 
4418750000  -5.494760e+001  1.556696e+002 
