!Agilent Technologies,E8363B,MY43030201,A.06.04.32
!Agilent E8363B: A.06.04.32
!Date: Tuesday, November 11, 2014 22:09:52
!Correction: S21(Response(S21)) 
!S1P File: Measurement: S21:
# Hz S  dB   R 50
3000000000  -4.888677e+001  -7.571922e+001 
3003125000  -5.179644e+001  -8.278850e+001 
3006250000  -5.138409e+001  -8.909319e+001 
3009375000  -5.243058e+001  -8.887251e+001 
3012500000  -5.074038e+001  -1.002130e+002 
3015625000  -5.161735e+001  -1.112306e+002 
3018750000  -5.169787e+001  -1.154780e+002 
3021875000  -5.000582e+001  -1.224240e+002 
3025000000  -4.858096e+001  -1.320781e+002 
3028125000  -4.807474e+001  -1.474537e+002 
3031250000  -4.730688e+001  -1.626805e+002 
3034375000  -4.714886e+001  1.793402e+002 
3037500000  -4.800669e+001  1.664835e+002 
3040625000  -4.913301e+001  1.494830e+002 
3043750000  -4.929581e+001  1.422226e+002 
3046875000  -5.048907e+001  1.278750e+002 
3050000000  -5.172731e+001  1.245686e+002 
3053125000  -5.105610e+001  1.202250e+002 
3056250000  -5.171648e+001  1.175419e+002 
3059375000  -5.093975e+001  1.080367e+002 
3062500000  -4.963449e+001  1.005704e+002 
3065625000  -4.877553e+001  8.669704e+001 
3068750000  -4.910832e+001  7.459148e+001 
3071875000  -4.913470e+001  6.737445e+001 
3075000000  -4.841532e+001  5.456057e+001 
3078125000  -4.832335e+001  4.146864e+001 
3081250000  -4.906472e+001  3.136952e+001 
3084375000  -4.820174e+001  2.526172e+001 
3087500000  -4.844535e+001  1.110085e+001 
3090625000  -4.824456e+001  -6.489522e+000 
3093750000  -4.869614e+001  -1.804055e+001 
3096875000  -4.953934e+001  -2.696804e+001 
3100000000  -4.946506e+001  -3.581815e+001 
3103125000  -4.951997e+001  -4.269001e+001 
3106250000  -4.992774e+001  -5.262871e+001 
3109375000  -4.942185e+001  -6.250177e+001 
3112500000  -4.972540e+001  -6.961713e+001 
3115625000  -4.979954e+001  -8.156477e+001 
3118750000  -4.998915e+001  -8.759023e+001 
3121875000  -4.856734e+001  -1.014384e+002 
3125000000  -5.090311e+001  -1.093157e+002 
3128125000  -5.090234e+001  -1.119600e+002 
3131250000  -4.826298e+001  -1.177743e+002 
3134375000  -4.787518e+001  -1.441305e+002 
3137500000  -4.853030e+001  -1.545280e+002 
3140625000  -4.920316e+001  -1.610016e+002 
3143750000  -5.042771e+001  -1.737024e+002 
3146875000  -5.021317e+001  -1.728499e+002 
3150000000  -4.929117e+001  1.762148e+002 
3153125000  -4.916132e+001  1.650919e+002 
3156250000  -5.015631e+001  1.595097e+002 
3159375000  -4.794981e+001  1.574115e+002 
3162500000  -4.641877e+001  1.343868e+002 
3165625000  -4.752907e+001  1.185273e+002 
3168750000  -4.740546e+001  1.154769e+002 
3171875000  -4.693199e+001  1.035702e+002 
3175000000  -4.774430e+001  8.586332e+001 
3178125000  -4.688098e+001  8.072269e+001 
3181250000  -4.672712e+001  6.967497e+001 
3184375000  -4.681521e+001  5.096365e+001 
3187500000  -4.774326e+001  3.142748e+001 
3190625000  -4.943066e+001  2.030931e+001 
3193750000  -5.031819e+001  2.205235e+001 
3196875000  -4.982957e+001  1.547379e+001 
3200000000  -4.836370e+001  5.878219e+000 
3203125000  -4.850596e+001  -5.519586e+000 
3206250000  -4.876297e+001  -1.813141e+001 
3209375000  -4.845765e+001  -3.149253e+001 
3212500000  -4.884732e+001  -4.143708e+001 
3215625000  -4.799484e+001  -4.883024e+001 
3218750000  -4.921920e+001  -7.039645e+001 
3221875000  -4.965818e+001  -7.990759e+001 
3225000000  -4.971300e+001  -8.964676e+001 
3228125000  -4.980669e+001  -9.752551e+001 
3231250000  -5.075544e+001  -1.078543e+002 
3234375000  -5.018597e+001  -1.149424e+002 
3237500000  -5.071046e+001  -1.241535e+002 
3240625000  -5.024526e+001  -1.349375e+002 
3243750000  -4.938763e+001  -1.453763e+002 
3246875000  -5.028896e+001  -1.563412e+002 
3250000000  -5.084234e+001  -1.702735e+002 
3253125000  -5.121087e+001  -1.733989e+002 
3256250000  -5.067264e+001  1.715358e+002 
3259375000  -5.131651e+001  1.586260e+002 
3262500000  -5.257675e+001  1.471664e+002 
3265625000  -5.347189e+001  1.423233e+002 
3268750000  -5.336739e+001  1.415099e+002 
3271875000  -5.405851e+001  1.305212e+002 
3275000000  -5.167226e+001  1.190808e+002 
3278125000  -5.270562e+001  1.065537e+002 
3281250000  -5.293844e+001  1.013519e+002 
3284375000  -5.210843e+001  9.057835e+001 
3287500000  -5.344747e+001  8.411948e+001 
3290625000  -5.364255e+001  6.786908e+001 
3293750000  -5.339493e+001  5.892841e+001 
3296875000  -5.372127e+001  5.460574e+001 
3300000000  -5.450352e+001  4.686264e+001 
3303125000  -5.291867e+001  3.885495e+001 
3306250000  -5.311504e+001  2.198817e+001 
3309375000  -5.325215e+001  1.508032e+001 
3312500000  -5.263746e+001  -2.037494e+000 
3315625000  -5.512770e+001  -1.295314e+001 
3318750000  -5.414908e+001  -1.996628e+001 
3321875000  -5.715947e+001  -2.059823e+001 
3325000000  -5.527676e+001  -2.495193e+001 
3328125000  -5.728804e+001  -2.305775e+001 
3331250000  -5.337051e+001  -2.625398e+001 
3334375000  -5.157820e+001  -4.024067e+001 
3337500000  -5.262857e+001  -7.125636e+001 
3340625000  -5.385184e+001  -8.258017e+001 
3343750000  -5.668085e+001  -8.696006e+001 
3346875000  -5.596924e+001  -9.426100e+001 
3350000000  -5.421224e+001  -9.783337e+001 
3353125000  -5.399654e+001  -1.198796e+002 
3356250000  -5.518552e+001  -1.324604e+002 
3359375000  -5.495130e+001  -1.463514e+002 
3362500000  -5.559787e+001  -1.509254e+002 
3365625000  -5.665123e+001  -1.651060e+002 
3368750000  -5.716010e+001  -1.743605e+002 
3371875000  -5.701810e+001  1.797177e+002 
3375000000  -5.788186e+001  1.613207e+002 
3378125000  -5.927708e+001  1.715644e+002 
3381250000  -6.074834e+001  1.729740e+002 
3384375000  -5.568906e+001  -1.790890e+002 
3387500000  -5.444519e+001  1.416733e+002 
3390625000  -5.746825e+001  1.195855e+002 
3393750000  -5.758131e+001  1.199606e+002 
3396875000  -5.653236e+001  1.057187e+002 
3400000000  -5.550805e+001  1.008503e+002 
3403125000  -5.785661e+001  7.633035e+001 
3406250000  -5.763575e+001  7.679434e+001 
3409375000  -5.817181e+001  5.597911e+001 
3412500000  -5.815489e+001  5.757201e+001 
3415625000  -5.998473e+001  3.181275e+001 
3418750000  -5.975159e+001  4.008775e+001 
3421875000  -6.028681e+001  2.826370e+001 
3425000000  -5.758069e+001  2.624865e+001 
3428125000  -5.962634e+001  1.169151e+001 
3431250000  -6.075605e+001  -1.445510e+001 
3434375000  -6.029353e+001  -1.641509e+001 
3437500000  -6.085794e+001  -3.307498e+001 
3440625000  -5.844341e+001  -4.314975e+001 
3443750000  -6.003668e+001  -3.622171e+001 
3446875000  -6.172430e+001  -4.421049e+001 
3450000000  -6.163024e+001  -7.062733e+001 
3453125000  -6.048053e+001  -1.015687e+002 
3456250000  -6.219974e+001  -1.001936e+002 
3459375000  -6.646005e+001  -7.443627e+001 
3462500000  -6.630760e+001  -1.114971e+002 
3465625000  -6.699068e+001  -1.141216e+002 
3468750000  -6.800247e+001  -1.079174e+002 
3471875000  -6.690955e+001  -7.743867e+001 
3475000000  -6.273396e+001  -1.279586e+002 
3478125000  -6.988368e+001  -1.370480e+002 
3481250000  -8.258995e+001  -1.191945e+002 
3484375000  -6.539999e+001  -1.327155e+002 
3487500000  -6.663736e+001  -1.397411e+002 
3490625000  -6.470663e+001  -1.267296e+002 
3493750000  -7.131905e+001  -1.381287e+002 
3496875000  -7.330703e+001  -1.627209e+002 
3500000000  -6.534919e+001  1.763488e+002 
3503125000  -6.261808e+001  -1.415627e+002 
3506250000  -6.746928e+001  -1.449970e+002 
3509375000  -6.853201e+001  -1.752462e+002 
3512500000  -6.676161e+001  1.669055e+002 
3515625000  -6.491232e+001  1.510826e+002 
3518750000  -6.974223e+001  1.276181e+002 
3521875000  -6.419354e+001  1.245024e+002 
3525000000  -6.541225e+001  1.374574e+002 
3528125000  -6.827291e+001  1.793677e+002 
3531250000  -6.463904e+001  1.401778e+002 
3534375000  -6.452324e+001  9.999230e+001 
3537500000  -6.574716e+001  9.097129e+001 
3540625000  -7.671784e+001  7.083242e+001 
3543750000  -6.943983e+001  6.405665e+001 
3546875000  -7.148502e+001  9.562652e+001 
3550000000  -7.087373e+001  4.470389e+001 
3553125000  -7.032638e+001  2.984862e+001 
3556250000  -6.792125e+001  4.210923e+001 
3559375000  -6.821606e+001  3.876680e+001 
3562500000  -6.821106e+001  -8.433062e+000 
3565625000  -7.076388e+001  1.578002e+001 
3568750000  -7.192466e+001  4.822441e+001 
3571875000  -6.977779e+001  2.780481e+001 
3575000000  -7.415936e+001  1.271280e+001 
3578125000  -7.407327e+001  9.590405e+001 
3581250000  -7.926556e+001  -1.278474e+002 
3584375000  -7.449239e+001  3.781038e+001 
3587500000  -7.346365e+001  6.746944e+000 
3590625000  -6.924838e+001  -1.866618e+000 
3593750000  -7.441866e+001  6.509217e+000 
3596875000  -7.009644e+001  1.259139e+001 
3600000000  -6.780634e+001  -3.303719e+000 
3603125000  -6.424861e+001  -1.452176e+001 
3606250000  -6.716715e+001  -4.777571e+001 
3609375000  -6.352302e+001  -3.918646e+001 
3612500000  -6.662297e+001  -4.206281e+001 
3615625000  -6.632980e+001  -4.905960e+001 
3618750000  -6.618092e+001  -8.033547e+001 
3621875000  -6.597768e+001  -8.338557e+001 
3625000000  -6.584838e+001  -5.249785e+001 
3628125000  -6.163053e+001  -1.250686e+002 
3631250000  -6.183303e+001  -1.147091e+002 
3634375000  -6.272433e+001  -1.313118e+002 
3637500000  -6.388579e+001  -1.034050e+002 
3640625000  -6.239719e+001  -1.249605e+002 
3643750000  -6.293048e+001  -1.557464e+002 
3646875000  -6.039392e+001  -1.733293e+002 
3650000000  -6.529301e+001  -1.727550e+002 
3653125000  -6.584824e+001  1.610733e+002 
3656250000  -6.438475e+001  1.465749e+002 
3659375000  -6.314135e+001  1.788575e+002 
3662500000  -6.022383e+001  1.345148e+002 
3665625000  -5.981158e+001  1.633277e+002 
3668750000  -6.189171e+001  1.334758e+002 
3671875000  -6.467589e+001  1.187266e+002 
3675000000  -6.367252e+001  1.041494e+002 
3678125000  -6.393950e+001  1.217946e+002 
3681250000  -6.313594e+001  8.669270e+001 
3684375000  -6.492155e+001  8.287096e+001 
3687500000  -6.242108e+001  7.702337e+001 
3690625000  -6.952611e+001  9.593327e+001 
3693750000  -6.434460e+001  7.370052e+001 
3696875000  -6.701990e+001  8.072807e+001 
3700000000  -6.345261e+001  7.539581e+001 
3703125000  -6.811864e+001  4.210373e+001 
3706250000  -7.684318e+001  2.675951e+001 
3709375000  -6.718243e+001  4.361253e+001 
3712500000  -6.260553e+001  7.364410e+001 
3715625000  -6.469038e+001  4.316432e+001 
3718750000  -6.216069e+001  3.284367e+001 
3721875000  -6.166241e+001  2.309810e+001 
3725000000  -6.180076e+001  2.988791e+000 
3728125000  -5.907578e+001  -3.248523e+000 
3731250000  -6.032533e+001  -1.388776e+001 
3734375000  -5.775861e+001  -2.495544e+001 
3737500000  -5.889332e+001  -4.586296e+001 
3740625000  -5.941288e+001  -5.416158e+001 
3743750000  -5.767024e+001  -6.620574e+001 
3746875000  -5.887677e+001  -6.940107e+001 
3750000000  -5.906035e+001  -8.978677e+001 
3753125000  -5.823321e+001  -8.410113e+001 
3756250000  -5.905222e+001  -9.925677e+001 
3759375000  -5.788708e+001  -1.070719e+002 
3762500000  -5.751521e+001  -1.074830e+002 
3765625000  -6.152485e+001  -1.290389e+002 
3768750000  -5.670628e+001  -1.393929e+002 
3771875000  -5.632537e+001  -1.428661e+002 
3775000000  -5.656886e+001  -1.568302e+002 
3778125000  -5.785101e+001  1.719476e+002 
3781250000  -5.634250e+001  1.732689e+002 
3784375000  -5.593843e+001  1.690934e+002 
3787500000  -5.866787e+001  1.529387e+002 
3790625000  -5.717573e+001  1.265515e+002 
3793750000  -5.858262e+001  1.208172e+002 
3796875000  -5.607528e+001  1.210088e+002 
3800000000  -5.317852e+001  7.920036e+001 
3803125000  -5.708310e+001  1.025483e+002 
3806250000  -5.848006e+001  7.066248e+001 
3809375000  -5.849659e+001  7.626105e+001 
3812500000  -5.834440e+001  5.801839e+001 
3815625000  -5.893288e+001  5.120734e+001 
3818750000  -6.266677e+001  3.330234e+001 
3821875000  -6.190503e+001  5.214423e+001 
3825000000  -5.895902e+001  4.131157e+001 
3828125000  -5.708236e+001  2.174878e+001 
3831250000  -5.920461e+001  1.485597e+001 
3834375000  -6.272555e+001  3.792848e+000 
3837500000  -6.511163e+001  2.540775e+001 
3840625000  -6.024413e+001  -1.448789e+001 
3843750000  -6.134823e+001  -1.224958e+001 
3846875000  -6.128715e+001  -1.724442e+001 
3850000000  -6.177679e+001  9.470265e+000 
3853125000  -6.047524e+001  -3.997526e+001 
3856250000  -5.987551e+001  2.435803e+000 
3859375000  -5.823671e+001  -3.710486e+001 
3862500000  -6.040820e+001  -4.369373e+001 
3865625000  -6.083050e+001  -5.212840e+001 
3868750000  -5.874382e+001  -4.738876e+001 
3871875000  -5.662943e+001  -6.346140e+001 
3875000000  -6.068177e+001  -6.482771e+001 
3878125000  -5.738885e+001  -6.667908e+001 
3881250000  -5.682184e+001  -8.052824e+001 
3884375000  -5.643246e+001  -9.630714e+001 
3887500000  -5.563169e+001  -1.139924e+002 
3890625000  -5.596845e+001  -1.243329e+002 
3893750000  -5.697732e+001  -1.294772e+002 
3896875000  -5.523971e+001  -1.417741e+002 
3900000000  -5.560429e+001  -1.432781e+002 
3903125000  -5.530379e+001  -1.573854e+002 
3906250000  -5.316207e+001  -1.739971e+002 
3909375000  -5.408439e+001  -1.787191e+002 
3912500000  -5.323421e+001  1.592785e+002 
3915625000  -5.745656e+001  1.644799e+002 
3918750000  -5.465697e+001  1.553631e+002 
3921875000  -5.700100e+001  1.429769e+002 
3925000000  -5.381911e+001  1.226014e+002 
3928125000  -5.255194e+001  1.061028e+002 
3931250000  -5.497558e+001  9.985760e+001 
3934375000  -5.468236e+001  8.152745e+001 
3937500000  -5.569201e+001  7.810549e+001 
3940625000  -5.421645e+001  7.520628e+001 
3943750000  -5.379284e+001  5.808230e+001 
3946875000  -5.399951e+001  3.824894e+001 
3950000000  -5.360350e+001  4.014250e+001 
3953125000  -5.519306e+001  3.228808e+001 
3956250000  -5.476537e+001  1.516853e+001 
3959375000  -5.176936e+001  8.837305e+000 
3962500000  -5.270302e+001  -1.328059e+000 
3965625000  -5.261722e+001  -1.869394e+001 
3968750000  -5.299222e+001  -3.816247e+001 
3971875000  -5.392368e+001  -3.576051e+001 
3975000000  -5.449131e+001  -5.863526e+001 
3978125000  -5.364259e+001  -6.069437e+001 
3981250000  -5.446709e+001  -7.999744e+001 
3984375000  -5.639503e+001  -9.192759e+001 
3987500000  -5.486345e+001  -9.250391e+001 
3990625000  -5.538254e+001  -1.022381e+002 
3993750000  -5.953844e+001  -1.147422e+002 
3996875000  -5.667781e+001  -1.165582e+002 
4000000000  -5.905943e+001  -1.285146e+002 
4003125000  -6.003227e+001  -1.357662e+002 
4006250000  -5.786588e+001  -1.407087e+002 
4009375000  -5.575982e+001  -1.513079e+002 
4012500000  -6.061255e+001  -1.675771e+002 
4015625000  -6.167550e+001  -1.772915e+002 
4018750000  -5.860723e+001  -1.787292e+002 
4021875000  -6.048979e+001  -1.708525e+002 
4025000000  -6.218935e+001  1.662921e+002 
4028125000  -6.057607e+001  1.614285e+002 
4031250000  -6.154483e+001  1.534892e+002 
4034375000  -6.223667e+001  1.760004e+002 
4037500000  -5.741013e+001  1.429398e+002 
4040625000  -5.933865e+001  1.269510e+002 
4043750000  -5.932468e+001  1.347433e+002 
4046875000  -5.662841e+001  1.330576e+002 
4050000000  -5.723858e+001  1.186175e+002 
4053125000  -5.906392e+001  1.255748e+002 
4056250000  -5.978034e+001  1.057014e+002 
4059375000  -5.618471e+001  1.061965e+002 
4062500000  -5.608203e+001  1.007761e+002 
4065625000  -5.565464e+001  8.757810e+001 
4068750000  -5.388567e+001  6.659962e+001 
4071875000  -5.230748e+001  5.757232e+001 
4075000000  -5.287354e+001  3.528427e+001 
4078125000  -5.306694e+001  3.981654e+001 
4081250000  -5.409930e+001  2.030227e+001 
4084375000  -5.270233e+001  -1.145593e-001 
4087500000  -5.387680e+001  -4.339886e+000 
4090625000  -5.363855e+001  -8.104255e+000 
4093750000  -5.341589e+001  -2.010015e+001 
4096875000  -5.237915e+001  -4.043843e+001 
4100000000  -5.383554e+001  -4.773645e+001 
4103125000  -5.542435e+001  -5.027335e+001 
4106250000  -5.305724e+001  -6.192574e+001 
4109375000  -5.353716e+001  -6.169753e+001 
4112500000  -5.132174e+001  -8.276807e+001 
4115625000  -5.408864e+001  -9.116102e+001 
4118750000  -5.196051e+001  -1.052339e+002 
4121875000  -5.361744e+001  -1.222357e+002 
4125000000  -5.295452e+001  -1.215392e+002 
4128125000  -5.452491e+001  -1.259781e+002 
4131250000  -5.443692e+001  -1.320713e+002 
4134375000  -5.298376e+001  -1.558231e+002 
4137500000  -5.263829e+001  -1.782624e+002 
4140625000  -5.367405e+001  1.667067e+002 
4143750000  -5.592431e+001  1.737804e+002 
4146875000  -5.381422e+001  1.618120e+002 
4150000000  -5.475848e+001  1.497325e+002 
4153125000  -5.397941e+001  1.361731e+002 
4156250000  -5.589223e+001  1.281674e+002 
4159375000  -5.641930e+001  1.329111e+002 
4162500000  -5.682962e+001  1.151010e+002 
4165625000  -5.319512e+001  1.145752e+002 
4168750000  -5.557649e+001  7.696796e+001 
4171875000  -5.434106e+001  7.588236e+001 
4175000000  -5.516732e+001  5.819648e+001 
4178125000  -5.696312e+001  7.016875e+001 
4181250000  -5.848343e+001  4.409222e+001 
4184375000  -5.775036e+001  3.825452e+001 
4187500000  -5.795474e+001  2.042761e+001 
4190625000  -6.162013e+001  1.355851e+001 
4193750000  -6.437140e+001  3.245116e+001 
4196875000  -6.476236e+001  1.687445e+000 
4200000000  -6.449318e+001  5.230429e+001 
4203125000  -6.204010e+001  7.996180e+000 
4206250000  -6.021955e+001  2.027713e+001 
4209375000  -6.135243e+001  -2.384504e+001 
4212500000  -6.335218e+001  -9.992551e+000 
4215625000  -6.424773e+001  1.221992e+000 
4218750000  -6.034571e+001  -1.636162e+001 
4221875000  -6.257128e+001  -8.924862e+000 
4225000000  -5.875585e+001  -9.047796e+000 
4228125000  -6.095037e+001  -4.724989e+001 
4231250000  -5.916175e+001  -4.578162e+001 
4234375000  -5.764525e+001  -4.900746e+001 
4237500000  -5.704184e+001  -4.171887e+001 
4240625000  -5.660900e+001  -7.299525e+001 
4243750000  -5.804081e+001  -6.611698e+001 
4246875000  -5.671587e+001  -8.589636e+001 
4250000000  -5.809646e+001  -8.857062e+001 
4253125000  -5.451901e+001  -8.543661e+001 
4256250000  -5.640656e+001  -8.959171e+001 
4259375000  -5.425751e+001  -8.660928e+001 
4262500000  -5.555819e+001  -1.222919e+002 
4265625000  -5.424366e+001  -1.239736e+002 
4268750000  -5.287530e+001  -1.483903e+002 
4271875000  -5.257720e+001  -1.635772e+002 
4275000000  -5.036179e+001  -1.722048e+002 
4278125000  -5.268218e+001  1.629215e+002 
4281250000  -5.389851e+001  1.617491e+002 
4284375000  -5.472381e+001  1.602804e+002 
4287500000  -5.547306e+001  1.416380e+002 
4290625000  -5.601046e+001  1.296240e+002 
4293750000  -5.329700e+001  1.345410e+002 
4296875000  -5.336024e+001  1.154429e+002 
4300000000  -5.315292e+001  1.002183e+002 
4303125000  -5.497376e+001  9.571611e+001 
4306250000  -5.306709e+001  9.141772e+001 
4309375000  -5.170070e+001  8.014919e+001 
4312500000  -5.141550e+001  6.544315e+001 
4315625000  -5.211634e+001  4.456805e+001 
4318750000  -5.473512e+001  3.262865e+001 
4321875000  -5.283650e+001  2.526491e+001 
4325000000  -5.282852e+001  2.106768e+001 
4328125000  -5.108732e+001  5.321573e+000 
4331250000  -5.264251e+001  -8.230071e+000 
4334375000  -5.479226e+001  -1.390408e+001 
4337500000  -5.439454e+001  -4.169179e+001 
4340625000  -5.629029e+001  -2.705982e+001 
4343750000  -5.484753e+001  -3.507397e+001 
4346875000  -5.505775e+001  -5.284866e+001 
4350000000  -5.525703e+001  -7.015366e+001 
4353125000  -5.563533e+001  -6.851649e+001 
4356250000  -5.771090e+001  -9.299568e+001 
4359375000  -5.620929e+001  -5.902878e+001 
4362500000  -5.421924e+001  -7.987061e+001 
4365625000  -5.569556e+001  -9.595508e+001 
4368750000  -5.561947e+001  -1.135240e+002 
4371875000  -5.739258e+001  -9.653978e+001 
4375000000  -5.623569e+001  -1.233590e+002 
4378125000  -5.751616e+001  -1.343811e+002 
4381250000  -5.633821e+001  -1.263962e+002 
4384375000  -5.652501e+001  -1.413301e+002 
4387500000  -5.851494e+001  -1.408147e+002 
4390625000  -5.952655e+001  -1.476219e+002 
4393750000  -5.622690e+001  -1.533822e+002 
4396875000  -5.531433e+001  -1.588391e+002 
4400000000  -5.598108e+001  -1.732645e+002 
4403125000  -5.589781e+001  1.724049e+002 
4406250000  -5.621808e+001  1.666079e+002 
4409375000  -5.699025e+001  1.700012e+002 
4412500000  -5.723524e+001  1.545743e+002 
4415625000  -5.428751e+001  1.608829e+002 
4418750000  -5.456161e+001  1.492304e+002 
