!Agilent Technologies,E8363B,MY43030201,A.06.04.32
!Agilent E8363B: A.06.04.32
!Date: Tuesday, November 11, 2014 22:08:55
!Correction: S21(Response(S21)) 
!S1P File: Measurement: S21:
# Hz S  dB   R 50
3000000000  -4.907719e+001  -7.798598e+001 
3003125000  -5.131654e+001  -8.454881e+001 
3006250000  -5.172653e+001  -8.821674e+001 
3009375000  -5.263950e+001  -8.855839e+001 
3012500000  -5.153667e+001  -1.000081e+002 
3015625000  -5.154974e+001  -1.115798e+002 
3018750000  -5.175434e+001  -1.144834e+002 
3021875000  -4.975648e+001  -1.214104e+002 
3025000000  -4.872229e+001  -1.286207e+002 
3028125000  -4.789960e+001  -1.461109e+002 
3031250000  -4.726773e+001  -1.625408e+002 
3034375000  -4.744741e+001  1.770032e+002 
3037500000  -4.813068e+001  1.630662e+002 
3040625000  -4.905965e+001  1.505487e+002 
3043750000  -4.954840e+001  1.390183e+002 
3046875000  -5.057922e+001  1.297613e+002 
3050000000  -5.198283e+001  1.199908e+002 
3053125000  -5.125970e+001  1.226485e+002 
3056250000  -5.119169e+001  1.196036e+002 
3059375000  -5.059605e+001  1.088713e+002 
3062500000  -4.933769e+001  1.027429e+002 
3065625000  -4.915693e+001  8.645936e+001 
3068750000  -4.916784e+001  7.323703e+001 
3071875000  -4.935274e+001  6.488222e+001 
3075000000  -4.874149e+001  5.464595e+001 
3078125000  -4.845213e+001  4.316379e+001 
3081250000  -4.933374e+001  2.979976e+001 
3084375000  -4.808997e+001  2.630945e+001 
3087500000  -4.827677e+001  9.474466e+000 
3090625000  -4.793572e+001  -7.558780e+000 
3093750000  -4.888239e+001  -1.817859e+001 
3096875000  -4.916230e+001  -2.747595e+001 
3100000000  -4.903801e+001  -3.600880e+001 
3103125000  -4.942128e+001  -4.379197e+001 
3106250000  -4.923614e+001  -5.366339e+001 
3109375000  -4.943221e+001  -6.391895e+001 
3112500000  -4.936784e+001  -7.086977e+001 
3115625000  -4.913474e+001  -8.293257e+001 
3118750000  -4.979276e+001  -8.484540e+001 
3121875000  -4.930837e+001  -1.039392e+002 
3125000000  -5.063496e+001  -1.095302e+002 
3128125000  -5.052116e+001  -1.085116e+002 
3131250000  -4.872836e+001  -1.194323e+002 
3134375000  -4.772916e+001  -1.416479e+002 
3137500000  -4.815677e+001  -1.596682e+002 
3140625000  -4.963653e+001  -1.657753e+002 
3143750000  -5.061077e+001  -1.739374e+002 
3146875000  -4.979259e+001  -1.740635e+002 
3150000000  -4.903721e+001  1.759100e+002 
3153125000  -4.895215e+001  1.653074e+002 
3156250000  -5.006802e+001  1.623472e+002 
3159375000  -4.774072e+001  1.588449e+002 
3162500000  -4.573492e+001  1.348817e+002 
3165625000  -4.757183e+001  1.205999e+002 
3168750000  -4.756313e+001  1.146239e+002 
3171875000  -4.694198e+001  1.009978e+002 
3175000000  -4.750695e+001  8.560056e+001 
3178125000  -4.724302e+001  8.059577e+001 
3181250000  -4.653451e+001  6.655630e+001 
3184375000  -4.637334e+001  5.272180e+001 
3187500000  -4.791761e+001  3.090647e+001 
3190625000  -4.938295e+001  2.105821e+001 
3193750000  -4.947678e+001  2.377262e+001 
3196875000  -4.954729e+001  1.358841e+001 
3200000000  -4.836987e+001  7.205850e+000 
3203125000  -4.802478e+001  -6.494217e+000 
3206250000  -4.898679e+001  -1.839169e+001 
3209375000  -4.820715e+001  -3.369243e+001 
3212500000  -4.883903e+001  -4.523672e+001 
3215625000  -4.818507e+001  -4.374825e+001 
3218750000  -4.928833e+001  -6.628239e+001 
3221875000  -4.903063e+001  -7.593193e+001 
3225000000  -4.950908e+001  -8.796824e+001 
3228125000  -4.999490e+001  -9.752633e+001 
3231250000  -5.075065e+001  -1.078823e+002 
3234375000  -5.061541e+001  -1.131824e+002 
3237500000  -5.016802e+001  -1.175544e+002 
3240625000  -5.007066e+001  -1.297555e+002 
3243750000  -5.018052e+001  -1.462894e+002 
3246875000  -5.031279e+001  -1.569260e+002 
3250000000  -5.041862e+001  -1.678279e+002 
3253125000  -5.162785e+001  -1.737589e+002 
3256250000  -5.025828e+001  1.752095e+002 
3259375000  -5.151270e+001  1.534489e+002 
3262500000  -5.215839e+001  1.477533e+002 
3265625000  -5.297344e+001  1.443453e+002 
3268750000  -5.263314e+001  1.406455e+002 
3271875000  -5.249158e+001  1.318405e+002 
3275000000  -5.229793e+001  1.234091e+002 
3278125000  -5.306998e+001  1.053667e+002 
3281250000  -5.269006e+001  1.050132e+002 
3284375000  -5.141475e+001  8.853262e+001 
3287500000  -5.258771e+001  8.150750e+001 
3290625000  -5.318286e+001  7.272007e+001 
3293750000  -5.327480e+001  6.023545e+001 
3296875000  -5.401640e+001  5.317749e+001 
3300000000  -5.359739e+001  4.375341e+001 
3303125000  -5.343987e+001  3.931644e+001 
3306250000  -5.306813e+001  2.129893e+001 
3309375000  -5.303790e+001  1.793435e+001 
3312500000  -5.387983e+001  -9.554158e+000 
3315625000  -5.496807e+001  -1.412105e+001 
3318750000  -5.580850e+001  -2.425051e+001 
3321875000  -5.714520e+001  -2.578389e+001 
3325000000  -5.806139e+001  -1.100873e+001 
3328125000  -5.783969e+001  -1.720901e+001 
3331250000  -5.462168e+001  -3.109534e+001 
3334375000  -5.214894e+001  -5.120681e+001 
3337500000  -5.310884e+001  -7.460676e+001 
3340625000  -5.457799e+001  -8.523989e+001 
3343750000  -5.690224e+001  -9.098678e+001 
3346875000  -5.471326e+001  -9.472308e+001 
3350000000  -5.481633e+001  -1.010916e+002 
3353125000  -5.410253e+001  -1.174659e+002 
3356250000  -5.414587e+001  -1.315506e+002 
3359375000  -5.457222e+001  -1.502781e+002 
3362500000  -5.501267e+001  -1.523627e+002 
3365625000  -5.592577e+001  -1.680667e+002 
3368750000  -5.664544e+001  -1.772620e+002 
3371875000  -5.831708e+001  -1.779187e+002 
3375000000  -5.761347e+001  1.587169e+002 
3378125000  -6.053123e+001  -1.779131e+002 
3381250000  -5.957685e+001  1.736330e+002 
3384375000  -5.683689e+001  1.756380e+002 
3387500000  -5.418966e+001  1.473999e+002 
3390625000  -5.721348e+001  1.309712e+002 
3393750000  -5.791628e+001  1.142504e+002 
3396875000  -5.669599e+001  1.081004e+002 
3400000000  -5.518730e+001  8.501368e+001 
3403125000  -5.752025e+001  6.823276e+001 
3406250000  -5.784962e+001  7.012002e+001 
3409375000  -5.757003e+001  4.664004e+001 
3412500000  -5.829201e+001  5.164648e+001 
3415625000  -6.122378e+001  4.321461e+001 
3418750000  -6.035824e+001  3.381734e+001 
3421875000  -5.957283e+001  2.923212e+001 
3425000000  -5.970454e+001  2.815128e+001 
3428125000  -5.980455e+001  4.694279e+000 
3431250000  -6.038690e+001  -1.800212e+001 
3434375000  -5.879116e+001  -2.224502e+001 
3437500000  -6.014124e+001  -3.483921e+001 
3440625000  -6.015100e+001  -3.094044e+001 
3443750000  -6.071613e+001  -3.337101e+001 
3446875000  -6.046428e+001  -5.015772e+001 
3450000000  -6.099819e+001  -8.456757e+001 
3453125000  -6.312289e+001  -8.197050e+001 
3456250000  -6.570892e+001  -8.842066e+001 
3459375000  -6.754300e+001  -9.071583e+001 
3462500000  -7.541752e+001  -1.525384e+002 
3465625000  -6.535989e+001  -9.709411e+001 
3468750000  -6.759610e+001  -1.357907e+002 
3471875000  -6.732378e+001  -1.084681e+002 
3475000000  -6.469637e+001  -9.864677e+001 
3478125000  -7.087589e+001  -7.933170e+001 
3481250000  -6.710562e+001  -1.240290e+002 
3484375000  -6.796969e+001  -1.572361e+002 
3487500000  -6.893707e+001  -1.369771e+002 
3490625000  -6.469488e+001  -1.350289e+002 
3493750000  -6.629822e+001  -1.714853e+002 
3496875000  -6.841126e+001  -1.539001e+002 
3500000000  -6.338169e+001  -1.715122e+002 
3503125000  -6.567938e+001  1.707193e+002 
3506250000  -6.810053e+001  -1.638085e+002 
3509375000  -6.748209e+001  1.781152e+002 
3512500000  -6.458593e+001  1.502137e+002 
3515625000  -6.445122e+001  1.348635e+002 
3518750000  -6.903310e+001  1.344564e+002 
3521875000  -6.580218e+001  9.742162e+001 
3525000000  -7.081972e+001  1.260387e+002 
3528125000  -6.767913e+001  1.242574e+002 
3531250000  -6.624772e+001  9.949040e+001 
3534375000  -6.646518e+001  1.125172e+002 
3537500000  -7.111517e+001  6.753212e+001 
3540625000  -6.680199e+001  4.303668e+001 
3543750000  -7.041142e+001  4.818457e+001 
3546875000  -6.722314e+001  8.279693e+001 
3550000000  -6.685618e+001  1.108715e+002 
3553125000  -6.669565e+001  7.363597e+001 
3556250000  -7.013943e+001  3.624116e+001 
3559375000  -7.082218e+001  1.807470e+001 
3562500000  -7.032382e+001  3.081380e+001 
3565625000  -6.990659e+001  2.854540e+001 
3568750000  -7.691982e+001  -1.336891e+002 
3571875000  -7.648660e+001  -4.389204e+001 
3575000000  -7.419680e+001  -3.399608e+001 
3578125000  -7.307085e+001  3.877693e+000 
3581250000  -7.565142e+001  5.161968e+000 
3584375000  -8.458432e+001  9.811250e+001 
3587500000  -7.052509e+001  8.597001e+000 
3590625000  -7.092074e+001  3.629768e+001 
3593750000  -7.024146e+001  5.103137e+000 
3596875000  -6.975136e+001  6.191909e+001 
3600000000  -6.886568e+001  -9.143201e+000 
3603125000  -6.526431e+001  -1.557770e+001 
3606250000  -6.355532e+001  -4.646100e+001 
3609375000  -6.461356e+001  -5.480001e+001 
3612500000  -6.624416e+001  -5.807510e+001 
3615625000  -7.190142e+001  -3.834013e+001 
3618750000  -6.427080e+001  -6.257899e+001 
3621875000  -6.710876e+001  -8.920430e+001 
3625000000  -6.247372e+001  -7.244792e+001 
3628125000  -6.247875e+001  -1.201758e+002 
3631250000  -6.446158e+001  -1.112730e+002 
3634375000  -6.630751e+001  -1.416127e+002 
3637500000  -6.352380e+001  -1.137634e+002 
3640625000  -6.285528e+001  -1.200342e+002 
3643750000  -6.220958e+001  -1.606166e+002 
3646875000  -6.326407e+001  -1.785052e+002 
3650000000  -6.276302e+001  -1.784488e+002 
3653125000  -6.129633e+001  1.780101e+002 
3656250000  -6.373287e+001  1.595038e+002 
3659375000  -6.207362e+001  1.484680e+002 
3662500000  -6.102962e+001  1.326779e+002 
3665625000  -6.121573e+001  1.313280e+002 
3668750000  -6.018758e+001  1.203938e+002 
3671875000  -6.175761e+001  1.311760e+002 
3675000000  -6.306647e+001  7.327695e+001 
3678125000  -6.254094e+001  1.009774e+002 
3681250000  -6.052587e+001  1.032637e+002 
3684375000  -6.995316e+001  8.520592e+001 
3687500000  -6.769357e+001  4.916005e+001 
3690625000  -7.457879e+001  6.978751e+001 
3693750000  -6.770022e+001  1.006617e+002 
3696875000  -6.897374e+001  6.461984e+001 
3700000000  -6.364574e+001  6.835713e+001 
3703125000  -6.652394e+001  6.792319e+001 
3706250000  -6.380222e+001  4.782682e+001 
3709375000  -6.926598e+001  7.679704e+001 
3712500000  -6.542627e+001  4.754696e+001 
3715625000  -6.107034e+001  2.790758e+001 
3718750000  -6.238507e+001  2.588453e+001 
3721875000  -6.129853e+001  1.665217e+001 
3725000000  -6.327662e+001  3.076595e+001 
3728125000  -6.114882e+001  1.344056e+001 
3731250000  -5.952873e+001  -7.061247e+000 
3734375000  -5.898193e+001  -3.186535e+001 
3737500000  -5.844596e+001  -3.924746e+001 
3740625000  -5.770992e+001  -3.905546e+001 
3743750000  -5.900387e+001  -4.474935e+001 
3746875000  -5.940669e+001  -6.611397e+001 
3750000000  -5.863068e+001  -8.139687e+001 
3753125000  -5.989029e+001  -8.596873e+001 
3756250000  -5.853895e+001  -9.889191e+001 
3759375000  -5.784663e+001  -1.051940e+002 
3762500000  -5.907479e+001  -1.221931e+002 
3765625000  -5.894249e+001  -1.206412e+002 
3768750000  -5.745742e+001  -1.259659e+002 
3771875000  -5.594693e+001  -1.397928e+002 
3775000000  -5.626767e+001  -1.663726e+002 
3778125000  -5.704977e+001  -1.793383e+002 
3781250000  -5.735743e+001  1.671595e+002 
3784375000  -5.700476e+001  1.697514e+002 
3787500000  -5.738438e+001  1.393264e+002 
3790625000  -5.829641e+001  1.271177e+002 
3793750000  -5.578060e+001  1.269966e+002 
3796875000  -5.644445e+001  1.348682e+002 
3800000000  -5.317228e+001  7.488895e+001 
3803125000  -5.742375e+001  1.012883e+002 
3806250000  -5.868263e+001  8.256596e+001 
3809375000  -5.761097e+001  8.691769e+001 
3812500000  -5.817475e+001  5.070914e+001 
3815625000  -6.018425e+001  3.534670e+001 
3818750000  -6.233718e+001  4.724972e+001 
3821875000  -6.206216e+001  3.594832e+001 
3825000000  -6.081575e+001  4.208544e+001 
3828125000  -5.860876e+001  2.868357e+001 
3831250000  -5.986361e+001  1.346006e+000 
3834375000  -6.340198e+001  1.712121e+001 
3837500000  -6.388741e+001  2.689966e+001 
3840625000  -6.311216e+001  8.885385e+000 
3843750000  -5.895111e+001  -3.831271e-001 
3846875000  -6.367419e+001  -4.528931e+001 
3850000000  -6.449284e+001  -1.865985e+001 
3853125000  -6.360266e+001  -1.091330e+001 
3856250000  -5.869992e+001  -2.265766e+001 
3859375000  -6.080188e+001  -3.798800e+001 
3862500000  -5.970723e+001  -2.719501e+001 
3865625000  -5.950049e+001  -4.603106e+001 
3868750000  -6.108092e+001  -4.847136e+001 
3871875000  -5.641628e+001  -6.234474e+001 
3875000000  -5.964838e+001  -7.450488e+001 
3878125000  -5.820507e+001  -7.747494e+001 
3881250000  -5.840956e+001  -1.010761e+002 
3884375000  -5.702954e+001  -9.280204e+001 
3887500000  -5.692075e+001  -1.229331e+002 
3890625000  -5.614536e+001  -1.177366e+002 
3893750000  -5.552705e+001  -1.303411e+002 
3896875000  -5.664531e+001  -1.316701e+002 
3900000000  -5.792568e+001  -1.509623e+002 
3903125000  -5.505455e+001  -1.507838e+002 
3906250000  -5.251383e+001  -1.730785e+002 
3909375000  -5.545016e+001  1.628831e+002 
3912500000  -5.323503e+001  1.567580e+002 
3915625000  -5.631926e+001  1.520971e+002 
3918750000  -5.458739e+001  1.546644e+002 
3921875000  -5.439947e+001  1.376936e+002 
3925000000  -5.379132e+001  1.214040e+002 
3928125000  -5.312352e+001  1.093733e+002 
3931250000  -5.353384e+001  9.243714e+001 
3934375000  -5.476752e+001  8.872070e+001 
3937500000  -5.542693e+001  7.594531e+001 
3940625000  -5.506315e+001  7.950921e+001 
3943750000  -5.363749e+001  6.231401e+001 
3946875000  -5.342436e+001  4.617057e+001 
3950000000  -5.476971e+001  3.413773e+001 
3953125000  -5.642300e+001  3.375614e+001 
3956250000  -5.379873e+001  1.245090e+001 
3959375000  -5.136784e+001  1.146992e+001 
3962500000  -5.286075e+001  -1.417159e+001 
3965625000  -5.304789e+001  -2.158641e+001 
3968750000  -5.384758e+001  -3.553537e+001 
3971875000  -5.408892e+001  -4.541509e+001 
3975000000  -5.382139e+001  -5.260976e+001 
3978125000  -5.432156e+001  -5.330521e+001 
3981250000  -5.334158e+001  -7.742814e+001 
3984375000  -5.533400e+001  -8.774783e+001 
3987500000  -5.591899e+001  -8.969759e+001 
3990625000  -5.655069e+001  -1.092023e+002 
3993750000  -5.674166e+001  -1.221058e+002 
3996875000  -5.634835e+001  -1.240007e+002 
4000000000  -5.901076e+001  -1.329980e+002 
4003125000  -5.836871e+001  -1.402931e+002 
4006250000  -5.761000e+001  -1.311520e+002 
4009375000  -5.712708e+001  -1.728277e+002 
4012500000  -5.978927e+001  -1.621308e+002 
4015625000  -5.971997e+001  -1.614931e+002 
4018750000  -5.869595e+001  -1.671713e+002 
4021875000  -5.818696e+001  1.771419e+002 
4025000000  -5.993251e+001  1.742989e+002 
4028125000  -5.933408e+001  1.718337e+002 
4031250000  -5.886873e+001  1.607232e+002 
4034375000  -5.901812e+001  1.548250e+002 
4037500000  -5.800130e+001  1.447520e+002 
4040625000  -5.965081e+001  1.228277e+002 
4043750000  -5.931104e+001  1.507016e+002 
4046875000  -5.699935e+001  1.275018e+002 
4050000000  -5.747827e+001  1.135064e+002 
4053125000  -5.854210e+001  1.179474e+002 
4056250000  -5.750125e+001  1.166853e+002 
4059375000  -5.586998e+001  1.070635e+002 
4062500000  -5.549055e+001  9.869102e+001 
4065625000  -5.560655e+001  9.338487e+001 
4068750000  -5.470472e+001  7.603275e+001 
4071875000  -5.317732e+001  5.712307e+001 
4075000000  -5.311936e+001  4.135531e+001 
4078125000  -5.213714e+001  3.972978e+001 
4081250000  -5.347369e+001  2.333525e+001 
4084375000  -5.210180e+001  8.627309e+000 
4087500000  -5.324102e+001  -2.390657e+000 
4090625000  -5.433383e+001  -4.625368e+000 
4093750000  -5.218491e+001  -2.132504e+001 
4096875000  -5.252467e+001  -4.001541e+001 
4100000000  -5.278538e+001  -5.012380e+001 
4103125000  -5.489306e+001  -5.126246e+001 
4106250000  -5.424566e+001  -5.528712e+001 
4109375000  -5.303859e+001  -6.783468e+001 
4112500000  -5.218477e+001  -8.459528e+001 
4115625000  -5.306038e+001  -9.008655e+001 
4118750000  -5.377672e+001  -1.078062e+002 
4121875000  -5.342450e+001  -1.223074e+002 
4125000000  -5.365316e+001  -1.293265e+002 
4128125000  -5.364747e+001  -1.362358e+002 
4131250000  -5.378676e+001  -1.301009e+002 
4134375000  -5.133059e+001  -1.528859e+002 
4137500000  -5.219492e+001  -1.708021e+002 
4140625000  -5.432161e+001  1.735555e+002 
4143750000  -5.609677e+001  1.623768e+002 
4146875000  -5.426694e+001  1.572006e+002 
4150000000  -5.620225e+001  1.522379e+002 
4153125000  -5.417392e+001  1.382458e+002 
4156250000  -5.532309e+001  1.229372e+002 
4159375000  -5.747289e+001  1.257591e+002 
4162500000  -5.560227e+001  1.024414e+002 
4165625000  -5.425777e+001  1.156478e+002 
4168750000  -5.514009e+001  1.006236e+002 
4171875000  -5.650920e+001  7.190102e+001 
4175000000  -5.497259e+001  5.637879e+001 
4178125000  -5.714696e+001  5.651148e+001 
4181250000  -5.683423e+001  3.927306e+001 
4184375000  -6.050747e+001  5.114566e+001 
4187500000  -5.811199e+001  2.492628e+001 
4190625000  -6.095290e+001  3.191202e+001 
4193750000  -6.079298e+001  1.267330e+001 
4196875000  -6.053622e+001  9.606931e-001 
4200000000  -6.293519e+001  2.987074e+001 
4203125000  -6.396251e+001  2.794970e-001 
4206250000  -5.952686e+001  1.069837e+001 
4209375000  -6.645779e+001  2.265816e+001 
4212500000  -6.177830e+001  6.498985e+000 
4215625000  -6.711110e+001  -3.031711e+001 
4218750000  -6.306327e+001  4.971992e+000 
4221875000  -6.194232e+001  -1.642242e+001 
4225000000  -6.314683e+001  -2.063686e+001 
4228125000  -5.943039e+001  -5.221120e+001 
4231250000  -5.967647e+001  -1.728059e+001 
4234375000  -5.789875e+001  -3.744116e+001 
4237500000  -5.863460e+001  -4.118657e+001 
4240625000  -5.650794e+001  -6.914691e+001 
4243750000  -5.885074e+001  -7.311443e+001 
4246875000  -5.722718e+001  -6.251268e+001 
4250000000  -5.868900e+001  -8.005064e+001 
4253125000  -5.528645e+001  -8.972385e+001 
4256250000  -5.573078e+001  -1.096895e+002 
4259375000  -5.517962e+001  -1.146926e+002 
4262500000  -5.525293e+001  -1.255199e+002 
4265625000  -5.373549e+001  -1.326297e+002 
4268750000  -5.304662e+001  -1.425400e+002 
4271875000  -5.260016e+001  -1.572785e+002 
4275000000  -5.214326e+001  -1.744823e+002 
4278125000  -5.293946e+001  1.687408e+002 
4281250000  -5.320777e+001  1.600636e+002 
4284375000  -5.487549e+001  1.501614e+002 
4287500000  -5.467956e+001  1.405269e+002 
4290625000  -5.399883e+001  1.402598e+002 
4293750000  -5.253144e+001  1.457681e+002 
4296875000  -5.165551e+001  1.181717e+002 
4300000000  -5.367092e+001  9.819521e+001 
4303125000  -5.269633e+001  9.631360e+001 
4306250000  -5.275705e+001  9.662965e+001 
4309375000  -5.196681e+001  7.642453e+001 
4312500000  -5.157541e+001  6.218954e+001 
4315625000  -5.285266e+001  4.313805e+001 
4318750000  -5.418281e+001  4.121111e+001 
4321875000  -5.257937e+001  2.740171e+001 
4325000000  -5.379897e+001  1.749089e+001 
4328125000  -5.234879e+001  6.767428e+000 
4331250000  -5.293712e+001  -8.800094e+000 
4334375000  -5.398382e+001  -1.406262e+001 
4337500000  -5.577956e+001  -3.484287e+001 
4340625000  -5.490848e+001  -2.582703e+001 
4343750000  -5.373324e+001  -4.612346e+001 
4346875000  -5.498024e+001  -5.409533e+001 
4350000000  -5.503131e+001  -6.487010e+001 
4353125000  -5.644563e+001  -7.415963e+001 
4356250000  -5.694052e+001  -7.929637e+001 
4359375000  -5.799744e+001  -5.793840e+001 
4362500000  -5.612217e+001  -7.186861e+001 
4365625000  -5.782315e+001  -9.115964e+001 
4368750000  -5.531757e+001  -1.006493e+002 
4371875000  -5.721442e+001  -1.152466e+002 
4375000000  -5.939189e+001  -1.102542e+002 
4378125000  -5.696499e+001  -1.261005e+002 
4381250000  -5.484489e+001  -1.280776e+002 
4384375000  -5.643859e+001  -1.405074e+002 
4387500000  -5.912461e+001  -1.461051e+002 
4390625000  -5.940481e+001  -1.626025e+002 
4393750000  -5.633592e+001  -1.463380e+002 
4396875000  -5.484071e+001  -1.622987e+002 
4400000000  -5.620274e+001  -1.784695e+002 
4403125000  -5.676510e+001  -1.789534e+002 
4406250000  -5.586667e+001  1.728065e+002 
4409375000  -5.767206e+001  1.570084e+002 
4412500000  -5.621638e+001  1.514883e+002 
4415625000  -5.524507e+001  1.608257e+002 
4418750000  -5.516133e+001  1.435214e+002 
