!Agilent Technologies,E8363B,MY43030201,A.06.04.32
!Agilent E8363B: A.06.04.32
!Date: Tuesday, November 11, 2014 22:15:49
!Correction: S21(Response(S21)) 
!S1P File: Measurement: S21:
# Hz S  dB   R 50
3000000000  -4.895520e+001  -7.381014e+001 
3003125000  -5.156183e+001  -7.878597e+001 
3006250000  -5.098829e+001  -8.506704e+001 
3009375000  -5.167456e+001  -8.376151e+001 
3012500000  -5.122446e+001  -9.745991e+001 
3015625000  -5.150286e+001  -1.075074e+002 
3018750000  -5.173099e+001  -1.132961e+002 
3021875000  -4.994567e+001  -1.158611e+002 
3025000000  -4.851302e+001  -1.234330e+002 
3028125000  -4.774588e+001  -1.447696e+002 
3031250000  -4.707291e+001  -1.611703e+002 
3034375000  -4.747739e+001  -1.792324e+002 
3037500000  -4.800621e+001  1.685537e+002 
3040625000  -4.931998e+001  1.519300e+002 
3043750000  -4.995746e+001  1.425044e+002 
3046875000  -5.086253e+001  1.333051e+002 
3050000000  -5.186009e+001  1.280452e+002 
3053125000  -5.171941e+001  1.214836e+002 
3056250000  -5.118105e+001  1.215506e+002 
3059375000  -5.059270e+001  1.112264e+002 
3062500000  -4.938097e+001  1.018014e+002 
3065625000  -4.901534e+001  8.776023e+001 
3068750000  -4.925539e+001  7.845468e+001 
3071875000  -4.932484e+001  7.011839e+001 
3075000000  -4.895885e+001  5.496461e+001 
3078125000  -4.840783e+001  4.794437e+001 
3081250000  -4.906387e+001  3.547604e+001 
3084375000  -4.804704e+001  2.804152e+001 
3087500000  -4.830914e+001  1.472571e+001 
3090625000  -4.832418e+001  -1.683937e+000 
3093750000  -4.871357e+001  -1.280995e+001 
3096875000  -4.937147e+001  -2.399954e+001 
3100000000  -4.860863e+001  -3.321718e+001 
3103125000  -5.018227e+001  -4.000008e+001 
3106250000  -4.931831e+001  -4.940525e+001 
3109375000  -4.953339e+001  -5.459462e+001 
3112500000  -4.954308e+001  -6.785001e+001 
3115625000  -4.925205e+001  -7.703802e+001 
3118750000  -4.944681e+001  -8.159958e+001 
3121875000  -4.943093e+001  -9.941903e+001 
3125000000  -5.135684e+001  -1.038244e+002 
3128125000  -5.107765e+001  -1.042995e+002 
3131250000  -4.856691e+001  -1.134198e+002 
3134375000  -4.822134e+001  -1.366851e+002 
3137500000  -4.862663e+001  -1.553108e+002 
3140625000  -4.990371e+001  -1.565784e+002 
3143750000  -5.025613e+001  -1.704952e+002 
3146875000  -4.935095e+001  -1.703923e+002 
3150000000  -4.920251e+001  -1.773752e+002 
3153125000  -4.932109e+001  1.704285e+002 
3156250000  -5.070786e+001  1.651110e+002 
3159375000  -4.765801e+001  1.590271e+002 
3162500000  -4.631284e+001  1.363737e+002 
3165625000  -4.780213e+001  1.213708e+002 
3168750000  -4.737223e+001  1.157115e+002 
3171875000  -4.761618e+001  1.057114e+002 
3175000000  -4.770867e+001  8.805427e+001 
3178125000  -4.717462e+001  8.268239e+001 
3181250000  -4.641049e+001  6.997454e+001 
3184375000  -4.662724e+001  5.610903e+001 
3187500000  -4.793745e+001  3.463433e+001 
3190625000  -4.975127e+001  2.513969e+001 
3193750000  -4.983324e+001  2.385563e+001 
3196875000  -4.931997e+001  1.816304e+001 
3200000000  -4.848842e+001  9.517224e+000 
3203125000  -4.850874e+001  -3.314774e+000 
3206250000  -4.843021e+001  -1.420722e+001 
3209375000  -4.782703e+001  -2.816795e+001 
3212500000  -4.880984e+001  -3.871554e+001 
3215625000  -4.881924e+001  -4.572616e+001 
3218750000  -4.893729e+001  -5.927808e+001 
3221875000  -4.970428e+001  -7.299519e+001 
3225000000  -4.952821e+001  -8.367226e+001 
3228125000  -5.038056e+001  -9.456351e+001 
3231250000  -5.149974e+001  -1.035579e+002 
3234375000  -5.012949e+001  -1.066218e+002 
3237500000  -4.980290e+001  -1.180146e+002 
3240625000  -4.993654e+001  -1.266251e+002 
3243750000  -5.034986e+001  -1.454442e+002 
3246875000  -5.043174e+001  -1.534869e+002 
3250000000  -5.079099e+001  -1.650485e+002 
3253125000  -5.214859e+001  -1.700842e+002 
3256250000  -5.058152e+001  1.784391e+002 
3259375000  -5.082586e+001  1.583822e+002 
3262500000  -5.351378e+001  1.529619e+002 
3265625000  -5.397735e+001  1.427800e+002 
3268750000  -5.346872e+001  1.478364e+002 
3271875000  -5.237782e+001  1.339065e+002 
3275000000  -5.194353e+001  1.263536e+002 
3278125000  -5.181258e+001  1.066605e+002 
3281250000  -5.291670e+001  1.096186e+002 
3284375000  -5.185984e+001  9.451872e+001 
3287500000  -5.427509e+001  8.289046e+001 
3290625000  -5.425702e+001  7.496680e+001 
3293750000  -5.331986e+001  6.460514e+001 
3296875000  -5.467826e+001  5.767274e+001 
3300000000  -5.411745e+001  5.136446e+001 
3303125000  -5.330774e+001  4.042231e+001 
3306250000  -5.284595e+001  2.322126e+001 
3309375000  -5.301240e+001  1.840531e+001 
3312500000  -5.339106e+001  -2.425578e+000 
3315625000  -5.562545e+001  -7.813409e+000 
3318750000  -5.635433e+001  -1.612688e+001 
3321875000  -5.728068e+001  -2.202647e+001 
3325000000  -5.747144e+001  -2.259303e+001 
3328125000  -5.542543e+001  -2.245939e+001 
3331250000  -5.417912e+001  -2.777262e+001 
3334375000  -5.383096e+001  -4.563402e+001 
3337500000  -5.252261e+001  -6.700623e+001 
3340625000  -5.394022e+001  -8.312418e+001 
3343750000  -5.744221e+001  -7.814622e+001 
3346875000  -5.600724e+001  -9.948286e+001 
3350000000  -5.511323e+001  -9.653178e+001 
3353125000  -5.530105e+001  -1.204097e+002 
3356250000  -5.541947e+001  -1.249979e+002 
3359375000  -5.479507e+001  -1.363448e+002 
3362500000  -5.540938e+001  -1.514103e+002 
3365625000  -5.600772e+001  -1.549321e+002 
3368750000  -5.634338e+001  -1.673215e+002 
3371875000  -5.783118e+001  1.697722e+002 
3375000000  -5.851595e+001  1.640564e+002 
3378125000  -5.835607e+001  1.676888e+002 
3381250000  -6.215017e+001  1.614777e+002 
3384375000  -5.718692e+001  1.747518e+002 
3387500000  -5.534280e+001  1.482801e+002 
3390625000  -5.631857e+001  1.378427e+002 
3393750000  -5.729185e+001  1.233206e+002 
3396875000  -5.772763e+001  1.156912e+002 
3400000000  -5.571495e+001  9.426492e+001 
3403125000  -5.659328e+001  8.080578e+001 
3406250000  -5.632933e+001  7.476299e+001 
3409375000  -5.635385e+001  5.293857e+001 
3412500000  -5.729256e+001  5.627260e+001 
3415625000  -6.205598e+001  4.763880e+001 
3418750000  -6.114537e+001  4.855067e+001 
3421875000  -5.929565e+001  2.654415e+001 
3425000000  -5.983222e+001  3.143529e+001 
3428125000  -5.949899e+001  1.090426e+001 
3431250000  -6.051044e+001  8.099280e+000 
3434375000  -6.023082e+001  -1.374740e+001 
3437500000  -6.227480e+001  -2.341566e+001 
3440625000  -6.221902e+001  -2.443892e+001 
3443750000  -6.342165e+001  -2.042651e+001 
3446875000  -5.869364e+001  -5.300912e+001 
3450000000  -6.379690e+001  -6.868368e+001 
3453125000  -6.147629e+001  -7.527133e+001 
3456250000  -6.658974e+001  -9.240749e+001 
3459375000  -6.082310e+001  -6.386704e+001 
3462500000  -6.938673e+001  -1.151677e+002 
3465625000  -6.368179e+001  -9.550004e+001 
3468750000  -6.657141e+001  -1.011216e+002 
3471875000  -6.426133e+001  -1.018436e+002 
3475000000  -6.571301e+001  -1.176245e+002 
3478125000  -7.335367e+001  -1.386068e+002 
3481250000  -6.568885e+001  -1.635707e+002 
3484375000  -6.851003e+001  -1.287755e+002 
3487500000  -6.492675e+001  -1.380134e+002 
3490625000  -7.028093e+001  -8.900640e+001 
3493750000  -7.228392e+001  -1.490946e+002 
3496875000  -6.866685e+001  -1.570436e+002 
3500000000  -6.850155e+001  -1.716843e+002 
3503125000  -6.648715e+001  -1.199099e+002 
3506250000  -6.367805e+001  1.782179e+002 
3509375000  -6.822310e+001  1.796382e+002 
3512500000  -6.814697e+001  1.672442e+002 
3515625000  -6.558104e+001  1.725839e+002 
3518750000  -6.583886e+001  1.463322e+002 
3521875000  -6.698350e+001  1.133398e+002 
3525000000  -6.774249e+001  1.136579e+002 
3528125000  -6.898215e+001  1.211030e+002 
3531250000  -6.944321e+001  1.290558e+002 
3534375000  -6.403233e+001  9.043125e+001 
3537500000  -7.011362e+001  8.524517e+001 
3540625000  -6.863784e+001  7.289269e+001 
3543750000  -7.033739e+001  4.589301e+001 
3546875000  -6.850756e+001  7.108994e+001 
3550000000  -7.457198e+001  1.073616e+002 
3553125000  -6.771693e+001  3.297596e+001 
3556250000  -6.686356e+001  6.711120e+001 
3559375000  -7.130425e+001  1.618527e+000 
3562500000  -7.640260e+001  2.710667e+001 
3565625000  -6.789874e+001  2.319221e+001 
3568750000  -8.541178e+001  -1.165449e+002 
3571875000  -7.352381e+001  3.693878e+001 
3575000000  -7.065657e+001  2.081680e+001 
3578125000  -7.374976e+001  4.832200e+001 
3581250000  -7.224655e+001  -3.166326e+001 
3584375000  -6.897354e+001  7.590032e+001 
3587500000  -6.790475e+001  -2.029209e+001 
3590625000  -6.671378e+001  3.072126e+001 
3593750000  -7.227083e+001  1.441740e+001 
3596875000  -6.629015e+001  3.955530e+001 
3600000000  -6.751081e+001  -1.890798e+001 
3603125000  -6.963372e+001  1.307774e+000 
3606250000  -6.262881e+001  -3.162157e+001 
3609375000  -6.444035e+001  -3.332884e+001 
3612500000  -6.623342e+001  -6.341280e+001 
3615625000  -6.451715e+001  -5.400784e+001 
3618750000  -6.472919e+001  -6.852016e+001 
3621875000  -6.406073e+001  -7.085399e+001 
3625000000  -6.333311e+001  -6.135495e+001 
3628125000  -6.194286e+001  -9.917405e+001 
3631250000  -6.550918e+001  -1.290857e+002 
3634375000  -6.554375e+001  -1.169161e+002 
3637500000  -6.366564e+001  -1.322153e+002 
3640625000  -5.969156e+001  -1.300847e+002 
3643750000  -5.888547e+001  -1.447436e+002 
3646875000  -6.219336e+001  -1.678730e+002 
3650000000  -6.129891e+001  1.686356e+002 
3653125000  -6.534286e+001  -1.721608e+002 
3656250000  -6.472130e+001  1.630055e+002 
3659375000  -6.341301e+001  1.646954e+002 
3662500000  -6.484311e+001  1.381565e+002 
3665625000  -6.307975e+001  1.529498e+002 
3668750000  -6.167216e+001  1.261235e+002 
3671875000  -6.728403e+001  1.231465e+002 
3675000000  -6.191130e+001  1.075764e+002 
3678125000  -6.331963e+001  1.232820e+002 
3681250000  -6.315915e+001  1.181641e+002 
3684375000  -7.290348e+001  8.449271e+001 
3687500000  -6.747916e+001  1.042414e+002 
3690625000  -6.637128e+001  7.914107e+001 
3693750000  -6.769196e+001  1.055248e+002 
3696875000  -6.618952e+001  4.797485e+001 
3700000000  -6.473463e+001  8.586131e+001 
3703125000  -6.278973e+001  3.799154e+001 
3706250000  -6.750805e+001  6.351044e+001 
3709375000  -6.668082e+001  9.087024e+001 
3712500000  -6.391716e+001  8.498268e+001 
3715625000  -6.444100e+001  3.927475e+001 
3718750000  -6.218477e+001  2.029431e+001 
3721875000  -6.018021e+001  1.090443e+001 
3725000000  -6.428622e+001  7.958299e+000 
3728125000  -5.920084e+001  6.147298e+000 
3731250000  -5.895578e+001  1.035712e+000 
3734375000  -6.173582e+001  -1.810190e+001 
3737500000  -5.898264e+001  -4.015089e+001 
3740625000  -5.877080e+001  -4.820842e+001 
3743750000  -5.927872e+001  -4.535046e+001 
3746875000  -5.993940e+001  -5.199265e+001 
3750000000  -5.951987e+001  -8.394543e+001 
3753125000  -5.841557e+001  -7.572010e+001 
3756250000  -5.734929e+001  -1.057379e+002 
3759375000  -5.726016e+001  -1.053107e+002 
3762500000  -5.717103e+001  -1.124879e+002 
3765625000  -5.817003e+001  -1.176445e+002 
3768750000  -5.812582e+001  -1.290613e+002 
3771875000  -5.535558e+001  -1.363088e+002 
3775000000  -5.725694e+001  -1.496227e+002 
3778125000  -5.668159e+001  -1.770097e+002 
3781250000  -5.692900e+001  1.754543e+002 
3784375000  -5.589711e+001  1.610480e+002 
3787500000  -5.573830e+001  1.481651e+002 
3790625000  -5.745137e+001  1.442702e+002 
3793750000  -5.657601e+001  1.381380e+002 
3796875000  -5.767003e+001  1.235263e+002 
3800000000  -5.231847e+001  8.744812e+001 
3803125000  -5.880733e+001  1.014224e+002 
3806250000  -5.774178e+001  8.109566e+001 
3809375000  -5.864887e+001  7.697149e+001 
3812500000  -5.662267e+001  6.359907e+001 
3815625000  -6.129858e+001  4.320393e+001 
3818750000  -6.113717e+001  2.088883e+001 
3821875000  -6.089378e+001  5.677270e+001 
3825000000  -5.955507e+001  5.837106e+001 
3828125000  -6.062569e+001  3.100128e+001 
3831250000  -6.205692e+001  -1.567460e-001 
3834375000  -6.283358e+001  2.696154e+001 
3837500000  -6.503220e+001  5.388877e+000 
3840625000  -6.306600e+001  1.528574e+001 
3843750000  -6.200037e+001  -5.778818e+000 
3846875000  -6.378558e+001  6.730261e+000 
3850000000  -6.362464e+001  2.837265e-003 
3853125000  -6.625934e+001  -2.010081e+001 
3856250000  -6.218045e+001  -1.588805e+000 
3859375000  -5.925286e+001  -2.820285e+001 
3862500000  -6.049224e+001  -2.905543e+001 
3865625000  -6.092771e+001  -5.345079e+001 
3868750000  -5.960033e+001  -5.178754e+001 
3871875000  -5.802003e+001  -5.633040e+001 
3875000000  -5.994063e+001  -7.091245e+001 
3878125000  -5.859901e+001  -6.854569e+001 
3881250000  -5.703769e+001  -8.259761e+001 
3884375000  -5.583883e+001  -8.776971e+001 
3887500000  -5.653128e+001  -1.128220e+002 
3890625000  -5.653418e+001  -1.152421e+002 
3893750000  -5.762381e+001  -1.268154e+002 
3896875000  -5.577871e+001  -1.304332e+002 
3900000000  -5.412969e+001  -1.414485e+002 
3903125000  -5.514105e+001  -1.463100e+002 
3906250000  -5.292635e+001  -1.687920e+002 
3909375000  -5.362566e+001  1.754704e+002 
3912500000  -5.420451e+001  1.688415e+002 
3915625000  -5.607619e+001  1.656156e+002 
3918750000  -5.425776e+001  1.515439e+002 
3921875000  -5.597522e+001  1.461976e+002 
3925000000  -5.303411e+001  1.320798e+002 
3928125000  -5.332422e+001  1.164856e+002 
3931250000  -5.434992e+001  9.988161e+001 
3934375000  -5.547291e+001  9.507856e+001 
3937500000  -5.571800e+001  8.110996e+001 
3940625000  -5.437356e+001  7.821249e+001 
3943750000  -5.451360e+001  6.811491e+001 
3946875000  -5.345539e+001  4.683183e+001 
3950000000  -5.470774e+001  3.633708e+001 
3953125000  -5.419917e+001  2.516778e+001 
3956250000  -5.505304e+001  3.155876e+001 
3959375000  -5.159312e+001  1.932407e+001 
3962500000  -5.227010e+001  1.792971e+000 
3965625000  -5.308376e+001  -1.943591e+001 
3968750000  -5.349474e+001  -2.961198e+001 
3971875000  -5.389377e+001  -3.284595e+001 
3975000000  -5.481297e+001  -5.959427e+001 
3978125000  -5.455914e+001  -6.444805e+001 
3981250000  -5.404662e+001  -7.357819e+001 
3984375000  -5.491230e+001  -8.319863e+001 
3987500000  -5.489515e+001  -8.639111e+001 
3990625000  -5.799141e+001  -9.691296e+001 
3993750000  -5.641348e+001  -1.128956e+002 
3996875000  -5.772910e+001  -1.186002e+002 
4000000000  -5.915306e+001  -1.221272e+002 
4003125000  -5.811540e+001  -1.209446e+002 
4006250000  -5.625971e+001  -1.398213e+002 
4009375000  -5.620368e+001  -1.474865e+002 
4012500000  -6.148964e+001  -1.486338e+002 
4015625000  -6.094860e+001  -1.661078e+002 
4018750000  -5.922370e+001  -1.613604e+002 
4021875000  -6.000224e+001  -1.750446e+002 
4025000000  -5.987416e+001  -1.789634e+002 
4028125000  -5.875428e+001  1.751835e+002 
4031250000  -6.128772e+001  1.713797e+002 
4034375000  -6.106499e+001  1.758032e+002 
4037500000  -5.932169e+001  1.492955e+002 
4040625000  -5.928160e+001  1.479041e+002 
4043750000  -6.175434e+001  1.665981e+002 
4046875000  -5.702575e+001  1.400915e+002 
4050000000  -5.733310e+001  1.258294e+002 
4053125000  -6.054426e+001  1.108309e+002 
4056250000  -5.792400e+001  1.083576e+002 
4059375000  -5.456009e+001  1.109918e+002 
4062500000  -5.399780e+001  1.008528e+002 
4065625000  -5.490307e+001  8.183199e+001 
4068750000  -5.357912e+001  7.685532e+001 
4071875000  -5.209486e+001  6.742432e+001 
4075000000  -5.330723e+001  4.951045e+001 
4078125000  -5.405430e+001  3.388881e+001 
4081250000  -5.299382e+001  2.730076e+001 
4084375000  -5.217702e+001  9.072838e+000 
4087500000  -5.367249e+001  -9.627642e+000 
4090625000  -5.402915e+001  1.726773e+000 
4093750000  -5.377062e+001  -2.026716e+001 
4096875000  -5.222396e+001  -2.437454e+001 
4100000000  -5.305783e+001  -4.713876e+001 
4103125000  -5.500703e+001  -4.439122e+001 
4106250000  -5.290927e+001  -5.421946e+001 
4109375000  -5.286084e+001  -5.672811e+001 
4112500000  -5.316190e+001  -8.153862e+001 
4115625000  -5.318624e+001  -9.057372e+001 
4118750000  -5.268416e+001  -1.025262e+002 
4121875000  -5.385052e+001  -1.192478e+002 
4125000000  -5.353535e+001  -1.281155e+002 
4128125000  -5.469719e+001  -1.198453e+002 
4131250000  -5.362896e+001  -1.246607e+002 
4134375000  -5.235936e+001  -1.460775e+002 
4137500000  -5.337489e+001  -1.631863e+002 
4140625000  -5.354286e+001  1.764718e+002 
4143750000  -5.568795e+001  1.697205e+002 
4146875000  -5.376411e+001  1.661786e+002 
4150000000  -5.332312e+001  1.564251e+002 
4153125000  -5.408319e+001  1.449289e+002 
4156250000  -5.589225e+001  1.268422e+002 
4159375000  -5.704696e+001  1.231925e+002 
4162500000  -5.539547e+001  1.153054e+002 
4165625000  -5.325915e+001  1.174607e+002 
4168750000  -5.341141e+001  8.902924e+001 
4171875000  -5.504099e+001  8.672124e+001 
4175000000  -5.575785e+001  6.880618e+001 
4178125000  -5.607087e+001  6.421613e+001 
4181250000  -5.636806e+001  4.494323e+001 
4184375000  -5.841980e+001  3.535848e+001 
4187500000  -5.916868e+001  3.329691e+001 
4190625000  -6.024555e+001  2.496663e+001 
4193750000  -5.910967e+001  2.040264e+001 
4196875000  -6.752630e+001  1.563325e+001 
4200000000  -6.227777e+001  9.554131e+000 
4203125000  -6.260092e+001  1.852189e+001 
4206250000  -5.876420e+001  5.942209e+000 
4209375000  -6.388579e+001  -2.588108e+000 
4212500000  -6.514109e+001  2.707264e+001 
4215625000  -6.451134e+001  -6.800201e-002 
4218750000  -6.040205e+001  -1.377326e+000 
4221875000  -5.910172e+001  -1.567502e+001 
4225000000  -5.870852e+001  5.191503e+000 
4228125000  -5.728828e+001  -3.346248e+001 
4231250000  -5.996604e+001  -3.642127e+001 
4234375000  -5.962127e+001  -5.307410e+001 
4237500000  -5.878237e+001  -3.519481e+001 
4240625000  -5.530999e+001  -6.511774e+001 
4243750000  -5.778247e+001  -5.617118e+001 
4246875000  -5.769334e+001  -6.625871e+001 
4250000000  -5.672971e+001  -8.966026e+001 
4253125000  -5.646752e+001  -8.328722e+001 
4256250000  -5.492139e+001  -1.004854e+002 
4259375000  -5.693659e+001  -1.105382e+002 
4262500000  -5.393914e+001  -1.121293e+002 
4265625000  -5.453051e+001  -1.163774e+002 
4268750000  -5.259466e+001  -1.267429e+002 
4271875000  -5.251105e+001  -1.553434e+002 
4275000000  -5.101235e+001  -1.746781e+002 
4278125000  -5.487923e+001  1.769865e+002 
4281250000  -5.361152e+001  1.614739e+002 
4284375000  -5.278268e+001  1.679194e+002 
4287500000  -5.590564e+001  1.571613e+002 
4290625000  -5.463187e+001  1.556855e+002 
4293750000  -5.325252e+001  1.403636e+002 
4296875000  -5.177078e+001  1.217969e+002 
4300000000  -5.264063e+001  1.134426e+002 
4303125000  -5.358033e+001  9.803683e+001 
4306250000  -5.234040e+001  9.671451e+001 
4309375000  -5.203747e+001  8.360175e+001 
4312500000  -5.144292e+001  5.476724e+001 
4315625000  -5.194505e+001  5.572889e+001 
4318750000  -5.402512e+001  4.571824e+001 
4321875000  -5.211119e+001  4.113874e+001 
4325000000  -5.139110e+001  2.405967e+001 
4328125000  -5.119148e+001  1.304681e+001 
4331250000  -5.260689e+001  -4.310723e+000 
4334375000  -5.437016e+001  -9.315995e+000 
4337500000  -5.581561e+001  -2.587487e+001 
4340625000  -5.591993e+001  -1.767025e+001 
4343750000  -5.421544e+001  -4.204124e+001 
4346875000  -5.539628e+001  -4.041401e+001 
4350000000  -5.607061e+001  -4.481783e+001 
4353125000  -5.870494e+001  -8.466102e+001 
4356250000  -5.921176e+001  -7.263682e+001 
4359375000  -5.831039e+001  -3.433472e+001 
4362500000  -5.394222e+001  -6.779671e+001 
4365625000  -5.588411e+001  -8.374721e+001 
4368750000  -5.500282e+001  -8.516227e+001 
4371875000  -5.759767e+001  -1.111220e+002 
4375000000  -5.702441e+001  -1.145439e+002 
4378125000  -5.814590e+001  -1.145238e+002 
4381250000  -5.637194e+001  -1.309626e+002 
4384375000  -5.597588e+001  -1.411955e+002 
4387500000  -5.851681e+001  -1.330284e+002 
4390625000  -5.669820e+001  -1.620003e+002 
4393750000  -5.708696e+001  -1.332988e+002 
4396875000  -5.539434e+001  -1.591514e+002 
4400000000  -5.609912e+001  -1.748422e+002 
4403125000  -5.419437e+001  1.722283e+002 
4406250000  -5.716046e+001  1.771336e+002 
4409375000  -5.722002e+001  1.705105e+002 
4412500000  -5.687532e+001  1.587442e+002 
4415625000  -5.438634e+001  1.767820e+002 
4418750000  -5.410592e+001  1.592972e+002 
