!Agilent Technologies,E8363B,MY43030201,A.06.04.32
!Agilent E8363B: A.06.04.32
!Date: Tuesday, November 11, 2014 22:09:48
!Correction: S21(Response(S21)) 
!S1P File: Measurement: S21:
# Hz S  dB   R 50
3000000000  -4.890413e+001  -7.390973e+001 
3003125000  -5.133001e+001  -8.363317e+001 
3006250000  -5.137501e+001  -8.803056e+001 
3009375000  -5.175152e+001  -9.002100e+001 
3012500000  -5.100609e+001  -9.860702e+001 
3015625000  -5.143976e+001  -1.137856e+002 
3018750000  -5.160226e+001  -1.169576e+002 
3021875000  -5.004689e+001  -1.200772e+002 
3025000000  -4.896831e+001  -1.284073e+002 
3028125000  -4.762283e+001  -1.470829e+002 
3031250000  -4.729593e+001  -1.633766e+002 
3034375000  -4.718013e+001  1.798024e+002 
3037500000  -4.774260e+001  1.655871e+002 
3040625000  -4.900486e+001  1.516716e+002 
3043750000  -4.977435e+001  1.383831e+002 
3046875000  -5.029547e+001  1.258463e+002 
3050000000  -5.230917e+001  1.214736e+002 
3053125000  -5.150510e+001  1.218137e+002 
3056250000  -5.102237e+001  1.152516e+002 
3059375000  -5.144927e+001  1.101449e+002 
3062500000  -4.982698e+001  9.941447e+001 
3065625000  -4.956257e+001  8.477355e+001 
3068750000  -4.878904e+001  7.511360e+001 
3071875000  -4.888979e+001  6.608821e+001 
3075000000  -4.806644e+001  5.459761e+001 
3078125000  -4.894638e+001  4.466280e+001 
3081250000  -4.899411e+001  2.989112e+001 
3084375000  -4.773643e+001  2.463283e+001 
3087500000  -4.839965e+001  9.499107e+000 
3090625000  -4.777582e+001  -5.098990e+000 
3093750000  -4.904586e+001  -1.518647e+001 
3096875000  -4.983703e+001  -2.749604e+001 
3100000000  -4.892830e+001  -3.724961e+001 
3103125000  -4.934341e+001  -4.218576e+001 
3106250000  -4.914987e+001  -5.052137e+001 
3109375000  -4.965624e+001  -6.067321e+001 
3112500000  -4.939548e+001  -7.160528e+001 
3115625000  -4.911511e+001  -8.023706e+001 
3118750000  -4.994073e+001  -8.868117e+001 
3121875000  -4.930841e+001  -1.024376e+002 
3125000000  -5.097046e+001  -1.099922e+002 
3128125000  -5.022939e+001  -1.098730e+002 
3131250000  -4.862967e+001  -1.229713e+002 
3134375000  -4.797105e+001  -1.433267e+002 
3137500000  -4.837658e+001  -1.577218e+002 
3140625000  -4.892873e+001  -1.617688e+002 
3143750000  -5.030325e+001  -1.737581e+002 
3146875000  -5.029320e+001  -1.720599e+002 
3150000000  -4.928869e+001  1.769050e+002 
3153125000  -4.956942e+001  1.665282e+002 
3156250000  -5.082667e+001  1.670897e+002 
3159375000  -4.795595e+001  1.564922e+002 
3162500000  -4.607618e+001  1.372084e+002 
3165625000  -4.818861e+001  1.180036e+002 
3168750000  -4.744239e+001  1.164381e+002 
3171875000  -4.729175e+001  9.873148e+001 
3175000000  -4.767834e+001  8.544685e+001 
3178125000  -4.736045e+001  8.161057e+001 
3181250000  -4.684074e+001  6.762578e+001 
3184375000  -4.666018e+001  5.043063e+001 
3187500000  -4.769533e+001  3.127655e+001 
3190625000  -4.997937e+001  1.797216e+001 
3193750000  -4.944890e+001  1.759530e+001 
3196875000  -4.950265e+001  1.157313e+001 
3200000000  -4.831532e+001  6.807437e+000 
3203125000  -4.868862e+001  -5.949784e+000 
3206250000  -4.833922e+001  -1.868531e+001 
3209375000  -4.853921e+001  -3.161193e+001 
3212500000  -4.880927e+001  -4.169211e+001 
3215625000  -4.806217e+001  -4.921545e+001 
3218750000  -4.896949e+001  -6.761655e+001 
3221875000  -4.943668e+001  -8.105893e+001 
3225000000  -4.998112e+001  -8.863483e+001 
3228125000  -4.969260e+001  -9.443594e+001 
3231250000  -5.087799e+001  -1.046566e+002 
3234375000  -5.011074e+001  -1.102715e+002 
3237500000  -5.039631e+001  -1.200513e+002 
3240625000  -4.990400e+001  -1.325555e+002 
3243750000  -4.998474e+001  -1.462826e+002 
3246875000  -5.007505e+001  -1.537476e+002 
3250000000  -5.078139e+001  -1.652236e+002 
3253125000  -5.071633e+001  -1.725196e+002 
3256250000  -5.042700e+001  1.740771e+002 
3259375000  -5.151761e+001  1.592964e+002 
3262500000  -5.229284e+001  1.486961e+002 
3265625000  -5.353044e+001  1.402005e+002 
3268750000  -5.303308e+001  1.427067e+002 
3271875000  -5.259262e+001  1.333748e+002 
3275000000  -5.224242e+001  1.205491e+002 
3278125000  -5.277195e+001  1.109010e+002 
3281250000  -5.291009e+001  1.040883e+002 
3284375000  -5.210043e+001  8.999498e+001 
3287500000  -5.354821e+001  8.722939e+001 
3290625000  -5.279461e+001  6.762535e+001 
3293750000  -5.303282e+001  5.742843e+001 
3296875000  -5.345950e+001  4.656933e+001 
3300000000  -5.414455e+001  5.043665e+001 
3303125000  -5.294091e+001  3.801067e+001 
3306250000  -5.278895e+001  2.979402e+001 
3309375000  -5.313828e+001  1.489510e+001 
3312500000  -5.304459e+001  -5.594477e+000 
3315625000  -5.389567e+001  -1.237754e+001 
3318750000  -5.504926e+001  -2.133018e+001 
3321875000  -5.878103e+001  -1.761243e+001 
3325000000  -5.621379e+001  -3.072563e+001 
3328125000  -5.495810e+001  -2.482482e+001 
3331250000  -5.354550e+001  -2.262396e+001 
3334375000  -5.156760e+001  -4.326960e+001 
3337500000  -5.211629e+001  -6.869717e+001 
3340625000  -5.441858e+001  -8.549529e+001 
3343750000  -5.578697e+001  -8.481518e+001 
3346875000  -5.579172e+001  -9.126826e+001 
3350000000  -5.400519e+001  -9.816921e+001 
3353125000  -5.496947e+001  -1.202066e+002 
3356250000  -5.403272e+001  -1.356279e+002 
3359375000  -5.435316e+001  -1.484363e+002 
3362500000  -5.573317e+001  -1.510793e+002 
3365625000  -5.547310e+001  -1.572260e+002 
3368750000  -5.707743e+001  -1.751613e+002 
3371875000  -5.736028e+001  -1.792104e+002 
3375000000  -5.922069e+001  1.661136e+002 
3378125000  -5.904775e+001  1.609263e+002 
3381250000  -5.974000e+001  1.703402e+002 
3384375000  -5.580998e+001  1.753989e+002 
3387500000  -5.445308e+001  1.484550e+002 
3390625000  -5.741562e+001  1.204806e+002 
3393750000  -5.636750e+001  1.203597e+002 
3396875000  -5.662814e+001  1.115871e+002 
3400000000  -5.477571e+001  9.014500e+001 
3403125000  -5.668659e+001  7.737366e+001 
3406250000  -5.839408e+001  7.723721e+001 
3409375000  -5.794486e+001  5.480014e+001 
3412500000  -5.824839e+001  5.395865e+001 
3415625000  -6.001477e+001  3.726528e+001 
3418750000  -5.891596e+001  3.472905e+001 
3421875000  -6.063920e+001  2.401492e+001 
3425000000  -6.020644e+001  2.316387e+001 
3428125000  -6.027877e+001  8.179804e+000 
3431250000  -6.006502e+001  -1.331549e+000 
3434375000  -5.878188e+001  -2.573298e+001 
3437500000  -6.187551e+001  -3.485355e+001 
3440625000  -6.083917e+001  -1.552283e+001 
3443750000  -6.372102e+001  -2.318646e+001 
3446875000  -5.959005e+001  -6.586867e+001 
3450000000  -6.269016e+001  -8.133910e+001 
3453125000  -6.344916e+001  -8.155502e+001 
3456250000  -6.607182e+001  -1.203162e+002 
3459375000  -6.846658e+001  -8.495210e+001 
3462500000  -6.818455e+001  -9.823130e+001 
3465625000  -6.240490e+001  -8.399107e+001 
3468750000  -7.165685e+001  -1.102443e+002 
3471875000  -7.035826e+001  -9.187990e+001 
3475000000  -6.480362e+001  -1.459461e+002 
3478125000  -7.221832e+001  -1.319917e+002 
3481250000  -8.152216e+001  -1.113226e+002 
3484375000  -6.649186e+001  -1.125647e+002 
3487500000  -6.469632e+001  -1.196464e+002 
3490625000  -6.855396e+001  -1.426235e+002 
3493750000  -6.836961e+001  -1.449143e+002 
3496875000  -6.783381e+001  -1.659156e+002 
3500000000  -6.442876e+001  -1.697754e+002 
3503125000  -6.555898e+001  -1.590321e+002 
3506250000  -6.245361e+001  1.791747e+002 
3509375000  -6.736909e+001  1.469024e+002 
3512500000  -6.482604e+001  1.449355e+002 
3515625000  -6.651054e+001  1.351599e+002 
3518750000  -6.838988e+001  1.413197e+002 
3521875000  -6.505319e+001  1.265403e+002 
3525000000  -6.792159e+001  1.183808e+002 
3528125000  -6.669299e+001  1.123041e+002 
3531250000  -7.036264e+001  9.852002e+001 
3534375000  -6.795675e+001  1.106971e+002 
3537500000  -6.617753e+001  8.966241e+001 
3540625000  -6.548358e+001  3.392423e+001 
3543750000  -7.300120e+001  6.209987e+001 
3546875000  -7.539958e+001  1.218281e+002 
3550000000  -7.077097e+001  8.291813e+001 
3553125000  -6.574580e+001  2.984135e+001 
3556250000  -7.209312e+001  -2.021967e+001 
3559375000  -6.746547e+001  1.673513e+001 
3562500000  -8.032659e+001  6.697893e+001 
3565625000  -7.438841e+001  7.684759e+000 
3568750000  -7.647095e+001  1.109075e+002 
3571875000  -7.245126e+001  -1.466010e+001 
3575000000  -7.782283e+001  4.014971e+001 
3578125000  -6.717602e+001  6.656364e+001 
3581250000  -7.439475e+001  5.373233e+000 
3584375000  -7.246555e+001  8.996617e+001 
3587500000  -7.442825e+001  4.117431e+001 
3590625000  -7.635970e+001  -3.103254e+000 
3593750000  -6.524187e+001  -3.085274e+001 
3596875000  -6.923003e+001  3.523109e+001 
3600000000  -6.866682e+001  -1.628795e+001 
3603125000  -7.038997e+001  -2.075668e+000 
3606250000  -6.505456e+001  -4.100681e+001 
3609375000  -6.357058e+001  -4.828646e+001 
3612500000  -6.424479e+001  -4.222251e+001 
3615625000  -7.104316e+001  -6.780119e+001 
3618750000  -6.206050e+001  -6.957915e+001 
3621875000  -6.532587e+001  -8.304877e+001 
3625000000  -6.451787e+001  -9.909832e+001 
3628125000  -6.401704e+001  -1.157535e+002 
3631250000  -6.327353e+001  -1.086651e+002 
3634375000  -6.535912e+001  -1.255194e+002 
3637500000  -6.274889e+001  -1.232125e+002 
3640625000  -6.324921e+001  -1.295959e+002 
3643750000  -6.606948e+001  -1.256936e+002 
3646875000  -6.346833e+001  -1.654317e+002 
3650000000  -6.246553e+001  -1.621975e+002 
3653125000  -6.480269e+001  1.704226e+002 
3656250000  -6.958913e+001  1.601163e+002 
3659375000  -6.271804e+001  1.632917e+002 
3662500000  -6.363767e+001  1.411870e+002 
3665625000  -6.478742e+001  1.498056e+002 
3668750000  -6.298819e+001  1.196038e+002 
3671875000  -6.367171e+001  1.342173e+002 
3675000000  -6.238154e+001  9.256435e+001 
3678125000  -6.587576e+001  1.125351e+002 
3681250000  -6.203351e+001  1.030199e+002 
3684375000  -7.554951e+001  1.301285e+002 
3687500000  -6.649126e+001  7.703439e+001 
3690625000  -6.554356e+001  7.467907e+001 
3693750000  -6.768616e+001  8.173114e+001 
3696875000  -6.752008e+001  9.575552e+001 
3700000000  -6.403055e+001  7.562162e+001 
3703125000  -6.585697e+001  5.190850e+001 
3706250000  -6.556798e+001  6.163715e+001 
3709375000  -6.697741e+001  3.292818e+001 
3712500000  -6.395349e+001  5.640812e+001 
3715625000  -6.174018e+001  3.049492e+001 
3718750000  -6.037064e+001  1.596159e+001 
3721875000  -6.137389e+001  1.501792e+001 
3725000000  -6.349780e+001  2.693448e+001 
3728125000  -5.933626e+001  1.345682e+001 
3731250000  -5.805405e+001  -5.808961e+000 
3734375000  -5.822166e+001  -1.217786e+001 
3737500000  -5.935432e+001  -3.526379e+001 
3740625000  -5.992077e+001  -3.936388e+001 
3743750000  -5.979559e+001  -6.565934e+001 
3746875000  -6.179379e+001  -6.103001e+001 
3750000000  -5.861996e+001  -7.505972e+001 
3753125000  -5.907693e+001  -7.735553e+001 
3756250000  -5.838391e+001  -9.478364e+001 
3759375000  -5.762223e+001  -1.111550e+002 
3762500000  -5.627175e+001  -1.219108e+002 
3765625000  -5.694125e+001  -1.241362e+002 
3768750000  -5.700053e+001  -1.321027e+002 
3771875000  -5.562173e+001  -1.562077e+002 
3775000000  -5.708256e+001  -1.624871e+002 
3778125000  -5.850256e+001  1.739896e+002 
3781250000  -5.602780e+001  1.703320e+002 
3784375000  -5.814396e+001  1.621482e+002 
3787500000  -5.841489e+001  1.504952e+002 
3790625000  -5.733088e+001  1.360053e+002 
3793750000  -5.640487e+001  1.250877e+002 
3796875000  -5.677610e+001  1.133390e+002 
3800000000  -5.293104e+001  8.006878e+001 
3803125000  -5.617035e+001  1.044273e+002 
3806250000  -6.005026e+001  8.438219e+001 
3809375000  -5.768884e+001  7.556862e+001 
3812500000  -5.758674e+001  6.188165e+001 
3815625000  -5.959041e+001  5.164601e+001 
3818750000  -6.026618e+001  3.545392e+001 
3821875000  -6.059167e+001  6.029637e+001 
3825000000  -5.764012e+001  5.211363e+001 
3828125000  -6.000702e+001  2.277559e+001 
3831250000  -6.093697e+001  9.568515e+000 
3834375000  -6.390203e+001  4.902384e+000 
3837500000  -6.613098e+001  4.938000e+001 
3840625000  -6.182288e+001  1.278181e+001 
3843750000  -6.056520e+001  -2.163973e+001 
3846875000  -6.181100e+001  -1.608921e+001 
3850000000  -6.217033e+001  4.888637e+000 
3853125000  -6.239172e+001  -2.422062e+001 
3856250000  -6.004345e+001  -1.327781e+000 
3859375000  -5.964423e+001  -5.452291e+001 
3862500000  -6.159059e+001  -4.321322e+001 
3865625000  -5.905263e+001  -4.641902e+001 
3868750000  -6.081236e+001  -4.122047e+001 
3871875000  -5.530581e+001  -6.446897e+001 
3875000000  -5.864869e+001  -8.061679e+001 
3878125000  -5.809475e+001  -8.524266e+001 
3881250000  -5.770174e+001  -9.798826e+001 
3884375000  -5.560207e+001  -9.521560e+001 
3887500000  -5.658171e+001  -1.139052e+002 
3890625000  -5.696116e+001  -1.136655e+002 
3893750000  -5.638585e+001  -1.415683e+002 
3896875000  -5.696233e+001  -1.340333e+002 
3900000000  -5.675413e+001  -1.480762e+002 
3903125000  -5.562723e+001  -1.531010e+002 
3906250000  -5.398299e+001  -1.745865e+002 
3909375000  -5.442345e+001  -1.781192e+002 
3912500000  -5.543707e+001  1.574846e+002 
3915625000  -5.615943e+001  1.496377e+002 
3918750000  -5.432412e+001  1.530112e+002 
3921875000  -5.458173e+001  1.324000e+002 
3925000000  -5.326654e+001  1.264951e+002 
3928125000  -5.262087e+001  1.064227e+002 
3931250000  -5.408239e+001  9.764146e+001 
3934375000  -5.472334e+001  8.582481e+001 
3937500000  -5.475248e+001  8.284255e+001 
3940625000  -5.407955e+001  6.995921e+001 
3943750000  -5.350238e+001  6.333326e+001 
3946875000  -5.242832e+001  4.834401e+001 
3950000000  -5.302453e+001  3.831635e+001 
3953125000  -5.380600e+001  3.026516e+001 
3956250000  -5.184463e+001  2.250996e+001 
3959375000  -5.222724e+001  1.362843e+001 
3962500000  -5.326792e+001  -1.097836e+000 
3965625000  -5.319992e+001  -1.909390e+001 
3968750000  -5.393049e+001  -3.573727e+001 
3971875000  -5.346553e+001  -4.492883e+001 
3975000000  -5.290685e+001  -6.180709e+001 
3978125000  -5.420463e+001  -5.822665e+001 
3981250000  -5.379382e+001  -7.643691e+001 
3984375000  -5.470682e+001  -8.964288e+001 
3987500000  -5.538160e+001  -8.874190e+001 
3990625000  -5.585948e+001  -9.433315e+001 
3993750000  -5.958878e+001  -1.155599e+002 
3996875000  -5.805748e+001  -1.293543e+002 
4000000000  -5.911619e+001  -1.198093e+002 
4003125000  -5.956620e+001  -1.285985e+002 
4006250000  -5.536715e+001  -1.424675e+002 
4009375000  -5.700927e+001  -1.464304e+002 
4012500000  -5.803092e+001  -1.646478e+002 
4015625000  -5.789092e+001  -1.707300e+002 
4018750000  -6.070285e+001  -1.649501e+002 
4021875000  -6.023785e+001  -1.678707e+002 
4025000000  -6.020746e+001  1.667173e+002 
4028125000  -5.729928e+001  1.785846e+002 
4031250000  -6.149451e+001  1.657957e+002 
4034375000  -6.030319e+001  1.722081e+002 
4037500000  -5.872106e+001  1.520858e+002 
4040625000  -5.876282e+001  1.443847e+002 
4043750000  -5.698369e+001  1.524580e+002 
4046875000  -5.870431e+001  1.323343e+002 
4050000000  -5.599759e+001  1.166252e+002 
4053125000  -5.776817e+001  1.110504e+002 
4056250000  -5.846210e+001  1.254560e+002 
4059375000  -5.564123e+001  1.056145e+002 
4062500000  -5.591594e+001  8.779507e+001 
4065625000  -5.501909e+001  8.255573e+001 
4068750000  -5.352045e+001  7.763453e+001 
4071875000  -5.252446e+001  5.851927e+001 
4075000000  -5.319077e+001  4.125998e+001 
4078125000  -5.341956e+001  4.080463e+001 
4081250000  -5.356442e+001  2.021205e+001 
4084375000  -5.264080e+001  5.032094e+000 
4087500000  -5.431440e+001  -6.667827e+000 
4090625000  -5.213449e+001  -2.861460e+000 
4093750000  -5.275212e+001  -2.519270e+001 
4096875000  -5.251669e+001  -3.083554e+001 
4100000000  -5.337812e+001  -5.623943e+001 
4103125000  -5.496235e+001  -5.058245e+001 
4106250000  -5.400432e+001  -4.807314e+001 
4109375000  -5.331034e+001  -6.725327e+001 
4112500000  -5.206943e+001  -9.059952e+001 
4115625000  -5.323908e+001  -1.018045e+002 
4118750000  -5.220390e+001  -9.983787e+001 
4121875000  -5.420083e+001  -1.188243e+002 
4125000000  -5.381395e+001  -1.276380e+002 
4128125000  -5.465306e+001  -1.331781e+002 
4131250000  -5.363204e+001  -1.354813e+002 
4134375000  -5.241119e+001  -1.489510e+002 
4137500000  -5.203953e+001  -1.709746e+002 
4140625000  -5.330085e+001  1.762600e+002 
4143750000  -5.606036e+001  1.709959e+002 
4146875000  -5.454230e+001  1.672790e+002 
4150000000  -5.373204e+001  1.577173e+002 
4153125000  -5.416681e+001  1.473233e+002 
4156250000  -5.587506e+001  1.288381e+002 
4159375000  -5.619127e+001  1.225481e+002 
4162500000  -5.519021e+001  1.115591e+002 
4165625000  -5.544875e+001  1.227038e+002 
4168750000  -5.422541e+001  9.440079e+001 
4171875000  -5.545359e+001  7.071957e+001 
4175000000  -5.598055e+001  5.758561e+001 
4178125000  -5.741970e+001  5.915290e+001 
4181250000  -5.799629e+001  4.546714e+001 
4184375000  -5.959814e+001  2.994056e+001 
4187500000  -5.757575e+001  3.374288e+001 
4190625000  -6.144211e+001  9.531885e+000 
4193750000  -5.860460e+001  2.931282e+001 
4196875000  -6.334117e+001  3.461368e+001 
4200000000  -6.634061e+001  2.349430e+001 
4203125000  -6.919603e+001  3.767427e+001 
4206250000  -5.908868e+001  3.107347e+001 
4209375000  -5.964057e+001  -3.293649e+001 
4212500000  -6.681637e+001  -3.543518e+001 
4215625000  -6.878866e+001  -6.316388e+001 
4218750000  -6.006448e+001  -5.305130e+000 
4221875000  -5.831787e+001  -2.717332e+001 
4225000000  -5.861469e+001  -7.696418e+000 
4228125000  -5.794309e+001  -2.381807e+001 
4231250000  -5.927457e+001  -1.958442e+001 
4234375000  -5.772112e+001  -6.544238e+001 
4237500000  -5.779579e+001  -4.360225e+001 
4240625000  -5.501500e+001  -5.652391e+001 
4243750000  -5.862831e+001  -8.107706e+001 
4246875000  -5.577674e+001  -8.559435e+001 
4250000000  -5.712344e+001  -9.236231e+001 
4253125000  -5.592143e+001  -9.247081e+001 
4256250000  -5.657499e+001  -1.093280e+002 
4259375000  -5.472977e+001  -1.083498e+002 
4262500000  -5.473849e+001  -1.217596e+002 
4265625000  -5.375212e+001  -1.281356e+002 
4268750000  -5.320033e+001  -1.442608e+002 
4271875000  -5.170745e+001  -1.663749e+002 
4275000000  -5.086185e+001  1.736756e+002 
4278125000  -5.402025e+001  1.723491e+002 
4281250000  -5.376664e+001  1.611929e+002 
4284375000  -5.230945e+001  1.536277e+002 
4287500000  -5.469624e+001  1.496084e+002 
4290625000  -5.665451e+001  1.459968e+002 
4293750000  -5.407903e+001  1.438857e+002 
4296875000  -5.158868e+001  1.203424e+002 
4300000000  -5.332512e+001  1.020852e+002 
4303125000  -5.441635e+001  9.709404e+001 
4306250000  -5.308567e+001  8.855540e+001 
4309375000  -5.173197e+001  7.091895e+001 
4312500000  -5.201003e+001  6.019987e+001 
4315625000  -5.142687e+001  4.641949e+001 
4318750000  -5.350206e+001  3.735261e+001 
4321875000  -5.290692e+001  2.514625e+001 
4325000000  -5.246855e+001  2.397083e+001 
4328125000  -5.144339e+001  7.899874e+000 
4331250000  -5.347939e+001  -3.470673e+000 
4334375000  -5.431231e+001  -1.959356e+001 
4337500000  -5.463581e+001  -3.045209e+001 
4340625000  -5.443927e+001  -2.165337e+001 
4343750000  -5.512828e+001  -3.524870e+001 
4346875000  -5.683648e+001  -4.295740e+001 
4350000000  -5.472345e+001  -7.488782e+001 
4353125000  -5.713607e+001  -6.773675e+001 
4356250000  -5.753368e+001  -6.865148e+001 
4359375000  -5.852904e+001  -4.662150e+001 
4362500000  -5.477067e+001  -7.278340e+001 
4365625000  -5.593372e+001  -9.080105e+001 
4368750000  -5.546080e+001  -9.214149e+001 
4371875000  -5.771408e+001  -1.221389e+002 
4375000000  -5.747713e+001  -1.170134e+002 
4378125000  -5.700951e+001  -1.147195e+002 
4381250000  -5.621623e+001  -1.440621e+002 
4384375000  -5.567212e+001  -1.371201e+002 
4387500000  -5.597245e+001  -1.551228e+002 
4390625000  -6.051694e+001  -1.564263e+002 
4393750000  -5.856244e+001  -1.459201e+002 
4396875000  -5.527574e+001  -1.677310e+002 
4400000000  -5.672997e+001  -1.695316e+002 
4403125000  -5.504403e+001  1.707120e+002 
4406250000  -5.650784e+001  1.703174e+002 
4409375000  -5.578659e+001  1.706300e+002 
4412500000  -5.876752e+001  1.650414e+002 
4415625000  -5.693214e+001  1.600637e+002 
4418750000  -5.495243e+001  1.547355e+002 
