!Agilent Technologies,E8363B,MY43030201,A.06.04.32
!Agilent E8363B: A.06.04.32
!Date: Tuesday, November 11, 2014 22:15:14
!Correction: S21(Response(S21)) 
!S1P File: Measurement: S21:
# Hz S  dB   R 50
3000000000  -4.891014e+001  -7.111922e+001 
3003125000  -5.147530e+001  -7.927788e+001 
3006250000  -5.162843e+001  -8.698179e+001 
3009375000  -5.247897e+001  -8.637611e+001 
3012500000  -5.082167e+001  -9.545329e+001 
3015625000  -5.118216e+001  -1.033078e+002 
3018750000  -5.161930e+001  -1.135346e+002 
3021875000  -5.005129e+001  -1.165017e+002 
3025000000  -4.914564e+001  -1.278481e+002 
3028125000  -4.785928e+001  -1.433258e+002 
3031250000  -4.726873e+001  -1.597986e+002 
3034375000  -4.696829e+001  -1.765204e+002 
3037500000  -4.798263e+001  1.682734e+002 
3040625000  -4.944811e+001  1.517433e+002 
3043750000  -4.923519e+001  1.434642e+002 
3046875000  -5.007964e+001  1.327591e+002 
3050000000  -5.200064e+001  1.224880e+002 
3053125000  -5.142041e+001  1.242210e+002 
3056250000  -5.157034e+001  1.228953e+002 
3059375000  -5.093547e+001  1.090198e+002 
3062500000  -4.994971e+001  1.028244e+002 
3065625000  -4.890875e+001  8.669019e+001 
3068750000  -4.863889e+001  7.697389e+001 
3071875000  -4.928777e+001  7.071854e+001 
3075000000  -4.845148e+001  5.746502e+001 
3078125000  -4.807199e+001  4.719630e+001 
3081250000  -4.884369e+001  3.396363e+001 
3084375000  -4.793363e+001  2.436787e+001 
3087500000  -4.855901e+001  1.387661e+001 
3090625000  -4.801590e+001  -4.067691e+000 
3093750000  -4.918993e+001  -1.544599e+001 
3096875000  -4.948421e+001  -2.388039e+001 
3100000000  -4.936296e+001  -3.291244e+001 
3103125000  -4.952872e+001  -4.057193e+001 
3106250000  -4.933848e+001  -5.004148e+001 
3109375000  -4.941422e+001  -5.924027e+001 
3112500000  -4.943077e+001  -6.912338e+001 
3115625000  -4.925208e+001  -7.664943e+001 
3118750000  -4.933724e+001  -8.231889e+001 
3121875000  -4.940301e+001  -9.841212e+001 
3125000000  -5.060888e+001  -1.058814e+002 
3128125000  -5.042307e+001  -1.051465e+002 
3131250000  -4.841251e+001  -1.168820e+002 
3134375000  -4.788968e+001  -1.385655e+002 
3137500000  -4.882788e+001  -1.548545e+002 
3140625000  -4.988824e+001  -1.612971e+002 
3143750000  -5.063140e+001  -1.712155e+002 
3146875000  -4.996000e+001  -1.722189e+002 
3150000000  -4.904094e+001  1.799566e+002 
3153125000  -4.935416e+001  1.674354e+002 
3156250000  -5.039141e+001  1.642366e+002 
3159375000  -4.778865e+001  1.591100e+002 
3162500000  -4.642767e+001  1.385860e+002 
3165625000  -4.751072e+001  1.219019e+002 
3168750000  -4.804384e+001  1.164293e+002 
3171875000  -4.757872e+001  1.034680e+002 
3175000000  -4.742271e+001  8.839774e+001 
3178125000  -4.722294e+001  8.205038e+001 
3181250000  -4.654521e+001  6.968893e+001 
3184375000  -4.671463e+001  5.695587e+001 
3187500000  -4.704792e+001  3.364186e+001 
3190625000  -4.946646e+001  2.573546e+001 
3193750000  -4.944662e+001  1.852278e+001 
3196875000  -4.937247e+001  2.182493e+001 
3200000000  -4.840317e+001  7.732059e+000 
3203125000  -4.820479e+001  -4.042227e+000 
3206250000  -4.881161e+001  -1.469597e+001 
3209375000  -4.790672e+001  -2.678745e+001 
3212500000  -4.835927e+001  -4.138053e+001 
3215625000  -4.864956e+001  -4.222262e+001 
3218750000  -4.877758e+001  -6.627184e+001 
3221875000  -4.970762e+001  -7.580279e+001 
3225000000  -4.963719e+001  -8.085957e+001 
3228125000  -5.024190e+001  -9.485870e+001 
3231250000  -5.013992e+001  -1.014441e+002 
3234375000  -4.989022e+001  -1.104461e+002 
3237500000  -5.061940e+001  -1.180863e+002 
3240625000  -5.001740e+001  -1.283172e+002 
3243750000  -4.968917e+001  -1.432477e+002 
3246875000  -5.055143e+001  -1.539488e+002 
3250000000  -5.057679e+001  -1.655992e+002 
3253125000  -5.068271e+001  -1.715461e+002 
3256250000  -5.045562e+001  1.779405e+002 
3259375000  -5.161016e+001  1.588006e+002 
3262500000  -5.195034e+001  1.502570e+002 
3265625000  -5.294476e+001  1.489877e+002 
3268750000  -5.323039e+001  1.443864e+002 
3271875000  -5.162228e+001  1.388223e+002 
3275000000  -5.216780e+001  1.245867e+002 
3278125000  -5.293229e+001  1.047953e+002 
3281250000  -5.368214e+001  1.098003e+002 
3284375000  -5.279070e+001  9.762550e+001 
3287500000  -5.312357e+001  8.405779e+001 
3290625000  -5.318387e+001  7.340563e+001 
3293750000  -5.347018e+001  6.467516e+001 
3296875000  -5.410295e+001  5.206287e+001 
3300000000  -5.430128e+001  5.113608e+001 
3303125000  -5.257495e+001  4.129136e+001 
3306250000  -5.336349e+001  2.190992e+001 
3309375000  -5.260641e+001  1.657852e+001 
3312500000  -5.315841e+001  -4.431395e+000 
3315625000  -5.553209e+001  -8.817272e+000 
3318750000  -5.611106e+001  -2.062664e+001 
3321875000  -5.670520e+001  -2.430022e+001 
3325000000  -5.584419e+001  -1.145277e+001 
3328125000  -5.897968e+001  -2.708707e+001 
3331250000  -5.401134e+001  -2.303341e+001 
3334375000  -5.238496e+001  -4.873474e+001 
3337500000  -5.195247e+001  -6.966003e+001 
3340625000  -5.392753e+001  -8.790607e+001 
3343750000  -5.592188e+001  -8.460291e+001 
3346875000  -5.579664e+001  -8.797251e+001 
3350000000  -5.416515e+001  -9.768442e+001 
3353125000  -5.449189e+001  -1.152891e+002 
3356250000  -5.525095e+001  -1.213809e+002 
3359375000  -5.517736e+001  -1.464911e+002 
3362500000  -5.587826e+001  -1.476728e+002 
3365625000  -5.590553e+001  -1.592590e+002 
3368750000  -5.656739e+001  -1.710588e+002 
3371875000  -5.773030e+001  1.710870e+002 
3375000000  -5.780471e+001  1.718635e+002 
3378125000  -6.067451e+001  1.676604e+002 
3381250000  -5.982810e+001  1.543619e+002 
3384375000  -5.669940e+001  -1.745786e+002 
3387500000  -5.394192e+001  1.482987e+002 
3390625000  -5.761605e+001  1.329489e+002 
3393750000  -5.746367e+001  1.210024e+002 
3396875000  -5.772067e+001  1.098585e+002 
3400000000  -5.558988e+001  9.529657e+001 
3403125000  -5.737956e+001  8.122731e+001 
3406250000  -5.763820e+001  8.216878e+001 
3409375000  -5.696143e+001  5.549457e+001 
3412500000  -5.760014e+001  5.631041e+001 
3415625000  -6.015607e+001  4.766385e+001 
3418750000  -6.091470e+001  3.399226e+001 
3421875000  -6.011569e+001  2.963147e+001 
3425000000  -5.873656e+001  3.568798e+001 
3428125000  -5.931967e+001  4.395424e+000 
3431250000  -6.106853e+001  -5.177173e+000 
3434375000  -6.083710e+001  -1.915692e+001 
3437500000  -6.245477e+001  -2.159068e+001 
3440625000  -6.140736e+001  -2.065631e+001 
3443750000  -6.316311e+001  -3.317149e+001 
3446875000  -5.988527e+001  -4.937046e+001 
3450000000  -6.404022e+001  -7.417836e+001 
3453125000  -6.136897e+001  -7.861330e+001 
3456250000  -6.636105e+001  -1.088918e+002 
3459375000  -6.649574e+001  -7.613348e+001 
3462500000  -6.645314e+001  -1.132755e+002 
3465625000  -6.544200e+001  -1.001057e+002 
3468750000  -6.934018e+001  -1.097445e+002 
3471875000  -6.550730e+001  -1.121751e+002 
3475000000  -6.604457e+001  -1.233221e+002 
3478125000  -6.768835e+001  -1.058072e+002 
3481250000  -6.756539e+001  -1.530267e+002 
3484375000  -6.426090e+001  -1.060563e+002 
3487500000  -6.513260e+001  -1.579938e+002 
3490625000  -6.892222e+001  -1.359611e+002 
3493750000  -6.843065e+001  -1.503491e+002 
3496875000  -6.786185e+001  -1.721013e+002 
3500000000  -6.922526e+001  -1.724706e+002 
3503125000  -6.515038e+001  -1.501971e+002 
3506250000  -6.319643e+001  -1.603201e+002 
3509375000  -6.415488e+001  1.457811e+002 
3512500000  -6.496343e+001  1.499212e+002 
3515625000  -6.592458e+001  1.550969e+002 
3518750000  -6.843790e+001  1.577859e+002 
3521875000  -7.587238e+001  1.650840e+002 
3525000000  -7.144144e+001  9.672073e+001 
3528125000  -7.615036e+001  1.428996e+002 
3531250000  -6.865549e+001  1.209568e+002 
3534375000  -6.934321e+001  1.051475e+002 
3537500000  -6.627189e+001  8.123372e+001 
3540625000  -6.480355e+001  4.656714e+001 
3543750000  -7.242159e+001  8.515163e+001 
3546875000  -6.764398e+001  4.305387e+001 
3550000000  -6.857831e+001  7.243556e+001 
3553125000  -6.749213e+001  8.979749e+001 
3556250000  -8.500854e+001  7.625829e+001 
3559375000  -7.390884e+001  -1.851726e+000 
3562500000  -7.763334e+001  4.192511e+001 
3565625000  -7.541708e+001  3.627618e+001 
3568750000  -7.366478e+001  4.094175e+001 
3571875000  -6.659142e+001  2.850409e+001 
3575000000  -7.412077e+001  5.665123e+001 
3578125000  -7.007870e+001  -4.087626e+000 
3581250000  -6.854942e+001  1.164651e+001 
3584375000  -7.251564e+001  -2.864095e+001 
3587500000  -6.856216e+001  -9.655657e+000 
3590625000  -7.322366e+001  1.435983e+000 
3593750000  -6.658131e+001  -1.925117e+001 
3596875000  -7.199532e+001  2.409578e+001 
3600000000  -6.631350e+001  1.254888e+001 
3603125000  -6.566576e+001  -5.788738e+000 
3606250000  -6.455050e+001  -5.034495e+001 
3609375000  -6.851732e+001  -2.396437e+001 
3612500000  -6.427043e+001  -5.404109e+001 
3615625000  -7.000380e+001  -6.753798e+001 
3618750000  -6.707188e+001  -6.774931e+001 
3621875000  -6.238045e+001  -7.197768e+001 
3625000000  -6.454847e+001  -9.271341e+001 
3628125000  -6.310148e+001  -1.059153e+002 
3631250000  -6.076802e+001  -9.417111e+001 
3634375000  -6.354918e+001  -1.190141e+002 
3637500000  -6.101896e+001  -9.841154e+001 
3640625000  -6.206873e+001  -1.316449e+002 
3643750000  -6.296803e+001  -1.375944e+002 
3646875000  -6.267265e+001  -1.680938e+002 
3650000000  -6.611340e+001  1.617733e+002 
3653125000  -6.188578e+001  1.665708e+002 
3656250000  -6.898426e+001  1.773195e+002 
3659375000  -6.430314e+001  1.542450e+002 
3662500000  -6.208080e+001  1.360273e+002 
3665625000  -6.505625e+001  1.422097e+002 
3668750000  -6.455345e+001  1.274028e+002 
3671875000  -6.814545e+001  1.221492e+002 
3675000000  -6.363964e+001  8.270297e+001 
3678125000  -6.252164e+001  1.024470e+002 
3681250000  -6.021346e+001  9.759175e+001 
3684375000  -6.544027e+001  7.579008e+001 
3687500000  -6.348734e+001  7.831396e+001 
3690625000  -7.001912e+001  9.303403e+001 
3693750000  -6.472195e+001  7.727190e+001 
3696875000  -6.595025e+001  6.148111e+001 
3700000000  -6.450686e+001  6.644703e+001 
3703125000  -6.550337e+001  4.103157e+001 
3706250000  -6.610011e+001  6.739605e+001 
3709375000  -6.485976e+001  1.048924e+002 
3712500000  -6.192764e+001  4.409084e+001 
3715625000  -6.263315e+001  3.419507e+001 
3718750000  -6.024213e+001  4.957731e+001 
3721875000  -6.193086e+001  2.278222e+001 
3725000000  -6.271765e+001  2.269485e+001 
3728125000  -5.873277e+001  4.309907e+000 
3731250000  -6.173317e+001  -6.897957e+000 
3734375000  -6.035156e+001  -1.651928e+000 
3737500000  -6.196816e+001  -3.209566e+001 
3740625000  -5.568242e+001  -3.005769e+001 
3743750000  -5.889547e+001  -6.578641e+001 
3746875000  -6.021644e+001  -5.302888e+001 
3750000000  -5.777583e+001  -7.947348e+001 
3753125000  -5.823456e+001  -8.002309e+001 
3756250000  -5.772331e+001  -9.735944e+001 
3759375000  -5.842134e+001  -1.071366e+002 
3762500000  -5.693565e+001  -1.173126e+002 
3765625000  -6.250061e+001  -1.156117e+002 
3768750000  -5.939746e+001  -1.304193e+002 
3771875000  -5.703866e+001  -1.461619e+002 
3775000000  -5.529665e+001  -1.531002e+002 
3778125000  -5.625219e+001  -1.753098e+002 
3781250000  -5.708858e+001  -1.798169e+002 
3784375000  -5.792323e+001  1.757871e+002 
3787500000  -5.854753e+001  1.460271e+002 
3790625000  -5.678630e+001  1.367454e+002 
3793750000  -5.641127e+001  1.367422e+002 
3796875000  -5.698407e+001  1.272563e+002 
3800000000  -5.373435e+001  7.793620e+001 
3803125000  -5.753512e+001  9.998310e+001 
3806250000  -6.057681e+001  7.457867e+001 
3809375000  -5.926353e+001  8.418839e+001 
3812500000  -6.006124e+001  6.707964e+001 
3815625000  -6.092913e+001  3.718573e+001 
3818750000  -6.338428e+001  4.364650e+001 
3821875000  -6.038557e+001  6.974364e+001 
3825000000  -5.739525e+001  3.963419e+001 
3828125000  -5.944547e+001  3.092386e+001 
3831250000  -5.974966e+001  -3.410066e+000 
3834375000  -6.549530e+001  2.220111e+001 
3837500000  -6.283825e+001  -8.806407e-001 
3840625000  -6.343238e+001  3.706107e+000 
3843750000  -6.138367e+001  2.751809e+000 
3846875000  -6.214222e+001  -9.343694e+000 
3850000000  -6.371862e+001  -3.953446e+001 
3853125000  -6.648345e+001  -1.765857e+001 
3856250000  -6.085289e+001  -9.577817e+000 
3859375000  -5.867630e+001  -2.138470e+001 
3862500000  -6.145283e+001  -1.114848e+001 
3865625000  -5.984196e+001  -4.479780e+001 
3868750000  -5.969241e+001  -3.460796e+001 
3871875000  -5.719344e+001  -6.177790e+001 
3875000000  -5.836479e+001  -7.675136e+001 
3878125000  -5.794465e+001  -8.267104e+001 
3881250000  -5.806843e+001  -8.463496e+001 
3884375000  -5.634919e+001  -9.834547e+001 
3887500000  -5.587239e+001  -1.090454e+002 
3890625000  -5.653777e+001  -1.156913e+002 
3893750000  -5.540981e+001  -1.212912e+002 
3896875000  -5.525328e+001  -1.335247e+002 
3900000000  -5.407077e+001  -1.445524e+002 
3903125000  -5.520398e+001  -1.464426e+002 
3906250000  -5.484589e+001  -1.659240e+002 
3909375000  -5.431360e+001  1.674514e+002 
3912500000  -5.379304e+001  1.677807e+002 
3915625000  -5.520024e+001  1.676880e+002 
3918750000  -5.442054e+001  1.581927e+002 
3921875000  -5.450586e+001  1.425040e+002 
3925000000  -5.269067e+001  1.326919e+002 
3928125000  -5.382126e+001  1.157808e+002 
3931250000  -5.400315e+001  1.012743e+002 
3934375000  -5.489363e+001  7.902975e+001 
3937500000  -5.483786e+001  8.786659e+001 
3940625000  -5.450891e+001  8.372186e+001 
3943750000  -5.448359e+001  6.131860e+001 
3946875000  -5.367873e+001  4.833987e+001 
3950000000  -5.600439e+001  4.361885e+001 
3953125000  -5.536236e+001  3.019769e+001 
3956250000  -5.484407e+001  2.991155e+001 
3959375000  -5.124348e+001  1.489836e+001 
3962500000  -5.247216e+001  -4.988507e+000 
3965625000  -5.300861e+001  -1.935221e+001 
3968750000  -5.376986e+001  -3.484105e+001 
3971875000  -5.450805e+001  -4.105525e+001 
3975000000  -5.288187e+001  -4.784647e+001 
3978125000  -5.373931e+001  -5.725521e+001 
3981250000  -5.495566e+001  -6.664059e+001 
3984375000  -5.549645e+001  -7.970300e+001 
3987500000  -5.625579e+001  -8.742780e+001 
3990625000  -5.630642e+001  -1.030251e+002 
3993750000  -5.709387e+001  -1.174132e+002 
3996875000  -5.861065e+001  -1.198364e+002 
4000000000  -6.059587e+001  -1.272188e+002 
4003125000  -5.870652e+001  -1.327057e+002 
4006250000  -5.580961e+001  -1.299837e+002 
4009375000  -5.644000e+001  -1.448859e+002 
4012500000  -6.033070e+001  -1.622841e+002 
4015625000  -6.056877e+001  1.639507e+002 
4018750000  -6.073623e+001  -1.682083e+002 
4021875000  -6.072563e+001  -1.684436e+002 
4025000000  -5.975381e+001  1.745824e+002 
4028125000  -6.082063e+001  1.739203e+002 
4031250000  -6.079366e+001  1.723252e+002 
4034375000  -6.000511e+001  1.611135e+002 
4037500000  -5.940717e+001  1.499389e+002 
4040625000  -5.971918e+001  1.574085e+002 
4043750000  -5.919841e+001  1.581689e+002 
4046875000  -5.819580e+001  1.396726e+002 
4050000000  -5.598834e+001  1.255024e+002 
4053125000  -5.960231e+001  1.317737e+002 
4056250000  -5.784387e+001  1.184403e+002 
4059375000  -5.671764e+001  1.059469e+002 
4062500000  -5.606279e+001  1.095234e+002 
4065625000  -5.462134e+001  9.397970e+001 
4068750000  -5.432798e+001  7.844112e+001 
4071875000  -5.278500e+001  6.277232e+001 
4075000000  -5.339257e+001  4.433659e+001 
4078125000  -5.332131e+001  4.396978e+001 
4081250000  -5.393829e+001  2.827481e+001 
4084375000  -5.195923e+001  4.146918e+000 
4087500000  -5.263949e+001  -7.339593e+000 
4090625000  -5.312010e+001  -5.310827e+000 
4093750000  -5.317351e+001  -1.386665e+001 
4096875000  -5.247217e+001  -3.002628e+001 
4100000000  -5.329151e+001  -5.562645e+001 
4103125000  -5.475077e+001  -5.082009e+001 
4106250000  -5.318930e+001  -5.300488e+001 
4109375000  -5.209637e+001  -5.824144e+001 
4112500000  -5.201458e+001  -7.287045e+001 
4115625000  -5.293874e+001  -9.446754e+001 
4118750000  -5.325857e+001  -9.571641e+001 
4121875000  -5.294903e+001  -1.168976e+002 
4125000000  -5.520881e+001  -1.254534e+002 
4128125000  -5.553355e+001  -1.280715e+002 
4131250000  -5.439281e+001  -1.263566e+002 
4134375000  -5.039472e+001  -1.518921e+002 
4137500000  -5.212340e+001  -1.648029e+002 
4140625000  -5.488353e+001  1.738365e+002 
4143750000  -5.840512e+001  1.726754e+002 
4146875000  -5.483472e+001  1.790985e+002 
4150000000  -5.571022e+001  1.541728e+002 
4153125000  -5.329498e+001  1.327902e+002 
4156250000  -5.436691e+001  1.273251e+002 
4159375000  -5.655605e+001  1.379398e+002 
4162500000  -5.695968e+001  1.331450e+002 
4165625000  -5.452237e+001  1.167789e+002 
4168750000  -5.483144e+001  1.064941e+002 
4171875000  -5.479065e+001  7.310498e+001 
4175000000  -5.554012e+001  6.772989e+001 
4178125000  -5.726377e+001  7.995897e+001 
4181250000  -5.844227e+001  4.567281e+001 
4184375000  -5.908337e+001  2.688029e+001 
4187500000  -5.846469e+001  3.348984e+001 
4190625000  -6.239666e+001  3.795395e+001 
4193750000  -6.371529e+001  5.628188e+000 
4196875000  -6.233025e+001  1.558527e+001 
4200000000  -6.479927e+001  -6.979947e-002 
4203125000  -6.468998e+001  4.753756e+001 
4206250000  -6.004792e+001  1.867808e+001 
4209375000  -6.371560e+001  -3.889813e+000 
4212500000  -6.061941e+001  -6.413740e+000 
4215625000  -6.255250e+001  -1.346293e+001 
4218750000  -6.206014e+001  -4.518885e+000 
4221875000  -6.050464e+001  -6.585797e+000 
4225000000  -6.105064e+001  9.561197e+000 
4228125000  -5.781484e+001  -1.466341e+001 
4231250000  -5.680562e+001  -2.431480e-001 
4234375000  -5.539282e+001  -5.627705e+001 
4237500000  -5.591694e+001  -5.659732e+001 
4240625000  -5.673687e+001  -7.061065e+001 
4243750000  -5.774506e+001  -7.157940e+001 
4246875000  -5.769725e+001  -6.258854e+001 
4250000000  -5.563162e+001  -7.541739e+001 
4253125000  -5.334000e+001  -8.465645e+001 
4256250000  -5.562503e+001  -1.002881e+002 
4259375000  -5.711428e+001  -1.011922e+002 
4262500000  -5.467771e+001  -1.309223e+002 
4265625000  -5.719697e+001  -1.223969e+002 
4268750000  -5.300903e+001  -1.331190e+002 
4271875000  -5.220713e+001  -1.512938e+002 
4275000000  -5.152563e+001  -1.719806e+002 
4278125000  -5.401911e+001  1.661830e+002 
4281250000  -5.379400e+001  1.687508e+002 
4284375000  -5.445268e+001  1.628729e+002 
4287500000  -5.450010e+001  1.562481e+002 
4290625000  -5.612748e+001  1.430901e+002 
4293750000  -5.323141e+001  1.404788e+002 
4296875000  -5.157611e+001  1.154710e+002 
4300000000  -5.313341e+001  1.042957e+002 
4303125000  -5.284198e+001  1.001611e+002 
4306250000  -5.288971e+001  1.066861e+002 
4309375000  -5.132003e+001  8.952187e+001 
4312500000  -5.189494e+001  6.411845e+001 
4315625000  -5.124952e+001  5.440439e+001 
4318750000  -5.333211e+001  4.485864e+001 
4321875000  -5.327320e+001  4.531042e+001 
4325000000  -5.369110e+001  2.837088e+001 
4328125000  -5.216721e+001  9.505501e+000 
4331250000  -5.452739e+001  -7.326149e+000 
4334375000  -5.388194e+001  -1.042484e+001 
4337500000  -5.425319e+001  -2.999090e+001 
4340625000  -5.523340e+001  -1.243790e+001 
4343750000  -5.545515e+001  -3.941524e+001 
4346875000  -5.685292e+001  -4.637939e+001 
4350000000  -5.543788e+001  -6.387072e+001 
4353125000  -5.968801e+001  -5.592150e+001 
4356250000  -5.880378e+001  -6.404007e+001 
4359375000  -6.027897e+001  -4.462960e+001 
4362500000  -5.440113e+001  -6.695261e+001 
4365625000  -5.524084e+001  -9.444975e+001 
4368750000  -5.419537e+001  -1.044415e+002 
4371875000  -5.773833e+001  -1.083180e+002 
4375000000  -5.722483e+001  -1.174011e+002 
4378125000  -5.532504e+001  -1.223017e+002 
4381250000  -5.666825e+001  -1.247535e+002 
4384375000  -5.504929e+001  -1.360329e+002 
4387500000  -5.837027e+001  -1.488990e+002 
4390625000  -5.678133e+001  -1.488403e+002 
4393750000  -5.843979e+001  -1.443371e+002 
4396875000  -5.514926e+001  -1.510473e+002 
4400000000  -5.642538e+001  -1.725083e+002 
4403125000  -5.583060e+001  1.554660e+002 
4406250000  -5.657008e+001  1.755778e+002 
4409375000  -5.592115e+001  1.658961e+002 
4412500000  -5.697246e+001  1.664177e+002 
4415625000  -5.644109e+001  1.532904e+002 
4418750000  -5.419027e+001  1.549838e+002 
