!Agilent Technologies,E8363B,MY43030201,A.06.04.32
!Agilent E8363B: A.06.04.32
!Date: Tuesday, November 11, 2014 22:10:39
!Correction: S21(Response(S21)) 
!S1P File: Measurement: S21:
# Hz S  dB   R 50
3000000000  -4.904458e+001  -7.492036e+001 
3003125000  -5.177607e+001  -7.972579e+001 
3006250000  -5.168099e+001  -9.119951e+001 
3009375000  -5.167822e+001  -8.513626e+001 
3012500000  -5.097085e+001  -9.963811e+001 
3015625000  -5.121682e+001  -1.096685e+002 
3018750000  -5.161070e+001  -1.123323e+002 
3021875000  -4.976349e+001  -1.194347e+002 
3025000000  -4.881225e+001  -1.277894e+002 
3028125000  -4.827183e+001  -1.461699e+002 
3031250000  -4.718367e+001  -1.628870e+002 
3034375000  -4.729848e+001  1.770916e+002 
3037500000  -4.784010e+001  1.642481e+002 
3040625000  -4.885992e+001  1.489446e+002 
3043750000  -4.945925e+001  1.372946e+002 
3046875000  -5.056488e+001  1.300533e+002 
3050000000  -5.158789e+001  1.202334e+002 
3053125000  -5.094738e+001  1.227828e+002 
3056250000  -5.110608e+001  1.205297e+002 
3059375000  -5.082331e+001  1.084306e+002 
3062500000  -4.876015e+001  9.791890e+001 
3065625000  -4.941795e+001  8.882343e+001 
3068750000  -4.890083e+001  7.480899e+001 
3071875000  -4.917472e+001  6.668700e+001 
3075000000  -4.864953e+001  5.586851e+001 
3078125000  -4.846902e+001  4.294859e+001 
3081250000  -4.911679e+001  3.321355e+001 
3084375000  -4.809050e+001  2.504322e+001 
3087500000  -4.850912e+001  1.161872e+001 
3090625000  -4.811969e+001  -5.954669e+000 
3093750000  -4.936569e+001  -1.837001e+001 
3096875000  -4.979577e+001  -2.710571e+001 
3100000000  -4.917234e+001  -3.414981e+001 
3103125000  -4.988295e+001  -4.061850e+001 
3106250000  -4.946582e+001  -5.259910e+001 
3109375000  -4.961388e+001  -6.090162e+001 
3112500000  -4.955946e+001  -6.946983e+001 
3115625000  -4.925743e+001  -7.812076e+001 
3118750000  -4.934628e+001  -8.296480e+001 
3121875000  -4.925314e+001  -9.707135e+001 
3125000000  -5.087294e+001  -1.100218e+002 
3128125000  -5.059377e+001  -1.084537e+002 
3131250000  -4.867330e+001  -1.175085e+002 
3134375000  -4.729114e+001  -1.417552e+002 
3137500000  -4.849839e+001  -1.557056e+002 
3140625000  -4.974994e+001  -1.621404e+002 
3143750000  -5.014808e+001  -1.720271e+002 
3146875000  -5.002380e+001  -1.733450e+002 
3150000000  -4.909101e+001  1.793213e+002 
3153125000  -4.914967e+001  1.626479e+002 
3156250000  -5.026202e+001  1.652853e+002 
3159375000  -4.758307e+001  1.555875e+002 
3162500000  -4.649722e+001  1.342134e+002 
3165625000  -4.816485e+001  1.228634e+002 
3168750000  -4.767490e+001  1.135751e+002 
3171875000  -4.736523e+001  1.004454e+002 
3175000000  -4.760796e+001  8.614314e+001 
3178125000  -4.736946e+001  8.285123e+001 
3181250000  -4.667099e+001  6.740331e+001 
3184375000  -4.679768e+001  5.049896e+001 
3187500000  -4.770419e+001  3.356220e+001 
3190625000  -4.971850e+001  1.951441e+001 
3193750000  -5.030875e+001  2.161441e+001 
3196875000  -4.983383e+001  1.867669e+001 
3200000000  -4.810000e+001  5.593776e+000 
3203125000  -4.837492e+001  -3.993765e+000 
3206250000  -4.839009e+001  -1.623881e+001 
3209375000  -4.779506e+001  -3.162244e+001 
3212500000  -4.895979e+001  -4.048987e+001 
3215625000  -4.832523e+001  -4.492386e+001 
3218750000  -4.928752e+001  -6.501445e+001 
3221875000  -4.937065e+001  -7.808730e+001 
3225000000  -4.938881e+001  -8.395285e+001 
3228125000  -4.997142e+001  -9.351294e+001 
3231250000  -5.046205e+001  -1.043323e+002 
3234375000  -5.038987e+001  -1.113583e+002 
3237500000  -5.015685e+001  -1.196544e+002 
3240625000  -4.949850e+001  -1.291322e+002 
3243750000  -4.993592e+001  -1.478141e+002 
3246875000  -5.004375e+001  -1.579821e+002 
3250000000  -5.072968e+001  -1.677995e+002 
3253125000  -5.106142e+001  -1.772210e+002 
3256250000  -5.019235e+001  1.759887e+002 
3259375000  -5.078364e+001  1.587056e+002 
3262500000  -5.271636e+001  1.537387e+002 
3265625000  -5.361511e+001  1.446063e+002 
3268750000  -5.326893e+001  1.380452e+002 
3271875000  -5.222778e+001  1.281485e+002 
3275000000  -5.169645e+001  1.228147e+002 
3278125000  -5.237075e+001  1.109120e+002 
3281250000  -5.233503e+001  1.079481e+002 
3284375000  -5.298715e+001  8.700806e+001 
3287500000  -5.383968e+001  8.323006e+001 
3290625000  -5.392604e+001  6.904921e+001 
3293750000  -5.290512e+001  6.307645e+001 
3296875000  -5.331431e+001  5.064305e+001 
3300000000  -5.465079e+001  4.743302e+001 
3303125000  -5.335421e+001  3.859913e+001 
3306250000  -5.321954e+001  1.849625e+001 
3309375000  -5.339027e+001  1.290897e+001 
3312500000  -5.388586e+001  8.715867e-001 
3315625000  -5.448626e+001  -1.263192e+001 
3318750000  -5.593712e+001  -1.388292e+001 
3321875000  -5.794401e+001  -2.455500e+001 
3325000000  -5.764209e+001  -1.681223e+001 
3328125000  -5.555325e+001  -2.424090e+001 
3331250000  -5.403223e+001  -2.133811e+001 
3334375000  -5.164977e+001  -5.302891e+001 
3337500000  -5.175776e+001  -6.988976e+001 
3340625000  -5.468956e+001  -9.253766e+001 
3343750000  -5.642618e+001  -8.025748e+001 
3346875000  -5.583965e+001  -9.537298e+001 
3350000000  -5.416002e+001  -9.671729e+001 
3353125000  -5.380584e+001  -1.164647e+002 
3356250000  -5.471151e+001  -1.346121e+002 
3359375000  -5.526406e+001  -1.442558e+002 
3362500000  -5.733752e+001  -1.453402e+002 
3365625000  -5.741183e+001  -1.650393e+002 
3368750000  -5.627989e+001  -1.744022e+002 
3371875000  -5.680310e+001  1.671901e+002 
3375000000  -5.827103e+001  1.713035e+002 
3378125000  -5.811973e+001  1.661656e+002 
3381250000  -6.000775e+001  1.667505e+002 
3384375000  -5.639785e+001  1.763419e+002 
3387500000  -5.517016e+001  1.531580e+002 
3390625000  -5.619284e+001  1.248083e+002 
3393750000  -5.748436e+001  1.138409e+002 
3396875000  -5.683384e+001  1.135838e+002 
3400000000  -5.490234e+001  9.872673e+001 
3403125000  -5.765268e+001  8.500426e+001 
3406250000  -5.729969e+001  8.042590e+001 
3409375000  -5.884292e+001  5.879771e+001 
3412500000  -5.903160e+001  4.276189e+001 
3415625000  -6.118454e+001  3.845628e+001 
3418750000  -5.963692e+001  4.466779e+001 
3421875000  -6.004261e+001  3.179431e+001 
3425000000  -5.986014e+001  3.213557e+001 
3428125000  -5.809724e+001  6.440426e+000 
3431250000  -5.991568e+001  -9.003769e+000 
3434375000  -5.912632e+001  -2.493198e+001 
3437500000  -6.300544e+001  -2.388386e+001 
3440625000  -6.249125e+001  -1.294269e+001 
3443750000  -6.375405e+001  -3.500894e+001 
3446875000  -5.932172e+001  -4.050344e+001 
3450000000  -6.409740e+001  -6.909508e+001 
3453125000  -6.223648e+001  -7.276057e+001 
3456250000  -6.678712e+001  -1.055586e+002 
3459375000  -6.394245e+001  -9.285828e+001 
3462500000  -6.620812e+001  -9.475500e+001 
3465625000  -6.779462e+001  -7.717235e+001 
3468750000  -6.347941e+001  -1.187338e+002 
3471875000  -6.483238e+001  -1.036523e+002 
3475000000  -6.616703e+001  -1.081953e+002 
3478125000  -6.938356e+001  -1.301232e+002 
3481250000  -6.615478e+001  -1.611429e+002 
3484375000  -6.476949e+001  -1.221723e+002 
3487500000  -6.581169e+001  -1.257859e+002 
3490625000  -7.135231e+001  -1.360966e+002 
3493750000  -7.160335e+001  -1.277142e+002 
3496875000  -6.569579e+001  -1.434433e+002 
3500000000  -6.590074e+001  1.671268e+002 
3503125000  -6.665434e+001  -1.443889e+002 
3506250000  -7.036951e+001  -1.574667e+002 
3509375000  -6.264073e+001  1.748630e+002 
3512500000  -6.359641e+001  1.424944e+002 
3515625000  -6.462962e+001  1.669638e+002 
3518750000  -6.488084e+001  1.458770e+002 
3521875000  -6.849886e+001  1.405229e+002 
3525000000  -6.820893e+001  9.492835e+001 
3528125000  -6.772370e+001  9.958276e+001 
3531250000  -6.709499e+001  1.362636e+002 
3534375000  -6.955904e+001  1.070257e+002 
3537500000  -7.263266e+001  4.400874e+001 
3540625000  -7.167506e+001  2.082138e+001 
3543750000  -6.812350e+001  8.414285e+001 
3546875000  -6.899045e+001  6.152835e+001 
3550000000  -6.946930e+001  4.768483e+001 
3553125000  -7.606815e+001  -6.780727e+001 
3556250000  -6.958694e+001  5.251984e+001 
3559375000  -7.271690e+001  6.274298e+001 
3562500000  -7.515307e+001  2.816119e+001 
3565625000  -6.925055e+001  3.351637e+001 
3568750000  -7.038884e+001  1.865356e+001 
3571875000  -7.545303e+001  2.554445e+001 
3575000000  -6.570106e+001  6.633675e+001 
3578125000  -6.953026e+001  -4.739370e+000 
3581250000  -8.054717e+001  -1.355547e+002 
3584375000  -7.056592e+001  3.504760e+001 
3587500000  -7.014476e+001  -3.640970e+000 
3590625000  -6.785136e+001  3.449381e+001 
3593750000  -6.854786e+001  -2.206205e+001 
3596875000  -6.492929e+001  2.665214e+001 
3600000000  -7.388588e+001  -1.846296e+000 
3603125000  -6.906076e+001  1.250983e+001 
3606250000  -6.636046e+001  -6.101180e+001 
3609375000  -6.375711e+001  -5.451264e+001 
3612500000  -6.398930e+001  -6.021690e+001 
3615625000  -6.698227e+001  -5.437824e+001 
3618750000  -6.356408e+001  -5.896270e+001 
3621875000  -6.333715e+001  -8.363681e+001 
3625000000  -6.097270e+001  -9.933320e+001 
3628125000  -6.170127e+001  -1.081131e+002 
3631250000  -6.345910e+001  -1.112123e+002 
3634375000  -6.326905e+001  -1.101149e+002 
3637500000  -6.377789e+001  -1.278966e+002 
3640625000  -6.298785e+001  -1.332430e+002 
3643750000  -6.169152e+001  -1.533725e+002 
3646875000  -6.200569e+001  -1.722010e+002 
3650000000  -6.432775e+001  1.740013e+002 
3653125000  -6.136555e+001  1.684075e+002 
3656250000  -6.488886e+001  1.430599e+002 
3659375000  -6.525279e+001  1.686103e+002 
3662500000  -6.230019e+001  1.397461e+002 
3665625000  -6.143879e+001  1.568370e+002 
3668750000  -6.274149e+001  1.083259e+002 
3671875000  -6.294486e+001  1.182655e+002 
3675000000  -6.375602e+001  1.079980e+002 
3678125000  -6.327438e+001  1.189277e+002 
3681250000  -6.357230e+001  1.062304e+002 
3684375000  -6.473143e+001  1.038665e+002 
3687500000  -6.353579e+001  7.413566e+001 
3690625000  -6.613181e+001  4.676517e+001 
3693750000  -6.876141e+001  7.050422e+001 
3696875000  -6.990540e+001  5.508054e+001 
3700000000  -6.019694e+001  7.628813e+001 
3703125000  -6.489047e+001  2.783597e+001 
3706250000  -6.722926e+001  9.376052e+001 
3709375000  -6.547505e+001  6.128792e+001 
3712500000  -6.413105e+001  8.339035e+001 
3715625000  -6.112211e+001  1.812152e+001 
3718750000  -6.207496e+001  4.330998e+001 
3721875000  -6.119353e+001  1.725644e+001 
3725000000  -6.266151e+001  1.311079e+001 
3728125000  -5.919692e+001  8.244637e+000 
3731250000  -5.875375e+001  -6.652423e+000 
3734375000  -5.899804e+001  -2.931015e+001 
3737500000  -6.021661e+001  -4.687408e+001 
3740625000  -5.868266e+001  -4.212324e+001 
3743750000  -5.768800e+001  -6.304836e+001 
3746875000  -5.979642e+001  -6.970757e+001 
3750000000  -5.748783e+001  -8.645018e+001 
3753125000  -5.811143e+001  -8.693813e+001 
3756250000  -5.826726e+001  -1.029493e+002 
3759375000  -5.722306e+001  -1.120993e+002 
3762500000  -5.698621e+001  -1.262910e+002 
3765625000  -6.074692e+001  -1.439673e+002 
3768750000  -5.722898e+001  -1.321718e+002 
3771875000  -5.531969e+001  -1.423985e+002 
3775000000  -5.544362e+001  -1.630245e+002 
3778125000  -5.691153e+001  1.757100e+002 
3781250000  -5.679036e+001  1.724010e+002 
3784375000  -5.764516e+001  1.654144e+002 
3787500000  -5.719505e+001  1.435856e+002 
3790625000  -5.702143e+001  1.410844e+002 
3793750000  -5.861631e+001  1.281042e+002 
3796875000  -5.776329e+001  1.225953e+002 
3800000000  -5.321719e+001  7.693373e+001 
3803125000  -5.649150e+001  1.039076e+002 
3806250000  -5.910623e+001  7.981658e+001 
3809375000  -5.756426e+001  7.272153e+001 
3812500000  -5.724711e+001  7.508635e+001 
3815625000  -6.131769e+001  5.128173e+001 
3818750000  -6.082470e+001  1.953699e+001 
3821875000  -6.364634e+001  5.896317e+001 
3825000000  -5.879041e+001  4.870361e+001 
3828125000  -5.955302e+001  3.721868e+001 
3831250000  -5.871333e+001  -4.004985e+000 
3834375000  -6.629569e+001  1.130402e+001 
3837500000  -6.035250e+001  6.807823e+000 
3840625000  -6.108736e+001  1.769251e+001 
3843750000  -6.367213e+001  1.434347e+001 
3846875000  -6.259494e+001  -4.097906e+001 
3850000000  -6.336243e+001  -4.754068e+000 
3853125000  -6.130376e+001  -1.880475e+001 
3856250000  -6.091479e+001  1.418006e+001 
3859375000  -6.051478e+001  -2.873426e+001 
3862500000  -6.020354e+001  -3.861473e+001 
3865625000  -6.104972e+001  -4.439413e+001 
3868750000  -6.097778e+001  -4.047877e+001 
3871875000  -5.722601e+001  -5.534138e+001 
3875000000  -6.034541e+001  -6.288557e+001 
3878125000  -5.831997e+001  -9.595209e+001 
3881250000  -5.674014e+001  -9.082280e+001 
3884375000  -5.680357e+001  -9.818083e+001 
3887500000  -5.710449e+001  -1.106217e+002 
3890625000  -5.642614e+001  -1.147388e+002 
3893750000  -5.724582e+001  -1.289509e+002 
3896875000  -5.704060e+001  -1.391934e+002 
3900000000  -5.722045e+001  -1.476469e+002 
3903125000  -5.557635e+001  -1.559193e+002 
3906250000  -5.429997e+001  -1.665961e+002 
3909375000  -5.505503e+001  1.644916e+002 
3912500000  -5.421548e+001  1.607429e+002 
3915625000  -5.542621e+001  1.564807e+002 
3918750000  -5.512768e+001  1.479618e+002 
3921875000  -5.551791e+001  1.403988e+002 
3925000000  -5.364909e+001  1.220349e+002 
3928125000  -5.253246e+001  1.066434e+002 
3931250000  -5.351283e+001  9.785551e+001 
3934375000  -5.409845e+001  8.838055e+001 
3937500000  -5.551363e+001  8.052097e+001 
3940625000  -5.462632e+001  7.305638e+001 
3943750000  -5.328680e+001  6.437307e+001 
3946875000  -5.433379e+001  4.907209e+001 
3950000000  -5.445244e+001  3.581508e+001 
3953125000  -5.411111e+001  2.643747e+001 
3956250000  -5.463528e+001  2.136746e+001 
3959375000  -5.149630e+001  9.912810e+000 
3962500000  -5.301177e+001  -1.631247e+000 
3965625000  -5.394415e+001  -2.615630e+001 
3968750000  -5.443487e+001  -3.519505e+001 
3971875000  -5.521272e+001  -3.937817e+001 
3975000000  -5.313290e+001  -5.789378e+001 
3978125000  -5.381102e+001  -5.977799e+001 
3981250000  -5.556845e+001  -7.030599e+001 
3984375000  -5.605172e+001  -8.705102e+001 
3987500000  -5.729396e+001  -8.956685e+001 
3990625000  -5.560642e+001  -1.021167e+002 
3993750000  -5.705144e+001  -1.280387e+002 
3996875000  -5.964619e+001  -1.216095e+002 
4000000000  -6.149165e+001  -1.227917e+002 
4003125000  -6.033387e+001  -1.309070e+002 
4006250000  -5.667668e+001  -1.449318e+002 
4009375000  -5.759552e+001  -1.640436e+002 
4012500000  -6.217258e+001  -1.700899e+002 
4015625000  -5.978238e+001  -1.630686e+002 
4018750000  -5.837533e+001  -1.774996e+002 
4021875000  -6.013377e+001  -1.632530e+002 
4025000000  -5.934956e+001  1.716941e+002 
4028125000  -5.942303e+001  1.766315e+002 
4031250000  -6.115818e+001  1.563008e+002 
4034375000  -6.004028e+001  1.545775e+002 
4037500000  -5.835218e+001  1.474445e+002 
4040625000  -5.959840e+001  1.287765e+002 
4043750000  -5.982057e+001  1.468102e+002 
4046875000  -5.823051e+001  1.295129e+002 
4050000000  -5.769654e+001  1.300515e+002 
4053125000  -5.855509e+001  1.139745e+002 
4056250000  -5.885160e+001  1.193539e+002 
4059375000  -5.691383e+001  1.080434e+002 
4062500000  -5.487829e+001  9.779443e+001 
4065625000  -5.426298e+001  7.803425e+001 
4068750000  -5.401805e+001  6.516483e+001 
4071875000  -5.178680e+001  6.015216e+001 
4075000000  -5.396608e+001  4.045109e+001 
4078125000  -5.327310e+001  3.124268e+001 
4081250000  -5.280372e+001  2.628705e+001 
4084375000  -5.295176e+001  8.588439e+000 
4087500000  -5.373367e+001  -5.360739e+000 
4090625000  -5.352778e+001  -1.079558e+001 
4093750000  -5.305988e+001  -2.181904e+001 
4096875000  -5.323406e+001  -2.790941e+001 
4100000000  -5.366263e+001  -5.655658e+001 
4103125000  -5.603222e+001  -4.608263e+001 
4106250000  -5.521076e+001  -5.350634e+001 
4109375000  -5.366673e+001  -6.304237e+001 
4112500000  -5.166315e+001  -8.129143e+001 
4115625000  -5.394861e+001  -9.173567e+001 
4118750000  -5.245596e+001  -1.007212e+002 
4121875000  -5.398481e+001  -1.197204e+002 
4125000000  -5.510941e+001  -1.227414e+002 
4128125000  -5.360136e+001  -1.362620e+002 
4131250000  -5.376869e+001  -1.385116e+002 
4134375000  -5.161253e+001  -1.474560e+002 
4137500000  -5.140622e+001  -1.778636e+002 
4140625000  -5.367860e+001  1.704817e+002 
4143750000  -5.624953e+001  1.736186e+002 
4146875000  -5.566735e+001  1.681370e+002 
4150000000  -5.487755e+001  1.658823e+002 
4153125000  -5.311499e+001  1.468079e+002 
4156250000  -5.666305e+001  1.227958e+002 
4159375000  -5.466002e+001  1.281529e+002 
4162500000  -5.531831e+001  1.145399e+002 
4165625000  -5.474239e+001  1.137388e+002 
4168750000  -5.417116e+001  7.726865e+001 
4171875000  -5.532713e+001  7.606624e+001 
4175000000  -5.510135e+001  5.803321e+001 
4178125000  -5.732431e+001  7.236056e+001 
4181250000  -5.675608e+001  4.405769e+001 
4184375000  -5.898993e+001  4.964286e+001 
4187500000  -5.821867e+001  2.401814e+001 
4190625000  -5.843529e+001  2.329924e+001 
4193750000  -5.925975e+001  2.787462e+001 
4196875000  -6.215522e+001  -1.861125e+000 
4200000000  -6.932984e+001  1.941697e+001 
4203125000  -6.331297e+001  -7.039218e+000 
4206250000  -6.011084e+001  8.359778e+000 
4209375000  -5.984890e+001  -8.350546e+000 
4212500000  -6.420564e+001  2.743264e+001 
4215625000  -6.656277e+001  -2.426555e+001 
4218750000  -6.397846e+001  -8.131553e+000 
4221875000  -5.758928e+001  -1.384920e+000 
4225000000  -5.766112e+001  -2.232908e+001 
4228125000  -5.856213e+001  -2.864952e+001 
4231250000  -5.722659e+001  -1.444653e+001 
4234375000  -5.816551e+001  -3.160694e+001 
4237500000  -6.189585e+001  -6.228014e+001 
4240625000  -5.645813e+001  -6.920555e+001 
4243750000  -5.814112e+001  -6.651942e+001 
4246875000  -5.582675e+001  -8.547095e+001 
4250000000  -5.592416e+001  -9.233589e+001 
4253125000  -5.410606e+001  -8.764817e+001 
4256250000  -5.517058e+001  -1.161835e+002 
4259375000  -5.512764e+001  -1.070025e+002 
4262500000  -5.436357e+001  -1.248073e+002 
4265625000  -5.319217e+001  -1.217257e+002 
4268750000  -5.340284e+001  -1.463634e+002 
4271875000  -5.125243e+001  -1.644415e+002 
4275000000  -5.233316e+001  -1.724451e+002 
4278125000  -5.342670e+001  1.624581e+002 
4281250000  -5.409054e+001  1.626082e+002 
4284375000  -5.315548e+001  1.520619e+002 
4287500000  -5.432417e+001  1.424344e+002 
4290625000  -5.533174e+001  1.524453e+002 
4293750000  -5.324725e+001  1.451068e+002 
4296875000  -5.163448e+001  1.195652e+002 
4300000000  -5.332305e+001  1.123598e+002 
4303125000  -5.267333e+001  9.628410e+001 
4306250000  -5.325650e+001  1.007947e+002 
4309375000  -5.104388e+001  7.706579e+001 
4312500000  -5.218136e+001  6.403416e+001 
4315625000  -5.100984e+001  5.135904e+001 
4318750000  -5.300878e+001  4.510093e+001 
4321875000  -5.221191e+001  3.429761e+001 
4325000000  -5.375758e+001  2.245402e+001 
4328125000  -5.131591e+001  9.596136e+000 
4331250000  -5.341823e+001  -7.189008e+000 
4334375000  -5.546463e+001  -1.702147e+001 
4337500000  -5.524722e+001  -2.894648e+001 
4340625000  -5.491216e+001  -2.885269e+001 
4343750000  -5.630825e+001  -3.192898e+001 
4346875000  -5.784009e+001  -4.447742e+001 
4350000000  -5.736986e+001  -6.396670e+001 
4353125000  -5.566184e+001  -8.658826e+001 
4356250000  -5.696590e+001  -6.598637e+001 
4359375000  -5.746013e+001  -6.945044e+001 
4362500000  -5.334749e+001  -7.722854e+001 
4365625000  -5.372250e+001  -1.014647e+002 
4368750000  -5.479119e+001  -1.000746e+002 
4371875000  -5.745059e+001  -1.139363e+002 
4375000000  -5.602611e+001  -1.156793e+002 
4378125000  -5.737445e+001  -1.205974e+002 
4381250000  -5.786971e+001  -1.418914e+002 
4384375000  -5.677398e+001  -1.435627e+002 
4387500000  -5.709115e+001  -1.485781e+002 
4390625000  -5.710026e+001  -1.469979e+002 
4393750000  -5.850917e+001  -1.491527e+002 
4396875000  -5.509558e+001  -1.499913e+002 
4400000000  -5.518777e+001  -1.711741e+002 
4403125000  -5.608002e+001  1.752872e+002 
4406250000  -5.785374e+001  1.687784e+002 
4409375000  -5.741831e+001  1.774855e+002 
4412500000  -6.049284e+001  1.528027e+002 
4415625000  -5.568642e+001  1.613603e+002 
4418750000  -5.377162e+001  1.497068e+002 
