!Agilent Technologies,E8363B,MY43030201,A.06.04.32
!Agilent E8363B: A.06.04.32
!Date: Tuesday, November 11, 2014 22:10:40
!Correction: S21(Response(S21)) 
!S1P File: Measurement: S21:
# Hz S  dB   R 50
3000000000  -4.885406e+001  -7.612978e+001 
3003125000  -5.128682e+001  -8.204850e+001 
3006250000  -5.158024e+001  -9.014534e+001 
3009375000  -5.239601e+001  -8.744218e+001 
3012500000  -5.153793e+001  -1.008706e+002 
3015625000  -5.119558e+001  -1.113432e+002 
3018750000  -5.204144e+001  -1.122392e+002 
3021875000  -4.984835e+001  -1.181005e+002 
3025000000  -4.869156e+001  -1.294730e+002 
3028125000  -4.784353e+001  -1.472672e+002 
3031250000  -4.692597e+001  -1.630689e+002 
3034375000  -4.700100e+001  1.761385e+002 
3037500000  -4.818274e+001  1.655762e+002 
3040625000  -4.889717e+001  1.519223e+002 
3043750000  -4.932235e+001  1.409558e+002 
3046875000  -5.058493e+001  1.327811e+002 
3050000000  -5.098904e+001  1.214386e+002 
3053125000  -5.171128e+001  1.200779e+002 
3056250000  -5.090860e+001  1.189080e+002 
3059375000  -5.075870e+001  1.137060e+002 
3062500000  -4.998603e+001  1.022376e+002 
3065625000  -4.936843e+001  8.628803e+001 
3068750000  -4.892396e+001  7.363475e+001 
3071875000  -4.878620e+001  6.988744e+001 
3075000000  -4.832142e+001  5.299672e+001 
3078125000  -4.897588e+001  4.430088e+001 
3081250000  -4.923288e+001  3.253973e+001 
3084375000  -4.797312e+001  2.631292e+001 
3087500000  -4.845127e+001  1.191387e+001 
3090625000  -4.814610e+001  -7.881004e+000 
3093750000  -4.892000e+001  -1.640162e+001 
3096875000  -4.943524e+001  -2.575411e+001 
3100000000  -4.986628e+001  -3.497627e+001 
3103125000  -5.006186e+001  -4.168348e+001 
3106250000  -4.902983e+001  -5.165301e+001 
3109375000  -4.944515e+001  -6.264807e+001 
3112500000  -4.964978e+001  -7.100983e+001 
3115625000  -4.903776e+001  -8.010371e+001 
3118750000  -5.004136e+001  -8.595802e+001 
3121875000  -4.874568e+001  -1.003488e+002 
3125000000  -5.108234e+001  -1.084568e+002 
3128125000  -5.086111e+001  -1.103213e+002 
3131250000  -4.832110e+001  -1.207927e+002 
3134375000  -4.753114e+001  -1.401738e+002 
3137500000  -4.920573e+001  -1.572836e+002 
3140625000  -4.968826e+001  -1.636975e+002 
3143750000  -5.091027e+001  -1.696683e+002 
3146875000  -4.963029e+001  -1.732727e+002 
3150000000  -4.883870e+001  1.756524e+002 
3153125000  -4.941734e+001  1.640925e+002 
3156250000  -5.034384e+001  1.655741e+002 
3159375000  -4.764973e+001  1.553181e+002 
3162500000  -4.602389e+001  1.363576e+002 
3165625000  -4.758021e+001  1.187989e+002 
3168750000  -4.726935e+001  1.130354e+002 
3171875000  -4.701974e+001  1.024650e+002 
3175000000  -4.774205e+001  8.647815e+001 
3178125000  -4.730083e+001  8.177707e+001 
3181250000  -4.706540e+001  6.645811e+001 
3184375000  -4.611946e+001  5.041951e+001 
3187500000  -4.754445e+001  3.250446e+001 
3190625000  -4.930417e+001  1.966160e+001 
3193750000  -4.995331e+001  2.036535e+001 
3196875000  -4.967811e+001  1.395102e+001 
3200000000  -4.848471e+001  5.811216e+000 
3203125000  -4.790808e+001  -7.106406e+000 
3206250000  -4.870992e+001  -1.597704e+001 
3209375000  -4.784464e+001  -3.359706e+001 
3212500000  -4.877518e+001  -4.316936e+001 
3215625000  -4.817292e+001  -4.664213e+001 
3218750000  -4.928079e+001  -6.510240e+001 
3221875000  -4.939774e+001  -7.756934e+001 
3225000000  -4.951656e+001  -8.160415e+001 
3228125000  -4.954249e+001  -9.461765e+001 
3231250000  -5.048524e+001  -1.073649e+002 
3234375000  -5.017657e+001  -1.105954e+002 
3237500000  -5.013803e+001  -1.228524e+002 
3240625000  -5.023089e+001  -1.298096e+002 
3243750000  -5.000414e+001  -1.469800e+002 
3246875000  -5.007110e+001  -1.549736e+002 
3250000000  -5.073906e+001  -1.684425e+002 
3253125000  -5.198856e+001  -1.733524e+002 
3256250000  -5.030448e+001  1.731062e+002 
3259375000  -5.073250e+001  1.555880e+002 
3262500000  -5.247198e+001  1.500527e+002 
3265625000  -5.296006e+001  1.459481e+002 
3268750000  -5.278630e+001  1.383372e+002 
3271875000  -5.279388e+001  1.317760e+002 
3275000000  -5.231593e+001  1.214133e+002 
3278125000  -5.307086e+001  1.104492e+002 
3281250000  -5.351618e+001  1.045185e+002 
3284375000  -5.157267e+001  9.339345e+001 
3287500000  -5.306448e+001  8.556153e+001 
3290625000  -5.300869e+001  7.267443e+001 
3293750000  -5.240271e+001  6.032336e+001 
3296875000  -5.400910e+001  5.681232e+001 
3300000000  -5.487701e+001  5.090385e+001 
3303125000  -5.278039e+001  4.164767e+001 
3306250000  -5.375838e+001  2.223085e+001 
3309375000  -5.269131e+001  1.232766e+001 
3312500000  -5.267381e+001  3.234006e-002 
3315625000  -5.433617e+001  -1.010158e+001 
3318750000  -5.519455e+001  -1.270500e+001 
3321875000  -5.755837e+001  -1.857301e+001 
3325000000  -5.632368e+001  -2.789474e+001 
3328125000  -5.803920e+001  -2.439825e+001 
3331250000  -5.415947e+001  -2.716712e+001 
3334375000  -5.238026e+001  -4.829054e+001 
3337500000  -5.150988e+001  -7.548642e+001 
3340625000  -5.435479e+001  -9.260934e+001 
3343750000  -5.593835e+001  -8.408411e+001 
3346875000  -5.485548e+001  -9.473183e+001 
3350000000  -5.473247e+001  -1.027761e+002 
3353125000  -5.378039e+001  -1.226957e+002 
3356250000  -5.471626e+001  -1.276433e+002 
3359375000  -5.441743e+001  -1.471440e+002 
3362500000  -5.712278e+001  -1.557986e+002 
3365625000  -5.506669e+001  -1.678653e+002 
3368750000  -5.650700e+001  -1.742573e+002 
3371875000  -5.619539e+001  1.791129e+002 
3375000000  -5.927002e+001  1.656673e+002 
3378125000  -5.803774e+001  1.567281e+002 
3381250000  -6.116915e+001  1.675262e+002 
3384375000  -5.653838e+001  -1.760259e+002 
3387500000  -5.417019e+001  1.586543e+002 
3390625000  -5.720508e+001  1.252511e+002 
3393750000  -5.713620e+001  1.207990e+002 
3396875000  -5.712997e+001  1.008988e+002 
3400000000  -5.512744e+001  9.106362e+001 
3403125000  -5.744196e+001  8.103725e+001 
3406250000  -5.633894e+001  7.991196e+001 
3409375000  -5.628049e+001  5.473448e+001 
3412500000  -5.675216e+001  6.376257e+001 
3415625000  -5.925657e+001  4.061049e+001 
3418750000  -5.996983e+001  2.955377e+001 
3421875000  -5.909206e+001  2.013460e+001 
3425000000  -5.910160e+001  2.093343e+001 
3428125000  -5.938290e+001  7.435860e-003 
3431250000  -5.939098e+001  -6.165023e+000 
3434375000  -6.137937e+001  -3.151643e+001 
3437500000  -6.600262e+001  -2.561780e+001 
3440625000  -6.068171e+001  -2.666872e+001 
3443750000  -6.036695e+001  -3.142844e+001 
3446875000  -5.901551e+001  -6.075366e+001 
3450000000  -6.282587e+001  -7.816901e+001 
3453125000  -6.385719e+001  -6.909501e+001 
3456250000  -6.736860e+001  -9.628380e+001 
3459375000  -6.525253e+001  -8.206633e+001 
3462500000  -6.885435e+001  -1.028454e+002 
3465625000  -6.675500e+001  -1.242530e+002 
3468750000  -6.818063e+001  -1.096808e+002 
3471875000  -6.662393e+001  -1.209363e+002 
3475000000  -6.581330e+001  -1.230302e+002 
3478125000  -7.020351e+001  -1.340027e+002 
3481250000  -7.322626e+001  -1.274264e+002 
3484375000  -6.928206e+001  -1.088566e+002 
3487500000  -6.570541e+001  -1.294439e+002 
3490625000  -6.729185e+001  -1.135206e+002 
3493750000  -6.906224e+001  1.644759e+002 
3496875000  -7.077285e+001  -1.417516e+002 
3500000000  -6.606552e+001  -1.709859e+002 
3503125000  -6.661223e+001  -1.636989e+002 
3506250000  -6.189152e+001  -1.591886e+002 
3509375000  -6.642794e+001  1.482628e+002 
3512500000  -6.702742e+001  1.268725e+002 
3515625000  -6.512686e+001  1.503646e+002 
3518750000  -7.123379e+001  1.776984e+002 
3521875000  -6.800748e+001  1.290117e+002 
3525000000  -6.482570e+001  1.171242e+002 
3528125000  -7.274202e+001  9.316560e+001 
3531250000  -6.518823e+001  1.266930e+002 
3534375000  -6.668862e+001  9.979666e+001 
3537500000  -6.596827e+001  8.562087e+001 
3540625000  -6.966361e+001  7.917273e+001 
3543750000  -6.977612e+001  9.435400e+001 
3546875000  -6.540519e+001  4.565276e+001 
3550000000  -7.041460e+001  4.836587e+001 
3553125000  -6.730612e+001  4.283408e+001 
3556250000  -7.475835e+001  1.775622e+001 
3559375000  -7.637827e+001  4.606678e+001 
3562500000  -7.788509e+001  3.088317e+001 
3565625000  -6.908762e+001  4.190950e+001 
3568750000  -7.739451e+001  -6.408348e+001 
3571875000  -6.770470e+001  2.256075e+001 
3575000000  -7.594703e+001  -6.885113e+001 
3578125000  -7.686978e+001  2.177682e+001 
3581250000  -8.297810e+001  7.639135e+001 
3584375000  -7.590943e+001  2.183798e+001 
3587500000  -8.051005e+001  -3.548264e+001 
3590625000  -6.728690e+001  6.558494e+000 
3593750000  -6.574203e+001  -3.429567e+001 
3596875000  -6.571632e+001  5.267841e+001 
3600000000  -6.792341e+001  -1.070125e+001 
3603125000  -6.762544e+001  1.412605e+001 
3606250000  -6.428634e+001  -4.610822e+001 
3609375000  -6.464364e+001  -2.972153e+001 
3612500000  -6.520618e+001  -6.041119e+001 
3615625000  -6.899087e+001  -6.150981e+001 
3618750000  -6.296198e+001  -6.791547e+001 
3621875000  -6.508714e+001  -7.572503e+001 
3625000000  -6.274408e+001  -8.370419e+001 
3628125000  -6.438646e+001  -1.193665e+002 
3631250000  -6.305267e+001  -1.127089e+002 
3634375000  -6.667085e+001  -1.163472e+002 
3637500000  -6.554166e+001  -1.127533e+002 
3640625000  -6.128928e+001  -1.464528e+002 
3643750000  -6.071457e+001  -1.549738e+002 
3646875000  -6.058035e+001  -1.670899e+002 
3650000000  -6.732434e+001  1.759855e+002 
3653125000  -6.197977e+001  1.649563e+002 
3656250000  -6.180761e+001  1.756193e+002 
3659375000  -6.386453e+001  1.498010e+002 
3662500000  -6.834080e+001  1.355686e+002 
3665625000  -6.149044e+001  1.605817e+002 
3668750000  -6.176447e+001  1.194360e+002 
3671875000  -6.388340e+001  1.351090e+002 
3675000000  -6.376866e+001  1.175022e+002 
3678125000  -6.589753e+001  1.125192e+002 
3681250000  -6.299921e+001  1.072662e+002 
3684375000  -7.024332e+001  9.929631e+001 
3687500000  -7.221708e+001  8.528255e+001 
3690625000  -7.029125e+001  5.313873e+001 
3693750000  -6.374594e+001  8.092059e+001 
3696875000  -6.630350e+001  7.947012e+001 
3700000000  -6.740420e+001  6.940382e+001 
3703125000  -6.438237e+001  3.860117e+001 
3706250000  -6.826672e+001  4.246156e+001 
3709375000  -6.490398e+001  3.848067e+001 
3712500000  -6.279714e+001  5.658656e+001 
3715625000  -6.116425e+001  3.089908e+001 
3718750000  -6.075669e+001  1.429372e+001 
3721875000  -6.066599e+001  1.493548e+000 
3725000000  -6.496561e+001  1.430675e+001 
3728125000  -5.842149e+001  7.167138e+000 
3731250000  -6.032635e+001  -7.278547e+000 
3734375000  -6.144986e+001  -2.592480e+001 
3737500000  -5.960557e+001  -3.939256e+001 
3740625000  -5.799223e+001  -3.997425e+001 
3743750000  -5.853243e+001  -6.081610e+001 
3746875000  -5.884024e+001  -6.247829e+001 
3750000000  -5.771295e+001  -7.672140e+001 
3753125000  -5.784325e+001  -8.003530e+001 
3756250000  -5.656049e+001  -1.000615e+002 
3759375000  -5.891974e+001  -1.156048e+002 
3762500000  -5.799842e+001  -1.076788e+002 
3765625000  -5.863884e+001  -1.188388e+002 
3768750000  -5.724839e+001  -1.479898e+002 
3771875000  -5.615432e+001  -1.438360e+002 
3775000000  -5.598758e+001  -1.569629e+002 
3778125000  -5.678963e+001  -1.755978e+002 
3781250000  -5.729637e+001  1.796427e+002 
3784375000  -5.684869e+001  1.674106e+002 
3787500000  -5.761618e+001  1.420551e+002 
3790625000  -5.909906e+001  1.237816e+002 
3793750000  -5.906966e+001  1.192034e+002 
3796875000  -5.723204e+001  1.126441e+002 
3800000000  -5.253820e+001  8.439276e+001 
3803125000  -5.760393e+001  9.850436e+001 
3806250000  -5.947257e+001  7.455778e+001 
3809375000  -5.894423e+001  7.369408e+001 
3812500000  -5.699836e+001  6.438738e+001 
3815625000  -6.130667e+001  5.260480e+001 
3818750000  -6.031321e+001  4.556468e+001 
3821875000  -6.109785e+001  6.124076e+001 
3825000000  -5.881833e+001  3.993022e+001 
3828125000  -5.818738e+001  2.557107e+001 
3831250000  -6.207022e+001  1.440465e+001 
3834375000  -6.377643e+001  2.177940e+000 
3837500000  -6.448714e+001  1.414292e+001 
3840625000  -6.360961e+001  1.208487e+000 
3843750000  -6.073810e+001  1.528702e+000 
3846875000  -6.157059e+001  -1.785668e+001 
3850000000  -6.283623e+001  8.376296e+000 
3853125000  -6.345758e+001  -2.339088e+001 
3856250000  -6.026775e+001  -2.450958e+001 
3859375000  -5.937370e+001  -2.467572e+001 
3862500000  -6.395790e+001  -2.537964e+001 
3865625000  -5.934418e+001  -4.650868e+001 
3868750000  -5.951557e+001  -5.468095e+001 
3871875000  -5.569780e+001  -6.068433e+001 
3875000000  -5.890079e+001  -6.971452e+001 
3878125000  -5.713341e+001  -8.211245e+001 
3881250000  -5.831745e+001  -9.097671e+001 
3884375000  -5.705738e+001  -9.884243e+001 
3887500000  -5.541986e+001  -1.184206e+002 
3890625000  -5.687781e+001  -1.186200e+002 
3893750000  -5.656324e+001  -1.361127e+002 
3896875000  -5.768808e+001  -1.426514e+002 
3900000000  -5.538874e+001  -1.472271e+002 
3903125000  -5.485727e+001  -1.511099e+002 
3906250000  -5.340376e+001  -1.753765e+002 
3909375000  -5.517607e+001  1.721733e+002 
3912500000  -5.490480e+001  1.625389e+002 
3915625000  -5.706515e+001  1.547033e+002 
3918750000  -5.468163e+001  1.595963e+002 
3921875000  -5.426971e+001  1.371173e+002 
3925000000  -5.243739e+001  1.277225e+002 
3928125000  -5.367363e+001  1.094072e+002 
3931250000  -5.359237e+001  1.001278e+002 
3934375000  -5.377485e+001  8.047666e+001 
3937500000  -5.541459e+001  8.125175e+001 
3940625000  -5.347746e+001  6.485453e+001 
3943750000  -5.375662e+001  6.469695e+001 
3946875000  -5.303065e+001  4.371371e+001 
3950000000  -5.412488e+001  3.641788e+001 
3953125000  -5.565871e+001  4.082993e+001 
3956250000  -5.404404e+001  2.069373e+001 
3959375000  -5.194403e+001  1.076918e+001 
3962500000  -5.298249e+001  -9.436109e+000 
3965625000  -5.289055e+001  -1.945119e+001 
3968750000  -5.516363e+001  -2.684948e+001 
3971875000  -5.480979e+001  -5.102700e+001 
3975000000  -5.349713e+001  -5.908195e+001 
3978125000  -5.477234e+001  -5.989432e+001 
3981250000  -5.424081e+001  -7.039391e+001 
3984375000  -5.542701e+001  -8.793829e+001 
3987500000  -5.600040e+001  -8.536903e+001 
3990625000  -5.688978e+001  -9.759735e+001 
3993750000  -5.806276e+001  -1.266233e+002 
3996875000  -5.735448e+001  -1.281434e+002 
4000000000  -6.007112e+001  -1.149734e+002 
4003125000  -5.876101e+001  -1.247799e+002 
4006250000  -5.725032e+001  -1.414635e+002 
4009375000  -5.759164e+001  -1.739090e+002 
4012500000  -6.009151e+001  -1.671294e+002 
4015625000  -6.029915e+001  -1.723449e+002 
4018750000  -5.873939e+001  -1.541460e+002 
4021875000  -6.050554e+001  -1.684414e+002 
4025000000  -5.813765e+001  1.688943e+002 
4028125000  -6.072466e+001  1.603878e+002 
4031250000  -5.924360e+001  1.617080e+002 
4034375000  -5.894112e+001  1.618111e+002 
4037500000  -5.831543e+001  1.521110e+002 
4040625000  -6.185506e+001  1.425968e+002 
4043750000  -6.167007e+001  1.440433e+002 
4046875000  -5.910592e+001  1.391516e+002 
4050000000  -5.665535e+001  1.214846e+002 
4053125000  -6.023152e+001  1.315437e+002 
4056250000  -5.896293e+001  1.196540e+002 
4059375000  -5.596370e+001  1.121071e+002 
4062500000  -5.513049e+001  9.855145e+001 
4065625000  -5.438821e+001  8.742048e+001 
4068750000  -5.595815e+001  7.516817e+001 
4071875000  -5.361354e+001  5.447615e+001 
4075000000  -5.366371e+001  4.208229e+001 
4078125000  -5.251043e+001  3.901751e+001 
4081250000  -5.248951e+001  2.587944e+001 
4084375000  -5.226787e+001  5.096962e+000 
4087500000  -5.405494e+001  -6.573902e-001 
4090625000  -5.371043e+001  -6.533970e+000 
4093750000  -5.314829e+001  -2.136159e+001 
4096875000  -5.364217e+001  -3.857170e+001 
4100000000  -5.326521e+001  -4.906124e+001 
4103125000  -5.453622e+001  -5.433739e+001 
4106250000  -5.359549e+001  -6.315569e+001 
4109375000  -5.266954e+001  -6.274144e+001 
4112500000  -5.236970e+001  -8.988703e+001 
4115625000  -5.298537e+001  -8.921672e+001 
4118750000  -5.365389e+001  -1.081718e+002 
4121875000  -5.253939e+001  -1.217766e+002 
4125000000  -5.363783e+001  -1.268960e+002 
4128125000  -5.517735e+001  -1.313782e+002 
4131250000  -5.433593e+001  -1.265588e+002 
4134375000  -5.106942e+001  -1.561617e+002 
4137500000  -5.136962e+001  -1.719574e+002 
4140625000  -5.345065e+001  1.662718e+002 
4143750000  -5.528907e+001  1.723113e+002 
4146875000  -5.407922e+001  1.658354e+002 
4150000000  -5.694691e+001  1.635630e+002 
4153125000  -5.492836e+001  1.501498e+002 
4156250000  -5.422000e+001  1.314306e+002 
4159375000  -5.603415e+001  1.233647e+002 
4162500000  -5.799646e+001  1.070126e+002 
4165625000  -5.418759e+001  1.139394e+002 
4168750000  -5.428004e+001  8.245144e+001 
4171875000  -5.406139e+001  7.096463e+001 
4175000000  -5.503580e+001  6.319034e+001 
4178125000  -5.747837e+001  7.702274e+001 
4181250000  -5.693249e+001  6.147887e+001 
4184375000  -5.834692e+001  2.465733e+001 
4187500000  -5.867736e+001  1.933853e+001 
4190625000  -6.233568e+001  2.224003e+001 
4193750000  -6.198692e+001  2.431873e+001 
4196875000  -7.314511e+001  5.915410e+001 
4200000000  -6.635117e+001  -2.546386e+000 
4203125000  -6.105641e+001  9.690264e+000 
4206250000  -5.727895e+001  1.844193e+001 
4209375000  -5.957685e+001  -2.117197e+001 
4212500000  -6.001654e+001  -1.243007e+001 
4215625000  -6.090860e+001  -1.172298e+001 
4218750000  -6.211578e+001  -4.965340e+000 
4221875000  -5.789457e+001  -2.247068e+001 
4225000000  -5.918538e+001  1.118099e+000 
4228125000  -5.878825e+001  -2.385446e+001 
4231250000  -5.666629e+001  -3.099279e+001 
4234375000  -5.996018e+001  -6.498245e+001 
4237500000  -5.791018e+001  -6.430225e+001 
4240625000  -5.626137e+001  -7.268644e+001 
4243750000  -5.918743e+001  -7.492797e+001 
4246875000  -5.729162e+001  -6.975266e+001 
4250000000  -5.670060e+001  -8.492105e+001 
4253125000  -5.579489e+001  -9.397335e+001 
4256250000  -5.436821e+001  -1.131130e+002 
4259375000  -5.497076e+001  -1.105784e+002 
4262500000  -5.505746e+001  -1.329740e+002 
4265625000  -5.423219e+001  -1.268356e+002 
4268750000  -5.420483e+001  -1.496423e+002 
4271875000  -5.305402e+001  -1.544337e+002 
4275000000  -5.186112e+001  -1.781157e+002 
4278125000  -5.452244e+001  1.637123e+002 
4281250000  -5.279744e+001  1.588112e+002 
4284375000  -5.456747e+001  1.547877e+002 
4287500000  -5.498320e+001  1.400244e+002 
4290625000  -5.649075e+001  1.380101e+002 
4293750000  -5.433962e+001  1.479281e+002 
4296875000  -5.042715e+001  1.112230e+002 
4300000000  -5.351085e+001  1.013037e+002 
4303125000  -5.248984e+001  9.820172e+001 
4306250000  -5.248064e+001  9.590872e+001 
4309375000  -5.002122e+001  7.500413e+001 
4312500000  -5.249500e+001  7.283470e+001 
4315625000  -5.160226e+001  4.668594e+001 
4318750000  -5.307856e+001  4.141910e+001 
4321875000  -5.293496e+001  3.945287e+001 
4325000000  -5.353624e+001  2.167317e+001 
4328125000  -5.128668e+001  5.938365e+000 
4331250000  -5.300104e+001  -8.168387e+000 
4334375000  -5.446990e+001  -9.151345e+000 
4337500000  -5.439478e+001  -4.007381e+001 
4340625000  -5.492809e+001  -2.276278e+001 
4343750000  -5.545093e+001  -4.305591e+001 
4346875000  -5.493814e+001  -3.881314e+001 
4350000000  -5.527717e+001  -7.188985e+001 
4353125000  -5.666382e+001  -8.294334e+001 
4356250000  -5.817411e+001  -6.146778e+001 
4359375000  -5.731548e+001  -5.271860e+001 
4362500000  -5.615809e+001  -7.456637e+001 
4365625000  -5.625378e+001  -1.076372e+002 
4368750000  -5.745225e+001  -1.008168e+002 
4371875000  -5.863488e+001  -1.067199e+002 
4375000000  -5.563461e+001  -1.173698e+002 
4378125000  -5.804157e+001  -1.313616e+002 
4381250000  -5.776950e+001  -1.351054e+002 
4384375000  -5.509103e+001  -1.464180e+002 
4387500000  -5.702951e+001  -1.465864e+002 
4390625000  -5.763013e+001  -1.723163e+002 
4393750000  -5.679259e+001  -1.514975e+002 
4396875000  -5.709929e+001  -1.658582e+002 
4400000000  -5.552607e+001  1.749294e+002 
4403125000  -5.484110e+001  1.765101e+002 
4406250000  -5.795185e+001  1.750951e+002 
4409375000  -5.648391e+001  1.693487e+002 
4412500000  -5.496921e+001  1.534692e+002 
4415625000  -5.505048e+001  1.627198e+002 
4418750000  -5.563828e+001  1.608066e+002 
