!Agilent Technologies,E8363B,MY43030201,A.06.04.32
!Agilent E8363B: A.06.04.32
!Date: Tuesday, November 11, 2014 22:15:25
!Correction: S21(Response(S21)) 
!S1P File: Measurement: S21:
# Hz S  dB   R 50
3000000000  -4.898358e+001  -7.133549e+001 
3003125000  -5.131657e+001  -7.308319e+001 
3006250000  -5.184221e+001  -8.331330e+001 
3009375000  -5.249094e+001  -8.413911e+001 
3012500000  -5.109684e+001  -9.757793e+001 
3015625000  -5.137069e+001  -1.082488e+002 
3018750000  -5.189350e+001  -1.119108e+002 
3021875000  -4.979127e+001  -1.147795e+002 
3025000000  -4.887350e+001  -1.268308e+002 
3028125000  -4.789200e+001  -1.422009e+002 
3031250000  -4.722112e+001  -1.611265e+002 
3034375000  -4.710426e+001  1.794922e+002 
3037500000  -4.789057e+001  1.691956e+002 
3040625000  -4.931856e+001  1.550299e+002 
3043750000  -4.969685e+001  1.443750e+002 
3046875000  -5.040908e+001  1.333810e+002 
3050000000  -5.182820e+001  1.236742e+002 
3053125000  -5.188180e+001  1.222640e+002 
3056250000  -5.153905e+001  1.222489e+002 
3059375000  -5.086036e+001  1.064795e+002 
3062500000  -4.959694e+001  1.024872e+002 
3065625000  -4.910228e+001  8.641510e+001 
3068750000  -4.864294e+001  7.484267e+001 
3071875000  -4.888387e+001  7.217381e+001 
3075000000  -4.916422e+001  5.973453e+001 
3078125000  -4.852472e+001  4.539528e+001 
3081250000  -4.897827e+001  3.558971e+001 
3084375000  -4.823224e+001  2.763188e+001 
3087500000  -4.843182e+001  1.327592e+001 
3090625000  -4.810678e+001  -3.090214e+000 
3093750000  -4.905064e+001  -1.622895e+001 
3096875000  -4.949169e+001  -2.398462e+001 
3100000000  -4.961779e+001  -3.086213e+001 
3103125000  -5.006466e+001  -3.669489e+001 
3106250000  -4.910828e+001  -4.959650e+001 
3109375000  -4.972290e+001  -5.828823e+001 
3112500000  -4.898513e+001  -6.451775e+001 
3115625000  -4.942623e+001  -7.737027e+001 
3118750000  -4.979699e+001  -8.586778e+001 
3121875000  -4.932714e+001  -9.626633e+001 
3125000000  -5.066288e+001  -1.102126e+002 
3128125000  -5.098242e+001  -1.068841e+002 
3131250000  -4.865571e+001  -1.182898e+002 
3134375000  -4.799738e+001  -1.390756e+002 
3137500000  -4.926108e+001  -1.526019e+002 
3140625000  -4.960201e+001  -1.566001e+002 
3143750000  -5.061904e+001  -1.712073e+002 
3146875000  -4.991462e+001  -1.722863e+002 
3150000000  -4.937256e+001  -1.799146e+002 
3153125000  -4.884402e+001  1.691889e+002 
3156250000  -5.067796e+001  1.661029e+002 
3159375000  -4.764106e+001  1.601178e+002 
3162500000  -4.613411e+001  1.362380e+002 
3165625000  -4.821460e+001  1.229837e+002 
3168750000  -4.801868e+001  1.163794e+002 
3171875000  -4.715574e+001  1.038099e+002 
3175000000  -4.783578e+001  8.862695e+001 
3178125000  -4.743211e+001  8.505977e+001 
3181250000  -4.643675e+001  7.007957e+001 
3184375000  -4.613781e+001  5.351301e+001 
3187500000  -4.780986e+001  3.525030e+001 
3190625000  -4.942336e+001  2.702140e+001 
3193750000  -4.983094e+001  2.404508e+001 
3196875000  -5.009015e+001  1.855994e+001 
3200000000  -4.864964e+001  1.408944e+001 
3203125000  -4.840116e+001  -2.595647e+000 
3206250000  -4.848373e+001  -1.311269e+001 
3209375000  -4.825949e+001  -3.151254e+001 
3212500000  -4.868665e+001  -4.054939e+001 
3215625000  -4.823299e+001  -4.587941e+001 
3218750000  -4.962381e+001  -6.511607e+001 
3221875000  -4.964569e+001  -7.360184e+001 
3225000000  -4.935618e+001  -8.286464e+001 
3228125000  -5.046296e+001  -9.192258e+001 
3231250000  -5.107711e+001  -1.045078e+002 
3234375000  -5.031500e+001  -1.077761e+002 
3237500000  -5.064887e+001  -1.179647e+002 
3240625000  -5.024254e+001  -1.274786e+002 
3243750000  -5.028028e+001  -1.446864e+002 
3246875000  -5.036518e+001  -1.518432e+002 
3250000000  -5.090416e+001  -1.660927e+002 
3253125000  -5.092977e+001  -1.711639e+002 
3256250000  -4.998084e+001  1.753211e+002 
3259375000  -5.110361e+001  1.608461e+002 
3262500000  -5.290040e+001  1.517265e+002 
3265625000  -5.366833e+001  1.437269e+002 
3268750000  -5.309338e+001  1.391459e+002 
3271875000  -5.309262e+001  1.327426e+002 
3275000000  -5.226408e+001  1.224196e+002 
3278125000  -5.309733e+001  1.073072e+002 
3281250000  -5.205677e+001  1.021478e+002 
3284375000  -5.278336e+001  9.643527e+001 
3287500000  -5.392647e+001  8.542213e+001 
3290625000  -5.278370e+001  6.973968e+001 
3293750000  -5.382206e+001  6.189015e+001 
3296875000  -5.398419e+001  5.658910e+001 
3300000000  -5.353900e+001  4.989544e+001 
3303125000  -5.258812e+001  4.270914e+001 
3306250000  -5.325872e+001  2.573775e+001 
3309375000  -5.367831e+001  1.965594e+001 
3312500000  -5.343136e+001  4.323841e-001 
3315625000  -5.456489e+001  -2.693943e+000 
3318750000  -5.551702e+001  -1.222823e+001 
3321875000  -5.890763e+001  -2.114738e+001 
3325000000  -5.629742e+001  -2.522011e+001 
3328125000  -5.593315e+001  -1.576113e+001 
3331250000  -5.301774e+001  -2.239804e+001 
3334375000  -5.274242e+001  -4.445575e+001 
3337500000  -5.230061e+001  -7.476064e+001 
3340625000  -5.504420e+001  -8.349094e+001 
3343750000  -5.636464e+001  -8.129456e+001 
3346875000  -5.462688e+001  -9.177113e+001 
3350000000  -5.462152e+001  -9.945882e+001 
3353125000  -5.492297e+001  -1.193703e+002 
3356250000  -5.503394e+001  -1.248328e+002 
3359375000  -5.537070e+001  -1.474702e+002 
3362500000  -5.664990e+001  -1.465391e+002 
3365625000  -5.606720e+001  -1.617357e+002 
3368750000  -5.700476e+001  -1.749001e+002 
3371875000  -5.703078e+001  -1.781441e+002 
3375000000  -5.959887e+001  1.731931e+002 
3378125000  -6.014592e+001  1.709998e+002 
3381250000  -6.124562e+001  1.594342e+002 
3384375000  -5.803931e+001  -1.758341e+002 
3387500000  -5.507029e+001  1.562694e+002 
3390625000  -5.646390e+001  1.323499e+002 
3393750000  -5.587113e+001  1.173218e+002 
3396875000  -5.767658e+001  1.133622e+002 
3400000000  -5.408564e+001  9.532610e+001 
3403125000  -5.845248e+001  8.567664e+001 
3406250000  -5.725268e+001  8.034883e+001 
3409375000  -5.892017e+001  5.632125e+001 
3412500000  -5.690817e+001  6.163773e+001 
3415625000  -6.229337e+001  3.937317e+001 
3418750000  -5.966240e+001  3.217580e+001 
3421875000  -6.029257e+001  2.316578e+001 
3425000000  -6.074849e+001  1.878747e+001 
3428125000  -5.970921e+001  1.899259e-001 
3431250000  -6.074505e+001  -3.666565e+000 
3434375000  -6.172334e+001  -2.305095e+001 
3437500000  -6.156396e+001  -1.522840e+001 
3440625000  -6.079171e+001  -1.621376e+001 
3443750000  -6.166875e+001  -3.082623e+001 
3446875000  -6.246768e+001  -4.911652e+001 
3450000000  -6.430219e+001  -5.518845e+001 
3453125000  -6.345279e+001  -8.147047e+001 
3456250000  -6.540358e+001  -8.801460e+001 
3459375000  -6.585295e+001  -7.135035e+001 
3462500000  -7.269780e+001  -1.224411e+002 
3465625000  -6.484753e+001  -1.080481e+002 
3468750000  -6.783684e+001  -1.101458e+002 
3471875000  -6.952261e+001  -7.962746e+001 
3475000000  -6.558485e+001  -1.123927e+002 
3478125000  -7.109048e+001  -9.441214e+001 
3481250000  -7.805972e+001  -1.253435e+002 
3484375000  -6.629861e+001  -1.320511e+002 
3487500000  -6.577326e+001  -1.243124e+002 
3490625000  -7.356245e+001  -1.279969e+002 
3493750000  -7.057182e+001  -1.528649e+002 
3496875000  -6.806264e+001  -1.417514e+002 
3500000000  -6.986675e+001  -1.612713e+002 
3503125000  -7.332766e+001  -1.661388e+002 
3506250000  -6.732072e+001  -1.571612e+002 
3509375000  -6.806279e+001  1.654567e+002 
3512500000  -6.374189e+001  1.465043e+002 
3515625000  -6.582294e+001  1.449521e+002 
3518750000  -6.939044e+001  1.291381e+002 
3521875000  -6.679781e+001  1.252261e+002 
3525000000  -6.860573e+001  1.032213e+002 
3528125000  -7.057332e+001  1.460764e+002 
3531250000  -6.929643e+001  1.628185e+002 
3534375000  -6.617400e+001  1.033283e+002 
3537500000  -6.855733e+001  8.760252e+001 
3540625000  -7.048077e+001  2.928271e+001 
3543750000  -7.364091e+001  9.342059e+001 
3546875000  -7.166350e+001  6.987499e+001 
3550000000  -6.585744e+001  8.900188e+001 
3553125000  -6.725232e+001  5.932564e+001 
3556250000  -6.832731e+001  6.347733e+001 
3559375000  -6.533829e+001  4.790895e+001 
3562500000  -7.537093e+001  1.654793e+002 
3565625000  -7.393658e+001  9.120827e+001 
3568750000  -7.442324e+001  1.509792e+001 
3571875000  -6.798397e+001  1.764180e+001 
3575000000  -7.894743e+001  4.213950e+001 
3578125000  -7.053967e+001  2.607190e+001 
3581250000  -7.803638e+001  -2.426277e+001 
3584375000  -7.410556e+001  4.505166e+001 
3587500000  -6.617551e+001  1.202571e+001 
3590625000  -7.142578e+001  3.117722e+001 
3593750000  -6.917603e+001  -1.714687e+001 
3596875000  -6.655286e+001  3.099865e+001 
3600000000  -6.206347e+001  1.604336e+001 
3603125000  -6.552464e+001  -1.125894e+001 
3606250000  -6.533775e+001  -1.986730e+001 
3609375000  -6.495676e+001  -4.212359e+001 
3612500000  -6.649068e+001  -5.366496e+001 
3615625000  -6.778290e+001  -7.729457e+001 
3618750000  -6.422939e+001  -6.285092e+001 
3621875000  -6.245142e+001  -7.505161e+001 
3625000000  -6.364215e+001  -6.110141e+001 
3628125000  -6.594714e+001  -9.594157e+001 
3631250000  -6.471639e+001  -1.296969e+002 
3634375000  -6.392201e+001  -1.169089e+002 
3637500000  -6.299219e+001  -9.630319e+001 
3640625000  -5.952162e+001  -1.180172e+002 
3643750000  -6.133678e+001  -1.475652e+002 
3646875000  -6.457529e+001  -1.617515e+002 
3650000000  -6.278523e+001  -1.715020e+002 
3653125000  -6.213850e+001  1.681665e+002 
3656250000  -6.770935e+001  1.646151e+002 
3659375000  -6.593237e+001  1.749151e+002 
3662500000  -6.176392e+001  1.464050e+002 
3665625000  -6.143911e+001  1.668428e+002 
3668750000  -6.355547e+001  1.384357e+002 
3671875000  -6.559731e+001  1.466561e+002 
3675000000  -6.418275e+001  1.129831e+002 
3678125000  -6.553101e+001  1.269882e+002 
3681250000  -6.073857e+001  1.112386e+002 
3684375000  -6.751919e+001  1.219714e+002 
3687500000  -6.530835e+001  7.606935e+001 
3690625000  -6.911094e+001  4.860532e+001 
3693750000  -6.696117e+001  1.043825e+002 
3696875000  -6.645187e+001  7.801852e+001 
3700000000  -6.460330e+001  9.795679e+001 
3703125000  -6.658135e+001  5.165628e+001 
3706250000  -6.582689e+001  6.784261e+001 
3709375000  -6.595767e+001  6.900887e+001 
3712500000  -5.996309e+001  6.308486e+001 
3715625000  -6.599494e+001  1.192196e+000 
3718750000  -5.966737e+001  4.139758e+001 
3721875000  -6.370412e+001  4.766017e+001 
3725000000  -6.181562e+001  1.605033e+001 
3728125000  -5.957656e+001  8.355326e+000 
3731250000  -5.908855e+001  -9.692347e+000 
3734375000  -5.801672e+001  -2.007383e+001 
3737500000  -5.862647e+001  -4.352110e+001 
3740625000  -5.895525e+001  -3.958810e+001 
3743750000  -5.850741e+001  -4.856657e+001 
3746875000  -5.821499e+001  -7.432095e+001 
3750000000  -5.883559e+001  -7.775999e+001 
3753125000  -5.809526e+001  -8.174009e+001 
3756250000  -5.726889e+001  -9.388328e+001 
3759375000  -5.790508e+001  -1.048969e+002 
3762500000  -5.706831e+001  -1.164500e+002 
3765625000  -6.099172e+001  -1.222338e+002 
3768750000  -5.660549e+001  -1.273006e+002 
3771875000  -5.614450e+001  -1.393599e+002 
3775000000  -5.789583e+001  -1.509798e+002 
3778125000  -5.710519e+001  -1.785710e+002 
3781250000  -5.633404e+001  1.790994e+002 
3784375000  -5.759976e+001  1.633478e+002 
3787500000  -5.652999e+001  1.449422e+002 
3790625000  -5.658295e+001  1.478242e+002 
3793750000  -5.734958e+001  1.361948e+002 
3796875000  -5.628092e+001  1.276376e+002 
3800000000  -5.325598e+001  8.192109e+001 
3803125000  -5.819352e+001  9.789317e+001 
3806250000  -5.885083e+001  8.461096e+001 
3809375000  -5.807660e+001  7.934468e+001 
3812500000  -5.638585e+001  6.229345e+001 
3815625000  -6.191047e+001  4.262208e+001 
3818750000  -6.192712e+001  4.898199e+001 
3821875000  -6.182956e+001  5.183488e+001 
3825000000  -5.915696e+001  5.208073e+001 
3828125000  -6.070476e+001  2.694167e+001 
3831250000  -6.055124e+001  1.855968e+001 
3834375000  -6.359015e+001  3.465234e+000 
3837500000  -6.237675e+001  -4.529193e+000 
3840625000  -5.956398e+001  9.241733e+000 
3843750000  -6.119666e+001  -2.049132e+001 
3846875000  -6.122801e+001  -1.345291e+001 
3850000000  -6.121262e+001  6.837635e+000 
3853125000  -6.119624e+001  -3.854538e+001 
3856250000  -5.839434e+001  1.470696e+000 
3859375000  -6.184857e+001  -4.013897e+001 
3862500000  -6.010874e+001  -1.386585e+001 
3865625000  -5.980803e+001  -3.058416e+001 
3868750000  -5.841243e+001  -5.659169e+001 
3871875000  -5.716451e+001  -5.599685e+001 
3875000000  -5.900611e+001  -6.904639e+001 
3878125000  -5.636555e+001  -8.273561e+001 
3881250000  -5.704519e+001  -8.474712e+001 
3884375000  -5.504972e+001  -9.523598e+001 
3887500000  -5.667358e+001  -1.075410e+002 
3890625000  -5.667356e+001  -1.127335e+002 
3893750000  -5.645771e+001  -1.218535e+002 
3896875000  -5.697344e+001  -1.292392e+002 
3900000000  -5.597413e+001  -1.539798e+002 
3903125000  -5.470555e+001  -1.481700e+002 
3906250000  -5.413368e+001  -1.588463e+002 
3909375000  -5.476294e+001  1.678047e+002 
3912500000  -5.468505e+001  1.637808e+002 
3915625000  -5.602239e+001  1.638488e+002 
3918750000  -5.450030e+001  1.598536e+002 
3921875000  -5.454149e+001  1.290066e+002 
3925000000  -5.359737e+001  1.215557e+002 
3928125000  -5.472793e+001  1.154405e+002 
3931250000  -5.370296e+001  1.009633e+002 
3934375000  -5.478727e+001  8.842618e+001 
3937500000  -5.627481e+001  9.500455e+001 
3940625000  -5.476046e+001  8.314340e+001 
3943750000  -5.276218e+001  6.506801e+001 
3946875000  -5.355892e+001  5.849835e+001 
3950000000  -5.457241e+001  3.279696e+001 
3953125000  -5.388113e+001  3.126464e+001 
3956250000  -5.503417e+001  3.173152e+001 
3959375000  -5.191938e+001  2.128041e+001 
3962500000  -5.384814e+001  -3.149649e+000 
3965625000  -5.380104e+001  -1.888018e+001 
3968750000  -5.623825e+001  -4.037572e+001 
3971875000  -5.323927e+001  -4.274420e+001 
3975000000  -5.301843e+001  -5.065788e+001 
3978125000  -5.540302e+001  -5.012603e+001 
3981250000  -5.408349e+001  -8.088911e+001 
3984375000  -5.655487e+001  -9.298331e+001 
3987500000  -5.625661e+001  -9.132713e+001 
3990625000  -5.591092e+001  -1.030482e+002 
3993750000  -5.709246e+001  -1.106942e+002 
3996875000  -5.879057e+001  -1.228154e+002 
4000000000  -6.254726e+001  -1.317970e+002 
4003125000  -6.062238e+001  -1.371624e+002 
4006250000  -6.042250e+001  -1.350167e+002 
4009375000  -5.854277e+001  -1.640218e+002 
4012500000  -6.018596e+001  -1.629960e+002 
4015625000  -5.937375e+001  -1.683376e+002 
4018750000  -5.954246e+001  -1.644938e+002 
4021875000  -5.780832e+001  -1.669135e+002 
4025000000  -5.849544e+001  1.680826e+002 
4028125000  -5.911572e+001  -1.779110e+002 
4031250000  -6.182936e+001  1.788468e+002 
4034375000  -6.053717e+001  1.684686e+002 
4037500000  -5.810947e+001  1.537704e+002 
4040625000  -5.955463e+001  1.464455e+002 
4043750000  -5.822783e+001  1.412863e+002 
4046875000  -5.709128e+001  1.427071e+002 
4050000000  -5.549625e+001  1.201566e+002 
4053125000  -5.892610e+001  1.145751e+002 
4056250000  -5.777681e+001  1.035036e+002 
4059375000  -5.725945e+001  1.072807e+002 
4062500000  -5.533704e+001  1.006035e+002 
4065625000  -5.563639e+001  8.852676e+001 
4068750000  -5.494505e+001  6.737192e+001 
4071875000  -5.245415e+001  6.098565e+001 
4075000000  -5.358793e+001  4.665255e+001 
4078125000  -5.304852e+001  3.853648e+001 
4081250000  -5.327918e+001  2.784732e+001 
4084375000  -5.184722e+001  1.048658e+001 
4087500000  -5.341022e+001  1.798979e+000 
4090625000  -5.284731e+001  -9.974435e-001 
4093750000  -5.346326e+001  -2.203227e+001 
4096875000  -5.289433e+001  -3.183580e+001 
4100000000  -5.368290e+001  -5.144967e+001 
4103125000  -5.504770e+001  -4.072087e+001 
4106250000  -5.500476e+001  -4.875151e+001 
4109375000  -5.224398e+001  -5.562487e+001 
4112500000  -5.295010e+001  -7.988832e+001 
4115625000  -5.308198e+001  -8.804292e+001 
4118750000  -5.344051e+001  -9.707721e+001 
4121875000  -5.309165e+001  -1.199411e+002 
4125000000  -5.443958e+001  -1.173597e+002 
4128125000  -5.422523e+001  -1.262979e+002 
4131250000  -5.362397e+001  -1.254794e+002 
4134375000  -5.132097e+001  -1.458220e+002 
4137500000  -5.249050e+001  -1.681836e+002 
4140625000  -5.543513e+001  1.718850e+002 
4143750000  -5.705817e+001  1.701340e+002 
4146875000  -5.334342e+001  1.741953e+002 
4150000000  -5.673336e+001  1.498667e+002 
4153125000  -5.355801e+001  1.481010e+002 
4156250000  -5.568788e+001  1.295432e+002 
4159375000  -5.664955e+001  1.368245e+002 
4162500000  -5.527497e+001  1.203087e+002 
4165625000  -5.547334e+001  1.139118e+002 
4168750000  -5.390257e+001  9.208833e+001 
4171875000  -5.496471e+001  8.042777e+001 
4175000000  -5.607496e+001  5.542047e+001 
4178125000  -5.807285e+001  6.963481e+001 
4181250000  -5.645673e+001  4.223365e+001 
4184375000  -5.735531e+001  3.718884e+001 
4187500000  -5.937687e+001  8.819126e+000 
4190625000  -6.016827e+001  3.904219e+001 
4193750000  -6.137513e+001  3.352038e+001 
4196875000  -6.344829e+001  1.489817e+001 
4200000000  -6.522149e+001  1.847236e+001 
4203125000  -6.430611e+001  2.589278e+000 
4206250000  -5.925022e+001  4.224375e+001 
4209375000  -6.211684e+001  -1.015783e+001 
4212500000  -6.484013e+001  -2.197058e+001 
4215625000  -6.713799e+001  -1.644600e+001 
4218750000  -6.102838e+001  8.389817e+000 
4221875000  -5.866811e+001  -2.751270e+001 
4225000000  -6.221825e+001  -2.913827e+001 
4228125000  -5.880984e+001  -4.086565e+001 
4231250000  -5.906020e+001  -2.228892e+001 
4234375000  -5.673367e+001  -4.422223e+001 
4237500000  -5.898209e+001  -3.890897e+001 
4240625000  -5.460406e+001  -5.024047e+001 
4243750000  -5.565942e+001  -6.515051e+001 
4246875000  -5.673734e+001  -6.739175e+001 
4250000000  -5.905975e+001  -8.735336e+001 
4253125000  -5.649687e+001  -8.137054e+001 
4256250000  -5.528000e+001  -9.915367e+001 
4259375000  -5.602573e+001  -1.001483e+002 
4262500000  -5.429444e+001  -1.210319e+002 
4265625000  -5.539068e+001  -1.206028e+002 
4268750000  -5.199884e+001  -1.465999e+002 
4271875000  -5.152122e+001  -1.590273e+002 
4275000000  -5.085262e+001  -1.701064e+002 
4278125000  -5.534330e+001  1.674649e+002 
4281250000  -5.326197e+001  1.666858e+002 
4284375000  -5.460307e+001  1.642745e+002 
4287500000  -5.364954e+001  1.560057e+002 
4290625000  -5.527163e+001  1.551944e+002 
4293750000  -5.194978e+001  1.461533e+002 
4296875000  -5.183618e+001  1.223328e+002 
4300000000  -5.184862e+001  1.108033e+002 
4303125000  -5.251476e+001  9.778187e+001 
4306250000  -5.149665e+001  9.694796e+001 
4309375000  -5.186073e+001  7.251392e+001 
4312500000  -5.186364e+001  6.493597e+001 
4315625000  -5.212556e+001  4.956144e+001 
4318750000  -5.348938e+001  4.414470e+001 
4321875000  -5.259919e+001  3.952604e+001 
4325000000  -5.309711e+001  2.166997e+001 
4328125000  -5.172476e+001  1.711159e+001 
4331250000  -5.407945e+001  -5.770135e+000 
4334375000  -5.375415e+001  -1.399630e+001 
4337500000  -5.461088e+001  -2.286108e+001 
4340625000  -5.516035e+001  -3.186266e+001 
4343750000  -5.415974e+001  -3.798870e+001 
4346875000  -5.636722e+001  -3.636748e+001 
4350000000  -5.654292e+001  -6.038299e+001 
4353125000  -5.624302e+001  -6.406633e+001 
4356250000  -5.701799e+001  -8.099470e+001 
4359375000  -5.914078e+001  -5.022983e+001 
4362500000  -5.372805e+001  -7.189948e+001 
4365625000  -5.370608e+001  -8.910540e+001 
4368750000  -5.400842e+001  -9.719854e+001 
4371875000  -5.627331e+001  -9.495300e+001 
4375000000  -5.712699e+001  -1.021131e+002 
4378125000  -5.675054e+001  -1.270399e+002 
4381250000  -5.673340e+001  -1.375368e+002 
4384375000  -5.751728e+001  -1.359457e+002 
4387500000  -5.685647e+001  -1.515845e+002 
4390625000  -5.793858e+001  -1.580321e+002 
4393750000  -5.790244e+001  -1.439317e+002 
4396875000  -5.393583e+001  -1.565368e+002 
4400000000  -5.643739e+001  -1.666765e+002 
4403125000  -5.602396e+001  1.661004e+002 
4406250000  -5.666590e+001  1.748581e+002 
4409375000  -5.414934e+001  1.622272e+002 
4412500000  -5.703418e+001  1.500022e+002 
4415625000  -5.536487e+001  1.520809e+002 
4418750000  -5.526762e+001  1.567668e+002 
