!Agilent Technologies,E8363B,MY43030201,A.06.04.32
!Agilent E8363B: A.06.04.32
!Date: Tuesday, November 11, 2014 22:10:05
!Correction: S21(Response(S21)) 
!S1P File: Measurement: S21:
# Hz S  dB   R 50
3000000000  -4.923043e+001  -7.721504e+001 
3003125000  -5.184735e+001  -8.141202e+001 
3006250000  -5.150728e+001  -8.854059e+001 
3009375000  -5.243153e+001  -9.085429e+001 
3012500000  -5.106121e+001  -9.824968e+001 
3015625000  -5.181206e+001  -1.109378e+002 
3018750000  -5.168723e+001  -1.154296e+002 
3021875000  -4.959427e+001  -1.180383e+002 
3025000000  -4.843816e+001  -1.318969e+002 
3028125000  -4.781811e+001  -1.460183e+002 
3031250000  -4.698904e+001  -1.609610e+002 
3034375000  -4.664587e+001  1.785864e+002 
3037500000  -4.769252e+001  1.639829e+002 
3040625000  -4.956691e+001  1.497359e+002 
3043750000  -4.994990e+001  1.404620e+002 
3046875000  -5.044956e+001  1.261863e+002 
3050000000  -5.163731e+001  1.193907e+002 
3053125000  -5.148640e+001  1.207914e+002 
3056250000  -5.143653e+001  1.171042e+002 
3059375000  -5.085207e+001  1.083631e+002 
3062500000  -4.927783e+001  9.805682e+001 
3065625000  -4.962103e+001  8.942902e+001 
3068750000  -4.911140e+001  7.619046e+001 
3071875000  -4.867245e+001  6.558271e+001 
3075000000  -4.841465e+001  5.398751e+001 
3078125000  -4.816871e+001  4.346130e+001 
3081250000  -4.920126e+001  3.233429e+001 
3084375000  -4.806655e+001  2.518382e+001 
3087500000  -4.838961e+001  1.151959e+001 
3090625000  -4.842801e+001  -3.364570e+000 
3093750000  -4.908569e+001  -1.704124e+001 
3096875000  -4.956826e+001  -2.649930e+001 
3100000000  -4.925195e+001  -3.308114e+001 
3103125000  -5.017759e+001  -4.368228e+001 
3106250000  -4.937236e+001  -5.112373e+001 
3109375000  -4.913603e+001  -6.204839e+001 
3112500000  -4.934794e+001  -7.094337e+001 
3115625000  -4.904747e+001  -7.922841e+001 
3118750000  -4.967063e+001  -8.535548e+001 
3121875000  -4.940310e+001  -1.007737e+002 
3125000000  -5.059953e+001  -1.101758e+002 
3128125000  -5.054496e+001  -1.122898e+002 
3131250000  -4.843766e+001  -1.196251e+002 
3134375000  -4.790199e+001  -1.423130e+002 
3137500000  -4.883160e+001  -1.529171e+002 
3140625000  -4.990844e+001  -1.600615e+002 
3143750000  -5.055803e+001  -1.702961e+002 
3146875000  -5.014500e+001  -1.768345e+002 
3150000000  -4.925568e+001  1.758667e+002 
3153125000  -4.933670e+001  1.640296e+002 
3156250000  -5.047050e+001  1.587151e+002 
3159375000  -4.805532e+001  1.565606e+002 
3162500000  -4.602962e+001  1.378115e+002 
3165625000  -4.737220e+001  1.169732e+002 
3168750000  -4.795254e+001  1.161026e+002 
3171875000  -4.708896e+001  1.040684e+002 
3175000000  -4.771307e+001  8.621848e+001 
3178125000  -4.730351e+001  8.246303e+001 
3181250000  -4.658501e+001  6.743609e+001 
3184375000  -4.654091e+001  4.986652e+001 
3187500000  -4.772873e+001  3.226353e+001 
3190625000  -4.914697e+001  1.920255e+001 
3193750000  -4.961739e+001  1.888869e+001 
3196875000  -4.934866e+001  1.630824e+001 
3200000000  -4.791073e+001  6.644641e+000 
3203125000  -4.864694e+001  -6.321938e+000 
3206250000  -4.836329e+001  -1.708081e+001 
3209375000  -4.831358e+001  -3.163998e+001 
3212500000  -4.863142e+001  -4.209328e+001 
3215625000  -4.811241e+001  -5.088717e+001 
3218750000  -4.959822e+001  -6.849944e+001 
3221875000  -4.881266e+001  -7.677797e+001 
3225000000  -4.970382e+001  -8.698338e+001 
3228125000  -4.990079e+001  -9.602939e+001 
3231250000  -5.072186e+001  -1.052853e+002 
3234375000  -4.980241e+001  -1.076848e+002 
3237500000  -5.019386e+001  -1.210595e+002 
3240625000  -5.020717e+001  -1.294846e+002 
3243750000  -4.955214e+001  -1.461615e+002 
3246875000  -5.051039e+001  -1.561622e+002 
3250000000  -5.132091e+001  -1.668893e+002 
3253125000  -5.076638e+001  -1.723987e+002 
3256250000  -5.032713e+001  1.740112e+002 
3259375000  -5.132398e+001  1.546191e+002 
3262500000  -5.330127e+001  1.449044e+002 
3265625000  -5.333096e+001  1.417820e+002 
3268750000  -5.250788e+001  1.425314e+002 
3271875000  -5.261732e+001  1.345698e+002 
3275000000  -5.214792e+001  1.228648e+002 
3278125000  -5.199460e+001  1.077732e+002 
3281250000  -5.312896e+001  9.963597e+001 
3284375000  -5.194561e+001  9.483177e+001 
3287500000  -5.411539e+001  8.314334e+001 
3290625000  -5.288812e+001  6.962869e+001 
3293750000  -5.310675e+001  5.885448e+001 
3296875000  -5.416022e+001  5.347056e+001 
3300000000  -5.437131e+001  4.884483e+001 
3303125000  -5.302560e+001  4.007241e+001 
3306250000  -5.375159e+001  2.648279e+001 
3309375000  -5.326177e+001  1.617818e+001 
3312500000  -5.327698e+001  -3.593022e+000 
3315625000  -5.380265e+001  -1.325057e+001 
3318750000  -5.538860e+001  -2.270477e+001 
3321875000  -5.669435e+001  -2.453746e+001 
3325000000  -5.657127e+001  -1.451654e+001 
3328125000  -5.613374e+001  -1.832895e+001 
3331250000  -5.489440e+001  -2.468611e+001 
3334375000  -5.190174e+001  -4.992498e+001 
3337500000  -5.246146e+001  -7.106098e+001 
3340625000  -5.401628e+001  -9.255548e+001 
3343750000  -5.536779e+001  -8.669012e+001 
3346875000  -5.595906e+001  -9.901389e+001 
3350000000  -5.347984e+001  -9.853664e+001 
3353125000  -5.445216e+001  -1.137804e+002 
3356250000  -5.541526e+001  -1.242439e+002 
3359375000  -5.512836e+001  -1.484018e+002 
3362500000  -5.595565e+001  -1.559930e+002 
3365625000  -5.697072e+001  -1.588524e+002 
3368750000  -5.727634e+001  -1.770022e+002 
3371875000  -5.579929e+001  1.744118e+002 
3375000000  -5.877887e+001  1.631805e+002 
3378125000  -6.025749e+001  1.636864e+002 
3381250000  -6.233786e+001  1.788899e+002 
3384375000  -5.611707e+001  1.793031e+002 
3387500000  -5.416225e+001  1.439088e+002 
3390625000  -5.782337e+001  1.291330e+002 
3393750000  -5.793337e+001  1.126620e+002 
3396875000  -5.986962e+001  1.159101e+002 
3400000000  -5.409927e+001  9.561410e+001 
3403125000  -5.770573e+001  7.371990e+001 
3406250000  -5.705708e+001  8.051932e+001 
3409375000  -5.689710e+001  5.460489e+001 
3412500000  -5.780766e+001  4.988353e+001 
3415625000  -5.914559e+001  5.219270e+001 
3418750000  -5.948572e+001  4.135757e+001 
3421875000  -6.098496e+001  2.777222e+001 
3425000000  -5.777999e+001  2.725489e+001 
3428125000  -6.003377e+001  4.929790e+000 
3431250000  -5.993980e+001  1.128964e+000 
3434375000  -5.993121e+001  -1.720305e+001 
3437500000  -6.241077e+001  -2.053956e+001 
3440625000  -6.108280e+001  -3.083498e+001 
3443750000  -6.295006e+001  -3.399486e+001 
3446875000  -6.026732e+001  -6.954740e+001 
3450000000  -6.168808e+001  -7.845629e+001 
3453125000  -6.230634e+001  -7.554740e+001 
3456250000  -6.392017e+001  -9.589583e+001 
3459375000  -6.406100e+001  -8.599785e+001 
3462500000  -6.671805e+001  -1.148134e+002 
3465625000  -6.692887e+001  -9.455844e+001 
3468750000  -6.698581e+001  -1.243523e+002 
3471875000  -6.350007e+001  -9.724872e+001 
3475000000  -6.387082e+001  -1.452275e+002 
3478125000  -7.029868e+001  -1.771678e+002 
3481250000  -7.152589e+001  -1.361616e+002 
3484375000  -6.637390e+001  -1.242280e+002 
3487500000  -6.507915e+001  -1.219192e+002 
3490625000  -6.927615e+001  -1.534620e+002 
3493750000  -7.029475e+001  -1.393223e+002 
3496875000  -6.794160e+001  1.761193e+002 
3500000000  -7.086783e+001  -1.678683e+002 
3503125000  -6.581711e+001  -1.516510e+002 
3506250000  -6.286594e+001  1.767993e+002 
3509375000  -6.655964e+001  1.601195e+002 
3512500000  -6.267932e+001  1.547365e+002 
3515625000  -6.953875e+001  1.570703e+002 
3518750000  -6.724041e+001  1.235665e+002 
3521875000  -6.742727e+001  1.585879e+002 
3525000000  -6.704372e+001  1.377096e+002 
3528125000  -6.428310e+001  1.210692e+002 
3531250000  -6.772867e+001  9.539893e+001 
3534375000  -6.609864e+001  8.714268e+001 
3537500000  -6.734309e+001  7.245329e+001 
3540625000  -6.999482e+001  4.131689e+001 
3543750000  -7.309971e+001  1.194400e+002 
3546875000  -7.936493e+001  9.224445e+001 
3550000000  -6.653331e+001  4.819049e+001 
3553125000  -7.236268e+001  6.318570e+001 
3556250000  -7.109109e+001  5.746333e+001 
3559375000  -7.642333e+001  1.510756e+001 
3562500000  -7.135076e+001  5.298203e+001 
3565625000  -7.093164e+001  4.529886e+001 
3568750000  -7.612270e+001  -9.376713e+001 
3571875000  -7.662866e+001  5.013995e+000 
3575000000  -8.152653e+001  1.735032e+002 
3578125000  -7.535840e+001  2.678263e+001 
3581250000  -7.234776e+001  4.410225e+001 
3584375000  -6.871928e+001  8.963239e+001 
3587500000  -7.674551e+001  3.635727e+001 
3590625000  -6.852913e+001  -1.189035e+001 
3593750000  -7.349776e+001  -2.462094e+001 
3596875000  -6.772403e+001  3.830206e+001 
3600000000  -6.608486e+001  1.505599e+001 
3603125000  -6.869717e+001  -6.503240e+000 
3606250000  -6.678904e+001  -4.646108e+001 
3609375000  -6.770003e+001  -4.617712e+001 
3612500000  -6.589478e+001  -3.944266e+001 
3615625000  -6.612143e+001  -2.624779e+001 
3618750000  -6.360954e+001  -7.360725e+001 
3621875000  -6.401439e+001  -7.937656e+001 
3625000000  -6.279099e+001  -8.010484e+001 
3628125000  -6.433067e+001  -8.163680e+001 
3631250000  -6.205121e+001  -1.106580e+002 
3634375000  -6.628699e+001  -1.300834e+002 
3637500000  -6.499908e+001  -1.135556e+002 
3640625000  -6.130782e+001  -1.250204e+002 
3643750000  -6.210203e+001  -1.504264e+002 
3646875000  -6.207069e+001  -1.735593e+002 
3650000000  -6.559145e+001  1.768080e+002 
3653125000  -6.274797e+001  -1.745732e+002 
3656250000  -7.059963e+001  1.684604e+002 
3659375000  -6.292206e+001  1.615391e+002 
3662500000  -6.155774e+001  1.648578e+002 
3665625000  -6.476124e+001  1.532908e+002 
3668750000  -6.193613e+001  1.340391e+002 
3671875000  -6.083134e+001  1.050533e+002 
3675000000  -6.504876e+001  1.040958e+002 
3678125000  -6.391040e+001  1.164775e+002 
3681250000  -6.346867e+001  1.032653e+002 
3684375000  -6.713745e+001  1.087943e+002 
3687500000  -6.465493e+001  7.646189e+001 
3690625000  -6.695422e+001  7.209024e+001 
3693750000  -6.548866e+001  8.135421e+001 
3696875000  -7.285218e+001  7.167799e+001 
3700000000  -6.300256e+001  6.706652e+001 
3703125000  -6.436484e+001  4.723531e+001 
3706250000  -6.639907e+001  5.953062e+001 
3709375000  -6.464213e+001  4.556052e+001 
3712500000  -6.284338e+001  5.717050e+001 
3715625000  -6.132301e+001  1.486955e+001 
3718750000  -6.095501e+001  6.704383e+000 
3721875000  -6.336305e+001  1.175856e+001 
3725000000  -6.152259e+001  8.203726e+000 
3728125000  -6.129139e+001  1.002302e+001 
3731250000  -5.926076e+001  3.421447e-001 
3734375000  -5.988516e+001  -2.867388e+001 
3737500000  -5.898230e+001  -3.842300e+001 
3740625000  -6.075735e+001  -4.999458e+001 
3743750000  -5.923118e+001  -5.544687e+001 
3746875000  -5.906552e+001  -4.951830e+001 
3750000000  -5.793937e+001  -7.760848e+001 
3753125000  -6.134751e+001  -7.798110e+001 
3756250000  -5.700360e+001  -1.051054e+002 
3759375000  -5.861488e+001  -1.129339e+002 
3762500000  -5.645374e+001  -1.163536e+002 
3765625000  -5.850395e+001  -1.261600e+002 
3768750000  -5.692762e+001  -1.349484e+002 
3771875000  -5.640829e+001  -1.503649e+002 
3775000000  -5.595879e+001  -1.618094e+002 
3778125000  -5.596010e+001  1.757157e+002 
3781250000  -5.570491e+001  1.794640e+002 
3784375000  -5.680924e+001  1.697249e+002 
3787500000  -5.823039e+001  1.489206e+002 
3790625000  -5.807905e+001  1.305378e+002 
3793750000  -5.955360e+001  1.386832e+002 
3796875000  -5.601217e+001  1.146884e+002 
3800000000  -5.300394e+001  7.864384e+001 
3803125000  -5.722479e+001  9.266277e+001 
3806250000  -6.016454e+001  7.398035e+001 
3809375000  -5.633112e+001  7.858633e+001 
3812500000  -5.819799e+001  7.222644e+001 
3815625000  -5.951362e+001  5.351732e+001 
3818750000  -6.360022e+001  4.436745e+001 
3821875000  -6.155655e+001  5.750445e+001 
3825000000  -5.897546e+001  4.016153e+001 
3828125000  -5.850620e+001  2.942742e+001 
3831250000  -5.730704e+001  7.215438e+000 
3834375000  -6.227982e+001  -1.489901e+001 
3837500000  -6.429087e+001  1.095693e+001 
3840625000  -6.441061e+001  3.036111e+001 
3843750000  -5.911833e+001  1.189777e+001 
3846875000  -6.100030e+001  -1.243952e+001 
3850000000  -6.350752e+001  -9.810083e+000 
3853125000  -6.639876e+001  1.595437e+000 
3856250000  -6.343813e+001  -8.596269e-001 
3859375000  -6.113021e+001  -1.692507e+001 
3862500000  -6.085331e+001  -3.177831e+001 
3865625000  -5.961193e+001  -5.563717e+001 
3868750000  -5.951534e+001  -4.947224e+001 
3871875000  -5.821164e+001  -6.472687e+001 
3875000000  -5.812810e+001  -8.297810e+001 
3878125000  -5.579451e+001  -8.338140e+001 
3881250000  -5.719324e+001  -9.679017e+001 
3884375000  -5.578318e+001  -9.843749e+001 
3887500000  -5.716600e+001  -1.068639e+002 
3890625000  -5.779412e+001  -1.181018e+002 
3893750000  -5.614301e+001  -1.322338e+002 
3896875000  -5.741097e+001  -1.264698e+002 
3900000000  -5.592862e+001  -1.425258e+002 
3903125000  -5.514164e+001  -1.537033e+002 
3906250000  -5.471644e+001  -1.730583e+002 
3909375000  -5.496769e+001  1.734724e+002 
3912500000  -5.306244e+001  1.600169e+002 
3915625000  -5.688287e+001  1.569820e+002 
3918750000  -5.463340e+001  1.529909e+002 
3921875000  -5.442368e+001  1.379931e+002 
3925000000  -5.228904e+001  1.204862e+002 
3928125000  -5.335009e+001  1.087113e+002 
3931250000  -5.468391e+001  9.614297e+001 
3934375000  -5.500734e+001  8.771416e+001 
3937500000  -5.638801e+001  7.976495e+001 
3940625000  -5.557526e+001  7.557497e+001 
3943750000  -5.401408e+001  6.576579e+001 
3946875000  -5.270483e+001  5.289050e+001 
3950000000  -5.367071e+001  4.464067e+001 
3953125000  -5.478338e+001  2.917092e+001 
3956250000  -5.556262e+001  1.680221e+001 
3959375000  -5.186150e+001  3.351426e+000 
3962500000  -5.186660e+001  -1.969578e+000 
3965625000  -5.237460e+001  -1.952528e+001 
3968750000  -5.307249e+001  -2.972472e+001 
3971875000  -5.478454e+001  -3.907518e+001 
3975000000  -5.353698e+001  -5.959130e+001 
3978125000  -5.441316e+001  -5.749114e+001 
3981250000  -5.472893e+001  -7.098771e+001 
3984375000  -5.507415e+001  -8.801105e+001 
3987500000  -5.540134e+001  -9.393201e+001 
3990625000  -5.735492e+001  -9.241667e+001 
3993750000  -5.578302e+001  -1.152282e+002 
3996875000  -5.660811e+001  -1.237387e+002 
4000000000  -5.743200e+001  -1.387695e+002 
4003125000  -6.048561e+001  -1.259858e+002 
4006250000  -5.781115e+001  -1.322562e+002 
4009375000  -5.844481e+001  -1.525903e+002 
4012500000  -5.846023e+001  -1.695567e+002 
4015625000  -6.105347e+001  -1.681321e+002 
4018750000  -6.108390e+001  -1.741169e+002 
4021875000  -5.827783e+001  -1.768447e+002 
4025000000  -6.128707e+001  -1.737642e+002 
4028125000  -5.989043e+001  1.718082e+002 
4031250000  -5.928406e+001  1.528640e+002 
4034375000  -6.145087e+001  1.571346e+002 
4037500000  -5.911384e+001  1.461232e+002 
4040625000  -6.002245e+001  1.553978e+002 
4043750000  -5.929075e+001  1.375807e+002 
4046875000  -5.795152e+001  1.336376e+002 
4050000000  -5.777859e+001  1.163904e+002 
4053125000  -5.815746e+001  1.126236e+002 
4056250000  -5.747373e+001  1.274249e+002 
4059375000  -5.699936e+001  1.077427e+002 
4062500000  -5.442608e+001  9.823907e+001 
4065625000  -5.468610e+001  8.063190e+001 
4068750000  -5.348232e+001  6.897977e+001 
4071875000  -5.336308e+001  5.100034e+001 
4075000000  -5.440907e+001  4.370361e+001 
4078125000  -5.261671e+001  2.922021e+001 
4081250000  -5.241964e+001  2.740261e+001 
4084375000  -5.311017e+001  3.474733e+000 
4087500000  -5.352547e+001  -4.671541e+000 
4090625000  -5.401439e+001  -1.919696e+000 
4093750000  -5.350773e+001  -2.472680e+001 
4096875000  -5.318984e+001  -2.742434e+001 
4100000000  -5.372417e+001  -5.373731e+001 
4103125000  -5.483433e+001  -4.975385e+001 
4106250000  -5.314589e+001  -5.800075e+001 
4109375000  -5.153897e+001  -6.400339e+001 
4112500000  -5.212400e+001  -8.888596e+001 
4115625000  -5.455460e+001  -9.313558e+001 
4118750000  -5.213922e+001  -1.011720e+002 
4121875000  -5.194216e+001  -1.244960e+002 
4125000000  -5.282056e+001  -1.220900e+002 
4128125000  -5.447423e+001  -1.334925e+002 
4131250000  -5.356091e+001  -1.312339e+002 
4134375000  -5.095571e+001  -1.585316e+002 
4137500000  -5.185378e+001  -1.741795e+002 
4140625000  -5.380057e+001  1.702940e+002 
4143750000  -5.433647e+001  -1.759773e+002 
4146875000  -5.496091e+001  1.713370e+002 
4150000000  -5.500129e+001  1.552636e+002 
4153125000  -5.398083e+001  1.447230e+002 
4156250000  -5.633191e+001  1.188916e+002 
4159375000  -5.517085e+001  1.259010e+002 
4162500000  -5.667735e+001  1.126281e+002 
4165625000  -5.418193e+001  1.047591e+002 
4168750000  -5.478793e+001  7.785720e+001 
4171875000  -5.546359e+001  7.817337e+001 
4175000000  -5.623186e+001  5.478335e+001 
4178125000  -5.732840e+001  7.118137e+001 
4181250000  -5.835666e+001  3.951628e+001 
4184375000  -6.039268e+001  2.913904e+001 
4187500000  -5.734873e+001  2.545747e+001 
4190625000  -6.124937e+001  2.470122e+001 
4193750000  -6.375636e+001  8.603483e+000 
4196875000  -6.190256e+001  1.601500e+001 
4200000000  -6.419592e+001  1.871373e+001 
4203125000  -7.033397e+001  6.750202e+000 
4206250000  -6.303236e+001  2.783261e+001 
4209375000  -6.202634e+001  -3.091898e+001 
4212500000  -6.180584e+001  -3.045977e+000 
4215625000  -6.081154e+001  -1.710313e+001 
4218750000  -6.143591e+001  2.160831e+001 
4221875000  -6.108461e+001  -9.435011e+000 
4225000000  -5.961547e+001  -2.614421e+001 
4228125000  -5.781108e+001  -2.970219e+001 
4231250000  -5.722136e+001  -1.728642e+001 
4234375000  -5.795135e+001  -4.711068e+001 
4237500000  -5.852172e+001  -3.862012e+001 
4240625000  -5.596779e+001  -6.303026e+001 
4243750000  -5.829245e+001  -9.012660e+001 
4246875000  -5.704523e+001  -7.563478e+001 
4250000000  -5.815886e+001  -8.683765e+001 
4253125000  -5.457796e+001  -9.262891e+001 
4256250000  -5.531764e+001  -9.390105e+001 
4259375000  -5.537436e+001  -1.152590e+002 
4262500000  -5.354994e+001  -1.220258e+002 
4265625000  -5.472746e+001  -1.271130e+002 
4268750000  -5.267313e+001  -1.484609e+002 
4271875000  -5.172799e+001  -1.557170e+002 
4275000000  -5.199379e+001  -1.765899e+002 
4278125000  -5.376324e+001  1.683179e+002 
4281250000  -5.384995e+001  1.573894e+002 
4284375000  -5.430954e+001  1.608665e+002 
4287500000  -5.305471e+001  1.332899e+002 
4290625000  -5.449153e+001  1.427984e+002 
4293750000  -5.263068e+001  1.371819e+002 
4296875000  -5.262141e+001  1.182185e+002 
4300000000  -5.219144e+001  1.036953e+002 
4303125000  -5.280155e+001  9.949549e+001 
4306250000  -5.269455e+001  9.398922e+001 
4309375000  -5.145446e+001  7.618539e+001 
4312500000  -5.111858e+001  7.136044e+001 
4315625000  -5.264735e+001  5.159863e+001 
4318750000  -5.360941e+001  3.752282e+001 
4321875000  -5.348306e+001  3.238568e+001 
4325000000  -5.255845e+001  2.368335e+001 
4328125000  -5.180512e+001  8.242771e+000 
4331250000  -5.347272e+001  -1.213252e+001 
4334375000  -5.403725e+001  -1.777315e+001 
4337500000  -5.512284e+001  -4.278163e+001 
4340625000  -5.594587e+001  -3.295039e+001 
4343750000  -5.452187e+001  -3.429017e+001 
4346875000  -5.509164e+001  -4.624690e+001 
4350000000  -5.404002e+001  -6.917617e+001 
4353125000  -5.428941e+001  -7.540912e+001 
4356250000  -5.905261e+001  -6.978187e+001 
4359375000  -5.909915e+001  -6.127472e+001 
4362500000  -5.617049e+001  -7.837088e+001 
4365625000  -5.408309e+001  -1.014258e+002 
4368750000  -5.540609e+001  -1.166563e+002 
4371875000  -5.547836e+001  -1.048820e+002 
4375000000  -5.660519e+001  -1.196112e+002 
4378125000  -5.653708e+001  -1.251049e+002 
4381250000  -5.730003e+001  -1.327071e+002 
4384375000  -5.730750e+001  -1.444864e+002 
4387500000  -5.740708e+001  -1.503370e+002 
4390625000  -5.854037e+001  -1.512179e+002 
4393750000  -5.785552e+001  -1.500322e+002 
4396875000  -5.406340e+001  -1.624686e+002 
4400000000  -5.650863e+001  1.769884e+002 
4403125000  -5.445890e+001  -1.797958e+002 
4406250000  -5.738330e+001  1.605973e+002 
4409375000  -5.574385e+001  1.708146e+002 
4412500000  -5.723166e+001  1.521810e+002 
4415625000  -5.587384e+001  1.720513e+002 
4418750000  -5.522743e+001  1.483253e+002 
