!Agilent Technologies,E8363B,MY43030201,A.06.04.32
!Agilent E8363B: A.06.04.32
!Date: Tuesday, November 11, 2014 22:09:16
!Correction: S21(Response(S21)) 
!S1P File: Measurement: S21:
# Hz S  dB   R 50
3000000000  -4.871766e+001  -7.527061e+001 
3003125000  -5.159808e+001  -8.267927e+001 
3006250000  -5.172508e+001  -8.932451e+001 
3009375000  -5.207196e+001  -8.980472e+001 
3012500000  -5.056876e+001  -9.915024e+001 
3015625000  -5.086899e+001  -1.082808e+002 
3018750000  -5.213102e+001  -1.166814e+002 
3021875000  -5.002661e+001  -1.183840e+002 
3025000000  -4.860849e+001  -1.300093e+002 
3028125000  -4.763142e+001  -1.457560e+002 
3031250000  -4.670864e+001  -1.646496e+002 
3034375000  -4.707433e+001  1.776091e+002 
3037500000  -4.791895e+001  1.608466e+002 
3040625000  -4.875475e+001  1.489384e+002 
3043750000  -4.981953e+001  1.402076e+002 
3046875000  -5.036525e+001  1.275967e+002 
3050000000  -5.175929e+001  1.232238e+002 
3053125000  -5.109958e+001  1.168014e+002 
3056250000  -5.112127e+001  1.188701e+002 
3059375000  -5.047204e+001  1.087487e+002 
3062500000  -4.916081e+001  1.006635e+002 
3065625000  -4.936892e+001  8.557733e+001 
3068750000  -4.886562e+001  7.357042e+001 
3071875000  -4.922792e+001  6.667275e+001 
3075000000  -4.859130e+001  5.620710e+001 
3078125000  -4.814119e+001  4.574654e+001 
3081250000  -4.870498e+001  3.142384e+001 
3084375000  -4.826829e+001  2.166510e+001 
3087500000  -4.835608e+001  8.161298e+000 
3090625000  -4.805551e+001  -6.054505e+000 
3093750000  -4.922184e+001  -1.771389e+001 
3096875000  -4.982854e+001  -2.838383e+001 
3100000000  -4.907788e+001  -3.629341e+001 
3103125000  -4.983316e+001  -3.860894e+001 
3106250000  -4.952333e+001  -5.262029e+001 
3109375000  -4.943192e+001  -6.428842e+001 
3112500000  -4.901977e+001  -7.280996e+001 
3115625000  -4.893305e+001  -7.837593e+001 
3118750000  -4.929807e+001  -8.808592e+001 
3121875000  -4.888867e+001  -1.054084e+002 
3125000000  -5.086326e+001  -1.101208e+002 
3128125000  -5.046631e+001  -1.089273e+002 
3131250000  -4.811259e+001  -1.179032e+002 
3134375000  -4.766364e+001  -1.414567e+002 
3137500000  -4.876510e+001  -1.582233e+002 
3140625000  -4.974426e+001  -1.677504e+002 
3143750000  -5.087364e+001  -1.704673e+002 
3146875000  -4.985067e+001  -1.714252e+002 
3150000000  -4.890627e+001  1.774607e+002 
3153125000  -4.905211e+001  1.626504e+002 
3156250000  -5.009928e+001  1.644341e+002 
3159375000  -4.862377e+001  1.537627e+002 
3162500000  -4.652483e+001  1.340885e+002 
3165625000  -4.773396e+001  1.189051e+002 
3168750000  -4.760783e+001  1.144768e+002 
3171875000  -4.705688e+001  1.011300e+002 
3175000000  -4.769284e+001  8.752825e+001 
3178125000  -4.737913e+001  7.939884e+001 
3181250000  -4.654021e+001  6.862843e+001 
3184375000  -4.621441e+001  5.237818e+001 
3187500000  -4.769434e+001  3.143634e+001 
3190625000  -4.900010e+001  2.060673e+001 
3193750000  -4.955746e+001  2.124550e+001 
3196875000  -4.968416e+001  1.451643e+001 
3200000000  -4.849970e+001  6.492067e+000 
3203125000  -4.839468e+001  -5.636445e+000 
3206250000  -4.856654e+001  -1.939569e+001 
3209375000  -4.781921e+001  -2.793244e+001 
3212500000  -4.860915e+001  -4.032953e+001 
3215625000  -4.807000e+001  -4.587994e+001 
3218750000  -4.915240e+001  -6.749885e+001 
3221875000  -4.984370e+001  -7.929773e+001 
3225000000  -4.877067e+001  -8.802518e+001 
3228125000  -5.029745e+001  -9.616972e+001 
3231250000  -5.061279e+001  -1.029459e+002 
3234375000  -5.026594e+001  -1.127535e+002 
3237500000  -5.030598e+001  -1.201422e+002 
3240625000  -4.968805e+001  -1.307812e+002 
3243750000  -4.967755e+001  -1.464724e+002 
3246875000  -5.053688e+001  -1.552220e+002 
3250000000  -5.096292e+001  -1.662493e+002 
3253125000  -5.087478e+001  -1.732595e+002 
3256250000  -4.996889e+001  1.747905e+002 
3259375000  -5.128477e+001  1.532882e+002 
3262500000  -5.256458e+001  1.508399e+002 
3265625000  -5.312317e+001  1.443776e+002 
3268750000  -5.302015e+001  1.393916e+002 
3271875000  -5.280487e+001  1.351425e+002 
3275000000  -5.291986e+001  1.260550e+002 
3278125000  -5.247067e+001  1.032349e+002 
3281250000  -5.323080e+001  9.837850e+001 
3284375000  -5.174383e+001  8.839856e+001 
3287500000  -5.355785e+001  7.696626e+001 
3290625000  -5.258391e+001  6.946020e+001 
3293750000  -5.356034e+001  6.017758e+001 
3296875000  -5.430902e+001  5.409417e+001 
3300000000  -5.460912e+001  4.641776e+001 
3303125000  -5.352237e+001  3.576419e+001 
3306250000  -5.338026e+001  2.283757e+001 
3309375000  -5.298963e+001  1.380832e+001 
3312500000  -5.353365e+001  -8.607354e+000 
3315625000  -5.476581e+001  -5.587594e+000 
3318750000  -5.663439e+001  -2.664066e+001 
3321875000  -5.729622e+001  -2.274249e+001 
3325000000  -5.731875e+001  -2.226851e+001 
3328125000  -5.699756e+001  -2.858014e+001 
3331250000  -5.293781e+001  -3.149606e+001 
3334375000  -5.116888e+001  -5.553737e+001 
3337500000  -5.156123e+001  -7.409651e+001 
3340625000  -5.382215e+001  -9.173988e+001 
3343750000  -5.596620e+001  -8.298106e+001 
3346875000  -5.588603e+001  -1.029966e+002 
3350000000  -5.443196e+001  -9.861372e+001 
3353125000  -5.411035e+001  -1.138953e+002 
3356250000  -5.396373e+001  -1.330522e+002 
3359375000  -5.425045e+001  -1.495106e+002 
3362500000  -5.534701e+001  -1.513535e+002 
3365625000  -5.582224e+001  -1.625876e+002 
3368750000  -5.723320e+001  -1.695198e+002 
3371875000  -5.633475e+001  1.724342e+002 
3375000000  -5.886442e+001  1.632105e+002 
3378125000  -5.905816e+001  1.733747e+002 
3381250000  -6.301568e+001  1.722376e+002 
3384375000  -5.647798e+001  1.752369e+002 
3387500000  -5.490473e+001  1.413442e+002 
3390625000  -5.617499e+001  1.278218e+002 
3393750000  -5.599138e+001  1.129301e+002 
3396875000  -5.592898e+001  1.195144e+002 
3400000000  -5.469917e+001  9.299955e+001 
3403125000  -5.686779e+001  8.027704e+001 
3406250000  -5.745971e+001  7.553834e+001 
3409375000  -5.657029e+001  5.062364e+001 
3412500000  -5.758350e+001  5.251949e+001 
3415625000  -6.088073e+001  4.098677e+001 
3418750000  -5.917420e+001  3.526523e+001 
3421875000  -5.994490e+001  3.452427e+001 
3425000000  -6.060152e+001  3.313845e+001 
3428125000  -6.037612e+001  -1.404153e+000 
3431250000  -6.059336e+001  -1.457373e+001 
3434375000  -6.104295e+001  -2.939998e+001 
3437500000  -6.313827e+001  -3.677451e+001 
3440625000  -6.025506e+001  -3.187073e+001 
3443750000  -6.360498e+001  -1.132987e+001 
3446875000  -6.037299e+001  -4.448812e+001 
3450000000  -6.689710e+001  -7.702607e+001 
3453125000  -6.186472e+001  -8.018849e+001 
3456250000  -6.568716e+001  -1.099845e+002 
3459375000  -6.399896e+001  -7.964453e+001 
3462500000  -6.921237e+001  -1.208815e+002 
3465625000  -6.214879e+001  -1.081326e+002 
3468750000  -6.545171e+001  -1.090929e+002 
3471875000  -6.580642e+001  -1.026374e+002 
3475000000  -6.805176e+001  -1.313103e+002 
3478125000  -7.191614e+001  -9.718571e+001 
3481250000  -6.854091e+001  -1.352074e+002 
3484375000  -7.441928e+001  -1.567931e+002 
3487500000  -6.603032e+001  -1.303697e+002 
3490625000  -6.588123e+001  -1.441408e+002 
3493750000  -7.312383e+001  -1.125585e+002 
3496875000  -7.113694e+001  1.775013e+002 
3500000000  -6.627557e+001  -1.389320e+002 
3503125000  -6.547134e+001  -1.360966e+002 
3506250000  -6.224434e+001  -1.619284e+002 
3509375000  -6.596455e+001  1.607538e+002 
3512500000  -6.673780e+001  1.636753e+002 
3515625000  -7.676439e+001  -1.781159e+002 
3518750000  -6.676080e+001  1.726683e+002 
3521875000  -7.023641e+001  1.188814e+002 
3525000000  -7.035275e+001  9.887433e+001 
3528125000  -6.826099e+001  1.113644e+002 
3531250000  -6.669901e+001  1.200572e+002 
3534375000  -6.788684e+001  1.081117e+002 
3537500000  -6.552731e+001  7.456793e+001 
3540625000  -7.678592e+001  9.371126e+000 
3543750000  -7.067166e+001  5.286261e+001 
3546875000  -7.497955e+001  5.628090e+001 
3550000000  -7.864520e+001  1.598783e+002 
3553125000  -7.450511e+001  -2.076656e+001 
3556250000  -7.066737e+001  8.944456e+001 
3559375000  -6.662600e+001  5.397852e+001 
3562500000  -6.911574e+001  2.184619e+001 
3565625000  -7.175379e+001  -1.469773e+001 
3568750000  -7.576875e+001  2.265374e+001 
3571875000  -7.423428e+001  7.926382e+001 
3575000000  -7.415370e+001  1.011992e+000 
3578125000  -6.877734e+001  4.917167e+001 
3581250000  -7.741486e+001  -1.408541e+002 
3584375000  -6.985433e+001  5.390486e+001 
3587500000  -7.069205e+001  -1.993352e+001 
3590625000  -6.629137e+001  7.230834e+000 
3593750000  -7.242108e+001  3.574465e+000 
3596875000  -6.457774e+001  1.383371e+001 
3600000000  -6.421106e+001  1.136439e+001 
3603125000  -6.462804e+001  2.805072e+000 
3606250000  -6.744065e+001  -6.337561e+001 
3609375000  -6.543549e+001  -3.354066e+001 
3612500000  -6.690937e+001  -7.115552e+001 
3615625000  -7.561482e+001  -3.845934e+001 
3618750000  -6.198238e+001  -7.968819e+001 
3621875000  -6.238470e+001  -8.245805e+001 
3625000000  -6.884815e+001  -7.262776e+001 
3628125000  -6.401590e+001  -1.051963e+002 
3631250000  -6.387267e+001  -9.901209e+001 
3634375000  -6.267141e+001  -1.363835e+002 
3637500000  -6.414333e+001  -1.179232e+002 
3640625000  -6.025464e+001  -1.423786e+002 
3643750000  -6.436174e+001  -1.437515e+002 
3646875000  -6.017322e+001  1.734567e+002 
3650000000  -6.284127e+001  1.724215e+002 
3653125000  -6.245348e+001  -1.723664e+002 
3656250000  -6.453168e+001  -1.774975e+002 
3659375000  -6.116428e+001  1.585702e+002 
3662500000  -6.734480e+001  1.558798e+002 
3665625000  -6.616715e+001  1.515838e+002 
3668750000  -6.346107e+001  1.213435e+002 
3671875000  -6.370104e+001  1.101863e+002 
3675000000  -6.376234e+001  1.027466e+002 
3678125000  -6.259206e+001  1.102206e+002 
3681250000  -6.373522e+001  7.722147e+001 
3684375000  -6.917157e+001  7.954674e+001 
3687500000  -6.682206e+001  4.759947e+001 
3690625000  -6.839231e+001  6.522884e+001 
3693750000  -7.081792e+001  9.626411e+001 
3696875000  -6.622548e+001  6.201840e+001 
3700000000  -6.330926e+001  9.063689e+001 
3703125000  -6.431593e+001  5.813758e+001 
3706250000  -6.729455e+001  7.427323e+001 
3709375000  -6.758747e+001  6.026264e+001 
3712500000  -6.483423e+001  4.980140e+001 
3715625000  -6.190903e+001  4.969710e+001 
3718750000  -6.381899e+001  2.657226e+001 
3721875000  -6.120132e+001  1.066372e+001 
3725000000  -6.077837e+001  1.644388e+001 
3728125000  -6.008189e+001  -5.600735e+000 
3731250000  -5.898660e+001  -1.747166e+001 
3734375000  -5.680785e+001  -2.812218e+001 
3737500000  -5.887568e+001  -4.088744e+001 
3740625000  -5.762013e+001  -4.215146e+001 
3743750000  -5.973490e+001  -6.946128e+001 
3746875000  -5.873778e+001  -6.243252e+001 
3750000000  -5.877349e+001  -8.499121e+001 
3753125000  -5.829915e+001  -8.490421e+001 
3756250000  -5.714886e+001  -9.356599e+001 
3759375000  -5.823800e+001  -1.093425e+002 
3762500000  -5.742627e+001  -1.242920e+002 
3765625000  -5.970518e+001  -1.256629e+002 
3768750000  -5.707484e+001  -1.416604e+002 
3771875000  -5.715983e+001  -1.453394e+002 
3775000000  -5.623814e+001  -1.634321e+002 
3778125000  -5.659191e+001  1.774476e+002 
3781250000  -5.752739e+001  -1.749343e+002 
3784375000  -5.748590e+001  1.637598e+002 
3787500000  -5.596350e+001  1.565897e+002 
3790625000  -5.764184e+001  1.379535e+002 
3793750000  -5.716914e+001  1.224556e+002 
3796875000  -5.577193e+001  1.171458e+002 
3800000000  -5.286758e+001  7.575078e+001 
3803125000  -5.735393e+001  1.016688e+002 
3806250000  -6.101365e+001  8.307837e+001 
3809375000  -5.920804e+001  8.048907e+001 
3812500000  -5.548398e+001  6.012651e+001 
3815625000  -6.161851e+001  3.471918e+001 
3818750000  -6.206171e+001  2.726858e+001 
3821875000  -6.318151e+001  6.932716e+001 
3825000000  -5.980282e+001  4.583089e+001 
3828125000  -5.856608e+001  2.382883e+001 
3831250000  -6.031190e+001  6.165831e+000 
3834375000  -6.205858e+001  1.142255e+001 
3837500000  -6.595799e+001  -1.030712e+001 
3840625000  -6.024801e+001  5.409129e+000 
3843750000  -5.821363e+001  -1.368746e+001 
3846875000  -6.147131e+001  -2.942158e+001 
3850000000  -6.492542e+001  -3.510353e+001 
3853125000  -6.478963e+001  -6.954487e+000 
3856250000  -6.100154e+001  4.857542e+000 
3859375000  -5.841322e+001  -4.089358e+001 
3862500000  -5.877730e+001  -4.182203e+001 
3865625000  -5.782546e+001  -5.073487e+001 
3868750000  -6.019973e+001  -2.142320e+001 
3871875000  -5.634297e+001  -6.564885e+001 
3875000000  -5.863885e+001  -9.263982e+001 
3878125000  -5.725921e+001  -7.332556e+001 
3881250000  -5.761892e+001  -9.607799e+001 
3884375000  -5.552399e+001  -9.128458e+001 
3887500000  -5.571125e+001  -1.176920e+002 
3890625000  -5.641200e+001  -1.179077e+002 
3893750000  -5.649839e+001  -1.352233e+002 
3896875000  -5.765134e+001  -1.291506e+002 
3900000000  -5.738901e+001  -1.618729e+002 
3903125000  -5.567116e+001  -1.608497e+002 
3906250000  -5.425385e+001  -1.699998e+002 
3909375000  -5.578086e+001  1.789426e+002 
3912500000  -5.511878e+001  1.567647e+002 
3915625000  -5.623529e+001  1.510875e+002 
3918750000  -5.627728e+001  1.540222e+002 
3921875000  -5.406734e+001  1.397547e+002 
3925000000  -5.450467e+001  1.276274e+002 
3928125000  -5.344651e+001  1.090023e+002 
3931250000  -5.395190e+001  9.400596e+001 
3934375000  -5.560503e+001  9.067912e+001 
3937500000  -5.470794e+001  8.233286e+001 
3940625000  -5.409240e+001  6.757014e+001 
3943750000  -5.275415e+001  5.940924e+001 
3946875000  -5.385111e+001  4.813050e+001 
3950000000  -5.351354e+001  3.767405e+001 
3953125000  -5.537518e+001  3.331145e+001 
3956250000  -5.339630e+001  2.462343e+001 
3959375000  -5.193318e+001  1.547182e+001 
3962500000  -5.364066e+001  -8.976702e+000 
3965625000  -5.459419e+001  -1.287402e+001 
3968750000  -5.329947e+001  -3.052464e+001 
3971875000  -5.389470e+001  -4.488909e+001 
3975000000  -5.242112e+001  -6.197749e+001 
3978125000  -5.457388e+001  -5.635496e+001 
3981250000  -5.525724e+001  -8.304893e+001 
3984375000  -5.464117e+001  -1.034934e+002 
3987500000  -5.505336e+001  -9.499064e+001 
3990625000  -5.638701e+001  -1.083416e+002 
3993750000  -5.612159e+001  -1.241642e+002 
3996875000  -5.934736e+001  -1.258525e+002 
4000000000  -5.925112e+001  -1.285439e+002 
4003125000  -5.993620e+001  -1.308262e+002 
4006250000  -5.807098e+001  -1.539411e+002 
4009375000  -5.731388e+001  -1.576600e+002 
4012500000  -6.082809e+001  -1.662739e+002 
4015625000  -5.986844e+001  -1.681717e+002 
4018750000  -6.182122e+001  -1.505675e+002 
4021875000  -5.953626e+001  -1.707946e+002 
4025000000  -5.986481e+001  -1.776163e+002 
4028125000  -5.983331e+001  1.677650e+002 
4031250000  -5.902850e+001  1.603021e+002 
4034375000  -5.986230e+001  1.521982e+002 
4037500000  -5.812745e+001  1.523884e+002 
4040625000  -5.922502e+001  1.433769e+002 
4043750000  -5.982013e+001  1.408924e+002 
4046875000  -5.880020e+001  1.342064e+002 
4050000000  -5.591902e+001  1.238420e+002 
4053125000  -5.795866e+001  1.266312e+002 
4056250000  -6.087658e+001  1.218384e+002 
4059375000  -5.563239e+001  1.163589e+002 
4062500000  -5.559542e+001  1.068497e+002 
4065625000  -5.444773e+001  8.454124e+001 
4068750000  -5.355519e+001  7.607030e+001 
4071875000  -5.284404e+001  5.679300e+001 
4075000000  -5.376168e+001  4.054243e+001 
4078125000  -5.350583e+001  4.145619e+001 
4081250000  -5.212481e+001  2.048628e+001 
4084375000  -5.188099e+001  1.262116e+001 
4087500000  -5.281823e+001  -1.465671e+001 
4090625000  -5.323219e+001  -1.296652e+001 
4093750000  -5.344453e+001  -2.099664e+001 
4096875000  -5.320848e+001  -3.330870e+001 
4100000000  -5.312448e+001  -4.833007e+001 
4103125000  -5.583317e+001  -4.066072e+001 
4106250000  -5.371836e+001  -5.584923e+001 
4109375000  -5.309370e+001  -6.319820e+001 
4112500000  -5.193178e+001  -9.025072e+001 
4115625000  -5.329952e+001  -9.324767e+001 
4118750000  -5.293979e+001  -1.069571e+002 
4121875000  -5.347574e+001  -1.196842e+002 
4125000000  -5.351605e+001  -1.283004e+002 
4128125000  -5.494987e+001  -1.296674e+002 
4131250000  -5.267641e+001  -1.409127e+002 
4134375000  -5.110503e+001  -1.502312e+002 
4137500000  -5.172543e+001  -1.727586e+002 
4140625000  -5.429753e+001  1.767511e+002 
4143750000  -5.524635e+001  1.762363e+002 
4146875000  -5.423654e+001  1.667606e+002 
4150000000  -5.441452e+001  1.597076e+002 
4153125000  -5.328329e+001  1.395913e+002 
4156250000  -5.509201e+001  1.197020e+002 
4159375000  -5.535255e+001  1.268139e+002 
4162500000  -5.581361e+001  1.190846e+002 
4165625000  -5.340122e+001  1.189115e+002 
4168750000  -5.528918e+001  9.482780e+001 
4171875000  -5.468547e+001  7.553479e+001 
4175000000  -5.511719e+001  5.449101e+001 
4178125000  -5.756103e+001  5.170763e+001 
4181250000  -5.710842e+001  4.817356e+001 
4184375000  -5.982330e+001  3.314819e+001 
4187500000  -5.778984e+001  2.663143e+001 
4190625000  -6.084381e+001  3.051065e+001 
4193750000  -6.192045e+001  2.888437e+001 
4196875000  -6.400857e+001  -4.403487e-001 
4200000000  -6.496198e+001  -3.819647e+000 
4203125000  -6.679858e+001  1.149135e+001 
4206250000  -5.852032e+001  2.431463e+001 
4209375000  -6.108198e+001  -1.522001e+001 
4212500000  -5.912101e+001  -6.422613e+000 
4215625000  -6.568703e+001  -3.701271e+001 
4218750000  -6.144531e+001  2.407608e+001 
4221875000  -6.200066e+001  -2.388286e+001 
4225000000  -6.201483e+001  -4.652876e+001 
4228125000  -5.830025e+001  -4.283382e+001 
4231250000  -5.895070e+001  -2.212144e+001 
4234375000  -5.615683e+001  -5.598535e+001 
4237500000  -5.839480e+001  -6.370915e+001 
4240625000  -5.439377e+001  -6.041356e+001 
4243750000  -5.691360e+001  -7.007500e+001 
4246875000  -5.691306e+001  -7.075150e+001 
4250000000  -5.800732e+001  -9.437637e+001 
4253125000  -5.619385e+001  -9.011751e+001 
4256250000  -5.650349e+001  -1.149839e+002 
4259375000  -5.306940e+001  -1.139433e+002 
4262500000  -5.605307e+001  -1.214118e+002 
4265625000  -5.400220e+001  -1.264555e+002 
4268750000  -5.183830e+001  -1.444397e+002 
4271875000  -5.299218e+001  -1.577890e+002 
4275000000  -5.227074e+001  1.768025e+002 
4278125000  -5.355288e+001  1.665546e+002 
4281250000  -5.301361e+001  1.558560e+002 
4284375000  -5.248447e+001  1.567986e+002 
4287500000  -5.561205e+001  1.501063e+002 
4290625000  -5.511617e+001  1.442587e+002 
4293750000  -5.289078e+001  1.457372e+002 
4296875000  -5.155236e+001  1.184763e+002 
4300000000  -5.227504e+001  1.100894e+002 
4303125000  -5.309253e+001  9.988062e+001 
4306250000  -5.272378e+001  9.870988e+001 
4309375000  -5.140685e+001  7.493148e+001 
4312500000  -5.199728e+001  6.705250e+001 
4315625000  -5.141410e+001  4.741790e+001 
4318750000  -5.321144e+001  4.340006e+001 
4321875000  -5.338273e+001  3.123172e+001 
4325000000  -5.391032e+001  2.218813e+001 
4328125000  -5.142062e+001  2.274960e+000 
4331250000  -5.288627e+001  -1.767901e+001 
4334375000  -5.396982e+001  -2.165113e+001 
4337500000  -5.642375e+001  -3.278363e+001 
4340625000  -5.576758e+001  -2.056665e+001 
4343750000  -5.489250e+001  -4.240384e+001 
4346875000  -5.710246e+001  -5.122507e+001 
4350000000  -5.508816e+001  -6.957735e+001 
4353125000  -5.596395e+001  -7.544012e+001 
4356250000  -5.745108e+001  -6.573831e+001 
4359375000  -5.760337e+001  -4.990380e+001 
4362500000  -5.326178e+001  -7.352072e+001 
4365625000  -5.372879e+001  -1.061083e+002 
4368750000  -5.631736e+001  -1.245504e+002 
4371875000  -5.638816e+001  -1.050772e+002 
4375000000  -5.879335e+001  -1.288341e+002 
4378125000  -5.503048e+001  -1.210413e+002 
4381250000  -5.793926e+001  -1.228927e+002 
4384375000  -5.640845e+001  -1.469300e+002 
4387500000  -5.803740e+001  -1.416066e+002 
4390625000  -5.633121e+001  -1.569441e+002 
4393750000  -5.663299e+001  -1.481892e+002 
4396875000  -5.611068e+001  -1.696463e+002 
4400000000  -5.508282e+001  -1.736252e+002 
4403125000  -5.487550e+001  1.775836e+002 
4406250000  -5.844725e+001  1.616689e+002 
4409375000  -5.602244e+001  1.633926e+002 
4412500000  -5.693367e+001  1.580404e+002 
4415625000  -5.520023e+001  1.594658e+002 
4418750000  -5.426217e+001  1.599099e+002 
