!Agilent Technologies,E8363B,MY43030201,A.06.04.32
!Agilent E8363B: A.06.04.32
!Date: Tuesday, November 11, 2014 22:15:35
!Correction: S21(Response(S21)) 
!S1P File: Measurement: S21:
# Hz S  dB   R 50
3000000000  -4.891754e+001  -7.294558e+001 
3003125000  -5.165144e+001  -7.757579e+001 
3006250000  -5.186189e+001  -8.578868e+001 
3009375000  -5.209704e+001  -8.411381e+001 
3012500000  -5.160158e+001  -9.574973e+001 
3015625000  -5.117871e+001  -1.065162e+002 
3018750000  -5.183966e+001  -1.130311e+002 
3021875000  -5.019965e+001  -1.147409e+002 
3025000000  -4.876217e+001  -1.287735e+002 
3028125000  -4.829560e+001  -1.439366e+002 
3031250000  -4.692009e+001  -1.597854e+002 
3034375000  -4.693258e+001  -1.797324e+002 
3037500000  -4.794022e+001  1.688344e+002 
3040625000  -4.936623e+001  1.534900e+002 
3043750000  -4.921569e+001  1.437957e+002 
3046875000  -5.028772e+001  1.354881e+002 
3050000000  -5.105401e+001  1.261445e+002 
3053125000  -5.091313e+001  1.221156e+002 
3056250000  -5.173517e+001  1.227978e+002 
3059375000  -5.035666e+001  1.142627e+002 
3062500000  -4.929265e+001  1.033099e+002 
3065625000  -4.922668e+001  8.694158e+001 
3068750000  -4.890462e+001  7.884850e+001 
3071875000  -4.925120e+001  7.038232e+001 
3075000000  -4.865264e+001  5.526722e+001 
3078125000  -4.862735e+001  4.513156e+001 
3081250000  -4.837708e+001  3.385463e+001 
3084375000  -4.826992e+001  2.675280e+001 
3087500000  -4.847027e+001  1.369661e+001 
3090625000  -4.801820e+001  -4.347790e+000 
3093750000  -4.924021e+001  -1.276552e+001 
3096875000  -4.927821e+001  -2.120028e+001 
3100000000  -4.955377e+001  -3.154919e+001 
3103125000  -4.978196e+001  -4.075141e+001 
3106250000  -4.916055e+001  -5.154394e+001 
3109375000  -4.923981e+001  -5.901794e+001 
3112500000  -4.942509e+001  -6.863388e+001 
3115625000  -4.902661e+001  -7.825478e+001 
3118750000  -4.987587e+001  -8.233557e+001 
3121875000  -4.908937e+001  -9.901014e+001 
3125000000  -5.051217e+001  -1.070476e+002 
3128125000  -5.068551e+001  -1.074780e+002 
3131250000  -4.856964e+001  -1.157039e+002 
3134375000  -4.737309e+001  -1.393872e+002 
3137500000  -4.875546e+001  -1.553381e+002 
3140625000  -4.999298e+001  -1.609085e+002 
3143750000  -5.017992e+001  -1.690419e+002 
3146875000  -4.944740e+001  -1.705927e+002 
3150000000  -4.910436e+001  1.798203e+002 
3153125000  -4.926576e+001  1.672300e+002 
3156250000  -5.007273e+001  1.688074e+002 
3159375000  -4.768260e+001  1.614539e+002 
3162500000  -4.688933e+001  1.353986e+002 
3165625000  -4.732549e+001  1.215477e+002 
3168750000  -4.794128e+001  1.149556e+002 
3171875000  -4.697737e+001  1.036956e+002 
3175000000  -4.800732e+001  8.963937e+001 
3178125000  -4.765876e+001  8.306248e+001 
3181250000  -4.657335e+001  6.943694e+001 
3184375000  -4.633140e+001  5.212430e+001 
3187500000  -4.750164e+001  3.502330e+001 
3190625000  -4.955012e+001  2.512178e+001 
3193750000  -4.988486e+001  2.018468e+001 
3196875000  -4.953183e+001  2.009481e+001 
3200000000  -4.858303e+001  1.059251e+001 
3203125000  -4.829609e+001  -2.688159e+000 
3206250000  -4.853873e+001  -1.567511e+001 
3209375000  -4.761273e+001  -3.065144e+001 
3212500000  -4.879379e+001  -3.840002e+001 
3215625000  -4.791486e+001  -4.542267e+001 
3218750000  -4.936238e+001  -6.600565e+001 
3221875000  -4.933379e+001  -7.596791e+001 
3225000000  -4.912540e+001  -8.344793e+001 
3228125000  -4.998029e+001  -9.321912e+001 
3231250000  -5.141999e+001  -1.046458e+002 
3234375000  -5.000243e+001  -1.079062e+002 
3237500000  -5.047729e+001  -1.157130e+002 
3240625000  -4.980318e+001  -1.292156e+002 
3243750000  -4.974148e+001  -1.418599e+002 
3246875000  -5.058089e+001  -1.536746e+002 
3250000000  -5.101194e+001  -1.599499e+002 
3253125000  -5.119579e+001  -1.688698e+002 
3256250000  -5.036748e+001  1.746029e+002 
3259375000  -5.086750e+001  1.624779e+002 
3262500000  -5.264268e+001  1.550793e+002 
3265625000  -5.345603e+001  1.417394e+002 
3268750000  -5.339951e+001  1.404616e+002 
3271875000  -5.310862e+001  1.366280e+002 
3275000000  -5.224063e+001  1.215545e+002 
3278125000  -5.287901e+001  1.114826e+002 
3281250000  -5.298576e+001  1.085036e+002 
3284375000  -5.234215e+001  9.509480e+001 
3287500000  -5.501871e+001  8.498663e+001 
3290625000  -5.307029e+001  7.213670e+001 
3293750000  -5.259603e+001  6.425291e+001 
3296875000  -5.382185e+001  5.627914e+001 
3300000000  -5.405627e+001  4.715055e+001 
3303125000  -5.301874e+001  3.950955e+001 
3306250000  -5.405923e+001  2.280305e+001 
3309375000  -5.283702e+001  1.371015e+001 
3312500000  -5.268319e+001  1.703885e+000 
3315625000  -5.370064e+001  -1.133803e+001 
3318750000  -5.544253e+001  -1.970355e+001 
3321875000  -5.932010e+001  -1.127456e+001 
3325000000  -5.560387e+001  -2.799917e+001 
3328125000  -5.665564e+001  -2.185377e+001 
3331250000  -5.349483e+001  -2.675335e+001 
3334375000  -5.286665e+001  -4.605553e+001 
3337500000  -5.280086e+001  -6.916525e+001 
3340625000  -5.388374e+001  -8.591337e+001 
3343750000  -5.514377e+001  -8.520207e+001 
3346875000  -5.510839e+001  -8.751005e+001 
3350000000  -5.438392e+001  -9.442158e+001 
3353125000  -5.452307e+001  -1.182449e+002 
3356250000  -5.497965e+001  -1.313505e+002 
3359375000  -5.498125e+001  -1.431855e+002 
3362500000  -5.603506e+001  -1.475568e+002 
3365625000  -5.622009e+001  -1.574687e+002 
3368750000  -5.639592e+001  -1.758783e+002 
3371875000  -5.685954e+001  1.727156e+002 
3375000000  -5.835836e+001  1.652256e+002 
3378125000  -5.983140e+001  -1.798988e+002 
3381250000  -6.295150e+001  1.569861e+002 
3384375000  -5.864719e+001  -1.698250e+002 
3387500000  -5.457583e+001  1.555244e+002 
3390625000  -5.623936e+001  1.432276e+002 
3393750000  -5.651102e+001  1.227162e+002 
3396875000  -5.685862e+001  1.139215e+002 
3400000000  -5.541704e+001  9.439079e+001 
3403125000  -5.703932e+001  9.116497e+001 
3406250000  -5.684246e+001  7.793879e+001 
3409375000  -5.706651e+001  6.272427e+001 
3412500000  -5.859166e+001  5.648535e+001 
3415625000  -5.963757e+001  4.692492e+001 
3418750000  -5.916485e+001  3.414624e+001 
3421875000  -6.005575e+001  2.302017e+001 
3425000000  -6.084667e+001  2.681709e+001 
3428125000  -5.889994e+001  1.448857e+001 
3431250000  -6.120255e+001  -8.241228e+000 
3434375000  -6.003320e+001  -1.926781e+001 
3437500000  -6.126559e+001  -2.828525e+001 
3440625000  -6.263113e+001  -2.461691e+001 
3443750000  -6.245055e+001  -2.922257e+001 
3446875000  -5.973295e+001  -6.127621e+001 
3450000000  -6.325498e+001  -6.855580e+001 
3453125000  -6.309210e+001  -8.336725e+001 
3456250000  -6.564101e+001  -1.055653e+002 
3459375000  -6.728689e+001  -7.161829e+001 
3462500000  -6.787435e+001  -7.522904e+001 
3465625000  -6.959982e+001  -1.106753e+002 
3468750000  -6.818903e+001  -1.092406e+002 
3471875000  -6.619453e+001  -8.731512e+001 
3475000000  -6.389903e+001  -1.247937e+002 
3478125000  -7.087151e+001  -1.454639e+002 
3481250000  -7.616778e+001  -1.174435e+002 
3484375000  -6.585571e+001  -1.297693e+002 
3487500000  -6.844151e+001  -1.315113e+002 
3490625000  -7.081950e+001  -1.493476e+002 
3493750000  -7.149332e+001  -1.380483e+002 
3496875000  -6.841335e+001  -1.588047e+002 
3500000000  -6.576268e+001  -1.757373e+002 
3503125000  -6.555439e+001  -1.418959e+002 
3506250000  -6.759241e+001  -1.741837e+002 
3509375000  -6.291775e+001  1.701497e+002 
3512500000  -6.390521e+001  1.716398e+002 
3515625000  -6.725410e+001  1.708143e+002 
3518750000  -6.928534e+001  1.410829e+002 
3521875000  -6.798337e+001  1.158447e+002 
3525000000  -6.836812e+001  1.498866e+002 
3528125000  -7.382473e+001  1.352305e+002 
3531250000  -6.889161e+001  1.368561e+002 
3534375000  -6.604247e+001  1.168782e+002 
3537500000  -6.808748e+001  1.012829e+002 
3540625000  -7.067886e+001  7.791632e+001 
3543750000  -7.316441e+001  9.350218e+001 
3546875000  -6.962114e+001  5.489349e+001 
3550000000  -7.571360e+001  1.536339e+002 
3553125000  -6.726579e+001  5.737220e+001 
3556250000  -7.111906e+001  -2.889217e+001 
3559375000  -6.916819e+001  2.709562e+001 
3562500000  -7.711933e+001  6.822639e+001 
3565625000  -7.163670e+001  1.933977e+001 
3568750000  -7.332001e+001  1.458187e+002 
3571875000  -7.273533e+001  3.372779e+001 
3575000000  -7.220010e+001  3.653542e+001 
3578125000  -6.600078e+001  3.438631e+001 
3581250000  -8.232116e+001  -1.184933e+001 
3584375000  -7.074935e+001  2.021488e+001 
3587500000  -7.161705e+001  5.058691e+001 
3590625000  -6.456199e+001  -7.788536e+000 
3593750000  -6.836053e+001  -2.483411e+001 
3596875000  -6.499984e+001  5.423324e+001 
3600000000  -6.789475e+001  -4.596486e+000 
3603125000  -6.572072e+001  -1.879292e+001 
3606250000  -6.183186e+001  -5.156560e+001 
3609375000  -6.702476e+001  -5.065140e+001 
3612500000  -6.515160e+001  -5.411031e+001 
3615625000  -6.869244e+001  -4.864372e+001 
3618750000  -6.271500e+001  -6.441853e+001 
3621875000  -6.157621e+001  -7.368382e+001 
3625000000  -6.348417e+001  -7.311160e+001 
3628125000  -6.554897e+001  -9.784467e+001 
3631250000  -6.203036e+001  -1.070820e+002 
3634375000  -6.651818e+001  -1.098362e+002 
3637500000  -6.358744e+001  -1.055687e+002 
3640625000  -6.154226e+001  -1.318320e+002 
3643750000  -6.240310e+001  -1.367165e+002 
3646875000  -6.221502e+001  -1.681283e+002 
3650000000  -6.445367e+001  -1.751628e+002 
3653125000  -6.595244e+001  1.748095e+002 
3656250000  -6.946735e+001  1.292959e+002 
3659375000  -6.302701e+001  1.596758e+002 
3662500000  -6.224546e+001  1.455145e+002 
3665625000  -6.406882e+001  1.647026e+002 
3668750000  -6.245689e+001  1.309469e+002 
3671875000  -6.395958e+001  1.230201e+002 
3675000000  -6.422897e+001  1.057705e+002 
3678125000  -6.582808e+001  9.709059e+001 
3681250000  -6.249704e+001  1.080488e+002 
3684375000  -6.590472e+001  8.923628e+001 
3687500000  -6.887939e+001  1.247109e+002 
3690625000  -7.353566e+001  1.425025e+002 
3693750000  -6.158717e+001  7.870975e+001 
3696875000  -6.531142e+001  6.319756e+001 
3700000000  -6.381046e+001  7.929983e+001 
3703125000  -6.497090e+001  6.012127e+001 
3706250000  -6.498546e+001  7.386724e+001 
3709375000  -6.585361e+001  4.513041e+001 
3712500000  -6.526196e+001  6.330331e+001 
3715625000  -6.517526e+001  4.247884e+001 
3718750000  -5.987543e+001  3.952330e+001 
3721875000  -5.981356e+001  1.838046e+001 
3725000000  -6.351067e+001  2.617719e+001 
3728125000  -5.814550e+001  1.494734e+000 
3731250000  -5.964426e+001  -9.394103e+000 
3734375000  -5.843172e+001  -1.320157e+001 
3737500000  -5.978436e+001  -4.220057e+001 
3740625000  -5.773914e+001  -2.490815e+001 
3743750000  -5.933674e+001  -4.886178e+001 
3746875000  -5.812537e+001  -5.147823e+001 
3750000000  -5.890237e+001  -8.486737e+001 
3753125000  -5.922458e+001  -6.876035e+001 
3756250000  -5.712915e+001  -1.011379e+002 
3759375000  -5.825806e+001  -1.108139e+002 
3762500000  -5.776455e+001  -1.147687e+002 
3765625000  -5.913152e+001  -1.206326e+002 
3768750000  -5.667402e+001  -1.349233e+002 
3771875000  -5.692187e+001  -1.465951e+002 
3775000000  -5.562442e+001  -1.625523e+002 
3778125000  -5.649799e+001  -1.761120e+002 
3781250000  -5.754969e+001  -1.713647e+002 
3784375000  -5.672471e+001  1.733329e+002 
3787500000  -5.697026e+001  1.443059e+002 
3790625000  -5.670087e+001  1.353934e+002 
3793750000  -5.955526e+001  1.344388e+002 
3796875000  -5.598450e+001  1.288277e+002 
3800000000  -5.322283e+001  8.002110e+001 
3803125000  -5.897944e+001  1.085030e+002 
3806250000  -5.721643e+001  8.559492e+001 
3809375000  -5.906819e+001  8.684657e+001 
3812500000  -5.807736e+001  6.880280e+001 
3815625000  -6.124655e+001  4.998656e+001 
3818750000  -5.993953e+001  2.133401e+001 
3821875000  -6.075704e+001  7.151382e+001 
3825000000  -5.810308e+001  4.983612e+001 
3828125000  -5.813525e+001  3.582897e+001 
3831250000  -5.787498e+001  1.047269e+000 
3834375000  -6.059978e+001  -2.078609e+001 
3837500000  -6.115107e+001  2.730013e+001 
3840625000  -6.228149e+001  3.796606e+000 
3843750000  -6.223840e+001  -1.493567e+001 
3846875000  -6.097847e+001  -2.339570e+001 
3850000000  -6.867110e+001  -2.799875e+001 
3853125000  -6.372987e+001  -1.562841e+001 
3856250000  -6.005051e+001  -1.314190e+001 
3859375000  -6.344373e+001  -2.727199e+001 
3862500000  -6.030900e+001  -3.028127e+001 
3865625000  -6.179167e+001  -6.911295e+001 
3868750000  -6.172447e+001  -4.592768e+001 
3871875000  -5.629979e+001  -6.703497e+001 
3875000000  -6.016782e+001  -5.969693e+001 
3878125000  -5.595419e+001  -7.677533e+001 
3881250000  -5.850381e+001  -8.653267e+001 
3884375000  -5.718530e+001  -8.984391e+001 
3887500000  -5.545013e+001  -1.134182e+002 
3890625000  -5.586049e+001  -1.135757e+002 
3893750000  -5.882011e+001  -1.309798e+002 
3896875000  -5.679859e+001  -1.285184e+002 
3900000000  -5.666425e+001  -1.452071e+002 
3903125000  -5.497515e+001  -1.535371e+002 
3906250000  -5.456026e+001  -1.572265e+002 
3909375000  -5.430672e+001  1.794629e+002 
3912500000  -5.415203e+001  1.726645e+002 
3915625000  -5.716167e+001  1.566315e+002 
3918750000  -5.534121e+001  1.488969e+002 
3921875000  -5.412510e+001  1.320553e+002 
3925000000  -5.440025e+001  1.278860e+002 
3928125000  -5.366621e+001  1.099548e+002 
3931250000  -5.333916e+001  1.031743e+002 
3934375000  -5.425343e+001  9.404765e+001 
3937500000  -5.550851e+001  9.225711e+001 
3940625000  -5.354851e+001  7.318714e+001 
3943750000  -5.327421e+001  6.132463e+001 
3946875000  -5.301744e+001  5.879296e+001 
3950000000  -5.532476e+001  4.112496e+001 
3953125000  -5.566502e+001  4.158267e+001 
3956250000  -5.575891e+001  2.844630e+001 
3959375000  -5.227428e+001  1.609188e+001 
3962500000  -5.226394e+001  -4.810194e+000 
3965625000  -5.323697e+001  -1.194194e+001 
3968750000  -5.414632e+001  -3.290387e+001 
3971875000  -5.417527e+001  -3.646092e+001 
3975000000  -5.459380e+001  -5.285665e+001 
3978125000  -5.319817e+001  -6.202360e+001 
3981250000  -5.595306e+001  -6.720927e+001 
3984375000  -5.539664e+001  -8.324751e+001 
3987500000  -5.541639e+001  -9.008998e+001 
3990625000  -5.848242e+001  -1.035958e+002 
3993750000  -5.699733e+001  -1.225129e+002 
3996875000  -5.961473e+001  -1.263034e+002 
4000000000  -5.934775e+001  -1.309909e+002 
4003125000  -6.020272e+001  -1.101058e+002 
4006250000  -5.967031e+001  -1.371321e+002 
4009375000  -5.723125e+001  -1.605901e+002 
4012500000  -5.740230e+001  -1.571883e+002 
4015625000  -6.382704e+001  -1.583713e+002 
4018750000  -6.070816e+001  -1.498574e+002 
4021875000  -5.921519e+001  -1.720651e+002 
4025000000  -5.887132e+001  -1.793948e+002 
4028125000  -5.931898e+001  -1.786650e+002 
4031250000  -6.132906e+001  1.734307e+002 
4034375000  -5.940061e+001  1.623721e+002 
4037500000  -5.922924e+001  1.695249e+002 
4040625000  -5.974305e+001  1.586220e+002 
4043750000  -5.821434e+001  1.541985e+002 
4046875000  -5.820360e+001  1.412283e+002 
4050000000  -5.789408e+001  1.202303e+002 
4053125000  -5.868358e+001  1.138866e+002 
4056250000  -5.834087e+001  1.229809e+002 
4059375000  -5.555754e+001  1.131153e+002 
4062500000  -5.484288e+001  1.013484e+002 
4065625000  -5.404649e+001  8.369701e+001 
4068750000  -5.422771e+001  7.993970e+001 
4071875000  -5.267277e+001  6.175581e+001 
4075000000  -5.320852e+001  4.926683e+001 
4078125000  -5.409258e+001  3.709061e+001 
4081250000  -5.256138e+001  3.333793e+001 
4084375000  -5.184332e+001  1.506759e+001 
4087500000  -5.497930e+001  5.416783e-001 
4090625000  -5.375908e+001  -4.546645e+000 
4093750000  -5.387717e+001  -1.348622e+001 
4096875000  -5.234716e+001  -2.701789e+001 
4100000000  -5.395046e+001  -4.852300e+001 
4103125000  -5.507767e+001  -4.878788e+001 
4106250000  -5.495694e+001  -4.780503e+001 
4109375000  -5.316980e+001  -5.807143e+001 
4112500000  -5.253822e+001  -8.431265e+001 
4115625000  -5.333384e+001  -9.596495e+001 
4118750000  -5.256231e+001  -9.102835e+001 
4121875000  -5.266202e+001  -1.219042e+002 
4125000000  -5.383314e+001  -1.170323e+002 
4128125000  -5.512537e+001  -1.307781e+002 
4131250000  -5.515076e+001  -1.315063e+002 
4134375000  -5.201285e+001  -1.492557e+002 
4137500000  -5.234993e+001  -1.659827e+002 
4140625000  -5.512901e+001  1.723400e+002 
4143750000  -5.588688e+001  -1.724414e+002 
4146875000  -5.504010e+001  1.708163e+002 
4150000000  -5.657740e+001  1.510215e+002 
4153125000  -5.450187e+001  1.489173e+002 
4156250000  -5.629916e+001  1.314529e+002 
4159375000  -5.565197e+001  1.309762e+002 
4162500000  -5.529372e+001  1.275044e+002 
4165625000  -5.445010e+001  1.175352e+002 
4168750000  -5.652698e+001  8.221597e+001 
4171875000  -5.398186e+001  7.830761e+001 
4175000000  -5.465718e+001  5.237735e+001 
4178125000  -5.834639e+001  6.484216e+001 
4181250000  -5.668748e+001  5.400334e+001 
4184375000  -5.998578e+001  5.649910e+001 
4187500000  -5.787141e+001  4.158650e+001 
4190625000  -6.188241e+001  2.045972e+001 
4193750000  -6.198130e+001  1.347873e+001 
4196875000  -6.203488e+001  1.324924e+001 
4200000000  -6.427589e+001  2.060892e+001 
4203125000  -6.853125e+001  4.223966e+001 
4206250000  -5.895024e+001  2.296755e+001 
4209375000  -5.968399e+001  -1.518037e+000 
4212500000  -6.187381e+001  -2.207368e+000 
4215625000  -6.480792e+001  -2.061458e+001 
4218750000  -5.742458e+001  1.424499e+001 
4221875000  -5.997755e+001  -1.804376e+001 
4225000000  -5.812396e+001  -2.016337e+001 
4228125000  -5.624270e+001  -3.479505e+001 
4231250000  -5.800118e+001  -2.237660e+001 
4234375000  -5.682350e+001  -4.023754e+001 
4237500000  -5.731463e+001  -4.419645e+001 
4240625000  -5.394032e+001  -7.391872e+001 
4243750000  -5.716884e+001  -7.669190e+001 
4246875000  -5.668750e+001  -7.384055e+001 
4250000000  -5.588104e+001  -8.689485e+001 
4253125000  -5.497754e+001  -7.500109e+001 
4256250000  -5.600421e+001  -9.526780e+001 
4259375000  -5.473465e+001  -1.058845e+002 
4262500000  -5.593551e+001  -1.210082e+002 
4265625000  -5.388304e+001  -1.213052e+002 
4268750000  -5.188021e+001  -1.495106e+002 
4271875000  -5.270348e+001  -1.537934e+002 
4275000000  -5.186287e+001  -1.783276e+002 
4278125000  -5.464763e+001  1.729037e+002 
4281250000  -5.534380e+001  1.638633e+002 
4284375000  -5.463806e+001  1.548395e+002 
4287500000  -5.375781e+001  1.469948e+002 
4290625000  -5.590119e+001  1.425840e+002 
4293750000  -5.416919e+001  1.435231e+002 
4296875000  -5.085542e+001  1.180809e+002 
4300000000  -5.351375e+001  1.015085e+002 
4303125000  -5.352174e+001  1.024024e+002 
4306250000  -5.316513e+001  9.505555e+001 
4309375000  -5.110149e+001  8.867763e+001 
4312500000  -5.178397e+001  6.587737e+001 
4315625000  -5.329748e+001  5.503461e+001 
4318750000  -5.237825e+001  4.643211e+001 
4321875000  -5.240018e+001  3.742015e+001 
4325000000  -5.191220e+001  2.484677e+001 
4328125000  -5.153881e+001  1.287242e+001 
4331250000  -5.437591e+001  -9.318311e+000 
4334375000  -5.436378e+001  -1.103509e+001 
4337500000  -5.622798e+001  -2.754788e+001 
4340625000  -5.472501e+001  -2.261359e+001 
4343750000  -5.531385e+001  -3.015105e+001 
4346875000  -5.658151e+001  -4.950811e+001 
4350000000  -5.593311e+001  -6.090896e+001 
4353125000  -5.809614e+001  -7.669957e+001 
4356250000  -5.721370e+001  -6.598452e+001 
4359375000  -5.614508e+001  -4.536421e+001 
4362500000  -5.899589e+001  -8.003726e+001 
4365625000  -5.394003e+001  -8.341593e+001 
4368750000  -5.540015e+001  -9.121772e+001 
4371875000  -5.701738e+001  -1.086498e+002 
4375000000  -5.536285e+001  -1.103005e+002 
4378125000  -5.526128e+001  -1.082622e+002 
4381250000  -5.620406e+001  -1.259491e+002 
4384375000  -5.753863e+001  -1.331022e+002 
4387500000  -5.691586e+001  -1.423726e+002 
4390625000  -5.694443e+001  -1.491849e+002 
4393750000  -5.662216e+001  -1.445165e+002 
4396875000  -5.490083e+001  -1.617897e+002 
4400000000  -5.533639e+001  -1.705292e+002 
4403125000  -5.600741e+001  1.712992e+002 
4406250000  -5.635177e+001  1.785303e+002 
4409375000  -5.409428e+001  -1.763387e+002 
4412500000  -5.718097e+001  1.623764e+002 
4415625000  -5.504150e+001  1.647622e+002 
