!Agilent Technologies,E8363B,MY43030201,A.06.04.32
!Agilent E8363B: A.06.04.32
!Date: Tuesday, November 11, 2014 22:15:38
!Correction: S21(Response(S21)) 
!S1P File: Measurement: S21:
# Hz S  dB   R 50
3000000000  -4.874041e+001  -7.179965e+001 
3003125000  -5.106953e+001  -7.971643e+001 
3006250000  -5.201574e+001  -8.699822e+001 
3009375000  -5.167034e+001  -8.574160e+001 
3012500000  -5.042070e+001  -9.759886e+001 
3015625000  -5.109192e+001  -1.098803e+002 
3018750000  -5.097682e+001  -1.105730e+002 
3021875000  -4.976889e+001  -1.153903e+002 
3025000000  -4.879296e+001  -1.268416e+002 
3028125000  -4.830649e+001  -1.427518e+002 
3031250000  -4.736564e+001  -1.635466e+002 
3034375000  -4.692741e+001  1.796268e+002 
3037500000  -4.774712e+001  1.656131e+002 
3040625000  -4.951903e+001  1.529636e+002 
3043750000  -4.912816e+001  1.431318e+002 
3046875000  -5.036306e+001  1.338861e+002 
3050000000  -5.148983e+001  1.216924e+002 
3053125000  -5.108994e+001  1.236123e+002 
3056250000  -5.131310e+001  1.199771e+002 
3059375000  -5.033239e+001  1.111812e+002 
3062500000  -4.905916e+001  1.017743e+002 
3065625000  -4.929293e+001  8.627628e+001 
3068750000  -4.903688e+001  7.984460e+001 
3071875000  -4.871754e+001  7.097207e+001 
3075000000  -4.850801e+001  5.873899e+001 
3078125000  -4.844833e+001  4.783527e+001 
3081250000  -4.905488e+001  3.550698e+001 
3084375000  -4.774352e+001  2.521698e+001 
3087500000  -4.834883e+001  1.282903e+001 
3090625000  -4.798534e+001  -4.101331e+000 
3093750000  -4.895090e+001  -1.712586e+001 
3096875000  -4.953998e+001  -2.220037e+001 
3100000000  -4.893866e+001  -2.911930e+001 
3103125000  -4.981482e+001  -3.516600e+001 
3106250000  -4.919336e+001  -5.112393e+001 
3109375000  -4.940760e+001  -5.856488e+001 
3112500000  -4.910831e+001  -6.970930e+001 
3115625000  -4.959499e+001  -7.752891e+001 
3118750000  -4.966469e+001  -8.452441e+001 
3121875000  -4.928648e+001  -9.890906e+001 
3125000000  -5.064236e+001  -1.031201e+002 
3128125000  -5.141142e+001  -1.081395e+002 
3131250000  -4.840913e+001  -1.152578e+002 
3134375000  -4.727364e+001  -1.366290e+002 
3137500000  -4.838809e+001  -1.556160e+002 
3140625000  -4.989403e+001  -1.613114e+002 
3143750000  -5.052424e+001  -1.698535e+002 
3146875000  -5.017414e+001  -1.723304e+002 
3150000000  -4.985118e+001  1.763827e+002 
3153125000  -4.912609e+001  1.696218e+002 
3156250000  -5.082648e+001  1.671549e+002 
3159375000  -4.777537e+001  1.562941e+002 
3162500000  -4.617018e+001  1.373941e+002 
3165625000  -4.790833e+001  1.188955e+002 
3168750000  -4.815347e+001  1.190928e+002 
3171875000  -4.725589e+001  1.056356e+002 
3175000000  -4.848709e+001  8.844482e+001 
3178125000  -4.709296e+001  8.484835e+001 
3181250000  -4.697068e+001  6.774993e+001 
3184375000  -4.619847e+001  5.591227e+001 
3187500000  -4.762542e+001  3.789557e+001 
3190625000  -4.903269e+001  2.406292e+001 
3193750000  -4.970761e+001  2.453455e+001 
3196875000  -4.962238e+001  1.884615e+001 
3200000000  -4.819059e+001  1.100654e+001 
3203125000  -4.848583e+001  -4.275223e+000 
3206250000  -4.847175e+001  -1.517543e+001 
3209375000  -4.782854e+001  -3.157225e+001 
3212500000  -4.817664e+001  -3.772152e+001 
3215625000  -4.805843e+001  -4.726045e+001 
3218750000  -4.925994e+001  -6.405198e+001 
3221875000  -4.920149e+001  -7.687754e+001 
3225000000  -4.950040e+001  -8.492453e+001 
3228125000  -4.963908e+001  -9.471687e+001 
3231250000  -5.121518e+001  -1.020599e+002 
3234375000  -5.027315e+001  -1.090751e+002 
3237500000  -5.058092e+001  -1.191546e+002 
3240625000  -5.059109e+001  -1.271795e+002 
3243750000  -4.959774e+001  -1.451158e+002 
3246875000  -4.990450e+001  -1.530053e+002 
3250000000  -5.081663e+001  -1.674618e+002 
3253125000  -5.050655e+001  -1.695082e+002 
3256250000  -5.095530e+001  1.787128e+002 
3259375000  -5.075026e+001  1.579005e+002 
3262500000  -5.309410e+001  1.477705e+002 
3265625000  -5.273233e+001  1.472514e+002 
3268750000  -5.322179e+001  1.431132e+002 
3271875000  -5.289996e+001  1.354436e+002 
3275000000  -5.199955e+001  1.226867e+002 
3278125000  -5.253033e+001  1.095247e+002 
3281250000  -5.262110e+001  1.029774e+002 
3284375000  -5.252208e+001  9.636452e+001 
3287500000  -5.373218e+001  7.772289e+001 
3290625000  -5.341661e+001  7.655763e+001 
3293750000  -5.303038e+001  6.569273e+001 
3296875000  -5.476448e+001  5.821395e+001 
3300000000  -5.399781e+001  5.132143e+001 
3303125000  -5.278244e+001  4.316332e+001 
3306250000  -5.331438e+001  2.734230e+001 
3309375000  -5.361557e+001  1.386100e+001 
3312500000  -5.317456e+001  -2.674023e+000 
3315625000  -5.487109e+001  -9.214549e+000 
3318750000  -5.629692e+001  -2.479493e+001 
3321875000  -5.730957e+001  -8.898575e+000 
3325000000  -5.760800e+001  -1.870508e+001 
3328125000  -5.646633e+001  -1.342397e+001 
3331250000  -5.461440e+001  -2.569028e+001 
3334375000  -5.199158e+001  -4.584525e+001 
3337500000  -5.229142e+001  -6.737574e+001 
3340625000  -5.387351e+001  -8.463348e+001 
3343750000  -5.545156e+001  -8.166346e+001 
3346875000  -5.556462e+001  -9.701409e+001 
3350000000  -5.369072e+001  -9.419276e+001 
3353125000  -5.508175e+001  -1.119024e+002 
3356250000  -5.503391e+001  -1.261757e+002 
3359375000  -5.518105e+001  -1.493713e+002 
3362500000  -5.557545e+001  -1.498922e+002 
3365625000  -5.571701e+001  -1.581019e+002 
3368750000  -5.596348e+001  -1.617995e+002 
3371875000  -5.639551e+001  1.784936e+002 
3375000000  -5.843470e+001  1.616377e+002 
3378125000  -5.823322e+001  1.736288e+002 
3381250000  -6.122169e+001  1.644148e+002 
3384375000  -5.698695e+001  1.743621e+002 
3387500000  -5.458393e+001  1.486850e+002 
3390625000  -5.717493e+001  1.367703e+002 
3393750000  -5.692868e+001  1.225335e+002 
3396875000  -5.730084e+001  1.186637e+002 
3400000000  -5.622964e+001  9.392298e+001 
3403125000  -5.821752e+001  8.578434e+001 
3406250000  -5.732346e+001  7.670154e+001 
3409375000  -5.925309e+001  4.798443e+001 
3412500000  -5.771747e+001  5.618869e+001 
3415625000  -6.058238e+001  4.191856e+001 
3418750000  -6.196964e+001  3.202507e+001 
3421875000  -5.910986e+001  2.476632e+001 
3425000000  -5.869298e+001  3.399384e+001 
3428125000  -5.920370e+001  7.801477e+000 
3431250000  -5.791715e+001  6.464041e+000 
3434375000  -6.134630e+001  -2.386249e+001 
3437500000  -6.302071e+001  -3.036165e+001 
3440625000  -6.145053e+001  -2.587559e+001 
3443750000  -6.432027e+001  -2.133853e+001 
3446875000  -5.970923e+001  -3.355621e+001 
3450000000  -6.052590e+001  -7.566073e+001 
3453125000  -6.506345e+001  -7.722102e+001 
3456250000  -6.841003e+001  -8.354502e+001 
3459375000  -6.284645e+001  -7.391082e+001 
3462500000  -6.742387e+001  -1.275387e+002 
3465625000  -6.451656e+001  -1.090212e+002 
3468750000  -6.821568e+001  -1.367735e+002 
3471875000  -6.486294e+001  -9.631870e+001 
3475000000  -6.531860e+001  -1.115794e+002 
3478125000  -7.014403e+001  -1.274855e+002 
3481250000  -7.380695e+001  -1.324695e+002 
3484375000  -7.198398e+001  -1.062146e+002 
3487500000  -7.155891e+001  -1.232973e+002 
3490625000  -6.337569e+001  -1.427889e+002 
3493750000  -6.522616e+001  -1.644791e+002 
3496875000  -7.212051e+001  -1.588619e+002 
3500000000  -6.721837e+001  1.699220e+002 
3503125000  -6.698534e+001  -1.282960e+002 
3506250000  -6.560039e+001  -1.616840e+002 
3509375000  -6.601524e+001  1.712007e+002 
3512500000  -6.943185e+001  1.093522e+002 
3515625000  -6.692237e+001  1.446385e+002 
3518750000  -6.696474e+001  1.484599e+002 
3521875000  -6.594805e+001  1.446576e+002 
3525000000  -6.860124e+001  1.495359e+002 
3528125000  -6.746096e+001  9.440417e+001 
3531250000  -6.747553e+001  1.490302e+002 
3534375000  -7.011885e+001  9.319591e+001 
3537500000  -6.693076e+001  8.020039e+001 
3540625000  -6.600620e+001  6.740250e+001 
3543750000  -7.304497e+001  5.843284e+001 
3546875000  -7.206279e+001  2.812025e+001 
3550000000  -7.636359e+001  3.762008e+001 
3553125000  -7.459430e+001  -2.616174e+001 
3556250000  -7.290276e+001  1.224818e+002 
3559375000  -7.410442e+001  1.952143e+001 
3562500000  -7.850377e+001  1.047440e+002 
3565625000  -7.345385e+001  3.660661e+001 
3568750000  -7.561824e+001  1.028657e+002 
3571875000  -7.012268e+001  2.762375e+001 
3575000000  -7.378896e+001  -2.068225e+001 
3578125000  -6.864919e+001  5.795530e+001 
3581250000  -8.113835e+001  -9.807585e+000 
3584375000  -7.157137e+001  1.224820e+002 
3587500000  -7.567715e+001  -1.944917e+001 
3590625000  -6.696783e+001  6.845946e+000 
3593750000  -7.068104e+001  3.012767e+001 
3596875000  -6.789954e+001  2.633108e+001 
3600000000  -6.569086e+001  -3.786387e+000 
3603125000  -6.432494e+001  5.553707e+000 
3606250000  -6.436570e+001  -4.945187e+001 
3609375000  -6.465099e+001  -2.746459e+001 
3612500000  -6.366822e+001  -5.015529e+001 
3615625000  -6.931086e+001  -4.933033e+001 
3618750000  -6.599531e+001  -3.508930e+001 
3621875000  -6.450192e+001  -1.006739e+002 
3625000000  -6.453742e+001  -6.804259e+001 
3628125000  -6.304415e+001  -7.712695e+001 
3631250000  -6.263626e+001  -1.047952e+002 
3634375000  -6.304181e+001  -1.259007e+002 
3637500000  -6.452804e+001  -1.161296e+002 
3640625000  -6.541167e+001  -1.278588e+002 
3643750000  -6.222025e+001  -1.501195e+002 
3646875000  -6.361642e+001  -1.556403e+002 
3650000000  -6.384396e+001  1.613468e+002 
3653125000  -6.263839e+001  1.636701e+002 
3656250000  -6.733504e+001  -1.769207e+002 
3659375000  -6.495223e+001  1.479149e+002 
3662500000  -6.210366e+001  1.482335e+002 
3665625000  -6.565465e+001  1.674939e+002 
3668750000  -6.135532e+001  1.126269e+002 
3671875000  -6.021032e+001  1.128607e+002 
3675000000  -6.289944e+001  9.347071e+001 
3678125000  -6.510231e+001  1.079095e+002 
3681250000  -6.066089e+001  1.038169e+002 
3684375000  -6.475637e+001  1.060046e+002 
3687500000  -6.254050e+001  8.298280e+001 
3690625000  -7.557597e+001  6.939930e+001 
3693750000  -6.366789e+001  9.291017e+001 
3696875000  -6.958299e+001  5.675425e+001 
3700000000  -6.287037e+001  8.940920e+001 
3703125000  -6.788748e+001  3.772871e+001 
3706250000  -6.829005e+001  7.110376e+001 
3709375000  -6.574654e+001  6.295898e+001 
3712500000  -6.081591e+001  7.147534e+001 
3715625000  -6.759577e+001  2.933056e+001 
3718750000  -6.128657e+001  3.286804e+001 
3721875000  -6.178989e+001  3.598367e+000 
3725000000  -6.454307e+001  -1.705944e+001 
3728125000  -5.968201e+001  9.699288e+000 
3731250000  -5.977649e+001  -3.786050e+000 
3734375000  -5.916253e+001  -2.018647e+001 
3737500000  -5.886422e+001  -2.945930e+001 
3740625000  -6.126491e+001  -3.837719e+001 
3743750000  -5.855489e+001  -5.271406e+001 
3746875000  -6.096083e+001  -4.988520e+001 
3750000000  -5.852267e+001  -7.661433e+001 
3753125000  -5.889492e+001  -7.011753e+001 
3756250000  -5.798859e+001  -9.118017e+001 
3759375000  -5.800011e+001  -1.086666e+002 
3762500000  -5.720801e+001  -1.224179e+002 
3765625000  -5.741387e+001  -1.295236e+002 
3768750000  -5.756873e+001  -1.363368e+002 
3771875000  -5.509953e+001  -1.496696e+002 
3775000000  -5.520453e+001  -1.634360e+002 
3778125000  -5.695608e+001  1.787494e+002 
3781250000  -5.718016e+001  1.746231e+002 
3784375000  -5.690789e+001  1.747979e+002 
3787500000  -5.638908e+001  1.543155e+002 
3790625000  -5.901270e+001  1.380906e+002 
3793750000  -5.817615e+001  1.308727e+002 
3796875000  -5.721693e+001  1.193515e+002 
3800000000  -5.271901e+001  7.772976e+001 
3803125000  -5.739043e+001  1.020633e+002 
3806250000  -5.877954e+001  7.664602e+001 
3809375000  -5.700724e+001  8.388500e+001 
3812500000  -5.818950e+001  6.701725e+001 
3815625000  -6.054296e+001  3.800145e+001 
3818750000  -6.341338e+001  4.770626e+001 
3821875000  -6.285589e+001  6.450571e+001 
3825000000  -6.024747e+001  3.120713e+001 
3828125000  -6.055748e+001  2.497207e+001 
3831250000  -6.032458e+001  3.376605e+000 
3834375000  -6.152452e+001  1.671290e+001 
3837500000  -6.594525e+001  2.924156e+001 
3840625000  -6.230152e+001  1.711393e+001 
3843750000  -5.905498e+001  1.987525e-001 
3846875000  -6.157116e+001  -4.667924e+001 
3850000000  -6.529906e+001  -3.379100e+001 
3853125000  -6.209441e+001  -2.895485e+001 
3856250000  -6.274408e+001  3.513220e+000 
3859375000  -5.916909e+001  -3.034438e+001 
3862500000  -6.019852e+001  -4.333095e+001 
3865625000  -5.918599e+001  -5.137976e+001 
3868750000  -5.825892e+001  -4.348279e+001 
3871875000  -5.684391e+001  -5.640900e+001 
3875000000  -5.795465e+001  -6.899043e+001 
3878125000  -5.896451e+001  -7.008439e+001 
3881250000  -5.778950e+001  -8.285248e+001 
3884375000  -5.500232e+001  -9.897937e+001 
3887500000  -5.657217e+001  -1.047241e+002 
3890625000  -5.618719e+001  -1.204177e+002 
3893750000  -5.696304e+001  -1.211709e+002 
3896875000  -5.613321e+001  -1.364628e+002 
3900000000  -5.666423e+001  -1.492476e+002 
3903125000  -5.563980e+001  -1.496389e+002 
3906250000  -5.291238e+001  -1.641313e+002 
3909375000  -5.445259e+001  1.725623e+002 
3912500000  -5.403072e+001  1.698921e+002 
3915625000  -5.377533e+001  1.587881e+002 
3918750000  -5.485929e+001  1.491563e+002 
3921875000  -5.361253e+001  1.381209e+002 
3925000000  -5.308840e+001  1.263317e+002 
3928125000  -5.360302e+001  1.065021e+002 
3931250000  -5.466858e+001  1.053383e+002 
3934375000  -5.483935e+001  8.954720e+001 
3937500000  -5.576813e+001  8.339117e+001 
3940625000  -5.440420e+001  7.279009e+001 
3943750000  -5.472720e+001  6.609162e+001 
3946875000  -5.319007e+001  5.166705e+001 
3950000000  -5.422008e+001  4.476068e+001 
3953125000  -5.397732e+001  2.998003e+001 
3956250000  -5.305823e+001  2.892953e+001 
3959375000  -5.354677e+001  9.657000e+000 
3962500000  -5.309287e+001  5.860630e+000 
3965625000  -5.387207e+001  -1.738396e+001 
3968750000  -5.413912e+001  -3.089409e+001 
3971875000  -5.394999e+001  -3.944305e+001 
3975000000  -5.364748e+001  -4.623317e+001 
3978125000  -5.539611e+001  -5.602914e+001 
3981250000  -5.494972e+001  -6.895914e+001 
3984375000  -5.525194e+001  -8.925735e+001 
3987500000  -5.533851e+001  -8.893642e+001 
3990625000  -5.714132e+001  -1.026658e+002 
3993750000  -5.829639e+001  -1.108418e+002 
3996875000  -5.701548e+001  -1.137535e+002 
4000000000  -6.059142e+001  -1.251120e+002 
4003125000  -5.874603e+001  -1.246160e+002 
4006250000  -5.623428e+001  -1.391406e+002 
4009375000  -5.766125e+001  -1.530718e+002 
4012500000  -5.801756e+001  -1.523683e+002 
4015625000  -6.142498e+001  -1.565347e+002 
4018750000  -5.891055e+001  -1.586057e+002 
4021875000  -5.835402e+001  -1.634477e+002 
4025000000  -6.003974e+001  1.710836e+002 
4028125000  -5.806211e+001  1.788354e+002 
4031250000  -5.911006e+001  1.689383e+002 
4034375000  -5.820257e+001  1.573943e+002 
4037500000  -5.936992e+001  1.631723e+002 
4040625000  -6.028242e+001  1.584472e+002 
4043750000  -5.874146e+001  1.605760e+002 
4046875000  -5.567976e+001  1.470278e+002 
4050000000  -5.769763e+001  1.277319e+002 
4053125000  -5.964425e+001  1.285094e+002 
4056250000  -5.865548e+001  1.082843e+002 
4059375000  -5.734890e+001  1.227258e+002 
4062500000  -5.616474e+001  1.008364e+002 
4065625000  -5.454868e+001  9.133475e+001 
4068750000  -5.508673e+001  8.294569e+001 
4071875000  -5.287204e+001  6.417113e+001 
4075000000  -5.266534e+001  4.689378e+001 
4078125000  -5.337207e+001  3.949766e+001 
4081250000  -5.387524e+001  1.695975e+001 
4084375000  -5.149844e+001  1.051813e+001 
4087500000  -5.437796e+001  -8.029995e+000 
4090625000  -5.321136e+001  -2.113686e+000 
4093750000  -5.382891e+001  -2.537464e+001 
4096875000  -5.348134e+001  -3.017666e+001 
4100000000  -5.359864e+001  -4.326357e+001 
4103125000  -5.490707e+001  -4.690292e+001 
4106250000  -5.265447e+001  -5.419801e+001 
4109375000  -5.446994e+001  -6.207589e+001 
4112500000  -5.269592e+001  -7.918945e+001 
4115625000  -5.220460e+001  -8.774751e+001 
4118750000  -5.309160e+001  -9.940623e+001 
4121875000  -5.320965e+001  -1.241906e+002 
4125000000  -5.428336e+001  -1.218382e+002 
4128125000  -5.421450e+001  -1.243094e+002 
4131250000  -5.395569e+001  -1.244719e+002 
4134375000  -5.164440e+001  -1.473868e+002 
4137500000  -5.246926e+001  -1.755740e+002 
4140625000  -5.301939e+001  1.678651e+002 
4143750000  -5.647196e+001  1.750993e+002 
4146875000  -5.459189e+001  1.691632e+002 
4150000000  -5.381989e+001  1.573414e+002 
4153125000  -5.449154e+001  1.402737e+002 
4156250000  -5.749010e+001  1.275714e+002 
4159375000  -5.718967e+001  1.308434e+002 
4162500000  -5.496373e+001  1.268175e+002 
4165625000  -5.300050e+001  1.157565e+002 
4168750000  -5.626569e+001  8.301335e+001 
4171875000  -5.487025e+001  7.729671e+001 
4175000000  -5.542298e+001  5.826686e+001 
4178125000  -5.797977e+001  6.594314e+001 
4181250000  -5.730661e+001  4.893593e+001 
4184375000  -5.970879e+001  4.230127e+001 
4187500000  -6.024189e+001  2.706584e+001 
4190625000  -5.962245e+001  1.967694e+001 
4193750000  -6.048476e+001  -2.126688e+000 
4196875000  -6.150589e+001  -3.216537e+000 
4200000000  -6.404422e+001  1.275884e+001 
4203125000  -6.903167e+001  2.147185e+001 
4206250000  -6.076906e+001  1.291681e+001 
4209375000  -5.908582e+001  6.150257e-001 
4212500000  -6.377156e+001  -2.343879e+000 
4215625000  -6.473232e+001  -2.659455e+001 
4218750000  -6.300496e+001  9.726405e-001 
4221875000  -6.048042e+001  -1.104968e+001 
4225000000  -6.152635e+001  -2.138445e+001 
4228125000  -5.829742e+001  -2.237878e+001 
4231250000  -6.196894e+001  -4.250219e+000 
4234375000  -5.820581e+001  -4.507000e+001 
4237500000  -5.726244e+001  -3.154144e+001 
4240625000  -5.751804e+001  -6.137982e+001 
4243750000  -5.567692e+001  -7.800684e+001 
4246875000  -5.627628e+001  -6.985433e+001 
4250000000  -5.769733e+001  -8.399667e+001 
4253125000  -5.504005e+001  -7.868627e+001 
4256250000  -5.657581e+001  -8.923846e+001 
4259375000  -5.614306e+001  -1.100842e+002 
4262500000  -5.449844e+001  -1.161507e+002 
4265625000  -5.393645e+001  -1.241522e+002 
4268750000  -5.195424e+001  -1.422501e+002 
4271875000  -5.288681e+001  -1.533349e+002 
4275000000  -5.280570e+001  -1.682889e+002 
4278125000  -5.219848e+001  1.740846e+002 
4281250000  -5.360234e+001  1.621414e+002 
4284375000  -5.444499e+001  1.573450e+002 
4287500000  -5.360233e+001  1.548488e+002 
4290625000  -5.465927e+001  1.426915e+002 
4293750000  -5.245965e+001  1.408270e+002 
4296875000  -5.127052e+001  1.303813e+002 
4300000000  -5.287972e+001  1.055207e+002 
4303125000  -5.277889e+001  1.057544e+002 
4306250000  -5.215653e+001  9.565305e+001 
4309375000  -5.109548e+001  7.714680e+001 
4312500000  -5.257269e+001  6.794952e+001 
4315625000  -5.172882e+001  5.301019e+001 
4318750000  -5.466821e+001  3.461079e+001 
4321875000  -5.303639e+001  4.222796e+001 
4325000000  -5.270900e+001  4.060593e+001 
4328125000  -5.265498e+001  2.132950e+001 
4331250000  -5.281884e+001  -1.331737e+000 
4334375000  -5.487828e+001  -1.763790e+001 
4337500000  -5.393464e+001  -3.327221e+001 
4340625000  -5.464040e+001  -2.682079e+001 
4343750000  -5.611499e+001  -3.307282e+001 
4346875000  -5.548774e+001  -3.395818e+001 
4350000000  -5.592609e+001  -6.251331e+001 
4353125000  -5.751384e+001  -6.424607e+001 
4356250000  -5.869299e+001  -7.929942e+001 
4359375000  -5.841725e+001  -6.081671e+001 
4362500000  -5.343082e+001  -6.916196e+001 
4365625000  -5.718135e+001  -8.577988e+001 
4368750000  -5.621133e+001  -9.716528e+001 
4371875000  -5.797506e+001  -1.014165e+002 
4375000000  -5.624917e+001  -1.065213e+002 
4378125000  -5.574896e+001  -1.213215e+002 
4381250000  -5.686218e+001  -1.507880e+002 
4384375000  -5.932589e+001  -1.353279e+002 
4387500000  -5.801699e+001  -1.292329e+002 
4390625000  -5.699394e+001  -1.568045e+002 
4393750000  -5.769891e+001  -1.404738e+002 
4396875000  -5.465786e+001  -1.569023e+002 
4400000000  -5.718084e+001  -1.674675e+002 
4403125000  -5.606982e+001  1.799169e+002 
4406250000  -5.833586e+001  1.772159e+002 
4409375000  -5.515063e+001  1.700719e+002 
4412500000  -5.756192e+001  1.643847e+002 
4415625000  -5.488916e+001  1.639436e+002 
4418750000  -5.474962e+001  1.483671e+002 
