!Agilent Technologies,E8363B,MY43030201,A.06.04.32
!Agilent E8363B: A.06.04.32
!Date: Tuesday, November 11, 2014 22:14:48
!Correction: S21(Response(S21)) 
!S1P File: Measurement: S21:
# Hz S  dB   R 50
3000000000  -4.867238e+001  -7.505480e+001 
3003125000  -5.144331e+001  -8.363884e+001 
3006250000  -5.171320e+001  -8.546758e+001 
3009375000  -5.178789e+001  -8.593962e+001 
3012500000  -5.073291e+001  -9.763417e+001 
3015625000  -5.116294e+001  -1.069352e+002 
3018750000  -5.210163e+001  -1.166231e+002 
3021875000  -4.997140e+001  -1.175389e+002 
3025000000  -4.878982e+001  -1.284756e+002 
3028125000  -4.821875e+001  -1.441970e+002 
3031250000  -4.718380e+001  -1.613983e+002 
3034375000  -4.683352e+001  -1.767543e+002 
3037500000  -4.756694e+001  1.655636e+002 
3040625000  -4.905973e+001  1.509917e+002 
3043750000  -4.989035e+001  1.428678e+002 
3046875000  -5.034280e+001  1.315937e+002 
3050000000  -5.182843e+001  1.264200e+002 
3053125000  -5.065415e+001  1.241491e+002 
3056250000  -5.113509e+001  1.250305e+002 
3059375000  -5.065612e+001  1.112996e+002 
3062500000  -4.913136e+001  1.017692e+002 
3065625000  -4.923584e+001  8.733602e+001 
3068750000  -4.934705e+001  7.738958e+001 
3071875000  -4.878373e+001  6.854294e+001 
3075000000  -4.873870e+001  5.630309e+001 
3078125000  -4.850293e+001  4.282063e+001 
3081250000  -4.895580e+001  3.450782e+001 
3084375000  -4.797804e+001  2.583229e+001 
3087500000  -4.837412e+001  1.163914e+001 
3090625000  -4.812188e+001  -3.217099e+000 
3093750000  -4.882526e+001  -1.389664e+001 
3096875000  -5.014014e+001  -2.582202e+001 
3100000000  -4.959732e+001  -3.410557e+001 
3103125000  -4.989263e+001  -4.330108e+001 
3106250000  -4.930384e+001  -5.002371e+001 
3109375000  -4.941028e+001  -6.109181e+001 
3112500000  -4.915191e+001  -6.685365e+001 
3115625000  -4.948058e+001  -7.896410e+001 
3118750000  -4.970421e+001  -8.418214e+001 
3121875000  -4.925152e+001  -1.004769e+002 
3125000000  -5.099420e+001  -1.053568e+002 
3128125000  -5.097584e+001  -1.061262e+002 
3131250000  -4.905428e+001  -1.154048e+002 
3134375000  -4.809401e+001  -1.401647e+002 
3137500000  -4.829867e+001  -1.548313e+002 
3140625000  -4.927644e+001  -1.579555e+002 
3143750000  -4.998726e+001  -1.723538e+002 
3146875000  -4.989664e+001  -1.724066e+002 
3150000000  -4.884892e+001  1.795283e+002 
3153125000  -4.932322e+001  1.670325e+002 
3156250000  -5.005794e+001  1.683704e+002 
3159375000  -4.841650e+001  1.577312e+002 
3162500000  -4.652262e+001  1.385239e+002 
3165625000  -4.767151e+001  1.222629e+002 
3168750000  -4.790312e+001  1.176172e+002 
3171875000  -4.732164e+001  1.049707e+002 
3175000000  -4.757750e+001  9.136443e+001 
3178125000  -4.730212e+001  8.355415e+001 
3181250000  -4.660418e+001  6.951908e+001 
3184375000  -4.659298e+001  5.489798e+001 
3187500000  -4.713231e+001  3.981371e+001 
3190625000  -4.898824e+001  2.357858e+001 
3193750000  -4.948875e+001  2.511223e+001 
3196875000  -4.977652e+001  1.921298e+001 
3200000000  -4.827342e+001  8.952027e+000 
3203125000  -4.831184e+001  -2.957985e+000 
3206250000  -4.871500e+001  -1.593067e+001 
3209375000  -4.778611e+001  -3.020592e+001 
3212500000  -4.844328e+001  -3.813910e+001 
3215625000  -4.800349e+001  -4.592752e+001 
3218750000  -4.978204e+001  -6.537054e+001 
3221875000  -4.975840e+001  -7.705977e+001 
3225000000  -4.969553e+001  -8.352891e+001 
3228125000  -4.947389e+001  -9.315770e+001 
3231250000  -5.122799e+001  -1.016101e+002 
3234375000  -5.017218e+001  -1.103783e+002 
3237500000  -5.033305e+001  -1.178201e+002 
3240625000  -5.013136e+001  -1.303607e+002 
3243750000  -4.977227e+001  -1.436750e+002 
3246875000  -5.009751e+001  -1.526395e+002 
3250000000  -5.156586e+001  -1.654943e+002 
3253125000  -5.066873e+001  -1.705562e+002 
3256250000  -5.058263e+001  1.752628e+002 
3259375000  -5.100281e+001  1.575410e+002 
3262500000  -5.241730e+001  1.559149e+002 
3265625000  -5.305920e+001  1.479647e+002 
3268750000  -5.337134e+001  1.352647e+002 
3271875000  -5.270469e+001  1.341222e+002 
3275000000  -5.242307e+001  1.250527e+002 
3278125000  -5.322378e+001  1.103591e+002 
3281250000  -5.296178e+001  1.037343e+002 
3284375000  -5.241098e+001  9.079707e+001 
3287500000  -5.340143e+001  8.438293e+001 
3290625000  -5.305885e+001  7.579322e+001 
3293750000  -5.345490e+001  6.344916e+001 
3296875000  -5.368428e+001  5.694411e+001 
3300000000  -5.359513e+001  5.016899e+001 
3303125000  -5.352127e+001  4.108081e+001 
3306250000  -5.257869e+001  3.185573e+001 
3309375000  -5.261896e+001  1.967551e+001 
3312500000  -5.301995e+001  6.071637e-001 
3315625000  -5.520919e+001  -1.724014e+001 
3318750000  -5.609758e+001  -1.904323e+001 
3321875000  -5.751451e+001  -2.403635e+001 
3325000000  -5.571068e+001  -1.484531e+001 
3328125000  -5.789667e+001  -2.569465e+001 
3331250000  -5.281908e+001  -2.299298e+001 
3334375000  -5.286812e+001  -4.500576e+001 
3337500000  -5.196512e+001  -7.162755e+001 
3340625000  -5.426680e+001  -9.350703e+001 
3343750000  -5.634629e+001  -9.026720e+001 
3346875000  -5.591429e+001  -1.000244e+002 
3350000000  -5.462204e+001  -9.588813e+001 
3353125000  -5.459708e+001  -1.126144e+002 
3356250000  -5.450382e+001  -1.248174e+002 
3359375000  -5.404616e+001  -1.457675e+002 
3362500000  -5.676090e+001  -1.481773e+002 
3365625000  -5.538743e+001  -1.573671e+002 
3368750000  -5.661693e+001  -1.730230e+002 
3371875000  -5.742070e+001  -1.776541e+002 
3375000000  -5.970558e+001  1.689338e+002 
3378125000  -5.797478e+001  1.667804e+002 
3381250000  -6.015523e+001  1.575053e+002 
3384375000  -5.707230e+001  -1.692639e+002 
3387500000  -5.341358e+001  1.502413e+002 
3390625000  -5.869859e+001  1.393283e+002 
3393750000  -5.668719e+001  1.197325e+002 
3396875000  -5.885114e+001  1.199324e+002 
3400000000  -5.514305e+001  9.670937e+001 
3403125000  -5.713123e+001  8.175525e+001 
3406250000  -5.903755e+001  6.604988e+001 
3409375000  -5.809380e+001  5.272999e+001 
3412500000  -5.779273e+001  5.516592e+001 
3415625000  -5.929478e+001  3.057060e+001 
3418750000  -5.963021e+001  4.432059e+001 
3421875000  -5.880806e+001  2.686519e+001 
3425000000  -6.021537e+001  3.416434e+001 
3428125000  -5.870007e+001  1.069039e+001 
3431250000  -5.986404e+001  1.431091e+000 
3434375000  -6.021282e+001  -3.073652e+001 
3437500000  -6.088565e+001  -2.944194e+001 
3440625000  -6.124327e+001  -3.550658e+001 
3443750000  -6.195114e+001  -2.016710e+001 
3446875000  -6.173873e+001  -3.939730e+001 
3450000000  -5.969001e+001  -8.225955e+001 
3453125000  -6.543922e+001  -7.773959e+001 
3456250000  -6.713071e+001  -1.107825e+002 
3459375000  -6.491678e+001  -4.611620e+001 
3462500000  -6.711832e+001  -7.234863e+001 
3465625000  -6.587135e+001  -7.994897e+001 
3468750000  -6.806450e+001  -8.710097e+001 
3471875000  -6.796511e+001  -1.087093e+002 
3475000000  -6.492941e+001  -1.172545e+002 
3478125000  -6.784138e+001  -1.085032e+002 
3481250000  -6.980150e+001  -1.330680e+002 
3484375000  -6.828910e+001  -1.396507e+002 
3487500000  -6.726144e+001  -1.347869e+002 
3490625000  -6.719386e+001  -1.349147e+002 
3493750000  -6.884320e+001  -1.503051e+002 
3496875000  -6.753577e+001  -1.642990e+002 
3500000000  -6.499823e+001  -1.691623e+002 
3503125000  -6.330045e+001  -1.678522e+002 
3506250000  -6.591480e+001  -1.686868e+002 
3509375000  -6.888967e+001  1.666073e+002 
3512500000  -6.486759e+001  1.633657e+002 
3515625000  -6.899249e+001  1.497313e+002 
3518750000  -6.697651e+001  1.381242e+002 
3521875000  -7.132542e+001  1.126271e+002 
3525000000  -6.880953e+001  1.117799e+002 
3528125000  -6.674989e+001  1.239654e+002 
3531250000  -6.661727e+001  1.424032e+002 
3534375000  -6.433298e+001  1.008095e+002 
3537500000  -6.805077e+001  7.953728e+001 
3540625000  -6.615778e+001  3.625888e+001 
3543750000  -8.239977e+001  1.611026e+002 
3546875000  -6.941684e+001  6.999886e+001 
3550000000  -6.517773e+001  1.003124e+002 
3553125000  -6.433669e+001  4.629247e+001 
3556250000  -7.909998e+001  1.192004e+002 
3559375000  -6.883941e+001  2.687083e+001 
3562500000  -7.104409e+001  -1.879189e+001 
3565625000  -6.872921e+001  7.649079e+000 
3568750000  -7.439362e+001  3.328050e+001 
3571875000  -7.065097e+001  1.042730e+001 
3575000000  -7.723627e+001  1.330706e+002 
3578125000  -7.524886e+001  6.553403e+001 
3581250000  -7.725262e+001  4.516731e+001 
3584375000  -6.817166e+001  7.203027e+001 
3587500000  -6.978262e+001  -1.040930e+001 
3590625000  -6.694180e+001  2.457545e+001 
3593750000  -6.865253e+001  -7.848873e+000 
3596875000  -7.047965e+001  5.909315e+000 
3600000000  -6.986884e+001  7.196311e+000 
3603125000  -6.910886e+001  -5.659348e+000 
3606250000  -6.537590e+001  -3.320806e+001 
3609375000  -6.578473e+001  -5.694591e+001 
3612500000  -6.305581e+001  -6.381896e+001 
3615625000  -6.880657e+001  -7.371247e+001 
3618750000  -6.452645e+001  -6.339791e+001 
3621875000  -6.842690e+001  -7.100262e+001 
3625000000  -6.549495e+001  -9.227707e+001 
3628125000  -6.366162e+001  -1.012472e+002 
3631250000  -6.086965e+001  -1.177414e+002 
3634375000  -6.598665e+001  -1.203037e+002 
3637500000  -6.230497e+001  -1.126138e+002 
3640625000  -6.187986e+001  -1.120790e+002 
3643750000  -6.253600e+001  -1.425716e+002 
3646875000  -6.240052e+001  -1.628496e+002 
3650000000  -6.325018e+001  1.644258e+002 
3653125000  -6.208405e+001  1.637082e+002 
3656250000  -6.499776e+001  1.494007e+002 
3659375000  -6.499967e+001  1.698913e+002 
3662500000  -6.331156e+001  1.615166e+002 
3665625000  -6.583508e+001  1.705981e+002 
3668750000  -6.069516e+001  1.287206e+002 
3671875000  -6.364001e+001  1.151444e+002 
3675000000  -6.281489e+001  1.097203e+002 
3678125000  -6.764489e+001  1.139225e+002 
3681250000  -6.101995e+001  1.059294e+002 
3684375000  -7.136591e+001  6.723206e+001 
3687500000  -6.688389e+001  8.085976e+001 
3690625000  -7.321507e+001  6.296941e+001 
3693750000  -6.815099e+001  9.915009e+001 
3696875000  -6.776698e+001  7.984567e+001 
3700000000  -6.497914e+001  9.394524e+001 
3703125000  -7.344908e+001  4.241234e+001 
3706250000  -6.542488e+001  6.418887e+001 
3709375000  -6.918697e+001  6.452179e+001 
3712500000  -6.378715e+001  5.934365e+001 
3715625000  -6.146347e+001  1.608301e+001 
3718750000  -6.305039e+001  3.843512e+001 
3721875000  -6.046874e+001  2.605140e+001 
3725000000  -6.215036e+001  1.809665e+001 
3728125000  -5.920762e+001  8.919031e+000 
3731250000  -5.873975e+001  -2.699543e+000 
3734375000  -6.061376e+001  -1.788024e+001 
3737500000  -5.775304e+001  -4.528516e+001 
3740625000  -5.955920e+001  -3.146338e+001 
3743750000  -5.969862e+001  -5.692202e+001 
3746875000  -5.989122e+001  -5.705334e+001 
3750000000  -5.802952e+001  -8.905061e+001 
3753125000  -5.914393e+001  -7.990463e+001 
3756250000  -5.833172e+001  -1.088417e+002 
3759375000  -5.719893e+001  -1.174334e+002 
3762500000  -5.631915e+001  -1.186758e+002 
3765625000  -5.869320e+001  -1.223104e+002 
3768750000  -5.533224e+001  -1.359549e+002 
3771875000  -5.684325e+001  -1.440843e+002 
3775000000  -5.677069e+001  -1.557468e+002 
3778125000  -5.706012e+001  -1.748710e+002 
3781250000  -5.729478e+001  1.770389e+002 
3784375000  -5.590142e+001  1.727094e+002 
3787500000  -5.741660e+001  1.465005e+002 
3790625000  -5.763895e+001  1.397122e+002 
3793750000  -5.702007e+001  1.309888e+002 
3796875000  -5.826990e+001  1.227003e+002 
3800000000  -5.303156e+001  8.300452e+001 
3803125000  -5.894913e+001  8.870637e+001 
3806250000  -5.978676e+001  8.192193e+001 
3809375000  -5.710408e+001  8.356854e+001 
3812500000  -5.828701e+001  6.861626e+001 
3815625000  -6.164766e+001  5.114133e+001 
3818750000  -6.349846e+001  3.622565e+001 
3821875000  -6.302406e+001  5.912463e+001 
3825000000  -6.026365e+001  3.694575e+001 
3828125000  -5.718106e+001  3.190076e+001 
3831250000  -5.981340e+001  1.080587e+001 
3834375000  -6.494014e+001  1.705910e+001 
3837500000  -6.352008e+001  1.144608e+001 
3840625000  -6.196498e+001  4.080136e-001 
3843750000  -6.247612e+001  1.345919e+001 
3846875000  -6.185749e+001  -1.811464e+000 
3850000000  -6.050713e+001  8.863126e+000 
3853125000  -6.307942e+001  -2.751042e+001 
3856250000  -6.268003e+001  -5.760685e+000 
3859375000  -5.909276e+001  -3.170736e+001 
3862500000  -5.953640e+001  -4.452187e+001 
3865625000  -6.172716e+001  -3.204257e+001 
3868750000  -5.733157e+001  -4.958335e+001 
3871875000  -5.567013e+001  -6.111140e+001 
3875000000  -6.009662e+001  -6.317272e+001 
3878125000  -5.745158e+001  -8.185448e+001 
3881250000  -5.797418e+001  -8.381440e+001 
3884375000  -5.614672e+001  -9.946663e+001 
3887500000  -5.786638e+001  -1.230109e+002 
3890625000  -5.553929e+001  -1.154285e+002 
3893750000  -5.515505e+001  -1.260840e+002 
3896875000  -5.761195e+001  -1.328010e+002 
3900000000  -5.555734e+001  -1.516240e+002 
3903125000  -5.699889e+001  -1.451423e+002 
3906250000  -5.307424e+001  -1.680368e+002 
3909375000  -5.502721e+001  1.745791e+002 
3912500000  -5.541110e+001  1.741325e+002 
3915625000  -5.516118e+001  1.544691e+002 
3918750000  -5.475427e+001  1.523037e+002 
3921875000  -5.417021e+001  1.404377e+002 
3925000000  -5.363060e+001  1.232259e+002 
3928125000  -5.342562e+001  1.101706e+002 
3931250000  -5.389972e+001  9.880701e+001 
3934375000  -5.443282e+001  8.070381e+001 
3937500000  -5.521548e+001  8.407088e+001 
3940625000  -5.390080e+001  8.595751e+001 
3943750000  -5.353893e+001  6.492805e+001 
3946875000  -5.409494e+001  4.767339e+001 
3950000000  -5.395004e+001  4.151079e+001 
3953125000  -5.469400e+001  4.010907e+001 
3956250000  -5.305298e+001  1.815111e+001 
3959375000  -5.232058e+001  1.614228e+001 
3962500000  -5.243964e+001  -5.559621e+000 
3965625000  -5.465410e+001  -9.594841e+000 
3968750000  -5.348958e+001  -2.890535e+001 
3971875000  -5.468025e+001  -3.839564e+001 
3975000000  -5.344356e+001  -4.755474e+001 
3978125000  -5.492884e+001  -5.641496e+001 
3981250000  -5.509536e+001  -6.439125e+001 
3984375000  -5.530051e+001  -8.129691e+001 
3987500000  -5.518444e+001  -8.805988e+001 
3990625000  -5.722973e+001  -8.737983e+001 
3993750000  -5.741916e+001  -1.198707e+002 
3996875000  -5.789412e+001  -1.280012e+002 
4000000000  -5.948706e+001  -1.255416e+002 
4003125000  -6.021477e+001  -1.173421e+002 
4006250000  -5.773399e+001  -1.342643e+002 
4009375000  -5.700497e+001  -1.477135e+002 
4012500000  -5.835454e+001  -1.452114e+002 
4015625000  -5.994575e+001  -1.613820e+002 
4018750000  -5.935438e+001  -1.629980e+002 
4021875000  -5.890745e+001  -1.747672e+002 
4025000000  -5.921300e+001  1.741544e+002 
4028125000  -5.996112e+001  -1.780553e+002 
4031250000  -5.769819e+001  1.718816e+002 
4034375000  -6.049625e+001  1.694124e+002 
4037500000  -5.874685e+001  1.535408e+002 
4040625000  -6.124860e+001  1.516892e+002 
4043750000  -5.970101e+001  1.448977e+002 
4046875000  -5.970105e+001  1.448222e+002 
4050000000  -5.698556e+001  1.400582e+002 
4053125000  -5.712778e+001  1.249138e+002 
4056250000  -5.935749e+001  1.152698e+002 
4059375000  -5.520484e+001  1.088634e+002 
4062500000  -5.595899e+001  9.996680e+001 
4065625000  -5.595537e+001  8.831834e+001 
4068750000  -5.556631e+001  7.333276e+001 
4071875000  -5.250367e+001  5.914044e+001 
4075000000  -5.405947e+001  5.259812e+001 
4078125000  -5.331897e+001  3.836320e+001 
4081250000  -5.305229e+001  3.089994e+001 
4084375000  -5.179248e+001  1.434986e+001 
4087500000  -5.322209e+001  -7.838562e+000 
4090625000  -5.329477e+001  -9.007169e+000 
4093750000  -5.408458e+001  -1.486333e+001 
4096875000  -5.296958e+001  -3.169631e+001 
4100000000  -5.425682e+001  -5.021992e+001 
4103125000  -5.494568e+001  -5.057766e+001 
4106250000  -5.515500e+001  -5.334139e+001 
4109375000  -5.184155e+001  -5.162417e+001 
4112500000  -5.180143e+001  -8.113519e+001 
4115625000  -5.355898e+001  -8.386518e+001 
4118750000  -5.339697e+001  -1.020878e+002 
4121875000  -5.220396e+001  -1.235696e+002 
4125000000  -5.414267e+001  -1.204511e+002 
4128125000  -5.621815e+001  -1.404765e+002 
4131250000  -5.375441e+001  -1.250936e+002 
4134375000  -5.176534e+001  -1.478597e+002 
4137500000  -5.206205e+001  -1.715127e+002 
4140625000  -5.423590e+001  1.733860e+002 
4143750000  -5.693568e+001  1.770757e+002 
4146875000  -5.271361e+001  1.730534e+002 
4150000000  -5.446223e+001  1.615399e+002 
4153125000  -5.451494e+001  1.367628e+002 
4156250000  -5.504140e+001  1.251101e+002 
4159375000  -5.549229e+001  1.257198e+002 
4162500000  -5.601451e+001  1.198300e+002 
4165625000  -5.376045e+001  1.230243e+002 
4168750000  -5.417421e+001  8.809081e+001 
4171875000  -5.550167e+001  8.938533e+001 
4175000000  -5.711542e+001  6.052319e+001 
4178125000  -5.846884e+001  7.540534e+001 
4181250000  -5.728507e+001  4.745059e+001 
4184375000  -5.986949e+001  5.188848e+001 
4187500000  -5.807392e+001  3.428616e+001 
4190625000  -6.242911e+001  2.803213e+001 
4193750000  -5.818332e+001  9.720743e+000 
4196875000  -6.134351e+001  1.005570e+001 
4200000000  -6.583292e+001  2.915028e+001 
4203125000  -6.804418e+001  1.362979e+001 
4206250000  -6.183064e+001  2.629101e+001 
4209375000  -5.910783e+001  3.672898e+000 
4212500000  -6.244205e+001  4.412724e+000 
4215625000  -6.544479e+001  9.315326e+000 
4218750000  -6.106294e+001  3.230600e+001 
4221875000  -5.737419e+001  -2.446876e+000 
4225000000  -5.995726e+001  -1.665015e+001 
4228125000  -6.084928e+001  -3.714287e+001 
4231250000  -5.762488e+001  -1.993185e+001 
4234375000  -5.629896e+001  -6.196200e+001 
4237500000  -5.753632e+001  -3.756571e+001 
4240625000  -5.466919e+001  -6.843478e+001 
4243750000  -5.785806e+001  -7.938882e+001 
4246875000  -5.800627e+001  -6.913383e+001 
4250000000  -5.553186e+001  -8.701121e+001 
4253125000  -5.522272e+001  -8.353522e+001 
4256250000  -5.520283e+001  -1.080356e+002 
4259375000  -5.467456e+001  -1.083361e+002 
4262500000  -5.549509e+001  -1.330182e+002 
4265625000  -5.557344e+001  -1.165480e+002 
4268750000  -5.464776e+001  -1.492336e+002 
4271875000  -5.301482e+001  -1.414671e+002 
4275000000  -5.218867e+001  -1.726242e+002 
4278125000  -5.337320e+001  1.596716e+002 
4281250000  -5.555424e+001  1.613910e+002 
4284375000  -5.463254e+001  1.587485e+002 
4287500000  -5.551014e+001  1.454560e+002 
4290625000  -5.591691e+001  1.410565e+002 
4293750000  -5.210551e+001  1.420400e+002 
4296875000  -5.312323e+001  1.238235e+002 
4300000000  -5.218853e+001  1.132308e+002 
4303125000  -5.212992e+001  1.085671e+002 
4306250000  -5.195327e+001  9.940681e+001 
4309375000  -5.194308e+001  7.404567e+001 
4312500000  -5.223090e+001  6.606757e+001 
4315625000  -5.209153e+001  4.874559e+001 
4318750000  -5.380433e+001  4.608564e+001 
4321875000  -5.290577e+001  3.649918e+001 
4325000000  -5.336489e+001  2.881297e+001 
4328125000  -5.130242e+001  8.202867e+000 
4331250000  -5.320772e+001  -1.041214e+001 
4334375000  -5.429886e+001  -8.461245e+000 
4337500000  -5.651590e+001  -3.087235e+001 
4340625000  -5.565012e+001  -2.109332e+001 
4343750000  -5.551648e+001  -4.062655e+001 
4346875000  -5.621017e+001  -3.545127e+001 
4350000000  -5.645342e+001  -6.078889e+001 
4353125000  -5.658924e+001  -7.918773e+001 
4356250000  -5.781861e+001  -6.875591e+001 
4359375000  -5.905296e+001  -4.556728e+001 
4362500000  -5.696729e+001  -7.844489e+001 
4365625000  -5.455115e+001  -8.816360e+001 
4368750000  -5.566618e+001  -1.004012e+002 
4371875000  -5.579219e+001  -1.116492e+002 
4375000000  -5.739378e+001  -1.122391e+002 
4378125000  -5.648467e+001  -1.169970e+002 
4381250000  -5.603061e+001  -1.378520e+002 
4384375000  -5.654210e+001  -1.496740e+002 
4387500000  -5.706829e+001  -1.460345e+002 
4390625000  -5.799465e+001  -1.562291e+002 
4393750000  -5.906656e+001  -1.378477e+002 
4396875000  -5.569152e+001  -1.559448e+002 
4400000000  -5.441926e+001  -1.715086e+002 
4403125000  -5.557621e+001  1.736018e+002 
4406250000  -5.645649e+001  1.701191e+002 
4409375000  -5.485795e+001  1.728971e+002 
4412500000  -5.642305e+001  1.714246e+002 
4415625000  -5.486748e+001  1.643925e+002 
4418750000  -5.388226e+001  1.641467e+002 
