!Agilent Technologies,E8363B,MY43030201,A.06.04.32
!Agilent E8363B: A.06.04.32
!Date: Tuesday, November 11, 2014 22:13:42
!Correction: S21(Response(S21)) 
!S1P File: Measurement: S21:
# Hz S  dB   R 50
3000000000  -4.891100e+001  -7.297043e+001 
3003125000  -5.123468e+001  -7.897038e+001 
3006250000  -5.175487e+001  -8.906956e+001 
3009375000  -5.138087e+001  -9.029966e+001 
3012500000  -5.120315e+001  -9.608922e+001 
3015625000  -5.115246e+001  -1.122650e+002 
3018750000  -5.155213e+001  -1.132685e+002 
3021875000  -5.013877e+001  -1.154879e+002 
3025000000  -4.890271e+001  -1.260542e+002 
3028125000  -4.821212e+001  -1.452207e+002 
3031250000  -4.704565e+001  -1.628748e+002 
3034375000  -4.702981e+001  1.796155e+002 
3037500000  -4.801467e+001  1.654364e+002 
3040625000  -4.885041e+001  1.547156e+002 
3043750000  -4.980217e+001  1.401261e+002 
3046875000  -4.976571e+001  1.298160e+002 
3050000000  -5.172061e+001  1.231734e+002 
3053125000  -5.115211e+001  1.195568e+002 
3056250000  -5.149672e+001  1.223394e+002 
3059375000  -5.025557e+001  1.109807e+002 
3062500000  -4.955085e+001  1.044527e+002 
3065625000  -4.850100e+001  8.402947e+001 
3068750000  -4.888829e+001  7.340923e+001 
3071875000  -4.898653e+001  6.761523e+001 
3075000000  -4.824389e+001  5.647430e+001 
3078125000  -4.858145e+001  4.141668e+001 
3081250000  -4.893719e+001  3.282924e+001 
3084375000  -4.820638e+001  2.667353e+001 
3087500000  -4.804845e+001  1.259147e+001 
3090625000  -4.784787e+001  -4.668793e+000 
3093750000  -4.877263e+001  -1.672751e+001 
3096875000  -4.940360e+001  -2.258953e+001 
3100000000  -4.931681e+001  -3.474279e+001 
3103125000  -4.976759e+001  -4.113813e+001 
3106250000  -4.933788e+001  -5.106212e+001 
3109375000  -4.963993e+001  -5.800275e+001 
3112500000  -4.945080e+001  -6.855391e+001 
3115625000  -4.936503e+001  -7.718758e+001 
3118750000  -4.950587e+001  -8.442195e+001 
3121875000  -4.890874e+001  -1.023643e+002 
3125000000  -5.103138e+001  -1.111677e+002 
3128125000  -5.063036e+001  -1.071895e+002 
3131250000  -4.831829e+001  -1.178187e+002 
3134375000  -4.762149e+001  -1.412134e+002 
3137500000  -4.875531e+001  -1.559732e+002 
3140625000  -4.979517e+001  -1.636193e+002 
3143750000  -5.081123e+001  -1.654579e+002 
3146875000  -5.001986e+001  -1.734258e+002 
3150000000  -4.886935e+001  1.798821e+002 
3153125000  -4.925418e+001  1.636085e+002 
3156250000  -4.993661e+001  1.649801e+002 
3159375000  -4.773270e+001  1.604215e+002 
3162500000  -4.655554e+001  1.358172e+002 
3165625000  -4.775851e+001  1.192281e+002 
3168750000  -4.784157e+001  1.167004e+002 
3171875000  -4.742034e+001  1.018078e+002 
3175000000  -4.808584e+001  8.924977e+001 
3178125000  -4.710289e+001  8.312009e+001 
3181250000  -4.717953e+001  6.782117e+001 
3184375000  -4.627925e+001  5.311171e+001 
3187500000  -4.805997e+001  3.370685e+001 
3190625000  -4.962086e+001  2.312041e+001 
3193750000  -5.012707e+001  2.119481e+001 
3196875000  -4.960330e+001  1.776831e+001 
3200000000  -4.800372e+001  8.198073e+000 
3203125000  -4.860583e+001  -5.218775e+000 
3206250000  -4.832757e+001  -1.791832e+001 
3209375000  -4.794128e+001  -2.811628e+001 
3212500000  -4.870348e+001  -4.155227e+001 
3215625000  -4.837596e+001  -4.494631e+001 
3218750000  -4.933956e+001  -6.438975e+001 
3221875000  -4.941611e+001  -7.666927e+001 
3225000000  -4.991574e+001  -8.326376e+001 
3228125000  -4.995589e+001  -9.247803e+001 
3231250000  -5.036624e+001  -1.040338e+002 
3234375000  -5.011057e+001  -1.080176e+002 
3237500000  -5.049293e+001  -1.196427e+002 
3240625000  -4.951811e+001  -1.281152e+002 
3243750000  -5.032096e+001  -1.446255e+002 
3246875000  -5.013326e+001  -1.579068e+002 
3250000000  -5.065501e+001  -1.662711e+002 
3253125000  -5.156652e+001  -1.689662e+002 
3256250000  -5.079727e+001  1.704721e+002 
3259375000  -5.159124e+001  1.571635e+002 
3262500000  -5.289908e+001  1.501527e+002 
3265625000  -5.333158e+001  1.464916e+002 
3268750000  -5.290232e+001  1.407755e+002 
3271875000  -5.259555e+001  1.312800e+002 
3275000000  -5.157331e+001  1.236395e+002 
3278125000  -5.251574e+001  1.095737e+002 
3281250000  -5.269225e+001  1.077514e+002 
3284375000  -5.178923e+001  9.184413e+001 
3287500000  -5.409438e+001  8.243833e+001 
3290625000  -5.318536e+001  7.076796e+001 
3293750000  -5.248875e+001  6.060218e+001 
3296875000  -5.419814e+001  4.898423e+001 
3300000000  -5.458950e+001  4.832406e+001 
3303125000  -5.279056e+001  4.243638e+001 
3306250000  -5.313759e+001  2.693060e+001 
3309375000  -5.279730e+001  2.008950e+001 
3312500000  -5.365357e+001  -4.638267e+000 
3315625000  -5.425943e+001  -8.126386e+000 
3318750000  -5.559173e+001  -2.597239e+001 
3321875000  -5.806059e+001  -1.938234e+001 
3325000000  -5.614239e+001  -1.837088e+001 
3328125000  -5.564649e+001  -2.047447e+001 
3331250000  -5.466006e+001  -2.331237e+001 
3334375000  -5.181389e+001  -4.870508e+001 
3337500000  -5.229840e+001  -6.756898e+001 
3340625000  -5.407704e+001  -8.428696e+001 
3343750000  -5.648081e+001  -7.863155e+001 
3346875000  -5.532669e+001  -9.384785e+001 
3350000000  -5.482212e+001  -1.014819e+002 
3353125000  -5.475722e+001  -1.133602e+002 
3356250000  -5.512342e+001  -1.272308e+002 
3359375000  -5.509604e+001  -1.482354e+002 
3362500000  -5.601197e+001  -1.463621e+002 
3365625000  -5.524792e+001  -1.627595e+002 
3368750000  -5.718773e+001  -1.713887e+002 
3371875000  -5.603749e+001  -1.767630e+002 
3375000000  -5.788470e+001  1.676876e+002 
3378125000  -6.102393e+001  1.611926e+002 
3381250000  -6.004812e+001  1.716909e+002 
3384375000  -5.994424e+001  1.741638e+002 
3387500000  -5.563121e+001  1.561239e+002 
3390625000  -5.853955e+001  1.332930e+002 
3393750000  -5.786105e+001  1.161850e+002 
3396875000  -5.635454e+001  1.194540e+002 
3400000000  -5.572192e+001  9.657906e+001 
3403125000  -5.842330e+001  8.412562e+001 
3406250000  -5.763214e+001  7.784370e+001 
3409375000  -5.626183e+001  6.278048e+001 
3412500000  -5.926407e+001  5.162198e+001 
3415625000  -5.995608e+001  4.570100e+001 
3418750000  -5.868620e+001  4.077563e+001 
3421875000  -6.079185e+001  2.913608e+001 
3425000000  -5.877692e+001  4.218427e+001 
3428125000  -5.859216e+001  1.385693e+001 
3431250000  -6.218201e+001  -7.646909e+000 
3434375000  -5.964869e+001  -2.942756e+001 
3437500000  -6.192853e+001  -4.055720e+001 
3440625000  -6.220734e+001  -2.831368e+001 
3443750000  -6.012689e+001  -2.911522e+001 
3446875000  -6.086262e+001  -4.541959e+001 
3450000000  -6.246858e+001  -8.053903e+001 
3453125000  -6.299041e+001  -6.391264e+001 
3456250000  -6.262821e+001  -7.839315e+001 
3459375000  -6.791355e+001  -6.964303e+001 
3462500000  -7.009645e+001  -8.928227e+001 
3465625000  -6.386887e+001  -1.029101e+002 
3468750000  -7.155688e+001  -1.303180e+002 
3471875000  -6.275312e+001  -9.876389e+001 
3475000000  -6.378804e+001  -1.166066e+002 
3478125000  -6.953883e+001  -1.424775e+002 
3481250000  -7.288328e+001  -1.316777e+002 
3484375000  -6.971342e+001  -1.276476e+002 
3487500000  -6.529053e+001  -1.494944e+002 
3490625000  -6.587579e+001  -1.050506e+002 
3493750000  -7.161407e+001  -1.527269e+002 
3496875000  -7.560829e+001  1.723279e+002 
3500000000  -6.557339e+001  -1.667123e+002 
3503125000  -6.550960e+001  -1.615136e+002 
3506250000  -6.683854e+001  -1.626084e+002 
3509375000  -6.680081e+001  1.594342e+002 
3512500000  -6.693094e+001  1.265429e+002 
3515625000  -6.970402e+001  1.741629e+002 
3518750000  -6.588975e+001  1.206066e+002 
3521875000  -6.645631e+001  1.323973e+002 
3525000000  -6.574374e+001  1.123692e+002 
3528125000  -7.332535e+001  1.613275e+002 
3531250000  -7.110159e+001  1.459505e+002 
3534375000  -6.696314e+001  9.816876e+001 
3537500000  -7.037324e+001  5.416497e+001 
3540625000  -6.625164e+001  3.355050e+001 
3543750000  -7.714523e+001  6.831390e+001 
3546875000  -6.695226e+001  8.632270e+001 
3550000000  -9.273728e+001  1.247368e+002 
3553125000  -6.491451e+001  3.558453e+001 
3556250000  -7.776923e+001  2.776077e+001 
3559375000  -6.576882e+001  2.664940e+001 
3562500000  -7.817484e+001  9.818229e+001 
3565625000  -6.893076e+001  5.051777e+001 
3568750000  -7.468058e+001  8.485398e+001 
3571875000  -7.204559e+001  2.724081e+001 
3575000000  -7.296635e+001  -1.641638e+002 
3578125000  -6.993831e+001  5.874146e+001 
3581250000  -7.417622e+001  1.280367e+001 
3584375000  -7.402870e+001  4.911589e+001 
3587500000  -6.812749e+001  3.338945e+001 
3590625000  -7.038396e+001  -1.788007e+001 
3593750000  -7.454102e+001  -5.111433e+000 
3596875000  -6.460471e+001  2.917471e+001 
3600000000  -6.775063e+001  -1.809563e+001 
3603125000  -6.598878e+001  -1.768410e+001 
3606250000  -6.573686e+001  -1.935073e+001 
3609375000  -6.289722e+001  -3.869088e+001 
3612500000  -6.530118e+001  -4.904983e+001 
3615625000  -7.248746e+001  -6.949184e+001 
3618750000  -6.595071e+001  -8.510268e+001 
3621875000  -6.412114e+001  -7.950308e+001 
3625000000  -6.544514e+001  -7.248155e+001 
3628125000  -6.190680e+001  -1.088913e+002 
3631250000  -6.169653e+001  -1.001884e+002 
3634375000  -6.498158e+001  -1.063652e+002 
3637500000  -6.506261e+001  -1.186686e+002 
3640625000  -6.109826e+001  -1.469925e+002 
3643750000  -6.063667e+001  -1.401679e+002 
3646875000  -6.109182e+001  -1.692352e+002 
3650000000  -6.209137e+001  1.687332e+002 
3653125000  -6.119122e+001  1.757900e+002 
3656250000  -6.657098e+001  1.661105e+002 
3659375000  -6.642522e+001  1.637851e+002 
3662500000  -6.898676e+001  1.578624e+002 
3665625000  -6.328860e+001  1.431523e+002 
3668750000  -6.748925e+001  1.268495e+002 
3671875000  -6.316475e+001  1.158246e+002 
3675000000  -6.706559e+001  1.038634e+002 
3678125000  -6.539515e+001  9.932506e+001 
3681250000  -6.582616e+001  9.894653e+001 
3684375000  -6.825553e+001  9.939578e+001 
3687500000  -6.650075e+001  9.502062e+001 
3690625000  -6.846233e+001  2.661458e+001 
3693750000  -6.780042e+001  9.772194e+001 
3696875000  -6.397598e+001  1.341234e+002 
3700000000  -6.531203e+001  6.101272e+001 
3703125000  -6.780847e+001  5.534455e+001 
3706250000  -6.852911e+001  6.642554e+001 
3709375000  -6.602798e+001  6.467146e+001 
3712500000  -6.088716e+001  4.913929e+001 
3715625000  -6.448875e+001  4.677539e+001 
3718750000  -5.958316e+001  4.509969e+001 
3721875000  -6.072938e+001  1.030890e+001 
3725000000  -6.288530e+001  1.439518e+001 
3728125000  -6.063385e+001  -8.791632e+000 
3731250000  -6.060704e+001  -7.313529e+000 
3734375000  -5.861460e+001  -3.063556e+001 
3737500000  -5.766711e+001  -4.695547e+001 
3740625000  -6.070749e+001  -4.274826e+001 
3743750000  -6.041574e+001  -4.483945e+001 
3746875000  -5.846695e+001  -6.168370e+001 
3750000000  -5.838888e+001  -6.061552e+001 
3753125000  -5.861533e+001  -8.432674e+001 
3756250000  -5.858870e+001  -8.992614e+001 
3759375000  -5.701677e+001  -1.002130e+002 
3762500000  -5.631163e+001  -1.092216e+002 
3765625000  -5.811934e+001  -1.295925e+002 
3768750000  -5.680182e+001  -1.365753e+002 
3771875000  -5.654296e+001  -1.377642e+002 
3775000000  -5.741062e+001  -1.567173e+002 
3778125000  -5.742958e+001  -1.634595e+002 
3781250000  -5.643937e+001  -1.759632e+002 
3784375000  -5.858880e+001  1.687624e+002 
3787500000  -5.777870e+001  1.579112e+002 
3790625000  -5.837711e+001  1.408522e+002 
3793750000  -5.921845e+001  1.211360e+002 
3796875000  -5.648548e+001  1.339762e+002 
3800000000  -5.344140e+001  8.159098e+001 
3803125000  -5.770670e+001  1.019640e+002 
3806250000  -6.066830e+001  9.361829e+001 
3809375000  -5.736846e+001  8.067606e+001 
3812500000  -5.651112e+001  6.747394e+001 
3815625000  -6.178743e+001  3.180896e+001 
3818750000  -6.081094e+001  4.200735e+001 
3821875000  -6.374640e+001  8.119676e+001 
3825000000  -5.875003e+001  5.018127e+001 
3828125000  -5.966369e+001  3.255417e+001 
3831250000  -6.036811e+001  1.776711e+001 
3834375000  -6.229180e+001  -3.132174e+000 
3837500000  -6.656944e+001  4.652330e+001 
3840625000  -6.533398e+001  -1.900208e+001 
3843750000  -6.266812e+001  -1.638635e+001 
3846875000  -6.294569e+001  -3.892568e+000 
3850000000  -6.192870e+001  2.505954e+000 
3853125000  -6.430423e+001  -1.669506e+001 
3856250000  -5.847234e+001  3.359638e+000 
3859375000  -5.822397e+001  -3.371204e+001 
3862500000  -5.863557e+001  -2.956720e+001 
3865625000  -6.170920e+001  -4.675403e+001 
3868750000  -5.943283e+001  -3.247766e+001 
3871875000  -5.540933e+001  -7.160862e+001 
3875000000  -5.792969e+001  -7.069811e+001 
3878125000  -5.938834e+001  -7.842122e+001 
3881250000  -5.660252e+001  -8.752315e+001 
3884375000  -5.593765e+001  -1.071860e+002 
3887500000  -5.697983e+001  -1.141406e+002 
3890625000  -5.681895e+001  -1.270943e+002 
3893750000  -5.692732e+001  -1.253140e+002 
3896875000  -5.827671e+001  -1.366359e+002 
3900000000  -5.572828e+001  -1.609608e+002 
3903125000  -5.443414e+001  -1.448912e+002 
3906250000  -5.460917e+001  -1.592814e+002 
3909375000  -5.487490e+001  1.759296e+002 
3912500000  -5.494039e+001  1.665432e+002 
3915625000  -5.553322e+001  1.583536e+002 
3918750000  -5.441027e+001  1.555572e+002 
3921875000  -5.494865e+001  1.384399e+002 
3925000000  -5.343018e+001  1.299931e+002 
3928125000  -5.370857e+001  1.069229e+002 
3931250000  -5.443389e+001  1.071740e+002 
3934375000  -5.317701e+001  9.094012e+001 
3937500000  -5.547201e+001  8.055252e+001 
3940625000  -5.447572e+001  7.659187e+001 
3943750000  -5.460485e+001  5.797350e+001 
3946875000  -5.197914e+001  5.029840e+001 
3950000000  -5.549734e+001  3.098008e+001 
3953125000  -5.408834e+001  3.981335e+001 
3956250000  -5.404327e+001  2.326876e+001 
3959375000  -5.227821e+001  1.410905e+001 
3962500000  -5.321014e+001  -7.946745e+000 
3965625000  -5.471733e+001  -1.658035e+001 
3968750000  -5.546844e+001  -2.056714e+001 
3971875000  -5.410994e+001  -4.279301e+001 
3975000000  -5.436925e+001  -6.552398e+001 
3978125000  -5.470008e+001  -6.209222e+001 
3981250000  -5.507827e+001  -8.010831e+001 
3984375000  -5.572029e+001  -8.046352e+001 
3987500000  -5.671132e+001  -8.971595e+001 
3990625000  -5.804342e+001  -1.075851e+002 
3993750000  -5.809969e+001  -1.099039e+002 
3996875000  -5.900166e+001  -1.292516e+002 
4000000000  -5.812789e+001  -1.292568e+002 
4003125000  -6.107550e+001  -1.372056e+002 
4006250000  -5.582437e+001  -1.341565e+002 
4009375000  -5.737140e+001  -1.630480e+002 
4012500000  -5.962985e+001  -1.575419e+002 
4015625000  -6.041404e+001  -1.492445e+002 
4018750000  -5.828705e+001  -1.759131e+002 
4021875000  -5.890787e+001  1.781079e+002 
4025000000  -6.392842e+001  1.574042e+002 
4028125000  -6.186488e+001  1.536431e+002 
4031250000  -5.968475e+001  1.600841e+002 
4034375000  -6.051123e+001  1.718139e+002 
4037500000  -5.793651e+001  1.590133e+002 
4040625000  -6.188645e+001  1.681164e+002 
4043750000  -5.704959e+001  1.526653e+002 
4046875000  -5.800575e+001  1.448133e+002 
4050000000  -5.663951e+001  1.291191e+002 
4053125000  -5.763321e+001  1.109260e+002 
4056250000  -5.867214e+001  1.280474e+002 
4059375000  -5.624743e+001  1.140046e+002 
4062500000  -5.613558e+001  9.035200e+001 
4065625000  -5.438439e+001  8.673290e+001 
4068750000  -5.469792e+001  6.812885e+001 
4071875000  -5.312093e+001  5.801852e+001 
4075000000  -5.503182e+001  4.947116e+001 
4078125000  -5.310307e+001  3.582392e+001 
4081250000  -5.329446e+001  3.013250e+001 
4084375000  -5.162229e+001  1.438060e+001 
4087500000  -5.391177e+001  -6.387003e+000 
4090625000  -5.427983e+001  -1.986638e+000 
4093750000  -5.318016e+001  -1.894821e+001 
4096875000  -5.269518e+001  -2.944325e+001 
4100000000  -5.414093e+001  -4.220227e+001 
4103125000  -5.424828e+001  -4.941845e+001 
4106250000  -5.309027e+001  -5.274578e+001 
4109375000  -5.374284e+001  -6.274464e+001 
4112500000  -5.213814e+001  -7.665511e+001 
4115625000  -5.342278e+001  -9.173159e+001 
4118750000  -5.299008e+001  -1.027647e+002 
4121875000  -5.316640e+001  -1.199443e+002 
4125000000  -5.346624e+001  -1.233789e+002 
4128125000  -5.462568e+001  -1.397206e+002 
4131250000  -5.280819e+001  -1.287748e+002 
4134375000  -5.134299e+001  -1.476844e+002 
4137500000  -5.231318e+001  -1.688940e+002 
4140625000  -5.454924e+001  1.745803e+002 
4143750000  -5.520786e+001  1.759114e+002 
4146875000  -5.504494e+001  1.702742e+002 
4150000000  -5.439482e+001  1.590232e+002 
4153125000  -5.508068e+001  1.548946e+002 
4156250000  -5.473587e+001  1.302856e+002 
4159375000  -5.614185e+001  1.362099e+002 
4162500000  -5.727060e+001  1.219096e+002 
4165625000  -5.342541e+001  1.117357e+002 
4168750000  -5.406622e+001  9.939262e+001 
4171875000  -5.490874e+001  8.036387e+001 
4175000000  -5.571852e+001  5.726046e+001 
4178125000  -5.886601e+001  5.236068e+001 
4181250000  -5.664638e+001  4.263399e+001 
4184375000  -5.922058e+001  3.238411e+001 
4187500000  -5.857652e+001  3.165812e+001 
4190625000  -6.232887e+001  2.895517e+001 
4193750000  -6.104215e+001  2.848132e+001 
4196875000  -6.450555e+001  6.323455e+000 
4200000000  -6.133280e+001  3.970425e+001 
4203125000  -6.769698e+001  9.773187e+000 
4206250000  -6.060186e+001  2.888583e+001 
4209375000  -6.070123e+001  -1.269211e+001 
4212500000  -6.276169e+001  1.707584e+001 
4215625000  -6.735326e+001  9.733582e+000 
4218750000  -6.207385e+001  1.581468e+001 
4221875000  -5.906813e+001  -2.458920e+001 
4225000000  -6.399168e+001  2.181374e+001 
4228125000  -5.780856e+001  -2.519510e+001 
4231250000  -5.953755e+001  -3.916719e+001 
4234375000  -5.775532e+001  -3.373849e+001 
4237500000  -5.791705e+001  -4.341452e+001 
4240625000  -5.770630e+001  -6.030136e+001 
4243750000  -5.777830e+001  -6.721729e+001 
4246875000  -5.660080e+001  -7.342909e+001 
4250000000  -5.721436e+001  -8.846168e+001 
4253125000  -5.502238e+001  -7.356192e+001 
4256250000  -5.742211e+001  -9.777500e+001 
4259375000  -5.538652e+001  -1.098588e+002 
4262500000  -5.474549e+001  -1.177529e+002 
4265625000  -5.437373e+001  -1.208014e+002 
4268750000  -5.263414e+001  -1.401783e+002 
4271875000  -5.230402e+001  -1.557976e+002 
4275000000  -5.131432e+001  -1.647261e+002 
4278125000  -5.360651e+001  1.700558e+002 
4281250000  -5.576554e+001  1.587298e+002 
4284375000  -5.414685e+001  1.517500e+002 
4287500000  -5.570887e+001  1.519364e+002 
4290625000  -5.514393e+001  1.454718e+002 
4293750000  -5.357380e+001  1.456860e+002 
4296875000  -5.232997e+001  1.195819e+002 
4300000000  -5.379990e+001  1.131486e+002 
4303125000  -5.423980e+001  1.001242e+002 
4306250000  -5.250126e+001  9.994828e+001 
4309375000  -5.204921e+001  8.283374e+001 
4312500000  -5.223119e+001  6.473370e+001 
4315625000  -5.196888e+001  5.009710e+001 
4318750000  -5.360940e+001  4.603200e+001 
4321875000  -5.268444e+001  3.220888e+001 
4325000000  -5.363319e+001  2.462163e+001 
4328125000  -5.303511e+001  1.457323e+001 
4331250000  -5.253255e+001  -7.337239e+000 
4334375000  -5.436455e+001  -1.411739e+001 
4337500000  -5.496841e+001  -3.493578e+001 
4340625000  -5.463616e+001  -1.441367e+001 
4343750000  -5.459770e+001  -3.716440e+001 
4346875000  -5.522741e+001  -4.525903e+001 
4350000000  -5.613467e+001  -5.408448e+001 
4353125000  -5.542073e+001  -8.159814e+001 
4356250000  -5.840908e+001  -8.595065e+001 
4359375000  -5.673012e+001  -6.052494e+001 
4362500000  -5.636320e+001  -7.111348e+001 
4365625000  -5.575459e+001  -9.707458e+001 
4368750000  -5.539689e+001  -1.108943e+002 
4371875000  -5.628871e+001  -1.160217e+002 
4375000000  -5.770767e+001  -1.085374e+002 
4378125000  -5.616352e+001  -1.196123e+002 
4381250000  -5.742385e+001  -1.270809e+002 
4384375000  -5.661448e+001  -1.527780e+002 
4387500000  -5.879931e+001  -1.356296e+002 
4390625000  -5.759030e+001  -1.502761e+002 
4393750000  -5.625483e+001  -1.542665e+002 
4396875000  -5.509111e+001  -1.570158e+002 
4400000000  -5.549294e+001  -1.716147e+002 
4403125000  -5.563101e+001  1.779256e+002 
4406250000  -6.033836e+001  1.728734e+002 
4409375000  -5.429502e+001  1.711005e+002 
4412500000  -5.757817e+001  1.616910e+002 
4415625000  -5.651661e+001  1.639022e+002 
4418750000  -5.478031e+001  1.502317e+002 
