!Agilent Technologies,E8363B,MY43030201,A.06.04.32
!Agilent E8363B: A.06.04.32
!Date: Tuesday, November 11, 2014 22:09:19
!Correction: S21(Response(S21)) 
!S1P File: Measurement: S21:
# Hz S  dB   R 50
3000000000  -4.905907e+001  -7.821056e+001 
3003125000  -5.124482e+001  -8.333878e+001 
3006250000  -5.112320e+001  -8.745051e+001 
3009375000  -5.227074e+001  -9.054694e+001 
3012500000  -5.128931e+001  -9.801723e+001 
3015625000  -5.154728e+001  -1.108255e+002 
3018750000  -5.128394e+001  -1.150955e+002 
3021875000  -4.995584e+001  -1.192201e+002 
3025000000  -4.811127e+001  -1.298014e+002 
3028125000  -4.830598e+001  -1.466111e+002 
3031250000  -4.719342e+001  -1.649721e+002 
3034375000  -4.687300e+001  1.786520e+002 
3037500000  -4.781579e+001  1.626057e+002 
3040625000  -4.886405e+001  1.493219e+002 
3043750000  -5.003598e+001  1.402983e+002 
3046875000  -5.042229e+001  1.280125e+002 
3050000000  -5.146528e+001  1.224058e+002 
3053125000  -5.124408e+001  1.218213e+002 
3056250000  -5.122489e+001  1.226843e+002 
3059375000  -5.129685e+001  1.058486e+002 
3062500000  -4.878164e+001  9.871317e+001 
3065625000  -4.906124e+001  8.510015e+001 
3068750000  -4.895439e+001  7.540092e+001 
3071875000  -4.958709e+001  6.541543e+001 
3075000000  -4.864909e+001  5.551223e+001 
3078125000  -4.847145e+001  4.104308e+001 
3081250000  -4.920200e+001  3.322814e+001 
3084375000  -4.784420e+001  2.149128e+001 
3087500000  -4.821658e+001  8.376940e+000 
3090625000  -4.808688e+001  -8.595490e+000 
3093750000  -4.916578e+001  -1.679393e+001 
3096875000  -4.976981e+001  -2.551138e+001 
3100000000  -4.937522e+001  -3.203609e+001 
3103125000  -4.968961e+001  -4.070541e+001 
3106250000  -4.864026e+001  -4.856284e+001 
3109375000  -4.965067e+001  -5.997512e+001 
3112500000  -4.925229e+001  -7.151221e+001 
3115625000  -4.926457e+001  -8.006448e+001 
3118750000  -4.967612e+001  -8.484287e+001 
3121875000  -4.920450e+001  -1.040183e+002 
3125000000  -5.094134e+001  -1.125519e+002 
3128125000  -5.034495e+001  -1.074380e+002 
3131250000  -4.841031e+001  -1.170234e+002 
3134375000  -4.752522e+001  -1.411541e+002 
3137500000  -4.837986e+001  -1.564445e+002 
3140625000  -4.970758e+001  -1.629346e+002 
3143750000  -5.075212e+001  -1.709140e+002 
3146875000  -5.005182e+001  -1.756943e+002 
3150000000  -4.899194e+001  1.764018e+002 
3153125000  -4.919777e+001  1.616962e+002 
3156250000  -5.027224e+001  1.583047e+002 
3159375000  -4.799062e+001  1.592141e+002 
3162500000  -4.622650e+001  1.330160e+002 
3165625000  -4.778702e+001  1.179547e+002 
3168750000  -4.792783e+001  1.131612e+002 
3171875000  -4.735763e+001  1.003051e+002 
3175000000  -4.758197e+001  8.631449e+001 
3178125000  -4.733933e+001  7.979547e+001 
3181250000  -4.673666e+001  6.505460e+001 
3184375000  -4.694819e+001  5.178942e+001 
3187500000  -4.731363e+001  3.413760e+001 
3190625000  -4.940146e+001  1.864969e+001 
3193750000  -4.997620e+001  2.046687e+001 
3196875000  -4.964528e+001  1.630540e+001 
3200000000  -4.826929e+001  6.756499e+000 
3203125000  -4.812262e+001  -6.847403e+000 
3206250000  -4.871839e+001  -1.660205e+001 
3209375000  -4.828473e+001  -3.301920e+001 
3212500000  -4.903689e+001  -4.154958e+001 
3215625000  -4.841718e+001  -4.555091e+001 
3218750000  -4.925634e+001  -6.680368e+001 
3221875000  -4.934756e+001  -7.687057e+001 
3225000000  -4.957120e+001  -8.485859e+001 
3228125000  -5.029259e+001  -9.691337e+001 
3231250000  -5.095395e+001  -1.073604e+002 
3234375000  -5.016321e+001  -1.109898e+002 
3237500000  -5.091308e+001  -1.197823e+002 
3240625000  -5.026223e+001  -1.307742e+002 
3243750000  -4.944973e+001  -1.484271e+002 
3246875000  -4.983289e+001  -1.577977e+002 
3250000000  -5.054935e+001  -1.685548e+002 
3253125000  -5.122558e+001  -1.714195e+002 
3256250000  -5.068444e+001  1.758702e+002 
3259375000  -5.199623e+001  1.560015e+002 
3262500000  -5.310462e+001  1.496329e+002 
3265625000  -5.288357e+001  1.461696e+002 
3268750000  -5.311375e+001  1.454336e+002 
3271875000  -5.222801e+001  1.305149e+002 
3275000000  -5.223479e+001  1.194279e+002 
3278125000  -5.260761e+001  1.070559e+002 
3281250000  -5.342743e+001  1.028359e+002 
3284375000  -5.251984e+001  9.076762e+001 
3287500000  -5.361528e+001  8.114528e+001 
3290625000  -5.292918e+001  7.666125e+001 
3293750000  -5.270659e+001  6.069777e+001 
3296875000  -5.422437e+001  4.916806e+001 
3300000000  -5.470024e+001  4.100367e+001 
3303125000  -5.292954e+001  3.833676e+001 
3306250000  -5.279174e+001  2.659385e+001 
3309375000  -5.328876e+001  1.375657e+001 
3312500000  -5.339349e+001  -6.366197e+000 
3315625000  -5.373694e+001  -1.857639e+001 
3318750000  -5.585069e+001  -1.537791e+001 
3321875000  -5.750183e+001  -2.338796e+001 
3325000000  -5.688833e+001  -2.053413e+001 
3328125000  -5.581509e+001  -2.527961e+001 
3331250000  -5.456263e+001  -3.380232e+001 
3334375000  -5.169719e+001  -4.931028e+001 
3337500000  -5.229009e+001  -6.975240e+001 
3340625000  -5.358041e+001  -9.222635e+001 
3343750000  -5.693698e+001  -8.271340e+001 
3346875000  -5.464323e+001  -9.816088e+001 
3350000000  -5.430550e+001  -1.036133e+002 
3353125000  -5.458965e+001  -1.160424e+002 
3356250000  -5.476892e+001  -1.313035e+002 
3359375000  -5.558591e+001  -1.389559e+002 
3362500000  -5.558925e+001  -1.519760e+002 
3365625000  -5.504908e+001  -1.603401e+002 
3368750000  -5.717426e+001  -1.777235e+002 
3371875000  -5.636409e+001  1.708109e+002 
3375000000  -5.754362e+001  1.673301e+002 
3378125000  -5.912315e+001  1.707398e+002 
3381250000  -6.021296e+001  1.649189e+002 
3384375000  -5.738005e+001  1.645635e+002 
3387500000  -5.305521e+001  1.496964e+002 
3390625000  -5.562193e+001  1.364516e+002 
3393750000  -5.755713e+001  1.163077e+002 
3396875000  -5.768507e+001  1.160459e+002 
3400000000  -5.492926e+001  9.440434e+001 
3403125000  -5.638560e+001  8.949378e+001 
3406250000  -5.747242e+001  7.752261e+001 
3409375000  -5.729243e+001  5.156492e+001 
3412500000  -5.778461e+001  5.707803e+001 
3415625000  -6.019031e+001  4.061283e+001 
3418750000  -5.896029e+001  3.892601e+001 
3421875000  -6.032755e+001  2.470220e+001 
3425000000  -6.079832e+001  2.800191e+001 
3428125000  -5.736991e+001  -1.900260e+000 
3431250000  -6.044951e+001  -6.742270e+000 
3434375000  -5.883373e+001  -2.665185e+001 
3437500000  -6.283699e+001  -2.757056e+001 
3440625000  -6.029192e+001  -1.885207e+001 
3443750000  -6.253786e+001  -2.143764e+001 
3446875000  -6.004269e+001  -4.479500e+001 
3450000000  -6.373856e+001  -7.975614e+001 
3453125000  -6.773728e+001  -5.377101e+001 
3456250000  -6.555109e+001  -9.792474e+001 
3459375000  -6.450084e+001  -6.055843e+001 
3462500000  -7.021462e+001  -9.809770e+001 
3465625000  -6.557870e+001  -1.266726e+002 
3468750000  -6.483111e+001  -1.208430e+002 
3471875000  -6.871238e+001  -1.016417e+002 
3475000000  -6.850998e+001  -9.564443e+001 
3478125000  -7.505867e+001  1.306526e+002 
3481250000  -7.395802e+001  -1.106243e+002 
3484375000  -6.802761e+001  -1.322463e+002 
3487500000  -6.800274e+001  -1.455174e+002 
3490625000  -6.513421e+001  -1.264231e+002 
3493750000  -6.955472e+001  -1.664874e+002 
3496875000  -7.182977e+001  -1.778575e+002 
3500000000  -6.736366e+001  -1.734152e+002 
3503125000  -6.532918e+001  -1.559009e+002 
3506250000  -6.626007e+001  -1.435386e+002 
3509375000  -6.454263e+001  1.690163e+002 
3512500000  -6.608363e+001  1.271104e+002 
3515625000  -6.979937e+001  1.517087e+002 
3518750000  -6.223036e+001  1.443725e+002 
3521875000  -7.105959e+001  1.357612e+002 
3525000000  -6.550891e+001  1.015693e+002 
3528125000  -6.488907e+001  1.416627e+002 
3531250000  -6.234398e+001  1.231663e+002 
3534375000  -6.416449e+001  1.060615e+002 
3537500000  -6.650004e+001  8.057146e+001 
3540625000  -7.290902e+001  3.977027e+001 
3543750000  -7.568800e+001  9.638296e+001 
3546875000  -7.303805e+001  6.275688e+001 
3550000000  -6.531797e+001  7.654040e+001 
3553125000  -7.203298e+001  4.302965e+001 
3556250000  -7.072383e+001  5.404016e+001 
3559375000  -6.453158e+001  4.951698e+001 
3562500000  -7.425227e+001  9.991049e+001 
3565625000  -7.306133e+001  1.965555e+001 
3568750000  -8.003000e+001  5.728964e+001 
3571875000  -7.135233e+001  3.269256e+001 
3575000000  -6.793505e+001  3.930147e+000 
3578125000  -7.933408e+001  -1.475071e+001 
3581250000  -7.162651e+001  5.765458e+001 
3584375000  -8.143948e+001  3.526793e+001 
3587500000  -6.745425e+001  1.666529e+001 
3590625000  -6.791066e+001  5.129268e+000 
3593750000  -7.187686e+001  4.551987e+000 
3596875000  -6.694044e+001  1.828630e+001 
3600000000  -6.442628e+001  -1.966432e+001 
3603125000  -6.622490e+001  8.306532e+000 
3606250000  -6.327832e+001  -4.547558e+001 
3609375000  -6.306859e+001  -2.814593e+001 
3612500000  -6.436454e+001  -5.340861e+001 
3615625000  -6.611588e+001  -3.602632e+001 
3618750000  -6.532056e+001  -6.978188e+001 
3621875000  -6.340794e+001  -1.022253e+002 
3625000000  -6.488934e+001  -7.975824e+001 
3628125000  -6.500158e+001  -1.255581e+002 
3631250000  -6.163287e+001  -1.102333e+002 
3634375000  -6.462646e+001  -1.210130e+002 
3637500000  -6.476167e+001  -1.224261e+002 
3640625000  -6.432227e+001  -1.328678e+002 
3643750000  -6.328907e+001  -1.514029e+002 
3646875000  -6.097496e+001  -1.649620e+002 
3650000000  -6.448550e+001  -1.736867e+002 
3653125000  -6.292907e+001  1.710035e+002 
3656250000  -6.668024e+001  1.668229e+002 
3659375000  -6.259966e+001  1.609864e+002 
3662500000  -6.400141e+001  1.695167e+002 
3665625000  -6.550500e+001  1.513921e+002 
3668750000  -6.247026e+001  1.128352e+002 
3671875000  -6.585719e+001  1.173043e+002 
3675000000  -6.094318e+001  1.097413e+002 
3678125000  -6.451780e+001  1.197139e+002 
3681250000  -6.173005e+001  7.850899e+001 
3684375000  -6.769782e+001  7.658707e+001 
3687500000  -6.374152e+001  6.362513e+001 
3690625000  -7.302220e+001  1.100686e+002 
3693750000  -6.509913e+001  8.967458e+001 
3696875000  -6.529693e+001  7.665717e+001 
3700000000  -6.314856e+001  7.534793e+001 
3703125000  -6.783326e+001  6.053773e+001 
3706250000  -6.572932e+001  6.837229e+001 
3709375000  -6.460719e+001  5.940464e+001 
3712500000  -6.274575e+001  5.936890e+001 
3715625000  -6.163672e+001  3.756431e+001 
3718750000  -6.254420e+001  4.457817e+001 
3721875000  -6.130938e+001  3.832021e+000 
3725000000  -6.304214e+001  2.625172e+001 
3728125000  -6.102062e+001  1.376805e+000 
3731250000  -5.960649e+001  -1.441379e+000 
3734375000  -5.963961e+001  -1.916509e+001 
3737500000  -6.058278e+001  -3.706382e+001 
3740625000  -6.006512e+001  -5.161261e+001 
3743750000  -5.856342e+001  -4.973233e+001 
3746875000  -5.798948e+001  -5.028018e+001 
3750000000  -5.832270e+001  -1.036070e+002 
3753125000  -5.917036e+001  -8.460952e+001 
3756250000  -5.814576e+001  -9.345708e+001 
3759375000  -5.731872e+001  -1.088575e+002 
3762500000  -5.836244e+001  -1.133380e+002 
3765625000  -6.021259e+001  -1.328433e+002 
3768750000  -6.183810e+001  -1.288268e+002 
3771875000  -5.613573e+001  -1.417965e+002 
3775000000  -5.585408e+001  -1.689294e+002 
3778125000  -5.853973e+001  -1.764147e+002 
3781250000  -5.653180e+001  1.741533e+002 
3784375000  -5.672699e+001  1.727507e+002 
3787500000  -5.892002e+001  1.477771e+002 
3790625000  -5.720557e+001  1.337707e+002 
3793750000  -5.793043e+001  1.321173e+002 
3796875000  -5.624099e+001  1.236669e+002 
3800000000  -5.328545e+001  8.039174e+001 
3803125000  -5.674417e+001  9.584182e+001 
3806250000  -5.900016e+001  7.354592e+001 
3809375000  -5.742118e+001  6.982600e+001 
3812500000  -5.955635e+001  5.538643e+001 
3815625000  -5.807405e+001  3.905154e+001 
3818750000  -6.070989e+001  5.346536e+001 
3821875000  -6.157970e+001  5.128585e+001 
3825000000  -5.847884e+001  2.959448e+001 
3828125000  -5.612344e+001  2.585077e+001 
3831250000  -6.065607e+001  8.397972e+000 
3834375000  -6.225139e+001  -2.005836e+001 
3837500000  -6.472475e+001  -1.435803e+001 
3840625000  -6.106811e+001  -5.484611e+000 
3843750000  -6.069918e+001  -1.900894e+001 
3846875000  -6.025124e+001  -1.928078e+001 
3850000000  -6.204039e+001  5.728330e+000 
3853125000  -6.506868e+001  -1.441235e+001 
3856250000  -5.744947e+001  -4.192274e+000 
3859375000  -5.832473e+001  -4.349936e+001 
3862500000  -5.963448e+001  -3.378546e+001 
3865625000  -6.142173e+001  -5.276405e+001 
3868750000  -5.827936e+001  -5.543729e+001 
3871875000  -5.804176e+001  -7.038776e+001 
3875000000  -6.108151e+001  -8.117797e+001 
3878125000  -5.777917e+001  -7.304610e+001 
3881250000  -5.794574e+001  -1.017884e+002 
3884375000  -5.546129e+001  -1.011100e+002 
3887500000  -5.660526e+001  -1.249232e+002 
3890625000  -5.707990e+001  -1.236254e+002 
3893750000  -5.783041e+001  -1.313559e+002 
3896875000  -5.759074e+001  -1.384619e+002 
3900000000  -5.684093e+001  -1.518894e+002 
3903125000  -5.631724e+001  -1.590984e+002 
3906250000  -5.393394e+001  -1.710961e+002 
3909375000  -5.598034e+001  1.714785e+002 
3912500000  -5.438901e+001  1.570655e+002 
3915625000  -5.536611e+001  1.592632e+002 
3918750000  -5.404881e+001  1.519655e+002 
3921875000  -5.550533e+001  1.391620e+002 
3925000000  -5.361902e+001  1.326483e+002 
3928125000  -5.249330e+001  1.080136e+002 
3931250000  -5.352719e+001  1.023826e+002 
3934375000  -5.366644e+001  9.363255e+001 
3937500000  -5.611322e+001  7.637557e+001 
3940625000  -5.448452e+001  7.298122e+001 
3943750000  -5.364122e+001  7.048896e+001 
3946875000  -5.250921e+001  4.511257e+001 
3950000000  -5.367804e+001  2.991087e+001 
3953125000  -5.352634e+001  3.720869e+001 
3956250000  -5.416855e+001  1.698436e+001 
3959375000  -5.223746e+001  8.860807e+000 
3962500000  -5.194193e+001  -6.327268e+000 
3965625000  -5.356676e+001  -1.427514e+001 
3968750000  -5.592437e+001  -3.076183e+001 
3971875000  -5.444528e+001  -3.819696e+001 
3975000000  -5.431877e+001  -5.233760e+001 
3978125000  -5.347944e+001  -5.456062e+001 
3981250000  -5.497770e+001  -7.264292e+001 
3984375000  -5.560836e+001  -8.815032e+001 
3987500000  -5.480139e+001  -1.018685e+002 
3990625000  -5.669966e+001  -1.091119e+002 
3993750000  -5.756081e+001  -1.158084e+002 
3996875000  -5.685544e+001  -1.331985e+002 
4000000000  -6.019255e+001  -1.262078e+002 
4003125000  -5.910797e+001  -1.280658e+002 
4006250000  -5.658649e+001  -1.378425e+002 
4009375000  -5.655086e+001  -1.579766e+002 
4012500000  -5.751210e+001  -1.741585e+002 
4015625000  -6.087027e+001  -1.726093e+002 
4018750000  -5.946134e+001  -1.641543e+002 
4021875000  -5.817963e+001  -1.686317e+002 
4025000000  -5.832841e+001  1.604737e+002 
4028125000  -6.007257e+001  1.788099e+002 
4031250000  -5.904653e+001  1.641650e+002 
4034375000  -5.985351e+001  1.633529e+002 
4037500000  -5.864147e+001  1.483898e+002 
4040625000  -6.031013e+001  1.406447e+002 
4043750000  -5.858578e+001  1.476821e+002 
4046875000  -5.684434e+001  1.343093e+002 
4050000000  -5.737974e+001  1.283572e+002 
4053125000  -6.142586e+001  1.143261e+002 
4056250000  -5.870647e+001  1.155309e+002 
4059375000  -5.610304e+001  1.050551e+002 
4062500000  -5.576193e+001  9.981575e+001 
4065625000  -5.388527e+001  6.949519e+001 
4068750000  -5.445115e+001  6.389289e+001 
4071875000  -5.299219e+001  6.090982e+001 
4075000000  -5.350006e+001  3.674128e+001 
4078125000  -5.314404e+001  3.750103e+001 
4081250000  -5.236756e+001  2.592451e+001 
4084375000  -5.204994e+001  1.122434e+001 
4087500000  -5.462577e+001  -6.683518e+000 
4090625000  -5.307568e+001  -5.983377e+000 
4093750000  -5.367524e+001  -1.976192e+001 
4096875000  -5.341598e+001  -3.308708e+001 
4100000000  -5.387222e+001  -5.456306e+001 
4103125000  -5.473618e+001  -4.657438e+001 
4106250000  -5.383999e+001  -5.503986e+001 
4109375000  -5.387118e+001  -6.806033e+001 
4112500000  -5.199300e+001  -8.414252e+001 
4115625000  -5.333841e+001  -9.233485e+001 
4118750000  -5.293423e+001  -1.008444e+002 
4121875000  -5.259098e+001  -1.260329e+002 
4125000000  -5.392168e+001  -1.214635e+002 
4128125000  -5.487747e+001  -1.461606e+002 
4131250000  -5.318800e+001  -1.321217e+002 
4134375000  -5.049683e+001  -1.503086e+002 
4137500000  -5.196052e+001  1.783952e+002 
4140625000  -5.416283e+001  1.719523e+002 
4143750000  -5.594146e+001  1.696204e+002 
4146875000  -5.344744e+001  1.604810e+002 
4150000000  -5.504745e+001  1.455510e+002 
4153125000  -5.298719e+001  1.379733e+002 
4156250000  -5.545005e+001  1.283634e+002 
4159375000  -5.586985e+001  1.263263e+002 
4162500000  -5.566377e+001  1.171341e+002 
4165625000  -5.354742e+001  1.139445e+002 
4168750000  -5.440692e+001  8.523257e+001 
4171875000  -5.446822e+001  7.834688e+001 
4175000000  -5.614037e+001  6.129189e+001 
4178125000  -5.714673e+001  7.235352e+001 
4181250000  -5.654696e+001  3.404364e+001 
4184375000  -6.038716e+001  2.516707e+001 
4187500000  -5.715557e+001  3.278440e+001 
4190625000  -6.085542e+001  3.015716e+001 
4193750000  -5.797372e+001  1.986841e+001 
4196875000  -6.316491e+001  -1.984782e+000 
4200000000  -6.561555e+001  1.923727e+001 
4203125000  -6.570987e+001  8.957300e-001 
4206250000  -5.940374e+001  3.137213e+001 
4209375000  -6.019499e+001  8.397843e+000 
4212500000  -6.600753e+001  -8.331828e+000 
4215625000  -6.484146e+001  1.723250e+001 
4218750000  -6.630508e+001  2.569052e+001 
4221875000  -6.301455e+001  -3.805492e+001 
4225000000  -6.260904e+001  -1.537054e+001 
4228125000  -5.911698e+001  -2.857633e+001 
4231250000  -6.021384e+001  -5.786019e+000 
4234375000  -5.808734e+001  -4.922803e+001 
4237500000  -5.693811e+001  -4.519288e+001 
4240625000  -5.430410e+001  -6.885616e+001 
4243750000  -5.761275e+001  -6.877631e+001 
4246875000  -5.784780e+001  -6.720137e+001 
4250000000  -5.770301e+001  -7.901235e+001 
4253125000  -5.449758e+001  -8.549974e+001 
4256250000  -5.510182e+001  -1.008632e+002 
4259375000  -5.496618e+001  -1.122715e+002 
4262500000  -5.447890e+001  -1.277492e+002 
4265625000  -5.344750e+001  -1.277432e+002 
4268750000  -5.378643e+001  -1.502402e+002 
4271875000  -5.261047e+001  -1.611237e+002 
4275000000  -5.147806e+001  -1.729745e+002 
4278125000  -5.316828e+001  1.596133e+002 
4281250000  -5.431157e+001  1.601882e+002 
4284375000  -5.435907e+001  1.557360e+002 
4287500000  -5.503058e+001  1.442066e+002 
4290625000  -5.601665e+001  1.358816e+002 
4293750000  -5.266675e+001  1.403604e+002 
4296875000  -5.210363e+001  1.178716e+002 
4300000000  -5.239572e+001  1.084903e+002 
4303125000  -5.298185e+001  9.118760e+001 
4306250000  -5.305955e+001  9.003623e+001 
4309375000  -5.114139e+001  7.461472e+001 
4312500000  -5.224448e+001  6.843130e+001 
4315625000  -5.207270e+001  5.143234e+001 
4318750000  -5.288241e+001  4.261313e+001 
4321875000  -5.221282e+001  3.613880e+001 
4325000000  -5.381596e+001  1.650229e+001 
4328125000  -5.176868e+001  8.428857e+000 
4331250000  -5.335345e+001  -1.237110e+001 
4334375000  -5.524350e+001  -2.117867e+001 
4337500000  -5.446505e+001  -3.214912e+001 
4340625000  -5.451173e+001  -2.570127e+001 
4343750000  -5.577633e+001  -3.583101e+001 
4346875000  -5.453682e+001  -4.031267e+001 
4350000000  -5.573228e+001  -5.767825e+001 
4353125000  -5.797645e+001  -8.108092e+001 
4356250000  -5.702155e+001  -6.847037e+001 
4359375000  -6.057096e+001  -4.102349e+001 
4362500000  -5.623907e+001  -7.164989e+001 
4365625000  -5.581937e+001  -9.964658e+001 
4368750000  -5.529197e+001  -9.518270e+001 
4371875000  -5.765962e+001  -1.145780e+002 
4375000000  -5.671756e+001  -1.107858e+002 
4378125000  -5.758876e+001  -1.276290e+002 
4381250000  -5.981638e+001  -1.327703e+002 
4384375000  -5.648263e+001  -1.517192e+002 
4387500000  -5.828664e+001  -1.462029e+002 
4390625000  -5.820058e+001  -1.524460e+002 
4393750000  -5.719012e+001  -1.543180e+002 
4396875000  -5.547395e+001  -1.678356e+002 
4400000000  -5.548817e+001  -1.708871e+002 
4403125000  -5.511744e+001  1.703764e+002 
4406250000  -5.651133e+001  1.778677e+002 
4409375000  -5.744994e+001  1.600116e+002 
4412500000  -5.835865e+001  1.454361e+002 
4415625000  -5.441314e+001  1.713751e+002 
4418750000  -5.431932e+001  1.485704e+002 
