!Agilent Technologies,E8363B,MY43030201,A.06.04.32
!Agilent E8363B: A.06.04.32
!Date: Tuesday, November 11, 2014 22:11:11
!Correction: S21(Response(S21)) 
!S1P File: Measurement: S21:
# Hz S  dB   R 50
3000000000  -4.870119e+001  -7.522462e+001 
3003125000  -5.134387e+001  -8.140733e+001 
3006250000  -5.192891e+001  -9.009956e+001 
3009375000  -5.229661e+001  -9.060571e+001 
3012500000  -5.132515e+001  -9.601540e+001 
3015625000  -5.169476e+001  -1.069869e+002 
3018750000  -5.181503e+001  -1.177850e+002 
3021875000  -4.980543e+001  -1.187968e+002 
3025000000  -4.842272e+001  -1.286316e+002 
3028125000  -4.804961e+001  -1.434709e+002 
3031250000  -4.731266e+001  -1.647668e+002 
3034375000  -4.727182e+001  1.780611e+002 
3037500000  -4.790399e+001  1.656723e+002 
3040625000  -4.926630e+001  1.535606e+002 
3043750000  -5.007746e+001  1.385431e+002 
3046875000  -5.037449e+001  1.277708e+002 
3050000000  -5.142273e+001  1.229318e+002 
3053125000  -5.097836e+001  1.196983e+002 
3056250000  -5.113977e+001  1.182499e+002 
3059375000  -5.062661e+001  1.103265e+002 
3062500000  -4.912881e+001  9.747505e+001 
3065625000  -4.900099e+001  8.303143e+001 
3068750000  -4.902055e+001  6.988887e+001 
3071875000  -4.931675e+001  6.822908e+001 
3075000000  -4.833611e+001  5.572621e+001 
3078125000  -4.851609e+001  4.164761e+001 
3081250000  -4.930782e+001  3.268445e+001 
3084375000  -4.805723e+001  2.510626e+001 
3087500000  -4.816723e+001  1.086791e+001 
3090625000  -4.788377e+001  -5.170714e+000 
3093750000  -4.922598e+001  -1.775841e+001 
3096875000  -4.958613e+001  -2.567317e+001 
3100000000  -4.928989e+001  -3.395867e+001 
3103125000  -4.959597e+001  -4.171799e+001 
3106250000  -4.965220e+001  -4.949759e+001 
3109375000  -4.897279e+001  -6.181174e+001 
3112500000  -4.928077e+001  -6.921272e+001 
3115625000  -4.928708e+001  -7.902341e+001 
3118750000  -4.935324e+001  -8.828465e+001 
3121875000  -4.879111e+001  -9.944859e+001 
3125000000  -5.146629e+001  -1.129313e+002 
3128125000  -5.042585e+001  -1.063143e+002 
3131250000  -4.876115e+001  -1.209528e+002 
3134375000  -4.729110e+001  -1.378319e+002 
3137500000  -4.863155e+001  -1.580266e+002 
3140625000  -4.958666e+001  -1.637419e+002 
3143750000  -5.052386e+001  -1.684106e+002 
3146875000  -4.983096e+001  -1.748953e+002 
3150000000  -4.881569e+001  1.788326e+002 
3153125000  -4.928179e+001  1.614057e+002 
3156250000  -5.036375e+001  1.651415e+002 
3159375000  -4.795706e+001  1.582063e+002 
3162500000  -4.645095e+001  1.358082e+002 
3165625000  -4.739089e+001  1.189113e+002 
3168750000  -4.776480e+001  1.155524e+002 
3171875000  -4.735298e+001  1.025569e+002 
3175000000  -4.738843e+001  8.783192e+001 
3178125000  -4.768590e+001  7.971053e+001 
3181250000  -4.660720e+001  6.680494e+001 
3184375000  -4.643213e+001  5.134303e+001 
3187500000  -4.769930e+001  3.233993e+001 
3190625000  -4.927953e+001  2.235637e+001 
3193750000  -4.969765e+001  1.946697e+001 
3196875000  -4.972511e+001  1.665742e+001 
3200000000  -4.822219e+001  8.721291e+000 
3203125000  -4.844843e+001  -3.197094e+000 
3206250000  -4.818979e+001  -1.767599e+001 
3209375000  -4.820385e+001  -3.301186e+001 
3212500000  -4.889957e+001  -4.412746e+001 
3215625000  -4.823314e+001  -4.885976e+001 
3218750000  -4.929591e+001  -6.795152e+001 
3221875000  -4.918101e+001  -7.852206e+001 
3225000000  -4.994786e+001  -8.723416e+001 
3228125000  -5.009591e+001  -9.172820e+001 
3231250000  -5.112251e+001  -1.064870e+002 
3234375000  -4.973567e+001  -1.102455e+002 
3237500000  -5.013613e+001  -1.182832e+002 
3240625000  -5.027849e+001  -1.283765e+002 
3243750000  -5.000997e+001  -1.497599e+002 
3246875000  -5.001455e+001  -1.556383e+002 
3250000000  -5.153016e+001  -1.675984e+002 
3253125000  -5.124695e+001  -1.724831e+002 
3256250000  -5.009389e+001  1.754453e+002 
3259375000  -5.110415e+001  1.601031e+002 
3262500000  -5.248777e+001  1.487520e+002 
3265625000  -5.358751e+001  1.484117e+002 
3268750000  -5.345470e+001  1.418216e+002 
3271875000  -5.279186e+001  1.279668e+002 
3275000000  -5.140557e+001  1.224093e+002 
3278125000  -5.180338e+001  1.090905e+002 
3281250000  -5.345362e+001  1.001111e+002 
3284375000  -5.221211e+001  8.926868e+001 
3287500000  -5.355649e+001  8.542059e+001 
3290625000  -5.294670e+001  7.266359e+001 
3293750000  -5.253508e+001  6.055307e+001 
3296875000  -5.384877e+001  5.022298e+001 
3300000000  -5.448774e+001  4.281559e+001 
3303125000  -5.339581e+001  3.977812e+001 
3306250000  -5.314197e+001  1.979934e+001 
3309375000  -5.268096e+001  1.327166e+001 
3312500000  -5.343806e+001  -3.785169e+000 
3315625000  -5.473927e+001  -1.168910e+001 
3318750000  -5.512358e+001  -1.780888e+001 
3321875000  -5.607774e+001  -2.722151e+001 
3325000000  -5.554660e+001  -2.731373e+001 
3328125000  -5.566761e+001  -2.442397e+001 
3331250000  -5.327588e+001  -2.887936e+001 
3334375000  -5.177127e+001  -4.912791e+001 
3337500000  -5.171451e+001  -7.659405e+001 
3340625000  -5.446117e+001  -9.107420e+001 
3343750000  -5.520212e+001  -8.486988e+001 
3346875000  -5.577576e+001  -1.012753e+002 
3350000000  -5.430616e+001  -9.807643e+001 
3353125000  -5.395087e+001  -1.177801e+002 
3356250000  -5.443518e+001  -1.278043e+002 
3359375000  -5.560954e+001  -1.464151e+002 
3362500000  -5.746766e+001  -1.506452e+002 
3365625000  -5.524324e+001  -1.628354e+002 
3368750000  -5.640401e+001  -1.683597e+002 
3371875000  -5.647545e+001  1.759151e+002 
3375000000  -5.927950e+001  1.695570e+002 
3378125000  -6.107004e+001  1.753040e+002 
3381250000  -6.168170e+001  1.727227e+002 
3384375000  -5.672813e+001  1.781397e+002 
3387500000  -5.481018e+001  1.630066e+002 
3390625000  -5.577242e+001  1.173190e+002 
3393750000  -5.736730e+001  1.151013e+002 
3396875000  -5.693340e+001  1.149589e+002 
3400000000  -5.581283e+001  9.889655e+001 
3403125000  -5.831994e+001  9.198723e+001 
3406250000  -5.836889e+001  7.521992e+001 
3409375000  -5.716662e+001  6.229502e+001 
3412500000  -5.805177e+001  4.724483e+001 
3415625000  -5.838078e+001  3.136040e+001 
3418750000  -6.096876e+001  3.814091e+001 
3421875000  -5.832067e+001  2.481371e+001 
3425000000  -6.251406e+001  2.926600e+001 
3428125000  -6.118309e+001  9.937861e+000 
3431250000  -6.129602e+001  1.073521e+001 
3434375000  -6.033986e+001  -2.201299e+001 
3437500000  -6.153621e+001  -2.139983e+001 
3440625000  -6.081625e+001  -2.897168e+001 
3443750000  -6.239981e+001  -1.261311e+001 
3446875000  -6.123335e+001  -5.130336e+001 
3450000000  -6.183794e+001  -8.637314e+001 
3453125000  -6.190253e+001  -7.382055e+001 
3456250000  -6.500018e+001  -1.044507e+002 
3459375000  -6.640840e+001  -7.621259e+001 
3462500000  -6.673929e+001  -1.032675e+002 
3465625000  -6.650910e+001  -1.281367e+002 
3468750000  -6.860070e+001  -1.265810e+002 
3471875000  -6.383409e+001  -1.147187e+002 
3475000000  -6.419424e+001  -1.053743e+002 
3478125000  -7.092720e+001  -8.491121e+001 
3481250000  -6.928331e+001  -1.404237e+002 
3484375000  -6.974099e+001  -9.000867e+001 
3487500000  -6.790314e+001  -1.464981e+002 
3490625000  -6.667933e+001  -1.306108e+002 
3493750000  -6.965920e+001  -1.230179e+002 
3496875000  -6.739565e+001  -1.506624e+002 
3500000000  -6.567261e+001  -1.735854e+002 
3503125000  -6.875971e+001  -1.508981e+002 
3506250000  -6.226554e+001  1.781921e+002 
3509375000  -6.596465e+001  -1.733194e+002 
3512500000  -6.640903e+001  1.453960e+002 
3515625000  -6.609953e+001  1.432240e+002 
3518750000  -6.705388e+001  1.423190e+002 
3521875000  -6.941621e+001  1.108957e+002 
3525000000  -6.389756e+001  1.026719e+002 
3528125000  -6.772869e+001  1.468691e+002 
3531250000  -6.685899e+001  1.347316e+002 
3534375000  -6.524017e+001  8.323117e+001 
3537500000  -6.417967e+001  7.820320e+001 
3540625000  -7.663831e+001  8.891900e+001 
3543750000  -6.959470e+001  1.217479e+002 
3546875000  -7.467349e+001  1.046011e+002 
3550000000  -6.744038e+001  7.011691e+001 
3553125000  -6.819479e+001  6.897710e+001 
3556250000  -6.654259e+001  5.464429e+001 
3559375000  -6.816621e+001  5.538237e+001 
3562500000  -1.049169e+002  3.384893e+001 
3565625000  -7.898715e+001  -7.385033e+001 
3568750000  -7.986826e+001  8.707763e+000 
3571875000  -7.071371e+001  4.618566e+001 
3575000000  -7.709122e+001  -8.312245e+001 
3578125000  -7.679490e+001  4.666653e+001 
3581250000  -7.479608e+001  -3.004060e+001 
3584375000  -7.434888e+001  1.051751e+002 
3587500000  -7.055850e+001  8.978533e+001 
3590625000  -7.066014e+001  8.682684e+000 
3593750000  -6.683678e+001  1.083278e+001 
3596875000  -6.879468e+001  1.841852e+001 
3600000000  -6.639993e+001  -1.086769e+001 
3603125000  -6.785677e+001  -3.388295e+001 
3606250000  -6.587325e+001  -3.488372e+001 
3609375000  -6.172393e+001  -3.294104e+001 
3612500000  -6.615700e+001  -3.607568e+001 
3615625000  -6.593049e+001  -3.862997e+001 
3618750000  -6.377459e+001  -5.991107e+001 
3621875000  -6.235092e+001  -7.628046e+001 
3625000000  -6.229945e+001  -8.227679e+001 
3628125000  -6.196976e+001  -1.204271e+002 
3631250000  -6.251109e+001  -1.132546e+002 
3634375000  -6.729877e+001  -1.253182e+002 
3637500000  -6.396400e+001  -1.171462e+002 
3640625000  -6.257428e+001  -1.404555e+002 
3643750000  -6.281532e+001  -1.590363e+002 
3646875000  -6.150677e+001  -1.708137e+002 
3650000000  -6.470737e+001  1.764225e+002 
3653125000  -6.346165e+001  1.670978e+002 
3656250000  -6.540858e+001  1.565742e+002 
3659375000  -6.520854e+001  1.271157e+002 
3662500000  -6.537150e+001  1.341709e+002 
3665625000  -6.201610e+001  1.391406e+002 
3668750000  -6.420884e+001  1.261915e+002 
3671875000  -6.691615e+001  1.073442e+002 
3675000000  -6.716989e+001  8.111998e+001 
3678125000  -6.737994e+001  1.205627e+002 
3681250000  -6.228795e+001  9.164386e+001 
3684375000  -6.998401e+001  1.020620e+002 
3687500000  -6.598261e+001  6.738767e+001 
3690625000  -7.012449e+001  5.008029e+001 
3693750000  -6.773963e+001  6.399483e+001 
3696875000  -6.893551e+001  2.629453e+001 
3700000000  -6.479051e+001  7.274721e+001 
3703125000  -6.902686e+001  3.957352e+001 
3706250000  -6.542057e+001  6.498158e+001 
3709375000  -6.644604e+001  4.838695e+001 
3712500000  -6.068014e+001  6.533268e+001 
3715625000  -6.126842e+001  3.803868e+001 
3718750000  -6.458985e+001  4.513227e+001 
3721875000  -6.230769e+001  2.087654e+001 
3725000000  -6.433184e+001  2.273627e+001 
3728125000  -5.873300e+001  9.172511e+000 
3731250000  -5.838577e+001  -2.852091e-001 
3734375000  -5.886991e+001  -1.581733e+001 
3737500000  -5.755043e+001  -2.320270e+001 
3740625000  -5.855482e+001  -4.413964e+001 
3743750000  -5.725636e+001  -6.689017e+001 
3746875000  -5.931895e+001  -7.077663e+001 
3750000000  -5.973233e+001  -8.040700e+001 
3753125000  -5.737691e+001  -9.027026e+001 
3756250000  -5.825686e+001  -9.516190e+001 
3759375000  -5.849051e+001  -1.046939e+002 
3762500000  -5.907935e+001  -1.151923e+002 
3765625000  -5.968799e+001  -1.268895e+002 
3768750000  -5.728270e+001  -1.330058e+002 
3771875000  -5.662350e+001  -1.459281e+002 
3775000000  -5.546235e+001  -1.620169e+002 
3778125000  -5.696262e+001  -1.726360e+002 
3781250000  -5.792564e+001  1.750239e+002 
3784375000  -5.645639e+001  1.709875e+002 
3787500000  -5.758700e+001  1.392334e+002 
3790625000  -5.737463e+001  1.440126e+002 
3793750000  -5.848901e+001  1.247919e+002 
3796875000  -5.760495e+001  1.212633e+002 
3800000000  -5.383649e+001  7.840002e+001 
3803125000  -5.773840e+001  9.543809e+001 
3806250000  -6.391933e+001  7.343997e+001 
3809375000  -5.854098e+001  8.254911e+001 
3812500000  -5.625824e+001  6.842386e+001 
3815625000  -6.001440e+001  3.766265e+001 
3818750000  -5.868092e+001  4.205932e+001 
3821875000  -6.094151e+001  5.059442e+001 
3825000000  -5.780830e+001  5.141407e+001 
3828125000  -5.921862e+001  2.521140e+001 
3831250000  -5.951545e+001  6.122308e+000 
3834375000  -6.545362e+001  6.342019e-001 
3837500000  -6.326360e+001  1.791711e+001 
3840625000  -6.013407e+001  -1.049158e+001 
3843750000  -6.379298e+001  -1.340786e+001 
3846875000  -5.796297e+001  -1.108543e+001 
3850000000  -6.301027e+001  -4.239925e+000 
3853125000  -6.352237e+001  -4.179645e+001 
3856250000  -6.538470e+001  9.217663e+000 
3859375000  -5.997384e+001  -2.847565e+001 
3862500000  -6.096804e+001  -4.937975e+001 
3865625000  -6.103946e+001  -4.915098e+001 
3868750000  -5.863816e+001  -3.496243e+001 
3871875000  -5.771457e+001  -6.221396e+001 
3875000000  -5.985069e+001  -7.405026e+001 
3878125000  -5.937867e+001  -7.141785e+001 
3881250000  -5.672470e+001  -8.803394e+001 
3884375000  -5.680239e+001  -1.016860e+002 
3887500000  -5.653526e+001  -1.111543e+002 
3890625000  -5.762778e+001  -1.192582e+002 
3893750000  -5.796996e+001  -1.279224e+002 
3896875000  -5.679846e+001  -1.231221e+002 
3900000000  -5.549920e+001  -1.501002e+002 
3903125000  -5.506609e+001  -1.577786e+002 
3906250000  -5.524971e+001  -1.673740e+002 
3909375000  -5.724215e+001  1.751454e+002 
3912500000  -5.420116e+001  1.586504e+002 
3915625000  -5.455951e+001  1.563704e+002 
3918750000  -5.449836e+001  1.527143e+002 
3921875000  -5.466198e+001  1.408602e+002 
3925000000  -5.382830e+001  1.258724e+002 
3928125000  -5.162335e+001  1.107290e+002 
3931250000  -5.369666e+001  1.030274e+002 
3934375000  -5.292576e+001  8.436357e+001 
3937500000  -5.651361e+001  7.967818e+001 
3940625000  -5.488782e+001  8.001533e+001 
3943750000  -5.512714e+001  6.653425e+001 
3946875000  -5.304591e+001  4.789115e+001 
3950000000  -5.545606e+001  3.201889e+001 
3953125000  -5.398246e+001  4.861990e+001 
3956250000  -5.386892e+001  2.590983e+001 
3959375000  -5.267167e+001  9.545276e+000 
3962500000  -5.342912e+001  -6.027654e+000 
3965625000  -5.543471e+001  -1.140516e+001 
3968750000  -5.397277e+001  -3.314929e+001 
3971875000  -5.427230e+001  -3.441052e+001 
3975000000  -5.361298e+001  -5.713165e+001 
3978125000  -5.382954e+001  -5.147687e+001 
3981250000  -5.432526e+001  -7.997262e+001 
3984375000  -5.485203e+001  -9.549481e+001 
3987500000  -5.532193e+001  -8.977322e+001 
3990625000  -5.762136e+001  -1.014940e+002 
3993750000  -5.761848e+001  -1.171301e+002 
3996875000  -5.723832e+001  -1.284284e+002 
4000000000  -5.952576e+001  -1.326075e+002 
4003125000  -6.091874e+001  -1.360942e+002 
4006250000  -5.751950e+001  -1.318461e+002 
4009375000  -5.733656e+001  -1.599535e+002 
4012500000  -5.785179e+001  -1.642299e+002 
4015625000  -6.008732e+001  -1.692339e+002 
4018750000  -6.002045e+001  -1.629687e+002 
4021875000  -6.119881e+001  1.754959e+002 
4025000000  -6.035640e+001  1.587392e+002 
4028125000  -5.864936e+001  1.694755e+002 
4031250000  -6.357622e+001  1.555968e+002 
4034375000  -5.807038e+001  1.598273e+002 
4037500000  -5.903484e+001  1.578750e+002 
4040625000  -5.872869e+001  1.407586e+002 
4043750000  -5.975674e+001  1.580037e+002 
4046875000  -5.723736e+001  1.402572e+002 
4050000000  -5.765031e+001  1.303907e+002 
4053125000  -5.835999e+001  1.277057e+002 
4056250000  -5.878049e+001  1.073611e+002 
4059375000  -5.788021e+001  1.131587e+002 
4062500000  -5.444063e+001  9.704414e+001 
4065625000  -5.433548e+001  8.756105e+001 
4068750000  -5.440297e+001  7.249162e+001 
4071875000  -5.413734e+001  6.389983e+001 
4075000000  -5.380717e+001  4.443021e+001 
4078125000  -5.410964e+001  3.533903e+001 
4081250000  -5.309420e+001  2.836841e+001 
4084375000  -5.151945e+001  6.391863e+000 
4087500000  -5.356892e+001  -6.348253e+000 
4090625000  -5.263370e+001  -6.328242e+000 
4093750000  -5.382011e+001  -2.104585e+001 
4096875000  -5.291637e+001  -3.712272e+001 
4100000000  -5.379945e+001  -5.273766e+001 
4103125000  -5.542366e+001  -4.934301e+001 
4106250000  -5.418124e+001  -6.059742e+001 
4109375000  -5.417534e+001  -6.451529e+001 
4112500000  -5.233932e+001  -7.814949e+001 
4115625000  -5.339352e+001  -9.362211e+001 
4118750000  -5.227909e+001  -1.036244e+002 
4121875000  -5.221519e+001  -1.207119e+002 
4125000000  -5.350849e+001  -1.274336e+002 
4128125000  -5.541468e+001  -1.300787e+002 
4131250000  -5.297776e+001  -1.406199e+002 
4134375000  -5.092184e+001  -1.519431e+002 
4137500000  -5.130737e+001  -1.646918e+002 
4140625000  -5.428458e+001  1.646872e+002 
4143750000  -5.641312e+001  1.711004e+002 
4146875000  -5.343855e+001  1.676588e+002 
4150000000  -5.591083e+001  1.591333e+002 
4153125000  -5.283600e+001  1.426838e+002 
4156250000  -5.535379e+001  1.339862e+002 
4159375000  -5.556316e+001  1.173581e+002 
4162500000  -5.646869e+001  1.085934e+002 
4165625000  -5.422459e+001  1.168358e+002 
4168750000  -5.418924e+001  8.645024e+001 
4171875000  -5.431059e+001  8.765941e+001 
4175000000  -5.544031e+001  5.991196e+001 
4178125000  -5.919536e+001  6.053082e+001 
4181250000  -5.733470e+001  4.092216e+001 
4184375000  -6.020461e+001  4.134973e+001 
4187500000  -5.794489e+001  2.357930e+001 
4190625000  -6.079834e+001  2.021372e+001 
4193750000  -6.088002e+001  2.179663e+001 
4196875000  -6.419527e+001  -2.806910e+000 
4200000000  -6.365570e+001  1.317827e+001 
4203125000  -6.608227e+001  3.674831e+001 
4206250000  -6.011834e+001  1.657512e+001 
4209375000  -6.353257e+001  -1.983492e+001 
4212500000  -6.252302e+001  -8.098882e+000 
4215625000  -6.287047e+001  -1.805606e+001 
4218750000  -6.142910e+001  -3.004868e+000 
4221875000  -5.944334e+001  -5.425766e+001 
4225000000  -6.086578e+001  -1.362844e+001 
4228125000  -5.753031e+001  -3.000207e+001 
4231250000  -6.258860e+001  -3.612317e+001 
4234375000  -6.035974e+001  -5.438100e+001 
4237500000  -5.858300e+001  -4.141992e+001 
4240625000  -5.549271e+001  -6.288730e+001 
4243750000  -5.727408e+001  -7.348458e+001 
4246875000  -5.605692e+001  -7.706189e+001 
4250000000  -5.874693e+001  -8.443536e+001 
4253125000  -5.502914e+001  -8.180767e+001 
4256250000  -5.782125e+001  -9.450914e+001 
4259375000  -5.534018e+001  -1.022621e+002 
4262500000  -5.590450e+001  -1.285599e+002 
4265625000  -5.414085e+001  -1.238187e+002 
4268750000  -5.340284e+001  -1.476464e+002 
4271875000  -5.184083e+001  -1.541591e+002 
4275000000  -5.102020e+001  -1.777035e+002 
4278125000  -5.347118e+001  1.620641e+002 
4281250000  -5.386571e+001  1.618172e+002 
4284375000  -5.473102e+001  1.579233e+002 
4287500000  -5.512012e+001  1.488936e+002 
4290625000  -5.486329e+001  1.484871e+002 
4293750000  -5.188194e+001  1.414125e+002 
4296875000  -5.102308e+001  1.303047e+002 
4300000000  -5.228035e+001  1.012907e+002 
4303125000  -5.432651e+001  1.012544e+002 
4306250000  -5.311093e+001  9.653928e+001 
4309375000  -5.144070e+001  8.021022e+001 
4312500000  -5.186457e+001  6.317943e+001 
4315625000  -5.116640e+001  5.006759e+001 
4318750000  -5.464037e+001  4.166634e+001 
4321875000  -5.267678e+001  4.252964e+001 
4325000000  -5.245724e+001  2.240541e+001 
4328125000  -5.090338e+001  1.168061e+001 
4331250000  -5.298586e+001  -5.757761e+000 
4334375000  -5.311189e+001  -1.782382e+001 
4337500000  -5.399465e+001  -2.943152e+001 
4340625000  -5.538522e+001  -2.625570e+001 
4343750000  -5.404954e+001  -4.158640e+001 
4346875000  -5.459961e+001  -4.503882e+001 
4350000000  -5.581631e+001  -6.398047e+001 
4353125000  -5.723014e+001  -6.615733e+001 
4356250000  -5.573695e+001  -7.590384e+001 
4359375000  -5.691056e+001  -5.909402e+001 
4362500000  -5.763123e+001  -7.865131e+001 
4365625000  -5.421812e+001  -9.374613e+001 
4368750000  -5.471521e+001  -1.077937e+002 
4371875000  -5.782398e+001  -1.147374e+002 
4375000000  -5.722785e+001  -1.204340e+002 
4378125000  -5.610636e+001  -1.272614e+002 
4381250000  -5.730212e+001  -1.270814e+002 
4384375000  -5.678338e+001  -1.437746e+002 
4387500000  -5.742582e+001  -1.483456e+002 
4390625000  -5.680645e+001  -1.466316e+002 
4393750000  -5.708425e+001  -1.501544e+002 
4396875000  -5.575161e+001  -1.573691e+002 
4400000000  -5.507076e+001  -1.714523e+002 
4403125000  -5.573003e+001  1.717242e+002 
4406250000  -5.898650e+001  1.758697e+002 
4409375000  -5.524001e+001  1.739200e+002 
4412500000  -5.758053e+001  1.661837e+002 
4415625000  -5.517222e+001  1.515263e+002 
4418750000  -5.468780e+001  1.509894e+002 
