!Agilent Technologies,E8363B,MY43030201,A.06.04.32
!Agilent E8363B: A.06.04.32
!Date: Tuesday, November 11, 2014 22:15:23
!Correction: S21(Response(S21)) 
!S1P File: Measurement: S21:
# Hz S  dB   R 50
3000000000  -4.893329e+001  -7.141947e+001 
3003125000  -5.156124e+001  -7.998180e+001 
3006250000  -5.158230e+001  -8.653019e+001 
3009375000  -5.189958e+001  -8.507884e+001 
3012500000  -5.136741e+001  -9.655492e+001 
3015625000  -5.149331e+001  -1.076457e+002 
3018750000  -5.185736e+001  -1.143396e+002 
3021875000  -4.953553e+001  -1.169375e+002 
3025000000  -4.852749e+001  -1.278338e+002 
3028125000  -4.803189e+001  -1.398594e+002 
3031250000  -4.719046e+001  -1.590943e+002 
3034375000  -4.716343e+001  1.787124e+002 
3037500000  -4.799700e+001  1.688438e+002 
3040625000  -4.895491e+001  1.523452e+002 
3043750000  -4.977516e+001  1.464624e+002 
3046875000  -5.117533e+001  1.330780e+002 
3050000000  -5.179004e+001  1.280438e+002 
3053125000  -5.112814e+001  1.255510e+002 
3056250000  -5.107111e+001  1.207103e+002 
3059375000  -5.106905e+001  1.074384e+002 
3062500000  -4.933012e+001  9.979872e+001 
3065625000  -4.914985e+001  8.841484e+001 
3068750000  -4.912647e+001  7.695511e+001 
3071875000  -4.918806e+001  6.885924e+001 
3075000000  -4.911116e+001  5.574055e+001 
3078125000  -4.857281e+001  4.735562e+001 
3081250000  -4.952417e+001  3.499060e+001 
3084375000  -4.819617e+001  2.640366e+001 
3087500000  -4.842914e+001  1.333824e+001 
3090625000  -4.786599e+001  -1.707978e+000 
3093750000  -4.891956e+001  -1.463904e+001 
3096875000  -4.935847e+001  -2.301944e+001 
3100000000  -4.930031e+001  -3.301732e+001 
3103125000  -4.982225e+001  -3.898571e+001 
3106250000  -4.892926e+001  -4.972855e+001 
3109375000  -4.982027e+001  -6.001643e+001 
3112500000  -4.984800e+001  -6.681529e+001 
3115625000  -4.934732e+001  -7.795818e+001 
3118750000  -5.002688e+001  -8.201588e+001 
3121875000  -4.892966e+001  -9.566382e+001 
3125000000  -5.113974e+001  -1.074357e+002 
3128125000  -5.084496e+001  -9.952665e+001 
3131250000  -4.875833e+001  -1.176983e+002 
3134375000  -4.806370e+001  -1.397933e+002 
3137500000  -4.944657e+001  -1.557708e+002 
3140625000  -4.978271e+001  -1.576402e+002 
3143750000  -5.051213e+001  -1.669564e+002 
3146875000  -5.009970e+001  -1.750492e+002 
3150000000  -4.952553e+001  1.799998e+002 
3153125000  -4.898491e+001  1.693787e+002 
3156250000  -5.089450e+001  1.643891e+002 
3159375000  -4.767949e+001  1.603707e+002 
3162500000  -4.651908e+001  1.379465e+002 
3165625000  -4.777969e+001  1.195264e+002 
3168750000  -4.803133e+001  1.188117e+002 
3171875000  -4.740195e+001  1.058969e+002 
3175000000  -4.795313e+001  9.004436e+001 
3178125000  -4.762263e+001  8.453976e+001 
3181250000  -4.672933e+001  6.877921e+001 
3184375000  -4.650166e+001  5.285147e+001 
3187500000  -4.711238e+001  3.689592e+001 
3190625000  -4.953912e+001  2.119173e+001 
3193750000  -4.970293e+001  2.264700e+001 
3196875000  -4.999960e+001  2.201920e+001 
3200000000  -4.842930e+001  1.046347e+001 
3203125000  -4.848284e+001  -4.360823e+000 
3206250000  -4.855311e+001  -1.499199e+001 
3209375000  -4.810256e+001  -3.067093e+001 
3212500000  -4.871985e+001  -3.941523e+001 
3215625000  -4.850829e+001  -4.477671e+001 
3218750000  -4.916122e+001  -6.168686e+001 
3221875000  -4.986297e+001  -7.565536e+001 
3225000000  -4.922277e+001  -8.308728e+001 
3228125000  -5.001601e+001  -9.105155e+001 
3231250000  -5.093895e+001  -1.017813e+002 
3234375000  -5.039340e+001  -1.071914e+002 
3237500000  -5.041351e+001  -1.171938e+002 
3240625000  -5.043733e+001  -1.287095e+002 
3243750000  -5.019793e+001  -1.453729e+002 
3246875000  -5.053428e+001  -1.519150e+002 
3250000000  -5.144537e+001  -1.674123e+002 
3253125000  -5.124836e+001  -1.710454e+002 
3256250000  -5.042522e+001  1.756335e+002 
3259375000  -5.158718e+001  1.592140e+002 
3262500000  -5.273561e+001  1.523172e+002 
3265625000  -5.331466e+001  1.478406e+002 
3268750000  -5.336988e+001  1.490903e+002 
3271875000  -5.248755e+001  1.353060e+002 
3275000000  -5.261191e+001  1.283648e+002 
3278125000  -5.273508e+001  1.073939e+002 
3281250000  -5.314428e+001  1.044399e+002 
3284375000  -5.200571e+001  9.514091e+001 
3287500000  -5.390604e+001  8.599702e+001 
3290625000  -5.279007e+001  7.134596e+001 
3293750000  -5.343561e+001  6.802828e+001 
3296875000  -5.519141e+001  6.284304e+001 
3300000000  -5.439634e+001  5.199883e+001 
3303125000  -5.308555e+001  4.049734e+001 
3306250000  -5.342080e+001  2.112745e+001 
3309375000  -5.357297e+001  1.900398e+001 
3312500000  -5.372119e+001  -3.365208e-001 
3315625000  -5.501902e+001  -7.671808e+000 
3318750000  -5.671122e+001  -1.954411e+001 
3321875000  -5.865579e+001  -2.089660e+001 
3325000000  -5.586979e+001  -6.210063e+000 
3328125000  -5.606647e+001  -2.652475e+001 
3331250000  -5.413377e+001  -2.141497e+001 
3334375000  -5.163620e+001  -4.415651e+001 
3337500000  -5.278628e+001  -6.838982e+001 
3340625000  -5.432545e+001  -8.619943e+001 
3343750000  -5.626273e+001  -7.999463e+001 
3346875000  -5.474871e+001  -1.033301e+002 
3350000000  -5.451143e+001  -9.616174e+001 
3353125000  -5.465282e+001  -1.131490e+002 
3356250000  -5.553210e+001  -1.246832e+002 
3359375000  -5.584646e+001  -1.465232e+002 
3362500000  -5.584042e+001  -1.505407e+002 
3365625000  -5.647470e+001  -1.556148e+002 
3368750000  -5.818443e+001  -1.678966e+002 
3371875000  -5.802911e+001  1.750216e+002 
3375000000  -5.868354e+001  1.743860e+002 
3378125000  -5.902214e+001  1.687569e+002 
3381250000  -6.111135e+001  1.615581e+002 
3384375000  -5.724543e+001  -1.696993e+002 
3387500000  -5.570407e+001  1.601538e+002 
3390625000  -5.819823e+001  1.293195e+002 
3393750000  -5.966214e+001  1.056335e+002 
3396875000  -5.833623e+001  1.248685e+002 
3400000000  -5.647582e+001  9.576428e+001 
3403125000  -5.690144e+001  9.579095e+001 
3406250000  -5.781966e+001  7.603825e+001 
3409375000  -5.778616e+001  5.552920e+001 
3412500000  -5.826239e+001  5.970691e+001 
3415625000  -5.956141e+001  4.944081e+001 
3418750000  -6.093152e+001  3.177985e+001 
3421875000  -6.106015e+001  4.055157e+001 
3425000000  -5.942970e+001  2.383356e+001 
3428125000  -6.099860e+001  1.028877e+001 
3431250000  -5.872322e+001  6.203244e+000 
3434375000  -6.057832e+001  -2.991364e+001 
3437500000  -6.403435e+001  -2.127485e+001 
3440625000  -6.145353e+001  -2.399385e+001 
3443750000  -6.418535e+001  -3.103786e+001 
3446875000  -6.020571e+001  -5.192978e+001 
3450000000  -6.157036e+001  -7.415617e+001 
3453125000  -6.473932e+001  -7.784602e+001 
3456250000  -7.051631e+001  -6.446025e+001 
3459375000  -6.733319e+001  -6.626388e+001 
3462500000  -6.955840e+001  -1.109147e+002 
3465625000  -6.338829e+001  -9.235090e+001 
3468750000  -6.763103e+001  -1.095334e+002 
3471875000  -6.423701e+001  -8.333375e+001 
3475000000  -6.638068e+001  -1.188824e+002 
3478125000  -7.119147e+001  -1.088207e+002 
3481250000  -6.641261e+001  -1.615906e+002 
3484375000  -6.836314e+001  -1.351492e+002 
3487500000  -7.017258e+001  -1.035892e+002 
3490625000  -6.716994e+001  -1.140004e+002 
3493750000  -8.469859e+001  -9.390809e+001 
3496875000  -6.754482e+001  -1.732868e+002 
3500000000  -6.869066e+001  1.569399e+002 
3503125000  -7.639080e+001  -1.598628e+002 
3506250000  -6.393562e+001  -1.640530e+002 
3509375000  -6.724916e+001  -1.420710e+002 
3512500000  -6.378264e+001  1.554846e+002 
3515625000  -6.920741e+001  1.789864e+002 
3518750000  -6.370325e+001  1.464618e+002 
3521875000  -7.116360e+001  1.098321e+002 
3525000000  -6.804950e+001  1.385435e+002 
3528125000  -6.867387e+001  1.308651e+002 
3531250000  -6.666611e+001  1.291704e+002 
3534375000  -6.796964e+001  1.092994e+002 
3537500000  -6.657870e+001  9.740182e+001 
3540625000  -7.458955e+001  7.423015e+001 
3543750000  -8.081696e+001  9.199206e+001 
3546875000  -7.446481e+001  8.188741e+001 
3550000000  -7.209818e+001  6.918967e+001 
3553125000  -6.759952e+001  9.214391e+001 
3556250000  -7.572552e+001  3.777170e+001 
3559375000  -6.671130e+001  3.859206e+001 
3562500000  -7.838537e+001  6.142283e+001 
3565625000  -7.238031e+001  4.228065e+001 
3568750000  -6.977532e+001  6.225862e+001 
3571875000  -7.191096e+001  2.379179e+001 
3575000000  -6.799989e+001  1.334691e+001 
3578125000  -7.379624e+001  2.807454e+001 
3581250000  -6.725057e+001  4.549348e+001 
3584375000  -6.641573e+001  7.127890e+000 
3587500000  -7.054394e+001  3.166314e+001 
3590625000  -7.000726e+001  5.325581e+001 
3593750000  -7.113146e+001  -1.097547e+001 
3596875000  -7.026218e+001  1.479880e+001 
3600000000  -6.386877e+001  -1.205434e+001 
3603125000  -6.446191e+001  4.384747e-001 
3606250000  -6.317979e+001  -3.312727e+001 
3609375000  -6.710336e+001  -5.961652e+001 
3612500000  -6.462683e+001  -6.244281e+001 
3615625000  -6.370219e+001  -6.200317e+001 
3618750000  -6.023006e+001  -7.863201e+001 
3621875000  -6.635873e+001  -7.724515e+001 
3625000000  -6.337096e+001  -8.412304e+001 
3628125000  -6.499559e+001  -7.457941e+001 
3631250000  -6.359602e+001  -1.162618e+002 
3634375000  -6.585999e+001  -1.083763e+002 
3637500000  -6.331879e+001  -1.078345e+002 
3640625000  -6.128901e+001  -1.184345e+002 
3643750000  -6.182057e+001  -1.429202e+002 
3646875000  -5.975609e+001  -1.620656e+002 
3650000000  -6.151093e+001  1.713659e+002 
3653125000  -6.564576e+001  -1.732923e+002 
3656250000  -6.586588e+001  1.581838e+002 
3659375000  -6.350426e+001  1.529999e+002 
3662500000  -6.183173e+001  1.616802e+002 
3665625000  -6.125724e+001  1.521122e+002 
3668750000  -6.433234e+001  1.349387e+002 
3671875000  -6.439050e+001  1.343181e+002 
3675000000  -6.162746e+001  1.115202e+002 
3678125000  -6.387951e+001  1.073360e+002 
3681250000  -6.047647e+001  1.072664e+002 
3684375000  -6.464112e+001  8.942276e+001 
3687500000  -6.240935e+001  8.096230e+001 
3690625000  -6.750978e+001  7.802250e+001 
3693750000  -7.195529e+001  1.178259e+002 
3696875000  -6.549956e+001  5.794606e+001 
3700000000  -5.938352e+001  6.269418e+001 
3703125000  -6.411611e+001  3.634856e+001 
3706250000  -6.733655e+001  8.046179e+001 
3709375000  -6.630219e+001  5.889374e+001 
3712500000  -6.592016e+001  5.069145e+001 
3715625000  -6.356758e+001  2.992836e+001 
3718750000  -6.082351e+001  3.243036e+001 
3721875000  -6.204803e+001  2.059839e+001 
3725000000  -5.944949e+001  2.016957e+001 
3728125000  -5.853194e+001  1.582909e+000 
3731250000  -5.849846e+001  -1.144872e+001 
3734375000  -6.048506e+001  -2.921374e+001 
3737500000  -6.026569e+001  -2.928514e+001 
3740625000  -5.816793e+001  -4.629440e+001 
3743750000  -5.802656e+001  -6.261010e+001 
3746875000  -5.846455e+001  -6.381134e+001 
3750000000  -5.741019e+001  -8.101096e+001 
3753125000  -5.960965e+001  -7.720417e+001 
3756250000  -5.702984e+001  -9.630051e+001 
3759375000  -5.823792e+001  -9.958059e+001 
3762500000  -5.680896e+001  -1.206715e+002 
3765625000  -6.015042e+001  -1.274772e+002 
3768750000  -5.660630e+001  -1.403968e+002 
3771875000  -5.571538e+001  -1.342115e+002 
3775000000  -5.689026e+001  -1.570078e+002 
3778125000  -5.594413e+001  -1.776921e+002 
3781250000  -5.682107e+001  1.724265e+002 
3784375000  -5.662184e+001  1.677424e+002 
3787500000  -5.538484e+001  1.505990e+002 
3790625000  -5.828223e+001  1.421653e+002 
3793750000  -5.779828e+001  1.162234e+002 
3796875000  -5.732480e+001  1.213469e+002 
3800000000  -5.326860e+001  7.944992e+001 
3803125000  -5.644124e+001  1.011290e+002 
3806250000  -5.795096e+001  8.213683e+001 
3809375000  -5.785674e+001  8.002116e+001 
3812500000  -5.649941e+001  5.844133e+001 
3815625000  -5.990794e+001  3.096807e+001 
3818750000  -6.281611e+001  3.286895e+001 
3821875000  -5.995513e+001  4.187477e+001 
3825000000  -5.740378e+001  4.465622e+001 
3828125000  -5.651276e+001  2.567745e+001 
3831250000  -6.031826e+001  1.891844e+001 
3834375000  -6.401326e+001  1.779789e+001 
3837500000  -6.446626e+001  -3.142684e-001 
3840625000  -6.041661e+001  1.887373e+001 
3843750000  -6.131524e+001  2.770177e+000 
3846875000  -6.292022e+001  -3.956828e+001 
3850000000  -6.276635e+001  -2.047138e+001 
3853125000  -5.895311e+001  -1.224248e+001 
3856250000  -6.315227e+001  -1.020942e+000 
3859375000  -5.924298e+001  -2.700150e+001 
3862500000  -6.398434e+001  -4.890642e+001 
3865625000  -5.907599e+001  -6.309816e+001 
3868750000  -5.802421e+001  -3.802349e+001 
3871875000  -5.906413e+001  -5.724238e+001 
3875000000  -5.804734e+001  -8.847734e+001 
3878125000  -5.769012e+001  -7.549635e+001 
3881250000  -5.646636e+001  -8.857487e+001 
3884375000  -5.587139e+001  -9.401100e+001 
3887500000  -5.525189e+001  -1.136661e+002 
3890625000  -5.628799e+001  -1.181413e+002 
3893750000  -5.602354e+001  -1.397131e+002 
3896875000  -5.510614e+001  -1.354837e+002 
3900000000  -5.698143e+001  -1.468849e+002 
3903125000  -5.686645e+001  -1.457347e+002 
3906250000  -5.432211e+001  -1.669631e+002 
3909375000  -5.352089e+001  1.799445e+002 
3912500000  -5.592959e+001  1.746784e+002 
3915625000  -5.517286e+001  1.500420e+002 
3918750000  -5.533804e+001  1.602648e+002 
3921875000  -5.578228e+001  1.454849e+002 
3925000000  -5.346974e+001  1.298695e+002 
3928125000  -5.300103e+001  1.086689e+002 
3931250000  -5.400246e+001  9.732095e+001 
3934375000  -5.683814e+001  9.201879e+001 
3937500000  -5.482913e+001  8.851819e+001 
3940625000  -5.472699e+001  8.146807e+001 
3943750000  -5.324778e+001  7.400245e+001 
3946875000  -5.394495e+001  5.380079e+001 
3950000000  -5.574047e+001  4.011095e+001 
3953125000  -5.537155e+001  3.822077e+001 
3956250000  -5.332293e+001  2.199761e+001 
3959375000  -5.231388e+001  1.340903e+001 
3962500000  -5.344108e+001  -1.307458e+001 
3965625000  -5.320725e+001  -9.421211e+000 
3968750000  -5.440582e+001  -2.924858e+001 
3971875000  -5.368780e+001  -4.276104e+001 
3975000000  -5.434430e+001  -5.564211e+001 
3978125000  -5.518049e+001  -5.995453e+001 
3981250000  -5.534734e+001  -7.316342e+001 
3984375000  -5.632887e+001  -8.496372e+001 
3987500000  -5.674329e+001  -9.366278e+001 
3990625000  -5.740281e+001  -1.069884e+002 
3993750000  -5.863896e+001  -1.130831e+002 
3996875000  -5.782541e+001  -1.242145e+002 
4000000000  -5.861378e+001  -1.354852e+002 
4003125000  -5.812036e+001  -1.206695e+002 
4006250000  -5.596719e+001  -1.175362e+002 
4009375000  -5.497964e+001  -1.603743e+002 
4012500000  -5.971749e+001  -1.544874e+002 
4015625000  -6.029752e+001  1.759264e+002 
4018750000  -5.899055e+001  -1.586449e+002 
4021875000  -5.881087e+001  -1.685003e+002 
4025000000  -5.974517e+001  1.679038e+002 
4028125000  -5.847842e+001  1.658023e+002 
4031250000  -6.276487e+001  1.727352e+002 
4034375000  -6.067363e+001  1.588970e+002 
4037500000  -5.792689e+001  1.534120e+002 
4040625000  -5.837649e+001  1.406309e+002 
4043750000  -5.771308e+001  1.529985e+002 
4046875000  -5.845337e+001  1.378313e+002 
4050000000  -5.713154e+001  1.340212e+002 
4053125000  -5.904859e+001  1.043669e+002 
4056250000  -5.863443e+001  1.225530e+002 
4059375000  -5.632037e+001  9.749129e+001 
4062500000  -5.432208e+001  9.968227e+001 
4065625000  -5.340175e+001  8.550805e+001 
4068750000  -5.542697e+001  7.129562e+001 
4071875000  -5.266444e+001  6.346492e+001 
4075000000  -5.309489e+001  4.538644e+001 
4078125000  -5.479076e+001  4.116483e+001 
4081250000  -5.333741e+001  2.572198e+001 
4084375000  -5.258704e+001  1.112477e+001 
4087500000  -5.466220e+001  1.966724e-001 
4090625000  -5.410165e+001  -9.074231e-001 
4093750000  -5.307847e+001  -1.805345e+001 
4096875000  -5.280849e+001  -2.992620e+001 
4100000000  -5.437173e+001  -4.062306e+001 
4103125000  -5.425379e+001  -4.786631e+001 
4106250000  -5.404108e+001  -5.791769e+001 
4109375000  -5.364914e+001  -5.996845e+001 
4112500000  -5.305518e+001  -8.075185e+001 
4115625000  -5.414743e+001  -9.216587e+001 
4118750000  -5.331429e+001  -9.696349e+001 
4121875000  -5.375393e+001  -1.148818e+002 
4125000000  -5.404664e+001  -1.222305e+002 
4128125000  -5.512693e+001  -1.349025e+002 
4131250000  -5.313501e+001  -1.273341e+002 
4134375000  -5.078090e+001  -1.522120e+002 
4137500000  -5.292705e+001  -1.664908e+002 
4140625000  -5.413520e+001  1.709455e+002 
4143750000  -5.559294e+001  1.691986e+002 
4146875000  -5.427160e+001  1.738632e+002 
4150000000  -5.438351e+001  1.590863e+002 
4153125000  -5.381432e+001  1.397428e+002 
4156250000  -5.525793e+001  1.285775e+002 
4159375000  -5.479795e+001  1.252493e+002 
4162500000  -5.725031e+001  1.222739e+002 
4165625000  -5.454422e+001  1.126126e+002 
4168750000  -5.573442e+001  9.050754e+001 
4171875000  -5.507230e+001  7.611853e+001 
4175000000  -5.553086e+001  6.550146e+001 
4178125000  -5.856905e+001  7.152263e+001 
4181250000  -5.834483e+001  4.362084e+001 
4184375000  -6.121080e+001  4.397864e+001 
4187500000  -5.746134e+001  3.226715e+001 
4190625000  -5.917653e+001  1.891062e+001 
4193750000  -6.040276e+001  1.104475e+001 
4196875000  -6.010441e+001  1.013712e+001 
4200000000  -6.489902e+001  2.763685e+001 
4203125000  -6.303743e+001  9.138428e+000 
4206250000  -5.639055e+001  2.894007e+001 
4209375000  -5.967015e+001  -1.605900e+001 
4212500000  -6.590797e+001  2.063262e+001 
4215625000  -6.385438e+001  -1.939535e+001 
4218750000  -6.140639e+001  -6.552190e+000 
4221875000  -5.872273e+001  -1.423407e+001 
4225000000  -6.410960e+001  -6.030819e+000 
4228125000  -5.796857e+001  -3.669254e+001 
4231250000  -5.817022e+001  -5.949955e+000 
4234375000  -5.857653e+001  -4.923491e+001 
4237500000  -5.803196e+001  -4.325210e+001 
4240625000  -5.646503e+001  -5.482438e+001 
4243750000  -5.710748e+001  -6.657461e+001 
4246875000  -5.521983e+001  -7.106405e+001 
4250000000  -5.867857e+001  -8.143079e+001 
4253125000  -5.566750e+001  -8.801380e+001 
4256250000  -5.977067e+001  -1.158946e+002 
4259375000  -5.480151e+001  -9.777670e+001 
4262500000  -5.508980e+001  -1.107669e+002 
4265625000  -5.431429e+001  -1.190166e+002 
4268750000  -5.298970e+001  -1.423461e+002 
4271875000  -5.153048e+001  -1.556341e+002 
4275000000  -5.206306e+001  -1.751461e+002 
4278125000  -5.246300e+001  1.700745e+002 
4281250000  -5.407608e+001  1.606607e+002 
4284375000  -5.360973e+001  1.645911e+002 
4287500000  -5.451315e+001  1.453881e+002 
4290625000  -5.507620e+001  1.457312e+002 
4293750000  -5.139522e+001  1.472922e+002 
4296875000  -5.191026e+001  1.151571e+002 
4300000000  -5.224631e+001  1.143978e+002 
4303125000  -5.321165e+001  1.034938e+002 
4306250000  -5.268156e+001  9.732607e+001 
4309375000  -5.090407e+001  7.863569e+001 
4312500000  -5.253578e+001  7.064117e+001 
4315625000  -5.276636e+001  5.059836e+001 
4318750000  -5.377024e+001  4.049191e+001 
4321875000  -5.309795e+001  4.130633e+001 
4325000000  -5.301399e+001  2.360726e+001 
4328125000  -5.291833e+001  1.429015e+001 
4331250000  -5.369481e+001  -7.208804e+000 
4334375000  -5.385375e+001  -1.174523e+001 
4337500000  -5.609574e+001  -3.252477e+001 
4340625000  -5.605345e+001  -2.344678e+001 
4343750000  -5.555374e+001  -2.985720e+001 
4346875000  -5.489203e+001  -4.195895e+001 
4350000000  -5.377756e+001  -6.654669e+001 
4353125000  -5.624461e+001  -6.862458e+001 
4356250000  -6.065347e+001  -7.131252e+001 
4359375000  -5.886428e+001  -7.999403e+001 
4362500000  -5.531570e+001  -8.372635e+001 
4365625000  -5.406477e+001  -8.757510e+001 
4368750000  -5.747884e+001  -9.767842e+001 
4371875000  -5.601384e+001  -1.137415e+002 
4375000000  -5.802184e+001  -1.152189e+002 
4378125000  -5.920962e+001  -1.250840e+002 
4381250000  -5.685599e+001  -1.241485e+002 
4384375000  -5.744934e+001  -1.515188e+002 
4387500000  -5.769682e+001  -1.454934e+002 
4390625000  -5.720260e+001  -1.499997e+002 
4393750000  -5.641278e+001  -1.518899e+002 
4396875000  -5.751953e+001  -1.557183e+002 
4400000000  -5.479786e+001  -1.759278e+002 
4403125000  -5.499907e+001  -1.755844e+002 
4406250000  -5.807007e+001  1.689754e+002 
4409375000  -5.688779e+001  1.646370e+002 
4412500000  -5.740617e+001  1.446845e+002 
4415625000  -5.636995e+001  1.639867e+002 
4418750000  -5.539589e+001  1.555354e+002 
