!Agilent Technologies,E8363B,MY43030201,A.06.04.32
!Agilent E8363B: A.06.04.32
!Date: Tuesday, November 11, 2014 22:13:38
!Correction: S21(Response(S21)) 
!S1P File: Measurement: S21:
# Hz S  dB   R 50
3000000000  -4.913466e+001  -7.411098e+001 
3003125000  -5.113980e+001  -7.906249e+001 
3006250000  -5.182905e+001  -8.172527e+001 
3009375000  -5.177336e+001  -8.927071e+001 
3012500000  -5.140147e+001  -9.929809e+001 
3015625000  -5.183546e+001  -1.072075e+002 
3018750000  -5.146012e+001  -1.127775e+002 
3021875000  -5.012000e+001  -1.166106e+002 
3025000000  -4.854749e+001  -1.300564e+002 
3028125000  -4.787496e+001  -1.447523e+002 
3031250000  -4.699765e+001  -1.607216e+002 
3034375000  -4.701175e+001  1.784202e+002 
3037500000  -4.823293e+001  1.648802e+002 
3040625000  -4.891772e+001  1.522680e+002 
3043750000  -4.910670e+001  1.423959e+002 
3046875000  -5.039512e+001  1.313243e+002 
3050000000  -5.159145e+001  1.246533e+002 
3053125000  -5.193765e+001  1.224941e+002 
3056250000  -5.127146e+001  1.207460e+002 
3059375000  -5.100399e+001  1.134252e+002 
3062500000  -4.955896e+001  1.004868e+002 
3065625000  -4.934759e+001  8.672716e+001 
3068750000  -4.887778e+001  7.693583e+001 
3071875000  -4.911146e+001  6.879417e+001 
3075000000  -4.878174e+001  5.552312e+001 
3078125000  -4.885520e+001  4.630235e+001 
3081250000  -4.920588e+001  3.448132e+001 
3084375000  -4.820501e+001  2.591326e+001 
3087500000  -4.812207e+001  1.151471e+001 
3090625000  -4.803468e+001  -3.409964e+000 
3093750000  -4.931895e+001  -1.591248e+001 
3096875000  -4.986815e+001  -2.689136e+001 
3100000000  -4.891989e+001  -3.129628e+001 
3103125000  -4.995110e+001  -3.970697e+001 
3106250000  -4.948848e+001  -4.819537e+001 
3109375000  -4.944402e+001  -6.065947e+001 
3112500000  -4.966603e+001  -6.572377e+001 
3115625000  -4.958434e+001  -7.938431e+001 
3118750000  -4.956111e+001  -8.248281e+001 
3121875000  -4.921767e+001  -1.000702e+002 
3125000000  -5.062972e+001  -1.080327e+002 
3128125000  -4.981926e+001  -1.072328e+002 
3131250000  -4.813650e+001  -1.173438e+002 
3134375000  -4.782798e+001  -1.384674e+002 
3137500000  -4.878570e+001  -1.545093e+002 
3140625000  -4.950578e+001  -1.634069e+002 
3143750000  -5.095121e+001  -1.737948e+002 
3146875000  -4.943746e+001  -1.723576e+002 
3150000000  -4.919472e+001  1.778601e+002 
3153125000  -4.965506e+001  1.635268e+002 
3156250000  -5.038778e+001  1.654038e+002 
3159375000  -4.785538e+001  1.589340e+002 
3162500000  -4.630791e+001  1.347610e+002 
3165625000  -4.763937e+001  1.190829e+002 
3168750000  -4.779256e+001  1.129721e+002 
3171875000  -4.706664e+001  1.011655e+002 
3175000000  -4.796859e+001  9.040688e+001 
3178125000  -4.727079e+001  8.108849e+001 
3181250000  -4.651151e+001  6.794668e+001 
3184375000  -4.604083e+001  5.513935e+001 
3187500000  -4.738226e+001  3.648716e+001 
3190625000  -4.989619e+001  2.284365e+001 
3193750000  -4.935832e+001  2.192468e+001 
3196875000  -4.977680e+001  1.693554e+001 
3200000000  -4.846415e+001  1.194588e+001 
3203125000  -4.865509e+001  -4.965036e+000 
3206250000  -4.835801e+001  -1.538658e+001 
3209375000  -4.815437e+001  -2.973413e+001 
3212500000  -4.876688e+001  -4.236890e+001 
3215625000  -4.772453e+001  -4.654324e+001 
3218750000  -4.979051e+001  -6.660090e+001 
3221875000  -4.954716e+001  -7.316183e+001 
3225000000  -4.959652e+001  -8.218988e+001 
3228125000  -5.032741e+001  -9.311443e+001 
3231250000  -5.056025e+001  -9.947951e+001 
3234375000  -4.984274e+001  -1.062918e+002 
3237500000  -5.065112e+001  -1.186744e+002 
3240625000  -4.993113e+001  -1.283989e+002 
3243750000  -4.965047e+001  -1.486908e+002 
3246875000  -5.040851e+001  -1.540545e+002 
3250000000  -5.132274e+001  -1.630621e+002 
3253125000  -5.098183e+001  -1.740117e+002 
3256250000  -5.049675e+001  1.715366e+002 
3259375000  -5.106886e+001  1.603562e+002 
3262500000  -5.259686e+001  1.497273e+002 
3265625000  -5.266982e+001  1.464659e+002 
3268750000  -5.291057e+001  1.399047e+002 
3271875000  -5.307448e+001  1.362898e+002 
3275000000  -5.233027e+001  1.277785e+002 
3278125000  -5.312717e+001  1.066177e+002 
3281250000  -5.269177e+001  1.007658e+002 
3284375000  -5.245040e+001  9.734411e+001 
3287500000  -5.335210e+001  8.876967e+001 
3290625000  -5.186871e+001  7.613196e+001 
3293750000  -5.329255e+001  6.209313e+001 
3296875000  -5.370454e+001  5.458112e+001 
3300000000  -5.360581e+001  5.822948e+001 
3303125000  -5.239012e+001  4.349923e+001 
3306250000  -5.385769e+001  2.420987e+001 
3309375000  -5.355628e+001  1.780265e+001 
3312500000  -5.350882e+001  1.394975e-001 
3315625000  -5.401406e+001  -1.050796e+001 
3318750000  -5.634017e+001  -1.952207e+001 
3321875000  -5.847665e+001  -2.411720e+001 
3325000000  -5.712580e+001  -1.489640e+001 
3328125000  -5.698211e+001  -2.069689e+001 
3331250000  -5.454404e+001  -2.646746e+001 
3334375000  -5.221107e+001  -4.473970e+001 
3337500000  -5.191975e+001  -7.243781e+001 
3340625000  -5.437965e+001  -8.823112e+001 
3343750000  -5.712456e+001  -8.809508e+001 
3346875000  -5.484596e+001  -9.600836e+001 
3350000000  -5.495509e+001  -1.007332e+002 
3353125000  -5.473064e+001  -1.187379e+002 
3356250000  -5.447671e+001  -1.318468e+002 
3359375000  -5.491222e+001  -1.457170e+002 
3362500000  -5.532412e+001  -1.465954e+002 
3365625000  -5.633945e+001  -1.606259e+002 
3368750000  -5.704765e+001  -1.719221e+002 
3371875000  -5.725218e+001  -1.765517e+002 
3375000000  -5.861036e+001  1.683756e+002 
3378125000  -5.852802e+001  1.680863e+002 
3381250000  -6.096255e+001  1.698071e+002 
3384375000  -5.714950e+001  -1.780686e+002 
3387500000  -5.381626e+001  1.489213e+002 
3390625000  -5.709995e+001  1.249444e+002 
3393750000  -5.702278e+001  1.173115e+002 
3396875000  -5.732280e+001  1.119445e+002 
3400000000  -5.460707e+001  9.586312e+001 
3403125000  -5.656998e+001  9.193124e+001 
3406250000  -5.666792e+001  7.929147e+001 
3409375000  -5.740177e+001  5.182887e+001 
3412500000  -5.679668e+001  5.653838e+001 
3415625000  -5.972760e+001  3.548596e+001 
3418750000  -5.900907e+001  2.756605e+001 
3421875000  -6.118177e+001  2.518223e+001 
3425000000  -5.878342e+001  3.128272e+001 
3428125000  -5.850895e+001  1.001865e+001 
3431250000  -6.063018e+001  -1.600267e+000 
3434375000  -5.918371e+001  -2.721702e+001 
3437500000  -6.278025e+001  -2.825453e+001 
3440625000  -6.009931e+001  -2.781869e+001 
3443750000  -6.325347e+001  -2.220670e+001 
3446875000  -6.001130e+001  -4.944670e+001 
3450000000  -6.216911e+001  -7.648040e+001 
3453125000  -6.283162e+001  -5.425142e+001 
3456250000  -6.661636e+001  -9.047802e+001 
3459375000  -6.272703e+001  -6.865185e+001 
3462500000  -6.447991e+001  -9.476258e+001 
3465625000  -6.210209e+001  -9.502119e+001 
3468750000  -6.516204e+001  -1.259327e+002 
3471875000  -6.695728e+001  -8.220921e+001 
3475000000  -6.399635e+001  -1.205038e+002 
3478125000  -6.818098e+001  -1.233639e+002 
3481250000  -7.634535e+001  -1.396586e+002 
3484375000  -6.664521e+001  -1.208660e+002 
3487500000  -6.412778e+001  -1.033035e+002 
3490625000  -7.049165e+001  -1.358919e+002 
3493750000  -7.295605e+001  -1.404347e+002 
3496875000  -6.820729e+001  -1.594683e+002 
3500000000  -6.664697e+001  -1.715627e+002 
3503125000  -6.841307e+001  -1.606436e+002 
3506250000  -6.368393e+001  -1.627521e+002 
3509375000  -6.705099e+001  -1.676690e+002 
3512500000  -6.725292e+001  1.565350e+002 
3515625000  -6.991045e+001  1.059471e+002 
3518750000  -6.638703e+001  1.676755e+002 
3521875000  -6.519460e+001  1.218268e+002 
3525000000  -6.638383e+001  1.173180e+002 
3528125000  -7.491969e+001  1.058508e+002 
3531250000  -6.583824e+001  1.192070e+002 
3534375000  -6.735797e+001  1.018460e+002 
3537500000  -6.725928e+001  5.972832e+001 
3540625000  -7.296738e+001  1.880727e+001 
3543750000  -7.130657e+001  1.248326e+002 
3546875000  -7.708099e+001  8.904402e+001 
3550000000  -7.733252e+001  -1.688996e+001 
3553125000  -7.138223e+001  5.689676e+001 
3556250000  -8.268072e+001  1.498222e+002 
3559375000  -6.925404e+001  1.292304e+001 
3562500000  -7.135749e+001  4.460958e+001 
3565625000  -7.607959e+001  -2.454267e+001 
3568750000  -7.728188e+001  6.962746e+001 
3571875000  -7.261723e+001  2.079250e+000 
3575000000  -7.394054e+001  -2.139874e+001 
3578125000  -7.481524e+001  5.754715e+001 
3581250000  -7.195138e+001  5.182321e+001 
3584375000  -6.904037e+001  5.977377e+001 
3587500000  -8.386789e+001  -1.057535e+002 
3590625000  -6.501825e+001  3.760924e+001 
3593750000  -6.633070e+001  -3.023269e+001 
3596875000  -7.651063e+001  3.957040e+001 
3600000000  -6.732424e+001  -9.679044e-001 
3603125000  -6.638437e+001  2.024230e+001 
3606250000  -6.538696e+001  -4.519704e+001 
3609375000  -6.852663e+001  -4.624011e+001 
3612500000  -6.539545e+001  -4.591494e+001 
3615625000  -6.396424e+001  -5.478325e+001 
3618750000  -6.586753e+001  -8.280820e+001 
3621875000  -6.402190e+001  -6.876151e+001 
3625000000  -6.163420e+001  -7.432700e+001 
3628125000  -6.422533e+001  -1.183638e+002 
3631250000  -6.302246e+001  -1.023943e+002 
3634375000  -6.287738e+001  -1.064279e+002 
3637500000  -6.482892e+001  -1.167013e+002 
3640625000  -6.192846e+001  -1.347771e+002 
3643750000  -6.401466e+001  -1.492258e+002 
3646875000  -6.114173e+001  -1.651475e+002 
3650000000  -6.871333e+001  1.735862e+002 
3653125000  -6.281904e+001  1.762426e+002 
3656250000  -6.487292e+001  1.691114e+002 
3659375000  -6.537414e+001  1.595302e+002 
3662500000  -6.203606e+001  1.431811e+002 
3665625000  -6.409503e+001  1.658499e+002 
3668750000  -5.959074e+001  1.259156e+002 
3671875000  -6.251315e+001  1.312325e+002 
3675000000  -6.545686e+001  1.188599e+002 
3678125000  -6.613816e+001  1.059941e+002 
3681250000  -6.065356e+001  1.010268e+002 
3684375000  -6.750703e+001  9.616825e+001 
3687500000  -6.939480e+001  7.106453e+001 
3690625000  -6.634359e+001  9.062350e+001 
3693750000  -6.376632e+001  8.683918e+001 
3696875000  -6.566635e+001  1.032452e+002 
3700000000  -6.330969e+001  7.176643e+001 
3703125000  -7.034385e+001  6.169026e+001 
3706250000  -7.317739e+001  1.101248e+002 
3709375000  -6.754565e+001  6.616707e+001 
3712500000  -6.331126e+001  5.519531e+001 
3715625000  -6.120749e+001  1.539568e+001 
3718750000  -6.080502e+001  4.870314e+001 
3721875000  -6.245323e+001  9.102955e+000 
3725000000  -6.405563e+001  2.488817e+001 
3728125000  -6.000356e+001  -6.174155e+000 
3731250000  -5.985253e+001  -9.695930e+000 
3734375000  -5.931530e+001  -8.054856e+000 
3737500000  -5.883155e+001  -3.136201e+001 
3740625000  -5.975808e+001  -4.542262e+001 
3743750000  -5.919395e+001  -5.789690e+001 
3746875000  -6.012950e+001  -5.485666e+001 
3750000000  -5.790435e+001  -7.972332e+001 
3753125000  -5.870542e+001  -7.469117e+001 
3756250000  -5.925814e+001  -9.017477e+001 
3759375000  -5.991704e+001  -1.151282e+002 
3762500000  -5.648851e+001  -1.134650e+002 
3765625000  -5.793909e+001  -1.308842e+002 
3768750000  -5.804428e+001  -1.273924e+002 
3771875000  -5.593352e+001  -1.400136e+002 
3775000000  -5.672399e+001  -1.567690e+002 
3778125000  -5.743941e+001  -1.727366e+002 
3781250000  -5.744417e+001  1.776269e+002 
3784375000  -5.745939e+001  1.753732e+002 
3787500000  -5.731955e+001  1.514592e+002 
3790625000  -5.674050e+001  1.302837e+002 
3793750000  -5.773344e+001  1.375634e+002 
3796875000  -5.699992e+001  1.236874e+002 
3800000000  -5.328879e+001  7.974278e+001 
3803125000  -5.676987e+001  9.607449e+001 
3806250000  -5.951115e+001  6.836481e+001 
3809375000  -5.866460e+001  7.969716e+001 
3812500000  -5.837673e+001  7.668134e+001 
3815625000  -6.008415e+001  6.081515e+001 
3818750000  -6.207776e+001  5.681504e+001 
3821875000  -6.057959e+001  5.822977e+001 
3825000000  -5.841484e+001  4.918343e+001 
3828125000  -5.954377e+001  4.051149e+001 
3831250000  -5.970953e+001  1.994947e-001 
3834375000  -6.462177e+001  -1.629755e+001 
3837500000  -6.406188e+001  1.985522e+001 
3840625000  -6.012692e+001  2.246156e+000 
3843750000  -6.165207e+001  -1.242055e+001 
3846875000  -6.360467e+001  -2.911205e+001 
3850000000  -6.323087e+001  -8.641189e+000 
3853125000  -6.273191e+001  7.346920e+000 
3856250000  -6.060363e+001  -2.184343e+001 
3859375000  -6.292903e+001  -3.866721e+001 
3862500000  -6.164296e+001  -4.371463e+001 
3865625000  -5.935759e+001  -5.454130e+001 
3868750000  -6.105310e+001  -5.394973e+001 
3871875000  -5.702291e+001  -5.412304e+001 
3875000000  -5.928585e+001  -6.732153e+001 
3878125000  -5.747164e+001  -7.234476e+001 
3881250000  -5.800173e+001  -8.959222e+001 
3884375000  -5.713871e+001  -1.032896e+002 
3887500000  -5.573660e+001  -1.126079e+002 
3890625000  -5.620594e+001  -1.102508e+002 
3893750000  -5.806836e+001  -1.216369e+002 
3896875000  -5.802328e+001  -1.303264e+002 
3900000000  -5.551786e+001  -1.379397e+002 
3903125000  -5.559848e+001  -1.556152e+002 
3906250000  -5.394810e+001  -1.641531e+002 
3909375000  -5.417927e+001  1.743605e+002 
3912500000  -5.437883e+001  1.663232e+002 
3915625000  -5.480141e+001  1.608477e+002 
3918750000  -5.420335e+001  1.517491e+002 
3921875000  -5.556796e+001  1.397488e+002 
3925000000  -5.360500e+001  1.379262e+002 
3928125000  -5.281662e+001  1.099203e+002 
3931250000  -5.310604e+001  1.023709e+002 
3934375000  -5.444616e+001  8.715692e+001 
3937500000  -5.584784e+001  9.079524e+001 
3940625000  -5.449959e+001  8.182198e+001 
3943750000  -5.404137e+001  6.589368e+001 
3946875000  -5.241605e+001  5.094500e+001 
3950000000  -5.422146e+001  2.645557e+001 
3953125000  -5.399038e+001  3.769575e+001 
3956250000  -5.405081e+001  2.582953e+001 
3959375000  -5.215696e+001  1.917085e+001 
3962500000  -5.234083e+001  -9.410460e+000 
3965625000  -5.443468e+001  -1.200305e+001 
3968750000  -5.356400e+001  -3.242841e+001 
3971875000  -5.399360e+001  -4.202261e+001 
3975000000  -5.380530e+001  -5.976162e+001 
3978125000  -5.399933e+001  -5.773635e+001 
3981250000  -5.526543e+001  -7.426620e+001 
3984375000  -5.726241e+001  -8.405791e+001 
3987500000  -5.457109e+001  -9.032801e+001 
3990625000  -5.709993e+001  -1.009475e+002 
3993750000  -5.805262e+001  -1.195195e+002 
3996875000  -5.837145e+001  -1.223828e+002 
4000000000  -5.949961e+001  -1.115557e+002 
4003125000  -5.909634e+001  -1.291098e+002 
4006250000  -5.750343e+001  -1.351582e+002 
4009375000  -5.741870e+001  -1.548926e+002 
4012500000  -6.078192e+001  -1.523249e+002 
4015625000  -5.862035e+001  -1.613187e+002 
4018750000  -6.033099e+001  -1.511055e+002 
4021875000  -6.024288e+001  -1.652671e+002 
4025000000  -5.973884e+001  1.763504e+002 
4028125000  -5.948449e+001  1.655946e+002 
4031250000  -5.886938e+001  1.572113e+002 
4034375000  -5.957560e+001  1.642323e+002 
4037500000  -6.012663e+001  1.432065e+002 
4040625000  -6.093229e+001  1.584888e+002 
4043750000  -5.840443e+001  1.355638e+002 
4046875000  -5.815368e+001  1.262528e+002 
4050000000  -5.855231e+001  1.160167e+002 
4053125000  -5.891716e+001  1.248638e+002 
4056250000  -5.775311e+001  1.096183e+002 
4059375000  -5.540425e+001  1.067438e+002 
4062500000  -5.599926e+001  9.749673e+001 
4065625000  -5.487677e+001  9.159505e+001 
4068750000  -5.355766e+001  7.996883e+001 
4071875000  -5.150578e+001  5.226265e+001 
4075000000  -5.339020e+001  5.045204e+001 
4078125000  -5.335109e+001  3.399844e+001 
4081250000  -5.281013e+001  2.641643e+001 
4084375000  -5.292367e+001  8.518291e+000 
4087500000  -5.385947e+001  -2.350132e+000 
4090625000  -5.297896e+001  -2.500250e+000 
4093750000  -5.259980e+001  -1.571778e+001 
4096875000  -5.320197e+001  -2.534619e+001 
4100000000  -5.418823e+001  -5.246386e+001 
4103125000  -5.483280e+001  -4.653724e+001 
4106250000  -5.418957e+001  -5.481418e+001 
4109375000  -5.336534e+001  -6.267613e+001 
4112500000  -5.269686e+001  -8.092413e+001 
4115625000  -5.426791e+001  -8.623255e+001 
4118750000  -5.361782e+001  -1.042726e+002 
4121875000  -5.295897e+001  -1.144038e+002 
4125000000  -5.297813e+001  -1.229464e+002 
4128125000  -5.667674e+001  -1.373886e+002 
4131250000  -5.309550e+001  -1.353601e+002 
4134375000  -5.232027e+001  -1.549377e+002 
4137500000  -5.086530e+001  -1.698930e+002 
4140625000  -5.296814e+001  1.778732e+002 
4143750000  -5.604939e+001  1.692972e+002 
4146875000  -5.421423e+001  1.691758e+002 
4150000000  -5.475020e+001  1.608486e+002 
4153125000  -5.450215e+001  1.469094e+002 
4156250000  -5.524768e+001  1.289174e+002 
4159375000  -5.573265e+001  1.202694e+002 
4162500000  -5.750360e+001  1.203974e+002 
4165625000  -5.348831e+001  1.213883e+002 
4168750000  -5.442289e+001  9.200188e+001 
4171875000  -5.451994e+001  7.965518e+001 
4175000000  -5.657068e+001  5.385443e+001 
4178125000  -5.704510e+001  6.209112e+001 
4181250000  -5.925270e+001  3.194573e+001 
4184375000  -5.982519e+001  3.306944e+001 
4187500000  -5.755249e+001  3.117997e+001 
4190625000  -5.976650e+001  2.307723e+001 
4193750000  -6.169915e+001  2.864134e+001 
4196875000  -7.064542e+001  2.016215e+001 
4200000000  -6.431627e+001  -4.166304e+000 
4203125000  -6.354929e+001  1.422009e+001 
4206250000  -5.858046e+001  2.609695e+001 
4209375000  -6.421802e+001  -1.002593e+001 
4212500000  -6.684222e+001  -1.304825e+001 
4215625000  -6.411008e+001  -1.945499e+001 
4218750000  -6.262687e+001  5.672874e+001 
4221875000  -6.090649e+001  -1.857583e+001 
4225000000  -6.225351e+001  1.352907e+001 
4228125000  -5.962557e+001  -3.275503e+001 
4231250000  -6.133715e+001  -5.125286e+000 
4234375000  -5.556774e+001  -4.537877e+001 
4237500000  -5.819152e+001  -4.911934e+001 
4240625000  -5.672723e+001  -6.284091e+001 
4243750000  -5.696900e+001  -6.815266e+001 
4246875000  -5.583094e+001  -7.403249e+001 
4250000000  -5.922123e+001  -7.670624e+001 
4253125000  -5.544811e+001  -8.044302e+001 
4256250000  -5.717957e+001  -1.044642e+002 
4259375000  -5.687132e+001  -9.893594e+001 
4262500000  -5.445304e+001  -1.263944e+002 
4265625000  -5.352850e+001  -1.269939e+002 
4268750000  -5.331519e+001  -1.345186e+002 
4271875000  -5.191235e+001  -1.555135e+002 
4275000000  -5.137451e+001  1.758561e+002 
4278125000  -5.304809e+001  1.615722e+002 
4281250000  -5.365745e+001  1.608334e+002 
4284375000  -5.477452e+001  1.596675e+002 
4287500000  -5.467458e+001  1.462656e+002 
4290625000  -5.496823e+001  1.613690e+002 
4293750000  -5.437667e+001  1.455996e+002 
4296875000  -5.208037e+001  1.222329e+002 
4300000000  -5.229733e+001  1.088730e+002 
4303125000  -5.286388e+001  1.017148e+002 
4306250000  -5.304620e+001  1.001273e+002 
4309375000  -5.126882e+001  7.257072e+001 
4312500000  -5.192799e+001  6.580392e+001 
4315625000  -5.289548e+001  4.802760e+001 
4318750000  -5.297094e+001  4.453604e+001 
4321875000  -5.333318e+001  4.268496e+001 
4325000000  -5.229961e+001  2.693514e+001 
4328125000  -5.187089e+001  1.309172e+001 
4331250000  -5.263754e+001  -6.028974e+000 
4334375000  -5.411332e+001  -1.874939e+001 
4337500000  -5.536883e+001  -3.273861e+001 
4340625000  -5.569920e+001  -2.449873e+001 
4343750000  -5.525594e+001  -3.229998e+001 
4346875000  -5.494616e+001  -3.084672e+001 
4350000000  -5.427264e+001  -6.369611e+001 
4353125000  -5.743953e+001  -6.614729e+001 
4356250000  -5.897538e+001  -6.084747e+001 
4359375000  -5.916706e+001  -6.940070e+001 
4362500000  -5.473674e+001  -8.179916e+001 
4365625000  -5.504792e+001  -7.906553e+001 
4368750000  -5.605679e+001  -9.167406e+001 
4371875000  -5.607553e+001  -1.177059e+002 
4375000000  -5.705319e+001  -1.095173e+002 
4378125000  -5.593423e+001  -1.324487e+002 
4381250000  -5.633802e+001  -1.337227e+002 
4384375000  -5.553000e+001  -1.605913e+002 
4387500000  -5.686935e+001  -1.440856e+002 
4390625000  -5.664409e+001  -1.641168e+002 
4393750000  -5.899112e+001  -1.508780e+002 
4396875000  -5.576231e+001  -1.572839e+002 
4400000000  -5.527053e+001  -1.711409e+002 
4403125000  -5.612770e+001  1.754454e+002 
4406250000  -5.836247e+001  1.722907e+002 
4409375000  -5.682204e+001  1.660007e+002 
4412500000  -5.873899e+001  1.595041e+002 
4415625000  -5.723893e+001  1.638489e+002 
4418750000  -5.533902e+001  1.435963e+002 
