!Agilent Technologies,E8363B,MY43030201,A.06.04.32
!Agilent E8363B: A.06.04.32
!Date: Tuesday, November 11, 2014 22:13:21
!Correction: S21(Response(S21)) 
!S1P File: Measurement: S21:
# Hz S  dB   R 50
3000000000  -4.901553e+001  -7.263145e+001 
3003125000  -5.109895e+001  -8.012943e+001 
3006250000  -5.217601e+001  -8.865361e+001 
3009375000  -5.225465e+001  -8.741999e+001 
3012500000  -5.064252e+001  -9.663634e+001 
3015625000  -5.143290e+001  -1.095138e+002 
3018750000  -5.094880e+001  -1.149846e+002 
3021875000  -5.062936e+001  -1.202137e+002 
3025000000  -4.865076e+001  -1.258280e+002 
3028125000  -4.846826e+001  -1.454007e+002 
3031250000  -4.687572e+001  -1.621868e+002 
3034375000  -4.748614e+001  1.776196e+002 
3037500000  -4.792052e+001  1.641636e+002 
3040625000  -4.919407e+001  1.538312e+002 
3043750000  -5.008842e+001  1.420139e+002 
3046875000  -5.058294e+001  1.308212e+002 
3050000000  -5.144423e+001  1.248455e+002 
3053125000  -5.126302e+001  1.231138e+002 
3056250000  -5.184172e+001  1.189162e+002 
3059375000  -5.052047e+001  1.096621e+002 
3062500000  -4.957955e+001  1.004826e+002 
3065625000  -4.936959e+001  9.153933e+001 
3068750000  -4.926743e+001  7.875996e+001 
3071875000  -4.905734e+001  7.008962e+001 
3075000000  -4.880893e+001  5.523643e+001 
3078125000  -4.837882e+001  4.458434e+001 
3081250000  -4.891068e+001  3.419159e+001 
3084375000  -4.830376e+001  2.557222e+001 
3087500000  -4.815392e+001  1.327004e+001 
3090625000  -4.793166e+001  -6.266803e+000 
3093750000  -4.890241e+001  -1.616603e+001 
3096875000  -4.970837e+001  -2.120919e+001 
3100000000  -4.928517e+001  -3.436378e+001 
3103125000  -4.955822e+001  -4.186006e+001 
3106250000  -4.954825e+001  -4.690080e+001 
3109375000  -4.896598e+001  -5.863035e+001 
3112500000  -4.983440e+001  -6.862817e+001 
3115625000  -4.949118e+001  -8.136332e+001 
3118750000  -4.927047e+001  -8.466281e+001 
3121875000  -4.853371e+001  -1.006783e+002 
3125000000  -5.051070e+001  -1.110362e+002 
3128125000  -5.116866e+001  -1.083259e+002 
3131250000  -4.820075e+001  -1.183118e+002 
3134375000  -4.807354e+001  -1.397132e+002 
3137500000  -4.797636e+001  -1.526901e+002 
3140625000  -4.996055e+001  -1.589369e+002 
3143750000  -5.005472e+001  -1.702024e+002 
3146875000  -4.956854e+001  -1.719690e+002 
3150000000  -4.929715e+001  -1.781050e+002 
3153125000  -4.885984e+001  1.642214e+002 
3156250000  -5.043636e+001  1.623016e+002 
3159375000  -4.778038e+001  1.590671e+002 
3162500000  -4.641689e+001  1.368781e+002 
3165625000  -4.766642e+001  1.192093e+002 
3168750000  -4.791925e+001  1.122630e+002 
3171875000  -4.717940e+001  1.021182e+002 
3175000000  -4.765593e+001  8.838785e+001 
3178125000  -4.739323e+001  8.455761e+001 
3181250000  -4.635957e+001  6.870831e+001 
3184375000  -4.662436e+001  5.290763e+001 
3187500000  -4.759101e+001  3.787872e+001 
3190625000  -4.939595e+001  2.152857e+001 
3193750000  -4.971793e+001  2.310938e+001 
3196875000  -4.941362e+001  1.924019e+001 
3200000000  -4.817951e+001  8.467529e+000 
3203125000  -4.806828e+001  -3.367559e+000 
3206250000  -4.830058e+001  -1.706562e+001 
3209375000  -4.795164e+001  -2.742237e+001 
3212500000  -4.903716e+001  -3.993811e+001 
3215625000  -4.804111e+001  -4.384540e+001 
3218750000  -4.933332e+001  -6.899895e+001 
3221875000  -4.884927e+001  -7.804694e+001 
3225000000  -4.999836e+001  -8.282355e+001 
3228125000  -5.062541e+001  -9.580479e+001 
3231250000  -5.106734e+001  -1.027550e+002 
3234375000  -5.034678e+001  -1.068034e+002 
3237500000  -5.081810e+001  -1.176752e+002 
3240625000  -5.020602e+001  -1.283885e+002 
3243750000  -5.000426e+001  -1.456496e+002 
3246875000  -4.992002e+001  -1.503619e+002 
3250000000  -5.056231e+001  -1.665468e+002 
3253125000  -5.132878e+001  -1.760149e+002 
3256250000  -5.037467e+001  1.731360e+002 
3259375000  -5.102269e+001  1.585317e+002 
3262500000  -5.219368e+001  1.481178e+002 
3265625000  -5.277617e+001  1.490399e+002 
3268750000  -5.306871e+001  1.432463e+002 
3271875000  -5.286906e+001  1.391136e+002 
3275000000  -5.238381e+001  1.230831e+002 
3278125000  -5.238391e+001  1.059752e+002 
3281250000  -5.289494e+001  1.063061e+002 
3284375000  -5.243478e+001  9.039728e+001 
3287500000  -5.454219e+001  9.114599e+001 
3290625000  -5.261312e+001  7.168957e+001 
3293750000  -5.364906e+001  6.172235e+001 
3296875000  -5.352199e+001  5.228822e+001 
3300000000  -5.391578e+001  4.769080e+001 
3303125000  -5.273997e+001  3.960715e+001 
3306250000  -5.367835e+001  2.645297e+001 
3309375000  -5.322701e+001  1.575282e+001 
3312500000  -5.244032e+001  -1.652416e+000 
3315625000  -5.428580e+001  -1.961497e+001 
3318750000  -5.547149e+001  -1.793473e+001 
3321875000  -5.869683e+001  -2.891996e+001 
3325000000  -5.681082e+001  -1.836398e+001 
3328125000  -5.633149e+001  -3.346124e+001 
3331250000  -5.406065e+001  -2.868180e+001 
3334375000  -5.234592e+001  -4.226847e+001 
3337500000  -5.196549e+001  -7.140932e+001 
3340625000  -5.441226e+001  -8.074405e+001 
3343750000  -5.488115e+001  -7.873829e+001 
3346875000  -5.475837e+001  -9.986932e+001 
3350000000  -5.429451e+001  -1.014921e+002 
3353125000  -5.390494e+001  -1.111895e+002 
3356250000  -5.446898e+001  -1.254878e+002 
3359375000  -5.493067e+001  -1.433474e+002 
3362500000  -5.622992e+001  -1.593097e+002 
3365625000  -5.556503e+001  -1.626982e+002 
3368750000  -5.692936e+001  -1.751435e+002 
3371875000  -5.655595e+001  -1.785586e+002 
3375000000  -5.887689e+001  1.668432e+002 
3378125000  -5.856603e+001  1.637484e+002 
3381250000  -6.054678e+001  1.749499e+002 
3384375000  -5.689698e+001  -1.744283e+002 
3387500000  -5.497799e+001  1.448398e+002 
3390625000  -5.584939e+001  1.280156e+002 
3393750000  -5.805630e+001  1.146519e+002 
3396875000  -5.637393e+001  1.109002e+002 
3400000000  -5.660318e+001  9.630817e+001 
3403125000  -5.662850e+001  8.838019e+001 
3406250000  -5.784764e+001  7.950754e+001 
3409375000  -5.790881e+001  4.597158e+001 
3412500000  -6.007936e+001  5.234242e+001 
3415625000  -5.939563e+001  3.532639e+001 
3418750000  -6.114039e+001  4.388867e+001 
3421875000  -6.079650e+001  2.055087e+001 
3425000000  -6.039075e+001  3.235897e+001 
3428125000  -5.783004e+001  9.895667e+000 
3431250000  -5.881518e+001  1.428852e-001 
3434375000  -5.882774e+001  -2.018231e+001 
3437500000  -6.393801e+001  -2.858520e+001 
3440625000  -6.031763e+001  -2.286900e+001 
3443750000  -6.429293e+001  -3.133781e+001 
3446875000  -6.005380e+001  -6.112408e+001 
3450000000  -6.162028e+001  -5.659299e+001 
3453125000  -6.127565e+001  -7.790120e+001 
3456250000  -6.744710e+001  -7.664462e+001 
3459375000  -6.840228e+001  -9.279168e+001 
3462500000  -6.963527e+001  -8.070033e+001 
3465625000  -6.406228e+001  -9.601115e+001 
3468750000  -6.515116e+001  -1.201014e+002 
3471875000  -6.296812e+001  -1.191206e+002 
3475000000  -6.530800e+001  -1.157100e+002 
3478125000  -6.621769e+001  -6.957588e+001 
3481250000  -6.924725e+001  -1.462990e+002 
3484375000  -6.858993e+001  -1.191416e+002 
3487500000  -6.714069e+001  -1.174286e+002 
3490625000  -6.406168e+001  -1.197971e+002 
3493750000  -7.104195e+001  -1.409775e+002 
3496875000  -6.952211e+001  -1.517429e+002 
3500000000  -6.396175e+001  -1.711275e+002 
3503125000  -7.380789e+001  -1.000990e+002 
3506250000  -6.320088e+001  -1.586728e+002 
3509375000  -6.501225e+001  1.527768e+002 
3512500000  -6.651384e+001  1.105028e+002 
3515625000  -6.852672e+001  1.600149e+002 
3518750000  -6.439002e+001  1.329052e+002 
3521875000  -6.773849e+001  1.436892e+002 
3525000000  -6.885329e+001  1.405324e+002 
3528125000  -7.176282e+001  9.804981e+001 
3531250000  -6.693226e+001  1.252349e+002 
3534375000  -6.939850e+001  1.113036e+002 
3537500000  -6.877635e+001  7.598203e+001 
3540625000  -6.716566e+001  5.744356e+001 
3543750000  -6.899709e+001  1.090766e+002 
3546875000  -7.111298e+001  9.268372e+001 
3550000000  -7.195070e+001  8.797565e+001 
3553125000  -6.701064e+001  5.655252e+001 
3556250000  -8.429650e+001  -8.127522e+001 
3559375000  -6.983706e+001  3.096498e+001 
3562500000  -7.122416e+001  1.833575e+001 
3565625000  -7.021788e+001  3.511572e+001 
3568750000  -7.669576e+001  8.013250e+001 
3571875000  -7.148320e+001  -2.305207e+001 
3575000000  -7.294054e+001  -1.585200e+000 
3578125000  -6.996895e+001  3.384249e+001 
3581250000  -6.649760e+001  8.445357e+001 
3584375000  -7.339697e+001  7.888359e+001 
3587500000  -7.205663e+001  -4.108400e+000 
3590625000  -7.627343e+001  2.911977e+001 
3593750000  -7.208620e+001  -2.937621e+001 
3596875000  -6.964698e+001  3.919069e+001 
3600000000  -6.527039e+001  -2.943553e+001 
3603125000  -6.735165e+001  1.478974e+001 
3606250000  -6.799532e+001  -3.353126e+001 
3609375000  -6.407105e+001  -4.182609e+001 
3612500000  -6.609714e+001  -6.376310e+001 
3615625000  -6.806702e+001  -3.235342e+001 
3618750000  -6.295847e+001  -7.166031e+001 
3621875000  -6.508287e+001  -5.494949e+001 
3625000000  -6.400103e+001  -8.167767e+001 
3628125000  -6.213586e+001  -9.566709e+001 
3631250000  -6.547626e+001  -1.139907e+002 
3634375000  -6.313882e+001  -1.367788e+002 
3637500000  -6.366504e+001  -1.159796e+002 
3640625000  -6.087316e+001  -1.343337e+002 
3643750000  -6.176901e+001  -1.718251e+002 
3646875000  -6.217354e+001  -1.745996e+002 
3650000000  -6.668484e+001  1.709934e+002 
3653125000  -6.267643e+001  -1.631407e+002 
3656250000  -6.567590e+001  1.472116e+002 
3659375000  -6.546448e+001  1.589271e+002 
3662500000  -6.387229e+001  1.469972e+002 
3665625000  -6.351193e+001  1.632937e+002 
3668750000  -6.262108e+001  1.167634e+002 
3671875000  -6.567462e+001  1.121343e+002 
3675000000  -6.724686e+001  1.169552e+002 
3678125000  -6.469633e+001  1.372144e+002 
3681250000  -6.315464e+001  9.427991e+001 
3684375000  -6.817258e+001  1.130232e+002 
3687500000  -7.163284e+001  4.226922e+001 
3690625000  -7.140057e+001  4.302460e+001 
3693750000  -6.856279e+001  5.620695e+001 
3696875000  -6.751790e+001  7.090219e+001 
3700000000  -6.023475e+001  8.118654e+001 
3703125000  -6.590140e+001  3.988391e+001 
3706250000  -6.573167e+001  5.907711e+001 
3709375000  -6.632813e+001  4.432163e+001 
3712500000  -6.150459e+001  5.211686e+001 
3715625000  -6.055556e+001  5.127207e+001 
3718750000  -6.089504e+001  2.908796e+001 
3721875000  -6.018104e+001  2.931484e+001 
3725000000  -6.109827e+001  2.481837e+000 
3728125000  -5.918905e+001  1.240929e+001 
3731250000  -5.895979e+001  -7.086240e+000 
3734375000  -5.905241e+001  -2.119730e+001 
3737500000  -6.054699e+001  -3.850443e+001 
3740625000  -5.914706e+001  -3.991300e+001 
3743750000  -6.204884e+001  -6.393882e+001 
3746875000  -6.004631e+001  -6.996574e+001 
3750000000  -5.644787e+001  -8.807792e+001 
3753125000  -5.893247e+001  -8.654118e+001 
3756250000  -5.897792e+001  -9.594139e+001 
3759375000  -5.786413e+001  -1.170808e+002 
3762500000  -5.744882e+001  -1.208961e+002 
3765625000  -5.729462e+001  -1.090003e+002 
3768750000  -5.946569e+001  -1.466912e+002 
3771875000  -5.646545e+001  -1.323646e+002 
3775000000  -5.519342e+001  -1.625997e+002 
3778125000  -5.684425e+001  -1.774920e+002 
3781250000  -5.844051e+001  1.779266e+002 
3784375000  -5.729773e+001  1.650534e+002 
3787500000  -5.714314e+001  1.515800e+002 
3790625000  -5.790257e+001  1.346192e+002 
3793750000  -5.922536e+001  1.446764e+002 
3796875000  -5.554217e+001  1.218745e+002 
3800000000  -5.294470e+001  7.647639e+001 
3803125000  -5.882117e+001  9.808101e+001 
3806250000  -5.871581e+001  8.048788e+001 
3809375000  -5.799903e+001  7.277309e+001 
3812500000  -5.726004e+001  5.618312e+001 
3815625000  -6.015621e+001  4.815014e+001 
3818750000  -6.415313e+001  3.279773e+001 
3821875000  -6.162076e+001  6.972536e+001 
3825000000  -5.868316e+001  6.022111e+001 
3828125000  -5.912136e+001  1.999756e+001 
3831250000  -6.206546e+001  4.831677e+000 
3834375000  -6.396674e+001  -7.733880e+000 
3837500000  -6.085187e+001  1.854348e+001 
3840625000  -5.978120e+001  -5.820764e+000 
3843750000  -6.269986e+001  8.644692e+000 
3846875000  -6.234548e+001  -1.744956e+001 
3850000000  -6.451656e+001  1.352779e+001 
3853125000  -6.258939e+001  -1.009836e+001 
3856250000  -6.127552e+001  4.328174e+000 
3859375000  -6.098905e+001  -3.531798e+001 
3862500000  -5.942649e+001  -2.656436e+001 
3865625000  -6.132792e+001  -4.816145e+001 
3868750000  -5.884818e+001  -4.820842e+001 
3871875000  -5.761543e+001  -5.355362e+001 
3875000000  -5.962189e+001  -7.466656e+001 
3878125000  -5.909855e+001  -7.174037e+001 
3881250000  -5.642199e+001  -8.559444e+001 
3884375000  -5.562304e+001  -9.970949e+001 
3887500000  -5.600101e+001  -1.234783e+002 
3890625000  -5.677854e+001  -1.121387e+002 
3893750000  -5.921605e+001  -1.379474e+002 
3896875000  -5.880023e+001  -1.377993e+002 
3900000000  -5.679364e+001  -1.407651e+002 
3903125000  -5.551524e+001  -1.567477e+002 
3906250000  -5.267031e+001  -1.716544e+002 
3909375000  -5.433604e+001  1.797809e+002 
3912500000  -5.418349e+001  1.615843e+002 
3915625000  -5.552036e+001  1.635895e+002 
3918750000  -5.432572e+001  1.537659e+002 
3921875000  -5.447476e+001  1.399669e+002 
3925000000  -5.307162e+001  1.271939e+002 
3928125000  -5.266912e+001  1.050739e+002 
3931250000  -5.471877e+001  1.015817e+002 
3934375000  -5.400965e+001  9.184227e+001 
3937500000  -5.523216e+001  8.834662e+001 
3940625000  -5.490480e+001  7.818319e+001 
3943750000  -5.422021e+001  6.460270e+001 
3946875000  -5.411502e+001  5.306320e+001 
3950000000  -5.475843e+001  3.860071e+001 
3953125000  -5.403064e+001  3.649391e+001 
3956250000  -5.345106e+001  1.883344e+001 
3959375000  -5.193990e+001  2.065645e+001 
3962500000  -5.347575e+001  -4.308921e+000 
3965625000  -5.222165e+001  -1.468760e+001 
3968750000  -5.302584e+001  -3.548457e+001 
3971875000  -5.375196e+001  -3.723806e+001 
3975000000  -5.419247e+001  -4.988715e+001 
3978125000  -5.380341e+001  -5.238064e+001 
3981250000  -5.442993e+001  -7.703072e+001 
3984375000  -5.615522e+001  -9.277618e+001 
3987500000  -5.520882e+001  -9.361967e+001 
3990625000  -5.692733e+001  -1.015885e+002 
3993750000  -5.620946e+001  -1.128467e+002 
3996875000  -5.734910e+001  -1.187398e+002 
4000000000  -5.813485e+001  -1.370501e+002 
4003125000  -6.043924e+001  -1.389669e+002 
4006250000  -5.799063e+001  -1.481968e+002 
4009375000  -5.756373e+001  -1.492062e+002 
4012500000  -5.911743e+001  -1.625526e+002 
4015625000  -5.999982e+001  -1.653515e+002 
4018750000  -5.996606e+001  -1.612132e+002 
4021875000  -5.835868e+001  -1.670548e+002 
4025000000  -5.908898e+001  1.756532e+002 
4028125000  -5.888745e+001  1.737420e+002 
4031250000  -5.995578e+001  1.563046e+002 
4034375000  -5.832771e+001  1.623472e+002 
4037500000  -5.882627e+001  1.560989e+002 
4040625000  -5.797430e+001  1.585301e+002 
4043750000  -5.987783e+001  1.507461e+002 
4046875000  -5.707922e+001  1.248558e+002 
4050000000  -5.794773e+001  1.250747e+002 
4053125000  -5.683079e+001  1.095389e+002 
4056250000  -5.685679e+001  1.209397e+002 
4059375000  -5.610516e+001  1.141569e+002 
4062500000  -5.563166e+001  1.013431e+002 
4065625000  -5.473612e+001  8.039345e+001 
4068750000  -5.419054e+001  7.181841e+001 
4071875000  -5.246115e+001  5.910088e+001 
4075000000  -5.381268e+001  4.655870e+001 
4078125000  -5.245367e+001  3.946791e+001 
4081250000  -5.276342e+001  2.894807e+001 
4084375000  -5.175585e+001  1.136698e+001 
4087500000  -5.520975e+001  2.035579e+000 
4090625000  -5.333616e+001  -7.094987e+000 
4093750000  -5.306604e+001  -2.314295e+001 
4096875000  -5.282393e+001  -3.079383e+001 
4100000000  -5.372047e+001  -4.280394e+001 
4103125000  -5.517543e+001  -4.706913e+001 
4106250000  -5.289315e+001  -6.146929e+001 
4109375000  -5.410965e+001  -5.794557e+001 
4112500000  -5.277627e+001  -8.557668e+001 
4115625000  -5.293811e+001  -8.819927e+001 
4118750000  -5.283701e+001  -1.027971e+002 
4121875000  -5.327330e+001  -1.190952e+002 
4125000000  -5.392755e+001  -1.189386e+002 
4128125000  -5.559106e+001  -1.416277e+002 
4131250000  -5.359503e+001  -1.298766e+002 
4134375000  -5.245770e+001  -1.521721e+002 
4137500000  -5.268187e+001  -1.723076e+002 
4140625000  -5.363038e+001  1.707928e+002 
4143750000  -5.565409e+001  1.646711e+002 
4146875000  -5.288492e+001  1.738424e+002 
4150000000  -5.363526e+001  1.602543e+002 
4153125000  -5.504579e+001  1.580499e+002 
4156250000  -5.558397e+001  1.324173e+002 
4159375000  -5.566739e+001  1.357836e+002 
4162500000  -5.629533e+001  1.196751e+002 
4165625000  -5.250124e+001  1.134827e+002 
4168750000  -5.376541e+001  8.347707e+001 
4171875000  -5.519588e+001  7.312287e+001 
4175000000  -5.694684e+001  6.424002e+001 
4178125000  -5.742192e+001  6.133056e+001 
4181250000  -5.778764e+001  4.894321e+001 
4184375000  -5.883554e+001  3.364560e+001 
4187500000  -5.822699e+001  3.078325e+001 
4190625000  -6.343089e+001  1.514112e+001 
4193750000  -6.017377e+001  9.099236e+000 
4196875000  -6.429830e+001  1.096787e+001 
4200000000  -6.166250e+001  2.356809e+001 
4203125000  -6.313070e+001  3.551953e+001 
4206250000  -5.894001e+001  -1.657462e+001 
4209375000  -6.170137e+001  -1.484820e+001 
4212500000  -6.227002e+001  7.402759e+000 
4215625000  -6.327172e+001  -1.699217e+001 
4218750000  -6.034305e+001  4.093223e+001 
4221875000  -6.085105e+001  -2.490658e+001 
4225000000  -6.355889e+001  -3.400406e+001 
4228125000  -5.758026e+001  -2.855270e+001 
4231250000  -5.811745e+001  -2.051507e+001 
4234375000  -5.788959e+001  -4.228253e+001 
4237500000  -5.972252e+001  -3.331395e+001 
4240625000  -5.674569e+001  -5.560147e+001 
4243750000  -5.846017e+001  -5.916913e+001 
4246875000  -5.629073e+001  -7.434820e+001 
4250000000  -5.522268e+001  -8.719901e+001 
4253125000  -5.627413e+001  -8.288331e+001 
4256250000  -5.526470e+001  -1.009108e+002 
4259375000  -5.503245e+001  -1.114995e+002 
4262500000  -5.491653e+001  -1.187282e+002 
4265625000  -5.346938e+001  -1.274003e+002 
4268750000  -5.258727e+001  -1.458962e+002 
4271875000  -5.172541e+001  -1.526344e+002 
4275000000  -5.244526e+001  -1.639660e+002 
4278125000  -5.302785e+001  1.665270e+002 
4281250000  -5.262655e+001  1.666810e+002 
4284375000  -5.366130e+001  1.599714e+002 
4287500000  -5.422870e+001  1.508881e+002 
4290625000  -5.478725e+001  1.525584e+002 
4293750000  -5.282773e+001  1.420524e+002 
4296875000  -5.174780e+001  1.193411e+002 
4300000000  -5.335320e+001  1.038753e+002 
4303125000  -5.314844e+001  9.463396e+001 
4306250000  -5.254910e+001  9.126519e+001 
4309375000  -5.139727e+001  7.654587e+001 
4312500000  -5.250912e+001  6.338964e+001 
4315625000  -5.275367e+001  5.314503e+001 
4318750000  -5.372298e+001  4.580793e+001 
4321875000  -5.291740e+001  2.815303e+001 
4325000000  -5.275232e+001  2.485271e+001 
4328125000  -5.126761e+001  1.458955e+001 
4331250000  -5.403132e+001  -7.574749e+000 
4334375000  -5.348818e+001  -1.279237e+001 
4337500000  -5.592170e+001  -3.008189e+001 
4340625000  -5.503481e+001  -2.096031e+001 
4343750000  -5.389303e+001  -3.974474e+001 
4346875000  -5.562843e+001  -3.862410e+001 
4350000000  -5.453578e+001  -6.826822e+001 
4353125000  -5.852863e+001  -6.149321e+001 
4356250000  -5.682088e+001  -7.617274e+001 
4359375000  -5.684418e+001  -5.199818e+001 
4362500000  -5.521505e+001  -6.824076e+001 
4365625000  -5.400481e+001  -9.674776e+001 
4368750000  -5.680833e+001  -1.059942e+002 
4371875000  -5.641755e+001  -1.094342e+002 
4375000000  -5.660255e+001  -1.195979e+002 
4378125000  -5.443169e+001  -1.283726e+002 
4381250000  -6.121296e+001  -1.273112e+002 
4384375000  -5.759761e+001  -1.461333e+002 
4387500000  -5.861215e+001  -1.403823e+002 
4390625000  -5.800619e+001  -1.511356e+002 
4393750000  -5.921537e+001  -1.581742e+002 
4396875000  -5.585328e+001  -1.518850e+002 
4400000000  -5.568616e+001  -1.771733e+002 
4403125000  -5.701551e+001  -1.739983e+002 
4406250000  -5.629625e+001  1.733636e+002 
4409375000  -5.517612e+001  1.657708e+002 
4412500000  -5.691019e+001  1.549705e+002 
4415625000  -5.529450e+001  1.673390e+002 
4418750000  -5.454921e+001  1.529333e+002 
