!Agilent Technologies,E8363B,MY43030201,A.06.04.32
!Agilent E8363B: A.06.04.32
!Date: Tuesday, November 11, 2014 22:11:17
!Correction: S21(Response(S21)) 
!S1P File: Measurement: S21:
# Hz S  dB   R 50
3000000000  -4.906809e+001  -7.668283e+001 
3003125000  -5.147992e+001  -8.362461e+001 
3006250000  -5.140450e+001  -8.848814e+001 
3009375000  -5.120924e+001  -8.647035e+001 
3012500000  -5.155195e+001  -9.929157e+001 
3015625000  -5.103337e+001  -1.076900e+002 
3018750000  -5.168833e+001  -1.150528e+002 
3021875000  -5.039139e+001  -1.215743e+002 
3025000000  -4.835595e+001  -1.297788e+002 
3028125000  -4.814827e+001  -1.456728e+002 
3031250000  -4.685925e+001  -1.618925e+002 
3034375000  -4.705516e+001  1.789144e+002 
3037500000  -4.770444e+001  1.649274e+002 
3040625000  -4.947766e+001  1.546480e+002 
3043750000  -4.994037e+001  1.391591e+002 
3046875000  -5.058953e+001  1.286188e+002 
3050000000  -5.160585e+001  1.243202e+002 
3053125000  -5.170285e+001  1.190042e+002 
3056250000  -5.119569e+001  1.174856e+002 
3059375000  -5.106868e+001  1.123158e+002 
3062500000  -4.904644e+001  9.996780e+001 
3065625000  -4.909668e+001  8.739943e+001 
3068750000  -4.876677e+001  7.355140e+001 
3071875000  -4.922089e+001  6.645403e+001 
3075000000  -4.830882e+001  5.178858e+001 
3078125000  -4.855099e+001  4.366243e+001 
3081250000  -4.893708e+001  3.323918e+001 
3084375000  -4.797209e+001  2.380469e+001 
3087500000  -4.835385e+001  9.704805e+000 
3090625000  -4.834076e+001  -6.381446e+000 
3093750000  -4.905402e+001  -1.676999e+001 
3096875000  -4.960782e+001  -2.539594e+001 
3100000000  -4.926237e+001  -3.595636e+001 
3103125000  -4.978071e+001  -4.279450e+001 
3106250000  -4.913322e+001  -5.111417e+001 
3109375000  -5.008264e+001  -6.007376e+001 
3112500000  -4.957688e+001  -6.802140e+001 
3115625000  -4.919640e+001  -8.069807e+001 
3118750000  -4.963434e+001  -8.719858e+001 
3121875000  -4.899687e+001  -1.006234e+002 
3125000000  -5.124518e+001  -1.117419e+002 
3128125000  -5.135181e+001  -1.133894e+002 
3131250000  -4.820158e+001  -1.157979e+002 
3134375000  -4.747156e+001  -1.414160e+002 
3137500000  -4.855989e+001  -1.552578e+002 
3140625000  -4.988172e+001  -1.585668e+002 
3143750000  -5.044251e+001  -1.698761e+002 
3146875000  -5.002354e+001  -1.736620e+002 
3150000000  -4.894424e+001  1.793613e+002 
3153125000  -4.859132e+001  1.662645e+002 
3156250000  -5.029186e+001  1.645130e+002 
3159375000  -4.810813e+001  1.592067e+002 
3162500000  -4.587324e+001  1.378951e+002 
3165625000  -4.749201e+001  1.208427e+002 
3168750000  -4.791716e+001  1.161926e+002 
3171875000  -4.734359e+001  1.021125e+002 
3175000000  -4.790208e+001  8.598022e+001 
3178125000  -4.702538e+001  8.267928e+001 
3181250000  -4.651584e+001  6.734830e+001 
3184375000  -4.679603e+001  5.207245e+001 
3187500000  -4.772315e+001  3.572905e+001 
3190625000  -4.923410e+001  1.909563e+001 
3193750000  -5.006298e+001  2.056564e+001 
3196875000  -4.927573e+001  1.470924e+001 
3200000000  -4.852866e+001  7.309732e+000 
3203125000  -4.836470e+001  -6.893508e+000 
3206250000  -4.891106e+001  -1.508599e+001 
3209375000  -4.804210e+001  -3.127245e+001 
3212500000  -4.868588e+001  -4.083644e+001 
3215625000  -4.875703e+001  -4.715043e+001 
3218750000  -4.924787e+001  -6.714866e+001 
3221875000  -4.971979e+001  -8.015686e+001 
3225000000  -5.011980e+001  -8.678924e+001 
3228125000  -5.017881e+001  -9.743278e+001 
3231250000  -5.104153e+001  -1.059829e+002 
3234375000  -4.975890e+001  -1.115301e+002 
3237500000  -5.100703e+001  -1.180426e+002 
3240625000  -5.057209e+001  -1.301311e+002 
3243750000  -4.954347e+001  -1.454503e+002 
3246875000  -5.041521e+001  -1.552432e+002 
3250000000  -5.094687e+001  -1.639338e+002 
3253125000  -5.155421e+001  -1.702792e+002 
3256250000  -4.984962e+001  1.733151e+002 
3259375000  -5.109435e+001  1.527998e+002 
3262500000  -5.225039e+001  1.464714e+002 
3265625000  -5.345038e+001  1.427832e+002 
3268750000  -5.307602e+001  1.386835e+002 
3271875000  -5.295800e+001  1.375000e+002 
3275000000  -5.193985e+001  1.171943e+002 
3278125000  -5.231984e+001  1.056035e+002 
3281250000  -5.300960e+001  1.059575e+002 
3284375000  -5.182378e+001  9.034694e+001 
3287500000  -5.401487e+001  8.440800e+001 
3290625000  -5.205717e+001  7.648392e+001 
3293750000  -5.257182e+001  6.122997e+001 
3296875000  -5.440564e+001  5.693490e+001 
3300000000  -5.462640e+001  5.404528e+001 
3303125000  -5.294709e+001  3.870154e+001 
3306250000  -5.305394e+001  2.563982e+001 
3309375000  -5.355596e+001  1.557902e+001 
3312500000  -5.279031e+001  -5.148273e+000 
3315625000  -5.478294e+001  -3.423465e+000 
3318750000  -5.543948e+001  -2.399409e+001 
3321875000  -5.667163e+001  -3.179742e+001 
3325000000  -5.906685e+001  -1.701392e+001 
3328125000  -5.667128e+001  -1.182854e+001 
3331250000  -5.318564e+001  -2.926793e+001 
3334375000  -5.159915e+001  -4.948644e+001 
3337500000  -5.181161e+001  -7.377132e+001 
3340625000  -5.372575e+001  -9.151174e+001 
3343750000  -5.578693e+001  -9.207136e+001 
3346875000  -5.492031e+001  -1.010100e+002 
3350000000  -5.420521e+001  -1.056808e+002 
3353125000  -5.433031e+001  -1.216052e+002 
3356250000  -5.465864e+001  -1.317662e+002 
3359375000  -5.492116e+001  -1.440757e+002 
3362500000  -5.631353e+001  -1.455047e+002 
3365625000  -5.601779e+001  -1.615597e+002 
3368750000  -5.606887e+001  -1.780919e+002 
3371875000  -5.662212e+001  1.739236e+002 
3375000000  -5.893879e+001  1.623107e+002 
3378125000  -5.936562e+001  1.775489e+002 
3381250000  -5.875673e+001  1.576254e+002 
3384375000  -5.667937e+001  -1.763067e+002 
3387500000  -5.269751e+001  1.417960e+002 
3390625000  -5.806141e+001  1.235578e+002 
3393750000  -5.720328e+001  1.157937e+002 
3396875000  -5.724366e+001  1.103534e+002 
3400000000  -5.610294e+001  9.501994e+001 
3403125000  -5.730606e+001  8.494537e+001 
3406250000  -5.797748e+001  7.261957e+001 
3409375000  -5.669598e+001  5.213646e+001 
3412500000  -5.837944e+001  5.125984e+001 
3415625000  -5.987711e+001  3.800070e+001 
3418750000  -6.058605e+001  3.652999e+001 
3421875000  -6.005317e+001  2.731202e+001 
3425000000  -5.870788e+001  2.551892e+001 
3428125000  -5.959146e+001  -1.301967e+000 
3431250000  -6.110355e+001  4.381864e+000 
3434375000  -6.037696e+001  -2.513356e+001 
3437500000  -6.471477e+001  -2.614347e+001 
3440625000  -6.320323e+001  -2.884087e+001 
3443750000  -6.456465e+001  -2.114776e+001 
3446875000  -6.120029e+001  -5.925465e+001 
3450000000  -5.992644e+001  -7.340575e+001 
3453125000  -6.033119e+001  -6.614778e+001 
3456250000  -7.190062e+001  -7.267680e+001 
3459375000  -6.405529e+001  -7.032612e+001 
3462500000  -6.692901e+001  -9.018320e+001 
3465625000  -6.471827e+001  -1.155110e+002 
3468750000  -6.745132e+001  -1.240757e+002 
3471875000  -6.472960e+001  -1.007157e+002 
3475000000  -6.266071e+001  -1.283885e+002 
3478125000  -7.041451e+001  -1.499100e+002 
3481250000  -6.966777e+001  -1.406536e+002 
3484375000  -6.658643e+001  -1.131250e+002 
3487500000  -6.505191e+001  -1.218387e+002 
3490625000  -6.711892e+001  -1.615202e+002 
3493750000  -7.019518e+001  -1.608716e+002 
3496875000  -7.351743e+001  -1.332933e+002 
3500000000  -6.428889e+001  -1.665499e+002 
3503125000  -6.873071e+001  -1.289652e+002 
3506250000  -6.654448e+001  -1.549035e+002 
3509375000  -6.636765e+001  1.600252e+002 
3512500000  -6.553038e+001  1.701345e+002 
3515625000  -6.990934e+001  1.333921e+002 
3518750000  -6.759699e+001  1.125149e+002 
3521875000  -7.347900e+001  1.628167e+002 
3525000000  -6.805318e+001  1.360730e+002 
3528125000  -6.549520e+001  1.220401e+002 
3531250000  -6.440842e+001  1.183910e+002 
3534375000  -6.817311e+001  6.171432e+001 
3537500000  -6.634775e+001  1.006600e+002 
3540625000  -6.771645e+001  3.895690e+001 
3543750000  -7.160915e+001  7.829939e+001 
3546875000  -6.979590e+001  7.066241e+001 
3550000000  -7.536491e+001  2.571418e+001 
3553125000  -6.794374e+001  3.434134e+001 
3556250000  -7.527605e+001  -4.163160e+001 
3559375000  -7.677581e+001  4.619102e+001 
3562500000  -8.585908e+001  6.968074e+001 
3565625000  -7.804309e+001  3.240674e+001 
3568750000  -7.543515e+001  2.040082e+001 
3571875000  -7.587727e+001  9.786102e+001 
3575000000  -7.458028e+001  3.067239e+001 
3578125000  -6.973589e+001  4.540728e+001 
3581250000  -7.736763e+001  3.888108e+001 
3584375000  -7.425141e+001  1.239184e+002 
3587500000  -7.369138e+001  4.269681e+001 
3590625000  -7.035484e+001  1.102528e+001 
3593750000  -6.690118e+001  -3.832841e+001 
3596875000  -7.168595e+001  -2.786730e+001 
3600000000  -7.033929e+001  4.132770e+000 
3603125000  -6.586571e+001  -5.099842e+001 
3606250000  -6.322536e+001  -4.364372e+001 
3609375000  -6.623650e+001  -3.182611e+001 
3612500000  -6.358533e+001  -4.862343e+001 
3615625000  -7.029927e+001  -5.879508e+001 
3618750000  -6.499258e+001  -5.089169e+001 
3621875000  -6.149957e+001  -8.750204e+001 
3625000000  -6.522935e+001  -7.944143e+001 
3628125000  -6.363463e+001  -1.110764e+002 
3631250000  -6.566728e+001  -1.053464e+002 
3634375000  -6.476053e+001  -1.145328e+002 
3637500000  -6.296911e+001  -1.200197e+002 
3640625000  -6.322687e+001  -1.479135e+002 
3643750000  -6.133970e+001  -1.623659e+002 
3646875000  -6.117629e+001  1.712749e+002 
3650000000  -6.358411e+001  -1.777944e+002 
3653125000  -6.545892e+001  -1.581825e+002 
3656250000  -6.729414e+001  1.452091e+002 
3659375000  -6.340541e+001  1.466174e+002 
3662500000  -6.355809e+001  1.229465e+002 
3665625000  -6.333447e+001  1.444385e+002 
3668750000  -6.221388e+001  1.122421e+002 
3671875000  -6.390718e+001  1.132425e+002 
3675000000  -6.505508e+001  9.567477e+001 
3678125000  -6.455787e+001  1.141380e+002 
3681250000  -6.511665e+001  8.630200e+001 
3684375000  -6.802628e+001  7.429447e+001 
3687500000  -6.381490e+001  7.180936e+001 
3690625000  -6.986408e+001  9.107294e+001 
3693750000  -6.630236e+001  1.023499e+002 
3696875000  -6.808863e+001  5.701220e+001 
3700000000  -6.199735e+001  8.106607e+001 
3703125000  -6.504183e+001  7.687045e+001 
3706250000  -6.671909e+001  4.873125e+001 
3709375000  -6.393211e+001  3.863165e+001 
3712500000  -6.173756e+001  5.539714e+001 
3715625000  -6.350670e+001  4.247524e+001 
3718750000  -6.093544e+001  1.968179e+001 
3721875000  -6.191506e+001  1.342148e+001 
3725000000  -5.969212e+001  2.391469e+001 
3728125000  -5.915076e+001  6.124654e+000 
3731250000  -6.184011e+001  1.803372e+000 
3734375000  -6.138301e+001  -2.010162e+001 
3737500000  -5.962884e+001  -5.516587e+001 
3740625000  -5.984331e+001  -2.006524e+001 
3743750000  -5.957306e+001  -5.632944e+001 
3746875000  -5.890601e+001  -5.802425e+001 
3750000000  -5.823040e+001  -8.579432e+001 
3753125000  -5.943955e+001  -7.966248e+001 
3756250000  -5.913462e+001  -1.010154e+002 
3759375000  -5.802515e+001  -1.049044e+002 
3762500000  -5.711127e+001  -1.095981e+002 
3765625000  -6.018249e+001  -1.092348e+002 
3768750000  -5.824405e+001  -1.414066e+002 
3771875000  -5.499920e+001  -1.504031e+002 
3775000000  -5.542148e+001  -1.585229e+002 
3778125000  -5.743428e+001  1.752845e+002 
3781250000  -5.957421e+001  1.642390e+002 
3784375000  -5.652260e+001  1.732269e+002 
3787500000  -5.823798e+001  1.480015e+002 
3790625000  -5.698881e+001  1.435535e+002 
3793750000  -5.782677e+001  1.388855e+002 
3796875000  -5.544787e+001  1.290464e+002 
3800000000  -5.379422e+001  8.367066e+001 
3803125000  -5.723208e+001  1.015311e+002 
3806250000  -6.145002e+001  7.833926e+001 
3809375000  -5.976341e+001  8.280532e+001 
3812500000  -5.716533e+001  6.627826e+001 
3815625000  -5.899421e+001  5.892061e+001 
3818750000  -6.355980e+001  5.234302e+001 
3821875000  -6.270840e+001  6.936810e+001 
3825000000  -5.935929e+001  4.226394e+001 
3828125000  -5.793743e+001  9.437971e+000 
3831250000  -6.197616e+001  1.010543e+001 
3834375000  -6.451350e+001  -1.348978e+001 
3837500000  -6.599141e+001  -8.885853e-001 
3840625000  -6.337818e+001  2.735615e+001 
3843750000  -6.339275e+001  -5.072234e+000 
3846875000  -6.239198e+001  -2.876728e+001 
3850000000  -6.356253e+001  -1.365824e+001 
3853125000  -6.339412e+001  -8.456417e-001 
3856250000  -6.069316e+001  1.703031e+001 
3859375000  -6.008570e+001  -3.796362e+001 
3862500000  -5.843428e+001  -4.163715e+001 
3865625000  -6.060262e+001  -4.989809e+001 
3868750000  -5.756377e+001  -4.479167e+001 
3871875000  -5.780525e+001  -5.951353e+001 
3875000000  -5.720991e+001  -8.068240e+001 
3878125000  -5.707001e+001  -8.198288e+001 
3881250000  -5.688493e+001  -7.839442e+001 
3884375000  -5.575496e+001  -1.005922e+002 
3887500000  -5.618575e+001  -1.297361e+002 
3890625000  -5.643788e+001  -1.145066e+002 
3893750000  -5.611058e+001  -1.269586e+002 
3896875000  -5.489355e+001  -1.375548e+002 
3900000000  -5.554762e+001  -1.416178e+002 
3903125000  -5.576442e+001  -1.495931e+002 
3906250000  -5.318076e+001  -1.772977e+002 
3909375000  -5.410938e+001  1.776923e+002 
3912500000  -5.392264e+001  1.587837e+002 
3915625000  -5.590436e+001  1.587634e+002 
3918750000  -5.650125e+001  1.465345e+002 
3921875000  -5.463343e+001  1.377715e+002 
3925000000  -5.397540e+001  1.324131e+002 
3928125000  -5.423503e+001  1.111328e+002 
3931250000  -5.257013e+001  1.075206e+002 
3934375000  -5.492711e+001  8.587060e+001 
3937500000  -5.529167e+001  8.425969e+001 
3940625000  -5.489893e+001  6.798204e+001 
3943750000  -5.469971e+001  6.020504e+001 
3946875000  -5.294001e+001  4.988779e+001 
3950000000  -5.364820e+001  3.718102e+001 
3953125000  -5.429443e+001  3.198847e+001 
3956250000  -5.364897e+001  2.744514e+001 
3959375000  -5.186762e+001  1.262816e+001 
3962500000  -5.221669e+001  -5.868273e+000 
3965625000  -5.361013e+001  -1.371824e+001 
3968750000  -5.441493e+001  -3.563896e+001 
3971875000  -5.405099e+001  -4.079590e+001 
3975000000  -5.407455e+001  -5.327527e+001 
3978125000  -5.564698e+001  -6.354578e+001 
3981250000  -5.575856e+001  -7.886274e+001 
3984375000  -5.643438e+001  -9.183928e+001 
3987500000  -5.591668e+001  -9.132655e+001 
3990625000  -5.701116e+001  -1.086527e+002 
3993750000  -5.836599e+001  -1.157244e+002 
3996875000  -5.944634e+001  -1.381656e+002 
4000000000  -5.863004e+001  -1.362747e+002 
4003125000  -5.766454e+001  -1.305208e+002 
4006250000  -5.684006e+001  -1.322116e+002 
4009375000  -5.537814e+001  -1.480474e+002 
4012500000  -5.948788e+001  -1.585018e+002 
4015625000  -6.107117e+001  -1.756598e+002 
4018750000  -6.053851e+001  -1.627550e+002 
4021875000  -5.912815e+001  -1.722397e+002 
4025000000  -6.056224e+001  1.727773e+002 
4028125000  -6.017174e+001  1.777547e+002 
4031250000  -5.874355e+001  1.548147e+002 
4034375000  -6.064328e+001  1.716460e+002 
4037500000  -5.782030e+001  1.615532e+002 
4040625000  -5.890485e+001  1.478111e+002 
4043750000  -5.960566e+001  1.463215e+002 
4046875000  -5.820315e+001  1.324164e+002 
4050000000  -5.755660e+001  1.182796e+002 
4053125000  -5.654256e+001  1.265074e+002 
4056250000  -5.785343e+001  1.179633e+002 
4059375000  -5.580529e+001  1.091965e+002 
4062500000  -5.534955e+001  1.011838e+002 
4065625000  -5.431763e+001  8.283622e+001 
4068750000  -5.525394e+001  7.209775e+001 
4071875000  -5.339639e+001  5.649294e+001 
4075000000  -5.376491e+001  3.884586e+001 
4078125000  -5.320881e+001  4.480733e+001 
4081250000  -5.389299e+001  2.456468e+001 
4084375000  -5.222541e+001  8.568897e+000 
4087500000  -5.350778e+001  -4.364129e+000 
4090625000  -5.400142e+001  -2.722335e+000 
4093750000  -5.253843e+001  -2.115076e+001 
4096875000  -5.378753e+001  -3.491175e+001 
4100000000  -5.377554e+001  -5.890134e+001 
4103125000  -5.486134e+001  -4.704081e+001 
4106250000  -5.430104e+001  -6.000561e+001 
4109375000  -5.272234e+001  -6.838256e+001 
4112500000  -5.318033e+001  -7.836623e+001 
4115625000  -5.353040e+001  -8.895812e+001 
4118750000  -5.334500e+001  -1.006685e+002 
4121875000  -5.262498e+001  -1.254446e+002 
4125000000  -5.344984e+001  -1.313147e+002 
4128125000  -5.482368e+001  -1.340629e+002 
4131250000  -5.297701e+001  -1.395146e+002 
4134375000  -5.056454e+001  -1.575694e+002 
4137500000  -5.244662e+001  -1.753217e+002 
4140625000  -5.516627e+001  1.704070e+002 
4143750000  -5.622878e+001  1.767421e+002 
4146875000  -5.552017e+001  1.591202e+002 
4150000000  -5.465978e+001  1.606979e+002 
4153125000  -5.431127e+001  1.382361e+002 
4156250000  -5.471421e+001  1.222992e+002 
4159375000  -5.439254e+001  1.340944e+002 
4162500000  -5.443658e+001  1.189108e+002 
4165625000  -5.453628e+001  1.144057e+002 
4168750000  -5.436867e+001  8.926451e+001 
4171875000  -5.588747e+001  7.764610e+001 
4175000000  -5.553293e+001  5.474151e+001 
4178125000  -5.640152e+001  6.776410e+001 
4181250000  -5.773423e+001  3.775021e+001 
4184375000  -6.069568e+001  2.061185e+001 
4187500000  -5.875570e+001  3.186402e+001 
4190625000  -5.876025e+001  1.226384e+001 
4193750000  -6.026460e+001  7.105340e+000 
4196875000  -6.231255e+001  8.485476e+000 
4200000000  -6.397186e+001  1.685318e+001 
4203125000  -6.500530e+001  -1.120437e+001 
4206250000  -6.155070e+001  2.884933e+001 
4209375000  -6.052187e+001  -1.401514e+000 
4212500000  -6.092234e+001  -1.332527e+001 
4215625000  -6.507269e+001  -5.748747e+000 
4218750000  -6.168793e+001  1.563797e+001 
4221875000  -6.109916e+001  -2.408048e-001 
4225000000  -6.436336e+001  -7.414701e+000 
4228125000  -6.067813e+001  -3.714676e+001 
4231250000  -6.071629e+001  -2.730235e+001 
4234375000  -5.766745e+001  -4.303522e+001 
4237500000  -5.798001e+001  -4.634688e+001 
4240625000  -5.652585e+001  -5.962070e+001 
4243750000  -5.735392e+001  -7.865462e+001 
4246875000  -5.586266e+001  -6.581710e+001 
4250000000  -5.802856e+001  -7.777003e+001 
4253125000  -5.434832e+001  -9.552196e+001 
4256250000  -5.532585e+001  -1.117817e+002 
4259375000  -5.541709e+001  -1.170460e+002 
4262500000  -5.534359e+001  -1.295164e+002 
4265625000  -5.411484e+001  -1.283318e+002 
4268750000  -5.246932e+001  -1.415468e+002 
4271875000  -5.299232e+001  -1.567849e+002 
4275000000  -5.134739e+001  1.774554e+002 
4278125000  -5.303080e+001  1.645896e+002 
4281250000  -5.591788e+001  1.679196e+002 
4284375000  -5.432156e+001  1.563961e+002 
4287500000  -5.575241e+001  1.454005e+002 
4290625000  -5.698809e+001  1.498084e+002 
4293750000  -5.252645e+001  1.404610e+002 
4296875000  -5.240168e+001  1.110786e+002 
4300000000  -5.334055e+001  1.120878e+002 
4303125000  -5.417011e+001  1.009717e+002 
4306250000  -5.268378e+001  9.085045e+001 
4309375000  -5.125412e+001  7.400334e+001 
4312500000  -5.198463e+001  5.949156e+001 
4315625000  -5.207431e+001  4.990393e+001 
4318750000  -5.362976e+001  4.022895e+001 
4321875000  -5.168531e+001  3.811134e+001 
4325000000  -5.333717e+001  1.377764e+001 
4328125000  -5.127151e+001  1.409756e+001 
4331250000  -5.316146e+001  -8.913111e+000 
4334375000  -5.352605e+001  -1.935046e+001 
4337500000  -5.589011e+001  -3.057649e+001 
4340625000  -5.615813e+001  -2.708650e+001 
4343750000  -5.582608e+001  -3.417084e+001 
4346875000  -5.511052e+001  -5.210729e+001 
4350000000  -5.635482e+001  -7.355298e+001 
4353125000  -5.748343e+001  -8.250260e+001 
4356250000  -5.719403e+001  -7.559207e+001 
4359375000  -5.767292e+001  -4.081088e+001 
4362500000  -5.584457e+001  -6.539532e+001 
4365625000  -5.456414e+001  -1.015445e+002 
4368750000  -5.602627e+001  -1.016248e+002 
4371875000  -5.634574e+001  -1.158174e+002 
4375000000  -5.734718e+001  -1.145021e+002 
4378125000  -5.787915e+001  -1.212146e+002 
4381250000  -5.747469e+001  -1.203212e+002 
4384375000  -5.823541e+001  -1.524651e+002 
4387500000  -5.722292e+001  -1.446444e+002 
4390625000  -5.893899e+001  -1.507974e+002 
4393750000  -5.590380e+001  -1.469350e+002 
4396875000  -5.582592e+001  -1.676024e+002 
4400000000  -5.522756e+001  -1.637169e+002 
4403125000  -5.491062e+001  1.702654e+002 
4406250000  -5.583358e+001  1.784826e+002 
4409375000  -5.651662e+001  1.611480e+002 
4412500000  -5.770226e+001  1.480489e+002 
4415625000  -5.498031e+001  1.587796e+002 
4418750000  -5.411046e+001  1.556298e+002 
