!Agilent Technologies,E8363B,MY43030201,A.06.04.32
!Agilent E8363B: A.06.04.32
!Date: Tuesday, November 11, 2014 22:12:41
!Correction: S21(Response(S21)) 
!S1P File: Measurement: S21:
# Hz S  dB   R 50
3000000000  -4.873324e+001  -7.524441e+001 
3003125000  -5.126299e+001  -7.915932e+001 
3006250000  -5.161602e+001  -8.712550e+001 
3009375000  -5.173846e+001  -8.374431e+001 
3012500000  -5.088144e+001  -1.004174e+002 
3015625000  -5.131908e+001  -1.085003e+002 
3018750000  -5.185064e+001  -1.131171e+002 
3021875000  -5.008160e+001  -1.174285e+002 
3025000000  -4.866780e+001  -1.309810e+002 
3028125000  -4.795556e+001  -1.453786e+002 
3031250000  -4.710443e+001  -1.653380e+002 
3034375000  -4.702433e+001  1.787837e+002 
3037500000  -4.814324e+001  1.648922e+002 
3040625000  -4.927404e+001  1.534526e+002 
3043750000  -4.964246e+001  1.443940e+002 
3046875000  -5.051174e+001  1.288327e+002 
3050000000  -5.152713e+001  1.240641e+002 
3053125000  -5.196364e+001  1.254028e+002 
3056250000  -5.177188e+001  1.245515e+002 
3059375000  -5.041566e+001  1.071199e+002 
3062500000  -4.977987e+001  1.003116e+002 
3065625000  -4.924469e+001  8.427573e+001 
3068750000  -4.904101e+001  7.429359e+001 
3071875000  -4.897327e+001  6.830470e+001 
3075000000  -4.822353e+001  5.489880e+001 
3078125000  -4.831518e+001  4.759492e+001 
3081250000  -4.872446e+001  3.323441e+001 
3084375000  -4.830090e+001  2.470749e+001 
3087500000  -4.831855e+001  1.263695e+001 
3090625000  -4.781965e+001  -3.488886e+000 
3093750000  -4.953584e+001  -1.697347e+001 
3096875000  -4.989259e+001  -2.570942e+001 
3100000000  -4.957921e+001  -3.373779e+001 
3103125000  -4.967504e+001  -3.972980e+001 
3106250000  -4.944888e+001  -4.982548e+001 
3109375000  -4.930422e+001  -5.861171e+001 
3112500000  -4.905706e+001  -7.127394e+001 
3115625000  -4.933970e+001  -8.091828e+001 
3118750000  -4.993523e+001  -8.685024e+001 
3121875000  -4.908821e+001  -1.006092e+002 
3125000000  -5.101604e+001  -1.119734e+002 
3128125000  -5.158232e+001  -1.078429e+002 
3131250000  -4.864548e+001  -1.143040e+002 
3134375000  -4.746128e+001  -1.406752e+002 
3137500000  -4.838005e+001  -1.543409e+002 
3140625000  -4.976590e+001  -1.618488e+002 
3143750000  -5.048810e+001  -1.695936e+002 
3146875000  -5.021113e+001  -1.701720e+002 
3150000000  -4.916903e+001  1.794460e+002 
3153125000  -4.930409e+001  1.687474e+002 
3156250000  -5.047525e+001  1.640945e+002 
3159375000  -4.791405e+001  1.581743e+002 
3162500000  -4.624740e+001  1.376462e+002 
3165625000  -4.769943e+001  1.203255e+002 
3168750000  -4.747244e+001  1.148044e+002 
3171875000  -4.675218e+001  1.041800e+002 
3175000000  -4.775505e+001  8.910085e+001 
3178125000  -4.737391e+001  8.403176e+001 
3181250000  -4.644748e+001  6.795831e+001 
3184375000  -4.685900e+001  5.247824e+001 
3187500000  -4.758884e+001  3.800750e+001 
3190625000  -4.928113e+001  2.045703e+001 
3193750000  -4.990913e+001  2.221781e+001 
3196875000  -4.965068e+001  2.067709e+001 
3200000000  -4.810692e+001  8.783271e+000 
3203125000  -4.826358e+001  -4.754587e+000 
3206250000  -4.856171e+001  -1.453217e+001 
3209375000  -4.821276e+001  -2.869376e+001 
3212500000  -4.857846e+001  -3.988771e+001 
3215625000  -4.822179e+001  -4.496960e+001 
3218750000  -4.933621e+001  -6.235884e+001 
3221875000  -4.920464e+001  -7.493576e+001 
3225000000  -4.954601e+001  -8.646250e+001 
3228125000  -5.005450e+001  -9.659928e+001 
3231250000  -5.071812e+001  -1.028793e+002 
3234375000  -5.033735e+001  -1.146031e+002 
3237500000  -5.036468e+001  -1.186454e+002 
3240625000  -4.962613e+001  -1.336162e+002 
3243750000  -5.021150e+001  -1.448739e+002 
3246875000  -5.001239e+001  -1.534437e+002 
3250000000  -5.144894e+001  -1.668075e+002 
3253125000  -5.077876e+001  -1.701564e+002 
3256250000  -5.078899e+001  1.720811e+002 
3259375000  -5.173384e+001  1.614054e+002 
3262500000  -5.252589e+001  1.554159e+002 
3265625000  -5.301700e+001  1.474234e+002 
3268750000  -5.363573e+001  1.452645e+002 
3271875000  -5.247285e+001  1.309854e+002 
3275000000  -5.298868e+001  1.234019e+002 
3278125000  -5.271868e+001  1.094490e+002 
3281250000  -5.328679e+001  1.028956e+002 
3284375000  -5.240214e+001  8.990937e+001 
3287500000  -5.344716e+001  8.302843e+001 
3290625000  -5.376098e+001  6.849672e+001 
3293750000  -5.233751e+001  5.910909e+001 
3296875000  -5.340324e+001  5.621154e+001 
3300000000  -5.485177e+001  5.268605e+001 
3303125000  -5.333665e+001  4.193981e+001 
3306250000  -5.267400e+001  2.906339e+001 
3309375000  -5.280391e+001  1.626003e+001 
3312500000  -5.347078e+001  -2.853090e+000 
3315625000  -5.432127e+001  -1.322036e+001 
3318750000  -5.565852e+001  -2.300214e+001 
3321875000  -5.661451e+001  -2.440812e+001 
3325000000  -5.717522e+001  -2.714734e+001 
3328125000  -5.667676e+001  -1.764610e+001 
3331250000  -5.459102e+001  -2.475739e+001 
3334375000  -5.208869e+001  -4.896175e+001 
3337500000  -5.195407e+001  -7.226685e+001 
3340625000  -5.460021e+001  -9.114395e+001 
3343750000  -5.655045e+001  -8.545005e+001 
3346875000  -5.632774e+001  -9.687241e+001 
3350000000  -5.515707e+001  -1.003393e+002 
3353125000  -5.429585e+001  -1.214953e+002 
3356250000  -5.398140e+001  -1.294148e+002 
3359375000  -5.467078e+001  -1.414357e+002 
3362500000  -5.675951e+001  -1.494884e+002 
3365625000  -5.560298e+001  -1.622935e+002 
3368750000  -5.729518e+001  -1.716548e+002 
3371875000  -5.665229e+001  1.771751e+002 
3375000000  -5.799826e+001  1.682600e+002 
3378125000  -5.809786e+001  1.654025e+002 
3381250000  -6.070919e+001  1.742534e+002 
3384375000  -5.572649e+001  -1.786643e+002 
3387500000  -5.651603e+001  1.545410e+002 
3390625000  -5.656636e+001  1.408823e+002 
3393750000  -5.780451e+001  1.151298e+002 
3396875000  -5.664547e+001  1.060907e+002 
3400000000  -5.551711e+001  9.727134e+001 
3403125000  -5.682493e+001  9.104652e+001 
3406250000  -5.768410e+001  8.447815e+001 
3409375000  -5.829607e+001  5.555652e+001 
3412500000  -5.746694e+001  5.535042e+001 
3415625000  -6.037040e+001  4.448178e+001 
3418750000  -5.970118e+001  3.534362e+001 
3421875000  -6.052542e+001  2.696310e+001 
3425000000  -5.889045e+001  3.942729e+001 
3428125000  -5.894272e+001  -1.563134e+000 
3431250000  -5.827173e+001  1.486094e+000 
3434375000  -5.899141e+001  -2.428012e+001 
3437500000  -6.413360e+001  -3.117244e+001 
3440625000  -6.123179e+001  -2.809261e+001 
3443750000  -6.016576e+001  -2.415295e+001 
3446875000  -5.996788e+001  -5.208978e+001 
3450000000  -6.083197e+001  -8.214427e+001 
3453125000  -6.264693e+001  -7.637285e+001 
3456250000  -6.408343e+001  -1.171643e+002 
3459375000  -6.502399e+001  -5.887159e+001 
3462500000  -6.566879e+001  -8.600875e+001 
3465625000  -6.664358e+001  -1.204939e+002 
3468750000  -6.646713e+001  -1.067145e+002 
3471875000  -6.279032e+001  -1.128613e+002 
3475000000  -6.386363e+001  -1.355674e+002 
3478125000  -6.613054e+001  -1.235783e+002 
3481250000  -6.717614e+001  -1.573042e+002 
3484375000  -6.727843e+001  -1.318407e+002 
3487500000  -6.793804e+001  -1.255693e+002 
3490625000  -6.784760e+001  -1.311240e+002 
3493750000  -6.966006e+001  -1.237365e+002 
3496875000  -7.276845e+001  -1.387494e+002 
3500000000  -7.145167e+001  -1.788069e+002 
3503125000  -6.815607e+001  -1.639438e+002 
3506250000  -6.689439e+001  -1.660125e+002 
3509375000  -7.009906e+001  1.548222e+002 
3512500000  -6.382902e+001  1.630186e+002 
3515625000  -6.456608e+001  1.514128e+002 
3518750000  -6.378375e+001  1.433286e+002 
3521875000  -6.895899e+001  1.324115e+002 
3525000000  -7.617916e+001  1.447238e+002 
3528125000  -7.251813e+001  1.294357e+002 
3531250000  -6.454587e+001  1.127909e+002 
3534375000  -6.723196e+001  1.077868e+002 
3537500000  -6.539641e+001  5.592712e+001 
3540625000  -7.838970e+001  4.005979e+001 
3543750000  -7.561463e+001  -1.156176e+002 
3546875000  -6.748312e+001  2.967700e+001 
3550000000  -7.252380e+001  1.211226e+002 
3553125000  -6.886005e+001  4.410418e+001 
3556250000  -7.512244e+001  7.856500e+000 
3559375000  -7.585352e+001  8.166459e+001 
3562500000  -7.290548e+001  3.668145e+001 
3565625000  -7.525051e+001  2.118531e+001 
3568750000  -7.241286e+001  4.223134e+001 
3571875000  -6.748460e+001  1.454506e+001 
3575000000  -8.178693e+001  -7.982288e+001 
3578125000  -7.092294e+001  5.356356e+001 
3581250000  -7.348660e+001  1.298406e+001 
3584375000  -7.268402e+001  8.174334e+001 
3587500000  -6.869070e+001  4.718198e+001 
3590625000  -7.390185e+001  3.398087e+001 
3593750000  -6.971837e+001  -3.982985e+001 
3596875000  -6.863519e+001  4.877238e+001 
3600000000  -6.449862e+001  -2.440475e+000 
3603125000  -6.533575e+001  7.874264e+000 
3606250000  -6.355369e+001  -2.590040e+001 
3609375000  -6.539018e+001  -3.061347e+001 
3612500000  -6.245549e+001  -4.210344e+001 
3615625000  -6.808468e+001  -5.214548e+001 
3618750000  -6.614417e+001  -7.557694e+001 
3621875000  -6.480158e+001  -6.996419e+001 
3625000000  -6.293393e+001  -8.005358e+001 
3628125000  -6.203369e+001  -1.072565e+002 
3631250000  -6.387395e+001  -1.222545e+002 
3634375000  -6.798225e+001  -1.216630e+002 
3637500000  -6.258942e+001  -1.232142e+002 
3640625000  -6.255804e+001  -1.280881e+002 
3643750000  -6.305362e+001  -1.577065e+002 
3646875000  -6.223492e+001  -1.438024e+002 
3650000000  -6.465694e+001  1.790512e+002 
3653125000  -6.635946e+001  -1.782342e+002 
3656250000  -6.361815e+001  1.594857e+002 
3659375000  -6.792463e+001  1.484508e+002 
3662500000  -6.209767e+001  1.645499e+002 
3665625000  -6.645706e+001  1.635871e+002 
3668750000  -6.354300e+001  1.438509e+002 
3671875000  -6.188829e+001  1.350913e+002 
3675000000  -6.254864e+001  1.094294e+002 
3678125000  -6.709946e+001  1.056620e+002 
3681250000  -6.111457e+001  9.480989e+001 
3684375000  -7.291356e+001  5.668021e+001 
3687500000  -6.447749e+001  5.366809e+001 
3690625000  -6.764306e+001  6.372058e+001 
3693750000  -6.524590e+001  9.891356e+001 
3696875000  -6.786623e+001  7.690769e+001 
3700000000  -6.099485e+001  8.510724e+001 
3703125000  -6.817304e+001  4.879704e+001 
3706250000  -6.853549e+001  6.171833e+001 
3709375000  -6.832507e+001  4.806534e+001 
3712500000  -6.312080e+001  5.916232e+001 
3715625000  -6.455150e+001  4.781855e+001 
3718750000  -6.163051e+001  3.059044e+001 
3721875000  -6.143756e+001  1.450163e+001 
3725000000  -6.314930e+001  1.750883e+001 
3728125000  -5.914246e+001  1.320952e+001 
3731250000  -6.134401e+001  -1.766040e+001 
3734375000  -6.082978e+001  -3.334266e+001 
3737500000  -5.876490e+001  -4.511740e+001 
3740625000  -5.930069e+001  -3.064583e+001 
3743750000  -6.072945e+001  -5.759638e+001 
3746875000  -5.843098e+001  -7.566197e+001 
3750000000  -5.795395e+001  -9.711307e+001 
3753125000  -5.894401e+001  -8.060030e+001 
3756250000  -5.889169e+001  -9.683287e+001 
3759375000  -5.917467e+001  -1.078825e+002 
3762500000  -5.688842e+001  -1.094562e+002 
3765625000  -5.943313e+001  -1.219365e+002 
3768750000  -5.858018e+001  -1.296702e+002 
3771875000  -5.602775e+001  -1.413093e+002 
3775000000  -5.669728e+001  -1.572289e+002 
3778125000  -5.688029e+001  -1.770939e+002 
3781250000  -5.832841e+001  -1.768120e+002 
3784375000  -5.537474e+001  1.718121e+002 
3787500000  -5.706961e+001  1.597347e+002 
3790625000  -5.820370e+001  1.369192e+002 
3793750000  -5.674486e+001  1.283980e+002 
3796875000  -5.677834e+001  1.322583e+002 
3800000000  -5.281568e+001  8.064108e+001 
3803125000  -5.689297e+001  1.008064e+002 
3806250000  -6.010342e+001  7.416458e+001 
3809375000  -5.633297e+001  8.256853e+001 
3812500000  -5.750814e+001  6.602647e+001 
3815625000  -6.297385e+001  5.425087e+001 
3818750000  -6.334002e+001  6.042569e+001 
3821875000  -6.262906e+001  4.484436e+001 
3825000000  -6.166410e+001  4.726054e+001 
3828125000  -5.959271e+001  1.560894e+001 
3831250000  -5.963129e+001  3.285612e+000 
3834375000  -6.537272e+001  3.346387e+001 
3837500000  -6.212690e+001  1.585764e+001 
3840625000  -6.373854e+001  -1.316336e+001 
3843750000  -6.412618e+001  -4.839843e-002 
3846875000  -6.211486e+001  -2.389934e+001 
3850000000  -6.753848e+001  -5.384150e+000 
3853125000  -6.711956e+001  -5.987285e+000 
3856250000  -6.212440e+001  1.795460e+001 
3859375000  -5.939573e+001  -2.603741e+001 
3862500000  -6.193584e+001  -2.475331e+001 
3865625000  -5.949442e+001  -4.657866e+001 
3868750000  -5.967026e+001  -5.372364e+001 
3871875000  -5.676867e+001  -5.538644e+001 
3875000000  -5.875970e+001  -6.576354e+001 
3878125000  -5.777399e+001  -7.702669e+001 
3881250000  -5.746502e+001  -8.442804e+001 
3884375000  -5.534165e+001  -9.612763e+001 
3887500000  -5.686458e+001  -1.119275e+002 
3890625000  -5.651338e+001  -1.132673e+002 
3893750000  -5.615843e+001  -1.333025e+002 
3896875000  -5.615461e+001  -1.300462e+002 
3900000000  -5.650090e+001  -1.511040e+002 
3903125000  -5.499966e+001  -1.513593e+002 
3906250000  -5.352704e+001  -1.743792e+002 
3909375000  -5.396142e+001  -1.786571e+002 
3912500000  -5.465401e+001  1.668011e+002 
3915625000  -5.609620e+001  1.622962e+002 
3918750000  -5.302054e+001  1.576756e+002 
3921875000  -5.508310e+001  1.366260e+002 
3925000000  -5.231318e+001  1.264667e+002 
3928125000  -5.288636e+001  1.132710e+002 
3931250000  -5.364241e+001  1.062295e+002 
3934375000  -5.468224e+001  8.918076e+001 
3937500000  -5.662058e+001  8.950054e+001 
3940625000  -5.529450e+001  7.095571e+001 
3943750000  -5.471133e+001  6.274532e+001 
3946875000  -5.245680e+001  4.211884e+001 
3950000000  -5.441216e+001  4.704498e+001 
3953125000  -5.450802e+001  3.847903e+001 
3956250000  -5.319051e+001  2.172418e+001 
3959375000  -5.094347e+001  1.311840e+001 
3962500000  -5.266524e+001  -1.199584e+001 
3965625000  -5.306615e+001  -1.610389e+001 
3968750000  -5.341313e+001  -3.246725e+001 
3971875000  -5.360667e+001  -3.801952e+001 
3975000000  -5.387233e+001  -5.862684e+001 
3978125000  -5.444357e+001  -5.786824e+001 
3981250000  -5.445590e+001  -7.977533e+001 
3984375000  -5.492652e+001  -9.021823e+001 
3987500000  -5.477551e+001  -9.295143e+001 
3990625000  -5.686087e+001  -8.949696e+001 
3993750000  -5.624731e+001  -1.211633e+002 
3996875000  -5.711829e+001  -1.245893e+002 
4000000000  -6.000888e+001  -1.292662e+002 
4003125000  -5.892785e+001  -1.296162e+002 
4006250000  -5.816711e+001  -1.313833e+002 
4009375000  -5.740130e+001  -1.411329e+002 
4012500000  -5.884591e+001  -1.676940e+002 
4015625000  -6.054405e+001  -1.635144e+002 
4018750000  -5.842340e+001  -1.779983e+002 
4021875000  -6.113745e+001  -1.746316e+002 
4025000000  -5.974152e+001  1.721301e+002 
4028125000  -6.267282e+001  1.604918e+002 
4031250000  -5.953704e+001  1.712938e+002 
4034375000  -5.896256e+001  1.725579e+002 
4037500000  -5.812533e+001  1.448217e+002 
4040625000  -6.020974e+001  1.440887e+002 
4043750000  -5.975854e+001  1.554389e+002 
4046875000  -5.779680e+001  1.275387e+002 
4050000000  -5.685292e+001  1.270405e+002 
4053125000  -5.793812e+001  1.252054e+002 
4056250000  -5.944200e+001  1.326032e+002 
4059375000  -5.395541e+001  1.097571e+002 
4062500000  -5.471901e+001  1.052677e+002 
4065625000  -5.291233e+001  8.775878e+001 
4068750000  -5.422467e+001  7.230425e+001 
4071875000  -5.205740e+001  6.084723e+001 
4075000000  -5.435318e+001  3.861198e+001 
4078125000  -5.370434e+001  3.814440e+001 
4081250000  -5.379559e+001  1.792362e+001 
4084375000  -5.285592e+001  8.358274e+000 
4087500000  -5.417275e+001  -1.032134e+001 
4090625000  -5.302012e+001  -6.147331e+000 
4093750000  -5.224855e+001  -2.144513e+001 
4096875000  -5.285392e+001  -2.665769e+001 
4100000000  -5.434563e+001  -4.930444e+001 
4103125000  -5.456357e+001  -5.021730e+001 
4106250000  -5.359868e+001  -5.881952e+001 
4109375000  -5.386111e+001  -5.591480e+001 
4112500000  -5.200478e+001  -9.156675e+001 
4115625000  -5.473897e+001  -8.790447e+001 
4118750000  -5.263284e+001  -9.952824e+001 
4121875000  -5.335717e+001  -1.185017e+002 
4125000000  -5.439809e+001  -1.218670e+002 
4128125000  -5.352725e+001  -1.349805e+002 
4131250000  -5.254989e+001  -1.304365e+002 
4134375000  -5.248140e+001  -1.495107e+002 
4137500000  -5.182210e+001  -1.735057e+002 
4140625000  -5.460034e+001  1.749534e+002 
4143750000  -5.472764e+001  1.720500e+002 
4146875000  -5.432224e+001  1.622491e+002 
4150000000  -5.509704e+001  1.555309e+002 
4153125000  -5.300764e+001  1.388424e+002 
4156250000  -5.579668e+001  1.277110e+002 
4159375000  -5.463829e+001  1.405456e+002 
4162500000  -5.540498e+001  1.119623e+002 
4165625000  -5.463207e+001  1.125840e+002 
4168750000  -5.477874e+001  9.508286e+001 
4171875000  -5.575934e+001  7.878886e+001 
4175000000  -5.652046e+001  4.677667e+001 
4178125000  -5.846371e+001  6.704263e+001 
4181250000  -5.850879e+001  4.132155e+001 
4184375000  -6.044733e+001  3.307180e+001 
4187500000  -5.746842e+001  1.566216e+001 
4190625000  -5.998871e+001  8.938249e+000 
4193750000  -6.115883e+001  9.170858e+000 
4196875000  -6.264543e+001  -4.713794e+000 
4200000000  -6.521628e+001  3.168855e+000 
4203125000  -6.096757e+001  2.548378e+001 
4206250000  -5.809099e+001  2.099377e+001 
4209375000  -6.132258e+001  -8.122469e+000 
4212500000  -6.369737e+001  4.096653e+000 
4215625000  -6.354621e+001  -2.176222e+000 
4218750000  -6.433737e+001  -6.273646e+000 
4221875000  -6.123895e+001  -4.495577e+000 
4225000000  -6.072355e+001  2.123535e+000 
4228125000  -5.706465e+001  -2.997070e+001 
4231250000  -5.669694e+001  -2.107012e+001 
4234375000  -5.693826e+001  -6.299699e+001 
4237500000  -5.798485e+001  -3.160174e+001 
4240625000  -5.557942e+001  -6.207508e+001 
4243750000  -5.905910e+001  -6.596922e+001 
4246875000  -5.609257e+001  -7.141768e+001 
4250000000  -5.860688e+001  -8.970615e+001 
4253125000  -5.521961e+001  -8.398605e+001 
4256250000  -5.614978e+001  -1.066474e+002 
4259375000  -5.622312e+001  -1.017176e+002 
4262500000  -5.287547e+001  -1.156131e+002 
4265625000  -5.445541e+001  -1.299004e+002 
4268750000  -5.233598e+001  -1.480102e+002 
4271875000  -5.117786e+001  -1.543429e+002 
4275000000  -5.185212e+001  -1.775562e+002 
4278125000  -5.161971e+001  1.728097e+002 
4281250000  -5.302493e+001  1.633378e+002 
4284375000  -5.377526e+001  1.483978e+002 
4287500000  -5.460540e+001  1.452230e+002 
4290625000  -5.507196e+001  1.517473e+002 
4293750000  -5.272492e+001  1.503063e+002 
4296875000  -5.282036e+001  1.220284e+002 
4300000000  -5.224735e+001  1.026594e+002 
4303125000  -5.262896e+001  9.928634e+001 
4306250000  -5.270582e+001  9.604270e+001 
4309375000  -5.140132e+001  8.100281e+001 
4312500000  -5.286134e+001  6.577692e+001 
4315625000  -5.138544e+001  4.612813e+001 
4318750000  -5.327395e+001  4.112523e+001 
4321875000  -5.298789e+001  3.907843e+001 
4325000000  -5.248347e+001  2.063246e+001 
4328125000  -5.146259e+001  1.005622e+001 
4331250000  -5.411753e+001  -1.451433e+001 
4334375000  -5.431174e+001  -1.768880e+001 
4337500000  -5.464082e+001  -3.268727e+001 
4340625000  -5.527241e+001  -2.537951e+001 
4343750000  -5.429968e+001  -3.104691e+001 
4346875000  -5.572369e+001  -3.851725e+001 
4350000000  -5.520997e+001  -6.007456e+001 
4353125000  -5.609054e+001  -7.172121e+001 
4356250000  -5.668017e+001  -6.437112e+001 
4359375000  -5.912256e+001  -4.013174e+001 
4362500000  -5.390454e+001  -7.532741e+001 
4365625000  -5.387732e+001  -9.559168e+001 
4368750000  -5.565684e+001  -1.054445e+002 
4371875000  -5.630577e+001  -1.126499e+002 
4375000000  -5.542929e+001  -1.216718e+002 
4378125000  -5.589828e+001  -1.276292e+002 
4381250000  -5.745205e+001  -1.378956e+002 
4384375000  -5.537803e+001  -1.446393e+002 
4387500000  -5.537074e+001  -1.397857e+002 
4390625000  -5.885615e+001  -1.492019e+002 
4393750000  -5.631166e+001  -1.340382e+002 
4396875000  -5.470505e+001  -1.663985e+002 
4400000000  -5.742420e+001  -1.637672e+002 
4403125000  -5.554340e+001  1.727891e+002 
4406250000  -5.764997e+001  1.729338e+002 
4409375000  -5.536008e+001  1.624853e+002 
4412500000  -5.645511e+001  1.525876e+002 
4415625000  -5.426667e+001  1.686152e+002 
4418750000  -5.463460e+001  1.580998e+002 
