!Agilent Technologies,E8363B,MY43030201,A.06.04.32
!Agilent E8363B: A.06.04.32
!Date: Tuesday, November 11, 2014 22:09:03
!Correction: S21(Response(S21)) 
!S1P File: Measurement: S21:
# Hz S  dB   R 50
3000000000  -4.901534e+001  -7.673217e+001 
3003125000  -5.127139e+001  -8.370103e+001 
3006250000  -5.141283e+001  -8.853542e+001 
3009375000  -5.182237e+001  -8.794356e+001 
3012500000  -5.101110e+001  -1.002402e+002 
3015625000  -5.137236e+001  -1.116253e+002 
3018750000  -5.124348e+001  -1.148363e+002 
3021875000  -5.025637e+001  -1.222878e+002 
3025000000  -4.838866e+001  -1.306269e+002 
3028125000  -4.825057e+001  -1.475550e+002 
3031250000  -4.733420e+001  -1.637653e+002 
3034375000  -4.687555e+001  1.780486e+002 
3037500000  -4.742818e+001  1.639904e+002 
3040625000  -4.910596e+001  1.490360e+002 
3043750000  -4.979679e+001  1.395361e+002 
3046875000  -5.061550e+001  1.290113e+002 
3050000000  -5.182484e+001  1.229095e+002 
3053125000  -5.157037e+001  1.168151e+002 
3056250000  -5.148835e+001  1.189654e+002 
3059375000  -5.114651e+001  1.065774e+002 
3062500000  -4.866745e+001  9.966079e+001 
3065625000  -4.918833e+001  8.403399e+001 
3068750000  -4.872370e+001  7.252646e+001 
3071875000  -4.903860e+001  6.391851e+001 
3075000000  -4.886785e+001  5.472326e+001 
3078125000  -4.863277e+001  4.149383e+001 
3081250000  -4.928635e+001  3.370855e+001 
3084375000  -4.786148e+001  2.460134e+001 
3087500000  -4.815594e+001  1.117046e+001 
3090625000  -4.774135e+001  -6.270285e+000 
3093750000  -4.904088e+001  -1.860037e+001 
3096875000  -4.931846e+001  -2.614308e+001 
3100000000  -4.970042e+001  -3.704498e+001 
3103125000  -4.964121e+001  -3.985985e+001 
3106250000  -4.906511e+001  -5.226197e+001 
3109375000  -4.970845e+001  -6.149451e+001 
3112500000  -4.897590e+001  -7.083062e+001 
3115625000  -4.960595e+001  -7.908775e+001 
3118750000  -4.922296e+001  -8.468808e+001 
3121875000  -4.879112e+001  -1.039877e+002 
3125000000  -5.100042e+001  -1.089015e+002 
3128125000  -5.073068e+001  -1.087487e+002 
3131250000  -4.824725e+001  -1.183158e+002 
3134375000  -4.766922e+001  -1.402674e+002 
3137500000  -4.920730e+001  -1.605450e+002 
3140625000  -4.949650e+001  -1.628742e+002 
3143750000  -5.013257e+001  -1.707185e+002 
3146875000  -4.996204e+001  -1.748441e+002 
3150000000  -4.871173e+001  1.789590e+002 
3153125000  -4.921162e+001  1.628436e+002 
3156250000  -5.018393e+001  1.633775e+002 
3159375000  -4.753976e+001  1.546841e+002 
3162500000  -4.692941e+001  1.353719e+002 
3165625000  -4.775058e+001  1.165440e+002 
3168750000  -4.781435e+001  1.121850e+002 
3171875000  -4.750037e+001  1.031078e+002 
3175000000  -4.729638e+001  8.288647e+001 
3178125000  -4.714800e+001  8.053239e+001 
3181250000  -4.676043e+001  6.589434e+001 
3184375000  -4.666695e+001  5.176719e+001 
3187500000  -4.778039e+001  3.420058e+001 
3190625000  -4.935317e+001  2.020939e+001 
3193750000  -4.998632e+001  2.052159e+001 
3196875000  -4.940876e+001  1.638802e+001 
3200000000  -4.809870e+001  7.780550e+000 
3203125000  -4.864720e+001  -4.513717e+000 
3206250000  -4.825483e+001  -1.948587e+001 
3209375000  -4.794476e+001  -3.296849e+001 
3212500000  -4.855160e+001  -4.164589e+001 
3215625000  -4.779246e+001  -4.696544e+001 
3218750000  -4.945383e+001  -6.698119e+001 
3221875000  -4.934555e+001  -7.795449e+001 
3225000000  -4.948242e+001  -8.582101e+001 
3228125000  -4.995390e+001  -9.619704e+001 
3231250000  -5.046443e+001  -1.056468e+002 
3234375000  -5.041223e+001  -1.119977e+002 
3237500000  -5.024665e+001  -1.215141e+002 
3240625000  -5.041597e+001  -1.304638e+002 
3243750000  -4.992471e+001  -1.458449e+002 
3246875000  -4.995844e+001  -1.550535e+002 
3250000000  -5.087560e+001  -1.672400e+002 
3253125000  -5.158445e+001  -1.735694e+002 
3256250000  -5.006692e+001  1.711340e+002 
3259375000  -5.050706e+001  1.583608e+002 
3262500000  -5.274124e+001  1.511345e+002 
3265625000  -5.337986e+001  1.443018e+002 
3268750000  -5.292781e+001  1.396143e+002 
3271875000  -5.282979e+001  1.294414e+002 
3275000000  -5.165572e+001  1.215862e+002 
3278125000  -5.174480e+001  1.060123e+002 
3281250000  -5.317289e+001  1.018335e+002 
3284375000  -5.195253e+001  9.069675e+001 
3287500000  -5.403690e+001  8.177612e+001 
3290625000  -5.308100e+001  6.979119e+001 
3293750000  -5.303388e+001  5.913030e+001 
3296875000  -5.407477e+001  5.344481e+001 
3300000000  -5.397166e+001  4.551108e+001 
3303125000  -5.271061e+001  3.457139e+001 
3306250000  -5.299545e+001  2.413688e+001 
3309375000  -5.359591e+001  1.430392e+001 
3312500000  -5.306159e+001  -4.533622e+000 
3315625000  -5.420124e+001  -7.695743e+000 
3318750000  -5.585168e+001  -2.230530e+001 
3321875000  -5.836390e+001  -2.156136e+001 
3325000000  -5.745097e+001  -2.440923e+001 
3328125000  -5.706660e+001  -2.589017e+001 
3331250000  -5.394533e+001  -3.020174e+001 
3334375000  -5.264314e+001  -4.978645e+001 
3337500000  -5.264785e+001  -7.089871e+001 
3340625000  -5.408858e+001  -9.233521e+001 
3343750000  -5.568388e+001  -8.534464e+001 
3346875000  -5.522055e+001  -1.005322e+002 
3350000000  -5.434057e+001  -1.031674e+002 
3353125000  -5.344804e+001  -1.178462e+002 
3356250000  -5.519648e+001  -1.269847e+002 
3359375000  -5.506463e+001  -1.490557e+002 
3362500000  -5.633462e+001  -1.561762e+002 
3365625000  -5.565855e+001  -1.591064e+002 
3368750000  -5.685050e+001  -1.699367e+002 
3371875000  -5.649860e+001  1.764705e+002 
3375000000  -5.969164e+001  1.705685e+002 
3378125000  -5.739664e+001  1.610695e+002 
3381250000  -6.050530e+001  1.674768e+002 
3384375000  -5.791908e+001  1.799142e+002 
3387500000  -5.425981e+001  1.475810e+002 
3390625000  -5.863216e+001  1.364838e+002 
3393750000  -5.762469e+001  1.125569e+002 
3396875000  -5.690593e+001  1.120481e+002 
3400000000  -5.577862e+001  9.694381e+001 
3403125000  -5.659185e+001  8.508584e+001 
3406250000  -5.849129e+001  7.656213e+001 
3409375000  -5.688905e+001  5.348792e+001 
3412500000  -5.753418e+001  5.666600e+001 
3415625000  -5.934266e+001  3.706042e+001 
3418750000  -6.020086e+001  3.127332e+001 
3421875000  -5.986119e+001  2.868340e+001 
3425000000  -5.942818e+001  3.227404e+001 
3428125000  -5.895447e+001  8.036525e+000 
3431250000  -6.044495e+001  -2.248031e+000 
3434375000  -6.068164e+001  -2.302324e+001 
3437500000  -6.220849e+001  -2.827778e+001 
3440625000  -5.898640e+001  -3.069401e+001 
3443750000  -6.006041e+001  -3.800150e+001 
3446875000  -6.058217e+001  -6.239460e+001 
3450000000  -6.193186e+001  -6.363888e+001 
3453125000  -6.382652e+001  -8.594025e+001 
3456250000  -6.938609e+001  -7.085678e+001 
3459375000  -6.451864e+001  -8.309846e+001 
3462500000  -7.327098e+001  -1.039262e+002 
3465625000  -6.608379e+001  -1.119662e+002 
3468750000  -6.682436e+001  -9.592563e+001 
3471875000  -6.495757e+001  -1.232041e+002 
3475000000  -6.543783e+001  -9.972469e+001 
3478125000  -7.798777e+001  -1.408066e+002 
3481250000  -7.124461e+001  1.717283e+002 
3484375000  -6.615189e+001  -1.014143e+002 
3487500000  -6.763221e+001  -1.358709e+002 
3490625000  -6.582563e+001  -1.389839e+002 
3493750000  -7.106369e+001  -1.565895e+002 
3496875000  -6.769670e+001  -1.434452e+002 
3500000000  -6.761252e+001  -1.248030e+002 
3503125000  -6.698131e+001  1.754054e+002 
3506250000  -6.333232e+001  1.744680e+002 
3509375000  -6.482857e+001  1.717427e+002 
3512500000  -6.817605e+001  1.641544e+002 
3515625000  -6.959277e+001  1.522678e+002 
3518750000  -6.552262e+001  1.526757e+002 
3521875000  -7.478489e+001  1.493093e+002 
3525000000  -7.571666e+001  1.124788e+002 
3528125000  -6.847933e+001  9.352601e+001 
3531250000  -6.433983e+001  1.289757e+002 
3534375000  -6.808387e+001  9.545412e+001 
3537500000  -6.560723e+001  8.437019e+001 
3540625000  -6.989270e+001  8.318912e+001 
3543750000  -6.787453e+001  8.407413e+001 
3546875000  -7.121111e+001  3.956075e+001 
3550000000  -6.878200e+001  7.712267e+001 
3553125000  -7.115520e+001  2.041842e+001 
3556250000  -7.453033e+001  8.599452e+000 
3559375000  -7.399036e+001  4.051872e+001 
3562500000  -8.143272e+001  7.755037e+001 
3565625000  -7.517532e+001  6.558516e+001 
3568750000  -8.375152e+001  -9.973079e+001 
3571875000  -7.271901e+001  1.567822e+001 
3575000000  -7.723676e+001  -1.295579e+001 
3578125000  -6.620997e+001  1.120605e+001 
3581250000  -7.177340e+001  -9.473700e+000 
3584375000  -6.843230e+001  3.085209e+000 
3587500000  -6.769743e+001  1.095738e+000 
3590625000  -6.751889e+001  1.347690e+001 
3593750000  -6.846070e+001  -5.505643e+000 
3596875000  -6.612525e+001  2.403189e+001 
3600000000  -6.853158e+001  -2.012215e+001 
3603125000  -6.817693e+001  -1.847686e+001 
3606250000  -6.477679e+001  -2.463622e+001 
3609375000  -6.458310e+001  -3.309173e+001 
3612500000  -6.272520e+001  -4.287564e+001 
3615625000  -6.911367e+001  -5.732132e+001 
3618750000  -6.580692e+001  -9.142018e+001 
3621875000  -6.383504e+001  -7.738114e+001 
3625000000  -6.743914e+001  -6.201839e+001 
3628125000  -6.256800e+001  -9.356989e+001 
3631250000  -6.408270e+001  -1.213003e+002 
3634375000  -6.384399e+001  -1.297300e+002 
3637500000  -6.582298e+001  -1.273813e+002 
3640625000  -6.119561e+001  -1.368554e+002 
3643750000  -6.263823e+001  -1.609209e+002 
3646875000  -6.213903e+001  -1.786905e+002 
3650000000  -6.381053e+001  1.738446e+002 
3653125000  -6.390672e+001  1.786658e+002 
3656250000  -6.490592e+001  1.527839e+002 
3659375000  -6.378180e+001  1.742832e+002 
3662500000  -6.460133e+001  1.252854e+002 
3665625000  -6.025796e+001  1.517011e+002 
3668750000  -6.357097e+001  1.264196e+002 
3671875000  -6.509425e+001  1.428232e+002 
3675000000  -6.639547e+001  8.815720e+001 
3678125000  -6.771979e+001  1.223358e+002 
3681250000  -6.218993e+001  8.999316e+001 
3684375000  -6.490746e+001  9.520490e+001 
3687500000  -6.609879e+001  6.041343e+001 
3690625000  -6.704820e+001  7.291482e+001 
3693750000  -6.484959e+001  1.094151e+002 
3696875000  -6.763896e+001  6.575510e+001 
3700000000  -6.146567e+001  8.779467e+001 
3703125000  -6.974215e+001  2.964776e+001 
3706250000  -6.466376e+001  4.813514e+001 
3709375000  -6.395326e+001  5.730303e+001 
3712500000  -6.535045e+001  6.003170e+001 
3715625000  -6.230490e+001  2.151942e+001 
3718750000  -6.281949e+001  2.415907e+001 
3721875000  -6.209874e+001  1.523380e+001 
3725000000  -6.046975e+001  2.174475e+001 
3728125000  -5.940883e+001  6.639480e+000 
3731250000  -6.136169e+001  -5.189900e+000 
3734375000  -6.078213e+001  -1.894290e+001 
3737500000  -5.848781e+001  -3.807679e+001 
3740625000  -6.005084e+001  -3.288781e+001 
3743750000  -5.844777e+001  -5.566375e+001 
3746875000  -6.015361e+001  -7.387862e+001 
3750000000  -5.903587e+001  -8.665549e+001 
3753125000  -5.841390e+001  -8.926929e+001 
3756250000  -5.843108e+001  -1.013577e+002 
3759375000  -5.812437e+001  -1.013467e+002 
3762500000  -5.656788e+001  -1.144957e+002 
3765625000  -5.660386e+001  -1.191444e+002 
3768750000  -5.726444e+001  -1.353162e+002 
3771875000  -5.540344e+001  -1.515344e+002 
3775000000  -5.478029e+001  -1.631708e+002 
3778125000  -5.638084e+001  -1.769248e+002 
3781250000  -5.679774e+001  1.663659e+002 
3784375000  -5.667799e+001  1.670101e+002 
3787500000  -5.775441e+001  1.504720e+002 
3790625000  -5.794639e+001  1.312273e+002 
3793750000  -5.697901e+001  1.277563e+002 
3796875000  -5.746967e+001  1.214384e+002 
3800000000  -5.294852e+001  7.330402e+001 
3803125000  -5.668723e+001  9.796688e+001 
3806250000  -6.091443e+001  7.022305e+001 
3809375000  -5.753779e+001  7.479052e+001 
3812500000  -5.969241e+001  6.711799e+001 
3815625000  -6.030785e+001  4.104814e+001 
3818750000  -6.236809e+001  5.342551e+001 
3821875000  -6.078617e+001  4.171387e+001 
3825000000  -5.787972e+001  3.447940e+001 
3828125000  -5.800728e+001  2.333757e+001 
3831250000  -5.961574e+001  -2.764514e+000 
3834375000  -6.586533e+001  -1.290878e+001 
3837500000  -6.260555e+001  1.099434e+001 
3840625000  -6.136855e+001  1.097626e+001 
3843750000  -6.084166e+001  -1.591495e+001 
3846875000  -6.270108e+001  -2.252284e+001 
3850000000  -6.269482e+001  -1.505639e+000 
3853125000  -6.145599e+001  -5.340395e+001 
3856250000  -6.489172e+001  1.658359e+000 
3859375000  -5.974801e+001  -3.518296e+001 
3862500000  -6.203942e+001  -4.618801e+001 
3865625000  -6.089931e+001  -5.976366e+001 
3868750000  -5.845649e+001  -5.455456e+001 
3871875000  -5.564458e+001  -5.311558e+001 
3875000000  -6.329877e+001  -8.005274e+001 
3878125000  -5.698682e+001  -8.348512e+001 
3881250000  -5.821832e+001  -9.341280e+001 
3884375000  -5.699974e+001  -1.034759e+002 
3887500000  -5.627233e+001  -1.209038e+002 
3890625000  -5.773218e+001  -1.164190e+002 
3893750000  -5.673112e+001  -1.357280e+002 
3896875000  -5.644149e+001  -1.266312e+002 
3900000000  -5.589688e+001  -1.517696e+002 
3903125000  -5.528115e+001  -1.620670e+002 
3906250000  -5.354999e+001  -1.664178e+002 
3909375000  -5.370017e+001  1.742023e+002 
3912500000  -5.380956e+001  1.623932e+002 
3915625000  -5.447854e+001  1.542983e+002 
3918750000  -5.517088e+001  1.503592e+002 
3921875000  -5.447295e+001  1.403116e+002 
3925000000  -5.242950e+001  1.232687e+002 
3928125000  -5.179173e+001  1.020552e+002 
3931250000  -5.416520e+001  1.037708e+002 
3934375000  -5.488277e+001  8.159324e+001 
3937500000  -5.548085e+001  9.231256e+001 
3940625000  -5.480523e+001  7.734537e+001 
3943750000  -5.411892e+001  6.777157e+001 
3946875000  -5.341297e+001  4.626703e+001 
3950000000  -5.480661e+001  2.670247e+001 
3953125000  -5.431357e+001  3.669967e+001 
3956250000  -5.283717e+001  1.736796e+001 
3959375000  -5.215694e+001  1.333471e+001 
3962500000  -5.395572e+001  -3.355560e+000 
3965625000  -5.361538e+001  -1.638581e+001 
3968750000  -5.434852e+001  -3.788952e+001 
3971875000  -5.401059e+001  -4.730299e+001 
3975000000  -5.277177e+001  -5.732216e+001 
3978125000  -5.423238e+001  -6.289813e+001 
3981250000  -5.495510e+001  -8.125185e+001 
3984375000  -5.427031e+001  -9.063378e+001 
3987500000  -5.533162e+001  -9.775549e+001 
3990625000  -5.635561e+001  -1.051557e+002 
3993750000  -5.735402e+001  -1.176953e+002 
3996875000  -5.759170e+001  -1.198685e+002 
4000000000  -6.055603e+001  -1.291162e+002 
4003125000  -6.052579e+001  -1.377754e+002 
4006250000  -5.746400e+001  -1.410143e+002 
4009375000  -5.744523e+001  -1.551881e+002 
4012500000  -5.958172e+001  -1.643565e+002 
4015625000  -6.267897e+001  -1.619717e+002 
4018750000  -6.136816e+001  -1.676879e+002 
4021875000  -5.789129e+001  -1.777042e+002 
4025000000  -5.877188e+001  1.664041e+002 
4028125000  -5.938345e+001  -1.796149e+002 
4031250000  -6.255510e+001  1.517447e+002 
4034375000  -6.030699e+001  1.668361e+002 
4037500000  -5.908052e+001  1.561132e+002 
4040625000  -5.848574e+001  1.414225e+002 
4043750000  -5.828580e+001  1.441000e+002 
4046875000  -5.898017e+001  1.276609e+002 
4050000000  -5.630466e+001  1.271090e+002 
4053125000  -5.764487e+001  1.177464e+002 
4056250000  -5.886952e+001  1.037246e+002 
4059375000  -5.452066e+001  1.066004e+002 
4062500000  -5.473402e+001  9.257081e+001 
4065625000  -5.523326e+001  8.094495e+001 
4068750000  -5.363990e+001  7.528294e+001 
4071875000  -5.171680e+001  5.631122e+001 
4075000000  -5.292052e+001  4.804874e+001 
4078125000  -5.400151e+001  3.972878e+001 
4081250000  -5.304204e+001  2.520029e+001 
4084375000  -5.354265e+001  7.033010e+000 
4087500000  -5.318762e+001  -2.242878e+000 
4090625000  -5.320235e+001  -5.510804e+000 
4093750000  -5.315907e+001  -2.032280e+001 
4096875000  -5.261185e+001  -3.421213e+001 
4100000000  -5.410028e+001  -5.195767e+001 
4103125000  -5.500249e+001  -4.507459e+001 
4106250000  -5.351896e+001  -5.562179e+001 
4109375000  -5.362587e+001  -6.308852e+001 
4112500000  -5.134756e+001  -8.473792e+001 
4115625000  -5.432705e+001  -9.554053e+001 
4118750000  -5.281255e+001  -1.034229e+002 
4121875000  -5.227900e+001  -1.189987e+002 
4125000000  -5.368851e+001  -1.297770e+002 
4128125000  -5.494339e+001  -1.275550e+002 
4131250000  -5.359785e+001  -1.346979e+002 
4134375000  -5.210573e+001  -1.533458e+002 
4137500000  -5.191030e+001  -1.765661e+002 
4140625000  -5.359296e+001  1.770398e+002 
4143750000  -5.559466e+001  1.693505e+002 
4146875000  -5.450597e+001  1.748673e+002 
4150000000  -5.460837e+001  1.593929e+002 
4153125000  -5.370998e+001  1.396001e+002 
4156250000  -5.534327e+001  1.328094e+002 
4159375000  -5.687188e+001  1.331183e+002 
4162500000  -5.652961e+001  1.031193e+002 
4165625000  -5.430788e+001  1.215511e+002 
4168750000  -5.599691e+001  7.931507e+001 
4171875000  -5.568002e+001  8.195809e+001 
4175000000  -5.614863e+001  4.776536e+001 
4178125000  -5.662484e+001  5.793301e+001 
4181250000  -5.832913e+001  4.490180e+001 
4184375000  -6.120682e+001  3.471642e+001 
4187500000  -6.047100e+001  2.035896e+001 
4190625000  -5.966254e+001  1.989491e+001 
4193750000  -5.932311e+001  1.473591e+001 
4196875000  -6.299208e+001  1.794884e+000 
4200000000  -6.193151e+001  2.578123e+001 
4203125000  -6.237953e+001  8.611739e-001 
4206250000  -6.144769e+001  1.509219e+001 
4209375000  -6.239682e+001  -2.858805e+001 
4212500000  -6.395517e+001  1.018932e+001 
4215625000  -6.830247e+001  -2.284527e+001 
4218750000  -6.295037e+001  1.712693e+001 
4221875000  -6.202451e+001  -8.825843e+000 
4225000000  -6.161364e+001  -1.573831e+001 
4228125000  -5.672312e+001  -1.425088e+001 
4231250000  -6.230893e+001  2.947477e+000 
4234375000  -5.868950e+001  -4.559993e+001 
4237500000  -5.756425e+001  -3.999685e+001 
4240625000  -5.634179e+001  -6.866906e+001 
4243750000  -5.653681e+001  -6.900754e+001 
4246875000  -5.705243e+001  -7.337939e+001 
4250000000  -5.672617e+001  -9.316093e+001 
4253125000  -5.525892e+001  -9.190471e+001 
4256250000  -5.815863e+001  -1.113078e+002 
4259375000  -5.623288e+001  -1.156431e+002 
4262500000  -5.594160e+001  -1.247070e+002 
4265625000  -5.303421e+001  -1.257535e+002 
4268750000  -5.178914e+001  -1.496474e+002 
4271875000  -5.139667e+001  -1.573605e+002 
4275000000  -5.181939e+001  -1.742282e+002 
4278125000  -5.297042e+001  1.553368e+002 
4281250000  -5.450855e+001  1.482217e+002 
4284375000  -5.356115e+001  1.565279e+002 
4287500000  -5.454760e+001  1.407020e+002 
4290625000  -5.564230e+001  1.322210e+002 
4293750000  -5.215195e+001  1.518000e+002 
4296875000  -5.279291e+001  1.188356e+002 
4300000000  -5.204531e+001  1.060312e+002 
4303125000  -5.385398e+001  8.666627e+001 
4306250000  -5.204387e+001  9.761716e+001 
4309375000  -5.176455e+001  8.271004e+001 
4312500000  -5.190556e+001  5.879044e+001 
4315625000  -5.151124e+001  5.025992e+001 
4318750000  -5.368358e+001  4.478637e+001 
4321875000  -5.312149e+001  3.554551e+001 
4325000000  -5.290417e+001  2.055956e+001 
4328125000  -5.380158e+001  5.181127e+000 
4331250000  -5.332277e+001  4.017310e-001 
4334375000  -5.457716e+001  -2.358068e+001 
4337500000  -5.504058e+001  -3.479233e+001 
4340625000  -5.504307e+001  -2.340145e+001 
4343750000  -5.509711e+001  -4.297256e+001 
4346875000  -5.546599e+001  -4.071753e+001 
4350000000  -5.498647e+001  -6.787603e+001 
4353125000  -5.763340e+001  -7.210669e+001 
4356250000  -5.866725e+001  -8.215314e+001 
4359375000  -6.076056e+001  -5.060421e+001 
4362500000  -5.503790e+001  -8.501758e+001 
4365625000  -5.602002e+001  -7.860109e+001 
4368750000  -5.628551e+001  -1.077309e+002 
4371875000  -5.611005e+001  -1.181835e+002 
4375000000  -5.569707e+001  -1.149603e+002 
4378125000  -5.918577e+001  -1.333134e+002 
4381250000  -5.682635e+001  -1.362010e+002 
4384375000  -5.854488e+001  -1.397406e+002 
4387500000  -5.730024e+001  -1.430238e+002 
4390625000  -5.641838e+001  -1.551809e+002 
4393750000  -5.578975e+001  -1.595920e+002 
4396875000  -5.655056e+001  -1.646538e+002 
4400000000  -5.616469e+001  -1.713904e+002 
4403125000  -5.491741e+001  1.658320e+002 
4406250000  -5.746189e+001  1.672544e+002 
4409375000  -5.517815e+001  1.652568e+002 
4412500000  -5.648589e+001  1.475077e+002 
4415625000  -5.561334e+001  1.608801e+002 
4418750000  -5.358501e+001  1.573563e+002 
