!Agilent Technologies,E8363B,MY43030201,A.06.04.32
!Agilent E8363B: A.06.04.32
!Date: Tuesday, November 11, 2014 22:11:29
!Correction: S21(Response(S21)) 
!S1P File: Measurement: S21:
# Hz S  dB   R 50
3000000000  -4.903101e+001  -7.545038e+001 
3003125000  -5.143189e+001  -8.319820e+001 
3006250000  -5.174858e+001  -8.884450e+001 
3009375000  -5.211854e+001  -8.926089e+001 
3012500000  -5.101384e+001  -9.803272e+001 
3015625000  -5.133651e+001  -1.103655e+002 
3018750000  -5.163852e+001  -1.177982e+002 
3021875000  -4.972336e+001  -1.166177e+002 
3025000000  -4.909335e+001  -1.312953e+002 
3028125000  -4.798738e+001  -1.475385e+002 
3031250000  -4.714643e+001  -1.642002e+002 
3034375000  -4.710938e+001  1.772953e+002 
3037500000  -4.811211e+001  1.639256e+002 
3040625000  -4.931174e+001  1.546975e+002 
3043750000  -4.973963e+001  1.397224e+002 
3046875000  -5.069389e+001  1.301646e+002 
3050000000  -5.145791e+001  1.251200e+002 
3053125000  -5.150473e+001  1.209624e+002 
3056250000  -5.126705e+001  1.201736e+002 
3059375000  -5.072314e+001  1.077164e+002 
3062500000  -4.959868e+001  1.001078e+002 
3065625000  -4.947940e+001  8.961557e+001 
3068750000  -4.911440e+001  7.152137e+001 
3071875000  -4.912043e+001  6.615372e+001 
3075000000  -4.846337e+001  5.720531e+001 
3078125000  -4.837537e+001  4.365383e+001 
3081250000  -4.897504e+001  3.739158e+001 
3084375000  -4.821111e+001  2.594362e+001 
3087500000  -4.771012e+001  1.120222e+001 
3090625000  -4.781925e+001  -6.542121e+000 
3093750000  -4.925028e+001  -1.753286e+001 
3096875000  -4.995815e+001  -2.695290e+001 
3100000000  -4.934589e+001  -3.465641e+001 
3103125000  -4.979726e+001  -4.029356e+001 
3106250000  -4.903538e+001  -5.073779e+001 
3109375000  -4.943105e+001  -5.917437e+001 
3112500000  -4.941067e+001  -7.162386e+001 
3115625000  -4.948457e+001  -8.160818e+001 
3118750000  -4.930012e+001  -8.434238e+001 
3121875000  -4.905922e+001  -9.833888e+001 
3125000000  -5.127475e+001  -1.081664e+002 
3128125000  -5.091174e+001  -1.076643e+002 
3131250000  -4.804435e+001  -1.191184e+002 
3134375000  -4.767122e+001  -1.387097e+002 
3137500000  -4.881783e+001  -1.574527e+002 
3140625000  -4.967710e+001  -1.616313e+002 
3143750000  -5.032591e+001  -1.717242e+002 
3146875000  -4.967354e+001  -1.714304e+002 
3150000000  -4.899303e+001  1.758029e+002 
3153125000  -4.922739e+001  1.636907e+002 
3156250000  -5.001440e+001  1.627164e+002 
3159375000  -4.799654e+001  1.578786e+002 
3162500000  -4.649220e+001  1.359519e+002 
3165625000  -4.765475e+001  1.195513e+002 
3168750000  -4.715441e+001  1.109165e+002 
3171875000  -4.745492e+001  1.024483e+002 
3175000000  -4.771012e+001  8.564246e+001 
3178125000  -4.728464e+001  8.096194e+001 
3181250000  -4.691933e+001  6.778190e+001 
3184375000  -4.658694e+001  5.082299e+001 
3187500000  -4.750384e+001  2.895049e+001 
3190625000  -4.909599e+001  2.175942e+001 
3193750000  -4.960995e+001  2.062366e+001 
3196875000  -4.967687e+001  1.970173e+001 
3200000000  -4.833096e+001  8.583630e+000 
3203125000  -4.811805e+001  -4.899765e+000 
3206250000  -4.861087e+001  -1.896025e+001 
3209375000  -4.804697e+001  -3.401621e+001 
3212500000  -4.853690e+001  -4.152931e+001 
3215625000  -4.772596e+001  -4.843573e+001 
3218750000  -4.952588e+001  -7.008241e+001 
3221875000  -4.962443e+001  -7.755784e+001 
3225000000  -4.950977e+001  -8.364823e+001 
3228125000  -5.023554e+001  -9.450191e+001 
3231250000  -5.052445e+001  -1.053451e+002 
3234375000  -5.038781e+001  -1.096825e+002 
3237500000  -5.005857e+001  -1.180879e+002 
3240625000  -4.998755e+001  -1.318591e+002 
3243750000  -4.989986e+001  -1.474373e+002 
3246875000  -5.011090e+001  -1.568896e+002 
3250000000  -5.080022e+001  -1.646311e+002 
3253125000  -5.133092e+001  -1.698917e+002 
3256250000  -5.026692e+001  1.756656e+002 
3259375000  -5.060427e+001  1.577785e+002 
3262500000  -5.283609e+001  1.497322e+002 
3265625000  -5.319492e+001  1.409045e+002 
3268750000  -5.252011e+001  1.387159e+002 
3271875000  -5.300541e+001  1.326275e+002 
3275000000  -5.252151e+001  1.217139e+002 
3278125000  -5.208108e+001  1.052621e+002 
3281250000  -5.310884e+001  1.035064e+002 
3284375000  -5.270033e+001  9.046967e+001 
3287500000  -5.303248e+001  7.959872e+001 
3290625000  -5.308509e+001  7.156587e+001 
3293750000  -5.462270e+001  6.293159e+001 
3296875000  -5.419205e+001  5.369884e+001 
3300000000  -5.389572e+001  5.631708e+001 
3303125000  -5.249869e+001  3.952365e+001 
3306250000  -5.331897e+001  2.510817e+001 
3309375000  -5.383232e+001  1.819983e+001 
3312500000  -5.378674e+001  -3.671185e+000 
3315625000  -5.411025e+001  -2.806895e+000 
3318750000  -5.531394e+001  -1.486985e+001 
3321875000  -5.904364e+001  -1.403225e+001 
3325000000  -5.655197e+001  -2.313827e+001 
3328125000  -5.736440e+001  -2.020795e+001 
3331250000  -5.459558e+001  -3.226198e+001 
3334375000  -5.220230e+001  -4.653164e+001 
3337500000  -5.236489e+001  -7.045704e+001 
3340625000  -5.395005e+001  -8.476048e+001 
3343750000  -5.544274e+001  -8.824481e+001 
3346875000  -5.520366e+001  -1.002313e+002 
3350000000  -5.464588e+001  -9.790755e+001 
3353125000  -5.454684e+001  -1.135154e+002 
3356250000  -5.489119e+001  -1.270921e+002 
3359375000  -5.481946e+001  -1.470148e+002 
3362500000  -5.657964e+001  -1.569389e+002 
3365625000  -5.568731e+001  -1.597487e+002 
3368750000  -5.697509e+001  1.790470e+002 
3371875000  -5.617684e+001  1.720185e+002 
3375000000  -5.885468e+001  1.690332e+002 
3378125000  -6.020379e+001  1.717801e+002 
3381250000  -6.021333e+001  1.647700e+002 
3384375000  -5.590770e+001  1.694218e+002 
3387500000  -5.384910e+001  1.522853e+002 
3390625000  -5.572041e+001  1.235329e+002 
3393750000  -5.796912e+001  1.192288e+002 
3396875000  -5.802813e+001  1.026511e+002 
3400000000  -5.486436e+001  9.058379e+001 
3403125000  -5.721066e+001  8.586951e+001 
3406250000  -5.663276e+001  7.623895e+001 
3409375000  -5.933989e+001  5.632143e+001 
3412500000  -5.699708e+001  5.767589e+001 
3415625000  -5.899078e+001  4.200705e+001 
3418750000  -5.925032e+001  4.378326e+001 
3421875000  -5.907352e+001  2.226754e+001 
3425000000  -5.944886e+001  1.870484e+001 
3428125000  -6.059605e+001  6.490570e+000 
3431250000  -5.897600e+001  -8.374616e+000 
3434375000  -6.119898e+001  -2.327872e+001 
3437500000  -6.291697e+001  -2.052031e+001 
3440625000  -6.098518e+001  -3.179571e+001 
3443750000  -6.338170e+001  -2.742681e+001 
3446875000  -6.084329e+001  -3.454790e+001 
3450000000  -6.145033e+001  -7.179265e+001 
3453125000  -6.152003e+001  -7.895107e+001 
3456250000  -6.845653e+001  -1.154709e+002 
3459375000  -6.788408e+001  -5.127356e+001 
3462500000  -6.658769e+001  -9.596985e+001 
3465625000  -6.480183e+001  -8.579686e+001 
3468750000  -6.798057e+001  -1.233426e+002 
3471875000  -6.781101e+001  -9.020337e+001 
3475000000  -6.392126e+001  -9.769296e+001 
3478125000  -6.745705e+001  -1.331639e+002 
3481250000  -6.908585e+001  -1.203100e+002 
3484375000  -6.707533e+001  -1.364480e+002 
3487500000  -6.735886e+001  -1.332269e+002 
3490625000  -6.436401e+001  -1.406426e+002 
3493750000  -7.271248e+001  1.656568e+002 
3496875000  -6.774216e+001  -1.480743e+002 
3500000000  -6.975968e+001  -1.460230e+002 
3503125000  -6.386512e+001  -1.605482e+002 
3506250000  -6.479093e+001  -1.433725e+002 
3509375000  -6.783857e+001  1.760605e+002 
3512500000  -7.012482e+001  1.505185e+002 
3515625000  -6.730582e+001  -1.690858e+002 
3518750000  -7.028549e+001  1.243827e+002 
3521875000  -6.721570e+001  1.427391e+002 
3525000000  -6.530476e+001  1.190489e+002 
3528125000  -7.438438e+001  1.120055e+002 
3531250000  -6.768355e+001  1.053707e+002 
3534375000  -6.572312e+001  1.064385e+002 
3537500000  -6.735746e+001  8.257069e+001 
3540625000  -7.050668e+001  9.101827e+001 
3543750000  -6.837903e+001  8.164594e+001 
3546875000  -6.848640e+001  8.856866e+001 
3550000000  -7.252290e+001  1.054200e+002 
3553125000  -7.394881e+001  1.707065e+001 
3556250000  -8.446973e+001  1.787077e+002 
3559375000  -7.181608e+001  4.123818e+001 
3562500000  -8.153986e+001  1.563272e+002 
3565625000  -7.384690e+001  1.188683e+001 
3568750000  -9.480157e+001  3.220554e+000 
3571875000  -7.522002e+001  -2.944395e+001 
3575000000  -8.350483e+001  1.186375e+002 
3578125000  -6.824712e+001  7.772881e+001 
3581250000  -8.225174e+001  -1.746401e+002 
3584375000  -8.694995e+001  1.219130e+002 
3587500000  -7.887624e+001  -3.759019e+001 
3590625000  -6.714639e+001  8.345622e+000 
3593750000  -6.766611e+001  -1.696267e+001 
3596875000  -6.758134e+001  2.244950e+001 
3600000000  -7.142439e+001  1.126555e+001 
3603125000  -6.284205e+001  -1.670696e+001 
3606250000  -6.701274e+001  -3.420058e+001 
3609375000  -6.790546e+001  -9.328398e+000 
3612500000  -6.333774e+001  -5.744082e+001 
3615625000  -7.078454e+001  -1.189388e+001 
3618750000  -6.433259e+001  -3.902752e+001 
3621875000  -6.299207e+001  -6.905849e+001 
3625000000  -6.384466e+001  -6.120374e+001 
3628125000  -6.240860e+001  -1.167227e+002 
3631250000  -6.624660e+001  -1.192839e+002 
3634375000  -6.502383e+001  -1.074035e+002 
3637500000  -6.557529e+001  -1.011916e+002 
3640625000  -6.071182e+001  -1.248087e+002 
3643750000  -6.048567e+001  -1.331806e+002 
3646875000  -6.210627e+001  1.695582e+002 
3650000000  -6.506944e+001  1.765827e+002 
3653125000  -6.236121e+001  1.677705e+002 
3656250000  -6.451588e+001  1.598996e+002 
3659375000  -6.554208e+001  1.721386e+002 
3662500000  -6.245579e+001  1.480688e+002 
3665625000  -6.431166e+001  1.361572e+002 
3668750000  -6.096091e+001  1.036359e+002 
3671875000  -6.365282e+001  1.229895e+002 
3675000000  -6.170113e+001  1.065294e+002 
3678125000  -6.775704e+001  1.058386e+002 
3681250000  -6.282407e+001  1.086520e+002 
3684375000  -6.384383e+001  1.012998e+002 
3687500000  -6.583587e+001  8.209576e+001 
3690625000  -7.502752e+001  1.005286e+002 
3693750000  -6.902963e+001  1.042087e+002 
3696875000  -6.680225e+001  7.842950e+001 
3700000000  -6.456661e+001  7.858302e+001 
3703125000  -6.764873e+001  3.836375e+001 
3706250000  -6.572897e+001  5.356092e+001 
3709375000  -6.502599e+001  4.835581e+001 
3712500000  -6.075124e+001  5.062309e+001 
3715625000  -6.236492e+001  3.188326e+001 
3718750000  -6.156967e+001  2.608920e+001 
3721875000  -6.309647e+001  5.235729e+000 
3725000000  -6.079368e+001  2.424444e+001 
3728125000  -6.161333e+001  2.894871e+000 
3731250000  -5.841427e+001  -1.162985e+001 
3734375000  -5.834015e+001  -1.448917e+001 
3737500000  -5.780551e+001  -4.221157e+001 
3740625000  -5.747462e+001  -3.826944e+001 
3743750000  -5.887805e+001  -6.352572e+001 
3746875000  -6.111092e+001  -6.155633e+001 
3750000000  -6.075573e+001  -8.468490e+001 
3753125000  -5.975886e+001  -7.841725e+001 
3756250000  -5.819670e+001  -1.039999e+002 
3759375000  -5.957169e+001  -1.244335e+002 
3762500000  -5.825707e+001  -1.180114e+002 
3765625000  -5.831197e+001  -1.232660e+002 
3768750000  -5.647233e+001  -1.374682e+002 
3771875000  -5.707929e+001  -1.492289e+002 
3775000000  -5.573900e+001  -1.599924e+002 
3778125000  -5.606935e+001  -1.734525e+002 
3781250000  -5.741680e+001  1.760761e+002 
3784375000  -5.790954e+001  1.581959e+002 
3787500000  -5.622570e+001  1.586984e+002 
3790625000  -5.771306e+001  1.332902e+002 
3793750000  -6.013195e+001  1.424192e+002 
3796875000  -5.702143e+001  1.280698e+002 
3800000000  -5.276867e+001  8.310715e+001 
3803125000  -5.979468e+001  1.002322e+002 
3806250000  -5.885860e+001  7.439275e+001 
3809375000  -5.929353e+001  7.627078e+001 
3812500000  -5.766261e+001  7.190555e+001 
3815625000  -6.258797e+001  4.748221e+001 
3818750000  -6.024616e+001  3.741730e+001 
3821875000  -5.900220e+001  4.958322e+001 
3825000000  -6.019973e+001  5.113811e+001 
3828125000  -5.887064e+001  3.486716e+001 
3831250000  -5.942184e+001  7.129231e+000 
3834375000  -6.272046e+001  1.495063e+001 
3837500000  -6.118427e+001  1.354376e+001 
3840625000  -6.349336e+001  4.901604e+000 
3843750000  -6.182444e+001  3.099045e+000 
3846875000  -6.265700e+001  -1.125956e+001 
3850000000  -6.732148e+001  -5.361249e+000 
3853125000  -6.266925e+001  -2.485046e+001 
3856250000  -6.145212e+001  -1.162768e+001 
3859375000  -6.057742e+001  -3.870890e+001 
3862500000  -6.162368e+001  -4.765311e+001 
3865625000  -6.060676e+001  -5.622802e+001 
3868750000  -6.119987e+001  -5.795365e+001 
3871875000  -5.789990e+001  -6.077084e+001 
3875000000  -5.960721e+001  -7.943582e+001 
3878125000  -5.899272e+001  -8.989313e+001 
3881250000  -5.783019e+001  -8.993407e+001 
3884375000  -5.653981e+001  -1.001929e+002 
3887500000  -5.590328e+001  -1.131984e+002 
3890625000  -5.690363e+001  -1.207866e+002 
3893750000  -5.724168e+001  -1.210953e+002 
3896875000  -5.734045e+001  -1.241729e+002 
3900000000  -5.661312e+001  -1.523118e+002 
3903125000  -5.583218e+001  -1.487627e+002 
3906250000  -5.417327e+001  -1.670470e+002 
3909375000  -5.545856e+001  1.704756e+002 
3912500000  -5.470816e+001  1.623870e+002 
3915625000  -5.580582e+001  1.650770e+002 
3918750000  -5.516081e+001  1.464170e+002 
3921875000  -5.614962e+001  1.403222e+002 
3925000000  -5.317860e+001  1.302046e+002 
3928125000  -5.358356e+001  1.165435e+002 
3931250000  -5.395212e+001  1.040218e+002 
3934375000  -5.438320e+001  8.846806e+001 
3937500000  -5.527299e+001  7.823746e+001 
3940625000  -5.398880e+001  7.462005e+001 
3943750000  -5.358489e+001  6.255352e+001 
3946875000  -5.300530e+001  4.772802e+001 
3950000000  -5.398312e+001  4.097171e+001 
3953125000  -5.512180e+001  4.065675e+001 
3956250000  -5.496625e+001  1.954373e+001 
3959375000  -5.235477e+001  4.752669e+000 
3962500000  -5.266096e+001  -1.180800e+000 
3965625000  -5.275176e+001  -2.061644e+001 
3968750000  -5.438516e+001  -3.956233e+001 
3971875000  -5.384439e+001  -3.919164e+001 
3975000000  -5.400175e+001  -5.484753e+001 
3978125000  -5.440320e+001  -5.794371e+001 
3981250000  -5.529938e+001  -7.230736e+001 
3984375000  -5.454792e+001  -7.832225e+001 
3987500000  -5.518177e+001  -8.666826e+001 
3990625000  -5.727174e+001  -1.020334e+002 
3993750000  -5.783115e+001  -1.237401e+002 
3996875000  -5.657281e+001  -1.133676e+002 
4000000000  -5.979802e+001  -1.167462e+002 
4003125000  -5.807051e+001  -1.326423e+002 
4006250000  -5.864444e+001  -1.399220e+002 
4009375000  -5.776310e+001  -1.557045e+002 
4012500000  -5.843224e+001  -1.593869e+002 
4015625000  -6.030346e+001  -1.600547e+002 
4018750000  -5.867462e+001  -1.661591e+002 
4021875000  -5.866446e+001  -1.725175e+002 
4025000000  -5.895868e+001  1.790630e+002 
4028125000  -6.116330e+001  -1.784925e+002 
4031250000  -5.935727e+001  1.534390e+002 
4034375000  -5.909532e+001  1.649887e+002 
4037500000  -5.749409e+001  1.565596e+002 
4040625000  -5.927074e+001  1.520837e+002 
4043750000  -6.064502e+001  1.414403e+002 
4046875000  -5.776049e+001  1.236199e+002 
4050000000  -5.635621e+001  1.296035e+002 
4053125000  -5.799239e+001  1.302615e+002 
4056250000  -5.893002e+001  1.138306e+002 
4059375000  -5.989235e+001  9.751881e+001 
4062500000  -5.768267e+001  1.101825e+002 
4065625000  -5.350102e+001  8.378688e+001 
4068750000  -5.520699e+001  8.165393e+001 
4071875000  -5.383284e+001  6.109415e+001 
4075000000  -5.332951e+001  3.428273e+001 
4078125000  -5.259158e+001  3.630037e+001 
4081250000  -5.309711e+001  2.933895e+001 
4084375000  -5.239818e+001  8.071137e+000 
4087500000  -5.360064e+001  -1.247655e+001 
4090625000  -5.365573e+001  -8.563109e+000 
4093750000  -5.355705e+001  -2.756934e+001 
4096875000  -5.221162e+001  -3.299287e+001 
4100000000  -5.363251e+001  -4.931183e+001 
4103125000  -5.519930e+001  -4.955905e+001 
4106250000  -5.332059e+001  -5.707649e+001 
4109375000  -5.367114e+001  -6.369628e+001 
4112500000  -5.277173e+001  -8.606045e+001 
4115625000  -5.429630e+001  -8.930730e+001 
4118750000  -5.335369e+001  -9.873904e+001 
4121875000  -5.302150e+001  -1.183730e+002 
4125000000  -5.321905e+001  -1.200536e+002 
4128125000  -5.510838e+001  -1.277758e+002 
4131250000  -5.361241e+001  -1.262382e+002 
4134375000  -5.130043e+001  -1.566009e+002 
4137500000  -5.224157e+001  -1.725155e+002 
4140625000  -5.288828e+001  1.725256e+002 
4143750000  -5.675565e+001  1.761666e+002 
4146875000  -5.336663e+001  1.765942e+002 
4150000000  -5.603727e+001  1.438071e+002 
4153125000  -5.425601e+001  1.383539e+002 
4156250000  -5.495485e+001  1.266834e+002 
4159375000  -5.586802e+001  1.352995e+002 
4162500000  -5.621557e+001  1.225213e+002 
4165625000  -5.460387e+001  1.044442e+002 
4168750000  -5.473661e+001  9.731810e+001 
4171875000  -5.477745e+001  7.618750e+001 
4175000000  -5.508763e+001  7.109277e+001 
4178125000  -5.843858e+001  7.390691e+001 
4181250000  -5.726743e+001  3.470168e+001 
4184375000  -5.837882e+001  3.171430e+001 
4187500000  -5.801163e+001  2.979654e+001 
4190625000  -6.068085e+001  1.678132e+001 
4193750000  -6.249744e+001  1.068378e+001 
4196875000  -6.376219e+001  6.921504e+000 
4200000000  -6.350423e+001  4.068584e+001 
4203125000  -6.261830e+001  1.227408e+001 
4206250000  -6.052451e+001  3.144818e+001 
4209375000  -5.927182e+001  -8.392850e+000 
4212500000  -6.354323e+001  -1.225118e+001 
4215625000  -6.437190e+001  -3.869153e+001 
4218750000  -6.001751e+001  1.189326e+001 
4221875000  -5.825395e+001  -1.665170e+001 
4225000000  -6.005695e+001  1.258327e+000 
4228125000  -6.044848e+001  -4.200345e+001 
4231250000  -5.994197e+001  -2.435123e+001 
4234375000  -5.966870e+001  -5.582185e+001 
4237500000  -5.957880e+001  -6.014671e+001 
4240625000  -5.552343e+001  -7.388162e+001 
4243750000  -5.819925e+001  -6.644657e+001 
4246875000  -5.499095e+001  -8.525033e+001 
4250000000  -5.701505e+001  -8.580770e+001 
4253125000  -5.504444e+001  -9.289259e+001 
4256250000  -5.648133e+001  -9.958214e+001 
4259375000  -5.530592e+001  -1.045474e+002 
4262500000  -5.433066e+001  -1.191729e+002 
4265625000  -5.437733e+001  -1.232637e+002 
4268750000  -5.216428e+001  -1.430241e+002 
4271875000  -5.259335e+001  -1.665099e+002 
4275000000  -5.099322e+001  -1.732610e+002 
4278125000  -5.314305e+001  1.606256e+002 
4281250000  -5.376191e+001  1.628665e+002 
4284375000  -5.546693e+001  1.624062e+002 
4287500000  -5.369466e+001  1.499366e+002 
4290625000  -5.561050e+001  1.509505e+002 
4293750000  -5.197762e+001  1.400872e+002 
4296875000  -5.103477e+001  1.263749e+002 
4300000000  -5.172987e+001  1.105028e+002 
4303125000  -5.270662e+001  1.006133e+002 
4306250000  -5.262350e+001  9.913282e+001 
4309375000  -5.098517e+001  6.591814e+001 
4312500000  -5.130355e+001  6.386996e+001 
4315625000  -5.164133e+001  5.106729e+001 
4318750000  -5.345265e+001  3.892770e+001 
4321875000  -5.261290e+001  3.686049e+001 
4325000000  -5.269029e+001  1.878308e+001 
4328125000  -5.136337e+001  1.192763e+001 
4331250000  -5.425643e+001  -5.261161e+000 
4334375000  -5.435646e+001  -2.044321e+001 
4337500000  -5.466119e+001  -3.300238e+001 
4340625000  -5.401202e+001  -1.861791e+001 
4343750000  -5.522157e+001  -3.295662e+001 
4346875000  -5.502304e+001  -3.911027e+001 
4350000000  -5.504149e+001  -5.991462e+001 
4353125000  -5.711671e+001  -6.920826e+001 
4356250000  -5.741257e+001  -9.170042e+001 
4359375000  -5.934894e+001  -5.405658e+001 
4362500000  -5.453941e+001  -7.753795e+001 
4365625000  -5.447681e+001  -1.042992e+002 
4368750000  -5.540305e+001  -1.179593e+002 
4371875000  -5.595425e+001  -1.134209e+002 
4375000000  -5.694953e+001  -1.176258e+002 
4378125000  -5.889038e+001  -1.268536e+002 
4381250000  -5.742091e+001  -1.363980e+002 
4384375000  -5.660310e+001  -1.433788e+002 
4387500000  -5.751326e+001  -1.324159e+002 
4390625000  -5.846305e+001  -1.581633e+002 
4393750000  -5.809478e+001  -1.424443e+002 
4396875000  -5.767907e+001  -1.572339e+002 
4400000000  -5.468732e+001  1.760748e+002 
4403125000  -5.575204e+001  1.686577e+002 
4406250000  -5.661926e+001  1.707043e+002 
4409375000  -5.575895e+001  1.730886e+002 
4412500000  -5.834613e+001  1.623847e+002 
4415625000  -5.443785e+001  1.698547e+002 
4418750000  -5.453557e+001  1.506426e+002 
