!Agilent Technologies,E8363B,MY43030201,A.06.04.32
!Agilent E8363B: A.06.04.32
!Date: Tuesday, November 11, 2014 22:15:08
!Correction: S21(Response(S21)) 
!S1P File: Measurement: S21:
# Hz S  dB   R 50
3000000000  -4.910698e+001  -7.393716e+001 
3003125000  -5.161433e+001  -8.039241e+001 
3006250000  -5.159100e+001  -8.642973e+001 
3009375000  -5.163342e+001  -8.838464e+001 
3012500000  -5.084565e+001  -9.533527e+001 
3015625000  -5.142162e+001  -1.054078e+002 
3018750000  -5.153197e+001  -1.131000e+002 
3021875000  -4.984263e+001  -1.181211e+002 
3025000000  -4.863818e+001  -1.283406e+002 
3028125000  -4.792123e+001  -1.436280e+002 
3031250000  -4.713943e+001  -1.613932e+002 
3034375000  -4.727544e+001  -1.766916e+002 
3037500000  -4.787054e+001  1.640862e+002 
3040625000  -4.921049e+001  1.538925e+002 
3043750000  -4.950441e+001  1.440485e+002 
3046875000  -5.042403e+001  1.303262e+002 
3050000000  -5.153313e+001  1.221347e+002 
3053125000  -5.156834e+001  1.191602e+002 
3056250000  -5.096267e+001  1.202550e+002 
3059375000  -5.074062e+001  1.132685e+002 
3062500000  -4.966264e+001  1.019819e+002 
3065625000  -4.927364e+001  8.839070e+001 
3068750000  -4.896095e+001  7.586714e+001 
3071875000  -4.931601e+001  6.788593e+001 
3075000000  -4.837772e+001  5.751841e+001 
3078125000  -4.859798e+001  4.584565e+001 
3081250000  -4.862515e+001  3.476332e+001 
3084375000  -4.846906e+001  2.604938e+001 
3087500000  -4.845010e+001  1.058779e+001 
3090625000  -4.797280e+001  -3.230518e+000 
3093750000  -4.935128e+001  -1.285946e+001 
3096875000  -4.937060e+001  -2.215038e+001 
3100000000  -4.961249e+001  -3.127670e+001 
3103125000  -5.002861e+001  -3.812847e+001 
3106250000  -4.935290e+001  -4.997415e+001 
3109375000  -4.991856e+001  -6.158614e+001 
3112500000  -4.959504e+001  -6.735256e+001 
3115625000  -4.898697e+001  -7.696135e+001 
3118750000  -4.944653e+001  -8.498119e+001 
3121875000  -4.883439e+001  -9.981920e+001 
3125000000  -5.049368e+001  -1.081183e+002 
3128125000  -5.100803e+001  -1.033074e+002 
3131250000  -4.839819e+001  -1.159376e+002 
3134375000  -4.761964e+001  -1.391173e+002 
3137500000  -4.838835e+001  -1.522606e+002 
3140625000  -4.970338e+001  -1.580180e+002 
3143750000  -5.058508e+001  -1.700560e+002 
3146875000  -4.943090e+001  -1.710165e+002 
3150000000  -4.912579e+001  1.785568e+002 
3153125000  -4.936665e+001  1.701981e+002 
3156250000  -4.973983e+001  1.643018e+002 
3159375000  -4.786966e+001  1.596116e+002 
3162500000  -4.645627e+001  1.380241e+002 
3165625000  -4.785849e+001  1.211851e+002 
3168750000  -4.780851e+001  1.154700e+002 
3171875000  -4.747404e+001  1.021236e+002 
3175000000  -4.773156e+001  8.889611e+001 
3178125000  -4.706723e+001  8.405858e+001 
3181250000  -4.649266e+001  6.838132e+001 
3184375000  -4.631336e+001  5.513955e+001 
3187500000  -4.755275e+001  3.243665e+001 
3190625000  -4.960329e+001  1.996996e+001 
3193750000  -5.024593e+001  2.474551e+001 
3196875000  -4.942418e+001  1.877968e+001 
3200000000  -4.840065e+001  1.005603e+001 
3203125000  -4.826025e+001  -4.189008e+000 
3206250000  -4.903226e+001  -1.744283e+001 
3209375000  -4.780810e+001  -2.844658e+001 
3212500000  -4.864510e+001  -4.229023e+001 
3215625000  -4.839499e+001  -4.683768e+001 
3218750000  -4.896824e+001  -6.026569e+001 
3221875000  -4.931959e+001  -7.999423e+001 
3225000000  -4.931155e+001  -8.496767e+001 
3228125000  -4.986880e+001  -9.238844e+001 
3231250000  -5.105104e+001  -1.017947e+002 
3234375000  -4.992567e+001  -1.088073e+002 
3237500000  -5.020493e+001  -1.197081e+002 
3240625000  -4.985630e+001  -1.298137e+002 
3243750000  -5.053048e+001  -1.429806e+002 
3246875000  -5.015295e+001  -1.557905e+002 
3250000000  -5.098359e+001  -1.619822e+002 
3253125000  -5.125598e+001  -1.699425e+002 
3256250000  -5.049874e+001  1.797016e+002 
3259375000  -5.073390e+001  1.588131e+002 
3262500000  -5.235363e+001  1.525835e+002 
3265625000  -5.314051e+001  1.482605e+002 
3268750000  -5.381797e+001  1.441707e+002 
3271875000  -5.275093e+001  1.363858e+002 
3275000000  -5.210184e+001  1.217480e+002 
3278125000  -5.341877e+001  1.104094e+002 
3281250000  -5.265475e+001  1.064791e+002 
3284375000  -5.204827e+001  8.830955e+001 
3287500000  -5.420026e+001  8.708149e+001 
3290625000  -5.281924e+001  7.497022e+001 
3293750000  -5.285824e+001  6.578404e+001 
3296875000  -5.383630e+001  4.865746e+001 
3300000000  -5.469220e+001  4.855426e+001 
3303125000  -5.221291e+001  4.015979e+001 
3306250000  -5.335698e+001  2.580879e+001 
3309375000  -5.324070e+001  1.866377e+001 
3312500000  -5.341424e+001  1.826247e+000 
3315625000  -5.422898e+001  -8.021460e+000 
3318750000  -5.549077e+001  -1.702418e+001 
3321875000  -5.746986e+001  -1.343521e+001 
3325000000  -5.667399e+001  -1.654727e+001 
3328125000  -5.724371e+001  -2.290559e+001 
3331250000  -5.440834e+001  -2.277709e+001 
3334375000  -5.296542e+001  -4.669250e+001 
3337500000  -5.279736e+001  -7.122660e+001 
3340625000  -5.406360e+001  -8.668377e+001 
3343750000  -5.632167e+001  -9.444839e+001 
3346875000  -5.466478e+001  -9.609540e+001 
3350000000  -5.546589e+001  -9.916498e+001 
3353125000  -5.475315e+001  -1.150791e+002 
3356250000  -5.477303e+001  -1.253940e+002 
3359375000  -5.457949e+001  -1.403174e+002 
3362500000  -5.592455e+001  -1.505855e+002 
3365625000  -5.564612e+001  -1.645952e+002 
3368750000  -5.709102e+001  -1.713403e+002 
3371875000  -5.658916e+001  1.732452e+002 
3375000000  -5.792790e+001  1.696116e+002 
3378125000  -5.889363e+001  1.692842e+002 
3381250000  -6.056053e+001  1.626666e+002 
3384375000  -5.676427e+001  -1.737524e+002 
3387500000  -5.476226e+001  1.479819e+002 
3390625000  -5.586962e+001  1.376221e+002 
3393750000  -5.722950e+001  1.270778e+002 
3396875000  -5.642373e+001  1.206939e+002 
3400000000  -5.532154e+001  9.293021e+001 
3403125000  -5.875899e+001  8.197601e+001 
3406250000  -5.915788e+001  8.145221e+001 
3409375000  -5.624476e+001  5.625197e+001 
3412500000  -5.640975e+001  5.575438e+001 
3415625000  -6.033461e+001  3.925549e+001 
3418750000  -6.033471e+001  4.546442e+001 
3421875000  -6.092677e+001  4.068503e+001 
3425000000  -5.915270e+001  3.123965e+001 
3428125000  -5.944714e+001  1.401331e+001 
3431250000  -6.068747e+001  -1.840508e+000 
3434375000  -6.205196e+001  -1.840958e+001 
3437500000  -6.028990e+001  -2.664713e+001 
3440625000  -6.041830e+001  -3.163811e+001 
3443750000  -6.307656e+001  -2.656871e+001 
3446875000  -5.975028e+001  -5.228382e+001 
3450000000  -6.269278e+001  -7.550822e+001 
3453125000  -6.441010e+001  -8.458594e+001 
3456250000  -6.671798e+001  -1.106622e+002 
3459375000  -6.371997e+001  -7.233122e+001 
3462500000  -6.755096e+001  -9.363563e+001 
3465625000  -6.689129e+001  -7.799574e+001 
3468750000  -6.360634e+001  -1.077213e+002 
3471875000  -6.491140e+001  -1.159340e+002 
3475000000  -6.412566e+001  -1.108443e+002 
3478125000  -7.081654e+001  -1.027019e+002 
3481250000  -6.909258e+001  -1.319902e+002 
3484375000  -7.142512e+001  -1.668551e+002 
3487500000  -6.441483e+001  -1.386794e+002 
3490625000  -6.803316e+001  -1.296973e+002 
3493750000  -6.903999e+001  -1.561156e+002 
3496875000  -6.992602e+001  -1.239139e+002 
3500000000  -7.034666e+001  -1.646677e+002 
3503125000  -6.703455e+001  -1.427717e+002 
3506250000  -6.385635e+001  1.686214e+002 
3509375000  -6.529752e+001  -1.752229e+002 
3512500000  -6.390270e+001  1.515604e+002 
3515625000  -6.657125e+001  1.386562e+002 
3518750000  -6.441817e+001  1.487053e+002 
3521875000  -6.396671e+001  1.357469e+002 
3525000000  -7.025800e+001  1.332456e+002 
3528125000  -6.813377e+001  1.229842e+002 
3531250000  -6.812450e+001  1.104895e+002 
3534375000  -6.721466e+001  7.586349e+001 
3537500000  -6.870669e+001  7.664558e+001 
3540625000  -7.035158e+001  2.683430e+001 
3543750000  -7.197223e+001  4.721376e+001 
3546875000  -7.249796e+001  7.537811e+001 
3550000000  -6.707003e+001  1.072367e+002 
3553125000  -6.788249e+001  4.954887e+001 
3556250000  -6.977658e+001  8.992399e+001 
3559375000  -7.040553e+001  5.433163e+001 
3562500000  -7.402197e+001  1.120943e+002 
3565625000  -7.187925e+001  -1.430773e+001 
3568750000  -7.521693e+001  1.505402e+002 
3571875000  -6.997579e+001  2.653403e+001 
3575000000  -6.916653e+001  2.098981e+001 
3578125000  -7.099894e+001  4.123545e+001 
3581250000  -7.802210e+001  8.791676e+000 
3584375000  -6.794725e+001  5.881506e+001 
3587500000  -7.185101e+001  -2.837632e+001 
3590625000  -7.019389e+001  1.750102e+001 
3593750000  -7.349329e+001  4.093210e+000 
3596875000  -6.583630e+001  1.281659e+001 
3600000000  -6.962252e+001  -7.066351e+000 
3603125000  -6.322060e+001  -3.602035e+001 
3606250000  -6.481477e+001  -5.180901e+001 
3609375000  -6.487795e+001  -5.063334e+001 
3612500000  -6.303627e+001  -4.437879e+001 
3615625000  -7.093603e+001  -5.874554e+001 
3618750000  -6.469402e+001  -5.630804e+001 
3621875000  -6.531920e+001  -6.348464e+001 
3625000000  -6.362257e+001  -6.521293e+001 
3628125000  -6.328664e+001  -1.249421e+002 
3631250000  -6.339666e+001  -1.102813e+002 
3634375000  -6.571853e+001  -1.176053e+002 
3637500000  -6.348087e+001  -1.004845e+002 
3640625000  -6.262846e+001  -1.263629e+002 
3643750000  -6.406966e+001  -1.308076e+002 
3646875000  -6.133271e+001  -1.438111e+002 
3650000000  -6.256112e+001  -1.674970e+002 
3653125000  -6.410452e+001  -1.767729e+002 
3656250000  -6.823823e+001  1.632987e+002 
3659375000  -6.447707e+001  1.517852e+002 
3662500000  -6.313435e+001  1.442746e+002 
3665625000  -6.385204e+001  1.533656e+002 
3668750000  -6.196057e+001  1.312865e+002 
3671875000  -6.389061e+001  1.175518e+002 
3675000000  -6.408595e+001  1.062395e+002 
3678125000  -6.562048e+001  1.076972e+002 
3681250000  -6.262577e+001  9.577271e+001 
3684375000  -6.769582e+001  8.156585e+001 
3687500000  -6.831871e+001  6.342649e+001 
3690625000  -6.613713e+001  7.708648e+001 
3693750000  -7.181905e+001  1.101276e+002 
3696875000  -6.848125e+001  8.431692e+001 
3700000000  -6.290805e+001  8.378102e+001 
3703125000  -6.854537e+001  4.192707e+001 
3706250000  -6.582008e+001  7.071392e+001 
3709375000  -6.538267e+001  8.457629e+001 
3712500000  -6.478282e+001  5.406929e+001 
3715625000  -6.254008e+001  3.456186e+001 
3718750000  -6.165112e+001  3.264471e+001 
3721875000  -6.158562e+001  1.349822e+001 
3725000000  -6.090053e+001  3.627480e+001 
3728125000  -5.985726e+001  1.128114e+001 
3731250000  -5.833692e+001  -2.487295e+000 
3734375000  -5.974008e+001  -2.214088e+001 
3737500000  -6.028528e+001  -4.089323e+001 
3740625000  -5.851894e+001  -5.459224e+001 
3743750000  -6.097075e+001  -5.760714e+001 
3746875000  -5.894671e+001  -5.715875e+001 
3750000000  -5.754289e+001  -8.091920e+001 
3753125000  -5.988196e+001  -7.902713e+001 
3756250000  -5.880805e+001  -9.764718e+001 
3759375000  -5.871942e+001  -1.077443e+002 
3762500000  -5.760165e+001  -1.180188e+002 
3765625000  -5.882391e+001  -1.174011e+002 
3768750000  -5.859795e+001  -1.338946e+002 
3771875000  -5.684476e+001  -1.388932e+002 
3775000000  -5.630616e+001  -1.580732e+002 
3778125000  -5.664982e+001  1.709560e+002 
3781250000  -5.550714e+001  1.750518e+002 
3784375000  -5.713605e+001  1.543447e+002 
3787500000  -5.636293e+001  1.547193e+002 
3790625000  -5.984264e+001  1.332853e+002 
3793750000  -5.847823e+001  1.291692e+002 
3796875000  -5.825178e+001  1.195377e+002 
3800000000  -5.376682e+001  7.898682e+001 
3803125000  -5.780676e+001  1.097101e+002 
3806250000  -5.967691e+001  8.944236e+001 
3809375000  -5.770714e+001  8.122083e+001 
3812500000  -5.996543e+001  6.661604e+001 
3815625000  -6.081571e+001  4.647182e+001 
3818750000  -6.160677e+001  3.305951e+001 
3821875000  -6.060904e+001  6.938403e+001 
3825000000  -6.032690e+001  3.731618e+001 
3828125000  -5.840418e+001  3.398584e+001 
3831250000  -6.102457e+001  1.892558e+001 
3834375000  -6.504962e+001  1.731441e+000 
3837500000  -6.972980e+001  1.506115e+001 
3840625000  -6.229249e+001  2.845713e+000 
3843750000  -6.032758e+001  1.077414e+001 
3846875000  -6.156073e+001  -2.955472e+001 
3850000000  -6.210326e+001  -4.087578e+000 
3853125000  -6.179775e+001  -2.850646e+001 
3856250000  -5.895634e+001  -3.773187e+000 
3859375000  -6.008601e+001  -2.585945e+001 
3862500000  -6.033442e+001  -3.178961e+001 
3865625000  -6.145056e+001  -4.302541e+001 
3868750000  -6.294355e+001  -6.406399e+001 
3871875000  -5.571629e+001  -5.738289e+001 
3875000000  -5.945545e+001  -6.471703e+001 
3878125000  -5.809508e+001  -8.891291e+001 
3881250000  -5.700011e+001  -7.800565e+001 
3884375000  -5.687048e+001  -9.590012e+001 
3887500000  -5.766691e+001  -1.183928e+002 
3890625000  -5.577641e+001  -1.159916e+002 
3893750000  -5.645899e+001  -1.217841e+002 
3896875000  -5.705054e+001  -1.333862e+002 
3900000000  -5.728677e+001  -1.476312e+002 
3903125000  -5.554665e+001  -1.502810e+002 
3906250000  -5.630401e+001  -1.657872e+002 
3909375000  -5.502875e+001  1.757052e+002 
3912500000  -5.421350e+001  1.668859e+002 
3915625000  -5.527026e+001  1.545301e+002 
3918750000  -5.388369e+001  1.542838e+002 
3921875000  -5.453728e+001  1.418665e+002 
3925000000  -5.353364e+001  1.282731e+002 
3928125000  -5.232137e+001  1.054269e+002 
3931250000  -5.344323e+001  1.050226e+002 
3934375000  -5.466055e+001  9.109049e+001 
3937500000  -5.642319e+001  8.929562e+001 
3940625000  -5.379179e+001  7.916076e+001 
3943750000  -5.376386e+001  6.676015e+001 
3946875000  -5.319241e+001  4.424360e+001 
3950000000  -5.440120e+001  4.179576e+001 
3953125000  -5.424461e+001  2.932335e+001 
3956250000  -5.367797e+001  2.070733e+001 
3959375000  -5.260155e+001  1.144755e+001 
3962500000  -5.271245e+001  -8.588107e+000 
3965625000  -5.338060e+001  -1.433103e+001 
3968750000  -5.414245e+001  -3.576778e+001 
3971875000  -5.419212e+001  -3.942565e+001 
3975000000  -5.392720e+001  -4.938179e+001 
3978125000  -5.369522e+001  -5.186641e+001 
3981250000  -5.596260e+001  -6.314227e+001 
3984375000  -5.581156e+001  -7.844659e+001 
3987500000  -5.610973e+001  -9.033808e+001 
3990625000  -5.673971e+001  -1.053334e+002 
3993750000  -5.847643e+001  -1.255566e+002 
3996875000  -5.818266e+001  -1.205562e+002 
4000000000  -6.206887e+001  -1.341321e+002 
4003125000  -5.990767e+001  -1.197712e+002 
4006250000  -5.604579e+001  -1.314568e+002 
4009375000  -5.584971e+001  -1.429653e+002 
4012500000  -5.945562e+001  -1.518051e+002 
4015625000  -5.887740e+001  -1.596132e+002 
4018750000  -5.916199e+001  -1.578886e+002 
4021875000  -6.070806e+001  -1.741929e+002 
4025000000  -5.887693e+001  1.693714e+002 
4028125000  -5.772058e+001  1.771806e+002 
4031250000  -5.945938e+001  1.715951e+002 
4034375000  -5.855599e+001  1.673180e+002 
4037500000  -5.819846e+001  1.611007e+002 
4040625000  -6.125466e+001  1.396761e+002 
4043750000  -5.863309e+001  1.517179e+002 
4046875000  -6.096512e+001  1.377968e+002 
4050000000  -5.802184e+001  1.202372e+002 
4053125000  -5.934368e+001  1.312847e+002 
4056250000  -5.908050e+001  1.240619e+002 
4059375000  -5.612717e+001  1.134570e+002 
4062500000  -5.377244e+001  1.085970e+002 
4065625000  -5.488277e+001  8.993265e+001 
4068750000  -5.453637e+001  7.707309e+001 
4071875000  -5.265905e+001  5.763111e+001 
4075000000  -5.273780e+001  4.780655e+001 
4078125000  -5.381809e+001  4.260707e+001 
4081250000  -5.365814e+001  2.840968e+001 
4084375000  -5.256271e+001  1.436090e+001 
4087500000  -5.492456e+001  3.490446e+000 
4090625000  -5.306413e+001  -7.802573e+000 
4093750000  -5.282809e+001  -2.215092e+001 
4096875000  -5.372786e+001  -3.238573e+001 
4100000000  -5.396537e+001  -4.751212e+001 
4103125000  -5.487437e+001  -4.334629e+001 
4106250000  -5.421804e+001  -5.149845e+001 
4109375000  -5.349039e+001  -5.865133e+001 
4112500000  -5.189733e+001  -7.673637e+001 
4115625000  -5.333066e+001  -8.625993e+001 
4118750000  -5.403874e+001  -9.738425e+001 
4121875000  -5.299719e+001  -1.139544e+002 
4125000000  -5.302311e+001  -1.193473e+002 
4128125000  -5.547975e+001  -1.349624e+002 
4131250000  -5.256536e+001  -1.348374e+002 
4134375000  -5.191544e+001  -1.546037e+002 
4137500000  -5.125665e+001  -1.669362e+002 
4140625000  -5.348421e+001  1.677548e+002 
4143750000  -5.622231e+001  1.754560e+002 
4146875000  -5.319098e+001  1.671495e+002 
4150000000  -5.476228e+001  1.474887e+002 
4153125000  -5.316021e+001  1.460363e+002 
4156250000  -5.643986e+001  1.225258e+002 
4159375000  -5.521790e+001  1.221471e+002 
4162500000  -5.560770e+001  1.128775e+002 
4165625000  -5.548757e+001  1.053382e+002 
4168750000  -5.464294e+001  8.845351e+001 
4171875000  -5.552323e+001  8.486743e+001 
4175000000  -5.507173e+001  6.056003e+001 
4178125000  -5.733023e+001  6.463914e+001 
4181250000  -5.771564e+001  3.840845e+001 
4184375000  -5.797583e+001  3.028542e+001 
4187500000  -5.915116e+001  3.548711e+001 
4190625000  -6.425185e+001  2.397771e+001 
4193750000  -6.281725e+001  2.377426e+001 
4196875000  -6.215830e+001  8.318866e+000 
4200000000  -6.618207e+001  4.108725e+001 
4203125000  -6.564728e+001  1.313305e+001 
4206250000  -6.055024e+001  3.838832e+001 
4209375000  -6.258542e+001  -1.224065e+001 
4212500000  -6.670220e+001  1.730459e+001 
4215625000  -6.438994e+001  -2.160492e+001 
4218750000  -6.093821e+001  1.272264e+001 
4221875000  -6.611594e+001  -2.954166e+001 
4225000000  -5.717483e+001  -1.804905e+001 
4228125000  -5.904138e+001  -3.622646e+001 
4231250000  -6.152494e+001  -2.832441e+001 
4234375000  -5.868113e+001  -1.931280e+001 
4237500000  -5.784023e+001  -4.923915e+001 
4240625000  -5.681659e+001  -6.351595e+001 
4243750000  -5.924662e+001  -7.727721e+001 
4246875000  -5.590784e+001  -7.776875e+001 
4250000000  -5.772919e+001  -7.646719e+001 
4253125000  -5.644545e+001  -8.886804e+001 
4256250000  -5.482851e+001  -1.014069e+002 
4259375000  -5.414132e+001  -1.012673e+002 
4262500000  -5.565497e+001  -1.224380e+002 
4265625000  -5.315596e+001  -1.234972e+002 
4268750000  -5.141512e+001  -1.389175e+002 
4271875000  -5.187583e+001  -1.541525e+002 
4275000000  -5.125944e+001  -1.775994e+002 
4278125000  -5.385020e+001  1.633315e+002 
4281250000  -5.321289e+001  1.630146e+002 
4284375000  -5.415432e+001  1.518983e+002 
4287500000  -5.515271e+001  1.453017e+002 
4290625000  -5.469587e+001  1.492509e+002 
4293750000  -5.364595e+001  1.508104e+002 
4296875000  -5.227660e+001  1.250385e+002 
4300000000  -5.299052e+001  1.101302e+002 
4303125000  -5.310830e+001  1.028412e+002 
4306250000  -5.257634e+001  8.835879e+001 
4309375000  -5.162414e+001  7.716296e+001 
4312500000  -5.210922e+001  7.162012e+001 
4315625000  -5.274556e+001  5.646538e+001 
4318750000  -5.415553e+001  4.749955e+001 
4321875000  -5.263515e+001  3.818860e+001 
4325000000  -5.270325e+001  3.780534e+001 
4328125000  -5.103883e+001  1.171402e+001 
4331250000  -5.319408e+001  -4.699135e+000 
4334375000  -5.431240e+001  -1.414952e+001 
4337500000  -5.652144e+001  -2.882401e+001 
4340625000  -5.542038e+001  -2.245292e+001 
4343750000  -5.316510e+001  -3.437264e+001 
4346875000  -5.477674e+001  -4.199730e+001 
4350000000  -5.733900e+001  -5.959919e+001 
4353125000  -5.811839e+001  -8.021943e+001 
4356250000  -5.811250e+001  -7.106767e+001 
4359375000  -5.754355e+001  -3.896619e+001 
4362500000  -5.600404e+001  -6.868040e+001 
4365625000  -5.461842e+001  -1.034795e+002 
4368750000  -5.558116e+001  -1.013020e+002 
4371875000  -5.529208e+001  -1.201682e+002 
4375000000  -5.573252e+001  -1.091635e+002 
4378125000  -5.732912e+001  -1.194045e+002 
4381250000  -5.559829e+001  -1.302806e+002 
4384375000  -5.676208e+001  -1.389565e+002 
4387500000  -5.987290e+001  -1.324599e+002 
4390625000  -5.729043e+001  -1.501392e+002 
4393750000  -5.859058e+001  -1.559344e+002 
4396875000  -5.503962e+001  -1.499099e+002 
4400000000  -5.441400e+001  -1.751253e+002 
4403125000  -5.484902e+001  1.627174e+002 
4406250000  -5.673131e+001  1.729935e+002 
4409375000  -5.604492e+001  1.720431e+002 
4412500000  -5.750037e+001  1.463464e+002 
4415625000  -5.677077e+001  1.662657e+002 
4418750000  -5.429420e+001  1.570775e+002 
