!Agilent Technologies,E8363B,MY43030201,A.06.04.32
!Agilent E8363B: A.06.04.32
!Date: Tuesday, November 11, 2014 22:15:50
!Correction: S21(Response(S21)) 
!S1P File: Measurement: S21:
# Hz S  dB   R 50
3000000000  -4.886973e+001  -7.315167e+001 
3003125000  -5.214909e+001  -7.953076e+001 
3006250000  -5.123375e+001  -8.780744e+001 
3009375000  -5.293264e+001  -8.548703e+001 
3012500000  -5.100084e+001  -9.949473e+001 
3015625000  -5.129208e+001  -1.048951e+002 
3018750000  -5.167945e+001  -1.138034e+002 
3021875000  -5.027974e+001  -1.158314e+002 
3025000000  -4.882423e+001  -1.261675e+002 
3028125000  -4.775605e+001  -1.402324e+002 
3031250000  -4.749012e+001  -1.603786e+002 
3034375000  -4.697895e+001  -1.788090e+002 
3037500000  -4.791130e+001  1.642081e+002 
3040625000  -4.921754e+001  1.555458e+002 
3043750000  -4.976327e+001  1.423502e+002 
3046875000  -5.041325e+001  1.318899e+002 
3050000000  -5.131577e+001  1.230024e+002 
3053125000  -5.168813e+001  1.262536e+002 
3056250000  -5.165866e+001  1.229776e+002 
3059375000  -5.096690e+001  1.127598e+002 
3062500000  -4.958775e+001  1.010868e+002 
3065625000  -4.916571e+001  9.011862e+001 
3068750000  -4.916654e+001  7.630485e+001 
3071875000  -4.878069e+001  6.869370e+001 
3075000000  -4.850593e+001  5.777095e+001 
3078125000  -4.848260e+001  4.500354e+001 
3081250000  -4.872462e+001  3.696404e+001 
3084375000  -4.812103e+001  2.564545e+001 
3087500000  -4.795316e+001  1.411016e+001 
3090625000  -4.787276e+001  -3.430570e+000 
3093750000  -4.965408e+001  -1.309652e+001 
3096875000  -4.887422e+001  -2.259433e+001 
3100000000  -4.917044e+001  -3.066541e+001 
3103125000  -4.965370e+001  -3.965897e+001 
3106250000  -4.975747e+001  -4.683900e+001 
3109375000  -4.943748e+001  -5.420033e+001 
3112500000  -4.939175e+001  -6.692037e+001 
3115625000  -4.951986e+001  -7.764172e+001 
3118750000  -4.974257e+001  -8.468121e+001 
3121875000  -4.935662e+001  -9.441326e+001 
3125000000  -5.109388e+001  -1.067816e+002 
3128125000  -5.107835e+001  -1.031590e+002 
3131250000  -4.892916e+001  -1.139774e+002 
3134375000  -4.740729e+001  -1.396693e+002 
3137500000  -4.911746e+001  -1.555755e+002 
3140625000  -5.014193e+001  -1.602802e+002 
3143750000  -5.060252e+001  -1.698681e+002 
3146875000  -4.997607e+001  -1.714702e+002 
3150000000  -4.915330e+001  -1.784952e+002 
3153125000  -4.896874e+001  1.655648e+002 
3156250000  -5.051249e+001  1.628697e+002 
3159375000  -4.786985e+001  1.628123e+002 
3162500000  -4.603737e+001  1.387661e+002 
3165625000  -4.774825e+001  1.206333e+002 
3168750000  -4.786535e+001  1.166515e+002 
3171875000  -4.732347e+001  1.030217e+002 
3175000000  -4.766245e+001  8.677406e+001 
3178125000  -4.742639e+001  8.297344e+001 
3181250000  -4.695706e+001  6.964425e+001 
3184375000  -4.655579e+001  5.518166e+001 
3187500000  -4.787195e+001  3.296283e+001 
3190625000  -4.919300e+001  2.409710e+001 
3193750000  -4.974589e+001  2.506929e+001 
3196875000  -4.925687e+001  2.071781e+001 
3200000000  -4.854265e+001  9.526680e+000 
3203125000  -4.849864e+001  -3.624743e+000 
3206250000  -4.888976e+001  -1.546355e+001 
3209375000  -4.807224e+001  -2.911604e+001 
3212500000  -4.869259e+001  -4.134299e+001 
3215625000  -4.841242e+001  -4.321622e+001 
3218750000  -4.925321e+001  -6.488712e+001 
3221875000  -4.957662e+001  -7.521418e+001 
3225000000  -4.953814e+001  -8.199626e+001 
3228125000  -5.021114e+001  -9.191749e+001 
3231250000  -5.079574e+001  -1.034675e+002 
3234375000  -4.984196e+001  -1.077940e+002 
3237500000  -5.047395e+001  -1.146745e+002 
3240625000  -4.988457e+001  -1.278196e+002 
3243750000  -5.030925e+001  -1.448525e+002 
3246875000  -5.016162e+001  -1.522022e+002 
3250000000  -5.086366e+001  -1.607039e+002 
3253125000  -5.100531e+001  -1.737724e+002 
3256250000  -5.027280e+001  1.727439e+002 
3259375000  -5.093924e+001  1.601368e+002 
3262500000  -5.211494e+001  1.517914e+002 
3265625000  -5.385828e+001  1.483134e+002 
3268750000  -5.264613e+001  1.417877e+002 
3271875000  -5.260028e+001  1.397392e+002 
3275000000  -5.231945e+001  1.240325e+002 
3278125000  -5.281118e+001  1.134913e+002 
3281250000  -5.272410e+001  1.080470e+002 
3284375000  -5.166901e+001  9.214973e+001 
3287500000  -5.413214e+001  8.286477e+001 
3290625000  -5.328725e+001  7.745811e+001 
3293750000  -5.364824e+001  6.027921e+001 
3296875000  -5.438222e+001  5.866817e+001 
3300000000  -5.403594e+001  5.310244e+001 
3303125000  -5.336737e+001  4.064151e+001 
3306250000  -5.315709e+001  2.257331e+001 
3309375000  -5.316040e+001  2.016008e+001 
3312500000  -5.303104e+001  2.501877e+000 
3315625000  -5.489751e+001  -1.017339e+001 
3318750000  -5.498910e+001  -7.906298e+000 
3321875000  -5.922968e+001  -5.641256e+000 
3325000000  -5.705667e+001  -1.655553e+001 
3328125000  -5.661996e+001  -1.252173e+001 
3331250000  -5.301042e+001  -2.585553e+001 
3334375000  -5.128142e+001  -4.611174e+001 
3337500000  -5.317808e+001  -7.365126e+001 
3340625000  -5.449283e+001  -8.918214e+001 
3343750000  -5.646163e+001  -8.437319e+001 
3346875000  -5.520898e+001  -9.698580e+001 
3350000000  -5.461718e+001  -9.806891e+001 
3353125000  -5.479997e+001  -1.129206e+002 
3356250000  -5.493453e+001  -1.271638e+002 
3359375000  -5.503759e+001  -1.391791e+002 
3362500000  -5.613490e+001  -1.507984e+002 
3365625000  -5.657415e+001  -1.487628e+002 
3368750000  -5.653321e+001  -1.702318e+002 
3371875000  -5.639058e+001  -1.693467e+002 
3375000000  -5.915189e+001  1.746660e+002 
3378125000  -5.896111e+001  1.686856e+002 
3381250000  -6.041361e+001  1.599957e+002 
3384375000  -5.703476e+001  1.782592e+002 
3387500000  -5.388017e+001  1.430629e+002 
3390625000  -5.690899e+001  1.370464e+002 
3393750000  -5.722870e+001  1.200712e+002 
3396875000  -5.816722e+001  1.015032e+002 
3400000000  -5.626483e+001  1.006674e+002 
3403125000  -5.705844e+001  8.801049e+001 
3406250000  -5.808256e+001  7.544125e+001 
3409375000  -5.738411e+001  5.642959e+001 
3412500000  -5.645126e+001  5.709782e+001 
3415625000  -6.107591e+001  4.702520e+001 
3418750000  -5.913773e+001  3.463927e+001 
3421875000  -6.060631e+001  2.438997e+001 
3425000000  -5.898294e+001  3.249501e+001 
3428125000  -5.970252e+001  1.214098e+001 
3431250000  -6.156026e+001  4.813317e+000 
3434375000  -6.018956e+001  -2.301567e+001 
3437500000  -6.260256e+001  -3.036049e+001 
3440625000  -5.969764e+001  -1.614931e+001 
3443750000  -6.294508e+001  -1.949679e+001 
3446875000  -5.985135e+001  -5.019301e+001 
3450000000  -6.252625e+001  -9.243277e+001 
3453125000  -6.482033e+001  -6.698454e+001 
3456250000  -6.597644e+001  -8.658557e+001 
3459375000  -6.539191e+001  -6.721706e+001 
3462500000  -7.308541e+001  -1.105194e+002 
3465625000  -6.537437e+001  -1.046601e+002 
3468750000  -6.772215e+001  -1.243056e+002 
3471875000  -6.957257e+001  -1.082254e+002 
3475000000  -6.567443e+001  -1.283077e+002 
3478125000  -6.905956e+001  -1.343712e+002 
3481250000  -7.303848e+001  -1.162543e+002 
3484375000  -7.006689e+001  -1.276635e+002 
3487500000  -6.927296e+001  -1.151431e+002 
3490625000  -6.864626e+001  -1.009643e+002 
3493750000  -7.009512e+001  -1.555171e+002 
3496875000  -6.821140e+001  -1.069128e+002 
3500000000  -6.577670e+001  -1.744493e+002 
3503125000  -7.206632e+001  -1.624844e+002 
3506250000  -6.428589e+001  -1.608165e+002 
3509375000  -6.630269e+001  -1.572507e+002 
3512500000  -6.496784e+001  1.536329e+002 
3515625000  -6.736808e+001  1.426612e+002 
3518750000  -6.483694e+001  1.432144e+002 
3521875000  -6.696693e+001  1.282615e+002 
3525000000  -6.779324e+001  1.204328e+002 
3528125000  -6.978509e+001  1.522731e+002 
3531250000  -6.667402e+001  1.059873e+002 
3534375000  -7.134870e+001  1.041850e+002 
3537500000  -6.908891e+001  8.483598e+001 
3540625000  -6.748623e+001  8.586668e+001 
3543750000  -7.030865e+001  1.745446e+002 
3546875000  -6.910470e+001  8.587888e+001 
3550000000  -7.077138e+001  1.396546e+002 
3553125000  -6.309781e+001  4.310201e+001 
3556250000  -8.585444e+001  3.544143e+001 
3559375000  -7.279056e+001  -5.382560e+000 
3562500000  -7.492176e+001  1.783099e+002 
3565625000  -7.663835e+001  2.290096e+001 
3568750000  -8.790817e+001  -1.779308e+002 
3571875000  -6.947281e+001  8.555448e+001 
3575000000  -8.111485e+001  3.980187e+001 
3578125000  -6.557245e+001  4.032853e+001 
3581250000  -7.544717e+001  8.294989e+001 
3584375000  -7.106486e+001  4.463258e+001 
3587500000  -7.552019e+001  -4.184638e+001 
3590625000  -6.891135e+001  -3.501450e+000 
3593750000  -6.854694e+001  -3.591458e+001 
3596875000  -6.692636e+001  6.755076e+001 
3600000000  -6.752238e+001  2.348847e+001 
3603125000  -7.163300e+001  -2.738104e+001 
3606250000  -6.361109e+001  -3.447029e+001 
3609375000  -6.859915e+001  -1.592964e+001 
3612500000  -6.327215e+001  -5.576341e+001 
3615625000  -6.684478e+001  -7.482705e+001 
3618750000  -6.306611e+001  -6.210539e+001 
3621875000  -6.438975e+001  -1.051397e+002 
3625000000  -6.119877e+001  -7.919334e+001 
3628125000  -6.352815e+001  -1.108520e+002 
3631250000  -6.164934e+001  -1.171583e+002 
3634375000  -6.363880e+001  -1.383031e+002 
3637500000  -6.194711e+001  -1.111534e+002 
3640625000  -6.220309e+001  -1.182821e+002 
3643750000  -6.178729e+001  -1.401452e+002 
3646875000  -6.080329e+001  -1.671774e+002 
3650000000  -6.334763e+001  1.667124e+002 
3653125000  -6.149423e+001  -1.643731e+002 
3656250000  -6.420597e+001  1.666064e+002 
3659375000  -6.703869e+001  -1.696606e+002 
3662500000  -6.154734e+001  1.483791e+002 
3665625000  -6.302728e+001  1.523009e+002 
3668750000  -6.187044e+001  1.211499e+002 
3671875000  -6.325634e+001  1.399052e+002 
3675000000  -6.520735e+001  1.068900e+002 
3678125000  -6.447611e+001  1.351352e+002 
3681250000  -6.166612e+001  1.115699e+002 
3684375000  -6.667132e+001  9.819431e+001 
3687500000  -6.447346e+001  1.006538e+002 
3690625000  -6.709436e+001  7.389703e+001 
3693750000  -6.410535e+001  8.741454e+001 
3696875000  -6.600803e+001  9.084937e+001 
3700000000  -6.552924e+001  9.349348e+001 
3703125000  -6.766085e+001  4.258479e+001 
3706250000  -6.152820e+001  6.785340e+001 
3709375000  -6.608029e+001  4.355141e+001 
3712500000  -6.350434e+001  5.656804e+001 
3715625000  -6.184245e+001  4.832386e+001 
3718750000  -6.211358e+001  3.514917e+001 
3721875000  -5.991821e+001  7.222822e+000 
3725000000  -6.174730e+001  3.522783e+001 
3728125000  -6.132683e+001  1.610228e+001 
3731250000  -5.947630e+001  -4.420489e+000 
3734375000  -5.732347e+001  -2.253982e+001 
3737500000  -5.963149e+001  -3.414584e+001 
3740625000  -5.858687e+001  -2.780098e+001 
3743750000  -5.820042e+001  -6.258520e+001 
3746875000  -5.834169e+001  -5.292408e+001 
3750000000  -5.669535e+001  -8.224377e+001 
3753125000  -5.897662e+001  -8.137153e+001 
3756250000  -5.904992e+001  -9.781149e+001 
3759375000  -5.829881e+001  -1.083267e+002 
3762500000  -5.782145e+001  -1.062343e+002 
3765625000  -5.997964e+001  -1.204727e+002 
3768750000  -5.596090e+001  -1.364092e+002 
3771875000  -5.642696e+001  -1.387791e+002 
3775000000  -5.649493e+001  -1.537540e+002 
3778125000  -5.749770e+001  -1.747400e+002 
3781250000  -5.585064e+001  1.794835e+002 
3784375000  -5.949887e+001  1.705877e+002 
3787500000  -5.762835e+001  1.585666e+002 
3790625000  -5.574535e+001  1.394451e+002 
3793750000  -5.939302e+001  1.382810e+002 
3796875000  -5.648178e+001  1.235615e+002 
3800000000  -5.331357e+001  8.273946e+001 
3803125000  -5.531674e+001  9.985798e+001 
3806250000  -5.846257e+001  8.414620e+001 
3809375000  -5.942953e+001  9.105098e+001 
3812500000  -5.773595e+001  7.254310e+001 
3815625000  -6.015988e+001  4.220832e+001 
3818750000  -5.903819e+001  3.064870e+001 
3821875000  -6.267785e+001  5.019750e+001 
3825000000  -5.918291e+001  3.788377e+001 
3828125000  -5.906031e+001  3.296524e+001 
3831250000  -6.078833e+001  1.637044e-001 
3834375000  -6.328656e+001  8.708953e-001 
3837500000  -6.416698e+001  -6.268384e+000 
3840625000  -6.082203e+001  -8.217412e+000 
3843750000  -6.278788e+001  5.048403e+000 
3846875000  -6.303669e+001  -2.423768e+001 
3850000000  -6.494510e+001  4.519176e-001 
3853125000  -6.291843e+001  3.916006e-001 
3856250000  -6.278002e+001  -1.970026e+001 
3859375000  -6.193469e+001  -3.048817e+001 
3862500000  -6.307863e+001  -2.480144e+001 
3865625000  -6.053563e+001  -3.937423e+001 
3868750000  -6.003698e+001  -3.798820e+001 
3871875000  -5.606501e+001  -6.215675e+001 
3875000000  -5.886812e+001  -6.886472e+001 
3878125000  -5.816976e+001  -8.496164e+001 
3881250000  -5.723419e+001  -8.339248e+001 
3884375000  -5.566944e+001  -9.694720e+001 
3887500000  -5.611155e+001  -1.123405e+002 
3890625000  -5.759755e+001  -1.100297e+002 
3893750000  -5.497910e+001  -1.299241e+002 
3896875000  -5.571468e+001  -1.395953e+002 
3900000000  -5.605887e+001  -1.353974e+002 
3903125000  -5.584492e+001  -1.459067e+002 
3906250000  -5.299000e+001  -1.733515e+002 
3909375000  -5.623421e+001  -1.797155e+002 
3912500000  -5.470411e+001  1.623507e+002 
3915625000  -5.529326e+001  1.599317e+002 
3918750000  -5.530156e+001  1.491837e+002 
3921875000  -5.356678e+001  1.362255e+002 
3925000000  -5.334728e+001  1.314735e+002 
3928125000  -5.231771e+001  1.074770e+002 
3931250000  -5.405384e+001  1.063392e+002 
3934375000  -5.494345e+001  9.309973e+001 
3937500000  -5.540773e+001  8.456479e+001 
3940625000  -5.450793e+001  7.945444e+001 
3943750000  -5.296878e+001  6.912867e+001 
3946875000  -5.380882e+001  5.345067e+001 
3950000000  -5.517119e+001  3.904479e+001 
3953125000  -5.471446e+001  3.533937e+001 
3956250000  -5.364276e+001  3.723397e+001 
3959375000  -5.235956e+001  2.009442e+001 
3962500000  -5.300751e+001  2.303121e-001 
3965625000  -5.458775e+001  -2.000454e+001 
3968750000  -5.486020e+001  -3.455988e+001 
3971875000  -5.310999e+001  -3.869824e+001 
3975000000  -5.497726e+001  -4.548721e+001 
3978125000  -5.394438e+001  -5.450702e+001 
3981250000  -5.438193e+001  -7.411295e+001 
3984375000  -5.486796e+001  -7.695048e+001 
3987500000  -5.574078e+001  -7.845479e+001 
3990625000  -5.752001e+001  -9.677900e+001 
3993750000  -5.699028e+001  -1.200712e+002 
3996875000  -5.769579e+001  -1.186192e+002 
4000000000  -5.943656e+001  -1.370200e+002 
4003125000  -5.728036e+001  -1.298277e+002 
4006250000  -5.646152e+001  -1.355918e+002 
4009375000  -5.921966e+001  -1.539559e+002 
4012500000  -6.085095e+001  -1.531576e+002 
4015625000  -6.131230e+001  -1.694162e+002 
4018750000  -5.997026e+001  -1.595046e+002 
4021875000  -5.902983e+001  -1.685258e+002 
4025000000  -5.853833e+001  1.665869e+002 
4028125000  -5.810227e+001  1.743113e+002 
4031250000  -5.967356e+001  -1.778666e+002 
4034375000  -6.138836e+001  -1.697415e+002 
4037500000  -5.777815e+001  1.530232e+002 
4040625000  -5.957573e+001  1.455391e+002 
4043750000  -5.858364e+001  1.438405e+002 
4046875000  -5.691764e+001  1.376909e+002 
4050000000  -5.763645e+001  1.233575e+002 
4053125000  -5.779328e+001  1.189429e+002 
4056250000  -5.740412e+001  1.117808e+002 
4059375000  -5.709309e+001  1.087480e+002 
4062500000  -5.609139e+001  1.099841e+002 
4065625000  -5.460752e+001  8.175390e+001 
4068750000  -5.621262e+001  7.417484e+001 
4071875000  -5.375868e+001  6.684042e+001 
4075000000  -5.283180e+001  4.447141e+001 
4078125000  -5.311572e+001  3.861460e+001 
4081250000  -5.340344e+001  2.165998e+001 
4084375000  -5.146891e+001  9.843966e+000 
4087500000  -5.311276e+001  -6.319423e+000 
4090625000  -5.323723e+001  3.597411e-001 
4093750000  -5.278354e+001  -1.432315e+001 
4096875000  -5.239324e+001  -3.489696e+001 
4100000000  -5.301966e+001  -4.802706e+001 
4103125000  -5.502667e+001  -4.492426e+001 
4106250000  -5.428275e+001  -4.962635e+001 
4109375000  -5.292299e+001  -5.765799e+001 
4112500000  -5.307238e+001  -7.909569e+001 
4115625000  -5.541269e+001  -8.833449e+001 
4118750000  -5.287155e+001  -1.051417e+002 
4121875000  -5.402859e+001  -1.203300e+002 
4125000000  -5.278149e+001  -1.192154e+002 
4128125000  -5.533645e+001  -1.320639e+002 
4131250000  -5.195838e+001  -1.245063e+002 
4134375000  -5.099117e+001  -1.450013e+002 
4137500000  -5.309499e+001  -1.745320e+002 
4140625000  -5.430433e+001  1.671197e+002 
4143750000  -5.513605e+001  1.692441e+002 
4146875000  -5.430159e+001  1.753251e+002 
4150000000  -5.702148e+001  1.549729e+002 
4153125000  -5.266771e+001  1.404759e+002 
4156250000  -5.437439e+001  1.261683e+002 
4159375000  -5.567060e+001  1.320418e+002 
4162500000  -5.651381e+001  1.259431e+002 
4165625000  -5.472317e+001  1.122729e+002 
4168750000  -5.397340e+001  9.486393e+001 
4171875000  -5.482533e+001  7.711794e+001 
4175000000  -5.616424e+001  5.571412e+001 
4178125000  -5.727467e+001  6.943087e+001 
4181250000  -5.801472e+001  4.313490e+001 
4184375000  -6.041613e+001  4.555056e+001 
4187500000  -5.974105e+001  1.915669e+001 
4190625000  -6.072267e+001  3.244448e+001 
4193750000  -5.982557e+001  2.853100e+001 
4196875000  -6.280027e+001  -3.237047e+000 
4200000000  -6.372369e+001  8.073936e+000 
4203125000  -6.622359e+001  2.921598e+001 
4206250000  -6.096643e+001  2.583039e+001 
4209375000  -6.192828e+001  -1.011948e+001 
4212500000  -6.636095e+001  -1.788272e+001 
4215625000  -6.637473e+001  -2.113927e+000 
4218750000  -6.613661e+001  1.137820e+001 
4221875000  -5.981379e+001  -2.183045e+001 
4225000000  -5.765969e+001  -8.243667e+000 
4228125000  -5.674565e+001  -3.249986e+001 
4231250000  -6.061423e+001  -4.162629e+000 
4234375000  -5.689561e+001  -2.357312e+001 
4237500000  -5.736397e+001  -4.111087e+001 
4240625000  -5.524082e+001  -6.142561e+001 
4243750000  -5.639070e+001  -6.550613e+001 
4246875000  -5.630500e+001  -6.554191e+001 
4250000000  -5.744629e+001  -8.857018e+001 
4253125000  -5.407283e+001  -9.759640e+001 
4256250000  -5.607734e+001  -9.352609e+001 
4259375000  -5.655259e+001  -1.094788e+002 
4262500000  -5.465287e+001  -1.238913e+002 
4265625000  -5.374834e+001  -1.221715e+002 
4268750000  -5.334850e+001  -1.341749e+002 
4271875000  -5.335347e+001  -1.535716e+002 
4275000000  -5.175772e+001  -1.779509e+002 
4278125000  -5.254057e+001  1.705726e+002 
4281250000  -5.476115e+001  1.631700e+002 
4284375000  -5.369301e+001  1.462423e+002 
4287500000  -5.682202e+001  1.515823e+002 
4290625000  -5.516954e+001  1.432778e+002 
4293750000  -5.315727e+001  1.386904e+002 
4296875000  -5.309501e+001  1.238681e+002 
4300000000  -5.327203e+001  1.095170e+002 
4303125000  -5.338588e+001  1.030844e+002 
4306250000  -5.364814e+001  9.372517e+001 
4309375000  -5.165887e+001  8.441801e+001 
4312500000  -5.177307e+001  7.484798e+001 
4315625000  -5.232150e+001  5.456295e+001 
4318750000  -5.365755e+001  4.139384e+001 
4321875000  -5.280162e+001  3.944173e+001 
4325000000  -5.206142e+001  1.781667e+001 
4328125000  -5.223591e+001  9.058972e+000 
4331250000  -5.416112e+001  -8.828048e+000 
4334375000  -5.499617e+001  -1.239135e+001 
4337500000  -5.482246e+001  -2.499871e+001 
4340625000  -5.513153e+001  -3.245035e+001 
4343750000  -5.607559e+001  -3.607122e+001 
4346875000  -5.459452e+001  -4.609508e+001 
4350000000  -5.704024e+001  -5.281758e+001 
4353125000  -5.623835e+001  -5.263998e+001 
4356250000  -5.864626e+001  -7.497892e+001 
4359375000  -5.819757e+001  -4.253590e+001 
4362500000  -5.463978e+001  -7.365388e+001 
4365625000  -5.502471e+001  -8.577266e+001 
4368750000  -5.563578e+001  -9.408347e+001 
4371875000  -5.590310e+001  -1.141314e+002 
4375000000  -5.525768e+001  -1.114013e+002 
4378125000  -5.651369e+001  -1.319678e+002 
4381250000  -5.625616e+001  -1.240551e+002 
4384375000  -5.681853e+001  -1.452103e+002 
4387500000  -5.576972e+001  -1.299223e+002 
4390625000  -5.747494e+001  -1.491436e+002 
4393750000  -5.780207e+001  -1.356867e+002 
4396875000  -5.469560e+001  -1.523816e+002 
4400000000  -5.612144e+001  -1.741973e+002 
4403125000  -5.574355e+001  1.783790e+002 
4406250000  -5.893594e+001  -1.696399e+002 
4409375000  -5.624903e+001  1.733094e+002 
4412500000  -5.721851e+001  1.540026e+002 
4415625000  -5.584402e+001  1.582365e+002 
