!Agilent Technologies,E8363B,MY43030201,A.06.04.32
!Agilent E8363B: A.06.04.32
!Date: Tuesday, November 11, 2014 22:16:28
!Correction: S21(Response(S21)) 
!S1P File: Measurement: S21:
# Hz S  dB   R 50
3000000000  -4.887604e+001  -7.436672e+001 
3003125000  -5.157045e+001  -8.102159e+001 
3006250000  -5.202460e+001  -8.672298e+001 
3009375000  -5.231367e+001  -8.609988e+001 
3012500000  -5.137434e+001  -9.567559e+001 
3015625000  -5.158951e+001  -1.087027e+002 
3018750000  -5.220201e+001  -1.112494e+002 
3021875000  -4.992570e+001  -1.155502e+002 
3025000000  -4.869561e+001  -1.293099e+002 
3028125000  -4.808837e+001  -1.412667e+002 
3031250000  -4.683989e+001  -1.592836e+002 
3034375000  -4.735519e+001  1.786490e+002 
3037500000  -4.790169e+001  1.672057e+002 
3040625000  -4.912524e+001  1.547660e+002 
3043750000  -4.968850e+001  1.417247e+002 
3046875000  -5.046435e+001  1.316639e+002 
3050000000  -5.208866e+001  1.271926e+002 
3053125000  -5.146407e+001  1.264293e+002 
3056250000  -5.126120e+001  1.193743e+002 
3059375000  -5.079983e+001  1.099805e+002 
3062500000  -4.976345e+001  1.002784e+002 
3065625000  -4.983352e+001  8.753762e+001 
3068750000  -4.910781e+001  7.398394e+001 
3071875000  -4.912913e+001  7.158734e+001 
3075000000  -4.843970e+001  5.938612e+001 
3078125000  -4.895259e+001  4.633918e+001 
3081250000  -4.925357e+001  3.266163e+001 
3084375000  -4.849708e+001  2.549883e+001 
3087500000  -4.829512e+001  1.561034e+001 
3090625000  -4.785628e+001  -3.461166e+000 
3093750000  -4.898557e+001  -1.459111e+001 
3096875000  -4.943735e+001  -2.377995e+001 
3100000000  -4.867759e+001  -3.182607e+001 
3103125000  -4.999437e+001  -4.090802e+001 
3106250000  -4.946317e+001  -5.052295e+001 
3109375000  -4.906499e+001  -5.711290e+001 
3112500000  -4.902796e+001  -6.967824e+001 
3115625000  -4.950666e+001  -7.967107e+001 
3118750000  -4.915426e+001  -8.059055e+001 
3121875000  -4.856709e+001  -9.991840e+001 
3125000000  -5.091103e+001  -1.054228e+002 
3128125000  -5.071294e+001  -1.052598e+002 
3131250000  -4.849294e+001  -1.177111e+002 
3134375000  -4.802254e+001  -1.363690e+002 
3137500000  -4.885500e+001  -1.552641e+002 
3140625000  -5.013367e+001  -1.602054e+002 
3143750000  -5.081900e+001  -1.660384e+002 
3146875000  -4.953658e+001  -1.697184e+002 
3150000000  -4.922088e+001  1.779910e+002 
3153125000  -4.912967e+001  1.663462e+002 
3156250000  -5.005285e+001  1.683583e+002 
3159375000  -4.811192e+001  1.609939e+002 
3162500000  -4.604446e+001  1.374443e+002 
3165625000  -4.817267e+001  1.222562e+002 
3168750000  -4.784668e+001  1.168595e+002 
3171875000  -4.700472e+001  1.006724e+002 
3175000000  -4.737144e+001  9.147416e+001 
3178125000  -4.771167e+001  8.242742e+001 
3181250000  -4.678431e+001  7.025405e+001 
3184375000  -4.625238e+001  5.373724e+001 
3187500000  -4.766410e+001  3.347344e+001 
3190625000  -4.922021e+001  2.128394e+001 
3193750000  -5.024214e+001  2.594113e+001 
3196875000  -4.948113e+001  1.920708e+001 
3200000000  -4.823749e+001  1.089463e+001 
3203125000  -4.848108e+001  -1.210787e+000 
3206250000  -4.826377e+001  -1.427342e+001 
3209375000  -4.783660e+001  -3.155264e+001 
3212500000  -4.873491e+001  -4.017479e+001 
3215625000  -4.834150e+001  -4.395926e+001 
3218750000  -4.928037e+001  -6.391426e+001 
3221875000  -4.921122e+001  -7.404236e+001 
3225000000  -4.983307e+001  -8.164408e+001 
3228125000  -5.031662e+001  -9.362188e+001 
3231250000  -5.071738e+001  -1.019554e+002 
3234375000  -5.004451e+001  -1.063009e+002 
3237500000  -5.061812e+001  -1.177309e+002 
3240625000  -5.031100e+001  -1.266264e+002 
3243750000  -5.012329e+001  -1.425059e+002 
3246875000  -5.042732e+001  -1.515723e+002 
3250000000  -5.060491e+001  -1.636762e+002 
3253125000  -5.144088e+001  -1.697024e+002 
3256250000  -5.007323e+001  1.756584e+002 
3259375000  -5.097786e+001  1.563806e+002 
3262500000  -5.236705e+001  1.504264e+002 
3265625000  -5.378894e+001  1.482755e+002 
3268750000  -5.378817e+001  1.445474e+002 
3271875000  -5.267034e+001  1.378453e+002 
3275000000  -5.184612e+001  1.254146e+002 
3278125000  -5.212647e+001  1.103470e+002 
3281250000  -5.363635e+001  1.077004e+002 
3284375000  -5.182919e+001  9.876079e+001 
3287500000  -5.343364e+001  8.775404e+001 
3290625000  -5.357707e+001  7.346353e+001 
3293750000  -5.333307e+001  6.637119e+001 
3296875000  -5.428434e+001  5.659448e+001 
3300000000  -5.439758e+001  5.546827e+001 
3303125000  -5.276239e+001  4.603770e+001 
3306250000  -5.296043e+001  2.656972e+001 
3309375000  -5.250490e+001  1.915006e+001 
3312500000  -5.316982e+001  3.284910e+000 
3315625000  -5.444017e+001  -9.327211e-001 
3318750000  -5.585884e+001  -2.089064e+001 
3321875000  -5.665493e+001  -1.911620e+001 
3325000000  -5.596965e+001  -1.154216e+001 
3328125000  -5.596300e+001  -2.606595e+001 
3331250000  -5.435031e+001  -2.354567e+001 
3334375000  -5.251052e+001  -4.194858e+001 
3337500000  -5.271608e+001  -7.623620e+001 
3340625000  -5.443506e+001  -8.670887e+001 
3343750000  -5.614758e+001  -8.018107e+001 
3346875000  -5.607244e+001  -9.494930e+001 
3350000000  -5.478982e+001  -1.012350e+002 
3353125000  -5.505329e+001  -1.158187e+002 
3356250000  -5.533886e+001  -1.226339e+002 
3359375000  -5.547989e+001  -1.428428e+002 
3362500000  -5.635492e+001  -1.492614e+002 
3365625000  -5.636977e+001  -1.560063e+002 
3368750000  -5.667691e+001  -1.739213e+002 
3371875000  -5.631715e+001  -1.790780e+002 
3375000000  -5.836582e+001  1.735000e+002 
3378125000  -6.019809e+001  1.612962e+002 
3381250000  -6.301987e+001  1.629286e+002 
3384375000  -5.679911e+001  1.798370e+002 
3387500000  -5.507947e+001  1.430317e+002 
3390625000  -5.711540e+001  1.347715e+002 
3393750000  -5.688534e+001  1.204251e+002 
3396875000  -5.739830e+001  1.198113e+002 
3400000000  -5.465869e+001  1.025723e+002 
3403125000  -5.816981e+001  8.032726e+001 
3406250000  -5.772928e+001  8.495724e+001 
3409375000  -5.815144e+001  5.286093e+001 
3412500000  -5.749459e+001  6.325496e+001 
3415625000  -6.044348e+001  4.255577e+001 
3418750000  -6.129560e+001  3.887488e+001 
3421875000  -6.168848e+001  7.753407e+000 
3425000000  -5.952915e+001  3.917225e+001 
3428125000  -5.779351e+001  1.347693e+001 
3431250000  -6.092825e+001  8.950067e+000 
3434375000  -5.746165e+001  -8.960735e+000 
3437500000  -6.251788e+001  -2.174135e+001 
3440625000  -5.999463e+001  -2.921795e+001 
3443750000  -6.450809e+001  -1.695748e+001 
3446875000  -5.982750e+001  -5.229884e+001 
3450000000  -6.130294e+001  -6.640479e+001 
3453125000  -6.519736e+001  -7.856641e+001 
3456250000  -7.035868e+001  -8.643750e+001 
3459375000  -6.621242e+001  -6.293293e+001 
3462500000  -6.671744e+001  -9.406238e+001 
3465625000  -6.558833e+001  -1.103088e+002 
3468750000  -6.655585e+001  -1.032494e+002 
3471875000  -6.523231e+001  -9.730374e+001 
3475000000  -6.446484e+001  -1.261229e+002 
3478125000  -6.740061e+001  -1.240915e+002 
3481250000  -7.143614e+001  -1.350880e+002 
3484375000  -6.562428e+001  -1.105906e+002 
3487500000  -6.873120e+001  -1.360055e+002 
3490625000  -7.061452e+001  -1.632586e+002 
3493750000  -6.562123e+001  -1.625219e+002 
3496875000  -7.037730e+001  1.701974e+002 
3500000000  -6.690623e+001  -1.647937e+002 
3503125000  -7.300047e+001  -1.685460e+002 
3506250000  -6.659760e+001  -1.662641e+002 
3509375000  -6.537908e+001  -1.491351e+002 
3512500000  -6.693803e+001  1.332809e+002 
3515625000  -6.575594e+001  1.494357e+002 
3518750000  -6.355270e+001  1.483537e+002 
3521875000  -6.992193e+001  1.335329e+002 
3525000000  -6.741329e+001  8.507368e+001 
3528125000  -7.603783e+001  1.586724e+002 
3531250000  -6.615608e+001  9.488423e+001 
3534375000  -6.958029e+001  7.140328e+001 
3537500000  -6.354183e+001  1.000368e+002 
3540625000  -7.589787e+001  6.550380e+001 
3543750000  -7.348249e+001  1.197987e+002 
3546875000  -6.686060e+001  9.400151e+001 
3550000000  -7.055018e+001  4.521957e+001 
3553125000  -6.833635e+001  1.110153e+002 
3556250000  -8.011817e+001  1.645072e+002 
3559375000  -6.713074e+001  1.395779e+001 
3562500000  -8.242233e+001  1.677609e+002 
3565625000  -7.395009e+001  -1.116954e+001 
3568750000  -7.909857e+001  -2.437981e+001 
3571875000  -6.879568e+001  1.624636e+001 
3575000000  -7.334923e+001  -2.916530e-001 
3578125000  -7.195997e+001  4.395966e+001 
3581250000  -7.071655e+001  5.366975e+001 
3584375000  -7.203101e+001  3.328554e+001 
3587500000  -6.849883e+001  1.434967e+001 
3590625000  -6.884583e+001  2.172769e+001 
3593750000  -6.998342e+001  3.429819e+001 
3596875000  -6.483353e+001  6.058808e+001 
3600000000  -6.366975e+001  -1.750122e+001 
3603125000  -6.328906e+001  -1.038169e+001 
3606250000  -6.306823e+001  -2.334830e+001 
3609375000  -6.979245e+001  -4.672875e+001 
3612500000  -6.446632e+001  -6.881306e+001 
3615625000  -6.519275e+001  -6.702333e+001 
3618750000  -6.388271e+001  -8.209293e+001 
3621875000  -6.709067e+001  -9.448602e+001 
3625000000  -6.228825e+001  -7.071698e+001 
3628125000  -6.319214e+001  -9.094656e+001 
3631250000  -6.240728e+001  -1.066492e+002 
3634375000  -6.755663e+001  -1.179487e+002 
3637500000  -6.329610e+001  -1.239682e+002 
3640625000  -6.131735e+001  -1.244696e+002 
3643750000  -6.221795e+001  -1.438642e+002 
3646875000  -5.974931e+001  -1.683684e+002 
3650000000  -6.335923e+001  1.693980e+002 
3653125000  -6.304389e+001  -1.666381e+002 
3656250000  -6.531377e+001  1.742986e+002 
3659375000  -6.825820e+001  1.597266e+002 
3662500000  -6.330080e+001  1.505468e+002 
3665625000  -6.460978e+001  1.557217e+002 
3668750000  -6.628669e+001  1.226999e+002 
3671875000  -6.409367e+001  1.282122e+002 
3675000000  -6.523647e+001  1.189850e+002 
3678125000  -7.173013e+001  1.075308e+002 
3681250000  -6.675149e+001  1.144573e+002 
3684375000  -6.503528e+001  1.085656e+002 
3687500000  -6.744152e+001  6.783704e+001 
3690625000  -6.642810e+001  9.509025e+001 
3693750000  -6.703697e+001  1.008938e+002 
3696875000  -6.619580e+001  5.392363e+001 
3700000000  -6.213445e+001  5.643584e+001 
3703125000  -6.338981e+001  7.247845e+001 
3706250000  -6.428047e+001  6.395921e+001 
3709375000  -6.369143e+001  5.073743e+001 
3712500000  -6.160889e+001  7.884036e+001 
3715625000  -6.115609e+001  4.173098e+001 
3718750000  -6.009834e+001  1.944616e+001 
3721875000  -6.002940e+001  1.964146e+001 
3725000000  -6.121731e+001  2.476650e+001 
3728125000  -5.824791e+001  1.702729e+001 
3731250000  -6.105379e+001  -7.886528e+000 
3734375000  -5.945646e+001  -2.355729e+001 
3737500000  -5.815220e+001  -2.769276e+001 
3740625000  -5.915271e+001  -3.743904e+001 
3743750000  -5.910815e+001  -4.953048e+001 
3746875000  -5.858326e+001  -6.290724e+001 
3750000000  -5.698140e+001  -8.085476e+001 
3753125000  -5.836874e+001  -8.072416e+001 
3756250000  -5.694687e+001  -9.343932e+001 
3759375000  -5.770210e+001  -9.650383e+001 
3762500000  -5.731040e+001  -1.159565e+002 
3765625000  -5.808200e+001  -1.252799e+002 
3768750000  -5.737157e+001  -1.138696e+002 
3771875000  -5.665985e+001  -1.446748e+002 
3775000000  -5.648165e+001  -1.598733e+002 
3778125000  -5.736750e+001  -1.644049e+002 
3781250000  -5.722603e+001  1.774234e+002 
3784375000  -5.862732e+001  1.721578e+002 
3787500000  -5.927848e+001  1.572268e+002 
3790625000  -5.657645e+001  1.395140e+002 
3793750000  -5.714960e+001  1.289888e+002 
3796875000  -5.656441e+001  1.187808e+002 
3800000000  -5.398273e+001  8.595151e+001 
3803125000  -5.766368e+001  9.620731e+001 
3806250000  -5.993491e+001  8.268089e+001 
3809375000  -5.916399e+001  7.070885e+001 
3812500000  -5.496445e+001  6.222591e+001 
3815625000  -6.181512e+001  4.983937e+001 
3818750000  -6.109875e+001  4.484446e+001 
3821875000  -6.434569e+001  3.912851e+001 
3825000000  -6.032215e+001  2.979006e+001 
3828125000  -5.948088e+001  3.325888e+001 
3831250000  -5.935149e+001  1.941511e+001 
3834375000  -6.151849e+001  2.045323e+001 
3837500000  -6.512313e+001  2.221133e+001 
3840625000  -6.082264e+001  5.096233e+000 
3843750000  -6.163332e+001  1.706953e+001 
3846875000  -6.213338e+001  -2.014866e+001 
3850000000  -6.554426e+001  3.463848e+001 
3853125000  -6.154276e+001  -2.089606e+000 
3856250000  -6.088140e+001  -1.884852e+001 
3859375000  -6.145611e+001  -4.203780e+001 
3862500000  -6.239943e+001  -3.105969e+001 
3865625000  -5.787510e+001  -4.790904e+001 
3868750000  -5.993473e+001  -3.571915e+001 
3871875000  -5.698657e+001  -6.137717e+001 
3875000000  -5.848952e+001  -7.298386e+001 
3878125000  -5.782641e+001  -7.983820e+001 
3881250000  -5.911710e+001  -9.178127e+001 
3884375000  -5.599147e+001  -9.981863e+001 
3887500000  -5.626738e+001  -1.025229e+002 
3890625000  -5.594634e+001  -1.103938e+002 
3893750000  -5.811071e+001  -1.271186e+002 
3896875000  -5.642434e+001  -1.392142e+002 
3900000000  -5.651724e+001  -1.420716e+002 
3903125000  -5.572716e+001  -1.493801e+002 
3906250000  -5.402703e+001  -1.663217e+002 
3909375000  -5.395366e+001  1.720576e+002 
3912500000  -5.292795e+001  1.627202e+002 
3915625000  -5.554613e+001  1.563331e+002 
3918750000  -5.492113e+001  1.683182e+002 
3921875000  -5.473695e+001  1.367944e+002 
3925000000  -5.425697e+001  1.311813e+002 
3928125000  -5.279343e+001  1.091444e+002 
3931250000  -5.336579e+001  1.124382e+002 
3934375000  -5.403662e+001  9.544208e+001 
3937500000  -5.600296e+001  9.043129e+001 
3940625000  -5.507919e+001  7.412444e+001 
3943750000  -5.496998e+001  6.758756e+001 
3946875000  -5.234885e+001  5.647337e+001 
3950000000  -5.567966e+001  3.470284e+001 
3953125000  -5.277322e+001  3.897563e+001 
3956250000  -5.417128e+001  3.445378e+001 
3959375000  -5.162063e+001  1.092565e+001 
3962500000  -5.182742e+001  -2.635097e+000 
3965625000  -5.393261e+001  -1.444416e+001 
3968750000  -5.351220e+001  -3.056126e+001 
3971875000  -5.564013e+001  -4.082143e+001 
3975000000  -5.334258e+001  -4.840589e+001 
3978125000  -5.580656e+001  -5.246975e+001 
3981250000  -5.518141e+001  -6.998112e+001 
3984375000  -5.450541e+001  -8.716162e+001 
3987500000  -5.517332e+001  -8.975507e+001 
3990625000  -5.691280e+001  -1.045994e+002 
3993750000  -5.644540e+001  -1.103421e+002 
3996875000  -5.788774e+001  -1.195395e+002 
4000000000  -5.932846e+001  -1.378009e+002 
4003125000  -5.926914e+001  -1.364052e+002 
4006250000  -5.800856e+001  -1.413699e+002 
4009375000  -5.787792e+001  -1.489512e+002 
4012500000  -6.006258e+001  -1.630083e+002 
4015625000  -6.084365e+001  -1.595642e+002 
4018750000  -6.033425e+001  -1.575894e+002 
4021875000  -6.004731e+001  -1.785875e+002 
4025000000  -6.107526e+001  -1.777785e+002 
4028125000  -5.846159e+001  1.689048e+002 
4031250000  -6.066893e+001  1.661530e+002 
4034375000  -6.087211e+001  1.698660e+002 
4037500000  -5.750761e+001  1.558020e+002 
4040625000  -5.944986e+001  1.416270e+002 
4043750000  -5.853664e+001  1.513992e+002 
4046875000  -5.808535e+001  1.259874e+002 
4050000000  -5.628395e+001  1.392043e+002 
4053125000  -5.744939e+001  1.127979e+002 
4056250000  -5.513102e+001  1.184869e+002 
4059375000  -5.727775e+001  1.213900e+002 
4062500000  -5.415948e+001  1.061161e+002 
4065625000  -5.584869e+001  9.095754e+001 
4068750000  -5.516347e+001  6.948616e+001 
4071875000  -5.212151e+001  6.071707e+001 
4075000000  -5.357611e+001  4.610666e+001 
4078125000  -5.297692e+001  4.568032e+001 
4081250000  -5.216504e+001  2.751403e+001 
4084375000  -5.252302e+001  1.388297e+001 
4087500000  -5.406459e+001  -2.035465e+000 
4090625000  -5.307735e+001  -5.739321e+000 
4093750000  -5.464900e+001  -1.540930e+001 
4096875000  -5.307195e+001  -2.939950e+001 
4100000000  -5.436791e+001  -4.948070e+001 
4103125000  -5.538862e+001  -4.868934e+001 
4106250000  -5.345563e+001  -5.068282e+001 
4109375000  -5.252552e+001  -5.519696e+001 
4112500000  -5.248150e+001  -8.112770e+001 
4115625000  -5.384170e+001  -7.779952e+001 
4118750000  -5.254762e+001  -9.772324e+001 
4121875000  -5.315860e+001  -1.192249e+002 
4125000000  -5.309185e+001  -1.182511e+002 
4128125000  -5.450601e+001  -1.331056e+002 
4131250000  -5.338494e+001  -1.255627e+002 
4134375000  -5.104975e+001  -1.481046e+002 
4137500000  -5.233918e+001  -1.729932e+002 
4140625000  -5.382459e+001  1.752236e+002 
4143750000  -5.567401e+001  1.685444e+002 
4146875000  -5.536771e+001  1.705796e+002 
4150000000  -5.536322e+001  1.608712e+002 
4153125000  -5.364820e+001  1.422052e+002 
4156250000  -5.580476e+001  1.346538e+002 
4159375000  -5.473685e+001  1.291377e+002 
4162500000  -5.571992e+001  1.167278e+002 
4165625000  -5.380970e+001  1.091143e+002 
4168750000  -5.584456e+001  8.432594e+001 
4171875000  -5.520654e+001  7.629154e+001 
4175000000  -5.716679e+001  5.802819e+001 
4178125000  -5.684196e+001  7.007503e+001 
4181250000  -5.922819e+001  3.806903e+001 
4184375000  -6.059389e+001  3.296315e+001 
4187500000  -5.738277e+001  3.878440e+001 
4190625000  -6.339711e+001  2.978172e+001 
4193750000  -5.831659e+001  2.432169e+001 
4196875000  -6.556237e+001  -1.480904e+001 
4200000000  -6.603978e+001  1.662976e+001 
4203125000  -6.713049e+001  -5.194880e+000 
4206250000  -5.941256e+001  3.117265e+001 
4209375000  -6.330957e+001  -2.661823e+001 
4212500000  -6.639828e+001  2.406843e+001 
4215625000  -6.780568e+001  -4.274488e-001 
4218750000  -6.414503e+001  4.717858e+001 
4221875000  -5.862507e+001  -1.187733e+001 
4225000000  -6.218058e+001  1.781960e+001 
4228125000  -5.921748e+001  -1.898485e+001 
4231250000  -5.765287e+001  -1.700389e+001 
4234375000  -5.515893e+001  -4.939151e+001 
4237500000  -5.910816e+001  -3.430154e+001 
4240625000  -5.387582e+001  -5.664785e+001 
4243750000  -5.804995e+001  -6.140591e+001 
4246875000  -5.695501e+001  -7.674029e+001 
4250000000  -5.633824e+001  -8.063757e+001 
4253125000  -5.502293e+001  -8.180593e+001 
4256250000  -5.494947e+001  -1.001076e+002 
4259375000  -5.492918e+001  -1.045960e+002 
4262500000  -5.404927e+001  -1.189334e+002 
4265625000  -5.422247e+001  -1.258681e+002 
4268750000  -5.188988e+001  -1.396031e+002 
4271875000  -5.186964e+001  -1.591206e+002 
4275000000  -5.226186e+001  -1.730602e+002 
4278125000  -5.368691e+001  1.773250e+002 
4281250000  -5.429120e+001  1.588321e+002 
4284375000  -5.430526e+001  1.564633e+002 
4287500000  -5.501644e+001  1.476831e+002 
4290625000  -5.529348e+001  1.495093e+002 
4293750000  -5.314492e+001  1.463851e+002 
4296875000  -5.265074e+001  1.220766e+002 
4300000000  -5.253828e+001  1.133578e+002 
4303125000  -5.229551e+001  9.548094e+001 
4306250000  -5.254386e+001  9.404994e+001 
4309375000  -5.118445e+001  7.624008e+001 
4312500000  -5.224056e+001  7.363471e+001 
4315625000  -5.156259e+001  5.498815e+001 
4318750000  -5.327255e+001  4.025419e+001 
4321875000  -5.209520e+001  3.788068e+001 
4325000000  -5.320378e+001  2.327846e+001 
4328125000  -5.138821e+001  1.818272e+001 
4331250000  -5.360500e+001  -6.812112e+000 
4334375000  -5.344607e+001  -1.146173e+001 
4337500000  -5.433867e+001  -2.681931e+001 
4340625000  -5.543924e+001  -2.158048e+001 
4343750000  -5.719582e+001  -2.794516e+001 
4346875000  -5.641117e+001  -3.201462e+001 
4350000000  -5.533693e+001  -6.588857e+001 
4353125000  -5.844347e+001  -7.003577e+001 
4356250000  -5.704245e+001  -5.492060e+001 
4359375000  -5.766482e+001  -3.899008e+001 
4362500000  -5.391712e+001  -7.501573e+001 
4365625000  -5.503271e+001  -8.790707e+001 
4368750000  -5.611924e+001  -1.165685e+002 
4371875000  -5.580364e+001  -1.029744e+002 
4375000000  -5.606807e+001  -1.029496e+002 
4378125000  -5.726864e+001  -1.308137e+002 
4381250000  -5.621938e+001  -1.289182e+002 
4384375000  -5.663305e+001  -1.332331e+002 
4387500000  -5.593908e+001  -1.448946e+002 
4390625000  -5.768277e+001  -1.547133e+002 
4393750000  -5.719537e+001  -1.402760e+002 
4396875000  -5.477324e+001  -1.604795e+002 
4400000000  -5.576502e+001  -1.727172e+002 
4403125000  -5.759343e+001  1.758594e+002 
4406250000  -5.617904e+001  -1.753918e+002 
4409375000  -5.598984e+001  1.729583e+002 
4412500000  -5.583633e+001  1.702816e+002 
4415625000  -5.451886e+001  1.664641e+002 
4418750000  -5.436732e+001  1.557415e+002 
