!Agilent Technologies,E8363B,MY43030201,A.06.04.32
!Agilent E8363B: A.06.04.32
!Date: Tuesday, November 11, 2014 22:09:58
!Correction: S21(Response(S21)) 
!S1P File: Measurement: S21:
# Hz S  dB   R 50
3000000000  -4.872318e+001  -7.563888e+001 
3003125000  -5.175851e+001  -8.164203e+001 
3006250000  -5.145712e+001  -8.714102e+001 
3009375000  -5.214063e+001  -8.793329e+001 
3012500000  -5.126122e+001  -9.799184e+001 
3015625000  -5.087054e+001  -1.085225e+002 
3018750000  -5.159782e+001  -1.179294e+002 
3021875000  -5.018954e+001  -1.198353e+002 
3025000000  -4.897397e+001  -1.286389e+002 
3028125000  -4.808039e+001  -1.445540e+002 
3031250000  -4.686965e+001  -1.623820e+002 
3034375000  -4.726562e+001  1.774400e+002 
3037500000  -4.775360e+001  1.628126e+002 
3040625000  -4.863100e+001  1.543919e+002 
3043750000  -4.945029e+001  1.385298e+002 
3046875000  -5.055801e+001  1.312116e+002 
3050000000  -5.145932e+001  1.280816e+002 
3053125000  -5.093357e+001  1.160024e+002 
3056250000  -5.076062e+001  1.229083e+002 
3059375000  -5.012688e+001  1.090439e+002 
3062500000  -4.938799e+001  9.849794e+001 
3065625000  -4.940694e+001  8.584751e+001 
3068750000  -4.887320e+001  7.308560e+001 
3071875000  -4.920345e+001  7.026652e+001 
3075000000  -4.866929e+001  5.436964e+001 
3078125000  -4.869733e+001  4.266603e+001 
3081250000  -4.881932e+001  3.288039e+001 
3084375000  -4.794141e+001  2.772010e+001 
3087500000  -4.805113e+001  9.839061e+000 
3090625000  -4.802131e+001  -4.966049e+000 
3093750000  -4.896257e+001  -1.827297e+001 
3096875000  -4.931293e+001  -2.544339e+001 
3100000000  -4.925073e+001  -3.400709e+001 
3103125000  -4.979868e+001  -4.240457e+001 
3106250000  -4.915181e+001  -5.318200e+001 
3109375000  -4.959866e+001  -6.341284e+001 
3112500000  -4.942136e+001  -7.048399e+001 
3115625000  -4.939140e+001  -7.907082e+001 
3118750000  -4.976515e+001  -8.543850e+001 
3121875000  -4.878722e+001  -1.017814e+002 
3125000000  -5.035001e+001  -1.101399e+002 
3128125000  -5.040053e+001  -1.108819e+002 
3131250000  -4.860094e+001  -1.182705e+002 
3134375000  -4.778257e+001  -1.425783e+002 
3137500000  -4.858755e+001  -1.521140e+002 
3140625000  -4.937792e+001  -1.636080e+002 
3143750000  -5.047394e+001  -1.725834e+002 
3146875000  -4.979250e+001  -1.727733e+002 
3150000000  -4.948597e+001  1.773356e+002 
3153125000  -4.920294e+001  1.645253e+002 
3156250000  -5.015260e+001  1.601905e+002 
3159375000  -4.752414e+001  1.551974e+002 
3162500000  -4.620258e+001  1.351784e+002 
3165625000  -4.814415e+001  1.192726e+002 
3168750000  -4.801314e+001  1.136358e+002 
3171875000  -4.712498e+001  1.003413e+002 
3175000000  -4.810195e+001  8.522483e+001 
3178125000  -4.755241e+001  8.054428e+001 
3181250000  -4.651329e+001  6.582603e+001 
3184375000  -4.669532e+001  4.896630e+001 
3187500000  -4.745736e+001  3.355464e+001 
3190625000  -4.894495e+001  2.139006e+001 
3193750000  -4.977096e+001  2.170572e+001 
3196875000  -4.977109e+001  1.520825e+001 
3200000000  -4.819680e+001  7.793329e+000 
3203125000  -4.865229e+001  -6.815692e+000 
3206250000  -4.900798e+001  -1.520672e+001 
3209375000  -4.829822e+001  -3.201044e+001 
3212500000  -4.853341e+001  -3.945604e+001 
3215625000  -4.826598e+001  -4.767942e+001 
3218750000  -4.887703e+001  -6.731616e+001 
3221875000  -4.959879e+001  -7.799577e+001 
3225000000  -4.958448e+001  -8.595323e+001 
3228125000  -5.026878e+001  -9.594680e+001 
3231250000  -5.105560e+001  -1.060160e+002 
3234375000  -4.991503e+001  -1.133254e+002 
3237500000  -5.049574e+001  -1.231316e+002 
3240625000  -4.991621e+001  -1.291536e+002 
3243750000  -4.952630e+001  -1.464042e+002 
3246875000  -5.031685e+001  -1.530784e+002 
3250000000  -5.164757e+001  -1.655595e+002 
3253125000  -5.054993e+001  -1.731270e+002 
3256250000  -5.039867e+001  1.736867e+002 
3259375000  -5.083068e+001  1.557987e+002 
3262500000  -5.252810e+001  1.480568e+002 
3265625000  -5.336679e+001  1.442780e+002 
3268750000  -5.327333e+001  1.464371e+002 
3271875000  -5.278040e+001  1.323122e+002 
3275000000  -5.215026e+001  1.149903e+002 
3278125000  -5.238725e+001  1.035946e+002 
3281250000  -5.349732e+001  1.000153e+002 
3284375000  -5.269604e+001  9.134814e+001 
3287500000  -5.250407e+001  8.231016e+001 
3290625000  -5.306144e+001  6.952650e+001 
3293750000  -5.316295e+001  6.147144e+001 
3296875000  -5.421309e+001  5.196026e+001 
3300000000  -5.383558e+001  4.986414e+001 
3303125000  -5.307206e+001  3.745060e+001 
3306250000  -5.316024e+001  2.308284e+001 
3309375000  -5.298042e+001  1.464685e+001 
3312500000  -5.330779e+001  -5.642820e-001 
3315625000  -5.476220e+001  -6.216192e+000 
3318750000  -5.638551e+001  -2.106576e+001 
3321875000  -5.785203e+001  -2.638173e+001 
3325000000  -5.663248e+001  -2.548256e+001 
3328125000  -5.635687e+001  -2.849528e+001 
3331250000  -5.293380e+001  -3.113841e+001 
3334375000  -5.188906e+001  -5.148853e+001 
3337500000  -5.215096e+001  -7.376473e+001 
3340625000  -5.472610e+001  -9.060052e+001 
3343750000  -5.693660e+001  -8.453692e+001 
3346875000  -5.418123e+001  -1.072372e+002 
3350000000  -5.466827e+001  -1.045493e+002 
3353125000  -5.393447e+001  -1.171228e+002 
3356250000  -5.511618e+001  -1.374086e+002 
3359375000  -5.446878e+001  -1.497475e+002 
3362500000  -5.561486e+001  -1.547394e+002 
3365625000  -5.560923e+001  -1.605606e+002 
3368750000  -5.651587e+001  -1.738706e+002 
3371875000  -5.696843e+001  1.770704e+002 
3375000000  -5.745862e+001  1.637316e+002 
3378125000  -5.946560e+001  1.743107e+002 
3381250000  -5.949294e+001  1.755879e+002 
3384375000  -5.610664e+001  -1.788483e+002 
3387500000  -5.414410e+001  1.519869e+002 
3390625000  -5.614820e+001  1.264549e+002 
3393750000  -5.619782e+001  1.149667e+002 
3396875000  -5.579596e+001  1.189433e+002 
3400000000  -5.647469e+001  9.409351e+001 
3403125000  -5.632428e+001  7.636271e+001 
3406250000  -5.869033e+001  7.044413e+001 
3409375000  -5.769165e+001  6.078154e+001 
3412500000  -5.679414e+001  5.806229e+001 
3415625000  -5.938479e+001  3.751302e+001 
3418750000  -5.941650e+001  3.316030e+001 
3421875000  -5.982639e+001  1.392951e+001 
3425000000  -5.733457e+001  2.150051e+001 
3428125000  -5.816795e+001  2.615734e+000 
3431250000  -6.078237e+001  -2.105032e+000 
3434375000  -6.157530e+001  -2.148354e+001 
3437500000  -6.287620e+001  -1.018939e+001 
3440625000  -6.043556e+001  -2.434660e+001 
3443750000  -6.265556e+001  -4.202299e+001 
3446875000  -5.979618e+001  -5.833727e+001 
3450000000  -6.336210e+001  -6.528654e+001 
3453125000  -6.308207e+001  -8.877545e+001 
3456250000  -6.420753e+001  -1.114882e+002 
3459375000  -6.329645e+001  -7.421113e+001 
3462500000  -6.738100e+001  -8.723952e+001 
3465625000  -6.704797e+001  -1.023504e+002 
3468750000  -6.789437e+001  -1.220199e+002 
3471875000  -6.331454e+001  -1.080085e+002 
3475000000  -7.349618e+001  -1.008385e+002 
3478125000  -6.923421e+001  -1.137639e+002 
3481250000  -7.291448e+001  1.740881e+002 
3484375000  -6.963720e+001  -1.259668e+002 
3487500000  -6.416898e+001  -1.390123e+002 
3490625000  -6.488506e+001  -1.284757e+002 
3493750000  -7.639349e+001  -1.685604e+002 
3496875000  -6.986417e+001  1.687359e+002 
3500000000  -6.809981e+001  -1.628172e+002 
3503125000  -7.083353e+001  -1.346219e+002 
3506250000  -6.373748e+001  -1.658899e+002 
3509375000  -6.506416e+001  -1.693788e+002 
3512500000  -6.849310e+001  1.586561e+002 
3515625000  -6.640076e+001  1.478062e+002 
3518750000  -6.712316e+001  1.175942e+002 
3521875000  -6.799362e+001  1.364619e+002 
3525000000  -6.611547e+001  1.141734e+002 
3528125000  -6.698843e+001  1.425487e+002 
3531250000  -6.599935e+001  1.094782e+002 
3534375000  -6.816692e+001  9.166964e+001 
3537500000  -6.658901e+001  8.765235e+001 
3540625000  -6.674973e+001  1.007721e+002 
3543750000  -7.047960e+001  1.001776e+002 
3546875000  -7.707572e+001  9.027380e+001 
3550000000  -6.891829e+001  9.486063e+001 
3553125000  -7.116537e+001  7.324373e+001 
3556250000  -7.312413e+001  8.505660e+001 
3559375000  -6.626373e+001  3.612424e+001 
3562500000  -7.077576e+001  2.249992e+001 
3565625000  -7.003407e+001  2.056530e+001 
3568750000  -7.306404e+001  1.208632e+002 
3571875000  -7.047759e+001  6.615562e+001 
3575000000  -7.874385e+001  7.565475e+001 
3578125000  -7.156194e+001  5.212899e+001 
3581250000  -7.734088e+001  1.314326e+002 
3584375000  -7.544667e+001  9.867411e+001 
3587500000  -7.097140e+001  -2.376962e+001 
3590625000  -8.151042e+001  9.741573e+000 
3593750000  -7.946085e+001  8.122234e+000 
3596875000  -6.913743e+001  2.871331e+001 
3600000000  -6.930417e+001  6.349168e+000 
3603125000  -6.991003e+001  -2.604367e+000 
3606250000  -6.376509e+001  -4.014279e+001 
3609375000  -6.939848e+001  -4.809145e+001 
3612500000  -6.477990e+001  -7.218758e+001 
3615625000  -7.293771e+001  -4.237990e+001 
3618750000  -6.481918e+001  -8.168552e+001 
3621875000  -6.322052e+001  -7.806596e+001 
3625000000  -6.607619e+001  -7.962749e+001 
3628125000  -6.738468e+001  -1.052008e+002 
3631250000  -6.594198e+001  -1.202312e+002 
3634375000  -6.743323e+001  -1.242466e+002 
3637500000  -6.584789e+001  -1.111140e+002 
3640625000  -6.233153e+001  -1.401095e+002 
3643750000  -6.227336e+001  -1.405333e+002 
3646875000  -6.162324e+001  -1.744060e+002 
3650000000  -6.198317e+001  -1.716955e+002 
3653125000  -6.375442e+001  -1.727924e+002 
3656250000  -6.438878e+001  1.723399e+002 
3659375000  -6.264954e+001  1.723061e+002 
3662500000  -6.293314e+001  1.362451e+002 
3665625000  -6.282475e+001  1.406287e+002 
3668750000  -5.893388e+001  1.258034e+002 
3671875000  -6.481676e+001  1.046190e+002 
3675000000  -6.403307e+001  9.945029e+001 
3678125000  -6.375475e+001  1.085357e+002 
3681250000  -6.284174e+001  7.872619e+001 
3684375000  -6.733860e+001  4.981190e+001 
3687500000  -6.718648e+001  6.857323e+001 
3690625000  -6.799284e+001  8.138744e+001 
3693750000  -6.448507e+001  8.485209e+001 
3696875000  -6.864850e+001  7.926601e+001 
3700000000  -6.199054e+001  8.051681e+001 
3703125000  -6.257879e+001  2.984436e+001 
3706250000  -6.287582e+001  6.657439e+001 
3709375000  -6.440585e+001  4.713913e+001 
3712500000  -6.244516e+001  7.656161e+001 
3715625000  -6.429539e+001  2.731190e+001 
3718750000  -6.287500e+001  4.343951e+001 
3721875000  -6.006739e+001  1.669565e+001 
3725000000  -6.471552e+001  2.950294e+000 
3728125000  -5.948040e+001  3.946368e+000 
3731250000  -6.076792e+001  -5.269407e+000 
3734375000  -6.041899e+001  -2.678710e+001 
3737500000  -5.911303e+001  -4.119022e+001 
3740625000  -5.756649e+001  -3.930683e+001 
3743750000  -6.116287e+001  -5.605184e+001 
3746875000  -5.660661e+001  -6.393676e+001 
3750000000  -5.751682e+001  -7.747520e+001 
3753125000  -5.735409e+001  -8.960283e+001 
3756250000  -5.752288e+001  -1.027121e+002 
3759375000  -5.749596e+001  -1.033199e+002 
3762500000  -5.870032e+001  -1.254967e+002 
3765625000  -5.778130e+001  -1.324771e+002 
3768750000  -5.719926e+001  -1.277910e+002 
3771875000  -5.642484e+001  -1.475463e+002 
3775000000  -5.649945e+001  -1.596246e+002 
3778125000  -5.698566e+001  1.785586e+002 
3781250000  -6.048679e+001  1.726299e+002 
3784375000  -5.669301e+001  1.656234e+002 
3787500000  -5.754127e+001  1.534921e+002 
3790625000  -5.679474e+001  1.389938e+002 
3793750000  -5.869038e+001  1.223025e+002 
3796875000  -5.717955e+001  1.237478e+002 
3800000000  -5.294446e+001  7.698241e+001 
3803125000  -5.836983e+001  8.909017e+001 
3806250000  -5.922169e+001  6.414424e+001 
3809375000  -5.765863e+001  8.376091e+001 
3812500000  -5.765935e+001  5.835942e+001 
3815625000  -6.131479e+001  3.528228e+001 
3818750000  -6.180848e+001  3.916922e+001 
3821875000  -6.103168e+001  5.277196e+001 
3825000000  -5.951086e+001  3.936745e+001 
3828125000  -5.879130e+001  2.248298e+001 
3831250000  -6.007833e+001  -1.217233e+001 
3834375000  -6.460105e+001  -2.001125e+001 
3837500000  -6.278364e+001  1.097781e+001 
3840625000  -6.099669e+001  -7.959657e+000 
3843750000  -6.168742e+001  -9.072330e+000 
3846875000  -6.018989e+001  -2.824542e+001 
3850000000  -6.180125e+001  7.244547e-002 
3853125000  -6.149156e+001  -2.245681e+001 
3856250000  -5.945143e+001  -1.776884e+001 
3859375000  -6.076482e+001  -5.815937e+001 
3862500000  -6.292125e+001  -5.287915e+001 
3865625000  -5.931815e+001  -5.072434e+001 
3868750000  -5.960180e+001  -5.207922e+001 
3871875000  -5.630680e+001  -6.152213e+001 
3875000000  -5.899315e+001  -7.760007e+001 
3878125000  -5.881929e+001  -8.530482e+001 
3881250000  -5.918732e+001  -8.659032e+001 
3884375000  -5.725969e+001  -9.921239e+001 
3887500000  -5.822075e+001  -1.200251e+002 
3890625000  -5.890626e+001  -1.212772e+002 
3893750000  -5.729355e+001  -1.308039e+002 
3896875000  -5.782918e+001  -1.422650e+002 
3900000000  -5.608831e+001  -1.493896e+002 
3903125000  -5.503820e+001  -1.504567e+002 
3906250000  -5.443336e+001  -1.788961e+002 
3909375000  -5.386057e+001  -1.756905e+002 
3912500000  -5.393742e+001  1.693169e+002 
3915625000  -5.524805e+001  1.589235e+002 
3918750000  -5.466291e+001  1.439172e+002 
3921875000  -5.387351e+001  1.458203e+002 
3925000000  -5.315125e+001  1.289905e+002 
3928125000  -5.383942e+001  1.121031e+002 
3931250000  -5.393588e+001  9.999888e+001 
3934375000  -5.645012e+001  8.704861e+001 
3937500000  -5.617545e+001  7.690392e+001 
3940625000  -5.406087e+001  7.240337e+001 
3943750000  -5.383004e+001  5.630035e+001 
3946875000  -5.492418e+001  5.010992e+001 
3950000000  -5.468530e+001  3.861928e+001 
3953125000  -5.563097e+001  4.215804e+001 
3956250000  -5.345315e+001  2.580130e+001 
3959375000  -5.250259e+001  1.387639e+001 
3962500000  -5.282224e+001  -8.503062e+000 
3965625000  -5.340005e+001  -1.462555e+001 
3968750000  -5.470695e+001  -3.724305e+001 
3971875000  -5.456734e+001  -4.262907e+001 
3975000000  -5.403011e+001  -5.498487e+001 
3978125000  -5.354605e+001  -6.218406e+001 
3981250000  -5.416285e+001  -7.913431e+001 
3984375000  -5.611013e+001  -9.579198e+001 
3987500000  -5.637517e+001  -9.063025e+001 
3990625000  -5.862575e+001  -1.004611e+002 
3993750000  -5.566734e+001  -1.126610e+002 
3996875000  -6.142357e+001  -1.342679e+002 
4000000000  -5.933459e+001  -1.331375e+002 
4003125000  -5.930045e+001  -1.191049e+002 
4006250000  -5.769012e+001  -1.364374e+002 
4009375000  -5.720991e+001  -1.525147e+002 
4012500000  -5.979143e+001  -1.589515e+002 
4015625000  -6.012277e+001  -1.718218e+002 
4018750000  -5.944136e+001  -1.609195e+002 
4021875000  -6.139788e+001  1.796612e+002 
4025000000  -5.761330e+001  1.766154e+002 
4028125000  -5.894139e+001  1.700026e+002 
4031250000  -6.068979e+001  1.663292e+002 
4034375000  -5.926933e+001  1.611750e+002 
4037500000  -5.800404e+001  1.438694e+002 
4040625000  -5.847576e+001  1.311223e+002 
4043750000  -5.929319e+001  1.503637e+002 
4046875000  -5.835812e+001  1.343096e+002 
4050000000  -5.902951e+001  1.204564e+002 
4053125000  -5.724571e+001  1.345506e+002 
4056250000  -5.838071e+001  1.294365e+002 
4059375000  -5.729629e+001  1.033920e+002 
4062500000  -5.675795e+001  9.026453e+001 
4065625000  -5.371486e+001  8.566878e+001 
4068750000  -5.492799e+001  7.589244e+001 
4071875000  -5.188870e+001  6.388370e+001 
4075000000  -5.417199e+001  4.902750e+001 
4078125000  -5.398783e+001  3.238182e+001 
4081250000  -5.385722e+001  2.027807e+001 
4084375000  -5.236194e+001  9.800520e+000 
4087500000  -5.313449e+001  -9.703773e+000 
4090625000  -5.310207e+001  -5.309938e+000 
4093750000  -5.447432e+001  -2.256354e+001 
4096875000  -5.322323e+001  -3.638811e+001 
4100000000  -5.357454e+001  -4.474776e+001 
4103125000  -5.555161e+001  -5.021516e+001 
4106250000  -5.394584e+001  -4.992523e+001 
4109375000  -5.360128e+001  -6.111485e+001 
4112500000  -5.307101e+001  -9.052718e+001 
4115625000  -5.409006e+001  -8.873711e+001 
4118750000  -5.281242e+001  -1.048728e+002 
4121875000  -5.238722e+001  -1.132057e+002 
4125000000  -5.362883e+001  -1.264228e+002 
4128125000  -5.469279e+001  -1.396999e+002 
4131250000  -5.320792e+001  -1.354879e+002 
4134375000  -5.182545e+001  -1.504150e+002 
4137500000  -5.171920e+001  -1.761159e+002 
4140625000  -5.285704e+001  1.665848e+002 
4143750000  -5.560608e+001  1.796351e+002 
4146875000  -5.471596e+001  1.585624e+002 
4150000000  -5.491066e+001  1.568761e+002 
4153125000  -5.364529e+001  1.349341e+002 
4156250000  -5.550570e+001  1.272264e+002 
4159375000  -5.562086e+001  1.220560e+002 
4162500000  -5.398658e+001  1.242784e+002 
4165625000  -5.458576e+001  1.198716e+002 
4168750000  -5.650431e+001  9.526388e+001 
4171875000  -5.449401e+001  8.013507e+001 
4175000000  -5.615257e+001  6.255080e+001 
4178125000  -5.696775e+001  5.790134e+001 
4181250000  -5.840503e+001  4.906409e+001 
4184375000  -6.152050e+001  3.464756e+001 
4187500000  -5.814381e+001  2.037385e+001 
4190625000  -5.896526e+001  2.168644e+001 
4193750000  -6.158680e+001  1.321718e+001 
4196875000  -6.476872e+001  -2.687972e+000 
4200000000  -6.619485e+001  2.631683e+001 
4203125000  -6.325702e+001  2.861954e+001 
4206250000  -6.066521e+001  1.887063e+001 
4209375000  -5.951323e+001  1.348720e+001 
4212500000  -6.651937e+001  -1.383499e+001 
4215625000  -6.472836e+001  -3.159586e+001 
4218750000  -6.438274e+001  -5.560001e+000 
4221875000  -5.870017e+001  -2.904844e+001 
4225000000  -5.947497e+001  7.402157e+000 
4228125000  -6.146934e+001  -3.254840e+001 
4231250000  -5.996944e+001  -3.405937e+001 
4234375000  -5.825058e+001  -4.723806e+001 
4237500000  -5.761682e+001  -4.979929e+001 
4240625000  -5.549322e+001  -7.335117e+001 
4243750000  -6.084191e+001  -7.212355e+001 
4246875000  -5.747180e+001  -6.771132e+001 
4250000000  -5.661207e+001  -9.043717e+001 
4253125000  -5.358780e+001  -8.974571e+001 
4256250000  -5.677456e+001  -1.139115e+002 
4259375000  -5.641024e+001  -1.034918e+002 
4262500000  -5.509716e+001  -1.294731e+002 
4265625000  -5.322736e+001  -1.258476e+002 
4268750000  -5.221249e+001  -1.513995e+002 
4271875000  -5.309964e+001  -1.561940e+002 
4275000000  -5.070285e+001  -1.786550e+002 
4278125000  -5.321389e+001  1.718738e+002 
4281250000  -5.378040e+001  1.623827e+002 
4284375000  -5.454403e+001  1.537744e+002 
4287500000  -5.333483e+001  1.444174e+002 
4290625000  -5.635595e+001  1.520817e+002 
4293750000  -5.469149e+001  1.405167e+002 
4296875000  -5.155626e+001  1.104593e+002 
4300000000  -5.351612e+001  9.949853e+001 
4303125000  -5.284430e+001  1.036278e+002 
4306250000  -5.359428e+001  9.411787e+001 
4309375000  -5.091540e+001  7.520490e+001 
4312500000  -5.273048e+001  6.711370e+001 
4315625000  -5.218911e+001  4.348665e+001 
4318750000  -5.410578e+001  3.662078e+001 
4321875000  -5.225687e+001  3.295866e+001 
4325000000  -5.328431e+001  1.778799e+001 
4328125000  -5.159751e+001  1.499819e+001 
4331250000  -5.202755e+001  -8.321908e+000 
4334375000  -5.458883e+001  -1.645347e+001 
4337500000  -5.602331e+001  -3.297579e+001 
4340625000  -5.541044e+001  -1.747997e+001 
4343750000  -5.541462e+001  -4.161635e+001 
4346875000  -5.538394e+001  -4.806005e+001 
4350000000  -5.385974e+001  -7.019726e+001 
4353125000  -5.768634e+001  -5.680687e+001 
4356250000  -5.950272e+001  -8.043858e+001 
4359375000  -5.844611e+001  -3.769134e+001 
4362500000  -5.411901e+001  -7.220940e+001 
4365625000  -5.453094e+001  -1.016170e+002 
4368750000  -5.446741e+001  -1.039827e+002 
4371875000  -5.716265e+001  -1.107943e+002 
4375000000  -5.720605e+001  -1.084380e+002 
4378125000  -5.599401e+001  -1.231401e+002 
4381250000  -5.791986e+001  -1.379965e+002 
4384375000  -5.539386e+001  -1.506925e+002 
4387500000  -6.022338e+001  -1.496567e+002 
4390625000  -5.720481e+001  -1.730378e+002 
4393750000  -5.957626e+001  -1.417556e+002 
4396875000  -5.625161e+001  -1.636334e+002 
4400000000  -5.468665e+001  -1.784918e+002 
4403125000  -5.496675e+001  1.699796e+002 
4406250000  -5.672523e+001  1.648013e+002 
4409375000  -5.560006e+001  1.582965e+002 
4412500000  -5.646732e+001  1.551142e+002 
4415625000  -5.354004e+001  1.679945e+002 
4418750000  -5.501550e+001  1.514520e+002 
