!Agilent Technologies,E8363B,MY43030201,A.06.04.32
!Agilent E8363B: A.06.04.32
!Date: Tuesday, November 11, 2014 22:12:49
!Correction: S21(Response(S21)) 
!S1P File: Measurement: S21:
# Hz S  dB   R 50
3000000000  -4.893473e+001  -7.439259e+001 
3003125000  -5.194046e+001  -8.027704e+001 
3006250000  -5.223922e+001  -8.533679e+001 
3009375000  -5.165602e+001  -8.853783e+001 
3012500000  -5.131709e+001  -9.666815e+001 
3015625000  -5.140596e+001  -1.098915e+002 
3018750000  -5.192008e+001  -1.150998e+002 
3021875000  -5.001004e+001  -1.169440e+002 
3025000000  -4.866679e+001  -1.286230e+002 
3028125000  -4.781972e+001  -1.488302e+002 
3031250000  -4.677678e+001  -1.610875e+002 
3034375000  -4.695520e+001  -1.787233e+002 
3037500000  -4.779320e+001  1.655122e+002 
3040625000  -4.871109e+001  1.504624e+002 
3043750000  -4.955747e+001  1.400370e+002 
3046875000  -5.052058e+001  1.306011e+002 
3050000000  -5.160222e+001  1.209730e+002 
3053125000  -5.096716e+001  1.216738e+002 
3056250000  -5.196510e+001  1.212538e+002 
3059375000  -5.093760e+001  1.102253e+002 
3062500000  -4.937127e+001  1.027961e+002 
3065625000  -4.950680e+001  8.904089e+001 
3068750000  -4.914383e+001  7.523325e+001 
3071875000  -4.919818e+001  6.953358e+001 
3075000000  -4.859294e+001  5.514975e+001 
3078125000  -4.884352e+001  4.668002e+001 
3081250000  -4.912726e+001  3.273797e+001 
3084375000  -4.832792e+001  2.535933e+001 
3087500000  -4.809091e+001  1.293888e+001 
3090625000  -4.782199e+001  -2.747975e+000 
3093750000  -4.874274e+001  -1.554979e+001 
3096875000  -4.967905e+001  -2.518894e+001 
3100000000  -4.911735e+001  -3.315842e+001 
3103125000  -4.996498e+001  -3.668771e+001 
3106250000  -4.952309e+001  -5.171202e+001 
3109375000  -4.950890e+001  -6.096841e+001 
3112500000  -4.948172e+001  -6.846951e+001 
3115625000  -4.899209e+001  -8.014140e+001 
3118750000  -4.962210e+001  -8.467252e+001 
3121875000  -4.896650e+001  -1.017629e+002 
3125000000  -5.131437e+001  -1.082511e+002 
3128125000  -5.037533e+001  -1.063746e+002 
3131250000  -4.843021e+001  -1.192459e+002 
3134375000  -4.780644e+001  -1.412907e+002 
3137500000  -4.887377e+001  -1.575129e+002 
3140625000  -5.004841e+001  -1.608988e+002 
3143750000  -5.028951e+001  -1.661550e+002 
3146875000  -5.006847e+001  -1.733666e+002 
3150000000  -4.890359e+001  1.776310e+002 
3153125000  -4.957083e+001  1.653647e+002 
3156250000  -5.057490e+001  1.671398e+002 
3159375000  -4.841258e+001  1.590048e+002 
3162500000  -4.632161e+001  1.376916e+002 
3165625000  -4.789309e+001  1.185976e+002 
3168750000  -4.767108e+001  1.183248e+002 
3171875000  -4.725084e+001  1.021188e+002 
3175000000  -4.749903e+001  8.855779e+001 
3178125000  -4.702776e+001  8.294643e+001 
3181250000  -4.651152e+001  6.783673e+001 
3184375000  -4.675326e+001  5.252105e+001 
3187500000  -4.745840e+001  3.514986e+001 
3190625000  -4.926544e+001  2.162328e+001 
3193750000  -5.004370e+001  1.938870e+001 
3196875000  -4.972887e+001  1.714191e+001 
3200000000  -4.830978e+001  9.933946e+000 
3203125000  -4.824243e+001  -2.290973e+000 
3206250000  -4.848167e+001  -1.567314e+001 
3209375000  -4.796318e+001  -3.182489e+001 
3212500000  -4.839773e+001  -4.089957e+001 
3215625000  -4.786171e+001  -4.960458e+001 
3218750000  -4.913401e+001  -6.747166e+001 
3221875000  -4.916760e+001  -7.503789e+001 
3225000000  -4.977233e+001  -8.719368e+001 
3228125000  -4.985182e+001  -9.482139e+001 
3231250000  -5.110161e+001  -1.039916e+002 
3234375000  -4.995091e+001  -1.108741e+002 
3237500000  -5.064433e+001  -1.161755e+002 
3240625000  -4.999577e+001  -1.242278e+002 
3243750000  -5.018522e+001  -1.422628e+002 
3246875000  -4.989625e+001  -1.558396e+002 
3250000000  -5.022178e+001  -1.664952e+002 
3253125000  -5.137438e+001  -1.737108e+002 
3256250000  -5.022335e+001  1.778856e+002 
3259375000  -5.138211e+001  1.583668e+002 
3262500000  -5.264628e+001  1.487542e+002 
3265625000  -5.362742e+001  1.468351e+002 
3268750000  -5.323946e+001  1.459996e+002 
3271875000  -5.355114e+001  1.370764e+002 
3275000000  -5.148627e+001  1.211432e+002 
3278125000  -5.227022e+001  1.084509e+002 
3281250000  -5.395756e+001  9.846825e+001 
3284375000  -5.157574e+001  9.042443e+001 
3287500000  -5.340869e+001  8.240228e+001 
3290625000  -5.290066e+001  7.308173e+001 
3293750000  -5.374339e+001  6.164511e+001 
3296875000  -5.431863e+001  5.233537e+001 
3300000000  -5.449632e+001  4.873290e+001 
3303125000  -5.265755e+001  3.962255e+001 
3306250000  -5.270804e+001  2.152294e+001 
3309375000  -5.295918e+001  1.688862e+001 
3312500000  -5.308727e+001  -1.547920e+000 
3315625000  -5.381487e+001  -5.452498e+000 
3318750000  -5.554118e+001  -1.944295e+001 
3321875000  -5.758146e+001  -2.325269e+001 
3325000000  -5.643987e+001  -1.968853e+001 
3328125000  -5.475081e+001  -1.976040e+001 
3331250000  -5.360611e+001  -2.219552e+001 
3334375000  -5.191314e+001  -4.892193e+001 
3337500000  -5.214099e+001  -7.245832e+001 
3340625000  -5.449522e+001  -8.857461e+001 
3343750000  -5.605574e+001  -8.068164e+001 
3346875000  -5.542556e+001  -9.731521e+001 
3350000000  -5.524323e+001  -1.024398e+002 
3353125000  -5.412380e+001  -1.109039e+002 
3356250000  -5.439341e+001  -1.327896e+002 
3359375000  -5.420326e+001  -1.463491e+002 
3362500000  -5.573995e+001  -1.469791e+002 
3365625000  -5.568879e+001  -1.606506e+002 
3368750000  -5.660113e+001  -1.779034e+002 
3371875000  -5.617324e+001  1.790302e+002 
3375000000  -5.813548e+001  1.656810e+002 
3378125000  -5.899903e+001  1.687579e+002 
3381250000  -6.010263e+001  1.692551e+002 
3384375000  -5.757893e+001  -1.768963e+002 
3387500000  -5.490834e+001  1.416265e+002 
3390625000  -5.702461e+001  1.286175e+002 
3393750000  -5.761294e+001  1.216153e+002 
3396875000  -5.781851e+001  1.129475e+002 
3400000000  -5.570829e+001  9.421002e+001 
3403125000  -5.651178e+001  8.871316e+001 
3406250000  -5.655091e+001  7.195333e+001 
3409375000  -5.610228e+001  6.533887e+001 
3412500000  -5.747439e+001  5.199503e+001 
3415625000  -5.884493e+001  3.927257e+001 
3418750000  -6.053387e+001  3.683299e+001 
3421875000  -5.950571e+001  2.075356e+001 
3425000000  -5.897154e+001  2.103200e+001 
3428125000  -5.781479e+001  1.546903e+001 
3431250000  -5.862604e+001  8.231290e-001 
3434375000  -5.951585e+001  -2.782277e+001 
3437500000  -6.360351e+001  -2.466191e+001 
3440625000  -6.234835e+001  -2.571708e+001 
3443750000  -6.026627e+001  -3.067213e+001 
3446875000  -6.150534e+001  -5.104094e+001 
3450000000  -6.234796e+001  -7.349798e+001 
3453125000  -6.321586e+001  -6.464950e+001 
3456250000  -6.284552e+001  -1.182749e+002 
3459375000  -6.459966e+001  -6.901597e+001 
3462500000  -7.179102e+001  -1.032130e+002 
3465625000  -6.553490e+001  -1.069746e+002 
3468750000  -6.237727e+001  -1.287843e+002 
3471875000  -6.729281e+001  -1.039160e+002 
3475000000  -6.647385e+001  -1.114832e+002 
3478125000  -6.944647e+001  -1.449479e+002 
3481250000  -6.588699e+001  -1.442348e+002 
3484375000  -6.740646e+001  -1.274612e+002 
3487500000  -6.772134e+001  -1.474292e+002 
3490625000  -6.820923e+001  -1.301090e+002 
3493750000  -6.820371e+001  -1.334755e+002 
3496875000  -7.170402e+001  -1.725278e+002 
3500000000  -6.613986e+001  1.779411e+002 
3503125000  -6.815742e+001  -1.673591e+002 
3506250000  -6.417395e+001  1.727560e+002 
3509375000  -6.371348e+001  1.624619e+002 
3512500000  -6.448257e+001  1.550609e+002 
3515625000  -6.731101e+001  1.142654e+002 
3518750000  -6.934868e+001  1.349248e+002 
3521875000  -7.183309e+001  1.474888e+002 
3525000000  -6.210485e+001  1.049724e+002 
3528125000  -6.712712e+001  7.346778e+001 
3531250000  -6.660629e+001  1.395159e+002 
3534375000  -6.917213e+001  8.094203e+001 
3537500000  -6.612774e+001  7.839903e+001 
3540625000  -7.290990e+001  9.965685e+001 
3543750000  -6.828551e+001  1.176778e+002 
3546875000  -7.162368e+001  8.936194e+001 
3550000000  -6.614493e+001  9.002086e+001 
3553125000  -6.667944e+001  2.094734e+001 
3556250000  -7.491352e+001  5.081118e+001 
3559375000  -7.097951e+001  4.506634e+001 
3562500000  -7.663435e+001  -8.883574e+000 
3565625000  -6.770146e+001  2.707891e+001 
3568750000  -7.658156e+001  1.622814e+002 
3571875000  -6.807949e+001  8.445001e+001 
3575000000  -8.876360e+001  5.312934e+001 
3578125000  -7.263316e+001  3.299729e+001 
3581250000  -8.099010e+001  -1.591182e+002 
3584375000  -7.604905e+001  1.373252e+001 
3587500000  -7.181695e+001  1.054289e+001 
3590625000  -6.532680e+001  1.040219e+001 
3593750000  -6.791463e+001  1.748886e+000 
3596875000  -7.142438e+001  2.094879e+001 
3600000000  -6.862486e+001  8.620725e+000 
3603125000  -6.547467e+001  1.230818e+001 
3606250000  -6.549557e+001  -7.563067e+000 
3609375000  -7.104994e+001  -4.574566e+001 
3612500000  -6.544161e+001  -3.975336e+001 
3615625000  -6.869498e+001  -6.613392e+001 
3618750000  -6.338261e+001  -5.592216e+001 
3621875000  -6.783207e+001  -9.328268e+001 
3625000000  -6.276986e+001  -6.846323e+001 
3628125000  -6.184473e+001  -9.839758e+001 
3631250000  -6.380823e+001  -1.110107e+002 
3634375000  -6.679232e+001  -1.333134e+002 
3637500000  -6.312254e+001  -1.266019e+002 
3640625000  -6.080155e+001  -1.264673e+002 
3643750000  -6.273286e+001  -1.428163e+002 
3646875000  -6.072876e+001  -1.715554e+002 
3650000000  -6.515759e+001  1.788723e+002 
3653125000  -6.305922e+001  1.767775e+002 
3656250000  -6.712874e+001  -1.690955e+002 
3659375000  -6.678542e+001  1.551336e+002 
3662500000  -6.300177e+001  1.370957e+002 
3665625000  -6.206450e+001  1.567380e+002 
3668750000  -6.102753e+001  1.371544e+002 
3671875000  -6.307689e+001  1.167238e+002 
3675000000  -6.824725e+001  1.124875e+002 
3678125000  -6.607114e+001  8.740147e+001 
3681250000  -6.436690e+001  8.513651e+001 
3684375000  -6.994830e+001  8.124742e+001 
3687500000  -6.684788e+001  7.359792e+001 
3690625000  -6.756997e+001  9.225333e+001 
3693750000  -6.788460e+001  9.010021e+001 
3696875000  -6.597807e+001  1.028432e+002 
3700000000  -6.581483e+001  9.356001e+001 
3703125000  -6.498269e+001  3.519244e+001 
3706250000  -6.938292e+001  5.031087e+001 
3709375000  -6.581651e+001  7.471882e+001 
3712500000  -6.357695e+001  5.911937e+001 
3715625000  -6.088290e+001  4.779522e+001 
3718750000  -6.262877e+001  2.662895e+001 
3721875000  -6.127694e+001  8.916211e+000 
3725000000  -6.306279e+001  3.053016e+001 
3728125000  -5.890701e+001  -2.724528e+000 
3731250000  -5.986391e+001  -2.124726e+001 
3734375000  -6.179753e+001  -2.427509e+001 
3737500000  -6.005837e+001  -4.284830e+001 
3740625000  -5.828090e+001  -4.833962e+001 
3743750000  -5.978130e+001  -4.726243e+001 
3746875000  -5.824345e+001  -5.859255e+001 
3750000000  -5.968292e+001  -7.856441e+001 
3753125000  -5.768290e+001  -7.237907e+001 
3756250000  -5.916612e+001  -1.035149e+002 
3759375000  -5.752921e+001  -1.039132e+002 
3762500000  -5.663600e+001  -1.204676e+002 
3765625000  -5.936325e+001  -1.210442e+002 
3768750000  -5.753441e+001  -1.350206e+002 
3771875000  -5.604556e+001  -1.429487e+002 
3775000000  -5.729763e+001  -1.553061e+002 
3778125000  -5.708619e+001  -1.753701e+002 
3781250000  -5.587558e+001  1.766113e+002 
3784375000  -5.635952e+001  1.564408e+002 
3787500000  -5.772437e+001  1.511565e+002 
3790625000  -5.719024e+001  1.391383e+002 
3793750000  -5.784378e+001  1.295802e+002 
3796875000  -5.526354e+001  1.230673e+002 
3800000000  -5.288595e+001  7.717012e+001 
3803125000  -5.682584e+001  1.057064e+002 
3806250000  -6.060478e+001  8.027928e+001 
3809375000  -5.759015e+001  7.288606e+001 
3812500000  -5.669127e+001  6.447455e+001 
3815625000  -5.971715e+001  4.615368e+001 
3818750000  -6.260442e+001  4.195739e+001 
3821875000  -6.174518e+001  5.661153e+001 
3825000000  -6.454778e+001  4.415047e+001 
3828125000  -6.193023e+001  4.145468e+001 
3831250000  -6.002836e+001  1.984205e+000 
3834375000  -6.314811e+001  1.168287e+001 
3837500000  -6.541237e+001  3.000228e+001 
3840625000  -6.138274e+001  -5.760952e-001 
3843750000  -5.991828e+001  -5.293800e+000 
3846875000  -6.251303e+001  -3.565136e+001 
3850000000  -6.291804e+001  -6.523519e+000 
3853125000  -6.334699e+001  -3.012470e+001 
3856250000  -5.980636e+001  2.803297e+000 
3859375000  -6.099520e+001  -2.667629e+001 
3862500000  -6.310250e+001  -3.369579e+001 
3865625000  -5.962331e+001  -5.786169e+001 
3868750000  -5.971667e+001  -2.951530e+001 
3871875000  -5.685670e+001  -6.142779e+001 
3875000000  -5.944854e+001  -6.198442e+001 
3878125000  -5.730655e+001  -8.475974e+001 
3881250000  -5.707079e+001  -8.278551e+001 
3884375000  -5.583160e+001  -9.909081e+001 
3887500000  -5.683185e+001  -1.073670e+002 
3890625000  -5.591761e+001  -1.184046e+002 
3893750000  -5.648574e+001  -1.286174e+002 
3896875000  -5.654561e+001  -1.325242e+002 
3900000000  -5.615367e+001  -1.535770e+002 
3903125000  -5.501581e+001  -1.553420e+002 
3906250000  -5.461944e+001  -1.622676e+002 
3909375000  -5.514324e+001  1.756520e+002 
3912500000  -5.349902e+001  1.634407e+002 
3915625000  -5.588044e+001  1.592107e+002 
3918750000  -5.621061e+001  1.558564e+002 
3921875000  -5.413929e+001  1.492352e+002 
3925000000  -5.260086e+001  1.292745e+002 
3928125000  -5.295454e+001  1.150480e+002 
3931250000  -5.377394e+001  1.018621e+002 
3934375000  -5.443570e+001  9.151234e+001 
3937500000  -5.626355e+001  8.348980e+001 
3940625000  -5.500117e+001  7.258235e+001 
3943750000  -5.315582e+001  6.935074e+001 
3946875000  -5.420660e+001  4.910603e+001 
3950000000  -5.454811e+001  4.448318e+001 
3953125000  -5.443785e+001  3.536541e+001 
3956250000  -5.299762e+001  3.134931e+001 
3959375000  -5.192449e+001  1.272137e+001 
3962500000  -5.199984e+001  -4.214436e+000 
3965625000  -5.386594e+001  -2.523063e+001 
3968750000  -5.353325e+001  -3.206681e+001 
3971875000  -5.422583e+001  -3.475275e+001 
3975000000  -5.378007e+001  -5.203278e+001 
3978125000  -5.508636e+001  -5.668978e+001 
3981250000  -5.606419e+001  -7.288737e+001 
3984375000  -5.539614e+001  -8.747831e+001 
3987500000  -5.699662e+001  -8.756461e+001 
3990625000  -5.532355e+001  -9.400577e+001 
3993750000  -5.730875e+001  -1.149633e+002 
3996875000  -5.768536e+001  -1.146688e+002 
4000000000  -5.901081e+001  -1.351601e+002 
4003125000  -5.761835e+001  -1.450090e+002 
4006250000  -5.668647e+001  -1.389373e+002 
4009375000  -5.849276e+001  -1.545734e+002 
4012500000  -5.887605e+001  -1.630761e+002 
4015625000  -6.156100e+001  -1.753773e+002 
4018750000  -6.015195e+001  -1.627611e+002 
4021875000  -5.821117e+001  -1.660419e+002 
4025000000  -5.965174e+001  -1.616299e+002 
4028125000  -5.880854e+001  -1.794149e+002 
4031250000  -6.019230e+001  1.632598e+002 
4034375000  -6.086553e+001  -1.742453e+002 
4037500000  -5.980754e+001  1.376886e+002 
4040625000  -5.989234e+001  1.465264e+002 
4043750000  -6.016311e+001  1.534515e+002 
4046875000  -5.824808e+001  1.326769e+002 
4050000000  -5.571120e+001  1.219779e+002 
4053125000  -5.838084e+001  1.197817e+002 
4056250000  -5.847920e+001  1.191118e+002 
4059375000  -5.596432e+001  1.028590e+002 
4062500000  -5.561138e+001  1.044161e+002 
4065625000  -5.445302e+001  8.780627e+001 
4068750000  -5.512153e+001  7.078505e+001 
4071875000  -5.315136e+001  6.157305e+001 
4075000000  -5.391109e+001  3.895191e+001 
4078125000  -5.315554e+001  3.770504e+001 
4081250000  -5.341555e+001  2.945738e+001 
4084375000  -5.228854e+001  5.228885e+000 
4087500000  -5.393711e+001  -1.069071e+001 
4090625000  -5.395415e+001  -1.163211e+001 
4093750000  -5.413150e+001  -1.996479e+001 
4096875000  -5.272144e+001  -4.113538e+001 
4100000000  -5.247312e+001  -5.212046e+001 
4103125000  -5.427830e+001  -4.202796e+001 
4106250000  -5.419873e+001  -4.625949e+001 
4109375000  -5.372621e+001  -6.048460e+001 
4112500000  -5.228181e+001  -8.092737e+001 
4115625000  -5.420226e+001  -8.886629e+001 
4118750000  -5.195355e+001  -1.016899e+002 
4121875000  -5.335122e+001  -1.153616e+002 
4125000000  -5.339277e+001  -1.235249e+002 
4128125000  -5.508077e+001  -1.377770e+002 
4131250000  -5.404882e+001  -1.304909e+002 
4134375000  -5.117249e+001  -1.566790e+002 
4137500000  -5.180345e+001  -1.700990e+002 
4140625000  -5.330876e+001  1.778481e+002 
4143750000  -5.651656e+001  -1.795795e+002 
4146875000  -5.476670e+001  1.712976e+002 
4150000000  -5.469263e+001  1.541749e+002 
4153125000  -5.324937e+001  1.460139e+002 
4156250000  -5.554369e+001  1.370027e+002 
4159375000  -5.603601e+001  1.252685e+002 
4162500000  -5.572266e+001  1.137750e+002 
4165625000  -5.298248e+001  1.188019e+002 
4168750000  -5.480656e+001  9.194321e+001 
4171875000  -5.425220e+001  8.409550e+001 
4175000000  -5.689947e+001  6.007984e+001 
4178125000  -5.790110e+001  7.048703e+001 
4181250000  -5.930907e+001  3.937970e+001 
4184375000  -5.803025e+001  4.485297e+001 
4187500000  -5.768014e+001  2.541032e+001 
4190625000  -5.872275e+001  1.194588e+001 
4193750000  -5.905489e+001  1.880271e+001 
4196875000  -6.269807e+001  -6.708498e+000 
4200000000  -6.963874e+001  -1.643700e+001 
4203125000  -6.515147e+001  -9.245419e+000 
4206250000  -5.862378e+001  1.439449e+001 
4209375000  -6.312051e+001  -4.025625e-001 
4212500000  -6.159879e+001  4.116871e+000 
4215625000  -6.971213e+001  3.203884e+000 
4218750000  -6.137912e+001  3.723772e+000 
4221875000  -5.967408e+001  -1.033962e+001 
4225000000  -6.149875e+001  -3.885238e+000 
4228125000  -6.022088e+001  -1.732798e+001 
4231250000  -5.903361e+001  -8.451165e+000 
4234375000  -5.907049e+001  -5.240258e+001 
4237500000  -5.941401e+001  -4.287194e+001 
4240625000  -5.554421e+001  -5.710514e+001 
4243750000  -5.804215e+001  -7.589774e+001 
4246875000  -5.463437e+001  -7.421020e+001 
4250000000  -5.765085e+001  -7.986154e+001 
4253125000  -5.671144e+001  -7.469373e+001 
4256250000  -5.439516e+001  -1.030915e+002 
4259375000  -5.425639e+001  -1.033272e+002 
4262500000  -5.601731e+001  -1.255184e+002 
4265625000  -5.413456e+001  -1.236894e+002 
4268750000  -5.336897e+001  -1.441808e+002 
4271875000  -5.234466e+001  -1.513949e+002 
4275000000  -5.151419e+001  -1.752123e+002 
4278125000  -5.436448e+001  1.636955e+002 
4281250000  -5.304221e+001  1.629112e+002 
4284375000  -5.403633e+001  1.553036e+002 
4287500000  -5.478907e+001  1.470365e+002 
4290625000  -5.525387e+001  1.498369e+002 
4293750000  -5.331396e+001  1.377894e+002 
4296875000  -5.076950e+001  1.220214e+002 
4300000000  -5.302598e+001  1.091963e+002 
4303125000  -5.296669e+001  9.792191e+001 
4306250000  -5.301883e+001  9.837500e+001 
4309375000  -5.121058e+001  7.737799e+001 
4312500000  -5.172049e+001  6.518773e+001 
4315625000  -5.189091e+001  4.668625e+001 
4318750000  -5.346138e+001  5.237289e+001 
4321875000  -5.249855e+001  3.766814e+001 
4325000000  -5.417178e+001  2.690609e+001 
4328125000  -5.127153e+001  1.049930e+001 
4331250000  -5.286328e+001  -1.441527e+000 
4334375000  -5.581451e+001  -1.282324e+001 
4337500000  -5.480818e+001  -3.577538e+001 
4340625000  -5.478714e+001  -2.870214e+001 
4343750000  -5.429113e+001  -3.475166e+001 
4346875000  -5.490114e+001  -3.606874e+001 
4350000000  -5.434566e+001  -6.861977e+001 
4353125000  -5.735723e+001  -6.705897e+001 
4356250000  -5.713144e+001  -7.071586e+001 
4359375000  -6.020099e+001  -4.201834e+001 
4362500000  -5.407486e+001  -7.384718e+001 
4365625000  -5.414113e+001  -1.015564e+002 
4368750000  -5.478425e+001  -1.067990e+002 
4371875000  -5.708388e+001  -1.036002e+002 
4375000000  -5.730042e+001  -1.217871e+002 
4378125000  -5.683069e+001  -1.152224e+002 
4381250000  -5.744245e+001  -1.350341e+002 
4384375000  -5.811343e+001  -1.548954e+002 
4387500000  -5.698703e+001  -1.494911e+002 
4390625000  -5.776982e+001  -1.632657e+002 
4393750000  -6.003503e+001  -1.528673e+002 
4396875000  -5.558981e+001  -1.541432e+002 
4400000000  -5.569494e+001  -1.757911e+002 
4403125000  -5.690427e+001  1.726524e+002 
4406250000  -5.673367e+001  1.694718e+002 
4409375000  -5.577049e+001  1.663012e+002 
4412500000  -5.758867e+001  1.591600e+002 
4415625000  -5.641006e+001  1.615116e+002 
4418750000  -5.515180e+001  1.551769e+002 
