!Agilent Technologies,E8363B,MY43030201,A.06.04.32
!Agilent E8363B: A.06.04.32
!Date: Tuesday, November 11, 2014 22:09:23
!Correction: S21(Response(S21)) 
!S1P File: Measurement: S21:
# Hz S  dB   R 50
3000000000  -4.885928e+001  -7.529929e+001 
3003125000  -5.144510e+001  -8.305559e+001 
3006250000  -5.226068e+001  -8.899216e+001 
3009375000  -5.185609e+001  -8.852912e+001 
3012500000  -5.102450e+001  -1.017937e+002 
3015625000  -5.086428e+001  -1.091765e+002 
3018750000  -5.179195e+001  -1.197285e+002 
3021875000  -4.995037e+001  -1.191787e+002 
3025000000  -4.843904e+001  -1.298507e+002 
3028125000  -4.802798e+001  -1.447914e+002 
3031250000  -4.711941e+001  -1.655493e+002 
3034375000  -4.730257e+001  1.781818e+002 
3037500000  -4.778932e+001  1.655527e+002 
3040625000  -4.888643e+001  1.502150e+002 
3043750000  -4.955980e+001  1.410584e+002 
3046875000  -5.034097e+001  1.297891e+002 
3050000000  -5.168062e+001  1.202087e+002 
3053125000  -5.148118e+001  1.180816e+002 
3056250000  -5.169837e+001  1.181906e+002 
3059375000  -5.057649e+001  1.087676e+002 
3062500000  -4.920892e+001  9.825581e+001 
3065625000  -4.915384e+001  8.586009e+001 
3068750000  -4.953345e+001  7.295174e+001 
3071875000  -4.931193e+001  7.086893e+001 
3075000000  -4.835576e+001  5.358748e+001 
3078125000  -4.852709e+001  4.433765e+001 
3081250000  -4.880873e+001  2.835008e+001 
3084375000  -4.837160e+001  2.339190e+001 
3087500000  -4.823080e+001  1.101633e+001 
3090625000  -4.809517e+001  -4.956951e+000 
3093750000  -4.887545e+001  -1.712826e+001 
3096875000  -4.894825e+001  -2.885716e+001 
3100000000  -4.942022e+001  -3.325953e+001 
3103125000  -4.964327e+001  -3.934956e+001 
3106250000  -4.936156e+001  -5.085875e+001 
3109375000  -4.913033e+001  -6.252639e+001 
3112500000  -4.934042e+001  -7.148513e+001 
3115625000  -4.965550e+001  -7.778077e+001 
3118750000  -4.965495e+001  -8.736848e+001 
3121875000  -4.868272e+001  -1.027099e+002 
3125000000  -5.108204e+001  -1.126304e+002 
3128125000  -5.080183e+001  -1.075085e+002 
3131250000  -4.838354e+001  -1.207915e+002 
3134375000  -4.781628e+001  -1.394467e+002 
3137500000  -4.920366e+001  -1.578115e+002 
3140625000  -4.949915e+001  -1.651896e+002 
3143750000  -5.046179e+001  -1.686827e+002 
3146875000  -4.987307e+001  -1.745515e+002 
3150000000  -4.876587e+001  1.761171e+002 
3153125000  -4.898754e+001  1.644058e+002 
3156250000  -5.043203e+001  1.621259e+002 
3159375000  -4.773921e+001  1.544143e+002 
3162500000  -4.615744e+001  1.343070e+002 
3165625000  -4.769719e+001  1.160162e+002 
3168750000  -4.749444e+001  1.142376e+002 
3171875000  -4.742927e+001  9.997253e+001 
3175000000  -4.766466e+001  8.911113e+001 
3178125000  -4.727923e+001  8.071166e+001 
3181250000  -4.654986e+001  6.596954e+001 
3184375000  -4.695179e+001  5.025005e+001 
3187500000  -4.751206e+001  3.525236e+001 
3190625000  -4.922620e+001  2.217747e+001 
3193750000  -4.970041e+001  2.302744e+001 
3196875000  -4.954316e+001  1.289950e+001 
3200000000  -4.813643e+001  4.734676e+000 
3203125000  -4.842019e+001  -2.013361e+000 
3206250000  -4.858665e+001  -1.893084e+001 
3209375000  -4.814702e+001  -3.275196e+001 
3212500000  -4.896296e+001  -4.168258e+001 
3215625000  -4.824672e+001  -4.692501e+001 
3218750000  -4.876321e+001  -6.631466e+001 
3221875000  -4.990243e+001  -7.681655e+001 
3225000000  -4.938677e+001  -8.324551e+001 
3228125000  -4.992686e+001  -9.379298e+001 
3231250000  -5.127230e+001  -1.086771e+002 
3234375000  -5.053161e+001  -1.112595e+002 
3237500000  -5.054992e+001  -1.224471e+002 
3240625000  -4.991524e+001  -1.296515e+002 
3243750000  -5.053936e+001  -1.472420e+002 
3246875000  -5.066599e+001  -1.601023e+002 
3250000000  -5.100168e+001  -1.653152e+002 
3253125000  -5.149281e+001  -1.741324e+002 
3256250000  -5.009705e+001  1.735078e+002 
3259375000  -5.132816e+001  1.542829e+002 
3262500000  -5.296692e+001  1.463221e+002 
3265625000  -5.279276e+001  1.427911e+002 
3268750000  -5.345452e+001  1.438563e+002 
3271875000  -5.277438e+001  1.307977e+002 
3275000000  -5.252814e+001  1.185471e+002 
3278125000  -5.271173e+001  1.093953e+002 
3281250000  -5.268565e+001  1.051078e+002 
3284375000  -5.246310e+001  8.998428e+001 
3287500000  -5.347829e+001  8.326032e+001 
3290625000  -5.251979e+001  6.832034e+001 
3293750000  -5.270027e+001  6.341862e+001 
3296875000  -5.410923e+001  5.431572e+001 
3300000000  -5.421929e+001  5.056783e+001 
3303125000  -5.299644e+001  3.820896e+001 
3306250000  -5.251912e+001  2.341427e+001 
3309375000  -5.288124e+001  1.286844e+001 
3312500000  -5.266390e+001  -1.103105e+001 
3315625000  -5.418041e+001  -1.177556e+001 
3318750000  -5.681108e+001  -2.318598e+001 
3321875000  -5.805725e+001  -2.309507e+001 
3325000000  -5.737664e+001  -2.500969e+001 
3328125000  -5.679238e+001  -2.371079e+001 
3331250000  -5.342798e+001  -2.695686e+001 
3334375000  -5.106403e+001  -4.769641e+001 
3337500000  -5.200055e+001  -7.485527e+001 
3340625000  -5.449458e+001  -9.088599e+001 
3343750000  -5.587158e+001  -8.766789e+001 
3346875000  -5.470197e+001  -1.025502e+002 
3350000000  -5.494742e+001  -9.748110e+001 
3353125000  -5.544022e+001  -1.177161e+002 
3356250000  -5.513091e+001  -1.287823e+002 
3359375000  -5.478997e+001  -1.475217e+002 
3362500000  -5.501580e+001  -1.497595e+002 
3365625000  -5.616555e+001  -1.596618e+002 
3368750000  -5.754689e+001  -1.764364e+002 
3371875000  -5.701058e+001  -1.791433e+002 
3375000000  -5.947733e+001  1.674313e+002 
3378125000  -5.904805e+001  1.609082e+002 
3381250000  -6.130237e+001  1.730728e+002 
3384375000  -5.846915e+001  -1.770935e+002 
3387500000  -5.344889e+001  1.456632e+002 
3390625000  -5.770068e+001  1.228593e+002 
3393750000  -5.846783e+001  1.190652e+002 
3396875000  -5.688089e+001  1.081703e+002 
3400000000  -5.650784e+001  9.609377e+001 
3403125000  -5.724496e+001  8.107286e+001 
3406250000  -5.659718e+001  7.622742e+001 
3409375000  -5.832563e+001  5.071093e+001 
3412500000  -5.750344e+001  5.155777e+001 
3415625000  -6.019247e+001  4.327882e+001 
3418750000  -5.895069e+001  3.529313e+001 
3421875000  -5.940267e+001  1.205581e+001 
3425000000  -6.029126e+001  3.452850e+001 
3428125000  -5.934430e+001  1.400795e+001 
3431250000  -6.059663e+001  -3.832526e+000 
3434375000  -5.915596e+001  -2.435958e+001 
3437500000  -6.442140e+001  -2.831345e+001 
3440625000  -6.219380e+001  -2.060297e+001 
3443750000  -6.168941e+001  -2.847194e+001 
3446875000  -6.059354e+001  -4.289697e+001 
3450000000  -6.195788e+001  -6.333478e+001 
3453125000  -6.235291e+001  -8.383939e+001 
3456250000  -6.175683e+001  -1.130734e+002 
3459375000  -6.647359e+001  -8.264668e+001 
3462500000  -6.662258e+001  -9.371199e+001 
3465625000  -6.560041e+001  -9.413122e+001 
3468750000  -6.939655e+001  -1.239665e+002 
3471875000  -6.343603e+001  -1.075592e+002 
3475000000  -6.451824e+001  -1.165903e+002 
3478125000  -6.793742e+001  -1.172517e+002 
3481250000  -6.920967e+001  -1.631679e+002 
3484375000  -6.364332e+001  -1.366725e+002 
3487500000  -6.855724e+001  -1.329482e+002 
3490625000  -6.570518e+001  -1.181077e+002 
3493750000  -7.243540e+001  1.665496e+002 
3496875000  -7.176862e+001  -1.253919e+002 
3500000000  -6.840397e+001  -1.624817e+002 
3503125000  -7.230373e+001  1.645283e+002 
3506250000  -6.473029e+001  -1.596168e+002 
3509375000  -6.281126e+001  1.611858e+002 
3512500000  -6.471587e+001  1.485700e+002 
3515625000  -6.879685e+001  1.659504e+002 
3518750000  -6.589832e+001  1.375471e+002 
3521875000  -9.252193e+001  1.497992e+002 
3525000000  -7.353425e+001  8.960233e+001 
3528125000  -6.882660e+001  1.337952e+002 
3531250000  -6.284447e+001  1.034900e+002 
3534375000  -6.448367e+001  8.004997e+001 
3537500000  -6.560390e+001  1.086856e+002 
3540625000  -6.662148e+001  9.581191e+001 
3543750000  -7.179772e+001  1.731532e+001 
3546875000  -7.000298e+001  5.396404e+000 
3550000000  -7.192572e+001  6.178955e+001 
3553125000  -7.244868e+001  2.838657e+001 
3556250000  -7.078450e+001  6.618626e+001 
3559375000  -7.034097e+001  3.785901e+001 
3562500000  -7.966317e+001  6.359967e+000 
3565625000  -7.123668e+001  -1.373168e+001 
3568750000  -7.023441e+001  -1.304862e+002 
3571875000  -7.497105e+001  -2.137008e+001 
3575000000  -7.896261e+001  -8.939024e+000 
3578125000  -7.203493e+001  9.013165e+001 
3581250000  -7.756116e+001  2.510937e+001 
3584375000  -8.698978e+001  -1.569700e+002 
3587500000  -7.781096e+001  2.038283e+001 
3590625000  -6.273784e+001  -1.580968e+001 
3593750000  -7.220516e+001  -1.382984e+001 
3596875000  -6.304349e+001  2.432467e+001 
3600000000  -6.798286e+001  -2.505198e+001 
3603125000  -6.845564e+001  -3.257980e+001 
3606250000  -6.314878e+001  -5.926161e+001 
3609375000  -6.501646e+001  -4.901732e+001 
3612500000  -6.178785e+001  -6.408274e+001 
3615625000  -6.587102e+001  -6.909743e+001 
3618750000  -6.541693e+001  -7.126224e+001 
3621875000  -6.455778e+001  -8.187277e+001 
3625000000  -6.272732e+001  -8.353725e+001 
3628125000  -6.291321e+001  -1.005845e+002 
3631250000  -6.154630e+001  -1.081099e+002 
3634375000  -6.649128e+001  -1.383068e+002 
3637500000  -6.596910e+001  -1.173252e+002 
3640625000  -6.193887e+001  -1.248728e+002 
3643750000  -6.293652e+001  -1.673906e+002 
3646875000  -6.107664e+001  -1.621761e+002 
3650000000  -6.046284e+001  -1.703185e+002 
3653125000  -5.999176e+001  -1.755426e+002 
3656250000  -6.255759e+001  1.721819e+002 
3659375000  -6.459305e+001  1.594445e+002 
3662500000  -6.150926e+001  1.563310e+002 
3665625000  -6.478636e+001  1.369743e+002 
3668750000  -6.129637e+001  1.189863e+002 
3671875000  -6.762579e+001  1.336765e+002 
3675000000  -6.590906e+001  1.042325e+002 
3678125000  -6.352236e+001  1.049366e+002 
3681250000  -6.224568e+001  8.578503e+001 
3684375000  -6.849924e+001  9.453048e+001 
3687500000  -6.659682e+001  5.338203e+001 
3690625000  -7.391277e+001  6.095446e+001 
3693750000  -6.566032e+001  8.602802e+001 
3696875000  -7.825308e+001  9.433530e+001 
3700000000  -6.637244e+001  9.204189e+001 
3703125000  -6.433781e+001  2.426598e+001 
3706250000  -6.844250e+001  5.114317e+001 
3709375000  -6.723489e+001  6.082250e+001 
3712500000  -6.708665e+001  8.066829e+001 
3715625000  -6.497236e+001  6.131866e+001 
3718750000  -6.114547e+001  2.270974e+001 
3721875000  -6.254966e+001  1.514929e+001 
3725000000  -6.022465e+001  9.883380e+000 
3728125000  -5.994427e+001  -1.176756e+001 
3731250000  -5.921782e+001  -5.305552e+000 
3734375000  -5.927492e+001  -2.620100e+001 
3737500000  -6.327049e+001  -3.590123e+001 
3740625000  -5.852481e+001  -4.328857e+001 
3743750000  -5.813872e+001  -5.818998e+001 
3746875000  -6.110773e+001  -8.112614e+001 
3750000000  -5.880556e+001  -6.907546e+001 
3753125000  -5.871603e+001  -7.654990e+001 
3756250000  -5.829772e+001  -9.500862e+001 
3759375000  -5.737326e+001  -1.140892e+002 
3762500000  -5.747709e+001  -1.173658e+002 
3765625000  -5.900718e+001  -1.317467e+002 
3768750000  -5.727122e+001  -1.436929e+002 
3771875000  -5.704696e+001  -1.549924e+002 
3775000000  -5.582879e+001  -1.597676e+002 
3778125000  -5.693040e+001  -1.796680e+002 
3781250000  -5.790786e+001  1.736429e+002 
3784375000  -5.712974e+001  1.740798e+002 
3787500000  -5.863386e+001  1.512093e+002 
3790625000  -5.649762e+001  1.370400e+002 
3793750000  -5.708992e+001  1.307123e+002 
3796875000  -5.805668e+001  1.295742e+002 
3800000000  -5.308626e+001  7.892413e+001 
3803125000  -5.729607e+001  8.816267e+001 
3806250000  -5.931768e+001  8.213244e+001 
3809375000  -5.842389e+001  8.715714e+001 
3812500000  -5.739165e+001  6.797112e+001 
3815625000  -6.194025e+001  4.255955e+001 
3818750000  -6.287742e+001  2.302134e+001 
3821875000  -5.998298e+001  7.152265e+001 
3825000000  -5.776488e+001  4.406737e+001 
3828125000  -5.888706e+001  2.756816e+001 
3831250000  -6.005917e+001  8.567450e+000 
3834375000  -6.438277e+001  2.001331e+001 
3837500000  -6.179104e+001  8.736196e+000 
3840625000  -6.185902e+001  4.651897e-001 
3843750000  -6.120688e+001  -1.067034e+001 
3846875000  -6.208954e+001  -3.476254e+001 
3850000000  -6.763509e+001  -1.462397e+001 
3853125000  -6.305897e+001  9.309921e-002 
3856250000  -5.994642e+001  -6.493572e+000 
3859375000  -6.045701e+001  -3.336922e+001 
3862500000  -6.008064e+001  -2.476420e+001 
3865625000  -5.984595e+001  -5.448198e+001 
3868750000  -5.984890e+001  -5.009718e+001 
3871875000  -5.760532e+001  -6.109076e+001 
3875000000  -6.167443e+001  -7.372743e+001 
3878125000  -5.829694e+001  -8.111402e+001 
3881250000  -5.735881e+001  -9.875497e+001 
3884375000  -5.633040e+001  -9.602027e+001 
3887500000  -5.733556e+001  -1.127801e+002 
3890625000  -5.703547e+001  -1.257443e+002 
3893750000  -5.506493e+001  -1.386551e+002 
3896875000  -5.660769e+001  -1.352943e+002 
3900000000  -5.543555e+001  -1.599627e+002 
3903125000  -5.519038e+001  -1.559221e+002 
3906250000  -5.386419e+001  -1.692822e+002 
3909375000  -5.354070e+001  1.725462e+002 
3912500000  -5.389029e+001  1.626668e+002 
3915625000  -5.713937e+001  1.622707e+002 
3918750000  -5.497552e+001  1.573602e+002 
3921875000  -5.495552e+001  1.415896e+002 
3925000000  -5.331375e+001  1.281217e+002 
3928125000  -5.346337e+001  1.158311e+002 
3931250000  -5.433421e+001  1.054812e+002 
3934375000  -5.501712e+001  8.954990e+001 
3937500000  -5.578081e+001  7.248753e+001 
3940625000  -5.438344e+001  7.899666e+001 
3943750000  -5.380257e+001  6.274299e+001 
3946875000  -5.339238e+001  5.449546e+001 
3950000000  -5.477347e+001  3.767560e+001 
3953125000  -5.683177e+001  2.780410e+001 
3956250000  -5.443686e+001  1.969728e+001 
3959375000  -5.172586e+001  1.641972e+001 
3962500000  -5.331922e+001  -9.309196e+000 
3965625000  -5.331181e+001  -2.257387e+001 
3968750000  -5.496452e+001  -3.699031e+001 
3971875000  -5.476004e+001  -4.543908e+001 
3975000000  -5.441788e+001  -5.680352e+001 
3978125000  -5.568457e+001  -6.291518e+001 
3981250000  -5.405581e+001  -7.822788e+001 
3984375000  -5.636102e+001  -8.173253e+001 
3987500000  -5.613477e+001  -8.952779e+001 
3990625000  -5.721862e+001  -9.759464e+001 
3993750000  -5.704605e+001  -1.219059e+002 
3996875000  -5.769226e+001  -1.291301e+002 
4000000000  -6.221773e+001  -1.371878e+002 
4003125000  -5.922247e+001  -1.390281e+002 
4006250000  -5.793825e+001  -1.455784e+002 
4009375000  -5.736206e+001  -1.601828e+002 
4012500000  -5.980846e+001  -1.528078e+002 
4015625000  -6.269778e+001  1.790097e+002 
4018750000  -6.065553e+001  -1.618207e+002 
4021875000  -5.691739e+001  1.719223e+002 
4025000000  -5.881076e+001  1.795612e+002 
4028125000  -6.293760e+001  1.689954e+002 
4031250000  -6.002472e+001  1.500518e+002 
4034375000  -5.918961e+001  1.533457e+002 
4037500000  -5.829167e+001  1.459427e+002 
4040625000  -5.892378e+001  1.475884e+002 
4043750000  -5.974483e+001  1.479847e+002 
4046875000  -5.830694e+001  1.313556e+002 
4050000000  -5.801206e+001  1.312361e+002 
4053125000  -5.962576e+001  1.192983e+002 
4056250000  -5.842237e+001  1.170559e+002 
4059375000  -5.616839e+001  1.112530e+002 
4062500000  -5.560404e+001  1.012575e+002 
4065625000  -5.528820e+001  7.806686e+001 
4068750000  -5.640754e+001  6.417940e+001 
4071875000  -5.265331e+001  5.105640e+001 
4075000000  -5.339298e+001  4.713347e+001 
4078125000  -5.366721e+001  3.742801e+001 
4081250000  -5.332473e+001  2.357761e+001 
4084375000  -5.239348e+001  1.149516e+001 
4087500000  -5.433405e+001  -3.901284e+000 
4090625000  -5.424624e+001  -1.224441e+001 
4093750000  -5.422601e+001  -2.672041e+001 
4096875000  -5.296033e+001  -3.615633e+001 
4100000000  -5.316278e+001  -5.429115e+001 
4103125000  -5.555746e+001  -5.086392e+001 
4106250000  -5.420618e+001  -6.247179e+001 
4109375000  -5.246043e+001  -6.338699e+001 
4112500000  -5.170936e+001  -8.219218e+001 
4115625000  -5.386886e+001  -9.228563e+001 
4118750000  -5.247111e+001  -9.772514e+001 
4121875000  -5.208791e+001  -1.175232e+002 
4125000000  -5.467188e+001  -1.246756e+002 
4128125000  -5.399812e+001  -1.338418e+002 
4131250000  -5.308287e+001  -1.309636e+002 
4134375000  -5.130245e+001  -1.540645e+002 
4137500000  -5.199417e+001  -1.728332e+002 
4140625000  -5.377422e+001  1.667493e+002 
4143750000  -5.383472e+001  1.716211e+002 
4146875000  -5.466709e+001  1.653763e+002 
4150000000  -5.410537e+001  1.570701e+002 
4153125000  -5.448717e+001  1.393653e+002 
4156250000  -5.452228e+001  1.163330e+002 
4159375000  -5.505956e+001  1.294843e+002 
4162500000  -5.561305e+001  1.126639e+002 
4165625000  -5.473748e+001  1.067241e+002 
4168750000  -5.500325e+001  9.314404e+001 
4171875000  -5.500087e+001  7.509089e+001 
4175000000  -5.553612e+001  5.963996e+001 
4178125000  -5.923251e+001  6.305735e+001 
4181250000  -5.617196e+001  5.146314e+001 
4184375000  -5.936097e+001  2.785607e+001 
4187500000  -5.849398e+001  2.804464e+001 
4190625000  -6.071112e+001  3.251451e+001 
4193750000  -6.083509e+001  7.346735e+000 
4196875000  -6.278519e+001  -1.305601e+001 
4200000000  -6.226152e+001  1.124662e+001 
4203125000  -6.170361e+001  -8.410001e+000 
4206250000  -5.922892e+001  3.256811e+001 
4209375000  -6.068993e+001  -9.391913e+000 
4212500000  -6.003463e+001  -3.141061e+000 
4215625000  -6.386147e+001  -1.693550e+001 
4218750000  -6.225938e+001  -2.460026e+001 
4221875000  -6.072871e+001  -3.503668e+001 
4225000000  -5.892526e+001  7.397198e+000 
4228125000  -5.923959e+001  -5.239628e+001 
4231250000  -6.145525e+001  -3.652985e+001 
4234375000  -6.040453e+001  -3.301590e+001 
4237500000  -5.761465e+001  -5.251156e+001 
4240625000  -5.607198e+001  -6.675322e+001 
4243750000  -6.000423e+001  -6.920245e+001 
4246875000  -5.577857e+001  -6.304333e+001 
4250000000  -5.755984e+001  -7.977524e+001 
4253125000  -5.684677e+001  -9.424117e+001 
4256250000  -5.752288e+001  -9.885644e+001 
4259375000  -5.397224e+001  -1.075697e+002 
4262500000  -5.387716e+001  -1.301974e+002 
4265625000  -5.380046e+001  -1.218656e+002 
4268750000  -5.284048e+001  -1.525210e+002 
4271875000  -5.232056e+001  -1.576941e+002 
4275000000  -5.238192e+001  1.765358e+002 
4278125000  -5.308768e+001  1.610918e+002 
4281250000  -5.495645e+001  1.655768e+002 
4284375000  -5.352066e+001  1.568817e+002 
4287500000  -5.509031e+001  1.429259e+002 
4290625000  -5.605651e+001  1.578211e+002 
4293750000  -5.292190e+001  1.357741e+002 
4296875000  -5.388142e+001  1.087920e+002 
4300000000  -5.451245e+001  1.082106e+002 
4303125000  -5.291777e+001  9.812313e+001 
4306250000  -5.343234e+001  9.474522e+001 
4309375000  -5.232371e+001  7.580039e+001 
4312500000  -5.308380e+001  6.222578e+001 
4315625000  -5.156798e+001  4.957200e+001 
4318750000  -5.351838e+001  4.010211e+001 
4321875000  -5.347312e+001  2.471748e+001 
4325000000  -5.381392e+001  2.587914e+001 
4328125000  -5.139209e+001  7.067099e+000 
4331250000  -5.352784e+001  -1.642160e+001 
4334375000  -5.525681e+001  -2.227697e+001 
4337500000  -5.578808e+001  -4.438852e+001 
4340625000  -5.467717e+001  -2.081696e+001 
4343750000  -5.404520e+001  -4.515834e+001 
4346875000  -5.598713e+001  -5.393488e+001 
4350000000  -5.587239e+001  -6.314508e+001 
4353125000  -5.554791e+001  -6.524595e+001 
4356250000  -5.724873e+001  -6.762679e+001 
4359375000  -5.681240e+001  -6.349131e+001 
4362500000  -5.726778e+001  -7.985033e+001 
4365625000  -5.621349e+001  -1.048362e+002 
4368750000  -5.598795e+001  -1.005774e+002 
4371875000  -5.607384e+001  -1.267752e+002 
4375000000  -5.590903e+001  -1.220881e+002 
4378125000  -5.696752e+001  -1.312312e+002 
4381250000  -5.828706e+001  -1.392555e+002 
4384375000  -5.650227e+001  -1.389443e+002 
4387500000  -5.769561e+001  -1.571065e+002 
4390625000  -5.763359e+001  -1.641434e+002 
4393750000  -5.746942e+001  -1.458333e+002 
4396875000  -5.607295e+001  -1.621651e+002 
4400000000  -5.585294e+001  1.773455e+002 
4403125000  -5.561173e+001  1.726525e+002 
4406250000  -5.834939e+001  1.636996e+002 
4409375000  -5.669751e+001  1.600658e+002 
4412500000  -5.850226e+001  1.653132e+002 
4415625000  -5.506769e+001  1.590603e+002 
4418750000  -5.369312e+001  1.531202e+002 
