!Agilent Technologies,E8363B,MY43030201,A.06.04.32
!Agilent E8363B: A.06.04.32
!Date: Tuesday, November 11, 2014 22:11:46
!Correction: S21(Response(S21)) 
!S1P File: Measurement: S21:
# Hz S  dB   R 50
3000000000  -4.886086e+001  -7.464550e+001 
3003125000  -5.099281e+001  -8.214465e+001 
3006250000  -5.191113e+001  -8.848182e+001 
3009375000  -5.231163e+001  -9.007040e+001 
3012500000  -5.169433e+001  -1.006526e+002 
3015625000  -5.068725e+001  -1.110547e+002 
3018750000  -5.111269e+001  -1.133076e+002 
3021875000  -4.981486e+001  -1.162680e+002 
3025000000  -4.866445e+001  -1.290883e+002 
3028125000  -4.800263e+001  -1.445903e+002 
3031250000  -4.723978e+001  -1.638533e+002 
3034375000  -4.712589e+001  1.794766e+002 
3037500000  -4.798890e+001  1.644950e+002 
3040625000  -4.925966e+001  1.517010e+002 
3043750000  -4.970269e+001  1.403001e+002 
3046875000  -5.046376e+001  1.275918e+002 
3050000000  -5.147540e+001  1.220287e+002 
3053125000  -5.147416e+001  1.229947e+002 
3056250000  -5.130592e+001  1.241349e+002 
3059375000  -5.075061e+001  1.112205e+002 
3062500000  -4.919596e+001  1.006220e+002 
3065625000  -4.929740e+001  8.715258e+001 
3068750000  -4.925001e+001  7.616618e+001 
3071875000  -4.943827e+001  6.785786e+001 
3075000000  -4.859047e+001  5.469900e+001 
3078125000  -4.877439e+001  4.615535e+001 
3081250000  -4.873905e+001  3.365617e+001 
3084375000  -4.807366e+001  2.577792e+001 
3087500000  -4.842133e+001  1.233942e+001 
3090625000  -4.812108e+001  -5.135159e+000 
3093750000  -4.876022e+001  -1.472804e+001 
3096875000  -4.916703e+001  -2.537380e+001 
3100000000  -4.921697e+001  -3.478257e+001 
3103125000  -4.958801e+001  -4.157716e+001 
3106250000  -4.892216e+001  -4.958741e+001 
3109375000  -4.935984e+001  -5.891999e+001 
3112500000  -4.917896e+001  -6.989532e+001 
3115625000  -4.937194e+001  -7.784777e+001 
3118750000  -4.924637e+001  -8.668026e+001 
3121875000  -4.933170e+001  -1.015794e+002 
3125000000  -5.140899e+001  -1.078780e+002 
3128125000  -5.058728e+001  -1.077403e+002 
3131250000  -4.843169e+001  -1.180811e+002 
3134375000  -4.750178e+001  -1.415334e+002 
3137500000  -4.845313e+001  -1.574663e+002 
3140625000  -4.978772e+001  -1.619749e+002 
3143750000  -5.036696e+001  -1.697276e+002 
3146875000  -5.022561e+001  -1.718207e+002 
3150000000  -4.884259e+001  1.740139e+002 
3153125000  -4.926230e+001  1.655036e+002 
3156250000  -5.040206e+001  1.660587e+002 
3159375000  -4.774347e+001  1.590749e+002 
3162500000  -4.620829e+001  1.329759e+002 
3165625000  -4.774456e+001  1.215107e+002 
3168750000  -4.828593e+001  1.169572e+002 
3171875000  -4.751978e+001  1.002528e+002 
3175000000  -4.716916e+001  8.893878e+001 
3178125000  -4.714046e+001  8.141191e+001 
3181250000  -4.691759e+001  6.652279e+001 
3184375000  -4.632875e+001  4.930215e+001 
3187500000  -4.783954e+001  3.375208e+001 
3190625000  -4.978446e+001  2.369068e+001 
3193750000  -5.005276e+001  1.824490e+001 
3196875000  -4.959245e+001  1.586928e+001 
3200000000  -4.831396e+001  8.665702e+000 
3203125000  -4.824163e+001  -4.124617e+000 
3206250000  -4.851863e+001  -1.757970e+001 
3209375000  -4.791568e+001  -3.271029e+001 
3212500000  -4.860226e+001  -3.895280e+001 
3215625000  -4.861669e+001  -4.636384e+001 
3218750000  -4.927552e+001  -6.402267e+001 
3221875000  -4.957146e+001  -7.611645e+001 
3225000000  -4.956073e+001  -8.492868e+001 
3228125000  -4.984262e+001  -9.577429e+001 
3231250000  -5.095378e+001  -1.063057e+002 
3234375000  -5.018925e+001  -1.105865e+002 
3237500000  -5.000865e+001  -1.209505e+002 
3240625000  -5.016851e+001  -1.285237e+002 
3243750000  -4.989133e+001  -1.488675e+002 
3246875000  -5.055384e+001  -1.575719e+002 
3250000000  -5.074601e+001  -1.659639e+002 
3253125000  -5.113706e+001  -1.750168e+002 
3256250000  -5.080235e+001  1.708659e+002 
3259375000  -5.128275e+001  1.562731e+002 
3262500000  -5.222361e+001  1.552548e+002 
3265625000  -5.292822e+001  1.443720e+002 
3268750000  -5.410085e+001  1.466224e+002 
3271875000  -5.210721e+001  1.367490e+002 
3275000000  -5.224022e+001  1.268897e+002 
3278125000  -5.251007e+001  1.091574e+002 
3281250000  -5.278776e+001  1.044497e+002 
3284375000  -5.234367e+001  9.498757e+001 
3287500000  -5.398988e+001  8.460081e+001 
3290625000  -5.361992e+001  6.867645e+001 
3293750000  -5.370309e+001  6.523390e+001 
3296875000  -5.376746e+001  5.191479e+001 
3300000000  -5.484217e+001  4.768305e+001 
3303125000  -5.264657e+001  4.049604e+001 
3306250000  -5.272948e+001  2.647301e+001 
3309375000  -5.282208e+001  1.694641e+001 
3312500000  -5.381095e+001  6.706407e-001 
3315625000  -5.539195e+001  -9.768538e+000 
3318750000  -5.650417e+001  -2.318699e+001 
3321875000  -5.736837e+001  -1.434250e+001 
3325000000  -5.658561e+001  -2.349307e+001 
3328125000  -5.766988e+001  -2.750319e+001 
3331250000  -5.414513e+001  -3.132052e+001 
3334375000  -5.282580e+001  -5.432449e+001 
3337500000  -5.247776e+001  -7.562345e+001 
3340625000  -5.347258e+001  -8.614846e+001 
3343750000  -5.710199e+001  -9.141267e+001 
3346875000  -5.696692e+001  -9.047800e+001 
3350000000  -5.439323e+001  -1.011126e+002 
3353125000  -5.512762e+001  -1.200315e+002 
3356250000  -5.386376e+001  -1.304660e+002 
3359375000  -5.513834e+001  -1.494021e+002 
3362500000  -5.657498e+001  -1.532176e+002 
3365625000  -5.721122e+001  -1.586048e+002 
3368750000  -5.670892e+001  -1.752169e+002 
3371875000  -5.603361e+001  1.703120e+002 
3375000000  -5.820618e+001  1.657770e+002 
3378125000  -5.841581e+001  1.623049e+002 
3381250000  -6.000930e+001  1.715073e+002 
3384375000  -5.804268e+001  -1.694299e+002 
3387500000  -5.395168e+001  1.540557e+002 
3390625000  -5.906664e+001  1.300791e+002 
3393750000  -5.712144e+001  1.233489e+002 
3396875000  -5.701458e+001  1.093839e+002 
3400000000  -5.663588e+001  8.903811e+001 
3403125000  -5.900951e+001  8.256885e+001 
3406250000  -5.620194e+001  7.378387e+001 
3409375000  -5.632520e+001  5.647636e+001 
3412500000  -5.704636e+001  6.595614e+001 
3415625000  -6.218833e+001  4.609535e+001 
3418750000  -5.911647e+001  4.064487e+001 
3421875000  -5.876767e+001  2.611885e+001 
3425000000  -5.888601e+001  2.469517e+001 
3428125000  -5.980513e+001  5.535974e+000 
3431250000  -6.018897e+001  -1.340893e+001 
3434375000  -6.001886e+001  -2.540419e+001 
3437500000  -6.124691e+001  -2.570431e+001 
3440625000  -6.177457e+001  -2.520621e+001 
3443750000  -6.271737e+001  -3.837363e+001 
3446875000  -6.123951e+001  -4.668204e+001 
3450000000  -6.245778e+001  -8.326353e+001 
3453125000  -6.407891e+001  -8.133117e+001 
3456250000  -6.355214e+001  -1.099068e+002 
3459375000  -6.425625e+001  -8.124998e+001 
3462500000  -6.750723e+001  -9.793993e+001 
3465625000  -6.692256e+001  -8.407366e+001 
3468750000  -6.588687e+001  -1.136510e+002 
3471875000  -6.625732e+001  -1.185056e+002 
3475000000  -6.375286e+001  -1.138382e+002 
3478125000  -6.815117e+001  -1.222165e+002 
3481250000  -7.712031e+001  -1.372693e+002 
3484375000  -6.587080e+001  -1.331353e+002 
3487500000  -6.620437e+001  -1.346426e+002 
3490625000  -6.798430e+001  -1.014516e+002 
3493750000  -6.841614e+001  -1.717509e+002 
3496875000  -7.039254e+001  1.660207e+002 
3500000000  -6.685831e+001  -1.739179e+002 
3503125000  -8.994926e+001  9.892338e+001 
3506250000  -6.463502e+001  1.638770e+002 
3509375000  -6.448289e+001  1.653310e+002 
3512500000  -6.551109e+001  1.612664e+002 
3515625000  -6.380370e+001  1.692785e+002 
3518750000  -6.478120e+001  1.444504e+002 
3521875000  -6.875414e+001  1.102765e+002 
3525000000  -7.081275e+001  9.634367e+001 
3528125000  -6.533719e+001  1.039246e+002 
3531250000  -6.618035e+001  1.369016e+002 
3534375000  -6.628696e+001  1.088251e+002 
3537500000  -6.771468e+001  7.126778e+001 
3540625000  -6.701466e+001  7.945865e+001 
3543750000  -6.888324e+001  1.001717e+002 
3546875000  -6.454474e+001  4.759601e+001 
3550000000  -6.589116e+001  1.219687e+002 
3553125000  -7.316868e+001  1.842830e+001 
3556250000  -7.350450e+001  1.040390e+002 
3559375000  -6.516203e+001  2.210926e+001 
3562500000  -7.808707e+001  1.340018e+001 
3565625000  -8.003071e+001  2.742501e+001 
3568750000  -7.352202e+001  3.150141e+001 
3571875000  -7.333201e+001  1.509625e+001 
3575000000  -8.024313e+001  2.998351e+001 
3578125000  -7.020656e+001  4.413902e+001 
3581250000  -6.675278e+001  1.530747e+001 
3584375000  -7.455656e+001  1.012302e+002 
3587500000  -6.627590e+001  -4.584159e-001 
3590625000  -6.878366e+001  2.002312e+001 
3593750000  -6.773094e+001  2.463781e+001 
3596875000  -6.951955e+001  9.960337e+000 
3600000000  -6.393093e+001  -2.421976e+001 
3603125000  -6.508597e+001  -1.161404e+001 
3606250000  -6.500085e+001  -3.532467e+001 
3609375000  -6.281320e+001  -2.173616e+001 
3612500000  -6.128188e+001  -4.376375e+001 
3615625000  -7.257216e+001  -7.185676e+001 
3618750000  -6.406231e+001  -7.603611e+001 
3621875000  -6.642571e+001  -9.155069e+001 
3625000000  -6.303471e+001  -7.771464e+001 
3628125000  -6.339260e+001  -1.026340e+002 
3631250000  -6.323331e+001  -1.018127e+002 
3634375000  -6.631859e+001  -1.285807e+002 
3637500000  -6.604157e+001  -1.174099e+002 
3640625000  -6.095378e+001  -1.360175e+002 
3643750000  -6.499230e+001  -1.435623e+002 
3646875000  -6.158535e+001  1.752090e+002 
3650000000  -6.492698e+001  -1.752401e+002 
3653125000  -6.252468e+001  1.635105e+002 
3656250000  -6.511762e+001  1.529268e+002 
3659375000  -6.307519e+001  1.624028e+002 
3662500000  -6.265902e+001  1.394001e+002 
3665625000  -6.379050e+001  1.604321e+002 
3668750000  -6.124992e+001  1.159408e+002 
3671875000  -6.380220e+001  1.063474e+002 
3675000000  -6.032012e+001  1.082527e+002 
3678125000  -6.288116e+001  1.132414e+002 
3681250000  -6.362236e+001  9.990379e+001 
3684375000  -6.630180e+001  9.571953e+001 
3687500000  -6.882941e+001  8.028917e+001 
3690625000  -7.086961e+001  6.408866e+001 
3693750000  -6.654593e+001  1.007238e+002 
3696875000  -6.873717e+001  9.707173e+001 
3700000000  -6.808604e+001  7.568133e+001 
3703125000  -6.788611e+001  3.568396e+001 
3706250000  -6.499330e+001  4.148186e+001 
3709375000  -6.451854e+001  5.354467e+001 
3712500000  -6.344443e+001  5.859001e+001 
3715625000  -6.332426e+001  4.578202e+001 
3718750000  -6.332719e+001  4.755334e+001 
3721875000  -6.189380e+001  7.819610e+000 
3725000000  -6.067400e+001  4.873805e+000 
3728125000  -6.026862e+001  3.645704e+000 
3731250000  -5.983271e+001  -1.226375e+001 
3734375000  -5.919480e+001  -2.875458e+001 
3737500000  -5.772139e+001  -3.315388e+001 
3740625000  -6.037374e+001  -3.131831e+001 
3743750000  -5.947855e+001  -6.608951e+001 
3746875000  -5.761017e+001  -5.689406e+001 
3750000000  -5.851335e+001  -8.141358e+001 
3753125000  -5.928534e+001  -8.960995e+001 
3756250000  -5.871349e+001  -9.816081e+001 
3759375000  -5.722728e+001  -1.047696e+002 
3762500000  -5.748299e+001  -1.117092e+002 
3765625000  -5.923449e+001  -1.227767e+002 
3768750000  -5.730130e+001  -1.426640e+002 
3771875000  -5.636935e+001  -1.464676e+002 
3775000000  -5.673212e+001  -1.710469e+002 
3778125000  -5.641812e+001  -1.744960e+002 
3781250000  -5.611979e+001  1.779449e+002 
3784375000  -5.742288e+001  1.594196e+002 
3787500000  -5.727072e+001  1.561290e+002 
3790625000  -5.735620e+001  1.420572e+002 
3793750000  -5.660539e+001  1.319943e+002 
3796875000  -5.692424e+001  1.194116e+002 
3800000000  -5.317260e+001  8.418750e+001 
3803125000  -5.676073e+001  9.178414e+001 
3806250000  -5.907387e+001  7.619126e+001 
3809375000  -5.615746e+001  8.036240e+001 
3812500000  -5.761368e+001  6.077662e+001 
3815625000  -6.022424e+001  5.685578e+001 
3818750000  -6.282141e+001  1.515548e+001 
3821875000  -6.178731e+001  5.154413e+001 
3825000000  -6.173255e+001  5.822525e+001 
3828125000  -5.960352e+001  3.889230e+001 
3831250000  -5.918844e+001  3.926995e+000 
3834375000  -6.595448e+001  3.257260e+000 
3837500000  -6.196014e+001  -5.282508e+000 
3840625000  -6.169451e+001  1.651245e+001 
3843750000  -6.259391e+001  -9.671276e+000 
3846875000  -6.001950e+001  -2.245003e+001 
3850000000  -6.114669e+001  3.213969e+000 
3853125000  -6.313334e+001  -5.945332e+000 
3856250000  -6.252370e+001  4.945921e+000 
3859375000  -6.157641e+001  -3.905936e+001 
3862500000  -6.111323e+001  -4.307480e+001 
3865625000  -6.155436e+001  -6.638258e+001 
3868750000  -6.135266e+001  -4.085470e+001 
3871875000  -5.635290e+001  -5.986491e+001 
3875000000  -6.060476e+001  -6.403358e+001 
3878125000  -5.954640e+001  -9.217267e+001 
3881250000  -5.781346e+001  -7.883804e+001 
3884375000  -5.534154e+001  -9.816103e+001 
3887500000  -5.580322e+001  -1.188435e+002 
3890625000  -5.847935e+001  -1.318367e+002 
3893750000  -5.546007e+001  -1.430682e+002 
3896875000  -5.904142e+001  -1.326032e+002 
3900000000  -5.570256e+001  -1.453785e+002 
3903125000  -5.552264e+001  -1.482009e+002 
3906250000  -5.419939e+001  -1.646633e+002 
3909375000  -5.370567e+001  1.692845e+002 
3912500000  -5.470811e+001  1.656892e+002 
3915625000  -5.685199e+001  1.599760e+002 
3918750000  -5.632666e+001  1.482682e+002 
3921875000  -5.414795e+001  1.418856e+002 
3925000000  -5.431762e+001  1.251719e+002 
3928125000  -5.344936e+001  1.080161e+002 
3931250000  -5.462216e+001  1.076462e+002 
3934375000  -5.408998e+001  8.389749e+001 
3937500000  -5.526784e+001  7.727758e+001 
3940625000  -5.604156e+001  7.913174e+001 
3943750000  -5.356895e+001  6.204741e+001 
3946875000  -5.339901e+001  4.778391e+001 
3950000000  -5.546999e+001  3.567607e+001 
3953125000  -5.489586e+001  2.827498e+001 
3956250000  -5.460566e+001  2.382320e+001 
3959375000  -5.253930e+001  1.259850e+001 
3962500000  -5.310617e+001  -5.622042e+000 
3965625000  -5.379778e+001  -2.161428e+001 
3968750000  -5.423354e+001  -3.240585e+001 
3971875000  -5.424907e+001  -4.048478e+001 
3975000000  -5.379626e+001  -5.361276e+001 
3978125000  -5.563865e+001  -5.796367e+001 
3981250000  -5.382972e+001  -8.330038e+001 
3984375000  -5.634521e+001  -8.311794e+001 
3987500000  -5.480958e+001  -9.284839e+001 
3990625000  -5.621811e+001  -9.920251e+001 
3993750000  -5.696161e+001  -1.104251e+002 
3996875000  -5.921618e+001  -1.174471e+002 
4000000000  -5.773762e+001  -1.113044e+002 
4003125000  -5.997212e+001  -1.275177e+002 
4006250000  -5.711784e+001  -1.429398e+002 
4009375000  -5.567665e+001  -1.526239e+002 
4012500000  -5.748904e+001  -1.623915e+002 
4015625000  -6.164248e+001  -1.541403e+002 
4018750000  -6.017062e+001  -1.718236e+002 
4021875000  -6.110927e+001  -1.743866e+002 
4025000000  -5.902891e+001  1.729195e+002 
4028125000  -5.941795e+001  1.703650e+002 
4031250000  -6.043261e+001  1.661771e+002 
4034375000  -6.040578e+001  1.673650e+002 
4037500000  -5.891824e+001  1.475818e+002 
4040625000  -6.028199e+001  1.248969e+002 
4043750000  -5.922424e+001  1.551208e+002 
4046875000  -5.958571e+001  1.356241e+002 
4050000000  -5.604771e+001  1.184101e+002 
4053125000  -5.832536e+001  1.160539e+002 
4056250000  -5.985751e+001  1.310464e+002 
4059375000  -5.681077e+001  1.012448e+002 
4062500000  -5.406799e+001  9.480350e+001 
4065625000  -5.425666e+001  7.936804e+001 
4068750000  -5.507689e+001  7.358281e+001 
4071875000  -5.328218e+001  6.080151e+001 
4075000000  -5.270264e+001  4.440487e+001 
4078125000  -5.445593e+001  3.343882e+001 
4081250000  -5.214019e+001  3.081104e+001 
4084375000  -5.262444e+001  1.277839e+001 
4087500000  -5.373339e+001  -1.095473e+001 
4090625000  -5.292019e+001  -1.788622e+000 
4093750000  -5.447225e+001  -2.393184e+001 
4096875000  -5.322258e+001  -2.968634e+001 
4100000000  -5.321551e+001  -5.166563e+001 
4103125000  -5.442569e+001  -5.212138e+001 
4106250000  -5.389518e+001  -5.715137e+001 
4109375000  -5.335182e+001  -5.480829e+001 
4112500000  -5.226010e+001  -8.211603e+001 
4115625000  -5.435163e+001  -9.324160e+001 
4118750000  -5.237788e+001  -9.696852e+001 
4121875000  -5.325964e+001  -1.133268e+002 
4125000000  -5.351493e+001  -1.265307e+002 
4128125000  -5.635621e+001  -1.346627e+002 
4131250000  -5.343345e+001  -1.258341e+002 
4134375000  -5.165918e+001  -1.526751e+002 
4137500000  -5.186805e+001  -1.622644e+002 
4140625000  -5.384789e+001  1.645105e+002 
4143750000  -5.590182e+001  1.662307e+002 
4146875000  -5.460672e+001  1.683900e+002 
4150000000  -5.427976e+001  1.555983e+002 
4153125000  -5.383500e+001  1.431108e+002 
4156250000  -5.636558e+001  1.235252e+002 
4159375000  -5.575819e+001  1.377652e+002 
4162500000  -5.435212e+001  1.166630e+002 
4165625000  -5.470395e+001  1.164556e+002 
4168750000  -5.423214e+001  8.433445e+001 
4171875000  -5.496973e+001  6.747914e+001 
4175000000  -5.526350e+001  6.355067e+001 
4178125000  -5.912088e+001  7.603951e+001 
4181250000  -5.862782e+001  3.572267e+001 
4184375000  -5.965071e+001  4.123948e+001 
4187500000  -6.180394e+001  3.025606e+001 
4190625000  -5.906310e+001  2.501719e+001 
4193750000  -6.131114e+001  2.019793e+001 
4196875000  -6.167281e+001  1.028517e+001 
4200000000  -6.509869e+001  2.281812e+001 
4203125000  -6.636605e+001  1.565172e+001 
4206250000  -5.856986e+001  8.607543e+000 
4209375000  -6.368586e+001  -1.369071e+001 
4212500000  -6.231236e+001  -1.274993e+000 
4215625000  -6.686226e+001  -4.812515e+000 
4218750000  -6.495708e+001  1.088780e+001 
4221875000  -6.283198e+001  -3.093817e+001 
4225000000  -5.949831e+001  -2.639382e+000 
4228125000  -6.024487e+001  -1.926705e+001 
4231250000  -6.232595e+001  -1.422741e+001 
4234375000  -5.717784e+001  -3.670638e+001 
4237500000  -5.600887e+001  -3.769804e+001 
4240625000  -5.483551e+001  -6.112726e+001 
4243750000  -5.807841e+001  -6.676405e+001 
4246875000  -5.537225e+001  -7.528394e+001 
4250000000  -5.709973e+001  -8.502216e+001 
4253125000  -5.566330e+001  -7.949294e+001 
4256250000  -5.423945e+001  -1.010140e+002 
4259375000  -5.499132e+001  -1.092774e+002 
4262500000  -5.777034e+001  -1.209833e+002 
4265625000  -5.377151e+001  -1.255761e+002 
4268750000  -5.328172e+001  -1.569301e+002 
4271875000  -5.223579e+001  -1.596312e+002 
4275000000  -5.226963e+001  -1.727236e+002 
4278125000  -5.418280e+001  1.701869e+002 
4281250000  -5.289290e+001  1.487615e+002 
4284375000  -5.355729e+001  1.581245e+002 
4287500000  -5.384065e+001  1.448154e+002 
4290625000  -5.569678e+001  1.513426e+002 
4293750000  -5.275758e+001  1.442999e+002 
4296875000  -5.197207e+001  1.096657e+002 
4300000000  -5.277163e+001  1.003275e+002 
4303125000  -5.274302e+001  1.049999e+002 
4306250000  -5.270919e+001  9.660211e+001 
4309375000  -5.254458e+001  7.994542e+001 
4312500000  -5.237090e+001  6.719467e+001 
4315625000  -5.259242e+001  5.115902e+001 
4318750000  -5.321313e+001  4.060447e+001 
4321875000  -5.202185e+001  3.886187e+001 
4325000000  -5.225135e+001  2.858596e+001 
4328125000  -5.164028e+001  1.536051e+001 
4331250000  -5.398386e+001  -2.944599e+000 
4334375000  -5.342155e+001  -1.717476e+001 
4337500000  -5.582884e+001  -3.106858e+001 
4340625000  -5.475622e+001  -3.470404e+001 
4343750000  -5.640830e+001  -3.311777e+001 
4346875000  -5.350092e+001  -4.638529e+001 
4350000000  -5.597548e+001  -6.156181e+001 
4353125000  -5.544577e+001  -6.302244e+001 
4356250000  -5.737708e+001  -7.039098e+001 
4359375000  -5.723594e+001  -3.761757e+001 
4362500000  -5.764534e+001  -7.686224e+001 
4365625000  -5.664119e+001  -1.043625e+002 
4368750000  -5.732241e+001  -1.034399e+002 
4371875000  -5.866032e+001  -1.061361e+002 
4375000000  -5.677219e+001  -1.132936e+002 
4378125000  -5.699135e+001  -1.122546e+002 
4381250000  -5.690548e+001  -1.259502e+002 
4384375000  -5.761673e+001  -1.409922e+002 
4387500000  -5.627519e+001  -1.440594e+002 
4390625000  -5.773538e+001  -1.601377e+002 
4393750000  -5.858379e+001  -1.537604e+002 
4396875000  -5.415130e+001  -1.657625e+002 
4400000000  -5.690153e+001  -1.603672e+002 
4403125000  -5.749161e+001  1.702874e+002 
4406250000  -5.716825e+001  1.776137e+002 
4409375000  -5.501019e+001  -1.773309e+002 
4412500000  -5.741570e+001  1.672097e+002 
4415625000  -5.688603e+001  1.660415e+002 
4418750000  -5.423361e+001  1.564512e+002 
