!Agilent Technologies,E8363B,MY43030201,A.06.04.32
!Agilent E8363B: A.06.04.32
!Date: Tuesday, November 11, 2014 22:10:18
!Correction: S21(Response(S21)) 
!S1P File: Measurement: S21:
# Hz S  dB   R 50
3000000000  -4.887666e+001  -7.343803e+001 
3003125000  -5.171114e+001  -8.273267e+001 
3006250000  -5.160771e+001  -9.028349e+001 
3009375000  -5.238675e+001  -8.975819e+001 
3012500000  -5.113593e+001  -9.945516e+001 
3015625000  -5.160164e+001  -1.117711e+002 
3018750000  -5.170509e+001  -1.190183e+002 
3021875000  -4.988929e+001  -1.178728e+002 
3025000000  -4.881891e+001  -1.279752e+002 
3028125000  -4.779149e+001  -1.475770e+002 
3031250000  -4.744477e+001  -1.638366e+002 
3034375000  -4.700773e+001  1.793360e+002 
3037500000  -4.808020e+001  1.632776e+002 
3040625000  -4.906705e+001  1.533253e+002 
3043750000  -4.937945e+001  1.393062e+002 
3046875000  -5.075616e+001  1.321823e+002 
3050000000  -5.112769e+001  1.230258e+002 
3053125000  -5.109134e+001  1.204554e+002 
3056250000  -5.148414e+001  1.162674e+002 
3059375000  -5.087175e+001  1.110284e+002 
3062500000  -4.959971e+001  9.887383e+001 
3065625000  -4.870955e+001  8.279890e+001 
3068750000  -4.902240e+001  7.326447e+001 
3071875000  -4.910363e+001  6.777130e+001 
3075000000  -4.870390e+001  5.349293e+001 
3078125000  -4.841320e+001  4.356739e+001 
3081250000  -4.876112e+001  3.113487e+001 
3084375000  -4.810369e+001  2.398942e+001 
3087500000  -4.779369e+001  9.442117e+000 
3090625000  -4.811160e+001  -6.033450e+000 
3093750000  -4.924721e+001  -1.847385e+001 
3096875000  -4.954803e+001  -2.466147e+001 
3100000000  -4.938588e+001  -3.579541e+001 
3103125000  -4.953051e+001  -4.157047e+001 
3106250000  -4.889966e+001  -4.845095e+001 
3109375000  -4.996009e+001  -6.062466e+001 
3112500000  -4.942134e+001  -7.158250e+001 
3115625000  -4.930927e+001  -7.826579e+001 
3118750000  -4.929813e+001  -8.649814e+001 
3121875000  -4.911486e+001  -9.860342e+001 
3125000000  -5.067857e+001  -1.081036e+002 
3128125000  -5.081069e+001  -1.049134e+002 
3131250000  -4.805713e+001  -1.190309e+002 
3134375000  -4.745517e+001  -1.419797e+002 
3137500000  -4.918807e+001  -1.537986e+002 
3140625000  -4.997686e+001  -1.618632e+002 
3143750000  -5.066097e+001  -1.676710e+002 
3146875000  -4.959159e+001  -1.733158e+002 
3150000000  -4.906766e+001  1.790187e+002 
3153125000  -4.950854e+001  1.652741e+002 
3156250000  -5.023528e+001  1.628062e+002 
3159375000  -4.778347e+001  1.579271e+002 
3162500000  -4.616436e+001  1.330504e+002 
3165625000  -4.728997e+001  1.210273e+002 
3168750000  -4.802199e+001  1.140508e+002 
3171875000  -4.708625e+001  1.011351e+002 
3175000000  -4.781570e+001  8.316541e+001 
3178125000  -4.737686e+001  8.127113e+001 
3181250000  -4.659158e+001  6.542080e+001 
3184375000  -4.645307e+001  5.085167e+001 
3187500000  -4.764960e+001  3.218005e+001 
3190625000  -4.968302e+001  2.151105e+001 
3193750000  -5.002673e+001  2.058786e+001 
3196875000  -4.984109e+001  1.605608e+001 
3200000000  -4.809087e+001  8.661906e+000 
3203125000  -4.859251e+001  -6.428297e+000 
3206250000  -4.848568e+001  -1.654295e+001 
3209375000  -4.767289e+001  -3.232689e+001 
3212500000  -4.907969e+001  -4.449988e+001 
3215625000  -4.755209e+001  -4.687193e+001 
3218750000  -4.926921e+001  -6.752744e+001 
3221875000  -4.972993e+001  -7.605174e+001 
3225000000  -5.019317e+001  -8.884102e+001 
3228125000  -5.041423e+001  -9.564999e+001 
3231250000  -5.047896e+001  -1.073826e+002 
3234375000  -5.025124e+001  -1.115677e+002 
3237500000  -5.038610e+001  -1.227044e+002 
3240625000  -4.994334e+001  -1.311935e+002 
3243750000  -5.042829e+001  -1.438654e+002 
3246875000  -4.970372e+001  -1.576416e+002 
3250000000  -5.080111e+001  -1.677043e+002 
3253125000  -5.123317e+001  -1.738977e+002 
3256250000  -5.056055e+001  1.730684e+002 
3259375000  -5.124541e+001  1.540565e+002 
3262500000  -5.230190e+001  1.515954e+002 
3265625000  -5.348547e+001  1.411054e+002 
3268750000  -5.282175e+001  1.417006e+002 
3271875000  -5.237470e+001  1.310175e+002 
3275000000  -5.207661e+001  1.191731e+002 
3278125000  -5.177940e+001  1.077425e+002 
3281250000  -5.291963e+001  1.028677e+002 
3284375000  -5.147190e+001  9.273811e+001 
3287500000  -5.393508e+001  8.154961e+001 
3290625000  -5.403813e+001  7.209102e+001 
3293750000  -5.302751e+001  5.804990e+001 
3296875000  -5.386621e+001  5.358464e+001 
3300000000  -5.421767e+001  5.455145e+001 
3303125000  -5.263588e+001  3.487809e+001 
3306250000  -5.316858e+001  2.868530e+001 
3309375000  -5.319414e+001  2.048755e+001 
3312500000  -5.310083e+001  -1.644019e+000 
3315625000  -5.457181e+001  -1.539891e+001 
3318750000  -5.493438e+001  -2.697834e+001 
3321875000  -5.692080e+001  -3.481414e+001 
3325000000  -5.758430e+001  -2.830118e+001 
3328125000  -5.606272e+001  -2.778553e+001 
3331250000  -5.369561e+001  -2.416519e+001 
3334375000  -5.226121e+001  -4.554907e+001 
3337500000  -5.257369e+001  -7.122268e+001 
3340625000  -5.588412e+001  -8.462529e+001 
3343750000  -5.608083e+001  -8.173080e+001 
3346875000  -5.498345e+001  -1.015413e+002 
3350000000  -5.516993e+001  -1.009671e+002 
3353125000  -5.548550e+001  -1.159949e+002 
3356250000  -5.396467e+001  -1.296849e+002 
3359375000  -5.416730e+001  -1.468308e+002 
3362500000  -5.653618e+001  -1.537772e+002 
3365625000  -5.693449e+001  -1.626662e+002 
3368750000  -5.597109e+001  -1.677151e+002 
3371875000  -5.742658e+001  1.775176e+002 
3375000000  -5.711233e+001  1.657605e+002 
3378125000  -5.995483e+001  1.600809e+002 
3381250000  -5.954914e+001  1.617892e+002 
3384375000  -5.635146e+001  1.779914e+002 
3387500000  -5.366362e+001  1.472540e+002 
3390625000  -5.568307e+001  1.249044e+002 
3393750000  -5.743867e+001  1.203146e+002 
3396875000  -5.746923e+001  1.160686e+002 
3400000000  -5.462756e+001  8.845190e+001 
3403125000  -5.607668e+001  8.386398e+001 
3406250000  -5.788981e+001  8.138023e+001 
3409375000  -5.725911e+001  4.373822e+001 
3412500000  -5.706152e+001  4.512620e+001 
3415625000  -6.015138e+001  3.636755e+001 
3418750000  -5.872215e+001  3.555870e+001 
3421875000  -5.996229e+001  2.625970e+001 
3425000000  -5.861325e+001  2.581749e+001 
3428125000  -5.855382e+001  1.166222e+001 
3431250000  -6.162936e+001  2.519246e+000 
3434375000  -5.908530e+001  -3.867439e+001 
3437500000  -6.035153e+001  -2.710272e+001 
3440625000  -6.048338e+001  -2.592420e+001 
3443750000  -6.007527e+001  -1.728877e+001 
3446875000  -6.133166e+001  -4.335168e+001 
3450000000  -6.014507e+001  -6.949905e+001 
3453125000  -6.117144e+001  -6.170739e+001 
3456250000  -6.999028e+001  -1.038701e+002 
3459375000  -6.520281e+001  -7.248054e+001 
3462500000  -6.695445e+001  -9.437018e+001 
3465625000  -6.818876e+001  -1.412555e+002 
3468750000  -6.756203e+001  -1.135693e+002 
3471875000  -6.459685e+001  -1.107967e+002 
3475000000  -6.529063e+001  -1.371691e+002 
3478125000  -7.205270e+001  -1.003090e+002 
3481250000  -6.834118e+001  -1.741458e+002 
3484375000  -6.726437e+001  -1.351281e+002 
3487500000  -6.596064e+001  -1.100274e+002 
3490625000  -7.029453e+001  -1.533065e+002 
3493750000  -6.757896e+001  -1.408399e+002 
3496875000  -6.769288e+001  -1.350648e+002 
3500000000  -6.561032e+001  1.795406e+002 
3503125000  -6.313466e+001  -1.312302e+002 
3506250000  -6.414398e+001  -1.507294e+002 
3509375000  -6.744854e+001  1.635939e+002 
3512500000  -6.600114e+001  1.359427e+002 
3515625000  -6.630630e+001  1.118400e+002 
3518750000  -6.247831e+001  1.375801e+002 
3521875000  -6.547978e+001  1.129637e+002 
3525000000  -6.438013e+001  1.234565e+002 
3528125000  -6.901327e+001  1.080380e+002 
3531250000  -6.352487e+001  1.384227e+002 
3534375000  -6.704939e+001  6.326032e+001 
3537500000  -6.572315e+001  6.001203e+001 
3540625000  -6.795123e+001  6.230991e+001 
3543750000  -7.410796e+001  1.058456e+002 
3546875000  -6.794429e+001  7.788879e+001 
3550000000  -7.033778e+001  9.006049e+001 
3553125000  -6.698566e+001  6.831114e+001 
3556250000  -6.892401e+001  6.395161e+001 
3559375000  -6.958974e+001  1.230519e+001 
3562500000  -7.856913e+001  -4.141559e+001 
3565625000  -7.101561e+001  2.629439e+001 
3568750000  -7.301543e+001  1.306740e+002 
3571875000  -7.356864e+001  6.036600e+001 
3575000000  -7.328843e+001  -5.307915e+001 
3578125000  -6.775951e+001  2.413416e+001 
3581250000  -7.374960e+001  1.287820e+002 
3584375000  -7.668172e+001  -3.684818e+000 
3587500000  -7.091955e+001  -1.294452e+000 
3590625000  -7.105589e+001  2.438018e+001 
3593750000  -7.719075e+001  1.922034e+001 
3596875000  -6.817515e+001  3.540585e+001 
3600000000  -6.579280e+001  -2.374163e+001 
3603125000  -6.766069e+001  -6.721300e+001 
3606250000  -6.466270e+001  -3.527247e+001 
3609375000  -6.639954e+001  -4.917336e+001 
3612500000  -6.161462e+001  -6.474485e+001 
3615625000  -6.693487e+001  -8.344019e+001 
3618750000  -6.358115e+001  -6.679343e+001 
3621875000  -6.557195e+001  -8.069903e+001 
3625000000  -6.498482e+001  -6.894395e+001 
3628125000  -6.166071e+001  -1.226641e+002 
3631250000  -6.215226e+001  -1.153339e+002 
3634375000  -6.611734e+001  -1.086566e+002 
3637500000  -6.119446e+001  -1.083067e+002 
3640625000  -6.038968e+001  -1.407294e+002 
3643750000  -6.061584e+001  -1.572564e+002 
3646875000  -6.053702e+001  -1.792326e+002 
3650000000  -6.644673e+001  -1.726537e+002 
3653125000  -6.377207e+001  1.771215e+002 
3656250000  -6.437533e+001  1.690552e+002 
3659375000  -6.497421e+001  1.650906e+002 
3662500000  -6.279688e+001  1.633234e+002 
3665625000  -6.115842e+001  1.527193e+002 
3668750000  -6.295264e+001  1.196723e+002 
3671875000  -6.348406e+001  1.074318e+002 
3675000000  -6.428455e+001  1.029516e+002 
3678125000  -6.381045e+001  1.277592e+002 
3681250000  -6.222129e+001  9.916727e+001 
3684375000  -6.962289e+001  7.919588e+001 
3687500000  -6.937716e+001  8.973534e+001 
3690625000  -6.854025e+001  6.276120e+001 
3693750000  -6.484953e+001  8.780019e+001 
3696875000  -7.049856e+001  8.542105e+001 
3700000000  -6.371685e+001  8.004165e+001 
3703125000  -6.657474e+001  2.200936e+001 
3706250000  -6.849909e+001  5.480072e+001 
3709375000  -7.002190e+001  7.089907e+001 
3712500000  -6.419992e+001  7.202985e+001 
3715625000  -6.219968e+001  3.950661e+001 
3718750000  -6.079311e+001  2.488975e+001 
3721875000  -6.053418e+001  1.020813e+001 
3725000000  -6.299225e+001  2.007545e+001 
3728125000  -6.061604e+001  7.297414e+000 
3731250000  -5.932515e+001  -9.297223e+000 
3734375000  -6.109936e+001  -1.713626e+001 
3737500000  -6.061867e+001  -2.561106e+001 
3740625000  -5.785132e+001  -3.269889e+001 
3743750000  -5.780118e+001  -5.915846e+001 
3746875000  -6.037835e+001  -6.079638e+001 
3750000000  -5.795266e+001  -7.785440e+001 
3753125000  -5.864193e+001  -7.742889e+001 
3756250000  -5.739987e+001  -9.870510e+001 
3759375000  -6.045960e+001  -1.098349e+002 
3762500000  -5.790607e+001  -1.224195e+002 
3765625000  -5.831099e+001  -1.209359e+002 
3768750000  -5.675148e+001  -1.285859e+002 
3771875000  -5.639640e+001  -1.411571e+002 
3775000000  -5.512735e+001  -1.570088e+002 
3778125000  -5.746856e+001  1.731987e+002 
3781250000  -5.826738e+001  1.777115e+002 
3784375000  -5.678234e+001  1.778342e+002 
3787500000  -5.638890e+001  1.361483e+002 
3790625000  -5.678128e+001  1.338572e+002 
3793750000  -5.639898e+001  1.259747e+002 
3796875000  -5.687697e+001  1.265820e+002 
3800000000  -5.388095e+001  7.650523e+001 
3803125000  -5.861212e+001  9.062223e+001 
3806250000  -6.151849e+001  6.914236e+001 
3809375000  -5.917707e+001  7.782010e+001 
3812500000  -5.705159e+001  6.743432e+001 
3815625000  -6.268431e+001  4.784817e+001 
3818750000  -6.093494e+001  5.028506e+001 
3821875000  -6.255761e+001  5.241815e+001 
3825000000  -5.854145e+001  3.908393e+001 
3828125000  -5.877777e+001  2.979416e+001 
3831250000  -6.226511e+001  2.081075e+001 
3834375000  -6.393274e+001  -3.062731e+001 
3837500000  -6.564625e+001  1.600307e+001 
3840625000  -6.141157e+001  -1.996281e+001 
3843750000  -6.137440e+001  -2.366732e+000 
3846875000  -6.378299e+001  -4.285258e+001 
3850000000  -6.411015e+001  1.393452e+001 
3853125000  -6.370979e+001  -2.006715e+001 
3856250000  -5.757256e+001  6.004247e+000 
3859375000  -5.812045e+001  -3.057687e+001 
3862500000  -6.166973e+001  -5.473156e+001 
3865625000  -6.120662e+001  -4.916753e+001 
3868750000  -5.879739e+001  -5.582972e+001 
3871875000  -5.810139e+001  -4.612169e+001 
3875000000  -5.895507e+001  -6.536437e+001 
3878125000  -5.808307e+001  -7.127765e+001 
3881250000  -5.798478e+001  -9.253740e+001 
3884375000  -5.631330e+001  -9.503312e+001 
3887500000  -5.957309e+001  -1.168279e+002 
3890625000  -5.575926e+001  -1.212185e+002 
3893750000  -5.736049e+001  -1.379212e+002 
3896875000  -5.585551e+001  -1.292451e+002 
3900000000  -5.585075e+001  -1.536584e+002 
3903125000  -5.662102e+001  -1.672255e+002 
3906250000  -5.392059e+001  -1.727723e+002 
3909375000  -5.421549e+001  1.744512e+002 
3912500000  -5.506420e+001  1.553162e+002 
3915625000  -5.639668e+001  1.516688e+002 
3918750000  -5.475281e+001  1.487895e+002 
3921875000  -5.449713e+001  1.409666e+002 
3925000000  -5.336504e+001  1.208450e+002 
3928125000  -5.378918e+001  1.063777e+002 
3931250000  -5.263008e+001  1.045901e+002 
3934375000  -5.410452e+001  9.066293e+001 
3937500000  -5.614193e+001  7.910402e+001 
3940625000  -5.364225e+001  8.067372e+001 
3943750000  -5.388366e+001  5.815554e+001 
3946875000  -5.257293e+001  4.414966e+001 
3950000000  -5.372717e+001  4.109976e+001 
3953125000  -5.476988e+001  3.230368e+001 
3956250000  -5.351028e+001  2.239562e+001 
3959375000  -5.133792e+001  1.738042e+001 
3962500000  -5.218291e+001  -9.912590e+000 
3965625000  -5.316436e+001  -1.494275e+001 
3968750000  -5.397935e+001  -3.465396e+001 
3971875000  -5.485367e+001  -3.787037e+001 
3975000000  -5.365862e+001  -4.923678e+001 
3978125000  -5.443806e+001  -5.618136e+001 
3981250000  -5.648786e+001  -7.857291e+001 
3984375000  -5.529406e+001  -8.661588e+001 
3987500000  -5.582902e+001  -9.658937e+001 
3990625000  -5.661978e+001  -1.038486e+002 
3993750000  -5.860828e+001  -1.275673e+002 
3996875000  -5.853380e+001  -1.299700e+002 
4000000000  -5.770193e+001  -1.277233e+002 
4003125000  -5.995753e+001  -1.173881e+002 
4006250000  -5.727538e+001  -1.461783e+002 
4009375000  -5.871560e+001  -1.591012e+002 
4012500000  -6.247499e+001  -1.627670e+002 
4015625000  -6.260889e+001  -1.745113e+002 
4018750000  -5.937341e+001  -1.685728e+002 
4021875000  -5.877669e+001  -1.793814e+002 
4025000000  -6.007766e+001  1.739236e+002 
4028125000  -5.900241e+001  -1.781584e+002 
4031250000  -6.036843e+001  1.636773e+002 
4034375000  -6.051180e+001  1.478179e+002 
4037500000  -5.882564e+001  1.571930e+002 
4040625000  -5.985234e+001  1.571098e+002 
4043750000  -5.953428e+001  1.584163e+002 
4046875000  -5.780387e+001  1.480797e+002 
4050000000  -5.635340e+001  1.221056e+002 
4053125000  -5.881159e+001  1.308866e+002 
4056250000  -5.625501e+001  1.131508e+002 
4059375000  -5.502574e+001  1.161554e+002 
4062500000  -5.466766e+001  1.004417e+002 
4065625000  -5.381615e+001  7.835284e+001 
4068750000  -5.382210e+001  8.741479e+001 
4071875000  -5.399429e+001  5.575891e+001 
4075000000  -5.205056e+001  4.330256e+001 
4078125000  -5.350838e+001  2.929812e+001 
4081250000  -5.266067e+001  2.240461e+001 
4084375000  -5.197369e+001  8.781384e+000 
4087500000  -5.378308e+001  -6.059980e+000 
4090625000  -5.395787e+001  -1.169306e+001 
4093750000  -5.331707e+001  -2.969030e+001 
4096875000  -5.299833e+001  -3.284770e+001 
4100000000  -5.363176e+001  -5.186114e+001 
4103125000  -5.472499e+001  -5.076144e+001 
4106250000  -5.329554e+001  -6.203228e+001 
4109375000  -5.239258e+001  -6.211117e+001 
4112500000  -5.302525e+001  -8.323122e+001 
4115625000  -5.323727e+001  -9.515113e+001 
4118750000  -5.234822e+001  -1.039019e+002 
4121875000  -5.357188e+001  -1.254982e+002 
4125000000  -5.353844e+001  -1.262391e+002 
4128125000  -5.426957e+001  -1.416029e+002 
4131250000  -5.349338e+001  -1.269551e+002 
4134375000  -5.074319e+001  -1.517964e+002 
4137500000  -5.209050e+001  -1.707523e+002 
4140625000  -5.449188e+001  1.740408e+002 
4143750000  -5.473082e+001  1.678145e+002 
4146875000  -5.481495e+001  1.708553e+002 
4150000000  -5.511921e+001  1.494916e+002 
4153125000  -5.425684e+001  1.392999e+002 
4156250000  -5.634413e+001  1.333829e+002 
4159375000  -5.484847e+001  1.306306e+002 
4162500000  -5.470367e+001  1.149384e+002 
4165625000  -5.426796e+001  1.167661e+002 
4168750000  -5.433957e+001  8.695552e+001 
4171875000  -5.438682e+001  7.528819e+001 
4175000000  -5.862487e+001  5.972713e+001 
4178125000  -5.834042e+001  6.861024e+001 
4181250000  -5.863118e+001  4.501850e+001 
4184375000  -5.819219e+001  1.569987e+001 
4187500000  -5.760406e+001  3.283695e+001 
4190625000  -5.922058e+001  6.991965e+000 
4193750000  -5.969419e+001  1.295403e+001 
4196875000  -6.313519e+001  -2.375656e+000 
4200000000  -6.342029e+001  8.594348e+000 
4203125000  -6.447477e+001  1.323872e+001 
4206250000  -6.055232e+001  4.469294e+000 
4209375000  -6.319519e+001  8.564830e+000 
4212500000  -6.328836e+001  2.354150e+001 
4215625000  -6.095958e+001  -2.497462e+001 
4218750000  -6.312541e+001  2.321112e+001 
4221875000  -6.187926e+001  9.428614e+000 
4225000000  -5.914712e+001  -1.381040e+001 
4228125000  -5.960965e+001  -3.091966e+001 
4231250000  -5.770596e+001  -2.059458e+001 
4234375000  -5.684694e+001  -4.165710e+001 
4237500000  -5.757270e+001  -3.630947e+001 
4240625000  -5.590935e+001  -5.933437e+001 
4243750000  -5.791177e+001  -8.016727e+001 
4246875000  -5.570998e+001  -7.535949e+001 
4250000000  -5.670717e+001  -8.681911e+001 
4253125000  -5.647448e+001  -9.408337e+001 
4256250000  -5.572234e+001  -1.008184e+002 
4259375000  -5.549017e+001  -1.063676e+002 
4262500000  -5.488768e+001  -1.248893e+002 
4265625000  -5.472499e+001  -1.296407e+002 
4268750000  -5.232688e+001  -1.506567e+002 
4271875000  -5.260344e+001  -1.528988e+002 
4275000000  -5.175122e+001  -1.741738e+002 
4278125000  -5.313592e+001  1.669800e+002 
4281250000  -5.431982e+001  1.669551e+002 
4284375000  -5.432687e+001  1.543277e+002 
4287500000  -5.482144e+001  1.414692e+002 
4290625000  -5.611434e+001  1.526991e+002 
4293750000  -5.339639e+001  1.401752e+002 
4296875000  -5.239395e+001  1.202377e+002 
4300000000  -5.323299e+001  1.088438e+002 
4303125000  -5.319864e+001  9.266364e+001 
4306250000  -5.124152e+001  9.465283e+001 
4309375000  -5.078235e+001  7.213875e+001 
4312500000  -5.225569e+001  6.844286e+001 
4315625000  -5.194442e+001  5.455601e+001 
4318750000  -5.469008e+001  4.078126e+001 
4321875000  -5.309885e+001  3.763112e+001 
4325000000  -5.266669e+001  1.807717e+001 
4328125000  -5.239113e+001  1.645795e+001 
4331250000  -5.289751e+001  -4.018015e+000 
4334375000  -5.475859e+001  -1.628274e+001 
4337500000  -5.476067e+001  -3.516283e+001 
4340625000  -5.623774e+001  -2.565644e+001 
4343750000  -5.492591e+001  -3.862235e+001 
4346875000  -5.563902e+001  -4.675111e+001 
4350000000  -5.448979e+001  -6.777783e+001 
4353125000  -5.407836e+001  -6.150869e+001 
4356250000  -5.791262e+001  -8.154195e+001 
4359375000  -6.038856e+001  -4.317482e+001 
4362500000  -5.631126e+001  -6.627666e+001 
4365625000  -5.388022e+001  -9.174780e+001 
4368750000  -5.684216e+001  -1.067399e+002 
4371875000  -5.558665e+001  -1.005169e+002 
4375000000  -5.574082e+001  -1.193157e+002 
4378125000  -5.612454e+001  -1.312900e+002 
4381250000  -5.665647e+001  -1.208883e+002 
4384375000  -5.583357e+001  -1.445746e+002 
4387500000  -5.735189e+001  -1.506845e+002 
4390625000  -5.848848e+001  -1.641555e+002 
4393750000  -5.679924e+001  -1.459293e+002 
4396875000  -5.551522e+001  -1.721521e+002 
4400000000  -5.542344e+001  -1.718610e+002 
4403125000  -5.549023e+001  1.644755e+002 
4406250000  -5.795761e+001  1.707881e+002 
4409375000  -5.529184e+001  1.642592e+002 
4412500000  -5.711450e+001  1.393318e+002 
4415625000  -5.661937e+001  1.693721e+002 
4418750000  -5.560849e+001  1.580213e+002 
