!Agilent Technologies,E8363B,MY43030201,A.06.04.32
!Agilent E8363B: A.06.04.32
!Date: Tuesday, November 11, 2014 22:15:06
!Correction: S21(Response(S21)) 
!S1P File: Measurement: S21:
# Hz S  dB   R 50
3000000000  -4.894528e+001  -7.465514e+001 
3003125000  -5.167010e+001  -7.925663e+001 
3006250000  -5.145274e+001  -8.629119e+001 
3009375000  -5.164283e+001  -8.614556e+001 
3012500000  -5.083567e+001  -9.933388e+001 
3015625000  -5.114460e+001  -1.118810e+002 
3018750000  -5.130045e+001  -1.150750e+002 
3021875000  -4.958614e+001  -1.192799e+002 
3025000000  -4.868203e+001  -1.263596e+002 
3028125000  -4.830035e+001  -1.439742e+002 
3031250000  -4.730666e+001  -1.606780e+002 
3034375000  -4.683410e+001  -1.777892e+002 
3037500000  -4.818187e+001  1.651315e+002 
3040625000  -4.920903e+001  1.537497e+002 
3043750000  -4.968698e+001  1.405857e+002 
3046875000  -5.099085e+001  1.368642e+002 
3050000000  -5.162373e+001  1.208127e+002 
3053125000  -5.164857e+001  1.240307e+002 
3056250000  -5.182103e+001  1.193175e+002 
3059375000  -5.012043e+001  1.093687e+002 
3062500000  -4.949211e+001  1.062549e+002 
3065625000  -4.944207e+001  8.989737e+001 
3068750000  -4.883256e+001  7.759283e+001 
3071875000  -4.883472e+001  6.910041e+001 
3075000000  -4.865287e+001  5.688248e+001 
3078125000  -4.852422e+001  4.482373e+001 
3081250000  -4.894332e+001  3.234939e+001 
3084375000  -4.827160e+001  2.546109e+001 
3087500000  -4.841721e+001  1.285065e+001 
3090625000  -4.799754e+001  -3.325712e+000 
3093750000  -4.866755e+001  -1.226714e+001 
3096875000  -4.907602e+001  -2.362527e+001 
3100000000  -4.925367e+001  -3.332020e+001 
3103125000  -4.979480e+001  -4.099313e+001 
3106250000  -4.929664e+001  -4.650195e+001 
3109375000  -4.958672e+001  -5.851000e+001 
3112500000  -4.936242e+001  -6.916840e+001 
3115625000  -4.891922e+001  -7.844759e+001 
3118750000  -4.956299e+001  -8.476557e+001 
3121875000  -4.933656e+001  -9.941342e+001 
3125000000  -5.120926e+001  -1.069036e+002 
3128125000  -5.075617e+001  -1.058479e+002 
3131250000  -4.825398e+001  -1.163868e+002 
3134375000  -4.780973e+001  -1.370058e+002 
3137500000  -4.859578e+001  -1.518963e+002 
3140625000  -4.950662e+001  -1.581147e+002 
3143750000  -5.053136e+001  -1.679118e+002 
3146875000  -4.970811e+001  -1.706846e+002 
3150000000  -4.917239e+001  1.783863e+002 
3153125000  -4.946614e+001  1.642139e+002 
3156250000  -5.011451e+001  1.703631e+002 
3159375000  -4.794485e+001  1.586354e+002 
3162500000  -4.647794e+001  1.345601e+002 
3165625000  -4.785621e+001  1.225697e+002 
3168750000  -4.740424e+001  1.157008e+002 
3171875000  -4.725112e+001  1.032711e+002 
3175000000  -4.806505e+001  9.024137e+001 
3178125000  -4.728726e+001  8.269637e+001 
3181250000  -4.680938e+001  6.764290e+001 
3184375000  -4.635484e+001  5.388995e+001 
3187500000  -4.765124e+001  3.672916e+001 
3190625000  -4.946733e+001  2.198038e+001 
3193750000  -4.979287e+001  2.050463e+001 
3196875000  -4.926597e+001  1.895046e+001 
3200000000  -4.881975e+001  7.706423e+000 
3203125000  -4.844966e+001  -2.220526e+000 
3206250000  -4.896869e+001  -1.487343e+001 
3209375000  -4.787703e+001  -3.185591e+001 
3212500000  -4.865821e+001  -4.050261e+001 
3215625000  -4.790979e+001  -4.852728e+001 
3218750000  -4.920159e+001  -6.112457e+001 
3221875000  -4.944179e+001  -7.622020e+001 
3225000000  -4.957989e+001  -8.419246e+001 
3228125000  -5.048143e+001  -9.341545e+001 
3231250000  -5.102359e+001  -1.054340e+002 
3234375000  -5.034061e+001  -1.081686e+002 
3237500000  -5.052542e+001  -1.155403e+002 
3240625000  -4.995020e+001  -1.287725e+002 
3243750000  -5.011766e+001  -1.422883e+002 
3246875000  -4.997433e+001  -1.549714e+002 
3250000000  -5.067779e+001  -1.705891e+002 
3253125000  -5.124857e+001  -1.696301e+002 
3256250000  -5.059563e+001  1.760139e+002 
3259375000  -5.120922e+001  1.606118e+002 
3262500000  -5.222723e+001  1.497598e+002 
3265625000  -5.380071e+001  1.525217e+002 
3268750000  -5.311732e+001  1.454017e+002 
3271875000  -5.258826e+001  1.336325e+002 
3275000000  -5.223921e+001  1.257381e+002 
3278125000  -5.235397e+001  1.081311e+002 
3281250000  -5.304019e+001  1.036282e+002 
3284375000  -5.303178e+001  9.867332e+001 
3287500000  -5.355603e+001  8.995525e+001 
3290625000  -5.272097e+001  7.720615e+001 
3293750000  -5.394629e+001  6.122866e+001 
3296875000  -5.415577e+001  5.776363e+001 
3300000000  -5.460278e+001  5.207688e+001 
3303125000  -5.313274e+001  4.137671e+001 
3306250000  -5.375382e+001  2.286880e+001 
3309375000  -5.232471e+001  2.126633e+001 
3312500000  -5.339116e+001  -1.415330e+000 
3315625000  -5.511383e+001  -1.071615e+001 
3318750000  -5.596564e+001  -2.089709e+001 
3321875000  -5.701371e+001  -2.715468e+001 
3325000000  -5.550622e+001  -2.454020e+001 
3328125000  -5.721518e+001  -2.325996e+001 
3331250000  -5.388686e+001  -3.684440e+001 
3334375000  -5.214779e+001  -4.089622e+001 
3337500000  -5.165929e+001  -6.735120e+001 
3340625000  -5.523646e+001  -8.483347e+001 
3343750000  -5.556886e+001  -7.827263e+001 
3346875000  -5.500130e+001  -9.907372e+001 
3350000000  -5.497294e+001  -9.645107e+001 
3353125000  -5.379715e+001  -1.136440e+002 
3356250000  -5.588375e+001  -1.348570e+002 
3359375000  -5.534920e+001  -1.365603e+002 
3362500000  -5.667708e+001  -1.435665e+002 
3365625000  -5.502136e+001  -1.590377e+002 
3368750000  -5.580557e+001  -1.737673e+002 
3371875000  -5.645773e+001  -1.730289e+002 
3375000000  -5.828166e+001  1.747435e+002 
3378125000  -5.754777e+001  1.738318e+002 
3381250000  -6.006995e+001  1.697749e+002 
3384375000  -5.691197e+001  1.712645e+002 
3387500000  -5.404095e+001  1.499174e+002 
3390625000  -5.759727e+001  1.328289e+002 
3393750000  -5.619690e+001  1.241158e+002 
3396875000  -5.803242e+001  1.202560e+002 
3400000000  -5.451749e+001  9.690142e+001 
3403125000  -5.684243e+001  8.478993e+001 
3406250000  -5.699284e+001  7.993768e+001 
3409375000  -5.819997e+001  6.196879e+001 
3412500000  -5.750676e+001  5.779696e+001 
3415625000  -5.949976e+001  4.651377e+001 
3418750000  -5.951591e+001  3.532315e+001 
3421875000  -6.008707e+001  4.217194e+001 
3425000000  -6.026444e+001  3.444717e+001 
3428125000  -6.019434e+001  4.096510e+000 
3431250000  -5.981857e+001  1.053847e+000 
3434375000  -6.017321e+001  -3.103608e+001 
3437500000  -6.313997e+001  -2.193055e+001 
3440625000  -6.089937e+001  -2.806027e+001 
3443750000  -6.177642e+001  -4.002174e+001 
3446875000  -6.055125e+001  -5.926363e+001 
3450000000  -6.074114e+001  -6.699844e+001 
3453125000  -6.291599e+001  -6.272134e+001 
3456250000  -6.723878e+001  -1.009799e+002 
3459375000  -6.558112e+001  -1.042343e+002 
3462500000  -6.866628e+001  -1.294820e+002 
3465625000  -6.789960e+001  -1.121150e+002 
3468750000  -6.907133e+001  -1.197864e+002 
3471875000  -6.531078e+001  -1.060249e+002 
3475000000  -6.242035e+001  -1.392728e+002 
3478125000  -6.915736e+001  -1.119779e+002 
3481250000  -7.030400e+001  -1.415508e+002 
3484375000  -6.538580e+001  -1.646340e+002 
3487500000  -6.641158e+001  -1.267417e+002 
3490625000  -6.792144e+001  -1.080082e+002 
3493750000  -7.820464e+001  -9.431659e+001 
3496875000  -6.585986e+001  1.722753e+002 
3500000000  -6.470631e+001  -1.741812e+002 
3503125000  -6.764942e+001  -1.517623e+002 
3506250000  -6.712523e+001  -1.630972e+002 
3509375000  -6.588145e+001  1.582216e+002 
3512500000  -6.571304e+001  1.398517e+002 
3515625000  -6.539514e+001  1.793031e+002 
3518750000  -6.271207e+001  1.437422e+002 
3521875000  -6.756157e+001  1.640232e+002 
3525000000  -6.604391e+001  1.181687e+002 
3528125000  -7.038786e+001  1.125993e+002 
3531250000  -6.421721e+001  1.295993e+002 
3534375000  -6.738062e+001  5.880949e+001 
3537500000  -6.493883e+001  5.835489e+001 
3540625000  -6.848063e+001  3.979282e+001 
3543750000  -6.809142e+001  7.742857e+001 
3546875000  -7.057484e+001  8.683501e+001 
3550000000  -6.587270e+001  7.473277e+001 
3553125000  -7.018595e+001  3.142661e+001 
3556250000  -8.013263e+001  8.102610e+000 
3559375000  -6.533857e+001  2.875688e+001 
3562500000  -7.205877e+001  3.591623e+001 
3565625000  -7.105753e+001  9.417636e+000 
3568750000  -7.338251e+001  1.017731e+002 
3571875000  -7.001638e+001  2.227553e+001 
3575000000  -7.679379e+001  2.125998e+001 
3578125000  -7.037254e+001  4.852430e+001 
3581250000  -7.259946e+001  5.721472e+001 
3584375000  -7.447731e+001  1.844160e+001 
3587500000  -7.305083e+001  4.619692e+001 
3590625000  -6.633376e+001  1.709100e+001 
3593750000  -7.168610e+001  -3.878523e+001 
3596875000  -6.887825e+001  2.987216e+000 
3600000000  -6.549242e+001  5.374333e+000 
3603125000  -6.393780e+001  1.155518e+001 
3606250000  -6.881372e+001  -1.264504e+001 
3609375000  -6.666148e+001  -1.143948e+001 
3612500000  -6.373127e+001  -5.361906e+001 
3615625000  -6.737256e+001  -6.180204e+001 
3618750000  -6.386209e+001  -8.156300e+001 
3621875000  -6.327705e+001  -7.578712e+001 
3625000000  -6.565921e+001  -8.687153e+001 
3628125000  -6.300518e+001  -9.485857e+001 
3631250000  -6.638647e+001  -9.356609e+001 
3634375000  -6.257207e+001  -1.107033e+002 
3637500000  -6.565863e+001  -1.186656e+002 
3640625000  -6.419110e+001  -1.402915e+002 
3643750000  -6.002612e+001  -1.313123e+002 
3646875000  -6.140901e+001  -1.602413e+002 
3650000000  -6.397238e+001  -1.691965e+002 
3653125000  -6.370488e+001  -1.794584e+002 
3656250000  -6.678703e+001  1.495963e+002 
3659375000  -6.618145e+001  -1.764196e+002 
3662500000  -6.571495e+001  1.436602e+002 
3665625000  -6.301605e+001  1.640358e+002 
3668750000  -6.131371e+001  1.360713e+002 
3671875000  -6.391686e+001  1.149237e+002 
3675000000  -6.289427e+001  1.039583e+002 
3678125000  -6.471774e+001  1.089406e+002 
3681250000  -6.324681e+001  9.897937e+001 
3684375000  -6.893603e+001  1.188594e+002 
3687500000  -6.803928e+001  8.331409e+001 
3690625000  -7.033302e+001  8.017640e+001 
3693750000  -6.667998e+001  6.818857e+001 
3696875000  -6.613442e+001  1.003529e+002 
3700000000  -6.405146e+001  7.970295e+001 
3703125000  -6.961163e+001  5.770668e+001 
3706250000  -6.708952e+001  8.819294e+001 
3709375000  -6.669553e+001  7.221301e+001 
3712500000  -6.328585e+001  5.331944e+001 
3715625000  -6.066815e+001  3.969474e+001 
3718750000  -6.141893e+001  4.666777e+001 
3721875000  -6.188931e+001  1.043563e+001 
3725000000  -6.196840e+001  1.433171e+001 
3728125000  -6.045621e+001  5.079383e+000 
3731250000  -6.174767e+001  1.165854e+001 
3734375000  -6.099325e+001  -1.390500e+001 
3737500000  -5.991648e+001  -5.431066e+001 
3740625000  -5.768455e+001  -2.809907e+001 
3743750000  -5.855939e+001  -4.697937e+001 
3746875000  -5.878954e+001  -6.733493e+001 
3750000000  -5.975820e+001  -7.159525e+001 
3753125000  -5.871130e+001  -8.245003e+001 
3756250000  -5.841126e+001  -9.476559e+001 
3759375000  -5.685516e+001  -1.084788e+002 
3762500000  -5.764325e+001  -1.137950e+002 
3765625000  -5.836420e+001  -1.097879e+002 
3768750000  -5.671326e+001  -1.342085e+002 
3771875000  -5.721830e+001  -1.583541e+002 
3775000000  -5.602953e+001  -1.567073e+002 
3778125000  -5.738158e+001  1.788583e+002 
3781250000  -5.661691e+001  1.735066e+002 
3784375000  -5.765230e+001  1.614058e+002 
3787500000  -5.884970e+001  1.581485e+002 
3790625000  -5.750804e+001  1.315840e+002 
3793750000  -5.809138e+001  1.292183e+002 
3796875000  -5.679657e+001  1.374915e+002 
3800000000  -5.284898e+001  8.164962e+001 
3803125000  -5.947305e+001  1.046229e+002 
3806250000  -5.989334e+001  8.626807e+001 
3809375000  -5.752103e+001  7.114222e+001 
3812500000  -5.793967e+001  5.552845e+001 
3815625000  -6.318463e+001  5.158047e+001 
3818750000  -6.128249e+001  4.687429e+001 
3821875000  -5.954707e+001  6.333150e+001 
3825000000  -6.001187e+001  6.109425e+001 
3828125000  -5.888597e+001  3.359726e+001 
3831250000  -6.045582e+001  -1.691858e+000 
3834375000  -6.395288e+001  1.883788e+001 
3837500000  -6.203971e+001  -1.611059e+001 
3840625000  -6.237359e+001  9.558104e+000 
3843750000  -6.038848e+001  6.942491e-001 
3846875000  -6.576393e+001  -1.573054e+001 
3850000000  -6.272606e+001  -2.734194e+000 
3853125000  -6.311645e+001  -1.514645e+001 
3856250000  -6.102074e+001  1.493041e+001 
3859375000  -5.787072e+001  -3.371019e+001 
3862500000  -6.137356e+001  -4.658775e+001 
3865625000  -5.971764e+001  -6.269326e+001 
3868750000  -6.047250e+001  -5.163290e+001 
3871875000  -5.582138e+001  -5.620963e+001 
3875000000  -5.974721e+001  -7.453846e+001 
3878125000  -5.832817e+001  -8.160976e+001 
3881250000  -5.796844e+001  -8.910795e+001 
3884375000  -5.657476e+001  -8.210871e+001 
3887500000  -5.658962e+001  -1.218884e+002 
3890625000  -5.491980e+001  -1.173569e+002 
3893750000  -5.745273e+001  -1.310953e+002 
3896875000  -5.713923e+001  -1.331283e+002 
3900000000  -5.651222e+001  -1.494896e+002 
3903125000  -5.584798e+001  -1.538299e+002 
3906250000  -5.426336e+001  -1.642272e+002 
3909375000  -5.425338e+001  -1.799826e+002 
3912500000  -5.363371e+001  1.679340e+002 
3915625000  -5.568325e+001  1.574361e+002 
3918750000  -5.379492e+001  1.496422e+002 
3921875000  -5.506355e+001  1.477202e+002 
3925000000  -5.296383e+001  1.283360e+002 
3928125000  -5.377810e+001  1.122428e+002 
3931250000  -5.369609e+001  1.038538e+002 
3934375000  -5.502427e+001  9.316204e+001 
3937500000  -5.494457e+001  9.110519e+001 
3940625000  -5.485940e+001  8.577658e+001 
3943750000  -5.344229e+001  7.088615e+001 
3946875000  -5.245919e+001  5.221206e+001 
3950000000  -5.441958e+001  5.085567e+001 
3953125000  -5.495689e+001  2.779208e+001 
3956250000  -5.423431e+001  2.567938e+001 
3959375000  -5.220797e+001  1.952720e+001 
3962500000  -5.312923e+001  4.194901e+000 
3965625000  -5.277996e+001  -1.771510e+001 
3968750000  -5.408426e+001  -2.603069e+001 
3971875000  -5.514557e+001  -4.502691e+001 
3975000000  -5.380456e+001  -5.572913e+001 
3978125000  -5.434544e+001  -5.369630e+001 
3981250000  -5.503567e+001  -7.155305e+001 
3984375000  -5.609797e+001  -9.064008e+001 
3987500000  -5.559956e+001  -9.908428e+001 
3990625000  -5.636983e+001  -9.844983e+001 
3993750000  -5.812640e+001  -1.214025e+002 
3996875000  -5.744242e+001  -1.095489e+002 
4000000000  -5.939192e+001  -1.355508e+002 
4003125000  -5.847485e+001  -1.247899e+002 
4006250000  -5.727020e+001  -1.483083e+002 
4009375000  -5.772779e+001  -1.491811e+002 
4012500000  -5.903457e+001  -1.680029e+002 
4015625000  -5.904527e+001  -1.471932e+002 
4018750000  -5.931812e+001  -1.674049e+002 
4021875000  -6.080890e+001  -1.573804e+002 
4025000000  -6.081374e+001  1.670762e+002 
4028125000  -5.948951e+001  1.699527e+002 
4031250000  -6.017932e+001  1.611168e+002 
4034375000  -5.972771e+001  1.683345e+002 
4037500000  -5.700400e+001  1.589773e+002 
4040625000  -6.199018e+001  1.485964e+002 
4043750000  -5.805735e+001  1.406155e+002 
4046875000  -6.166855e+001  1.570554e+002 
4050000000  -5.681118e+001  1.243888e+002 
4053125000  -5.844713e+001  1.288223e+002 
4056250000  -5.640973e+001  1.157913e+002 
4059375000  -5.541625e+001  1.131149e+002 
4062500000  -5.644895e+001  9.502451e+001 
4065625000  -5.557327e+001  8.630907e+001 
4068750000  -5.475218e+001  7.485862e+001 
4071875000  -5.350817e+001  6.507619e+001 
4075000000  -5.308408e+001  3.625517e+001 
4078125000  -5.376641e+001  4.198125e+001 
4081250000  -5.274115e+001  3.381861e+001 
4084375000  -5.305890e+001  1.890964e+001 
4087500000  -5.377353e+001  -4.208147e-001 
4090625000  -5.333822e+001  9.853114e-001 
4093750000  -5.366363e+001  -1.428751e+001 
4096875000  -5.358131e+001  -3.643551e+001 
4100000000  -5.449453e+001  -4.930230e+001 
4103125000  -5.434374e+001  -4.837423e+001 
4106250000  -5.357595e+001  -4.362779e+001 
4109375000  -5.258924e+001  -5.931400e+001 
4112500000  -5.233438e+001  -7.535931e+001 
4115625000  -5.490030e+001  -8.802148e+001 
4118750000  -5.318216e+001  -1.014241e+002 
4121875000  -5.354046e+001  -1.182162e+002 
4125000000  -5.328477e+001  -1.192902e+002 
4128125000  -5.546056e+001  -1.313810e+002 
4131250000  -5.362074e+001  -1.342171e+002 
4134375000  -5.134272e+001  -1.507820e+002 
4137500000  -5.253643e+001  -1.696025e+002 
4140625000  -5.447800e+001  1.687779e+002 
4143750000  -5.589358e+001  -1.759107e+002 
4146875000  -5.395036e+001  1.731143e+002 
4150000000  -5.563506e+001  1.549278e+002 
4153125000  -5.366277e+001  1.468281e+002 
4156250000  -5.486386e+001  1.212189e+002 
4159375000  -5.616142e+001  1.344212e+002 
4162500000  -5.549025e+001  1.309167e+002 
4165625000  -5.381032e+001  1.223904e+002 
4168750000  -5.517261e+001  9.542646e+001 
4171875000  -5.315732e+001  8.591280e+001 
4175000000  -5.675047e+001  7.434185e+001 
4178125000  -5.656709e+001  6.828780e+001 
4181250000  -5.671721e+001  4.585735e+001 
4184375000  -5.911328e+001  3.996555e+001 
4187500000  -5.853438e+001  3.337725e+001 
4190625000  -6.207513e+001  4.048583e+001 
4193750000  -5.867056e+001  1.853551e+001 
4196875000  -6.484113e+001  -6.965378e+000 
4200000000  -6.379849e+001  1.112810e+001 
4203125000  -6.153120e+001  -1.567916e+001 
4206250000  -5.901682e+001  2.139112e+001 
4209375000  -5.992387e+001  1.068941e+001 
4212500000  -6.445131e+001  -3.023522e+000 
4215625000  -5.836938e+001  -8.347441e+000 
4218750000  -6.234752e+001  3.309133e+001 
4221875000  -5.958911e+001  -2.661708e+001 
4225000000  -6.216262e+001  -1.777728e+001 
4228125000  -5.570966e+001  -2.872478e+001 
4231250000  -5.908714e+001  -4.347575e+001 
4234375000  -5.827468e+001  -4.337023e+001 
4237500000  -5.796609e+001  -4.447536e+001 
4240625000  -5.366533e+001  -6.249284e+001 
4243750000  -5.710669e+001  -7.134786e+001 
4246875000  -5.608326e+001  -7.631816e+001 
4250000000  -5.798117e+001  -8.599998e+001 
4253125000  -5.450336e+001  -7.742524e+001 
4256250000  -5.553148e+001  -1.162149e+002 
4259375000  -5.544751e+001  -1.017634e+002 
4262500000  -5.548859e+001  -1.196479e+002 
4265625000  -5.421242e+001  -1.296841e+002 
4268750000  -5.247444e+001  -1.480040e+002 
4271875000  -5.250045e+001  -1.558678e+002 
4275000000  -5.102881e+001  -1.789497e+002 
4278125000  -5.320444e+001  1.647393e+002 
4281250000  -5.423416e+001  1.612614e+002 
4284375000  -5.548267e+001  1.568541e+002 
4287500000  -5.412887e+001  1.566794e+002 
4290625000  -5.460278e+001  1.542163e+002 
4293750000  -5.196722e+001  1.448200e+002 
4296875000  -5.317566e+001  1.280809e+002 
4300000000  -5.368965e+001  1.091665e+002 
4303125000  -5.262728e+001  1.036453e+002 
4306250000  -5.341422e+001  9.616138e+001 
4309375000  -5.229959e+001  7.964610e+001 
4312500000  -5.216425e+001  7.321141e+001 
4315625000  -5.234317e+001  5.920168e+001 
4318750000  -5.309675e+001  4.011897e+001 
4321875000  -5.353679e+001  3.624040e+001 
4325000000  -5.299376e+001  2.507335e+001 
4328125000  -5.183063e+001  1.272257e+001 
4331250000  -5.408242e+001  -3.728017e+000 
4334375000  -5.398229e+001  -8.367159e+000 
4337500000  -5.560696e+001  -3.379839e+001 
4340625000  -5.503567e+001  -2.508251e+001 
4343750000  -5.599209e+001  -3.845191e+001 
4346875000  -5.516195e+001  -5.118224e+001 
4350000000  -5.447462e+001  -4.961287e+001 
4353125000  -5.624283e+001  -7.156933e+001 
4356250000  -5.748065e+001  -6.946610e+001 
4359375000  -5.760647e+001  -4.861789e+001 
4362500000  -5.544995e+001  -7.878987e+001 
4365625000  -5.533792e+001  -9.024133e+001 
4368750000  -5.413050e+001  -9.337497e+001 
4371875000  -5.789235e+001  -1.167003e+002 
4375000000  -5.609982e+001  -1.070137e+002 
4378125000  -5.756424e+001  -1.133997e+002 
4381250000  -5.815084e+001  -1.175322e+002 
4384375000  -5.565335e+001  -1.361244e+002 
4387500000  -5.753166e+001  -1.386712e+002 
4390625000  -5.744637e+001  -1.560585e+002 
4393750000  -5.872042e+001  -1.433670e+002 
4396875000  -5.656985e+001  -1.558119e+002 
4400000000  -5.584365e+001  -1.659149e+002 
4403125000  -5.568769e+001  1.777874e+002 
4406250000  -5.667897e+001  -1.762542e+002 
4409375000  -5.474462e+001  1.611978e+002 
4412500000  -5.649882e+001  1.601636e+002 
4415625000  -5.488145e+001  1.662019e+002 
4418750000  -5.589962e+001  1.538779e+002 
