!Agilent Technologies,E8363B,MY43030201,A.06.04.32
!Agilent E8363B: A.06.04.32
!Date: Tuesday, November 11, 2014 22:11:13
!Correction: S21(Response(S21)) 
!S1P File: Measurement: S21:
# Hz S  dB   R 50
3000000000  -4.886559e+001  -7.521185e+001 
3003125000  -5.124426e+001  -8.197983e+001 
3006250000  -5.132927e+001  -9.020106e+001 
3009375000  -5.211250e+001  -8.905420e+001 
3012500000  -5.114301e+001  -9.717642e+001 
3015625000  -5.173028e+001  -1.098066e+002 
3018750000  -5.164682e+001  -1.128493e+002 
3021875000  -4.956937e+001  -1.219805e+002 
3025000000  -4.821329e+001  -1.290021e+002 
3028125000  -4.798423e+001  -1.443597e+002 
3031250000  -4.720012e+001  -1.628756e+002 
3034375000  -4.752751e+001  1.771124e+002 
3037500000  -4.794630e+001  1.627009e+002 
3040625000  -4.920244e+001  1.512245e+002 
3043750000  -4.997548e+001  1.420031e+002 
3046875000  -5.071594e+001  1.317797e+002 
3050000000  -5.127186e+001  1.207457e+002 
3053125000  -5.115969e+001  1.176539e+002 
3056250000  -5.094879e+001  1.213369e+002 
3059375000  -5.022034e+001  1.090939e+002 
3062500000  -4.952832e+001  1.006441e+002 
3065625000  -4.905419e+001  8.543439e+001 
3068750000  -4.865261e+001  7.542919e+001 
3071875000  -4.876875e+001  6.648745e+001 
3075000000  -4.873879e+001  5.746215e+001 
3078125000  -4.884611e+001  4.578523e+001 
3081250000  -4.878276e+001  3.278646e+001 
3084375000  -4.812907e+001  2.406960e+001 
3087500000  -4.831906e+001  1.245991e+001 
3090625000  -4.775426e+001  -4.919652e+000 
3093750000  -4.924662e+001  -2.076423e+001 
3096875000  -4.914120e+001  -2.445482e+001 
3100000000  -4.919548e+001  -3.453711e+001 
3103125000  -4.992999e+001  -4.170867e+001 
3106250000  -4.883527e+001  -5.133256e+001 
3109375000  -4.929473e+001  -5.769833e+001 
3112500000  -4.909240e+001  -7.047437e+001 
3115625000  -4.929420e+001  -7.855859e+001 
3118750000  -4.998534e+001  -8.774506e+001 
3121875000  -4.905849e+001  -1.016461e+002 
3125000000  -5.051080e+001  -1.104919e+002 
3128125000  -5.060867e+001  -1.096343e+002 
3131250000  -4.790749e+001  -1.159824e+002 
3134375000  -4.735625e+001  -1.438802e+002 
3137500000  -4.845198e+001  -1.521182e+002 
3140625000  -4.941614e+001  -1.623160e+002 
3143750000  -5.052150e+001  -1.693638e+002 
3146875000  -5.006774e+001  -1.721228e+002 
3150000000  -4.883412e+001  -1.788908e+002 
3153125000  -4.890697e+001  1.654892e+002 
3156250000  -5.039162e+001  1.674193e+002 
3159375000  -4.754839e+001  1.580336e+002 
3162500000  -4.631358e+001  1.339129e+002 
3165625000  -4.780345e+001  1.195272e+002 
3168750000  -4.769256e+001  1.151492e+002 
3171875000  -4.739408e+001  1.000945e+002 
3175000000  -4.746439e+001  8.664857e+001 
3178125000  -4.717397e+001  8.307681e+001 
3181250000  -4.616445e+001  6.628793e+001 
3184375000  -4.656610e+001  5.287379e+001 
3187500000  -4.779179e+001  3.071659e+001 
3190625000  -4.970457e+001  1.761753e+001 
3193750000  -4.966134e+001  2.052553e+001 
3196875000  -4.940984e+001  1.672802e+001 
3200000000  -4.834826e+001  8.725650e+000 
3203125000  -4.830343e+001  -3.933911e+000 
3206250000  -4.897519e+001  -1.636699e+001 
3209375000  -4.767165e+001  -3.250527e+001 
3212500000  -4.886161e+001  -4.374817e+001 
3215625000  -4.862457e+001  -4.643970e+001 
3218750000  -4.887519e+001  -6.784514e+001 
3221875000  -4.952280e+001  -7.729527e+001 
3225000000  -4.940734e+001  -8.442681e+001 
3228125000  -5.034199e+001  -9.291245e+001 
3231250000  -5.081725e+001  -1.053884e+002 
3234375000  -5.023992e+001  -1.129717e+002 
3237500000  -5.037149e+001  -1.203751e+002 
3240625000  -5.034211e+001  -1.276860e+002 
3243750000  -4.998521e+001  -1.487165e+002 
3246875000  -5.024739e+001  -1.580526e+002 
3250000000  -5.079683e+001  -1.642129e+002 
3253125000  -5.098129e+001  -1.722247e+002 
3256250000  -5.051539e+001  1.767844e+002 
3259375000  -5.127484e+001  1.580735e+002 
3262500000  -5.284341e+001  1.531467e+002 
3265625000  -5.321454e+001  1.446583e+002 
3268750000  -5.287625e+001  1.450561e+002 
3271875000  -5.247303e+001  1.344805e+002 
3275000000  -5.174829e+001  1.212903e+002 
3278125000  -5.244468e+001  1.055246e+002 
3281250000  -5.351260e+001  1.047672e+002 
3284375000  -5.188060e+001  8.800298e+001 
3287500000  -5.416427e+001  8.044801e+001 
3290625000  -5.375517e+001  6.625597e+001 
3293750000  -5.378661e+001  5.963788e+001 
3296875000  -5.487439e+001  5.369036e+001 
3300000000  -5.418962e+001  5.109131e+001 
3303125000  -5.238943e+001  4.428075e+001 
3306250000  -5.343063e+001  2.840585e+001 
3309375000  -5.338363e+001  1.702443e+001 
3312500000  -5.237817e+001  -8.286064e+000 
3315625000  -5.579514e+001  -7.551623e+000 
3318750000  -5.622975e+001  -1.911847e+001 
3321875000  -5.637911e+001  -2.593768e+001 
3325000000  -5.559217e+001  -2.109322e+001 
3328125000  -5.553706e+001  -2.201554e+001 
3331250000  -5.396195e+001  -3.530254e+001 
3334375000  -5.174858e+001  -4.828903e+001 
3337500000  -5.201096e+001  -7.458307e+001 
3340625000  -5.425920e+001  -8.619580e+001 
3343750000  -5.628722e+001  -8.732500e+001 
3346875000  -5.451402e+001  -1.073588e+002 
3350000000  -5.443119e+001  -9.900648e+001 
3353125000  -5.419889e+001  -1.138535e+002 
3356250000  -5.534051e+001  -1.286195e+002 
3359375000  -5.478660e+001  -1.544644e+002 
3362500000  -5.565482e+001  -1.470652e+002 
3365625000  -5.480033e+001  -1.646012e+002 
3368750000  -5.672439e+001  -1.723831e+002 
3371875000  -5.572233e+001  1.758790e+002 
3375000000  -5.948194e+001  1.679778e+002 
3378125000  -5.790605e+001  1.680033e+002 
3381250000  -5.945988e+001  1.624185e+002 
3384375000  -5.702061e+001  1.765153e+002 
3387500000  -5.528308e+001  1.513625e+002 
3390625000  -5.736977e+001  1.248889e+002 
3393750000  -5.811993e+001  1.190426e+002 
3396875000  -5.628763e+001  1.119026e+002 
3400000000  -5.566710e+001  8.846706e+001 
3403125000  -5.795927e+001  7.695837e+001 
3406250000  -5.858801e+001  8.237041e+001 
3409375000  -5.718984e+001  6.083358e+001 
3412500000  -5.661839e+001  5.146372e+001 
3415625000  -6.229210e+001  3.284446e+001 
3418750000  -5.998362e+001  2.657547e+001 
3421875000  -6.193910e+001  3.287016e+001 
3425000000  -5.942203e+001  2.811129e+001 
3428125000  -5.782637e+001  6.419292e+000 
3431250000  -6.161609e+001  -1.800556e+000 
3434375000  -5.985225e+001  -2.638468e+001 
3437500000  -6.222311e+001  -2.527124e+001 
3440625000  -6.024977e+001  -3.204459e+001 
3443750000  -6.410125e+001  -4.157123e+001 
3446875000  -5.941968e+001  -5.912966e+001 
3450000000  -6.223853e+001  -6.511299e+001 
3453125000  -6.127857e+001  -8.563978e+001 
3456250000  -6.422086e+001  -9.256682e+001 
3459375000  -6.587964e+001  -6.679874e+001 
3462500000  -6.671624e+001  -9.908811e+001 
3465625000  -6.679781e+001  -1.006466e+002 
3468750000  -6.620225e+001  -1.364447e+002 
3471875000  -6.692647e+001  -9.957931e+001 
3475000000  -6.704427e+001  -1.053698e+002 
3478125000  -7.017669e+001  -6.683360e+001 
3481250000  -6.898156e+001  -1.254883e+002 
3484375000  -7.020821e+001  -1.333600e+002 
3487500000  -6.987597e+001  -1.404961e+002 
3490625000  -6.820430e+001  -1.497073e+002 
3493750000  -7.123462e+001  -1.554527e+002 
3496875000  -7.199935e+001  -1.758472e+002 
3500000000  -6.544662e+001  -1.607439e+002 
3503125000  -7.107359e+001  -1.419642e+002 
3506250000  -6.582413e+001  -1.755490e+002 
3509375000  -6.684284e+001  -1.740372e+002 
3512500000  -6.281748e+001  1.432503e+002 
3515625000  -6.724296e+001  1.425301e+002 
3518750000  -6.542134e+001  1.369386e+002 
3521875000  -6.676412e+001  1.646970e+002 
3525000000  -6.489660e+001  1.275396e+002 
3528125000  -7.135104e+001  9.767297e+001 
3531250000  -6.533218e+001  1.327854e+002 
3534375000  -6.501838e+001  6.718759e+001 
3537500000  -6.505048e+001  7.493128e+001 
3540625000  -7.145564e+001  5.989805e+001 
3543750000  -6.842563e+001  9.781944e+001 
3546875000  -6.800159e+001  4.805046e+001 
3550000000  -7.182059e+001  6.293921e+001 
3553125000  -7.052130e+001  1.008445e+002 
3556250000  -7.106239e+001  7.347142e+001 
3559375000  -7.294443e+001  1.201104e+001 
3562500000  -7.001987e+001  -1.910735e-001 
3565625000  -7.854065e+001  -2.658918e+001 
3568750000  -9.661575e+001  -1.420519e+002 
3571875000  -7.172255e+001  6.997108e+001 
3575000000  -6.929060e+001  -4.491064e+001 
3578125000  -7.145112e+001  3.285753e+001 
3581250000  -7.016095e+001  6.072211e+001 
3584375000  -8.181409e+001  -1.615982e+001 
3587500000  -6.969710e+001  3.526395e+001 
3590625000  -6.656420e+001  -4.477462e+000 
3593750000  -7.292831e+001  -2.699183e+000 
3596875000  -7.276125e+001  6.663108e+001 
3600000000  -7.340525e+001  -1.639894e+001 
3603125000  -6.564024e+001  -5.230467e+000 
3606250000  -6.341284e+001  -3.367291e+001 
3609375000  -6.515544e+001  -4.031188e+001 
3612500000  -6.501384e+001  -6.464838e+001 
3615625000  -6.834574e+001  -5.694651e+001 
3618750000  -6.309753e+001  -5.766647e+001 
3621875000  -6.532076e+001  -5.990169e+001 
3625000000  -6.206132e+001  -8.967223e+001 
3628125000  -6.330068e+001  -1.001647e+002 
3631250000  -6.336286e+001  -1.219080e+002 
3634375000  -6.743822e+001  -1.500179e+002 
3637500000  -6.343513e+001  -1.015455e+002 
3640625000  -6.140043e+001  -1.384990e+002 
3643750000  -6.164307e+001  -1.484322e+002 
3646875000  -6.225461e+001  -1.725780e+002 
3650000000  -6.591090e+001  -1.688291e+002 
3653125000  -6.178350e+001  1.657771e+002 
3656250000  -6.646348e+001  -1.785637e+002 
3659375000  -6.516840e+001  1.514890e+002 
3662500000  -6.468198e+001  1.384238e+002 
3665625000  -6.186162e+001  1.610445e+002 
3668750000  -6.269162e+001  1.058366e+002 
3671875000  -6.315564e+001  1.131196e+002 
3675000000  -6.620119e+001  1.063948e+002 
3678125000  -6.377579e+001  1.061321e+002 
3681250000  -6.358786e+001  9.948307e+001 
3684375000  -6.705270e+001  8.968927e+001 
3687500000  -6.667645e+001  6.393112e+001 
3690625000  -6.792838e+001  3.667311e+001 
3693750000  -6.317817e+001  9.831733e+001 
3696875000  -6.916047e+001  4.171283e+001 
3700000000  -6.381455e+001  9.291414e+001 
3703125000  -6.342825e+001  6.063725e+001 
3706250000  -6.526696e+001  5.704040e+001 
3709375000  -6.358932e+001  5.097335e+001 
3712500000  -6.512170e+001  7.325089e+001 
3715625000  -6.199037e+001  4.274604e+001 
3718750000  -6.220691e+001  1.660078e+001 
3721875000  -6.159683e+001  2.392583e+001 
3725000000  -5.973321e+001  2.951558e+001 
3728125000  -6.060860e+001  4.944163e+000 
3731250000  -5.910455e+001  -9.841864e+000 
3734375000  -6.167007e+001  -4.875874e+000 
3737500000  -5.941043e+001  -3.206207e+001 
3740625000  -5.745421e+001  -2.626366e+001 
3743750000  -6.102351e+001  -7.108405e+001 
3746875000  -5.973428e+001  -7.393321e+001 
3750000000  -5.813729e+001  -8.451934e+001 
3753125000  -5.889010e+001  -8.599549e+001 
3756250000  -5.906691e+001  -9.385287e+001 
3759375000  -6.006709e+001  -1.110363e+002 
3762500000  -5.754138e+001  -1.166625e+002 
3765625000  -5.917379e+001  -1.290692e+002 
3768750000  -5.641659e+001  -1.498823e+002 
3771875000  -5.744054e+001  -1.404929e+002 
3775000000  -5.742312e+001  -1.535704e+002 
3778125000  -5.909497e+001  1.796565e+002 
3781250000  -5.722985e+001  1.778951e+002 
3784375000  -5.565870e+001  1.707420e+002 
3787500000  -5.746696e+001  1.550311e+002 
3790625000  -5.769858e+001  1.297042e+002 
3793750000  -5.817212e+001  1.211591e+002 
3796875000  -5.881065e+001  1.165314e+002 
3800000000  -5.294875e+001  7.823389e+001 
3803125000  -5.716631e+001  9.314461e+001 
3806250000  -5.764553e+001  7.419214e+001 
3809375000  -5.878456e+001  7.483013e+001 
3812500000  -5.761872e+001  6.839870e+001 
3815625000  -6.226244e+001  4.968276e+001 
3818750000  -6.068912e+001  5.596249e+001 
3821875000  -6.255114e+001  6.191545e+001 
3825000000  -6.019966e+001  5.867501e+001 
3828125000  -5.868798e+001  1.310747e+001 
3831250000  -5.846206e+001  1.151967e+001 
3834375000  -6.417868e+001  -3.249560e+001 
3837500000  -6.516603e+001  -1.005690e+001 
3840625000  -6.321954e+001  9.233951e+000 
3843750000  -6.082918e+001  4.623971e+000 
3846875000  -6.077665e+001  -1.595319e+001 
3850000000  -6.214301e+001  -6.499443e+000 
3853125000  -6.000515e+001  -3.040315e+001 
3856250000  -6.207510e+001  -3.823717e+000 
3859375000  -6.110685e+001  -1.905287e+001 
3862500000  -6.230487e+001  -4.964349e+001 
3865625000  -6.203864e+001  -4.968926e+001 
3868750000  -5.862169e+001  -5.017201e+001 
3871875000  -5.694600e+001  -6.175219e+001 
3875000000  -6.060301e+001  -7.820901e+001 
3878125000  -5.629354e+001  -7.690331e+001 
3881250000  -5.723407e+001  -8.957571e+001 
3884375000  -5.519485e+001  -9.818396e+001 
3887500000  -5.622335e+001  -1.124468e+002 
3890625000  -5.705735e+001  -1.185574e+002 
3893750000  -5.596093e+001  -1.306188e+002 
3896875000  -5.713690e+001  -1.394489e+002 
3900000000  -5.608545e+001  -1.440999e+002 
3903125000  -5.637716e+001  -1.605295e+002 
3906250000  -5.600345e+001  -1.736900e+002 
3909375000  -5.435404e+001  1.700551e+002 
3912500000  -5.527015e+001  1.625115e+002 
3915625000  -5.612848e+001  1.498457e+002 
3918750000  -5.445235e+001  1.459538e+002 
3921875000  -5.472049e+001  1.342057e+002 
3925000000  -5.385574e+001  1.310991e+002 
3928125000  -5.366084e+001  1.107743e+002 
3931250000  -5.339655e+001  9.987867e+001 
3934375000  -5.357691e+001  8.985938e+001 
3937500000  -5.618449e+001  8.641864e+001 
3940625000  -5.374704e+001  6.840623e+001 
3943750000  -5.328474e+001  6.414662e+001 
3946875000  -5.284766e+001  5.606696e+001 
3950000000  -5.480566e+001  3.606933e+001 
3953125000  -5.413189e+001  3.559330e+001 
3956250000  -5.325130e+001  2.878614e+001 
3959375000  -5.266041e+001  1.817660e+001 
3962500000  -5.338337e+001  -6.118757e+000 
3965625000  -5.356026e+001  -1.256193e+001 
3968750000  -5.449754e+001  -3.203666e+001 
3971875000  -5.580808e+001  -4.330732e+001 
3975000000  -5.383005e+001  -5.677736e+001 
3978125000  -5.366036e+001  -6.141066e+001 
3981250000  -5.432330e+001  -7.771929e+001 
3984375000  -5.523502e+001  -8.573705e+001 
3987500000  -5.556555e+001  -8.355610e+001 
3990625000  -5.764337e+001  -1.151566e+002 
3993750000  -5.551239e+001  -1.171734e+002 
3996875000  -5.904708e+001  -1.295140e+002 
4000000000  -5.879052e+001  -1.330357e+002 
4003125000  -6.062403e+001  -1.237026e+002 
4006250000  -6.064143e+001  -1.461921e+002 
4009375000  -5.705960e+001  -1.477885e+002 
4012500000  -5.797392e+001  -1.613993e+002 
4015625000  -5.947003e+001  -1.536726e+002 
4018750000  -5.904448e+001  -1.636494e+002 
4021875000  -5.913183e+001  -1.738952e+002 
4025000000  -6.004215e+001  -1.677641e+002 
4028125000  -5.939141e+001  1.773442e+002 
4031250000  -6.126273e+001  1.771514e+002 
4034375000  -5.960679e+001  1.671674e+002 
4037500000  -5.778770e+001  1.466183e+002 
4040625000  -5.840276e+001  1.421017e+002 
4043750000  -5.832417e+001  1.475697e+002 
4046875000  -5.862369e+001  1.289689e+002 
4050000000  -5.765703e+001  1.259239e+002 
4053125000  -5.928242e+001  1.151303e+002 
4056250000  -5.922364e+001  1.159489e+002 
4059375000  -5.625781e+001  1.026472e+002 
4062500000  -5.414502e+001  1.020886e+002 
4065625000  -5.538175e+001  8.245763e+001 
4068750000  -5.507713e+001  8.202984e+001 
4071875000  -5.314804e+001  6.426747e+001 
4075000000  -5.288566e+001  3.678507e+001 
4078125000  -5.341938e+001  4.079622e+001 
4081250000  -5.330357e+001  2.245335e+001 
4084375000  -5.160256e+001  1.119579e+001 
4087500000  -5.464015e+001  -8.019651e+000 
4090625000  -5.390358e+001  -3.084845e+000 
4093750000  -5.260883e+001  -2.097213e+001 
4096875000  -5.264314e+001  -4.075691e+001 
4100000000  -5.290743e+001  -4.921979e+001 
4103125000  -5.523878e+001  -5.290381e+001 
4106250000  -5.464592e+001  -4.741155e+001 
4109375000  -5.302494e+001  -6.224681e+001 
4112500000  -5.211007e+001  -8.502704e+001 
4115625000  -5.497065e+001  -9.610852e+001 
4118750000  -5.311277e+001  -1.031010e+002 
4121875000  -5.207865e+001  -1.165606e+002 
4125000000  -5.270882e+001  -1.258536e+002 
4128125000  -5.459305e+001  -1.339629e+002 
4131250000  -5.330263e+001  -1.348194e+002 
4134375000  -5.246386e+001  -1.438755e+002 
4137500000  -5.198702e+001  -1.652821e+002 
4140625000  -5.416655e+001  1.684465e+002 
4143750000  -5.598597e+001  1.759558e+002 
4146875000  -5.369661e+001  1.625070e+002 
4150000000  -5.509539e+001  1.510520e+002 
4153125000  -5.564877e+001  1.402704e+002 
4156250000  -5.719071e+001  1.379066e+002 
4159375000  -5.697909e+001  1.290981e+002 
4162500000  -5.633980e+001  1.090370e+002 
4165625000  -5.286435e+001  1.213441e+002 
4168750000  -5.438113e+001  8.641101e+001 
4171875000  -5.384796e+001  7.158779e+001 
4175000000  -5.573868e+001  6.039314e+001 
4178125000  -5.759616e+001  4.892495e+001 
4181250000  -5.737133e+001  3.162893e+001 
4184375000  -5.857854e+001  2.869061e+001 
4187500000  -5.867160e+001  3.644030e+001 
4190625000  -6.314684e+001  2.815561e+001 
4193750000  -6.286374e+001  7.221509e+000 
4196875000  -6.082803e+001  3.231478e+001 
4200000000  -6.340282e+001  3.530690e+001 
4203125000  -6.143214e+001  3.147800e+000 
4206250000  -6.010059e+001  3.529351e+001 
4209375000  -6.124871e+001  3.147594e+001 
4212500000  -6.243652e+001  -3.870294e+000 
4215625000  -6.326186e+001  1.154835e+000 
4218750000  -6.162945e+001  1.668133e+001 
4221875000  -5.671607e+001  -3.564840e+000 
4225000000  -6.341825e+001  -1.886564e+001 
4228125000  -5.771953e+001  -2.288301e+001 
4231250000  -5.762388e+001  -2.330370e+001 
4234375000  -5.785168e+001  -4.489364e+001 
4237500000  -5.859145e+001  -4.196433e+001 
4240625000  -5.572118e+001  -6.308179e+001 
4243750000  -5.752965e+001  -8.197395e+001 
4246875000  -5.576134e+001  -5.977398e+001 
4250000000  -5.809345e+001  -9.390616e+001 
4253125000  -5.617833e+001  -9.686335e+001 
4256250000  -5.678480e+001  -1.105542e+002 
4259375000  -5.455415e+001  -1.075093e+002 
4262500000  -5.475367e+001  -1.401208e+002 
4265625000  -5.370838e+001  -1.196681e+002 
4268750000  -5.297885e+001  -1.463641e+002 
4271875000  -5.172522e+001  -1.590015e+002 
4275000000  -5.142809e+001  1.763929e+002 
4278125000  -5.278850e+001  1.631844e+002 
4281250000  -5.417057e+001  1.606984e+002 
4284375000  -5.340701e+001  1.591410e+002 
4287500000  -5.581396e+001  1.380329e+002 
4290625000  -5.497856e+001  1.455978e+002 
4293750000  -5.276273e+001  1.382577e+002 
4296875000  -5.254479e+001  1.277799e+002 
4300000000  -5.242120e+001  9.742394e+001 
4303125000  -5.293895e+001  1.001701e+002 
4306250000  -5.313910e+001  9.670422e+001 
4309375000  -5.214062e+001  7.459708e+001 
4312500000  -5.233688e+001  6.460307e+001 
4315625000  -5.164307e+001  4.898305e+001 
4318750000  -5.199404e+001  3.845785e+001 
4321875000  -5.315754e+001  3.840930e+001 
4325000000  -5.214672e+001  1.897946e+001 
4328125000  -5.078098e+001  1.605724e+001 
4331250000  -5.310926e+001  -9.778469e+000 
4334375000  -5.392843e+001  -1.872468e+001 
4337500000  -5.466443e+001  -3.784500e+001 
4340625000  -5.611031e+001  -2.771598e+001 
4343750000  -5.580503e+001  -2.958213e+001 
4346875000  -5.440857e+001  -3.822187e+001 
4350000000  -5.605756e+001  -6.562723e+001 
4353125000  -5.596210e+001  -7.172916e+001 
4356250000  -5.618703e+001  -6.068441e+001 
4359375000  -5.658727e+001  -5.883638e+001 
4362500000  -5.514081e+001  -6.795967e+001 
4365625000  -5.461150e+001  -9.673215e+001 
4368750000  -5.533040e+001  -9.844682e+001 
4371875000  -5.645466e+001  -1.145941e+002 
4375000000  -5.979484e+001  -1.218023e+002 
4378125000  -5.635585e+001  -1.328682e+002 
4381250000  -5.915946e+001  -1.359585e+002 
4384375000  -5.598025e+001  -1.370563e+002 
4387500000  -5.930727e+001  -1.457321e+002 
4390625000  -5.875102e+001  -1.527446e+002 
4393750000  -5.751584e+001  -1.462878e+002 
4396875000  -5.586244e+001  -1.706375e+002 
4400000000  -5.637077e+001  -1.712380e+002 
4403125000  -5.516850e+001  1.734560e+002 
4406250000  -5.689945e+001  1.635787e+002 
4409375000  -5.472375e+001  1.744347e+002 
4412500000  -5.740613e+001  1.530921e+002 
4415625000  -5.627098e+001  1.577357e+002 
