!Agilent Technologies,E8363B,MY43030201,A.06.04.32
!Agilent E8363B: A.06.04.32
!Date: Tuesday, November 11, 2014 22:14:30
!Correction: S21(Response(S21)) 
!S1P File: Measurement: S21:
# Hz S  dB   R 50
3000000000  -4.914960e+001  -7.388213e+001 
3003125000  -5.162981e+001  -8.101781e+001 
3006250000  -5.163394e+001  -8.996075e+001 
3009375000  -5.223065e+001  -9.286331e+001 
3012500000  -5.066408e+001  -9.749658e+001 
3015625000  -5.102689e+001  -1.102697e+002 
3018750000  -5.137539e+001  -1.132009e+002 
3021875000  -4.995568e+001  -1.154946e+002 
3025000000  -4.909552e+001  -1.320809e+002 
3028125000  -4.814642e+001  -1.437348e+002 
3031250000  -4.689752e+001  -1.610405e+002 
3034375000  -4.706589e+001  1.776163e+002 
3037500000  -4.789421e+001  1.654333e+002 
3040625000  -4.972131e+001  1.557748e+002 
3043750000  -4.920639e+001  1.433680e+002 
3046875000  -5.027308e+001  1.302776e+002 
3050000000  -5.201342e+001  1.236868e+002 
3053125000  -5.133499e+001  1.227933e+002 
3056250000  -5.169256e+001  1.169349e+002 
3059375000  -5.152727e+001  1.142184e+002 
3062500000  -4.932530e+001  1.046841e+002 
3065625000  -4.896294e+001  8.898112e+001 
3068750000  -4.887373e+001  7.603712e+001 
3071875000  -4.921965e+001  6.870894e+001 
3075000000  -4.820163e+001  5.803806e+001 
3078125000  -4.827047e+001  4.474862e+001 
3081250000  -4.905745e+001  3.433387e+001 
3084375000  -4.821722e+001  2.590899e+001 
3087500000  -4.787664e+001  1.486402e+001 
3090625000  -4.821033e+001  -4.358204e+000 
3093750000  -4.906427e+001  -1.553919e+001 
3096875000  -4.967051e+001  -2.205746e+001 
3100000000  -4.977136e+001  -3.249210e+001 
3103125000  -4.976950e+001  -4.293657e+001 
3106250000  -4.932543e+001  -4.794102e+001 
3109375000  -4.912955e+001  -5.691752e+001 
3112500000  -4.982705e+001  -7.236813e+001 
3115625000  -4.915527e+001  -7.783825e+001 
3118750000  -4.964876e+001  -8.596358e+001 
3121875000  -4.878496e+001  -9.795950e+001 
3125000000  -5.121843e+001  -1.094735e+002 
3128125000  -5.051451e+001  -1.096016e+002 
3131250000  -4.830094e+001  -1.151580e+002 
3134375000  -4.784286e+001  -1.392305e+002 
3137500000  -4.870268e+001  -1.531528e+002 
3140625000  -4.965369e+001  -1.604011e+002 
3143750000  -5.063689e+001  -1.692716e+002 
3146875000  -5.016075e+001  -1.735186e+002 
3150000000  -4.895213e+001  1.776031e+002 
3153125000  -4.968021e+001  1.706401e+002 
3156250000  -5.074888e+001  1.654339e+002 
3159375000  -4.832653e+001  1.578597e+002 
3162500000  -4.642170e+001  1.359383e+002 
3165625000  -4.772023e+001  1.207962e+002 
3168750000  -4.763400e+001  1.183886e+002 
3171875000  -4.726395e+001  1.031510e+002 
3175000000  -4.756860e+001  8.807114e+001 
3178125000  -4.753259e+001  8.257104e+001 
3181250000  -4.644724e+001  6.810426e+001 
3184375000  -4.684853e+001  5.365733e+001 
3187500000  -4.755923e+001  3.676268e+001 
3190625000  -4.941045e+001  2.321405e+001 
3193750000  -4.968103e+001  2.008438e+001 
3196875000  -5.022919e+001  2.130405e+001 
3200000000  -4.862536e+001  9.814100e+000 
3203125000  -4.845972e+001  -3.023155e+000 
3206250000  -4.897459e+001  -1.508412e+001 
3209375000  -4.770478e+001  -2.969699e+001 
3212500000  -4.916558e+001  -3.857140e+001 
3215625000  -4.834861e+001  -4.658999e+001 
3218750000  -4.909731e+001  -6.382945e+001 
3221875000  -4.920475e+001  -7.348065e+001 
3225000000  -4.986561e+001  -8.124946e+001 
3228125000  -4.989902e+001  -9.543520e+001 
3231250000  -5.089258e+001  -1.029500e+002 
3234375000  -5.059413e+001  -1.107033e+002 
3237500000  -5.058459e+001  -1.184663e+002 
3240625000  -4.982058e+001  -1.281277e+002 
3243750000  -4.965284e+001  -1.422820e+002 
3246875000  -5.062559e+001  -1.535114e+002 
3250000000  -5.091600e+001  -1.643671e+002 
3253125000  -5.197621e+001  -1.697682e+002 
3256250000  -5.038041e+001  1.726999e+002 
3259375000  -5.164511e+001  1.597776e+002 
3262500000  -5.252404e+001  1.491871e+002 
3265625000  -5.348039e+001  1.444937e+002 
3268750000  -5.317745e+001  1.396041e+002 
3271875000  -5.219264e+001  1.330129e+002 
3275000000  -5.282888e+001  1.210823e+002 
3278125000  -5.224096e+001  1.049539e+002 
3281250000  -5.297670e+001  1.065985e+002 
3284375000  -5.182068e+001  9.309624e+001 
3287500000  -5.441845e+001  8.268004e+001 
3290625000  -5.285777e+001  7.092715e+001 
3293750000  -5.294280e+001  5.645057e+001 
3296875000  -5.433397e+001  5.425563e+001 
3300000000  -5.461367e+001  4.560425e+001 
3303125000  -5.351221e+001  3.853887e+001 
3306250000  -5.300909e+001  2.700104e+001 
3309375000  -5.249830e+001  1.483586e+001 
3312500000  -5.317188e+001  1.209569e+000 
3315625000  -5.492926e+001  -4.908880e+000 
3318750000  -5.623407e+001  -2.561018e+001 
3321875000  -5.707462e+001  -2.120225e+001 
3325000000  -5.912553e+001  -2.345389e+001 
3328125000  -5.717171e+001  -2.324498e+001 
3331250000  -5.429619e+001  -2.805467e+001 
3334375000  -5.283761e+001  -4.103167e+001 
3337500000  -5.316014e+001  -6.660106e+001 
3340625000  -5.360009e+001  -8.536596e+001 
3343750000  -5.519419e+001  -8.348273e+001 
3346875000  -5.552061e+001  -1.039175e+002 
3350000000  -5.475981e+001  -9.711227e+001 
3353125000  -5.462441e+001  -1.169592e+002 
3356250000  -5.510616e+001  -1.214939e+002 
3359375000  -5.435780e+001  -1.450573e+002 
3362500000  -5.651817e+001  -1.503274e+002 
3365625000  -5.647786e+001  -1.584957e+002 
3368750000  -5.602054e+001  -1.681459e+002 
3371875000  -5.704065e+001  -1.753649e+002 
3375000000  -5.749298e+001  1.654288e+002 
3378125000  -5.842758e+001  1.744890e+002 
3381250000  -6.246337e+001  1.774311e+002 
3384375000  -5.571492e+001  -1.768057e+002 
3387500000  -5.529305e+001  1.625760e+002 
3390625000  -5.667659e+001  1.173633e+002 
3393750000  -5.730154e+001  1.225630e+002 
3396875000  -5.640048e+001  1.221077e+002 
3400000000  -5.519452e+001  9.326283e+001 
3403125000  -5.758544e+001  7.430099e+001 
3406250000  -5.826550e+001  6.596413e+001 
3409375000  -5.849667e+001  5.101878e+001 
3412500000  -5.853439e+001  5.275194e+001 
3415625000  -5.769401e+001  3.544972e+001 
3418750000  -6.026023e+001  4.076691e+001 
3421875000  -6.093029e+001  1.978962e+001 
3425000000  -5.755692e+001  2.361672e+001 
3428125000  -5.843955e+001  1.053705e+001 
3431250000  -5.843224e+001  -4.333756e+000 
3434375000  -6.049625e+001  -2.358516e+001 
3437500000  -6.346388e+001  -2.789644e+001 
3440625000  -6.003552e+001  -2.650786e+001 
3443750000  -6.081470e+001  -3.702028e+001 
3446875000  -5.930378e+001  -5.145807e+001 
3450000000  -6.045591e+001  -7.908579e+001 
3453125000  -6.581109e+001  -9.086744e+001 
3456250000  -7.312132e+001  -1.166221e+002 
3459375000  -6.695863e+001  -7.029358e+001 
3462500000  -6.429739e+001  -9.523147e+001 
3465625000  -6.759376e+001  -8.884817e+001 
3468750000  -7.024638e+001  -1.261540e+002 
3471875000  -6.454147e+001  -1.078190e+002 
3475000000  -6.724151e+001  -1.115306e+002 
3478125000  -6.464129e+001  -1.044698e+002 
3481250000  -6.632073e+001  -1.427505e+002 
3484375000  -6.817934e+001  -1.441272e+002 
3487500000  -6.576045e+001  -1.432419e+002 
3490625000  -6.878846e+001  -1.434991e+002 
3493750000  -7.169776e+001  -1.781861e+002 
3496875000  -6.644569e+001  -1.502647e+002 
3500000000  -6.702234e+001  -1.791936e+002 
3503125000  -7.391206e+001  -1.261274e+002 
3506250000  -6.422663e+001  -1.647944e+002 
3509375000  -6.469756e+001  1.538955e+002 
3512500000  -6.388961e+001  1.448718e+002 
3515625000  -6.611983e+001  1.621299e+002 
3518750000  -6.657008e+001  1.430698e+002 
3521875000  -6.859735e+001  1.307234e+002 
3525000000  -6.937168e+001  1.188202e+002 
3528125000  -7.217977e+001  7.901283e+001 
3531250000  -6.694160e+001  1.303319e+002 
3534375000  -7.037966e+001  1.259257e+002 
3537500000  -6.503132e+001  6.670788e+001 
3540625000  -6.712180e+001  7.557491e+001 
3543750000  -6.916076e+001  3.169938e+001 
3546875000  -7.350238e+001  5.885359e+001 
3550000000  -7.175826e+001  8.531435e+001 
3553125000  -6.355323e+001  3.930978e+001 
3556250000  -8.194853e+001  9.949277e+001 
3559375000  -7.174382e+001  4.630493e+001 
3562500000  -7.694715e+001  1.208347e+001 
3565625000  -7.829199e+001  5.395827e+001 
3568750000  -9.205201e+001  1.179624e+002 
3571875000  -6.644389e+001  2.680182e+001 
3575000000  -7.589191e+001  -4.060554e+001 
3578125000  -8.201608e+001  3.593203e+001 
3581250000  -7.373454e+001  1.013969e+001 
3584375000  -7.176189e+001  8.406409e+001 
3587500000  -9.158410e+001  1.768622e+002 
3590625000  -7.495873e+001  2.898963e+001 
3593750000  -6.737962e+001  -5.321154e+001 
3596875000  -6.367256e+001  3.456128e+001 
3600000000  -6.399680e+001  -2.206544e+001 
3603125000  -6.384723e+001  -7.197808e+000 
3606250000  -6.482191e+001  -3.943302e+001 
3609375000  -6.392469e+001  -4.973740e+001 
3612500000  -6.215210e+001  -6.358904e+001 
3615625000  -6.798872e+001  -5.024172e+001 
3618750000  -6.635008e+001  -7.974934e+001 
3621875000  -6.677391e+001  -7.911901e+001 
3625000000  -6.470030e+001  -8.191389e+001 
3628125000  -6.542057e+001  -9.751704e+001 
3631250000  -6.104108e+001  -1.212693e+002 
3634375000  -6.503080e+001  -1.351076e+002 
3637500000  -6.883796e+001  -1.098256e+002 
3640625000  -6.225922e+001  -1.266325e+002 
3643750000  -6.035015e+001  -1.428517e+002 
3646875000  -6.208758e+001  1.789291e+002 
3650000000  -6.508646e+001  -1.790399e+002 
3653125000  -6.230205e+001  -1.608989e+002 
3656250000  -6.542017e+001  1.651897e+002 
3659375000  -6.525072e+001  1.564312e+002 
3662500000  -6.320063e+001  1.748490e+002 
3665625000  -6.413795e+001  1.655385e+002 
3668750000  -6.270445e+001  1.213455e+002 
3671875000  -6.107094e+001  1.169345e+002 
3675000000  -6.492248e+001  9.398969e+001 
3678125000  -6.614718e+001  1.027702e+002 
3681250000  -6.179493e+001  1.028033e+002 
3684375000  -6.471735e+001  8.857715e+001 
3687500000  -6.720371e+001  8.802805e+001 
3690625000  -6.940844e+001  6.306730e+001 
3693750000  -6.840552e+001  1.095664e+002 
3696875000  -6.695634e+001  1.095753e+002 
3700000000  -6.394014e+001  9.077028e+001 
3703125000  -6.513783e+001  5.882364e+001 
3706250000  -6.765255e+001  6.876993e+001 
3709375000  -6.757750e+001  5.588513e+001 
3712500000  -6.783842e+001  5.325632e+001 
3715625000  -6.155430e+001  4.766931e+001 
3718750000  -6.312599e+001  3.576888e+001 
3721875000  -6.366948e+001  4.199950e+000 
3725000000  -6.061555e+001  1.773829e+001 
3728125000  -6.020096e+001  1.144869e+001 
3731250000  -5.986876e+001  -3.006047e-001 
3734375000  -5.943561e+001  -1.101305e+001 
3737500000  -5.988750e+001  -2.805901e+001 
3740625000  -6.075806e+001  -3.948414e+001 
3743750000  -5.769624e+001  -6.347050e+001 
3746875000  -5.823022e+001  -5.413729e+001 
3750000000  -5.896195e+001  -8.081017e+001 
3753125000  -5.724529e+001  -7.477321e+001 
3756250000  -5.877304e+001  -9.762234e+001 
3759375000  -5.787491e+001  -1.042653e+002 
3762500000  -5.801557e+001  -1.145195e+002 
3765625000  -5.895433e+001  -1.118687e+002 
3768750000  -5.847016e+001  -1.348166e+002 
3771875000  -5.438895e+001  -1.413940e+002 
3775000000  -5.556128e+001  -1.573575e+002 
3778125000  -5.664384e+001  -1.714994e+002 
3781250000  -5.692823e+001  1.774267e+002 
3784375000  -5.635925e+001  1.577023e+002 
3787500000  -5.723885e+001  1.488190e+002 
3790625000  -5.719112e+001  1.417095e+002 
3793750000  -5.698179e+001  1.265691e+002 
3796875000  -5.669638e+001  1.293608e+002 
3800000000  -5.316966e+001  8.220631e+001 
3803125000  -5.550024e+001  9.088271e+001 
3806250000  -5.841785e+001  7.949049e+001 
3809375000  -5.826784e+001  8.235522e+001 
3812500000  -5.670281e+001  6.659705e+001 
3815625000  -6.413020e+001  6.109452e+001 
3818750000  -6.166789e+001  4.439661e+001 
3821875000  -6.130136e+001  5.937948e+001 
3825000000  -5.903999e+001  3.987344e+001 
3828125000  -5.876235e+001  2.534942e+001 
3831250000  -5.981773e+001  2.360736e+001 
3834375000  -6.596227e+001  3.001541e+001 
3837500000  -6.211760e+001  1.679526e+001 
3840625000  -6.095312e+001  -4.073153e+000 
3843750000  -6.147747e+001  -2.099713e+000 
3846875000  -6.128409e+001  -2.512696e+001 
3850000000  -6.250985e+001  -3.771075e+001 
3853125000  -6.215894e+001  -2.620356e+001 
3856250000  -5.964942e+001  -1.175577e+001 
3859375000  -5.843319e+001  -3.343728e+001 
3862500000  -5.970283e+001  -3.128266e+001 
3865625000  -6.005563e+001  -4.952522e+001 
3868750000  -6.075270e+001  -3.799209e+001 
3871875000  -5.725539e+001  -5.156874e+001 
3875000000  -6.010078e+001  -6.982369e+001 
3878125000  -5.723611e+001  -7.698383e+001 
3881250000  -5.971012e+001  -1.022330e+002 
3884375000  -5.609043e+001  -9.113580e+001 
3887500000  -5.726490e+001  -1.175395e+002 
3890625000  -5.713558e+001  -1.198409e+002 
3893750000  -5.555872e+001  -1.254185e+002 
3896875000  -5.683709e+001  -1.284211e+002 
3900000000  -5.606590e+001  -1.417844e+002 
3903125000  -5.687891e+001  -1.594596e+002 
3906250000  -5.368165e+001  -1.634786e+002 
3909375000  -5.482421e+001  -1.786420e+002 
3912500000  -5.364142e+001  1.679500e+002 
3915625000  -5.525009e+001  1.597789e+002 
3918750000  -5.541113e+001  1.532770e+002 
3921875000  -5.492669e+001  1.421817e+002 
3925000000  -5.345830e+001  1.316055e+002 
3928125000  -5.263774e+001  1.131323e+002 
3931250000  -5.371833e+001  1.009801e+002 
3934375000  -5.378962e+001  8.635720e+001 
3937500000  -5.599935e+001  8.501757e+001 
3940625000  -5.520999e+001  7.320067e+001 
3943750000  -5.401409e+001  7.264926e+001 
3946875000  -5.239360e+001  5.225525e+001 
3950000000  -5.560394e+001  3.946733e+001 
3953125000  -5.485395e+001  3.498838e+001 
3956250000  -5.523967e+001  2.576519e+001 
3959375000  -5.182134e+001  1.059579e+001 
3962500000  -5.218994e+001  -7.804683e+000 
3965625000  -5.371349e+001  -1.744774e+001 
3968750000  -5.517842e+001  -3.668373e+001 
3971875000  -5.442363e+001  -3.975953e+001 
3975000000  -5.315104e+001  -5.141534e+001 
3978125000  -5.501575e+001  -6.076111e+001 
3981250000  -5.524041e+001  -7.204947e+001 
3984375000  -5.576130e+001  -8.112984e+001 
3987500000  -5.592855e+001  -9.062037e+001 
3990625000  -5.621711e+001  -9.760870e+001 
3993750000  -5.733376e+001  -1.184113e+002 
3996875000  -5.736284e+001  -1.201036e+002 
4000000000  -5.991785e+001  -1.445521e+002 
4003125000  -5.917673e+001  -1.311809e+002 
4006250000  -5.737139e+001  -1.431826e+002 
4009375000  -5.766025e+001  -1.556541e+002 
4012500000  -5.875964e+001  -1.517240e+002 
4015625000  -6.289514e+001  -1.691737e+002 
4018750000  -5.847740e+001  -1.672106e+002 
4021875000  -6.075571e+001  -1.754498e+002 
4025000000  -5.973790e+001  1.744617e+002 
4028125000  -5.952663e+001  1.770432e+002 
4031250000  -5.995872e+001  1.743679e+002 
4034375000  -6.146619e+001  1.552299e+002 
4037500000  -5.846478e+001  1.459013e+002 
4040625000  -5.940805e+001  1.440158e+002 
4043750000  -5.748444e+001  1.506624e+002 
4046875000  -5.874680e+001  1.441748e+002 
4050000000  -5.743013e+001  1.236927e+002 
4053125000  -5.866260e+001  1.134741e+002 
4056250000  -5.845114e+001  1.189163e+002 
4059375000  -5.649360e+001  1.101300e+002 
4062500000  -5.499314e+001  1.021650e+002 
4065625000  -5.377811e+001  7.531665e+001 
4068750000  -5.565671e+001  7.365710e+001 
4071875000  -5.334679e+001  6.027124e+001 
4075000000  -5.248943e+001  4.219839e+001 
4078125000  -5.422892e+001  4.187698e+001 
4081250000  -5.305207e+001  2.975985e+001 
4084375000  -5.190607e+001  7.602520e+000 
4087500000  -5.368663e+001  -3.855484e+000 
4090625000  -5.317966e+001  -3.785432e+000 
4093750000  -5.444841e+001  -2.828213e+001 
4096875000  -5.243153e+001  -2.920630e+001 
4100000000  -5.349670e+001  -5.510969e+001 
4103125000  -5.531882e+001  -4.079317e+001 
4106250000  -5.464593e+001  -4.897355e+001 
4109375000  -5.246952e+001  -6.305651e+001 
4112500000  -5.270583e+001  -7.746169e+001 
4115625000  -5.412665e+001  -8.355326e+001 
4118750000  -5.157001e+001  -1.007538e+002 
4121875000  -5.236398e+001  -1.178859e+002 
4125000000  -5.437381e+001  -1.218895e+002 
4128125000  -5.541184e+001  -1.233102e+002 
4131250000  -5.295734e+001  -1.348844e+002 
4134375000  -5.049297e+001  -1.502728e+002 
4137500000  -5.290903e+001  -1.687577e+002 
4140625000  -5.435048e+001  1.685257e+002 
4143750000  -5.657591e+001  1.739399e+002 
4146875000  -5.334177e+001  1.713413e+002 
4150000000  -5.517318e+001  1.608607e+002 
4153125000  -5.442337e+001  1.450450e+002 
4156250000  -5.598470e+001  1.311010e+002 
4159375000  -5.538310e+001  1.365316e+002 
4162500000  -5.651210e+001  1.227855e+002 
4165625000  -5.450470e+001  1.213096e+002 
4168750000  -5.342720e+001  8.822138e+001 
4171875000  -5.437242e+001  7.678245e+001 
4175000000  -5.648817e+001  6.157553e+001 
4178125000  -5.852658e+001  6.829222e+001 
4181250000  -5.771755e+001  4.261623e+001 
4184375000  -6.017423e+001  3.124326e+001 
4187500000  -5.898471e+001  2.517990e+001 
4190625000  -6.111529e+001  2.698524e+001 
4193750000  -6.065694e+001  2.155100e+001 
4196875000  -6.507811e+001  -2.226321e+001 
4200000000  -6.425523e+001  2.893729e+001 
4203125000  -6.214131e+001  2.625515e+001 
4206250000  -6.204570e+001  4.174789e+001 
4209375000  -6.132103e+001  -1.815073e+001 
4212500000  -6.189539e+001  2.634828e+001 
4215625000  -6.210102e+001  -1.857244e+001 
4218750000  -6.638405e+001  -3.041666e+001 
4221875000  -5.914877e+001  -8.927413e+000 
4225000000  -5.995385e+001  -1.253177e+001 
4228125000  -6.005387e+001  -3.745843e+001 
4231250000  -5.893496e+001  -2.360582e+001 
4234375000  -5.691588e+001  -5.138395e+001 
4237500000  -5.898793e+001  -5.103714e+001 
4240625000  -5.476160e+001  -6.704909e+001 
4243750000  -6.226025e+001  -8.046573e+001 
4246875000  -5.585763e+001  -8.148357e+001 
4250000000  -5.717562e+001  -8.482053e+001 
4253125000  -5.609653e+001  -8.364368e+001 
4256250000  -5.559076e+001  -1.037552e+002 
4259375000  -5.609073e+001  -1.141764e+002 
4262500000  -5.611924e+001  -1.234988e+002 
4265625000  -5.355888e+001  -1.254565e+002 
4268750000  -5.282892e+001  -1.374113e+002 
4271875000  -5.267247e+001  -1.598307e+002 
4275000000  -5.256277e+001  -1.731577e+002 
4278125000  -5.375757e+001  1.705184e+002 
4281250000  -5.436410e+001  1.685445e+002 
4284375000  -5.572081e+001  1.580986e+002 
4287500000  -5.549763e+001  1.378316e+002 
4290625000  -5.576098e+001  1.574128e+002 
4293750000  -5.382602e+001  1.545944e+002 
4296875000  -5.258522e+001  1.129620e+002 
4300000000  -5.389205e+001  1.124920e+002 
4303125000  -5.381201e+001  9.747599e+001 
4306250000  -5.140509e+001  1.070004e+002 
4309375000  -5.123644e+001  8.075771e+001 
4312500000  -5.291157e+001  7.163203e+001 
4315625000  -5.184773e+001  5.368187e+001 
4318750000  -5.282877e+001  3.552133e+001 
4321875000  -5.298759e+001  3.833709e+001 
4325000000  -5.321177e+001  2.267931e+001 
4328125000  -5.239170e+001  8.856418e+000 
4331250000  -5.268808e+001  -7.083501e+000 
4334375000  -5.349474e+001  -1.376802e+001 
4337500000  -5.520937e+001  -2.605264e+001 
4340625000  -5.530819e+001  -1.520709e+001 
4343750000  -5.579721e+001  -4.215675e+001 
4346875000  -5.596236e+001  -3.355534e+001 
4350000000  -5.514083e+001  -7.017267e+001 
4353125000  -5.670950e+001  -7.478069e+001 
4356250000  -5.591907e+001  -6.416681e+001 
4359375000  -5.949824e+001  -5.642114e+001 
4362500000  -5.401395e+001  -8.273070e+001 
4365625000  -5.342630e+001  -9.544283e+001 
4368750000  -5.428535e+001  -9.014862e+001 
4371875000  -5.746719e+001  -9.983744e+001 
4375000000  -5.887809e+001  -1.136167e+002 
4378125000  -5.856586e+001  -1.124218e+002 
4381250000  -5.732952e+001  -1.264211e+002 
4384375000  -5.729613e+001  -1.382931e+002 
4387500000  -5.825097e+001  -1.425862e+002 
4390625000  -5.762199e+001  -1.547737e+002 
4393750000  -5.993826e+001  -1.376699e+002 
4396875000  -5.585670e+001  -1.575126e+002 
4400000000  -5.612244e+001  -1.612377e+002 
4403125000  -5.549383e+001  1.712613e+002 
4406250000  -5.728584e+001  -1.761270e+002 
4409375000  -5.703151e+001  1.794841e+002 
4412500000  -5.700137e+001  1.720700e+002 
4415625000  -5.453129e+001  1.584973e+002 
4418750000  -5.368641e+001  1.595023e+002 
