!Agilent Technologies,E8363B,MY43030201,A.06.04.32
!Agilent E8363B: A.06.04.32
!Date: Tuesday, November 11, 2014 22:09:06
!Correction: S21(Response(S21)) 
!S1P File: Measurement: S21:
# Hz S  dB   R 50
3000000000  -4.911876e+001  -7.549805e+001 
3003125000  -5.134250e+001  -8.340356e+001 
3006250000  -5.187240e+001  -8.921485e+001 
3009375000  -5.192595e+001  -9.150776e+001 
3012500000  -5.094212e+001  -9.929865e+001 
3015625000  -5.132225e+001  -1.108670e+002 
3018750000  -5.179980e+001  -1.165597e+002 
3021875000  -4.975092e+001  -1.179848e+002 
3025000000  -4.845479e+001  -1.317282e+002 
3028125000  -4.777716e+001  -1.461322e+002 
3031250000  -4.703516e+001  -1.658435e+002 
3034375000  -4.724239e+001  1.776676e+002 
3037500000  -4.741084e+001  1.617929e+002 
3040625000  -4.939481e+001  1.510089e+002 
3043750000  -4.931002e+001  1.383709e+002 
3046875000  -5.036783e+001  1.311789e+002 
3050000000  -5.183402e+001  1.172453e+002 
3053125000  -5.129281e+001  1.198086e+002 
3056250000  -5.207504e+001  1.241886e+002 
3059375000  -5.079441e+001  1.109639e+002 
3062500000  -4.963955e+001  1.002759e+002 
3065625000  -4.924857e+001  8.695473e+001 
3068750000  -4.876776e+001  7.352773e+001 
3071875000  -4.911620e+001  6.785656e+001 
3075000000  -4.847744e+001  5.297327e+001 
3078125000  -4.786225e+001  4.382309e+001 
3081250000  -4.889038e+001  3.061281e+001 
3084375000  -4.849709e+001  2.168512e+001 
3087500000  -4.831899e+001  1.277817e+001 
3090625000  -4.821562e+001  -8.932286e+000 
3093750000  -4.888057e+001  -1.778677e+001 
3096875000  -4.937987e+001  -2.709068e+001 
3100000000  -4.969290e+001  -3.355914e+001 
3103125000  -4.947244e+001  -4.069194e+001 
3106250000  -4.893715e+001  -5.294443e+001 
3109375000  -4.976967e+001  -5.947593e+001 
3112500000  -4.925044e+001  -7.227549e+001 
3115625000  -4.920377e+001  -8.011140e+001 
3118750000  -4.958945e+001  -8.628722e+001 
3121875000  -4.923938e+001  -1.044826e+002 
3125000000  -5.084855e+001  -1.125233e+002 
3128125000  -5.032670e+001  -1.122598e+002 
3131250000  -4.841322e+001  -1.166303e+002 
3134375000  -4.734220e+001  -1.433000e+002 
3137500000  -4.864815e+001  -1.563161e+002 
3140625000  -4.971949e+001  -1.618882e+002 
3143750000  -5.037551e+001  -1.734600e+002 
3146875000  -4.993326e+001  -1.742491e+002 
3150000000  -4.883707e+001  1.752908e+002 
3153125000  -4.927460e+001  1.656022e+002 
3156250000  -5.032401e+001  1.618527e+002 
3159375000  -4.807653e+001  1.532560e+002 
3162500000  -4.634748e+001  1.318050e+002 
3165625000  -4.765670e+001  1.188605e+002 
3168750000  -4.757040e+001  1.124709e+002 
3171875000  -4.732379e+001  1.034342e+002 
3175000000  -4.747647e+001  8.662975e+001 
3178125000  -4.729106e+001  8.182721e+001 
3181250000  -4.685361e+001  6.607075e+001 
3184375000  -4.635187e+001  5.032568e+001 
3187500000  -4.732664e+001  2.987257e+001 
3190625000  -4.954055e+001  2.204573e+001 
3193750000  -4.954393e+001  2.201215e+001 
3196875000  -4.967039e+001  1.390408e+001 
3200000000  -4.827076e+001  9.195606e+000 
3203125000  -4.812587e+001  -5.895508e+000 
3206250000  -4.840327e+001  -1.917980e+001 
3209375000  -4.804756e+001  -3.042829e+001 
3212500000  -4.912392e+001  -4.441616e+001 
3215625000  -4.861843e+001  -5.041434e+001 
3218750000  -4.886263e+001  -6.329453e+001 
3221875000  -4.974519e+001  -7.473924e+001 
3225000000  -4.945346e+001  -8.963730e+001 
3228125000  -4.979576e+001  -1.003563e+002 
3231250000  -5.076419e+001  -1.048438e+002 
3234375000  -5.100727e+001  -1.109205e+002 
3237500000  -5.090704e+001  -1.202244e+002 
3240625000  -4.982843e+001  -1.309292e+002 
3243750000  -4.981488e+001  -1.474499e+002 
3246875000  -4.975756e+001  -1.621949e+002 
3250000000  -5.110764e+001  -1.677353e+002 
3253125000  -5.124847e+001  -1.752135e+002 
3256250000  -5.061283e+001  1.744817e+002 
3259375000  -5.177134e+001  1.541062e+002 
3262500000  -5.247534e+001  1.488148e+002 
3265625000  -5.317601e+001  1.435703e+002 
3268750000  -5.318174e+001  1.419818e+002 
3271875000  -5.311564e+001  1.332099e+002 
3275000000  -5.295327e+001  1.204479e+002 
3278125000  -5.251527e+001  1.032129e+002 
3281250000  -5.358801e+001  1.020089e+002 
3284375000  -5.221772e+001  9.060717e+001 
3287500000  -5.343720e+001  8.788740e+001 
3290625000  -5.304951e+001  7.102750e+001 
3293750000  -5.281659e+001  5.486155e+001 
3296875000  -5.434838e+001  4.838480e+001 
3300000000  -5.505749e+001  5.293127e+001 
3303125000  -5.264586e+001  4.150479e+001 
3306250000  -5.337399e+001  2.744870e+001 
3309375000  -5.357665e+001  1.851154e+001 
3312500000  -5.285976e+001  1.536371e+000 
3315625000  -5.427282e+001  -1.379254e+001 
3318750000  -5.622309e+001  -1.721078e+001 
3321875000  -5.878728e+001  -2.476883e+001 
3325000000  -5.682287e+001  -1.889844e+001 
3328125000  -5.732580e+001  -1.574323e+001 
3331250000  -5.404050e+001  -2.392885e+001 
3334375000  -5.240130e+001  -4.214466e+001 
3337500000  -5.225423e+001  -7.414077e+001 
3340625000  -5.436359e+001  -8.939004e+001 
3343750000  -5.540738e+001  -8.533347e+001 
3346875000  -5.601022e+001  -1.006161e+002 
3350000000  -5.410943e+001  -1.024900e+002 
3353125000  -5.363115e+001  -1.233254e+002 
3356250000  -5.473764e+001  -1.283986e+002 
3359375000  -5.495479e+001  -1.526565e+002 
3362500000  -5.685973e+001  -1.464875e+002 
3365625000  -5.644631e+001  -1.629134e+002 
3368750000  -5.737853e+001  -1.746167e+002 
3371875000  -5.681961e+001  1.710957e+002 
3375000000  -5.839108e+001  1.729294e+002 
3378125000  -5.911243e+001  1.615468e+002 
3381250000  -6.041422e+001  -1.790934e+002 
3384375000  -5.710216e+001  -1.751782e+002 
3387500000  -5.434543e+001  1.556427e+002 
3390625000  -5.632716e+001  1.301810e+002 
3393750000  -5.699002e+001  1.169476e+002 
3396875000  -5.692455e+001  1.090113e+002 
3400000000  -5.494031e+001  8.730883e+001 
3403125000  -5.817714e+001  7.532210e+001 
3406250000  -5.725107e+001  6.952698e+001 
3409375000  -5.881454e+001  5.388985e+001 
3412500000  -5.829926e+001  4.547972e+001 
3415625000  -5.862326e+001  3.478627e+001 
3418750000  -6.020393e+001  2.601540e+001 
3421875000  -6.333105e+001  1.697178e+001 
3425000000  -6.214265e+001  3.069633e+001 
3428125000  -5.889833e+001  2.458512e+000 
3431250000  -5.871552e+001  -2.239067e+000 
3434375000  -5.969421e+001  -2.206864e+001 
3437500000  -6.277249e+001  -3.585671e+001 
3440625000  -6.141786e+001  -3.807736e+001 
3443750000  -6.148645e+001  -2.311750e+001 
3446875000  -6.073608e+001  -4.844305e+001 
3450000000  -6.079874e+001  -7.680535e+001 
3453125000  -6.249876e+001  -7.633084e+001 
3456250000  -6.570853e+001  -1.004855e+002 
3459375000  -6.550964e+001  -8.982619e+001 
3462500000  -6.780449e+001  -9.569025e+001 
3465625000  -6.734665e+001  -8.968201e+001 
3468750000  -6.704007e+001  -1.107521e+002 
3471875000  -6.510113e+001  -1.138105e+002 
3475000000  -6.521919e+001  -1.077147e+002 
3478125000  -6.956522e+001  -9.082591e+001 
3481250000  -7.617962e+001  -1.673633e+002 
3484375000  -6.869408e+001  -1.395835e+002 
3487500000  -6.704651e+001  -1.244388e+002 
3490625000  -7.205283e+001  -1.561907e+002 
3493750000  -7.319006e+001  1.745686e+002 
3496875000  -6.921913e+001  -1.449336e+002 
3500000000  -6.935961e+001  -1.068147e+002 
3503125000  -6.504226e+001  -1.543082e+002 
3506250000  -6.633107e+001  -1.494830e+002 
3509375000  -6.505939e+001  -1.684682e+002 
3512500000  -6.552054e+001  1.515707e+002 
3515625000  -6.542025e+001  1.451714e+002 
3518750000  -6.834837e+001  1.311193e+002 
3521875000  -6.585076e+001  1.317964e+002 
3525000000  -6.829738e+001  1.372325e+002 
3528125000  -6.961417e+001  1.227849e+002 
3531250000  -6.530907e+001  1.177759e+002 
3534375000  -6.455066e+001  9.863665e+001 
3537500000  -6.664259e+001  5.793774e+001 
3540625000  -7.325896e+001  6.932748e+001 
3543750000  -7.207527e+001  5.357710e+001 
3546875000  -6.766620e+001  3.487127e+001 
3550000000  -6.450771e+001  7.818591e+001 
3553125000  -7.259820e+001  7.642066e+001 
3556250000  -6.884188e+001  -1.100459e+001 
3559375000  -7.432706e+001  1.541823e+001 
3562500000  -7.628143e+001  3.101568e+001 
3565625000  -7.201673e+001  -1.761599e+001 
3568750000  -8.092181e+001  7.451650e+001 
3571875000  -7.548090e+001  9.203394e+001 
3575000000  -7.043433e+001  1.965440e+001 
3578125000  -6.700310e+001  6.471017e+001 
3581250000  -7.607220e+001  8.484675e+001 
3584375000  -6.982070e+001  9.704613e+001 
3587500000  -7.553892e+001  2.420869e+001 
3590625000  -7.737424e+001  -1.684043e+001 
3593750000  -6.891705e+001  -1.406701e+001 
3596875000  -6.932580e+001  4.195670e+001 
3600000000  -6.630370e+001  -1.557497e+001 
3603125000  -7.117761e+001  1.204011e+001 
3606250000  -6.353844e+001  -3.801136e+001 
3609375000  -6.400378e+001  -4.171562e+001 
3612500000  -6.641725e+001  -7.404044e+001 
3615625000  -6.875038e+001  -5.627105e+001 
3618750000  -6.469211e+001  -7.572617e+001 
3621875000  -6.219588e+001  -1.040872e+002 
3625000000  -6.359920e+001  -9.907502e+001 
3628125000  -6.286469e+001  -1.150555e+002 
3631250000  -6.240359e+001  -1.095035e+002 
3634375000  -6.556378e+001  -1.095652e+002 
3637500000  -6.309957e+001  -1.272091e+002 
3640625000  -6.378592e+001  -1.179343e+002 
3643750000  -6.410963e+001  -1.587466e+002 
3646875000  -6.061829e+001  -1.632966e+002 
3650000000  -6.310773e+001  1.728196e+002 
3653125000  -6.670212e+001  1.726799e+002 
3656250000  -6.427883e+001  -1.724319e+002 
3659375000  -6.474261e+001  1.422754e+002 
3662500000  -6.314686e+001  1.698429e+002 
3665625000  -6.136864e+001  1.623773e+002 
3668750000  -6.399561e+001  1.266279e+002 
3671875000  -6.158499e+001  1.172861e+002 
3675000000  -6.371552e+001  9.685757e+001 
3678125000  -6.397753e+001  1.149193e+002 
3681250000  -6.121269e+001  7.750655e+001 
3684375000  -6.635515e+001  1.003037e+002 
3687500000  -6.775520e+001  7.729661e+001 
3690625000  -7.151285e+001  7.340839e+001 
3693750000  -6.418100e+001  8.116695e+001 
3696875000  -7.032474e+001  5.501912e+001 
3700000000  -6.545284e+001  7.490970e+001 
3703125000  -6.716374e+001  6.598834e+001 
3706250000  -6.311712e+001  6.336294e+001 
3709375000  -6.842840e+001  4.653611e+001 
3712500000  -6.209902e+001  6.557232e+001 
3715625000  -6.389384e+001  4.190650e+001 
3718750000  -6.110884e+001  2.770342e+001 
3721875000  -6.044163e+001  8.733109e+000 
3725000000  -6.168627e+001  1.756685e+001 
3728125000  -5.857684e+001  -1.629809e+000 
3731250000  -6.067590e+001  -2.955722e+000 
3734375000  -5.911227e+001  -2.370764e+001 
3737500000  -5.949173e+001  -4.554016e+001 
3740625000  -5.831029e+001  -4.234004e+001 
3743750000  -5.893401e+001  -6.258817e+001 
3746875000  -5.858657e+001  -6.053291e+001 
3750000000  -5.999011e+001  -7.110933e+001 
3753125000  -5.865203e+001  -6.989915e+001 
3756250000  -5.777605e+001  -1.041458e+002 
3759375000  -5.959312e+001  -1.145018e+002 
3762500000  -5.745148e+001  -1.243931e+002 
3765625000  -5.941957e+001  -1.303503e+002 
3768750000  -5.873808e+001  -1.319946e+002 
3771875000  -5.581664e+001  -1.499149e+002 
3775000000  -5.612086e+001  -1.623404e+002 
3778125000  -5.835611e+001  1.783576e+002 
3781250000  -5.698440e+001  1.756834e+002 
3784375000  -5.693396e+001  1.606602e+002 
3787500000  -5.672592e+001  1.499494e+002 
3790625000  -5.739308e+001  1.380623e+002 
3793750000  -5.832828e+001  1.310715e+002 
3796875000  -5.706321e+001  1.181853e+002 
3800000000  -5.269378e+001  7.603412e+001 
3803125000  -5.740046e+001  9.215552e+001 
3806250000  -6.199683e+001  7.047918e+001 
3809375000  -5.978332e+001  7.832517e+001 
3812500000  -5.960394e+001  4.800812e+001 
3815625000  -6.202570e+001  4.872198e+001 
3818750000  -6.339010e+001  2.901524e+001 
3821875000  -5.925455e+001  5.992900e+001 
3825000000  -5.819090e+001  4.067865e+001 
3828125000  -5.635184e+001  2.336925e+001 
3831250000  -5.987072e+001  1.718658e+000 
3834375000  -6.466926e+001  8.033664e+000 
3837500000  -6.040733e+001  1.213743e+001 
3840625000  -6.168190e+001  2.744446e+000 
3843750000  -6.128203e+001  -4.395295e+000 
3846875000  -6.196383e+001  -2.336282e+001 
3850000000  -6.371745e+001  5.951755e+000 
3853125000  -6.144906e+001  5.784210e+000 
3856250000  -5.846903e+001  -1.556530e+001 
3859375000  -5.758398e+001  -4.229648e+001 
3862500000  -6.354699e+001  -4.378635e+001 
3865625000  -6.116357e+001  -4.675856e+001 
3868750000  -6.154881e+001  -5.003223e+001 
3871875000  -5.642333e+001  -6.281449e+001 
3875000000  -6.113604e+001  -7.527140e+001 
3878125000  -5.762099e+001  -8.829132e+001 
3881250000  -5.743600e+001  -9.307347e+001 
3884375000  -5.488283e+001  -9.741930e+001 
3887500000  -5.642713e+001  -1.173385e+002 
3890625000  -5.759023e+001  -1.193889e+002 
3893750000  -5.657119e+001  -1.450512e+002 
3896875000  -5.890502e+001  -1.405414e+002 
3900000000  -5.682693e+001  -1.460182e+002 
3903125000  -5.521291e+001  -1.482586e+002 
3906250000  -5.377898e+001  -1.762867e+002 
3909375000  -5.365633e+001  1.730043e+002 
3912500000  -5.408047e+001  1.544548e+002 
3915625000  -5.576298e+001  1.616329e+002 
3918750000  -5.485060e+001  1.466955e+002 
3921875000  -5.377402e+001  1.414467e+002 
3925000000  -5.303949e+001  1.222035e+002 
3928125000  -5.393993e+001  1.032040e+002 
3931250000  -5.388496e+001  1.032280e+002 
3934375000  -5.428922e+001  8.566784e+001 
3937500000  -5.558646e+001  8.471138e+001 
3940625000  -5.509666e+001  7.052679e+001 
3943750000  -5.300938e+001  6.581004e+001 
3946875000  -5.311205e+001  4.907089e+001 
3950000000  -5.465476e+001  4.057636e+001 
3953125000  -5.508034e+001  3.359355e+001 
3956250000  -5.352270e+001  2.190612e+001 
3959375000  -5.315166e+001  1.405064e+001 
3962500000  -5.255155e+001  -2.943576e+000 
3965625000  -5.311425e+001  -1.977667e+001 
3968750000  -5.401373e+001  -3.911485e+001 
3971875000  -5.399223e+001  -3.630989e+001 
3975000000  -5.471983e+001  -5.607720e+001 
3978125000  -5.400739e+001  -6.211539e+001 
3981250000  -5.454057e+001  -8.154027e+001 
3984375000  -5.554923e+001  -9.233150e+001 
3987500000  -5.551718e+001  -9.018729e+001 
3990625000  -5.751044e+001  -9.452666e+001 
3993750000  -5.654265e+001  -1.216221e+002 
3996875000  -5.949283e+001  -1.325267e+002 
4000000000  -5.937639e+001  -1.421267e+002 
4003125000  -5.919103e+001  -1.347800e+002 
4006250000  -5.784361e+001  -1.338445e+002 
4009375000  -5.617361e+001  -1.546785e+002 
4012500000  -5.964735e+001  -1.534634e+002 
4015625000  -6.309555e+001  -1.450518e+002 
4018750000  -5.984186e+001  -1.714365e+002 
4021875000  -5.916866e+001  1.792801e+002 
4025000000  -5.943744e+001  1.729225e+002 
4028125000  -6.119270e+001  1.706488e+002 
4031250000  -5.977273e+001  1.513378e+002 
4034375000  -6.114420e+001  1.464270e+002 
4037500000  -5.870660e+001  1.539993e+002 
4040625000  -6.106341e+001  1.322729e+002 
4043750000  -5.783249e+001  1.482612e+002 
4046875000  -5.953774e+001  1.327654e+002 
4050000000  -5.694307e+001  1.046953e+002 
4053125000  -5.963173e+001  1.241415e+002 
4056250000  -5.747794e+001  1.133376e+002 
4059375000  -5.667235e+001  1.046133e+002 
4062500000  -5.484687e+001  1.020788e+002 
4065625000  -5.593697e+001  7.231306e+001 
4068750000  -5.452962e+001  7.035110e+001 
4071875000  -5.316695e+001  5.495908e+001 
4075000000  -5.234676e+001  3.694170e+001 
4078125000  -5.246818e+001  3.433990e+001 
4081250000  -5.323153e+001  3.501865e+001 
4084375000  -5.243130e+001  3.181962e+000 
4087500000  -5.393450e+001  -6.642591e+000 
4090625000  -5.421753e+001  -4.478628e+000 
4093750000  -5.285774e+001  -2.041706e+001 
4096875000  -5.159098e+001  -3.629929e+001 
4100000000  -5.343218e+001  -4.882576e+001 
4103125000  -5.352592e+001  -4.947058e+001 
4106250000  -5.412347e+001  -5.433463e+001 
4109375000  -5.308975e+001  -5.837423e+001 
4112500000  -5.139294e+001  -8.670644e+001 
4115625000  -5.337935e+001  -9.286233e+001 
4118750000  -5.250030e+001  -1.007004e+002 
4121875000  -5.208186e+001  -1.237105e+002 
4125000000  -5.390406e+001  -1.231333e+002 
4128125000  -5.335094e+001  -1.330965e+002 
4131250000  -5.443342e+001  -1.273869e+002 
4134375000  -5.158824e+001  -1.586399e+002 
4137500000  -5.123278e+001  -1.773347e+002 
4140625000  -5.426401e+001  1.624526e+002 
4143750000  -5.577914e+001  1.785429e+002 
4146875000  -5.476436e+001  1.657039e+002 
4150000000  -5.595904e+001  1.438610e+002 
4153125000  -5.355370e+001  1.476490e+002 
4156250000  -5.641173e+001  1.212403e+002 
4159375000  -5.647685e+001  1.238527e+002 
4162500000  -5.631208e+001  1.228176e+002 
4165625000  -5.318911e+001  1.151640e+002 
4168750000  -5.602711e+001  9.153812e+001 
4171875000  -5.444421e+001  6.981365e+001 
4175000000  -5.597238e+001  5.918727e+001 
4178125000  -5.671193e+001  7.212082e+001 
4181250000  -5.864608e+001  4.732489e+001 
4184375000  -6.027609e+001  4.119337e+001 
4187500000  -5.719330e+001  2.706829e+001 
4190625000  -6.431247e+001  4.656937e+001 
4193750000  -6.303303e+001  2.113754e+001 
4196875000  -6.279726e+001  1.441860e+001 
4200000000  -6.265912e+001  1.539971e+001 
4203125000  -6.764616e+001  4.212406e+001 
4206250000  -6.061667e+001  2.535610e+001 
4209375000  -6.069035e+001  -3.419402e+001 
4212500000  -6.409264e+001  3.828545e+001 
4215625000  -6.467734e+001  -1.900265e+001 
4218750000  -6.102198e+001  3.500261e+000 
4221875000  -6.225071e+001  -2.788841e+001 
4225000000  -6.065331e+001  -1.547282e+001 
4228125000  -5.843501e+001  -1.935077e+001 
4231250000  -5.856148e+001  -2.498390e+001 
4234375000  -5.804803e+001  -4.580628e+001 
4237500000  -5.700343e+001  -5.561642e+001 
4240625000  -5.424849e+001  -6.181385e+001 
4243750000  -6.038605e+001  -6.952719e+001 
4246875000  -5.551185e+001  -8.098034e+001 
4250000000  -5.663501e+001  -8.341637e+001 
4253125000  -5.698991e+001  -9.811739e+001 
4256250000  -5.588911e+001  -1.128207e+002 
4259375000  -5.495182e+001  -1.067155e+002 
4262500000  -5.512984e+001  -1.315005e+002 
4265625000  -5.307170e+001  -1.248417e+002 
4268750000  -5.193961e+001  -1.453543e+002 
4271875000  -5.252422e+001  -1.589509e+002 
4275000000  -5.114922e+001  -1.795209e+002 
4278125000  -5.406519e+001  1.576040e+002 
4281250000  -5.397737e+001  1.570844e+002 
4284375000  -5.212226e+001  1.513339e+002 
4287500000  -5.342751e+001  1.404388e+002 
4290625000  -5.553602e+001  1.433426e+002 
4293750000  -5.327416e+001  1.443408e+002 
4296875000  -5.225470e+001  1.198671e+002 
4300000000  -5.189220e+001  1.074754e+002 
4303125000  -5.230475e+001  9.592666e+001 
4306250000  -5.173305e+001  9.095024e+001 
4309375000  -5.192634e+001  7.510383e+001 
4312500000  -5.145766e+001  5.915197e+001 
4315625000  -5.333661e+001  5.399620e+001 
4318750000  -5.412128e+001  4.132182e+001 
4321875000  -5.220425e+001  3.475267e+001 
4325000000  -5.245207e+001  2.168988e+001 
4328125000  -5.141920e+001  1.094499e+001 
4331250000  -5.283094e+001  -1.286246e+001 
4334375000  -5.457145e+001  -2.941282e+001 
4337500000  -5.584781e+001  -3.074148e+001 
4340625000  -5.539929e+001  -2.036668e+001 
4343750000  -5.695135e+001  -4.009905e+001 
4346875000  -5.363821e+001  -4.589399e+001 
4350000000  -5.553662e+001  -5.910755e+001 
4353125000  -5.694547e+001  -8.041274e+001 
4356250000  -5.826893e+001  -7.857348e+001 
4359375000  -5.935353e+001  -3.050101e+001 
4362500000  -5.459252e+001  -8.242655e+001 
4365625000  -5.294032e+001  -9.603493e+001 
4368750000  -5.653319e+001  -9.244178e+001 
4371875000  -5.665462e+001  -1.045988e+002 
4375000000  -5.610882e+001  -1.225145e+002 
4378125000  -5.843546e+001  -1.249208e+002 
4381250000  -5.599593e+001  -1.255911e+002 
4384375000  -5.683277e+001  -1.497425e+002 
4387500000  -5.863185e+001  -1.511208e+002 
4390625000  -5.580974e+001  -1.623699e+002 
4393750000  -5.864246e+001  -1.481163e+002 
4396875000  -5.527560e+001  -1.666781e+002 
4400000000  -5.693014e+001  -1.687621e+002 
4403125000  -5.678112e+001  1.717494e+002 
4406250000  -5.630021e+001  1.689365e+002 
4409375000  -5.622001e+001  1.708662e+002 
4412500000  -5.637779e+001  1.467538e+002 
4415625000  -5.792142e+001  1.590910e+002 
4418750000  -5.511513e+001  1.534016e+002 
