!Agilent Technologies,E8363B,MY43030201,A.06.04.32
!Agilent E8363B: A.06.04.32
!Date: Tuesday, November 11, 2014 22:11:58
!Correction: S21(Response(S21)) 
!S1P File: Measurement: S21:
# Hz S  dB   R 50
3000000000  -4.905870e+001  -7.652306e+001 
3003125000  -5.127852e+001  -8.173311e+001 
3006250000  -5.155185e+001  -8.647814e+001 
3009375000  -5.227365e+001  -8.959316e+001 
3012500000  -5.094473e+001  -9.657076e+001 
3015625000  -5.158915e+001  -1.076630e+002 
3018750000  -5.212475e+001  -1.114742e+002 
3021875000  -4.992747e+001  -1.205180e+002 
3025000000  -4.830458e+001  -1.313583e+002 
3028125000  -4.800712e+001  -1.444203e+002 
3031250000  -4.697148e+001  -1.618304e+002 
3034375000  -4.718548e+001  1.787478e+002 
3037500000  -4.806272e+001  1.644603e+002 
3040625000  -4.920493e+001  1.535912e+002 
3043750000  -4.962323e+001  1.398246e+002 
3046875000  -5.104714e+001  1.280110e+002 
3050000000  -5.091511e+001  1.214193e+002 
3053125000  -5.150172e+001  1.202286e+002 
3056250000  -5.131701e+001  1.197922e+002 
3059375000  -5.089209e+001  1.077705e+002 
3062500000  -4.857975e+001  1.007116e+002 
3065625000  -4.883918e+001  9.019056e+001 
3068750000  -4.891466e+001  7.533339e+001 
3071875000  -4.921616e+001  6.748852e+001 
3075000000  -4.834686e+001  5.820170e+001 
3078125000  -4.811940e+001  4.294571e+001 
3081250000  -4.914786e+001  3.613368e+001 
3084375000  -4.824667e+001  2.461026e+001 
3087500000  -4.819637e+001  1.218363e+001 
3090625000  -4.823426e+001  -3.071680e+000 
3093750000  -4.889898e+001  -1.581449e+001 
3096875000  -4.978963e+001  -2.458889e+001 
3100000000  -4.927937e+001  -3.095378e+001 
3103125000  -4.965716e+001  -4.144492e+001 
3106250000  -4.948327e+001  -5.200006e+001 
3109375000  -5.021181e+001  -5.865936e+001 
3112500000  -4.937462e+001  -6.891280e+001 
3115625000  -4.954827e+001  -7.883748e+001 
3118750000  -4.976816e+001  -8.782689e+001 
3121875000  -4.925924e+001  -9.911811e+001 
3125000000  -5.042025e+001  -1.096856e+002 
3128125000  -5.101899e+001  -1.087279e+002 
3131250000  -4.869358e+001  -1.166656e+002 
3134375000  -4.743522e+001  -1.405151e+002 
3137500000  -4.904820e+001  -1.564943e+002 
3140625000  -4.970557e+001  -1.612281e+002 
3143750000  -5.099500e+001  -1.706836e+002 
3146875000  -4.987381e+001  -1.685857e+002 
3150000000  -4.890404e+001  1.792035e+002 
3153125000  -4.927703e+001  1.669069e+002 
3156250000  -5.050558e+001  1.639796e+002 
3159375000  -4.816182e+001  1.610348e+002 
3162500000  -4.600882e+001  1.358066e+002 
3165625000  -4.785242e+001  1.187453e+002 
3168750000  -4.797106e+001  1.123087e+002 
3171875000  -4.697296e+001  1.021163e+002 
3175000000  -4.759877e+001  9.265689e+001 
3178125000  -4.734230e+001  8.366892e+001 
3181250000  -4.660114e+001  6.394040e+001 
3184375000  -4.677897e+001  5.197818e+001 
3187500000  -4.808372e+001  3.442650e+001 
3190625000  -4.934358e+001  2.006862e+001 
3193750000  -4.970570e+001  2.111044e+001 
3196875000  -4.974749e+001  1.734847e+001 
3200000000  -4.809150e+001  8.992982e+000 
3203125000  -4.816589e+001  -4.283620e+000 
3206250000  -4.856960e+001  -1.660565e+001 
3209375000  -4.802464e+001  -2.948836e+001 
3212500000  -4.895890e+001  -4.217337e+001 
3215625000  -4.811657e+001  -4.581131e+001 
3218750000  -4.966270e+001  -6.358009e+001 
3221875000  -4.954486e+001  -7.832949e+001 
3225000000  -4.942306e+001  -8.493152e+001 
3228125000  -5.038452e+001  -9.731942e+001 
3231250000  -5.097490e+001  -1.039828e+002 
3234375000  -4.979293e+001  -1.123312e+002 
3237500000  -5.049783e+001  -1.215976e+002 
3240625000  -5.021150e+001  -1.276977e+002 
3243750000  -4.981163e+001  -1.460714e+002 
3246875000  -4.996043e+001  -1.542621e+002 
3250000000  -5.133521e+001  -1.662018e+002 
3253125000  -5.163051e+001  -1.731743e+002 
3256250000  -5.014093e+001  1.734962e+002 
3259375000  -5.070553e+001  1.582200e+002 
3262500000  -5.288044e+001  1.546766e+002 
3265625000  -5.366524e+001  1.508333e+002 
3268750000  -5.341008e+001  1.414561e+002 
3271875000  -5.316037e+001  1.317192e+002 
3275000000  -5.196085e+001  1.235292e+002 
3278125000  -5.300123e+001  1.049938e+002 
3281250000  -5.314279e+001  1.030325e+002 
3284375000  -5.207737e+001  9.012329e+001 
3287500000  -5.301189e+001  8.093081e+001 
3290625000  -5.351747e+001  6.978369e+001 
3293750000  -5.366836e+001  6.030244e+001 
3296875000  -5.421072e+001  5.015277e+001 
3300000000  -5.419198e+001  5.056873e+001 
3303125000  -5.340208e+001  3.911040e+001 
3306250000  -5.386203e+001  2.782994e+001 
3309375000  -5.336033e+001  1.793294e+001 
3312500000  -5.289527e+001  -5.292002e+000 
3315625000  -5.411194e+001  -7.885514e+000 
3318750000  -5.503874e+001  -2.127785e+001 
3321875000  -5.640509e+001  -1.395219e+001 
3325000000  -5.753985e+001  -2.282379e+001 
3328125000  -5.714863e+001  -3.292223e+001 
3331250000  -5.409585e+001  -2.611968e+001 
3334375000  -5.201884e+001  -4.801654e+001 
3337500000  -5.235805e+001  -7.051567e+001 
3340625000  -5.336454e+001  -8.930807e+001 
3343750000  -5.577288e+001  -8.313631e+001 
3346875000  -5.512096e+001  -9.749960e+001 
3350000000  -5.415456e+001  -9.766794e+001 
3353125000  -5.310284e+001  -1.146655e+002 
3356250000  -5.446523e+001  -1.280771e+002 
3359375000  -5.523471e+001  -1.484427e+002 
3362500000  -5.765183e+001  -1.497992e+002 
3365625000  -5.582270e+001  -1.597281e+002 
3368750000  -5.690826e+001  -1.709175e+002 
3371875000  -5.600335e+001  -1.764444e+002 
3375000000  -5.822393e+001  1.658362e+002 
3378125000  -5.908074e+001  1.579221e+002 
3381250000  -6.147023e+001  1.696302e+002 
3384375000  -5.696379e+001  -1.787490e+002 
3387500000  -5.505415e+001  1.423852e+002 
3390625000  -5.546619e+001  1.367118e+002 
3393750000  -5.864777e+001  1.147796e+002 
3396875000  -5.717515e+001  1.108253e+002 
3400000000  -5.574337e+001  9.614996e+001 
3403125000  -5.653580e+001  8.344808e+001 
3406250000  -5.675105e+001  7.464675e+001 
3409375000  -5.809776e+001  4.928081e+001 
3412500000  -5.821785e+001  5.231449e+001 
3415625000  -6.061872e+001  3.737105e+001 
3418750000  -6.086584e+001  3.381772e+001 
3421875000  -6.224651e+001  4.045330e+001 
3425000000  -5.927067e+001  3.215763e+001 
3428125000  -5.948837e+001  2.524216e+000 
3431250000  -6.257789e+001  -5.843371e+000 
3434375000  -5.944182e+001  -1.890250e+001 
3437500000  -6.532457e+001  -2.299763e+001 
3440625000  -6.165808e+001  -3.188255e+001 
3443750000  -5.941549e+001  -2.891711e+001 
3446875000  -6.003692e+001  -5.813479e+001 
3450000000  -6.081301e+001  -8.073686e+001 
3453125000  -6.265753e+001  -7.323480e+001 
3456250000  -6.507599e+001  -1.211652e+002 
3459375000  -6.550058e+001  -7.582723e+001 
3462500000  -6.386258e+001  -1.054192e+002 
3465625000  -7.161050e+001  -1.022078e+002 
3468750000  -6.508217e+001  -1.201110e+002 
3471875000  -6.806335e+001  -9.960607e+001 
3475000000  -6.469350e+001  -1.245660e+002 
3478125000  -6.670838e+001  -1.130987e+002 
3481250000  -6.874219e+001  -1.389818e+002 
3484375000  -6.869209e+001  -1.574615e+002 
3487500000  -6.557076e+001  -1.347054e+002 
3490625000  -6.880451e+001  -1.209919e+002 
3493750000  -6.667973e+001  -1.412862e+002 
3496875000  -6.881294e+001  -1.674569e+002 
3500000000  -6.368050e+001  -1.728242e+002 
3503125000  -6.596223e+001  -1.633792e+002 
3506250000  -6.200416e+001  -1.667842e+002 
3509375000  -6.527936e+001  1.742222e+002 
3512500000  -6.699116e+001  1.796644e+002 
3515625000  -6.705279e+001  1.484238e+002 
3518750000  -6.758601e+001  1.505109e+002 
3521875000  -7.183255e+001  1.550387e+002 
3525000000  -6.661455e+001  1.096527e+002 
3528125000  -6.771365e+001  1.066083e+002 
3531250000  -6.675148e+001  1.301110e+002 
3534375000  -6.731298e+001  8.428940e+001 
3537500000  -6.705288e+001  7.871387e+001 
3540625000  -6.819382e+001  8.578703e+001 
3543750000  -7.146939e+001  6.372306e+001 
3546875000  -8.071290e+001  6.724924e+001 
3550000000  -6.620810e+001  9.186361e+001 
3553125000  -7.256723e+001  1.229163e+001 
3556250000  -7.153758e+001  4.121590e+001 
3559375000  -6.876725e+001  4.926585e+001 
3562500000  -7.506230e+001  5.234051e+001 
3565625000  -7.073479e+001  2.262218e+001 
3568750000  -8.126740e+001  1.549940e+002 
3571875000  -7.956383e+001  1.310003e+002 
3575000000  -7.545190e+001  -4.201592e+001 
3578125000  -7.665384e+001  3.963645e+001 
3581250000  -7.426255e+001  2.252813e+001 
3584375000  -7.007638e+001  1.016595e+002 
3587500000  -7.736987e+001  2.554843e+000 
3590625000  -7.125182e+001  -2.530989e+001 
3593750000  -7.225604e+001  -2.491347e+001 
3596875000  -7.180164e+001  6.087538e+001 
3600000000  -6.818121e+001  -5.912745e+000 
3603125000  -6.822849e+001  -2.302087e+001 
3606250000  -6.691454e+001  -5.283485e+001 
3609375000  -6.343803e+001  -5.205444e+001 
3612500000  -6.191856e+001  -5.845285e+001 
3615625000  -6.947099e+001  -4.572096e+001 
3618750000  -6.457465e+001  -7.013788e+001 
3621875000  -6.711523e+001  -7.511459e+001 
3625000000  -6.483507e+001  -8.185120e+001 
3628125000  -6.199703e+001  -1.186065e+002 
3631250000  -6.077577e+001  -1.141220e+002 
3634375000  -6.547443e+001  -1.102771e+002 
3637500000  -6.278216e+001  -1.321230e+002 
3640625000  -6.483165e+001  -1.270157e+002 
3643750000  -6.176939e+001  -1.448406e+002 
3646875000  -6.234713e+001  1.775978e+002 
3650000000  -6.560517e+001  -1.473194e+002 
3653125000  -6.420930e+001  1.602260e+002 
3656250000  -6.346497e+001  1.547679e+002 
3659375000  -6.330383e+001  1.633933e+002 
3662500000  -6.371783e+001  1.303979e+002 
3665625000  -6.497439e+001  1.499037e+002 
3668750000  -6.146948e+001  1.222771e+002 
3671875000  -6.224449e+001  1.395012e+002 
3675000000  -6.039136e+001  1.069151e+002 
3678125000  -6.778848e+001  1.145084e+002 
3681250000  -6.209126e+001  8.202791e+001 
3684375000  -7.307885e+001  7.937354e+001 
3687500000  -6.325955e+001  6.191961e+001 
3690625000  -8.403164e+001  5.593435e+001 
3693750000  -6.351674e+001  9.345289e+001 
3696875000  -6.935513e+001  9.302837e+001 
3700000000  -6.027389e+001  7.109351e+001 
3703125000  -6.673914e+001  5.913239e+001 
3706250000  -6.321903e+001  6.822937e+001 
3709375000  -6.753091e+001  5.576553e+001 
3712500000  -6.301539e+001  4.646455e+001 
3715625000  -6.508907e+001  3.708425e+001 
3718750000  -6.082790e+001  2.978537e+001 
3721875000  -6.058190e+001  9.200551e+000 
3725000000  -5.963647e+001  2.371326e+001 
3728125000  -5.985312e+001  1.025785e+001 
3731250000  -6.028525e+001  -1.057419e+001 
3734375000  -5.904646e+001  -2.392724e+001 
3737500000  -5.969394e+001  -2.534181e+001 
3740625000  -5.981020e+001  -3.318537e+001 
3743750000  -5.791273e+001  -5.710054e+001 
3746875000  -6.070480e+001  -6.404395e+001 
3750000000  -5.729301e+001  -8.948476e+001 
3753125000  -5.935669e+001  -7.379538e+001 
3756250000  -5.761701e+001  -1.043078e+002 
3759375000  -5.822556e+001  -1.028305e+002 
3762500000  -5.808308e+001  -1.165396e+002 
3765625000  -5.952105e+001  -1.168488e+002 
3768750000  -5.655209e+001  -1.346027e+002 
3771875000  -5.555603e+001  -1.381687e+002 
3775000000  -5.632859e+001  -1.544354e+002 
3778125000  -5.868302e+001  1.702314e+002 
3781250000  -5.718705e+001  1.727725e+002 
3784375000  -5.725821e+001  1.641311e+002 
3787500000  -5.572928e+001  1.459192e+002 
3790625000  -5.739539e+001  1.334751e+002 
3793750000  -5.790392e+001  1.318416e+002 
3796875000  -5.566809e+001  1.251740e+002 
3800000000  -5.306329e+001  7.426085e+001 
3803125000  -5.693612e+001  8.748449e+001 
3806250000  -5.867076e+001  7.895930e+001 
3809375000  -5.942632e+001  9.256525e+001 
3812500000  -5.709943e+001  7.869764e+001 
3815625000  -5.963504e+001  4.019333e+001 
3818750000  -6.107936e+001  5.555573e+001 
3821875000  -5.890398e+001  5.122899e+001 
3825000000  -5.928596e+001  3.928037e+001 
3828125000  -5.902644e+001  2.464006e+001 
3831250000  -6.046485e+001  1.636395e+001 
3834375000  -6.339246e+001  5.186277e+000 
3837500000  -6.600795e+001  2.094161e+001 
3840625000  -5.816302e+001  -1.931859e-001 
3843750000  -6.257979e+001  -3.823808e+000 
3846875000  -6.140557e+001  -1.471503e+001 
3850000000  -6.395537e+001  -3.678271e+001 
3853125000  -6.115150e+001  -1.220365e+001 
3856250000  -6.043697e+001  -1.942809e+001 
3859375000  -6.025910e+001  -3.385291e+001 
3862500000  -6.135510e+001  -3.551498e+001 
3865625000  -5.960471e+001  -4.838486e+001 
3868750000  -5.843312e+001  -5.149699e+001 
3871875000  -5.841502e+001  -6.354751e+001 
3875000000  -5.943262e+001  -6.862830e+001 
3878125000  -5.726574e+001  -7.891356e+001 
3881250000  -5.784915e+001  -1.000995e+002 
3884375000  -5.630936e+001  -1.071765e+002 
3887500000  -5.579143e+001  -1.153541e+002 
3890625000  -5.687326e+001  -1.147272e+002 
3893750000  -5.663875e+001  -1.233714e+002 
3896875000  -5.803573e+001  -1.390954e+002 
3900000000  -5.623762e+001  -1.518914e+002 
3903125000  -5.560792e+001  -1.587353e+002 
3906250000  -5.455693e+001  -1.681409e+002 
3909375000  -5.477164e+001  1.729909e+002 
3912500000  -5.352964e+001  1.645422e+002 
3915625000  -5.541152e+001  1.633878e+002 
3918750000  -5.476729e+001  1.576293e+002 
3921875000  -5.437473e+001  1.458581e+002 
3925000000  -5.346628e+001  1.251385e+002 
3928125000  -5.327340e+001  1.079499e+002 
3931250000  -5.320709e+001  9.879356e+001 
3934375000  -5.422027e+001  8.508117e+001 
3937500000  -5.433912e+001  8.120560e+001 
3940625000  -5.456989e+001  7.708862e+001 
3943750000  -5.281069e+001  6.971375e+001 
3946875000  -5.270744e+001  5.449853e+001 
3950000000  -5.380416e+001  3.718139e+001 
3953125000  -5.467163e+001  3.664469e+001 
3956250000  -5.334163e+001  1.606513e+001 
3959375000  -5.176608e+001  1.709843e+001 
3962500000  -5.317311e+001  -1.113886e+001 
3965625000  -5.326764e+001  -1.548707e+001 
3968750000  -5.404945e+001  -3.662126e+001 
3971875000  -5.505335e+001  -3.140172e+001 
3975000000  -5.342328e+001  -5.319139e+001 
3978125000  -5.432753e+001  -5.759626e+001 
3981250000  -5.375074e+001  -7.556712e+001 
3984375000  -5.606723e+001  -8.130741e+001 
3987500000  -5.437588e+001  -9.391907e+001 
3990625000  -5.596951e+001  -1.094627e+002 
3993750000  -5.695602e+001  -1.260251e+002 
3996875000  -5.825119e+001  -1.215580e+002 
4000000000  -5.864426e+001  -1.256552e+002 
4003125000  -5.992860e+001  -1.216725e+002 
4006250000  -5.625375e+001  -1.364203e+002 
4009375000  -5.719547e+001  -1.449670e+002 
4012500000  -5.964651e+001  -1.652837e+002 
4015625000  -5.941544e+001  -1.582960e+002 
4018750000  -6.198521e+001  -1.693500e+002 
4021875000  -5.949270e+001  -1.777087e+002 
4025000000  -5.750445e+001  -1.789715e+002 
4028125000  -6.100990e+001  1.604777e+002 
4031250000  -5.945857e+001  1.705872e+002 
4034375000  -5.838626e+001  1.745007e+002 
4037500000  -5.827590e+001  1.556865e+002 
4040625000  -6.011043e+001  1.435068e+002 
4043750000  -5.776290e+001  1.397390e+002 
4046875000  -5.738699e+001  1.347301e+002 
4050000000  -5.830778e+001  1.224903e+002 
4053125000  -5.739367e+001  1.083938e+002 
4056250000  -5.984735e+001  1.003258e+002 
4059375000  -5.731590e+001  9.835490e+001 
4062500000  -5.570479e+001  1.074718e+002 
4065625000  -5.471305e+001  7.821797e+001 
4068750000  -5.511914e+001  7.817312e+001 
4071875000  -5.247697e+001  5.910213e+001 
4075000000  -5.385278e+001  4.882985e+001 
4078125000  -5.290879e+001  3.791107e+001 
4081250000  -5.406540e+001  2.430554e+001 
4084375000  -5.304706e+001  4.879915e+000 
4087500000  -5.395330e+001  -6.024096e+000 
4090625000  -5.320706e+001  -2.213408e+000 
4093750000  -5.359291e+001  -1.722643e+001 
4096875000  -5.419975e+001  -3.239405e+001 
4100000000  -5.329649e+001  -4.966761e+001 
4103125000  -5.502778e+001  -4.379165e+001 
4106250000  -5.296763e+001  -5.155964e+001 
4109375000  -5.270139e+001  -5.755433e+001 
4112500000  -5.271885e+001  -7.944593e+001 
4115625000  -5.386096e+001  -9.233450e+001 
4118750000  -5.259456e+001  -1.049592e+002 
4121875000  -5.298854e+001  -1.142998e+002 
4125000000  -5.373723e+001  -1.278584e+002 
4128125000  -5.461547e+001  -1.254810e+002 
4131250000  -5.312033e+001  -1.328441e+002 
4134375000  -5.212248e+001  -1.487164e+002 
4137500000  -5.250114e+001  -1.797216e+002 
4140625000  -5.423707e+001  1.665782e+002 
4143750000  -5.687380e+001  1.696328e+002 
4146875000  -5.543004e+001  1.638178e+002 
4150000000  -5.413289e+001  1.635204e+002 
4153125000  -5.433573e+001  1.532822e+002 
4156250000  -5.603789e+001  1.373908e+002 
4159375000  -5.556202e+001  1.263530e+002 
4162500000  -5.465913e+001  1.102567e+002 
4165625000  -5.467810e+001  1.187590e+002 
4168750000  -5.444866e+001  8.550715e+001 
4171875000  -5.398821e+001  8.082636e+001 
4175000000  -5.605178e+001  5.370886e+001 
4178125000  -5.853200e+001  7.310246e+001 
4181250000  -5.645219e+001  4.346690e+001 
4184375000  -5.960700e+001  3.306184e+001 
4187500000  -5.667751e+001  2.577031e+001 
4190625000  -6.187501e+001  3.129498e+001 
4193750000  -5.750912e+001  6.678229e+000 
4196875000  -6.305275e+001  -2.215621e+001 
4200000000  -6.310295e+001  2.217558e+001 
4203125000  -6.070612e+001  3.988681e+001 
4206250000  -5.971798e+001  5.214245e+001 
4209375000  -6.089902e+001  -1.376680e+001 
4212500000  -6.435841e+001  -6.351845e+000 
4215625000  -6.844288e+001  2.283703e+001 
4218750000  -6.410033e+001  1.435652e+001 
4221875000  -6.014001e+001  -7.484525e+000 
4225000000  -6.389559e+001  -2.157302e+001 
4228125000  -5.996765e+001  -2.169859e+001 
4231250000  -5.921744e+001  -3.115872e+001 
4234375000  -5.804278e+001  -5.081114e+001 
4237500000  -5.946796e+001  -4.530927e+001 
4240625000  -5.390428e+001  -5.931733e+001 
4243750000  -5.925731e+001  -6.633973e+001 
4246875000  -5.667246e+001  -7.663105e+001 
4250000000  -5.783260e+001  -1.012581e+002 
4253125000  -5.399662e+001  -8.574332e+001 
4256250000  -5.639829e+001  -1.058890e+002 
4259375000  -5.494381e+001  -1.122223e+002 
4262500000  -5.373193e+001  -1.266966e+002 
4265625000  -5.513563e+001  -1.278749e+002 
4268750000  -5.357935e+001  -1.393582e+002 
4271875000  -5.377773e+001  -1.588869e+002 
4275000000  -5.011451e+001  -1.726270e+002 
4278125000  -5.578782e+001  1.670209e+002 
4281250000  -5.386626e+001  1.634568e+002 
4284375000  -5.420571e+001  1.574559e+002 
4287500000  -5.467218e+001  1.477446e+002 
4290625000  -5.481815e+001  1.471564e+002 
4293750000  -5.318235e+001  1.449471e+002 
4296875000  -5.279988e+001  1.134508e+002 
4300000000  -5.217376e+001  1.008718e+002 
4303125000  -5.324320e+001  1.000786e+002 
4306250000  -5.291970e+001  1.004940e+002 
4309375000  -5.070520e+001  8.098987e+001 
4312500000  -5.261561e+001  6.358554e+001 
4315625000  -5.181339e+001  5.115637e+001 
4318750000  -5.331869e+001  4.165165e+001 
4321875000  -5.224209e+001  3.773998e+001 
4325000000  -5.205302e+001  2.758489e+001 
4328125000  -5.078844e+001  1.169038e+001 
4331250000  -5.340769e+001  -5.367982e+000 
4334375000  -5.414954e+001  -1.625799e+001 
4337500000  -5.479783e+001  -3.048037e+001 
4340625000  -5.589119e+001  -2.007077e+001 
4343750000  -5.504540e+001  -3.458338e+001 
4346875000  -5.456735e+001  -4.310676e+001 
4350000000  -5.718496e+001  -6.041748e+001 
4353125000  -5.696408e+001  -7.213042e+001 
4356250000  -5.671946e+001  -8.453004e+001 
4359375000  -6.028646e+001  -5.686291e+001 
4362500000  -5.513515e+001  -8.148270e+001 
4365625000  -5.446492e+001  -1.071103e+002 
4368750000  -5.488748e+001  -1.019277e+002 
4371875000  -5.701599e+001  -1.091015e+002 
4375000000  -5.786604e+001  -1.153874e+002 
4378125000  -5.884795e+001  -1.282389e+002 
4381250000  -5.814030e+001  -1.272120e+002 
4384375000  -5.665109e+001  -1.610098e+002 
4387500000  -5.520152e+001  -1.388654e+002 
4390625000  -5.730386e+001  -1.561625e+002 
4393750000  -5.759036e+001  -1.421378e+002 
4396875000  -5.671146e+001  -1.620656e+002 
4400000000  -5.642854e+001  -1.680087e+002 
4403125000  -5.581114e+001  -1.791667e+002 
4406250000  -5.751409e+001  1.662079e+002 
4409375000  -5.535988e+001  1.650963e+002 
4412500000  -5.813983e+001  1.529581e+002 
4415625000  -5.526010e+001  1.690811e+002 
4418750000  -5.481155e+001  1.498049e+002 
