!Agilent Technologies,E8363B,MY43030201,A.06.04.32
!Agilent E8363B: A.06.04.32
!Date: Tuesday, November 11, 2014 22:10:37
!Correction: S21(Response(S21)) 
!S1P File: Measurement: S21:
# Hz S  dB   R 50
3000000000  -4.884930e+001  -7.575137e+001 
3003125000  -5.178244e+001  -8.482930e+001 
3006250000  -5.194413e+001  -9.064512e+001 
3009375000  -5.214885e+001  -8.784636e+001 
3012500000  -5.092131e+001  -1.013754e+002 
3015625000  -5.094883e+001  -1.086949e+002 
3018750000  -5.145186e+001  -1.155966e+002 
3021875000  -4.999096e+001  -1.192983e+002 
3025000000  -4.830651e+001  -1.295713e+002 
3028125000  -4.802560e+001  -1.471849e+002 
3031250000  -4.698539e+001  -1.631039e+002 
3034375000  -4.696104e+001  1.788859e+002 
3037500000  -4.796252e+001  1.609576e+002 
3040625000  -4.885690e+001  1.521458e+002 
3043750000  -4.976066e+001  1.403009e+002 
3046875000  -5.110810e+001  1.262207e+002 
3050000000  -5.184618e+001  1.224733e+002 
3053125000  -5.048134e+001  1.207467e+002 
3056250000  -5.127205e+001  1.174146e+002 
3059375000  -5.018008e+001  1.106987e+002 
3062500000  -4.944654e+001  9.727066e+001 
3065625000  -4.930583e+001  8.730492e+001 
3068750000  -4.904549e+001  7.295354e+001 
3071875000  -4.917957e+001  6.690008e+001 
3075000000  -4.885021e+001  5.096759e+001 
3078125000  -4.860391e+001  4.304593e+001 
3081250000  -4.860851e+001  3.273993e+001 
3084375000  -4.775746e+001  2.527878e+001 
3087500000  -4.807843e+001  1.224730e+001 
3090625000  -4.778197e+001  -5.418846e+000 
3093750000  -4.901424e+001  -1.799452e+001 
3096875000  -4.909050e+001  -2.433105e+001 
3100000000  -4.911191e+001  -3.254272e+001 
3103125000  -4.986917e+001  -3.929211e+001 
3106250000  -4.930477e+001  -5.199629e+001 
3109375000  -4.953080e+001  -6.177593e+001 
3112500000  -4.970757e+001  -7.117189e+001 
3115625000  -4.914038e+001  -7.820701e+001 
3118750000  -4.955852e+001  -8.759169e+001 
3121875000  -4.931051e+001  -1.002688e+002 
3125000000  -5.092192e+001  -1.088445e+002 
3128125000  -5.101103e+001  -1.053453e+002 
3131250000  -4.818029e+001  -1.210139e+002 
3134375000  -4.750175e+001  -1.419894e+002 
3137500000  -4.888586e+001  -1.575197e+002 
3140625000  -4.968884e+001  -1.602606e+002 
3143750000  -5.061116e+001  -1.697254e+002 
3146875000  -4.996213e+001  -1.733980e+002 
3150000000  -4.939108e+001  1.793194e+002 
3153125000  -4.929611e+001  1.644020e+002 
3156250000  -5.036145e+001  1.642975e+002 
3159375000  -4.763145e+001  1.549478e+002 
3162500000  -4.657389e+001  1.352853e+002 
3165625000  -4.758733e+001  1.176650e+002 
3168750000  -4.759686e+001  1.151265e+002 
3171875000  -4.706514e+001  1.021547e+002 
3175000000  -4.767369e+001  8.772285e+001 
3178125000  -4.719673e+001  7.975580e+001 
3181250000  -4.634687e+001  6.825622e+001 
3184375000  -4.653818e+001  5.056473e+001 
3187500000  -4.749634e+001  3.326399e+001 
3190625000  -4.977506e+001  2.563788e+001 
3193750000  -4.959869e+001  1.942992e+001 
3196875000  -4.925166e+001  1.588878e+001 
3200000000  -4.841801e+001  8.411972e+000 
3203125000  -4.839530e+001  -5.901155e+000 
3206250000  -4.814284e+001  -1.530154e+001 
3209375000  -4.817730e+001  -3.182175e+001 
3212500000  -4.884145e+001  -4.211237e+001 
3215625000  -4.809317e+001  -4.732195e+001 
3218750000  -4.954208e+001  -6.735383e+001 
3221875000  -4.971311e+001  -7.911491e+001 
3225000000  -4.935788e+001  -8.534612e+001 
3228125000  -5.022205e+001  -9.636153e+001 
3231250000  -5.067678e+001  -1.059032e+002 
3234375000  -5.042518e+001  -1.112408e+002 
3237500000  -5.060712e+001  -1.235584e+002 
3240625000  -5.016396e+001  -1.312625e+002 
3243750000  -5.027660e+001  -1.499036e+002 
3246875000  -4.991475e+001  -1.563516e+002 
3250000000  -5.084179e+001  -1.688164e+002 
3253125000  -5.124977e+001  -1.722447e+002 
3256250000  -5.014492e+001  1.706736e+002 
3259375000  -5.148392e+001  1.549052e+002 
3262500000  -5.353440e+001  1.532749e+002 
3265625000  -5.268415e+001  1.423576e+002 
3268750000  -5.347315e+001  1.396942e+002 
3271875000  -5.245523e+001  1.346897e+002 
3275000000  -5.205628e+001  1.191355e+002 
3278125000  -5.286533e+001  1.070340e+002 
3281250000  -5.297070e+001  1.073516e+002 
3284375000  -5.259943e+001  8.587717e+001 
3287500000  -5.345456e+001  8.684673e+001 
3290625000  -5.274511e+001  6.979561e+001 
3293750000  -5.352461e+001  5.508424e+001 
3296875000  -5.365066e+001  5.355545e+001 
3300000000  -5.438939e+001  5.278908e+001 
3303125000  -5.305646e+001  3.957406e+001 
3306250000  -5.403126e+001  2.321254e+001 
3309375000  -5.283637e+001  1.432749e+001 
3312500000  -5.306234e+001  -7.254440e+000 
3315625000  -5.477189e+001  -9.050733e+000 
3318750000  -5.621735e+001  -2.153653e+001 
3321875000  -5.818258e+001  -3.575675e+001 
3325000000  -5.589473e+001  -2.241338e+001 
3328125000  -5.672371e+001  -2.456765e+001 
3331250000  -5.442049e+001  -2.487562e+001 
3334375000  -5.245286e+001  -4.584724e+001 
3337500000  -5.149446e+001  -7.403156e+001 
3340625000  -5.446141e+001  -8.763927e+001 
3343750000  -5.600679e+001  -9.304484e+001 
3346875000  -5.558135e+001  -1.000486e+002 
3350000000  -5.511973e+001  -1.060409e+002 
3353125000  -5.412373e+001  -1.180408e+002 
3356250000  -5.440926e+001  -1.284018e+002 
3359375000  -5.522216e+001  -1.494048e+002 
3362500000  -5.550948e+001  -1.462798e+002 
3365625000  -5.574744e+001  -1.585283e+002 
3368750000  -5.706576e+001  -1.784867e+002 
3371875000  -5.728998e+001  -1.774146e+002 
3375000000  -5.886224e+001  1.688457e+002 
3378125000  -5.956336e+001  1.622704e+002 
3381250000  -6.063976e+001  -1.786717e+002 
3384375000  -5.630418e+001  1.746802e+002 
3387500000  -5.395547e+001  1.482716e+002 
3390625000  -5.636576e+001  1.172780e+002 
3393750000  -5.831380e+001  1.135091e+002 
3396875000  -5.667556e+001  1.147089e+002 
3400000000  -5.473731e+001  9.331190e+001 
3403125000  -5.680201e+001  8.382986e+001 
3406250000  -5.690966e+001  7.473505e+001 
3409375000  -5.704912e+001  5.161194e+001 
3412500000  -5.911541e+001  5.776661e+001 
3415625000  -6.007879e+001  3.333540e+001 
3418750000  -6.034039e+001  3.566916e+001 
3421875000  -6.064177e+001  3.036917e+001 
3425000000  -5.828741e+001  3.784960e+001 
3428125000  -6.026187e+001  9.492134e+000 
3431250000  -6.066475e+001  -9.772991e+000 
3434375000  -6.189092e+001  -2.340366e+001 
3437500000  -6.372434e+001  -2.361378e+001 
3440625000  -6.216788e+001  -2.943609e+001 
3443750000  -6.202892e+001  -4.773215e+001 
3446875000  -6.172520e+001  -5.496313e+001 
3450000000  -6.330489e+001  -7.488792e+001 
3453125000  -5.991043e+001  -8.030021e+001 
3456250000  -6.398967e+001  -1.011603e+002 
3459375000  -6.547607e+001  -8.208180e+001 
3462500000  -6.566222e+001  -1.021148e+002 
3465625000  -6.674113e+001  -1.092846e+002 
3468750000  -6.619781e+001  -1.008727e+002 
3471875000  -6.558506e+001  -1.334461e+002 
3475000000  -6.868665e+001  -1.346437e+002 
3478125000  -7.113036e+001  -1.243531e+002 
3481250000  -7.308220e+001  -1.380010e+002 
3484375000  -6.468666e+001  -1.159308e+002 
3487500000  -6.558346e+001  -1.353704e+002 
3490625000  -6.550829e+001  -1.523883e+002 
3493750000  -7.344473e+001  -1.152824e+002 
3496875000  -6.831668e+001  -1.298966e+002 
3500000000  -6.906188e+001  -1.478865e+002 
3503125000  -6.660332e+001  -1.424281e+002 
3506250000  -6.642657e+001  1.726424e+002 
3509375000  -6.456144e+001  1.668077e+002 
3512500000  -6.267198e+001  1.273676e+002 
3515625000  -6.504360e+001  1.472447e+002 
3518750000  -6.558025e+001  1.283809e+002 
3521875000  -6.887280e+001  1.160907e+002 
3525000000  -6.628996e+001  1.467397e+002 
3528125000  -6.862570e+001  1.225570e+002 
3531250000  -6.410883e+001  1.035289e+002 
3534375000  -7.258820e+001  9.000122e+001 
3537500000  -6.545602e+001  9.782050e+001 
3540625000  -6.827010e+001  4.790274e+001 
3543750000  -7.828301e+001  1.068647e+002 
3546875000  -7.311707e+001  2.556434e+001 
3550000000  -7.428639e+001  -4.983709e+001 
3553125000  -7.170111e+001  6.402292e+001 
3556250000  -7.226298e+001  1.032315e+002 
3559375000  -6.853539e+001  1.286254e+001 
3562500000  -7.433510e+001  -1.272453e+001 
3565625000  -7.268855e+001  6.196876e+000 
3568750000  -7.953377e+001  -1.686256e+002 
3571875000  -6.907575e+001  4.907446e+001 
3575000000  -6.801366e+001  -2.443264e+001 
3578125000  -8.449841e+001  3.599264e+001 
3581250000  -7.467835e+001  -1.007132e+002 
3584375000  -7.447465e+001  4.098825e+000 
3587500000  -7.279198e+001  -2.186605e+001 
3590625000  -6.910455e+001  4.110635e+001 
3593750000  -7.033443e+001  -3.773303e+001 
3596875000  -6.447353e+001  3.231246e+001 
3600000000  -6.859783e+001  1.725702e+001 
3603125000  -6.210164e+001  6.485189e+000 
3606250000  -6.476981e+001  -5.098852e+001 
3609375000  -7.313351e+001  -4.713892e+001 
3612500000  -6.500932e+001  -5.708022e+001 
3615625000  -7.249427e+001  -4.584281e+001 
3618750000  -6.270509e+001  -6.440871e+001 
3621875000  -6.470033e+001  -6.274139e+001 
3625000000  -6.392780e+001  -7.618240e+001 
3628125000  -6.435810e+001  -9.569368e+001 
3631250000  -6.301369e+001  -1.241165e+002 
3634375000  -6.397383e+001  -1.054749e+002 
3637500000  -6.526785e+001  -1.448878e+002 
3640625000  -6.277792e+001  -1.217106e+002 
3643750000  -6.304185e+001  -1.357121e+002 
3646875000  -6.245787e+001  -1.657647e+002 
3650000000  -6.378572e+001  -1.785489e+002 
3653125000  -6.195149e+001  1.710069e+002 
3656250000  -6.604696e+001  1.680107e+002 
3659375000  -6.353230e+001  1.571681e+002 
3662500000  -6.426975e+001  1.601448e+002 
3665625000  -6.314661e+001  1.476506e+002 
3668750000  -6.196737e+001  1.409903e+002 
3671875000  -6.334444e+001  1.202385e+002 
3675000000  -6.536852e+001  9.106965e+001 
3678125000  -6.733945e+001  1.168964e+002 
3681250000  -6.106420e+001  1.104860e+002 
3684375000  -6.608318e+001  9.185349e+001 
3687500000  -6.947082e+001  5.586605e+001 
3690625000  -6.918003e+001  4.261794e+001 
3693750000  -6.533421e+001  7.323496e+001 
3696875000  -6.920972e+001  8.455859e+001 
3700000000  -6.247102e+001  5.831239e+001 
3703125000  -6.606190e+001  9.185593e+001 
3706250000  -6.363298e+001  4.949529e+001 
3709375000  -7.017223e+001  7.023344e+001 
3712500000  -6.320063e+001  4.884233e+001 
3715625000  -6.117285e+001  4.104443e+001 
3718750000  -6.465244e+001  1.643761e+001 
3721875000  -6.539767e+001  2.988403e+001 
3725000000  -6.413126e+001  1.993987e+001 
3728125000  -6.056625e+001  4.419703e+000 
3731250000  -6.028344e+001  -3.335217e+001 
3734375000  -5.948962e+001  -2.187459e+001 
3737500000  -5.824522e+001  -3.507166e+001 
3740625000  -5.799829e+001  -4.158029e+001 
3743750000  -5.849013e+001  -4.607691e+001 
3746875000  -5.934723e+001  -6.640503e+001 
3750000000  -5.891835e+001  -8.344601e+001 
3753125000  -5.834082e+001  -7.282150e+001 
3756250000  -5.791260e+001  -9.752731e+001 
3759375000  -5.970419e+001  -1.210513e+002 
3762500000  -5.652591e+001  -1.074486e+002 
3765625000  -5.774182e+001  -1.368759e+002 
3768750000  -5.662083e+001  -1.388676e+002 
3771875000  -5.671708e+001  -1.424692e+002 
3775000000  -5.746669e+001  -1.608625e+002 
3778125000  -5.661163e+001  1.695499e+002 
3781250000  -5.884752e+001  1.785540e+002 
3784375000  -5.749637e+001  1.639573e+002 
3787500000  -5.911106e+001  1.587531e+002 
3790625000  -5.699513e+001  1.397054e+002 
3793750000  -5.757281e+001  1.228430e+002 
3796875000  -5.755844e+001  1.154038e+002 
3800000000  -5.286184e+001  7.774464e+001 
3803125000  -5.871330e+001  9.639171e+001 
3806250000  -5.998375e+001  7.448897e+001 
3809375000  -5.720846e+001  7.902162e+001 
3812500000  -5.589202e+001  5.031901e+001 
3815625000  -5.894156e+001  6.065121e+001 
3818750000  -6.423922e+001  4.951889e+001 
3821875000  -6.395690e+001  5.997136e+001 
3825000000  -6.016603e+001  4.926469e+001 
3828125000  -5.623754e+001  2.935829e+001 
3831250000  -5.926112e+001  1.575574e+000 
3834375000  -6.536180e+001  1.092854e+001 
3837500000  -6.478600e+001  1.750803e+001 
3840625000  -6.516093e+001  8.794449e+000 
3843750000  -6.003932e+001  -1.916066e+000 
3846875000  -6.414888e+001  -6.611512e+000 
3850000000  -6.227349e+001  -1.164528e+001 
3853125000  -6.392428e+001  -1.470178e+001 
3856250000  -6.106047e+001  -1.765029e+001 
3859375000  -5.964135e+001  -3.665812e+001 
3862500000  -6.307642e+001  -5.388539e+001 
3865625000  -6.374221e+001  -5.798143e+001 
3868750000  -6.218261e+001  -5.134127e+001 
3871875000  -5.592406e+001  -5.571610e+001 
3875000000  -6.123740e+001  -6.292675e+001 
3878125000  -5.819796e+001  -7.595636e+001 
3881250000  -5.777567e+001  -7.928648e+001 
3884375000  -5.577314e+001  -9.152811e+001 
3887500000  -5.595615e+001  -1.134503e+002 
3890625000  -5.631857e+001  -1.268909e+002 
3893750000  -5.525849e+001  -1.336688e+002 
3896875000  -5.663305e+001  -1.438339e+002 
3900000000  -5.615541e+001  -1.559666e+002 
3903125000  -5.366536e+001  -1.572372e+002 
3906250000  -5.419738e+001  -1.696849e+002 
3909375000  -5.299905e+001  1.742106e+002 
3912500000  -5.539915e+001  1.583267e+002 
3915625000  -5.516212e+001  1.551428e+002 
3918750000  -5.411149e+001  1.401035e+002 
3921875000  -5.451165e+001  1.395778e+002 
3925000000  -5.240688e+001  1.240650e+002 
3928125000  -5.310029e+001  1.011490e+002 
3931250000  -5.357911e+001  1.044184e+002 
3934375000  -5.392018e+001  9.290058e+001 
3937500000  -5.759753e+001  8.036406e+001 
3940625000  -5.530353e+001  7.815350e+001 
3943750000  -5.372081e+001  6.452331e+001 
3946875000  -5.340511e+001  4.807815e+001 
3950000000  -5.546102e+001  3.917747e+001 
3953125000  -5.322378e+001  2.964923e+001 
3956250000  -5.364737e+001  1.612033e+001 
3959375000  -5.331323e+001  2.061262e+001 
3962500000  -5.250727e+001  -6.947671e+000 
3965625000  -5.367456e+001  -1.544896e+001 
3968750000  -5.488534e+001  -3.025097e+001 
3971875000  -5.387083e+001  -4.118162e+001 
3975000000  -5.291474e+001  -4.885261e+001 
3978125000  -5.499382e+001  -6.396875e+001 
3981250000  -5.560866e+001  -7.779587e+001 
3984375000  -5.476991e+001  -8.974406e+001 
3987500000  -5.473309e+001  -9.179359e+001 
3990625000  -5.706189e+001  -1.071122e+002 
3993750000  -5.614584e+001  -1.174017e+002 
3996875000  -5.850874e+001  -1.182494e+002 
4000000000  -5.954816e+001  -1.146956e+002 
4003125000  -5.938607e+001  -1.325254e+002 
4006250000  -5.754040e+001  -1.531390e+002 
4009375000  -5.734668e+001  -1.473044e+002 
4012500000  -6.059913e+001  -1.554248e+002 
4015625000  -6.307622e+001  -1.620042e+002 
4018750000  -5.908389e+001  -1.740009e+002 
4021875000  -6.162127e+001  -1.675111e+002 
4025000000  -5.855340e+001  1.713082e+002 
4028125000  -5.967649e+001  1.740840e+002 
4031250000  -5.957463e+001  1.508311e+002 
4034375000  -6.089821e+001  -1.776426e+002 
4037500000  -6.027846e+001  1.551379e+002 
4040625000  -5.986676e+001  1.445198e+002 
4043750000  -6.002966e+001  1.609646e+002 
4046875000  -5.932874e+001  1.367833e+002 
4050000000  -5.724377e+001  1.319330e+002 
4053125000  -5.795753e+001  1.065742e+002 
4056250000  -5.844053e+001  1.190531e+002 
4059375000  -5.576109e+001  1.161045e+002 
4062500000  -5.447860e+001  9.542686e+001 
4065625000  -5.440491e+001  8.224259e+001 
4068750000  -5.575352e+001  6.782607e+001 
4071875000  -5.221545e+001  5.090886e+001 
4075000000  -5.292529e+001  3.721140e+001 
4078125000  -5.231301e+001  3.555277e+001 
4081250000  -5.279306e+001  2.797301e+001 
4084375000  -5.289045e+001  5.326397e+000 
4087500000  -5.389203e+001  -1.205280e+001 
4090625000  -5.332448e+001  -4.878999e+000 
4093750000  -5.260669e+001  -2.262940e+001 
4096875000  -5.298764e+001  -2.918923e+001 
4100000000  -5.463573e+001  -4.327644e+001 
4103125000  -5.608585e+001  -4.724155e+001 
4106250000  -5.438136e+001  -4.502260e+001 
4109375000  -5.305877e+001  -5.465797e+001 
4112500000  -5.218526e+001  -8.297269e+001 
4115625000  -5.446931e+001  -9.150452e+001 
4118750000  -5.284196e+001  -1.067616e+002 
4121875000  -5.220948e+001  -1.217225e+002 
4125000000  -5.429160e+001  -1.177316e+002 
4128125000  -5.533790e+001  -1.395349e+002 
4131250000  -5.320098e+001  -1.331599e+002 
4134375000  -5.135715e+001  -1.497194e+002 
4137500000  -5.060096e+001  -1.730528e+002 
4140625000  -5.463950e+001  1.729676e+002 
4143750000  -5.528249e+001  1.756921e+002 
4146875000  -5.396648e+001  1.658146e+002 
4150000000  -5.447146e+001  1.573829e+002 
4153125000  -5.431472e+001  1.423846e+002 
4156250000  -5.671192e+001  1.238140e+002 
4159375000  -5.461217e+001  1.249787e+002 
4162500000  -5.612540e+001  1.190002e+002 
4165625000  -5.445923e+001  1.140305e+002 
4168750000  -5.323577e+001  8.553136e+001 
4171875000  -5.594608e+001  7.164811e+001 
4175000000  -5.662781e+001  5.487497e+001 
4178125000  -5.674427e+001  5.572046e+001 
4181250000  -5.782928e+001  1.986835e+001 
4184375000  -6.084241e+001  4.151996e+001 
4187500000  -5.827355e+001  3.847309e+001 
4190625000  -6.166174e+001  2.178325e+001 
4193750000  -6.101577e+001  1.554674e+001 
4196875000  -6.190355e+001  1.148612e+001 
4200000000  -6.436465e+001  -1.256131e+000 
4203125000  -6.707819e+001  -3.600367e+000 
4206250000  -6.255738e+001  4.709010e+001 
4209375000  -6.126937e+001  1.237578e+001 
4212500000  -6.127513e+001  -3.238645e+000 
4215625000  -6.815403e+001  8.607281e+000 
4218750000  -6.251323e+001  2.491491e+001 
4221875000  -5.855339e+001  -1.767228e+001 
4225000000  -6.105373e+001  -2.689414e+000 
4228125000  -5.996550e+001  -3.180383e+001 
4231250000  -6.030057e+001  -3.460500e+001 
4234375000  -5.729658e+001  -4.423626e+001 
4237500000  -5.700857e+001  -4.972285e+001 
4240625000  -5.495794e+001  -5.488068e+001 
4243750000  -5.993894e+001  -7.040205e+001 
4246875000  -5.623270e+001  -7.465739e+001 
4250000000  -5.925256e+001  -7.843016e+001 
4253125000  -5.674668e+001  -9.503461e+001 
4256250000  -5.567375e+001  -1.039089e+002 
4259375000  -5.646663e+001  -1.106902e+002 
4262500000  -5.539540e+001  -1.353911e+002 
4265625000  -5.278252e+001  -1.263047e+002 
4268750000  -5.138549e+001  -1.532738e+002 
4271875000  -5.213669e+001  -1.527195e+002 
4275000000  -5.005556e+001  1.743880e+002 
4278125000  -5.375083e+001  1.628931e+002 
4281250000  -5.390548e+001  1.576635e+002 
4284375000  -5.333781e+001  1.478222e+002 
4287500000  -5.395304e+001  1.482132e+002 
4290625000  -5.546798e+001  1.430936e+002 
4293750000  -5.342186e+001  1.468913e+002 
4296875000  -5.225701e+001  1.101894e+002 
4300000000  -5.295201e+001  1.087503e+002 
4303125000  -5.181509e+001  9.599211e+001 
4306250000  -5.201150e+001  9.353626e+001 
4309375000  -5.137500e+001  8.223493e+001 
4312500000  -5.358841e+001  6.274706e+001 
4315625000  -5.198586e+001  5.703188e+001 
4318750000  -5.478079e+001  3.874950e+001 
4321875000  -5.270282e+001  3.692545e+001 
4325000000  -5.259336e+001  1.825546e+001 
4328125000  -5.192254e+001  7.951393e+000 
4331250000  -5.292372e+001  -6.981786e+000 
4334375000  -5.417067e+001  -1.828021e+001 
4337500000  -5.597871e+001  -3.777730e+001 
4340625000  -5.469001e+001  -2.661381e+001 
4343750000  -5.366625e+001  -4.009547e+001 
4346875000  -5.534874e+001  -4.453684e+001 
4350000000  -5.519293e+001  -6.844276e+001 
4353125000  -5.721650e+001  -6.075796e+001 
4356250000  -5.780932e+001  -6.945953e+001 
4359375000  -6.111616e+001  -5.927130e+001 
4362500000  -5.365264e+001  -7.418660e+001 
4365625000  -5.363625e+001  -9.738534e+001 
4368750000  -5.536470e+001  -9.317688e+001 
4371875000  -5.787071e+001  -9.724059e+001 
4375000000  -5.666793e+001  -1.195078e+002 
4378125000  -5.728069e+001  -1.391728e+002 
4381250000  -5.898129e+001  -1.234863e+002 
4384375000  -5.550341e+001  -1.388107e+002 
4387500000  -5.886146e+001  -1.311818e+002 
4390625000  -5.877315e+001  -1.464953e+002 
4393750000  -5.749686e+001  -1.348043e+002 
4396875000  -5.588057e+001  -1.618460e+002 
4400000000  -5.839385e+001  -1.770238e+002 
4403125000  -5.560938e+001  1.728539e+002 
4406250000  -5.695349e+001  1.731165e+002 
4409375000  -5.584887e+001  1.544269e+002 
4412500000  -5.670712e+001  1.469777e+002 
4415625000  -5.700019e+001  1.725130e+002 
4418750000  -5.416688e+001  1.501725e+002 
