!Agilent Technologies,E8363B,MY43030201,A.06.04.32
!Agilent E8363B: A.06.04.32
!Date: Tuesday, November 11, 2014 22:14:43
!Correction: S21(Response(S21)) 
!S1P File: Measurement: S21:
# Hz S  dB   R 50
3000000000  -4.902018e+001  -7.369369e+001 
3003125000  -5.127558e+001  -8.233097e+001 
3006250000  -5.152740e+001  -8.897161e+001 
3009375000  -5.235014e+001  -8.723926e+001 
3012500000  -5.117969e+001  -9.777755e+001 
3015625000  -5.137954e+001  -1.065775e+002 
3018750000  -5.162147e+001  -1.130918e+002 
3021875000  -5.030208e+001  -1.149094e+002 
3025000000  -4.853636e+001  -1.273791e+002 
3028125000  -4.787498e+001  -1.452806e+002 
3031250000  -4.711638e+001  -1.603159e+002 
3034375000  -4.705445e+001  -1.786993e+002 
3037500000  -4.839421e+001  1.680945e+002 
3040625000  -4.881643e+001  1.538133e+002 
3043750000  -4.989839e+001  1.426237e+002 
3046875000  -5.060230e+001  1.325371e+002 
3050000000  -5.153798e+001  1.222475e+002 
3053125000  -5.125974e+001  1.244120e+002 
3056250000  -5.218581e+001  1.239662e+002 
3059375000  -5.005587e+001  1.128256e+002 
3062500000  -4.913135e+001  1.041793e+002 
3065625000  -4.915273e+001  8.981716e+001 
3068750000  -4.876844e+001  7.596783e+001 
3071875000  -4.922059e+001  7.014050e+001 
3075000000  -4.843209e+001  5.705042e+001 
3078125000  -4.857343e+001  4.493407e+001 
3081250000  -4.869754e+001  3.165833e+001 
3084375000  -4.791898e+001  2.640133e+001 
3087500000  -4.790624e+001  1.336095e+001 
3090625000  -4.776144e+001  -3.250692e+000 
3093750000  -4.897371e+001  -1.652090e+001 
3096875000  -4.916713e+001  -2.375043e+001 
3100000000  -4.982882e+001  -3.464701e+001 
3103125000  -4.977602e+001  -3.787548e+001 
3106250000  -4.940582e+001  -4.712716e+001 
3109375000  -4.932581e+001  -5.962716e+001 
3112500000  -4.922585e+001  -6.993258e+001 
3115625000  -4.946401e+001  -7.883247e+001 
3118750000  -4.943663e+001  -8.652083e+001 
3121875000  -4.924949e+001  -9.674972e+001 
3125000000  -5.083888e+001  -1.068525e+002 
3128125000  -5.063729e+001  -1.098917e+002 
3131250000  -4.814414e+001  -1.181234e+002 
3134375000  -4.811720e+001  -1.398085e+002 
3137500000  -4.909834e+001  -1.551420e+002 
3140625000  -4.975329e+001  -1.625936e+002 
3143750000  -5.051512e+001  -1.665065e+002 
3146875000  -4.984250e+001  -1.715529e+002 
3150000000  -4.909655e+001  -1.793312e+002 
3153125000  -4.914606e+001  1.687999e+002 
3156250000  -5.018283e+001  1.685126e+002 
3159375000  -4.745410e+001  1.631342e+002 
3162500000  -4.629575e+001  1.365996e+002 
3165625000  -4.760814e+001  1.203660e+002 
3168750000  -4.778843e+001  1.170453e+002 
3171875000  -4.763205e+001  1.026396e+002 
3175000000  -4.804075e+001  8.816677e+001 
3178125000  -4.719925e+001  8.135089e+001 
3181250000  -4.668702e+001  7.222746e+001 
3184375000  -4.674105e+001  5.143731e+001 
3187500000  -4.793225e+001  3.141840e+001 
3190625000  -4.914002e+001  2.184477e+001 
3193750000  -4.949858e+001  2.429165e+001 
3196875000  -4.983280e+001  1.835750e+001 
3200000000  -4.819267e+001  1.086004e+001 
3203125000  -4.808850e+001  -4.998448e+000 
3206250000  -4.893575e+001  -1.728906e+001 
3209375000  -4.779981e+001  -2.824626e+001 
3212500000  -4.852034e+001  -4.097200e+001 
3215625000  -4.866627e+001  -4.440900e+001 
3218750000  -4.917632e+001  -6.428440e+001 
3221875000  -4.936317e+001  -7.754962e+001 
3225000000  -4.979799e+001  -8.703584e+001 
3228125000  -5.009163e+001  -9.289375e+001 
3231250000  -5.059851e+001  -1.016695e+002 
3234375000  -5.039813e+001  -1.044343e+002 
3237500000  -5.014738e+001  -1.165251e+002 
3240625000  -4.934259e+001  -1.306700e+002 
3243750000  -4.965965e+001  -1.444246e+002 
3246875000  -5.021023e+001  -1.528643e+002 
3250000000  -5.134259e+001  -1.643230e+002 
3253125000  -5.179294e+001  -1.684756e+002 
3256250000  -5.047755e+001  1.746368e+002 
3259375000  -5.142455e+001  1.583925e+002 
3262500000  -5.236551e+001  1.535035e+002 
3265625000  -5.362453e+001  1.468993e+002 
3268750000  -5.321868e+001  1.487439e+002 
3271875000  -5.284969e+001  1.312261e+002 
3275000000  -5.208105e+001  1.248143e+002 
3278125000  -5.246333e+001  1.063925e+002 
3281250000  -5.330980e+001  1.113171e+002 
3284375000  -5.237017e+001  9.492351e+001 
3287500000  -5.357711e+001  8.471639e+001 
3290625000  -5.341573e+001  6.897866e+001 
3293750000  -5.305242e+001  5.954733e+001 
3296875000  -5.410938e+001  5.499380e+001 
3300000000  -5.435147e+001  5.049680e+001 
3303125000  -5.420591e+001  4.610222e+001 
3306250000  -5.385513e+001  2.388825e+001 
3309375000  -5.189647e+001  1.422557e+001 
3312500000  -5.379303e+001  2.048075e+000 
3315625000  -5.566779e+001  -9.940611e+000 
3318750000  -5.580681e+001  -2.146865e+001 
3321875000  -5.843389e+001  -1.451485e+001 
3325000000  -5.704903e+001  -2.184921e+001 
3328125000  -5.644102e+001  -2.470928e+001 
3331250000  -5.407934e+001  -2.545127e+001 
3334375000  -5.125335e+001  -4.820481e+001 
3337500000  -5.228288e+001  -7.389963e+001 
3340625000  -5.379794e+001  -8.471977e+001 
3343750000  -5.560090e+001  -8.723645e+001 
3346875000  -5.521923e+001  -9.901174e+001 
3350000000  -5.456507e+001  -9.927312e+001 
3353125000  -5.456151e+001  -1.159140e+002 
3356250000  -5.506173e+001  -1.201236e+002 
3359375000  -5.521943e+001  -1.459745e+002 
3362500000  -5.592354e+001  -1.468936e+002 
3365625000  -5.603034e+001  -1.555375e+002 
3368750000  -5.755268e+001  -1.723194e+002 
3371875000  -5.789014e+001  1.759263e+002 
3375000000  -5.985115e+001  1.618535e+002 
3378125000  -5.952779e+001  1.694421e+002 
3381250000  -5.943932e+001  1.717879e+002 
3384375000  -5.572422e+001  1.718482e+002 
3387500000  -5.484502e+001  1.458200e+002 
3390625000  -5.743220e+001  1.300340e+002 
3393750000  -5.714535e+001  1.253472e+002 
3396875000  -5.733847e+001  1.239487e+002 
3400000000  -5.475790e+001  9.846307e+001 
3403125000  -5.763331e+001  8.466024e+001 
3406250000  -5.782165e+001  6.837552e+001 
3409375000  -5.824231e+001  6.574732e+001 
3412500000  -5.762896e+001  5.945445e+001 
3415625000  -6.161070e+001  3.766618e+001 
3418750000  -6.026959e+001  2.096322e+001 
3421875000  -5.887360e+001  3.363334e+001 
3425000000  -5.951082e+001  4.170111e+001 
3428125000  -5.895303e+001  9.611944e+000 
3431250000  -6.157306e+001  6.874828e+000 
3434375000  -5.966181e+001  -2.146037e+001 
3437500000  -6.531229e+001  -1.228355e+001 
3440625000  -6.332683e+001  -2.152010e+001 
3443750000  -6.214376e+001  -2.405226e+001 
3446875000  -5.897474e+001  -5.104007e+001 
3450000000  -6.318977e+001  -7.332014e+001 
3453125000  -6.361051e+001  -7.835484e+001 
3456250000  -6.724630e+001  -9.942355e+001 
3459375000  -6.792063e+001  -8.447697e+001 
3462500000  -6.607228e+001  -9.277691e+001 
3465625000  -6.390756e+001  -1.077321e+002 
3468750000  -6.842216e+001  -1.244602e+002 
3471875000  -6.548514e+001  -8.333173e+001 
3475000000  -6.540072e+001  -1.243768e+002 
3478125000  -7.052323e+001  -1.253572e+002 
3481250000  -7.288254e+001  -1.327597e+002 
3484375000  -6.789148e+001  -1.199581e+002 
3487500000  -7.013222e+001  -1.251138e+002 
3490625000  -6.452117e+001  -1.300617e+002 
3493750000  -6.780363e+001  -1.670445e+002 
3496875000  -7.081084e+001  -1.477335e+002 
3500000000  -6.660245e+001  -1.432735e+002 
3503125000  -6.448093e+001  -1.399166e+002 
3506250000  -6.561362e+001  -1.728528e+002 
3509375000  -6.715890e+001  1.650384e+002 
3512500000  -6.754789e+001  1.384002e+002 
3515625000  -6.977157e+001  1.615286e+002 
3518750000  -6.827968e+001  1.592086e+002 
3521875000  -7.296996e+001  1.008708e+002 
3525000000  -6.775277e+001  1.058264e+002 
3528125000  -6.809595e+001  1.323664e+002 
3531250000  -6.926040e+001  9.523993e+001 
3534375000  -6.765121e+001  9.837820e+001 
3537500000  -6.671500e+001  5.685495e+001 
3540625000  -7.076088e+001  -8.602553e+000 
3543750000  -8.480958e+001  6.801028e+001 
3546875000  -7.199409e+001  3.855325e+001 
3550000000  -6.981314e+001  4.103995e+001 
3553125000  -7.298821e+001  1.285087e+002 
3556250000  -7.379300e+001  6.781779e+001 
3559375000  -6.954430e+001  5.271340e+001 
3562500000  -6.926457e+001  7.325388e+000 
3565625000  -7.395430e+001  -2.257560e+001 
3568750000  -7.626350e+001  1.520632e+002 
3571875000  -7.118298e+001  -3.321743e+001 
3575000000  -6.770509e+001  -7.223104e+000 
3578125000  -7.283456e+001  5.869929e+001 
3581250000  -7.765993e+001  -4.173447e+001 
3584375000  -7.012046e+001  2.979060e+001 
3587500000  -7.634453e+001  -7.760321e-001 
3590625000  -6.715203e+001  1.212342e+001 
3593750000  -6.894468e+001  -3.711236e-001 
3596875000  -7.116440e+001  5.733552e+001 
3600000000  -6.916553e+001  -2.453513e+001 
3603125000  -6.440494e+001  1.827627e+000 
3606250000  -6.118096e+001  -3.097871e+001 
3609375000  -6.569066e+001  -4.373305e+001 
3612500000  -6.253870e+001  -6.671716e+001 
3615625000  -6.657758e+001  -4.082635e+001 
3618750000  -6.725235e+001  -5.983170e+001 
3621875000  -6.460014e+001  -5.141632e+001 
3625000000  -6.449026e+001  -8.081455e+001 
3628125000  -6.759957e+001  -1.267321e+002 
3631250000  -6.167268e+001  -1.067402e+002 
3634375000  -6.753261e+001  -1.081537e+002 
3637500000  -6.147395e+001  -1.020976e+002 
3640625000  -6.161153e+001  -1.349586e+002 
3643750000  -6.405287e+001  -1.545432e+002 
3646875000  -6.272199e+001  -1.631715e+002 
3650000000  -6.269994e+001  1.781722e+002 
3653125000  -6.202665e+001  -1.782108e+002 
3656250000  -6.524167e+001  1.725953e+002 
3659375000  -6.749913e+001  -1.671308e+002 
3662500000  -6.617902e+001  1.458049e+002 
3665625000  -6.260448e+001  1.502411e+002 
3668750000  -6.018308e+001  1.103968e+002 
3671875000  -6.619421e+001  1.360480e+002 
3675000000  -6.148606e+001  1.054208e+002 
3678125000  -6.664297e+001  1.147040e+002 
3681250000  -6.238163e+001  9.959626e+001 
3684375000  -6.476175e+001  1.005464e+002 
3687500000  -6.469229e+001  6.776113e+001 
3690625000  -6.865012e+001  4.211557e+001 
3693750000  -6.473604e+001  8.281091e+001 
3696875000  -7.044162e+001  1.267888e+002 
3700000000  -6.536004e+001  6.839722e+001 
3703125000  -6.520560e+001  6.078508e+001 
3706250000  -6.615648e+001  5.571396e+001 
3709375000  -6.715207e+001  6.973138e+001 
3712500000  -6.441889e+001  9.056743e+001 
3715625000  -6.279945e+001  3.720860e+001 
3718750000  -6.008641e+001  3.253199e+001 
3721875000  -6.259576e+001  1.623526e+001 
3725000000  -5.988684e+001  2.545022e+001 
3728125000  -5.959737e+001  1.455704e+001 
3731250000  -5.807985e+001  -1.087554e+001 
3734375000  -5.853765e+001  -1.489014e+001 
3737500000  -5.956612e+001  -2.713476e+001 
3740625000  -5.772920e+001  -4.367908e+001 
3743750000  -5.930398e+001  -5.891430e+001 
3746875000  -5.992663e+001  -6.628580e+001 
3750000000  -6.022287e+001  -7.088038e+001 
3753125000  -5.905827e+001  -7.781228e+001 
3756250000  -5.684317e+001  -9.762608e+001 
3759375000  -5.755029e+001  -1.041321e+002 
3762500000  -5.629596e+001  -1.086621e+002 
3765625000  -5.972496e+001  -1.269225e+002 
3768750000  -5.703690e+001  -1.299445e+002 
3771875000  -5.617997e+001  -1.421889e+002 
3775000000  -5.689458e+001  -1.475110e+002 
3778125000  -5.587007e+001  -1.766102e+002 
3781250000  -5.651361e+001  1.748511e+002 
3784375000  -5.681726e+001  1.717685e+002 
3787500000  -5.666448e+001  1.619355e+002 
3790625000  -5.765103e+001  1.339394e+002 
3793750000  -5.710994e+001  1.310577e+002 
3796875000  -5.630752e+001  1.287756e+002 
3800000000  -5.309398e+001  8.325186e+001 
3803125000  -5.696698e+001  9.715627e+001 
3806250000  -5.899614e+001  8.133868e+001 
3809375000  -5.908732e+001  7.938831e+001 
3812500000  -5.671366e+001  6.946431e+001 
3815625000  -6.029416e+001  5.256780e+001 
3818750000  -6.080179e+001  6.236712e+001 
3821875000  -5.973307e+001  3.694664e+001 
3825000000  -5.843669e+001  4.068147e+001 
3828125000  -6.089323e+001  2.492198e+001 
3831250000  -6.265344e+001  1.225834e+000 
3834375000  -6.331549e+001  1.483575e+001 
3837500000  -6.297966e+001  -8.955744e+000 
3840625000  -6.131490e+001  -4.753977e+000 
3843750000  -5.924711e+001  -9.561876e+000 
3846875000  -6.195434e+001  2.953776e-001 
3850000000  -6.470373e+001  1.243481e+001 
3853125000  -6.246906e+001  2.938821e+000 
3856250000  -6.160819e+001  3.774109e+000 
3859375000  -6.176373e+001  -3.164504e+001 
3862500000  -6.356476e+001  -4.980375e+001 
3865625000  -5.965152e+001  -4.763513e+001 
3868750000  -5.948875e+001  -3.811356e+001 
3871875000  -5.716652e+001  -7.059528e+001 
3875000000  -6.020601e+001  -6.942019e+001 
3878125000  -5.694921e+001  -7.295391e+001 
3881250000  -5.796183e+001  -7.935129e+001 
3884375000  -5.552121e+001  -9.481265e+001 
3887500000  -5.647121e+001  -1.230891e+002 
3890625000  -5.566644e+001  -1.142429e+002 
3893750000  -5.730373e+001  -1.205625e+002 
3896875000  -5.641145e+001  -1.216496e+002 
3900000000  -5.555957e+001  -1.389924e+002 
3903125000  -5.476815e+001  -1.557404e+002 
3906250000  -5.314680e+001  -1.693012e+002 
3909375000  -5.439683e+001  1.787907e+002 
3912500000  -5.441182e+001  1.646865e+002 
3915625000  -5.513182e+001  1.515500e+002 
3918750000  -5.361991e+001  1.542901e+002 
3921875000  -5.539415e+001  1.392773e+002 
3925000000  -5.475093e+001  1.305255e+002 
3928125000  -5.256589e+001  1.042173e+002 
3931250000  -5.376009e+001  1.090494e+002 
3934375000  -5.474166e+001  9.808485e+001 
3937500000  -5.546080e+001  8.696497e+001 
3940625000  -5.392660e+001  7.228872e+001 
3943750000  -5.502485e+001  5.901061e+001 
3946875000  -5.364615e+001  5.149134e+001 
3950000000  -5.497696e+001  4.565888e+001 
3953125000  -5.447154e+001  2.982187e+001 
3956250000  -5.350590e+001  2.071738e+001 
3959375000  -5.269969e+001  1.970459e+001 
3962500000  -5.368941e+001  -8.325952e+000 
3965625000  -5.313639e+001  -1.237790e+001 
3968750000  -5.499359e+001  -4.310995e+001 
3971875000  -5.280099e+001  -3.693301e+001 
3975000000  -5.435922e+001  -5.385540e+001 
3978125000  -5.432784e+001  -4.870618e+001 
3981250000  -5.566402e+001  -7.559982e+001 
3984375000  -5.513971e+001  -8.511626e+001 
3987500000  -5.553159e+001  -9.757449e+001 
3990625000  -5.755002e+001  -1.022686e+002 
3993750000  -5.871092e+001  -1.120820e+002 
3996875000  -5.812885e+001  -1.165347e+002 
4000000000  -6.023899e+001  -1.268690e+002 
4003125000  -5.886354e+001  -1.225880e+002 
4006250000  -5.750239e+001  -1.439955e+002 
4009375000  -5.720546e+001  -1.603305e+002 
4012500000  -6.011145e+001  -1.670629e+002 
4015625000  -5.954267e+001  -1.551841e+002 
4018750000  -5.815565e+001  -1.736364e+002 
4021875000  -6.035094e+001  -1.777376e+002 
4025000000  -6.195303e+001  -1.778311e+002 
4028125000  -5.882129e+001  1.679113e+002 
4031250000  -6.163436e+001  1.641194e+002 
4034375000  -6.000070e+001  1.621694e+002 
4037500000  -5.747607e+001  1.547810e+002 
4040625000  -5.691814e+001  1.543873e+002 
4043750000  -5.853075e+001  1.410669e+002 
4046875000  -5.762782e+001  1.493767e+002 
4050000000  -5.623637e+001  1.147037e+002 
4053125000  -5.735236e+001  1.209571e+002 
4056250000  -5.692462e+001  1.302511e+002 
4059375000  -5.658755e+001  1.061539e+002 
4062500000  -5.629469e+001  1.038810e+002 
4065625000  -5.409411e+001  8.283507e+001 
4068750000  -5.336123e+001  7.787857e+001 
4071875000  -5.257232e+001  6.373904e+001 
4075000000  -5.274148e+001  4.887175e+001 
4078125000  -5.234295e+001  3.959337e+001 
4081250000  -5.178829e+001  2.144903e+001 
4084375000  -5.193696e+001  8.428393e+000 
4087500000  -5.417048e+001  -2.510014e+000 
4090625000  -5.418725e+001  -3.154050e+000 
4093750000  -5.274538e+001  -2.280190e+001 
4096875000  -5.224524e+001  -3.025061e+001 
4100000000  -5.420135e+001  -5.572927e+001 
4103125000  -5.580217e+001  -4.967293e+001 
4106250000  -5.385892e+001  -5.818302e+001 
4109375000  -5.328759e+001  -5.965061e+001 
4112500000  -5.215882e+001  -8.001025e+001 
4115625000  -5.343442e+001  -8.290935e+001 
4118750000  -5.278255e+001  -1.013612e+002 
4121875000  -5.257712e+001  -1.173318e+002 
4125000000  -5.355883e+001  -1.258764e+002 
4128125000  -5.598702e+001  -1.228418e+002 
4131250000  -5.390990e+001  -1.275361e+002 
4134375000  -5.113731e+001  -1.477073e+002 
4137500000  -5.193682e+001  -1.687243e+002 
4140625000  -5.522838e+001  1.679612e+002 
4143750000  -5.533142e+001  1.704571e+002 
4146875000  -5.334133e+001  1.708883e+002 
4150000000  -5.510410e+001  1.584886e+002 
4153125000  -5.492950e+001  1.437007e+002 
4156250000  -5.539517e+001  1.304443e+002 
4159375000  -5.549131e+001  1.261319e+002 
4162500000  -5.628331e+001  1.147502e+002 
4165625000  -5.368018e+001  1.208299e+002 
4168750000  -5.494099e+001  8.214268e+001 
4171875000  -5.532473e+001  7.522300e+001 
4175000000  -5.602898e+001  5.740316e+001 
4178125000  -5.670982e+001  7.192927e+001 
4181250000  -5.826761e+001  3.981114e+001 
4184375000  -6.009773e+001  4.287447e+001 
4187500000  -5.813438e+001  4.170327e+001 
4190625000  -6.402399e+001  3.667411e+001 
4193750000  -6.161388e+001  1.577661e+001 
4196875000  -6.205100e+001  -8.248867e-001 
4200000000  -6.503398e+001  2.051768e+001 
4203125000  -6.379820e+001  1.961118e+001 
4206250000  -6.070831e+001  4.491672e+000 
4209375000  -6.214257e+001  -2.213569e+001 
4212500000  -6.136075e+001  4.360291e+000 
4215625000  -6.454307e+001  -1.811687e+001 
4218750000  -6.677133e+001  -2.008972e+001 
4221875000  -5.786702e+001  -1.745639e+001 
4225000000  -6.268635e+001  -9.555161e+000 
4228125000  -6.016982e+001  -4.982534e+001 
4231250000  -5.857579e+001  -3.218489e+001 
4234375000  -5.955475e+001  -6.546352e+001 
4237500000  -5.864662e+001  -5.746078e+001 
4240625000  -5.705412e+001  -7.517158e+001 
4243750000  -5.788376e+001  -7.284906e+001 
4246875000  -5.699499e+001  -5.719532e+001 
4250000000  -5.672004e+001  -9.227059e+001 
4253125000  -5.571648e+001  -7.918702e+001 
4256250000  -5.692620e+001  -1.055671e+002 
4259375000  -5.645943e+001  -1.105332e+002 
4262500000  -5.331193e+001  -1.159991e+002 
4265625000  -5.455130e+001  -1.273160e+002 
4268750000  -5.305439e+001  -1.360976e+002 
4271875000  -5.183585e+001  -1.512184e+002 
4275000000  -5.136932e+001  -1.714921e+002 
4278125000  -5.339045e+001  1.713523e+002 
4281250000  -5.315094e+001  1.725820e+002 
4284375000  -5.365264e+001  1.631340e+002 
4287500000  -5.466046e+001  1.490298e+002 
4290625000  -5.431489e+001  1.462962e+002 
4293750000  -5.247992e+001  1.441250e+002 
4296875000  -5.310356e+001  1.103069e+002 
4300000000  -5.312072e+001  1.113739e+002 
4303125000  -5.444204e+001  1.018277e+002 
4306250000  -5.285844e+001  1.018564e+002 
4309375000  -5.102566e+001  8.316740e+001 
4312500000  -5.220523e+001  7.902704e+001 
4315625000  -5.257860e+001  5.147070e+001 
4318750000  -5.341607e+001  4.157944e+001 
4321875000  -5.273391e+001  3.346310e+001 
4325000000  -5.295532e+001  2.606117e+001 
4328125000  -5.109078e+001  2.017555e+001 
4331250000  -5.399569e+001  -1.315491e+000 
4334375000  -5.436223e+001  -1.012621e+001 
4337500000  -5.498005e+001  -2.750688e+001 
4340625000  -5.427940e+001  -2.664786e+001 
4343750000  -5.560203e+001  -2.877919e+001 
4346875000  -5.633269e+001  -4.258765e+001 
4350000000  -5.514331e+001  -6.035249e+001 
4353125000  -5.587338e+001  -7.142120e+001 
4356250000  -5.722160e+001  -6.938401e+001 
4359375000  -5.837965e+001  -6.600384e+001 
4362500000  -5.538951e+001  -6.954581e+001 
4365625000  -5.583511e+001  -9.915913e+001 
4368750000  -5.462759e+001  -1.039997e+002 
4371875000  -5.686403e+001  -1.006551e+002 
4375000000  -5.484258e+001  -1.157814e+002 
4378125000  -5.485523e+001  -1.082365e+002 
4381250000  -5.760083e+001  -1.349704e+002 
4384375000  -5.480994e+001  -1.461293e+002 
4387500000  -5.528447e+001  -1.446039e+002 
4390625000  -5.861862e+001  -1.558021e+002 
4393750000  -5.734604e+001  -1.435281e+002 
4396875000  -5.519550e+001  -1.580380e+002 
4400000000  -5.603077e+001  -1.675065e+002 
4403125000  -5.625792e+001  1.753615e+002 
4406250000  -5.797662e+001  1.712263e+002 
4409375000  -5.624839e+001  1.675685e+002 
4412500000  -5.735231e+001  1.476445e+002 
4415625000  -5.623021e+001  1.651680e+002 
4418750000  -5.548042e+001  1.493813e+002 
