!Agilent Technologies,E8363B,MY43030201,A.06.04.32
!Agilent E8363B: A.06.04.32
!Date: Tuesday, November 11, 2014 22:09:56
!Correction: S21(Response(S21)) 
!S1P File: Measurement: S21:
# Hz S  dB   R 50
3000000000  -4.877509e+001  -7.699409e+001 
3003125000  -5.151009e+001  -8.509277e+001 
3006250000  -5.147813e+001  -8.772507e+001 
3009375000  -5.215426e+001  -8.905917e+001 
3012500000  -5.126161e+001  -9.920381e+001 
3015625000  -5.074364e+001  -1.119252e+002 
3018750000  -5.121274e+001  -1.136434e+002 
3021875000  -5.014449e+001  -1.191470e+002 
3025000000  -4.854757e+001  -1.285169e+002 
3028125000  -4.811274e+001  -1.461584e+002 
3031250000  -4.719816e+001  -1.625607e+002 
3034375000  -4.708929e+001  1.771183e+002 
3037500000  -4.788483e+001  1.633483e+002 
3040625000  -4.939937e+001  1.515895e+002 
3043750000  -4.979833e+001  1.393818e+002 
3046875000  -5.095090e+001  1.269036e+002 
3050000000  -5.143191e+001  1.210314e+002 
3053125000  -5.106513e+001  1.165529e+002 
3056250000  -5.122134e+001  1.199730e+002 
3059375000  -5.072393e+001  1.092038e+002 
3062500000  -4.961711e+001  1.014917e+002 
3065625000  -4.911340e+001  8.572349e+001 
3068750000  -4.926520e+001  7.357568e+001 
3071875000  -4.885761e+001  6.694752e+001 
3075000000  -4.844818e+001  5.451435e+001 
3078125000  -4.850911e+001  4.388515e+001 
3081250000  -4.920352e+001  3.302050e+001 
3084375000  -4.798074e+001  2.414976e+001 
3087500000  -4.798980e+001  1.057339e+001 
3090625000  -4.794297e+001  -3.779651e+000 
3093750000  -4.959841e+001  -1.671186e+001 
3096875000  -4.937032e+001  -2.298627e+001 
3100000000  -4.948111e+001  -3.465624e+001 
3103125000  -5.015015e+001  -4.059589e+001 
3106250000  -4.935329e+001  -4.998819e+001 
3109375000  -4.974818e+001  -6.060624e+001 
3112500000  -4.958453e+001  -7.320252e+001 
3115625000  -4.942651e+001  -8.026089e+001 
3118750000  -5.011378e+001  -8.514198e+001 
3121875000  -4.925385e+001  -1.000681e+002 
3125000000  -5.034700e+001  -1.087626e+002 
3128125000  -5.068436e+001  -1.121222e+002 
3131250000  -4.856335e+001  -1.214006e+002 
3134375000  -4.746210e+001  -1.414705e+002 
3137500000  -4.888792e+001  -1.575329e+002 
3140625000  -5.019550e+001  -1.640734e+002 
3143750000  -5.091132e+001  -1.690316e+002 
3146875000  -5.013804e+001  -1.707020e+002 
3150000000  -4.928709e+001  -1.793279e+002 
3153125000  -4.913834e+001  1.644041e+002 
3156250000  -5.084685e+001  1.610474e+002 
3159375000  -4.786156e+001  1.550839e+002 
3162500000  -4.615579e+001  1.343089e+002 
3165625000  -4.785392e+001  1.210082e+002 
3168750000  -4.730634e+001  1.129465e+002 
3171875000  -4.769556e+001  1.016308e+002 
3175000000  -4.760256e+001  8.502010e+001 
3178125000  -4.701225e+001  8.274409e+001 
3181250000  -4.647708e+001  6.494547e+001 
3184375000  -4.623018e+001  5.216076e+001 
3187500000  -4.759177e+001  3.305021e+001 
3190625000  -4.871239e+001  2.149606e+001 
3193750000  -5.021814e+001  1.920726e+001 
3196875000  -4.939529e+001  1.796598e+001 
3200000000  -4.854113e+001  7.328393e+000 
3203125000  -4.843944e+001  -3.937339e+000 
3206250000  -4.862509e+001  -1.690642e+001 
3209375000  -4.773332e+001  -3.508736e+001 
3212500000  -4.838536e+001  -4.133280e+001 
3215625000  -4.807473e+001  -4.898541e+001 
3218750000  -4.931149e+001  -6.639767e+001 
3221875000  -4.910611e+001  -7.926361e+001 
3225000000  -4.934440e+001  -8.801811e+001 
3228125000  -4.995578e+001  -9.430911e+001 
3231250000  -5.032708e+001  -1.061567e+002 
3234375000  -4.945935e+001  -1.130619e+002 
3237500000  -5.057292e+001  -1.230170e+002 
3240625000  -4.988076e+001  -1.347915e+002 
3243750000  -4.998882e+001  -1.458261e+002 
3246875000  -4.987769e+001  -1.572008e+002 
3250000000  -5.145136e+001  -1.691565e+002 
3253125000  -5.115684e+001  -1.739270e+002 
3256250000  -5.044583e+001  1.719386e+002 
3259375000  -5.162980e+001  1.546680e+002 
3262500000  -5.225491e+001  1.551591e+002 
3265625000  -5.297448e+001  1.452166e+002 
3268750000  -5.306874e+001  1.424630e+002 
3271875000  -5.289098e+001  1.321569e+002 
3275000000  -5.176696e+001  1.200699e+002 
3278125000  -5.218993e+001  1.034217e+002 
3281250000  -5.354940e+001  1.034921e+002 
3284375000  -5.194608e+001  9.534687e+001 
3287500000  -5.398627e+001  8.156670e+001 
3290625000  -5.295221e+001  7.145062e+001 
3293750000  -5.267459e+001  6.154514e+001 
3296875000  -5.407850e+001  5.600161e+001 
3300000000  -5.507660e+001  5.121566e+001 
3303125000  -5.279473e+001  3.579878e+001 
3306250000  -5.359362e+001  2.204973e+001 
3309375000  -5.256490e+001  1.443975e+001 
3312500000  -5.367652e+001  -4.389928e+000 
3315625000  -5.440941e+001  -1.762152e+001 
3318750000  -5.678862e+001  -2.557590e+001 
3321875000  -5.809007e+001  -3.498759e+001 
3325000000  -5.855840e+001  -2.699838e+001 
3328125000  -5.542098e+001  -2.210050e+001 
3331250000  -5.358026e+001  -2.747122e+001 
3334375000  -5.220371e+001  -5.168805e+001 
3337500000  -5.229049e+001  -7.209114e+001 
3340625000  -5.382918e+001  -8.994163e+001 
3343750000  -5.560151e+001  -9.202929e+001 
3346875000  -5.573222e+001  -1.014663e+002 
3350000000  -5.454161e+001  -1.001376e+002 
3353125000  -5.410533e+001  -1.178514e+002 
3356250000  -5.461432e+001  -1.315242e+002 
3359375000  -5.510521e+001  -1.456231e+002 
3362500000  -5.604964e+001  -1.547663e+002 
3365625000  -5.567812e+001  -1.669368e+002 
3368750000  -5.694810e+001  -1.745826e+002 
3371875000  -5.726955e+001  1.741978e+002 
3375000000  -5.761923e+001  1.650026e+002 
3378125000  -5.953043e+001  1.676228e+002 
3381250000  -5.901497e+001  1.717683e+002 
3384375000  -5.627343e+001  -1.774495e+002 
3387500000  -5.441978e+001  1.391815e+002 
3390625000  -5.653733e+001  1.208683e+002 
3393750000  -5.682485e+001  1.132260e+002 
3396875000  -5.725782e+001  1.131115e+002 
3400000000  -5.548531e+001  9.432086e+001 
3403125000  -5.626057e+001  8.091447e+001 
3406250000  -5.738730e+001  7.940707e+001 
3409375000  -5.972066e+001  4.765089e+001 
3412500000  -5.873604e+001  5.164500e+001 
3415625000  -6.091848e+001  3.542467e+001 
3418750000  -5.970998e+001  3.569944e+001 
3421875000  -6.086296e+001  2.228841e+001 
3425000000  -6.153267e+001  2.727100e+001 
3428125000  -6.019762e+001  1.426824e+000 
3431250000  -6.215330e+001  -5.920567e+000 
3434375000  -6.008022e+001  -1.443226e+001 
3437500000  -6.200278e+001  -3.951635e+001 
3440625000  -6.145091e+001  -3.364659e+001 
3443750000  -6.235628e+001  -4.587350e+001 
3446875000  -5.942341e+001  -5.819797e+001 
3450000000  -6.321243e+001  -7.951093e+001 
3453125000  -6.096106e+001  -7.653679e+001 
3456250000  -6.629618e+001  -7.535080e+001 
3459375000  -6.471551e+001  -9.285516e+001 
3462500000  -6.566092e+001  -6.883985e+001 
3465625000  -6.823534e+001  -1.122462e+002 
3468750000  -6.363496e+001  -1.152126e+002 
3471875000  -6.735927e+001  -1.152319e+002 
3475000000  -6.454874e+001  -1.178687e+002 
3478125000  -6.680832e+001  -1.181786e+002 
3481250000  -6.851498e+001  -1.668417e+002 
3484375000  -6.962724e+001  -1.596680e+002 
3487500000  -6.603305e+001  -1.367971e+002 
3490625000  -6.525805e+001  -1.437769e+002 
3493750000  -7.117605e+001  -1.206877e+002 
3496875000  -7.284956e+001  -1.720256e+002 
3500000000  -6.511206e+001  1.668399e+002 
3503125000  -6.433071e+001  -1.717455e+002 
3506250000  -6.231618e+001  -1.506347e+002 
3509375000  -6.834337e+001  1.749993e+002 
3512500000  -6.350384e+001  1.413757e+002 
3515625000  -6.760529e+001  1.301219e+002 
3518750000  -6.817460e+001  1.553579e+002 
3521875000  -6.667321e+001  1.392619e+002 
3525000000  -6.684921e+001  1.224588e+002 
3528125000  -6.531047e+001  1.266427e+002 
3531250000  -6.428312e+001  1.316758e+002 
3534375000  -6.684026e+001  1.025295e+002 
3537500000  -7.474456e+001  9.883864e+001 
3540625000  -7.077723e+001  4.926743e+001 
3543750000  -7.204695e+001  4.788966e+001 
3546875000  -6.721527e+001  7.936066e+001 
3550000000  -6.620251e+001  6.172971e+001 
3553125000  -7.097076e+001  7.211916e+001 
3556250000  -7.123396e+001  3.887785e+001 
3559375000  -7.045336e+001  4.416485e+001 
3562500000  -7.336743e+001  -9.933172e+001 
3565625000  -7.403512e+001  3.779588e+001 
3568750000  -8.841479e+001  8.880725e+001 
3571875000  -6.731960e+001  3.576975e+001 
3575000000  -7.124385e+001  1.233877e+001 
3578125000  -6.648864e+001  5.204100e+001 
3581250000  -7.191239e+001  8.215936e+001 
3584375000  -7.827093e+001  3.700526e+001 
3587500000  -7.757291e+001  -8.433278e+001 
3590625000  -7.177250e+001  5.602271e+001 
3593750000  -6.865871e+001  5.302659e+000 
3596875000  -6.659916e+001  -1.935967e-001 
3600000000  -6.737226e+001  1.422574e+001 
3603125000  -6.981217e+001  4.237569e+000 
3606250000  -6.970647e+001  -4.368116e+001 
3609375000  -6.679022e+001  -4.903837e+001 
3612500000  -6.772263e+001  -6.910175e+001 
3615625000  -7.407668e+001  -6.490115e+001 
3618750000  -6.534085e+001  -6.648784e+001 
3621875000  -6.350562e+001  -9.090873e+001 
3625000000  -6.392896e+001  -6.612449e+001 
3628125000  -6.407213e+001  -1.255287e+002 
3631250000  -6.277925e+001  -1.016043e+002 
3634375000  -6.524715e+001  -1.375734e+002 
3637500000  -6.591455e+001  -1.001783e+002 
3640625000  -6.020755e+001  -1.350387e+002 
3643750000  -6.333842e+001  -1.569964e+002 
3646875000  -6.213958e+001  1.787289e+002 
3650000000  -6.374308e+001  1.639285e+002 
3653125000  -6.400799e+001  -1.683500e+002 
3656250000  -6.852763e+001  1.683783e+002 
3659375000  -6.167116e+001  1.684760e+002 
3662500000  -6.310257e+001  1.466709e+002 
3665625000  -6.306878e+001  1.434010e+002 
3668750000  -6.222374e+001  1.480457e+002 
3671875000  -6.296961e+001  1.051497e+002 
3675000000  -6.340074e+001  1.110305e+002 
3678125000  -6.286314e+001  1.258613e+002 
3681250000  -6.015721e+001  9.437663e+001 
3684375000  -6.493105e+001  7.981695e+001 
3687500000  -6.585694e+001  6.234974e+001 
3690625000  -6.462493e+001  8.763228e+001 
3693750000  -6.595342e+001  6.528980e+001 
3696875000  -6.596450e+001  9.355963e+001 
3700000000  -6.651058e+001  6.117847e+001 
3703125000  -6.329016e+001  3.235242e+001 
3706250000  -6.605746e+001  4.812080e+001 
3709375000  -6.287694e+001  4.502497e+001 
3712500000  -6.179291e+001  7.483044e+001 
3715625000  -6.560107e+001  2.581353e+001 
3718750000  -6.060845e+001  4.212857e+001 
3721875000  -6.248646e+001  3.481853e+000 
3725000000  -6.237273e+001  1.881517e+001 
3728125000  -5.871494e+001  6.062912e-002 
3731250000  -5.942279e+001  -1.360245e+001 
3734375000  -6.241074e+001  -2.545974e+001 
3737500000  -5.965916e+001  -3.355822e+001 
3740625000  -5.813118e+001  -4.380585e+001 
3743750000  -5.979607e+001  -5.871078e+001 
3746875000  -5.726820e+001  -6.495063e+001 
3750000000  -6.073233e+001  -8.994575e+001 
3753125000  -5.803957e+001  -8.275932e+001 
3756250000  -5.800708e+001  -9.642233e+001 
3759375000  -5.816998e+001  -1.115147e+002 
3762500000  -5.785448e+001  -1.225643e+002 
3765625000  -5.954203e+001  -1.292237e+002 
3768750000  -5.845009e+001  -1.479050e+002 
3771875000  -5.599178e+001  -1.490149e+002 
3775000000  -5.605803e+001  -1.596387e+002 
3778125000  -5.725788e+001  -1.792913e+002 
3781250000  -5.664919e+001  1.710519e+002 
3784375000  -5.688630e+001  1.612599e+002 
3787500000  -5.698817e+001  1.476185e+002 
3790625000  -5.744382e+001  1.395770e+002 
3793750000  -5.630619e+001  1.224094e+002 
3796875000  -5.695088e+001  1.268393e+002 
3800000000  -5.285359e+001  7.770889e+001 
3803125000  -5.764677e+001  8.315501e+001 
3806250000  -5.883811e+001  7.729566e+001 
3809375000  -5.956242e+001  8.090967e+001 
3812500000  -5.782207e+001  5.832114e+001 
3815625000  -5.986336e+001  3.413425e+001 
3818750000  -6.421784e+001  3.495768e+001 
3821875000  -6.028193e+001  3.347321e+001 
3825000000  -5.968318e+001  5.981575e+001 
3828125000  -5.833152e+001  2.890903e+001 
3831250000  -5.848975e+001  1.620440e+001 
3834375000  -6.237892e+001  1.059794e+001 
3837500000  -6.324404e+001  1.917392e+001 
3840625000  -6.356429e+001  5.326758e-002 
3843750000  -6.157526e+001  5.800477e-001 
3846875000  -6.661119e+001  -1.018688e+001 
3850000000  -6.491564e+001  9.026151e+000 
3853125000  -6.389242e+001  -3.114886e+001 
3856250000  -6.097553e+001  1.657630e+000 
3859375000  -5.839852e+001  -3.879259e+001 
3862500000  -6.201590e+001  -3.298962e+001 
3865625000  -6.025206e+001  -4.828293e+001 
3868750000  -5.823280e+001  -5.144675e+001 
3871875000  -5.779765e+001  -5.990618e+001 
3875000000  -5.958042e+001  -7.209666e+001 
3878125000  -5.720566e+001  -9.267782e+001 
3881250000  -5.807376e+001  -9.533707e+001 
3884375000  -5.480758e+001  -1.011363e+002 
3887500000  -5.663770e+001  -1.181497e+002 
3890625000  -5.647687e+001  -1.145040e+002 
3893750000  -5.781623e+001  -1.272789e+002 
3896875000  -5.776012e+001  -1.431669e+002 
3900000000  -5.620164e+001  -1.545301e+002 
3903125000  -5.589410e+001  -1.557056e+002 
3906250000  -5.281045e+001  -1.717892e+002 
3909375000  -5.456739e+001  1.749986e+002 
3912500000  -5.421590e+001  1.595622e+002 
3915625000  -5.660352e+001  1.613052e+002 
3918750000  -5.435574e+001  1.533260e+002 
3921875000  -5.517282e+001  1.459129e+002 
3925000000  -5.298238e+001  1.317486e+002 
3928125000  -5.254338e+001  1.084595e+002 
3931250000  -5.439242e+001  9.708064e+001 
3934375000  -5.538750e+001  9.051901e+001 
3937500000  -5.643781e+001  7.153815e+001 
3940625000  -5.473839e+001  7.109362e+001 
3943750000  -5.331478e+001  6.234185e+001 
3946875000  -5.313320e+001  4.594744e+001 
3950000000  -5.408010e+001  4.126946e+001 
3953125000  -5.519246e+001  3.669534e+001 
3956250000  -5.422795e+001  1.500079e+001 
3959375000  -5.262915e+001  7.997045e+000 
3962500000  -5.362255e+001  -1.234745e+001 
3965625000  -5.443486e+001  -1.600026e+001 
3968750000  -5.345133e+001  -3.406033e+001 
3971875000  -5.342879e+001  -4.227339e+001 
3975000000  -5.351746e+001  -5.829816e+001 
3978125000  -5.407609e+001  -5.215544e+001 
3981250000  -5.411595e+001  -7.948048e+001 
3984375000  -5.596909e+001  -8.457378e+001 
3987500000  -5.611611e+001  -9.178595e+001 
3990625000  -5.817613e+001  -1.159664e+002 
3993750000  -5.623096e+001  -1.223586e+002 
3996875000  -5.748035e+001  -1.235930e+002 
4000000000  -5.908103e+001  -1.523527e+002 
4003125000  -5.965905e+001  -1.404149e+002 
4006250000  -5.821357e+001  -1.434578e+002 
4009375000  -5.740481e+001  -1.545056e+002 
4012500000  -5.855051e+001  -1.463475e+002 
4015625000  -6.197689e+001  -1.495444e+002 
4018750000  -6.044467e+001  -1.741409e+002 
4021875000  -5.889072e+001  1.742887e+002 
4025000000  -5.959338e+001  1.705444e+002 
4028125000  -5.886168e+001  1.659527e+002 
4031250000  -6.068479e+001  1.648403e+002 
4034375000  -5.980872e+001  1.690348e+002 
4037500000  -5.982307e+001  1.473893e+002 
4040625000  -6.007943e+001  1.304078e+002 
4043750000  -6.087207e+001  1.603121e+002 
4046875000  -5.713537e+001  1.298594e+002 
4050000000  -5.677562e+001  1.170469e+002 
4053125000  -5.867676e+001  1.088998e+002 
4056250000  -5.827183e+001  1.146615e+002 
4059375000  -5.557695e+001  1.018518e+002 
4062500000  -5.517237e+001  9.429002e+001 
4065625000  -5.419749e+001  8.222954e+001 
4068750000  -5.567823e+001  7.002028e+001 
4071875000  -5.268058e+001  5.422956e+001 
4075000000  -5.365157e+001  4.300677e+001 
4078125000  -5.305597e+001  3.389391e+001 
4081250000  -5.333669e+001  2.892992e+001 
4084375000  -5.111997e+001  5.520980e+000 
4087500000  -5.281052e+001  -7.857405e+000 
4090625000  -5.506574e+001  -9.938261e+000 
4093750000  -5.241995e+001  -1.235141e+001 
4096875000  -5.338147e+001  -3.338074e+001 
4100000000  -5.492921e+001  -4.526870e+001 
4103125000  -5.505150e+001  -5.185174e+001 
4106250000  -5.303846e+001  -6.329239e+001 
4109375000  -5.274471e+001  -5.936832e+001 
4112500000  -5.157724e+001  -8.357876e+001 
4115625000  -5.323965e+001  -9.360871e+001 
4118750000  -5.269847e+001  -1.067635e+002 
4121875000  -5.271935e+001  -1.203892e+002 
4125000000  -5.388094e+001  -1.210983e+002 
4128125000  -5.479808e+001  -1.322897e+002 
4131250000  -5.284767e+001  -1.325071e+002 
4134375000  -5.092488e+001  -1.494980e+002 
4137500000  -5.390682e+001  -1.734569e+002 
4140625000  -5.382308e+001  1.635379e+002 
4143750000  -5.527429e+001  1.681388e+002 
4146875000  -5.417007e+001  1.660679e+002 
4150000000  -5.367664e+001  1.544286e+002 
4153125000  -5.442868e+001  1.399713e+002 
4156250000  -5.757125e+001  1.219572e+002 
4159375000  -5.582670e+001  1.218052e+002 
4162500000  -5.635216e+001  1.044111e+002 
4165625000  -5.390911e+001  1.052833e+002 
4168750000  -5.520803e+001  8.876367e+001 
4171875000  -5.562468e+001  6.437308e+001 
4175000000  -5.390331e+001  5.846992e+001 
4178125000  -5.795059e+001  6.699419e+001 
4181250000  -5.738776e+001  3.230711e+001 
4184375000  -5.988058e+001  3.569020e+001 
4187500000  -5.795097e+001  1.500799e+001 
4190625000  -6.042786e+001  8.768481e+000 
4193750000  -5.793932e+001  -1.532483e+000 
4196875000  -6.043896e+001  4.441496e+000 
4200000000  -6.188583e+001  3.527716e+001 
4203125000  -6.785824e+001  1.646155e+000 
4206250000  -6.234037e+001  1.462139e+001 
4209375000  -5.942888e+001  -5.936899e+000 
4212500000  -6.223323e+001  -6.571518e+000 
4215625000  -6.328297e+001  -2.559896e+001 
4218750000  -6.588977e+001  2.060835e+001 
4221875000  -6.292818e+001  -2.938670e+001 
4225000000  -6.327293e+001  2.887615e+000 
4228125000  -6.126151e+001  -2.949446e+001 
4231250000  -6.080809e+001  2.746105e+000 
4234375000  -5.866472e+001  -6.099004e+001 
4237500000  -5.844017e+001  -4.369247e+001 
4240625000  -5.530296e+001  -7.111804e+001 
4243750000  -5.707418e+001  -7.674912e+001 
4246875000  -5.713791e+001  -7.156155e+001 
4250000000  -5.837369e+001  -9.844762e+001 
4253125000  -5.387296e+001  -8.653561e+001 
4256250000  -5.618885e+001  -9.813423e+001 
4259375000  -5.742432e+001  -1.062977e+002 
4262500000  -5.447121e+001  -1.307151e+002 
4265625000  -5.427835e+001  -1.227588e+002 
4268750000  -5.306493e+001  -1.506067e+002 
4271875000  -5.255380e+001  -1.541474e+002 
4275000000  -5.149420e+001  -1.797281e+002 
4278125000  -5.462376e+001  1.528574e+002 
4281250000  -5.473016e+001  1.579495e+002 
4284375000  -5.332555e+001  1.582109e+002 
4287500000  -5.407872e+001  1.486265e+002 
4290625000  -5.556364e+001  1.400312e+002 
4293750000  -5.270163e+001  1.446391e+002 
4296875000  -5.134855e+001  1.142935e+002 
4300000000  -5.289737e+001  1.088909e+002 
4303125000  -5.321932e+001  9.466302e+001 
4306250000  -5.223414e+001  9.671567e+001 
4309375000  -5.261773e+001  8.171205e+001 
4312500000  -5.239075e+001  6.327743e+001 
4315625000  -5.252846e+001  5.081586e+001 
4318750000  -5.350555e+001  3.919490e+001 
4321875000  -5.193729e+001  2.841914e+001 
4325000000  -5.253003e+001  2.808997e+001 
4328125000  -5.257784e+001  1.502533e+001 
4331250000  -5.314277e+001  -8.927466e+000 
4334375000  -5.434800e+001  -1.999433e+001 
4337500000  -5.543147e+001  -3.579586e+001 
4340625000  -5.484403e+001  -2.637782e+001 
4343750000  -5.475416e+001  -4.376375e+001 
4346875000  -5.644781e+001  -3.680503e+001 
4350000000  -5.444582e+001  -6.489216e+001 
4353125000  -5.699897e+001  -8.195473e+001 
4356250000  -5.611411e+001  -8.262432e+001 
4359375000  -5.849654e+001  -4.662292e+001 
4362500000  -5.466544e+001  -6.889994e+001 
4365625000  -5.702767e+001  -9.905119e+001 
4368750000  -5.377919e+001  -1.075467e+002 
4371875000  -5.490627e+001  -1.144882e+002 
4375000000  -5.526538e+001  -1.186065e+002 
4378125000  -5.930581e+001  -1.251161e+002 
4381250000  -5.735689e+001  -1.390394e+002 
4384375000  -5.574439e+001  -1.355163e+002 
4387500000  -5.872395e+001  -1.301445e+002 
4390625000  -5.775920e+001  -1.620517e+002 
4393750000  -5.723478e+001  -1.567443e+002 
4396875000  -5.723945e+001  -1.579183e+002 
4400000000  -5.690143e+001  1.781721e+002 
4403125000  -5.493785e+001  1.732861e+002 
4406250000  -5.587464e+001  1.713031e+002 
4409375000  -5.513980e+001  1.660503e+002 
4412500000  -5.712671e+001  1.580496e+002 
4415625000  -5.503784e+001  1.574996e+002 
4418750000  -5.417957e+001  1.494831e+002 
