!Agilent Technologies,E8363B,MY43030201,A.06.04.32
!Agilent E8363B: A.06.04.32
!Date: Tuesday, November 11, 2014 22:16:00
!Correction: S21(Response(S21)) 
!S1P File: Measurement: S21:
# Hz S  dB   R 50
3000000000  -4.869204e+001  -7.213877e+001 
3003125000  -5.159378e+001  -8.152717e+001 
3006250000  -5.130795e+001  -8.869373e+001 
3009375000  -5.194332e+001  -8.376939e+001 
3012500000  -5.121350e+001  -9.569424e+001 
3015625000  -5.092521e+001  -1.089478e+002 
3018750000  -5.203321e+001  -1.093641e+002 
3021875000  -5.007284e+001  -1.178676e+002 
3025000000  -4.868169e+001  -1.263955e+002 
3028125000  -4.778900e+001  -1.451399e+002 
3031250000  -4.722161e+001  -1.583069e+002 
3034375000  -4.687807e+001  -1.776397e+002 
3037500000  -4.763205e+001  1.689624e+002 
3040625000  -4.932935e+001  1.542950e+002 
3043750000  -4.979433e+001  1.429951e+002 
3046875000  -5.074209e+001  1.357852e+002 
3050000000  -5.160282e+001  1.237390e+002 
3053125000  -5.176056e+001  1.226105e+002 
3056250000  -5.105969e+001  1.160716e+002 
3059375000  -5.110829e+001  1.119699e+002 
3062500000  -4.973281e+001  1.056003e+002 
3065625000  -4.918509e+001  9.116856e+001 
3068750000  -4.855425e+001  7.843983e+001 
3071875000  -4.915482e+001  6.829320e+001 
3075000000  -4.822710e+001  5.596341e+001 
3078125000  -4.894402e+001  4.571980e+001 
3081250000  -4.889434e+001  3.209184e+001 
3084375000  -4.822021e+001  2.580489e+001 
3087500000  -4.832603e+001  1.404059e+001 
3090625000  -4.793894e+001  -3.223622e+000 
3093750000  -4.885346e+001  -1.623647e+001 
3096875000  -4.914457e+001  -2.509173e+001 
3100000000  -4.970303e+001  -2.844872e+001 
3103125000  -5.005834e+001  -3.993080e+001 
3106250000  -4.961943e+001  -4.821778e+001 
3109375000  -4.944466e+001  -5.794189e+001 
3112500000  -4.916953e+001  -6.774574e+001 
3115625000  -4.940952e+001  -7.595660e+001 
3118750000  -4.983001e+001  -8.482427e+001 
3121875000  -4.895468e+001  -1.000810e+002 
3125000000  -5.086972e+001  -1.068959e+002 
3128125000  -5.071274e+001  -1.076612e+002 
3131250000  -4.862371e+001  -1.153792e+002 
3134375000  -4.751719e+001  -1.367247e+002 
3137500000  -4.875197e+001  -1.544310e+002 
3140625000  -4.965167e+001  -1.586806e+002 
3143750000  -5.078372e+001  -1.654643e+002 
3146875000  -4.999088e+001  -1.681402e+002 
3150000000  -4.925897e+001  -1.776671e+002 
3153125000  -4.885479e+001  1.681900e+002 
3156250000  -5.059584e+001  1.679243e+002 
3159375000  -4.776276e+001  1.602178e+002 
3162500000  -4.625210e+001  1.393225e+002 
3165625000  -4.779798e+001  1.241620e+002 
3168750000  -4.795850e+001  1.164952e+002 
3171875000  -4.723558e+001  1.037402e+002 
3175000000  -4.762474e+001  9.106498e+001 
3178125000  -4.696205e+001  8.439859e+001 
3181250000  -4.640585e+001  6.893131e+001 
3184375000  -4.724966e+001  5.341399e+001 
3187500000  -4.697126e+001  3.530035e+001 
3190625000  -4.990316e+001  2.428434e+001 
3193750000  -5.011243e+001  2.468010e+001 
3196875000  -4.943131e+001  1.566208e+001 
3200000000  -4.813958e+001  1.114272e+001 
3203125000  -4.840998e+001  -2.792137e+000 
3206250000  -4.794299e+001  -1.607026e+001 
3209375000  -4.810873e+001  -2.769571e+001 
3212500000  -4.856001e+001  -3.667240e+001 
3215625000  -4.819783e+001  -4.534518e+001 
3218750000  -4.937893e+001  -6.375215e+001 
3221875000  -4.948382e+001  -7.208169e+001 
3225000000  -4.941080e+001  -8.185194e+001 
3228125000  -5.021919e+001  -9.255193e+001 
3231250000  -5.120658e+001  -9.971554e+001 
3234375000  -4.974223e+001  -1.083837e+002 
3237500000  -4.997708e+001  -1.165047e+002 
3240625000  -4.988998e+001  -1.260809e+002 
3243750000  -4.962441e+001  -1.413567e+002 
3246875000  -5.008242e+001  -1.525193e+002 
3250000000  -5.081155e+001  -1.636990e+002 
3253125000  -5.120906e+001  -1.728358e+002 
3256250000  -5.060368e+001  1.768153e+002 
3259375000  -5.096192e+001  1.608665e+002 
3262500000  -5.256956e+001  1.533987e+002 
3265625000  -5.258667e+001  1.464750e+002 
3268750000  -5.318254e+001  1.452762e+002 
3271875000  -5.316113e+001  1.380779e+002 
3275000000  -5.210434e+001  1.275712e+002 
3278125000  -5.296989e+001  1.097675e+002 
3281250000  -5.324332e+001  1.061397e+002 
3284375000  -5.202485e+001  8.879906e+001 
3287500000  -5.380736e+001  8.321212e+001 
3290625000  -5.339398e+001  7.426218e+001 
3293750000  -5.271678e+001  6.145073e+001 
3296875000  -5.412159e+001  5.476933e+001 
3300000000  -5.531221e+001  4.843031e+001 
3303125000  -5.284698e+001  4.583158e+001 
3306250000  -5.296989e+001  2.728356e+001 
3309375000  -5.355732e+001  1.421207e+001 
3312500000  -5.332474e+001  3.429222e-001 
3315625000  -5.466452e+001  -1.067059e+001 
3318750000  -5.688789e+001  -1.822840e+001 
3321875000  -5.898239e+001  -2.268901e+001 
3325000000  -5.523418e+001  -1.725276e+001 
3328125000  -5.507176e+001  -2.642176e+001 
3331250000  -5.352663e+001  -2.531248e+001 
3334375000  -5.265950e+001  -4.379823e+001 
3337500000  -5.266959e+001  -6.999664e+001 
3340625000  -5.400780e+001  -8.758972e+001 
3343750000  -5.578016e+001  -8.109554e+001 
3346875000  -5.528372e+001  -9.738497e+001 
3350000000  -5.481281e+001  -1.014244e+002 
3353125000  -5.426325e+001  -1.176100e+002 
3356250000  -5.504320e+001  -1.236109e+002 
3359375000  -5.467799e+001  -1.473249e+002 
3362500000  -5.603936e+001  -1.473266e+002 
3365625000  -5.606432e+001  -1.578101e+002 
3368750000  -5.691083e+001  -1.685968e+002 
3371875000  -5.635562e+001  -1.726059e+002 
3375000000  -5.921759e+001  1.646172e+002 
3378125000  -6.018545e+001  1.642468e+002 
3381250000  -6.004948e+001  1.640717e+002 
3384375000  -5.843087e+001  -1.727207e+002 
3387500000  -5.486651e+001  1.490518e+002 
3390625000  -5.558879e+001  1.307110e+002 
3393750000  -5.641604e+001  1.195454e+002 
3396875000  -5.712653e+001  1.209729e+002 
3400000000  -5.611972e+001  9.770723e+001 
3403125000  -5.853439e+001  9.314639e+001 
3406250000  -5.755038e+001  7.505164e+001 
3409375000  -5.706149e+001  5.560803e+001 
3412500000  -5.704083e+001  5.496055e+001 
3415625000  -6.116053e+001  4.136804e+001 
3418750000  -5.928445e+001  3.993966e+001 
3421875000  -5.961121e+001  3.543592e+001 
3425000000  -5.860572e+001  1.623786e+001 
3428125000  -5.809232e+001  1.011387e+001 
3431250000  -6.245628e+001  -6.944750e+000 
3434375000  -5.819228e+001  -2.502012e+001 
3437500000  -6.283382e+001  -2.017690e+001 
3440625000  -6.246030e+001  -3.695111e+001 
3443750000  -6.314830e+001  -2.322265e+001 
3446875000  -5.879269e+001  -3.673766e+001 
3450000000  -6.159074e+001  -7.255034e+001 
3453125000  -6.263482e+001  -7.278493e+001 
3456250000  -6.614629e+001  -1.115671e+002 
3459375000  -6.889152e+001  -7.443742e+001 
3462500000  -7.088548e+001  -9.533494e+001 
3465625000  -6.631119e+001  -1.150047e+002 
3468750000  -6.611849e+001  -9.675939e+001 
3471875000  -6.387351e+001  -8.358065e+001 
3475000000  -6.528627e+001  -1.113666e+002 
3478125000  -6.856856e+001  -9.183444e+001 
3481250000  -7.783606e+001  1.757078e+002 
3484375000  -6.692274e+001  -1.167716e+002 
3487500000  -6.632775e+001  -1.191599e+002 
3490625000  -6.669228e+001  -1.349417e+002 
3493750000  -7.267972e+001  -1.386844e+002 
3496875000  -6.900243e+001  -1.487960e+002 
3500000000  -6.630078e+001  -1.614327e+002 
3503125000  -6.530203e+001  -1.547620e+002 
3506250000  -6.675333e+001  -1.608600e+002 
3509375000  -6.823644e+001  1.430706e+002 
3512500000  -6.527262e+001  1.289558e+002 
3515625000  -7.072827e+001  1.277502e+002 
3518750000  -6.571645e+001  1.337988e+002 
3521875000  -6.793007e+001  1.370444e+002 
3525000000  -6.464278e+001  1.110162e+002 
3528125000  -6.948087e+001  1.267210e+002 
3531250000  -6.823638e+001  9.044575e+001 
3534375000  -6.432668e+001  9.741384e+001 
3537500000  -7.404431e+001  7.508794e+001 
3540625000  -7.909693e+001  1.147957e+002 
3543750000  -7.467787e+001  6.550957e+001 
3546875000  -7.161333e+001  -3.642012e+000 
3550000000  -6.598608e+001  7.443062e+001 
3553125000  -6.737498e+001  8.369471e+001 
3556250000  -6.708262e+001  9.913983e+001 
3559375000  -7.674352e+001  5.266221e+001 
3562500000  -7.689788e+001  4.124370e+001 
3565625000  -8.315176e+001  -3.899227e+001 
3568750000  -8.083283e+001  1.063786e+002 
3571875000  -7.823595e+001  -4.874946e-001 
3575000000  -8.512585e+001  -1.171743e+002 
3578125000  -7.051082e+001  6.310608e+001 
3581250000  -7.652755e+001  -1.146368e+001 
3584375000  -6.935371e+001  1.084459e+002 
3587500000  -7.187067e+001  -2.176334e+000 
3590625000  -7.696657e+001  4.904422e+001 
3593750000  -6.586971e+001  -1.241982e+001 
3596875000  -6.703441e+001  2.240322e+001 
3600000000  -6.937545e+001  -4.542519e+000 
3603125000  -6.301404e+001  5.142523e+000 
3606250000  -6.436738e+001  -4.593369e+001 
3609375000  -6.596392e+001  -4.506742e+001 
3612500000  -6.531626e+001  -5.687531e+001 
3615625000  -7.015195e+001  -7.546025e+001 
3618750000  -6.137281e+001  -5.996061e+001 
3621875000  -6.643156e+001  -7.056432e+001 
3625000000  -6.499195e+001  -8.491883e+001 
3628125000  -6.049507e+001  -1.263592e+002 
3631250000  -6.208263e+001  -1.019414e+002 
3634375000  -6.701722e+001  -1.178112e+002 
3637500000  -6.280376e+001  -1.218017e+002 
3640625000  -6.181868e+001  -1.298542e+002 
3643750000  -6.206433e+001  -1.478940e+002 
3646875000  -6.071069e+001  -1.618692e+002 
3650000000  -6.384849e+001  1.708876e+002 
3653125000  -6.488531e+001  -1.792885e+002 
3656250000  -6.305940e+001  1.478495e+002 
3659375000  -6.339875e+001  1.683273e+002 
3662500000  -6.528799e+001  1.514932e+002 
3665625000  -6.360389e+001  1.440671e+002 
3668750000  -6.115247e+001  1.285112e+002 
3671875000  -6.512109e+001  1.240438e+002 
3675000000  -6.208774e+001  1.126023e+002 
3678125000  -6.750392e+001  1.296892e+002 
3681250000  -6.586423e+001  7.599123e+001 
3684375000  -6.473552e+001  1.044264e+002 
3687500000  -6.228314e+001  7.880476e+001 
3690625000  -6.498920e+001  9.062698e+001 
3693750000  -6.798379e+001  8.611027e+001 
3696875000  -6.238431e+001  6.475153e+001 
3700000000  -6.311149e+001  8.064261e+001 
3703125000  -6.847308e+001  3.908059e+001 
3706250000  -6.625634e+001  6.305786e+001 
3709375000  -6.673238e+001  5.758192e+001 
3712500000  -6.524509e+001  6.771616e+001 
3715625000  -6.116256e+001  3.716917e+001 
3718750000  -6.130999e+001  2.375479e+001 
3721875000  -6.018559e+001  3.185709e+001 
3725000000  -5.940135e+001  2.569148e+001 
3728125000  -5.903418e+001  1.026693e+001 
3731250000  -6.098696e+001  -1.737166e+001 
3734375000  -5.717289e+001  -1.893908e+001 
3737500000  -5.755640e+001  -3.837184e+001 
3740625000  -5.731125e+001  -4.264349e+001 
3743750000  -5.809782e+001  -5.313272e+001 
3746875000  -5.834617e+001  -6.213083e+001 
3750000000  -5.906782e+001  -7.601255e+001 
3753125000  -5.691603e+001  -7.958431e+001 
3756250000  -5.676993e+001  -8.804012e+001 
3759375000  -5.652955e+001  -1.118446e+002 
3762500000  -5.786190e+001  -1.149066e+002 
3765625000  -6.182750e+001  -1.210114e+002 
3768750000  -5.876975e+001  -1.330857e+002 
3771875000  -5.592895e+001  -1.515551e+002 
3775000000  -5.570374e+001  -1.537214e+002 
3778125000  -5.709225e+001  -1.703275e+002 
3781250000  -5.672458e+001  1.726335e+002 
3784375000  -5.791407e+001  1.734347e+002 
3787500000  -5.738522e+001  1.583449e+002 
3790625000  -5.529496e+001  1.338578e+002 
3793750000  -5.709887e+001  1.238977e+002 
3796875000  -5.653821e+001  1.332761e+002 
3800000000  -5.296505e+001  8.148835e+001 
3803125000  -5.781235e+001  9.243104e+001 
3806250000  -5.909031e+001  8.202100e+001 
3809375000  -5.740512e+001  8.303468e+001 
3812500000  -5.759726e+001  7.448738e+001 
3815625000  -6.118167e+001  3.626888e+001 
3818750000  -6.007696e+001  3.421828e+001 
3821875000  -6.215136e+001  7.322044e+001 
3825000000  -5.774009e+001  6.341203e+001 
3828125000  -5.926823e+001  2.055645e+001 
3831250000  -5.914035e+001  -5.045288e+000 
3834375000  -6.431472e+001  2.329078e+000 
3837500000  -7.007151e+001  1.554430e+001 
3840625000  -6.160838e+001  5.073391e-001 
3843750000  -6.367218e+001  6.644658e+000 
3846875000  -6.169242e+001  -3.764435e+001 
3850000000  -6.273375e+001  -2.463885e-001 
3853125000  -6.287530e+001  -9.362503e+000 
3856250000  -6.190705e+001  -1.293947e+001 
3859375000  -5.729369e+001  -3.814460e+001 
3862500000  -6.005126e+001  -3.789162e+001 
3865625000  -6.052362e+001  -3.771053e+001 
3868750000  -6.088387e+001  -4.651941e+001 
3871875000  -5.596714e+001  -7.347409e+001 
3875000000  -5.971924e+001  -5.947345e+001 
3878125000  -5.761271e+001  -7.729719e+001 
3881250000  -6.028244e+001  -8.193706e+001 
3884375000  -5.818100e+001  -1.085167e+002 
3887500000  -5.684048e+001  -1.197967e+002 
3890625000  -5.596468e+001  -1.213289e+002 
3893750000  -5.649255e+001  -1.344076e+002 
3896875000  -5.883260e+001  -1.411115e+002 
3900000000  -5.604345e+001  -1.439300e+002 
3903125000  -5.572610e+001  -1.517704e+002 
3906250000  -5.372894e+001  -1.665709e+002 
3909375000  -5.430434e+001  1.782841e+002 
3912500000  -5.417516e+001  1.643269e+002 
3915625000  -5.544094e+001  1.679667e+002 
3918750000  -5.397322e+001  1.567599e+002 
3921875000  -5.522490e+001  1.329812e+002 
3925000000  -5.279609e+001  1.307897e+002 
3928125000  -5.214285e+001  1.095103e+002 
3931250000  -5.414948e+001  1.104498e+002 
3934375000  -5.323336e+001  9.455296e+001 
3937500000  -5.671383e+001  9.075524e+001 
3940625000  -5.380987e+001  8.015562e+001 
3943750000  -5.316576e+001  6.740173e+001 
3946875000  -5.358815e+001  5.244571e+001 
3950000000  -5.381606e+001  3.032375e+001 
3953125000  -5.405948e+001  3.815551e+001 
3956250000  -5.407878e+001  2.558045e+001 
3959375000  -5.224722e+001  1.731348e+001 
3962500000  -5.210605e+001  -1.417094e+000 
3965625000  -5.305194e+001  -7.200474e+000 
3968750000  -5.483709e+001  -3.092845e+001 
3971875000  -5.322419e+001  -3.105717e+001 
3975000000  -5.390819e+001  -5.293702e+001 
3978125000  -5.522121e+001  -5.224379e+001 
3981250000  -5.420779e+001  -7.046869e+001 
3984375000  -5.518462e+001  -7.860501e+001 
3987500000  -5.547916e+001  -8.029889e+001 
3990625000  -5.621685e+001  -9.600867e+001 
3993750000  -5.712589e+001  -1.154427e+002 
3996875000  -5.759212e+001  -1.227326e+002 
4000000000  -6.011069e+001  -1.259128e+002 
4003125000  -5.938536e+001  -1.203238e+002 
4006250000  -5.703751e+001  -1.432539e+002 
4009375000  -5.558122e+001  -1.491764e+002 
4012500000  -5.845278e+001  -1.625457e+002 
4015625000  -6.001965e+001  -1.654452e+002 
4018750000  -5.928620e+001  -1.501022e+002 
4021875000  -5.963870e+001  1.649137e+002 
4025000000  -5.817500e+001  1.674443e+002 
4028125000  -6.139730e+001  1.779847e+002 
4031250000  -5.925969e+001  1.619068e+002 
4034375000  -5.964877e+001  1.722649e+002 
4037500000  -5.833002e+001  1.588821e+002 
4040625000  -5.996585e+001  1.543949e+002 
4043750000  -5.831687e+001  1.601048e+002 
4046875000  -5.835291e+001  1.319335e+002 
4050000000  -5.773948e+001  1.242144e+002 
4053125000  -5.793063e+001  1.162582e+002 
4056250000  -5.893508e+001  1.392619e+002 
4059375000  -5.583513e+001  1.226823e+002 
4062500000  -5.612096e+001  1.067866e+002 
4065625000  -5.406835e+001  8.099073e+001 
4068750000  -5.650179e+001  8.148936e+001 
4071875000  -5.207408e+001  5.503152e+001 
4075000000  -5.414907e+001  4.957233e+001 
4078125000  -5.346509e+001  4.734969e+001 
4081250000  -5.363420e+001  2.795775e+001 
4084375000  -5.200697e+001  1.271380e+001 
4087500000  -5.447243e+001  -5.068080e+000 
4090625000  -5.396489e+001  -1.465014e+000 
4093750000  -5.303786e+001  -2.323598e+001 
4096875000  -5.252979e+001  -3.320924e+001 
4100000000  -5.398329e+001  -4.607727e+001 
4103125000  -5.493345e+001  -5.080468e+001 
4106250000  -5.290658e+001  -5.196255e+001 
4109375000  -5.317359e+001  -5.898369e+001 
4112500000  -5.179881e+001  -8.601365e+001 
4115625000  -5.291525e+001  -9.322444e+001 
4118750000  -5.321331e+001  -9.262315e+001 
4121875000  -5.325835e+001  -1.228238e+002 
4125000000  -5.271166e+001  -1.197680e+002 
4128125000  -5.446911e+001  -1.253904e+002 
4131250000  -5.293790e+001  -1.282633e+002 
4134375000  -5.159404e+001  -1.457773e+002 
4137500000  -5.321507e+001  -1.693451e+002 
4140625000  -5.438099e+001  1.695087e+002 
4143750000  -5.521606e+001  1.783586e+002 
4146875000  -5.508661e+001  1.610765e+002 
4150000000  -5.589899e+001  1.491020e+002 
4153125000  -5.377352e+001  1.440859e+002 
4156250000  -5.603498e+001  1.233029e+002 
4159375000  -5.626126e+001  1.342000e+002 
4162500000  -5.566178e+001  1.278475e+002 
4165625000  -5.493551e+001  1.178917e+002 
4168750000  -5.491026e+001  9.394521e+001 
4171875000  -5.483419e+001  8.643880e+001 
4175000000  -5.696506e+001  5.985031e+001 
4178125000  -5.693427e+001  7.956387e+001 
4181250000  -5.747861e+001  5.364175e+001 
4184375000  -6.003643e+001  4.148117e+001 
4187500000  -5.815788e+001  2.226177e+001 
4190625000  -5.978470e+001  4.111407e+001 
4193750000  -6.069809e+001  2.217546e+001 
4196875000  -6.455582e+001  9.119004e-001 
4200000000  -6.531658e+001  1.341383e+000 
4203125000  -7.339422e+001  2.790278e+001 
4206250000  -6.123888e+001  -6.934553e-001 
4209375000  -6.100587e+001  -2.757826e+001 
4212500000  -6.431518e+001  -2.664021e+000 
4215625000  -6.243590e+001  -2.457940e+000 
4218750000  -6.438239e+001  3.295647e+001 
4221875000  -5.894305e+001  -1.068168e+001 
4225000000  -5.886409e+001  -1.868289e+001 
4228125000  -5.908828e+001  -4.049882e+001 
4231250000  -5.946624e+001  -2.086830e+001 
4234375000  -5.951657e+001  -5.403576e+001 
4237500000  -5.953580e+001  -4.559380e+001 
4240625000  -5.504694e+001  -5.738739e+001 
4243750000  -5.677300e+001  -6.804136e+001 
4246875000  -5.684117e+001  -7.758192e+001 
4250000000  -5.898457e+001  -8.065484e+001 
4253125000  -5.547469e+001  -8.351400e+001 
4256250000  -5.719024e+001  -1.058140e+002 
4259375000  -5.523720e+001  -1.068917e+002 
4262500000  -5.470483e+001  -1.183343e+002 
4265625000  -5.408382e+001  -1.265455e+002 
4268750000  -5.214046e+001  -1.452688e+002 
4271875000  -5.154564e+001  -1.541434e+002 
4275000000  -5.191519e+001  -1.743939e+002 
4278125000  -5.413583e+001  1.680472e+002 
4281250000  -5.311266e+001  1.685860e+002 
4284375000  -5.581373e+001  1.530107e+002 
4287500000  -5.482045e+001  1.530871e+002 
4290625000  -5.669486e+001  1.586504e+002 
4293750000  -5.253878e+001  1.393687e+002 
4296875000  -5.269282e+001  1.180998e+002 
4300000000  -5.179542e+001  1.044953e+002 
4303125000  -5.243267e+001  1.003690e+002 
4306250000  -5.229340e+001  1.021553e+002 
4309375000  -5.188910e+001  7.912658e+001 
4312500000  -5.255053e+001  6.539365e+001 
4315625000  -5.192324e+001  5.666023e+001 
4318750000  -5.442329e+001  4.068171e+001 
4321875000  -5.330393e+001  3.067579e+001 
4325000000  -5.297589e+001  2.982547e+001 
4328125000  -5.194081e+001  1.322564e+001 
4331250000  -5.368877e+001  -6.410180e+000 
4334375000  -5.535325e+001  -8.290435e+000 
4337500000  -5.394691e+001  -3.271943e+001 
4340625000  -5.452092e+001  -2.993328e+001 
4343750000  -5.616343e+001  -4.562503e+001 
4346875000  -5.547090e+001  -3.266140e+001 
4350000000  -5.532753e+001  -6.362037e+001 
4353125000  -5.683216e+001  -7.023470e+001 
4356250000  -5.848457e+001  -8.445831e+001 
4359375000  -5.733053e+001  -4.643893e+001 
4362500000  -5.695018e+001  -5.352625e+001 
4365625000  -5.496398e+001  -8.666965e+001 
4368750000  -5.441746e+001  -8.878947e+001 
4371875000  -5.535931e+001  -1.092817e+002 
4375000000  -5.640803e+001  -1.199108e+002 
4378125000  -5.669979e+001  -1.181850e+002 
4381250000  -5.623296e+001  -1.271434e+002 
4384375000  -5.661546e+001  -1.386815e+002 
4387500000  -5.855937e+001  -1.494326e+002 
4390625000  -5.725847e+001  -1.505994e+002 
4393750000  -5.890841e+001  -1.531716e+002 
4396875000  -5.665285e+001  -1.613105e+002 
4400000000  -5.545063e+001  1.753689e+002 
4403125000  -5.625647e+001  1.765353e+002 
4406250000  -5.823332e+001  1.718320e+002 
4409375000  -5.756731e+001  1.693007e+002 
4412500000  -5.762569e+001  1.563223e+002 
4415625000  -5.509641e+001  1.634464e+002 
4418750000  -5.585433e+001  1.537587e+002 
