!Agilent Technologies,E8363B,MY43030201,A.06.04.32
!Agilent E8363B: A.06.04.32
!Date: Tuesday, November 11, 2014 22:09:50
!Correction: S21(Response(S21)) 
!S1P File: Measurement: S21:
# Hz S  dB   R 50
3000000000  -4.912207e+001  -7.595778e+001 
3003125000  -5.216138e+001  -8.358060e+001 
3006250000  -5.186604e+001  -8.823869e+001 
3009375000  -5.196754e+001  -8.891944e+001 
3012500000  -5.144484e+001  -9.869535e+001 
3015625000  -5.115695e+001  -1.099334e+002 
3018750000  -5.205233e+001  -1.132096e+002 
3021875000  -5.024976e+001  -1.208915e+002 
3025000000  -4.870358e+001  -1.299190e+002 
3028125000  -4.804833e+001  -1.481459e+002 
3031250000  -4.706117e+001  -1.624289e+002 
3034375000  -4.733605e+001  1.764876e+002 
3037500000  -4.808779e+001  1.645987e+002 
3040625000  -4.946673e+001  1.529585e+002 
3043750000  -4.941391e+001  1.414472e+002 
3046875000  -5.086187e+001  1.270226e+002 
3050000000  -5.210556e+001  1.188419e+002 
3053125000  -5.107942e+001  1.201373e+002 
3056250000  -5.106723e+001  1.206253e+002 
3059375000  -5.111917e+001  1.079772e+002 
3062500000  -5.014512e+001  9.759525e+001 
3065625000  -4.936863e+001  8.937069e+001 
3068750000  -4.865726e+001  7.546304e+001 
3071875000  -4.906368e+001  6.646945e+001 
3075000000  -4.842702e+001  5.422143e+001 
3078125000  -4.851580e+001  4.296130e+001 
3081250000  -4.850043e+001  3.211190e+001 
3084375000  -4.841143e+001  2.533635e+001 
3087500000  -4.865317e+001  9.915583e+000 
3090625000  -4.821080e+001  -5.610162e+000 
3093750000  -4.882130e+001  -1.757690e+001 
3096875000  -4.940528e+001  -2.361166e+001 
3100000000  -4.919099e+001  -3.595177e+001 
3103125000  -4.949448e+001  -4.386095e+001 
3106250000  -4.935994e+001  -5.342978e+001 
3109375000  -4.957976e+001  -5.788276e+001 
3112500000  -4.942565e+001  -7.072907e+001 
3115625000  -4.872747e+001  -7.852096e+001 
3118750000  -4.955806e+001  -8.455766e+001 
3121875000  -4.896687e+001  -1.006014e+002 
3125000000  -5.135458e+001  -1.093259e+002 
3128125000  -5.073737e+001  -1.096340e+002 
3131250000  -4.834164e+001  -1.184747e+002 
3134375000  -4.774741e+001  -1.418670e+002 
3137500000  -4.872406e+001  -1.587921e+002 
3140625000  -4.958316e+001  -1.600254e+002 
3143750000  -5.065561e+001  -1.730812e+002 
3146875000  -4.941141e+001  -1.737550e+002 
3150000000  -4.927518e+001  1.785820e+002 
3153125000  -4.928666e+001  1.661390e+002 
3156250000  -5.067683e+001  1.631790e+002 
3159375000  -4.774109e+001  1.577451e+002 
3162500000  -4.619793e+001  1.355192e+002 
3165625000  -4.763672e+001  1.167795e+002 
3168750000  -4.719997e+001  1.139967e+002 
3171875000  -4.742336e+001  1.012707e+002 
3175000000  -4.780846e+001  8.665203e+001 
3178125000  -4.703089e+001  8.076346e+001 
3181250000  -4.704757e+001  6.641187e+001 
3184375000  -4.660939e+001  5.231409e+001 
3187500000  -4.779452e+001  3.244033e+001 
3190625000  -4.963453e+001  2.090343e+001 
3193750000  -4.945837e+001  2.067855e+001 
3196875000  -4.966896e+001  1.440653e+001 
3200000000  -4.816171e+001  4.637451e+000 
3203125000  -4.852092e+001  -6.367262e+000 
3206250000  -4.912099e+001  -1.879896e+001 
3209375000  -4.788530e+001  -3.233397e+001 
3212500000  -4.869403e+001  -4.257259e+001 
3215625000  -4.820329e+001  -4.920793e+001 
3218750000  -4.956668e+001  -6.735822e+001 
3221875000  -4.958625e+001  -7.981646e+001 
3225000000  -4.936729e+001  -8.619418e+001 
3228125000  -4.977032e+001  -9.690159e+001 
3231250000  -5.120018e+001  -1.066792e+002 
3234375000  -5.020098e+001  -1.114861e+002 
3237500000  -5.034296e+001  -1.207919e+002 
3240625000  -5.021922e+001  -1.291379e+002 
3243750000  -4.932166e+001  -1.485593e+002 
3246875000  -5.051239e+001  -1.557191e+002 
3250000000  -5.103224e+001  -1.667583e+002 
3253125000  -5.107698e+001  -1.710727e+002 
3256250000  -5.039826e+001  1.765989e+002 
3259375000  -5.129922e+001  1.564956e+002 
3262500000  -5.227818e+001  1.509191e+002 
3265625000  -5.308460e+001  1.442552e+002 
3268750000  -5.303435e+001  1.434181e+002 
3271875000  -5.272231e+001  1.333728e+002 
3275000000  -5.273617e+001  1.226099e+002 
3278125000  -5.326487e+001  1.101990e+002 
3281250000  -5.348491e+001  1.056962e+002 
3284375000  -5.136047e+001  9.018401e+001 
3287500000  -5.421595e+001  7.998067e+001 
3290625000  -5.360102e+001  7.296056e+001 
3293750000  -5.269906e+001  6.048495e+001 
3296875000  -5.351365e+001  5.128320e+001 
3300000000  -5.390240e+001  4.979735e+001 
3303125000  -5.284161e+001  3.665352e+001 
3306250000  -5.341109e+001  2.105729e+001 
3309375000  -5.294643e+001  1.527330e+001 
3312500000  -5.379557e+001  -2.595052e+000 
3315625000  -5.470484e+001  -1.351992e+001 
3318750000  -5.508411e+001  -2.405539e+001 
3321875000  -5.882965e+001  -2.090360e+001 
3325000000  -5.669574e+001  -1.601326e+001 
3328125000  -5.713455e+001  -1.638562e+001 
3331250000  -5.283324e+001  -2.283319e+001 
3334375000  -5.274594e+001  -4.128500e+001 
3337500000  -5.229515e+001  -7.262325e+001 
3340625000  -5.402383e+001  -9.072302e+001 
3343750000  -5.698126e+001  -9.069636e+001 
3346875000  -5.588760e+001  -1.037752e+002 
3350000000  -5.477106e+001  -9.981937e+001 
3353125000  -5.420663e+001  -1.146497e+002 
3356250000  -5.505519e+001  -1.332412e+002 
3359375000  -5.464066e+001  -1.534635e+002 
3362500000  -5.623978e+001  -1.508472e+002 
3365625000  -5.631701e+001  -1.578916e+002 
3368750000  -5.660278e+001  -1.738720e+002 
3371875000  -5.752573e+001  1.762304e+002 
3375000000  -5.972879e+001  1.502190e+002 
3378125000  -5.905474e+001  1.555717e+002 
3381250000  -5.937130e+001  1.489174e+002 
3384375000  -5.542184e+001  1.734385e+002 
3387500000  -5.503516e+001  1.527780e+002 
3390625000  -5.584190e+001  1.338980e+002 
3393750000  -5.657339e+001  1.196381e+002 
3396875000  -5.681021e+001  1.176092e+002 
3400000000  -5.621233e+001  9.926742e+001 
3403125000  -5.620679e+001  8.604932e+001 
3406250000  -5.567660e+001  7.539994e+001 
3409375000  -5.806688e+001  5.450314e+001 
3412500000  -5.798001e+001  4.602779e+001 
3415625000  -5.965989e+001  3.675984e+001 
3418750000  -5.893831e+001  4.346883e+001 
3421875000  -5.906830e+001  3.192410e+001 
3425000000  -5.991082e+001  1.877422e+001 
3428125000  -5.911922e+001  7.359580e+000 
3431250000  -6.065162e+001  -8.928428e+000 
3434375000  -6.019165e+001  -2.292010e+001 
3437500000  -6.120092e+001  -3.858699e+001 
3440625000  -6.108424e+001  -2.496827e+001 
3443750000  -6.445856e+001  -4.677788e+001 
3446875000  -6.134484e+001  -5.332984e+001 
3450000000  -6.162771e+001  -6.240351e+001 
3453125000  -6.400824e+001  -7.078716e+001 
3456250000  -6.412418e+001  -1.015194e+002 
3459375000  -6.441746e+001  -8.467457e+001 
3462500000  -6.935033e+001  -1.138703e+002 
3465625000  -6.393946e+001  -9.580967e+001 
3468750000  -7.030968e+001  -1.219935e+002 
3471875000  -6.827163e+001  -1.098611e+002 
3475000000  -6.545652e+001  -9.935209e+001 
3478125000  -7.083037e+001  -9.120260e+001 
3481250000  -6.834676e+001  -1.756188e+002 
3484375000  -6.981736e+001  -1.499671e+002 
3487500000  -6.752808e+001  -1.383335e+002 
3490625000  -7.183125e+001  -1.219098e+002 
3493750000  -7.268612e+001  -1.590371e+002 
3496875000  -6.738705e+001  -1.556583e+002 
3500000000  -7.040667e+001  -1.544177e+002 
3503125000  -6.991373e+001  -1.555189e+002 
3506250000  -6.249916e+001  -1.783355e+002 
3509375000  -6.601714e+001  1.677054e+002 
3512500000  -6.747788e+001  1.403488e+002 
3515625000  -6.528195e+001  1.367687e+002 
3518750000  -6.621040e+001  1.322305e+002 
3521875000  -6.440149e+001  1.262656e+002 
3525000000  -6.810158e+001  1.078498e+002 
3528125000  -6.877406e+001  1.258003e+002 
3531250000  -6.777248e+001  1.260246e+002 
3534375000  -6.722717e+001  1.141031e+002 
3537500000  -6.881551e+001  8.914606e+001 
3540625000  -7.801923e+001  7.491155e+001 
3543750000  -7.186179e+001  1.093756e+002 
3546875000  -7.043013e+001  5.051162e+001 
3550000000  -6.937384e+001  9.272853e+001 
3553125000  -7.009158e+001  3.755133e+001 
3556250000  -7.606902e+001  4.915760e+001 
3559375000  -6.971326e+001  3.441854e+001 
3562500000  -7.328397e+001  -8.826477e+000 
3565625000  -6.735125e+001  -2.167853e+000 
3568750000  -7.750339e+001  1.361639e+002 
3571875000  -7.141395e+001  2.033272e+001 
3575000000  -7.507289e+001  2.616870e+001 
3578125000  -7.386941e+001  6.911495e+000 
3581250000  -7.435268e+001  1.264609e+001 
3584375000  -7.157225e+001  6.033245e+001 
3587500000  -7.061551e+001  1.013289e+002 
3590625000  -6.887529e+001  1.767297e+001 
3593750000  -6.901766e+001  -3.679520e+001 
3596875000  -6.805933e+001  3.152177e+001 
3600000000  -6.846472e+001  2.499070e+000 
3603125000  -6.173317e+001  -7.198486e+000 
3606250000  -6.519203e+001  -4.510133e+001 
3609375000  -6.584949e+001  -3.082667e+001 
3612500000  -6.445096e+001  -2.792381e+001 
3615625000  -6.520655e+001  -8.574678e+001 
3618750000  -6.685988e+001  -6.022375e+001 
3621875000  -6.397523e+001  -9.586299e+001 
3625000000  -6.238260e+001  -8.552065e+001 
3628125000  -6.303193e+001  -1.081049e+002 
3631250000  -6.170449e+001  -1.178179e+002 
3634375000  -6.722748e+001  -1.089514e+002 
3637500000  -6.631713e+001  -1.047359e+002 
3640625000  -6.254348e+001  -1.323869e+002 
3643750000  -6.373391e+001  -1.397885e+002 
3646875000  -6.273718e+001  -1.579862e+002 
3650000000  -6.474875e+001  1.740822e+002 
3653125000  -6.045127e+001  -1.680226e+002 
3656250000  -6.392438e+001  1.729250e+002 
3659375000  -6.276945e+001  1.669351e+002 
3662500000  -6.365008e+001  1.378213e+002 
3665625000  -6.065203e+001  1.443028e+002 
3668750000  -6.338234e+001  1.128260e+002 
3671875000  -6.456905e+001  9.439463e+001 
3675000000  -6.458009e+001  7.485656e+001 
3678125000  -6.379731e+001  1.077913e+002 
3681250000  -6.190358e+001  1.065611e+002 
3684375000  -6.700401e+001  8.532404e+001 
3687500000  -7.148395e+001  7.985101e+001 
3690625000  -6.679733e+001  6.547128e+001 
3693750000  -6.570370e+001  9.010970e+001 
3696875000  -6.774999e+001  8.734196e+001 
3700000000  -6.441380e+001  6.661166e+001 
3703125000  -6.401500e+001  5.561976e+001 
3706250000  -6.723739e+001  7.272243e+001 
3709375000  -6.667275e+001  4.820378e+001 
3712500000  -6.297377e+001  5.830396e+001 
3715625000  -6.472414e+001  2.758048e+001 
3718750000  -6.115877e+001  2.631884e+001 
3721875000  -6.055292e+001  6.293308e+000 
3725000000  -6.193171e+001  1.576993e+001 
3728125000  -6.168576e+001  -8.545986e-001 
3731250000  -6.063716e+001  -1.802070e+001 
3734375000  -5.765619e+001  -1.957958e+001 
3737500000  -5.720626e+001  -4.351001e+001 
3740625000  -5.978518e+001  -4.618694e+001 
3743750000  -5.888776e+001  -5.933122e+001 
3746875000  -5.801580e+001  -5.882213e+001 
3750000000  -5.928059e+001  -9.031226e+001 
3753125000  -5.963163e+001  -7.514638e+001 
3756250000  -5.877693e+001  -1.064759e+002 
3759375000  -6.027316e+001  -1.139968e+002 
3762500000  -5.751691e+001  -1.252414e+002 
3765625000  -5.789683e+001  -1.267682e+002 
3768750000  -5.702058e+001  -1.365321e+002 
3771875000  -5.591798e+001  -1.476825e+002 
3775000000  -5.613299e+001  -1.627843e+002 
3778125000  -5.670716e+001  -1.787627e+002 
3781250000  -5.749576e+001  1.698841e+002 
3784375000  -5.793490e+001  1.613424e+002 
3787500000  -5.622647e+001  1.529326e+002 
3790625000  -5.696399e+001  1.390006e+002 
3793750000  -5.746242e+001  1.358333e+002 
3796875000  -5.871519e+001  1.161659e+002 
3800000000  -5.400741e+001  8.046455e+001 
3803125000  -5.683254e+001  9.019389e+001 
3806250000  -6.081380e+001  7.564040e+001 
3809375000  -5.767975e+001  7.785146e+001 
3812500000  -5.708674e+001  5.642194e+001 
3815625000  -6.215576e+001  5.799420e+001 
3818750000  -6.071828e+001  4.036805e+001 
3821875000  -6.619444e+001  6.573846e+001 
3825000000  -6.031391e+001  5.465332e+001 
3828125000  -5.758965e+001  8.805246e+000 
3831250000  -5.912840e+001  1.303798e+001 
3834375000  -6.334193e+001  -1.405761e+001 
3837500000  -6.341560e+001  4.987069e+000 
3840625000  -6.122060e+001  1.991035e+001 
3843750000  -6.086283e+001  -2.081822e+001 
3846875000  -6.125592e+001  -3.167232e+001 
3850000000  -7.046590e+001  -9.414774e+000 
3853125000  -6.241882e+001  -3.561773e+001 
3856250000  -6.097057e+001  -1.368017e+001 
3859375000  -6.031203e+001  -5.612386e+001 
3862500000  -6.038646e+001  -1.894425e+001 
3865625000  -5.953679e+001  -5.564304e+001 
3868750000  -5.852417e+001  -4.393021e+001 
3871875000  -5.678132e+001  -6.897762e+001 
3875000000  -5.870313e+001  -8.463446e+001 
3878125000  -5.712278e+001  -7.519636e+001 
3881250000  -5.960172e+001  -1.023039e+002 
3884375000  -5.515763e+001  -1.022369e+002 
3887500000  -5.597115e+001  -1.179985e+002 
3890625000  -5.690567e+001  -1.266571e+002 
3893750000  -5.596748e+001  -1.336908e+002 
3896875000  -5.631166e+001  -1.283856e+002 
3900000000  -5.600638e+001  -1.396241e+002 
3903125000  -5.600442e+001  -1.552194e+002 
3906250000  -5.377964e+001  -1.701951e+002 
3909375000  -5.528773e+001  1.757304e+002 
3912500000  -5.407839e+001  1.584489e+002 
3915625000  -5.556994e+001  1.505983e+002 
3918750000  -5.487949e+001  1.541868e+002 
3921875000  -5.539883e+001  1.369687e+002 
3925000000  -5.289025e+001  1.276980e+002 
3928125000  -5.296276e+001  1.059020e+002 
3931250000  -5.424134e+001  1.021435e+002 
3934375000  -5.391264e+001  8.644646e+001 
3937500000  -5.613603e+001  8.396130e+001 
3940625000  -5.454033e+001  6.785947e+001 
3943750000  -5.399417e+001  6.407808e+001 
3946875000  -5.315672e+001  4.975653e+001 
3950000000  -5.454654e+001  4.271387e+001 
3953125000  -5.436176e+001  2.702083e+001 
3956250000  -5.420528e+001  2.320744e+001 
3959375000  -5.117758e+001  1.426899e+001 
3962500000  -5.277688e+001  -1.497929e+001 
3965625000  -5.246880e+001  -1.889716e+001 
3968750000  -5.294522e+001  -3.759931e+001 
3971875000  -5.392730e+001  -4.227522e+001 
3975000000  -5.413118e+001  -5.544703e+001 
3978125000  -5.567585e+001  -5.751800e+001 
3981250000  -5.519127e+001  -7.199993e+001 
3984375000  -5.526426e+001  -8.366071e+001 
3987500000  -5.579866e+001  -9.559930e+001 
3990625000  -5.751041e+001  -1.021949e+002 
3993750000  -5.615049e+001  -1.310080e+002 
3996875000  -5.823383e+001  -1.233076e+002 
4000000000  -5.930792e+001  -1.198324e+002 
4003125000  -6.143676e+001  -1.376089e+002 
4006250000  -5.773471e+001  -1.547212e+002 
4009375000  -5.839909e+001  -1.551370e+002 
4012500000  -6.096856e+001  -1.590697e+002 
4015625000  -6.286169e+001  -1.578625e+002 
4018750000  -5.991647e+001  -1.672543e+002 
4021875000  -6.063054e+001  -1.599584e+002 
4025000000  -6.069878e+001  1.587776e+002 
4028125000  -6.192568e+001  1.717042e+002 
4031250000  -6.034316e+001  1.560230e+002 
4034375000  -6.052558e+001  1.595541e+002 
4037500000  -5.731594e+001  1.477602e+002 
4040625000  -5.847213e+001  1.519716e+002 
4043750000  -5.967072e+001  1.618642e+002 
4046875000  -5.841557e+001  1.454461e+002 
4050000000  -5.713049e+001  1.196448e+002 
4053125000  -5.846209e+001  1.232084e+002 
4056250000  -5.713208e+001  1.072015e+002 
4059375000  -5.498377e+001  1.111437e+002 
4062500000  -5.628939e+001  1.012253e+002 
4065625000  -5.443532e+001  7.955861e+001 
4068750000  -5.363123e+001  7.143462e+001 
4071875000  -5.260773e+001  6.193006e+001 
4075000000  -5.310283e+001  4.223506e+001 
4078125000  -5.347338e+001  3.335431e+001 
4081250000  -5.262520e+001  2.525408e+001 
4084375000  -5.269663e+001  6.504461e+000 
4087500000  -5.434412e+001  -3.181913e+000 
4090625000  -5.351126e+001  -2.838732e+000 
4093750000  -5.225212e+001  -2.893914e+001 
4096875000  -5.262958e+001  -3.585185e+001 
4100000000  -5.330161e+001  -5.621221e+001 
4103125000  -5.513278e+001  -5.056660e+001 
4106250000  -5.448819e+001  -5.221764e+001 
4109375000  -5.284681e+001  -7.555550e+001 
4112500000  -5.150760e+001  -7.638467e+001 
4115625000  -5.282716e+001  -9.335011e+001 
4118750000  -5.362470e+001  -1.133533e+002 
4121875000  -5.343110e+001  -1.221794e+002 
4125000000  -5.352578e+001  -1.232089e+002 
4128125000  -5.464849e+001  -1.378362e+002 
4131250000  -5.288305e+001  -1.247770e+002 
4134375000  -5.104957e+001  -1.526056e+002 
4137500000  -5.195657e+001  -1.734612e+002 
4140625000  -5.389754e+001  1.754252e+002 
4143750000  -5.721204e+001  1.783092e+002 
4146875000  -5.495306e+001  1.600354e+002 
4150000000  -5.395466e+001  1.534995e+002 
4153125000  -5.584576e+001  1.448345e+002 
4156250000  -5.603690e+001  1.249417e+002 
4159375000  -5.550253e+001  1.287511e+002 
4162500000  -5.682074e+001  1.054563e+002 
4165625000  -5.383145e+001  1.079840e+002 
4168750000  -5.359980e+001  7.862875e+001 
4171875000  -5.558635e+001  7.211756e+001 
4175000000  -5.580580e+001  5.912318e+001 
4178125000  -6.008498e+001  6.969367e+001 
4181250000  -5.586501e+001  4.773306e+001 
4184375000  -6.043757e+001  3.708462e+001 
4187500000  -5.927724e+001  2.159352e+001 
4190625000  -6.061322e+001  1.827803e+001 
4193750000  -6.050145e+001  9.150315e+000 
4196875000  -6.358373e+001  5.826884e+000 
4200000000  -7.326864e+001  -2.735020e+001 
4203125000  -7.127330e+001  -7.510252e+000 
4206250000  -6.110635e+001  1.023149e+001 
4209375000  -6.044692e+001  -1.692310e+001 
4212500000  -6.163301e+001  -2.849839e+000 
4215625000  -6.537323e+001  -3.744106e+000 
4218750000  -6.438435e+001  4.923625e+000 
4221875000  -6.037365e+001  -1.163614e+001 
4225000000  -5.896569e+001  -2.781001e+001 
4228125000  -5.812487e+001  -4.545737e+001 
4231250000  -5.870255e+001  -2.623504e+001 
4234375000  -5.577017e+001  -5.188210e+001 
4237500000  -5.990646e+001  -5.239018e+001 
4240625000  -5.525013e+001  -7.274209e+001 
4243750000  -5.769553e+001  -6.823087e+001 
4246875000  -5.609046e+001  -6.567731e+001 
4250000000  -5.583614e+001  -8.252016e+001 
4253125000  -5.598104e+001  -9.080802e+001 
4256250000  -5.499354e+001  -1.130683e+002 
4259375000  -5.460938e+001  -1.044022e+002 
4262500000  -5.641071e+001  -1.280481e+002 
4265625000  -5.512609e+001  -1.160358e+002 
4268750000  -5.171863e+001  -1.421088e+002 
4271875000  -5.278315e+001  -1.603844e+002 
4275000000  -5.181060e+001  1.791862e+002 
4278125000  -5.318989e+001  1.670340e+002 
4281250000  -5.386740e+001  1.652207e+002 
4284375000  -5.410983e+001  1.607498e+002 
4287500000  -5.408796e+001  1.482025e+002 
4290625000  -5.748952e+001  1.441841e+002 
4293750000  -5.386005e+001  1.392363e+002 
4296875000  -5.280009e+001  1.203513e+002 
4300000000  -5.277529e+001  1.111335e+002 
4303125000  -5.195145e+001  8.882508e+001 
4306250000  -5.406296e+001  9.756677e+001 
4309375000  -5.091142e+001  8.011152e+001 
4312500000  -5.204418e+001  6.413163e+001 
4315625000  -5.173671e+001  6.232524e+001 
4318750000  -5.419484e+001  4.099597e+001 
4321875000  -5.180323e+001  3.885603e+001 
4325000000  -5.318182e+001  1.628783e+001 
4328125000  -5.124603e+001  9.967859e+000 
4331250000  -5.274377e+001  -9.517915e+000 
4334375000  -5.436792e+001  -1.255880e+001 
4337500000  -5.571876e+001  -4.408937e+001 
4340625000  -5.583854e+001  -2.655732e+001 
4343750000  -5.375180e+001  -4.372785e+001 
4346875000  -5.443839e+001  -4.420456e+001 
4350000000  -5.556711e+001  -7.140413e+001 
4353125000  -5.959368e+001  -5.808047e+001 
4356250000  -5.688134e+001  -7.713027e+001 
4359375000  -5.773281e+001  -5.591589e+001 
4362500000  -5.422183e+001  -6.863789e+001 
4365625000  -5.301985e+001  -8.734665e+001 
4368750000  -5.552068e+001  -9.613296e+001 
4371875000  -5.718429e+001  -9.509386e+001 
4375000000  -5.885445e+001  -1.165332e+002 
4378125000  -5.552961e+001  -1.167526e+002 
4381250000  -5.849093e+001  -1.510000e+002 
4384375000  -5.614155e+001  -1.468440e+002 
4387500000  -5.769697e+001  -1.513783e+002 
4390625000  -5.649678e+001  -1.678369e+002 
4393750000  -5.922995e+001  -1.435393e+002 
4396875000  -5.659144e+001  -1.591250e+002 
4400000000  -5.590528e+001  -1.785737e+002 
4403125000  -5.606623e+001  1.666944e+002 
4406250000  -5.828790e+001  -1.789497e+002 
4409375000  -5.713457e+001  1.645114e+002 
4412500000  -5.551376e+001  1.551405e+002 
4415625000  -5.498516e+001  1.530188e+002 
4418750000  -5.527531e+001  1.519312e+002 
