!Agilent Technologies,E8363B,MY43030201,A.06.04.32
!Agilent E8363B: A.06.04.32
!Date: Tuesday, November 11, 2014 22:12:40
!Correction: S21(Response(S21)) 
!S1P File: Measurement: S21:
# Hz S  dB   R 50
3000000000  -4.855914e+001  -7.437206e+001 
3003125000  -5.157730e+001  -8.133438e+001 
3006250000  -5.190164e+001  -8.811584e+001 
3009375000  -5.168238e+001  -9.038471e+001 
3012500000  -5.087535e+001  -9.522887e+001 
3015625000  -5.130503e+001  -1.092645e+002 
3018750000  -5.147392e+001  -1.145205e+002 
3021875000  -4.936337e+001  -1.183593e+002 
3025000000  -4.859940e+001  -1.310578e+002 
3028125000  -4.790672e+001  -1.431248e+002 
3031250000  -4.699805e+001  -1.635888e+002 
3034375000  -4.706780e+001  1.789202e+002 
3037500000  -4.752834e+001  1.660575e+002 
3040625000  -4.893808e+001  1.538989e+002 
3043750000  -4.909373e+001  1.414484e+002 
3046875000  -5.063349e+001  1.290898e+002 
3050000000  -5.120562e+001  1.270802e+002 
3053125000  -5.133699e+001  1.258294e+002 
3056250000  -5.093279e+001  1.192758e+002 
3059375000  -5.057321e+001  1.072950e+002 
3062500000  -4.893386e+001  1.029221e+002 
3065625000  -4.979717e+001  8.676727e+001 
3068750000  -4.864984e+001  7.627807e+001 
3071875000  -4.894999e+001  6.583315e+001 
3075000000  -4.887857e+001  5.385349e+001 
3078125000  -4.862553e+001  4.459510e+001 
3081250000  -4.856255e+001  3.112059e+001 
3084375000  -4.815073e+001  2.400670e+001 
3087500000  -4.835743e+001  9.888366e+000 
3090625000  -4.800422e+001  -5.561247e+000 
3093750000  -4.879416e+001  -1.390787e+001 
3096875000  -4.954690e+001  -2.342251e+001 
3100000000  -4.923011e+001  -3.145484e+001 
3103125000  -5.026044e+001  -3.914156e+001 
3106250000  -4.979916e+001  -5.329447e+001 
3109375000  -4.948240e+001  -5.757434e+001 
3112500000  -4.942694e+001  -6.912202e+001 
3115625000  -4.923245e+001  -7.557716e+001 
3118750000  -4.959040e+001  -8.671581e+001 
3121875000  -4.912967e+001  -1.014071e+002 
3125000000  -5.047010e+001  -1.082012e+002 
3128125000  -4.988498e+001  -1.069901e+002 
3131250000  -4.868900e+001  -1.170598e+002 
3134375000  -4.773082e+001  -1.412453e+002 
3137500000  -4.812512e+001  -1.589010e+002 
3140625000  -4.949197e+001  -1.614179e+002 
3143750000  -5.046484e+001  -1.671209e+002 
3146875000  -4.986549e+001  -1.728818e+002 
3150000000  -4.904753e+001  -1.798740e+002 
3153125000  -4.902892e+001  1.647230e+002 
3156250000  -5.016307e+001  1.667227e+002 
3159375000  -4.821411e+001  1.587290e+002 
3162500000  -4.638451e+001  1.362060e+002 
3165625000  -4.763605e+001  1.206808e+002 
3168750000  -4.822296e+001  1.137183e+002 
3171875000  -4.706316e+001  1.029301e+002 
3175000000  -4.745402e+001  8.776234e+001 
3178125000  -4.727579e+001  8.369469e+001 
3181250000  -4.644075e+001  6.483463e+001 
3184375000  -4.599606e+001  5.244689e+001 
3187500000  -4.736933e+001  3.338745e+001 
3190625000  -4.913657e+001  1.982500e+001 
3193750000  -4.996087e+001  2.268225e+001 
3196875000  -4.970367e+001  1.960002e+001 
3200000000  -4.834959e+001  8.661933e+000 
3203125000  -4.853809e+001  -4.162514e+000 
3206250000  -4.883992e+001  -1.397639e+001 
3209375000  -4.820938e+001  -3.238343e+001 
3212500000  -4.833105e+001  -4.370889e+001 
3215625000  -4.839120e+001  -4.864061e+001 
3218750000  -4.881329e+001  -6.481578e+001 
3221875000  -4.924745e+001  -7.730846e+001 
3225000000  -4.948265e+001  -8.526997e+001 
3228125000  -4.975721e+001  -9.459069e+001 
3231250000  -5.005943e+001  -1.045059e+002 
3234375000  -5.031226e+001  -1.098396e+002 
3237500000  -5.074008e+001  -1.199502e+002 
3240625000  -4.996004e+001  -1.334089e+002 
3243750000  -4.990546e+001  -1.455520e+002 
3246875000  -5.064333e+001  -1.576172e+002 
3250000000  -5.040642e+001  -1.666727e+002 
3253125000  -5.164063e+001  -1.667802e+002 
3256250000  -5.011400e+001  1.740863e+002 
3259375000  -5.102700e+001  1.587754e+002 
3262500000  -5.292813e+001  1.499024e+002 
3265625000  -5.351506e+001  1.470439e+002 
3268750000  -5.315382e+001  1.400678e+002 
3271875000  -5.234444e+001  1.308573e+002 
3275000000  -5.183129e+001  1.214588e+002 
3278125000  -5.227889e+001  1.080725e+002 
3281250000  -5.291513e+001  1.011885e+002 
3284375000  -5.220337e+001  9.029990e+001 
3287500000  -5.400706e+001  8.086405e+001 
3290625000  -5.284568e+001  6.953188e+001 
3293750000  -5.327377e+001  6.345639e+001 
3296875000  -5.416013e+001  5.963451e+001 
3300000000  -5.447257e+001  4.888718e+001 
3303125000  -5.243801e+001  3.767795e+001 
3306250000  -5.419873e+001  2.659463e+001 
3309375000  -5.272329e+001  1.801509e+001 
3312500000  -5.307207e+001  -7.601786e+000 
3315625000  -5.489000e+001  -1.189263e+001 
3318750000  -5.527333e+001  -2.086352e+001 
3321875000  -5.846903e+001  -2.271226e+001 
3325000000  -5.682175e+001  -2.838094e+001 
3328125000  -5.661216e+001  -2.365015e+001 
3331250000  -5.378590e+001  -2.545646e+001 
3334375000  -5.210244e+001  -4.789097e+001 
3337500000  -5.296980e+001  -7.353471e+001 
3340625000  -5.469992e+001  -8.487386e+001 
3343750000  -5.600802e+001  -8.093835e+001 
3346875000  -5.584161e+001  -9.593782e+001 
3350000000  -5.414008e+001  -1.005348e+002 
3353125000  -5.409197e+001  -1.142388e+002 
3356250000  -5.556641e+001  -1.297537e+002 
3359375000  -5.483967e+001  -1.441895e+002 
3362500000  -5.514365e+001  -1.508204e+002 
3365625000  -5.627863e+001  -1.580953e+002 
3368750000  -5.564447e+001  -1.734691e+002 
3371875000  -5.766911e+001  1.711608e+002 
3375000000  -5.940781e+001  1.622905e+002 
3378125000  -6.055391e+001  1.756117e+002 
3381250000  -6.174570e+001  1.732741e+002 
3384375000  -5.915301e+001  1.661584e+002 
3387500000  -5.335029e+001  1.561070e+002 
3390625000  -5.674063e+001  1.291130e+002 
3393750000  -5.726469e+001  1.189857e+002 
3396875000  -5.642437e+001  1.151216e+002 
3400000000  -5.579739e+001  9.253703e+001 
3403125000  -5.944064e+001  7.775554e+001 
3406250000  -5.756759e+001  7.384973e+001 
3409375000  -5.750209e+001  5.446245e+001 
3412500000  -5.784534e+001  5.317504e+001 
3415625000  -6.027445e+001  3.992794e+001 
3418750000  -6.142937e+001  3.322452e+001 
3421875000  -6.050513e+001  2.226628e+001 
3425000000  -5.896814e+001  2.265745e+001 
3428125000  -5.875811e+001  3.467019e+000 
3431250000  -5.924437e+001  -7.910613e+000 
3434375000  -6.049870e+001  -2.226346e+001 
3437500000  -6.097420e+001  -1.783316e+001 
3440625000  -5.938997e+001  -2.300308e+001 
3443750000  -6.196525e+001  -2.846139e+001 
3446875000  -6.125452e+001  -5.396980e+001 
3450000000  -6.406129e+001  -6.555428e+001 
3453125000  -6.092097e+001  -7.177409e+001 
3456250000  -6.806593e+001  -1.134793e+002 
3459375000  -6.170594e+001  -6.736913e+001 
3462500000  -6.590872e+001  -9.942010e+001 
3465625000  -6.681767e+001  -9.622971e+001 
3468750000  -6.700008e+001  -1.236859e+002 
3471875000  -6.718681e+001  -1.075128e+002 
3475000000  -6.618559e+001  -1.054455e+002 
3478125000  -7.198736e+001  -1.651078e+002 
3481250000  -7.136381e+001  -1.312878e+002 
3484375000  -7.017000e+001  -9.444112e+001 
3487500000  -6.892116e+001  -1.511410e+002 
3490625000  -6.794297e+001  -1.464021e+002 
3493750000  -7.005722e+001  -1.051818e+002 
3496875000  -6.626356e+001  -1.291977e+002 
3500000000  -6.544888e+001  -1.755000e+002 
3503125000  -7.498448e+001  1.722679e+002 
3506250000  -6.684845e+001  1.481338e+002 
3509375000  -6.649895e+001  1.636162e+002 
3512500000  -6.597701e+001  1.509650e+002 
3515625000  -6.702087e+001  1.356147e+002 
3518750000  -6.576641e+001  1.502695e+002 
3521875000  -7.213129e+001  1.196308e+002 
3525000000  -6.618767e+001  1.295599e+002 
3528125000  -6.523132e+001  1.163965e+002 
3531250000  -6.495441e+001  1.026938e+002 
3534375000  -6.676017e+001  1.047489e+002 
3537500000  -6.570763e+001  8.480003e+001 
3540625000  -7.378323e+001  6.631355e+001 
3543750000  -6.814025e+001  1.292375e+002 
3546875000  -6.592957e+001  4.915359e+001 
3550000000  -6.932394e+001  6.035904e+001 
3553125000  -7.183242e+001  7.928468e+001 
3556250000  -6.783353e+001  1.037498e+002 
3559375000  -7.062151e+001  -9.756952e+000 
3562500000  -7.880421e+001  8.480729e+001 
3565625000  -6.895721e+001  1.387129e+001 
3568750000  -8.211858e+001  1.667835e+002 
3571875000  -7.473838e+001  4.373923e+001 
3575000000  -7.664182e+001  1.297895e+001 
3578125000  -6.683180e+001  4.335885e+001 
3581250000  -8.174576e+001  1.272527e+002 
3584375000  -8.357381e+001  -1.200695e+002 
3587500000  -6.914053e+001  3.555758e+001 
3590625000  -6.592637e+001  3.471389e+001 
3593750000  -6.726675e+001  1.386540e+000 
3596875000  -6.821977e+001  6.651423e+000 
3600000000  -6.722520e+001  -2.317107e+000 
3603125000  -6.741026e+001  -1.957535e+001 
3606250000  -6.542603e+001  -4.640527e+001 
3609375000  -6.628960e+001  -6.106593e+001 
3612500000  -6.342170e+001  -5.865265e+001 
3615625000  -6.396232e+001  -6.467921e+001 
3618750000  -6.351123e+001  -7.282471e+001 
3621875000  -6.564632e+001  -7.995062e+001 
3625000000  -6.370956e+001  -8.250130e+001 
3628125000  -6.393950e+001  -1.009018e+002 
3631250000  -6.037377e+001  -1.127504e+002 
3634375000  -6.518108e+001  -1.473294e+002 
3637500000  -6.412606e+001  -1.284787e+002 
3640625000  -6.493076e+001  -1.282434e+002 
3643750000  -6.176657e+001  -1.339770e+002 
3646875000  -6.105764e+001  -1.723703e+002 
3650000000  -6.389158e+001  -1.765231e+002 
3653125000  -6.500981e+001  1.573438e+002 
3656250000  -6.481512e+001  1.796338e+002 
3659375000  -6.515265e+001  1.466730e+002 
3662500000  -6.311778e+001  1.533707e+002 
3665625000  -6.201489e+001  1.481512e+002 
3668750000  -6.451526e+001  1.159141e+002 
3671875000  -6.264077e+001  1.068984e+002 
3675000000  -6.672159e+001  1.249514e+002 
3678125000  -6.401088e+001  1.174006e+002 
3681250000  -6.326186e+001  8.351913e+001 
3684375000  -7.151347e+001  9.624193e+001 
3687500000  -6.632983e+001  5.584258e+001 
3690625000  -6.915251e+001  6.935709e+001 
3693750000  -6.430881e+001  7.433335e+001 
3696875000  -7.109025e+001  1.083457e+002 
3700000000  -6.373842e+001  7.538146e+001 
3703125000  -6.557781e+001  3.902703e+001 
3706250000  -6.601727e+001  6.873360e+001 
3709375000  -6.536033e+001  4.439103e+001 
3712500000  -6.289218e+001  6.779490e+001 
3715625000  -6.236391e+001  2.424791e+001 
3718750000  -6.108285e+001  3.013808e+001 
3721875000  -5.995249e+001  2.545401e+001 
3725000000  -6.170559e+001  9.446888e-001 
3728125000  -5.944413e+001  4.657558e+000 
3731250000  -5.969926e+001  -7.472663e+000 
3734375000  -5.954302e+001  -3.017228e+001 
3737500000  -5.722396e+001  -3.810137e+001 
3740625000  -5.848805e+001  -3.501127e+001 
3743750000  -5.915640e+001  -4.872448e+001 
3746875000  -5.935196e+001  -7.515118e+001 
3750000000  -5.720273e+001  -8.986184e+001 
3753125000  -5.835511e+001  -7.941872e+001 
3756250000  -5.792224e+001  -9.196664e+001 
3759375000  -5.758645e+001  -1.092459e+002 
3762500000  -5.971599e+001  -1.135154e+002 
3765625000  -5.851646e+001  -1.201293e+002 
3768750000  -5.683696e+001  -1.380755e+002 
3771875000  -5.629179e+001  -1.500412e+002 
3775000000  -5.555515e+001  -1.609910e+002 
3778125000  -5.764383e+001  1.757279e+002 
3781250000  -5.743439e+001  1.741045e+002 
3784375000  -5.719958e+001  1.562670e+002 
3787500000  -5.706140e+001  1.593999e+002 
3790625000  -5.677013e+001  1.346417e+002 
3793750000  -5.729845e+001  1.315809e+002 
3796875000  -5.499517e+001  1.169458e+002 
3800000000  -5.328524e+001  8.218685e+001 
3803125000  -5.721953e+001  9.563584e+001 
3806250000  -6.003490e+001  7.684125e+001 
3809375000  -6.004086e+001  7.656371e+001 
3812500000  -5.991072e+001  6.604297e+001 
3815625000  -6.079948e+001  4.660966e+001 
3818750000  -6.099245e+001  4.138610e+001 
3821875000  -6.064608e+001  6.670952e+001 
3825000000  -6.015995e+001  5.184783e+001 
3828125000  -5.766565e+001  2.851430e+001 
3831250000  -5.956290e+001  4.961697e+000 
3834375000  -6.391653e+001  -2.520159e+001 
3837500000  -6.936941e+001  8.611448e+000 
3840625000  -6.298965e+001  -1.217746e+001 
3843750000  -6.076345e+001  5.385661e-001 
3846875000  -6.353324e+001  -2.349854e+001 
3850000000  -6.230791e+001  -1.212729e+001 
3853125000  -6.461726e+001  -1.551148e+001 
3856250000  -6.102406e+001  1.187823e+000 
3859375000  -5.928149e+001  -3.680512e+001 
3862500000  -6.077083e+001  -4.199874e+001 
3865625000  -5.858571e+001  -5.005124e+001 
3868750000  -5.798967e+001  -4.547811e+001 
3871875000  -5.743174e+001  -5.989340e+001 
3875000000  -5.840754e+001  -6.700463e+001 
3878125000  -5.747634e+001  -7.518781e+001 
3881250000  -5.782286e+001  -7.983460e+001 
3884375000  -5.644255e+001  -9.563210e+001 
3887500000  -5.600592e+001  -1.059037e+002 
3890625000  -5.709985e+001  -1.221031e+002 
3893750000  -5.575537e+001  -1.315152e+002 
3896875000  -5.734405e+001  -1.264276e+002 
3900000000  -5.514466e+001  -1.586843e+002 
3903125000  -5.468715e+001  -1.496623e+002 
3906250000  -5.573629e+001  -1.628885e+002 
3909375000  -5.507678e+001  -1.764344e+002 
3912500000  -5.462722e+001  1.612638e+002 
3915625000  -5.548486e+001  1.527672e+002 
3918750000  -5.586016e+001  1.528217e+002 
3921875000  -5.467987e+001  1.408656e+002 
3925000000  -5.352192e+001  1.358864e+002 
3928125000  -5.220985e+001  1.131125e+002 
3931250000  -5.368214e+001  1.035861e+002 
3934375000  -5.381328e+001  8.669791e+001 
3937500000  -5.643785e+001  7.816416e+001 
3940625000  -5.535865e+001  7.847376e+001 
3943750000  -5.402808e+001  6.528941e+001 
3946875000  -5.332238e+001  4.623898e+001 
3950000000  -5.390451e+001  3.763468e+001 
3953125000  -5.318646e+001  2.796402e+001 
3956250000  -5.383493e+001  1.990836e+001 
3959375000  -5.170930e+001  9.579631e+000 
3962500000  -5.229430e+001  3.612402e+000 
3965625000  -5.385894e+001  -1.529189e+001 
3968750000  -5.411831e+001  -3.275403e+001 
3971875000  -5.528134e+001  -5.151639e+001 
3975000000  -5.452785e+001  -5.619125e+001 
3978125000  -5.443971e+001  -5.943426e+001 
3981250000  -5.503492e+001  -8.335583e+001 
3984375000  -5.561066e+001  -8.350639e+001 
3987500000  -5.681897e+001  -8.418776e+001 
3990625000  -5.628724e+001  -9.866319e+001 
3993750000  -5.706163e+001  -1.110169e+002 
3996875000  -5.795116e+001  -1.304530e+002 
4000000000  -5.931287e+001  -1.332743e+002 
4003125000  -6.045066e+001  -1.386507e+002 
4006250000  -5.611121e+001  -1.435030e+002 
4009375000  -5.735362e+001  -1.518911e+002 
4012500000  -5.723490e+001  -1.546755e+002 
4015625000  -6.309319e+001  -1.709300e+002 
4018750000  -5.941857e+001  -1.660012e+002 
4021875000  -6.038374e+001  -1.735795e+002 
4025000000  -5.938686e+001  1.725192e+002 
4028125000  -6.041039e+001  1.719308e+002 
4031250000  -5.913961e+001  1.622488e+002 
4034375000  -6.108232e+001  1.707007e+002 
4037500000  -5.910387e+001  1.518851e+002 
4040625000  -6.232326e+001  1.496769e+002 
4043750000  -5.845887e+001  1.407261e+002 
4046875000  -5.879470e+001  1.497559e+002 
4050000000  -5.721686e+001  1.286690e+002 
4053125000  -5.764049e+001  1.190213e+002 
4056250000  -5.817576e+001  1.135258e+002 
4059375000  -5.578266e+001  1.051629e+002 
4062500000  -5.607677e+001  9.585154e+001 
4065625000  -5.455574e+001  8.972614e+001 
4068750000  -5.517025e+001  7.176154e+001 
4071875000  -5.522169e+001  7.003728e+001 
4075000000  -5.368818e+001  4.384425e+001 
4078125000  -5.361499e+001  4.676418e+001 
4081250000  -5.479647e+001  2.306120e+001 
4084375000  -5.223200e+001  5.586914e+000 
4087500000  -5.375213e+001  -4.350888e+000 
4090625000  -5.259961e+001  -9.747335e+000 
4093750000  -5.351968e+001  -2.039478e+001 
4096875000  -5.316557e+001  -3.766693e+001 
4100000000  -5.294152e+001  -4.184903e+001 
4103125000  -5.496990e+001  -4.479521e+001 
4106250000  -5.448788e+001  -5.162354e+001 
4109375000  -5.226180e+001  -5.413031e+001 
4112500000  -5.184978e+001  -8.693176e+001 
4115625000  -5.345639e+001  -9.454049e+001 
4118750000  -5.378171e+001  -9.343703e+001 
4121875000  -5.298999e+001  -1.198270e+002 
4125000000  -5.304437e+001  -1.214344e+002 
4128125000  -5.391824e+001  -1.300378e+002 
4131250000  -5.258789e+001  -1.256570e+002 
4134375000  -5.153373e+001  -1.478868e+002 
4137500000  -5.183659e+001  -1.718846e+002 
4140625000  -5.308628e+001  1.690389e+002 
4143750000  -5.597472e+001  1.677839e+002 
4146875000  -5.531902e+001  1.676745e+002 
4150000000  -5.479946e+001  1.508613e+002 
4153125000  -5.411602e+001  1.324161e+002 
4156250000  -5.626919e+001  1.252252e+002 
4159375000  -5.504770e+001  1.268571e+002 
4162500000  -5.621514e+001  1.175123e+002 
4165625000  -5.502225e+001  1.174902e+002 
4168750000  -5.418301e+001  9.797448e+001 
4171875000  -5.466174e+001  7.742149e+001 
4175000000  -5.613486e+001  5.853409e+001 
4178125000  -5.691663e+001  6.651600e+001 
4181250000  -5.746716e+001  3.653592e+001 
4184375000  -5.904380e+001  3.556150e+001 
4187500000  -5.891127e+001  2.025070e+001 
4190625000  -6.080840e+001  1.603529e+001 
4193750000  -6.034142e+001  2.307237e+001 
4196875000  -6.324612e+001  1.993850e+001 
4200000000  -6.625891e+001  2.145967e+001 
4203125000  -6.646370e+001  2.497860e+001 
4206250000  -5.939960e+001  2.353297e+001 
4209375000  -6.184781e+001  -2.553510e+001 
4212500000  -6.793029e+001  1.973499e+001 
4215625000  -6.395139e+001  -2.209079e+001 
4218750000  -6.173344e+001  1.740365e+001 
4221875000  -6.430530e+001  -2.463509e+001 
4225000000  -6.062154e+001  1.061537e+001 
4228125000  -6.035627e+001  -2.797485e+001 
4231250000  -6.152072e+001  -3.967263e+001 
4234375000  -5.812416e+001  -5.639643e+001 
4237500000  -5.825200e+001  -3.960090e+001 
4240625000  -5.603086e+001  -4.845124e+001 
4243750000  -5.909087e+001  -7.078843e+001 
4246875000  -5.672060e+001  -7.310554e+001 
4250000000  -5.747784e+001  -9.471235e+001 
4253125000  -5.627529e+001  -9.088725e+001 
4256250000  -5.608328e+001  -1.048449e+002 
4259375000  -5.530629e+001  -1.036808e+002 
4262500000  -5.461641e+001  -1.269324e+002 
4265625000  -5.387902e+001  -1.256659e+002 
4268750000  -5.222435e+001  -1.488885e+002 
4271875000  -5.279914e+001  -1.595101e+002 
4275000000  -5.057528e+001  -1.764018e+002 
4278125000  -5.239380e+001  1.663274e+002 
4281250000  -5.398367e+001  1.559567e+002 
4284375000  -5.338866e+001  1.613788e+002 
4287500000  -5.489194e+001  1.476416e+002 
4290625000  -5.523167e+001  1.491132e+002 
4293750000  -5.277598e+001  1.358160e+002 
4296875000  -5.173308e+001  1.149508e+002 
4300000000  -5.272205e+001  1.082404e+002 
4303125000  -5.227035e+001  9.575915e+001 
4306250000  -5.183727e+001  1.038717e+002 
4309375000  -5.153864e+001  7.453242e+001 
4312500000  -5.236023e+001  6.674036e+001 
4315625000  -5.295055e+001  4.988175e+001 
4318750000  -5.325146e+001  4.738992e+001 
4321875000  -5.271070e+001  3.793772e+001 
4325000000  -5.260393e+001  2.144911e+001 
4328125000  -5.131093e+001  1.301928e+001 
4331250000  -5.205441e+001  -8.619418e+000 
4334375000  -5.426384e+001  -1.252949e+001 
4337500000  -5.585201e+001  -2.984729e+001 
4340625000  -5.593047e+001  -2.094928e+001 
4343750000  -5.410664e+001  -3.462709e+001 
4346875000  -5.498736e+001  -4.489080e+001 
4350000000  -5.514608e+001  -5.586972e+001 
4353125000  -5.538018e+001  -7.131993e+001 
4356250000  -5.675051e+001  -6.663319e+001 
4359375000  -5.783239e+001  -5.792181e+001 
4362500000  -5.511061e+001  -5.004838e+001 
4365625000  -5.454557e+001  -1.086472e+002 
4368750000  -5.375745e+001  -9.747270e+001 
4371875000  -5.703007e+001  -9.971923e+001 
4375000000  -5.586088e+001  -1.129086e+002 
4378125000  -5.790177e+001  -1.099167e+002 
4381250000  -5.605371e+001  -1.289843e+002 
4384375000  -5.563210e+001  -1.457444e+002 
4387500000  -5.955800e+001  -1.563466e+002 
4390625000  -5.942089e+001  -1.477974e+002 
4393750000  -5.754915e+001  -1.586306e+002 
4396875000  -5.422194e+001  -1.453111e+002 
4400000000  -5.708474e+001  -1.661178e+002 
4403125000  -5.562969e+001  1.748199e+002 
4406250000  -5.837976e+001  1.695671e+002 
4409375000  -5.536465e+001  1.544957e+002 
4412500000  -5.762675e+001  1.626909e+002 
4415625000  -5.568660e+001  1.663226e+002 
4418750000  -5.434959e+001  1.552860e+002 
