!Agilent Technologies,E8363B,MY43030201,A.06.04.32
!Agilent E8363B: A.06.04.32
!Date: Tuesday, November 11, 2014 22:10:04
!Correction: S21(Response(S21)) 
!S1P File: Measurement: S21:
# Hz S  dB   R 50
3000000000  -4.903471e+001  -7.532685e+001 
3003125000  -5.156463e+001  -8.161111e+001 
3006250000  -5.133955e+001  -8.772128e+001 
3009375000  -5.159189e+001  -9.028915e+001 
3012500000  -5.074484e+001  -1.001895e+002 
3015625000  -5.111408e+001  -1.080850e+002 
3018750000  -5.077823e+001  -1.174866e+002 
3021875000  -4.964192e+001  -1.225788e+002 
3025000000  -4.842818e+001  -1.302433e+002 
3028125000  -4.830089e+001  -1.470392e+002 
3031250000  -4.704554e+001  -1.643279e+002 
3034375000  -4.719308e+001  1.789185e+002 
3037500000  -4.797556e+001  1.640744e+002 
3040625000  -4.885077e+001  1.521250e+002 
3043750000  -4.989721e+001  1.396559e+002 
3046875000  -5.085836e+001  1.272008e+002 
3050000000  -5.149105e+001  1.211643e+002 
3053125000  -5.115935e+001  1.215436e+002 
3056250000  -5.202700e+001  1.206941e+002 
3059375000  -5.101431e+001  1.076989e+002 
3062500000  -5.005872e+001  9.807853e+001 
3065625000  -4.925077e+001  8.137755e+001 
3068750000  -4.901434e+001  7.352814e+001 
3071875000  -4.943232e+001  6.734202e+001 
3075000000  -4.859478e+001  5.329314e+001 
3078125000  -4.852927e+001  4.454988e+001 
3081250000  -4.863425e+001  3.100087e+001 
3084375000  -4.816689e+001  2.351227e+001 
3087500000  -4.822933e+001  1.182326e+001 
3090625000  -4.830735e+001  -9.270642e+000 
3093750000  -4.911961e+001  -1.726415e+001 
3096875000  -4.940020e+001  -2.564782e+001 
3100000000  -4.962920e+001  -3.546432e+001 
3103125000  -4.999325e+001  -4.189292e+001 
3106250000  -4.932815e+001  -5.170197e+001 
3109375000  -4.941875e+001  -5.945679e+001 
3112500000  -4.933492e+001  -7.074771e+001 
3115625000  -4.902143e+001  -7.847543e+001 
3118750000  -4.936306e+001  -8.539468e+001 
3121875000  -4.889930e+001  -1.001669e+002 
3125000000  -5.059964e+001  -1.071939e+002 
3128125000  -5.065902e+001  -1.093657e+002 
3131250000  -4.841332e+001  -1.190995e+002 
3134375000  -4.799258e+001  -1.405645e+002 
3137500000  -4.854379e+001  -1.580044e+002 
3140625000  -4.986652e+001  -1.635225e+002 
3143750000  -5.071264e+001  -1.740431e+002 
3146875000  -4.958147e+001  -1.727182e+002 
3150000000  -4.901534e+001  1.776708e+002 
3153125000  -4.920973e+001  1.663253e+002 
3156250000  -5.017509e+001  1.622077e+002 
3159375000  -4.747368e+001  1.546799e+002 
3162500000  -4.613575e+001  1.342417e+002 
3165625000  -4.760833e+001  1.187420e+002 
3168750000  -4.793546e+001  1.122112e+002 
3171875000  -4.733103e+001  1.025931e+002 
3175000000  -4.751918e+001  8.675353e+001 
3178125000  -4.725155e+001  8.161150e+001 
3181250000  -4.637736e+001  6.773307e+001 
3184375000  -4.661159e+001  5.214837e+001 
3187500000  -4.760661e+001  3.655639e+001 
3190625000  -4.923128e+001  1.967155e+001 
3193750000  -5.051333e+001  1.769381e+001 
3196875000  -5.032835e+001  1.902951e+001 
3200000000  -4.813040e+001  7.613003e+000 
3203125000  -4.836249e+001  -5.770548e+000 
3206250000  -4.910804e+001  -1.780683e+001 
3209375000  -4.770345e+001  -3.301894e+001 
3212500000  -4.837059e+001  -4.349970e+001 
3215625000  -4.784037e+001  -4.651844e+001 
3218750000  -4.938290e+001  -6.710898e+001 
3221875000  -4.910195e+001  -7.631676e+001 
3225000000  -4.911834e+001  -8.527628e+001 
3228125000  -5.026593e+001  -9.305161e+001 
3231250000  -5.034541e+001  -1.062531e+002 
3234375000  -5.020943e+001  -1.142684e+002 
3237500000  -5.068005e+001  -1.200154e+002 
3240625000  -5.005991e+001  -1.292053e+002 
3243750000  -5.001568e+001  -1.452078e+002 
3246875000  -4.996092e+001  -1.568888e+002 
3250000000  -5.076599e+001  -1.669566e+002 
3253125000  -5.135550e+001  -1.753491e+002 
3256250000  -5.071716e+001  1.750032e+002 
3259375000  -5.153338e+001  1.598599e+002 
3262500000  -5.247157e+001  1.433544e+002 
3265625000  -5.282651e+001  1.500193e+002 
3268750000  -5.318576e+001  1.413087e+002 
3271875000  -5.250765e+001  1.292976e+002 
3275000000  -5.200169e+001  1.196860e+002 
3278125000  -5.325336e+001  1.064990e+002 
3281250000  -5.276649e+001  1.049214e+002 
3284375000  -5.202782e+001  8.887063e+001 
3287500000  -5.340918e+001  7.591424e+001 
3290625000  -5.373214e+001  6.970988e+001 
3293750000  -5.319947e+001  5.605939e+001 
3296875000  -5.365527e+001  5.665828e+001 
3300000000  -5.454377e+001  4.637334e+001 
3303125000  -5.288356e+001  3.712991e+001 
3306250000  -5.216136e+001  2.399746e+001 
3309375000  -5.251974e+001  1.777110e+001 
3312500000  -5.300286e+001  -4.380708e+000 
3315625000  -5.450058e+001  -1.585971e+001 
3318750000  -5.524968e+001  -2.275598e+001 
3321875000  -5.873816e+001  -2.354163e+001 
3325000000  -5.552921e+001  -1.464439e+001 
3328125000  -5.626013e+001  -2.745834e+001 
3331250000  -5.366901e+001  -2.636816e+001 
3334375000  -5.201892e+001  -5.468113e+001 
3337500000  -5.278935e+001  -7.383317e+001 
3340625000  -5.365707e+001  -9.186747e+001 
3343750000  -5.619468e+001  -8.857736e+001 
3346875000  -5.590046e+001  -9.936453e+001 
3350000000  -5.466449e+001  -1.012137e+002 
3353125000  -5.484389e+001  -1.156316e+002 
3356250000  -5.490466e+001  -1.288431e+002 
3359375000  -5.581649e+001  -1.542462e+002 
3362500000  -5.650290e+001  -1.555463e+002 
3365625000  -5.649007e+001  -1.562025e+002 
3368750000  -5.715675e+001  -1.701683e+002 
3371875000  -5.720922e+001  1.757548e+002 
3375000000  -5.771253e+001  1.623673e+002 
3378125000  -5.859119e+001  1.754630e+002 
3381250000  -6.128364e+001  1.668871e+002 
3384375000  -5.758766e+001  1.715739e+002 
3387500000  -5.431509e+001  1.526409e+002 
3390625000  -5.656741e+001  1.218602e+002 
3393750000  -5.851820e+001  1.269803e+002 
3396875000  -5.739296e+001  1.194443e+002 
3400000000  -5.563686e+001  9.567528e+001 
3403125000  -5.596744e+001  8.405464e+001 
3406250000  -5.759683e+001  7.736524e+001 
3409375000  -5.836966e+001  5.580300e+001 
3412500000  -5.675609e+001  5.369094e+001 
3415625000  -5.968439e+001  3.305870e+001 
3418750000  -5.886237e+001  3.022728e+001 
3421875000  -6.012054e+001  2.328526e+001 
3425000000  -5.939060e+001  3.113838e+001 
3428125000  -6.009229e+001  1.147351e+001 
3431250000  -5.993187e+001  -5.709641e-001 
3434375000  -5.978419e+001  -2.499489e+001 
3437500000  -6.286921e+001  -2.653894e+001 
3440625000  -6.155999e+001  -4.582995e+001 
3443750000  -6.353014e+001  -1.510813e+001 
3446875000  -6.231028e+001  -5.215116e+001 
3450000000  -6.214882e+001  -7.837518e+001 
3453125000  -6.227572e+001  -8.072455e+001 
3456250000  -6.484805e+001  -8.140830e+001 
3459375000  -6.723872e+001  -9.934151e+001 
3462500000  -6.885762e+001  -1.212153e+002 
3465625000  -6.821922e+001  -1.293968e+002 
3468750000  -7.059811e+001  -1.168960e+002 
3471875000  -6.231746e+001  -9.494436e+001 
3475000000  -6.374221e+001  -1.101868e+002 
3478125000  -6.819094e+001  -1.295357e+002 
3481250000  -7.326205e+001  -1.650551e+002 
3484375000  -6.720741e+001  -1.461873e+002 
3487500000  -6.642286e+001  -1.272473e+002 
3490625000  -6.360157e+001  -1.429076e+002 
3493750000  -6.828864e+001  -1.437147e+002 
3496875000  -7.088570e+001  -1.531085e+002 
3500000000  -6.694098e+001  -1.632576e+002 
3503125000  -6.362651e+001  -1.754184e+002 
3506250000  -6.592824e+001  -1.618285e+002 
3509375000  -6.388370e+001  -1.692693e+002 
3512500000  -6.481082e+001  1.520518e+002 
3515625000  -6.958614e+001  1.326511e+002 
3518750000  -6.572646e+001  1.514149e+002 
3521875000  -7.020435e+001  1.407768e+002 
3525000000  -6.756043e+001  1.094623e+002 
3528125000  -6.544295e+001  1.035095e+002 
3531250000  -6.492004e+001  1.438730e+002 
3534375000  -6.670413e+001  8.102335e+001 
3537500000  -6.720068e+001  6.772894e+001 
3540625000  -7.215358e+001  3.031004e+001 
3543750000  -6.935587e+001  5.360190e+001 
3546875000  -7.034618e+001  8.566753e+001 
3550000000  -6.897868e+001  9.947791e+001 
3553125000  -6.695130e+001  4.224083e+001 
3556250000  -7.232947e+001  4.067613e+001 
3559375000  -7.699272e+001  3.810197e+001 
3562500000  -8.898878e+001  -1.112712e+002 
3565625000  -7.456460e+001  -2.631374e+001 
3568750000  -8.328561e+001  1.748986e+002 
3571875000  -7.167812e+001  9.686938e+001 
3575000000  -7.520885e+001  -2.889025e+001 
3578125000  -7.395957e+001  2.484714e+001 
3581250000  -7.627426e+001  -6.851660e+001 
3584375000  -7.193362e+001  2.271193e+001 
3587500000  -8.944254e+001  -1.363686e+002 
3590625000  -6.846848e+001  1.331288e+001 
3593750000  -7.535863e+001  1.641109e+001 
3596875000  -7.121369e+001  3.550615e+001 
3600000000  -6.905444e+001  4.350124e+001 
3603125000  -6.931364e+001  -6.676697e+000 
3606250000  -6.708301e+001  -2.758805e+001 
3609375000  -6.420063e+001  -5.843247e+001 
3612500000  -6.910574e+001  -5.523880e+001 
3615625000  -6.651466e+001  -6.087244e+001 
3618750000  -6.332722e+001  -7.776462e+001 
3621875000  -6.204414e+001  -8.024433e+001 
3625000000  -6.576334e+001  -9.823551e+001 
3628125000  -6.645187e+001  -1.267697e+002 
3631250000  -6.272902e+001  -1.254160e+002 
3634375000  -6.709077e+001  -1.415679e+002 
3637500000  -6.381313e+001  -1.267485e+002 
3640625000  -6.143088e+001  -1.158611e+002 
3643750000  -6.238184e+001  -1.409079e+002 
3646875000  -6.265898e+001  -1.658925e+002 
3650000000  -6.246885e+001  1.640216e+002 
3653125000  -6.358545e+001  -1.732943e+002 
3656250000  -6.664361e+001  1.617499e+002 
3659375000  -6.512158e+001  1.426279e+002 
3662500000  -6.208211e+001  1.546187e+002 
3665625000  -6.584496e+001  1.433739e+002 
3668750000  -6.429642e+001  1.201981e+002 
3671875000  -6.476313e+001  1.252531e+002 
3675000000  -6.519834e+001  8.205756e+001 
3678125000  -7.078577e+001  1.240284e+002 
3681250000  -6.173057e+001  9.045478e+001 
3684375000  -6.984625e+001  9.174727e+001 
3687500000  -6.603295e+001  7.165756e+001 
3690625000  -7.153388e+001  9.400914e+001 
3693750000  -6.216751e+001  7.566432e+001 
3696875000  -6.434797e+001  8.253682e+001 
3700000000  -6.353358e+001  6.645132e+001 
3703125000  -6.745336e+001  3.446816e+001 
3706250000  -6.674865e+001  5.875959e+001 
3709375000  -6.631430e+001  3.747391e+001 
3712500000  -6.263318e+001  6.870250e+001 
3715625000  -6.342765e+001  3.217954e+001 
3718750000  -6.157460e+001  3.557941e+001 
3721875000  -6.054810e+001  2.458236e+001 
3725000000  -6.100011e+001  9.856226e+000 
3728125000  -5.844084e+001  3.444316e-001 
3731250000  -5.889233e+001  -6.137219e+000 
3734375000  -5.850865e+001  -3.204550e+001 
3737500000  -6.058402e+001  -3.679831e+001 
3740625000  -5.734932e+001  -2.592325e+001 
3743750000  -5.998737e+001  -5.634381e+001 
3746875000  -6.014112e+001  -7.876963e+001 
3750000000  -5.765323e+001  -7.604749e+001 
3753125000  -5.929509e+001  -8.141082e+001 
3756250000  -5.722358e+001  -1.030694e+002 
3759375000  -5.874128e+001  -1.059571e+002 
3762500000  -5.648482e+001  -1.117281e+002 
3765625000  -5.881739e+001  -1.253340e+002 
3768750000  -5.701108e+001  -1.299131e+002 
3771875000  -5.535618e+001  -1.505413e+002 
3775000000  -5.632509e+001  -1.587751e+002 
3778125000  -5.764406e+001  1.730947e+002 
3781250000  -5.790409e+001  1.707666e+002 
3784375000  -5.658025e+001  1.667915e+002 
3787500000  -5.678975e+001  1.460255e+002 
3790625000  -5.877612e+001  1.384173e+002 
3793750000  -5.860208e+001  1.254627e+002 
3796875000  -5.801687e+001  1.238107e+002 
3800000000  -5.388292e+001  7.768199e+001 
3803125000  -5.608174e+001  1.013933e+002 
3806250000  -5.877794e+001  6.584266e+001 
3809375000  -5.793054e+001  7.688975e+001 
3812500000  -5.720412e+001  7.572779e+001 
3815625000  -6.013872e+001  5.024903e+001 
3818750000  -6.019429e+001  4.787875e+001 
3821875000  -6.056737e+001  4.140889e+001 
3825000000  -5.935487e+001  4.701950e+001 
3828125000  -6.127241e+001  1.600260e+001 
3831250000  -5.840253e+001  5.385921e+000 
3834375000  -6.550109e+001  -2.621536e+000 
3837500000  -6.407286e+001  5.585891e+000 
3840625000  -6.082244e+001  1.534319e+001 
3843750000  -6.279359e+001  -1.373445e+001 
3846875000  -6.050782e+001  -3.510544e+001 
3850000000  -6.315969e+001  -1.440544e+001 
3853125000  -6.397629e+001  -2.601001e+001 
3856250000  -5.797458e+001  -6.094690e+000 
3859375000  -5.825329e+001  -2.757110e+001 
3862500000  -6.156598e+001  -4.300093e+001 
3865625000  -5.909213e+001  -5.263275e+001 
3868750000  -5.871968e+001  -4.615384e+001 
3871875000  -5.711938e+001  -7.033950e+001 
3875000000  -5.992990e+001  -7.906555e+001 
3878125000  -5.882476e+001  -8.423229e+001 
3881250000  -5.785981e+001  -8.690688e+001 
3884375000  -5.595042e+001  -9.843495e+001 
3887500000  -5.600811e+001  -1.202093e+002 
3890625000  -5.567285e+001  -1.203341e+002 
3893750000  -5.654220e+001  -1.302339e+002 
3896875000  -5.700003e+001  -1.382577e+002 
3900000000  -5.528108e+001  -1.515246e+002 
3903125000  -5.490099e+001  -1.521304e+002 
3906250000  -5.363667e+001  -1.779876e+002 
3909375000  -5.453971e+001  1.719569e+002 
3912500000  -5.422820e+001  1.682889e+002 
3915625000  -5.524168e+001  1.642622e+002 
3918750000  -5.433277e+001  1.576204e+002 
3921875000  -5.641019e+001  1.391927e+002 
3925000000  -5.371715e+001  1.182156e+002 
3928125000  -5.288420e+001  1.098073e+002 
3931250000  -5.351068e+001  1.012600e+002 
3934375000  -5.436024e+001  8.639198e+001 
3937500000  -5.577759e+001  7.837256e+001 
3940625000  -5.501397e+001  6.752843e+001 
3943750000  -5.406218e+001  6.662502e+001 
3946875000  -5.419334e+001  4.383261e+001 
3950000000  -5.356638e+001  3.359732e+001 
3953125000  -5.520565e+001  2.611192e+001 
3956250000  -5.330671e+001  1.498654e+001 
3959375000  -5.276490e+001  1.900868e+001 
3962500000  -5.442937e+001  -5.315456e+000 
3965625000  -5.361811e+001  -2.056714e+001 
3968750000  -5.314687e+001  -3.615527e+001 
3971875000  -5.402994e+001  -4.111239e+001 
3975000000  -5.274367e+001  -5.565202e+001 
3978125000  -5.455462e+001  -5.695735e+001 
3981250000  -5.407033e+001  -7.845222e+001 
3984375000  -5.648683e+001  -9.097163e+001 
3987500000  -5.565430e+001  -9.561446e+001 
3990625000  -5.956437e+001  -1.097403e+002 
3993750000  -5.615099e+001  -1.230098e+002 
3996875000  -6.012156e+001  -1.233941e+002 
4000000000  -5.858088e+001  -1.346556e+002 
4003125000  -5.857426e+001  -1.228055e+002 
4006250000  -5.699678e+001  -1.442346e+002 
4009375000  -5.680267e+001  -1.612040e+002 
4012500000  -6.221970e+001  -1.717377e+002 
4015625000  -6.077586e+001  -1.723101e+002 
4018750000  -5.759295e+001  -1.714452e+002 
4021875000  -5.876093e+001  -1.696231e+002 
4025000000  -5.959544e+001  1.691151e+002 
4028125000  -5.877427e+001  1.691278e+002 
4031250000  -6.168810e+001  1.527502e+002 
4034375000  -6.015447e+001  1.573888e+002 
4037500000  -5.975468e+001  1.531459e+002 
4040625000  -6.107861e+001  1.512453e+002 
4043750000  -5.887151e+001  1.444459e+002 
4046875000  -5.798915e+001  1.365419e+002 
4050000000  -5.605906e+001  1.114444e+002 
4053125000  -5.897659e+001  1.241550e+002 
4056250000  -5.717249e+001  1.243012e+002 
4059375000  -5.527114e+001  1.191461e+002 
4062500000  -5.584124e+001  9.877290e+001 
4065625000  -5.507481e+001  8.468080e+001 
4068750000  -5.453346e+001  6.241348e+001 
4071875000  -5.418602e+001  5.286071e+001 
4075000000  -5.467134e+001  4.780381e+001 
4078125000  -5.326257e+001  3.796938e+001 
4081250000  -5.350985e+001  2.828225e+001 
4084375000  -5.145452e+001  8.057112e+000 
4087500000  -5.295428e+001  -1.241649e+001 
4090625000  -5.358519e+001  -6.872139e+000 
4093750000  -5.376799e+001  -2.368655e+001 
4096875000  -5.239916e+001  -3.401701e+001 
4100000000  -5.333550e+001  -4.418752e+001 
4103125000  -5.552486e+001  -4.995509e+001 
4106250000  -5.320770e+001  -5.516352e+001 
4109375000  -5.291946e+001  -6.228537e+001 
4112500000  -5.213585e+001  -8.610075e+001 
4115625000  -5.316788e+001  -8.824602e+001 
4118750000  -5.210526e+001  -1.011712e+002 
4121875000  -5.315894e+001  -1.239033e+002 
4125000000  -5.363762e+001  -1.286555e+002 
4128125000  -5.454047e+001  -1.325365e+002 
4131250000  -5.183041e+001  -1.266001e+002 
4134375000  -5.175076e+001  -1.514705e+002 
4137500000  -5.185277e+001  -1.670937e+002 
4140625000  -5.416597e+001  1.752016e+002 
4143750000  -5.591161e+001  1.731648e+002 
4146875000  -5.459099e+001  1.699172e+002 
4150000000  -5.483933e+001  1.586581e+002 
4153125000  -5.330424e+001  1.350812e+002 
4156250000  -5.584769e+001  1.247926e+002 
4159375000  -5.567025e+001  1.246853e+002 
4162500000  -5.561892e+001  1.148752e+002 
4165625000  -5.345865e+001  1.174373e+002 
4168750000  -5.287494e+001  8.533255e+001 
4171875000  -5.645972e+001  7.494397e+001 
4175000000  -5.535743e+001  5.030966e+001 
4178125000  -5.631447e+001  6.703404e+001 
4181250000  -5.833125e+001  3.536217e+001 
4184375000  -6.083207e+001  3.712164e+001 
4187500000  -5.850953e+001  3.819379e+001 
4190625000  -6.110301e+001  5.131072e+000 
4193750000  -6.150933e+001  -8.567369e+000 
4196875000  -6.405340e+001  7.172902e+000 
4200000000  -6.540754e+001  2.641637e+001 
4203125000  -6.543523e+001  4.973083e+000 
4206250000  -6.144593e+001  1.360912e+001 
4209375000  -6.019318e+001  -1.693159e+001 
4212500000  -6.486934e+001  1.574291e+001 
4215625000  -6.391000e+001  -4.515172e+000 
4218750000  -6.190808e+001  4.877751e+000 
4221875000  -5.702141e+001  -3.211240e+001 
4225000000  -5.946896e+001  -2.826682e+001 
4228125000  -6.029803e+001  -4.241394e+001 
4231250000  -5.754191e+001  -7.912862e+000 
4234375000  -5.803613e+001  -4.981936e+001 
4237500000  -6.029351e+001  -3.470679e+001 
4240625000  -5.516171e+001  -8.088448e+001 
4243750000  -5.708076e+001  -7.352753e+001 
4246875000  -5.662608e+001  -7.297262e+001 
4250000000  -5.729417e+001  -7.845537e+001 
4253125000  -5.528681e+001  -9.011875e+001 
4256250000  -5.493740e+001  -1.089146e+002 
4259375000  -5.773521e+001  -1.085877e+002 
4262500000  -5.635983e+001  -1.310289e+002 
4265625000  -5.374952e+001  -1.233887e+002 
4268750000  -5.259381e+001  -1.460111e+002 
4271875000  -5.132645e+001  -1.522669e+002 
4275000000  -5.179012e+001  1.742652e+002 
4278125000  -5.240553e+001  1.559494e+002 
4281250000  -5.419781e+001  1.558117e+002 
4284375000  -5.478557e+001  1.506875e+002 
4287500000  -5.407009e+001  1.485287e+002 
4290625000  -5.648365e+001  1.512150e+002 
4293750000  -5.287933e+001  1.451309e+002 
4296875000  -5.265385e+001  1.145084e+002 
4300000000  -5.246183e+001  9.040267e+001 
4303125000  -5.329251e+001  9.426031e+001 
4306250000  -5.142545e+001  9.607681e+001 
4309375000  -5.153120e+001  7.729205e+001 
4312500000  -5.321655e+001  6.563127e+001 
4315625000  -5.234111e+001  4.538617e+001 
4318750000  -5.285411e+001  4.614731e+001 
4321875000  -5.236656e+001  3.700182e+001 
4325000000  -5.310721e+001  2.149143e+001 
4328125000  -5.194625e+001  7.434178e+000 
4331250000  -5.323120e+001  -1.162760e+001 
4334375000  -5.490484e+001  -1.152089e+001 
4337500000  -5.536081e+001  -3.495783e+001 
4340625000  -5.528056e+001  -2.418855e+001 
4343750000  -5.654502e+001  -3.507969e+001 
4346875000  -5.401517e+001  -3.899964e+001 
4350000000  -5.750452e+001  -6.019401e+001 
4353125000  -5.674612e+001  -7.341795e+001 
4356250000  -5.847934e+001  -7.200479e+001 
4359375000  -5.916090e+001  -7.478030e+001 
4362500000  -5.529082e+001  -6.528124e+001 
4365625000  -5.649233e+001  -9.012576e+001 
4368750000  -5.693369e+001  -9.116145e+001 
4371875000  -5.996239e+001  -9.865716e+001 
4375000000  -5.774389e+001  -1.309106e+002 
4378125000  -5.576449e+001  -1.115166e+002 
4381250000  -5.739072e+001  -1.517776e+002 
4384375000  -5.671445e+001  -1.532308e+002 
4387500000  -5.894791e+001  -1.470243e+002 
4390625000  -5.805739e+001  -1.635518e+002 
4393750000  -5.710460e+001  -1.553151e+002 
4396875000  -5.497676e+001  -1.570204e+002 
4400000000  -5.669106e+001  -1.712577e+002 
4403125000  -5.594350e+001  1.761159e+002 
4406250000  -5.747363e+001  1.786313e+002 
4409375000  -5.911434e+001  1.706004e+002 
4412500000  -5.750361e+001  1.623977e+002 
4415625000  -5.540299e+001  1.595664e+002 
4418750000  -5.441756e+001  1.459411e+002 
