!Agilent Technologies,E8363B,MY43030201,A.06.04.32
!Agilent E8363B: A.06.04.32
!Date: Tuesday, November 11, 2014 22:14:11
!Correction: S21(Response(S21)) 
!S1P File: Measurement: S21:
# Hz S  dB   R 50
3000000000  -4.890113e+001  -7.231550e+001 
3003125000  -5.100456e+001  -8.130376e+001 
3006250000  -5.148155e+001  -8.672575e+001 
3009375000  -5.200456e+001  -8.945335e+001 
3012500000  -5.121888e+001  -9.608381e+001 
3015625000  -5.102641e+001  -1.088544e+002 
3018750000  -5.157442e+001  -1.160180e+002 
3021875000  -4.992417e+001  -1.187534e+002 
3025000000  -4.897223e+001  -1.278657e+002 
3028125000  -4.828543e+001  -1.437171e+002 
3031250000  -4.721861e+001  -1.613662e+002 
3034375000  -4.676275e+001  1.793315e+002 
3037500000  -4.789680e+001  1.673105e+002 
3040625000  -4.900896e+001  1.515261e+002 
3043750000  -4.967119e+001  1.439755e+002 
3046875000  -5.050668e+001  1.314794e+002 
3050000000  -5.144657e+001  1.211319e+002 
3053125000  -5.119030e+001  1.202952e+002 
3056250000  -5.089135e+001  1.217373e+002 
3059375000  -5.095822e+001  1.056288e+002 
3062500000  -4.913877e+001  1.021311e+002 
3065625000  -4.952982e+001  8.868008e+001 
3068750000  -4.904855e+001  8.026918e+001 
3071875000  -4.944772e+001  7.037132e+001 
3075000000  -4.810390e+001  5.654268e+001 
3078125000  -4.881881e+001  4.678653e+001 
3081250000  -4.914225e+001  3.204616e+001 
3084375000  -4.808105e+001  2.482547e+001 
3087500000  -4.853997e+001  1.448494e+001 
3090625000  -4.760328e+001  -4.645351e+000 
3093750000  -4.902257e+001  -1.222878e+001 
3096875000  -4.900415e+001  -2.199424e+001 
3100000000  -4.968335e+001  -3.207511e+001 
3103125000  -4.963216e+001  -3.809886e+001 
3106250000  -4.958418e+001  -5.154371e+001 
3109375000  -4.943416e+001  -5.954201e+001 
3112500000  -4.973999e+001  -6.647428e+001 
3115625000  -4.921183e+001  -7.664117e+001 
3118750000  -4.978001e+001  -8.613359e+001 
3121875000  -4.917162e+001  -1.022428e+002 
3125000000  -5.119216e+001  -1.081970e+002 
3128125000  -5.119862e+001  -1.076501e+002 
3131250000  -4.810332e+001  -1.144927e+002 
3134375000  -4.802127e+001  -1.379089e+002 
3137500000  -4.867968e+001  -1.560404e+002 
3140625000  -4.963418e+001  -1.628460e+002 
3143750000  -5.005831e+001  -1.699881e+002 
3146875000  -5.003938e+001  -1.709768e+002 
3150000000  -4.857851e+001  1.799749e+002 
3153125000  -4.932707e+001  1.677338e+002 
3156250000  -5.051981e+001  1.671651e+002 
3159375000  -4.761358e+001  1.596535e+002 
3162500000  -4.688097e+001  1.362960e+002 
3165625000  -4.763206e+001  1.201145e+002 
3168750000  -4.805476e+001  1.180904e+002 
3171875000  -4.728618e+001  1.027997e+002 
3175000000  -4.772571e+001  8.986776e+001 
3178125000  -4.743504e+001  8.377454e+001 
3181250000  -4.673864e+001  6.894135e+001 
3184375000  -4.663129e+001  5.818291e+001 
3187500000  -4.795309e+001  3.189689e+001 
3190625000  -4.966289e+001  1.561452e+001 
3193750000  -4.943964e+001  2.326077e+001 
3196875000  -4.990130e+001  2.053479e+001 
3200000000  -4.887191e+001  8.847450e+000 
3203125000  -4.862346e+001  -2.404168e+000 
3206250000  -4.849134e+001  -1.555258e+001 
3209375000  -4.808252e+001  -2.873135e+001 
3212500000  -4.922924e+001  -3.969103e+001 
3215625000  -4.839390e+001  -4.513869e+001 
3218750000  -4.894951e+001  -6.176295e+001 
3221875000  -4.981394e+001  -7.199014e+001 
3225000000  -5.015885e+001  -8.272955e+001 
3228125000  -5.001723e+001  -9.469550e+001 
3231250000  -5.030569e+001  -1.062036e+002 
3234375000  -5.050663e+001  -1.048985e+002 
3237500000  -5.067048e+001  -1.184257e+002 
3240625000  -5.003628e+001  -1.271205e+002 
3243750000  -5.004475e+001  -1.442217e+002 
3246875000  -5.042280e+001  -1.570649e+002 
3250000000  -5.152056e+001  -1.670980e+002 
3253125000  -5.124787e+001  -1.713334e+002 
3256250000  -5.099424e+001  1.730719e+002 
3259375000  -5.116198e+001  1.593498e+002 
3262500000  -5.161664e+001  1.472031e+002 
3265625000  -5.328276e+001  1.496339e+002 
3268750000  -5.319408e+001  1.403620e+002 
3271875000  -5.276856e+001  1.316822e+002 
3275000000  -5.297096e+001  1.222764e+002 
3278125000  -5.217188e+001  1.050002e+002 
3281250000  -5.305933e+001  1.022600e+002 
3284375000  -5.229482e+001  9.376968e+001 
3287500000  -5.411865e+001  8.322813e+001 
3290625000  -5.315699e+001  7.210145e+001 
3293750000  -5.311710e+001  6.319280e+001 
3296875000  -5.412245e+001  5.311246e+001 
3300000000  -5.524023e+001  5.038100e+001 
3303125000  -5.310392e+001  3.402119e+001 
3306250000  -5.322258e+001  2.523585e+001 
3309375000  -5.284633e+001  1.323965e+001 
3312500000  -5.332795e+001  -5.966896e-001 
3315625000  -5.394195e+001  -1.476498e+001 
3318750000  -5.544042e+001  -1.731904e+001 
3321875000  -5.675395e+001  -3.177410e+001 
3325000000  -5.720320e+001  -2.535769e+001 
3328125000  -5.687467e+001  -2.738768e+001 
3331250000  -5.395248e+001  -3.142641e+001 
3334375000  -5.208954e+001  -3.989255e+001 
3337500000  -5.256992e+001  -6.307896e+001 
3340625000  -5.452058e+001  -8.907845e+001 
3343750000  -5.528565e+001  -8.454827e+001 
3346875000  -5.635547e+001  -9.720383e+001 
3350000000  -5.544815e+001  -1.025319e+002 
3353125000  -5.383111e+001  -1.155657e+002 
3356250000  -5.489404e+001  -1.207039e+002 
3359375000  -5.420188e+001  -1.455014e+002 
3362500000  -5.604158e+001  -1.519508e+002 
3365625000  -5.568517e+001  -1.569732e+002 
3368750000  -5.752059e+001  -1.790587e+002 
3371875000  -5.761636e+001  1.777790e+002 
3375000000  -5.985919e+001  1.688933e+002 
3378125000  -6.035594e+001  1.609580e+002 
3381250000  -6.170366e+001  1.726547e+002 
3384375000  -5.758114e+001  1.798040e+002 
3387500000  -5.516419e+001  1.587892e+002 
3390625000  -5.756727e+001  1.229874e+002 
3393750000  -5.758579e+001  1.172366e+002 
3396875000  -5.655345e+001  1.156828e+002 
3400000000  -5.541307e+001  9.365092e+001 
3403125000  -5.675642e+001  8.798120e+001 
3406250000  -5.771852e+001  8.222601e+001 
3409375000  -5.606641e+001  6.009468e+001 
3412500000  -5.785958e+001  5.321500e+001 
3415625000  -5.967892e+001  4.819255e+001 
3418750000  -6.050993e+001  4.000349e+001 
3421875000  -6.104732e+001  2.661449e+001 
3425000000  -5.895758e+001  2.995909e+001 
3428125000  -5.940739e+001  5.170881e+000 
3431250000  -5.992967e+001  1.173081e+001 
3434375000  -5.971238e+001  -1.705870e+001 
3437500000  -6.226633e+001  -2.805215e+001 
3440625000  -6.086914e+001  -2.328056e+001 
3443750000  -6.243891e+001  -4.321396e+001 
3446875000  -6.176072e+001  -4.914333e+001 
3450000000  -6.052072e+001  -7.345492e+001 
3453125000  -6.406583e+001  -8.390313e+001 
3456250000  -6.599462e+001  -9.804653e+001 
3459375000  -6.517013e+001  -6.945242e+001 
3462500000  -6.753181e+001  -1.048260e+002 
3465625000  -6.297138e+001  -1.118603e+002 
3468750000  -6.746445e+001  -1.276705e+002 
3471875000  -6.632726e+001  -1.140294e+002 
3475000000  -6.560350e+001  -1.197378e+002 
3478125000  -6.545548e+001  -1.252734e+002 
3481250000  -7.158523e+001  -1.298452e+002 
3484375000  -6.984080e+001  -1.506117e+002 
3487500000  -6.645572e+001  -1.190097e+002 
3490625000  -6.877709e+001  -1.493940e+002 
3493750000  -6.569529e+001  -1.508477e+002 
3496875000  -7.867690e+001  -1.483509e+002 
3500000000  -6.969086e+001  1.708340e+002 
3503125000  -7.031921e+001  -1.792615e+002 
3506250000  -6.767169e+001  -1.366675e+002 
3509375000  -6.711520e+001  -1.692950e+002 
3512500000  -6.455387e+001  1.326453e+002 
3515625000  -6.726566e+001  1.448293e+002 
3518750000  -6.549048e+001  1.394929e+002 
3521875000  -6.994994e+001  1.168323e+002 
3525000000  -6.862850e+001  1.089716e+002 
3528125000  -6.323143e+001  1.204850e+002 
3531250000  -6.496883e+001  1.047551e+002 
3534375000  -6.406465e+001  1.117918e+002 
3537500000  -6.736159e+001  8.097648e+001 
3540625000  -6.612733e+001  5.196350e+001 
3543750000  -6.735548e+001  7.118767e+001 
3546875000  -6.878972e+001  6.308780e+001 
3550000000  -6.958983e+001  4.114946e+001 
3553125000  -6.893463e+001  5.772791e+001 
3556250000  -7.541905e+001  2.831543e+001 
3559375000  -6.981271e+001  -2.715847e-001 
3562500000  -7.671461e+001  7.544196e+001 
3565625000  -7.162478e+001  3.523042e+001 
3568750000  -8.834848e+001  1.042411e+002 
3571875000  -6.845415e+001  4.847201e+001 
3575000000  -9.200007e+001  -3.918910e+001 
3578125000  -6.852424e+001  -7.667550e-001 
3581250000  -7.864492e+001  -6.574792e+001 
3584375000  -7.646575e+001  6.047837e+001 
3587500000  -7.459051e+001  -8.560092e+000 
3590625000  -6.479676e+001  1.012059e+001 
3593750000  -6.364522e+001  -2.843914e+001 
3596875000  -6.626871e+001  4.392442e+001 
3600000000  -6.849489e+001  3.757170e+001 
3603125000  -6.932785e+001  -4.015372e+000 
3606250000  -6.906919e+001  -4.182871e+001 
3609375000  -6.614796e+001  -4.282239e+001 
3612500000  -6.391789e+001  -6.686560e+001 
3615625000  -6.756757e+001  -4.472643e+001 
3618750000  -6.388272e+001  -8.195190e+001 
3621875000  -6.608611e+001  -4.727074e+001 
3625000000  -6.359250e+001  -7.459344e+001 
3628125000  -6.349275e+001  -1.199764e+002 
3631250000  -6.361864e+001  -1.055321e+002 
3634375000  -6.648067e+001  -1.146993e+002 
3637500000  -6.249131e+001  -1.173735e+002 
3640625000  -6.062201e+001  -1.344335e+002 
3643750000  -6.357693e+001  -1.317314e+002 
3646875000  -6.024326e+001  -1.787987e+002 
3650000000  -6.364575e+001  -1.783813e+002 
3653125000  -6.591043e+001  -1.797924e+002 
3656250000  -6.775356e+001  1.737876e+002 
3659375000  -6.590500e+001  -1.728964e+002 
3662500000  -6.321196e+001  1.550029e+002 
3665625000  -6.294022e+001  1.555264e+002 
3668750000  -6.031509e+001  1.536656e+002 
3671875000  -6.340243e+001  1.328488e+002 
3675000000  -6.674613e+001  8.230403e+001 
3678125000  -6.460437e+001  1.183559e+002 
3681250000  -6.439526e+001  9.940453e+001 
3684375000  -6.434530e+001  7.895067e+001 
3687500000  -6.843145e+001  7.386355e+001 
3690625000  -6.809301e+001  4.655022e+001 
3693750000  -6.790112e+001  9.868334e+001 
3696875000  -7.547331e+001  8.009579e+001 
3700000000  -6.181982e+001  7.589225e+001 
3703125000  -6.391533e+001  5.873356e+001 
3706250000  -6.600583e+001  5.205055e+001 
3709375000  -6.869646e+001  6.685021e+001 
3712500000  -6.169356e+001  8.228949e+001 
3715625000  -6.154324e+001  5.614331e+001 
3718750000  -6.146774e+001  3.430799e+001 
3721875000  -6.160460e+001  2.917464e+001 
3725000000  -6.387078e+001  3.268096e+001 
3728125000  -6.182816e+001  1.027292e+001 
3731250000  -6.058347e+001  -1.069782e+001 
3734375000  -5.950988e+001  -1.533669e+001 
3737500000  -6.138816e+001  -3.513118e+001 
3740625000  -5.926182e+001  -3.749969e+001 
3743750000  -5.961337e+001  -6.252233e+001 
3746875000  -5.875276e+001  -6.292966e+001 
3750000000  -5.698987e+001  -7.799017e+001 
3753125000  -5.922684e+001  -8.381360e+001 
3756250000  -5.702043e+001  -1.034292e+002 
3759375000  -5.892614e+001  -1.098553e+002 
3762500000  -5.722191e+001  -1.096255e+002 
3765625000  -5.830183e+001  -1.383717e+002 
3768750000  -5.854175e+001  -1.346963e+002 
3771875000  -5.528411e+001  -1.342402e+002 
3775000000  -5.623370e+001  -1.637961e+002 
3778125000  -5.707136e+001  1.782492e+002 
3781250000  -5.652815e+001  1.708872e+002 
3784375000  -5.704850e+001  1.787547e+002 
3787500000  -5.662974e+001  1.423291e+002 
3790625000  -5.846717e+001  1.226533e+002 
3793750000  -5.802394e+001  1.266711e+002 
3796875000  -5.700883e+001  1.268762e+002 
3800000000  -5.268391e+001  7.725927e+001 
3803125000  -5.938399e+001  1.138749e+002 
3806250000  -5.813496e+001  7.405166e+001 
3809375000  -5.943022e+001  9.119984e+001 
3812500000  -5.786468e+001  5.643559e+001 
3815625000  -6.051302e+001  5.137360e+001 
3818750000  -6.155468e+001  5.531033e+001 
3821875000  -6.355597e+001  4.465026e+001 
3825000000  -5.960386e+001  5.011901e+001 
3828125000  -5.879527e+001  3.397813e+001 
3831250000  -6.146241e+001  2.789869e+001 
3834375000  -6.321911e+001  -1.228156e+001 
3837500000  -6.273847e+001  -6.594101e+000 
3840625000  -6.110486e+001  -1.355391e+000 
3843750000  -6.039121e+001  -2.473856e+000 
3846875000  -6.140973e+001  -7.452570e+000 
3850000000  -6.104155e+001  -6.420874e+000 
3853125000  -6.460438e+001  -2.605535e+001 
3856250000  -6.092606e+001  8.057034e+000 
3859375000  -6.151340e+001  -2.735071e+001 
3862500000  -6.193397e+001  -1.388580e+001 
3865625000  -6.123110e+001  -6.181894e+001 
3868750000  -6.076671e+001  -3.629478e+001 
3871875000  -5.590916e+001  -5.519073e+001 
3875000000  -6.045628e+001  -6.298711e+001 
3878125000  -5.852202e+001  -6.880232e+001 
3881250000  -5.719143e+001  -8.605437e+001 
3884375000  -5.700430e+001  -9.544579e+001 
3887500000  -5.849087e+001  -1.076591e+002 
3890625000  -5.748010e+001  -1.197265e+002 
3893750000  -5.698320e+001  -1.314114e+002 
3896875000  -5.699538e+001  -1.359862e+002 
3900000000  -5.648112e+001  -1.455394e+002 
3903125000  -5.313008e+001  -1.555363e+002 
3906250000  -5.398939e+001  -1.662093e+002 
3909375000  -5.476084e+001  1.763002e+002 
3912500000  -5.450430e+001  1.684495e+002 
3915625000  -5.543277e+001  1.560207e+002 
3918750000  -5.511569e+001  1.626763e+002 
3921875000  -5.437790e+001  1.408667e+002 
3925000000  -5.352297e+001  1.287717e+002 
3928125000  -5.314565e+001  1.159833e+002 
3931250000  -5.278515e+001  9.963168e+001 
3934375000  -5.493601e+001  9.346664e+001 
3937500000  -5.533877e+001  8.477298e+001 
3940625000  -5.492600e+001  7.853588e+001 
3943750000  -5.313284e+001  6.358733e+001 
3946875000  -5.394168e+001  4.923612e+001 
3950000000  -5.528180e+001  3.925264e+001 
3953125000  -5.478123e+001  4.390600e+001 
3956250000  -5.486686e+001  2.065954e+001 
3959375000  -5.166476e+001  1.795122e+001 
3962500000  -5.259779e+001  2.843418e-001 
3965625000  -5.347306e+001  -1.427278e+001 
3968750000  -5.364092e+001  -3.301441e+001 
3971875000  -5.493611e+001  -3.959243e+001 
3975000000  -5.276218e+001  -5.120613e+001 
3978125000  -5.457421e+001  -6.483199e+001 
3981250000  -5.608393e+001  -6.934874e+001 
3984375000  -5.576374e+001  -8.214759e+001 
3987500000  -5.653664e+001  -8.810378e+001 
3990625000  -5.709305e+001  -9.187479e+001 
3993750000  -5.599886e+001  -1.206660e+002 
3996875000  -5.881926e+001  -1.269222e+002 
4000000000  -5.854151e+001  -1.302892e+002 
4003125000  -5.867430e+001  -1.229193e+002 
4006250000  -5.557706e+001  -1.471308e+002 
4009375000  -5.669038e+001  -1.524734e+002 
4012500000  -6.190530e+001  -1.499733e+002 
4015625000  -5.970247e+001  -1.492414e+002 
4018750000  -6.183688e+001  -1.648147e+002 
4021875000  -6.031478e+001  -1.777107e+002 
4025000000  -6.004261e+001  1.793387e+002 
4028125000  -6.009813e+001  -1.710802e+002 
4031250000  -6.013816e+001  1.563941e+002 
4034375000  -6.016483e+001  1.658736e+002 
4037500000  -5.843196e+001  1.555111e+002 
4040625000  -5.892746e+001  1.595651e+002 
4043750000  -6.133519e+001  1.539230e+002 
4046875000  -5.772296e+001  1.429262e+002 
4050000000  -5.688064e+001  1.326866e+002 
4053125000  -5.876030e+001  1.242817e+002 
4056250000  -5.887483e+001  1.181190e+002 
4059375000  -5.579166e+001  1.070813e+002 
4062500000  -5.518955e+001  1.052519e+002 
4065625000  -5.396380e+001  8.945821e+001 
4068750000  -5.497462e+001  7.873093e+001 
4071875000  -5.207048e+001  6.064874e+001 
4075000000  -5.416105e+001  4.507041e+001 
4078125000  -5.202879e+001  4.247226e+001 
4081250000  -5.232590e+001  2.668783e+001 
4084375000  -5.252139e+001  1.020812e+001 
4087500000  -5.380291e+001  6.416802e+000 
4090625000  -5.353588e+001  -6.424140e+000 
4093750000  -5.190976e+001  -1.964088e+001 
4096875000  -5.286487e+001  -3.445218e+001 
4100000000  -5.299041e+001  -4.453106e+001 
4103125000  -5.381643e+001  -4.937549e+001 
4106250000  -5.438474e+001  -5.344359e+001 
4109375000  -5.366893e+001  -5.612820e+001 
4112500000  -5.222680e+001  -8.207146e+001 
4115625000  -5.332129e+001  -8.882092e+001 
4118750000  -5.288618e+001  -1.007065e+002 
4121875000  -5.367593e+001  -1.208927e+002 
4125000000  -5.432344e+001  -1.296234e+002 
4128125000  -5.404706e+001  -1.359467e+002 
4131250000  -5.253751e+001  -1.388869e+002 
4134375000  -5.068233e+001  -1.481491e+002 
4137500000  -5.299327e+001  -1.740113e+002 
4140625000  -5.379632e+001  1.705018e+002 
4143750000  -5.745739e+001  -1.695374e+002 
4146875000  -5.421450e+001  1.721237e+002 
4150000000  -5.589038e+001  1.479631e+002 
4153125000  -5.345308e+001  1.487411e+002 
4156250000  -5.559816e+001  1.329118e+002 
4159375000  -5.586040e+001  1.320865e+002 
4162500000  -5.582544e+001  1.142717e+002 
4165625000  -5.316413e+001  1.124750e+002 
4168750000  -5.448808e+001  8.995260e+001 
4171875000  -5.403349e+001  7.935326e+001 
4175000000  -5.567710e+001  6.220272e+001 
4178125000  -5.793987e+001  7.637914e+001 
4181250000  -5.844559e+001  4.770390e+001 
4184375000  -5.815236e+001  1.679870e+001 
4187500000  -5.907459e+001  4.189749e+001 
4190625000  -6.023143e+001  2.530431e+001 
4193750000  -6.103630e+001  2.144222e+001 
4196875000  -6.107378e+001  1.339614e+001 
4200000000  -6.330347e+001  3.130033e+001 
4203125000  -6.218158e+001  1.376784e+001 
4206250000  -6.163618e+001  2.260788e+001 
4209375000  -6.206255e+001  -2.641230e+001 
4212500000  -6.040180e+001  1.920538e+001 
4215625000  -6.414679e+001  -3.307128e+001 
4218750000  -6.155479e+001  5.515235e+000 
4221875000  -5.902317e+001  -1.812168e+001 
4225000000  -5.910334e+001  6.652445e-001 
4228125000  -5.996551e+001  -1.469042e+001 
4231250000  -5.998847e+001  -2.335833e+001 
4234375000  -5.745406e+001  -4.019632e+001 
4237500000  -5.724094e+001  -5.585432e+001 
4240625000  -5.533120e+001  -7.210090e+001 
4243750000  -5.763564e+001  -6.579332e+001 
4246875000  -5.625959e+001  -7.170203e+001 
4250000000  -5.765847e+001  -8.419030e+001 
4253125000  -5.587766e+001  -9.384212e+001 
4256250000  -5.796387e+001  -1.023342e+002 
4259375000  -5.393485e+001  -1.083438e+002 
4262500000  -5.482246e+001  -1.206187e+002 
4265625000  -5.364259e+001  -1.245565e+002 
4268750000  -5.282350e+001  -1.476164e+002 
4271875000  -5.155631e+001  -1.527869e+002 
4275000000  -5.093195e+001  -1.794003e+002 
4278125000  -5.357493e+001  1.692464e+002 
4281250000  -5.418151e+001  1.562427e+002 
4284375000  -5.440522e+001  1.553163e+002 
4287500000  -5.462360e+001  1.402777e+002 
4290625000  -5.558936e+001  1.533280e+002 
4293750000  -5.229560e+001  1.441663e+002 
4296875000  -5.164949e+001  1.210993e+002 
4300000000  -5.248523e+001  1.134045e+002 
4303125000  -5.343653e+001  1.041097e+002 
4306250000  -5.282667e+001  9.683298e+001 
4309375000  -5.290954e+001  8.515505e+001 
4312500000  -5.242593e+001  6.759715e+001 
4315625000  -5.183335e+001  5.383736e+001 
4318750000  -5.480117e+001  4.834079e+001 
4321875000  -5.217765e+001  4.177118e+001 
4325000000  -5.399883e+001  1.938966e+001 
4328125000  -5.135839e+001  1.431043e+001 
4331250000  -5.295254e+001  -5.845773e+000 
4334375000  -5.504908e+001  -1.808696e+001 
4337500000  -5.394227e+001  -2.575351e+001 
4340625000  -5.589088e+001  -1.425916e+001 
4343750000  -5.342060e+001  -3.220529e+001 
4346875000  -5.489274e+001  -4.130315e+001 
4350000000  -5.435112e+001  -5.812691e+001 
4353125000  -5.717356e+001  -7.409104e+001 
4356250000  -5.801420e+001  -7.108755e+001 
4359375000  -5.824401e+001  -6.960820e+001 
4362500000  -5.573897e+001  -6.844947e+001 
4365625000  -5.458382e+001  -9.612016e+001 
4368750000  -5.479560e+001  -9.809640e+001 
4371875000  -5.529509e+001  -1.103540e+002 
4375000000  -5.704541e+001  -1.190127e+002 
4378125000  -5.563498e+001  -1.167319e+002 
4381250000  -5.738083e+001  -1.337442e+002 
4384375000  -5.507151e+001  -1.511313e+002 
4387500000  -5.641578e+001  -1.484001e+002 
4390625000  -5.830873e+001  -1.445823e+002 
4393750000  -5.734616e+001  -1.476049e+002 
4396875000  -5.655807e+001  -1.637558e+002 
4400000000  -5.539634e+001  -1.779854e+002 
4403125000  -5.590946e+001  1.750877e+002 
4406250000  -5.935937e+001  1.646715e+002 
4409375000  -5.653494e+001  1.521508e+002 
4412500000  -5.652758e+001  1.681104e+002 
4415625000  -5.662431e+001  1.635672e+002 
4418750000  -5.408862e+001  1.575894e+002 
