!Agilent Technologies,E8363B,MY43030201,A.06.04.32
!Agilent E8363B: A.06.04.32
!Date: Tuesday, November 11, 2014 22:13:02
!Correction: S21(Response(S21)) 
!S1P File: Measurement: S21:
# Hz S  dB   R 50
3000000000  -4.868837e+001  -7.450128e+001 
3003125000  -5.227365e+001  -7.895562e+001 
3006250000  -5.203089e+001  -8.875377e+001 
3009375000  -5.248784e+001  -8.828210e+001 
3012500000  -5.053696e+001  -9.772075e+001 
3015625000  -5.105003e+001  -1.085705e+002 
3018750000  -5.172447e+001  -1.098827e+002 
3021875000  -5.000197e+001  -1.165077e+002 
3025000000  -4.832645e+001  -1.283536e+002 
3028125000  -4.845230e+001  -1.472438e+002 
3031250000  -4.702916e+001  -1.629382e+002 
3034375000  -4.715579e+001  1.793194e+002 
3037500000  -4.796489e+001  1.672586e+002 
3040625000  -4.895234e+001  1.532719e+002 
3043750000  -4.946495e+001  1.433780e+002 
3046875000  -5.043696e+001  1.310827e+002 
3050000000  -5.158044e+001  1.213624e+002 
3053125000  -5.109466e+001  1.207399e+002 
3056250000  -5.081158e+001  1.232531e+002 
3059375000  -5.041413e+001  1.091061e+002 
3062500000  -4.919871e+001  1.007998e+002 
3065625000  -4.905316e+001  8.467502e+001 
3068750000  -4.927276e+001  7.850590e+001 
3071875000  -4.888043e+001  6.687904e+001 
3075000000  -4.910500e+001  5.235612e+001 
3078125000  -4.843195e+001  4.455747e+001 
3081250000  -4.886498e+001  3.276984e+001 
3084375000  -4.832206e+001  2.488847e+001 
3087500000  -4.812984e+001  1.433871e+001 
3090625000  -4.799562e+001  -5.088303e+000 
3093750000  -4.905239e+001  -1.724146e+001 
3096875000  -4.899552e+001  -2.498061e+001 
3100000000  -4.917893e+001  -3.519881e+001 
3103125000  -4.990282e+001  -3.977578e+001 
3106250000  -4.919918e+001  -5.225208e+001 
3109375000  -4.923549e+001  -5.926309e+001 
3112500000  -4.938671e+001  -6.834198e+001 
3115625000  -4.926270e+001  -8.092739e+001 
3118750000  -4.933370e+001  -8.428078e+001 
3121875000  -4.883530e+001  -9.948404e+001 
3125000000  -5.035515e+001  -1.116896e+002 
3128125000  -5.087172e+001  -1.093276e+002 
3131250000  -4.858490e+001  -1.173530e+002 
3134375000  -4.755666e+001  -1.380869e+002 
3137500000  -4.938795e+001  -1.558828e+002 
3140625000  -4.985538e+001  -1.598129e+002 
3143750000  -5.091683e+001  -1.686486e+002 
3146875000  -5.043966e+001  -1.745266e+002 
3150000000  -4.879668e+001  1.782457e+002 
3153125000  -4.918232e+001  1.633871e+002 
3156250000  -5.045867e+001  1.619818e+002 
3159375000  -4.801811e+001  1.563345e+002 
3162500000  -4.610698e+001  1.374307e+002 
3165625000  -4.760050e+001  1.207040e+002 
3168750000  -4.765321e+001  1.151831e+002 
3171875000  -4.713710e+001  1.024019e+002 
3175000000  -4.777971e+001  8.684826e+001 
3178125000  -4.701033e+001  8.329018e+001 
3181250000  -4.688860e+001  6.872900e+001 
3184375000  -4.675860e+001  5.038413e+001 
3187500000  -4.763158e+001  3.675514e+001 
3190625000  -4.964159e+001  2.382957e+001 
3193750000  -4.969603e+001  2.321464e+001 
3196875000  -4.961439e+001  1.693289e+001 
3200000000  -4.845741e+001  9.899599e+000 
3203125000  -4.824089e+001  -5.772440e+000 
3206250000  -4.879079e+001  -1.632214e+001 
3209375000  -4.795678e+001  -2.894003e+001 
3212500000  -4.843009e+001  -4.210724e+001 
3215625000  -4.866245e+001  -4.630930e+001 
3218750000  -4.937980e+001  -6.300308e+001 
3221875000  -4.942619e+001  -7.563560e+001 
3225000000  -4.940991e+001  -8.614919e+001 
3228125000  -5.004783e+001  -9.165510e+001 
3231250000  -5.036058e+001  -1.047014e+002 
3234375000  -5.015481e+001  -1.086437e+002 
3237500000  -5.033783e+001  -1.210557e+002 
3240625000  -4.998228e+001  -1.273857e+002 
3243750000  -4.981856e+001  -1.453111e+002 
3246875000  -5.023990e+001  -1.557274e+002 
3250000000  -5.112931e+001  -1.658573e+002 
3253125000  -5.150648e+001  -1.720722e+002 
3256250000  -5.048263e+001  1.735694e+002 
3259375000  -5.153560e+001  1.603308e+002 
3262500000  -5.228798e+001  1.521389e+002 
3265625000  -5.268114e+001  1.417258e+002 
3268750000  -5.353640e+001  1.429359e+002 
3271875000  -5.278913e+001  1.345916e+002 
3275000000  -5.258391e+001  1.215275e+002 
3278125000  -5.236240e+001  1.085326e+002 
3281250000  -5.332080e+001  1.035272e+002 
3284375000  -5.230890e+001  9.471568e+001 
3287500000  -5.302494e+001  8.661380e+001 
3290625000  -5.376591e+001  7.188992e+001 
3293750000  -5.316678e+001  6.352905e+001 
3296875000  -5.338327e+001  5.010109e+001 
3300000000  -5.349043e+001  4.859669e+001 
3303125000  -5.263691e+001  4.417018e+001 
3306250000  -5.380173e+001  2.512820e+001 
3309375000  -5.229678e+001  1.686261e+001 
3312500000  -5.340728e+001  -5.422724e+000 
3315625000  -5.429516e+001  -1.032438e+001 
3318750000  -5.570389e+001  -1.880943e+001 
3321875000  -5.785223e+001  -2.100963e+001 
3325000000  -5.751641e+001  -2.096609e+001 
3328125000  -5.447167e+001  -2.043176e+001 
3331250000  -5.332218e+001  -2.229849e+001 
3334375000  -5.161248e+001  -5.056604e+001 
3337500000  -5.201163e+001  -6.969274e+001 
3340625000  -5.450916e+001  -8.541749e+001 
3343750000  -5.592560e+001  -8.735729e+001 
3346875000  -5.476971e+001  -1.002709e+002 
3350000000  -5.411681e+001  -9.601817e+001 
3353125000  -5.471577e+001  -1.168796e+002 
3356250000  -5.524646e+001  -1.231889e+002 
3359375000  -5.499028e+001  -1.481087e+002 
3362500000  -5.627363e+001  -1.550025e+002 
3365625000  -5.647342e+001  -1.621696e+002 
3368750000  -5.697277e+001  -1.747393e+002 
3371875000  -5.707878e+001  1.757257e+002 
3375000000  -6.005912e+001  1.669522e+002 
3378125000  -5.885855e+001  1.710320e+002 
3381250000  -6.238354e+001  1.797062e+002 
3384375000  -5.700561e+001  1.753948e+002 
3387500000  -5.348475e+001  1.498079e+002 
3390625000  -5.679058e+001  1.282955e+002 
3393750000  -5.651307e+001  1.183951e+002 
3396875000  -5.651479e+001  1.171364e+002 
3400000000  -5.548513e+001  9.487585e+001 
3403125000  -5.653245e+001  8.437109e+001 
3406250000  -5.735046e+001  7.339741e+001 
3409375000  -5.679884e+001  5.281324e+001 
3412500000  -5.832634e+001  5.950090e+001 
3415625000  -6.022024e+001  4.264896e+001 
3418750000  -6.009415e+001  3.817501e+001 
3421875000  -6.031764e+001  4.183407e+001 
3425000000  -5.884850e+001  3.214056e+001 
3428125000  -5.859491e+001  3.700086e+000 
3431250000  -5.977044e+001  6.738081e+000 
3434375000  -6.026862e+001  -2.569005e+001 
3437500000  -6.203168e+001  -1.479736e+001 
3440625000  -6.133048e+001  -2.732664e+001 
3443750000  -6.191466e+001  -3.203386e+001 
3446875000  -6.058432e+001  -5.438034e+001 
3450000000  -6.061181e+001  -7.126786e+001 
3453125000  -6.297027e+001  -7.333293e+001 
3456250000  -6.687777e+001  -8.032993e+001 
3459375000  -6.600507e+001  -8.149595e+001 
3462500000  -6.669799e+001  -9.131006e+001 
3465625000  -6.885686e+001  -1.323846e+002 
3468750000  -6.540298e+001  -1.290237e+002 
3471875000  -6.610495e+001  -8.851536e+001 
3475000000  -6.347290e+001  -9.937652e+001 
3478125000  -6.751688e+001  -8.739793e+001 
3481250000  -7.147504e+001  -1.716117e+002 
3484375000  -6.512722e+001  -1.368965e+002 
3487500000  -7.065520e+001  -1.465549e+002 
3490625000  -6.874673e+001  -1.467963e+002 
3493750000  -8.587895e+001  -1.057781e+002 
3496875000  -6.756705e+001  -1.480553e+002 
3500000000  -6.401563e+001  -1.641036e+002 
3503125000  -6.517844e+001  -1.519997e+002 
3506250000  -6.424631e+001  -1.617503e+002 
3509375000  -6.202483e+001  1.740529e+002 
3512500000  -6.654671e+001  1.385737e+002 
3515625000  -6.664440e+001  1.303089e+002 
3518750000  -6.941465e+001  1.428928e+002 
3521875000  -6.622092e+001  1.667025e+002 
3525000000  -6.424188e+001  8.973117e+001 
3528125000  -7.226931e+001  1.100435e+002 
3531250000  -6.504828e+001  1.447395e+002 
3534375000  -6.694890e+001  8.320158e+001 
3537500000  -6.491892e+001  7.124801e+001 
3540625000  -6.732669e+001  1.001898e+002 
3543750000  -7.146601e+001  9.247683e+001 
3546875000  -7.390986e+001  8.247079e+001 
3550000000  -7.029675e+001  8.746232e+001 
3553125000  -6.897461e+001  3.838648e+001 
3556250000  -7.515420e+001  7.162378e+001 
3559375000  -6.969795e+001  2.054819e+001 
3562500000  -8.015746e+001  1.672455e+002 
3565625000  -7.753977e+001  -5.848233e+001 
3568750000  -7.129886e+001  4.575251e+001 
3571875000  -7.563669e+001  5.574210e+001 
3575000000  -7.464732e+001  1.883088e+001 
3578125000  -6.901974e+001  3.329071e+001 
3581250000  -7.293559e+001  1.714635e+001 
3584375000  -6.824625e+001  3.436378e+001 
3587500000  -7.038839e+001  7.891916e+001 
3590625000  -6.932492e+001  1.299954e+001 
3593750000  -6.649135e+001  -5.293401e+000 
3596875000  -6.506794e+001  4.812517e+001 
3600000000  -6.575584e+001  -4.337079e+001 
3603125000  -6.552622e+001  1.230571e+001 
3606250000  -6.726068e+001  -3.099774e+001 
3609375000  -6.392073e+001  -3.481745e+001 
3612500000  -6.609237e+001  -4.066047e+001 
3615625000  -6.613803e+001  -1.428769e+001 
3618750000  -6.737537e+001  -7.104623e+001 
3621875000  -6.219376e+001  -6.531462e+001 
3625000000  -6.253051e+001  -5.978818e+001 
3628125000  -6.505420e+001  -8.818084e+001 
3631250000  -6.237500e+001  -1.187650e+002 
3634375000  -6.509621e+001  -1.076088e+002 
3637500000  -6.742515e+001  -1.232639e+002 
3640625000  -6.151828e+001  -1.220554e+002 
3643750000  -6.372905e+001  -1.242540e+002 
3646875000  -6.238369e+001  -1.577806e+002 
3650000000  -6.281440e+001  1.753598e+002 
3653125000  -6.392665e+001  -1.795313e+002 
3656250000  -7.030209e+001  -1.606036e+002 
3659375000  -6.430342e+001  1.687765e+002 
3662500000  -6.610676e+001  1.636991e+002 
3665625000  -6.346793e+001  1.550876e+002 
3668750000  -6.566525e+001  1.199315e+002 
3671875000  -6.651662e+001  1.421288e+002 
3675000000  -6.211648e+001  9.583744e+001 
3678125000  -6.434389e+001  9.655958e+001 
3681250000  -6.107991e+001  9.456563e+001 
3684375000  -7.391711e+001  8.203505e+001 
3687500000  -6.579550e+001  7.672699e+001 
3690625000  -6.397503e+001  7.680829e+001 
3693750000  -6.516781e+001  1.010543e+002 
3696875000  -6.507003e+001  7.659462e+001 
3700000000  -6.349370e+001  8.504058e+001 
3703125000  -6.424980e+001  4.829846e+001 
3706250000  -6.522019e+001  8.080299e+001 
3709375000  -7.006307e+001  2.615144e+001 
3712500000  -6.264507e+001  5.609235e+001 
3715625000  -6.248261e+001  2.582722e+001 
3718750000  -5.940406e+001  3.116904e+001 
3721875000  -6.142028e+001  1.715185e+001 
3725000000  -6.241860e+001  1.033360e+001 
3728125000  -5.875835e+001  5.261750e+000 
3731250000  -5.946888e+001  -1.221188e+001 
3734375000  -6.082852e+001  -1.985725e+001 
3737500000  -5.989168e+001  -3.636266e+001 
3740625000  -5.896613e+001  -3.273187e+001 
3743750000  -5.894764e+001  -5.151518e+001 
3746875000  -5.865155e+001  -5.151676e+001 
3750000000  -5.892598e+001  -7.599763e+001 
3753125000  -5.780146e+001  -8.038030e+001 
3756250000  -5.830434e+001  -1.007187e+002 
3759375000  -5.728689e+001  -1.073072e+002 
3762500000  -5.719831e+001  -1.121711e+002 
3765625000  -6.208968e+001  -1.287688e+002 
3768750000  -5.681442e+001  -1.299754e+002 
3771875000  -5.640929e+001  -1.465120e+002 
3775000000  -5.668110e+001  -1.721485e+002 
3778125000  -5.821456e+001  1.702175e+002 
3781250000  -5.810127e+001  1.729214e+002 
3784375000  -5.571125e+001  1.639500e+002 
3787500000  -5.691343e+001  1.475701e+002 
3790625000  -5.975671e+001  1.456885e+002 
3793750000  -5.582259e+001  1.371590e+002 
3796875000  -5.731370e+001  1.221521e+002 
3800000000  -5.259937e+001  8.013513e+001 
3803125000  -5.643811e+001  9.773554e+001 
3806250000  -6.099602e+001  9.417746e+001 
3809375000  -6.091992e+001  8.860357e+001 
3812500000  -5.712597e+001  6.126882e+001 
3815625000  -5.969179e+001  4.517416e+001 
3818750000  -6.123679e+001  5.347433e+001 
3821875000  -6.175338e+001  4.504150e+001 
3825000000  -6.019224e+001  5.328302e+001 
3828125000  -5.943798e+001  3.505419e+001 
3831250000  -6.128360e+001  1.134244e+001 
3834375000  -6.339350e+001  -2.130355e+001 
3837500000  -6.401141e+001  1.638560e+001 
3840625000  -6.269945e+001  1.054463e+001 
3843750000  -6.148827e+001  -1.050458e+001 
3846875000  -6.150466e+001  -1.012846e+001 
3850000000  -6.500304e+001  2.194274e-001 
3853125000  -6.189879e+001  -2.879051e+001 
3856250000  -6.105119e+001  -2.154249e+001 
3859375000  -5.767286e+001  -4.597783e+001 
3862500000  -6.003803e+001  -3.296387e+001 
3865625000  -5.798597e+001  -2.816901e+001 
3868750000  -5.748842e+001  -5.581063e+001 
3871875000  -5.629560e+001  -5.678131e+001 
3875000000  -6.008446e+001  -6.726537e+001 
3878125000  -5.725159e+001  -8.390572e+001 
3881250000  -5.836789e+001  -8.673216e+001 
3884375000  -5.542844e+001  -9.764574e+001 
3887500000  -5.628989e+001  -1.140990e+002 
3890625000  -5.595306e+001  -1.125891e+002 
3893750000  -5.664220e+001  -1.328507e+002 
3896875000  -5.620399e+001  -1.304434e+002 
3900000000  -5.618171e+001  -1.463132e+002 
3903125000  -5.666351e+001  -1.450934e+002 
3906250000  -5.505460e+001  -1.704056e+002 
3909375000  -5.488718e+001  -1.782260e+002 
3912500000  -5.521187e+001  1.600210e+002 
3915625000  -5.613319e+001  1.611167e+002 
3918750000  -5.541330e+001  1.528735e+002 
3921875000  -5.572420e+001  1.458841e+002 
3925000000  -5.324403e+001  1.234756e+002 
3928125000  -5.279787e+001  1.148782e+002 
3931250000  -5.472229e+001  1.020290e+002 
3934375000  -5.426776e+001  8.475916e+001 
3937500000  -5.651229e+001  7.531611e+001 
3940625000  -5.490974e+001  7.716402e+001 
3943750000  -5.321345e+001  7.387861e+001 
3946875000  -5.298232e+001  4.990320e+001 
3950000000  -5.422758e+001  3.677837e+001 
3953125000  -5.481509e+001  2.538306e+001 
3956250000  -5.401411e+001  2.840633e+001 
3959375000  -5.287757e+001  1.238960e+001 
3962500000  -5.228339e+001  -7.047452e+000 
3965625000  -5.401385e+001  -1.456352e+001 
3968750000  -5.388738e+001  -3.242570e+001 
3971875000  -5.434547e+001  -4.326591e+001 
3975000000  -5.333437e+001  -5.344670e+001 
3978125000  -5.414848e+001  -5.508709e+001 
3981250000  -5.507530e+001  -7.036072e+001 
3984375000  -5.597511e+001  -8.010754e+001 
3987500000  -5.550808e+001  -9.143814e+001 
3990625000  -5.578652e+001  -9.901492e+001 
3993750000  -5.663028e+001  -1.122645e+002 
3996875000  -5.823243e+001  -1.231756e+002 
4000000000  -6.060505e+001  -1.275550e+002 
4003125000  -5.838398e+001  -1.102778e+002 
4006250000  -5.674659e+001  -1.443764e+002 
4009375000  -5.615594e+001  -1.458151e+002 
4012500000  -5.941824e+001  -1.481355e+002 
4015625000  -5.901188e+001  -1.591514e+002 
4018750000  -6.141716e+001  -1.482436e+002 
4021875000  -5.991280e+001  -1.689580e+002 
4025000000  -6.322581e+001  1.601553e+002 
4028125000  -5.794375e+001  -1.791864e+002 
4031250000  -5.890909e+001  1.606551e+002 
4034375000  -6.016091e+001  1.608951e+002 
4037500000  -5.625444e+001  1.637278e+002 
4040625000  -6.030437e+001  1.663398e+002 
4043750000  -6.178834e+001  1.573228e+002 
4046875000  -5.851340e+001  1.444733e+002 
4050000000  -5.631109e+001  1.293875e+002 
4053125000  -5.743006e+001  1.226128e+002 
4056250000  -5.889418e+001  1.277866e+002 
4059375000  -5.714515e+001  1.211481e+002 
4062500000  -5.645045e+001  1.045501e+002 
4065625000  -5.423131e+001  8.473244e+001 
4068750000  -5.498650e+001  6.916512e+001 
4071875000  -5.265791e+001  6.130829e+001 
4075000000  -5.327995e+001  4.480445e+001 
4078125000  -5.179542e+001  4.470261e+001 
4081250000  -5.199944e+001  3.175155e+001 
4084375000  -5.328386e+001  1.321039e+001 
4087500000  -5.482461e+001  -3.850188e+000 
4090625000  -5.428161e+001  -1.174897e+001 
4093750000  -5.376508e+001  -1.256983e+001 
4096875000  -5.297917e+001  -2.927291e+001 
4100000000  -5.569626e+001  -5.027207e+001 
4103125000  -5.600909e+001  -5.514056e+001 
4106250000  -5.456115e+001  -5.520408e+001 
4109375000  -5.212303e+001  -5.738951e+001 
4112500000  -5.153399e+001  -8.838087e+001 
4115625000  -5.368592e+001  -7.971647e+001 
4118750000  -5.330566e+001  -9.726883e+001 
4121875000  -5.266066e+001  -1.227536e+002 
4125000000  -5.258806e+001  -1.173817e+002 
4128125000  -5.487873e+001  -1.337037e+002 
4131250000  -5.302894e+001  -1.348486e+002 
4134375000  -5.134772e+001  -1.535674e+002 
4137500000  -5.158772e+001  -1.718038e+002 
4140625000  -5.320135e+001  1.702670e+002 
4143750000  -5.588780e+001  1.797387e+002 
4146875000  -5.422131e+001  1.743125e+002 
4150000000  -5.483379e+001  1.577395e+002 
4153125000  -5.498247e+001  1.448205e+002 
4156250000  -5.737182e+001  1.279393e+002 
4159375000  -5.478226e+001  1.314027e+002 
4162500000  -5.503085e+001  1.270574e+002 
4165625000  -5.392549e+001  1.119043e+002 
4168750000  -5.570247e+001  9.329782e+001 
4171875000  -5.383086e+001  7.533842e+001 
4175000000  -5.465107e+001  5.946687e+001 
4178125000  -5.659318e+001  6.494613e+001 
4181250000  -5.622372e+001  4.433477e+001 
4184375000  -6.066456e+001  4.976976e+001 
4187500000  -5.801616e+001  3.091895e+001 
4190625000  -6.388358e+001  1.830776e+001 
4193750000  -5.959144e+001  1.884119e+001 
4196875000  -6.289476e+001  -1.438064e+000 
4200000000  -6.306703e+001  9.942888e+000 
4203125000  -6.991172e+001  3.039902e+001 
4206250000  -5.773280e+001  2.876878e+001 
4209375000  -6.265630e+001  -4.190454e-002 
4212500000  -6.403107e+001  1.769592e+001 
4215625000  -6.333739e+001  -3.587306e+001 
4218750000  -6.534185e+001  6.043168e+000 
4221875000  -5.959752e+001  -3.244093e+001 
4225000000  -6.334537e+001  -4.158597e+001 
4228125000  -5.803437e+001  -3.742775e+001 
4231250000  -5.772794e+001  -2.469566e+001 
4234375000  -5.755240e+001  -3.570797e+001 
4237500000  -5.853009e+001  -4.331137e+001 
4240625000  -5.635413e+001  -5.523755e+001 
4243750000  -5.739328e+001  -5.726385e+001 
4246875000  -5.704428e+001  -6.979825e+001 
4250000000  -5.656806e+001  -8.796394e+001 
4253125000  -5.520127e+001  -8.923045e+001 
4256250000  -5.650224e+001  -1.050224e+002 
4259375000  -5.480324e+001  -1.099564e+002 
4262500000  -5.450456e+001  -1.350189e+002 
4265625000  -5.450144e+001  -1.145156e+002 
4268750000  -5.258795e+001  -1.457113e+002 
4271875000  -5.141464e+001  -1.516794e+002 
4275000000  -5.094656e+001  -1.767620e+002 
4278125000  -5.339715e+001  1.754956e+002 
4281250000  -5.346081e+001  1.626846e+002 
4284375000  -5.474172e+001  1.478625e+002 
4287500000  -5.546717e+001  1.484983e+002 
4290625000  -5.417992e+001  1.548483e+002 
4293750000  -5.369385e+001  1.380513e+002 
4296875000  -5.258211e+001  1.141110e+002 
4300000000  -5.359395e+001  1.125459e+002 
4303125000  -5.465867e+001  1.075968e+002 
4306250000  -5.349325e+001  9.667483e+001 
4309375000  -5.284912e+001  8.178411e+001 
4312500000  -5.255145e+001  6.813245e+001 
4315625000  -5.206231e+001  4.888706e+001 
4318750000  -5.360657e+001  3.861594e+001 
4321875000  -5.325268e+001  3.922144e+001 
4325000000  -5.264643e+001  2.589588e+001 
4328125000  -5.234472e+001  1.187304e+001 
4331250000  -5.299282e+001  -9.491460e+000 
4334375000  -5.360946e+001  -9.383826e+000 
4337500000  -5.485334e+001  -3.011255e+001 
4340625000  -5.632119e+001  -2.020634e+001 
4343750000  -5.372029e+001  -4.187506e+001 
4346875000  -5.635880e+001  -5.144981e+001 
4350000000  -5.586216e+001  -5.779287e+001 
4353125000  -5.631519e+001  -7.848322e+001 
4356250000  -5.781208e+001  -5.616329e+001 
4359375000  -5.768670e+001  -5.298891e+001 
4362500000  -5.456470e+001  -6.971363e+001 
4365625000  -5.560883e+001  -9.424794e+001 
4368750000  -5.416209e+001  -9.190804e+001 
4371875000  -5.596522e+001  -1.003653e+002 
4375000000  -5.396914e+001  -1.118717e+002 
4378125000  -5.689868e+001  -1.299050e+002 
4381250000  -5.859306e+001  -1.191764e+002 
4384375000  -5.624712e+001  -1.398499e+002 
4387500000  -5.677491e+001  -1.442636e+002 
4390625000  -5.780500e+001  -1.514196e+002 
4393750000  -5.847335e+001  -1.461203e+002 
4396875000  -5.532400e+001  -1.623348e+002 
4400000000  -5.599221e+001  -1.689284e+002 
4403125000  -5.550584e+001  1.769955e+002 
4406250000  -5.773523e+001  1.636162e+002 
4409375000  -5.545983e+001  1.704586e+002 
4412500000  -5.774192e+001  1.423373e+002 
4415625000  -5.439766e+001  1.774094e+002 
4418750000  -5.464234e+001  1.446139e+002 
