!Agilent Technologies,E8363B,MY43030201,A.06.04.32
!Agilent E8363B: A.06.04.32
!Date: Tuesday, November 11, 2014 22:12:10
!Correction: S21(Response(S21)) 
!S1P File: Measurement: S21:
# Hz S  dB   R 50
3000000000  -4.878842e+001  -7.403674e+001 
3003125000  -5.195514e+001  -8.190880e+001 
3006250000  -5.171209e+001  -8.852004e+001 
3009375000  -5.196867e+001  -8.711071e+001 
3012500000  -5.138273e+001  -9.651810e+001 
3015625000  -5.113253e+001  -1.090711e+002 
3018750000  -5.147459e+001  -1.142126e+002 
3021875000  -5.006848e+001  -1.177477e+002 
3025000000  -4.845070e+001  -1.283539e+002 
3028125000  -4.792060e+001  -1.452898e+002 
3031250000  -4.690963e+001  -1.636009e+002 
3034375000  -4.721206e+001  1.793420e+002 
3037500000  -4.803344e+001  1.653984e+002 
3040625000  -4.950468e+001  1.520529e+002 
3043750000  -4.982794e+001  1.419629e+002 
3046875000  -5.045917e+001  1.313555e+002 
3050000000  -5.196048e+001  1.196051e+002 
3053125000  -5.165632e+001  1.210756e+002 
3056250000  -5.123866e+001  1.228694e+002 
3059375000  -5.081088e+001  1.117449e+002 
3062500000  -4.896986e+001  9.882201e+001 
3065625000  -4.868906e+001  8.689546e+001 
3068750000  -4.915594e+001  7.504636e+001 
3071875000  -4.920832e+001  6.896754e+001 
3075000000  -4.875375e+001  5.622260e+001 
3078125000  -4.852141e+001  4.687035e+001 
3081250000  -4.912859e+001  3.099047e+001 
3084375000  -4.805860e+001  2.737320e+001 
3087500000  -4.784268e+001  1.154586e+001 
3090625000  -4.797596e+001  -6.334871e+000 
3093750000  -4.904646e+001  -1.654160e+001 
3096875000  -4.985960e+001  -2.356125e+001 
3100000000  -4.877855e+001  -3.428746e+001 
3103125000  -4.966170e+001  -4.322269e+001 
3106250000  -4.898796e+001  -4.939132e+001 
3109375000  -4.958706e+001  -6.270548e+001 
3112500000  -4.888172e+001  -6.828432e+001 
3115625000  -4.939054e+001  -7.931899e+001 
3118750000  -5.037608e+001  -8.641992e+001 
3121875000  -4.906066e+001  -9.852226e+001 
3125000000  -5.075630e+001  -1.101151e+002 
3128125000  -5.096606e+001  -1.087931e+002 
3131250000  -4.835539e+001  -1.196952e+002 
3134375000  -4.797900e+001  -1.415990e+002 
3137500000  -4.880431e+001  -1.570862e+002 
3140625000  -4.950919e+001  -1.643707e+002 
3143750000  -5.072290e+001  -1.712267e+002 
3146875000  -4.949101e+001  -1.737850e+002 
3150000000  -4.943552e+001  1.798267e+002 
3153125000  -4.933080e+001  1.669038e+002 
3156250000  -5.019635e+001  1.637919e+002 
3159375000  -4.762223e+001  1.594454e+002 
3162500000  -4.641122e+001  1.373077e+002 
3165625000  -4.761692e+001  1.181672e+002 
3168750000  -4.745573e+001  1.174817e+002 
3171875000  -4.747861e+001  1.032686e+002 
3175000000  -4.778650e+001  8.972279e+001 
3178125000  -4.747205e+001  8.153026e+001 
3181250000  -4.675774e+001  6.846719e+001 
3184375000  -4.629756e+001  5.114848e+001 
3187500000  -4.739207e+001  3.384359e+001 
3190625000  -4.968345e+001  1.832128e+001 
3193750000  -4.990123e+001  1.852875e+001 
3196875000  -4.995054e+001  1.731809e+001 
3200000000  -4.847138e+001  8.927056e+000 
3203125000  -4.810921e+001  -1.355017e+000 
3206250000  -4.823769e+001  -1.531883e+001 
3209375000  -4.816626e+001  -3.083255e+001 
3212500000  -4.886179e+001  -4.382224e+001 
3215625000  -4.879332e+001  -4.629730e+001 
3218750000  -4.942320e+001  -6.378606e+001 
3221875000  -4.918677e+001  -7.860526e+001 
3225000000  -4.962123e+001  -8.527826e+001 
3228125000  -4.978177e+001  -9.019078e+001 
3231250000  -5.060408e+001  -1.042212e+002 
3234375000  -5.011168e+001  -1.083952e+002 
3237500000  -5.040933e+001  -1.178267e+002 
3240625000  -4.974244e+001  -1.296318e+002 
3243750000  -4.999864e+001  -1.451437e+002 
3246875000  -4.967759e+001  -1.543663e+002 
3250000000  -5.134325e+001  -1.642474e+002 
3253125000  -5.097110e+001  -1.702924e+002 
3256250000  -5.017063e+001  1.700278e+002 
3259375000  -5.150319e+001  1.591402e+002 
3262500000  -5.224065e+001  1.473591e+002 
3265625000  -5.387912e+001  1.452080e+002 
3268750000  -5.360859e+001  1.451364e+002 
3271875000  -5.293226e+001  1.353696e+002 
3275000000  -5.232880e+001  1.235176e+002 
3278125000  -5.244733e+001  1.088350e+002 
3281250000  -5.313301e+001  1.045782e+002 
3284375000  -5.184401e+001  9.199036e+001 
3287500000  -5.323970e+001  8.329726e+001 
3290625000  -5.342550e+001  7.430128e+001 
3293750000  -5.346640e+001  6.485341e+001 
3296875000  -5.385238e+001  5.296013e+001 
3300000000  -5.488416e+001  4.728398e+001 
3303125000  -5.269347e+001  4.309768e+001 
3306250000  -5.381217e+001  2.594687e+001 
3309375000  -5.353790e+001  1.719645e+001 
3312500000  -5.301581e+001  -5.729048e+000 
3315625000  -5.446827e+001  -6.743676e+000 
3318750000  -5.461642e+001  -2.559494e+001 
3321875000  -5.676462e+001  -2.089880e+001 
3325000000  -5.638102e+001  -2.884547e+001 
3328125000  -5.633988e+001  -2.200764e+001 
3331250000  -5.417113e+001  -3.039663e+001 
3334375000  -5.192629e+001  -5.160574e+001 
3337500000  -5.311249e+001  -6.846999e+001 
3340625000  -5.438020e+001  -8.945251e+001 
3343750000  -5.529413e+001  -8.178234e+001 
3346875000  -5.488837e+001  -1.036894e+002 
3350000000  -5.428347e+001  -1.000664e+002 
3353125000  -5.453770e+001  -1.195525e+002 
3356250000  -5.576191e+001  -1.295221e+002 
3359375000  -5.466362e+001  -1.421552e+002 
3362500000  -5.631629e+001  -1.483803e+002 
3365625000  -5.581649e+001  -1.582248e+002 
3368750000  -5.713905e+001  -1.720748e+002 
3371875000  -5.650031e+001  1.788186e+002 
3375000000  -5.810918e+001  1.597163e+002 
3378125000  -5.865868e+001  1.685039e+002 
3381250000  -6.130639e+001  1.710919e+002 
3384375000  -5.704308e+001  -1.772900e+002 
3387500000  -5.308141e+001  1.427717e+002 
3390625000  -5.780618e+001  1.294763e+002 
3393750000  -5.656991e+001  1.134041e+002 
3396875000  -5.666804e+001  1.227135e+002 
3400000000  -5.623079e+001  9.236015e+001 
3403125000  -5.842743e+001  8.543241e+001 
3406250000  -5.889802e+001  7.074868e+001 
3409375000  -5.721653e+001  5.065590e+001 
3412500000  -5.749352e+001  6.102097e+001 
3415625000  -6.000677e+001  4.732740e+001 
3418750000  -6.029848e+001  3.537291e+001 
3421875000  -5.910382e+001  2.964951e+001 
3425000000  -5.741280e+001  3.141902e+001 
3428125000  -5.852304e+001  -1.141021e+000 
3431250000  -5.995019e+001  3.017849e+000 
3434375000  -5.900554e+001  -2.783364e+001 
3437500000  -6.248711e+001  -2.917208e+001 
3440625000  -6.025952e+001  -2.812796e+001 
3443750000  -6.365433e+001  -2.913952e+001 
3446875000  -5.907891e+001  -3.590474e+001 
3450000000  -6.338630e+001  -6.646593e+001 
3453125000  -6.349322e+001  -7.699324e+001 
3456250000  -6.731350e+001  -9.090985e+001 
3459375000  -6.366473e+001  -7.227947e+001 
3462500000  -6.844183e+001  -9.554192e+001 
3465625000  -6.372244e+001  -1.093380e+002 
3468750000  -6.696330e+001  -1.414414e+002 
3471875000  -6.266484e+001  -1.049640e+002 
3475000000  -6.344652e+001  -1.146355e+002 
3478125000  -6.545984e+001  -1.299688e+002 
3481250000  -6.685970e+001  -1.258724e+002 
3484375000  -6.813922e+001  -1.323712e+002 
3487500000  -6.480377e+001  -1.067063e+002 
3490625000  -6.916715e+001  -1.463213e+002 
3493750000  -6.990691e+001  -1.612685e+002 
3496875000  -7.062924e+001  -1.631989e+002 
3500000000  -6.752799e+001  -1.607494e+002 
3503125000  -6.878144e+001  -1.466257e+002 
3506250000  -6.485500e+001  -1.691640e+002 
3509375000  -6.614732e+001  1.747807e+002 
3512500000  -6.376867e+001  1.667668e+002 
3515625000  -6.578860e+001  1.226013e+002 
3518750000  -6.570184e+001  1.338992e+002 
3521875000  -6.569504e+001  1.238988e+002 
3525000000  -6.589717e+001  1.255663e+002 
3528125000  -7.168282e+001  1.445256e+002 
3531250000  -6.403543e+001  1.219601e+002 
3534375000  -6.562600e+001  9.971654e+001 
3537500000  -6.795315e+001  7.221682e+001 
3540625000  -6.874420e+001  8.276147e+001 
3543750000  -7.347995e+001  9.625800e+001 
3546875000  -7.270329e+001  -2.014231e+001 
3550000000  -7.371167e+001  6.921674e+001 
3553125000  -6.994239e+001  9.072293e+001 
3556250000  -6.986175e+001  3.744715e+001 
3559375000  -7.268072e+001  4.380835e+001 
3562500000  -7.594468e+001  -4.231105e+001 
3565625000  -7.475275e+001  6.074422e+001 
3568750000  -8.621799e+001  -1.670885e+002 
3571875000  -7.053249e+001  4.209550e+001 
3575000000  -7.004608e+001  -3.209044e+001 
3578125000  -7.716058e+001  7.320725e+000 
3581250000  -8.183749e+001  8.391560e+001 
3584375000  -7.093088e+001  5.704760e+001 
3587500000  -8.440638e+001  -1.785556e+002 
3590625000  -7.480518e+001  -1.121121e+001 
3593750000  -6.526994e+001  -8.356869e+000 
3596875000  -7.612209e+001  9.788983e+001 
3600000000  -6.515422e+001  7.801249e+000 
3603125000  -6.454483e+001  -4.935551e+000 
3606250000  -6.445882e+001  -2.446576e+001 
3609375000  -6.488683e+001  -4.104908e+001 
3612500000  -6.738379e+001  -7.288720e+001 
3615625000  -7.042867e+001  -8.054622e+001 
3618750000  -6.332617e+001  -7.134677e+001 
3621875000  -6.574941e+001  -9.053539e+001 
3625000000  -6.276083e+001  -5.937109e+001 
3628125000  -6.361251e+001  -1.324104e+002 
3631250000  -6.332912e+001  -1.076990e+002 
3634375000  -6.634660e+001  -1.203745e+002 
3637500000  -6.269238e+001  -1.173033e+002 
3640625000  -6.248357e+001  -1.336831e+002 
3643750000  -6.162032e+001  -1.459225e+002 
3646875000  -6.051469e+001  -1.679480e+002 
3650000000  -6.376521e+001  1.721976e+002 
3653125000  -6.121868e+001  -1.715174e+002 
3656250000  -7.036879e+001  1.431505e+002 
3659375000  -6.485361e+001  1.393222e+002 
3662500000  -6.349739e+001  1.314194e+002 
3665625000  -6.078084e+001  1.540723e+002 
3668750000  -6.286572e+001  1.097782e+002 
3671875000  -6.203971e+001  1.263237e+002 
3675000000  -6.327771e+001  1.142918e+002 
3678125000  -6.155393e+001  1.122578e+002 
3681250000  -6.045288e+001  1.063811e+002 
3684375000  -7.211637e+001  1.013077e+002 
3687500000  -6.586821e+001  5.579292e+001 
3690625000  -6.905878e+001  6.432464e+001 
3693750000  -6.573969e+001  1.004874e+002 
3696875000  -6.455795e+001  8.561432e+001 
3700000000  -6.286872e+001  7.781727e+001 
3703125000  -6.897827e+001  8.421436e+001 
3706250000  -6.283278e+001  7.546069e+001 
3709375000  -6.663391e+001  5.225440e+001 
3712500000  -6.037000e+001  5.366678e+001 
3715625000  -6.094981e+001  6.044291e+001 
3718750000  -6.136990e+001  2.969569e+001 
3721875000  -6.244384e+001  2.244784e+001 
3725000000  -6.184290e+001  2.395586e+001 
3728125000  -6.061166e+001  7.967073e+000 
3731250000  -5.973025e+001  -1.443235e+001 
3734375000  -6.003195e+001  -4.067001e+001 
3737500000  -6.084116e+001  -4.413564e+001 
3740625000  -5.899878e+001  -2.781117e+001 
3743750000  -5.974555e+001  -6.529868e+001 
3746875000  -5.961279e+001  -6.378586e+001 
3750000000  -5.830506e+001  -7.738694e+001 
3753125000  -5.839206e+001  -7.565919e+001 
3756250000  -5.935699e+001  -8.952499e+001 
3759375000  -5.754686e+001  -1.153294e+002 
3762500000  -5.747157e+001  -1.190794e+002 
3765625000  -5.960133e+001  -1.338091e+002 
3768750000  -5.862415e+001  -1.371025e+002 
3771875000  -5.696041e+001  -1.429843e+002 
3775000000  -5.584726e+001  -1.673248e+002 
3778125000  -5.652469e+001  1.760112e+002 
3781250000  -5.689857e+001  -1.716578e+002 
3784375000  -5.627571e+001  1.740710e+002 
3787500000  -5.785406e+001  1.524848e+002 
3790625000  -5.740604e+001  1.494948e+002 
3793750000  -5.774822e+001  1.370877e+002 
3796875000  -5.708414e+001  1.208398e+002 
3800000000  -5.276702e+001  8.073643e+001 
3803125000  -5.615825e+001  9.035425e+001 
3806250000  -5.952111e+001  8.279056e+001 
3809375000  -5.895076e+001  8.669397e+001 
3812500000  -5.610203e+001  6.710593e+001 
3815625000  -5.840897e+001  5.268882e+001 
3818750000  -6.234167e+001  3.581313e+001 
3821875000  -6.011423e+001  7.015020e+001 
3825000000  -5.945498e+001  4.136553e+001 
3828125000  -5.950256e+001  3.042767e+001 
3831250000  -5.912535e+001  1.023225e+001 
3834375000  -6.299891e+001  2.470532e+000 
3837500000  -6.519411e+001  1.284136e+001 
3840625000  -5.950301e+001  1.004843e+001 
3843750000  -5.928680e+001  1.903809e+000 
3846875000  -6.093978e+001  -1.864396e+001 
3850000000  -6.836385e+001  -1.371273e+001 
3853125000  -6.087336e+001  -2.784809e+001 
3856250000  -6.218499e+001  -1.329025e+001 
3859375000  -5.838817e+001  -3.001010e+001 
3862500000  -6.187221e+001  -2.605284e+001 
3865625000  -6.007822e+001  -5.871359e+001 
3868750000  -5.974621e+001  -2.979459e+001 
3871875000  -5.823898e+001  -6.921760e+001 
3875000000  -5.925906e+001  -6.422490e+001 
3878125000  -5.914616e+001  -7.720188e+001 
3881250000  -5.871354e+001  -9.932537e+001 
3884375000  -5.655061e+001  -1.102188e+002 
3887500000  -5.672179e+001  -1.053233e+002 
3890625000  -5.564579e+001  -1.117228e+002 
3893750000  -5.652672e+001  -1.334875e+002 
3896875000  -5.605142e+001  -1.388727e+002 
3900000000  -5.595339e+001  -1.480376e+002 
3903125000  -5.496417e+001  -1.492929e+002 
3906250000  -5.394218e+001  -1.741775e+002 
3909375000  -5.437064e+001  1.699370e+002 
3912500000  -5.479165e+001  1.628856e+002 
3915625000  -5.659934e+001  1.609953e+002 
3918750000  -5.553846e+001  1.499176e+002 
3921875000  -5.648415e+001  1.293404e+002 
3925000000  -5.307413e+001  1.218927e+002 
3928125000  -5.351038e+001  1.031833e+002 
3931250000  -5.493171e+001  1.128988e+002 
3934375000  -5.414113e+001  8.568999e+001 
3937500000  -5.447652e+001  7.621088e+001 
3940625000  -5.484847e+001  8.020665e+001 
3943750000  -5.391537e+001  6.624450e+001 
3946875000  -5.213934e+001  4.165402e+001 
3950000000  -5.509932e+001  3.142293e+001 
3953125000  -5.435612e+001  3.046537e+001 
3956250000  -5.401974e+001  2.440526e+001 
3959375000  -5.187617e+001  2.080960e+001 
3962500000  -5.237084e+001  -8.237335e+000 
3965625000  -5.414963e+001  -1.831769e+001 
3968750000  -5.332219e+001  -2.435796e+001 
3971875000  -5.564215e+001  -4.238990e+001 
3975000000  -5.439079e+001  -5.692772e+001 
3978125000  -5.542914e+001  -6.008574e+001 
3981250000  -5.502482e+001  -7.738704e+001 
3984375000  -5.561983e+001  -8.133054e+001 
3987500000  -5.525375e+001  -8.942218e+001 
3990625000  -5.679185e+001  -9.298621e+001 
3993750000  -5.691841e+001  -1.099334e+002 
3996875000  -5.694843e+001  -1.211790e+002 
4000000000  -5.853679e+001  -1.108227e+002 
4003125000  -5.911155e+001  -1.191065e+002 
4006250000  -5.713324e+001  -1.461292e+002 
4009375000  -5.717426e+001  -1.538679e+002 
4012500000  -5.738325e+001  -1.635733e+002 
4015625000  -6.258537e+001  -1.439918e+002 
4018750000  -6.135594e+001  -1.660008e+002 
4021875000  -5.939072e+001  -1.536732e+002 
4025000000  -5.972365e+001  -1.786297e+002 
4028125000  -5.777620e+001  -1.788567e+002 
4031250000  -6.035111e+001  1.632010e+002 
4034375000  -6.122561e+001  1.679476e+002 
4037500000  -5.649703e+001  1.546973e+002 
4040625000  -5.949603e+001  1.541602e+002 
4043750000  -5.990294e+001  1.509141e+002 
4046875000  -5.913242e+001  1.361605e+002 
4050000000  -5.744698e+001  1.277665e+002 
4053125000  -5.882462e+001  1.138533e+002 
4056250000  -5.874564e+001  1.134473e+002 
4059375000  -5.704032e+001  1.148546e+002 
4062500000  -5.426248e+001  9.773491e+001 
4065625000  -5.468988e+001  9.088868e+001 
4068750000  -5.367815e+001  6.711956e+001 
4071875000  -5.334931e+001  5.955745e+001 
4075000000  -5.458491e+001  4.401479e+001 
4078125000  -5.295695e+001  4.446421e+001 
4081250000  -5.308569e+001  2.435907e+001 
4084375000  -5.238820e+001  1.366556e+001 
4087500000  -5.450412e+001  -6.493751e+000 
4090625000  -5.400368e+001  -4.126297e+000 
4093750000  -5.213839e+001  -1.354853e+001 
4096875000  -5.183317e+001  -2.639843e+001 
4100000000  -5.414391e+001  -4.715348e+001 
4103125000  -5.500795e+001  -4.078796e+001 
4106250000  -5.327554e+001  -6.178032e+001 
4109375000  -5.396921e+001  -5.880119e+001 
4112500000  -5.248635e+001  -7.783894e+001 
4115625000  -5.376394e+001  -9.011401e+001 
4118750000  -5.370068e+001  -9.283763e+001 
4121875000  -5.369186e+001  -1.133265e+002 
4125000000  -5.422491e+001  -1.257856e+002 
4128125000  -5.486568e+001  -1.394768e+002 
4131250000  -5.295470e+001  -1.292308e+002 
4134375000  -5.066099e+001  -1.516733e+002 
4137500000  -5.116355e+001  -1.734822e+002 
4140625000  -5.361435e+001  1.777213e+002 
4143750000  -5.535182e+001  1.783734e+002 
4146875000  -5.437106e+001  1.654488e+002 
4150000000  -5.429457e+001  1.584812e+002 
4153125000  -5.391267e+001  1.418926e+002 
4156250000  -5.651254e+001  1.325217e+002 
4159375000  -5.534547e+001  1.341930e+002 
4162500000  -5.596655e+001  1.218634e+002 
4165625000  -5.285423e+001  1.093950e+002 
4168750000  -5.600436e+001  9.640697e+001 
4171875000  -5.583601e+001  8.301824e+001 
4175000000  -5.611391e+001  5.908577e+001 
4178125000  -5.761664e+001  6.533979e+001 
4181250000  -5.746962e+001  3.992835e+001 
4184375000  -5.959798e+001  2.929106e+001 
4187500000  -6.049613e+001  7.614379e+000 
4190625000  -6.214999e+001  2.121121e+001 
4193750000  -6.313548e+001  2.145903e+001 
4196875000  -6.159200e+001  -1.509269e+001 
4200000000  -6.536148e+001  1.887564e+001 
4203125000  -6.357284e+001  3.284819e+001 
4206250000  -5.990209e+001  2.958617e+001 
4209375000  -6.163110e+001  -7.417987e+000 
4212500000  -6.473735e+001  1.916145e+001 
4215625000  -5.873168e+001  -1.808168e+001 
4218750000  -6.337638e+001  9.161114e+000 
4221875000  -5.829108e+001  -3.395160e+001 
4225000000  -6.283095e+001  -1.084238e+001 
4228125000  -5.877801e+001  -1.553217e+001 
4231250000  -5.626770e+001  -1.027279e+001 
4234375000  -5.540635e+001  -4.121505e+001 
4237500000  -5.927692e+001  -2.719310e+001 
4240625000  -5.418629e+001  -5.906576e+001 
4243750000  -5.861237e+001  -6.739591e+001 
4246875000  -5.661834e+001  -7.285401e+001 
4250000000  -5.780525e+001  -8.834055e+001 
4253125000  -5.437426e+001  -8.911588e+001 
4256250000  -5.712958e+001  -1.140641e+002 
4259375000  -5.521159e+001  -9.599938e+001 
4262500000  -5.427101e+001  -1.247150e+002 
4265625000  -5.411578e+001  -1.318896e+002 
4268750000  -5.222165e+001  -1.478545e+002 
4271875000  -5.375618e+001  -1.634442e+002 
4275000000  -5.157033e+001  -1.750419e+002 
4278125000  -5.291201e+001  1.777294e+002 
4281250000  -5.446215e+001  1.575708e+002 
4284375000  -5.445573e+001  1.543955e+002 
4287500000  -5.552617e+001  1.446667e+002 
4290625000  -5.571251e+001  1.445748e+002 
4293750000  -5.257382e+001  1.450480e+002 
4296875000  -5.246059e+001  1.115066e+002 
4300000000  -5.423000e+001  1.092050e+002 
4303125000  -5.316934e+001  8.687153e+001 
4306250000  -5.219132e+001  9.959994e+001 
4309375000  -5.106730e+001  7.686841e+001 
4312500000  -5.181005e+001  7.055119e+001 
4315625000  -5.272049e+001  5.211133e+001 
4318750000  -5.328138e+001  3.809055e+001 
4321875000  -5.191806e+001  4.138055e+001 
4325000000  -5.366579e+001  2.755897e+001 
4328125000  -5.151479e+001  1.261390e+001 
4331250000  -5.296485e+001  -1.841843e+000 
4334375000  -5.463148e+001  -1.518892e+001 
4337500000  -5.495197e+001  -2.862335e+001 
4340625000  -5.478841e+001  -2.200625e+001 
4343750000  -5.345241e+001  -3.224739e+001 
4346875000  -5.444908e+001  -4.101140e+001 
4350000000  -5.625023e+001  -6.445678e+001 
4353125000  -5.495680e+001  -7.916947e+001 
4356250000  -5.603010e+001  -6.983244e+001 
4359375000  -6.030938e+001  -5.133728e+001 
4362500000  -5.414095e+001  -7.707261e+001 
4365625000  -5.587843e+001  -1.042548e+002 
4368750000  -5.560199e+001  -9.381223e+001 
4371875000  -5.633190e+001  -1.100036e+002 
4375000000  -5.644707e+001  -1.089934e+002 
4378125000  -5.530768e+001  -1.146548e+002 
4381250000  -5.653341e+001  -1.377048e+002 
4384375000  -5.605605e+001  -1.534393e+002 
4387500000  -5.800171e+001  -1.403206e+002 
4390625000  -5.815021e+001  -1.539571e+002 
4393750000  -5.804086e+001  -1.521571e+002 
4396875000  -5.496830e+001  -1.711904e+002 
4400000000  -5.600431e+001  -1.751308e+002 
4403125000  -5.518184e+001  1.702782e+002 
4406250000  -5.712045e+001  1.780200e+002 
4409375000  -5.519460e+001  1.673420e+002 
4412500000  -5.836672e+001  1.541174e+002 
4415625000  -5.575686e+001  1.539995e+002 
