!Agilent Technologies,E8363B,MY43030201,A.06.04.32
!Agilent E8363B: A.06.04.32
!Date: Tuesday, November 11, 2014 22:12:00
!Correction: S21(Response(S21)) 
!S1P File: Measurement: S21:
# Hz S  dB   R 50
3000000000  -4.885972e+001  -7.389354e+001 
3003125000  -5.194852e+001  -8.263573e+001 
3006250000  -5.204109e+001  -8.531574e+001 
3009375000  -5.211665e+001  -8.936253e+001 
3012500000  -5.125933e+001  -9.897315e+001 
3015625000  -5.163027e+001  -1.065293e+002 
3018750000  -5.198162e+001  -1.148929e+002 
3021875000  -4.999183e+001  -1.174910e+002 
3025000000  -4.866059e+001  -1.281414e+002 
3028125000  -4.831729e+001  -1.455115e+002 
3031250000  -4.723092e+001  -1.646317e+002 
3034375000  -4.698630e+001  -1.794494e+002 
3037500000  -4.812144e+001  1.665711e+002 
3040625000  -4.918164e+001  1.504621e+002 
3043750000  -5.010033e+001  1.412214e+002 
3046875000  -5.055642e+001  1.295046e+002 
3050000000  -5.105198e+001  1.221147e+002 
3053125000  -5.165618e+001  1.197331e+002 
3056250000  -5.123767e+001  1.217689e+002 
3059375000  -5.061486e+001  1.105869e+002 
3062500000  -4.920058e+001  1.060142e+002 
3065625000  -4.872840e+001  8.481790e+001 
3068750000  -4.872600e+001  7.473061e+001 
3071875000  -4.871502e+001  6.974099e+001 
3075000000  -4.887161e+001  5.659529e+001 
3078125000  -4.866457e+001  4.574022e+001 
3081250000  -4.912082e+001  3.292343e+001 
3084375000  -4.823889e+001  2.545616e+001 
3087500000  -4.806048e+001  1.009446e+001 
3090625000  -4.768288e+001  -4.894520e+000 
3093750000  -4.922876e+001  -1.704909e+001 
3096875000  -4.946030e+001  -2.547305e+001 
3100000000  -4.944947e+001  -3.834354e+001 
3103125000  -5.010810e+001  -4.100977e+001 
3106250000  -4.960499e+001  -5.100675e+001 
3109375000  -4.940207e+001  -6.154720e+001 
3112500000  -4.989762e+001  -6.955028e+001 
3115625000  -4.926606e+001  -7.593945e+001 
3118750000  -4.967099e+001  -8.701328e+001 
3121875000  -4.892293e+001  -1.022558e+002 
3125000000  -5.099622e+001  -1.067744e+002 
3128125000  -5.091220e+001  -1.111888e+002 
3131250000  -4.831889e+001  -1.215522e+002 
3134375000  -4.790307e+001  -1.417568e+002 
3137500000  -4.850684e+001  -1.494015e+002 
3140625000  -4.968183e+001  -1.648230e+002 
3143750000  -5.052511e+001  -1.691927e+002 
3146875000  -4.938731e+001  -1.708043e+002 
3150000000  -4.921057e+001  1.798391e+002 
3153125000  -4.955871e+001  1.630323e+002 
3156250000  -5.043017e+001  1.674548e+002 
3159375000  -4.770975e+001  1.566374e+002 
3162500000  -4.648379e+001  1.351054e+002 
3165625000  -4.768035e+001  1.211071e+002 
3168750000  -4.725127e+001  1.150024e+002 
3171875000  -4.732486e+001  1.045537e+002 
3175000000  -4.744710e+001  8.968210e+001 
3178125000  -4.719838e+001  7.945414e+001 
3181250000  -4.645193e+001  6.617450e+001 
3184375000  -4.622506e+001  5.214604e+001 
3187500000  -4.703281e+001  3.397013e+001 
3190625000  -4.927770e+001  2.334864e+001 
3193750000  -5.009683e+001  2.183218e+001 
3196875000  -4.961751e+001  1.461261e+001 
3200000000  -4.835870e+001  8.974442e+000 
3203125000  -4.862923e+001  -3.166648e+000 
3206250000  -4.910723e+001  -1.469334e+001 
3209375000  -4.856816e+001  -3.036506e+001 
3212500000  -4.885450e+001  -4.263087e+001 
3215625000  -4.825475e+001  -4.722193e+001 
3218750000  -4.917424e+001  -6.513216e+001 
3221875000  -4.953286e+001  -7.738360e+001 
3225000000  -4.955373e+001  -8.490099e+001 
3228125000  -4.981477e+001  -9.250293e+001 
3231250000  -5.070176e+001  -1.048936e+002 
3234375000  -5.023927e+001  -1.146571e+002 
3237500000  -5.047985e+001  -1.198335e+002 
3240625000  -5.004546e+001  -1.241723e+002 
3243750000  -4.980660e+001  -1.412711e+002 
3246875000  -5.006713e+001  -1.551324e+002 
3250000000  -5.140912e+001  -1.655337e+002 
3253125000  -5.149121e+001  -1.714263e+002 
3256250000  -5.038435e+001  1.729406e+002 
3259375000  -5.084920e+001  1.573205e+002 
3262500000  -5.317326e+001  1.491073e+002 
3265625000  -5.346097e+001  1.464369e+002 
3268750000  -5.311208e+001  1.368818e+002 
3271875000  -5.281503e+001  1.334036e+002 
3275000000  -5.242698e+001  1.204095e+002 
3278125000  -5.241481e+001  1.108784e+002 
3281250000  -5.341427e+001  1.077378e+002 
3284375000  -5.203114e+001  9.407249e+001 
3287500000  -5.319923e+001  8.940517e+001 
3290625000  -5.329643e+001  7.364993e+001 
3293750000  -5.328312e+001  6.183875e+001 
3296875000  -5.384206e+001  5.429269e+001 
3300000000  -5.460489e+001  4.271566e+001 
3303125000  -5.261758e+001  3.843779e+001 
3306250000  -5.352451e+001  2.509104e+001 
3309375000  -5.294667e+001  1.666698e+001 
3312500000  -5.365605e+001  -5.444755e+000 
3315625000  -5.448264e+001  -1.183073e+001 
3318750000  -5.549908e+001  -2.521873e+001 
3321875000  -5.870250e+001  -2.609264e+001 
3325000000  -5.638359e+001  -1.639763e+001 
3328125000  -5.524812e+001  -2.212401e+001 
3331250000  -5.395501e+001  -2.777369e+001 
3334375000  -5.214880e+001  -4.607932e+001 
3337500000  -5.263674e+001  -7.500198e+001 
3340625000  -5.474598e+001  -8.401859e+001 
3343750000  -5.562639e+001  -7.750301e+001 
3346875000  -5.547501e+001  -9.659657e+001 
3350000000  -5.529731e+001  -1.093949e+002 
3353125000  -5.454141e+001  -1.216981e+002 
3356250000  -5.445693e+001  -1.347190e+002 
3359375000  -5.520600e+001  -1.385917e+002 
3362500000  -5.684200e+001  -1.519901e+002 
3365625000  -5.646128e+001  -1.631586e+002 
3368750000  -5.701772e+001  -1.653040e+002 
3371875000  -5.675137e+001  1.738740e+002 
3375000000  -5.843545e+001  1.695845e+002 
3378125000  -5.805349e+001  1.630008e+002 
3381250000  -6.129164e+001  1.742204e+002 
3384375000  -5.658837e+001  -1.761783e+002 
3387500000  -5.373299e+001  1.393274e+002 
3390625000  -5.666880e+001  1.211865e+002 
3393750000  -5.692948e+001  1.224079e+002 
3396875000  -5.611070e+001  1.096290e+002 
3400000000  -5.457671e+001  9.189857e+001 
3403125000  -5.712387e+001  8.248148e+001 
3406250000  -5.584352e+001  7.917907e+001 
3409375000  -5.673719e+001  5.578822e+001 
3412500000  -5.817729e+001  6.380422e+001 
3415625000  -6.042707e+001  3.422283e+001 
3418750000  -5.927095e+001  3.497285e+001 
3421875000  -6.004816e+001  2.955841e+001 
3425000000  -5.981194e+001  2.655624e+001 
3428125000  -5.772643e+001  1.227335e+001 
3431250000  -5.968499e+001  5.524017e+000 
3434375000  -6.011616e+001  -1.277419e+001 
3437500000  -6.673740e+001  -1.482008e+001 
3440625000  -6.152030e+001  -3.026746e+001 
3443750000  -6.266703e+001  -3.590121e+001 
3446875000  -6.174589e+001  -5.602431e+001 
3450000000  -6.329048e+001  -8.185581e+001 
3453125000  -6.274133e+001  -7.234511e+001 
3456250000  -6.813610e+001  -1.053935e+002 
3459375000  -6.091796e+001  -6.974565e+001 
3462500000  -6.710160e+001  -1.006589e+002 
3465625000  -6.858822e+001  -1.137153e+002 
3468750000  -6.724281e+001  -1.266024e+002 
3471875000  -6.881693e+001  -1.022128e+002 
3475000000  -6.774356e+001  -1.154441e+002 
3478125000  -6.999973e+001  -1.332822e+002 
3481250000  -7.398483e+001  -1.668468e+002 
3484375000  -6.710390e+001  -1.272674e+002 
3487500000  -6.574293e+001  -1.309918e+002 
3490625000  -6.518945e+001  -1.412590e+002 
3493750000  -6.951338e+001  -1.454726e+002 
3496875000  -7.016946e+001  -1.678301e+002 
3500000000  -6.908618e+001  -1.667282e+002 
3503125000  -6.821844e+001  -1.526586e+002 
3506250000  -6.459116e+001  -1.573867e+002 
3509375000  -6.428496e+001  1.736350e+002 
3512500000  -6.544902e+001  1.544341e+002 
3515625000  -6.990131e+001  1.542361e+002 
3518750000  -6.694464e+001  1.355125e+002 
3521875000  -7.051192e+001  1.320543e+002 
3525000000  -6.470564e+001  1.227303e+002 
3528125000  -6.491390e+001  1.197217e+002 
3531250000  -6.801483e+001  9.832280e+001 
3534375000  -7.093507e+001  8.589961e+001 
3537500000  -7.054645e+001  8.348291e+001 
3540625000  -7.178607e+001  2.941330e+001 
3543750000  -8.387746e+001  1.312258e+002 
3546875000  -7.352975e+001  5.163316e+001 
3550000000  -6.709195e+001  6.079058e+001 
3553125000  -6.632735e+001  9.168325e+000 
3556250000  -7.106884e+001  -1.955672e+000 
3559375000  -6.470739e+001  2.172034e+001 
3562500000  -7.264291e+001  -4.704209e+000 
3565625000  -7.385560e+001  6.453769e+001 
3568750000  -7.589725e+001  7.170375e+001 
3571875000  -6.991779e+001  1.238405e+001 
3575000000  -7.085101e+001  -4.137455e+001 
3578125000  -6.758611e+001  2.372403e+001 
3581250000  -7.358788e+001  -3.957121e+001 
3584375000  -7.076759e+001  -2.125405e+001 
3587500000  -7.135558e+001  -3.648140e+001 
3590625000  -7.043388e+001  2.571939e+001 
3593750000  -6.564760e+001  6.829289e+000 
3596875000  -6.741418e+001  2.540732e+001 
3600000000  -6.150460e+001  -1.143051e+001 
3603125000  -6.381270e+001  -5.099913e-001 
3606250000  -6.540750e+001  -3.816819e+001 
3609375000  -6.598771e+001  -4.208419e+001 
3612500000  -6.545297e+001  -6.621997e+001 
3615625000  -6.935590e+001  -5.724077e+001 
3618750000  -6.450710e+001  -6.541286e+001 
3621875000  -6.676370e+001  -6.379863e+001 
3625000000  -6.370985e+001  -6.685889e+001 
3628125000  -6.454993e+001  -1.132045e+002 
3631250000  -6.137930e+001  -1.004091e+002 
3634375000  -7.283795e+001  -1.073648e+002 
3637500000  -6.484814e+001  -1.127123e+002 
3640625000  -6.554187e+001  -1.326577e+002 
3643750000  -6.364006e+001  -1.595390e+002 
3646875000  -6.124744e+001  -1.646101e+002 
3650000000  -6.730666e+001  1.770033e+002 
3653125000  -6.208725e+001  -1.714445e+002 
3656250000  -6.207926e+001  1.641684e+002 
3659375000  -6.512004e+001  1.636417e+002 
3662500000  -6.448958e+001  1.450698e+002 
3665625000  -6.199588e+001  1.405280e+002 
3668750000  -6.055078e+001  1.036672e+002 
3671875000  -6.200431e+001  1.121597e+002 
3675000000  -6.438325e+001  8.771159e+001 
3678125000  -6.925965e+001  1.079643e+002 
3681250000  -6.293697e+001  1.100244e+002 
3684375000  -6.764403e+001  9.206188e+001 
3687500000  -6.704173e+001  6.949435e+001 
3690625000  -6.342541e+001  5.159173e+001 
3693750000  -6.960423e+001  6.863486e+001 
3696875000  -6.641204e+001  7.062209e+001 
3700000000  -6.699682e+001  4.824532e+001 
3703125000  -7.160865e+001  3.464952e+001 
3706250000  -6.447501e+001  6.192990e+001 
3709375000  -6.401116e+001  5.595880e+001 
3712500000  -6.432227e+001  4.159561e+001 
3715625000  -6.109684e+001  3.548372e+001 
3718750000  -6.106569e+001  2.636987e+001 
3721875000  -6.067013e+001  1.596758e+001 
3725000000  -6.352182e+001  2.525634e-001 
3728125000  -6.030167e+001  -3.096914e+000 
3731250000  -6.183391e+001  4.115076e+000 
3734375000  -5.667285e+001  -2.123463e+001 
3737500000  -5.864310e+001  -4.242480e+001 
3740625000  -5.821326e+001  -4.374105e+001 
3743750000  -5.965016e+001  -5.269448e+001 
3746875000  -5.719197e+001  -7.294427e+001 
3750000000  -5.830161e+001  -8.990976e+001 
3753125000  -5.867549e+001  -7.920026e+001 
3756250000  -5.787091e+001  -9.894662e+001 
3759375000  -5.998897e+001  -1.097916e+002 
3762500000  -5.710737e+001  -1.174072e+002 
3765625000  -5.990961e+001  -1.262319e+002 
3768750000  -5.745000e+001  -1.340372e+002 
3771875000  -5.746409e+001  -1.464696e+002 
3775000000  -5.530561e+001  -1.561572e+002 
3778125000  -5.727109e+001  1.749514e+002 
3781250000  -5.732076e+001  -1.745788e+002 
3784375000  -5.765975e+001  1.776061e+002 
3787500000  -5.677142e+001  1.499868e+002 
3790625000  -5.631659e+001  1.359927e+002 
3793750000  -5.790644e+001  1.223445e+002 
3796875000  -5.733255e+001  1.299988e+002 
3800000000  -5.286359e+001  8.068954e+001 
3803125000  -5.844115e+001  9.693175e+001 
3806250000  -5.955134e+001  7.518365e+001 
3809375000  -6.026096e+001  9.278931e+001 
3812500000  -6.082027e+001  6.765804e+001 
3815625000  -6.315388e+001  4.014023e+001 
3818750000  -6.317030e+001  3.550299e+001 
3821875000  -6.162286e+001  4.260609e+001 
3825000000  -5.866483e+001  5.845497e+001 
3828125000  -5.937346e+001  2.832953e+001 
3831250000  -6.064701e+001  8.813209e-001 
3834375000  -6.310822e+001  -1.479880e+001 
3837500000  -6.473775e+001  3.079546e+001 
3840625000  -6.040148e+001  -1.164398e+000 
3843750000  -5.924323e+001  -1.108289e+001 
3846875000  -6.443419e+001  2.854133e+000 
3850000000  -6.535036e+001  1.283138e+001 
3853125000  -6.222007e+001  5.036873e+000 
3856250000  -6.044929e+001  -2.007475e+001 
3859375000  -5.870926e+001  -2.448844e+001 
3862500000  -5.929553e+001  -2.311504e+001 
3865625000  -5.894415e+001  -5.195672e+001 
3868750000  -6.036753e+001  -4.746909e+001 
3871875000  -5.715644e+001  -6.478380e+001 
3875000000  -6.035938e+001  -8.408809e+001 
3878125000  -5.703264e+001  -7.024343e+001 
3881250000  -5.894028e+001  -7.736037e+001 
3884375000  -5.542720e+001  -9.310799e+001 
3887500000  -5.686042e+001  -1.198541e+002 
3890625000  -5.721033e+001  -1.167534e+002 
3893750000  -5.710526e+001  -1.262405e+002 
3896875000  -5.672556e+001  -1.273285e+002 
3900000000  -5.521896e+001  -1.527634e+002 
3903125000  -5.642949e+001  -1.518763e+002 
3906250000  -5.324729e+001  -1.686710e+002 
3909375000  -5.339621e+001  1.777347e+002 
3912500000  -5.458174e+001  1.592215e+002 
3915625000  -5.618316e+001  1.585828e+002 
3918750000  -5.401956e+001  1.559258e+002 
3921875000  -5.457081e+001  1.398447e+002 
3925000000  -5.268989e+001  1.254678e+002 
3928125000  -5.297442e+001  1.066408e+002 
3931250000  -5.469075e+001  1.016885e+002 
3934375000  -5.483622e+001  8.313778e+001 
3937500000  -5.603593e+001  7.892427e+001 
3940625000  -5.435867e+001  6.881487e+001 
3943750000  -5.387090e+001  7.311379e+001 
3946875000  -5.298204e+001  5.064198e+001 
3950000000  -5.405532e+001  4.015713e+001 
3953125000  -5.488052e+001  3.902010e+001 
3956250000  -5.208600e+001  2.882837e+001 
3959375000  -5.207367e+001  9.902514e+000 
3962500000  -5.276155e+001  -4.360271e+000 
3965625000  -5.449897e+001  -1.996771e+001 
3968750000  -5.292653e+001  -2.918760e+001 
3971875000  -5.338379e+001  -3.662445e+001 
3975000000  -5.352985e+001  -6.409493e+001 
3978125000  -5.497789e+001  -6.051390e+001 
3981250000  -5.536689e+001  -7.179364e+001 
3984375000  -5.579584e+001  -8.189703e+001 
3987500000  -5.577581e+001  -9.381499e+001 
3990625000  -5.651778e+001  -9.826064e+001 
3993750000  -5.703209e+001  -1.128275e+002 
3996875000  -5.674475e+001  -1.289561e+002 
4000000000  -6.163484e+001  -1.164623e+002 
4003125000  -5.996943e+001  -1.314102e+002 
4006250000  -5.807470e+001  -1.335877e+002 
4009375000  -5.944273e+001  -1.552301e+002 
4012500000  -6.024286e+001  -1.708503e+002 
4015625000  -5.971683e+001  -1.652046e+002 
4018750000  -6.096252e+001  -1.770571e+002 
4021875000  -5.980183e+001  -1.709396e+002 
4025000000  -6.295659e+001  1.627885e+002 
4028125000  -6.013556e+001  -1.780439e+002 
4031250000  -6.100435e+001  1.689339e+002 
4034375000  -5.983039e+001  1.782912e+002 
4037500000  -5.806604e+001  1.484604e+002 
4040625000  -5.889140e+001  1.573297e+002 
4043750000  -6.064611e+001  1.350043e+002 
4046875000  -5.618817e+001  1.358403e+002 
4050000000  -5.644928e+001  1.226144e+002 
4053125000  -5.872581e+001  1.231034e+002 
4056250000  -5.833118e+001  1.126234e+002 
4059375000  -5.600116e+001  1.098094e+002 
4062500000  -5.501334e+001  1.135624e+002 
4065625000  -5.339138e+001  8.680840e+001 
4068750000  -5.459249e+001  7.020678e+001 
4071875000  -5.357645e+001  6.467857e+001 
4075000000  -5.300488e+001  4.312870e+001 
4078125000  -5.349104e+001  4.175450e+001 
4081250000  -5.365317e+001  2.574232e+001 
4084375000  -5.283239e+001  1.653784e+001 
4087500000  -5.353099e+001  -1.041863e+001 
4090625000  -5.417265e+001  4.283656e+000 
4093750000  -5.352383e+001  -1.891936e+001 
4096875000  -5.329107e+001  -3.065813e+001 
4100000000  -5.414531e+001  -4.754877e+001 
4103125000  -5.437069e+001  -4.696472e+001 
4106250000  -5.378578e+001  -5.845475e+001 
4109375000  -5.341599e+001  -5.919014e+001 
4112500000  -5.259950e+001  -8.240386e+001 
4115625000  -5.344093e+001  -9.661362e+001 
4118750000  -5.238308e+001  -1.043988e+002 
4121875000  -5.389269e+001  -1.168883e+002 
4125000000  -5.382854e+001  -1.285830e+002 
4128125000  -5.407628e+001  -1.294130e+002 
4131250000  -5.256824e+001  -1.262581e+002 
4134375000  -5.131306e+001  -1.578542e+002 
4137500000  -5.183979e+001  -1.757230e+002 
4140625000  -5.505851e+001  1.694190e+002 
4143750000  -5.698550e+001  1.720063e+002 
4146875000  -5.394282e+001  1.742240e+002 
4150000000  -5.397887e+001  1.503804e+002 
4153125000  -5.315096e+001  1.337463e+002 
4156250000  -5.578268e+001  1.236103e+002 
4159375000  -5.712542e+001  1.285504e+002 
4162500000  -5.492204e+001  1.070683e+002 
4165625000  -5.426332e+001  1.005312e+002 
4168750000  -5.403203e+001  8.582487e+001 
4171875000  -5.498214e+001  8.144604e+001 
4175000000  -5.510072e+001  6.060817e+001 
4178125000  -5.696667e+001  6.812472e+001 
4181250000  -5.773458e+001  4.799051e+001 
4184375000  -6.143332e+001  2.585330e+001 
4187500000  -5.865721e+001  2.824382e+001 
4190625000  -6.017017e+001  6.803805e+000 
4193750000  -5.914247e+001  7.286561e+000 
4196875000  -6.739307e+001  -3.926673e+000 
4200000000  -6.469594e+001  2.615488e+001 
4203125000  -6.219336e+001  1.233755e+001 
4206250000  -6.002811e+001  2.366665e+001 
4209375000  -6.339301e+001  -2.554092e+000 
4212500000  -6.311910e+001  -1.278268e+001 
4215625000  -6.359903e+001  -1.894925e+001 
4218750000  -6.184479e+001  -4.216449e+000 
4221875000  -5.990990e+001  -1.110165e+001 
4225000000  -6.180152e+001  -1.787255e+001 
4228125000  -5.843770e+001  -2.380818e+001 
4231250000  -5.939820e+001  -9.213554e+000 
4234375000  -5.810263e+001  -4.530012e+001 
4237500000  -5.709850e+001  -4.364224e+001 
4240625000  -5.855171e+001  -7.279625e+001 
4243750000  -5.849783e+001  -6.346501e+001 
4246875000  -5.724929e+001  -7.857690e+001 
4250000000  -5.821329e+001  -8.309296e+001 
4253125000  -5.473118e+001  -9.293810e+001 
4256250000  -5.622946e+001  -1.063167e+002 
4259375000  -5.377047e+001  -1.105347e+002 
4262500000  -5.535900e+001  -1.284155e+002 
4265625000  -5.394620e+001  -1.263033e+002 
4268750000  -5.238609e+001  -1.451460e+002 
4271875000  -5.160856e+001  -1.480602e+002 
4275000000  -5.146879e+001  -1.727367e+002 
4278125000  -5.345039e+001  1.672240e+002 
4281250000  -5.277450e+001  1.643465e+002 
4284375000  -5.394080e+001  1.585804e+002 
4287500000  -5.454101e+001  1.334337e+002 
4290625000  -5.648584e+001  1.516572e+002 
4293750000  -5.345428e+001  1.529144e+002 
4296875000  -5.200209e+001  1.152865e+002 
4300000000  -5.166427e+001  1.011989e+002 
4303125000  -5.331971e+001  9.366914e+001 
4306250000  -5.343925e+001  9.911643e+001 
4309375000  -5.168848e+001  7.709124e+001 
4312500000  -5.144073e+001  6.721854e+001 
4315625000  -5.074133e+001  5.098706e+001 
4318750000  -5.417005e+001  3.764115e+001 
4321875000  -5.191909e+001  4.266793e+001 
4325000000  -5.314835e+001  2.298165e+001 
4328125000  -5.147948e+001  9.922605e+000 
4331250000  -5.375689e+001  -2.699133e+000 
4334375000  -5.487084e+001  -1.745248e+001 
4337500000  -5.413269e+001  -3.211999e+001 
4340625000  -5.542622e+001  -2.118036e+001 
4343750000  -5.478181e+001  -3.965499e+001 
4346875000  -5.458615e+001  -4.477568e+001 
4350000000  -5.470430e+001  -6.994451e+001 
4353125000  -5.585606e+001  -7.347298e+001 
4356250000  -5.689433e+001  -5.194490e+001 
4359375000  -6.019025e+001  -5.546978e+001 
4362500000  -5.419055e+001  -7.348994e+001 
4365625000  -5.533371e+001  -1.000098e+002 
4368750000  -5.704796e+001  -1.035167e+002 
4371875000  -5.706606e+001  -1.102269e+002 
4375000000  -5.615641e+001  -1.047399e+002 
4378125000  -5.684394e+001  -1.390927e+002 
4381250000  -5.588887e+001  -1.248262e+002 
4384375000  -5.869490e+001  -1.476528e+002 
4387500000  -5.807129e+001  -1.435000e+002 
4390625000  -5.668879e+001  -1.530451e+002 
4393750000  -5.770529e+001  -1.482262e+002 
4396875000  -5.557510e+001  -1.607928e+002 
4400000000  -5.549804e+001  1.752931e+002 
4403125000  -5.484013e+001  1.743567e+002 
4406250000  -5.780657e+001  1.649868e+002 
4409375000  -5.663708e+001  1.657517e+002 
4412500000  -5.669612e+001  1.676985e+002 
4415625000  -5.647116e+001  1.610736e+002 
4418750000  -5.455624e+001  1.501844e+002 
