!Agilent Technologies,E8363B,MY43030201,A.06.04.32
!Agilent E8363B: A.06.04.32
!Date: Tuesday, November 11, 2014 22:14:10
!Correction: S21(Response(S21)) 
!S1P File: Measurement: S21:
# Hz S  dB   R 50
3000000000  -4.895389e+001  -7.542436e+001 
3003125000  -5.117100e+001  -8.062490e+001 
3006250000  -5.105764e+001  -8.636925e+001 
3009375000  -5.222949e+001  -8.693658e+001 
3012500000  -5.084586e+001  -1.004178e+002 
3015625000  -5.147698e+001  -1.075594e+002 
3018750000  -5.165146e+001  -1.179158e+002 
3021875000  -4.959384e+001  -1.181896e+002 
3025000000  -4.895056e+001  -1.285426e+002 
3028125000  -4.790099e+001  -1.434109e+002 
3031250000  -4.738132e+001  -1.601199e+002 
3034375000  -4.694503e+001  -1.791787e+002 
3037500000  -4.805273e+001  1.640399e+002 
3040625000  -4.941183e+001  1.508691e+002 
3043750000  -4.955961e+001  1.441432e+002 
3046875000  -5.064420e+001  1.333769e+002 
3050000000  -5.108237e+001  1.219373e+002 
3053125000  -5.037045e+001  1.257197e+002 
3056250000  -5.084221e+001  1.197235e+002 
3059375000  -5.068283e+001  1.086761e+002 
3062500000  -4.936258e+001  9.909724e+001 
3065625000  -4.883493e+001  8.966147e+001 
3068750000  -4.917794e+001  7.405110e+001 
3071875000  -4.871523e+001  6.924950e+001 
3075000000  -4.845335e+001  5.651522e+001 
3078125000  -4.877651e+001  4.784723e+001 
3081250000  -4.873977e+001  3.205096e+001 
3084375000  -4.813846e+001  2.677815e+001 
3087500000  -4.848946e+001  1.173290e+001 
3090625000  -4.807093e+001  -4.454513e+000 
3093750000  -4.883367e+001  -1.464230e+001 
3096875000  -4.898600e+001  -2.298887e+001 
3100000000  -4.885534e+001  -3.315734e+001 
3103125000  -4.968793e+001  -4.046710e+001 
3106250000  -4.935289e+001  -5.215941e+001 
3109375000  -4.953212e+001  -6.076041e+001 
3112500000  -4.979801e+001  -6.804957e+001 
3115625000  -4.938662e+001  -7.955503e+001 
3118750000  -4.910703e+001  -8.279214e+001 
3121875000  -4.957368e+001  -1.016200e+002 
3125000000  -5.091768e+001  -1.122410e+002 
3128125000  -5.069680e+001  -1.100725e+002 
3131250000  -4.808120e+001  -1.153488e+002 
3134375000  -4.797263e+001  -1.416333e+002 
3137500000  -4.852208e+001  -1.522577e+002 
3140625000  -4.928572e+001  -1.628990e+002 
3143750000  -5.039110e+001  -1.711935e+002 
3146875000  -4.970142e+001  -1.668434e+002 
3150000000  -4.937348e+001  -1.792371e+002 
3153125000  -4.900483e+001  1.694263e+002 
3156250000  -5.004761e+001  1.639590e+002 
3159375000  -4.795238e+001  1.603468e+002 
3162500000  -4.631269e+001  1.376978e+002 
3165625000  -4.768172e+001  1.229654e+002 
3168750000  -4.782505e+001  1.145808e+002 
3171875000  -4.703954e+001  1.041621e+002 
3175000000  -4.760655e+001  8.928438e+001 
3178125000  -4.722775e+001  8.458019e+001 
3181250000  -4.670083e+001  6.828225e+001 
3184375000  -4.643594e+001  5.126587e+001 
3187500000  -4.767204e+001  3.726024e+001 
3190625000  -4.919560e+001  2.264078e+001 
3193750000  -4.982068e+001  2.621863e+001 
3196875000  -4.968462e+001  1.776776e+001 
3200000000  -4.808227e+001  9.570767e+000 
3203125000  -4.835917e+001  -4.578887e+000 
3206250000  -4.835744e+001  -1.640952e+001 
3209375000  -4.825758e+001  -3.161969e+001 
3212500000  -4.869915e+001  -3.982674e+001 
3215625000  -4.816669e+001  -4.204995e+001 
3218750000  -4.863610e+001  -6.490970e+001 
3221875000  -4.925637e+001  -7.649690e+001 
3225000000  -4.962999e+001  -8.622778e+001 
3228125000  -4.982653e+001  -9.613543e+001 
3231250000  -5.105544e+001  -1.001432e+002 
3234375000  -4.989469e+001  -1.063830e+002 
3237500000  -4.963885e+001  -1.185363e+002 
3240625000  -5.017319e+001  -1.303216e+002 
3243750000  -5.006789e+001  -1.487862e+002 
3246875000  -5.031784e+001  -1.511556e+002 
3250000000  -5.087418e+001  -1.635254e+002 
3253125000  -5.108015e+001  -1.733502e+002 
3256250000  -5.020056e+001  1.774742e+002 
3259375000  -5.148552e+001  1.624584e+002 
3262500000  -5.193349e+001  1.496128e+002 
3265625000  -5.338164e+001  1.495373e+002 
3268750000  -5.300578e+001  1.433380e+002 
3271875000  -5.276810e+001  1.376341e+002 
3275000000  -5.224426e+001  1.250724e+002 
3278125000  -5.302216e+001  1.080103e+002 
3281250000  -5.330515e+001  1.070595e+002 
3284375000  -5.186657e+001  9.759991e+001 
3287500000  -5.353401e+001  9.292414e+001 
3290625000  -5.291447e+001  7.269850e+001 
3293750000  -5.323741e+001  5.882207e+001 
3296875000  -5.338067e+001  4.901950e+001 
3300000000  -5.407180e+001  4.997512e+001 
3303125000  -5.369381e+001  4.539392e+001 
3306250000  -5.351357e+001  2.385703e+001 
3309375000  -5.221380e+001  1.596650e+001 
3312500000  -5.314298e+001  7.048594e-001 
3315625000  -5.452672e+001  -4.214949e+000 
3318750000  -5.696508e+001  -1.789050e+001 
3321875000  -5.686139e+001  -2.903489e+001 
3325000000  -5.782475e+001  -1.650112e+001 
3328125000  -5.582938e+001  -2.089592e+001 
3331250000  -5.368587e+001  -2.553946e+001 
3334375000  -5.207417e+001  -4.716870e+001 
3337500000  -5.268047e+001  -6.828052e+001 
3340625000  -5.427834e+001  -8.744176e+001 
3343750000  -5.563966e+001  -8.520468e+001 
3346875000  -5.601621e+001  -9.224056e+001 
3350000000  -5.461477e+001  -9.605318e+001 
3353125000  -5.442748e+001  -1.134201e+002 
3356250000  -5.450267e+001  -1.302130e+002 
3359375000  -5.593493e+001  -1.432562e+002 
3362500000  -5.577116e+001  -1.469451e+002 
3365625000  -5.609821e+001  -1.598364e+002 
3368750000  -5.833773e+001  -1.793726e+002 
3371875000  -5.626706e+001  -1.753833e+002 
3375000000  -6.052775e+001  1.609306e+002 
3378125000  -5.879452e+001  1.728602e+002 
3381250000  -5.946341e+001  1.678567e+002 
3384375000  -5.670464e+001  -1.676604e+002 
3387500000  -5.446452e+001  1.509656e+002 
3390625000  -5.598431e+001  1.350248e+002 
3393750000  -5.792225e+001  1.199247e+002 
3396875000  -5.672405e+001  1.186338e+002 
3400000000  -5.444235e+001  9.356821e+001 
3403125000  -5.774862e+001  9.119969e+001 
3406250000  -5.774009e+001  8.075341e+001 
3409375000  -5.815279e+001  4.526940e+001 
3412500000  -5.663194e+001  4.942922e+001 
3415625000  -6.127306e+001  4.745810e+001 
3418750000  -5.897809e+001  4.418081e+001 
3421875000  -5.926227e+001  2.931137e+001 
3425000000  -5.833467e+001  2.569353e+001 
3428125000  -5.872911e+001  4.712356e+000 
3431250000  -6.058109e+001  -1.551116e+001 
3434375000  -5.779037e+001  -1.317348e+001 
3437500000  -6.199271e+001  -2.530523e+001 
3440625000  -6.089418e+001  -2.656235e+001 
3443750000  -6.108820e+001  -3.152405e+001 
3446875000  -6.366887e+001  -4.980002e+001 
3450000000  -6.155151e+001  -6.888219e+001 
3453125000  -6.322062e+001  -7.186585e+001 
3456250000  -6.414986e+001  -8.944588e+001 
3459375000  -6.319131e+001  -7.638780e+001 
3462500000  -6.813021e+001  -1.074018e+002 
3465625000  -6.645043e+001  -1.103254e+002 
3468750000  -6.432647e+001  -1.144709e+002 
3471875000  -6.740492e+001  -9.346343e+001 
3475000000  -6.667078e+001  -1.244233e+002 
3478125000  -6.448038e+001  -1.078746e+002 
3481250000  -7.298742e+001  -1.596040e+002 
3484375000  -6.761836e+001  -9.593620e+001 
3487500000  -6.542623e+001  -1.291034e+002 
3490625000  -6.691582e+001  -1.267813e+002 
3493750000  -7.549113e+001  -1.316212e+002 
3496875000  -6.861468e+001  -1.716138e+002 
3500000000  -7.061133e+001  -1.793508e+002 
3503125000  -6.646154e+001  1.611278e+002 
3506250000  -6.904302e+001  -1.636493e+002 
3509375000  -6.471159e+001  -1.787356e+002 
3512500000  -6.727338e+001  1.679089e+002 
3515625000  -6.664602e+001  1.412755e+002 
3518750000  -6.564491e+001  1.325320e+002 
3521875000  -7.056924e+001  -1.775231e+002 
3525000000  -6.438932e+001  1.324149e+002 
3528125000  -6.793597e+001  1.027490e+002 
3531250000  -6.598136e+001  1.136235e+002 
3534375000  -6.707182e+001  8.407656e+001 
3537500000  -7.230993e+001  7.041876e+001 
3540625000  -7.093311e+001  1.946003e+001 
3543750000  -7.422897e+001  5.269882e+001 
3546875000  -6.576164e+001  4.302521e+001 
3550000000  -7.477272e+001  9.221021e+001 
3553125000  -6.761071e+001  4.920260e+001 
3556250000  -7.854861e+001  8.049740e+000 
3559375000  -6.966549e+001  4.301127e+001 
3562500000  -7.057928e+001  6.027315e+001 
3565625000  -7.283112e+001  7.544653e+001 
3568750000  -7.966962e+001  1.454924e+002 
3571875000  -7.018604e+001  4.898024e+001 
3575000000  -7.438874e+001  7.062967e+001 
3578125000  -6.636919e+001  6.077307e+001 
3581250000  -7.320409e+001  7.717947e+001 
3584375000  -6.697724e+001  7.119566e+001 
3587500000  -7.351765e+001  -2.670412e+001 
3590625000  -6.783598e+001  1.539598e+001 
3593750000  -6.787752e+001  -4.079448e+001 
3596875000  -6.555249e+001  4.000873e+001 
3600000000  -6.348825e+001  3.788697e+000 
3603125000  -6.550026e+001  -5.521114e+000 
3606250000  -6.616901e+001  -2.194269e+001 
3609375000  -6.693995e+001  -5.325703e+001 
3612500000  -6.478619e+001  -6.697005e+001 
3615625000  -6.684954e+001  -5.701122e+001 
3618750000  -6.468810e+001  -6.716055e+001 
3621875000  -6.401755e+001  -6.936314e+001 
3625000000  -6.524972e+001  -5.733411e+001 
3628125000  -6.548721e+001  -1.202806e+002 
3631250000  -6.384356e+001  -1.314462e+002 
3634375000  -6.884055e+001  -1.323368e+002 
3637500000  -6.579457e+001  -1.036259e+002 
3640625000  -6.331388e+001  -1.453394e+002 
3643750000  -6.138028e+001  -1.431635e+002 
3646875000  -6.196260e+001  -1.675154e+002 
3650000000  -6.271568e+001  -1.799006e+002 
3653125000  -6.478085e+001  1.736602e+002 
3656250000  -6.284553e+001  1.751407e+002 
3659375000  -6.597921e+001  1.514336e+002 
3662500000  -6.603855e+001  1.497455e+002 
3665625000  -6.390330e+001  1.529338e+002 
3668750000  -6.478602e+001  1.148580e+002 
3671875000  -6.353262e+001  1.360524e+002 
3675000000  -6.484367e+001  1.178556e+002 
3678125000  -6.158024e+001  1.068388e+002 
3681250000  -6.254092e+001  9.260494e+001 
3684375000  -6.787271e+001  7.984245e+001 
3687500000  -6.623637e+001  6.836971e+001 
3690625000  -6.916473e+001  7.980301e+001 
3693750000  -6.886172e+001  8.203284e+001 
3696875000  -6.442520e+001  7.390302e+001 
3700000000  -6.296422e+001  6.364941e+001 
3703125000  -6.591326e+001  3.732073e+001 
3706250000  -6.274628e+001  7.233789e+001 
3709375000  -7.526788e+001  3.465258e+001 
3712500000  -6.583719e+001  5.485571e+001 
3715625000  -6.272511e+001  5.049207e+001 
3718750000  -6.083279e+001  2.324996e+001 
3721875000  -6.320505e+001  2.219212e+001 
3725000000  -6.249600e+001  1.406388e+001 
3728125000  -6.028467e+001  3.096941e+001 
3731250000  -6.220506e+001  -1.911038e+001 
3734375000  -6.208681e+001  -2.824244e+001 
3737500000  -5.817666e+001  -4.213828e+001 
3740625000  -5.707110e+001  -3.258707e+001 
3743750000  -5.940101e+001  -5.152367e+001 
3746875000  -6.001758e+001  -5.227996e+001 
3750000000  -5.838128e+001  -7.648457e+001 
3753125000  -5.819807e+001  -8.742533e+001 
3756250000  -5.703062e+001  -9.188422e+001 
3759375000  -5.773059e+001  -9.844594e+001 
3762500000  -5.655484e+001  -1.094390e+002 
3765625000  -5.880103e+001  -1.187362e+002 
3768750000  -5.830247e+001  -1.334835e+002 
3771875000  -5.574013e+001  -1.356502e+002 
3775000000  -5.718360e+001  -1.598190e+002 
3778125000  -5.716374e+001  1.787588e+002 
3781250000  -5.761074e+001  1.701420e+002 
3784375000  -5.664608e+001  1.706429e+002 
3787500000  -5.805254e+001  1.472820e+002 
3790625000  -5.542576e+001  1.384064e+002 
3793750000  -5.740948e+001  1.347900e+002 
3796875000  -5.660797e+001  1.283722e+002 
3800000000  -5.337029e+001  7.713665e+001 
3803125000  -5.570068e+001  9.748095e+001 
3806250000  -6.083848e+001  7.636273e+001 
3809375000  -5.949012e+001  8.985079e+001 
3812500000  -5.708298e+001  6.095999e+001 
3815625000  -6.259006e+001  4.183546e+001 
3818750000  -6.426141e+001  5.363646e+001 
3821875000  -6.288625e+001  4.575411e+001 
3825000000  -5.861610e+001  5.023290e+001 
3828125000  -5.820234e+001  2.295353e+001 
3831250000  -6.092556e+001  9.418105e-001 
3834375000  -6.297502e+001  -9.363743e+000 
3837500000  -6.703017e+001  1.518022e+001 
3840625000  -6.178022e+001  -6.472661e+000 
3843750000  -6.028101e+001  -2.218819e+001 
3846875000  -6.508649e+001  -6.000710e-002 
3850000000  -6.195408e+001  1.963777e+001 
3853125000  -6.498178e+001  -1.039729e+001 
3856250000  -6.086611e+001  -1.015687e+001 
3859375000  -5.857813e+001  -3.570659e+001 
3862500000  -6.218615e+001  -3.137274e+001 
3865625000  -5.963828e+001  -4.819162e+001 
3868750000  -5.784407e+001  -5.711246e+001 
3871875000  -5.688346e+001  -6.086166e+001 
3875000000  -5.980154e+001  -6.730723e+001 
3878125000  -5.867488e+001  -7.403095e+001 
3881250000  -5.771117e+001  -9.698856e+001 
3884375000  -5.541477e+001  -9.524427e+001 
3887500000  -5.514378e+001  -1.151251e+002 
3890625000  -5.676077e+001  -1.247751e+002 
3893750000  -5.592226e+001  -1.285069e+002 
3896875000  -5.713017e+001  -1.269971e+002 
3900000000  -5.634232e+001  -1.396422e+002 
3903125000  -5.489903e+001  -1.589328e+002 
3906250000  -5.416402e+001  -1.745844e+002 
3909375000  -5.503336e+001  1.781117e+002 
3912500000  -5.413315e+001  1.703354e+002 
3915625000  -5.673102e+001  1.620062e+002 
3918750000  -5.452344e+001  1.550251e+002 
3921875000  -5.441856e+001  1.396977e+002 
3925000000  -5.308161e+001  1.270747e+002 
3928125000  -5.291428e+001  1.055988e+002 
3931250000  -5.413990e+001  1.018242e+002 
3934375000  -5.384694e+001  9.571735e+001 
3937500000  -5.654057e+001  8.382548e+001 
3940625000  -5.465139e+001  6.867925e+001 
3943750000  -5.321510e+001  6.850475e+001 
3946875000  -5.468030e+001  5.577508e+001 
3950000000  -5.542309e+001  3.597234e+001 
3953125000  -5.448976e+001  4.143560e+001 
3956250000  -5.372910e+001  2.603623e+001 
3959375000  -5.158067e+001  1.790489e+001 
3962500000  -5.283498e+001  5.064808e+000 
3965625000  -5.385110e+001  -1.682136e+001 
3968750000  -5.369871e+001  -2.813215e+001 
3971875000  -5.422014e+001  -3.833991e+001 
3975000000  -5.431946e+001  -5.600249e+001 
3978125000  -5.426051e+001  -5.180106e+001 
3981250000  -5.520080e+001  -8.220721e+001 
3984375000  -5.480759e+001  -7.707516e+001 
3987500000  -5.502314e+001  -9.353815e+001 
3990625000  -5.846885e+001  -9.702850e+001 
3993750000  -5.880222e+001  -1.221393e+002 
3996875000  -5.596571e+001  -1.211622e+002 
4000000000  -5.999732e+001  -1.307492e+002 
4003125000  -5.901303e+001  -1.204431e+002 
4006250000  -5.723960e+001  -1.301018e+002 
4009375000  -5.732515e+001  -1.561651e+002 
4012500000  -5.981377e+001  -1.631701e+002 
4015625000  -5.934981e+001  -1.608428e+002 
4018750000  -5.885649e+001  -1.539742e+002 
4021875000  -5.936312e+001  -1.796706e+002 
4025000000  -5.884242e+001  1.634977e+002 
4028125000  -6.157801e+001  1.672110e+002 
4031250000  -5.981628e+001  1.585123e+002 
4034375000  -6.111142e+001  1.730303e+002 
4037500000  -5.859707e+001  1.528187e+002 
4040625000  -5.931203e+001  1.506550e+002 
4043750000  -5.850801e+001  1.552687e+002 
4046875000  -5.780268e+001  1.396837e+002 
4050000000  -5.631853e+001  1.239500e+002 
4053125000  -5.789741e+001  1.078619e+002 
4056250000  -5.883904e+001  1.194046e+002 
4059375000  -5.533101e+001  1.130580e+002 
4062500000  -5.422577e+001  1.033547e+002 
4065625000  -5.317947e+001  8.476581e+001 
4068750000  -5.509528e+001  8.148847e+001 
4071875000  -5.205679e+001  5.903103e+001 
4075000000  -5.430825e+001  4.659321e+001 
4078125000  -5.397949e+001  3.898806e+001 
4081250000  -5.270148e+001  2.456956e+001 
4084375000  -5.226667e+001  1.092927e+001 
4087500000  -5.430236e+001  -4.841479e-001 
4090625000  -5.395931e+001  -7.426545e+000 
4093750000  -5.371320e+001  -2.424545e+001 
4096875000  -5.215728e+001  -2.780164e+001 
4100000000  -5.558879e+001  -4.114330e+001 
4103125000  -5.521795e+001  -4.156103e+001 
4106250000  -5.322277e+001  -5.735060e+001 
4109375000  -5.223648e+001  -5.964948e+001 
4112500000  -5.243832e+001  -7.527727e+001 
4115625000  -5.288531e+001  -8.762586e+001 
4118750000  -5.176840e+001  -9.891945e+001 
4121875000  -5.313279e+001  -1.231925e+002 
4125000000  -5.340091e+001  -1.214161e+002 
4128125000  -5.349560e+001  -1.359403e+002 
4131250000  -5.275274e+001  -1.213268e+002 
4134375000  -5.093944e+001  -1.552134e+002 
4137500000  -5.235152e+001  -1.660534e+002 
4140625000  -5.181260e+001  1.739281e+002 
4143750000  -5.661164e+001  1.645915e+002 
4146875000  -5.300335e+001  1.717285e+002 
4150000000  -5.542976e+001  1.503661e+002 
4153125000  -5.455550e+001  1.436377e+002 
4156250000  -5.590665e+001  1.302004e+002 
4159375000  -5.585799e+001  1.323264e+002 
4162500000  -5.581628e+001  1.342968e+002 
4165625000  -5.426467e+001  1.144603e+002 
4168750000  -5.617720e+001  9.693079e+001 
4171875000  -5.546383e+001  8.579935e+001 
4175000000  -5.508772e+001  6.455709e+001 
4178125000  -5.699755e+001  7.190720e+001 
4181250000  -5.765800e+001  4.697402e+001 
4184375000  -6.072349e+001  3.354618e+001 
4187500000  -5.977903e+001  1.926239e+001 
4190625000  -6.312445e+001  1.893373e+001 
4193750000  -6.037011e+001  1.544925e+001 
4196875000  -6.358574e+001  6.946933e+000 
4200000000  -6.326195e+001  1.723938e+001 
4203125000  -6.173468e+001  4.428395e+001 
4206250000  -6.165142e+001  6.274723e+000 
4209375000  -6.027897e+001  -5.967853e-001 
4212500000  -6.233696e+001  2.018060e+001 
4215625000  -6.150416e+001  -1.064931e+001 
4218750000  -6.025395e+001  5.283457e+000 
4221875000  -6.057949e+001  -1.936087e+001 
4225000000  -6.051464e+001  -5.143561e+000 
4228125000  -5.922454e+001  -1.896228e+001 
4231250000  -5.786230e+001  -2.299785e+001 
4234375000  -5.680249e+001  -3.939665e+001 
4237500000  -5.696913e+001  -4.278120e+001 
4240625000  -5.534083e+001  -6.734549e+001 
4243750000  -5.844996e+001  -7.773356e+001 
4246875000  -5.785053e+001  -8.308403e+001 
4250000000  -5.737605e+001  -8.314281e+001 
4253125000  -5.600162e+001  -8.630471e+001 
4256250000  -5.799910e+001  -1.034578e+002 
4259375000  -5.511654e+001  -9.869160e+001 
4262500000  -5.535161e+001  -1.257988e+002 
4265625000  -5.326468e+001  -1.264979e+002 
4268750000  -5.247959e+001  -1.402573e+002 
4271875000  -5.206651e+001  -1.520426e+002 
4275000000  -5.208205e+001  -1.769533e+002 
4278125000  -5.334848e+001  1.672771e+002 
4281250000  -5.284434e+001  1.567099e+002 
4284375000  -5.367945e+001  1.626036e+002 
4287500000  -5.391029e+001  1.516329e+002 
4290625000  -5.591925e+001  1.402451e+002 
4293750000  -5.409713e+001  1.453701e+002 
4296875000  -5.171642e+001  1.251072e+002 
4300000000  -5.286609e+001  1.082382e+002 
4303125000  -5.442856e+001  1.006009e+002 
4306250000  -5.203886e+001  1.007525e+002 
4309375000  -5.150845e+001  7.944033e+001 
4312500000  -5.163596e+001  7.146198e+001 
4315625000  -5.169022e+001  4.941822e+001 
4318750000  -5.443002e+001  4.571784e+001 
4321875000  -5.252583e+001  4.009092e+001 
4325000000  -5.279728e+001  2.877347e+001 
4328125000  -5.101502e+001  1.175020e+001 
4331250000  -5.356914e+001  -1.941664e+000 
4334375000  -5.365672e+001  -9.758606e+000 
4337500000  -5.650312e+001  -2.610370e+001 
4340625000  -5.543518e+001  -2.160739e+001 
4343750000  -5.617195e+001  -3.530944e+001 
4346875000  -5.584128e+001  -4.028271e+001 
4350000000  -5.481353e+001  -6.274148e+001 
4353125000  -5.623328e+001  -6.618306e+001 
4356250000  -5.757756e+001  -5.330111e+001 
4359375000  -5.903902e+001  -4.652541e+001 
4362500000  -5.541144e+001  -5.720371e+001 
4365625000  -5.409517e+001  -9.609207e+001 
4368750000  -5.567445e+001  -9.871892e+001 
4371875000  -5.733379e+001  -1.316191e+002 
4375000000  -5.462769e+001  -1.147344e+002 
4378125000  -5.630255e+001  -1.245057e+002 
4381250000  -5.644042e+001  -1.362870e+002 
4384375000  -5.568670e+001  -1.438073e+002 
4387500000  -5.684719e+001  -1.410099e+002 
4390625000  -5.794454e+001  -1.531869e+002 
4393750000  -5.928410e+001  -1.388493e+002 
4396875000  -5.572737e+001  -1.605153e+002 
4400000000  -5.593711e+001  1.739686e+002 
4403125000  -5.579524e+001  1.784391e+002 
4406250000  -5.885650e+001  1.739890e+002 
4409375000  -5.681755e+001  1.752491e+002 
4412500000  -5.715350e+001  1.590362e+002 
4415625000  -5.587723e+001  1.617068e+002 
4418750000  -5.504087e+001  1.525956e+002 
