!Agilent Technologies,E8363B,MY43030201,A.06.04.32
!Agilent E8363B: A.06.04.32
!Date: Tuesday, November 11, 2014 22:09:32
!Correction: S21(Response(S21)) 
!S1P File: Measurement: S21:
# Hz S  dB   R 50
3000000000  -4.906258e+001  -7.648863e+001 
3003125000  -5.198689e+001  -8.224371e+001 
3006250000  -5.126808e+001  -9.013130e+001 
3009375000  -5.195545e+001  -8.861487e+001 
3012500000  -5.133152e+001  -1.011748e+002 
3015625000  -5.180929e+001  -1.100447e+002 
3018750000  -5.162650e+001  -1.145948e+002 
3021875000  -5.008973e+001  -1.180823e+002 
3025000000  -4.894960e+001  -1.302505e+002 
3028125000  -4.824940e+001  -1.471987e+002 
3031250000  -4.692242e+001  -1.631587e+002 
3034375000  -4.713574e+001  1.774140e+002 
3037500000  -4.805358e+001  1.644419e+002 
3040625000  -4.907811e+001  1.500410e+002 
3043750000  -4.985295e+001  1.376836e+002 
3046875000  -5.112962e+001  1.283663e+002 
3050000000  -5.099640e+001  1.201948e+002 
3053125000  -5.116653e+001  1.205373e+002 
3056250000  -5.139195e+001  1.210807e+002 
3059375000  -5.023357e+001  1.106834e+002 
3062500000  -4.884951e+001  9.943051e+001 
3065625000  -4.921711e+001  8.766309e+001 
3068750000  -4.926122e+001  7.247226e+001 
3071875000  -4.979837e+001  6.690660e+001 
3075000000  -4.861130e+001  5.607586e+001 
3078125000  -4.871463e+001  4.377187e+001 
3081250000  -4.873193e+001  3.245142e+001 
3084375000  -4.811294e+001  2.621568e+001 
3087500000  -4.846630e+001  1.112762e+001 
3090625000  -4.808316e+001  -4.436348e+000 
3093750000  -4.903335e+001  -1.717898e+001 
3096875000  -4.984615e+001  -2.663528e+001 
3100000000  -4.969978e+001  -3.824188e+001 
3103125000  -4.989622e+001  -4.109720e+001 
3106250000  -4.934619e+001  -5.200283e+001 
3109375000  -4.951189e+001  -6.430993e+001 
3112500000  -4.952876e+001  -7.156592e+001 
3115625000  -4.878295e+001  -8.088941e+001 
3118750000  -4.990970e+001  -8.561690e+001 
3121875000  -4.898633e+001  -1.048706e+002 
3125000000  -5.090852e+001  -1.101143e+002 
3128125000  -5.017445e+001  -1.054793e+002 
3131250000  -4.840231e+001  -1.195403e+002 
3134375000  -4.781199e+001  -1.413922e+002 
3137500000  -4.892941e+001  -1.552132e+002 
3140625000  -4.956401e+001  -1.647334e+002 
3143750000  -5.068667e+001  -1.722954e+002 
3146875000  -4.981542e+001  -1.731439e+002 
3150000000  -4.922730e+001  1.799356e+002 
3153125000  -4.955073e+001  1.640378e+002 
3156250000  -5.018429e+001  1.613140e+002 
3159375000  -4.764715e+001  1.541920e+002 
3162500000  -4.624545e+001  1.343918e+002 
3165625000  -4.728408e+001  1.179112e+002 
3168750000  -4.740679e+001  1.135852e+002 
3171875000  -4.679639e+001  1.025497e+002 
3175000000  -4.764979e+001  8.819118e+001 
3178125000  -4.737428e+001  8.242480e+001 
3181250000  -4.690104e+001  6.313738e+001 
3184375000  -4.616420e+001  4.989658e+001 
3187500000  -4.784850e+001  3.051221e+001 
3190625000  -4.929660e+001  1.909853e+001 
3193750000  -5.026169e+001  1.635608e+001 
3196875000  -4.937024e+001  1.803643e+001 
3200000000  -4.847962e+001  6.037121e+000 
3203125000  -4.807603e+001  -7.589745e+000 
3206250000  -4.864724e+001  -1.684590e+001 
3209375000  -4.818304e+001  -3.241482e+001 
3212500000  -4.930816e+001  -4.063172e+001 
3215625000  -4.817398e+001  -4.725874e+001 
3218750000  -4.904736e+001  -6.765278e+001 
3221875000  -4.910050e+001  -7.655460e+001 
3225000000  -4.951427e+001  -8.630767e+001 
3228125000  -5.000564e+001  -9.749992e+001 
3231250000  -5.085866e+001  -1.070011e+002 
3234375000  -5.035868e+001  -1.118664e+002 
3237500000  -4.981401e+001  -1.201964e+002 
3240625000  -4.998153e+001  -1.297667e+002 
3243750000  -4.987951e+001  -1.492841e+002 
3246875000  -5.012919e+001  -1.569371e+002 
3250000000  -5.101079e+001  -1.708948e+002 
3253125000  -5.095579e+001  -1.759174e+002 
3256250000  -5.020454e+001  1.720544e+002 
3259375000  -5.088995e+001  1.577889e+002 
3262500000  -5.265929e+001  1.495611e+002 
3265625000  -5.249675e+001  1.456901e+002 
3268750000  -5.342056e+001  1.386805e+002 
3271875000  -5.281638e+001  1.340502e+002 
3275000000  -5.204680e+001  1.180910e+002 
3278125000  -5.236398e+001  1.055891e+002 
3281250000  -5.307882e+001  1.045432e+002 
3284375000  -5.230233e+001  9.093581e+001 
3287500000  -5.303606e+001  7.889725e+001 
3290625000  -5.294503e+001  6.933289e+001 
3293750000  -5.306982e+001  6.048289e+001 
3296875000  -5.442020e+001  4.622176e+001 
3300000000  -5.417896e+001  4.608213e+001 
3303125000  -5.338760e+001  3.512146e+001 
3306250000  -5.328694e+001  2.251149e+001 
3309375000  -5.315429e+001  1.362554e+001 
3312500000  -5.296828e+001  -4.010863e+000 
3315625000  -5.427678e+001  -1.581530e+001 
3318750000  -5.581252e+001  -2.339365e+001 
3321875000  -5.831945e+001  -1.374098e+001 
3325000000  -5.875235e+001  -2.646061e+001 
3328125000  -5.608559e+001  -3.195709e+001 
3331250000  -5.347272e+001  -2.725334e+001 
3334375000  -5.163754e+001  -5.334141e+001 
3337500000  -5.116004e+001  -7.041277e+001 
3340625000  -5.364117e+001  -9.195545e+001 
3343750000  -5.612321e+001  -8.314481e+001 
3346875000  -5.559221e+001  -9.834415e+001 
3350000000  -5.458033e+001  -9.793447e+001 
3353125000  -5.377546e+001  -1.172509e+002 
3356250000  -5.525338e+001  -1.303627e+002 
3359375000  -5.415463e+001  -1.468826e+002 
3362500000  -5.657329e+001  -1.534576e+002 
3365625000  -5.504885e+001  -1.683900e+002 
3368750000  -5.752558e+001  -1.744591e+002 
3371875000  -5.659743e+001  1.765512e+002 
3375000000  -5.782539e+001  1.627078e+002 
3378125000  -5.781927e+001  1.683182e+002 
3381250000  -5.950557e+001  1.587027e+002 
3384375000  -5.725553e+001  1.796864e+002 
3387500000  -5.450110e+001  1.477088e+002 
3390625000  -5.634292e+001  1.322608e+002 
3393750000  -5.680769e+001  1.284614e+002 
3396875000  -5.574455e+001  1.197538e+002 
3400000000  -5.495805e+001  1.002475e+002 
3403125000  -5.705449e+001  7.595583e+001 
3406250000  -5.704438e+001  7.753233e+001 
3409375000  -5.760967e+001  5.712077e+001 
3412500000  -5.807081e+001  4.552644e+001 
3415625000  -5.991928e+001  4.433955e+001 
3418750000  -5.967327e+001  3.835215e+001 
3421875000  -6.062316e+001  2.398290e+001 
3425000000  -5.871862e+001  2.885905e+001 
3428125000  -5.981681e+001  5.973883e+000 
3431250000  -6.143310e+001  -7.645336e+000 
3434375000  -5.981807e+001  -1.924976e+001 
3437500000  -6.268484e+001  -2.154966e+001 
3440625000  -6.048805e+001  -2.770774e+001 
3443750000  -6.163047e+001  -2.344291e+001 
3446875000  -5.867861e+001  -3.812790e+001 
3450000000  -6.031672e+001  -8.187973e+001 
3453125000  -6.410870e+001  -7.724952e+001 
3456250000  -6.846157e+001  -9.345484e+001 
3459375000  -7.158138e+001  -9.189342e+001 
3462500000  -6.483931e+001  -1.161172e+002 
3465625000  -6.997323e+001  -1.095244e+002 
3468750000  -6.811012e+001  -1.067612e+002 
3471875000  -6.437576e+001  -1.176345e+002 
3475000000  -6.440018e+001  -1.396216e+002 
3478125000  -6.825085e+001  -1.274070e+002 
3481250000  -7.085250e+001  -1.413082e+002 
3484375000  -6.727122e+001  -1.572005e+002 
3487500000  -6.476417e+001  -1.520573e+002 
3490625000  -6.850386e+001  -1.474553e+002 
3493750000  -7.245761e+001  -1.452928e+002 
3496875000  -7.535529e+001  -1.252599e+002 
3500000000  -7.063137e+001  1.775044e+002 
3503125000  -6.608424e+001  -1.645702e+002 
3506250000  -6.681425e+001  -1.680359e+002 
3509375000  -6.370459e+001  1.588389e+002 
3512500000  -6.739388e+001  1.578099e+002 
3515625000  -6.628256e+001  1.354093e+002 
3518750000  -6.324783e+001  1.326082e+002 
3521875000  -6.428062e+001  1.258260e+002 
3525000000  -6.921411e+001  1.028862e+002 
3528125000  -6.962171e+001  1.138662e+002 
3531250000  -6.418581e+001  1.240227e+002 
3534375000  -6.877822e+001  1.216176e+002 
3537500000  -6.658034e+001  9.030698e+001 
3540625000  -6.970657e+001  8.512285e+001 
3543750000  -8.468155e+001  3.690393e+001 
3546875000  -6.952955e+001  6.508163e+001 
3550000000  -6.942841e+001  1.387518e+002 
3553125000  -6.974545e+001  4.355843e+001 
3556250000  -7.310030e+001  3.731166e+001 
3559375000  -6.794896e+001  4.436405e+000 
3562500000  -7.397026e+001  5.220356e+000 
3565625000  -6.993962e+001  -3.626437e+001 
3568750000  -7.274155e+001  3.075192e+001 
3571875000  -7.157129e+001  3.327453e+001 
3575000000  -7.196391e+001  1.952222e+001 
3578125000  -7.278661e+001  5.951979e+001 
3581250000  -9.043441e+001  -5.966150e+001 
3584375000  -7.041563e+001  6.835281e+001 
3587500000  -7.459341e+001  4.905011e-001 
3590625000  -6.794288e+001  4.881660e+001 
3593750000  -6.869844e+001  1.838707e+001 
3596875000  -6.703938e+001  3.065378e+001 
3600000000  -6.531023e+001  -1.987265e+001 
3603125000  -7.025752e+001  -1.201247e+001 
3606250000  -6.369738e+001  -3.576866e+001 
3609375000  -6.436903e+001  -5.153779e+001 
3612500000  -6.546691e+001  -3.945720e+001 
3615625000  -6.537206e+001  -5.597352e+001 
3618750000  -6.304237e+001  -6.269773e+001 
3621875000  -6.357621e+001  -8.658604e+001 
3625000000  -6.296888e+001  -8.902926e+001 
3628125000  -6.391349e+001  -1.163889e+002 
3631250000  -6.318874e+001  -1.083634e+002 
3634375000  -6.603722e+001  -1.454530e+002 
3637500000  -6.356758e+001  -1.172445e+002 
3640625000  -6.151588e+001  -1.166143e+002 
3643750000  -6.187666e+001  -1.503390e+002 
3646875000  -6.031542e+001  -1.720546e+002 
3650000000  -6.222972e+001  1.781771e+002 
3653125000  -6.403879e+001  1.714701e+002 
3656250000  -6.368554e+001  1.621826e+002 
3659375000  -6.235880e+001  1.541160e+002 
3662500000  -6.497478e+001  1.441031e+002 
3665625000  -6.481753e+001  1.584670e+002 
3668750000  -6.304902e+001  1.323501e+002 
3671875000  -6.553741e+001  1.195666e+002 
3675000000  -6.622698e+001  9.674722e+001 
3678125000  -6.466676e+001  1.059407e+002 
3681250000  -6.244228e+001  9.975561e+001 
3684375000  -7.127689e+001  9.193107e+001 
3687500000  -6.292907e+001  6.895747e+001 
3690625000  -7.281525e+001  7.888599e+001 
3693750000  -6.440323e+001  8.976548e+001 
3696875000  -6.784633e+001  8.373134e+001 
3700000000  -6.615554e+001  8.417858e+001 
3703125000  -6.308504e+001  3.223945e+001 
3706250000  -6.465436e+001  6.928020e+001 
3709375000  -6.489133e+001  5.423575e+001 
3712500000  -6.544872e+001  6.504125e+001 
3715625000  -6.287635e+001  4.239799e+001 
3718750000  -6.144158e+001  2.362358e+001 
3721875000  -6.163349e+001  5.775544e+000 
3725000000  -6.302179e+001  2.103839e+001 
3728125000  -5.915106e+001  8.326110e-001 
3731250000  -5.971793e+001  -1.743485e+001 
3734375000  -5.933204e+001  -2.352446e+001 
3737500000  -5.877688e+001  -3.655089e+001 
3740625000  -5.892250e+001  -3.825863e+001 
3743750000  -5.839756e+001  -5.951270e+001 
3746875000  -5.838032e+001  -6.407697e+001 
3750000000  -5.775585e+001  -8.706478e+001 
3753125000  -5.966302e+001  -8.863150e+001 
3756250000  -5.764306e+001  -9.398523e+001 
3759375000  -5.827645e+001  -1.204270e+002 
3762500000  -5.673394e+001  -1.199789e+002 
3765625000  -5.960909e+001  -1.352043e+002 
3768750000  -5.836433e+001  -1.370802e+002 
3771875000  -5.552515e+001  -1.486916e+002 
3775000000  -5.605813e+001  -1.621456e+002 
3778125000  -5.693428e+001  1.763232e+002 
3781250000  -5.736256e+001  -1.788046e+002 
3784375000  -5.707466e+001  1.578720e+002 
3787500000  -5.751656e+001  1.426938e+002 
3790625000  -5.952243e+001  1.362874e+002 
3793750000  -5.714495e+001  1.392852e+002 
3796875000  -5.695796e+001  1.170223e+002 
3800000000  -5.293579e+001  8.159191e+001 
3803125000  -5.918177e+001  9.845364e+001 
3806250000  -5.958764e+001  6.972071e+001 
3809375000  -5.826139e+001  7.201250e+001 
3812500000  -5.885759e+001  6.447996e+001 
3815625000  -6.060310e+001  4.426598e+001 
3818750000  -6.024609e+001  2.363397e+001 
3821875000  -6.323205e+001  6.454383e+001 
3825000000  -5.981844e+001  3.977005e+001 
3828125000  -5.797123e+001  2.786220e+001 
3831250000  -5.972726e+001  1.210430e+001 
3834375000  -6.345607e+001  5.362438e+000 
3837500000  -6.259654e+001  2.442994e+001 
3840625000  -6.126186e+001  5.965231e+000 
3843750000  -5.861694e+001  4.350559e+000 
3846875000  -6.764737e+001  -8.987011e+000 
3850000000  -6.235438e+001  -3.002137e+000 
3853125000  -6.546603e+001  -7.059380e+000 
3856250000  -6.071463e+001  -1.222590e+001 
3859375000  -6.000046e+001  -2.989020e+001 
3862500000  -6.089159e+001  -4.783275e+001 
3865625000  -5.952443e+001  -5.750129e+001 
3868750000  -5.911818e+001  -3.847188e+001 
3871875000  -5.643607e+001  -7.518586e+001 
3875000000  -5.858743e+001  -7.377728e+001 
3878125000  -5.975251e+001  -8.411634e+001 
3881250000  -5.803531e+001  -9.238346e+001 
3884375000  -5.581822e+001  -9.618724e+001 
3887500000  -5.613399e+001  -1.196975e+002 
3890625000  -5.526691e+001  -1.135563e+002 
3893750000  -5.610651e+001  -1.277567e+002 
3896875000  -5.605721e+001  -1.363027e+002 
3900000000  -5.679324e+001  -1.403124e+002 
3903125000  -5.342461e+001  -1.621850e+002 
3906250000  -5.330534e+001  -1.741441e+002 
3909375000  -5.392680e+001  1.695509e+002 
3912500000  -5.377137e+001  1.578853e+002 
3915625000  -5.696889e+001  1.482304e+002 
3918750000  -5.634650e+001  1.375699e+002 
3921875000  -5.396820e+001  1.385137e+002 
3925000000  -5.382798e+001  1.353909e+002 
3928125000  -5.334058e+001  1.131714e+002 
3931250000  -5.361852e+001  1.005441e+002 
3934375000  -5.350163e+001  8.313824e+001 
3937500000  -5.608103e+001  8.467276e+001 
3940625000  -5.410938e+001  7.453671e+001 
3943750000  -5.337698e+001  6.908413e+001 
3946875000  -5.335611e+001  4.801278e+001 
3950000000  -5.539993e+001  2.997615e+001 
3953125000  -5.403025e+001  3.342560e+001 
3956250000  -5.480048e+001  1.543480e+001 
3959375000  -5.211012e+001  8.946170e+000 
3962500000  -5.375362e+001  -8.820000e+000 
3965625000  -5.353579e+001  -1.622653e+001 
3968750000  -5.424831e+001  -3.797725e+001 
3971875000  -5.425449e+001  -4.621741e+001 
3975000000  -5.369287e+001  -5.914611e+001 
3978125000  -5.393747e+001  -7.099967e+001 
3981250000  -5.581435e+001  -8.073951e+001 
3984375000  -5.482191e+001  -7.875230e+001 
3987500000  -5.510944e+001  -9.515279e+001 
3990625000  -5.768802e+001  -1.071613e+002 
3993750000  -5.697830e+001  -1.155008e+002 
3996875000  -5.803487e+001  -1.382020e+002 
4000000000  -6.089365e+001  -1.326116e+002 
4003125000  -5.865720e+001  -1.346598e+002 
4006250000  -5.888460e+001  -1.516424e+002 
4009375000  -5.692038e+001  -1.521579e+002 
4012500000  -5.960164e+001  -1.515731e+002 
4015625000  -6.046412e+001  -1.743469e+002 
4018750000  -5.822829e+001  -1.770830e+002 
4021875000  -6.042222e+001  1.749173e+002 
4025000000  -5.951037e+001  1.599610e+002 
4028125000  -5.986398e+001  1.700984e+002 
4031250000  -5.738677e+001  1.680091e+002 
4034375000  -6.026564e+001  1.691677e+002 
4037500000  -5.871702e+001  1.536841e+002 
4040625000  -5.861668e+001  1.298671e+002 
4043750000  -5.765619e+001  1.431025e+002 
4046875000  -5.721753e+001  1.220978e+002 
4050000000  -5.967125e+001  1.153367e+002 
4053125000  -5.776975e+001  1.169975e+002 
4056250000  -5.813207e+001  1.068770e+002 
4059375000  -5.751180e+001  1.155369e+002 
4062500000  -5.559450e+001  9.964396e+001 
4065625000  -5.565609e+001  8.333086e+001 
4068750000  -5.440515e+001  6.610941e+001 
4071875000  -5.273939e+001  5.848885e+001 
4075000000  -5.276316e+001  4.232285e+001 
4078125000  -5.298402e+001  4.400466e+001 
4081250000  -5.314354e+001  2.593134e+001 
4084375000  -5.276901e+001  7.317570e+000 
4087500000  -5.385908e+001  -6.110727e+000 
4090625000  -5.293089e+001  -8.562772e+000 
4093750000  -5.287179e+001  -2.107843e+001 
4096875000  -5.303398e+001  -3.349332e+001 
4100000000  -5.497927e+001  -5.796092e+001 
4103125000  -5.595349e+001  -4.566513e+001 
4106250000  -5.411630e+001  -6.574480e+001 
4109375000  -5.186079e+001  -6.940359e+001 
4112500000  -5.258300e+001  -8.328934e+001 
4115625000  -5.452850e+001  -9.466627e+001 
4118750000  -5.160402e+001  -1.015650e+002 
4121875000  -5.264285e+001  -1.179381e+002 
4125000000  -5.277649e+001  -1.255361e+002 
4128125000  -5.455505e+001  -1.390179e+002 
4131250000  -5.437010e+001  -1.267174e+002 
4134375000  -4.998649e+001  -1.512453e+002 
4137500000  -5.201005e+001  -1.743334e+002 
4140625000  -5.393296e+001  1.777954e+002 
4143750000  -5.686658e+001  1.593322e+002 
4146875000  -5.430539e+001  1.569556e+002 
4150000000  -5.454767e+001  1.644444e+002 
4153125000  -5.515331e+001  1.402375e+002 
4156250000  -5.637864e+001  1.322141e+002 
4159375000  -5.435457e+001  1.264320e+002 
4162500000  -5.599287e+001  1.145129e+002 
4165625000  -5.457399e+001  1.055892e+002 
4168750000  -5.468228e+001  9.005067e+001 
4171875000  -5.668204e+001  7.849861e+001 
4175000000  -5.669711e+001  5.206020e+001 
4178125000  -5.674804e+001  5.820029e+001 
4181250000  -5.715269e+001  3.154490e+001 
4184375000  -5.765702e+001  2.235414e+001 
4187500000  -5.814812e+001  1.992973e+001 
4190625000  -6.099295e+001  3.372545e+001 
4193750000  -6.236195e+001  7.944758e+000 
4196875000  -6.361974e+001  -3.025438e+000 
4200000000  -6.093487e+001  2.930602e+001 
4203125000  -6.253313e+001  9.841311e+000 
4206250000  -5.776194e+001  2.557896e+001 
4209375000  -6.211312e+001  8.687408e+000 
4212500000  -6.377144e+001  -4.477587e+000 
4215625000  -6.308262e+001  -1.488244e+001 
4218750000  -6.257581e+001  6.612407e+000 
4221875000  -6.426626e+001  -4.855829e+001 
4225000000  -6.056973e+001  -1.500198e+001 
4228125000  -6.139213e+001  -3.649897e+001 
4231250000  -6.032053e+001  -1.340670e+001 
4234375000  -5.928105e+001  -4.621014e+001 
4237500000  -5.965051e+001  -5.751775e+001 
4240625000  -5.700798e+001  -7.182343e+001 
4243750000  -5.757193e+001  -6.735871e+001 
4246875000  -5.740006e+001  -7.995128e+001 
4250000000  -5.597978e+001  -9.152328e+001 
4253125000  -5.456044e+001  -9.296835e+001 
4256250000  -5.595217e+001  -1.074379e+002 
4259375000  -5.482227e+001  -1.075985e+002 
4262500000  -5.454901e+001  -1.291502e+002 
4265625000  -5.425116e+001  -1.143445e+002 
4268750000  -5.236617e+001  -1.454622e+002 
4271875000  -5.283538e+001  -1.581575e+002 
4275000000  -5.225400e+001  1.796736e+002 
4278125000  -5.384237e+001  1.639528e+002 
4281250000  -5.329029e+001  1.627241e+002 
4284375000  -5.348462e+001  1.488484e+002 
4287500000  -5.412238e+001  1.433006e+002 
4290625000  -5.576219e+001  1.464670e+002 
4293750000  -5.260803e+001  1.376111e+002 
4296875000  -5.183034e+001  1.126555e+002 
4300000000  -5.284452e+001  1.077818e+002 
4303125000  -5.313697e+001  9.936297e+001 
4306250000  -5.193140e+001  9.686817e+001 
4309375000  -5.158689e+001  7.686619e+001 
4312500000  -5.206773e+001  5.978983e+001 
4315625000  -5.153273e+001  5.303839e+001 
4318750000  -5.346444e+001  3.561604e+001 
4321875000  -5.322165e+001  3.811916e+001 
4325000000  -5.361319e+001  2.350388e+001 
4328125000  -5.170138e+001  1.408232e+001 
4331250000  -5.335616e+001  -1.460221e+001 
4334375000  -5.387340e+001  -2.362062e+001 
4337500000  -5.582704e+001  -2.984327e+001 
4340625000  -5.555116e+001  -2.510268e+001 
4343750000  -5.550719e+001  -4.316322e+001 
4346875000  -5.489843e+001  -3.698352e+001 
4350000000  -5.574930e+001  -5.632618e+001 
4353125000  -5.837247e+001  -7.093426e+001 
4356250000  -5.859946e+001  -6.308089e+001 
4359375000  -5.822254e+001  -5.714324e+001 
4362500000  -5.369832e+001  -6.612115e+001 
4365625000  -5.571721e+001  -9.688148e+001 
4368750000  -5.680869e+001  -1.008363e+002 
4371875000  -6.047231e+001  -1.157984e+002 
4375000000  -5.613139e+001  -1.236210e+002 
4378125000  -5.620235e+001  -1.294025e+002 
4381250000  -5.457307e+001  -1.381003e+002 
4384375000  -5.768125e+001  -1.428107e+002 
4387500000  -5.747121e+001  -1.468557e+002 
4390625000  -5.536667e+001  -1.620885e+002 
4393750000  -5.833693e+001  -1.432334e+002 
4396875000  -5.638433e+001  -1.647820e+002 
4400000000  -5.763083e+001  -1.702894e+002 
4403125000  -5.598189e+001  1.789045e+002 
4406250000  -5.824295e+001  1.691845e+002 
4409375000  -5.489061e+001  1.582226e+002 
4412500000  -5.587642e+001  1.540544e+002 
4415625000  -5.468360e+001  1.646289e+002 
4418750000  -5.471552e+001  1.404457e+002 
