!Agilent Technologies,E8363B,MY43030201,A.06.04.32
!Agilent E8363B: A.06.04.32
!Date: Tuesday, November 11, 2014 22:12:13
!Correction: S21(Response(S21)) 
!S1P File: Measurement: S21:
# Hz S  dB   R 50
3000000000  -4.888985e+001  -7.675153e+001 
3003125000  -5.178854e+001  -8.308163e+001 
3006250000  -5.186405e+001  -8.978492e+001 
3009375000  -5.144238e+001  -8.829168e+001 
3012500000  -5.090323e+001  -9.649440e+001 
3015625000  -5.131015e+001  -1.075867e+002 
3018750000  -5.185507e+001  -1.148611e+002 
3021875000  -4.990361e+001  -1.168571e+002 
3025000000  -4.833197e+001  -1.284673e+002 
3028125000  -4.803618e+001  -1.439917e+002 
3031250000  -4.729745e+001  -1.636911e+002 
3034375000  -4.691280e+001  1.791723e+002 
3037500000  -4.776176e+001  1.691214e+002 
3040625000  -4.911716e+001  1.518068e+002 
3043750000  -4.939638e+001  1.411053e+002 
3046875000  -5.025042e+001  1.279903e+002 
3050000000  -5.197289e+001  1.223063e+002 
3053125000  -5.200091e+001  1.233819e+002 
3056250000  -5.137260e+001  1.223831e+002 
3059375000  -5.044971e+001  1.097867e+002 
3062500000  -5.000435e+001  9.984496e+001 
3065625000  -4.886772e+001  8.687148e+001 
3068750000  -4.910355e+001  7.323676e+001 
3071875000  -4.879730e+001  6.593387e+001 
3075000000  -4.869477e+001  5.665627e+001 
3078125000  -4.864518e+001  4.418505e+001 
3081250000  -4.885894e+001  3.205829e+001 
3084375000  -4.796343e+001  2.343814e+001 
3087500000  -4.812823e+001  1.437875e+001 
3090625000  -4.819746e+001  -4.818903e+000 
3093750000  -4.893578e+001  -1.579743e+001 
3096875000  -4.984696e+001  -2.799549e+001 
3100000000  -4.948281e+001  -3.344194e+001 
3103125000  -5.001387e+001  -4.204333e+001 
3106250000  -4.881744e+001  -5.308864e+001 
3109375000  -4.951676e+001  -6.261873e+001 
3112500000  -4.915894e+001  -6.718642e+001 
3115625000  -4.972018e+001  -7.933533e+001 
3118750000  -4.987549e+001  -8.789800e+001 
3121875000  -4.882921e+001  -9.937785e+001 
3125000000  -5.086489e+001  -1.067809e+002 
3128125000  -5.075369e+001  -1.058457e+002 
3131250000  -4.868752e+001  -1.202694e+002 
3134375000  -4.811486e+001  -1.398683e+002 
3137500000  -4.851047e+001  -1.600370e+002 
3140625000  -4.983149e+001  -1.612412e+002 
3143750000  -5.083600e+001  -1.686172e+002 
3146875000  -5.010246e+001  -1.744198e+002 
3150000000  -4.905961e+001  1.753477e+002 
3153125000  -4.875576e+001  1.630132e+002 
3156250000  -4.981155e+001  1.641512e+002 
3159375000  -4.742144e+001  1.569588e+002 
3162500000  -4.635169e+001  1.355848e+002 
3165625000  -4.776524e+001  1.190842e+002 
3168750000  -4.764911e+001  1.154729e+002 
3171875000  -4.748387e+001  1.035992e+002 
3175000000  -4.738731e+001  8.425430e+001 
3178125000  -4.769326e+001  8.445490e+001 
3181250000  -4.661896e+001  6.887997e+001 
3184375000  -4.622205e+001  5.196055e+001 
3187500000  -4.793920e+001  3.048077e+001 
3190625000  -4.947604e+001  2.073812e+001 
3193750000  -5.013782e+001  2.157140e+001 
3196875000  -4.967429e+001  2.101383e+001 
3200000000  -4.850005e+001  1.029725e+001 
3203125000  -4.828959e+001  -5.100675e+000 
3206250000  -4.872795e+001  -1.714709e+001 
3209375000  -4.805591e+001  -3.297910e+001 
3212500000  -4.829018e+001  -4.096272e+001 
3215625000  -4.773879e+001  -4.910067e+001 
3218750000  -4.923714e+001  -6.172672e+001 
3221875000  -4.934836e+001  -7.596249e+001 
3225000000  -4.950125e+001  -8.533411e+001 
3228125000  -5.045954e+001  -9.506232e+001 
3231250000  -5.064515e+001  -1.037900e+002 
3234375000  -5.046625e+001  -1.145108e+002 
3237500000  -5.062868e+001  -1.183932e+002 
3240625000  -5.007394e+001  -1.288789e+002 
3243750000  -5.000615e+001  -1.427265e+002 
3246875000  -5.044630e+001  -1.565335e+002 
3250000000  -5.111005e+001  -1.674574e+002 
3253125000  -5.160442e+001  -1.727988e+002 
3256250000  -4.979894e+001  1.760287e+002 
3259375000  -5.138618e+001  1.599073e+002 
3262500000  -5.236701e+001  1.527647e+002 
3265625000  -5.290863e+001  1.510004e+002 
3268750000  -5.279203e+001  1.421366e+002 
3271875000  -5.263073e+001  1.345355e+002 
3275000000  -5.158431e+001  1.220719e+002 
3278125000  -5.242272e+001  1.093945e+002 
3281250000  -5.370010e+001  1.053320e+002 
3284375000  -5.233707e+001  9.080464e+001 
3287500000  -5.336394e+001  8.741165e+001 
3290625000  -5.293965e+001  7.031487e+001 
3293750000  -5.323584e+001  6.259679e+001 
3296875000  -5.440865e+001  5.514243e+001 
3300000000  -5.597202e+001  5.493318e+001 
3303125000  -5.267230e+001  4.084422e+001 
3306250000  -5.334055e+001  3.015741e+001 
3309375000  -5.256722e+001  2.069435e+001 
3312500000  -5.348256e+001  -8.042834e+000 
3315625000  -5.540216e+001  -6.784175e+000 
3318750000  -5.489214e+001  -2.194752e+001 
3321875000  -5.820871e+001  -2.335099e+001 
3325000000  -5.641737e+001  -1.923935e+001 
3328125000  -5.713432e+001  -1.878726e+001 
3331250000  -5.433758e+001  -2.708801e+001 
3334375000  -5.158621e+001  -4.986323e+001 
3337500000  -5.295355e+001  -7.717854e+001 
3340625000  -5.333518e+001  -8.591747e+001 
3343750000  -5.706675e+001  -9.233076e+001 
3346875000  -5.538190e+001  -9.948528e+001 
3350000000  -5.479323e+001  -1.068400e+002 
3353125000  -5.410807e+001  -1.138825e+002 
3356250000  -5.402585e+001  -1.317482e+002 
3359375000  -5.504634e+001  -1.488033e+002 
3362500000  -5.667661e+001  -1.520346e+002 
3365625000  -5.591147e+001  -1.621481e+002 
3368750000  -5.766370e+001  -1.700122e+002 
3371875000  -5.771330e+001  1.778876e+002 
3375000000  -5.773244e+001  1.699886e+002 
3378125000  -5.938857e+001  1.748238e+002 
3381250000  -5.972438e+001  1.764233e+002 
3384375000  -5.769921e+001  1.797755e+002 
3387500000  -5.345880e+001  1.359953e+002 
3390625000  -5.653702e+001  1.302662e+002 
3393750000  -5.744001e+001  1.182936e+002 
3396875000  -5.671218e+001  1.170593e+002 
3400000000  -5.604116e+001  8.738742e+001 
3403125000  -5.712062e+001  7.605909e+001 
3406250000  -5.844832e+001  8.397766e+001 
3409375000  -5.795634e+001  6.349639e+001 
3412500000  -5.651432e+001  5.460196e+001 
3415625000  -6.008455e+001  3.215989e+001 
3418750000  -5.956122e+001  3.310870e+001 
3421875000  -6.090825e+001  2.684305e+001 
3425000000  -5.872272e+001  2.800007e+001 
3428125000  -5.920546e+001  1.176852e+001 
3431250000  -6.136552e+001  -2.807412e+000 
3434375000  -5.921581e+001  -2.162267e+001 
3437500000  -6.078082e+001  -3.957206e+001 
3440625000  -6.294786e+001  -2.079750e+001 
3443750000  -6.158294e+001  -2.051766e+001 
3446875000  -6.056968e+001  -6.804683e+001 
3450000000  -6.284947e+001  -6.753629e+001 
3453125000  -6.196267e+001  -7.814312e+001 
3456250000  -6.376892e+001  -9.858418e+001 
3459375000  -6.452866e+001  -8.112051e+001 
3462500000  -6.631621e+001  -1.072162e+002 
3465625000  -6.651996e+001  -1.114089e+002 
3468750000  -6.679967e+001  -7.788402e+001 
3471875000  -6.965552e+001  -1.213582e+002 
3475000000  -6.884902e+001  -1.132302e+002 
3478125000  -6.812600e+001  -1.419593e+002 
3481250000  -6.716996e+001  -1.338354e+002 
3484375000  -7.023290e+001  -1.189737e+002 
3487500000  -6.409129e+001  -1.331226e+002 
3490625000  -6.704822e+001  -1.111675e+002 
3493750000  -6.640912e+001  -1.486737e+002 
3496875000  -7.193434e+001  -1.443028e+002 
3500000000  -6.523730e+001  -1.639350e+002 
3503125000  -6.881338e+001  -1.615447e+002 
3506250000  -6.384936e+001  -1.783323e+002 
3509375000  -6.276824e+001  1.798088e+002 
3512500000  -7.148837e+001  1.636489e+002 
3515625000  -6.443235e+001  1.315230e+002 
3518750000  -6.443777e+001  1.266206e+002 
3521875000  -6.942420e+001  1.265243e+002 
3525000000  -6.771317e+001  1.232551e+002 
3528125000  -6.684863e+001  9.430975e+001 
3531250000  -6.753111e+001  1.454856e+002 
3534375000  -6.725874e+001  9.759761e+001 
3537500000  -6.614829e+001  8.258691e+001 
3540625000  -7.455541e+001  8.727273e+001 
3543750000  -7.661880e+001  1.236407e+002 
3546875000  -6.731237e+001  5.807374e+001 
3550000000  -6.501827e+001  1.155250e+002 
3553125000  -7.592507e+001  1.668121e+001 
3556250000  -8.789716e+001  4.117384e+001 
3559375000  -6.864076e+001  3.055471e+001 
3562500000  -7.048170e+001  4.113509e+001 
3565625000  -7.336646e+001  3.453121e+001 
3568750000  -7.779636e+001  1.626350e+002 
3571875000  -7.589304e+001  3.197645e+001 
3575000000  -6.750598e+001  4.577220e+000 
3578125000  -7.314330e+001  4.859524e+001 
3581250000  -7.142378e+001  1.112637e+002 
3584375000  -8.534264e+001  -1.238215e+002 
3587500000  -7.489793e+001  -5.934034e+000 
3590625000  -7.239899e+001  -7.827939e-001 
3593750000  -6.718320e+001  -3.568070e+001 
3596875000  -7.107786e+001  4.087201e+001 
3600000000  -6.547383e+001  -5.157778e-001 
3603125000  -7.048811e+001  1.459727e+001 
3606250000  -6.674731e+001  -3.226122e+001 
3609375000  -6.707976e+001  -2.852561e+001 
3612500000  -6.420601e+001  -6.221510e+001 
3615625000  -6.784049e+001  -5.683028e+001 
3618750000  -6.239841e+001  -6.105390e+001 
3621875000  -6.581158e+001  -8.082568e+001 
3625000000  -6.282769e+001  -6.887113e+001 
3628125000  -6.610908e+001  -1.032601e+002 
3631250000  -6.122740e+001  -1.239637e+002 
3634375000  -6.519347e+001  -1.230850e+002 
3637500000  -6.356769e+001  -1.120630e+002 
3640625000  -6.125239e+001  -1.257785e+002 
3643750000  -6.286423e+001  -1.384051e+002 
3646875000  -6.155417e+001  -1.590692e+002 
3650000000  -6.317013e+001  -1.707081e+002 
3653125000  -6.502613e+001  1.664488e+002 
3656250000  -6.621005e+001  1.617727e+002 
3659375000  -6.182619e+001  1.690681e+002 
3662500000  -6.723939e+001  1.218902e+002 
3665625000  -6.212001e+001  1.540465e+002 
3668750000  -6.401537e+001  1.224380e+002 
3671875000  -6.179904e+001  1.297518e+002 
3675000000  -6.190264e+001  9.235651e+001 
3678125000  -6.466040e+001  9.713544e+001 
3681250000  -6.212417e+001  9.906778e+001 
3684375000  -7.061129e+001  9.757549e+001 
3687500000  -6.601950e+001  6.948004e+001 
3690625000  -6.817800e+001  7.017485e+001 
3693750000  -7.143309e+001  1.183015e+002 
3696875000  -6.594112e+001  1.033905e+002 
3700000000  -6.951588e+001  8.003292e+001 
3703125000  -6.597104e+001  4.613140e+001 
3706250000  -6.430589e+001  5.258597e+001 
3709375000  -6.654265e+001  4.046133e+001 
3712500000  -6.230380e+001  5.121358e+001 
3715625000  -6.370443e+001  4.667918e+001 
3718750000  -6.299194e+001  3.386996e+001 
3721875000  -5.974519e+001  5.539704e+000 
3725000000  -6.168424e+001  1.588484e+001 
3728125000  -6.139169e+001  8.901362e+000 
3731250000  -5.925061e+001  -1.150489e+001 
3734375000  -5.772231e+001  -1.527142e+001 
3737500000  -5.979093e+001  -4.897620e+001 
3740625000  -6.048582e+001  -3.254834e+001 
3743750000  -6.000938e+001  -5.230999e+001 
3746875000  -6.108252e+001  -7.015244e+001 
3750000000  -5.819158e+001  -7.425817e+001 
3753125000  -5.899453e+001  -7.267352e+001 
3756250000  -5.680308e+001  -9.345679e+001 
3759375000  -5.615016e+001  -1.039724e+002 
3762500000  -5.740083e+001  -1.142072e+002 
3765625000  -5.974697e+001  -1.274721e+002 
3768750000  -5.881520e+001  -1.377581e+002 
3771875000  -5.547221e+001  -1.393800e+002 
3775000000  -5.603124e+001  -1.606956e+002 
3778125000  -5.657430e+001  -1.779495e+002 
3781250000  -5.796733e+001  1.702238e+002 
3784375000  -5.802771e+001  1.625939e+002 
3787500000  -5.647896e+001  1.400589e+002 
3790625000  -5.824651e+001  1.437618e+002 
3793750000  -5.814166e+001  1.212673e+002 
3796875000  -5.607668e+001  1.195581e+002 
3800000000  -5.303879e+001  8.210381e+001 
3803125000  -5.753004e+001  1.003865e+002 
3806250000  -5.948758e+001  7.042477e+001 
3809375000  -5.722293e+001  7.836300e+001 
3812500000  -5.767636e+001  6.819530e+001 
3815625000  -5.813707e+001  4.465190e+001 
3818750000  -6.279925e+001  3.655700e+001 
3821875000  -5.940588e+001  6.605325e+001 
3825000000  -5.823823e+001  5.868547e+001 
3828125000  -6.125443e+001  1.335782e+001 
3831250000  -6.086802e+001  4.520332e+000 
3834375000  -6.340574e+001  1.367210e+001 
3837500000  -6.134593e+001  1.820460e+000 
3840625000  -6.406502e+001  -1.073779e+001 
3843750000  -6.331689e+001  1.184045e+000 
3846875000  -6.495755e+001  -4.455362e+001 
3850000000  -6.444578e+001  -1.091167e+001 
3853125000  -6.307399e+001  -3.156056e+000 
3856250000  -6.245023e+001  -1.767957e+001 
3859375000  -5.797360e+001  -3.709579e+001 
3862500000  -6.066814e+001  -3.115715e+001 
3865625000  -6.024049e+001  -3.740216e+001 
3868750000  -5.724690e+001  -4.526601e+001 
3871875000  -5.816945e+001  -6.575874e+001 
3875000000  -6.078204e+001  -8.437288e+001 
3878125000  -5.694734e+001  -7.708899e+001 
3881250000  -5.754725e+001  -8.187259e+001 
3884375000  -5.663815e+001  -9.805888e+001 
3887500000  -5.818339e+001  -1.162191e+002 
3890625000  -5.612502e+001  -1.232807e+002 
3893750000  -5.643932e+001  -1.274360e+002 
3896875000  -5.807916e+001  -1.300538e+002 
3900000000  -5.627948e+001  -1.444215e+002 
3903125000  -5.542216e+001  -1.515929e+002 
3906250000  -5.247791e+001  -1.705605e+002 
3909375000  -5.402449e+001  1.715871e+002 
3912500000  -5.444716e+001  1.605364e+002 
3915625000  -5.621585e+001  1.640641e+002 
3918750000  -5.558595e+001  1.471481e+002 
3921875000  -5.608867e+001  1.445422e+002 
3925000000  -5.247823e+001  1.277545e+002 
3928125000  -5.240934e+001  1.104295e+002 
3931250000  -5.377676e+001  1.015087e+002 
3934375000  -5.351544e+001  9.162753e+001 
3937500000  -5.670539e+001  8.864701e+001 
3940625000  -5.560566e+001  7.366875e+001 
3943750000  -5.335958e+001  6.863180e+001 
3946875000  -5.367784e+001  4.142406e+001 
3950000000  -5.374283e+001  3.739321e+001 
3953125000  -5.520550e+001  3.516479e+001 
3956250000  -5.441159e+001  2.879389e+001 
3959375000  -5.169678e+001  1.665609e+001 
3962500000  -5.183464e+001  -5.636501e+000 
3965625000  -5.338330e+001  -2.595224e+001 
3968750000  -5.472545e+001  -3.105740e+001 
3971875000  -5.497911e+001  -3.999321e+001 
3975000000  -5.382497e+001  -6.234645e+001 
3978125000  -5.406042e+001  -6.532021e+001 
3981250000  -5.499496e+001  -7.414590e+001 
3984375000  -5.519507e+001  -9.211852e+001 
3987500000  -5.606100e+001  -8.669192e+001 
3990625000  -5.443729e+001  -1.040954e+002 
3993750000  -5.751939e+001  -1.261692e+002 
3996875000  -5.871126e+001  -1.326239e+002 
4000000000  -5.852336e+001  -1.280019e+002 
4003125000  -5.784463e+001  -1.360525e+002 
4006250000  -5.661549e+001  -1.364910e+002 
4009375000  -5.696342e+001  -1.573989e+002 
4012500000  -5.951427e+001  -1.467314e+002 
4015625000  -6.071710e+001  -1.662470e+002 
4018750000  -5.843628e+001  -1.729083e+002 
4021875000  -6.071106e+001  1.759292e+002 
4025000000  -5.978710e+001  1.721855e+002 
4028125000  -6.504682e+001  1.770036e+002 
4031250000  -5.905987e+001  1.781645e+002 
4034375000  -5.950565e+001  1.606399e+002 
4037500000  -5.835192e+001  1.574025e+002 
4040625000  -5.995327e+001  1.586211e+002 
4043750000  -5.777216e+001  1.436332e+002 
4046875000  -5.877834e+001  1.303117e+002 
4050000000  -5.637773e+001  1.158965e+002 
4053125000  -5.784716e+001  1.217396e+002 
4056250000  -6.024257e+001  1.035253e+002 
4059375000  -5.706414e+001  9.955711e+001 
4062500000  -5.475035e+001  1.042156e+002 
4065625000  -5.440695e+001  8.205347e+001 
4068750000  -5.612379e+001  7.667731e+001 
4071875000  -5.273403e+001  5.230661e+001 
4075000000  -5.258493e+001  4.848914e+001 
4078125000  -5.362948e+001  3.526352e+001 
4081250000  -5.353689e+001  2.487959e+001 
4084375000  -5.220123e+001  1.539384e+001 
4087500000  -5.356813e+001  -9.423610e+000 
4090625000  -5.303635e+001  -6.581977e+000 
4093750000  -5.316288e+001  -2.085076e+001 
4096875000  -5.289132e+001  -3.361137e+001 
4100000000  -5.393602e+001  -5.493914e+001 
4103125000  -5.464716e+001  -4.675187e+001 
4106250000  -5.342813e+001  -5.950116e+001 
4109375000  -5.339906e+001  -6.345182e+001 
4112500000  -5.239852e+001  -8.199159e+001 
4115625000  -5.377832e+001  -9.268287e+001 
4118750000  -5.361995e+001  -1.002351e+002 
4121875000  -5.285804e+001  -1.213319e+002 
4125000000  -5.338193e+001  -1.237394e+002 
4128125000  -5.436790e+001  -1.301844e+002 
4131250000  -5.275621e+001  -1.316188e+002 
4134375000  -5.137194e+001  -1.592651e+002 
4137500000  -5.212618e+001  -1.659848e+002 
4140625000  -5.496846e+001  1.735177e+002 
4143750000  -5.472964e+001  1.769084e+002 
4146875000  -5.501204e+001  1.671092e+002 
4150000000  -5.430519e+001  1.539233e+002 
4153125000  -5.462549e+001  1.390729e+002 
4156250000  -5.533156e+001  1.321407e+002 
4159375000  -5.520243e+001  1.318607e+002 
4162500000  -5.603556e+001  1.218712e+002 
4165625000  -5.484694e+001  1.121229e+002 
4168750000  -5.373492e+001  9.154198e+001 
4171875000  -5.558990e+001  8.206767e+001 
4175000000  -5.751317e+001  5.014175e+001 
4178125000  -5.781680e+001  6.294554e+001 
4181250000  -5.827417e+001  4.403285e+001 
4184375000  -5.962264e+001  3.503442e+001 
4187500000  -5.869496e+001  2.402033e+001 
4190625000  -6.243576e+001  2.653753e+001 
4193750000  -6.064631e+001  2.657266e+001 
4196875000  -6.490031e+001  2.879309e+000 
4200000000  -6.192511e+001  2.990373e+001 
4203125000  -6.313494e+001  2.705447e+000 
4206250000  -5.990490e+001  3.503675e+001 
4209375000  -6.022857e+001  2.175658e+000 
4212500000  -6.288176e+001  8.228564e+000 
4215625000  -6.166558e+001  -1.874682e+001 
4218750000  -6.165334e+001  2.239943e+001 
4221875000  -5.784366e+001  -4.467130e+001 
4225000000  -5.907121e+001  1.180972e+000 
4228125000  -5.920275e+001  -2.410736e+001 
4231250000  -6.154555e+001  1.532884e+000 
4234375000  -5.688507e+001  -3.842109e+001 
4237500000  -5.948014e+001  -4.256179e+001 
4240625000  -5.547934e+001  -6.126356e+001 
4243750000  -5.684621e+001  -6.398783e+001 
4246875000  -5.669540e+001  -8.165784e+001 
4250000000  -5.677477e+001  -8.454722e+001 
4253125000  -5.436613e+001  -9.598471e+001 
4256250000  -5.663863e+001  -9.726383e+001 
4259375000  -5.571701e+001  -9.967528e+001 
4262500000  -5.512592e+001  -1.196329e+002 
4265625000  -5.432716e+001  -1.200793e+002 
4268750000  -5.169849e+001  -1.478181e+002 
4271875000  -5.421499e+001  -1.620886e+002 
4275000000  -5.135598e+001  -1.762617e+002 
4278125000  -5.352563e+001  1.679875e+002 
4281250000  -5.387740e+001  1.597372e+002 
4284375000  -5.307495e+001  1.583392e+002 
4287500000  -5.408701e+001  1.559037e+002 
4290625000  -5.564711e+001  1.463668e+002 
4293750000  -5.214816e+001  1.419156e+002 
4296875000  -5.276081e+001  1.157774e+002 
4300000000  -5.195509e+001  1.088677e+002 
4303125000  -5.153522e+001  9.507684e+001 
4306250000  -5.188929e+001  9.470996e+001 
4309375000  -5.134650e+001  8.087064e+001 
4312500000  -5.109842e+001  6.730657e+001 
4315625000  -5.224561e+001  5.278811e+001 
4318750000  -5.390548e+001  4.359435e+001 
4321875000  -5.256372e+001  3.490401e+001 
4325000000  -5.266402e+001  1.952213e+001 
4328125000  -5.153911e+001  8.869018e+000 
4331250000  -5.422999e+001  1.556072e+000 
4334375000  -5.419989e+001  -9.709923e+000 
4337500000  -5.472609e+001  -3.298757e+001 
4340625000  -5.582138e+001  -2.297109e+001 
4343750000  -5.643034e+001  -2.750711e+001 
4346875000  -5.625212e+001  -4.063658e+001 
4350000000  -5.639567e+001  -6.178601e+001 
4353125000  -5.633569e+001  -8.111055e+001 
4356250000  -5.684791e+001  -8.238713e+001 
4359375000  -6.433469e+001  -4.636111e+001 
4362500000  -5.318609e+001  -7.070654e+001 
4365625000  -5.487278e+001  -8.843962e+001 
4368750000  -5.535793e+001  -9.091729e+001 
4371875000  -5.603368e+001  -1.104785e+002 
4375000000  -5.545054e+001  -1.119227e+002 
4378125000  -5.773187e+001  -1.368947e+002 
4381250000  -5.806176e+001  -1.316584e+002 
4384375000  -5.771221e+001  -1.415870e+002 
4387500000  -5.634331e+001  -1.522867e+002 
4390625000  -5.774712e+001  -1.484114e+002 
4393750000  -5.792162e+001  -1.479780e+002 
4396875000  -5.471522e+001  -1.583771e+002 
4400000000  -5.542376e+001  -1.722241e+002 
4403125000  -5.597585e+001  1.759301e+002 
4406250000  -5.904514e+001  1.611748e+002 
4409375000  -5.657174e+001  1.616873e+002 
4412500000  -5.683362e+001  1.630355e+002 
4415625000  -5.717097e+001  1.596102e+002 
4418750000  -5.480352e+001  1.484639e+002 
