!Agilent Technologies,E8363B,MY43030201,A.06.04.32
!Agilent E8363B: A.06.04.32
!Date: Tuesday, November 11, 2014 22:11:57
!Correction: S21(Response(S21)) 
!S1P File: Measurement: S21:
# Hz S  dB   R 50
3000000000  -4.865185e+001  -7.404622e+001 
3003125000  -5.098285e+001  -8.248840e+001 
3006250000  -5.164952e+001  -8.405784e+001 
3009375000  -5.239663e+001  -8.433868e+001 
3012500000  -5.070036e+001  -9.716772e+001 
3015625000  -5.140384e+001  -1.085047e+002 
3018750000  -5.138039e+001  -1.131817e+002 
3021875000  -4.969951e+001  -1.188956e+002 
3025000000  -4.848418e+001  -1.320302e+002 
3028125000  -4.791024e+001  -1.457358e+002 
3031250000  -4.722620e+001  -1.652574e+002 
3034375000  -4.716814e+001  1.797793e+002 
3037500000  -4.787022e+001  1.654576e+002 
3040625000  -4.908539e+001  1.521678e+002 
3043750000  -4.949787e+001  1.395011e+002 
3046875000  -5.014926e+001  1.266681e+002 
3050000000  -5.157087e+001  1.244022e+002 
3053125000  -5.130548e+001  1.230568e+002 
3056250000  -5.167205e+001  1.159205e+002 
3059375000  -5.066748e+001  1.084298e+002 
3062500000  -4.921060e+001  9.890160e+001 
3065625000  -4.878982e+001  8.263483e+001 
3068750000  -4.931297e+001  7.669865e+001 
3071875000  -4.923743e+001  6.631985e+001 
3075000000  -4.845573e+001  5.425296e+001 
3078125000  -4.860257e+001  4.508435e+001 
3081250000  -4.863447e+001  3.244333e+001 
3084375000  -4.804032e+001  2.719431e+001 
3087500000  -4.828967e+001  1.084909e+001 
3090625000  -4.802453e+001  -6.841951e+000 
3093750000  -4.894343e+001  -1.567603e+001 
3096875000  -4.949084e+001  -2.577447e+001 
3100000000  -4.983475e+001  -3.540219e+001 
3103125000  -4.995830e+001  -3.954270e+001 
3106250000  -4.929446e+001  -5.044899e+001 
3109375000  -4.940535e+001  -6.188312e+001 
3112500000  -4.906244e+001  -6.862998e+001 
3115625000  -4.969324e+001  -7.844882e+001 
3118750000  -4.952832e+001  -8.340417e+001 
3121875000  -4.902695e+001  -1.033488e+002 
3125000000  -5.065249e+001  -1.072791e+002 
3128125000  -5.110910e+001  -1.073031e+002 
3131250000  -4.833979e+001  -1.191336e+002 
3134375000  -4.752472e+001  -1.399233e+002 
3137500000  -4.842097e+001  -1.523355e+002 
3140625000  -4.939794e+001  -1.599535e+002 
3143750000  -5.056176e+001  -1.725893e+002 
3146875000  -4.952020e+001  -1.706327e+002 
3150000000  -4.843312e+001  1.794470e+002 
3153125000  -4.951837e+001  1.605046e+002 
3156250000  -5.058820e+001  1.622666e+002 
3159375000  -4.746992e+001  1.579878e+002 
3162500000  -4.608621e+001  1.340082e+002 
3165625000  -4.758741e+001  1.208984e+002 
3168750000  -4.774701e+001  1.141908e+002 
3171875000  -4.732275e+001  1.003082e+002 
3175000000  -4.745234e+001  8.723749e+001 
3178125000  -4.711179e+001  8.278310e+001 
3181250000  -4.640021e+001  6.620792e+001 
3184375000  -4.629598e+001  5.147417e+001 
3187500000  -4.731979e+001  3.741029e+001 
3190625000  -4.969693e+001  1.941201e+001 
3193750000  -5.015184e+001  2.001440e+001 
3196875000  -4.996077e+001  1.406810e+001 
3200000000  -4.850106e+001  5.874929e+000 
3203125000  -4.812767e+001  -4.173594e+000 
3206250000  -4.900286e+001  -1.785030e+001 
3209375000  -4.792720e+001  -3.300459e+001 
3212500000  -4.907230e+001  -4.521366e+001 
3215625000  -4.798597e+001  -4.529754e+001 
3218750000  -4.916216e+001  -6.401932e+001 
3221875000  -4.971500e+001  -7.766374e+001 
3225000000  -4.964995e+001  -8.257695e+001 
3228125000  -5.012934e+001  -9.571033e+001 
3231250000  -5.021321e+001  -1.048701e+002 
3234375000  -5.025829e+001  -1.090356e+002 
3237500000  -5.017641e+001  -1.166770e+002 
3240625000  -4.991694e+001  -1.307130e+002 
3243750000  -5.002621e+001  -1.460397e+002 
3246875000  -4.980823e+001  -1.591894e+002 
3250000000  -5.105909e+001  -1.655543e+002 
3253125000  -5.145838e+001  -1.752336e+002 
3256250000  -5.081799e+001  1.761156e+002 
3259375000  -5.163560e+001  1.623923e+002 
3262500000  -5.186628e+001  1.514558e+002 
3265625000  -5.291050e+001  1.422427e+002 
3268750000  -5.363728e+001  1.416203e+002 
3271875000  -5.294810e+001  1.313382e+002 
3275000000  -5.235103e+001  1.207725e+002 
3278125000  -5.299230e+001  1.071632e+002 
3281250000  -5.249454e+001  1.036715e+002 
3284375000  -5.160760e+001  9.581828e+001 
3287500000  -5.348007e+001  8.233354e+001 
3290625000  -5.320498e+001  7.615690e+001 
3293750000  -5.309083e+001  6.239164e+001 
3296875000  -5.393980e+001  5.561454e+001 
3300000000  -5.380841e+001  4.988846e+001 
3303125000  -5.323415e+001  3.926466e+001 
3306250000  -5.330088e+001  2.546291e+001 
3309375000  -5.324432e+001  1.340140e+001 
3312500000  -5.326808e+001  4.978631e-001 
3315625000  -5.472731e+001  -9.219804e+000 
3318750000  -5.520393e+001  -2.167125e+001 
3321875000  -5.673160e+001  -2.581364e+001 
3325000000  -5.608133e+001  -1.970531e+001 
3328125000  -5.553571e+001  -2.021944e+001 
3331250000  -5.463069e+001  -3.190543e+001 
3334375000  -5.248816e+001  -4.277518e+001 
3337500000  -5.206482e+001  -7.211345e+001 
3340625000  -5.307386e+001  -8.661736e+001 
3343750000  -5.617844e+001  -8.707446e+001 
3346875000  -5.629448e+001  -1.048451e+002 
3350000000  -5.486217e+001  -9.884597e+001 
3353125000  -5.450294e+001  -1.173022e+002 
3356250000  -5.463719e+001  -1.255933e+002 
3359375000  -5.377388e+001  -1.483683e+002 
3362500000  -5.555304e+001  -1.509705e+002 
3365625000  -5.544508e+001  -1.589559e+002 
3368750000  -5.699564e+001  -1.771310e+002 
3371875000  -5.814277e+001  1.788369e+002 
3375000000  -5.905701e+001  1.667464e+002 
3378125000  -5.919005e+001  1.595035e+002 
3381250000  -5.855426e+001  1.626169e+002 
3384375000  -5.607932e+001  1.770476e+002 
3387500000  -5.382726e+001  1.415018e+002 
3390625000  -5.708546e+001  1.254275e+002 
3393750000  -5.727493e+001  1.195260e+002 
3396875000  -5.726002e+001  1.067567e+002 
3400000000  -5.520584e+001  9.802915e+001 
3403125000  -5.658186e+001  7.762528e+001 
3406250000  -5.776638e+001  7.140065e+001 
3409375000  -5.812140e+001  6.740025e+001 
3412500000  -5.706012e+001  5.643486e+001 
3415625000  -5.996255e+001  3.964063e+001 
3418750000  -5.897922e+001  4.264096e+001 
3421875000  -6.036314e+001  1.820769e+001 
3425000000  -5.912218e+001  3.435165e+001 
3428125000  -5.963692e+001  1.179746e+001 
3431250000  -6.021228e+001  1.963825e+000 
3434375000  -5.824020e+001  -2.191079e+001 
3437500000  -6.087536e+001  -2.250778e+001 
3440625000  -5.983463e+001  -2.298595e+001 
3443750000  -6.025138e+001  -1.854813e+001 
3446875000  -5.983931e+001  -3.127427e+001 
3450000000  -6.218658e+001  -7.414467e+001 
3453125000  -6.195646e+001  -7.438866e+001 
3456250000  -6.707273e+001  -9.090578e+001 
3459375000  -6.402273e+001  -7.612128e+001 
3462500000  -6.524956e+001  -1.066259e+002 
3465625000  -6.754004e+001  -1.088039e+002 
3468750000  -6.712237e+001  -8.942522e+001 
3471875000  -6.748903e+001  -1.141086e+002 
3475000000  -6.458016e+001  -1.048661e+002 
3478125000  -6.707255e+001  -1.101886e+002 
3481250000  -7.306991e+001  1.652692e+002 
3484375000  -6.900509e+001  -1.293035e+002 
3487500000  -6.613548e+001  -1.435687e+002 
3490625000  -6.511810e+001  -1.220371e+002 
3493750000  -6.726938e+001  -1.663279e+002 
3496875000  -6.816861e+001  -1.393503e+002 
3500000000  -6.961160e+001  -1.673756e+002 
3503125000  -6.653043e+001  -1.564975e+002 
3506250000  -6.526762e+001  -1.744192e+002 
3509375000  -6.332045e+001  1.596660e+002 
3512500000  -6.698398e+001  1.668398e+002 
3515625000  -6.666603e+001  1.528490e+002 
3518750000  -6.485496e+001  1.304729e+002 
3521875000  -7.001810e+001  1.285543e+002 
3525000000  -7.395340e+001  9.995174e+001 
3528125000  -6.728725e+001  1.006965e+002 
3531250000  -6.805711e+001  1.337211e+002 
3534375000  -6.525195e+001  8.425172e+001 
3537500000  -6.955608e+001  6.605823e+001 
3540625000  -6.798920e+001  4.800887e+001 
3543750000  -7.461922e+001  1.267559e+002 
3546875000  -7.156034e+001  6.887592e+001 
3550000000  -7.339285e+001  7.880777e+001 
3553125000  -6.772727e+001  3.486092e+001 
3556250000  -7.294834e+001  1.214000e+001 
3559375000  -6.794222e+001  6.839986e+001 
3562500000  -7.868299e+001  -3.398606e+001 
3565625000  -7.019758e+001  2.574805e+001 
3568750000  -7.487987e+001  3.213430e+001 
3571875000  -7.397990e+001  -1.944249e+001 
3575000000  -7.341719e+001  -7.804867e+000 
3578125000  -6.866525e+001  3.871331e+001 
3581250000  -7.351973e+001  -8.255938e+001 
3584375000  -7.651454e+001  9.158360e+001 
3587500000  -7.826884e+001  2.817906e+001 
3590625000  -6.905452e+001  8.910587e+000 
3593750000  -7.208592e+001  -1.620065e+001 
3596875000  -9.598636e+001  -1.998763e+001 
3600000000  -6.305632e+001  -3.049083e+000 
3603125000  -6.709194e+001  7.055133e+000 
3606250000  -6.220432e+001  -3.811432e+001 
3609375000  -6.628874e+001  -5.009336e+001 
3612500000  -6.410807e+001  -3.839453e+001 
3615625000  -6.855702e+001  -5.597223e+001 
3618750000  -6.481482e+001  -5.885045e+001 
3621875000  -6.519017e+001  -1.212839e+002 
3625000000  -6.627521e+001  -8.547320e+001 
3628125000  -6.425665e+001  -1.263690e+002 
3631250000  -6.273819e+001  -1.102502e+002 
3634375000  -6.784270e+001  -1.215779e+002 
3637500000  -6.429676e+001  -1.544617e+002 
3640625000  -6.114192e+001  -1.158522e+002 
3643750000  -6.362376e+001  -1.364811e+002 
3646875000  -6.362209e+001  -1.684928e+002 
3650000000  -6.310849e+001  -1.753147e+002 
3653125000  -6.066220e+001  -1.724465e+002 
3656250000  -6.458372e+001  1.539063e+002 
3659375000  -6.365025e+001  1.572045e+002 
3662500000  -6.133356e+001  1.574681e+002 
3665625000  -6.597031e+001  1.537047e+002 
3668750000  -6.133374e+001  1.444648e+002 
3671875000  -6.824700e+001  1.335501e+002 
3675000000  -6.410938e+001  1.088147e+002 
3678125000  -6.469518e+001  9.607472e+001 
3681250000  -6.567342e+001  8.970735e+001 
3684375000  -6.931450e+001  7.581264e+001 
3687500000  -6.379695e+001  7.575050e+001 
3690625000  -6.554537e+001  5.532872e+001 
3693750000  -6.590256e+001  8.324287e+001 
3696875000  -6.690350e+001  7.086189e+001 
3700000000  -6.440458e+001  7.930201e+001 
3703125000  -6.480257e+001  3.704016e+001 
3706250000  -7.279978e+001  7.058479e+001 
3709375000  -6.440875e+001  4.858427e+001 
3712500000  -6.347779e+001  8.636839e+001 
3715625000  -6.202487e+001  2.917593e+001 
3718750000  -6.182849e+001  1.901675e+001 
3721875000  -6.071439e+001  1.396338e+001 
3725000000  -6.164080e+001  1.977861e+001 
3728125000  -5.915820e+001  1.494922e+001 
3731250000  -6.093298e+001  -1.072073e+001 
3734375000  -5.933512e+001  -2.544412e+001 
3737500000  -5.730557e+001  -2.802828e+001 
3740625000  -5.792850e+001  -3.686733e+001 
3743750000  -5.799657e+001  -5.847488e+001 
3746875000  -6.131643e+001  -5.670372e+001 
3750000000  -5.816564e+001  -8.123507e+001 
3753125000  -5.839554e+001  -8.208743e+001 
3756250000  -5.792249e+001  -9.630187e+001 
3759375000  -5.975194e+001  -9.414385e+001 
3762500000  -5.821599e+001  -1.140427e+002 
3765625000  -5.952152e+001  -1.197484e+002 
3768750000  -5.572567e+001  -1.354841e+002 
3771875000  -5.574244e+001  -1.466854e+002 
3775000000  -5.575683e+001  -1.646433e+002 
3778125000  -5.847926e+001  1.743784e+002 
3781250000  -5.801879e+001  1.633421e+002 
3784375000  -5.826108e+001  1.609066e+002 
3787500000  -5.696699e+001  1.673377e+002 
3790625000  -5.691755e+001  1.286751e+002 
3793750000  -5.896317e+001  1.234164e+002 
3796875000  -5.740112e+001  1.344151e+002 
3800000000  -5.411589e+001  7.771187e+001 
3803125000  -5.595801e+001  1.038409e+002 
3806250000  -6.003997e+001  7.514378e+001 
3809375000  -5.887709e+001  8.390417e+001 
3812500000  -5.876456e+001  5.539465e+001 
3815625000  -6.121856e+001  4.271560e+001 
3818750000  -6.383679e+001  3.741656e+001 
3821875000  -6.090561e+001  5.733055e+001 
3825000000  -5.945992e+001  5.277484e+001 
3828125000  -5.733946e+001  2.366814e+001 
3831250000  -6.010106e+001  1.015862e+001 
3834375000  -6.534444e+001  1.554754e+001 
3837500000  -6.234134e+001  9.843272e-001 
3840625000  -6.413900e+001  1.803745e+001 
3843750000  -6.036973e+001  -1.677082e+001 
3846875000  -6.253306e+001  -2.186226e+001 
3850000000  -6.278239e+001  1.270859e+001 
3853125000  -6.562578e+001  -1.005916e+001 
3856250000  -6.076325e+001  -2.072526e+001 
3859375000  -6.017024e+001  -4.098057e+001 
3862500000  -5.824195e+001  -3.799410e+001 
3865625000  -5.941833e+001  -4.968631e+001 
3868750000  -6.278076e+001  -4.685204e+001 
3871875000  -5.776910e+001  -6.018049e+001 
3875000000  -6.031195e+001  -8.208441e+001 
3878125000  -5.870240e+001  -9.211641e+001 
3881250000  -5.688522e+001  -8.721989e+001 
3884375000  -5.661449e+001  -1.032405e+002 
3887500000  -5.571445e+001  -1.183592e+002 
3890625000  -5.588666e+001  -1.161550e+002 
3893750000  -5.643459e+001  -1.335936e+002 
3896875000  -5.704072e+001  -1.428971e+002 
3900000000  -5.585435e+001  -1.256412e+002 
3903125000  -5.455642e+001  -1.535304e+002 
3906250000  -5.428753e+001  -1.647658e+002 
3909375000  -5.399121e+001  -1.732440e+002 
3912500000  -5.441150e+001  1.638485e+002 
3915625000  -5.623962e+001  1.531473e+002 
3918750000  -5.498998e+001  1.632120e+002 
3921875000  -5.465865e+001  1.385981e+002 
3925000000  -5.304035e+001  1.232717e+002 
3928125000  -5.335764e+001  1.158940e+002 
3931250000  -5.384050e+001  1.021646e+002 
3934375000  -5.416296e+001  9.162174e+001 
3937500000  -5.417245e+001  8.442423e+001 
3940625000  -5.489132e+001  7.546223e+001 
3943750000  -5.296885e+001  6.996614e+001 
3946875000  -5.315559e+001  5.854145e+001 
3950000000  -5.493273e+001  4.025978e+001 
3953125000  -5.472453e+001  2.672216e+001 
3956250000  -5.512306e+001  2.762659e+001 
3959375000  -5.219527e+001  2.315801e+001 
3962500000  -5.197652e+001  8.462978e-001 
3965625000  -5.332005e+001  -2.069081e+001 
3968750000  -5.473606e+001  -3.127777e+001 
3971875000  -5.425325e+001  -3.295011e+001 
3975000000  -5.430683e+001  -6.287811e+001 
3978125000  -5.488824e+001  -6.025894e+001 
3981250000  -5.507559e+001  -8.050326e+001 
3984375000  -5.639609e+001  -9.013554e+001 
3987500000  -5.742458e+001  -8.399302e+001 
3990625000  -5.751256e+001  -1.056551e+002 
3993750000  -5.797187e+001  -1.341116e+002 
3996875000  -5.834764e+001  -1.120628e+002 
4000000000  -5.913172e+001  -1.329547e+002 
4003125000  -5.940768e+001  -1.231371e+002 
4006250000  -5.710746e+001  -1.498865e+002 
4009375000  -5.682710e+001  -1.519114e+002 
4012500000  -5.775179e+001  -1.706216e+002 
4015625000  -5.896694e+001  -1.506589e+002 
4018750000  -6.070845e+001  -1.697321e+002 
4021875000  -5.812389e+001  1.787140e+002 
4025000000  -5.961953e+001  1.704946e+002 
4028125000  -5.878027e+001  -1.727729e+002 
4031250000  -6.069331e+001  1.439875e+002 
4034375000  -6.087464e+001  1.509572e+002 
4037500000  -5.911634e+001  1.547126e+002 
4040625000  -6.002764e+001  1.528278e+002 
4043750000  -5.808049e+001  1.471380e+002 
4046875000  -5.916861e+001  1.512965e+002 
4050000000  -5.792633e+001  1.305562e+002 
4053125000  -5.809993e+001  1.203031e+002 
4056250000  -5.811113e+001  1.197121e+002 
4059375000  -5.573017e+001  1.123674e+002 
4062500000  -5.809017e+001  1.008657e+002 
4065625000  -5.449894e+001  8.581328e+001 
4068750000  -5.531580e+001  6.603022e+001 
4071875000  -5.240398e+001  5.996190e+001 
4075000000  -5.283790e+001  4.898528e+001 
4078125000  -5.305986e+001  4.443655e+001 
4081250000  -5.257739e+001  2.436667e+001 
4084375000  -5.221884e+001  1.550346e+001 
4087500000  -5.257072e+001  -4.178983e+000 
4090625000  -5.369603e+001  -9.748800e+000 
4093750000  -5.262798e+001  -2.115078e+001 
4096875000  -5.325928e+001  -3.071976e+001 
4100000000  -5.475736e+001  -5.337645e+001 
4103125000  -5.479153e+001  -5.497197e+001 
4106250000  -5.384137e+001  -5.584119e+001 
4109375000  -5.248633e+001  -6.362011e+001 
4112500000  -5.196138e+001  -7.914358e+001 
4115625000  -5.241394e+001  -9.147086e+001 
4118750000  -5.362616e+001  -1.076510e+002 
4121875000  -5.360569e+001  -1.172732e+002 
4125000000  -5.302945e+001  -1.256772e+002 
4128125000  -5.390321e+001  -1.380067e+002 
4131250000  -5.237611e+001  -1.357872e+002 
4134375000  -5.109210e+001  -1.548349e+002 
4137500000  -5.319377e+001  -1.693073e+002 
4140625000  -5.338396e+001  1.691803e+002 
4143750000  -5.524850e+001  1.689737e+002 
4146875000  -5.318329e+001  1.643681e+002 
4150000000  -5.565509e+001  1.623722e+002 
4153125000  -5.450139e+001  1.390465e+002 
4156250000  -5.581266e+001  1.280728e+002 
4159375000  -5.528633e+001  1.264521e+002 
4162500000  -5.608395e+001  1.167388e+002 
4165625000  -5.513002e+001  1.155102e+002 
4168750000  -5.608233e+001  7.261844e+001 
4171875000  -5.563564e+001  7.909946e+001 
4175000000  -5.709703e+001  6.116818e+001 
4178125000  -5.955590e+001  7.154234e+001 
4181250000  -5.755010e+001  4.593134e+001 
4184375000  -6.104755e+001  3.008003e+001 
4187500000  -5.860728e+001  3.191313e+001 
4190625000  -5.855083e+001  2.066698e+001 
4193750000  -6.008067e+001  2.763330e+001 
4196875000  -6.320779e+001  4.110108e+000 
4200000000  -6.614658e+001  1.697360e+001 
4203125000  -6.456396e+001  -1.341917e+001 
4206250000  -5.929064e+001  1.723883e+001 
4209375000  -6.132279e+001  -2.866056e+001 
4212500000  -6.354031e+001  1.279567e+001 
4215625000  -6.364119e+001  -1.859025e+001 
4218750000  -5.912094e+001  -7.235728e+000 
4221875000  -6.199296e+001  -1.943886e+001 
4225000000  -6.048922e+001  -2.411843e+001 
4228125000  -5.761798e+001  -4.491600e+001 
4231250000  -5.734050e+001  -2.752991e+001 
4234375000  -5.745126e+001  -3.202240e+001 
4237500000  -5.633988e+001  -5.647209e+001 
4240625000  -5.621916e+001  -5.928659e+001 
4243750000  -5.810266e+001  -7.403901e+001 
4246875000  -5.688429e+001  -6.624393e+001 
4250000000  -5.778460e+001  -8.431113e+001 
4253125000  -5.558058e+001  -8.306684e+001 
4256250000  -5.610627e+001  -1.090589e+002 
4259375000  -5.523400e+001  -1.029993e+002 
4262500000  -5.487323e+001  -1.322867e+002 
4265625000  -5.412659e+001  -1.252798e+002 
4268750000  -5.310258e+001  -1.335479e+002 
4271875000  -5.226368e+001  -1.559362e+002 
4275000000  -5.179708e+001  1.799164e+002 
4278125000  -5.285088e+001  1.600636e+002 
4281250000  -5.334920e+001  1.605840e+002 
4284375000  -5.330351e+001  1.581077e+002 
4287500000  -5.453231e+001  1.453150e+002 
4290625000  -5.552914e+001  1.563409e+002 
4293750000  -5.302322e+001  1.477153e+002 
4296875000  -5.175590e+001  1.256181e+002 
4300000000  -5.243131e+001  1.001514e+002 
4303125000  -5.296398e+001  9.746465e+001 
4306250000  -5.303386e+001  9.840436e+001 
4309375000  -5.087064e+001  7.310313e+001 
4312500000  -5.344676e+001  6.234094e+001 
4315625000  -5.156198e+001  4.403431e+001 
4318750000  -5.306290e+001  4.803861e+001 
4321875000  -5.253993e+001  3.332106e+001 
4325000000  -5.198765e+001  2.417694e+001 
4328125000  -5.168776e+001  8.785166e+000 
4331250000  -5.329484e+001  -1.042430e+001 
4334375000  -5.468063e+001  -1.877925e+001 
4337500000  -5.488689e+001  -3.052134e+001 
4340625000  -5.423502e+001  -2.585952e+001 
4343750000  -5.471569e+001  -3.221492e+001 
4346875000  -5.589645e+001  -4.165869e+001 
4350000000  -5.560362e+001  -6.543673e+001 
4353125000  -5.571752e+001  -7.009314e+001 
4356250000  -5.708760e+001  -5.659687e+001 
4359375000  -5.965866e+001  -4.443749e+001 
4362500000  -5.440218e+001  -7.813235e+001 
4365625000  -5.422024e+001  -1.039480e+002 
4368750000  -5.538229e+001  -1.030288e+002 
4371875000  -5.759106e+001  -1.231594e+002 
4375000000  -5.707645e+001  -1.249459e+002 
4378125000  -5.573643e+001  -1.287652e+002 
4381250000  -6.185181e+001  -1.366344e+002 
4384375000  -5.772843e+001  -1.454421e+002 
4387500000  -5.670798e+001  -1.582017e+002 
4390625000  -5.809796e+001  -1.534009e+002 
4393750000  -5.854306e+001  -1.384443e+002 
4396875000  -5.526312e+001  -1.483989e+002 
4400000000  -5.784799e+001  -1.783862e+002 
4403125000  -5.475198e+001  1.755330e+002 
4406250000  -5.629255e+001  1.711890e+002 
4409375000  -5.669510e+001  1.678737e+002 
4412500000  -5.709455e+001  1.514401e+002 
4415625000  -5.517929e+001  1.616284e+002 
4418750000  -5.436135e+001  1.492338e+002 
