!Agilent Technologies,E8363B,MY43030201,A.06.04.32
!Agilent E8363B: A.06.04.32
!Date: Tuesday, November 11, 2014 22:11:20
!Correction: S21(Response(S21)) 
!S1P File: Measurement: S21:
# Hz S  dB   R 50
3000000000  -4.896736e+001  -7.416003e+001 
3003125000  -5.169381e+001  -8.150148e+001 
3006250000  -5.162070e+001  -9.199679e+001 
3009375000  -5.245220e+001  -8.760158e+001 
3012500000  -5.112953e+001  -9.901562e+001 
3015625000  -5.107601e+001  -1.082216e+002 
3018750000  -5.166367e+001  -1.130650e+002 
3021875000  -4.968550e+001  -1.187423e+002 
3025000000  -4.839723e+001  -1.293216e+002 
3028125000  -4.818222e+001  -1.461634e+002 
3031250000  -4.704154e+001  -1.604174e+002 
3034375000  -4.719713e+001  -1.792117e+002 
3037500000  -4.769369e+001  1.640422e+002 
3040625000  -4.920660e+001  1.509844e+002 
3043750000  -4.969308e+001  1.403990e+002 
3046875000  -5.074809e+001  1.329519e+002 
3050000000  -5.145890e+001  1.245288e+002 
3053125000  -5.101318e+001  1.225800e+002 
3056250000  -5.015938e+001  1.195106e+002 
3059375000  -5.082199e+001  1.089506e+002 
3062500000  -4.933827e+001  1.019905e+002 
3065625000  -4.928191e+001  8.469013e+001 
3068750000  -4.898966e+001  7.551165e+001 
3071875000  -4.897668e+001  6.759507e+001 
3075000000  -4.861112e+001  5.707195e+001 
3078125000  -4.844269e+001  4.555077e+001 
3081250000  -4.886491e+001  3.339018e+001 
3084375000  -4.823497e+001  2.646275e+001 
3087500000  -4.820551e+001  1.177918e+001 
3090625000  -4.800293e+001  -4.924300e+000 
3093750000  -4.887556e+001  -1.838762e+001 
3096875000  -4.940603e+001  -2.790701e+001 
3100000000  -4.966240e+001  -3.210477e+001 
3103125000  -4.980009e+001  -4.451212e+001 
3106250000  -4.933498e+001  -5.034629e+001 
3109375000  -4.992542e+001  -6.033837e+001 
3112500000  -4.940121e+001  -7.230243e+001 
3115625000  -4.944325e+001  -8.098145e+001 
3118750000  -5.000705e+001  -8.714831e+001 
3121875000  -4.908170e+001  -9.894885e+001 
3125000000  -5.119413e+001  -1.097230e+002 
3128125000  -5.070433e+001  -1.066825e+002 
3131250000  -4.803775e+001  -1.163877e+002 
3134375000  -4.791330e+001  -1.399112e+002 
3137500000  -4.874976e+001  -1.594374e+002 
3140625000  -4.949013e+001  -1.631231e+002 
3143750000  -5.034129e+001  -1.722313e+002 
3146875000  -5.029971e+001  -1.745279e+002 
3150000000  -4.913996e+001  1.782326e+002 
3153125000  -4.929888e+001  1.633377e+002 
3156250000  -5.029750e+001  1.616168e+002 
3159375000  -4.769175e+001  1.569215e+002 
3162500000  -4.639654e+001  1.352113e+002 
3165625000  -4.773931e+001  1.205575e+002 
3168750000  -4.744448e+001  1.140085e+002 
3171875000  -4.751263e+001  1.019708e+002 
3175000000  -4.749425e+001  8.649413e+001 
3178125000  -4.723864e+001  7.983455e+001 
3181250000  -4.663823e+001  6.786301e+001 
3184375000  -4.660976e+001  5.018000e+001 
3187500000  -4.762614e+001  3.377230e+001 
3190625000  -4.987016e+001  2.118105e+001 
3193750000  -4.991673e+001  2.036349e+001 
3196875000  -4.939729e+001  1.676665e+001 
3200000000  -4.868732e+001  4.516570e+000 
3203125000  -4.828374e+001  -1.653901e+000 
3206250000  -4.911447e+001  -1.658184e+001 
3209375000  -4.755496e+001  -3.134665e+001 
3212500000  -4.903780e+001  -4.187089e+001 
3215625000  -4.876439e+001  -4.720156e+001 
3218750000  -4.926606e+001  -6.682055e+001 
3221875000  -4.996819e+001  -7.810415e+001 
3225000000  -4.941987e+001  -8.607019e+001 
3228125000  -4.984608e+001  -9.460793e+001 
3231250000  -5.081477e+001  -1.073569e+002 
3234375000  -4.999723e+001  -1.095034e+002 
3237500000  -5.035150e+001  -1.202612e+002 
3240625000  -5.074197e+001  -1.304054e+002 
3243750000  -4.990281e+001  -1.449050e+002 
3246875000  -4.988576e+001  -1.580872e+002 
3250000000  -5.082222e+001  -1.683404e+002 
3253125000  -5.112394e+001  -1.749616e+002 
3256250000  -4.951997e+001  1.733452e+002 
3259375000  -5.155485e+001  1.577475e+002 
3262500000  -5.291016e+001  1.489914e+002 
3265625000  -5.267051e+001  1.432032e+002 
3268750000  -5.431315e+001  1.392382e+002 
3271875000  -5.270325e+001  1.302603e+002 
3275000000  -5.212281e+001  1.225907e+002 
3278125000  -5.306053e+001  1.102460e+002 
3281250000  -5.303714e+001  1.085431e+002 
3284375000  -5.204248e+001  9.153639e+001 
3287500000  -5.401105e+001  8.507806e+001 
3290625000  -5.370966e+001  7.567957e+001 
3293750000  -5.301438e+001  5.933445e+001 
3296875000  -5.453656e+001  5.095898e+001 
3300000000  -5.484028e+001  5.016445e+001 
3303125000  -5.276298e+001  3.592178e+001 
3306250000  -5.365539e+001  2.052246e+001 
3309375000  -5.203371e+001  1.974719e+001 
3312500000  -5.275381e+001  -2.548335e+000 
3315625000  -5.407655e+001  -1.415698e+001 
3318750000  -5.489143e+001  -2.226002e+001 
3321875000  -5.760676e+001  -1.854794e+001 
3325000000  -5.653354e+001  -1.719704e+001 
3328125000  -5.636919e+001  -2.998914e+001 
3331250000  -5.265917e+001  -2.824139e+001 
3334375000  -5.231983e+001  -4.960559e+001 
3337500000  -5.253613e+001  -7.482634e+001 
3340625000  -5.465748e+001  -9.134416e+001 
3343750000  -5.617360e+001  -8.565509e+001 
3346875000  -5.519114e+001  -9.885239e+001 
3350000000  -5.498486e+001  -1.011376e+002 
3353125000  -5.463194e+001  -1.187888e+002 
3356250000  -5.467193e+001  -1.281545e+002 
3359375000  -5.511427e+001  -1.495870e+002 
3362500000  -5.641335e+001  -1.501510e+002 
3365625000  -5.551819e+001  -1.559508e+002 
3368750000  -5.740795e+001  -1.782503e+002 
3371875000  -5.741998e+001  -1.772977e+002 
3375000000  -5.809108e+001  1.736883e+002 
3378125000  -5.967543e+001  1.718155e+002 
3381250000  -5.960789e+001  1.720421e+002 
3384375000  -5.701985e+001  1.778019e+002 
3387500000  -5.367014e+001  1.479341e+002 
3390625000  -5.745442e+001  1.246074e+002 
3393750000  -5.769392e+001  1.223931e+002 
3396875000  -5.523720e+001  1.150555e+002 
3400000000  -5.543771e+001  9.335249e+001 
3403125000  -5.712714e+001  9.051722e+001 
3406250000  -5.756278e+001  7.284797e+001 
3409375000  -5.771545e+001  5.533356e+001 
3412500000  -5.773032e+001  5.154804e+001 
3415625000  -6.069254e+001  3.282779e+001 
3418750000  -5.877022e+001  3.708305e+001 
3421875000  -6.292492e+001  2.941909e+001 
3425000000  -5.921609e+001  1.875978e+001 
3428125000  -5.940722e+001  1.286940e+000 
3431250000  -5.797764e+001  -1.595229e+000 
3434375000  -5.947791e+001  -1.977130e+001 
3437500000  -6.167812e+001  -2.960051e+001 
3440625000  -5.927177e+001  -1.349789e+001 
3443750000  -6.332886e+001  -3.574961e+001 
3446875000  -6.198270e+001  -4.908203e+001 
3450000000  -6.174623e+001  -7.765491e+001 
3453125000  -6.180460e+001  -7.858624e+001 
3456250000  -6.520779e+001  -1.068975e+002 
3459375000  -6.505863e+001  -6.413477e+001 
3462500000  -6.478907e+001  -1.011492e+002 
3465625000  -6.506024e+001  -1.206861e+002 
3468750000  -7.025132e+001  -1.424277e+002 
3471875000  -6.585666e+001  -1.125451e+002 
3475000000  -6.892826e+001  -8.968182e+001 
3478125000  -7.217339e+001  -1.346757e+002 
3481250000  -7.108955e+001  -1.597591e+002 
3484375000  -6.711843e+001  -1.425644e+002 
3487500000  -6.442557e+001  -1.403947e+002 
3490625000  -6.720990e+001  -1.528639e+002 
3493750000  -6.537029e+001  -1.437859e+002 
3496875000  -6.853529e+001  -1.555852e+002 
3500000000  -6.687646e+001  -1.338103e+002 
3503125000  -6.224413e+001  -1.483418e+002 
3506250000  -6.357415e+001  -1.668640e+002 
3509375000  -6.516396e+001  1.656480e+002 
3512500000  -6.566080e+001  1.228008e+002 
3515625000  -6.499673e+001  1.419427e+002 
3518750000  -6.299916e+001  1.365957e+002 
3521875000  -6.553824e+001  1.332081e+002 
3525000000  -6.409048e+001  1.077615e+002 
3528125000  -7.226125e+001  9.862283e+001 
3531250000  -6.305307e+001  1.276486e+002 
3534375000  -6.474020e+001  8.832144e+001 
3537500000  -6.733195e+001  6.889143e+001 
3540625000  -6.680764e+001  8.370778e+001 
3543750000  -6.899058e+001  1.139194e+002 
3546875000  -7.846900e+001  1.323456e+002 
3550000000  -6.809884e+001  1.088782e+002 
3553125000  -6.933874e+001  4.557916e+001 
3556250000  -7.193428e+001  3.389964e+001 
3559375000  -7.073075e+001  4.985348e+001 
3562500000  -7.428584e+001  -7.176547e+000 
3565625000  -6.851015e+001  4.105182e+001 
3568750000  -7.265503e+001  7.960345e+001 
3571875000  -7.420361e+001  3.036384e+001 
3575000000  -8.100014e+001  -4.715966e+001 
3578125000  -7.369556e+001  5.117430e+001 
3581250000  -7.441928e+001  3.155318e+001 
3584375000  -7.458665e+001  3.642627e+001 
3587500000  -7.246292e+001  6.617132e+001 
3590625000  -6.649345e+001  -3.320422e+000 
3593750000  -6.421820e+001  -3.060205e+001 
3596875000  -6.778981e+001  3.145725e+001 
3600000000  -6.419947e+001  -1.337521e+001 
3603125000  -6.439510e+001  2.084449e+000 
3606250000  -6.619591e+001  -3.538364e+001 
3609375000  -6.359492e+001  -4.150240e+001 
3612500000  -6.372134e+001  -6.444667e+001 
3615625000  -6.718736e+001  -5.039026e+001 
3618750000  -6.505573e+001  -5.510803e+001 
3621875000  -6.617323e+001  -7.443894e+001 
3625000000  -6.352164e+001  -7.303957e+001 
3628125000  -6.385023e+001  -1.150994e+002 
3631250000  -6.450429e+001  -1.052206e+002 
3634375000  -6.695367e+001  -1.372824e+002 
3637500000  -6.194800e+001  -1.142484e+002 
3640625000  -6.120662e+001  -1.323697e+002 
3643750000  -6.283183e+001  -1.412042e+002 
3646875000  -6.316090e+001  -1.499233e+002 
3650000000  -6.284494e+001  -1.706031e+002 
3653125000  -6.264527e+001  1.654734e+002 
3656250000  -6.558831e+001  1.570209e+002 
3659375000  -6.447543e+001  1.606183e+002 
3662500000  -6.296194e+001  1.452567e+002 
3665625000  -6.389516e+001  1.593669e+002 
3668750000  -6.284010e+001  1.225796e+002 
3671875000  -6.272696e+001  1.327656e+002 
3675000000  -6.436681e+001  9.515636e+001 
3678125000  -6.760110e+001  1.101902e+002 
3681250000  -6.266031e+001  1.108498e+002 
3684375000  -6.860151e+001  7.830247e+001 
3687500000  -6.570665e+001  7.521926e+001 
3690625000  -6.745985e+001  8.202657e+001 
3693750000  -6.479218e+001  1.067706e+002 
3696875000  -6.777529e+001  1.119414e+002 
3700000000  -6.872595e+001  7.986652e+001 
3703125000  -6.499113e+001  4.017660e+001 
3706250000  -6.646819e+001  6.599519e+001 
3709375000  -6.500796e+001  6.370931e+001 
3712500000  -6.306984e+001  4.903553e+001 
3715625000  -6.379869e+001  3.825069e+001 
3718750000  -6.230311e+001  3.819210e+001 
3721875000  -6.085912e+001  2.308371e+001 
3725000000  -6.004129e+001  1.540506e+001 
3728125000  -5.805664e+001  1.872387e+000 
3731250000  -5.848848e+001  -1.371797e+001 
3734375000  -5.842155e+001  -3.796171e+000 
3737500000  -5.797593e+001  -4.866353e+001 
3740625000  -6.006841e+001  -1.989550e+001 
3743750000  -5.791944e+001  -6.068980e+001 
3746875000  -5.862770e+001  -5.764806e+001 
3750000000  -5.956722e+001  -8.936467e+001 
3753125000  -6.062151e+001  -9.719832e+001 
3756250000  -5.793707e+001  -1.017564e+002 
3759375000  -5.824931e+001  -1.029034e+002 
3762500000  -5.801970e+001  -1.139618e+002 
3765625000  -6.102843e+001  -1.158175e+002 
3768750000  -5.796671e+001  -1.372288e+002 
3771875000  -5.491035e+001  -1.450546e+002 
3775000000  -5.690744e+001  -1.531796e+002 
3778125000  -5.738174e+001  -1.699970e+002 
3781250000  -5.706483e+001  1.789820e+002 
3784375000  -5.650286e+001  1.664747e+002 
3787500000  -5.884257e+001  1.415146e+002 
3790625000  -5.725612e+001  1.395561e+002 
3793750000  -5.737420e+001  1.282675e+002 
3796875000  -5.684837e+001  1.246855e+002 
3800000000  -5.494460e+001  7.968243e+001 
3803125000  -5.715016e+001  9.387049e+001 
3806250000  -5.881647e+001  7.503863e+001 
3809375000  -5.778790e+001  8.154872e+001 
3812500000  -5.855231e+001  5.699196e+001 
3815625000  -6.059798e+001  4.487940e+001 
3818750000  -6.450349e+001  2.230633e+001 
3821875000  -6.289221e+001  6.695377e+001 
3825000000  -5.924836e+001  5.204063e+001 
3828125000  -5.978561e+001  2.873243e+001 
3831250000  -6.343895e+001  1.077163e+001 
3834375000  -6.317487e+001  1.749333e+000 
3837500000  -6.765983e+001  1.141190e+001 
3840625000  -6.133608e+001  4.662767e+000 
3843750000  -5.941334e+001  -1.370964e+001 
3846875000  -6.335172e+001  -5.479356e+000 
3850000000  -6.195916e+001  1.989727e+000 
3853125000  -6.616445e+001  -2.503153e+001 
3856250000  -5.854774e+001  -1.908179e+001 
3859375000  -5.701496e+001  -2.600867e+001 
3862500000  -6.549249e+001  -3.504047e+001 
3865625000  -5.947279e+001  -5.695642e+001 
3868750000  -5.862109e+001  -4.545978e+001 
3871875000  -5.706630e+001  -6.643457e+001 
3875000000  -6.010954e+001  -7.144050e+001 
3878125000  -5.723076e+001  -9.394482e+001 
3881250000  -5.926535e+001  -8.426644e+001 
3884375000  -5.593186e+001  -9.854871e+001 
3887500000  -5.764602e+001  -1.190433e+002 
3890625000  -5.525806e+001  -1.174922e+002 
3893750000  -5.533473e+001  -1.356963e+002 
3896875000  -5.834177e+001  -1.268796e+002 
3900000000  -5.578228e+001  -1.401656e+002 
3903125000  -5.479726e+001  -1.545961e+002 
3906250000  -5.375521e+001  -1.638808e+002 
3909375000  -5.309936e+001  1.738563e+002 
3912500000  -5.482348e+001  1.721655e+002 
3915625000  -5.653207e+001  1.573012e+002 
3918750000  -5.570502e+001  1.424152e+002 
3921875000  -5.552323e+001  1.395851e+002 
3925000000  -5.307906e+001  1.226298e+002 
3928125000  -5.332402e+001  1.058828e+002 
3931250000  -5.350236e+001  1.078093e+002 
3934375000  -5.558256e+001  9.156223e+001 
3937500000  -5.529884e+001  7.628613e+001 
3940625000  -5.395234e+001  8.142612e+001 
3943750000  -5.425196e+001  6.166406e+001 
3946875000  -5.480054e+001  5.109256e+001 
3950000000  -5.429404e+001  3.335896e+001 
3953125000  -5.452711e+001  2.779354e+001 
3956250000  -5.297467e+001  2.691527e+001 
3959375000  -5.300532e+001  7.813556e+000 
3962500000  -5.361200e+001  -8.449470e+000 
3965625000  -5.479138e+001  -1.274459e+001 
3968750000  -5.304845e+001  -3.273641e+001 
3971875000  -5.433978e+001  -3.738461e+001 
3975000000  -5.417888e+001  -5.164984e+001 
3978125000  -5.446941e+001  -6.579051e+001 
3981250000  -5.589989e+001  -6.760575e+001 
3984375000  -5.404294e+001  -7.861279e+001 
3987500000  -5.554470e+001  -9.880872e+001 
3990625000  -5.686732e+001  -1.027755e+002 
3993750000  -5.795899e+001  -1.291302e+002 
3996875000  -5.731042e+001  -1.266219e+002 
4000000000  -6.012120e+001  -1.462430e+002 
4003125000  -5.949191e+001  -1.254696e+002 
4006250000  -5.628469e+001  -1.381181e+002 
4009375000  -5.958245e+001  -1.574872e+002 
4012500000  -5.823666e+001  -1.648107e+002 
4015625000  -5.919498e+001  -1.463073e+002 
4018750000  -5.845297e+001  -1.547348e+002 
4021875000  -5.869718e+001  -1.778384e+002 
4025000000  -6.090610e+001  1.738863e+002 
4028125000  -5.891713e+001  -1.755433e+002 
4031250000  -5.903462e+001  -1.729934e+002 
4034375000  -6.066105e+001  1.633117e+002 
4037500000  -5.677557e+001  1.528960e+002 
4040625000  -5.905288e+001  1.470253e+002 
4043750000  -5.847843e+001  1.389944e+002 
4046875000  -5.766773e+001  1.311040e+002 
4050000000  -5.729676e+001  1.250483e+002 
4053125000  -5.809007e+001  1.234558e+002 
4056250000  -5.891542e+001  1.189031e+002 
4059375000  -5.648426e+001  1.192248e+002 
4062500000  -5.598167e+001  9.943811e+001 
4065625000  -5.379320e+001  8.891678e+001 
4068750000  -5.464672e+001  7.207077e+001 
4071875000  -5.292171e+001  5.846660e+001 
4075000000  -5.355378e+001  4.465475e+001 
4078125000  -5.301795e+001  3.107849e+001 
4081250000  -5.284008e+001  2.007631e+001 
4084375000  -5.173404e+001  6.907155e+000 
4087500000  -5.348608e+001  -6.381182e+000 
4090625000  -5.360413e+001  -6.812599e+000 
4093750000  -5.301157e+001  -1.499706e+001 
4096875000  -5.288871e+001  -3.547692e+001 
4100000000  -5.455576e+001  -4.831129e+001 
4103125000  -5.400630e+001  -5.441603e+001 
4106250000  -5.324154e+001  -5.725842e+001 
4109375000  -5.295373e+001  -7.078143e+001 
4112500000  -5.224488e+001  -8.254889e+001 
4115625000  -5.444046e+001  -9.248691e+001 
4118750000  -5.171910e+001  -1.059972e+002 
4121875000  -5.316822e+001  -1.141263e+002 
4125000000  -5.297889e+001  -1.231595e+002 
4128125000  -5.407147e+001  -1.340001e+002 
4131250000  -5.359076e+001  -1.329173e+002 
4134375000  -5.198739e+001  -1.550419e+002 
4137500000  -5.221312e+001  -1.766681e+002 
4140625000  -5.425029e+001  1.743545e+002 
4143750000  -5.731411e+001  1.769818e+002 
4146875000  -5.361470e+001  1.628504e+002 
4150000000  -5.497284e+001  1.482439e+002 
4153125000  -5.348832e+001  1.427249e+002 
4156250000  -5.494973e+001  1.264896e+002 
4159375000  -5.579659e+001  1.311032e+002 
4162500000  -5.516293e+001  1.142888e+002 
4165625000  -5.403303e+001  1.099879e+002 
4168750000  -5.436771e+001  8.177232e+001 
4171875000  -5.501415e+001  8.442119e+001 
4175000000  -5.646480e+001  5.671003e+001 
4178125000  -5.698275e+001  6.432357e+001 
4181250000  -5.681987e+001  5.162062e+001 
4184375000  -5.994997e+001  2.521115e+001 
4187500000  -5.808671e+001  2.468633e+001 
4190625000  -6.205864e+001  2.842224e+001 
4193750000  -6.055400e+001  9.367273e+000 
4196875000  -6.342253e+001  -1.232584e+001 
4200000000  -6.415355e+001  2.690463e+001 
4203125000  -6.379787e+001  2.358959e+001 
4206250000  -5.863404e+001  2.057546e+001 
4209375000  -6.122215e+001  -3.417587e+001 
4212500000  -6.308661e+001  6.378114e+000 
4215625000  -6.269880e+001  -1.335016e+001 
4218750000  -6.336617e+001  8.138218e+000 
4221875000  -6.215275e+001  -1.355046e+001 
4225000000  -6.188993e+001  1.147643e+001 
4228125000  -5.861982e+001  -3.312061e+001 
4231250000  -6.165464e+001  -1.886816e+001 
4234375000  -5.935130e+001  -4.044276e+001 
4237500000  -5.694942e+001  -3.940829e+001 
4240625000  -5.551910e+001  -5.795067e+001 
4243750000  -5.920561e+001  -7.494611e+001 
4246875000  -5.726624e+001  -7.087790e+001 
4250000000  -5.724858e+001  -8.396812e+001 
4253125000  -5.489321e+001  -9.116269e+001 
4256250000  -5.631443e+001  -9.977670e+001 
4259375000  -5.600838e+001  -1.028616e+002 
4262500000  -5.520095e+001  -1.262045e+002 
4265625000  -5.414849e+001  -1.192593e+002 
4268750000  -5.232746e+001  -1.449828e+002 
4271875000  -5.204419e+001  -1.651946e+002 
4275000000  -5.094484e+001  -1.763210e+002 
4278125000  -5.484877e+001  1.652649e+002 
4281250000  -5.226259e+001  1.576501e+002 
4284375000  -5.362586e+001  1.533483e+002 
4287500000  -5.560438e+001  1.474188e+002 
4290625000  -5.478546e+001  1.403502e+002 
4293750000  -5.278101e+001  1.437041e+002 
4296875000  -5.162117e+001  1.102637e+002 
4300000000  -5.219313e+001  1.007371e+002 
4303125000  -5.282730e+001  9.786652e+001 
4306250000  -5.188373e+001  1.020150e+002 
4309375000  -5.146378e+001  8.047437e+001 
4312500000  -5.315417e+001  6.277906e+001 
4315625000  -5.192983e+001  5.565919e+001 
4318750000  -5.457367e+001  4.542490e+001 
4321875000  -5.300264e+001  3.716492e+001 
4325000000  -5.324497e+001  2.322065e+001 
4328125000  -5.281178e+001  8.398224e+000 
4331250000  -5.322654e+001  -1.096855e+001 
4334375000  -5.441600e+001  -1.475492e+001 
4337500000  -5.544789e+001  -3.589577e+001 
4340625000  -5.516466e+001  -2.329212e+001 
4343750000  -5.385209e+001  -3.902641e+001 
4346875000  -5.669220e+001  -4.582605e+001 
4350000000  -5.594565e+001  -7.673561e+001 
4353125000  -5.770046e+001  -8.314320e+001 
4356250000  -5.992369e+001  -7.282171e+001 
4359375000  -5.882503e+001  -5.160299e+001 
4362500000  -5.334510e+001  -7.645279e+001 
4365625000  -5.419593e+001  -8.573615e+001 
4368750000  -5.618571e+001  -1.010358e+002 
4371875000  -5.580180e+001  -1.123450e+002 
4375000000  -5.706034e+001  -1.243531e+002 
4378125000  -5.690854e+001  -1.251201e+002 
4381250000  -5.579855e+001  -1.306875e+002 
4384375000  -5.607551e+001  -1.477123e+002 
4387500000  -5.803644e+001  -1.289813e+002 
4390625000  -5.859013e+001  -1.641559e+002 
4393750000  -5.724660e+001  -1.562298e+002 
4396875000  -5.515054e+001  -1.572673e+002 
4400000000  -5.741817e+001  -1.691769e+002 
4403125000  -5.594501e+001  1.756369e+002 
4406250000  -5.803402e+001  1.711226e+002 
4409375000  -5.609040e+001  1.675678e+002 
4412500000  -5.905841e+001  1.634454e+002 
4415625000  -5.516795e+001  1.604367e+002 
4418750000  -5.584444e+001  1.487926e+002 
