!Agilent Technologies,E8363B,MY43030201,A.06.04.32
!Agilent E8363B: A.06.04.32
!Date: Tuesday, November 11, 2014 22:11:48
!Correction: S21(Response(S21)) 
!S1P File: Measurement: S21:
# Hz S  dB   R 50
3000000000  -4.905427e+001  -7.424641e+001 
3003125000  -5.229556e+001  -8.222965e+001 
3006250000  -5.173938e+001  -8.507845e+001 
3009375000  -5.181289e+001  -9.172099e+001 
3012500000  -5.124449e+001  -9.952487e+001 
3015625000  -5.185848e+001  -1.092796e+002 
3018750000  -5.160095e+001  -1.139099e+002 
3021875000  -4.944195e+001  -1.206643e+002 
3025000000  -4.857555e+001  -1.304475e+002 
3028125000  -4.794036e+001  -1.452870e+002 
3031250000  -4.712231e+001  -1.622680e+002 
3034375000  -4.715585e+001  1.777386e+002 
3037500000  -4.799121e+001  1.644658e+002 
3040625000  -4.950687e+001  1.527734e+002 
3043750000  -4.957898e+001  1.427224e+002 
3046875000  -5.062972e+001  1.317024e+002 
3050000000  -5.154307e+001  1.204412e+002 
3053125000  -5.141221e+001  1.182719e+002 
3056250000  -5.055289e+001  1.201228e+002 
3059375000  -5.039325e+001  1.094940e+002 
3062500000  -4.920219e+001  1.028389e+002 
3065625000  -4.957714e+001  8.677426e+001 
3068750000  -4.877420e+001  7.470463e+001 
3071875000  -4.911950e+001  6.762263e+001 
3075000000  -4.858887e+001  5.405804e+001 
3078125000  -4.850161e+001  4.361435e+001 
3081250000  -4.887675e+001  3.111954e+001 
3084375000  -4.813918e+001  2.419509e+001 
3087500000  -4.865015e+001  1.178417e+001 
3090625000  -4.768193e+001  -6.393798e+000 
3093750000  -4.884350e+001  -1.813457e+001 
3096875000  -4.944567e+001  -2.759844e+001 
3100000000  -4.909663e+001  -3.603628e+001 
3103125000  -4.953494e+001  -4.041628e+001 
3106250000  -4.897971e+001  -5.127271e+001 
3109375000  -4.977081e+001  -6.059425e+001 
3112500000  -4.954701e+001  -6.920209e+001 
3115625000  -4.972610e+001  -7.948499e+001 
3118750000  -4.955172e+001  -9.255028e+001 
3121875000  -4.896931e+001  -1.014170e+002 
3125000000  -5.053172e+001  -1.094608e+002 
3128125000  -5.074945e+001  -1.114386e+002 
3131250000  -4.863970e+001  -1.176053e+002 
3134375000  -4.801118e+001  -1.379038e+002 
3137500000  -4.924340e+001  -1.578903e+002 
3140625000  -4.899973e+001  -1.624255e+002 
3143750000  -5.066724e+001  -1.657473e+002 
3146875000  -4.962318e+001  -1.743094e+002 
3150000000  -4.899465e+001  1.787875e+002 
3153125000  -4.902605e+001  1.676846e+002 
3156250000  -5.047554e+001  1.638273e+002 
3159375000  -4.777866e+001  1.591848e+002 
3162500000  -4.623373e+001  1.373121e+002 
3165625000  -4.774302e+001  1.210848e+002 
3168750000  -4.757027e+001  1.144369e+002 
3171875000  -4.689078e+001  1.015324e+002 
3175000000  -4.750499e+001  8.747234e+001 
3178125000  -4.733788e+001  8.223814e+001 
3181250000  -4.658129e+001  6.688300e+001 
3184375000  -4.672028e+001  4.917197e+001 
3187500000  -4.729753e+001  3.339982e+001 
3190625000  -4.939770e+001  1.999053e+001 
3193750000  -5.003481e+001  1.953312e+001 
3196875000  -4.955222e+001  1.657808e+001 
3200000000  -4.852794e+001  7.555957e+000 
3203125000  -4.821661e+001  -5.072753e+000 
3206250000  -4.856534e+001  -1.324486e+001 
3209375000  -4.808458e+001  -3.162927e+001 
3212500000  -4.857675e+001  -3.901954e+001 
3215625000  -4.797413e+001  -4.450098e+001 
3218750000  -4.896815e+001  -6.623694e+001 
3221875000  -4.887354e+001  -8.006026e+001 
3225000000  -4.921182e+001  -8.486074e+001 
3228125000  -5.013963e+001  -9.572193e+001 
3231250000  -5.092454e+001  -1.024248e+002 
3234375000  -4.988708e+001  -1.074979e+002 
3237500000  -5.083038e+001  -1.222295e+002 
3240625000  -5.003820e+001  -1.284190e+002 
3243750000  -4.989388e+001  -1.408704e+002 
3246875000  -5.026898e+001  -1.571010e+002 
3250000000  -5.031167e+001  -1.674686e+002 
3253125000  -5.160181e+001  -1.756836e+002 
3256250000  -5.048337e+001  1.739717e+002 
3259375000  -5.134640e+001  1.557950e+002 
3262500000  -5.225517e+001  1.510250e+002 
3265625000  -5.337983e+001  1.443714e+002 
3268750000  -5.351099e+001  1.396431e+002 
3271875000  -5.231700e+001  1.311082e+002 
3275000000  -5.153501e+001  1.226159e+002 
3278125000  -5.234008e+001  1.055850e+002 
3281250000  -5.424931e+001  1.068136e+002 
3284375000  -5.226745e+001  8.890880e+001 
3287500000  -5.379976e+001  8.519272e+001 
3290625000  -5.233265e+001  7.217039e+001 
3293750000  -5.300567e+001  6.331828e+001 
3296875000  -5.435601e+001  5.345633e+001 
3300000000  -5.433256e+001  5.058285e+001 
3303125000  -5.320924e+001  4.016068e+001 
3306250000  -5.361731e+001  2.707722e+001 
3309375000  -5.279167e+001  9.892426e+000 
3312500000  -5.311605e+001  -7.363584e+000 
3315625000  -5.460214e+001  -1.030204e+001 
3318750000  -5.535530e+001  -2.598707e+001 
3321875000  -5.810349e+001  -1.108692e+001 
3325000000  -5.683252e+001  -2.457046e+001 
3328125000  -5.593319e+001  -2.793970e+001 
3331250000  -5.374166e+001  -2.604730e+001 
3334375000  -5.225678e+001  -5.445877e+001 
3337500000  -5.203388e+001  -7.430823e+001 
3340625000  -5.378538e+001  -8.644450e+001 
3343750000  -5.554370e+001  -8.595517e+001 
3346875000  -5.630232e+001  -9.763131e+001 
3350000000  -5.556155e+001  -1.033661e+002 
3353125000  -5.474755e+001  -1.135444e+002 
3356250000  -5.399762e+001  -1.312604e+002 
3359375000  -5.523617e+001  -1.448338e+002 
3362500000  -5.660321e+001  -1.513156e+002 
3365625000  -5.499453e+001  -1.601132e+002 
3368750000  -5.736917e+001  -1.693213e+002 
3371875000  -5.742810e+001  -1.752542e+002 
3375000000  -5.948771e+001  1.659235e+002 
3378125000  -5.917798e+001  1.683747e+002 
3381250000  -6.066184e+001  1.751844e+002 
3384375000  -5.586724e+001  1.793576e+002 
3387500000  -5.434417e+001  1.440835e+002 
3390625000  -5.581058e+001  1.283741e+002 
3393750000  -5.685039e+001  1.221073e+002 
3396875000  -5.691762e+001  1.256594e+002 
3400000000  -5.622850e+001  9.575363e+001 
3403125000  -5.661316e+001  7.657653e+001 
3406250000  -5.700750e+001  7.016349e+001 
3409375000  -5.823653e+001  6.024294e+001 
3412500000  -5.734614e+001  6.526919e+001 
3415625000  -6.019807e+001  4.202257e+001 
3418750000  -5.961214e+001  4.190187e+001 
3421875000  -5.900584e+001  2.003077e+001 
3425000000  -5.942402e+001  1.896347e+001 
3428125000  -5.904915e+001  1.938033e+000 
3431250000  -6.121060e+001  -8.011009e+000 
3434375000  -6.005666e+001  -1.995389e+001 
3437500000  -6.368036e+001  -3.048774e+001 
3440625000  -6.048621e+001  -2.021372e+001 
3443750000  -5.989650e+001  -2.675425e+001 
3446875000  -6.131224e+001  -6.769196e+001 
3450000000  -6.204028e+001  -6.692395e+001 
3453125000  -6.396831e+001  -7.542193e+001 
3456250000  -6.523362e+001  -9.578948e+001 
3459375000  -6.636190e+001  -8.544584e+001 
3462500000  -6.894028e+001  -1.011852e+002 
3465625000  -6.658373e+001  -1.091456e+002 
3468750000  -6.690027e+001  -1.181411e+002 
3471875000  -6.466747e+001  -9.946256e+001 
3475000000  -6.394075e+001  -1.227383e+002 
3478125000  -6.449587e+001  -1.181751e+002 
3481250000  -7.204607e+001  -1.775047e+002 
3484375000  -6.456345e+001  -1.196338e+002 
3487500000  -6.601531e+001  -1.425072e+002 
3490625000  -6.813175e+001  -1.307985e+002 
3493750000  -6.836077e+001  -1.404620e+002 
3496875000  -6.901070e+001  1.641656e+002 
3500000000  -6.784525e+001  -1.334567e+002 
3503125000  -6.715300e+001  -1.423734e+002 
3506250000  -6.266950e+001  -1.450961e+002 
3509375000  -6.576725e+001  -1.771397e+002 
3512500000  -6.866193e+001  1.626041e+002 
3515625000  -6.669921e+001  1.673665e+002 
3518750000  -6.622527e+001  1.289019e+002 
3521875000  -7.585196e+001  1.603962e+002 
3525000000  -6.810772e+001  1.531231e+002 
3528125000  -6.606618e+001  1.387650e+002 
3531250000  -6.917784e+001  1.093373e+002 
3534375000  -7.058968e+001  9.888992e+001 
3537500000  -6.772192e+001  8.414143e+001 
3540625000  -6.760602e+001  5.697025e+001 
3543750000  -6.878130e+001  8.979719e+001 
3546875000  -7.136833e+001  5.400608e+001 
3550000000  -7.097275e+001  8.404742e+001 
3553125000  -6.884861e+001  7.576903e+001 
3556250000  -7.156699e+001  3.587780e+001 
3559375000  -6.951843e+001  2.556303e+001 
3562500000  -7.123716e+001  1.205239e+001 
3565625000  -7.757073e+001  5.060836e+001 
3568750000  -7.542877e+001  -1.185368e+002 
3571875000  -7.822422e+001  7.393612e+001 
3575000000  -7.347635e+001  4.796157e+000 
3578125000  -7.125600e+001  8.765362e+001 
3581250000  -7.844064e+001  2.887886e+001 
3584375000  -7.164091e+001  -1.433854e+000 
3587500000  -7.172605e+001  1.475100e+001 
3590625000  -6.988098e+001  5.075028e+001 
3593750000  -6.764362e+001  -5.131614e+001 
3596875000  -7.080231e+001  4.582218e+000 
3600000000  -6.280048e+001  -8.940364e+000 
3603125000  -6.541942e+001  -8.260949e+000 
3606250000  -6.293095e+001  -2.022463e+001 
3609375000  -6.688447e+001  -5.703355e+001 
3612500000  -6.321360e+001  -6.703639e+001 
3615625000  -6.780003e+001  -5.761737e+001 
3618750000  -6.701324e+001  -7.812808e+001 
3621875000  -6.597311e+001  -8.050618e+001 
3625000000  -6.351213e+001  -9.152881e+001 
3628125000  -6.349725e+001  -1.088889e+002 
3631250000  -6.313364e+001  -1.117965e+002 
3634375000  -6.434324e+001  -1.201512e+002 
3637500000  -6.439753e+001  -1.148237e+002 
3640625000  -6.012452e+001  -1.178467e+002 
3643750000  -6.405830e+001  -1.533914e+002 
3646875000  -6.187090e+001  -1.714802e+002 
3650000000  -6.556573e+001  -1.645039e+002 
3653125000  -6.258954e+001  1.763360e+002 
3656250000  -6.506438e+001  1.744263e+002 
3659375000  -6.682600e+001  1.628266e+002 
3662500000  -6.269955e+001  1.545676e+002 
3665625000  -6.516641e+001  1.604187e+002 
3668750000  -6.231136e+001  1.298999e+002 
3671875000  -6.257657e+001  1.264641e+002 
3675000000  -6.479112e+001  1.010816e+002 
3678125000  -6.173526e+001  9.127545e+001 
3681250000  -6.271768e+001  1.106532e+002 
3684375000  -6.424881e+001  1.029257e+002 
3687500000  -6.573077e+001  7.367867e+001 
3690625000  -6.815184e+001  6.052020e+001 
3693750000  -6.682574e+001  1.011316e+002 
3696875000  -6.752541e+001  8.650511e+001 
3700000000  -6.163729e+001  7.669477e+001 
3703125000  -6.493179e+001  5.727656e+001 
3706250000  -6.936215e+001  7.938755e+001 
3709375000  -6.569991e+001  5.491405e+001 
3712500000  -6.608560e+001  7.168917e+001 
3715625000  -6.061998e+001  4.887301e+001 
3718750000  -6.043537e+001  3.839061e+001 
3721875000  -6.113163e+001  2.424293e+001 
3725000000  -6.093422e+001  1.150822e+001 
3728125000  -5.976471e+001  1.530807e+001 
3731250000  -6.120417e+001  -4.478065e+000 
3734375000  -6.084504e+001  -3.391814e+001 
3737500000  -5.831144e+001  -3.837255e+001 
3740625000  -5.882621e+001  -4.091070e+001 
3743750000  -5.920724e+001  -5.811830e+001 
3746875000  -5.922049e+001  -5.662758e+001 
3750000000  -5.873268e+001  -7.578011e+001 
3753125000  -5.862162e+001  -7.475002e+001 
3756250000  -5.810014e+001  -9.970824e+001 
3759375000  -5.844326e+001  -1.002695e+002 
3762500000  -5.544279e+001  -1.138269e+002 
3765625000  -5.953666e+001  -1.279136e+002 
3768750000  -5.819149e+001  -1.397869e+002 
3771875000  -5.641199e+001  -1.457962e+002 
3775000000  -5.788025e+001  -1.688739e+002 
3778125000  -5.739447e+001  1.785950e+002 
3781250000  -5.665607e+001  1.798417e+002 
3784375000  -5.875713e+001  1.665586e+002 
3787500000  -5.705189e+001  1.473539e+002 
3790625000  -5.760569e+001  1.438432e+002 
3793750000  -5.624643e+001  1.117893e+002 
3796875000  -5.633005e+001  1.315385e+002 
3800000000  -5.293325e+001  7.884985e+001 
3803125000  -5.583215e+001  9.996372e+001 
3806250000  -5.802328e+001  7.304185e+001 
3809375000  -5.822082e+001  7.177152e+001 
3812500000  -5.747478e+001  6.194766e+001 
3815625000  -6.106849e+001  3.811522e+001 
3818750000  -6.027370e+001  5.299030e+001 
3821875000  -6.066109e+001  4.830611e+001 
3825000000  -5.957364e+001  3.285264e+001 
3828125000  -6.386696e+001  -3.627437e+000 
3831250000  -6.003938e+001  -2.590837e+000 
3834375000  -6.531007e+001  -7.250520e+000 
3837500000  -6.628771e+001  6.463526e+000 
3840625000  -6.135420e+001  -2.518342e+000 
3843750000  -6.516930e+001  2.156111e+000 
3846875000  -6.303741e+001  -1.905654e+001 
3850000000  -6.258502e+001  -2.329102e+001 
3853125000  -6.756620e+001  -4.816029e+001 
3856250000  -6.389064e+001  5.914724e+000 
3859375000  -6.094642e+001  -4.594694e+001 
3862500000  -6.104775e+001  -3.066214e+001 
3865625000  -6.320239e+001  -5.281384e+001 
3868750000  -6.125562e+001  -3.013205e+001 
3871875000  -5.518582e+001  -5.549278e+001 
3875000000  -6.020327e+001  -8.055070e+001 
3878125000  -5.815764e+001  -8.886715e+001 
3881250000  -5.798994e+001  -9.726388e+001 
3884375000  -5.525566e+001  -9.320463e+001 
3887500000  -5.725415e+001  -1.085861e+002 
3890625000  -5.658398e+001  -1.252409e+002 
3893750000  -5.744662e+001  -1.220457e+002 
3896875000  -5.694161e+001  -1.427448e+002 
3900000000  -5.677195e+001  -1.504123e+002 
3903125000  -5.516220e+001  -1.563703e+002 
3906250000  -5.467528e+001  -1.700998e+002 
3909375000  -5.463369e+001  1.747009e+002 
3912500000  -5.442585e+001  1.598585e+002 
3915625000  -5.594489e+001  1.609379e+002 
3918750000  -5.569495e+001  1.394509e+002 
3921875000  -5.406721e+001  1.358581e+002 
3925000000  -5.337379e+001  1.278541e+002 
3928125000  -5.301174e+001  1.018851e+002 
3931250000  -5.353208e+001  1.051287e+002 
3934375000  -5.427660e+001  9.611059e+001 
3937500000  -5.594423e+001  7.916875e+001 
3940625000  -5.463745e+001  8.127567e+001 
3943750000  -5.458287e+001  6.874319e+001 
3946875000  -5.290110e+001  5.286652e+001 
3950000000  -5.500128e+001  3.859876e+001 
3953125000  -5.406285e+001  3.094510e+001 
3956250000  -5.306986e+001  1.428999e+001 
3959375000  -5.352054e+001  1.447142e+001 
3962500000  -5.197569e+001  4.121857e+000 
3965625000  -5.354461e+001  -1.690428e+001 
3968750000  -5.263963e+001  -3.432285e+001 
3971875000  -5.444037e+001  -4.078668e+001 
3975000000  -5.389933e+001  -5.623151e+001 
3978125000  -5.395458e+001  -5.769600e+001 
3981250000  -5.475273e+001  -7.181318e+001 
3984375000  -5.639679e+001  -8.712563e+001 
3987500000  -5.530391e+001  -9.525974e+001 
3990625000  -5.758694e+001  -9.590858e+001 
3993750000  -5.723500e+001  -1.212400e+002 
3996875000  -5.830625e+001  -1.204952e+002 
4000000000  -6.048857e+001  -1.256988e+002 
4003125000  -5.944294e+001  -1.332621e+002 
4006250000  -5.573117e+001  -1.401232e+002 
4009375000  -5.673888e+001  -1.533810e+002 
4012500000  -6.059417e+001  -1.673158e+002 
4015625000  -6.095959e+001  -1.639027e+002 
4018750000  -5.982852e+001  -1.754673e+002 
4021875000  -6.032940e+001  -1.702665e+002 
4025000000  -6.045593e+001  1.595231e+002 
4028125000  -6.114749e+001  -1.639720e+002 
4031250000  -6.126729e+001  1.683784e+002 
4034375000  -6.020452e+001  1.634462e+002 
4037500000  -5.836118e+001  1.586800e+002 
4040625000  -6.026338e+001  1.420559e+002 
4043750000  -5.888584e+001  1.443400e+002 
4046875000  -5.734791e+001  1.347904e+002 
4050000000  -5.646284e+001  1.253865e+002 
4053125000  -5.947218e+001  1.283209e+002 
4056250000  -5.812735e+001  1.108024e+002 
4059375000  -5.594767e+001  1.077981e+002 
4062500000  -5.543474e+001  9.716625e+001 
4065625000  -5.438939e+001  7.627513e+001 
4068750000  -5.486969e+001  7.530745e+001 
4071875000  -5.214450e+001  6.021373e+001 
4075000000  -5.229591e+001  4.357775e+001 
4078125000  -5.288064e+001  3.581684e+001 
4081250000  -5.330703e+001  2.867925e+001 
4084375000  -5.186311e+001  7.290570e+000 
4087500000  -5.393867e+001  -4.997991e+000 
4090625000  -5.416677e+001  -6.584140e+000 
4093750000  -5.367511e+001  -1.248037e+001 
4096875000  -5.306519e+001  -3.198051e+001 
4100000000  -5.427039e+001  -4.525414e+001 
4103125000  -5.571386e+001  -4.937020e+001 
4106250000  -5.330794e+001  -5.221124e+001 
4109375000  -5.288973e+001  -6.627087e+001 
4112500000  -5.278923e+001  -8.161569e+001 
4115625000  -5.398207e+001  -9.668720e+001 
4118750000  -5.200619e+001  -9.875089e+001 
4121875000  -5.332892e+001  -1.196906e+002 
4125000000  -5.395675e+001  -1.250632e+002 
4128125000  -5.494784e+001  -1.352852e+002 
4131250000  -5.342135e+001  -1.339136e+002 
4134375000  -5.199092e+001  -1.477202e+002 
4137500000  -5.096325e+001  -1.753390e+002 
4140625000  -5.451413e+001  -1.777156e+002 
4143750000  -5.520865e+001  1.720757e+002 
4146875000  -5.362530e+001  1.720409e+002 
4150000000  -5.420728e+001  1.539512e+002 
4153125000  -5.405179e+001  1.379098e+002 
4156250000  -5.576572e+001  1.269242e+002 
4159375000  -5.536375e+001  1.307077e+002 
4162500000  -5.533487e+001  1.267727e+002 
4165625000  -5.510744e+001  1.087615e+002 
4168750000  -5.505252e+001  8.885020e+001 
4171875000  -5.494011e+001  7.726378e+001 
4175000000  -5.539898e+001  5.855628e+001 
4178125000  -5.777433e+001  7.449734e+001 
4181250000  -5.781238e+001  4.460068e+001 
4184375000  -6.158907e+001  2.093725e+001 
4187500000  -5.946078e+001  3.574097e+001 
4190625000  -5.887079e+001  2.490187e+001 
4193750000  -5.915669e+001  2.978265e+001 
4196875000  -6.112094e+001  -6.016423e+000 
4200000000  -6.583415e+001  3.355447e+001 
4203125000  -6.863258e+001  -1.048278e+001 
4206250000  -6.212705e+001  2.885268e+000 
4209375000  -6.035881e+001  -2.959457e+001 
4212500000  -6.000585e+001  -1.370848e+001 
4215625000  -6.261088e+001  -2.965590e+001 
4218750000  -6.316508e+001  -6.689867e+000 
4221875000  -5.654683e+001  -3.043578e+001 
4225000000  -5.796502e+001  -1.891429e+001 
4228125000  -5.689162e+001  -2.350340e+001 
4231250000  -5.858865e+001  -2.125832e+001 
4234375000  -5.790943e+001  -5.640800e+001 
4237500000  -5.686480e+001  -4.416968e+001 
4240625000  -5.779951e+001  -6.199978e+001 
4243750000  -5.957308e+001  -7.412061e+001 
4246875000  -5.631050e+001  -7.288039e+001 
4250000000  -5.754554e+001  -9.206341e+001 
4253125000  -5.658948e+001  -8.353077e+001 
4256250000  -5.444018e+001  -9.576311e+001 
4259375000  -5.612609e+001  -1.148861e+002 
4262500000  -5.556841e+001  -1.359867e+002 
4265625000  -5.391426e+001  -1.252947e+002 
4268750000  -5.241998e+001  -1.463908e+002 
4271875000  -5.316656e+001  -1.519979e+002 
4275000000  -5.122942e+001  -1.711938e+002 
4278125000  -5.398003e+001  1.779517e+002 
4281250000  -5.302642e+001  1.594919e+002 
4284375000  -5.334215e+001  1.540072e+002 
4287500000  -5.369479e+001  1.453722e+002 
4290625000  -5.462714e+001  1.453211e+002 
4293750000  -5.331064e+001  1.478864e+002 
4296875000  -5.174825e+001  1.104287e+002 
4300000000  -5.252440e+001  1.051877e+002 
4303125000  -5.209109e+001  1.041975e+002 
4306250000  -5.377415e+001  1.033947e+002 
4309375000  -5.118577e+001  7.889417e+001 
4312500000  -5.216347e+001  7.090322e+001 
4315625000  -5.139604e+001  5.546862e+001 
4318750000  -5.293816e+001  3.074554e+001 
4321875000  -5.303259e+001  3.310434e+001 
4325000000  -5.306537e+001  2.676415e+001 
4328125000  -5.098454e+001  8.655635e+000 
4331250000  -5.360991e+001  -7.132253e+000 
4334375000  -5.369959e+001  -1.428360e+001 
4337500000  -5.596872e+001  -3.235863e+001 
4340625000  -5.490210e+001  -3.154416e+001 
4343750000  -5.491477e+001  -3.987957e+001 
4346875000  -5.577948e+001  -3.314096e+001 
4350000000  -5.481503e+001  -6.643710e+001 
4353125000  -5.715060e+001  -8.422260e+001 
4356250000  -5.807444e+001  -7.388894e+001 
4359375000  -5.852864e+001  -6.260208e+001 
4362500000  -5.502461e+001  -7.801448e+001 
4365625000  -5.541540e+001  -9.522573e+001 
4368750000  -5.372454e+001  -8.835132e+001 
4371875000  -5.616035e+001  -9.815806e+001 
4375000000  -5.677330e+001  -1.177010e+002 
4378125000  -5.592901e+001  -1.272876e+002 
4381250000  -5.888651e+001  -1.246198e+002 
4384375000  -5.538129e+001  -1.456995e+002 
4387500000  -5.825909e+001  -1.389816e+002 
4390625000  -5.722444e+001  -1.495700e+002 
4393750000  -5.804417e+001  -1.579165e+002 
4396875000  -5.609041e+001  -1.660610e+002 
4400000000  -5.720132e+001  -1.784075e+002 
4403125000  -5.440089e+001  1.718416e+002 
4406250000  -5.843670e+001  1.699715e+002 
4409375000  -5.612580e+001  1.731202e+002 
4412500000  -5.789241e+001  1.624577e+002 
4415625000  -5.511995e+001  1.661245e+002 
