!Agilent Technologies,E8363B,MY43030201,A.06.04.32
!Agilent E8363B: A.06.04.32
!Date: Tuesday, November 11, 2014 22:16:14
!Correction: S21(Response(S21)) 
!S1P File: Measurement: S21:
# Hz S  dB   R 50
3000000000  -4.888017e+001  -7.200622e+001 
3003125000  -5.140633e+001  -8.024702e+001 
3006250000  -5.156205e+001  -8.800980e+001 
3009375000  -5.159977e+001  -8.619872e+001 
3012500000  -5.103552e+001  -9.351751e+001 
3015625000  -5.120661e+001  -1.075171e+002 
3018750000  -5.130023e+001  -1.140608e+002 
3021875000  -5.008573e+001  -1.143506e+002 
3025000000  -4.889875e+001  -1.254762e+002 
3028125000  -4.811909e+001  -1.440719e+002 
3031250000  -4.688186e+001  -1.592120e+002 
3034375000  -4.711501e+001  -1.781256e+002 
3037500000  -4.782865e+001  1.691333e+002 
3040625000  -4.926900e+001  1.539986e+002 
3043750000  -4.990639e+001  1.438191e+002 
3046875000  -5.048810e+001  1.334154e+002 
3050000000  -5.159950e+001  1.216861e+002 
3053125000  -5.093363e+001  1.263904e+002 
3056250000  -5.149410e+001  1.213784e+002 
3059375000  -5.108373e+001  1.138182e+002 
3062500000  -4.903882e+001  1.024566e+002 
3065625000  -4.895449e+001  9.106073e+001 
3068750000  -4.961812e+001  8.081651e+001 
3071875000  -4.924992e+001  6.964265e+001 
3075000000  -4.851847e+001  5.893034e+001 
3078125000  -4.866491e+001  4.589810e+001 
3081250000  -4.868884e+001  3.558893e+001 
3084375000  -4.795342e+001  2.863962e+001 
3087500000  -4.813636e+001  1.312367e+001 
3090625000  -4.805634e+001  -2.785342e+000 
3093750000  -4.922124e+001  -1.116482e+001 
3096875000  -4.954181e+001  -2.300559e+001 
3100000000  -4.947003e+001  -3.585619e+001 
3103125000  -5.044920e+001  -4.238092e+001 
3106250000  -4.931194e+001  -5.041172e+001 
3109375000  -4.987050e+001  -5.917588e+001 
3112500000  -4.909923e+001  -6.780984e+001 
3115625000  -4.908581e+001  -7.405629e+001 
3118750000  -4.936155e+001  -8.473855e+001 
3121875000  -4.900809e+001  -9.545739e+001 
3125000000  -5.085850e+001  -1.068915e+002 
3128125000  -5.048214e+001  -1.037383e+002 
3131250000  -4.872953e+001  -1.144077e+002 
3134375000  -4.777209e+001  -1.385551e+002 
3137500000  -4.877848e+001  -1.538345e+002 
3140625000  -4.953831e+001  -1.548522e+002 
3143750000  -5.020749e+001  -1.677322e+002 
3146875000  -4.954772e+001  -1.749904e+002 
3150000000  -4.895680e+001  -1.785167e+002 
3153125000  -4.953022e+001  1.699742e+002 
3156250000  -5.069756e+001  1.643262e+002 
3159375000  -4.824400e+001  1.597195e+002 
3162500000  -4.650143e+001  1.363250e+002 
3165625000  -4.770998e+001  1.244212e+002 
3168750000  -4.797223e+001  1.177596e+002 
3171875000  -4.694251e+001  1.054398e+002 
3175000000  -4.749188e+001  9.287009e+001 
3178125000  -4.720002e+001  8.440845e+001 
3181250000  -4.693357e+001  6.975438e+001 
3184375000  -4.662337e+001  5.493799e+001 
3187500000  -4.764822e+001  3.676822e+001 
3190625000  -4.949294e+001  2.345736e+001 
3193750000  -5.017414e+001  2.776174e+001 
3196875000  -4.933354e+001  1.907627e+001 
3200000000  -4.817929e+001  9.717965e+000 
3203125000  -4.828122e+001  -4.412634e+000 
3206250000  -4.844098e+001  -1.276978e+001 
3209375000  -4.756409e+001  -2.716255e+001 
3212500000  -4.870765e+001  -4.403217e+001 
3215625000  -4.797372e+001  -4.897836e+001 
3218750000  -4.953592e+001  -6.185641e+001 
3221875000  -4.923689e+001  -7.478680e+001 
3225000000  -4.956991e+001  -8.348704e+001 
3228125000  -5.012469e+001  -9.181270e+001 
3231250000  -5.092118e+001  -1.021997e+002 
3234375000  -5.035912e+001  -1.099538e+002 
3237500000  -5.027430e+001  -1.196370e+002 
3240625000  -4.986377e+001  -1.267398e+002 
3243750000  -4.999923e+001  -1.427208e+002 
3246875000  -5.030711e+001  -1.526473e+002 
3250000000  -5.073566e+001  -1.608312e+002 
3253125000  -5.097622e+001  -1.696981e+002 
3256250000  -5.011680e+001  1.733083e+002 
3259375000  -5.140139e+001  1.642635e+002 
3262500000  -5.269030e+001  1.538009e+002 
3265625000  -5.297805e+001  1.445244e+002 
3268750000  -5.399682e+001  1.389673e+002 
3271875000  -5.346325e+001  1.356313e+002 
3275000000  -5.228233e+001  1.266219e+002 
3278125000  -5.327708e+001  1.104565e+002 
3281250000  -5.370150e+001  1.126903e+002 
3284375000  -5.317964e+001  9.345723e+001 
3287500000  -5.452660e+001  9.440598e+001 
3290625000  -5.280703e+001  6.917702e+001 
3293750000  -5.298998e+001  6.420918e+001 
3296875000  -5.439580e+001  5.216555e+001 
3300000000  -5.443467e+001  5.409942e+001 
3303125000  -5.320278e+001  3.738945e+001 
3306250000  -5.290116e+001  2.357567e+001 
3309375000  -5.237246e+001  1.619177e+001 
3312500000  -5.353882e+001  2.702906e+000 
3315625000  -5.512875e+001  -5.358277e+000 
3318750000  -5.605975e+001  -2.178735e+001 
3321875000  -5.802024e+001  -2.415604e+001 
3325000000  -5.695409e+001  -2.609960e+001 
3328125000  -5.771347e+001  -2.279805e+001 
3331250000  -5.369558e+001  -2.686128e+001 
3334375000  -5.201191e+001  -4.189681e+001 
3337500000  -5.278572e+001  -7.099379e+001 
3340625000  -5.404887e+001  -8.381140e+001 
3343750000  -5.622048e+001  -7.943880e+001 
3346875000  -5.520517e+001  -1.018828e+002 
3350000000  -5.487793e+001  -9.086844e+001 
3353125000  -5.532039e+001  -1.207514e+002 
3356250000  -5.509375e+001  -1.295670e+002 
3359375000  -5.457200e+001  -1.468415e+002 
3362500000  -5.525849e+001  -1.482922e+002 
3365625000  -5.635053e+001  -1.654134e+002 
3368750000  -5.686971e+001  -1.761311e+002 
3371875000  -5.642439e+001  1.794501e+002 
3375000000  -5.888702e+001  1.645802e+002 
3378125000  -5.795047e+001  1.733734e+002 
3381250000  -6.050374e+001  -1.777095e+002 
3384375000  -5.649570e+001  -1.753257e+002 
3387500000  -5.576788e+001  1.445946e+002 
3390625000  -5.773109e+001  1.394309e+002 
3393750000  -5.735459e+001  1.202734e+002 
3396875000  -5.678354e+001  1.264062e+002 
3400000000  -5.533634e+001  1.004329e+002 
3403125000  -5.699926e+001  8.650555e+001 
3406250000  -5.758753e+001  7.269515e+001 
3409375000  -5.702828e+001  6.110346e+001 
3412500000  -5.855765e+001  6.476492e+001 
3415625000  -5.971579e+001  3.782224e+001 
3418750000  -6.065358e+001  3.710813e+001 
3421875000  -5.905160e+001  3.225874e+001 
3425000000  -5.843507e+001  3.097289e+001 
3428125000  -5.973746e+001  1.677402e+001 
3431250000  -5.955697e+001  1.162921e+001 
3434375000  -6.147220e+001  -2.280034e+001 
3437500000  -6.230953e+001  -2.527926e+001 
3440625000  -6.266164e+001  -1.818187e+001 
3443750000  -6.187206e+001  -2.112599e+001 
3446875000  -6.109070e+001  -4.830480e+001 
3450000000  -5.973957e+001  -7.188997e+001 
3453125000  -6.147430e+001  -8.407842e+001 
3456250000  -6.896998e+001  -9.547604e+001 
3459375000  -6.947787e+001  -9.795317e+001 
3462500000  -7.068538e+001  -1.029129e+002 
3465625000  -6.459734e+001  -9.875832e+001 
3468750000  -6.503995e+001  -1.460656e+002 
3471875000  -6.406700e+001  -9.046777e+001 
3475000000  -6.682879e+001  -9.620646e+001 
3478125000  -6.849001e+001  -1.134282e+002 
3481250000  -6.527271e+001  -1.506168e+002 
3484375000  -6.728003e+001  -8.835069e+001 
3487500000  -6.698878e+001  -1.430222e+002 
3490625000  -6.660228e+001  -1.205935e+002 
3493750000  -6.862825e+001  -1.776193e+002 
3496875000  -7.091483e+001  -1.248058e+002 
3500000000  -6.860998e+001  -1.691436e+002 
3503125000  -6.655476e+001  -1.434770e+002 
3506250000  -6.730989e+001  -1.548804e+002 
3509375000  -6.560291e+001  1.711886e+002 
3512500000  -6.901617e+001  1.121311e+002 
3515625000  -6.824154e+001  1.649158e+002 
3518750000  -6.807762e+001  1.447132e+002 
3521875000  -6.595023e+001  1.470296e+002 
3525000000  -6.739005e+001  1.330215e+002 
3528125000  -6.729909e+001  1.174615e+002 
3531250000  -6.869890e+001  9.869447e+001 
3534375000  -6.909454e+001  1.024805e+002 
3537500000  -7.357843e+001  6.115353e+001 
3540625000  -7.001389e+001  7.809036e+001 
3543750000  -7.908414e+001  2.630341e+001 
3546875000  -7.065182e+001  4.363811e+001 
3550000000  -6.758394e+001  1.025210e+002 
3553125000  -6.703207e+001  3.784176e+001 
3556250000  -6.991434e+001  9.549408e+000 
3559375000  -7.111898e+001  2.328891e+001 
3562500000  -7.726221e+001  6.129987e+001 
3565625000  -7.360538e+001  -2.481564e+001 
3568750000  -6.961063e+001  7.090092e+001 
3571875000  -6.943356e+001  8.283298e+001 
3575000000  -7.239288e+001  -6.648026e+001 
3578125000  -7.560620e+001  2.342696e+001 
3581250000  -7.069273e+001  -1.762041e+001 
3584375000  -7.495729e+001  8.334512e+001 
3587500000  -6.773257e+001  -1.746607e+001 
3590625000  -6.744096e+001  4.543239e+001 
3593750000  -6.993356e+001  3.621904e+001 
3596875000  -6.418309e+001  4.859085e+001 
3600000000  -6.543027e+001  -3.463992e+001 
3603125000  -6.589314e+001  -7.872228e+000 
3606250000  -6.328421e+001  -3.189753e+001 
3609375000  -6.482139e+001  -3.262651e+001 
3612500000  -6.561532e+001  -4.788717e+001 
3615625000  -7.191975e+001  -2.482783e+001 
3618750000  -6.676400e+001  -6.744509e+001 
3621875000  -6.582731e+001  -8.842455e+001 
3625000000  -6.470244e+001  -8.148343e+001 
3628125000  -6.292847e+001  -9.479703e+001 
3631250000  -6.296979e+001  -1.025972e+002 
3634375000  -6.543658e+001  -1.178410e+002 
3637500000  -6.373969e+001  -9.641228e+001 
3640625000  -6.142154e+001  -1.140730e+002 
3643750000  -6.157101e+001  -1.369258e+002 
3646875000  -6.249398e+001  -1.638230e+002 
3650000000  -6.460000e+001  1.770172e+002 
3653125000  -6.305522e+001  -1.720186e+002 
3656250000  -6.752148e+001  1.519949e+002 
3659375000  -6.551608e+001  -1.795881e+002 
3662500000  -6.424577e+001  1.473849e+002 
3665625000  -6.540938e+001  1.505221e+002 
3668750000  -6.440737e+001  1.185156e+002 
3671875000  -6.453890e+001  1.309406e+002 
3675000000  -6.356373e+001  1.051463e+002 
3678125000  -6.780676e+001  9.518144e+001 
3681250000  -6.442984e+001  1.094327e+002 
3684375000  -6.572259e+001  9.626463e+001 
3687500000  -6.575494e+001  8.255258e+001 
3690625000  -6.661359e+001  4.406931e+001 
3693750000  -6.556388e+001  8.644045e+001 
3696875000  -6.393924e+001  9.037655e+001 
3700000000  -6.212830e+001  7.623188e+001 
3703125000  -6.625636e+001  1.149907e+001 
3706250000  -6.761858e+001  6.341336e+001 
3709375000  -6.531023e+001  5.016550e+001 
3712500000  -6.251791e+001  6.191094e+001 
3715625000  -6.047789e+001  4.721877e+001 
3718750000  -6.116659e+001  3.979370e+001 
3721875000  -6.305752e+001  1.496228e+001 
3725000000  -6.149913e+001  2.818612e+001 
3728125000  -6.069659e+001  1.042063e+001 
3731250000  -5.981849e+001  -4.068914e-001 
3734375000  -5.730130e+001  -5.758123e+000 
3737500000  -5.793143e+001  -3.665136e+001 
3740625000  -5.903588e+001  -2.863827e+001 
3743750000  -5.980725e+001  -4.857261e+001 
3746875000  -5.851745e+001  -7.025163e+001 
3750000000  -5.778425e+001  -7.404057e+001 
3753125000  -5.882258e+001  -8.226595e+001 
3756250000  -5.770794e+001  -9.734614e+001 
3759375000  -5.786426e+001  -1.125739e+002 
3762500000  -5.660158e+001  -1.115289e+002 
3765625000  -5.798232e+001  -1.210100e+002 
3768750000  -5.704237e+001  -1.391904e+002 
3771875000  -5.641280e+001  -1.473927e+002 
3775000000  -5.551778e+001  -1.582203e+002 
3778125000  -5.600535e+001  1.799496e+002 
3781250000  -5.745145e+001  1.798703e+002 
3784375000  -5.546883e+001  1.737964e+002 
3787500000  -5.829015e+001  1.552499e+002 
3790625000  -5.937527e+001  1.427350e+002 
3793750000  -5.695909e+001  1.304305e+002 
3796875000  -5.579622e+001  1.308900e+002 
3800000000  -5.382740e+001  8.689252e+001 
3803125000  -5.730099e+001  9.382144e+001 
3806250000  -6.155642e+001  9.964169e+001 
3809375000  -5.749411e+001  8.045213e+001 
3812500000  -5.799032e+001  7.055145e+001 
3815625000  -6.112650e+001  4.529160e+001 
3818750000  -6.159245e+001  5.492686e+001 
3821875000  -6.149851e+001  8.352196e+001 
3825000000  -6.284452e+001  7.911601e+001 
3828125000  -5.848430e+001  2.543928e+001 
3831250000  -5.914309e+001  1.591257e+001 
3834375000  -6.246744e+001  1.910570e+001 
3837500000  -6.379139e+001  3.591740e+001 
3840625000  -6.391662e+001  1.043396e+001 
3843750000  -6.269158e+001  -9.167439e+000 
3846875000  -6.023684e+001  -2.120808e+001 
3850000000  -6.562335e+001  6.284256e+000 
3853125000  -6.280793e+001  1.706213e+001 
3856250000  -6.109499e+001  6.204067e-001 
3859375000  -5.923139e+001  -3.571600e+001 
3862500000  -6.147392e+001  -3.605719e+001 
3865625000  -6.059201e+001  -3.797034e+001 
3868750000  -6.017517e+001  -2.841123e+001 
3871875000  -5.683921e+001  -4.882555e+001 
3875000000  -5.923259e+001  -7.004662e+001 
3878125000  -5.743426e+001  -7.336879e+001 
3881250000  -5.887638e+001  -8.351856e+001 
3884375000  -5.733583e+001  -8.338044e+001 
3887500000  -5.672168e+001  -1.192083e+002 
3890625000  -5.520279e+001  -1.132811e+002 
3893750000  -5.603622e+001  -1.356883e+002 
3896875000  -5.643534e+001  -1.254290e+002 
3900000000  -5.594703e+001  -1.430967e+002 
3903125000  -5.581866e+001  -1.468250e+002 
3906250000  -5.438861e+001  -1.693899e+002 
3909375000  -5.471155e+001  1.723015e+002 
3912500000  -5.315884e+001  1.670285e+002 
3915625000  -5.538318e+001  1.640104e+002 
3918750000  -5.411050e+001  1.539840e+002 
3921875000  -5.589602e+001  1.329200e+002 
3925000000  -5.285394e+001  1.296026e+002 
3928125000  -5.442024e+001  1.105323e+002 
3931250000  -5.444908e+001  1.031368e+002 
3934375000  -5.384443e+001  8.548746e+001 
3937500000  -5.597504e+001  9.715883e+001 
3940625000  -5.392923e+001  7.869106e+001 
3943750000  -5.400017e+001  7.155920e+001 
3946875000  -5.461827e+001  4.663577e+001 
3950000000  -5.738239e+001  5.196992e+001 
3953125000  -5.509291e+001  4.519335e+001 
3956250000  -5.453923e+001  1.976296e+001 
3959375000  -5.067756e+001  1.788473e+001 
3962500000  -5.298358e+001  -1.539163e+000 
3965625000  -5.290039e+001  -1.160527e+001 
3968750000  -5.335168e+001  -2.929252e+001 
3971875000  -5.513805e+001  -3.006093e+001 
3975000000  -5.266479e+001  -5.265285e+001 
3978125000  -5.461702e+001  -5.800298e+001 
3981250000  -5.379675e+001  -6.789091e+001 
3984375000  -5.595239e+001  -8.173496e+001 
3987500000  -5.560383e+001  -7.980668e+001 
3990625000  -5.777239e+001  -9.905500e+001 
3993750000  -5.671046e+001  -1.094990e+002 
3996875000  -5.719361e+001  -1.183050e+002 
4000000000  -6.024290e+001  -1.262693e+002 
4003125000  -5.955433e+001  -1.216885e+002 
4006250000  -5.753765e+001  -1.404282e+002 
4009375000  -5.840099e+001  -1.552850e+002 
4012500000  -6.028815e+001  -1.688971e+002 
4015625000  -5.981791e+001  -1.614406e+002 
4018750000  -5.821757e+001  -1.573458e+002 
4021875000  -5.856927e+001  -1.722804e+002 
4025000000  -5.941040e+001  -1.749444e+002 
4028125000  -5.945682e+001  -1.795499e+002 
4031250000  -6.222129e+001  1.666305e+002 
4034375000  -6.050154e+001  1.629563e+002 
4037500000  -5.740944e+001  1.551887e+002 
4040625000  -5.972966e+001  1.452508e+002 
4043750000  -5.832117e+001  1.490953e+002 
4046875000  -5.768783e+001  1.351349e+002 
4050000000  -5.738617e+001  1.253570e+002 
4053125000  -5.953942e+001  1.386037e+002 
4056250000  -5.808236e+001  1.275618e+002 
4059375000  -5.588145e+001  1.189577e+002 
4062500000  -5.398062e+001  1.081982e+002 
4065625000  -5.484804e+001  7.541795e+001 
4068750000  -5.422051e+001  7.585216e+001 
4071875000  -5.366108e+001  6.750149e+001 
4075000000  -5.351068e+001  5.379795e+001 
4078125000  -5.338149e+001  4.061386e+001 
4081250000  -5.222738e+001  2.871821e+001 
4084375000  -5.206079e+001  1.204262e+001 
4087500000  -5.413018e+001  -6.385816e+000 
4090625000  -5.356268e+001  -4.556787e+000 
4093750000  -5.313758e+001  -1.565277e+001 
4096875000  -5.327418e+001  -2.641836e+001 
4100000000  -5.334504e+001  -4.426628e+001 
4103125000  -5.493839e+001  -4.996089e+001 
4106250000  -5.475265e+001  -5.897708e+001 
4109375000  -5.333359e+001  -6.049360e+001 
4112500000  -5.242247e+001  -8.428494e+001 
4115625000  -5.421236e+001  -8.965974e+001 
4118750000  -5.243566e+001  -9.673879e+001 
4121875000  -5.213720e+001  -1.118660e+002 
4125000000  -5.496055e+001  -1.177450e+002 
4128125000  -5.546154e+001  -1.276887e+002 
4131250000  -5.294288e+001  -1.318387e+002 
4134375000  -5.144674e+001  -1.429216e+002 
4137500000  -5.320819e+001  -1.649368e+002 
4140625000  -5.318288e+001  1.776324e+002 
4143750000  -5.811887e+001  1.743287e+002 
4146875000  -5.479083e+001  1.770173e+002 
4150000000  -5.575977e+001  1.649645e+002 
4153125000  -5.328251e+001  1.437889e+002 
4156250000  -5.620107e+001  1.442838e+002 
4159375000  -5.581934e+001  1.440189e+002 
4162500000  -5.629319e+001  1.360927e+002 
4165625000  -5.435224e+001  1.188969e+002 
4168750000  -5.551861e+001  9.250264e+001 
4171875000  -5.439439e+001  8.703832e+001 
4175000000  -5.621168e+001  6.613940e+001 
4178125000  -6.014940e+001  6.044349e+001 
4181250000  -5.767400e+001  4.417699e+001 
4184375000  -5.930293e+001  3.929017e+001 
4187500000  -5.904340e+001  3.022089e+001 
4190625000  -6.369047e+001  2.371275e+001 
4193750000  -6.080555e+001  3.392313e+001 
4196875000  -6.657042e+001  -3.480050e+000 
4200000000  -6.291909e+001  4.796954e+001 
4203125000  -6.388884e+001  2.362662e+001 
4206250000  -5.857045e+001  2.965288e+001 
4209375000  -6.238021e+001  8.580389e+000 
4212500000  -6.628587e+001  2.618052e+000 
4215625000  -6.452582e+001  2.006647e+001 
4218750000  -6.317752e+001  6.869090e+000 
4221875000  -6.693639e+001  3.302011e+001 
4225000000  -6.101362e+001  -2.948239e+001 
4228125000  -5.765171e+001  -2.482478e+001 
4231250000  -6.181952e+001  -1.687993e+001 
4234375000  -5.752329e+001  -4.734334e+001 
4237500000  -6.104138e+001  -3.748612e+001 
4240625000  -5.546268e+001  -6.393316e+001 
4243750000  -6.005491e+001  -7.636559e+001 
4246875000  -5.863049e+001  -7.191015e+001 
4250000000  -5.755723e+001  -8.586283e+001 
4253125000  -5.584192e+001  -8.729208e+001 
4256250000  -5.632647e+001  -1.040440e+002 
4259375000  -5.481580e+001  -1.019842e+002 
4262500000  -5.527911e+001  -1.161736e+002 
4265625000  -5.324708e+001  -1.182600e+002 
4268750000  -5.218240e+001  -1.397686e+002 
4271875000  -5.216151e+001  -1.509071e+002 
4275000000  -5.107291e+001  -1.710740e+002 
4278125000  -5.415121e+001  1.608373e+002 
4281250000  -5.350982e+001  1.662583e+002 
4284375000  -5.393145e+001  1.526709e+002 
4287500000  -5.274411e+001  1.455760e+002 
4290625000  -5.662864e+001  1.649962e+002 
4293750000  -5.292171e+001  1.484555e+002 
4296875000  -5.135023e+001  1.211967e+002 
4300000000  -5.300640e+001  1.040047e+002 
4303125000  -5.297671e+001  1.053311e+002 
4306250000  -5.267430e+001  1.043839e+002 
4309375000  -5.206121e+001  8.819848e+001 
4312500000  -5.217260e+001  7.388683e+001 
4315625000  -5.220123e+001  5.182021e+001 
4318750000  -5.371176e+001  4.262278e+001 
4321875000  -5.272559e+001  4.112182e+001 
4325000000  -5.304015e+001  2.579286e+001 
4328125000  -5.095948e+001  1.659304e+001 
4331250000  -5.419532e+001  -7.574335e+000 
4334375000  -5.402461e+001  -1.166989e+001 
4337500000  -5.402862e+001  -2.676127e+001 
4340625000  -5.740055e+001  -1.637303e+001 
4343750000  -5.463354e+001  -3.255542e+001 
4346875000  -5.468713e+001  -3.863734e+001 
4350000000  -5.586066e+001  -5.963948e+001 
4353125000  -5.717847e+001  -7.884949e+001 
4356250000  -5.717485e+001  -6.362064e+001 
4359375000  -5.953489e+001  -5.130254e+001 
4362500000  -5.365253e+001  -7.428651e+001 
4365625000  -5.465547e+001  -9.313737e+001 
4368750000  -5.581610e+001  -9.933967e+001 
4371875000  -5.619611e+001  -1.032475e+002 
4375000000  -5.566563e+001  -9.646255e+001 
4378125000  -5.539258e+001  -1.115128e+002 
4381250000  -5.614559e+001  -1.273537e+002 
4384375000  -5.746274e+001  -1.391776e+002 
4387500000  -5.837785e+001  -1.459235e+002 
4390625000  -5.886343e+001  -1.468671e+002 
4393750000  -5.594143e+001  -1.491734e+002 
4396875000  -5.560582e+001  -1.657212e+002 
4400000000  -5.618957e+001  -1.799527e+002 
4403125000  -5.589623e+001  1.726433e+002 
4406250000  -5.781210e+001  1.696836e+002 
4409375000  -5.547200e+001  1.633701e+002 
4412500000  -5.518376e+001  1.667015e+002 
4415625000  -5.673753e+001  1.689789e+002 
4418750000  -5.491573e+001  1.555056e+002 
