!Agilent Technologies,E8363B,MY43030201,A.06.04.32
!Agilent E8363B: A.06.04.32
!Date: Tuesday, November 11, 2014 22:11:16
!Correction: S21(Response(S21)) 
!S1P File: Measurement: S21:
# Hz S  dB   R 50
3000000000  -4.901185e+001  -7.451285e+001 
3003125000  -5.185855e+001  -8.185260e+001 
3006250000  -5.197582e+001  -8.761414e+001 
3009375000  -5.238500e+001  -8.726569e+001 
3012500000  -5.123058e+001  -9.560145e+001 
3015625000  -5.063025e+001  -1.118500e+002 
3018750000  -5.207180e+001  -1.161588e+002 
3021875000  -4.994954e+001  -1.182064e+002 
3025000000  -4.881764e+001  -1.290099e+002 
3028125000  -4.753781e+001  -1.442389e+002 
3031250000  -4.708773e+001  -1.643023e+002 
3034375000  -4.693492e+001  1.791277e+002 
3037500000  -4.790148e+001  1.636529e+002 
3040625000  -4.917824e+001  1.535764e+002 
3043750000  -4.957048e+001  1.423291e+002 
3046875000  -5.020631e+001  1.278820e+002 
3050000000  -5.215990e+001  1.247337e+002 
3053125000  -5.137227e+001  1.209355e+002 
3056250000  -5.181796e+001  1.163952e+002 
3059375000  -5.127874e+001  1.058783e+002 
3062500000  -4.900850e+001  9.929811e+001 
3065625000  -4.937343e+001  8.628432e+001 
3068750000  -4.906853e+001  7.753995e+001 
3071875000  -4.893570e+001  6.756444e+001 
3075000000  -4.860509e+001  5.406564e+001 
3078125000  -4.849599e+001  4.351649e+001 
3081250000  -4.886457e+001  3.220500e+001 
3084375000  -4.807377e+001  2.499201e+001 
3087500000  -4.831405e+001  1.128199e+001 
3090625000  -4.825736e+001  -8.155643e+000 
3093750000  -4.948400e+001  -1.591862e+001 
3096875000  -4.959222e+001  -2.247947e+001 
3100000000  -4.942394e+001  -3.193697e+001 
3103125000  -4.980289e+001  -3.951834e+001 
3106250000  -4.939568e+001  -5.333977e+001 
3109375000  -4.959456e+001  -6.257055e+001 
3112500000  -4.908335e+001  -7.124559e+001 
3115625000  -5.009621e+001  -7.880851e+001 
3118750000  -4.953716e+001  -8.463322e+001 
3121875000  -4.897776e+001  -1.019680e+002 
3125000000  -5.106364e+001  -1.123890e+002 
3128125000  -5.067723e+001  -1.090464e+002 
3131250000  -4.845274e+001  -1.164662e+002 
3134375000  -4.778873e+001  -1.425626e+002 
3137500000  -4.857813e+001  -1.562169e+002 
3140625000  -4.946420e+001  -1.623239e+002 
3143750000  -5.036144e+001  -1.699351e+002 
3146875000  -4.986887e+001  -1.720807e+002 
3150000000  -4.894674e+001  1.765871e+002 
3153125000  -4.895336e+001  1.667523e+002 
3156250000  -5.043719e+001  1.656033e+002 
3159375000  -4.799923e+001  1.606188e+002 
3162500000  -4.617905e+001  1.372978e+002 
3165625000  -4.788348e+001  1.185084e+002 
3168750000  -4.759446e+001  1.130690e+002 
3171875000  -4.687765e+001  1.006921e+002 
3175000000  -4.767495e+001  8.888277e+001 
3178125000  -4.744768e+001  8.082465e+001 
3181250000  -4.668964e+001  6.630423e+001 
3184375000  -4.678525e+001  5.367708e+001 
3187500000  -4.774169e+001  3.400530e+001 
3190625000  -4.975171e+001  2.100896e+001 
3193750000  -4.961439e+001  2.237137e+001 
3196875000  -4.989797e+001  1.895917e+001 
3200000000  -4.815832e+001  7.788822e+000 
3203125000  -4.832972e+001  -3.655319e+000 
3206250000  -4.871272e+001  -1.913239e+001 
3209375000  -4.809303e+001  -3.265110e+001 
3212500000  -4.878875e+001  -3.876992e+001 
3215625000  -4.830819e+001  -4.788189e+001 
3218750000  -4.898551e+001  -6.402148e+001 
3221875000  -4.931953e+001  -7.805079e+001 
3225000000  -4.980104e+001  -8.444157e+001 
3228125000  -5.037321e+001  -9.382661e+001 
3231250000  -5.123400e+001  -1.022544e+002 
3234375000  -5.028149e+001  -1.079337e+002 
3237500000  -5.060967e+001  -1.213382e+002 
3240625000  -5.036634e+001  -1.295708e+002 
3243750000  -4.980879e+001  -1.476482e+002 
3246875000  -4.990503e+001  -1.548113e+002 
3250000000  -5.087286e+001  -1.631985e+002 
3253125000  -5.169823e+001  -1.716080e+002 
3256250000  -4.981556e+001  1.739214e+002 
3259375000  -5.118224e+001  1.602912e+002 
3262500000  -5.319520e+001  1.499369e+002 
3265625000  -5.302661e+001  1.465768e+002 
3268750000  -5.249823e+001  1.371805e+002 
3271875000  -5.231514e+001  1.383181e+002 
3275000000  -5.154908e+001  1.207478e+002 
3278125000  -5.294593e+001  1.123872e+002 
3281250000  -5.312479e+001  1.026314e+002 
3284375000  -5.187822e+001  9.294717e+001 
3287500000  -5.280840e+001  8.760245e+001 
3290625000  -5.271975e+001  6.841766e+001 
3293750000  -5.326730e+001  6.243194e+001 
3296875000  -5.371601e+001  5.470818e+001 
3300000000  -5.442916e+001  4.743056e+001 
3303125000  -5.258148e+001  4.086462e+001 
3306250000  -5.346053e+001  2.724548e+001 
3309375000  -5.309783e+001  1.372566e+001 
3312500000  -5.299980e+001  -3.388083e+000 
3315625000  -5.489932e+001  -1.101537e+001 
3318750000  -5.619651e+001  -2.306986e+001 
3321875000  -5.730552e+001  -2.409653e+001 
3325000000  -5.681001e+001  -2.405345e+001 
3328125000  -5.777721e+001  -2.157489e+001 
3331250000  -5.435598e+001  -2.647125e+001 
3334375000  -5.259185e+001  -4.196411e+001 
3337500000  -5.171338e+001  -7.101275e+001 
3340625000  -5.500777e+001  -8.694951e+001 
3343750000  -5.585184e+001  -8.446978e+001 
3346875000  -5.573291e+001  -1.018310e+002 
3350000000  -5.532322e+001  -1.038861e+002 
3353125000  -5.464043e+001  -1.161521e+002 
3356250000  -5.495728e+001  -1.320653e+002 
3359375000  -5.444850e+001  -1.460659e+002 
3362500000  -5.641174e+001  -1.479540e+002 
3365625000  -5.571258e+001  -1.622810e+002 
3368750000  -5.677728e+001  -1.731380e+002 
3371875000  -5.747139e+001  1.750085e+002 
3375000000  -5.751027e+001  1.673971e+002 
3378125000  -5.851171e+001  1.710208e+002 
3381250000  -5.943364e+001  1.639743e+002 
3384375000  -5.879585e+001  1.752332e+002 
3387500000  -5.437060e+001  1.553661e+002 
3390625000  -5.810935e+001  1.319899e+002 
3393750000  -5.679064e+001  1.169102e+002 
3396875000  -5.595175e+001  1.129966e+002 
3400000000  -5.632698e+001  1.040243e+002 
3403125000  -5.623134e+001  8.085698e+001 
3406250000  -5.840618e+001  7.653786e+001 
3409375000  -5.921827e+001  5.618955e+001 
3412500000  -5.773751e+001  4.285207e+001 
3415625000  -6.043873e+001  3.688178e+001 
3418750000  -5.916699e+001  3.042245e+001 
3421875000  -6.278958e+001  3.264939e+001 
3425000000  -5.948656e+001  1.970148e+001 
3428125000  -5.943965e+001  1.044655e+001 
3431250000  -6.040966e+001  9.791718e+000 
3434375000  -5.982875e+001  -1.920915e+001 
3437500000  -6.329518e+001  -3.014761e+001 
3440625000  -6.190638e+001  -2.353025e+001 
3443750000  -6.266504e+001  -2.942304e+001 
3446875000  -6.151332e+001  -5.237803e+001 
3450000000  -6.122305e+001  -8.377715e+001 
3453125000  -6.127784e+001  -7.899541e+001 
3456250000  -6.539858e+001  -8.166970e+001 
3459375000  -6.676394e+001  -2.552487e+001 
3462500000  -6.609205e+001  -1.040667e+002 
3465625000  -6.553822e+001  -1.015505e+002 
3468750000  -6.877715e+001  -1.173412e+002 
3471875000  -6.411561e+001  -9.399730e+001 
3475000000  -6.435159e+001  -1.117413e+002 
3478125000  -6.845024e+001  -1.313592e+002 
3481250000  -6.889612e+001  -1.551136e+002 
3484375000  -6.559702e+001  -1.156505e+002 
3487500000  -6.747329e+001  -1.463289e+002 
3490625000  -6.530014e+001  -1.151361e+002 
3493750000  -6.965042e+001  1.727810e+002 
3496875000  -6.767216e+001  -1.544325e+002 
3500000000  -6.667979e+001  -1.590643e+002 
3503125000  -6.340680e+001  1.761907e+002 
3506250000  -6.467548e+001  -1.765472e+002 
3509375000  -6.501553e+001  1.682837e+002 
3512500000  -6.397372e+001  1.605651e+002 
3515625000  -6.791559e+001  1.733073e+002 
3518750000  -6.703567e+001  1.503077e+002 
3521875000  -6.485902e+001  1.241980e+002 
3525000000  -6.594973e+001  1.143194e+002 
3528125000  -7.056802e+001  1.523271e+002 
3531250000  -6.431162e+001  1.235797e+002 
3534375000  -6.662411e+001  1.072570e+002 
3537500000  -6.563899e+001  7.733649e+001 
3540625000  -7.079061e+001  3.814870e+001 
3543750000  -8.244724e+001  3.315112e+001 
3546875000  -6.954492e+001  1.051885e+002 
3550000000  -8.523697e+001  1.009065e+002 
3553125000  -6.887385e+001  -1.688076e+001 
3556250000  -7.591596e+001  2.182554e+001 
3559375000  -6.884491e+001  1.516116e+001 
3562500000  -7.226764e+001  9.959885e+001 
3565625000  -7.018088e+001  2.737985e+001 
3568750000  -7.912495e+001  1.770724e+002 
3571875000  -8.456037e+001  5.426251e+000 
3575000000  -6.953724e+001  2.955287e+000 
3578125000  -7.423173e+001  5.991443e+001 
3581250000  -6.983246e+001  -1.391015e+001 
3584375000  -6.840493e+001  5.227184e+001 
3587500000  -7.223206e+001  2.056505e+001 
3590625000  -6.929698e+001  3.257706e+001 
3593750000  -7.296347e+001  -2.429413e+001 
3596875000  -7.234252e+001  4.246691e+001 
3600000000  -6.316322e+001  -1.176511e+001 
3603125000  -6.982203e+001  -6.353285e-001 
3606250000  -6.547226e+001  -1.267041e+001 
3609375000  -6.579071e+001  -3.410407e+001 
3612500000  -6.416302e+001  -4.487399e+001 
3615625000  -6.813080e+001  -7.462692e+001 
3618750000  -6.412171e+001  -5.524749e+001 
3621875000  -6.584976e+001  -8.589393e+001 
3625000000  -6.286274e+001  -8.235939e+001 
3628125000  -6.282251e+001  -9.559268e+001 
3631250000  -6.363790e+001  -1.098370e+002 
3634375000  -6.838648e+001  -1.082865e+002 
3637500000  -6.192747e+001  -1.162906e+002 
3640625000  -6.147441e+001  -1.274461e+002 
3643750000  -6.394315e+001  -1.413148e+002 
3646875000  -6.189773e+001  -1.676706e+002 
3650000000  -6.330191e+001  1.793112e+002 
3653125000  -6.231993e+001  -1.658879e+002 
3656250000  -6.197890e+001  1.607974e+002 
3659375000  -6.347862e+001  1.653961e+002 
3662500000  -6.489631e+001  1.497015e+002 
3665625000  -6.262430e+001  1.541097e+002 
3668750000  -5.960218e+001  1.237258e+002 
3671875000  -6.142266e+001  1.217699e+002 
3675000000  -6.662544e+001  1.026643e+002 
3678125000  -6.460593e+001  1.127228e+002 
3681250000  -6.437563e+001  9.037727e+001 
3684375000  -6.809406e+001  8.632870e+001 
3687500000  -6.898148e+001  7.261852e+001 
3690625000  -7.166878e+001  1.145924e+002 
3693750000  -6.658736e+001  9.019157e+001 
3696875000  -7.221387e+001  6.249977e+001 
3700000000  -6.707973e+001  6.901923e+001 
3703125000  -7.275859e+001  3.626780e+001 
3706250000  -6.765335e+001  8.018781e+001 
3709375000  -6.445083e+001  7.057092e+001 
3712500000  -6.676336e+001  6.673630e+001 
3715625000  -6.629489e+001  4.040810e+001 
3718750000  -6.140674e+001  2.950021e+001 
3721875000  -6.416358e+001  2.390796e+001 
3725000000  -6.222823e+001  6.266970e+000 
3728125000  -5.901502e+001  -1.400171e+000 
3731250000  -5.873379e+001  -6.588439e+000 
3734375000  -5.944080e+001  -1.087504e+001 
3737500000  -5.774851e+001  -2.917518e+001 
3740625000  -5.805695e+001  -3.761739e+001 
3743750000  -5.825115e+001  -6.108772e+001 
3746875000  -5.859566e+001  -6.030190e+001 
3750000000  -6.113165e+001  -7.918880e+001 
3753125000  -6.079232e+001  -7.666617e+001 
3756250000  -5.840663e+001  -1.079382e+002 
3759375000  -5.883908e+001  -9.883507e+001 
3762500000  -5.847773e+001  -1.159156e+002 
3765625000  -5.763983e+001  -1.246679e+002 
3768750000  -5.665416e+001  -1.341474e+002 
3771875000  -5.550560e+001  -1.423719e+002 
3775000000  -5.618621e+001  -1.595703e+002 
3778125000  -5.696935e+001  1.793691e+002 
3781250000  -5.805399e+001  -1.796117e+002 
3784375000  -5.759109e+001  1.667704e+002 
3787500000  -5.693287e+001  1.541040e+002 
3790625000  -5.773101e+001  1.378310e+002 
3793750000  -5.890102e+001  1.335515e+002 
3796875000  -5.763468e+001  1.204799e+002 
3800000000  -5.401962e+001  7.409364e+001 
3803125000  -5.671074e+001  9.926360e+001 
3806250000  -5.964851e+001  7.613981e+001 
3809375000  -5.850188e+001  8.966277e+001 
3812500000  -5.800997e+001  6.803000e+001 
3815625000  -6.242466e+001  4.706324e+001 
3818750000  -6.013861e+001  3.574638e+001 
3821875000  -6.043404e+001  7.188914e+001 
3825000000  -5.801826e+001  4.555739e+001 
3828125000  -5.724884e+001  4.240316e+000 
3831250000  -5.870786e+001  9.079144e+000 
3834375000  -6.244982e+001  1.642108e+001 
3837500000  -6.453320e+001  5.585425e+000 
3840625000  -6.216730e+001  1.374037e+001 
3843750000  -5.773343e+001  -1.578426e+001 
3846875000  -6.531374e+001  -4.824153e+001 
3850000000  -6.335969e+001  -1.340800e+001 
3853125000  -6.119420e+001  -9.475468e+000 
3856250000  -6.167299e+001  -1.653329e+001 
3859375000  -5.954229e+001  -2.670982e+001 
3862500000  -6.047072e+001  -5.770027e+001 
3865625000  -6.136555e+001  -5.564603e+001 
3868750000  -5.830142e+001  -4.817881e+001 
3871875000  -5.723252e+001  -6.336069e+001 
3875000000  -5.848131e+001  -6.527269e+001 
3878125000  -5.791228e+001  -9.003895e+001 
3881250000  -5.727562e+001  -8.208636e+001 
3884375000  -5.624748e+001  -9.780815e+001 
3887500000  -5.587829e+001  -1.201498e+002 
3890625000  -5.719486e+001  -1.288550e+002 
3893750000  -5.740938e+001  -1.246193e+002 
3896875000  -5.740757e+001  -1.298284e+002 
3900000000  -5.582417e+001  -1.474528e+002 
3903125000  -5.379814e+001  -1.589695e+002 
3906250000  -5.371313e+001  -1.689548e+002 
3909375000  -5.317808e+001  1.735183e+002 
3912500000  -5.599131e+001  1.661169e+002 
3915625000  -5.539343e+001  1.592986e+002 
3918750000  -5.348759e+001  1.509636e+002 
3921875000  -5.517746e+001  1.492621e+002 
3925000000  -5.276967e+001  1.265605e+002 
3928125000  -5.244459e+001  1.072233e+002 
3931250000  -5.360647e+001  9.931355e+001 
3934375000  -5.481870e+001  8.302431e+001 
3937500000  -5.419546e+001  8.371622e+001 
3940625000  -5.512573e+001  7.558688e+001 
3943750000  -5.374137e+001  6.049697e+001 
3946875000  -5.265316e+001  4.963286e+001 
3950000000  -5.601391e+001  3.959109e+001 
3953125000  -5.462717e+001  3.528212e+001 
3956250000  -5.353465e+001  1.783507e+001 
3959375000  -5.254488e+001  1.706996e+001 
3962500000  -5.222511e+001  -1.227196e+001 
3965625000  -5.244597e+001  -1.615689e+001 
3968750000  -5.298049e+001  -3.396358e+001 
3971875000  -5.393139e+001  -4.213050e+001 
3975000000  -5.297020e+001  -5.595010e+001 
3978125000  -5.381549e+001  -5.426501e+001 
3981250000  -5.422319e+001  -7.339238e+001 
3984375000  -5.584465e+001  -8.681625e+001 
3987500000  -5.639306e+001  -9.149991e+001 
3990625000  -5.836013e+001  -9.467648e+001 
3993750000  -5.849918e+001  -1.218571e+002 
3996875000  -5.803013e+001  -1.204662e+002 
4000000000  -6.008216e+001  -1.226086e+002 
4003125000  -5.819998e+001  -1.349598e+002 
4006250000  -5.522492e+001  -1.374464e+002 
4009375000  -5.966823e+001  -1.528918e+002 
4012500000  -6.008992e+001  -1.551391e+002 
4015625000  -6.164637e+001  -1.666317e+002 
4018750000  -5.753434e+001  -1.665294e+002 
4021875000  -5.971545e+001  -1.613158e+002 
4025000000  -6.099427e+001  1.721357e+002 
4028125000  -5.884226e+001  1.714188e+002 
4031250000  -6.151336e+001  1.637573e+002 
4034375000  -6.002855e+001  1.642001e+002 
4037500000  -5.709209e+001  1.524603e+002 
4040625000  -6.192140e+001  1.469213e+002 
4043750000  -5.873822e+001  1.446114e+002 
4046875000  -5.804606e+001  1.428209e+002 
4050000000  -5.552611e+001  1.223008e+002 
4053125000  -5.772492e+001  1.137149e+002 
4056250000  -5.824266e+001  1.082329e+002 
4059375000  -5.540467e+001  1.127829e+002 
4062500000  -5.408762e+001  9.512915e+001 
4065625000  -5.417012e+001  8.507516e+001 
4068750000  -5.500386e+001  6.943146e+001 
4071875000  -5.246060e+001  5.821362e+001 
4075000000  -5.329499e+001  5.297080e+001 
4078125000  -5.322666e+001  4.166114e+001 
4081250000  -5.344714e+001  3.059232e+001 
4084375000  -5.227053e+001  9.934911e+000 
4087500000  -5.459379e+001  -5.551765e+000 
4090625000  -5.385108e+001  -7.339919e+000 
4093750000  -5.255320e+001  -2.116164e+001 
4096875000  -5.376871e+001  -2.904428e+001 
4100000000  -5.491188e+001  -5.650779e+001 
4103125000  -5.483846e+001  -4.536219e+001 
4106250000  -5.391246e+001  -5.629608e+001 
4109375000  -5.380222e+001  -6.759478e+001 
4112500000  -5.260236e+001  -8.364627e+001 
4115625000  -5.429417e+001  -8.928355e+001 
4118750000  -5.292284e+001  -1.075412e+002 
4121875000  -5.321513e+001  -1.267905e+002 
4125000000  -5.424628e+001  -1.243226e+002 
4128125000  -5.465271e+001  -1.296857e+002 
4131250000  -5.340557e+001  -1.321983e+002 
4134375000  -5.181485e+001  -1.498214e+002 
4137500000  -5.186952e+001  -1.738556e+002 
4140625000  -5.360044e+001  1.715588e+002 
4143750000  -5.678713e+001  1.681010e+002 
4146875000  -5.397515e+001  1.731470e+002 
4150000000  -5.416092e+001  1.617546e+002 
4153125000  -5.350786e+001  1.371182e+002 
4156250000  -5.709155e+001  1.299582e+002 
4159375000  -5.601324e+001  1.228633e+002 
4162500000  -5.633404e+001  1.256149e+002 
4165625000  -5.414713e+001  1.151581e+002 
4168750000  -5.430323e+001  8.837608e+001 
4171875000  -5.490120e+001  7.388670e+001 
4175000000  -5.462483e+001  6.750928e+001 
4178125000  -5.743016e+001  6.278487e+001 
4181250000  -5.735017e+001  2.652644e+001 
4184375000  -5.960042e+001  3.474062e+001 
4187500000  -5.786942e+001  1.697800e+001 
4190625000  -6.089796e+001  1.182608e+001 
4193750000  -6.067140e+001  4.365689e+001 
4196875000  -6.290275e+001  3.029024e+001 
4200000000  -6.386150e+001  2.661490e+001 
4203125000  -6.763238e+001  2.621635e+001 
4206250000  -5.840244e+001  2.122204e+001 
4209375000  -6.059641e+001  -1.235378e+001 
4212500000  -6.253381e+001  -7.357502e+000 
4215625000  -6.847161e+001  -2.161444e+001 
4218750000  -6.369712e+001  2.838671e+001 
4221875000  -6.036629e+001  -3.950759e+001 
4225000000  -5.864413e+001  -1.987314e+001 
4228125000  -5.910990e+001  -3.239063e+001 
4231250000  -6.141053e+001  -1.233311e+001 
4234375000  -5.790125e+001  -4.740151e+001 
4237500000  -5.757052e+001  -5.319758e+001 
4240625000  -5.544542e+001  -5.690401e+001 
4243750000  -5.874168e+001  -7.038850e+001 
4246875000  -5.561726e+001  -7.966248e+001 
4250000000  -5.737377e+001  -8.872129e+001 
4253125000  -5.452251e+001  -9.026335e+001 
4256250000  -5.574347e+001  -1.021059e+002 
4259375000  -5.489604e+001  -1.154052e+002 
4262500000  -5.563547e+001  -1.264395e+002 
4265625000  -5.294051e+001  -1.221487e+002 
4268750000  -5.253556e+001  -1.391852e+002 
4271875000  -5.272141e+001  -1.486684e+002 
4275000000  -5.055782e+001  -1.752632e+002 
4278125000  -5.510398e+001  1.611575e+002 
4281250000  -5.333319e+001  1.579208e+002 
4284375000  -5.359715e+001  1.579688e+002 
4287500000  -5.661379e+001  1.482962e+002 
4290625000  -5.542255e+001  1.467296e+002 
4293750000  -5.374911e+001  1.427868e+002 
4296875000  -5.223515e+001  1.148457e+002 
4300000000  -5.318629e+001  1.084705e+002 
4303125000  -5.248748e+001  9.972891e+001 
4306250000  -5.266837e+001  9.845982e+001 
4309375000  -5.078468e+001  8.293501e+001 
4312500000  -5.216773e+001  6.289624e+001 
4315625000  -5.203231e+001  4.891307e+001 
4318750000  -5.322120e+001  4.382890e+001 
4321875000  -5.236356e+001  3.064646e+001 
4325000000  -5.341516e+001  2.152452e+001 
4328125000  -5.109399e+001  1.024184e+001 
4331250000  -5.317793e+001  -2.924338e+000 
4334375000  -5.346475e+001  -1.139189e+001 
4337500000  -5.630990e+001  -3.049190e+001 
4340625000  -5.436711e+001  -3.425393e+001 
4343750000  -5.419844e+001  -4.113480e+001 
4346875000  -5.474441e+001  -3.985125e+001 
4350000000  -5.592120e+001  -6.005956e+001 
4353125000  -5.586235e+001  -8.308964e+001 
4356250000  -5.719525e+001  -7.196058e+001 
4359375000  -6.010764e+001  -4.662531e+001 
4362500000  -5.679255e+001  -7.497109e+001 
4365625000  -5.324967e+001  -8.669701e+001 
4368750000  -5.679135e+001  -1.007791e+002 
4371875000  -5.724339e+001  -1.092821e+002 
4375000000  -5.648619e+001  -1.165765e+002 
4378125000  -5.515416e+001  -1.232844e+002 
4381250000  -5.570253e+001  -1.332164e+002 
4384375000  -5.568448e+001  -1.408607e+002 
4387500000  -5.863157e+001  -1.450088e+002 
4390625000  -5.789120e+001  -1.528420e+002 
4393750000  -5.847997e+001  -1.355413e+002 
4396875000  -5.643290e+001  -1.576747e+002 
4400000000  -5.521676e+001  1.764535e+002 
4403125000  -5.509719e+001  1.763863e+002 
4406250000  -5.779183e+001  1.721849e+002 
4409375000  -5.548729e+001  1.630665e+002 
4412500000  -5.939773e+001  1.678412e+002 
4415625000  -5.435043e+001  1.604859e+002 
4418750000  -5.389116e+001  1.503053e+002 
