!Agilent Technologies,E8363B,MY43030201,A.06.04.32
!Agilent E8363B: A.06.04.32
!Date: Tuesday, November 11, 2014 22:12:26
!Correction: S21(Response(S21)) 
!S1P File: Measurement: S21:
# Hz S  dB   R 50
3000000000  -4.870133e+001  -7.369640e+001 
3003125000  -5.171283e+001  -7.703872e+001 
3006250000  -5.162180e+001  -9.015414e+001 
3009375000  -5.195063e+001  -8.812144e+001 
3012500000  -5.116447e+001  -9.821630e+001 
3015625000  -5.144130e+001  -1.065092e+002 
3018750000  -5.192591e+001  -1.139108e+002 
3021875000  -4.993552e+001  -1.173143e+002 
3025000000  -4.862645e+001  -1.320451e+002 
3028125000  -4.797115e+001  -1.438603e+002 
3031250000  -4.708745e+001  -1.619437e+002 
3034375000  -4.753197e+001  -1.790255e+002 
3037500000  -4.795383e+001  1.638787e+002 
3040625000  -4.881510e+001  1.539458e+002 
3043750000  -4.998662e+001  1.373961e+002 
3046875000  -5.021268e+001  1.324138e+002 
3050000000  -5.169588e+001  1.223098e+002 
3053125000  -5.133133e+001  1.190937e+002 
3056250000  -5.104778e+001  1.198205e+002 
3059375000  -5.078330e+001  1.086917e+002 
3062500000  -4.930671e+001  1.001685e+002 
3065625000  -4.938487e+001  8.395834e+001 
3068750000  -4.933276e+001  7.390788e+001 
3071875000  -4.966505e+001  6.704079e+001 
3075000000  -4.839819e+001  5.505250e+001 
3078125000  -4.833247e+001  4.315725e+001 
3081250000  -4.903915e+001  3.394574e+001 
3084375000  -4.833260e+001  2.489396e+001 
3087500000  -4.832035e+001  1.116113e+001 
3090625000  -4.800527e+001  -7.336818e+000 
3093750000  -4.945015e+001  -1.701227e+001 
3096875000  -5.005508e+001  -2.106226e+001 
3100000000  -4.915387e+001  -3.365736e+001 
3103125000  -4.983279e+001  -3.923828e+001 
3106250000  -4.931738e+001  -4.949261e+001 
3109375000  -4.975022e+001  -5.984643e+001 
3112500000  -4.923476e+001  -6.892071e+001 
3115625000  -4.937952e+001  -7.911340e+001 
3118750000  -4.968609e+001  -8.719645e+001 
3121875000  -4.948055e+001  -1.012050e+002 
3125000000  -5.114811e+001  -1.101753e+002 
3128125000  -5.090741e+001  -1.062751e+002 
3131250000  -4.858569e+001  -1.184282e+002 
3134375000  -4.784211e+001  -1.390082e+002 
3137500000  -4.802185e+001  -1.546152e+002 
3140625000  -4.960505e+001  -1.583163e+002 
3143750000  -5.037812e+001  -1.697532e+002 
3146875000  -4.988750e+001  -1.714975e+002 
3150000000  -4.892878e+001  1.793697e+002 
3153125000  -4.951463e+001  1.619954e+002 
3156250000  -5.027324e+001  1.654487e+002 
3159375000  -4.748647e+001  1.621271e+002 
3162500000  -4.617578e+001  1.350006e+002 
3165625000  -4.759180e+001  1.173389e+002 
3168750000  -4.730460e+001  1.156909e+002 
3171875000  -4.723612e+001  1.010028e+002 
3175000000  -4.752854e+001  8.738145e+001 
3178125000  -4.722216e+001  8.265622e+001 
3181250000  -4.657081e+001  6.836717e+001 
3184375000  -4.626356e+001  4.744461e+001 
3187500000  -4.776146e+001  3.366962e+001 
3190625000  -4.969390e+001  2.091856e+001 
3193750000  -4.955681e+001  2.275849e+001 
3196875000  -4.958605e+001  1.845888e+001 
3200000000  -4.859670e+001  7.671345e+000 
3203125000  -4.857306e+001  -3.595113e+000 
3206250000  -4.838414e+001  -1.831219e+001 
3209375000  -4.769545e+001  -3.141139e+001 
3212500000  -4.873249e+001  -3.700772e+001 
3215625000  -4.800233e+001  -4.712035e+001 
3218750000  -4.903716e+001  -6.658201e+001 
3221875000  -4.960381e+001  -7.346130e+001 
3225000000  -4.970382e+001  -8.500170e+001 
3228125000  -5.011397e+001  -9.355132e+001 
3231250000  -5.142997e+001  -1.036326e+002 
3234375000  -5.016794e+001  -1.096246e+002 
3237500000  -5.059850e+001  -1.187471e+002 
3240625000  -4.971745e+001  -1.313407e+002 
3243750000  -5.033571e+001  -1.472943e+002 
3246875000  -5.020001e+001  -1.559233e+002 
3250000000  -5.073272e+001  -1.646825e+002 
3253125000  -5.192784e+001  -1.747677e+002 
3256250000  -5.023248e+001  1.694771e+002 
3259375000  -5.074450e+001  1.593823e+002 
3262500000  -5.226727e+001  1.504309e+002 
3265625000  -5.264552e+001  1.462711e+002 
3268750000  -5.231073e+001  1.394042e+002 
3271875000  -5.243090e+001  1.338307e+002 
3275000000  -5.295207e+001  1.259012e+002 
3278125000  -5.278123e+001  1.096156e+002 
3281250000  -5.320911e+001  1.013942e+002 
3284375000  -5.156070e+001  9.789413e+001 
3287500000  -5.373358e+001  8.174968e+001 
3290625000  -5.236137e+001  7.232741e+001 
3293750000  -5.349499e+001  5.758494e+001 
3296875000  -5.425288e+001  5.424800e+001 
3300000000  -5.371028e+001  5.240445e+001 
3303125000  -5.305762e+001  4.332132e+001 
3306250000  -5.297081e+001  2.657292e+001 
3309375000  -5.263827e+001  1.420671e+001 
3312500000  -5.403025e+001  -4.581734e+000 
3315625000  -5.548172e+001  -1.722806e+001 
3318750000  -5.604356e+001  -2.302704e+001 
3321875000  -5.826541e+001  -2.718997e+001 
3325000000  -5.664632e+001  -1.900995e+001 
3328125000  -5.678231e+001  -2.274821e+001 
3331250000  -5.366966e+001  -2.655243e+001 
3334375000  -5.214862e+001  -4.957789e+001 
3337500000  -5.331934e+001  -6.854992e+001 
3340625000  -5.391388e+001  -8.866117e+001 
3343750000  -5.631390e+001  -8.362665e+001 
3346875000  -5.411755e+001  -9.748173e+001 
3350000000  -5.477697e+001  -9.866032e+001 
3353125000  -5.439522e+001  -1.274024e+002 
3356250000  -5.500162e+001  -1.278276e+002 
3359375000  -5.479035e+001  -1.447468e+002 
3362500000  -5.641719e+001  -1.531501e+002 
3365625000  -5.610244e+001  -1.580602e+002 
3368750000  -5.551648e+001  -1.724437e+002 
3371875000  -5.685014e+001  1.772413e+002 
3375000000  -5.778535e+001  1.699472e+002 
3378125000  -5.849816e+001  1.688637e+002 
3381250000  -6.207396e+001  1.606698e+002 
3384375000  -5.624994e+001  1.728556e+002 
3387500000  -5.445533e+001  1.434451e+002 
3390625000  -5.822461e+001  1.222226e+002 
3393750000  -5.638853e+001  1.140300e+002 
3396875000  -5.614196e+001  1.143294e+002 
3400000000  -5.514560e+001  9.243159e+001 
3403125000  -5.662286e+001  9.191933e+001 
3406250000  -5.654728e+001  6.212696e+001 
3409375000  -5.866153e+001  5.859488e+001 
3412500000  -5.790459e+001  5.631429e+001 
3415625000  -5.904054e+001  3.386308e+001 
3418750000  -6.056394e+001  3.758238e+001 
3421875000  -5.956020e+001  3.016944e+001 
3425000000  -5.870936e+001  3.030179e+001 
3428125000  -5.875011e+001  7.067370e+000 
3431250000  -5.895588e+001  1.697487e-001 
3434375000  -5.871381e+001  -2.258532e+001 
3437500000  -6.193590e+001  -3.459925e+001 
3440625000  -6.019000e+001  -3.146652e+001 
3443750000  -6.267177e+001  -1.975495e+001 
3446875000  -6.093861e+001  -5.129636e+001 
3450000000  -6.052794e+001  -7.381523e+001 
3453125000  -6.330448e+001  -7.631547e+001 
3456250000  -6.464108e+001  -1.017097e+002 
3459375000  -6.739306e+001  -7.090082e+001 
3462500000  -6.918526e+001  -8.030831e+001 
3465625000  -6.992977e+001  -8.941907e+001 
3468750000  -6.354595e+001  -1.301980e+002 
3471875000  -6.603372e+001  -1.024482e+002 
3475000000  -6.497552e+001  -1.214797e+002 
3478125000  -7.201148e+001  -7.817017e+001 
3481250000  -7.099704e+001  -1.366742e+002 
3484375000  -6.965222e+001  -1.271944e+002 
3487500000  -6.524316e+001  -1.647256e+002 
3490625000  -6.930417e+001  -1.452729e+002 
3493750000  -6.587516e+001  -1.706271e+002 
3496875000  -6.744573e+001  -1.691849e+002 
3500000000  -6.679179e+001  -1.574933e+002 
3503125000  -6.580409e+001  1.716363e+002 
3506250000  -6.399950e+001  -1.682649e+002 
3509375000  -7.452115e+001  1.687655e+002 
3512500000  -7.124940e+001  1.551797e+002 
3515625000  -6.553673e+001  1.464436e+002 
3518750000  -6.612920e+001  1.369507e+002 
3521875000  -6.749741e+001  1.436909e+002 
3525000000  -6.475114e+001  1.146781e+002 
3528125000  -6.951343e+001  1.624528e+002 
3531250000  -6.820744e+001  9.356000e+001 
3534375000  -6.748075e+001  1.044848e+002 
3537500000  -6.731377e+001  8.103844e+001 
3540625000  -7.641641e+001  7.617723e+001 
3543750000  -7.082770e+001  1.053848e+002 
3546875000  -6.903059e+001  8.726109e+001 
3550000000  -7.118793e+001  5.318053e+001 
3553125000  -7.020420e+001  6.316594e+001 
3556250000  -7.713899e+001  -1.415830e+002 
3559375000  -6.710816e+001  -2.548171e+001 
3562500000  -7.254360e+001  3.880032e+001 
3565625000  -7.233626e+001  7.519031e+001 
3568750000  -7.336927e+001  7.550567e+001 
3571875000  -6.887986e+001  1.318328e+001 
3575000000  -7.054524e+001  -5.362447e+001 
3578125000  -6.861993e+001  4.914227e+001 
3581250000  -7.392159e+001  4.586000e+001 
3584375000  -7.041088e+001  5.980630e+000 
3587500000  -6.563583e+001  2.134951e+001 
3590625000  -6.995305e+001  -2.502815e+001 
3593750000  -6.747141e+001  -1.336880e+001 
3596875000  -6.947379e+001  2.251438e+001 
3600000000  -6.556084e+001  -3.244482e+000 
3603125000  -6.393259e+001  -6.025360e+000 
3606250000  -6.764651e+001  -2.691289e+001 
3609375000  -6.825186e+001  -5.305136e+001 
3612500000  -6.532516e+001  -5.382779e+001 
3615625000  -7.020893e+001  -4.550177e+001 
3618750000  -6.356092e+001  -7.983512e+001 
3621875000  -6.362543e+001  -8.739516e+001 
3625000000  -6.312597e+001  -7.334581e+001 
3628125000  -6.528136e+001  -9.826610e+001 
3631250000  -6.466726e+001  -1.046801e+002 
3634375000  -6.318993e+001  -1.168792e+002 
3637500000  -6.386515e+001  -1.233279e+002 
3640625000  -5.961781e+001  -1.234670e+002 
3643750000  -6.103444e+001  -1.502850e+002 
3646875000  -6.101812e+001  -1.727119e+002 
3650000000  -6.585957e+001  1.616549e+002 
3653125000  -6.390553e+001  1.553373e+002 
3656250000  -6.509343e+001  1.566739e+002 
3659375000  -6.318773e+001  1.438925e+002 
3662500000  -6.589973e+001  1.361747e+002 
3665625000  -6.397372e+001  1.368041e+002 
3668750000  -6.260798e+001  1.223747e+002 
3671875000  -6.186142e+001  1.198137e+002 
3675000000  -6.342327e+001  7.913514e+001 
3678125000  -6.437045e+001  1.037563e+002 
3681250000  -6.625549e+001  8.269371e+001 
3684375000  -6.461570e+001  7.716080e+001 
3687500000  -6.678565e+001  9.210433e+001 
3690625000  -7.328291e+001  9.904322e+001 
3693750000  -6.422298e+001  9.002383e+001 
3696875000  -6.998298e+001  4.739105e+001 
3700000000  -6.004177e+001  6.990900e+001 
3703125000  -6.628421e+001  6.069833e+001 
3706250000  -7.027596e+001  4.360733e+001 
3709375000  -6.861750e+001  3.554697e+001 
3712500000  -6.147004e+001  5.770370e+001 
3715625000  -6.088620e+001  3.775748e+001 
3718750000  -6.449454e+001  2.371922e+001 
3721875000  -6.150343e+001  3.572277e+000 
3725000000  -6.326869e+001  1.548592e+001 
3728125000  -6.155686e+001  2.745861e+001 
3731250000  -5.946493e+001  -1.488832e+001 
3734375000  -5.963160e+001  -2.490269e+001 
3737500000  -5.897727e+001  -4.912315e+001 
3740625000  -5.850304e+001  -5.463414e+001 
3743750000  -6.007471e+001  -5.867137e+001 
3746875000  -5.906799e+001  -7.304241e+001 
3750000000  -5.732411e+001  -8.155894e+001 
3753125000  -5.956283e+001  -7.681028e+001 
3756250000  -5.760988e+001  -9.869666e+001 
3759375000  -5.936238e+001  -1.039939e+002 
3762500000  -5.723474e+001  -1.154946e+002 
3765625000  -5.842207e+001  -1.311435e+002 
3768750000  -5.948706e+001  -1.447103e+002 
3771875000  -5.641655e+001  -1.400003e+002 
3775000000  -5.701649e+001  -1.585615e+002 
3778125000  -5.746243e+001  1.796981e+002 
3781250000  -5.657897e+001  1.757994e+002 
3784375000  -5.710400e+001  1.672776e+002 
3787500000  -5.807293e+001  1.504859e+002 
3790625000  -5.810622e+001  1.475535e+002 
3793750000  -5.674091e+001  1.359376e+002 
3796875000  -5.570292e+001  1.230529e+002 
3800000000  -5.354989e+001  8.395428e+001 
3803125000  -5.704059e+001  9.463257e+001 
3806250000  -6.007246e+001  8.333879e+001 
3809375000  -5.823494e+001  7.977853e+001 
3812500000  -5.629687e+001  6.986185e+001 
3815625000  -5.991097e+001  5.491773e+001 
3818750000  -6.267662e+001  3.767034e+001 
3821875000  -6.136629e+001  6.328804e+001 
3825000000  -5.899098e+001  4.657488e+001 
3828125000  -5.749451e+001  1.807063e+001 
3831250000  -6.114613e+001  6.896759e+000 
3834375000  -6.364565e+001  5.764531e+000 
3837500000  -6.097206e+001  3.112930e+000 
3840625000  -6.118598e+001  -1.933755e+001 
3843750000  -5.868587e+001  -1.456090e+001 
3846875000  -6.544491e+001  -2.486137e+001 
3850000000  -6.336559e+001  -1.296340e+001 
3853125000  -6.269822e+001  -1.884456e+000 
3856250000  -5.864730e+001  4.360203e+000 
3859375000  -6.484999e+001  -3.572670e+001 
3862500000  -6.169357e+001  -4.777328e+001 
3865625000  -5.882177e+001  -5.018616e+001 
3868750000  -5.968607e+001  -4.900267e+001 
3871875000  -5.774777e+001  -5.064125e+001 
3875000000  -5.824494e+001  -6.769379e+001 
3878125000  -5.887241e+001  -8.656509e+001 
3881250000  -5.781389e+001  -9.013288e+001 
3884375000  -5.555391e+001  -1.032334e+002 
3887500000  -5.777681e+001  -1.107543e+002 
3890625000  -5.697038e+001  -1.248913e+002 
3893750000  -5.605223e+001  -1.327249e+002 
3896875000  -5.694704e+001  -1.300308e+002 
3900000000  -5.823531e+001  -1.351457e+002 
3903125000  -5.461065e+001  -1.564337e+002 
3906250000  -5.466184e+001  -1.660191e+002 
3909375000  -5.288014e+001  -1.776667e+002 
3912500000  -5.312693e+001  1.614736e+002 
3915625000  -5.679373e+001  1.638890e+002 
3918750000  -5.454831e+001  1.528451e+002 
3921875000  -5.568243e+001  1.350058e+002 
3925000000  -5.406940e+001  1.289180e+002 
3928125000  -5.274692e+001  1.074411e+002 
3931250000  -5.428456e+001  1.023550e+002 
3934375000  -5.536990e+001  9.269705e+001 
3937500000  -5.488874e+001  8.633169e+001 
3940625000  -5.376923e+001  7.805289e+001 
3943750000  -5.304345e+001  6.418794e+001 
3946875000  -5.366392e+001  5.134815e+001 
3950000000  -5.323584e+001  3.612450e+001 
3953125000  -5.522778e+001  3.172723e+001 
3956250000  -5.464133e+001  2.676351e+001 
3959375000  -5.266092e+001  1.940360e+001 
3962500000  -5.269623e+001  1.568584e+000 
3965625000  -5.279088e+001  -2.182392e+001 
3968750000  -5.450613e+001  -4.137511e+001 
3971875000  -5.375796e+001  -4.372564e+001 
3975000000  -5.356009e+001  -5.784616e+001 
3978125000  -5.464331e+001  -6.280087e+001 
3981250000  -5.519175e+001  -7.956831e+001 
3984375000  -5.561756e+001  -8.662254e+001 
3987500000  -5.542521e+001  -9.589685e+001 
3990625000  -5.595887e+001  -9.057763e+001 
3993750000  -5.733586e+001  -1.170361e+002 
3996875000  -5.837065e+001  -1.338248e+002 
4000000000  -5.866930e+001  -1.313425e+002 
4003125000  -6.169973e+001  -1.375925e+002 
4006250000  -5.651645e+001  -1.377265e+002 
4009375000  -5.650529e+001  -1.568136e+002 
4012500000  -5.836832e+001  -1.725749e+002 
4015625000  -5.831998e+001  -1.637891e+002 
4018750000  -6.055695e+001  -1.628645e+002 
4021875000  -5.968263e+001  1.788419e+002 
4025000000  -6.007700e+001  1.670092e+002 
4028125000  -5.946206e+001  1.736327e+002 
4031250000  -6.220837e+001  1.546784e+002 
4034375000  -6.016813e+001  1.720188e+002 
4037500000  -5.931610e+001  1.528624e+002 
4040625000  -5.927061e+001  1.622027e+002 
4043750000  -6.054472e+001  1.530761e+002 
4046875000  -5.818330e+001  1.395605e+002 
4050000000  -5.813514e+001  1.278213e+002 
4053125000  -5.883590e+001  1.124572e+002 
4056250000  -6.141083e+001  1.177626e+002 
4059375000  -5.541288e+001  1.122198e+002 
4062500000  -5.514907e+001  9.115313e+001 
4065625000  -5.329352e+001  8.838311e+001 
4068750000  -5.396292e+001  8.127310e+001 
4071875000  -5.329063e+001  6.100512e+001 
4075000000  -5.371036e+001  3.554222e+001 
4078125000  -5.342921e+001  3.601181e+001 
4081250000  -5.406518e+001  2.477854e+001 
4084375000  -5.244096e+001  1.132425e+001 
4087500000  -5.385315e+001  -9.226651e-001 
4090625000  -5.427752e+001  3.594728e+000 
4093750000  -5.178793e+001  -2.207896e+001 
4096875000  -5.231091e+001  -3.616924e+001 
4100000000  -5.349351e+001  -5.367201e+001 
4103125000  -5.427169e+001  -4.867620e+001 
4106250000  -5.398707e+001  -5.651039e+001 
4109375000  -5.349585e+001  -6.503185e+001 
4112500000  -5.309623e+001  -7.879031e+001 
4115625000  -5.398852e+001  -8.905037e+001 
4118750000  -5.242699e+001  -9.010936e+001 
4121875000  -5.242527e+001  -1.257271e+002 
4125000000  -5.415340e+001  -1.250211e+002 
4128125000  -5.365088e+001  -1.306510e+002 
4131250000  -5.313163e+001  -1.287516e+002 
4134375000  -5.227794e+001  -1.525726e+002 
4137500000  -5.190738e+001  -1.748921e+002 
4140625000  -5.502394e+001  1.675848e+002 
4143750000  -5.634629e+001  1.757387e+002 
4146875000  -5.413632e+001  1.626636e+002 
4150000000  -5.405233e+001  1.559235e+002 
4153125000  -5.359955e+001  1.459332e+002 
4156250000  -5.482571e+001  1.301860e+002 
4159375000  -5.482952e+001  1.322962e+002 
4162500000  -5.617522e+001  1.352952e+002 
4165625000  -5.396661e+001  1.099596e+002 
4168750000  -5.456759e+001  8.412043e+001 
4171875000  -5.522329e+001  7.406979e+001 
4175000000  -5.485899e+001  6.173571e+001 
4178125000  -5.864375e+001  5.326128e+001 
4181250000  -5.838176e+001  5.033064e+001 
4184375000  -5.784011e+001  4.081777e+001 
4187500000  -5.999256e+001  2.775997e+001 
4190625000  -6.250526e+001  3.179037e+001 
4193750000  -6.077366e+001  2.354430e+001 
4196875000  -6.558298e+001  2.177182e+001 
4200000000  -6.534995e+001  1.755873e+001 
4203125000  -7.624973e+001  4.094144e+001 
4206250000  -5.729442e+001  1.618218e+001 
4209375000  -6.402560e+001  -6.455256e+000 
4212500000  -6.713894e+001  -9.171129e+000 
4215625000  -6.727444e+001  9.586591e-001 
4218750000  -6.126092e+001  1.182358e+000 
4221875000  -5.852291e+001  -6.432715e+000 
4225000000  -5.935803e+001  -3.230307e+001 
4228125000  -6.144282e+001  -2.773057e+001 
4231250000  -5.967361e+001  -2.008641e+001 
4234375000  -5.629419e+001  -4.378575e+001 
4237500000  -5.920830e+001  -4.807607e+001 
4240625000  -5.618070e+001  -5.887869e+001 
4243750000  -5.672120e+001  -6.257502e+001 
4246875000  -5.642659e+001  -7.852041e+001 
4250000000  -5.711899e+001  -8.976443e+001 
4253125000  -5.554354e+001  -8.868176e+001 
4256250000  -5.578408e+001  -1.036972e+002 
4259375000  -5.599084e+001  -9.836118e+001 
4262500000  -5.521314e+001  -1.218407e+002 
4265625000  -5.395387e+001  -1.201802e+002 
4268750000  -5.151824e+001  -1.434848e+002 
4271875000  -5.268877e+001  -1.552976e+002 
4275000000  -5.074639e+001  -1.736833e+002 
4278125000  -5.256495e+001  1.635243e+002 
4281250000  -5.350104e+001  1.654087e+002 
4284375000  -5.456314e+001  1.644934e+002 
4287500000  -5.400027e+001  1.413940e+002 
4290625000  -5.585560e+001  1.518580e+002 
4293750000  -5.320035e+001  1.373030e+002 
4296875000  -5.387774e+001  1.195568e+002 
4300000000  -5.125924e+001  1.036707e+002 
4303125000  -5.393093e+001  9.381298e+001 
4306250000  -5.413565e+001  9.682562e+001 
4309375000  -5.200188e+001  8.455093e+001 
4312500000  -5.233693e+001  6.874834e+001 
4315625000  -5.182137e+001  5.314870e+001 
4318750000  -5.327893e+001  3.779538e+001 
4321875000  -5.287145e+001  3.567839e+001 
4325000000  -5.354626e+001  3.140618e+001 
4328125000  -5.260833e+001  2.076537e+001 
4331250000  -5.278611e+001  -1.043260e+001 
4334375000  -5.391404e+001  -1.328589e+001 
4337500000  -5.438929e+001  -3.078344e+001 
4340625000  -5.564521e+001  -1.593049e+001 
4343750000  -5.464637e+001  -2.869447e+001 
4346875000  -5.593629e+001  -3.530858e+001 
4350000000  -5.612662e+001  -6.061385e+001 
4353125000  -5.670633e+001  -6.689198e+001 
4356250000  -5.740157e+001  -6.608498e+001 
4359375000  -5.782510e+001  -4.918394e+001 
4362500000  -5.817650e+001  -6.884682e+001 
4365625000  -5.234350e+001  -9.874386e+001 
4368750000  -5.488857e+001  -9.659605e+001 
4371875000  -5.670052e+001  -1.224971e+002 
4375000000  -5.575707e+001  -1.158777e+002 
4378125000  -5.580297e+001  -1.198955e+002 
4381250000  -5.716016e+001  -1.305207e+002 
4384375000  -5.557419e+001  -1.373457e+002 
4387500000  -5.707983e+001  -1.508167e+002 
4390625000  -5.692673e+001  -1.614933e+002 
4393750000  -6.023871e+001  -1.394189e+002 
4396875000  -5.575846e+001  -1.525413e+002 
4400000000  -5.636117e+001  -1.613899e+002 
4403125000  -5.638014e+001  1.639481e+002 
4406250000  -5.821780e+001  1.775566e+002 
4409375000  -5.574738e+001  1.622372e+002 
4412500000  -5.703510e+001  1.637771e+002 
4415625000  -5.582569e+001  1.574928e+002 
4418750000  -5.395620e+001  1.492341e+002 
