!Agilent Technologies,E8363B,MY43030201,A.06.04.32
!Agilent E8363B: A.06.04.32
!Date: Tuesday, November 11, 2014 22:14:02
!Correction: S21(Response(S21)) 
!S1P File: Measurement: S21:
# Hz S  dB   R 50
3000000000  -4.893713e+001  -7.312897e+001 
3003125000  -5.104658e+001  -7.763311e+001 
3006250000  -5.119342e+001  -9.002563e+001 
3009375000  -5.196953e+001  -8.818159e+001 
3012500000  -5.071250e+001  -9.635581e+001 
3015625000  -5.157418e+001  -1.095995e+002 
3018750000  -5.184847e+001  -1.148814e+002 
3021875000  -5.018805e+001  -1.163843e+002 
3025000000  -4.879239e+001  -1.274177e+002 
3028125000  -4.813170e+001  -1.449939e+002 
3031250000  -4.706039e+001  -1.647233e+002 
3034375000  -4.711377e+001  -1.783378e+002 
3037500000  -4.783175e+001  1.653819e+002 
3040625000  -4.933463e+001  1.522095e+002 
3043750000  -4.934089e+001  1.417834e+002 
3046875000  -5.114807e+001  1.328471e+002 
3050000000  -5.168262e+001  1.221531e+002 
3053125000  -5.173071e+001  1.216747e+002 
3056250000  -5.122127e+001  1.231831e+002 
3059375000  -5.131150e+001  1.078699e+002 
3062500000  -4.974269e+001  1.028372e+002 
3065625000  -4.860121e+001  8.782548e+001 
3068750000  -4.884840e+001  7.370550e+001 
3071875000  -4.899639e+001  6.968246e+001 
3075000000  -4.844613e+001  5.483195e+001 
3078125000  -4.868747e+001  4.541924e+001 
3081250000  -4.880937e+001  3.503788e+001 
3084375000  -4.828284e+001  2.488611e+001 
3087500000  -4.810437e+001  1.300817e+001 
3090625000  -4.789677e+001  -6.291109e+000 
3093750000  -4.888212e+001  -1.435696e+001 
3096875000  -4.950738e+001  -2.250203e+001 
3100000000  -4.930156e+001  -3.422606e+001 
3103125000  -4.981872e+001  -3.999061e+001 
3106250000  -4.902563e+001  -5.167761e+001 
3109375000  -4.965689e+001  -5.800165e+001 
3112500000  -4.903405e+001  -6.905586e+001 
3115625000  -4.917642e+001  -7.733400e+001 
3118750000  -4.967310e+001  -8.667467e+001 
3121875000  -4.934465e+001  -9.869893e+001 
3125000000  -5.089862e+001  -1.064274e+002 
3128125000  -5.071167e+001  -1.091219e+002 
3131250000  -4.857331e+001  -1.167977e+002 
3134375000  -4.771609e+001  -1.376784e+002 
3137500000  -4.867554e+001  -1.532517e+002 
3140625000  -4.959109e+001  -1.635224e+002 
3143750000  -5.019635e+001  -1.676777e+002 
3146875000  -5.017982e+001  -1.704295e+002 
3150000000  -4.925661e+001  -1.791895e+002 
3153125000  -4.864340e+001  1.647211e+002 
3156250000  -5.007183e+001  1.641564e+002 
3159375000  -4.800004e+001  1.580310e+002 
3162500000  -4.594201e+001  1.335511e+002 
3165625000  -4.800684e+001  1.228123e+002 
3168750000  -4.793921e+001  1.178158e+002 
3171875000  -4.762231e+001  1.035466e+002 
3175000000  -4.762169e+001  8.917828e+001 
3178125000  -4.726993e+001  8.161105e+001 
3181250000  -4.655508e+001  6.920790e+001 
3184375000  -4.669439e+001  4.957445e+001 
3187500000  -4.710594e+001  3.507540e+001 
3190625000  -4.965277e+001  2.154874e+001 
3193750000  -4.983296e+001  2.082185e+001 
3196875000  -4.910243e+001  1.840217e+001 
3200000000  -4.834527e+001  8.588966e+000 
3203125000  -4.860168e+001  -3.976371e+000 
3206250000  -4.870391e+001  -1.535310e+001 
3209375000  -4.821939e+001  -3.064790e+001 
3212500000  -4.905512e+001  -4.112159e+001 
3215625000  -4.799722e+001  -4.471885e+001 
3218750000  -4.954263e+001  -6.289117e+001 
3221875000  -4.905081e+001  -7.733050e+001 
3225000000  -5.010752e+001  -8.539272e+001 
3228125000  -5.006744e+001  -9.582849e+001 
3231250000  -5.052916e+001  -1.028742e+002 
3234375000  -5.006624e+001  -1.111110e+002 
3237500000  -5.020396e+001  -1.175847e+002 
3240625000  -4.997685e+001  -1.297450e+002 
3243750000  -4.997745e+001  -1.455765e+002 
3246875000  -5.003255e+001  -1.547326e+002 
3250000000  -5.144463e+001  -1.639279e+002 
3253125000  -5.159388e+001  -1.741666e+002 
3256250000  -5.091359e+001  1.723612e+002 
3259375000  -5.096410e+001  1.567094e+002 
3262500000  -5.195125e+001  1.468060e+002 
3265625000  -5.254799e+001  1.480675e+002 
3268750000  -5.332374e+001  1.382555e+002 
3271875000  -5.283208e+001  1.355406e+002 
3275000000  -5.229854e+001  1.235878e+002 
3278125000  -5.299895e+001  1.084471e+002 
3281250000  -5.297063e+001  1.103196e+002 
3284375000  -5.254410e+001  9.761579e+001 
3287500000  -5.392141e+001  7.910511e+001 
3290625000  -5.353594e+001  7.536614e+001 
3293750000  -5.277088e+001  6.540143e+001 
3296875000  -5.408257e+001  5.853758e+001 
3300000000  -5.470854e+001  4.887639e+001 
3303125000  -5.274910e+001  4.132782e+001 
3306250000  -5.313449e+001  2.918201e+001 
3309375000  -5.336067e+001  1.877156e+001 
3312500000  -5.350343e+001  -1.003379e-001 
3315625000  -5.405487e+001  -1.561473e+001 
3318750000  -5.605077e+001  -1.925697e+001 
3321875000  -5.707843e+001  -1.960363e+001 
3325000000  -5.722366e+001  -2.906521e+001 
3328125000  -5.598126e+001  -1.448939e+001 
3331250000  -5.448690e+001  -3.023583e+001 
3334375000  -5.152832e+001  -5.062893e+001 
3337500000  -5.192371e+001  -6.502430e+001 
3340625000  -5.411990e+001  -9.026837e+001 
3343750000  -5.610770e+001  -8.289871e+001 
3346875000  -5.417168e+001  -9.432474e+001 
3350000000  -5.455721e+001  -1.021871e+002 
3353125000  -5.489179e+001  -1.192088e+002 
3356250000  -5.412525e+001  -1.270636e+002 
3359375000  -5.436435e+001  -1.444632e+002 
3362500000  -5.651166e+001  -1.473859e+002 
3365625000  -5.566793e+001  -1.584624e+002 
3368750000  -5.653186e+001  -1.693123e+002 
3371875000  -5.841446e+001  1.742790e+002 
3375000000  -5.752448e+001  1.753120e+002 
3378125000  -5.809289e+001  1.661062e+002 
3381250000  -6.061946e+001  1.652288e+002 
3384375000  -5.478039e+001  -1.734207e+002 
3387500000  -5.314728e+001  1.507629e+002 
3390625000  -5.809678e+001  1.379548e+002 
3393750000  -5.803086e+001  1.137746e+002 
3396875000  -5.722514e+001  1.190711e+002 
3400000000  -5.569661e+001  1.043720e+002 
3403125000  -5.673004e+001  8.304775e+001 
3406250000  -5.663018e+001  8.486248e+001 
3409375000  -5.628379e+001  5.465155e+001 
3412500000  -5.778520e+001  4.813795e+001 
3415625000  -6.083399e+001  4.500594e+001 
3418750000  -6.071858e+001  3.155470e+001 
3421875000  -5.970113e+001  2.221017e+001 
3425000000  -5.972846e+001  2.743743e+001 
3428125000  -5.829982e+001  1.150784e+001 
3431250000  -6.219889e+001  1.069077e+000 
3434375000  -5.819114e+001  -3.396379e+001 
3437500000  -6.264651e+001  -1.331030e+001 
3440625000  -6.351256e+001  -2.991995e+001 
3443750000  -6.298295e+001  -1.875443e+001 
3446875000  -6.006432e+001  -5.823559e+001 
3450000000  -5.933994e+001  -7.455360e+001 
3453125000  -6.038312e+001  -5.566816e+001 
3456250000  -6.556039e+001  -7.947997e+001 
3459375000  -6.571638e+001  -6.988998e+001 
3462500000  -6.640384e+001  -8.342827e+001 
3465625000  -6.887461e+001  -9.071676e+001 
3468750000  -6.536631e+001  -1.155984e+002 
3471875000  -6.696684e+001  -1.226964e+002 
3475000000  -6.715276e+001  -1.402337e+002 
3478125000  -7.827000e+001  -1.230754e+002 
3481250000  -6.902805e+001  -1.424037e+002 
3484375000  -6.649677e+001  -1.179548e+002 
3487500000  -6.367638e+001  -1.193145e+002 
3490625000  -6.489075e+001  -1.356688e+002 
3493750000  -6.925058e+001  -1.695783e+002 
3496875000  -6.754534e+001  -1.766343e+002 
3500000000  -6.497693e+001  -1.502255e+002 
3503125000  -6.599019e+001  -1.431353e+002 
3506250000  -6.306716e+001  -1.557552e+002 
3509375000  -6.719928e+001  1.789212e+002 
3512500000  -6.851270e+001  1.322221e+002 
3515625000  -6.480855e+001  1.600924e+002 
3518750000  -6.860838e+001  1.251558e+002 
3521875000  -6.654948e+001  1.474438e+002 
3525000000  -6.552281e+001  1.369959e+002 
3528125000  -6.634715e+001  1.104671e+002 
3531250000  -7.182331e+001  1.434666e+002 
3534375000  -6.648029e+001  1.026757e+002 
3537500000  -6.770206e+001  4.409381e+001 
3540625000  -7.299384e+001  9.287834e+001 
3543750000  -6.667971e+001  7.893510e+001 
3546875000  -7.121318e+001  6.148315e+001 
3550000000  -6.532629e+001  6.777912e+001 
3553125000  -7.422746e+001  4.388644e+001 
3556250000  -7.414684e+001  5.605613e+001 
3559375000  -7.105569e+001  4.180624e+001 
3562500000  -8.169262e+001  -4.999228e+001 
3565625000  -7.175031e+001  6.681918e+001 
3568750000  -7.388430e+001  1.447645e+002 
3571875000  -6.907706e+001  5.814320e+001 
3575000000  -8.020677e+001  -2.603303e+001 
3578125000  -7.042728e+001  2.613242e+001 
3581250000  -8.728177e+001  -8.043208e+001 
3584375000  -7.269941e+001  -9.373690e-001 
3587500000  -7.361070e+001  -3.244291e+001 
3590625000  -6.688982e+001  -1.456749e+001 
3593750000  -6.674920e+001  2.703115e+000 
3596875000  -6.906158e+001  6.173596e+001 
3600000000  -6.855518e+001  9.820937e-001 
3603125000  -6.703260e+001  1.607137e+000 
3606250000  -6.775269e+001  -2.502277e+001 
3609375000  -6.443934e+001  -5.452444e+001 
3612500000  -6.526435e+001  -4.058722e+001 
3615625000  -7.044733e+001  -7.923074e+001 
3618750000  -6.362380e+001  -7.731326e+001 
3621875000  -6.271813e+001  -7.795599e+001 
3625000000  -6.450867e+001  -8.019181e+001 
3628125000  -6.398156e+001  -1.132733e+002 
3631250000  -6.647116e+001  -1.132492e+002 
3634375000  -6.493071e+001  -1.330685e+002 
3637500000  -6.244042e+001  -1.157789e+002 
3640625000  -6.122089e+001  -1.385402e+002 
3643750000  -6.261130e+001  -1.228227e+002 
3646875000  -6.239148e+001  -1.661866e+002 
3650000000  -6.613615e+001  1.729410e+002 
3653125000  -6.853688e+001  -1.478056e+002 
3656250000  -6.750752e+001  1.716826e+002 
3659375000  -6.206779e+001  1.571752e+002 
3662500000  -6.174767e+001  1.461738e+002 
3665625000  -6.252805e+001  1.532883e+002 
3668750000  -6.964780e+001  1.159084e+002 
3671875000  -6.730625e+001  1.050280e+002 
3675000000  -6.367274e+001  1.018870e+002 
3678125000  -6.462963e+001  1.103740e+002 
3681250000  -6.124268e+001  9.225298e+001 
3684375000  -6.502206e+001  7.792062e+001 
3687500000  -6.716212e+001  7.800863e+001 
3690625000  -6.913075e+001  3.913359e+001 
3693750000  -7.172297e+001  1.065836e+002 
3696875000  -7.138888e+001  7.748669e+001 
3700000000  -6.408334e+001  1.000889e+002 
3703125000  -6.797620e+001  3.503390e+001 
3706250000  -6.676760e+001  6.882984e+001 
3709375000  -6.486559e+001  7.187005e+001 
3712500000  -6.005227e+001  6.204612e+001 
3715625000  -6.217195e+001  3.159487e+001 
3718750000  -6.128288e+001  2.949941e+001 
3721875000  -6.050268e+001  9.643110e+000 
3725000000  -6.266483e+001  2.203941e+001 
3728125000  -6.229017e+001  4.615486e-001 
3731250000  -6.103217e+001  -1.047406e+001 
3734375000  -6.038240e+001  -2.455558e+001 
3737500000  -5.842091e+001  -4.128057e+001 
3740625000  -5.938007e+001  -4.408078e+001 
3743750000  -5.712217e+001  -5.336436e+001 
3746875000  -5.917342e+001  -5.309378e+001 
3750000000  -5.916560e+001  -8.925602e+001 
3753125000  -5.760569e+001  -8.292142e+001 
3756250000  -5.841037e+001  -9.790832e+001 
3759375000  -5.839666e+001  -1.093553e+002 
3762500000  -5.809396e+001  -1.190056e+002 
3765625000  -5.704891e+001  -1.209856e+002 
3768750000  -5.750950e+001  -1.340782e+002 
3771875000  -5.671344e+001  -1.388902e+002 
3775000000  -5.624482e+001  -1.538067e+002 
3778125000  -5.851721e+001  -1.715358e+002 
3781250000  -5.741690e+001  1.733805e+002 
3784375000  -5.693287e+001  1.776300e+002 
3787500000  -5.817328e+001  1.515473e+002 
3790625000  -5.872789e+001  1.494985e+002 
3793750000  -5.808113e+001  1.239563e+002 
3796875000  -5.731644e+001  1.290226e+002 
3800000000  -5.314667e+001  8.006303e+001 
3803125000  -5.777378e+001  8.416029e+001 
3806250000  -6.026108e+001  8.995293e+001 
3809375000  -5.747051e+001  7.282967e+001 
3812500000  -5.777535e+001  7.240483e+001 
3815625000  -6.091483e+001  4.401450e+001 
3818750000  -6.027776e+001  2.697921e+001 
3821875000  -6.401304e+001  6.232228e+001 
3825000000  -6.020781e+001  3.498502e+001 
3828125000  -5.728892e+001  3.422439e+001 
3831250000  -6.121787e+001  2.244730e+000 
3834375000  -6.455959e+001  -8.983251e+000 
3837500000  -6.585553e+001  6.836585e+000 
3840625000  -6.027471e+001  1.460830e+001 
3843750000  -6.216938e+001  -1.142713e+001 
3846875000  -6.418395e+001  -1.676476e+001 
3850000000  -6.198653e+001  -2.056527e+001 
3853125000  -6.181123e+001  2.529026e+000 
3856250000  -5.849944e+001  -6.120107e+000 
3859375000  -5.884651e+001  -3.561070e+001 
3862500000  -6.404143e+001  -4.959448e+001 
3865625000  -6.067654e+001  -4.727508e+001 
3868750000  -6.053459e+001  -3.638829e+001 
3871875000  -5.637733e+001  -4.501598e+001 
3875000000  -6.171912e+001  -7.299180e+001 
3878125000  -5.608436e+001  -7.940057e+001 
3881250000  -5.628896e+001  -9.023409e+001 
3884375000  -5.526072e+001  -8.776576e+001 
3887500000  -5.627485e+001  -1.085427e+002 
3890625000  -5.768793e+001  -1.128863e+002 
3893750000  -5.641477e+001  -1.300339e+002 
3896875000  -5.527996e+001  -1.273330e+002 
3900000000  -5.580460e+001  -1.458293e+002 
3903125000  -5.492128e+001  -1.529076e+002 
3906250000  -5.508292e+001  -1.719805e+002 
3909375000  -5.404140e+001  1.775526e+002 
3912500000  -5.430382e+001  1.706544e+002 
3915625000  -5.552289e+001  1.494240e+002 
3918750000  -5.497537e+001  1.596687e+002 
3921875000  -5.626272e+001  1.440617e+002 
3925000000  -5.384077e+001  1.283245e+002 
3928125000  -5.378568e+001  1.156094e+002 
3931250000  -5.529092e+001  1.026129e+002 
3934375000  -5.413561e+001  8.964529e+001 
3937500000  -5.605016e+001  9.406574e+001 
3940625000  -5.356727e+001  8.195969e+001 
3943750000  -5.297831e+001  7.618735e+001 
3946875000  -5.322289e+001  4.410783e+001 
3950000000  -5.544372e+001  3.161018e+001 
3953125000  -5.799352e+001  3.638195e+001 
3956250000  -5.462798e+001  2.476691e+001 
3959375000  -5.226092e+001  1.571768e+001 
3962500000  -5.169318e+001  -1.566139e+000 
3965625000  -5.327943e+001  -1.650419e+001 
3968750000  -5.413784e+001  -3.907045e+001 
3971875000  -5.344075e+001  -4.210174e+001 
3975000000  -5.357114e+001  -5.146956e+001 
3978125000  -5.552158e+001  -5.686191e+001 
3981250000  -5.387285e+001  -7.058269e+001 
3984375000  -5.449666e+001  -7.988769e+001 
3987500000  -5.563449e+001  -9.051222e+001 
3990625000  -5.651087e+001  -1.046796e+002 
3993750000  -5.609837e+001  -1.126075e+002 
3996875000  -5.875493e+001  -1.206600e+002 
4000000000  -5.827095e+001  -1.233812e+002 
4003125000  -6.021474e+001  -1.291445e+002 
4006250000  -5.687322e+001  -1.380857e+002 
4009375000  -5.759403e+001  -1.486896e+002 
4012500000  -5.984523e+001  -1.623623e+002 
4015625000  -6.008124e+001  -1.643922e+002 
4018750000  -5.969310e+001  -1.633950e+002 
4021875000  -5.764657e+001  -1.632124e+002 
4025000000  -5.886400e+001  1.725013e+002 
4028125000  -6.185878e+001  1.623555e+002 
4031250000  -6.311520e+001  1.683318e+002 
4034375000  -6.322021e+001  1.603505e+002 
4037500000  -5.901863e+001  1.565972e+002 
4040625000  -5.696109e+001  1.561212e+002 
4043750000  -6.078764e+001  1.492669e+002 
4046875000  -5.707563e+001  1.420815e+002 
4050000000  -5.800016e+001  1.101724e+002 
4053125000  -5.957100e+001  1.316079e+002 
4056250000  -5.999796e+001  1.133548e+002 
4059375000  -5.586480e+001  1.116900e+002 
4062500000  -5.371189e+001  1.050207e+002 
4065625000  -5.469875e+001  8.344304e+001 
4068750000  -5.503862e+001  8.005219e+001 
4071875000  -5.353239e+001  6.651429e+001 
4075000000  -5.284423e+001  4.701876e+001 
4078125000  -5.335391e+001  4.090433e+001 
4081250000  -5.266244e+001  2.198130e+001 
4084375000  -5.261090e+001  1.317615e+001 
4087500000  -5.503679e+001  -5.864069e-001 
4090625000  -5.360685e+001  -5.641901e-001 
4093750000  -5.399137e+001  -1.974893e+001 
4096875000  -5.289128e+001  -3.053843e+001 
4100000000  -5.380110e+001  -4.265758e+001 
4103125000  -5.455047e+001  -4.622041e+001 
4106250000  -5.340411e+001  -5.501198e+001 
4109375000  -5.424530e+001  -6.607535e+001 
4112500000  -5.265889e+001  -7.901029e+001 
4115625000  -5.352907e+001  -8.876188e+001 
4118750000  -5.231226e+001  -9.681054e+001 
4121875000  -5.201144e+001  -1.195296e+002 
4125000000  -5.311699e+001  -1.204134e+002 
4128125000  -5.413708e+001  -1.387592e+002 
4131250000  -5.286954e+001  -1.288923e+002 
4134375000  -5.204106e+001  -1.507800e+002 
4137500000  -5.246343e+001  -1.668470e+002 
4140625000  -5.477609e+001  1.700153e+002 
4143750000  -5.511494e+001  1.742355e+002 
4146875000  -5.525260e+001  1.606542e+002 
4150000000  -5.457305e+001  1.480401e+002 
4153125000  -5.332906e+001  1.426384e+002 
4156250000  -5.647646e+001  1.307437e+002 
4159375000  -5.519880e+001  1.340626e+002 
4162500000  -5.651625e+001  1.213876e+002 
4165625000  -5.524612e+001  1.164424e+002 
4168750000  -5.298413e+001  8.705606e+001 
4171875000  -5.531796e+001  8.076062e+001 
4175000000  -5.810957e+001  7.163123e+001 
4178125000  -5.756064e+001  7.061033e+001 
4181250000  -5.784221e+001  4.905179e+001 
4184375000  -6.066271e+001  5.023394e+001 
4187500000  -5.797054e+001  2.244413e+001 
4190625000  -6.039387e+001  3.106907e+001 
4193750000  -6.044294e+001  1.198116e+001 
4196875000  -6.503153e+001  -8.075298e-001 
4200000000  -6.847501e+001  4.412964e+001 
4203125000  -6.523279e+001  2.634244e+000 
4206250000  -6.273491e+001  3.224498e+001 
4209375000  -6.220472e+001  2.712156e+001 
4212500000  -6.238725e+001  -1.837263e+001 
4215625000  -6.086611e+001  4.370354e+000 
4218750000  -6.862611e+001  6.403089e+000 
4221875000  -6.000693e+001  -2.965568e+001 
4225000000  -6.032111e+001  -9.408766e+000 
4228125000  -5.801832e+001  -2.113186e+001 
4231250000  -6.063175e+001  -9.025112e+000 
4234375000  -5.648448e+001  -4.789094e+001 
4237500000  -5.714986e+001  -5.512251e+001 
4240625000  -5.658600e+001  -5.349480e+001 
4243750000  -5.705481e+001  -7.890822e+001 
4246875000  -5.665109e+001  -8.265017e+001 
4250000000  -5.679081e+001  -8.416227e+001 
4253125000  -5.465628e+001  -8.427694e+001 
4256250000  -5.491891e+001  -1.053231e+002 
4259375000  -5.543341e+001  -9.542998e+001 
4262500000  -5.533902e+001  -1.334025e+002 
4265625000  -5.401911e+001  -1.242906e+002 
4268750000  -5.456915e+001  -1.378148e+002 
4271875000  -5.204027e+001  -1.540233e+002 
4275000000  -5.147147e+001  -1.726994e+002 
4278125000  -5.410771e+001  1.578427e+002 
4281250000  -5.339733e+001  1.618013e+002 
4284375000  -5.402440e+001  1.587785e+002 
4287500000  -5.355775e+001  1.429249e+002 
4290625000  -5.591611e+001  1.471660e+002 
4293750000  -5.404130e+001  1.556083e+002 
4296875000  -5.308674e+001  1.198302e+002 
4300000000  -5.275848e+001  1.103593e+002 
4303125000  -5.352420e+001  1.060001e+002 
4306250000  -5.224502e+001  9.721145e+001 
4309375000  -5.163657e+001  8.061006e+001 
4312500000  -5.285502e+001  6.861049e+001 
4315625000  -5.209462e+001  4.758596e+001 
4318750000  -5.322692e+001  5.380739e+001 
4321875000  -5.172488e+001  4.258669e+001 
4325000000  -5.222824e+001  2.602885e+001 
4328125000  -5.287702e+001  1.718283e+001 
4331250000  -5.351220e+001  -1.041564e+001 
4334375000  -5.426992e+001  -1.662082e+001 
4337500000  -5.487900e+001  -3.613128e+001 
4340625000  -5.528172e+001  -2.539085e+001 
4343750000  -5.518236e+001  -3.249782e+001 
4346875000  -5.450373e+001  -4.559252e+001 
4350000000  -5.534261e+001  -6.272448e+001 
4353125000  -5.581367e+001  -7.389523e+001 
4356250000  -5.665242e+001  -8.554096e+001 
4359375000  -5.831219e+001  -5.403194e+001 
4362500000  -5.377200e+001  -7.290623e+001 
4365625000  -5.300553e+001  -9.062101e+001 
4368750000  -5.629546e+001  -1.007630e+002 
4371875000  -5.854383e+001  -1.167837e+002 
4375000000  -5.742476e+001  -1.125464e+002 
4378125000  -5.735776e+001  -1.264060e+002 
4381250000  -5.651416e+001  -1.411699e+002 
4384375000  -5.752064e+001  -1.537989e+002 
4387500000  -5.758078e+001  -1.465911e+002 
4390625000  -5.585815e+001  -1.491635e+002 
4393750000  -5.921268e+001  -1.444320e+002 
4396875000  -5.518784e+001  -1.623855e+002 
4400000000  -5.721327e+001  -1.711403e+002 
4403125000  -5.721175e+001  -1.781122e+002 
4406250000  -5.648136e+001  1.686557e+002 
4409375000  -5.557326e+001  1.769532e+002 
4412500000  -5.657287e+001  1.646564e+002 
4415625000  -5.585964e+001  1.616622e+002 
4418750000  -5.546497e+001  1.531597e+002 
