!Agilent Technologies,E8363B,MY43030201,A.06.04.32
!Agilent E8363B: A.06.04.32
!Date: Tuesday, November 11, 2014 22:08:43
!Correction: S21(Response(S21)) 
!S1P File: Measurement: S21:
# Hz S  dB   R 50
3000000000  -4.915978e+001  -7.659204e+001 
3003125000  -5.153568e+001  -7.788985e+001 
3006250000  -5.167656e+001  -9.027277e+001 
3009375000  -5.203870e+001  -8.596718e+001 
3012500000  -5.112357e+001  -9.727744e+001 
3015625000  -5.086569e+001  -1.105977e+002 
3018750000  -5.119950e+001  -1.167937e+002 
3021875000  -4.978462e+001  -1.172134e+002 
3025000000  -4.875686e+001  -1.322085e+002 
3028125000  -4.829004e+001  -1.456716e+002 
3031250000  -4.706196e+001  -1.622559e+002 
3034375000  -4.679348e+001  1.773039e+002 
3037500000  -4.826451e+001  1.604087e+002 
3040625000  -4.933104e+001  1.495122e+002 
3043750000  -4.971334e+001  1.410703e+002 
3046875000  -5.000710e+001  1.320118e+002 
3050000000  -5.133499e+001  1.206223e+002 
3053125000  -5.140179e+001  1.216198e+002 
3056250000  -5.160277e+001  1.193875e+002 
3059375000  -5.126666e+001  1.043015e+002 
3062500000  -4.963153e+001  9.660893e+001 
3065625000  -4.971930e+001  8.401861e+001 
3068750000  -4.871930e+001  7.531126e+001 
3071875000  -4.871741e+001  6.681950e+001 
3075000000  -4.862652e+001  5.274531e+001 
3078125000  -4.834644e+001  4.127375e+001 
3081250000  -4.865939e+001  3.135567e+001 
3084375000  -4.783492e+001  2.366488e+001 
3087500000  -4.821648e+001  1.267503e+001 
3090625000  -4.810713e+001  -1.078856e+001 
3093750000  -4.944800e+001  -1.988049e+001 
3096875000  -4.908545e+001  -2.549894e+001 
3100000000  -4.963161e+001  -3.477473e+001 
3103125000  -4.951370e+001  -4.730967e+001 
3106250000  -4.959638e+001  -5.134505e+001 
3109375000  -4.950192e+001  -6.214954e+001 
3112500000  -4.948537e+001  -6.793553e+001 
3115625000  -4.930506e+001  -7.999556e+001 
3118750000  -4.967030e+001  -8.730857e+001 
3121875000  -4.880475e+001  -1.032441e+002 
3125000000  -5.037100e+001  -1.093317e+002 
3128125000  -5.106853e+001  -1.088866e+002 
3131250000  -4.839565e+001  -1.174037e+002 
3134375000  -4.822920e+001  -1.420635e+002 
3137500000  -4.860983e+001  -1.551184e+002 
3140625000  -4.963068e+001  -1.610279e+002 
3143750000  -5.028246e+001  -1.712464e+002 
3146875000  -4.999495e+001  -1.759878e+002 
3150000000  -4.884157e+001  1.781654e+002 
3153125000  -4.880882e+001  1.635427e+002 
3156250000  -4.992847e+001  1.615300e+002 
3159375000  -4.760099e+001  1.588991e+002 
3162500000  -4.651400e+001  1.338679e+002 
3165625000  -4.771575e+001  1.189987e+002 
3168750000  -4.759723e+001  1.119440e+002 
3171875000  -4.740993e+001  1.010294e+002 
3175000000  -4.781301e+001  8.367941e+001 
3178125000  -4.705523e+001  7.919851e+001 
3181250000  -4.639887e+001  6.507925e+001 
3184375000  -4.638710e+001  5.094631e+001 
3187500000  -4.763886e+001  3.164793e+001 
3190625000  -4.922326e+001  1.822174e+001 
3193750000  -4.935101e+001  1.737506e+001 
3196875000  -4.938752e+001  1.463131e+001 
3200000000  -4.810509e+001  9.114759e+000 
3203125000  -4.813440e+001  -6.884552e+000 
3206250000  -4.866327e+001  -1.833544e+001 
3209375000  -4.790845e+001  -3.059310e+001 
3212500000  -4.845324e+001  -4.494897e+001 
3215625000  -4.843098e+001  -4.634927e+001 
3218750000  -4.870498e+001  -6.834534e+001 
3221875000  -4.913224e+001  -7.765799e+001 
3225000000  -4.937994e+001  -8.404108e+001 
3228125000  -5.035158e+001  -9.432924e+001 
3231250000  -5.047678e+001  -1.032384e+002 
3234375000  -4.994316e+001  -1.133026e+002 
3237500000  -5.098038e+001  -1.225116e+002 
3240625000  -5.014291e+001  -1.318264e+002 
3243750000  -4.981696e+001  -1.477942e+002 
3246875000  -5.017722e+001  -1.588959e+002 
3250000000  -5.062996e+001  -1.685714e+002 
3253125000  -5.067544e+001  -1.715974e+002 
3256250000  -5.047580e+001  1.676121e+002 
3259375000  -5.123864e+001  1.572606e+002 
3262500000  -5.331760e+001  1.496874e+002 
3265625000  -5.319437e+001  1.449249e+002 
3268750000  -5.292106e+001  1.418295e+002 
3271875000  -5.236994e+001  1.323687e+002 
3275000000  -5.285794e+001  1.200368e+002 
3278125000  -5.239448e+001  1.051398e+002 
3281250000  -5.261211e+001  1.042454e+002 
3284375000  -5.176361e+001  9.019889e+001 
3287500000  -5.374467e+001  8.257113e+001 
3290625000  -5.263391e+001  7.222388e+001 
3293750000  -5.308745e+001  5.667963e+001 
3296875000  -5.358537e+001  5.343124e+001 
3300000000  -5.430499e+001  4.909007e+001 
3303125000  -5.318559e+001  4.088636e+001 
3306250000  -5.356603e+001  2.827507e+001 
3309375000  -5.262897e+001  1.591219e+001 
3312500000  -5.252156e+001  -2.179936e+000 
3315625000  -5.412515e+001  -9.921863e+000 
3318750000  -5.682906e+001  -2.083266e+001 
3321875000  -5.652518e+001  -2.405845e+001 
3325000000  -6.008502e+001  -1.648258e+001 
3328125000  -5.627609e+001  -2.910463e+001 
3331250000  -5.293568e+001  -2.646809e+001 
3334375000  -5.173366e+001  -4.671204e+001 
3337500000  -5.237345e+001  -7.127399e+001 
3340625000  -5.447065e+001  -8.928857e+001 
3343750000  -5.630191e+001  -8.322721e+001 
3346875000  -5.622849e+001  -9.601585e+001 
3350000000  -5.421001e+001  -9.939526e+001 
3353125000  -5.488227e+001  -1.203892e+002 
3356250000  -5.512673e+001  -1.292238e+002 
3359375000  -5.487858e+001  -1.481115e+002 
3362500000  -5.633109e+001  -1.484352e+002 
3365625000  -5.646125e+001  -1.564106e+002 
3368750000  -5.553999e+001  -1.796138e+002 
3371875000  -5.607362e+001  1.723373e+002 
3375000000  -5.936738e+001  1.579392e+002 
3378125000  -5.862917e+001  1.604025e+002 
3381250000  -6.025954e+001  1.620903e+002 
3384375000  -5.704819e+001  1.784303e+002 
3387500000  -5.377675e+001  1.405953e+002 
3390625000  -5.715452e+001  1.304161e+002 
3393750000  -5.835749e+001  1.150931e+002 
3396875000  -5.890350e+001  1.197957e+002 
3400000000  -5.436554e+001  9.549971e+001 
3403125000  -5.543075e+001  8.269122e+001 
3406250000  -5.851252e+001  7.622607e+001 
3409375000  -5.597315e+001  5.205039e+001 
3412500000  -5.798322e+001  5.519003e+001 
3415625000  -5.941494e+001  4.636993e+001 
3418750000  -5.971009e+001  3.885799e+001 
3421875000  -6.137912e+001  3.331227e+001 
3425000000  -5.906280e+001  3.029674e+001 
3428125000  -5.989219e+001  4.885058e+000 
3431250000  -6.134125e+001  -1.862430e+001 
3434375000  -5.905621e+001  -2.695942e+001 
3437500000  -6.407175e+001  -2.604581e+001 
3440625000  -6.125241e+001  -3.196253e+001 
3443750000  -5.897501e+001  -3.242012e+001 
3446875000  -5.950914e+001  -5.033031e+001 
3450000000  -5.941507e+001  -6.982179e+001 
3453125000  -6.640250e+001  -8.260754e+001 
3456250000  -6.625671e+001  -1.139646e+002 
3459375000  -6.629222e+001  -7.305743e+001 
3462500000  -6.629572e+001  -1.051061e+002 
3465625000  -6.235492e+001  -1.138992e+002 
3468750000  -7.154471e+001  -1.387357e+002 
3471875000  -6.792895e+001  -1.076029e+002 
3475000000  -6.406939e+001  -1.153683e+002 
3478125000  -6.874494e+001  -1.295968e+002 
3481250000  -6.568079e+001  -1.282868e+002 
3484375000  -6.826020e+001  -1.222027e+002 
3487500000  -6.560893e+001  -1.246549e+002 
3490625000  -6.773004e+001  -1.406011e+002 
3493750000  -6.853943e+001  -1.366397e+002 
3496875000  -6.680357e+001  -1.425520e+002 
3500000000  -6.621053e+001  -1.410843e+002 
3503125000  -6.589239e+001  -1.601556e+002 
3506250000  -6.259806e+001  -1.443737e+002 
3509375000  -6.569555e+001  1.371282e+002 
3512500000  -6.418089e+001  1.504222e+002 
3515625000  -6.342956e+001  1.373315e+002 
3518750000  -6.568550e+001  1.468999e+002 
3521875000  -6.595651e+001  1.639807e+002 
3525000000  -6.578638e+001  1.171717e+002 
3528125000  -7.169285e+001  1.299120e+002 
3531250000  -6.890278e+001  1.364554e+002 
3534375000  -7.043619e+001  1.470071e+002 
3537500000  -6.762733e+001  9.145647e+001 
3540625000  -7.738332e+001  5.510775e+001 
3543750000  -6.902044e+001  7.843932e+001 
3546875000  -6.781694e+001  6.203855e+001 
3550000000  -6.827271e+001  4.017928e+001 
3553125000  -6.840793e+001  1.004109e+002 
3556250000  -7.690407e+001  8.556104e+001 
3559375000  -7.240117e+001  1.396902e+001 
3562500000  -7.371764e+001  3.320969e+001 
3565625000  -7.525388e+001  5.576060e+001 
3568750000  -7.583479e+001  3.883910e+000 
3571875000  -6.869536e+001  1.873520e+001 
3575000000  -7.319938e+001  3.705296e+001 
3578125000  -7.057413e+001  3.229374e+001 
3581250000  -8.642528e+001  1.693752e+002 
3584375000  -7.511164e+001  7.557133e+001 
3587500000  -7.272056e+001  -6.250479e+001 
3590625000  -7.415511e+001  3.385715e+001 
3593750000  -6.902335e+001  -2.511923e+001 
3596875000  -6.426459e+001  1.051514e+001 
3600000000  -6.612257e+001  9.827289e+000 
3603125000  -6.588658e+001  -5.134062e+000 
3606250000  -6.429254e+001  -3.814527e+001 
3609375000  -6.563243e+001  -3.794049e+001 
3612500000  -6.390543e+001  -5.751322e+001 
3615625000  -6.765306e+001  -4.084218e+001 
3618750000  -6.364668e+001  -5.346329e+001 
3621875000  -6.370623e+001  -7.800343e+001 
3625000000  -6.279165e+001  -9.482600e+001 
3628125000  -6.262902e+001  -1.018483e+002 
3631250000  -6.173205e+001  -9.435525e+001 
3634375000  -6.587349e+001  -1.298436e+002 
3637500000  -6.682633e+001  -1.063896e+002 
3640625000  -6.176942e+001  -1.488301e+002 
3643750000  -6.198900e+001  -1.359360e+002 
3646875000  -6.154761e+001  -1.751930e+002 
3650000000  -6.601295e+001  1.703083e+002 
3653125000  -6.173919e+001  -1.713540e+002 
3656250000  -6.468089e+001  1.567211e+002 
3659375000  -6.512712e+001  1.429693e+002 
3662500000  -6.503908e+001  1.498410e+002 
3665625000  -6.309534e+001  1.312437e+002 
3668750000  -6.140902e+001  1.108722e+002 
3671875000  -6.353145e+001  1.021859e+002 
3675000000  -6.568315e+001  1.217945e+002 
3678125000  -6.332433e+001  1.001892e+002 
3681250000  -6.126850e+001  1.035728e+002 
3684375000  -6.768787e+001  9.079300e+001 
3687500000  -6.267502e+001  6.972152e+001 
3690625000  -6.848430e+001  4.123361e+001 
3693750000  -6.624660e+001  7.994531e+001 
3696875000  -6.518730e+001  7.781767e+001 
3700000000  -6.450462e+001  5.756283e+001 
3703125000  -6.561399e+001  4.181139e+001 
3706250000  -7.149224e+001  6.183788e+001 
3709375000  -6.599976e+001  5.918483e+001 
3712500000  -6.246935e+001  5.143851e+001 
3715625000  -6.116172e+001  4.220127e+001 
3718750000  -6.066865e+001  3.643442e+001 
3721875000  -6.388855e+001  2.507024e+001 
3725000000  -6.189272e+001  6.358554e-001 
3728125000  -6.009692e+001  4.139828e+000 
3731250000  -5.952915e+001  -1.981352e+000 
3734375000  -5.812410e+001  -1.878360e+001 
3737500000  -5.859865e+001  -3.223355e+001 
3740625000  -5.940528e+001  -4.193717e+001 
3743750000  -5.816623e+001  -7.652223e+001 
3746875000  -5.825574e+001  -6.828994e+001 
3750000000  -5.929081e+001  -8.710352e+001 
3753125000  -5.970875e+001  -7.679968e+001 
3756250000  -5.706733e+001  -9.002792e+001 
3759375000  -5.956656e+001  -1.061464e+002 
3762500000  -5.651283e+001  -1.218373e+002 
3765625000  -5.749506e+001  -1.190563e+002 
3768750000  -5.704969e+001  -1.410171e+002 
3771875000  -5.772729e+001  -1.534462e+002 
3775000000  -5.737880e+001  -1.713958e+002 
3778125000  -5.610561e+001  -1.782098e+002 
3781250000  -5.723225e+001  1.750993e+002 
3784375000  -5.739021e+001  1.604826e+002 
3787500000  -5.645541e+001  1.541754e+002 
3790625000  -5.706072e+001  1.397686e+002 
3793750000  -5.730081e+001  1.313250e+002 
3796875000  -5.547803e+001  1.260719e+002 
3800000000  -5.284620e+001  8.171297e+001 
3803125000  -5.674374e+001  9.363491e+001 
3806250000  -6.117294e+001  7.078500e+001 
3809375000  -5.892249e+001  6.503667e+001 
3812500000  -5.761597e+001  6.930599e+001 
3815625000  -6.138334e+001  2.409493e+001 
3818750000  -5.969837e+001  3.825568e+001 
3821875000  -6.100726e+001  4.766761e+001 
3825000000  -6.091618e+001  2.718642e+001 
3828125000  -5.842495e+001  3.210057e+001 
3831250000  -6.036890e+001  3.050365e+000 
3834375000  -6.397246e+001  2.243457e+001 
3837500000  -6.438881e+001  2.292361e+001 
3840625000  -6.167422e+001  2.510263e+001 
3843750000  -5.979421e+001  -9.990499e+000 
3846875000  -6.115782e+001  -3.015266e+001 
3850000000  -6.254313e+001  -5.886102e+001 
3853125000  -6.069276e+001  -1.047458e+001 
3856250000  -6.140207e+001  -1.551098e+001 
3859375000  -5.762221e+001  -4.434767e+001 
3862500000  -6.110749e+001  -4.486324e+001 
3865625000  -5.863332e+001  -4.517320e+001 
3868750000  -5.964635e+001  -5.904104e+001 
3871875000  -5.822630e+001  -6.532807e+001 
3875000000  -5.820904e+001  -6.063451e+001 
3878125000  -5.762609e+001  -8.571129e+001 
3881250000  -5.856859e+001  -8.928506e+001 
3884375000  -5.613047e+001  -9.445807e+001 
3887500000  -5.725599e+001  -1.150143e+002 
3890625000  -5.608824e+001  -1.218627e+002 
3893750000  -5.648987e+001  -1.298134e+002 
3896875000  -5.549121e+001  -1.327356e+002 
3900000000  -5.620986e+001  -1.462890e+002 
3903125000  -5.507842e+001  -1.577675e+002 
3906250000  -5.403994e+001  -1.781091e+002 
3909375000  -5.556828e+001  1.654461e+002 
3912500000  -5.488640e+001  1.498794e+002 
3915625000  -5.667632e+001  1.515671e+002 
3918750000  -5.439559e+001  1.527922e+002 
3921875000  -5.447553e+001  1.404397e+002 
3925000000  -5.297709e+001  1.159216e+002 
3928125000  -5.230553e+001  1.141627e+002 
3931250000  -5.374536e+001  9.751581e+001 
3934375000  -5.498749e+001  8.887280e+001 
3937500000  -5.632361e+001  8.296366e+001 
3940625000  -5.505854e+001  7.015177e+001 
3943750000  -5.289788e+001  6.371737e+001 
3946875000  -5.258539e+001  4.685017e+001 
3950000000  -5.478543e+001  4.080660e+001 
3953125000  -5.706321e+001  4.552917e+001 
3956250000  -5.330306e+001  1.940835e+001 
3959375000  -5.193172e+001  1.803102e+001 
3962500000  -5.369102e+001  -7.325143e+000 
3965625000  -5.358480e+001  -1.812037e+001 
3968750000  -5.370955e+001  -2.766790e+001 
3971875000  -5.392997e+001  -4.964679e+001 
3975000000  -5.421729e+001  -5.931301e+001 
3978125000  -5.454498e+001  -6.453896e+001 
3981250000  -5.484455e+001  -7.893282e+001 
3984375000  -5.454800e+001  -8.281261e+001 
3987500000  -5.598301e+001  -9.599538e+001 
3990625000  -5.684824e+001  -9.665924e+001 
3993750000  -5.664078e+001  -1.155794e+002 
3996875000  -5.814648e+001  -1.296622e+002 
4000000000  -5.920868e+001  -1.407688e+002 
4003125000  -5.660499e+001  -1.382240e+002 
4006250000  -5.704984e+001  -1.355646e+002 
4009375000  -5.665543e+001  -1.501237e+002 
4012500000  -5.815848e+001  -1.590650e+002 
4015625000  -6.062106e+001  1.796522e+002 
4018750000  -5.870167e+001  -1.577876e+002 
4021875000  -5.692099e+001  -1.731323e+002 
4025000000  -6.167567e+001  1.656898e+002 
4028125000  -5.915680e+001  1.741590e+002 
4031250000  -5.955255e+001  1.707237e+002 
4034375000  -5.987915e+001  1.595324e+002 
4037500000  -6.129507e+001  1.587348e+002 
4040625000  -5.881558e+001  1.417514e+002 
4043750000  -5.936919e+001  1.456848e+002 
4046875000  -5.824760e+001  1.333071e+002 
4050000000  -5.640374e+001  1.215501e+002 
4053125000  -5.618660e+001  1.138318e+002 
4056250000  -5.822118e+001  1.251733e+002 
4059375000  -5.671284e+001  1.052741e+002 
4062500000  -5.535342e+001  9.483375e+001 
4065625000  -5.386475e+001  8.089690e+001 
4068750000  -5.391896e+001  6.635013e+001 
4071875000  -5.242931e+001  5.038560e+001 
4075000000  -5.349211e+001  4.199412e+001 
4078125000  -5.307600e+001  3.454467e+001 
4081250000  -5.338629e+001  2.775763e+001 
4084375000  -5.234968e+001  5.697084e+000 
4087500000  -5.315818e+001  -1.374430e+001 
4090625000  -5.259418e+001  -9.338477e+000 
4093750000  -5.283036e+001  -2.290302e+001 
4096875000  -5.269186e+001  -2.931351e+001 
4100000000  -5.469832e+001  -4.861293e+001 
4103125000  -5.415099e+001  -4.625586e+001 
4106250000  -5.515009e+001  -6.340087e+001 
4109375000  -5.286244e+001  -6.553442e+001 
4112500000  -5.218014e+001  -8.405403e+001 
4115625000  -5.359478e+001  -9.451595e+001 
4118750000  -5.357613e+001  -1.043698e+002 
4121875000  -5.299949e+001  -1.231645e+002 
4125000000  -5.336180e+001  -1.267707e+002 
4128125000  -5.536726e+001  -1.299552e+002 
4131250000  -5.394609e+001  -1.304737e+002 
4134375000  -5.043310e+001  -1.488121e+002 
4137500000  -5.260096e+001  -1.757036e+002 
4140625000  -5.354906e+001  1.612061e+002 
4143750000  -5.541101e+001  -1.798181e+002 
4146875000  -5.512070e+001  1.623604e+002 
4150000000  -5.406965e+001  1.563710e+002 
4153125000  -5.336707e+001  1.446874e+002 
4156250000  -5.561881e+001  1.240728e+002 
4159375000  -5.554824e+001  1.161288e+002 
4162500000  -5.501635e+001  1.207136e+002 
4165625000  -5.409424e+001  1.149672e+002 
4168750000  -5.370926e+001  8.581821e+001 
4171875000  -5.587236e+001  7.804604e+001 
4175000000  -5.464165e+001  5.485450e+001 
4178125000  -5.773708e+001  5.852767e+001 
4181250000  -5.793334e+001  4.114254e+001 
4184375000  -5.839758e+001  3.262123e+001 
4187500000  -6.101843e+001  3.399052e+001 
4190625000  -6.042836e+001  1.697628e+001 
4193750000  -6.022575e+001  1.169475e+001 
4196875000  -6.614836e+001  9.432676e+000 
4200000000  -6.414610e+001  1.025610e+001 
4203125000  -6.292417e+001  -4.965272e+000 
4206250000  -6.121858e+001  1.646137e+001 
4209375000  -6.308433e+001  -7.561687e+000 
4212500000  -6.434650e+001  -1.034005e+000 
4215625000  -6.178594e+001  -5.913646e+000 
4218750000  -6.268702e+001  -4.612159e+000 
4221875000  -6.233857e+001  -5.240851e+001 
4225000000  -5.755211e+001  -1.560245e+001 
4228125000  -5.785833e+001  -3.561413e+001 
4231250000  -5.877954e+001  -2.951736e+001 
4234375000  -5.841528e+001  -3.174782e+001 
4237500000  -5.692801e+001  -4.471568e+001 
4240625000  -5.651077e+001  -6.829468e+001 
4243750000  -5.645925e+001  -7.139111e+001 
4246875000  -5.779848e+001  -7.599681e+001 
4250000000  -5.650484e+001  -8.067310e+001 
4253125000  -5.532814e+001  -1.018479e+002 
4256250000  -5.435156e+001  -1.046169e+002 
4259375000  -5.393283e+001  -1.007322e+002 
4262500000  -5.451043e+001  -1.232813e+002 
4265625000  -5.401603e+001  -1.235379e+002 
4268750000  -5.384643e+001  -1.446017e+002 
4271875000  -5.310516e+001  -1.547884e+002 
4275000000  -5.069537e+001  -1.759347e+002 
4278125000  -5.397140e+001  1.576911e+002 
4281250000  -5.482041e+001  1.599959e+002 
4284375000  -5.499542e+001  1.613523e+002 
4287500000  -5.394603e+001  1.459585e+002 
4290625000  -5.686873e+001  1.458807e+002 
4293750000  -5.258516e+001  1.429631e+002 
4296875000  -5.231477e+001  1.132280e+002 
4300000000  -5.252883e+001  9.602355e+001 
4303125000  -5.361683e+001  9.770486e+001 
4306250000  -5.425914e+001  1.013832e+002 
4309375000  -5.190682e+001  7.709786e+001 
4312500000  -5.090190e+001  6.237350e+001 
4315625000  -5.249576e+001  5.108625e+001 
4318750000  -5.533179e+001  3.042029e+001 
4321875000  -5.283844e+001  3.493302e+001 
4325000000  -5.204958e+001  1.907432e+001 
4328125000  -5.249359e+001  8.735041e+000 
4331250000  -5.341881e+001  -1.080914e+001 
4334375000  -5.393251e+001  -2.593311e+001 
4337500000  -5.497780e+001  -4.210442e+001 
4340625000  -5.627112e+001  -1.975270e+001 
4343750000  -5.535970e+001  -4.345398e+001 
4346875000  -5.458412e+001  -4.538034e+001 
4350000000  -5.466816e+001  -6.302185e+001 
4353125000  -5.796913e+001  -8.041299e+001 
4356250000  -5.654433e+001  -6.191730e+001 
4359375000  -5.978164e+001  -5.623199e+001 
4362500000  -5.677069e+001  -9.062507e+001 
4365625000  -5.409423e+001  -9.749457e+001 
4368750000  -5.640758e+001  -9.492973e+001 
4371875000  -5.517068e+001  -1.153309e+002 
4375000000  -5.504058e+001  -1.133468e+002 
4378125000  -5.778682e+001  -1.274783e+002 
4381250000  -5.626177e+001  -1.290814e+002 
4384375000  -5.657606e+001  -1.399360e+002 
4387500000  -5.695129e+001  -1.490434e+002 
4390625000  -5.753982e+001  -1.610208e+002 
4393750000  -5.653098e+001  -1.574155e+002 
4396875000  -5.657046e+001  -1.657430e+002 
4400000000  -5.660980e+001  1.742337e+002 
4403125000  -5.526743e+001  1.701723e+002 
4406250000  -5.936274e+001  1.625995e+002 
4409375000  -5.552550e+001  1.611565e+002 
4412500000  -5.791898e+001  1.593794e+002 
4415625000  -5.670004e+001  1.516572e+002 
4418750000  -5.545322e+001  1.521082e+002 
