!Agilent Technologies,E8363B,MY43030201,A.06.04.32
!Agilent E8363B: A.06.04.32
!Date: Tuesday, November 11, 2014 22:11:31
!Correction: S21(Response(S21)) 
!S1P File: Measurement: S21:
# Hz S  dB   R 50
3000000000  -4.897301e+001  -7.406884e+001 
3003125000  -5.087608e+001  -8.424850e+001 
3006250000  -5.172198e+001  -8.834073e+001 
3009375000  -5.146502e+001  -8.928636e+001 
3012500000  -5.148074e+001  -9.670811e+001 
3015625000  -5.104899e+001  -1.099970e+002 
3018750000  -5.185118e+001  -1.167318e+002 
3021875000  -5.030616e+001  -1.174328e+002 
3025000000  -4.868144e+001  -1.271357e+002 
3028125000  -4.843042e+001  -1.464868e+002 
3031250000  -4.698538e+001  -1.627779e+002 
3034375000  -4.734044e+001  1.793770e+002 
3037500000  -4.756045e+001  1.644841e+002 
3040625000  -4.923995e+001  1.516410e+002 
3043750000  -4.959300e+001  1.423595e+002 
3046875000  -5.051289e+001  1.294673e+002 
3050000000  -5.199949e+001  1.195127e+002 
3053125000  -5.100475e+001  1.218554e+002 
3056250000  -5.107755e+001  1.226710e+002 
3059375000  -5.089456e+001  1.084128e+002 
3062500000  -4.930819e+001  1.018209e+002 
3065625000  -4.885363e+001  8.462028e+001 
3068750000  -4.902552e+001  7.223179e+001 
3071875000  -4.910354e+001  6.788467e+001 
3075000000  -4.860749e+001  5.619220e+001 
3078125000  -4.814664e+001  4.518130e+001 
3081250000  -4.876953e+001  3.233733e+001 
3084375000  -4.809962e+001  2.374790e+001 
3087500000  -4.809456e+001  1.273058e+001 
3090625000  -4.768114e+001  -4.661298e+000 
3093750000  -4.918895e+001  -1.587104e+001 
3096875000  -4.900019e+001  -2.097450e+001 
3100000000  -4.963770e+001  -3.505589e+001 
3103125000  -4.978387e+001  -3.975739e+001 
3106250000  -4.914623e+001  -4.949095e+001 
3109375000  -4.944106e+001  -6.463865e+001 
3112500000  -4.936315e+001  -7.268390e+001 
3115625000  -4.940956e+001  -7.910738e+001 
3118750000  -4.970697e+001  -8.320690e+001 
3121875000  -4.901966e+001  -1.006217e+002 
3125000000  -5.098832e+001  -1.058574e+002 
3128125000  -5.059393e+001  -1.082406e+002 
3131250000  -4.898461e+001  -1.204819e+002 
3134375000  -4.783586e+001  -1.413379e+002 
3137500000  -4.844148e+001  -1.555052e+002 
3140625000  -4.949252e+001  -1.635850e+002 
3143750000  -5.021420e+001  -1.699900e+002 
3146875000  -4.994077e+001  -1.738791e+002 
3150000000  -4.902486e+001  1.777641e+002 
3153125000  -4.868927e+001  1.660193e+002 
3156250000  -5.025835e+001  1.670369e+002 
3159375000  -4.776376e+001  1.594255e+002 
3162500000  -4.625030e+001  1.334598e+002 
3165625000  -4.771555e+001  1.170938e+002 
3168750000  -4.788868e+001  1.133065e+002 
3171875000  -4.712361e+001  1.009761e+002 
3175000000  -4.707246e+001  8.564420e+001 
3178125000  -4.763962e+001  8.363988e+001 
3181250000  -4.640081e+001  6.543129e+001 
3184375000  -4.650718e+001  5.231585e+001 
3187500000  -4.808628e+001  3.234785e+001 
3190625000  -4.908715e+001  2.340227e+001 
3193750000  -5.003026e+001  1.668354e+001 
3196875000  -4.949448e+001  1.887723e+001 
3200000000  -4.835811e+001  5.995854e+000 
3203125000  -4.808164e+001  -5.996350e+000 
3206250000  -4.844267e+001  -1.656558e+001 
3209375000  -4.837851e+001  -3.096773e+001 
3212500000  -4.875187e+001  -4.200378e+001 
3215625000  -4.803950e+001  -4.675945e+001 
3218750000  -4.933741e+001  -6.666821e+001 
3221875000  -5.004293e+001  -7.497812e+001 
3225000000  -4.965151e+001  -8.472184e+001 
3228125000  -4.999987e+001  -9.597607e+001 
3231250000  -5.117106e+001  -1.064475e+002 
3234375000  -5.036742e+001  -1.128358e+002 
3237500000  -5.037276e+001  -1.186970e+002 
3240625000  -5.046565e+001  -1.287624e+002 
3243750000  -4.982600e+001  -1.444918e+002 
3246875000  -5.049690e+001  -1.559041e+002 
3250000000  -5.066308e+001  -1.664801e+002 
3253125000  -5.122409e+001  -1.706572e+002 
3256250000  -5.088765e+001  1.733353e+002 
3259375000  -5.137847e+001  1.619452e+002 
3262500000  -5.257507e+001  1.469675e+002 
3265625000  -5.434800e+001  1.419444e+002 
3268750000  -5.270794e+001  1.412045e+002 
3271875000  -5.230961e+001  1.340711e+002 
3275000000  -5.262294e+001  1.228783e+002 
3278125000  -5.214036e+001  1.085718e+002 
3281250000  -5.231667e+001  1.051034e+002 
3284375000  -5.252237e+001  8.965025e+001 
3287500000  -5.382099e+001  8.418615e+001 
3290625000  -5.279775e+001  7.229901e+001 
3293750000  -5.425857e+001  6.431467e+001 
3296875000  -5.536785e+001  5.226861e+001 
3300000000  -5.471251e+001  5.380785e+001 
3303125000  -5.290725e+001  3.722016e+001 
3306250000  -5.357896e+001  2.492510e+001 
3309375000  -5.285411e+001  1.283682e+001 
3312500000  -5.310580e+001  -2.032511e+000 
3315625000  -5.387269e+001  -1.175954e+001 
3318750000  -5.490976e+001  -2.479432e+001 
3321875000  -5.694318e+001  -1.683060e+001 
3325000000  -5.727406e+001  -2.174013e+001 
3328125000  -5.740058e+001  -2.386259e+001 
3331250000  -5.259144e+001  -2.344350e+001 
3334375000  -5.358799e+001  -4.767930e+001 
3337500000  -5.300872e+001  -6.617561e+001 
3340625000  -5.473445e+001  -8.695324e+001 
3343750000  -5.632294e+001  -8.527986e+001 
3346875000  -5.507213e+001  -9.507858e+001 
3350000000  -5.396443e+001  -1.033675e+002 
3353125000  -5.505115e+001  -1.118919e+002 
3356250000  -5.508088e+001  -1.298939e+002 
3359375000  -5.494665e+001  -1.523373e+002 
3362500000  -5.675025e+001  -1.464139e+002 
3365625000  -5.519135e+001  -1.597861e+002 
3368750000  -5.724541e+001  -1.775711e+002 
3371875000  -5.661990e+001  1.790517e+002 
3375000000  -5.773214e+001  1.708525e+002 
3378125000  -6.100848e+001  1.687229e+002 
3381250000  -6.134899e+001  1.655735e+002 
3384375000  -5.682461e+001  1.747441e+002 
3387500000  -5.421460e+001  1.528014e+002 
3390625000  -5.717723e+001  1.308807e+002 
3393750000  -5.796423e+001  1.123783e+002 
3396875000  -5.659535e+001  1.152400e+002 
3400000000  -5.526359e+001  1.083597e+002 
3403125000  -5.680632e+001  8.284440e+001 
3406250000  -5.677551e+001  7.700014e+001 
3409375000  -5.831497e+001  5.920009e+001 
3412500000  -5.800871e+001  4.780469e+001 
3415625000  -6.235444e+001  3.643784e+001 
3418750000  -6.035506e+001  3.784192e+001 
3421875000  -5.803491e+001  2.755153e+001 
3425000000  -5.801921e+001  2.359340e+001 
3428125000  -6.090355e+001  1.213643e+001 
3431250000  -6.067236e+001  -6.386546e+000 
3434375000  -5.965189e+001  -3.526833e+001 
3437500000  -6.237756e+001  -2.105007e+001 
3440625000  -6.007646e+001  -2.149083e+001 
3443750000  -6.185120e+001  -3.462892e+001 
3446875000  -6.184437e+001  -6.012250e+001 
3450000000  -6.106582e+001  -7.111976e+001 
3453125000  -6.249218e+001  -5.824236e+001 
3456250000  -6.499825e+001  -8.547162e+001 
3459375000  -6.292996e+001  -7.774297e+001 
3462500000  -7.497432e+001  -1.011764e+002 
3465625000  -6.387770e+001  -1.084256e+002 
3468750000  -6.785424e+001  -1.214329e+002 
3471875000  -6.651501e+001  -1.113788e+002 
3475000000  -6.618326e+001  -9.931396e+001 
3478125000  -6.759839e+001  -1.240283e+002 
3481250000  -7.044339e+001  -9.549724e+001 
3484375000  -6.846093e+001  -1.299854e+002 
3487500000  -6.694656e+001  -1.205178e+002 
3490625000  -6.945919e+001  -1.241095e+002 
3493750000  -7.166794e+001  -1.453799e+002 
3496875000  -7.033421e+001  -1.459062e+002 
3500000000  -6.681202e+001  -1.551650e+002 
3503125000  -6.630027e+001  -1.623397e+002 
3506250000  -7.111418e+001  1.590979e+002 
3509375000  -6.719170e+001  1.752453e+002 
3512500000  -6.714626e+001  1.390793e+002 
3515625000  -6.563588e+001  1.523086e+002 
3518750000  -6.570533e+001  1.402725e+002 
3521875000  -6.472627e+001  1.353686e+002 
3525000000  -6.616196e+001  1.360514e+002 
3528125000  -7.221438e+001  8.738171e+001 
3531250000  -6.610986e+001  1.141634e+002 
3534375000  -6.852288e+001  8.772939e+001 
3537500000  -6.704096e+001  9.908820e+001 
3540625000  -7.179070e+001  7.782410e+001 
3543750000  -6.636617e+001  7.704645e+001 
3546875000  -7.397134e+001  4.362675e+001 
3550000000  -7.042595e+001  1.303270e+002 
3553125000  -6.844375e+001  3.328082e+001 
3556250000  -7.351335e+001  4.866040e+001 
3559375000  -6.825708e+001  3.585567e+001 
3562500000  -7.521904e+001  6.666796e-001 
3565625000  -6.681124e+001  5.517717e+001 
3568750000  -7.272607e+001  4.429253e+001 
3571875000  -7.153144e+001  6.428371e+001 
3575000000  -6.824048e+001  -4.442353e+001 
3578125000  -7.046180e+001  6.242100e+001 
3581250000  -7.810661e+001  -1.688373e+002 
3584375000  -7.365853e+001  7.621437e+001 
3587500000  -7.789185e+001  -3.422382e+001 
3590625000  -7.213837e+001  4.091964e+001 
3593750000  -7.171650e+001  -5.128427e+001 
3596875000  -6.505192e+001  5.158516e+001 
3600000000  -6.660736e+001  3.495533e+000 
3603125000  -6.393149e+001  -2.483362e+001 
3606250000  -6.577861e+001  -4.031497e+001 
3609375000  -6.616978e+001  -4.952642e+001 
3612500000  -6.382302e+001  -4.929665e+001 
3615625000  -8.051779e+001  4.902784e+001 
3618750000  -6.788226e+001  -6.430838e+001 
3621875000  -6.271362e+001  -8.755454e+001 
3625000000  -6.225802e+001  -8.178305e+001 
3628125000  -6.552579e+001  -1.400324e+002 
3631250000  -6.121997e+001  -1.301243e+002 
3634375000  -6.258495e+001  -1.251213e+002 
3637500000  -6.853596e+001  -1.060854e+002 
3640625000  -6.167437e+001  -1.286523e+002 
3643750000  -6.478648e+001  -1.305672e+002 
3646875000  -6.202557e+001  -1.684562e+002 
3650000000  -6.308419e+001  -1.701177e+002 
3653125000  -6.406302e+001  -1.580671e+002 
3656250000  -6.338758e+001  1.544246e+002 
3659375000  -6.525788e+001  -1.710304e+002 
3662500000  -6.415943e+001  1.517977e+002 
3665625000  -6.178119e+001  1.623628e+002 
3668750000  -6.210571e+001  1.164161e+002 
3671875000  -6.274978e+001  1.010406e+002 
3675000000  -6.478908e+001  1.248962e+002 
3678125000  -6.092534e+001  1.103629e+002 
3681250000  -6.626135e+001  8.834731e+001 
3684375000  -6.855833e+001  9.532072e+001 
3687500000  -6.693230e+001  9.270646e+001 
3690625000  -6.611342e+001  7.028283e+001 
3693750000  -6.190176e+001  1.002817e+002 
3696875000  -6.501295e+001  9.704872e+001 
3700000000  -6.376607e+001  8.255820e+001 
3703125000  -6.585564e+001  3.828153e+001 
3706250000  -6.498376e+001  4.082554e+001 
3709375000  -6.273857e+001  3.685180e+001 
3712500000  -5.960451e+001  5.083477e+001 
3715625000  -6.324866e+001  5.099056e+001 
3718750000  -6.350231e+001  4.182138e+001 
3721875000  -6.118143e+001  1.930859e+001 
3725000000  -6.283390e+001  2.066668e+001 
3728125000  -6.072472e+001  -1.964759e+000 
3731250000  -6.136595e+001  -1.928361e+001 
3734375000  -5.986291e+001  -2.353941e+001 
3737500000  -5.742029e+001  -3.312439e+001 
3740625000  -6.131040e+001  -3.822312e+001 
3743750000  -5.891978e+001  -5.628350e+001 
3746875000  -5.943547e+001  -5.902364e+001 
3750000000  -5.848337e+001  -8.679312e+001 
3753125000  -5.793712e+001  -8.893404e+001 
3756250000  -5.837476e+001  -1.033658e+002 
3759375000  -5.802560e+001  -1.074998e+002 
3762500000  -5.662437e+001  -1.155468e+002 
3765625000  -5.881282e+001  -1.148048e+002 
3768750000  -5.776205e+001  -1.445392e+002 
3771875000  -5.760356e+001  -1.394293e+002 
3775000000  -5.539561e+001  -1.538951e+002 
3778125000  -5.827928e+001  1.683342e+002 
3781250000  -5.654959e+001  1.762582e+002 
3784375000  -5.566001e+001  1.668512e+002 
3787500000  -5.715013e+001  1.511194e+002 
3790625000  -5.629910e+001  1.457507e+002 
3793750000  -5.716897e+001  1.358562e+002 
3796875000  -5.693882e+001  1.258040e+002 
3800000000  -5.311310e+001  8.116576e+001 
3803125000  -5.692064e+001  9.595351e+001 
3806250000  -5.993712e+001  7.480296e+001 
3809375000  -5.795930e+001  9.295481e+001 
3812500000  -5.738400e+001  5.423576e+001 
3815625000  -6.102916e+001  3.279277e+001 
3818750000  -6.173290e+001  5.341370e+001 
3821875000  -6.280030e+001  8.191923e+001 
3825000000  -5.865207e+001  4.608221e+001 
3828125000  -5.981298e+001  3.503567e+001 
3831250000  -6.221667e+001  1.667332e+001 
3834375000  -6.409025e+001  -3.656582e-001 
3837500000  -6.367330e+001  5.485135e+000 
3840625000  -6.072459e+001  2.259778e+001 
3843750000  -6.180180e+001  -6.612296e-001 
3846875000  -6.161266e+001  -1.714219e+001 
3850000000  -6.267085e+001  -4.176067e+000 
3853125000  -6.129002e+001  -3.219070e+001 
3856250000  -5.902740e+001  -6.307011e+000 
3859375000  -6.080867e+001  -3.786631e+001 
3862500000  -6.247830e+001  -2.121339e+001 
3865625000  -6.112138e+001  -5.103564e+001 
3868750000  -5.924779e+001  -4.382820e+001 
3871875000  -5.657732e+001  -5.789211e+001 
3875000000  -6.023473e+001  -7.566982e+001 
3878125000  -5.827733e+001  -7.073369e+001 
3881250000  -5.738447e+001  -8.694676e+001 
3884375000  -5.574667e+001  -9.825227e+001 
3887500000  -5.615451e+001  -1.156336e+002 
3890625000  -5.613910e+001  -1.161118e+002 
3893750000  -5.715839e+001  -1.253135e+002 
3896875000  -5.885775e+001  -1.225048e+002 
3900000000  -5.557804e+001  -1.513429e+002 
3903125000  -5.704160e+001  -1.531097e+002 
3906250000  -5.346166e+001  -1.712095e+002 
3909375000  -5.541502e+001  1.786513e+002 
3912500000  -5.569913e+001  1.664576e+002 
3915625000  -5.553159e+001  1.644143e+002 
3918750000  -5.472692e+001  1.506636e+002 
3921875000  -5.591306e+001  1.387559e+002 
3925000000  -5.227476e+001  1.198705e+002 
3928125000  -5.294825e+001  1.083715e+002 
3931250000  -5.388631e+001  1.037961e+002 
3934375000  -5.360992e+001  8.788863e+001 
3937500000  -5.684531e+001  8.807563e+001 
3940625000  -5.505356e+001  7.896857e+001 
3943750000  -5.413699e+001  6.517970e+001 
3946875000  -5.372207e+001  5.354019e+001 
3950000000  -5.475745e+001  4.180344e+001 
3953125000  -5.552295e+001  3.294651e+001 
3956250000  -5.357667e+001  2.220405e+001 
3959375000  -5.208252e+001  1.362572e+001 
3962500000  -5.183517e+001  -2.511267e+000 
3965625000  -5.221261e+001  -1.048775e+001 
3968750000  -5.402595e+001  -3.215621e+001 
3971875000  -5.510233e+001  -4.056926e+001 
3975000000  -5.438298e+001  -5.343399e+001 
3978125000  -5.537222e+001  -5.711201e+001 
3981250000  -5.503859e+001  -7.737558e+001 
3984375000  -5.586924e+001  -8.536950e+001 
3987500000  -5.605043e+001  -9.137102e+001 
3990625000  -5.649258e+001  -1.143928e+002 
3993750000  -5.579246e+001  -1.282632e+002 
3996875000  -5.828451e+001  -1.212662e+002 
4000000000  -5.776277e+001  -1.139329e+002 
4003125000  -5.966883e+001  -1.343777e+002 
4006250000  -5.581025e+001  -1.258468e+002 
4009375000  -5.670586e+001  -1.465278e+002 
4012500000  -5.872245e+001  -1.614200e+002 
4015625000  -6.199375e+001  -1.580029e+002 
4018750000  -5.799301e+001  -1.736160e+002 
4021875000  -5.844866e+001  -1.772924e+002 
4025000000  -6.035319e+001  -1.692944e+002 
4028125000  -5.865112e+001  1.671788e+002 
4031250000  -6.137275e+001  1.600346e+002 
4034375000  -5.888800e+001  1.755844e+002 
4037500000  -5.728093e+001  1.645418e+002 
4040625000  -5.918958e+001  1.464533e+002 
4043750000  -6.001083e+001  1.592861e+002 
4046875000  -5.736176e+001  1.390639e+002 
4050000000  -5.643106e+001  1.274621e+002 
4053125000  -5.813457e+001  1.243390e+002 
4056250000  -5.883769e+001  1.145978e+002 
4059375000  -5.536307e+001  1.128007e+002 
4062500000  -5.691310e+001  1.054178e+002 
4065625000  -5.407398e+001  8.514936e+001 
4068750000  -5.452053e+001  8.290071e+001 
4071875000  -5.293333e+001  5.965067e+001 
4075000000  -5.259560e+001  4.240973e+001 
4078125000  -5.238936e+001  3.911179e+001 
4081250000  -5.430434e+001  2.752482e+001 
4084375000  -5.230154e+001  8.777910e+000 
4087500000  -5.284465e+001  -2.589711e+000 
4090625000  -5.432943e+001  -1.309458e+001 
4093750000  -5.278557e+001  -1.926460e+001 
4096875000  -5.314267e+001  -3.856104e+001 
4100000000  -5.421112e+001  -4.702637e+001 
4103125000  -5.457392e+001  -4.847768e+001 
4106250000  -5.359307e+001  -6.090246e+001 
4109375000  -5.241613e+001  -6.184718e+001 
4112500000  -5.231039e+001  -8.002176e+001 
4115625000  -5.428256e+001  -9.546758e+001 
4118750000  -5.215022e+001  -9.950379e+001 
4121875000  -5.239678e+001  -1.244283e+002 
4125000000  -5.362398e+001  -1.285926e+002 
4128125000  -5.473767e+001  -1.291106e+002 
4131250000  -5.285563e+001  -1.256555e+002 
4134375000  -5.049567e+001  -1.475056e+002 
4137500000  -5.283215e+001  1.778603e+002 
4140625000  -5.373067e+001  1.735218e+002 
4143750000  -5.615776e+001  1.729107e+002 
4146875000  -5.461164e+001  1.606707e+002 
4150000000  -5.357667e+001  1.494980e+002 
4153125000  -5.239370e+001  1.381396e+002 
4156250000  -5.599559e+001  1.216564e+002 
4159375000  -5.500249e+001  1.294409e+002 
4162500000  -5.605160e+001  1.238514e+002 
4165625000  -5.503283e+001  1.142492e+002 
4168750000  -5.543150e+001  9.887871e+001 
4171875000  -5.555152e+001  7.471507e+001 
4175000000  -5.512035e+001  5.978429e+001 
4178125000  -5.763163e+001  6.733977e+001 
4181250000  -5.776837e+001  4.332781e+001 
4184375000  -6.058207e+001  2.890975e+001 
4187500000  -5.791728e+001  3.052731e+001 
4190625000  -6.130157e+001  2.413599e+001 
4193750000  -6.077031e+001  1.622922e+001 
4196875000  -6.498855e+001  3.009174e-001 
4200000000  -6.112551e+001  1.985221e+001 
4203125000  -6.295208e+001  1.016180e+001 
4206250000  -6.116690e+001  2.685402e+001 
4209375000  -5.927192e+001  -1.073166e+001 
4212500000  -6.522799e+001  2.252996e+001 
4215625000  -6.154689e+001  -1.585775e+001 
4218750000  -6.315217e+001  -4.019429e+000 
4221875000  -5.857561e+001  -1.642937e+001 
4225000000  -5.958083e+001  2.554065e+000 
4228125000  -5.825462e+001  -3.168220e+001 
4231250000  -6.051973e+001  -2.261797e+001 
4234375000  -5.641777e+001  -3.321742e+001 
4237500000  -5.645854e+001  -4.100732e+001 
4240625000  -5.618373e+001  -5.133188e+001 
4243750000  -5.645622e+001  -7.123450e+001 
4246875000  -5.799705e+001  -7.054717e+001 
4250000000  -5.595895e+001  -9.565439e+001 
4253125000  -5.587598e+001  -9.112200e+001 
4256250000  -5.667926e+001  -9.192357e+001 
4259375000  -5.395576e+001  -1.041267e+002 
4262500000  -5.518684e+001  -1.287642e+002 
4265625000  -5.440497e+001  -1.236418e+002 
4268750000  -5.233486e+001  -1.427358e+002 
4271875000  -5.330276e+001  -1.478931e+002 
4275000000  -5.131767e+001  1.797185e+002 
4278125000  -5.473843e+001  1.631746e+002 
4281250000  -5.304068e+001  1.643022e+002 
4284375000  -5.225812e+001  1.486053e+002 
4287500000  -5.356430e+001  1.469908e+002 
4290625000  -5.509509e+001  1.585519e+002 
4293750000  -5.236523e+001  1.443198e+002 
4296875000  -5.290962e+001  1.183263e+002 
4300000000  -5.242131e+001  1.032358e+002 
4303125000  -5.168461e+001  9.867972e+001 
4306250000  -5.461468e+001  9.442398e+001 
4309375000  -5.102324e+001  7.848935e+001 
4312500000  -5.148577e+001  6.026911e+001 
4315625000  -5.253847e+001  4.815340e+001 
4318750000  -5.247743e+001  3.258566e+001 
4321875000  -5.223227e+001  3.098372e+001 
4325000000  -5.262755e+001  1.710697e+001 
4328125000  -5.214130e+001  7.761374e+000 
4331250000  -5.256763e+001  -8.694932e-001 
4334375000  -5.336297e+001  -2.190573e+001 
4337500000  -5.410024e+001  -2.683642e+001 
4340625000  -5.629385e+001  -2.089522e+001 
4343750000  -5.570925e+001  -3.461214e+001 
4346875000  -5.589476e+001  -4.419459e+001 
4350000000  -5.494428e+001  -6.649943e+001 
4353125000  -5.722952e+001  -7.803310e+001 
4356250000  -5.702365e+001  -7.699966e+001 
4359375000  -6.136642e+001  -4.780457e+001 
4362500000  -5.510421e+001  -7.473943e+001 
4365625000  -5.465926e+001  -1.029769e+002 
4368750000  -5.457195e+001  -9.521977e+001 
4371875000  -5.515168e+001  -1.067492e+002 
4375000000  -5.768498e+001  -1.112868e+002 
4378125000  -5.764491e+001  -1.284646e+002 
4381250000  -5.584744e+001  -1.276335e+002 
4384375000  -5.703035e+001  -1.506622e+002 
4387500000  -5.863948e+001  -1.460356e+002 
4390625000  -5.634759e+001  -1.465433e+002 
4393750000  -5.842171e+001  -1.463603e+002 
4396875000  -5.638818e+001  -1.586754e+002 
4400000000  -5.779622e+001  -1.633990e+002 
4403125000  -5.429922e+001  1.791997e+002 
4406250000  -5.674278e+001  -1.711529e+002 
4409375000  -5.665306e+001  1.656639e+002 
4412500000  -5.873355e+001  1.472429e+002 
4415625000  -5.542834e+001  1.642865e+002 
4418750000  -5.467776e+001  1.457985e+002 
