!Agilent Technologies,E8363B,MY43030201,A.06.04.32
!Agilent E8363B: A.06.04.32
!Date: Tuesday, November 11, 2014 22:11:35
!Correction: S21(Response(S21)) 
!S1P File: Measurement: S21:
# Hz S  dB   R 50
3000000000  -4.914592e+001  -7.466647e+001 
3003125000  -5.131993e+001  -7.996691e+001 
3006250000  -5.157169e+001  -8.999241e+001 
3009375000  -5.235038e+001  -8.818073e+001 
3012500000  -5.124056e+001  -9.920325e+001 
3015625000  -5.165919e+001  -1.103775e+002 
3018750000  -5.131249e+001  -1.153967e+002 
3021875000  -5.048525e+001  -1.148233e+002 
3025000000  -4.887989e+001  -1.283592e+002 
3028125000  -4.799450e+001  -1.454812e+002 
3031250000  -4.708763e+001  -1.635371e+002 
3034375000  -4.726316e+001  1.780631e+002 
3037500000  -4.774883e+001  1.629904e+002 
3040625000  -4.917746e+001  1.527040e+002 
3043750000  -4.968536e+001  1.407810e+002 
3046875000  -5.040305e+001  1.325028e+002 
3050000000  -5.132234e+001  1.213400e+002 
3053125000  -5.118720e+001  1.213650e+002 
3056250000  -5.145456e+001  1.175047e+002 
3059375000  -4.993282e+001  1.108745e+002 
3062500000  -5.012702e+001  1.029876e+002 
3065625000  -4.942006e+001  9.080196e+001 
3068750000  -4.944591e+001  7.600493e+001 
3071875000  -4.890598e+001  6.499014e+001 
3075000000  -4.842097e+001  5.615986e+001 
3078125000  -4.859196e+001  4.369652e+001 
3081250000  -4.872943e+001  3.362190e+001 
3084375000  -4.825430e+001  2.526590e+001 
3087500000  -4.851469e+001  1.088568e+001 
3090625000  -4.773187e+001  -2.992201e+000 
3093750000  -4.876080e+001  -1.761311e+001 
3096875000  -4.953500e+001  -2.658931e+001 
3100000000  -4.906958e+001  -3.538393e+001 
3103125000  -4.961192e+001  -3.989725e+001 
3106250000  -4.883411e+001  -4.932919e+001 
3109375000  -4.957679e+001  -6.086198e+001 
3112500000  -4.937648e+001  -7.090805e+001 
3115625000  -4.922611e+001  -8.028925e+001 
3118750000  -4.943579e+001  -8.591628e+001 
3121875000  -4.906030e+001  -9.970380e+001 
3125000000  -5.079933e+001  -1.105593e+002 
3128125000  -5.097992e+001  -1.081290e+002 
3131250000  -4.843142e+001  -1.193127e+002 
3134375000  -4.770789e+001  -1.391964e+002 
3137500000  -4.909525e+001  -1.520079e+002 
3140625000  -4.954023e+001  -1.613789e+002 
3143750000  -5.056290e+001  -1.675677e+002 
3146875000  -4.999249e+001  -1.710554e+002 
3150000000  -4.898391e+001  -1.785475e+002 
3153125000  -4.922216e+001  1.644259e+002 
3156250000  -5.067974e+001  1.620603e+002 
3159375000  -4.763098e+001  1.566940e+002 
3162500000  -4.634317e+001  1.381107e+002 
3165625000  -4.761576e+001  1.196987e+002 
3168750000  -4.755144e+001  1.140217e+002 
3171875000  -4.707089e+001  1.018155e+002 
3175000000  -4.773711e+001  8.718034e+001 
3178125000  -4.753236e+001  8.241906e+001 
3181250000  -4.651418e+001  6.589454e+001 
3184375000  -4.658347e+001  5.393457e+001 
3187500000  -4.760963e+001  3.465694e+001 
3190625000  -4.976515e+001  2.195480e+001 
3193750000  -4.980309e+001  2.163588e+001 
3196875000  -4.990119e+001  1.726497e+001 
3200000000  -4.865731e+001  1.012906e+001 
3203125000  -4.870191e+001  -2.541122e+000 
3206250000  -4.876627e+001  -1.574216e+001 
3209375000  -4.800846e+001  -3.023819e+001 
3212500000  -4.888275e+001  -3.894887e+001 
3215625000  -4.793084e+001  -4.483449e+001 
3218750000  -4.937262e+001  -6.536127e+001 
3221875000  -4.917117e+001  -7.608488e+001 
3225000000  -4.966864e+001  -8.525336e+001 
3228125000  -4.991088e+001  -9.590981e+001 
3231250000  -5.095665e+001  -1.055857e+002 
3234375000  -5.059152e+001  -1.080058e+002 
3237500000  -5.031182e+001  -1.183644e+002 
3240625000  -5.076894e+001  -1.306310e+002 
3243750000  -5.003741e+001  -1.458528e+002 
3246875000  -5.013372e+001  -1.592750e+002 
3250000000  -5.129826e+001  -1.642080e+002 
3253125000  -5.180420e+001  -1.740905e+002 
3256250000  -5.044205e+001  1.744127e+002 
3259375000  -5.106907e+001  1.577603e+002 
3262500000  -5.294884e+001  1.502564e+002 
3265625000  -5.347750e+001  1.413206e+002 
3268750000  -5.371823e+001  1.416118e+002 
3271875000  -5.257870e+001  1.326598e+002 
3275000000  -5.149934e+001  1.236771e+002 
3278125000  -5.290489e+001  1.031739e+002 
3281250000  -5.363885e+001  1.044351e+002 
3284375000  -5.153609e+001  8.873312e+001 
3287500000  -5.375734e+001  8.760326e+001 
3290625000  -5.297399e+001  7.535688e+001 
3293750000  -5.285489e+001  6.190223e+001 
3296875000  -5.314080e+001  5.545813e+001 
3300000000  -5.431025e+001  5.100978e+001 
3303125000  -5.353403e+001  3.884967e+001 
3306250000  -5.300023e+001  2.358826e+001 
3309375000  -5.255668e+001  1.823093e+001 
3312500000  -5.378516e+001  -4.843609e+000 
3315625000  -5.428969e+001  -1.536736e+001 
3318750000  -5.593442e+001  -3.403846e+001 
3321875000  -5.670112e+001  -2.330289e+001 
3325000000  -5.661242e+001  -1.922430e+001 
3328125000  -5.729830e+001  -1.975437e+001 
3331250000  -5.365508e+001  -2.873207e+001 
3334375000  -5.212529e+001  -4.523955e+001 
3337500000  -5.161120e+001  -6.677375e+001 
3340625000  -5.440720e+001  -9.135197e+001 
3343750000  -5.571497e+001  -8.339023e+001 
3346875000  -5.540126e+001  -1.011366e+002 
3350000000  -5.455971e+001  -1.000863e+002 
3353125000  -5.535123e+001  -1.246043e+002 
3356250000  -5.539792e+001  -1.359728e+002 
3359375000  -5.459887e+001  -1.440687e+002 
3362500000  -5.523215e+001  -1.454586e+002 
3365625000  -5.673979e+001  -1.584426e+002 
3368750000  -5.699221e+001  -1.783784e+002 
3371875000  -5.748420e+001  1.778018e+002 
3375000000  -5.819271e+001  1.703507e+002 
3378125000  -5.830345e+001  1.621554e+002 
3381250000  -6.006417e+001  1.655461e+002 
3384375000  -5.726863e+001  -1.683785e+002 
3387500000  -5.456563e+001  1.492682e+002 
3390625000  -5.651303e+001  1.283822e+002 
3393750000  -5.692831e+001  1.283387e+002 
3396875000  -5.659155e+001  1.127693e+002 
3400000000  -5.501139e+001  9.498733e+001 
3403125000  -5.681966e+001  8.063821e+001 
3406250000  -5.716336e+001  6.646890e+001 
3409375000  -5.790971e+001  4.240916e+001 
3412500000  -5.665631e+001  4.231407e+001 
3415625000  -6.021535e+001  3.825765e+001 
3418750000  -5.793281e+001  2.800823e+001 
3421875000  -6.107560e+001  2.481550e+001 
3425000000  -6.063462e+001  2.285532e+001 
3428125000  -5.881678e+001  5.478620e+000 
3431250000  -5.842101e+001  2.154424e+000 
3434375000  -6.107878e+001  -2.075565e+001 
3437500000  -6.070554e+001  -2.996318e+001 
3440625000  -6.098220e+001  -3.858764e+001 
3443750000  -6.252034e+001  -1.022472e+001 
3446875000  -6.016069e+001  -5.123032e+001 
3450000000  -6.106955e+001  -7.958938e+001 
3453125000  -6.339874e+001  -7.744469e+001 
3456250000  -6.503696e+001  -7.508404e+001 
3459375000  -6.267320e+001  -6.010852e+001 
3462500000  -6.305489e+001  -1.122198e+002 
3465625000  -6.486420e+001  -7.754482e+001 
3468750000  -6.707253e+001  -1.254326e+002 
3471875000  -6.338454e+001  -9.941114e+001 
3475000000  -6.443882e+001  -1.159106e+002 
3478125000  -6.903437e+001  -8.062949e+001 
3481250000  -7.240031e+001  -1.264355e+002 
3484375000  -6.707533e+001  -1.039706e+002 
3487500000  -6.571250e+001  -1.186782e+002 
3490625000  -6.934718e+001  -1.334374e+002 
3493750000  -6.935987e+001  -1.606132e+002 
3496875000  -7.302732e+001  1.554867e+002 
3500000000  -6.673334e+001  1.770545e+002 
3503125000  -6.238349e+001  -1.562309e+002 
3506250000  -6.801020e+001  -1.643389e+002 
3509375000  -7.071875e+001  1.770613e+002 
3512500000  -6.743731e+001  1.267204e+002 
3515625000  -6.718772e+001  1.468625e+002 
3518750000  -6.863720e+001  1.412380e+002 
3521875000  -6.584102e+001  1.615010e+002 
3525000000  -6.841734e+001  1.260219e+002 
3528125000  -6.810772e+001  1.547473e+002 
3531250000  -7.410040e+001  7.658528e+001 
3534375000  -6.355786e+001  1.010329e+002 
3537500000  -7.108511e+001  8.586657e+001 
3540625000  -6.863981e+001  5.302091e+001 
3543750000  -7.589265e+001  5.975858e+001 
3546875000  -7.128294e+001  7.695837e+001 
3550000000  -7.005930e+001  1.177011e+002 
3553125000  -6.897839e+001  7.518668e+001 
3556250000  -8.633383e+001  -3.652941e+001 
3559375000  -7.080730e+001  -4.785299e+000 
3562500000  -8.400982e+001  -1.066556e+002 
3565625000  -7.468615e+001  3.779561e+001 
3568750000  -7.661945e+001  -3.083691e+001 
3571875000  -6.777522e+001  3.147766e+000 
3575000000  -7.148075e+001  -9.919646e-001 
3578125000  -7.183614e+001  6.863924e+001 
3581250000  -7.275345e+001  -6.417793e+000 
3584375000  -7.922106e+001  6.563593e+001 
3587500000  -8.713905e+001  5.375086e+001 
3590625000  -6.665118e+001  -2.268309e+001 
3593750000  -7.362867e+001  -3.625321e+001 
3596875000  -6.690278e+001  4.519590e+001 
3600000000  -6.836053e+001  -9.159901e+000 
3603125000  -7.003756e+001  -3.010586e+000 
3606250000  -6.779951e+001  -4.301194e+001 
3609375000  -6.694324e+001  -3.762539e+001 
3612500000  -6.266066e+001  -4.436926e+001 
3615625000  -6.674938e+001  -7.753973e+001 
3618750000  -6.388477e+001  -6.448923e+001 
3621875000  -6.632588e+001  -7.495063e+001 
3625000000  -6.324544e+001  -8.734824e+001 
3628125000  -6.365631e+001  -1.070134e+002 
3631250000  -6.427709e+001  -1.088609e+002 
3634375000  -6.464388e+001  -1.130134e+002 
3637500000  -6.440072e+001  -1.000988e+002 
3640625000  -6.140874e+001  -1.432070e+002 
3643750000  -6.245604e+001  -1.461295e+002 
3646875000  -6.206126e+001  -1.693286e+002 
3650000000  -6.409706e+001  -1.664867e+002 
3653125000  -6.025126e+001  1.708367e+002 
3656250000  -6.442091e+001  -1.784703e+002 
3659375000  -6.442554e+001  1.590470e+002 
3662500000  -6.553033e+001  1.331700e+002 
3665625000  -6.244074e+001  1.575491e+002 
3668750000  -6.434843e+001  1.355363e+002 
3671875000  -6.505791e+001  1.367893e+002 
3675000000  -6.317784e+001  1.092876e+002 
3678125000  -6.761319e+001  9.552167e+001 
3681250000  -6.301313e+001  9.481317e+001 
3684375000  -6.495892e+001  9.007232e+001 
3687500000  -6.425581e+001  7.177935e+001 
3690625000  -7.473378e+001  9.255448e+001 
3693750000  -6.526396e+001  7.978754e+001 
3696875000  -6.941321e+001  1.013988e+002 
3700000000  -6.310277e+001  7.795128e+001 
3703125000  -6.695610e+001  2.980350e+001 
3706250000  -6.875247e+001  7.931350e+001 
3709375000  -6.479977e+001  6.093816e+001 
3712500000  -6.139933e+001  4.162789e+001 
3715625000  -6.310078e+001  4.874326e+001 
3718750000  -6.214242e+001  3.618600e+001 
3721875000  -6.130757e+001  2.197038e+001 
3725000000  -6.174513e+001  2.706068e+001 
3728125000  -6.021263e+001  -6.649237e+000 
3731250000  -6.044030e+001  -5.350873e+000 
3734375000  -5.960505e+001  -6.489989e+000 
3737500000  -5.867339e+001  -3.866286e+001 
3740625000  -5.937872e+001  -4.127140e+001 
3743750000  -5.839263e+001  -5.532707e+001 
3746875000  -5.912275e+001  -6.297446e+001 
3750000000  -5.873812e+001  -7.814153e+001 
3753125000  -5.700398e+001  -7.629738e+001 
3756250000  -5.669887e+001  -1.059498e+002 
3759375000  -5.886965e+001  -1.022238e+002 
3762500000  -5.807749e+001  -1.195339e+002 
3765625000  -5.871685e+001  -1.158582e+002 
3768750000  -5.736203e+001  -1.355539e+002 
3771875000  -5.501684e+001  -1.463930e+002 
3775000000  -5.706620e+001  -1.526691e+002 
3778125000  -5.709027e+001  1.792420e+002 
3781250000  -5.754548e+001  -1.791033e+002 
3784375000  -5.784173e+001  1.730999e+002 
3787500000  -5.645987e+001  1.471116e+002 
3790625000  -5.648936e+001  1.458874e+002 
3793750000  -5.866969e+001  1.266539e+002 
3796875000  -5.578074e+001  1.233080e+002 
3800000000  -5.256047e+001  8.131750e+001 
3803125000  -5.679086e+001  9.204842e+001 
3806250000  -5.981733e+001  7.971273e+001 
3809375000  -5.867091e+001  7.609556e+001 
3812500000  -5.849229e+001  5.961106e+001 
3815625000  -6.290345e+001  4.430399e+001 
3818750000  -5.979098e+001  3.598749e+001 
3821875000  -6.152213e+001  6.647197e+001 
3825000000  -6.129109e+001  2.877683e+001 
3828125000  -5.854763e+001  3.266165e+001 
3831250000  -6.123767e+001  3.385980e+000 
3834375000  -6.724962e+001  -1.780935e+001 
3837500000  -6.498425e+001  2.097969e+001 
3840625000  -6.374890e+001  -8.267860e+000 
3843750000  -6.060836e+001  -4.526126e-001 
3846875000  -6.567806e+001  -3.300407e+001 
3850000000  -6.119102e+001  -1.855510e+001 
3853125000  -6.240397e+001  -2.497916e+001 
3856250000  -6.112820e+001  -1.073842e+001 
3859375000  -5.996420e+001  -4.403272e+001 
3862500000  -6.149530e+001  -1.207229e+001 
3865625000  -6.073247e+001  -4.532988e+001 
3868750000  -5.866422e+001  -4.454042e+001 
3871875000  -5.737714e+001  -6.263471e+001 
3875000000  -5.891608e+001  -6.864846e+001 
3878125000  -5.736285e+001  -7.774287e+001 
3881250000  -5.930419e+001  -9.549464e+001 
3884375000  -5.452893e+001  -1.031308e+002 
3887500000  -5.582969e+001  -1.119082e+002 
3890625000  -5.571030e+001  -1.203381e+002 
3893750000  -5.703003e+001  -1.386322e+002 
3896875000  -5.629846e+001  -1.264520e+002 
3900000000  -5.781383e+001  -1.427644e+002 
3903125000  -5.615609e+001  -1.512174e+002 
3906250000  -5.409228e+001  -1.709613e+002 
3909375000  -5.479106e+001  1.762409e+002 
3912500000  -5.567492e+001  1.578623e+002 
3915625000  -5.463715e+001  1.556671e+002 
3918750000  -5.615835e+001  1.584319e+002 
3921875000  -5.516730e+001  1.359119e+002 
3925000000  -5.208826e+001  1.222995e+002 
3928125000  -5.319525e+001  1.093030e+002 
3931250000  -5.317377e+001  1.011165e+002 
3934375000  -5.431417e+001  9.442925e+001 
3937500000  -5.483336e+001  7.742068e+001 
3940625000  -5.425501e+001  7.973196e+001 
3943750000  -5.529412e+001  6.444287e+001 
3946875000  -5.272406e+001  4.975054e+001 
3950000000  -5.470796e+001  3.528531e+001 
3953125000  -5.435649e+001  3.493972e+001 
3956250000  -5.426511e+001  2.838555e+001 
3959375000  -5.259853e+001  1.831058e+001 
3962500000  -5.200383e+001  -9.550553e+000 
3965625000  -5.268887e+001  -2.050770e+001 
3968750000  -5.429879e+001  -2.868451e+001 
3971875000  -5.430526e+001  -4.681158e+001 
3975000000  -5.472498e+001  -5.219053e+001 
3978125000  -5.403104e+001  -7.073315e+001 
3981250000  -5.483449e+001  -7.982977e+001 
3984375000  -5.516882e+001  -8.922264e+001 
3987500000  -5.557295e+001  -9.603976e+001 
3990625000  -5.788145e+001  -9.974805e+001 
3993750000  -5.599281e+001  -1.258583e+002 
3996875000  -5.664107e+001  -1.240292e+002 
4000000000  -6.006209e+001  -1.449834e+002 
4003125000  -6.268909e+001  -1.240694e+002 
4006250000  -5.751455e+001  -1.452661e+002 
4009375000  -5.829270e+001  -1.590530e+002 
4012500000  -5.871692e+001  -1.494542e+002 
4015625000  -6.307998e+001  -1.643691e+002 
4018750000  -5.844842e+001  -1.752478e+002 
4021875000  -5.987291e+001  1.765685e+002 
4025000000  -6.181561e+001  1.700947e+002 
4028125000  -5.916249e+001  -1.742528e+002 
4031250000  -5.871358e+001  1.541649e+002 
4034375000  -6.107789e+001  1.710081e+002 
4037500000  -5.842300e+001  1.590117e+002 
4040625000  -5.978327e+001  1.461043e+002 
4043750000  -6.124288e+001  1.549649e+002 
4046875000  -5.819656e+001  1.428849e+002 
4050000000  -5.928288e+001  1.099699e+002 
4053125000  -5.977261e+001  1.196953e+002 
4056250000  -5.911174e+001  1.152951e+002 
4059375000  -5.608154e+001  1.172721e+002 
4062500000  -5.500206e+001  1.035364e+002 
4065625000  -5.422801e+001  7.398927e+001 
4068750000  -5.350399e+001  7.804017e+001 
4071875000  -5.242558e+001  6.193654e+001 
4075000000  -5.244579e+001  5.141202e+001 
4078125000  -5.260249e+001  3.784133e+001 
4081250000  -5.354864e+001  1.836813e+001 
4084375000  -5.369166e+001  1.387042e+001 
4087500000  -5.342609e+001  -2.031655e+000 
4090625000  -5.401142e+001  -3.681343e+000 
4093750000  -5.339447e+001  -2.473980e+001 
4096875000  -5.357462e+001  -3.103607e+001 
4100000000  -5.442495e+001  -4.520716e+001 
4103125000  -5.497113e+001  -4.545479e+001 
4106250000  -5.338437e+001  -5.301359e+001 
4109375000  -5.309632e+001  -6.405259e+001 
4112500000  -5.195155e+001  -7.255109e+001 
4115625000  -5.457067e+001  -9.508639e+001 
4118750000  -5.352907e+001  -1.008413e+002 
4121875000  -5.182102e+001  -1.193824e+002 
4125000000  -5.260686e+001  -1.216415e+002 
4128125000  -5.501968e+001  -1.341054e+002 
4131250000  -5.391293e+001  -1.297998e+002 
4134375000  -5.153776e+001  -1.528757e+002 
4137500000  -5.137702e+001  -1.681513e+002 
4140625000  -5.491937e+001  1.672389e+002 
4143750000  -5.513267e+001  1.689338e+002 
4146875000  -5.382475e+001  1.666441e+002 
4150000000  -5.393761e+001  1.575207e+002 
4153125000  -5.431282e+001  1.415257e+002 
4156250000  -5.598591e+001  1.353523e+002 
4159375000  -5.602497e+001  1.270815e+002 
4162500000  -5.521027e+001  1.215635e+002 
4165625000  -5.382055e+001  1.179826e+002 
4168750000  -5.414845e+001  8.795302e+001 
4171875000  -5.472109e+001  7.855833e+001 
4175000000  -5.656442e+001  4.280761e+001 
4178125000  -5.953111e+001  7.115316e+001 
4181250000  -5.910896e+001  3.781338e+001 
4184375000  -6.059314e+001  3.067759e+001 
4187500000  -5.840534e+001  1.757385e+001 
4190625000  -5.991254e+001  1.398287e+001 
4193750000  -6.090209e+001  1.863049e+001 
4196875000  -6.494441e+001  -1.392276e+001 
4200000000  -6.694663e+001  3.589696e+000 
4203125000  -6.027005e+001  1.153278e+001 
4206250000  -6.195905e+001  2.430757e+001 
4209375000  -6.332977e+001  -2.458890e+001 
4212500000  -6.406586e+001  2.117156e+001 
4215625000  -6.467858e+001  -1.752223e+001 
4218750000  -6.279751e+001  -1.771422e+001 
4221875000  -5.969337e+001  -2.360014e+001 
4225000000  -6.082219e+001  -1.611694e+001 
4228125000  -5.903294e+001  -3.537168e+001 
4231250000  -5.927829e+001  -1.099335e+001 
4234375000  -5.820494e+001  -4.712101e+001 
4237500000  -5.805534e+001  -6.061988e+001 
4240625000  -5.643467e+001  -6.900928e+001 
4243750000  -5.582345e+001  -7.275208e+001 
4246875000  -5.490026e+001  -8.107507e+001 
4250000000  -5.835305e+001  -8.500994e+001 
4253125000  -5.524203e+001  -9.155078e+001 
4256250000  -5.525428e+001  -9.764375e+001 
4259375000  -5.322439e+001  -9.826161e+001 
4262500000  -5.438068e+001  -1.246076e+002 
4265625000  -5.442002e+001  -1.270173e+002 
4268750000  -5.280821e+001  -1.495215e+002 
4271875000  -5.172248e+001  -1.547497e+002 
4275000000  -5.172620e+001  -1.720346e+002 
4278125000  -5.299382e+001  1.676181e+002 
4281250000  -5.411187e+001  1.528351e+002 
4284375000  -5.390582e+001  1.523921e+002 
4287500000  -5.405132e+001  1.467119e+002 
4290625000  -5.522354e+001  1.538195e+002 
4293750000  -5.317905e+001  1.422183e+002 
4296875000  -5.321424e+001  1.185900e+002 
4300000000  -5.222377e+001  9.853228e+001 
4303125000  -5.337910e+001  1.023402e+002 
4306250000  -5.310270e+001  9.805502e+001 
4309375000  -5.200837e+001  7.643855e+001 
4312500000  -5.233058e+001  6.801860e+001 
4315625000  -5.210176e+001  4.649848e+001 
4318750000  -5.278828e+001  4.424126e+001 
4321875000  -5.199789e+001  3.880895e+001 
4325000000  -5.411605e+001  1.542260e+001 
4328125000  -5.243178e+001  8.148499e+000 
4331250000  -5.356561e+001  -6.893530e+000 
4334375000  -5.353367e+001  -2.063333e+001 
4337500000  -5.433826e+001  -3.280288e+001 
4340625000  -5.616959e+001  -2.396961e+001 
4343750000  -5.432565e+001  -3.316115e+001 
4346875000  -5.692362e+001  -4.452556e+001 
4350000000  -5.670952e+001  -4.983771e+001 
4353125000  -5.688525e+001  -7.224426e+001 
4356250000  -5.652227e+001  -6.084756e+001 
4359375000  -5.786581e+001  -3.648185e+001 
4362500000  -5.405484e+001  -7.628243e+001 
4365625000  -5.322698e+001  -8.769899e+001 
4368750000  -5.534429e+001  -1.050145e+002 
4371875000  -5.843317e+001  -1.108863e+002 
4375000000  -5.651488e+001  -1.131258e+002 
4378125000  -5.523555e+001  -1.271406e+002 
4381250000  -5.727925e+001  -1.326215e+002 
4384375000  -5.719139e+001  -1.343613e+002 
4387500000  -5.855998e+001  -1.373773e+002 
4390625000  -5.719947e+001  -1.647820e+002 
4393750000  -5.820195e+001  -1.588388e+002 
4396875000  -5.637719e+001  -1.718137e+002 
4400000000  -5.607426e+001  -1.761589e+002 
4403125000  -5.515171e+001  1.791540e+002 
4406250000  -5.539457e+001  1.695506e+002 
4409375000  -5.636105e+001  1.644074e+002 
4412500000  -5.754558e+001  1.729071e+002 
4415625000  -5.499650e+001  1.642451e+002 
