!Agilent Technologies,E8363B,MY43030201,A.06.04.32
!Agilent E8363B: A.06.04.32
!Date: Tuesday, November 11, 2014 22:11:37
!Correction: S21(Response(S21)) 
!S1P File: Measurement: S21:
# Hz S  dB   R 50
3000000000  -4.876022e+001  -7.535917e+001 
3003125000  -5.141043e+001  -8.510815e+001 
3006250000  -5.172421e+001  -8.919415e+001 
3009375000  -5.185138e+001  -9.054814e+001 
3012500000  -5.109969e+001  -9.966513e+001 
3015625000  -5.100960e+001  -1.115352e+002 
3018750000  -5.125337e+001  -1.130701e+002 
3021875000  -4.991583e+001  -1.193123e+002 
3025000000  -4.890623e+001  -1.282577e+002 
3028125000  -4.809792e+001  -1.449834e+002 
3031250000  -4.729584e+001  -1.604162e+002 
3034375000  -4.714161e+001  1.795028e+002 
3037500000  -4.783352e+001  1.653193e+002 
3040625000  -4.912766e+001  1.520826e+002 
3043750000  -4.981033e+001  1.418183e+002 
3046875000  -5.028246e+001  1.323084e+002 
3050000000  -5.171793e+001  1.247512e+002 
3053125000  -5.182031e+001  1.199866e+002 
3056250000  -5.134165e+001  1.211242e+002 
3059375000  -5.066109e+001  1.102141e+002 
3062500000  -4.956598e+001  1.004984e+002 
3065625000  -4.945466e+001  8.422998e+001 
3068750000  -4.886301e+001  6.994588e+001 
3071875000  -4.918961e+001  6.545998e+001 
3075000000  -4.864717e+001  5.146628e+001 
3078125000  -4.857057e+001  4.468858e+001 
3081250000  -4.851690e+001  3.115196e+001 
3084375000  -4.823154e+001  2.389021e+001 
3087500000  -4.854937e+001  1.215048e+001 
3090625000  -4.788802e+001  -3.986545e+000 
3093750000  -4.893567e+001  -1.705117e+001 
3096875000  -4.947042e+001  -2.574485e+001 
3100000000  -4.919043e+001  -3.147544e+001 
3103125000  -4.977140e+001  -4.529882e+001 
3106250000  -4.903391e+001  -5.235569e+001 
3109375000  -4.971136e+001  -5.882793e+001 
3112500000  -4.964296e+001  -6.750408e+001 
3115625000  -4.955968e+001  -8.034474e+001 
3118750000  -4.973529e+001  -8.598640e+001 
3121875000  -4.920275e+001  -1.005449e+002 
3125000000  -5.036953e+001  -1.119030e+002 
3128125000  -5.106744e+001  -1.054164e+002 
3131250000  -4.880759e+001  -1.190493e+002 
3134375000  -4.828651e+001  -1.426367e+002 
3137500000  -4.841599e+001  -1.541842e+002 
3140625000  -4.958387e+001  -1.629803e+002 
3143750000  -5.076226e+001  -1.689222e+002 
3146875000  -4.959206e+001  -1.743035e+002 
3150000000  -4.953627e+001  -1.791814e+002 
3153125000  -4.883468e+001  1.653536e+002 
3156250000  -5.014449e+001  1.629312e+002 
3159375000  -4.713263e+001  1.586363e+002 
3162500000  -4.653488e+001  1.376058e+002 
3165625000  -4.752559e+001  1.188734e+002 
3168750000  -4.791714e+001  1.145305e+002 
3171875000  -4.721721e+001  1.013138e+002 
3175000000  -4.751392e+001  8.507040e+001 
3178125000  -4.729837e+001  8.369142e+001 
3181250000  -4.689180e+001  6.704337e+001 
3184375000  -4.648687e+001  5.023400e+001 
3187500000  -4.712703e+001  3.592725e+001 
3190625000  -4.905944e+001  1.805470e+001 
3193750000  -5.022525e+001  2.374416e+001 
3196875000  -4.946404e+001  1.979679e+001 
3200000000  -4.830127e+001  7.835219e+000 
3203125000  -4.836371e+001  -5.229292e+000 
3206250000  -4.893085e+001  -1.570659e+001 
3209375000  -4.776912e+001  -3.014975e+001 
3212500000  -4.864200e+001  -4.315776e+001 
3215625000  -4.817687e+001  -4.828837e+001 
3218750000  -4.873784e+001  -6.617366e+001 
3221875000  -4.938813e+001  -7.836851e+001 
3225000000  -4.977852e+001  -8.462670e+001 
3228125000  -4.995303e+001  -9.467841e+001 
3231250000  -5.113785e+001  -1.080834e+002 
3234375000  -5.003306e+001  -1.088671e+002 
3237500000  -5.024761e+001  -1.205941e+002 
3240625000  -4.987962e+001  -1.301718e+002 
3243750000  -4.988570e+001  -1.455802e+002 
3246875000  -5.061968e+001  -1.553757e+002 
3250000000  -5.121572e+001  -1.687364e+002 
3253125000  -5.074862e+001  -1.729749e+002 
3256250000  -5.057570e+001  1.736724e+002 
3259375000  -5.114561e+001  1.576952e+002 
3262500000  -5.306169e+001  1.532360e+002 
3265625000  -5.263385e+001  1.453327e+002 
3268750000  -5.304642e+001  1.440166e+002 
3271875000  -5.227903e+001  1.371670e+002 
3275000000  -5.257654e+001  1.214155e+002 
3278125000  -5.321299e+001  1.064919e+002 
3281250000  -5.370876e+001  1.035978e+002 
3284375000  -5.253679e+001  9.281624e+001 
3287500000  -5.305129e+001  8.712757e+001 
3290625000  -5.341108e+001  7.520287e+001 
3293750000  -5.412442e+001  5.811063e+001 
3296875000  -5.401135e+001  5.183496e+001 
3300000000  -5.394496e+001  5.412601e+001 
3303125000  -5.362873e+001  3.647948e+001 
3306250000  -5.320578e+001  2.742888e+001 
3309375000  -5.346089e+001  1.794682e+001 
3312500000  -5.274093e+001  -5.752666e+000 
3315625000  -5.452311e+001  -1.089778e+001 
3318750000  -5.482953e+001  -1.962577e+001 
3321875000  -5.724671e+001  -3.267260e+001 
3325000000  -5.812118e+001  -1.716386e+001 
3328125000  -5.793724e+001  -1.066952e+001 
3331250000  -5.264797e+001  -1.795402e+001 
3334375000  -5.178959e+001  -4.467011e+001 
3337500000  -5.208567e+001  -7.658537e+001 
3340625000  -5.370182e+001  -8.585784e+001 
3343750000  -5.600269e+001  -9.174603e+001 
3346875000  -5.540760e+001  -9.494598e+001 
3350000000  -5.451771e+001  -1.034644e+002 
3353125000  -5.403986e+001  -1.177304e+002 
3356250000  -5.487167e+001  -1.285119e+002 
3359375000  -5.450241e+001  -1.492665e+002 
3362500000  -5.617366e+001  -1.589946e+002 
3365625000  -5.508368e+001  -1.628434e+002 
3368750000  -5.733304e+001  -1.682817e+002 
3371875000  -5.652495e+001  1.727448e+002 
3375000000  -5.779648e+001  1.645786e+002 
3378125000  -6.005424e+001  1.637183e+002 
3381250000  -6.020907e+001  1.619452e+002 
3384375000  -5.666382e+001  -1.732928e+002 
3387500000  -5.437064e+001  1.482286e+002 
3390625000  -5.739110e+001  1.307458e+002 
3393750000  -5.657418e+001  1.201681e+002 
3396875000  -5.548674e+001  1.118791e+002 
3400000000  -5.510227e+001  9.344279e+001 
3403125000  -5.897305e+001  8.179575e+001 
3406250000  -5.703764e+001  8.091930e+001 
3409375000  -5.732680e+001  5.454158e+001 
3412500000  -5.735471e+001  6.185357e+001 
3415625000  -6.240502e+001  4.985503e+001 
3418750000  -5.941799e+001  3.214605e+001 
3421875000  -5.987866e+001  2.605018e+001 
3425000000  -5.945537e+001  2.516711e+001 
3428125000  -5.868650e+001  6.845048e+000 
3431250000  -5.898632e+001  -2.476820e-001 
3434375000  -6.015040e+001  -2.225888e+001 
3437500000  -6.256032e+001  -1.899743e+001 
3440625000  -6.016483e+001  -2.534624e+001 
3443750000  -6.596323e+001  -1.828131e+001 
3446875000  -5.989021e+001  -5.395425e+001 
3450000000  -6.004000e+001  -7.940854e+001 
3453125000  -6.523494e+001  -7.489458e+001 
3456250000  -6.602869e+001  -8.788996e+001 
3459375000  -6.211520e+001  -7.695670e+001 
3462500000  -6.515182e+001  -9.560479e+001 
3465625000  -6.468317e+001  -1.100075e+002 
3468750000  -6.514454e+001  -1.290063e+002 
3471875000  -6.489889e+001  -9.661017e+001 
3475000000  -6.439178e+001  -1.102379e+002 
3478125000  -7.080248e+001  -1.671165e+002 
3481250000  -6.547453e+001  -1.398141e+002 
3484375000  -6.898153e+001  -1.335426e+002 
3487500000  -6.768046e+001  -1.461548e+002 
3490625000  -6.624007e+001  -1.323587e+002 
3493750000  -6.639910e+001  -1.770197e+002 
3496875000  -7.311553e+001  -1.452726e+002 
3500000000  -6.762930e+001  1.610255e+002 
3503125000  -7.597301e+001  1.630569e+002 
3506250000  -6.453886e+001  -1.460942e+002 
3509375000  -6.301523e+001  -1.728954e+002 
3512500000  -6.766650e+001  1.450459e+002 
3515625000  -6.322797e+001  1.465479e+002 
3518750000  -6.419849e+001  1.450910e+002 
3521875000  -6.763392e+001  1.299554e+002 
3525000000  -6.593389e+001  1.400288e+002 
3528125000  -6.653928e+001  1.523988e+002 
3531250000  -6.794647e+001  8.632153e+001 
3534375000  -6.823755e+001  8.848373e+001 
3537500000  -6.889966e+001  8.998293e+001 
3540625000  -7.015038e+001  5.901610e+001 
3543750000  -7.368692e+001  7.241492e+001 
3546875000  -6.833655e+001  5.722109e+001 
3550000000  -6.674223e+001  7.635339e+001 
3553125000  -7.035654e+001  2.333648e+001 
3556250000  -7.151392e+001  5.931375e+001 
3559375000  -7.218279e+001  5.609749e+001 
3562500000  -7.202631e+001  2.101653e+001 
3565625000  -6.694099e+001  2.506414e+001 
3568750000  -8.399131e+001  1.737460e+002 
3571875000  -7.033415e+001  4.611821e+001 
3575000000  -7.557076e+001  -1.553619e-001 
3578125000  -6.843778e+001  4.639907e+001 
3581250000  -7.278185e+001  -2.208478e+001 
3584375000  -7.024292e+001  8.286413e+001 
3587500000  -7.318420e+001  9.892499e+000 
3590625000  -7.255782e+001  -7.126549e+000 
3593750000  -6.401992e+001  4.901596e+001 
3596875000  -6.555318e+001  5.174732e+001 
3600000000  -6.681653e+001  -1.065450e+001 
3603125000  -6.487907e+001  -1.171476e+001 
3606250000  -6.158258e+001  -2.326164e+001 
3609375000  -6.386553e+001  -4.626085e+001 
3612500000  -6.495753e+001  -4.691012e+001 
3615625000  -7.050216e+001  -3.738985e+001 
3618750000  -6.364233e+001  -7.875817e+001 
3621875000  -6.528722e+001  -7.885381e+001 
3625000000  -6.463579e+001  -8.289368e+001 
3628125000  -6.382746e+001  -1.015623e+002 
3631250000  -6.213266e+001  -1.015740e+002 
3634375000  -6.410951e+001  -1.166939e+002 
3637500000  -6.248807e+001  -1.150244e+002 
3640625000  -6.053144e+001  -1.333548e+002 
3643750000  -6.189025e+001  -1.257508e+002 
3646875000  -6.059607e+001  -1.749761e+002 
3650000000  -6.262591e+001  -1.679524e+002 
3653125000  -6.403669e+001  1.557569e+002 
3656250000  -6.508710e+001  1.603058e+002 
3659375000  -6.232272e+001  1.722899e+002 
3662500000  -6.446074e+001  1.604136e+002 
3665625000  -6.588465e+001  1.710561e+002 
3668750000  -6.218139e+001  1.163126e+002 
3671875000  -6.345133e+001  1.395693e+002 
3675000000  -6.443122e+001  1.075145e+002 
3678125000  -6.268956e+001  1.077740e+002 
3681250000  -6.209561e+001  1.130578e+002 
3684375000  -6.724054e+001  1.039364e+002 
3687500000  -6.822600e+001  8.139865e+001 
3690625000  -6.731855e+001  7.282825e+001 
3693750000  -7.202220e+001  8.516792e+001 
3696875000  -6.559972e+001  6.786978e+001 
3700000000  -6.441239e+001  8.443605e+001 
3703125000  -6.578436e+001  5.817569e+001 
3706250000  -6.808688e+001  5.150496e+001 
3709375000  -6.551896e+001  5.822482e+001 
3712500000  -6.091140e+001  4.495298e+001 
3715625000  -6.084454e+001  3.287966e+001 
3718750000  -6.259884e+001  3.602195e+001 
3721875000  -6.179814e+001  9.925348e+000 
3725000000  -6.200602e+001  2.623408e+001 
3728125000  -6.034089e+001  -6.744944e+000 
3731250000  -5.993255e+001  -1.867836e+001 
3734375000  -5.935165e+001  -2.754799e+001 
3737500000  -5.927999e+001  -5.542789e+001 
3740625000  -5.775880e+001  -4.549294e+001 
3743750000  -5.987152e+001  -4.514429e+001 
3746875000  -5.853233e+001  -6.295005e+001 
3750000000  -5.798686e+001  -7.577749e+001 
3753125000  -5.757571e+001  -8.598170e+001 
3756250000  -5.827941e+001  -9.025881e+001 
3759375000  -5.810211e+001  -1.080845e+002 
3762500000  -5.674950e+001  -1.136559e+002 
3765625000  -6.041178e+001  -1.159771e+002 
3768750000  -5.736158e+001  -1.324057e+002 
3771875000  -5.519209e+001  -1.454235e+002 
3775000000  -5.628399e+001  -1.596438e+002 
3778125000  -5.729770e+001  -1.782950e+002 
3781250000  -5.633541e+001  1.754588e+002 
3784375000  -5.848626e+001  1.648281e+002 
3787500000  -5.671154e+001  1.528379e+002 
3790625000  -5.786165e+001  1.385482e+002 
3793750000  -5.736376e+001  1.331658e+002 
3796875000  -5.667616e+001  1.271335e+002 
3800000000  -5.300439e+001  8.174928e+001 
3803125000  -5.894172e+001  9.531544e+001 
3806250000  -6.058825e+001  7.257245e+001 
3809375000  -5.880685e+001  7.535957e+001 
3812500000  -5.759369e+001  5.866616e+001 
3815625000  -6.040807e+001  4.413068e+001 
3818750000  -6.556612e+001  4.958202e+001 
3821875000  -6.041643e+001  3.778638e+001 
3825000000  -5.885453e+001  4.921667e+001 
3828125000  -6.154319e+001  3.445872e+001 
3831250000  -5.997809e+001  1.964007e+001 
3834375000  -6.140101e+001  1.460129e+001 
3837500000  -6.078055e+001  1.439418e+000 
3840625000  -6.240422e+001  -1.467115e+001 
3843750000  -6.112617e+001  3.349186e+000 
3846875000  -6.171945e+001  -4.398010e+001 
3850000000  -6.689929e+001  -4.980388e+001 
3853125000  -6.371350e+001  -1.925976e+001 
3856250000  -5.901758e+001  -1.000547e+001 
3859375000  -6.182479e+001  -3.079624e+001 
3862500000  -6.276555e+001  -3.089274e+001 
3865625000  -6.365409e+001  -6.675645e+001 
3868750000  -6.305149e+001  -3.478580e+001 
3871875000  -5.755295e+001  -6.406504e+001 
3875000000  -5.960836e+001  -5.633031e+001 
3878125000  -5.718829e+001  -7.799391e+001 
3881250000  -5.751227e+001  -8.720021e+001 
3884375000  -5.655059e+001  -9.482072e+001 
3887500000  -5.697019e+001  -1.249480e+002 
3890625000  -5.541366e+001  -1.147661e+002 
3893750000  -5.664138e+001  -1.276456e+002 
3896875000  -5.746395e+001  -1.402341e+002 
3900000000  -5.714125e+001  -1.373881e+002 
3903125000  -5.605862e+001  -1.546009e+002 
3906250000  -5.389262e+001  -1.688356e+002 
3909375000  -5.297207e+001  1.781001e+002 
3912500000  -5.502627e+001  1.717883e+002 
3915625000  -5.530245e+001  1.659635e+002 
3918750000  -5.537045e+001  1.530949e+002 
3921875000  -5.457636e+001  1.459415e+002 
3925000000  -5.211267e+001  1.288654e+002 
3928125000  -5.319598e+001  1.135213e+002 
3931250000  -5.449486e+001  1.023033e+002 
3934375000  -5.599794e+001  9.362399e+001 
3937500000  -5.491690e+001  8.127708e+001 
3940625000  -5.531296e+001  7.576364e+001 
3943750000  -5.320712e+001  6.136306e+001 
3946875000  -5.229858e+001  5.149391e+001 
3950000000  -5.596743e+001  3.668182e+001 
3953125000  -5.418789e+001  4.012344e+001 
3956250000  -5.415596e+001  1.931550e+001 
3959375000  -5.217550e+001  1.665915e+001 
3962500000  -5.278690e+001  -7.425853e+000 
3965625000  -5.332373e+001  -2.081816e+001 
3968750000  -5.453503e+001  -3.480497e+001 
3971875000  -5.363126e+001  -3.858014e+001 
3975000000  -5.332973e+001  -5.202271e+001 
3978125000  -5.506880e+001  -5.837169e+001 
3981250000  -5.383827e+001  -7.966916e+001 
3984375000  -5.554502e+001  -9.343945e+001 
3987500000  -5.554244e+001  -9.284539e+001 
3990625000  -5.714286e+001  -1.082312e+002 
3993750000  -5.588489e+001  -1.237680e+002 
3996875000  -5.823206e+001  -1.367779e+002 
4000000000  -5.783307e+001  -1.310275e+002 
4003125000  -5.918698e+001  -1.251144e+002 
4006250000  -5.566297e+001  -1.439121e+002 
4009375000  -5.785975e+001  -1.467293e+002 
4012500000  -5.955927e+001  -1.660598e+002 
4015625000  -5.868517e+001  -1.623726e+002 
4018750000  -5.803045e+001  -1.673562e+002 
4021875000  -6.025292e+001  -1.713017e+002 
4025000000  -5.961111e+001  1.686554e+002 
4028125000  -5.847326e+001  -1.798885e+002 
4031250000  -5.961232e+001  1.671163e+002 
4034375000  -6.020780e+001  1.461422e+002 
4037500000  -5.813178e+001  1.536054e+002 
4040625000  -5.959082e+001  1.453628e+002 
4043750000  -5.847451e+001  1.418975e+002 
4046875000  -5.757505e+001  1.309258e+002 
4050000000  -5.656826e+001  1.300935e+002 
4053125000  -5.858079e+001  1.219364e+002 
4056250000  -5.995676e+001  1.047686e+002 
4059375000  -5.671466e+001  1.070214e+002 
4062500000  -5.525077e+001  1.011416e+002 
4065625000  -5.393657e+001  8.171976e+001 
4068750000  -5.511223e+001  7.174757e+001 
4071875000  -5.276821e+001  5.459278e+001 
4075000000  -5.318016e+001  4.085408e+001 
4078125000  -5.398922e+001  2.779513e+001 
4081250000  -5.268708e+001  1.997971e+001 
4084375000  -5.181262e+001  6.829387e+000 
4087500000  -5.301892e+001  -7.498467e+000 
4090625000  -5.342797e+001  8.795208e-001 
4093750000  -5.425941e+001  -2.401054e+001 
4096875000  -5.325280e+001  -3.180397e+001 
4100000000  -5.380309e+001  -5.667704e+001 
4103125000  -5.559234e+001  -4.815635e+001 
4106250000  -5.553192e+001  -6.095688e+001 
4109375000  -5.330281e+001  -6.769176e+001 
4112500000  -5.214549e+001  -8.510155e+001 
4115625000  -5.359084e+001  -9.140024e+001 
4118750000  -5.278905e+001  -1.023126e+002 
4121875000  -5.403387e+001  -1.137107e+002 
4125000000  -5.410889e+001  -1.241659e+002 
4128125000  -5.405961e+001  -1.286796e+002 
4131250000  -5.340087e+001  -1.275050e+002 
4134375000  -5.175122e+001  -1.506778e+002 
4137500000  -5.356020e+001  -1.694081e+002 
4140625000  -5.403077e+001  1.695173e+002 
4143750000  -5.763556e+001  1.717366e+002 
4146875000  -5.468825e+001  1.680309e+002 
4150000000  -5.482687e+001  1.488818e+002 
4153125000  -5.365264e+001  1.401112e+002 
4156250000  -5.504403e+001  1.226465e+002 
4159375000  -5.617798e+001  1.322369e+002 
4162500000  -5.662323e+001  1.140037e+002 
4165625000  -5.465063e+001  1.099606e+002 
4168750000  -5.369837e+001  9.817828e+001 
4171875000  -5.420668e+001  7.640923e+001 
4175000000  -5.613710e+001  5.777938e+001 
4178125000  -5.715691e+001  6.239371e+001 
4181250000  -5.673564e+001  4.472532e+001 
4184375000  -6.074030e+001  2.988458e+001 
4187500000  -5.928782e+001  2.263489e+001 
4190625000  -6.185755e+001  2.768779e+001 
4193750000  -6.058330e+001  2.167272e+001 
4196875000  -6.176339e+001  2.148580e+001 
4200000000  -6.383415e+001  1.838061e+001 
4203125000  -6.350449e+001  9.907284e+000 
4206250000  -5.990826e+001  2.579852e+001 
4209375000  -6.478912e+001  -2.698676e+001 
4212500000  -6.585327e+001  9.956345e+000 
4215625000  -6.665019e+001  -4.379862e+001 
4218750000  -6.348056e+001  -6.014988e+000 
4221875000  -6.147059e+001  6.957369e+000 
4225000000  -6.442480e+001  -8.747677e+000 
4228125000  -6.027210e+001  -9.674800e+000 
4231250000  -5.824629e+001  -2.306235e+001 
4234375000  -5.685427e+001  -4.610958e+001 
4237500000  -5.915078e+001  -4.781091e+001 
4240625000  -5.359554e+001  -6.753339e+001 
4243750000  -5.716314e+001  -7.479135e+001 
4246875000  -5.712539e+001  -7.566487e+001 
4250000000  -5.668342e+001  -6.680922e+001 
4253125000  -5.588403e+001  -8.635051e+001 
4256250000  -5.815142e+001  -1.016574e+002 
4259375000  -5.622213e+001  -1.110706e+002 
4262500000  -5.785894e+001  -1.097708e+002 
4265625000  -5.390258e+001  -1.274157e+002 
4268750000  -5.198198e+001  -1.516738e+002 
4271875000  -5.286402e+001  -1.568429e+002 
4275000000  -5.012464e+001  -1.793962e+002 
4278125000  -5.441916e+001  1.768199e+002 
4281250000  -5.372990e+001  1.570525e+002 
4284375000  -5.398811e+001  1.557238e+002 
4287500000  -5.423821e+001  1.447664e+002 
4290625000  -5.538146e+001  1.497493e+002 
4293750000  -5.335572e+001  1.538517e+002 
4296875000  -5.185620e+001  1.157624e+002 
4300000000  -5.352417e+001  1.008794e+002 
4303125000  -5.261300e+001  1.021776e+002 
4306250000  -5.312540e+001  8.813823e+001 
4309375000  -5.166686e+001  8.144171e+001 
4312500000  -5.198482e+001  7.319158e+001 
4315625000  -5.253228e+001  5.396773e+001 
4318750000  -5.374751e+001  4.723804e+001 
4321875000  -5.211599e+001  3.008393e+001 
4325000000  -5.369965e+001  1.976231e+001 
4328125000  -5.176531e+001  1.246648e+001 
4331250000  -5.462143e+001  -1.003041e+001 
4334375000  -5.449261e+001  -1.821755e+001 
4337500000  -5.522077e+001  -2.352494e+001 
4340625000  -5.507742e+001  -2.451879e+001 
4343750000  -5.531516e+001  -3.809721e+001 
4346875000  -5.547202e+001  -2.925774e+001 
4350000000  -5.537881e+001  -7.099035e+001 
4353125000  -5.844570e+001  -6.692928e+001 
4356250000  -5.770482e+001  -6.780022e+001 
4359375000  -5.701119e+001  -4.012683e+001 
4362500000  -5.448957e+001  -6.951631e+001 
4365625000  -5.533860e+001  -1.026659e+002 
4368750000  -5.574426e+001  -9.766669e+001 
4371875000  -5.410225e+001  -1.141426e+002 
4375000000  -5.658064e+001  -1.088896e+002 
4378125000  -5.735956e+001  -1.360074e+002 
4381250000  -5.717221e+001  -1.275407e+002 
4384375000  -5.713166e+001  -1.423051e+002 
4387500000  -5.759253e+001  -1.542417e+002 
4390625000  -5.727262e+001  -1.485326e+002 
4393750000  -5.883192e+001  -1.456127e+002 
4396875000  -5.612147e+001  -1.488698e+002 
4400000000  -5.692226e+001  -1.694385e+002 
4403125000  -5.612657e+001  1.772795e+002 
4406250000  -5.612840e+001  1.671820e+002 
4409375000  -5.619211e+001  1.653959e+002 
4412500000  -5.828724e+001  1.567281e+002 
4415625000  -5.519093e+001  1.564234e+002 
4418750000  -5.454585e+001  1.625558e+002 
