!Agilent Technologies,E8363B,MY43030201,A.06.04.32
!Agilent E8363B: A.06.04.32
!Date: Tuesday, November 11, 2014 22:13:04
!Correction: S21(Response(S21)) 
!S1P File: Measurement: S21:
# Hz S  dB   R 50
3000000000  -4.886204e+001  -7.500301e+001 
3003125000  -5.094355e+001  -8.360399e+001 
3006250000  -5.154444e+001  -8.661420e+001 
3009375000  -5.218386e+001  -8.856148e+001 
3012500000  -5.087245e+001  -9.769353e+001 
3015625000  -5.102895e+001  -1.119519e+002 
3018750000  -5.137738e+001  -1.136336e+002 
3021875000  -4.989692e+001  -1.187327e+002 
3025000000  -4.864815e+001  -1.272278e+002 
3028125000  -4.804595e+001  -1.444245e+002 
3031250000  -4.678498e+001  -1.594865e+002 
3034375000  -4.720647e+001  1.796638e+002 
3037500000  -4.761854e+001  1.654099e+002 
3040625000  -4.922988e+001  1.539891e+002 
3043750000  -4.932618e+001  1.400529e+002 
3046875000  -5.059814e+001  1.333913e+002 
3050000000  -5.206350e+001  1.219279e+002 
3053125000  -5.121249e+001  1.226423e+002 
3056250000  -5.126904e+001  1.203413e+002 
3059375000  -5.078946e+001  1.136069e+002 
3062500000  -4.910480e+001  1.042836e+002 
3065625000  -4.960544e+001  8.702541e+001 
3068750000  -4.875923e+001  7.350435e+001 
3071875000  -4.885127e+001  6.891207e+001 
3075000000  -4.914892e+001  5.615682e+001 
3078125000  -4.851120e+001  4.180976e+001 
3081250000  -4.864690e+001  3.260385e+001 
3084375000  -4.826660e+001  2.610016e+001 
3087500000  -4.833656e+001  1.511395e+001 
3090625000  -4.790504e+001  -6.224391e+000 
3093750000  -4.880972e+001  -1.499625e+001 
3096875000  -4.898648e+001  -2.640075e+001 
3100000000  -4.935260e+001  -3.243003e+001 
3103125000  -4.966459e+001  -3.970362e+001 
3106250000  -4.935436e+001  -4.998379e+001 
3109375000  -4.952219e+001  -5.846970e+001 
3112500000  -4.959149e+001  -6.587038e+001 
3115625000  -4.913534e+001  -7.835985e+001 
3118750000  -4.925806e+001  -8.491199e+001 
3121875000  -4.901252e+001  -9.663706e+001 
3125000000  -5.069255e+001  -1.105278e+002 
3128125000  -5.110601e+001  -1.083796e+002 
3131250000  -4.850269e+001  -1.164807e+002 
3134375000  -4.744637e+001  -1.393019e+002 
3137500000  -4.892765e+001  -1.527623e+002 
3140625000  -4.927769e+001  -1.633569e+002 
3143750000  -5.016988e+001  -1.713599e+002 
3146875000  -5.014669e+001  -1.737158e+002 
3150000000  -4.920525e+001  -1.799847e+002 
3153125000  -4.931105e+001  1.652461e+002 
3156250000  -5.060752e+001  1.648739e+002 
3159375000  -4.771898e+001  1.583166e+002 
3162500000  -4.590649e+001  1.355063e+002 
3165625000  -4.739651e+001  1.210657e+002 
3168750000  -4.785395e+001  1.130428e+002 
3171875000  -4.673677e+001  1.006077e+002 
3175000000  -4.739017e+001  8.683247e+001 
3178125000  -4.696968e+001  8.276416e+001 
3181250000  -4.645078e+001  6.658759e+001 
3184375000  -4.691432e+001  5.323296e+001 
3187500000  -4.790523e+001  3.468431e+001 
3190625000  -4.928182e+001  2.016405e+001 
3193750000  -4.965115e+001  2.434765e+001 
3196875000  -4.936001e+001  1.284449e+001 
3200000000  -4.847367e+001  1.248799e+001 
3203125000  -4.790497e+001  -2.474082e+000 
3206250000  -4.842129e+001  -1.684922e+001 
3209375000  -4.805301e+001  -3.256236e+001 
3212500000  -4.853265e+001  -4.059794e+001 
3215625000  -4.808139e+001  -4.819082e+001 
3218750000  -4.923442e+001  -6.341309e+001 
3221875000  -4.930239e+001  -7.697256e+001 
3225000000  -4.987304e+001  -8.534009e+001 
3228125000  -4.973127e+001  -9.467078e+001 
3231250000  -5.088867e+001  -1.064667e+002 
3234375000  -5.046979e+001  -1.074614e+002 
3237500000  -5.070494e+001  -1.191603e+002 
3240625000  -5.008283e+001  -1.278271e+002 
3243750000  -4.973182e+001  -1.430039e+002 
3246875000  -5.038681e+001  -1.534422e+002 
3250000000  -5.146074e+001  -1.689800e+002 
3253125000  -5.120176e+001  -1.704729e+002 
3256250000  -5.001710e+001  1.726435e+002 
3259375000  -5.067439e+001  1.560213e+002 
3262500000  -5.227834e+001  1.497448e+002 
3265625000  -5.308891e+001  1.434128e+002 
3268750000  -5.236140e+001  1.435012e+002 
3271875000  -5.174773e+001  1.351534e+002 
3275000000  -5.183092e+001  1.229618e+002 
3278125000  -5.264126e+001  1.073598e+002 
3281250000  -5.281989e+001  1.059124e+002 
3284375000  -5.263113e+001  9.204286e+001 
3287500000  -5.292965e+001  8.535531e+001 
3290625000  -5.296716e+001  7.601394e+001 
3293750000  -5.349249e+001  6.565121e+001 
3296875000  -5.423345e+001  5.624708e+001 
3300000000  -5.428037e+001  5.341498e+001 
3303125000  -5.387566e+001  3.986814e+001 
3306250000  -5.304292e+001  2.223648e+001 
3309375000  -5.290385e+001  1.738305e+001 
3312500000  -5.294374e+001  -4.067038e+000 
3315625000  -5.492020e+001  -9.918083e+000 
3318750000  -5.661068e+001  -2.159869e+001 
3321875000  -5.814116e+001  -1.395011e+001 
3325000000  -5.565566e+001  -1.732253e+001 
3328125000  -5.663303e+001  -2.947309e+001 
3331250000  -5.377401e+001  -3.032919e+001 
3334375000  -5.222387e+001  -4.858604e+001 
3337500000  -5.156534e+001  -7.201425e+001 
3340625000  -5.382566e+001  -8.644482e+001 
3343750000  -5.585418e+001  -7.937316e+001 
3346875000  -5.565346e+001  -8.917910e+001 
3350000000  -5.470881e+001  -1.004814e+002 
3353125000  -5.491914e+001  -1.157534e+002 
3356250000  -5.528080e+001  -1.284367e+002 
3359375000  -5.464002e+001  -1.491786e+002 
3362500000  -5.630295e+001  -1.504448e+002 
3365625000  -5.660392e+001  -1.566039e+002 
3368750000  -5.794614e+001  -1.739403e+002 
3371875000  -5.657621e+001  -1.779910e+002 
3375000000  -5.999741e+001  1.614370e+002 
3378125000  -5.837190e+001  1.699063e+002 
3381250000  -5.931041e+001  1.614440e+002 
3384375000  -5.789871e+001  1.760492e+002 
3387500000  -5.402183e+001  1.536060e+002 
3390625000  -5.784984e+001  1.270818e+002 
3393750000  -5.713882e+001  1.198516e+002 
3396875000  -5.756528e+001  1.193679e+002 
3400000000  -5.552733e+001  9.498095e+001 
3403125000  -5.728017e+001  9.366592e+001 
3406250000  -5.692980e+001  7.932571e+001 
3409375000  -5.838437e+001  5.950924e+001 
3412500000  -5.903602e+001  4.861701e+001 
3415625000  -5.994240e+001  4.145074e+001 
3418750000  -5.931698e+001  3.931012e+001 
3421875000  -6.076328e+001  2.994774e+001 
3425000000  -5.799952e+001  2.276110e+001 
3428125000  -5.898036e+001  9.497232e+000 
3431250000  -6.053698e+001  -1.011502e+001 
3434375000  -5.938659e+001  -2.396786e+001 
3437500000  -6.304933e+001  -3.396449e+001 
3440625000  -6.124063e+001  -3.133624e+001 
3443750000  -6.368396e+001  -1.935513e+001 
3446875000  -6.202961e+001  -6.315004e+001 
3450000000  -6.078902e+001  -7.778839e+001 
3453125000  -6.321875e+001  -8.015544e+001 
3456250000  -6.560274e+001  -8.698755e+001 
3459375000  -6.430865e+001  -6.378270e+001 
3462500000  -7.018318e+001  -1.012970e+002 
3465625000  -6.383041e+001  -1.036340e+002 
3468750000  -6.678590e+001  -1.091303e+002 
3471875000  -6.658527e+001  -9.912935e+001 
3475000000  -6.624526e+001  -1.184558e+002 
3478125000  -7.127562e+001  -1.126355e+002 
3481250000  -7.212800e+001  -1.532721e+002 
3484375000  -6.789856e+001  -1.348685e+002 
3487500000  -6.574889e+001  -1.349306e+002 
3490625000  -6.904697e+001  -1.308502e+002 
3493750000  -7.133038e+001  -1.307526e+002 
3496875000  -6.761454e+001  -1.626586e+002 
3500000000  -6.591364e+001  -1.259068e+002 
3503125000  -6.510674e+001  -1.795134e+002 
3506250000  -6.495441e+001  1.707372e+002 
3509375000  -6.479361e+001  -1.774669e+002 
3512500000  -6.315501e+001  1.502412e+002 
3515625000  -6.950346e+001  1.491650e+002 
3518750000  -6.912528e+001  1.266277e+002 
3521875000  -7.042348e+001  9.207000e+001 
3525000000  -6.486407e+001  1.232854e+002 
3528125000  -6.937548e+001  1.125408e+002 
3531250000  -6.390503e+001  1.174743e+002 
3534375000  -6.518266e+001  9.109236e+001 
3537500000  -6.712779e+001  5.707300e+001 
3540625000  -7.212032e+001  6.514250e+001 
3543750000  -7.252378e+001  1.085284e+002 
3546875000  -6.698731e+001  8.841586e+001 
3550000000  -6.777518e+001  7.966644e+001 
3553125000  -6.555830e+001  3.450536e+001 
3556250000  -7.336786e+001  7.040463e+001 
3559375000  -6.446604e+001  4.408405e+001 
3562500000  -7.165450e+001  4.037398e+001 
3565625000  -7.106248e+001  -1.478486e+001 
3568750000  -7.906763e+001  -1.354221e+002 
3571875000  -6.904027e+001  1.799348e+001 
3575000000  -6.898873e+001  -1.824437e+001 
3578125000  -7.218227e+001  5.286423e+001 
3581250000  -7.521738e+001  1.096149e+002 
3584375000  -7.121032e+001  9.702413e+001 
3587500000  -7.317445e+001  5.535787e+001 
3590625000  -7.054537e+001  2.124838e+001 
3593750000  -6.783139e+001  1.668878e+001 
3596875000  -6.582465e+001  3.543873e+001 
3600000000  -7.398267e+001  2.056633e+001 
3603125000  -6.844985e+001  5.064120e-001 
3606250000  -6.587970e+001  -4.863439e+001 
3609375000  -6.523094e+001  -4.119263e+001 
3612500000  -6.297840e+001  -5.729370e+001 
3615625000  -6.889016e+001  -4.309578e+001 
3618750000  -6.343640e+001  -7.276250e+001 
3621875000  -6.852148e+001  -9.086413e+001 
3625000000  -6.322705e+001  -7.920871e+001 
3628125000  -6.400564e+001  -1.030292e+002 
3631250000  -6.237094e+001  -1.133552e+002 
3634375000  -6.206716e+001  -1.110580e+002 
3637500000  -6.265954e+001  -1.062995e+002 
3640625000  -6.176849e+001  -1.207316e+002 
3643750000  -6.265422e+001  -1.348509e+002 
3646875000  -6.322413e+001  -1.645315e+002 
3650000000  -6.399282e+001  -1.796289e+002 
3653125000  -6.267440e+001  -1.749409e+002 
3656250000  -6.241052e+001  1.707847e+002 
3659375000  -6.447043e+001  1.696286e+002 
3662500000  -6.360149e+001  1.407067e+002 
3665625000  -6.106558e+001  1.544188e+002 
3668750000  -6.239454e+001  1.193767e+002 
3671875000  -6.275448e+001  1.147358e+002 
3675000000  -6.242564e+001  1.061697e+002 
3678125000  -6.134655e+001  1.165316e+002 
3681250000  -6.196622e+001  1.021387e+002 
3684375000  -6.729615e+001  7.713756e+001 
3687500000  -6.747930e+001  6.723414e+001 
3690625000  -6.829778e+001  8.085324e+001 
3693750000  -6.400510e+001  1.018747e+002 
3696875000  -7.087868e+001  6.924962e+001 
3700000000  -6.081665e+001  9.107918e+001 
3703125000  -6.602587e+001  5.461333e+001 
3706250000  -6.387294e+001  6.116394e+001 
3709375000  -6.406699e+001  5.583737e+001 
3712500000  -6.116029e+001  4.709066e+001 
3715625000  -6.083728e+001  4.788810e+001 
3718750000  -6.191917e+001  2.674430e+001 
3721875000  -6.179972e+001  1.655729e+001 
3725000000  -6.298989e+001  7.607248e+000 
3728125000  -6.376282e+001  1.469902e+001 
3731250000  -5.947423e+001  -7.472871e+000 
3734375000  -5.785901e+001  -2.425241e+001 
3737500000  -5.939065e+001  -4.115584e+001 
3740625000  -5.889240e+001  -3.003551e+001 
3743750000  -5.919856e+001  -5.190490e+001 
3746875000  -6.057973e+001  -6.320898e+001 
3750000000  -5.841860e+001  -8.868670e+001 
3753125000  -5.929723e+001  -6.866385e+001 
3756250000  -5.724753e+001  -9.836191e+001 
3759375000  -5.669535e+001  -1.015270e+002 
3762500000  -5.780789e+001  -1.073352e+002 
3765625000  -5.692529e+001  -1.225215e+002 
3768750000  -5.725126e+001  -1.332169e+002 
3771875000  -5.520446e+001  -1.388853e+002 
3775000000  -5.647901e+001  -1.590032e+002 
3778125000  -5.611372e+001  1.775639e+002 
3781250000  -5.770612e+001  1.796761e+002 
3784375000  -5.695052e+001  1.626628e+002 
3787500000  -5.918342e+001  1.476896e+002 
3790625000  -5.835844e+001  1.303041e+002 
3793750000  -5.830225e+001  1.269976e+002 
3796875000  -5.678217e+001  1.256737e+002 
3800000000  -5.297899e+001  8.065358e+001 
3803125000  -5.783473e+001  9.925457e+001 
3806250000  -6.094543e+001  9.385001e+001 
3809375000  -5.935608e+001  8.590076e+001 
3812500000  -5.817536e+001  5.485716e+001 
3815625000  -5.874925e+001  2.902406e+001 
3818750000  -6.088008e+001  3.501328e+001 
3821875000  -6.265643e+001  2.842748e+001 
3825000000  -5.925829e+001  3.617401e+001 
3828125000  -5.903916e+001  3.106298e+001 
3831250000  -5.941658e+001  5.539768e+000 
3834375000  -6.806252e+001  1.198156e+001 
3837500000  -6.710738e+001  2.908258e+001 
3840625000  -6.454668e+001  8.302538e-001 
3843750000  -6.107391e+001  -1.357702e+001 
3846875000  -6.650124e+001  -1.368442e+001 
3850000000  -6.823400e+001  -1.397970e+001 
3853125000  -6.304537e+001  -3.401530e+001 
3856250000  -5.816402e+001  2.391820e+000 
3859375000  -6.081299e+001  -3.086094e+001 
3862500000  -5.987974e+001  -2.690220e+001 
3865625000  -5.883667e+001  -4.301322e+001 
3868750000  -6.005234e+001  -4.878138e+001 
3871875000  -5.609927e+001  -6.444566e+001 
3875000000  -6.040278e+001  -7.201021e+001 
3878125000  -6.019127e+001  -8.226244e+001 
3881250000  -5.711219e+001  -9.403444e+001 
3884375000  -5.775034e+001  -8.881055e+001 
3887500000  -5.624500e+001  -1.089788e+002 
3890625000  -5.582066e+001  -1.046484e+002 
3893750000  -5.579784e+001  -1.354443e+002 
3896875000  -5.627336e+001  -1.364069e+002 
3900000000  -5.482773e+001  -1.471667e+002 
3903125000  -5.400583e+001  -1.486953e+002 
3906250000  -5.467989e+001  -1.689454e+002 
3909375000  -5.440871e+001  1.745065e+002 
3912500000  -5.449184e+001  1.620471e+002 
3915625000  -5.620952e+001  1.606684e+002 
3918750000  -5.361240e+001  1.573102e+002 
3921875000  -5.618760e+001  1.469340e+002 
3925000000  -5.273201e+001  1.304493e+002 
3928125000  -5.339263e+001  1.117554e+002 
3931250000  -5.401139e+001  1.000308e+002 
3934375000  -5.412947e+001  9.237212e+001 
3937500000  -5.591498e+001  9.041399e+001 
3940625000  -5.522612e+001  7.701344e+001 
3943750000  -5.264246e+001  6.016646e+001 
3946875000  -5.342912e+001  4.870470e+001 
3950000000  -5.586832e+001  3.821049e+001 
3953125000  -5.559412e+001  3.778652e+001 
3956250000  -5.313374e+001  2.698228e+001 
3959375000  -5.207682e+001  1.811860e+001 
3962500000  -5.219830e+001  -6.035096e+000 
3965625000  -5.432292e+001  -1.807035e+001 
3968750000  -5.477943e+001  -3.776973e+001 
3971875000  -5.387669e+001  -3.595860e+001 
3975000000  -5.409848e+001  -5.839582e+001 
3978125000  -5.558192e+001  -5.602357e+001 
3981250000  -5.545026e+001  -6.930846e+001 
3984375000  -5.542058e+001  -8.670854e+001 
3987500000  -5.621321e+001  -8.460744e+001 
3990625000  -5.668377e+001  -1.025417e+002 
3993750000  -5.865456e+001  -1.173856e+002 
3996875000  -5.766384e+001  -1.181011e+002 
4000000000  -5.867934e+001  -1.350428e+002 
4003125000  -5.914100e+001  -1.219540e+002 
4006250000  -5.570832e+001  -1.432728e+002 
4009375000  -5.661617e+001  -1.475552e+002 
4012500000  -5.761054e+001  -1.670136e+002 
4015625000  -5.955351e+001  -1.702912e+002 
4018750000  -6.118898e+001  -1.560977e+002 
4021875000  -5.961232e+001  -1.771849e+002 
4025000000  -6.213506e+001  -1.663912e+002 
4028125000  -5.886546e+001  1.785321e+002 
4031250000  -6.142575e+001  1.717388e+002 
4034375000  -6.199316e+001  1.563205e+002 
4037500000  -5.919187e+001  1.572679e+002 
4040625000  -5.953376e+001  1.521701e+002 
4043750000  -5.934298e+001  1.614824e+002 
4046875000  -5.896667e+001  1.352762e+002 
4050000000  -5.720514e+001  1.251922e+002 
4053125000  -5.792661e+001  1.145423e+002 
4056250000  -5.705521e+001  1.112157e+002 
4059375000  -5.738452e+001  1.043327e+002 
4062500000  -5.434466e+001  9.863213e+001 
4065625000  -5.356373e+001  8.938037e+001 
4068750000  -5.463023e+001  7.819132e+001 
4071875000  -5.261605e+001  6.096140e+001 
4075000000  -5.315191e+001  4.486322e+001 
4078125000  -5.371131e+001  3.561059e+001 
4081250000  -5.266697e+001  2.130510e+001 
4084375000  -5.263093e+001  1.410934e+001 
4087500000  -5.340986e+001  -9.331611e+000 
4090625000  -5.313945e+001  -1.716698e-001 
4093750000  -5.276793e+001  -1.688639e+001 
4096875000  -5.354852e+001  -2.861837e+001 
4100000000  -5.394182e+001  -4.908651e+001 
4103125000  -5.451617e+001  -4.999786e+001 
4106250000  -5.508214e+001  -5.459771e+001 
4109375000  -5.335323e+001  -5.991738e+001 
4112500000  -5.254620e+001  -8.729070e+001 
4115625000  -5.462067e+001  -8.362284e+001 
4118750000  -5.359006e+001  -1.012991e+002 
4121875000  -5.293818e+001  -1.202445e+002 
4125000000  -5.519528e+001  -1.239414e+002 
4128125000  -5.474740e+001  -1.308402e+002 
4131250000  -5.364066e+001  -1.280921e+002 
4134375000  -5.219580e+001  -1.534138e+002 
4137500000  -5.148838e+001  -1.607406e+002 
4140625000  -5.296466e+001  1.704524e+002 
4143750000  -5.589046e+001  1.715931e+002 
4146875000  -5.419648e+001  1.748093e+002 
4150000000  -5.453872e+001  1.505633e+002 
4153125000  -5.497433e+001  1.478905e+002 
4156250000  -5.792384e+001  1.258083e+002 
4159375000  -5.662075e+001  1.346186e+002 
4162500000  -5.542044e+001  1.124014e+002 
4165625000  -5.417933e+001  1.121501e+002 
4168750000  -5.436394e+001  9.228194e+001 
4171875000  -5.403549e+001  7.975246e+001 
4175000000  -5.592922e+001  5.025212e+001 
4178125000  -5.800409e+001  6.868078e+001 
4181250000  -5.740271e+001  4.238462e+001 
4184375000  -6.035439e+001  4.528282e+001 
4187500000  -5.904132e+001  2.981797e+001 
4190625000  -6.143029e+001  1.541705e+001 
4193750000  -6.154826e+001  1.615932e+001 
4196875000  -6.530470e+001  5.623911e+000 
4200000000  -6.740062e+001  4.861518e+001 
4203125000  -6.724683e+001  2.463298e+001 
4206250000  -6.031679e+001  3.956390e+001 
4209375000  -6.296801e+001  -1.694937e+001 
4212500000  -6.277367e+001  -5.332981e+000 
4215625000  -6.968031e+001  -7.695296e+001 
4218750000  -6.486617e+001  4.982882e+000 
4221875000  -6.206136e+001  -2.301964e+001 
4225000000  -5.911718e+001  -5.509938e+000 
4228125000  -5.832771e+001  -3.852566e+001 
4231250000  -5.949227e+001  -3.133305e+001 
4234375000  -5.830857e+001  -4.682783e+001 
4237500000  -5.671770e+001  -4.836191e+001 
4240625000  -5.630113e+001  -6.734608e+001 
4243750000  -5.915609e+001  -6.940139e+001 
4246875000  -5.707714e+001  -7.018877e+001 
4250000000  -5.632552e+001  -7.145570e+001 
4253125000  -5.490380e+001  -8.173259e+001 
4256250000  -5.542609e+001  -9.851517e+001 
4259375000  -5.395432e+001  -1.012136e+002 
4262500000  -5.430474e+001  -1.349286e+002 
4265625000  -5.458938e+001  -1.182956e+002 
4268750000  -5.223036e+001  -1.424212e+002 
4271875000  -5.348038e+001  -1.532042e+002 
4275000000  -5.030161e+001  -1.741803e+002 
4278125000  -5.460306e+001  1.703634e+002 
4281250000  -5.332593e+001  1.627750e+002 
4284375000  -5.463264e+001  1.539806e+002 
4287500000  -5.481078e+001  1.528957e+002 
4290625000  -5.385720e+001  1.608120e+002 
4293750000  -5.340234e+001  1.419359e+002 
4296875000  -5.224220e+001  1.103569e+002 
4300000000  -5.209061e+001  1.077676e+002 
4303125000  -5.339984e+001  8.941422e+001 
4306250000  -5.247773e+001  9.013165e+001 
4309375000  -5.209238e+001  8.223912e+001 
4312500000  -5.287949e+001  6.072130e+001 
4315625000  -5.127045e+001  4.782845e+001 
4318750000  -5.302034e+001  4.446244e+001 
4321875000  -5.182949e+001  3.900184e+001 
4325000000  -5.252681e+001  2.560336e+001 
4328125000  -5.210323e+001  9.478089e+000 
4331250000  -5.334363e+001  -9.186507e+000 
4334375000  -5.369481e+001  -1.024451e+001 
4337500000  -5.523478e+001  -2.994224e+001 
4340625000  -5.513412e+001  -2.505236e+001 
4343750000  -5.604072e+001  -4.780136e+001 
4346875000  -5.579583e+001  -4.230453e+001 
4350000000  -5.636278e+001  -5.924327e+001 
4353125000  -5.535646e+001  -7.006190e+001 
4356250000  -5.640005e+001  -7.424236e+001 
4359375000  -6.122607e+001  -4.545735e+001 
4362500000  -5.425290e+001  -7.228199e+001 
4365625000  -5.252445e+001  -9.739140e+001 
4368750000  -5.452542e+001  -1.031243e+002 
4371875000  -5.560435e+001  -1.089268e+002 
4375000000  -5.526388e+001  -1.067301e+002 
4378125000  -5.621844e+001  -1.365358e+002 
4381250000  -5.669344e+001  -1.370207e+002 
4384375000  -5.572509e+001  -1.380319e+002 
4387500000  -5.841147e+001  -1.510083e+002 
4390625000  -5.875418e+001  -1.502894e+002 
4393750000  -5.802474e+001  -1.376129e+002 
4396875000  -5.743394e+001  -1.528050e+002 
4400000000  -5.583231e+001  -1.717926e+002 
4403125000  -5.386800e+001  1.712615e+002 
4406250000  -5.596098e+001  1.730733e+002 
4409375000  -5.627206e+001  1.758490e+002 
4412500000  -5.832476e+001  1.550632e+002 
4415625000  -5.446760e+001  1.697818e+002 
4418750000  -5.444278e+001  1.603873e+002 
