!Agilent Technologies,E8363B,MY43030201,A.06.04.32
!Agilent E8363B: A.06.04.32
!Date: Tuesday, November 11, 2014 22:16:07
!Correction: S21(Response(S21)) 
!S1P File: Measurement: S21:
# Hz S  dB   R 50
3000000000  -4.899085e+001  -7.354337e+001 
3003125000  -5.192813e+001  -8.187272e+001 
3006250000  -5.150120e+001  -8.514602e+001 
3009375000  -5.214760e+001  -8.728716e+001 
3012500000  -5.116121e+001  -9.641361e+001 
3015625000  -5.110248e+001  -1.051175e+002 
3018750000  -5.135143e+001  -1.109966e+002 
3021875000  -4.978278e+001  -1.174429e+002 
3025000000  -4.861779e+001  -1.280327e+002 
3028125000  -4.812912e+001  -1.432433e+002 
3031250000  -4.714434e+001  -1.589106e+002 
3034375000  -4.698386e+001  -1.792393e+002 
3037500000  -4.780331e+001  1.663637e+002 
3040625000  -4.883824e+001  1.558082e+002 
3043750000  -4.963661e+001  1.451886e+002 
3046875000  -5.070257e+001  1.340798e+002 
3050000000  -5.178434e+001  1.207555e+002 
3053125000  -5.143085e+001  1.214814e+002 
3056250000  -5.123782e+001  1.217122e+002 
3059375000  -5.086591e+001  1.112657e+002 
3062500000  -4.970408e+001  1.033336e+002 
3065625000  -4.914000e+001  8.797335e+001 
3068750000  -4.910738e+001  7.729385e+001 
3071875000  -4.904040e+001  6.630766e+001 
3075000000  -4.780985e+001  5.464607e+001 
3078125000  -4.838674e+001  4.458162e+001 
3081250000  -4.908952e+001  3.735826e+001 
3084375000  -4.808366e+001  2.629537e+001 
3087500000  -4.830708e+001  1.382691e+001 
3090625000  -4.801562e+001  -2.181711e+000 
3093750000  -4.898324e+001  -1.379164e+001 
3096875000  -4.939116e+001  -2.420640e+001 
3100000000  -4.929734e+001  -3.153495e+001 
3103125000  -4.981802e+001  -3.901913e+001 
3106250000  -4.961885e+001  -4.875468e+001 
3109375000  -4.986830e+001  -5.748458e+001 
3112500000  -4.882823e+001  -6.661126e+001 
3115625000  -4.980302e+001  -7.789592e+001 
3118750000  -4.966671e+001  -8.393516e+001 
3121875000  -4.913014e+001  -9.740662e+001 
3125000000  -5.061621e+001  -1.096680e+002 
3128125000  -5.073712e+001  -1.028496e+002 
3131250000  -4.826603e+001  -1.151831e+002 
3134375000  -4.735815e+001  -1.403672e+002 
3137500000  -4.850900e+001  -1.557071e+002 
3140625000  -4.941187e+001  -1.586504e+002 
3143750000  -5.046457e+001  -1.670823e+002 
3146875000  -4.965933e+001  -1.725064e+002 
3150000000  -4.907487e+001  -1.785450e+002 
3153125000  -4.913404e+001  1.661930e+002 
3156250000  -5.019075e+001  1.664714e+002 
3159375000  -4.768298e+001  1.597111e+002 
3162500000  -4.667366e+001  1.373980e+002 
3165625000  -4.794141e+001  1.215745e+002 
3168750000  -4.746926e+001  1.173074e+002 
3171875000  -4.695744e+001  1.078944e+002 
3175000000  -4.722437e+001  9.016640e+001 
3178125000  -4.706293e+001  8.149509e+001 
3181250000  -4.655314e+001  6.955544e+001 
3184375000  -4.656151e+001  5.189364e+001 
3187500000  -4.759146e+001  3.644019e+001 
3190625000  -4.892028e+001  2.356916e+001 
3193750000  -4.955609e+001  2.412015e+001 
3196875000  -5.010838e+001  2.033124e+001 
3200000000  -4.823944e+001  8.980941e+000 
3203125000  -4.808206e+001  -1.704051e+000 
3206250000  -4.816372e+001  -1.419652e+001 
3209375000  -4.767605e+001  -2.743676e+001 
3212500000  -4.910391e+001  -4.001219e+001 
3215625000  -4.839726e+001  -4.524336e+001 
3218750000  -4.916265e+001  -6.163280e+001 
3221875000  -4.947107e+001  -7.199773e+001 
3225000000  -4.959195e+001  -8.364431e+001 
3228125000  -4.997721e+001  -9.273370e+001 
3231250000  -5.094040e+001  -1.023412e+002 
3234375000  -5.018113e+001  -1.094279e+002 
3237500000  -5.025497e+001  -1.208911e+002 
3240625000  -5.028297e+001  -1.276178e+002 
3243750000  -4.998587e+001  -1.472177e+002 
3246875000  -5.011025e+001  -1.528449e+002 
3250000000  -5.064088e+001  -1.624636e+002 
3253125000  -5.131416e+001  -1.703848e+002 
3256250000  -4.989590e+001  1.705427e+002 
3259375000  -5.129882e+001  1.576660e+002 
3262500000  -5.177774e+001  1.496016e+002 
3265625000  -5.332674e+001  1.496120e+002 
3268750000  -5.238646e+001  1.438736e+002 
3271875000  -5.285184e+001  1.362541e+002 
3275000000  -5.190271e+001  1.271359e+002 
3278125000  -5.257817e+001  1.095515e+002 
3281250000  -5.288980e+001  1.078318e+002 
3284375000  -5.260003e+001  9.543382e+001 
3287500000  -5.350219e+001  8.554232e+001 
3290625000  -5.354360e+001  7.614864e+001 
3293750000  -5.294038e+001  6.190034e+001 
3296875000  -5.442702e+001  5.467012e+001 
3300000000  -5.441551e+001  4.665065e+001 
3303125000  -5.235739e+001  3.859929e+001 
3306250000  -5.347827e+001  2.573938e+001 
3309375000  -5.292221e+001  2.279132e+001 
3312500000  -5.225750e+001  -2.367000e+000 
3315625000  -5.371168e+001  -9.433227e+000 
3318750000  -5.620959e+001  -2.270865e+001 
3321875000  -5.803582e+001  -1.633457e+001 
3325000000  -5.530264e+001  -2.093445e+001 
3328125000  -5.597187e+001  -2.921995e+001 
3331250000  -5.348391e+001  -1.467404e+001 
3334375000  -5.253742e+001  -4.331306e+001 
3337500000  -5.220195e+001  -7.059306e+001 
3340625000  -5.454576e+001  -8.105605e+001 
3343750000  -5.557653e+001  -8.714367e+001 
3346875000  -5.565951e+001  -1.031759e+002 
3350000000  -5.457097e+001  -9.642165e+001 
3353125000  -5.427970e+001  -1.179412e+002 
3356250000  -5.482487e+001  -1.196614e+002 
3359375000  -5.482608e+001  -1.417472e+002 
3362500000  -5.588515e+001  -1.457339e+002 
3365625000  -5.622286e+001  -1.539726e+002 
3368750000  -5.740668e+001  -1.687873e+002 
3371875000  -5.669061e+001  -1.741505e+002 
3375000000  -5.922686e+001  1.763042e+002 
3378125000  -5.960482e+001  1.669692e+002 
3381250000  -5.925245e+001  1.637917e+002 
3384375000  -5.774152e+001  -1.746432e+002 
3387500000  -5.412548e+001  1.494901e+002 
3390625000  -5.610655e+001  1.197975e+002 
3393750000  -5.736909e+001  1.304246e+002 
3396875000  -5.621317e+001  1.147199e+002 
3400000000  -5.467930e+001  9.694969e+001 
3403125000  -5.718797e+001  8.850888e+001 
3406250000  -5.709957e+001  7.106884e+001 
3409375000  -5.779227e+001  5.245893e+001 
3412500000  -5.798978e+001  5.841728e+001 
3415625000  -6.133989e+001  5.106862e+001 
3418750000  -5.962275e+001  4.339713e+001 
3421875000  -6.047860e+001  9.850436e+000 
3425000000  -5.853368e+001  2.428370e+001 
3428125000  -5.965203e+001  1.024766e+001 
3431250000  -6.073424e+001  7.660869e+000 
3434375000  -5.972619e+001  -5.206365e+000 
3437500000  -6.245177e+001  -2.225518e+001 
3440625000  -5.993875e+001  -3.139131e+001 
3443750000  -6.134170e+001  -2.073034e+001 
3446875000  -6.165111e+001  -4.017495e+001 
3450000000  -6.308286e+001  -6.736401e+001 
3453125000  -6.446959e+001  -8.934009e+001 
3456250000  -6.540455e+001  -9.458383e+001 
3459375000  -6.278053e+001  -6.986070e+001 
3462500000  -6.724184e+001  -7.731824e+001 
3465625000  -6.468635e+001  -1.013822e+002 
3468750000  -6.668732e+001  -1.011542e+002 
3471875000  -6.846326e+001  -1.008757e+002 
3475000000  -7.101546e+001  -1.283176e+002 
3478125000  -6.997511e+001  -9.687414e+001 
3481250000  -6.514338e+001  -1.287763e+002 
3484375000  -6.505013e+001  -1.310218e+002 
3487500000  -6.624560e+001  -1.312630e+002 
3490625000  -6.594437e+001  -1.479082e+002 
3493750000  -6.900127e+001  -1.158704e+002 
3496875000  -7.110875e+001  -1.285273e+002 
3500000000  -6.735352e+001  1.784919e+002 
3503125000  -6.700196e+001  -1.717285e+002 
3506250000  -6.508717e+001  -1.704269e+002 
3509375000  -6.508637e+001  1.717668e+002 
3512500000  -6.503952e+001  1.512594e+002 
3515625000  -6.774933e+001  1.311550e+002 
3518750000  -6.747386e+001  1.490620e+002 
3521875000  -6.593121e+001  1.415346e+002 
3525000000  -6.714478e+001  1.042464e+002 
3528125000  -6.762863e+001  1.140138e+002 
3531250000  -6.515669e+001  9.924525e+001 
3534375000  -6.434654e+001  1.165048e+002 
3537500000  -7.400150e+001  6.617446e+001 
3540625000  -7.396240e+001  7.894420e+001 
3543750000  -6.949263e+001  1.055209e+002 
3546875000  -6.851601e+001  5.034727e+001 
3550000000  -6.871017e+001  1.084026e+002 
3553125000  -7.501463e+001  6.129058e+001 
3556250000  -7.246407e+001  7.331657e+001 
3559375000  -7.217730e+001  3.979677e+001 
3562500000  -7.598873e+001  8.875947e+001 
3565625000  -8.608157e+001  7.194296e+001 
3568750000  -7.596561e+001  1.366697e+002 
3571875000  -7.329388e+001  2.845902e+001 
3575000000  -8.038097e+001  9.243176e+001 
3578125000  -6.875246e+001  3.061386e+001 
3581250000  -7.335487e+001  6.528072e+001 
3584375000  -6.979493e+001  -2.381232e+001 
3587500000  -7.356661e+001  6.053709e+001 
3590625000  -7.342567e+001  5.240858e+001 
3593750000  -6.746080e+001  -4.236374e+001 
3596875000  -6.650852e+001  2.501424e+001 
3600000000  -6.734146e+001  5.035815e+000 
3603125000  -6.873901e+001  -9.750466e+000 
3606250000  -6.648592e+001  -6.325596e+001 
3609375000  -6.754751e+001  -4.497037e+001 
3612500000  -6.481101e+001  -2.955791e+001 
3615625000  -7.126803e+001  -3.103034e+001 
3618750000  -6.637825e+001  -7.188000e+001 
3621875000  -6.520195e+001  -6.501466e+001 
3625000000  -6.724716e+001  -5.689854e+001 
3628125000  -6.388380e+001  -1.144683e+002 
3631250000  -6.178440e+001  -1.119563e+002 
3634375000  -6.495144e+001  -1.208860e+002 
3637500000  -6.459811e+001  -9.179649e+001 
3640625000  -6.299158e+001  -1.349910e+002 
3643750000  -6.670233e+001  -1.204218e+002 
3646875000  -6.222769e+001  -1.672538e+002 
3650000000  -6.757432e+001  1.636651e+002 
3653125000  -6.283537e+001  -1.717846e+002 
3656250000  -6.457143e+001  1.613886e+002 
3659375000  -6.344643e+001  1.608159e+002 
3662500000  -6.377625e+001  1.419589e+002 
3665625000  -6.332222e+001  1.596243e+002 
3668750000  -6.196174e+001  1.369872e+002 
3671875000  -6.404430e+001  1.304455e+002 
3675000000  -6.942146e+001  9.268279e+001 
3678125000  -6.735367e+001  1.152151e+002 
3681250000  -6.052467e+001  9.515021e+001 
3684375000  -6.558679e+001  1.314899e+002 
3687500000  -6.518498e+001  7.087031e+001 
3690625000  -6.710523e+001  1.089574e+002 
3693750000  -6.445650e+001  9.702293e+001 
3696875000  -6.960704e+001  7.846606e+001 
3700000000  -6.020497e+001  6.495419e+001 
3703125000  -6.663762e+001  3.442815e+001 
3706250000  -6.584267e+001  6.738949e+001 
3709375000  -6.587660e+001  4.127849e+001 
3712500000  -6.188868e+001  7.186297e+001 
3715625000  -6.640294e+001  2.474163e+001 
3718750000  -6.541933e+001  3.576004e+001 
3721875000  -6.068456e+001  1.033568e+001 
3725000000  -6.245718e+001  2.708407e+001 
3728125000  -6.080815e+001  5.614630e+000 
3731250000  -5.854050e+001  -1.375225e+001 
3734375000  -5.814252e+001  -1.786673e+001 
3737500000  -6.117641e+001  -3.246410e+001 
3740625000  -5.868015e+001  -4.005833e+001 
3743750000  -5.832748e+001  -5.778891e+001 
3746875000  -5.783629e+001  -5.495089e+001 
3750000000  -5.792244e+001  -7.919721e+001 
3753125000  -5.899199e+001  -8.774566e+001 
3756250000  -5.937626e+001  -9.304836e+001 
3759375000  -5.719935e+001  -1.120999e+002 
3762500000  -5.629205e+001  -1.110444e+002 
3765625000  -6.046917e+001  -1.261606e+002 
3768750000  -5.618475e+001  -1.329918e+002 
3771875000  -5.568732e+001  -1.415742e+002 
3775000000  -5.618919e+001  -1.544420e+002 
3778125000  -5.723331e+001  1.772303e+002 
3781250000  -5.663575e+001  1.772273e+002 
3784375000  -5.835822e+001  1.741224e+002 
3787500000  -5.843458e+001  1.573210e+002 
3790625000  -5.672539e+001  1.425762e+002 
3793750000  -5.710530e+001  1.296063e+002 
3796875000  -5.620666e+001  1.341094e+002 
3800000000  -5.300265e+001  8.487752e+001 
3803125000  -5.744662e+001  9.564543e+001 
3806250000  -5.932958e+001  7.717969e+001 
3809375000  -5.754102e+001  8.249382e+001 
3812500000  -5.774751e+001  7.900047e+001 
3815625000  -6.507882e+001  2.808993e+001 
3818750000  -5.977799e+001  3.610044e+001 
3821875000  -6.104858e+001  5.891172e+001 
3825000000  -6.063392e+001  5.959015e+001 
3828125000  -6.047406e+001  2.750135e+001 
3831250000  -5.866644e+001  3.874415e+000 
3834375000  -6.279327e+001  -8.222349e-003 
3837500000  -6.759340e+001  4.712106e+001 
3840625000  -6.184793e+001  -4.142926e-001 
3843750000  -5.946499e+001  -1.297301e+001 
3846875000  -6.470071e+001  -3.905346e+001 
3850000000  -6.660891e+001  2.676344e+001 
3853125000  -6.262288e+001  -2.871747e+001 
3856250000  -6.035088e+001  1.007848e+001 
3859375000  -5.736305e+001  -2.565414e+001 
3862500000  -6.052600e+001  -2.708842e+001 
3865625000  -5.918183e+001  -4.431717e+001 
3868750000  -5.759623e+001  -4.614905e+001 
3871875000  -5.538019e+001  -6.336141e+001 
3875000000  -5.954087e+001  -6.785817e+001 
3878125000  -5.789680e+001  -8.043620e+001 
3881250000  -5.748414e+001  -8.800358e+001 
3884375000  -5.566583e+001  -9.892346e+001 
3887500000  -5.714194e+001  -1.043859e+002 
3890625000  -5.514163e+001  -1.169945e+002 
3893750000  -5.710532e+001  -1.280031e+002 
3896875000  -5.458471e+001  -1.297678e+002 
3900000000  -5.695498e+001  -1.461775e+002 
3903125000  -5.507581e+001  -1.452243e+002 
3906250000  -5.290656e+001  -1.619322e+002 
3909375000  -5.444809e+001  -1.721847e+002 
3912500000  -5.497623e+001  1.711647e+002 
3915625000  -5.511500e+001  1.639748e+002 
3918750000  -5.414484e+001  1.594281e+002 
3921875000  -5.570505e+001  1.458066e+002 
3925000000  -5.226236e+001  1.312007e+002 
3928125000  -5.265516e+001  1.131352e+002 
3931250000  -5.503237e+001  1.107116e+002 
3934375000  -5.431113e+001  9.468491e+001 
3937500000  -5.574662e+001  8.634904e+001 
3940625000  -5.448693e+001  8.742422e+001 
3943750000  -5.361703e+001  6.893618e+001 
3946875000  -5.286285e+001  5.308829e+001 
3950000000  -5.592239e+001  4.184081e+001 
3953125000  -5.473703e+001  3.887992e+001 
3956250000  -5.351575e+001  3.050514e+001 
3959375000  -5.289562e+001  2.177164e+001 
3962500000  -5.339791e+001  -7.091772e+000 
3965625000  -5.286723e+001  -1.565864e+001 
3968750000  -5.350936e+001  -3.162012e+001 
3971875000  -5.378945e+001  -4.275280e+001 
3975000000  -5.339856e+001  -5.292609e+001 
3978125000  -5.439077e+001  -5.349405e+001 
3981250000  -5.551974e+001  -7.582191e+001 
3984375000  -5.611843e+001  -7.691655e+001 
3987500000  -5.457945e+001  -8.200296e+001 
3990625000  -5.787404e+001  -9.785592e+001 
3993750000  -5.645387e+001  -1.115197e+002 
3996875000  -5.893792e+001  -1.180339e+002 
4000000000  -5.823236e+001  -1.224878e+002 
4003125000  -5.880681e+001  -1.376858e+002 
4006250000  -5.684789e+001  -1.300390e+002 
4009375000  -5.730869e+001  -1.620912e+002 
4012500000  -5.957317e+001  -1.706770e+002 
4015625000  -6.112661e+001  -1.497978e+002 
4018750000  -5.960706e+001  -1.729503e+002 
4021875000  -5.832433e+001  -1.612570e+002 
4025000000  -6.020514e+001  -1.755672e+002 
4028125000  -5.776056e+001  1.601417e+002 
4031250000  -6.022342e+001  1.727844e+002 
4034375000  -6.038366e+001  -1.750232e+002 
4037500000  -5.808178e+001  1.558398e+002 
4040625000  -6.051555e+001  1.628417e+002 
4043750000  -6.047630e+001  1.551773e+002 
4046875000  -5.775460e+001  1.245635e+002 
4050000000  -5.864410e+001  1.365074e+002 
4053125000  -5.821492e+001  1.194354e+002 
4056250000  -5.865224e+001  1.185824e+002 
4059375000  -5.693857e+001  1.164767e+002 
4062500000  -5.396682e+001  1.118279e+002 
4065625000  -5.441288e+001  9.061259e+001 
4068750000  -5.457166e+001  7.473634e+001 
4071875000  -5.240586e+001  6.208994e+001 
4075000000  -5.375288e+001  4.548521e+001 
4078125000  -5.417052e+001  4.529114e+001 
4081250000  -5.324250e+001  3.456495e+001 
4084375000  -5.284053e+001  1.757364e+001 
4087500000  -5.461686e+001  -2.307686e+000 
4090625000  -5.311385e+001  -4.356037e+000 
4093750000  -5.231300e+001  -1.238364e+001 
4096875000  -5.436384e+001  -3.315495e+001 
4100000000  -5.386169e+001  -4.307959e+001 
4103125000  -5.484872e+001  -4.799767e+001 
4106250000  -5.391037e+001  -5.803193e+001 
4109375000  -5.352370e+001  -5.989603e+001 
4112500000  -5.241317e+001  -7.749503e+001 
4115625000  -5.277785e+001  -9.072561e+001 
4118750000  -5.277874e+001  -9.561042e+001 
4121875000  -5.194192e+001  -1.134917e+002 
4125000000  -5.295008e+001  -1.206336e+002 
4128125000  -5.462260e+001  -1.252972e+002 
4131250000  -5.176484e+001  -1.324680e+002 
4134375000  -5.080054e+001  -1.433075e+002 
4137500000  -5.165335e+001  -1.663589e+002 
4140625000  -5.429812e+001  1.738152e+002 
4143750000  -5.611400e+001  1.787778e+002 
4146875000  -5.389868e+001  1.711662e+002 
4150000000  -5.554998e+001  1.676124e+002 
4153125000  -5.379930e+001  1.437549e+002 
4156250000  -5.706971e+001  1.292777e+002 
4159375000  -5.624858e+001  1.352939e+002 
4162500000  -5.634389e+001  1.155109e+002 
4165625000  -5.339939e+001  1.280667e+002 
4168750000  -5.358957e+001  9.214558e+001 
4171875000  -5.502229e+001  8.323003e+001 
4175000000  -5.619695e+001  5.761549e+001 
4178125000  -5.824460e+001  6.773029e+001 
4181250000  -5.565088e+001  3.891383e+001 
4184375000  -5.836920e+001  3.939001e+001 
4187500000  -5.922665e+001  2.436485e+001 
4190625000  -6.056555e+001  3.086273e+001 
4193750000  -6.059320e+001  2.037447e+001 
4196875000  -6.366106e+001  9.635364e+000 
4200000000  -6.138815e+001  2.765710e+001 
4203125000  -6.862831e+001  3.548542e+001 
4206250000  -5.932212e+001  -2.344974e+000 
4209375000  -6.115037e+001  -5.387746e+000 
4212500000  -6.359203e+001  1.792738e+001 
4215625000  -6.332948e+001  2.710286e+001 
4218750000  -6.195412e+001  2.082760e+001 
4221875000  -5.841810e+001  -1.207001e+001 
4225000000  -6.147076e+001  3.997955e+000 
4228125000  -5.724341e+001  -2.866770e+001 
4231250000  -5.788990e+001  -2.825993e+001 
4234375000  -5.576360e+001  -4.751958e+001 
4237500000  -5.820009e+001  -4.056243e+001 
4240625000  -5.584946e+001  -6.062398e+001 
4243750000  -5.625091e+001  -8.069408e+001 
4246875000  -5.717705e+001  -7.092085e+001 
4250000000  -5.666932e+001  -7.990323e+001 
4253125000  -5.411931e+001  -9.189928e+001 
4256250000  -5.747544e+001  -9.654032e+001 
4259375000  -5.446365e+001  -1.122411e+002 
4262500000  -5.585344e+001  -1.089640e+002 
4265625000  -5.364822e+001  -1.152103e+002 
4268750000  -5.271073e+001  -1.490262e+002 
4271875000  -5.215798e+001  -1.586359e+002 
4275000000  -5.111425e+001  -1.680440e+002 
4278125000  -5.260490e+001  1.686756e+002 
4281250000  -5.382148e+001  1.537983e+002 
4284375000  -5.370789e+001  1.549567e+002 
4287500000  -5.491867e+001  1.439694e+002 
4290625000  -5.628957e+001  1.526137e+002 
4293750000  -5.207779e+001  1.441153e+002 
4296875000  -5.225447e+001  1.122053e+002 
4300000000  -5.349814e+001  1.203338e+002 
4303125000  -5.242535e+001  1.006540e+002 
4306250000  -5.408819e+001  9.488976e+001 
4309375000  -5.161053e+001  7.711152e+001 
4312500000  -5.154893e+001  6.844794e+001 
4315625000  -5.135458e+001  5.000935e+001 
4318750000  -5.242249e+001  4.357519e+001 
4321875000  -5.305989e+001  4.201712e+001 
4325000000  -5.290442e+001  3.079184e+001 
4328125000  -5.094216e+001  7.766451e+000 
4331250000  -5.338853e+001  -4.860193e+000 
4334375000  -5.507663e+001  -1.425850e+001 
4337500000  -5.522396e+001  -3.284742e+001 
4340625000  -5.474670e+001  -2.609933e+001 
4343750000  -5.432742e+001  -3.513875e+001 
4346875000  -5.446065e+001  -4.252744e+001 
4350000000  -5.514162e+001  -5.839899e+001 
4353125000  -5.615577e+001  -7.113092e+001 
4356250000  -5.644981e+001  -7.140984e+001 
4359375000  -5.752192e+001  -4.111464e+001 
4362500000  -5.571427e+001  -6.045812e+001 
4365625000  -5.465689e+001  -9.385683e+001 
4368750000  -5.616509e+001  -9.435481e+001 
4371875000  -5.938116e+001  -1.041853e+002 
4375000000  -5.649847e+001  -1.184071e+002 
4378125000  -5.633387e+001  -1.098433e+002 
4381250000  -5.890571e+001  -1.344559e+002 
4384375000  -5.662701e+001  -1.484094e+002 
4387500000  -5.775396e+001  -1.554619e+002 
4390625000  -5.768936e+001  -1.531850e+002 
4393750000  -5.779934e+001  -1.505867e+002 
4396875000  -5.559159e+001  -1.640204e+002 
4400000000  -5.597096e+001  -1.776747e+002 
4403125000  -5.615236e+001  1.700489e+002 
4406250000  -5.696492e+001  1.636396e+002 
4409375000  -5.639588e+001  1.618967e+002 
4412500000  -5.604433e+001  1.694681e+002 
4415625000  -5.565489e+001  1.706445e+002 
4418750000  -5.676001e+001  1.601665e+002 
