!Agilent Technologies,E8363B,MY43030201,A.06.04.32
!Agilent E8363B: A.06.04.32
!Date: Tuesday, November 11, 2014 22:15:52
!Correction: S21(Response(S21)) 
!S1P File: Measurement: S21:
# Hz S  dB   R 50
3000000000  -4.898040e+001  -7.183578e+001 
3003125000  -5.076665e+001  -7.915208e+001 
3006250000  -5.114230e+001  -8.681720e+001 
3009375000  -5.166411e+001  -8.553226e+001 
3012500000  -5.135270e+001  -9.722465e+001 
3015625000  -5.174363e+001  -1.060631e+002 
3018750000  -5.194585e+001  -1.158924e+002 
3021875000  -5.008290e+001  -1.156700e+002 
3025000000  -4.882063e+001  -1.274087e+002 
3028125000  -4.855162e+001  -1.429591e+002 
3031250000  -4.722910e+001  -1.606236e+002 
3034375000  -4.686762e+001  -1.783954e+002 
3037500000  -4.772868e+001  1.684503e+002 
3040625000  -4.889459e+001  1.543469e+002 
3043750000  -4.949013e+001  1.442518e+002 
3046875000  -5.074799e+001  1.308714e+002 
3050000000  -5.174839e+001  1.243148e+002 
3053125000  -5.069064e+001  1.252967e+002 
3056250000  -5.086617e+001  1.214120e+002 
3059375000  -5.003382e+001  1.072594e+002 
3062500000  -4.973000e+001  1.040233e+002 
3065625000  -4.901316e+001  9.016648e+001 
3068750000  -4.904873e+001  7.679636e+001 
3071875000  -4.909630e+001  7.101787e+001 
3075000000  -4.880554e+001  5.739884e+001 
3078125000  -4.832106e+001  4.883531e+001 
3081250000  -4.892754e+001  3.316142e+001 
3084375000  -4.813914e+001  2.710381e+001 
3087500000  -4.761821e+001  1.406496e+001 
3090625000  -4.780310e+001  -3.127271e+000 
3093750000  -4.898501e+001  -1.524333e+001 
3096875000  -4.884785e+001  -2.137793e+001 
3100000000  -4.920194e+001  -3.148415e+001 
3103125000  -4.942673e+001  -3.856141e+001 
3106250000  -4.971627e+001  -5.204170e+001 
3109375000  -4.973201e+001  -6.200194e+001 
3112500000  -5.002683e+001  -6.681184e+001 
3115625000  -4.915391e+001  -7.876255e+001 
3118750000  -4.979874e+001  -8.206711e+001 
3121875000  -4.915402e+001  -9.743217e+001 
3125000000  -5.040093e+001  -1.072007e+002 
3128125000  -5.021391e+001  -1.067350e+002 
3131250000  -4.848100e+001  -1.174452e+002 
3134375000  -4.851796e+001  -1.398565e+002 
3137500000  -4.817683e+001  -1.538839e+002 
3140625000  -4.927868e+001  -1.602833e+002 
3143750000  -5.092393e+001  -1.697421e+002 
3146875000  -5.042537e+001  -1.717002e+002 
3150000000  -4.880764e+001  -1.776823e+002 
3153125000  -4.901116e+001  1.680897e+002 
3156250000  -5.049129e+001  1.674366e+002 
3159375000  -4.734545e+001  1.600812e+002 
3162500000  -4.648574e+001  1.372365e+002 
3165625000  -4.785864e+001  1.231239e+002 
3168750000  -4.763301e+001  1.174616e+002 
3171875000  -4.730163e+001  1.027748e+002 
3175000000  -4.775367e+001  9.236484e+001 
3178125000  -4.691113e+001  8.559889e+001 
3181250000  -4.667540e+001  6.851472e+001 
3184375000  -4.645603e+001  5.309838e+001 
3187500000  -4.752868e+001  3.713601e+001 
3190625000  -4.976065e+001  2.140823e+001 
3193750000  -4.996292e+001  2.261385e+001 
3196875000  -4.963885e+001  1.987404e+001 
3200000000  -4.800768e+001  9.157474e+000 
3203125000  -4.832242e+001  -3.375734e+000 
3206250000  -4.851993e+001  -1.508738e+001 
3209375000  -4.811607e+001  -2.848758e+001 
3212500000  -4.893640e+001  -4.096457e+001 
3215625000  -4.779035e+001  -4.535246e+001 
3218750000  -4.897982e+001  -6.698131e+001 
3221875000  -4.962871e+001  -7.231837e+001 
3225000000  -4.949313e+001  -8.338998e+001 
3228125000  -4.999189e+001  -9.314517e+001 
3231250000  -5.164199e+001  -1.033975e+002 
3234375000  -5.028221e+001  -1.094449e+002 
3237500000  -5.066344e+001  -1.149593e+002 
3240625000  -5.032553e+001  -1.262271e+002 
3243750000  -4.973305e+001  -1.414583e+002 
3246875000  -5.045961e+001  -1.490741e+002 
3250000000  -5.093840e+001  -1.642133e+002 
3253125000  -5.095215e+001  -1.661263e+002 
3256250000  -5.012300e+001  1.748785e+002 
3259375000  -5.131893e+001  1.559379e+002 
3262500000  -5.279880e+001  1.533024e+002 
3265625000  -5.357862e+001  1.418212e+002 
3268750000  -5.366769e+001  1.433357e+002 
3271875000  -5.237518e+001  1.339830e+002 
3275000000  -5.239639e+001  1.255652e+002 
3278125000  -5.244802e+001  1.064872e+002 
3281250000  -5.314585e+001  1.092461e+002 
3284375000  -5.142293e+001  9.478320e+001 
3287500000  -5.342514e+001  8.609854e+001 
3290625000  -5.350016e+001  7.355260e+001 
3293750000  -5.315914e+001  6.109279e+001 
3296875000  -5.484401e+001  5.295800e+001 
3300000000  -5.380555e+001  5.610893e+001 
3303125000  -5.330309e+001  4.062201e+001 
3306250000  -5.360460e+001  3.029725e+001 
3309375000  -5.350224e+001  1.639174e+001 
3312500000  -5.362530e+001  -4.735141e+000 
3315625000  -5.410666e+001  -8.977894e+000 
3318750000  -5.598875e+001  -2.048135e+001 
3321875000  -5.817045e+001  -2.412926e+001 
3325000000  -5.517580e+001  -1.759509e+001 
3328125000  -5.631618e+001  -2.315686e+001 
3331250000  -5.444419e+001  -3.637873e+001 
3334375000  -5.141624e+001  -5.042013e+001 
3337500000  -5.176126e+001  -6.961977e+001 
3340625000  -5.426674e+001  -8.652200e+001 
3343750000  -5.703526e+001  -8.728304e+001 
3346875000  -5.596019e+001  -9.909547e+001 
3350000000  -5.436221e+001  -9.973829e+001 
3353125000  -5.498512e+001  -1.142377e+002 
3356250000  -5.482300e+001  -1.199422e+002 
3359375000  -5.482728e+001  -1.424820e+002 
3362500000  -5.575842e+001  -1.518178e+002 
3365625000  -5.610638e+001  -1.540250e+002 
3368750000  -5.700254e+001  -1.705931e+002 
3371875000  -5.734951e+001  1.729243e+002 
3375000000  -5.729244e+001  1.676904e+002 
3378125000  -5.803417e+001  1.671843e+002 
3381250000  -6.028631e+001  1.566454e+002 
3384375000  -5.645931e+001  -1.797550e+002 
3387500000  -5.398983e+001  1.548550e+002 
3390625000  -5.623987e+001  1.282686e+002 
3393750000  -5.764597e+001  1.234462e+002 
3396875000  -5.760115e+001  1.192538e+002 
3400000000  -5.566773e+001  1.038122e+002 
3403125000  -5.733234e+001  9.124854e+001 
3406250000  -5.790339e+001  7.926936e+001 
3409375000  -5.771399e+001  5.242403e+001 
3412500000  -5.755195e+001  5.543547e+001 
3415625000  -6.050598e+001  3.569207e+001 
3418750000  -6.083870e+001  4.417116e+001 
3421875000  -6.081525e+001  2.558421e+001 
3425000000  -5.837788e+001  3.032135e+001 
3428125000  -5.864962e+001  2.879100e+000 
3431250000  -6.378984e+001  -8.072576e+000 
3434375000  -5.917865e+001  -1.836535e+001 
3437500000  -6.335232e+001  -1.462726e+001 
3440625000  -5.994733e+001  -2.076419e+001 
3443750000  -6.134339e+001  -2.143984e+001 
3446875000  -6.170837e+001  -5.278169e+001 
3450000000  -6.086171e+001  -8.155988e+001 
3453125000  -6.260146e+001  -6.635346e+001 
3456250000  -6.409010e+001  -1.078360e+002 
3459375000  -6.360329e+001  -6.386609e+001 
3462500000  -6.426836e+001  -1.158298e+002 
3465625000  -6.741999e+001  -7.799654e+001 
3468750000  -6.828849e+001  -1.356732e+002 
3471875000  -6.346245e+001  -8.727118e+001 
3475000000  -6.515024e+001  -1.205863e+002 
3478125000  -6.623090e+001  -1.227531e+002 
3481250000  -7.156207e+001  -1.088308e+002 
3484375000  -6.860750e+001  -1.066707e+002 
3487500000  -6.748752e+001  -1.371031e+002 
3490625000  -7.193598e+001  -1.551160e+002 
3493750000  -7.054117e+001  -1.037985e+002 
3496875000  -7.026342e+001  -1.561176e+002 
3500000000  -6.739866e+001  -1.485119e+002 
3503125000  -6.978098e+001  -1.473822e+002 
3506250000  -6.091982e+001  -1.745620e+002 
3509375000  -6.492445e+001  1.684923e+002 
3512500000  -6.376848e+001  1.527050e+002 
3515625000  -6.629131e+001  1.301526e+002 
3518750000  -6.812089e+001  1.253418e+002 
3521875000  -6.624712e+001  1.161717e+002 
3525000000  -6.600671e+001  1.028284e+002 
3528125000  -6.756670e+001  1.120606e+002 
3531250000  -7.153256e+001  1.306686e+002 
3534375000  -6.436406e+001  1.089155e+002 
3537500000  -6.595612e+001  8.586477e+001 
3540625000  -7.236321e+001  5.381538e+001 
3543750000  -7.572099e+001  8.379446e+001 
3546875000  -7.073842e+001  9.182958e+001 
3550000000  -6.934127e+001  9.931379e+001 
3553125000  -7.445655e+001  6.802267e+001 
3556250000  -7.326435e+001  -2.412648e+001 
3559375000  -6.863572e+001  4.597046e+001 
3562500000  -6.517151e+001  3.889156e+001 
3565625000  -7.112566e+001  6.159486e+001 
3568750000  -6.909514e+001  5.473171e+001 
3571875000  -6.789113e+001  2.444158e+001 
3575000000  -7.110765e+001  5.500587e+001 
3578125000  -6.979121e+001  2.409180e+001 
3581250000  -7.356226e+001  3.645285e+001 
3584375000  -7.290710e+001  4.549197e+001 
3587500000  -6.960560e+001  6.651447e+001 
3590625000  -6.975214e+001  8.323833e+000 
3593750000  -7.120498e+001  4.228743e+001 
3596875000  -6.469787e+001  2.572850e+001 
3600000000  -6.386205e+001  -9.917132e+000 
3603125000  -6.965302e+001  2.583533e+000 
3606250000  -6.484503e+001  -2.951836e+001 
3609375000  -6.557343e+001  -4.474422e+001 
3612500000  -6.216333e+001  -5.917409e+001 
3615625000  -6.743344e+001  -6.789677e+001 
3618750000  -6.491438e+001  -6.818018e+001 
3621875000  -6.377017e+001  -8.365234e+001 
3625000000  -6.415356e+001  -7.486676e+001 
3628125000  -6.275557e+001  -1.064223e+002 
3631250000  -6.117652e+001  -1.054388e+002 
3634375000  -6.672306e+001  -1.204161e+002 
3637500000  -6.460558e+001  -1.333577e+002 
3640625000  -6.570802e+001  -1.244906e+002 
3643750000  -6.314364e+001  -1.447661e+002 
3646875000  -6.518997e+001  -1.679194e+002 
3650000000  -6.375055e+001  1.614053e+002 
3653125000  -6.278616e+001  1.783914e+002 
3656250000  -6.569174e+001  -1.772884e+002 
3659375000  -6.722065e+001  1.723856e+002 
3662500000  -6.293740e+001  1.455052e+002 
3665625000  -6.415129e+001  1.514566e+002 
3668750000  -6.124850e+001  1.368701e+002 
3671875000  -6.080495e+001  1.249990e+002 
3675000000  -6.347995e+001  1.030994e+002 
3678125000  -6.236106e+001  1.064413e+002 
3681250000  -6.389729e+001  9.318318e+001 
3684375000  -6.755054e+001  5.590998e+001 
3687500000  -7.121724e+001  6.593504e+001 
3690625000  -6.591265e+001  3.962300e+001 
3693750000  -6.659927e+001  8.968929e+001 
3696875000  -6.503664e+001  9.032386e+001 
3700000000  -6.925408e+001  8.868604e+001 
3703125000  -6.908044e+001  5.111382e+001 
3706250000  -6.603862e+001  4.190588e+001 
3709375000  -6.545259e+001  7.310370e+000 
3712500000  -6.054191e+001  5.876810e+001 
3715625000  -6.121801e+001  3.157492e+001 
3718750000  -6.097343e+001  3.008867e+001 
3721875000  -6.312751e+001  3.413625e+001 
3725000000  -6.115660e+001  -7.778773e-001 
3728125000  -5.873514e+001  -1.404260e+000 
3731250000  -5.934619e+001  -1.254623e+000 
3734375000  -5.737754e+001  -2.559734e+001 
3737500000  -6.010580e+001  -3.152030e+001 
3740625000  -5.985344e+001  -3.131281e+001 
3743750000  -5.789609e+001  -4.544139e+001 
3746875000  -5.750015e+001  -5.840601e+001 
3750000000  -5.769044e+001  -8.004298e+001 
3753125000  -5.844458e+001  -7.785575e+001 
3756250000  -5.910941e+001  -9.315202e+001 
3759375000  -5.775521e+001  -1.019460e+002 
3762500000  -5.771239e+001  -1.148323e+002 
3765625000  -5.760268e+001  -1.199538e+002 
3768750000  -5.650971e+001  -1.253531e+002 
3771875000  -5.480006e+001  -1.478800e+002 
3775000000  -5.572608e+001  -1.628638e+002 
3778125000  -5.731227e+001  -1.768294e+002 
3781250000  -5.689537e+001  -1.775418e+002 
3784375000  -5.636543e+001  1.621936e+002 
3787500000  -5.685567e+001  1.509906e+002 
3790625000  -5.901763e+001  1.386729e+002 
3793750000  -5.677158e+001  1.302121e+002 
3796875000  -5.763401e+001  1.352392e+002 
3800000000  -5.305246e+001  8.488717e+001 
3803125000  -5.671582e+001  9.819510e+001 
3806250000  -5.910280e+001  7.400889e+001 
3809375000  -5.872164e+001  7.996064e+001 
3812500000  -5.777189e+001  6.410902e+001 
3815625000  -5.885794e+001  5.574427e+001 
3818750000  -6.064205e+001  3.351633e+001 
3821875000  -6.007692e+001  6.554269e+001 
3825000000  -6.087946e+001  4.734605e+001 
3828125000  -5.797351e+001  1.843657e+001 
3831250000  -6.000658e+001  -2.645196e+000 
3834375000  -6.275529e+001  1.424260e+000 
3837500000  -6.197054e+001  2.007402e+001 
3840625000  -6.096587e+001  7.937171e+000 
3843750000  -6.156831e+001  -1.325184e-001 
3846875000  -6.669258e+001  -3.989806e+001 
3850000000  -6.339297e+001  -4.115538e+000 
3853125000  -6.422278e+001  -1.084151e+000 
3856250000  -5.992225e+001  -1.701771e+001 
3859375000  -6.123384e+001  -3.810504e+001 
3862500000  -6.291824e+001  -3.898096e+001 
3865625000  -6.151539e+001  -4.933994e+001 
3868750000  -6.047941e+001  -3.773768e+001 
3871875000  -5.717428e+001  -6.465413e+001 
3875000000  -5.958748e+001  -8.584123e+001 
3878125000  -5.753415e+001  -7.574145e+001 
3881250000  -5.616850e+001  -9.000184e+001 
3884375000  -5.736209e+001  -9.392381e+001 
3887500000  -5.690659e+001  -1.141277e+002 
3890625000  -5.714613e+001  -1.107052e+002 
3893750000  -5.736037e+001  -1.193721e+002 
3896875000  -5.715935e+001  -1.439872e+002 
3900000000  -5.625818e+001  -1.417545e+002 
3903125000  -5.509394e+001  -1.560119e+002 
3906250000  -5.490229e+001  -1.720498e+002 
3909375000  -5.584374e+001  1.778085e+002 
3912500000  -5.415506e+001  1.642498e+002 
3915625000  -5.555221e+001  1.598218e+002 
3918750000  -5.504811e+001  1.551745e+002 
3921875000  -5.400570e+001  1.322326e+002 
3925000000  -5.272272e+001  1.258185e+002 
3928125000  -5.300834e+001  1.129805e+002 
3931250000  -5.279733e+001  1.040082e+002 
3934375000  -5.417891e+001  8.584607e+001 
3937500000  -5.761846e+001  8.220872e+001 
3940625000  -5.422518e+001  7.063142e+001 
3943750000  -5.434815e+001  6.802496e+001 
3946875000  -5.322592e+001  5.653225e+001 
3950000000  -5.502030e+001  4.208750e+001 
3953125000  -5.531807e+001  2.888997e+001 
3956250000  -5.400130e+001  2.065552e+001 
3959375000  -5.217929e+001  1.757945e+001 
3962500000  -5.223182e+001  -3.767759e+000 
3965625000  -5.359596e+001  -1.861391e+001 
3968750000  -5.349797e+001  -2.809431e+001 
3971875000  -5.405246e+001  -3.329282e+001 
3975000000  -5.454382e+001  -5.551808e+001 
3978125000  -5.423817e+001  -5.107719e+001 
3981250000  -5.422617e+001  -6.590188e+001 
3984375000  -5.496224e+001  -8.092538e+001 
3987500000  -5.475959e+001  -8.914598e+001 
3990625000  -5.758751e+001  -1.002775e+002 
3993750000  -5.663405e+001  -1.050720e+002 
3996875000  -5.869781e+001  -1.221554e+002 
4000000000  -6.222491e+001  -1.266833e+002 
4003125000  -6.272819e+001  -1.226098e+002 
4006250000  -5.597983e+001  -1.378828e+002 
4009375000  -5.717569e+001  -1.565850e+002 
4012500000  -5.874903e+001  -1.584476e+002 
4015625000  -5.952078e+001  -1.704090e+002 
4018750000  -5.959838e+001  -1.739059e+002 
4021875000  -6.087119e+001  -1.765332e+002 
4025000000  -5.997496e+001  1.709196e+002 
4028125000  -5.919582e+001  -1.720837e+002 
4031250000  -6.164158e+001  1.549244e+002 
4034375000  -6.030674e+001  1.673910e+002 
4037500000  -5.955161e+001  1.603268e+002 
4040625000  -6.067457e+001  1.468161e+002 
4043750000  -5.976889e+001  1.531883e+002 
4046875000  -5.684513e+001  1.370439e+002 
4050000000  -5.742640e+001  1.289439e+002 
4053125000  -5.705967e+001  1.335671e+002 
4056250000  -5.731068e+001  1.153674e+002 
4059375000  -5.591526e+001  1.052979e+002 
4062500000  -5.616996e+001  9.726759e+001 
4065625000  -5.423858e+001  7.988702e+001 
4068750000  -5.388781e+001  8.487698e+001 
4071875000  -5.302364e+001  6.567223e+001 
4075000000  -5.405122e+001  4.888532e+001 
4078125000  -5.329908e+001  4.289634e+001 
4081250000  -5.409547e+001  2.989782e+001 
4084375000  -5.267379e+001  7.479550e+000 
4087500000  -5.373900e+001  3.845358e+000 
4090625000  -5.237535e+001  -3.791777e-001 
4093750000  -5.295065e+001  -2.379585e+001 
4096875000  -5.396341e+001  -3.349549e+001 
4100000000  -5.223317e+001  -4.671379e+001 
4103125000  -5.366143e+001  -5.061327e+001 
4106250000  -5.337739e+001  -5.537653e+001 
4109375000  -5.201048e+001  -5.754846e+001 
4112500000  -5.119582e+001  -8.450591e+001 
4115625000  -5.297427e+001  -8.730158e+001 
4118750000  -5.313209e+001  -9.901965e+001 
4121875000  -5.378932e+001  -1.239140e+002 
4125000000  -5.396753e+001  -1.212458e+002 
4128125000  -5.417892e+001  -1.236871e+002 
4131250000  -5.351267e+001  -1.201510e+002 
4134375000  -5.175260e+001  -1.476148e+002 
4137500000  -5.267686e+001  -1.728848e+002 
4140625000  -5.422437e+001  1.692509e+002 
4143750000  -5.522297e+001  1.703672e+002 
4146875000  -5.403954e+001  1.668112e+002 
4150000000  -5.510870e+001  1.614933e+002 
4153125000  -5.373708e+001  1.397287e+002 
4156250000  -5.660555e+001  1.340909e+002 
4159375000  -5.768270e+001  1.373869e+002 
4162500000  -5.513048e+001  1.140778e+002 
4165625000  -5.387027e+001  1.256204e+002 
4168750000  -5.537453e+001  9.397370e+001 
4171875000  -5.513958e+001  8.074282e+001 
4175000000  -5.458040e+001  6.100798e+001 
4178125000  -5.936003e+001  6.364356e+001 
4181250000  -5.750430e+001  3.477581e+001 
4184375000  -6.110820e+001  3.864571e+001 
4187500000  -5.941439e+001  2.993082e+001 
4190625000  -6.075517e+001  3.122631e+001 
4193750000  -6.034864e+001  2.262867e+001 
4196875000  -6.372856e+001  -3.353970e-001 
4200000000  -6.324105e+001  1.431292e+001 
4203125000  -6.091908e+001  2.736564e+001 
4206250000  -6.265327e+001  2.295699e+001 
4209375000  -6.215251e+001  8.450315e-001 
4212500000  -6.486510e+001  2.013831e-001 
4215625000  -6.182456e+001  -2.038674e+001 
4218750000  -6.206955e+001  1.448328e+001 
4221875000  -5.865894e+001  -2.811118e+001 
4225000000  -6.071807e+001  4.928122e+000 
4228125000  -5.701008e+001  -2.901782e+001 
4231250000  -6.168995e+001  -1.455871e+001 
4234375000  -5.725026e+001  -4.478863e+001 
4237500000  -5.754465e+001  -5.140477e+001 
4240625000  -5.385613e+001  -6.044102e+001 
4243750000  -5.759299e+001  -7.710505e+001 
4246875000  -5.695797e+001  -7.377433e+001 
4250000000  -5.498245e+001  -8.444122e+001 
4253125000  -5.412449e+001  -7.106897e+001 
4256250000  -5.783701e+001  -9.582195e+001 
4259375000  -5.604179e+001  -9.698265e+001 
4262500000  -5.507877e+001  -1.068485e+002 
4265625000  -5.439305e+001  -1.211049e+002 
4268750000  -5.225021e+001  -1.349906e+002 
4271875000  -5.171223e+001  -1.552307e+002 
4275000000  -5.082459e+001  -1.761225e+002 
4278125000  -5.303053e+001  1.712298e+002 
4281250000  -5.530756e+001  1.647771e+002 
4284375000  -5.325629e+001  1.582204e+002 
4287500000  -5.435669e+001  1.548894e+002 
4290625000  -5.525903e+001  1.430379e+002 
4293750000  -5.346935e+001  1.406257e+002 
4296875000  -5.186941e+001  1.218881e+002 
4300000000  -5.284535e+001  1.116182e+002 
4303125000  -5.280598e+001  1.056983e+002 
4306250000  -5.284767e+001  9.661063e+001 
4309375000  -5.180457e+001  7.365562e+001 
4312500000  -5.256955e+001  7.652529e+001 
4315625000  -5.191956e+001  5.655379e+001 
4318750000  -5.279242e+001  4.045671e+001 
4321875000  -5.184638e+001  3.711956e+001 
4325000000  -5.366437e+001  2.670336e+001 
4328125000  -5.143038e+001  1.454382e+001 
4331250000  -5.308613e+001  -2.550838e+000 
4334375000  -5.470914e+001  -1.610513e+001 
4337500000  -5.647289e+001  -3.575734e+001 
4340625000  -5.570021e+001  -1.730456e+001 
4343750000  -5.498242e+001  -4.100180e+001 
4346875000  -5.580024e+001  -4.185871e+001 
4350000000  -5.525771e+001  -6.555278e+001 
4353125000  -5.743929e+001  -5.533925e+001 
4356250000  -5.786193e+001  -8.295762e+001 
4359375000  -5.769995e+001  -6.242921e+001 
4362500000  -5.519113e+001  -6.725850e+001 
4365625000  -5.488328e+001  -1.022671e+002 
4368750000  -5.612137e+001  -9.934824e+001 
4371875000  -5.790146e+001  -1.007030e+002 
4375000000  -5.605117e+001  -1.045145e+002 
4378125000  -5.622409e+001  -1.256355e+002 
4381250000  -5.713385e+001  -1.320393e+002 
4384375000  -5.673815e+001  -1.405933e+002 
4387500000  -5.621951e+001  -1.419392e+002 
4390625000  -5.817972e+001  -1.542242e+002 
4393750000  -5.727342e+001  -1.398936e+002 
4396875000  -5.470380e+001  -1.512474e+002 
4400000000  -5.675148e+001  -1.656371e+002 
4403125000  -5.366586e+001  1.762046e+002 
4406250000  -5.546823e+001  1.657897e+002 
4409375000  -5.500993e+001  1.694321e+002 
4412500000  -5.734458e+001  1.527426e+002 
4415625000  -5.509087e+001  1.647203e+002 
4418750000  -5.528244e+001  1.459972e+002 
