!Agilent Technologies,E8363B,MY43030201,A.06.04.32
!Agilent E8363B: A.06.04.32
!Date: Tuesday, November 11, 2014 22:11:26
!Correction: S21(Response(S21)) 
!S1P File: Measurement: S21:
# Hz S  dB   R 50
3000000000  -4.910277e+001  -7.599275e+001 
3003125000  -5.188372e+001  -8.376443e+001 
3006250000  -5.169532e+001  -8.935658e+001 
3009375000  -5.170689e+001  -8.735104e+001 
3012500000  -5.101821e+001  -1.008098e+002 
3015625000  -5.137114e+001  -1.059228e+002 
3018750000  -5.175979e+001  -1.151473e+002 
3021875000  -5.005056e+001  -1.202562e+002 
3025000000  -4.863750e+001  -1.293706e+002 
3028125000  -4.780737e+001  -1.461021e+002 
3031250000  -4.692552e+001  -1.611769e+002 
3034375000  -4.745001e+001  1.783394e+002 
3037500000  -4.824594e+001  1.640582e+002 
3040625000  -4.939856e+001  1.508504e+002 
3043750000  -4.975658e+001  1.406629e+002 
3046875000  -5.058398e+001  1.275500e+002 
3050000000  -5.212402e+001  1.203814e+002 
3053125000  -5.134330e+001  1.175350e+002 
3056250000  -5.128189e+001  1.201362e+002 
3059375000  -5.001835e+001  1.094820e+002 
3062500000  -4.939495e+001  1.006367e+002 
3065625000  -4.895204e+001  8.609478e+001 
3068750000  -4.868675e+001  7.526833e+001 
3071875000  -4.925226e+001  6.725481e+001 
3075000000  -4.847642e+001  5.260157e+001 
3078125000  -4.869674e+001  4.418025e+001 
3081250000  -4.855163e+001  3.366412e+001 
3084375000  -4.814895e+001  2.683759e+001 
3087500000  -4.854923e+001  1.163640e+001 
3090625000  -4.791919e+001  -4.429828e+000 
3093750000  -4.876525e+001  -1.784296e+001 
3096875000  -4.922997e+001  -2.782266e+001 
3100000000  -4.941694e+001  -3.381440e+001 
3103125000  -5.003146e+001  -4.230988e+001 
3106250000  -4.912014e+001  -5.006339e+001 
3109375000  -4.957072e+001  -6.092096e+001 
3112500000  -4.951557e+001  -6.908224e+001 
3115625000  -4.914898e+001  -8.035974e+001 
3118750000  -4.959042e+001  -8.511016e+001 
3121875000  -4.912137e+001  -1.012613e+002 
3125000000  -5.062341e+001  -1.068255e+002 
3128125000  -5.038074e+001  -1.089086e+002 
3131250000  -4.807950e+001  -1.191281e+002 
3134375000  -4.813713e+001  -1.400473e+002 
3137500000  -4.902439e+001  -1.558120e+002 
3140625000  -4.974949e+001  -1.607956e+002 
3143750000  -5.057769e+001  -1.744741e+002 
3146875000  -4.993221e+001  -1.701219e+002 
3150000000  -4.867942e+001  1.767977e+002 
3153125000  -4.918108e+001  1.666528e+002 
3156250000  -5.056480e+001  1.639959e+002 
3159375000  -4.818351e+001  1.550658e+002 
3162500000  -4.621535e+001  1.352773e+002 
3165625000  -4.726436e+001  1.189088e+002 
3168750000  -4.760900e+001  1.136018e+002 
3171875000  -4.726913e+001  1.029435e+002 
3175000000  -4.752687e+001  8.927663e+001 
3178125000  -4.693300e+001  8.250041e+001 
3181250000  -4.640189e+001  6.668337e+001 
3184375000  -4.646976e+001  5.119474e+001 
3187500000  -4.752950e+001  3.219246e+001 
3190625000  -4.897855e+001  1.924931e+001 
3193750000  -4.937288e+001  2.040761e+001 
3196875000  -4.953960e+001  2.119509e+001 
3200000000  -4.860991e+001  6.084965e+000 
3203125000  -4.836602e+001  -8.225703e+000 
3206250000  -4.877864e+001  -1.802910e+001 
3209375000  -4.806874e+001  -3.123015e+001 
3212500000  -4.856873e+001  -4.336153e+001 
3215625000  -4.798756e+001  -4.659288e+001 
3218750000  -4.936916e+001  -6.810628e+001 
3221875000  -4.936058e+001  -7.622481e+001 
3225000000  -4.989420e+001  -8.634214e+001 
3228125000  -4.999770e+001  -9.529773e+001 
3231250000  -5.051032e+001  -1.063361e+002 
3234375000  -4.997662e+001  -1.130770e+002 
3237500000  -5.091151e+001  -1.151755e+002 
3240625000  -5.036428e+001  -1.298129e+002 
3243750000  -4.951652e+001  -1.464221e+002 
3246875000  -5.009878e+001  -1.581327e+002 
3250000000  -5.100325e+001  -1.683770e+002 
3253125000  -5.149072e+001  -1.727111e+002 
3256250000  -5.027172e+001  1.731477e+002 
3259375000  -5.132094e+001  1.548801e+002 
3262500000  -5.199981e+001  1.478935e+002 
3265625000  -5.354643e+001  1.430903e+002 
3268750000  -5.308346e+001  1.486371e+002 
3271875000  -5.233747e+001  1.345411e+002 
3275000000  -5.209710e+001  1.244303e+002 
3278125000  -5.289415e+001  1.068979e+002 
3281250000  -5.230943e+001  1.057878e+002 
3284375000  -5.112703e+001  9.270636e+001 
3287500000  -5.337935e+001  8.260106e+001 
3290625000  -5.317060e+001  7.224709e+001 
3293750000  -5.266910e+001  6.357322e+001 
3296875000  -5.519860e+001  5.659291e+001 
3300000000  -5.395406e+001  4.340554e+001 
3303125000  -5.325876e+001  4.069713e+001 
3306250000  -5.309443e+001  2.185172e+001 
3309375000  -5.271590e+001  1.286747e+001 
3312500000  -5.340137e+001  -2.513206e+000 
3315625000  -5.468398e+001  -1.106007e+001 
3318750000  -5.562104e+001  -2.105760e+001 
3321875000  -5.715628e+001  -2.418255e+001 
3325000000  -5.564457e+001  -2.154247e+001 
3328125000  -5.563120e+001  -2.228008e+001 
3331250000  -5.386095e+001  -2.670543e+001 
3334375000  -5.207440e+001  -4.742455e+001 
3337500000  -5.285961e+001  -6.839651e+001 
3340625000  -5.456628e+001  -9.067971e+001 
3343750000  -5.631911e+001  -9.086487e+001 
3346875000  -5.522050e+001  -9.464365e+001 
3350000000  -5.485083e+001  -9.689568e+001 
3353125000  -5.419336e+001  -1.149193e+002 
3356250000  -5.496725e+001  -1.264748e+002 
3359375000  -5.583491e+001  -1.502972e+002 
3362500000  -5.617628e+001  -1.519482e+002 
3365625000  -5.698513e+001  -1.628371e+002 
3368750000  -5.667899e+001  -1.684531e+002 
3371875000  -5.722731e+001  -1.782394e+002 
3375000000  -6.008224e+001  1.556225e+002 
3378125000  -5.850069e+001  1.670185e+002 
3381250000  -5.874531e+001  1.641739e+002 
3384375000  -5.550583e+001  1.782024e+002 
3387500000  -5.406666e+001  1.494329e+002 
3390625000  -5.614635e+001  1.318748e+002 
3393750000  -5.774063e+001  1.216852e+002 
3396875000  -5.942554e+001  1.222228e+002 
3400000000  -5.542279e+001  9.169057e+001 
3403125000  -5.710298e+001  8.520834e+001 
3406250000  -5.804562e+001  7.757207e+001 
3409375000  -5.845707e+001  5.588226e+001 
3412500000  -5.683727e+001  5.308065e+001 
3415625000  -5.971442e+001  5.038567e+001 
3418750000  -5.991170e+001  3.490151e+001 
3421875000  -6.090113e+001  3.501633e+001 
3425000000  -5.879482e+001  2.011220e+001 
3428125000  -5.935264e+001  1.979903e+001 
3431250000  -6.040061e+001  -8.998614e+000 
3434375000  -6.047805e+001  -3.024432e+001 
3437500000  -6.227311e+001  -3.485044e+001 
3440625000  -6.188156e+001  -2.468353e+001 
3443750000  -6.391917e+001  -2.649802e+001 
3446875000  -6.085816e+001  -4.968744e+001 
3450000000  -5.990980e+001  -6.472221e+001 
3453125000  -6.442063e+001  -7.219156e+001 
3456250000  -6.566187e+001  -8.128119e+001 
3459375000  -6.275095e+001  -7.282239e+001 
3462500000  -6.844656e+001  -7.875133e+001 
3465625000  -6.478443e+001  -9.117932e+001 
3468750000  -7.167017e+001  -1.392127e+002 
3471875000  -6.436240e+001  -1.017260e+002 
3475000000  -6.834885e+001  -1.209368e+002 
3478125000  -6.698388e+001  -1.170221e+002 
3481250000  -6.805535e+001  -1.451120e+002 
3484375000  -6.850569e+001  -1.366208e+002 
3487500000  -6.965833e+001  -1.401481e+002 
3490625000  -6.551823e+001  -1.134525e+002 
3493750000  -6.511021e+001  -1.635364e+002 
3496875000  -7.042455e+001  -1.711482e+002 
3500000000  -6.629832e+001  -1.792384e+002 
3503125000  -6.496797e+001  1.705201e+002 
3506250000  -6.318179e+001  1.784139e+002 
3509375000  -6.463646e+001  1.644966e+002 
3512500000  -7.127531e+001  1.451215e+002 
3515625000  -6.565737e+001  1.471006e+002 
3518750000  -6.748178e+001  1.190525e+002 
3521875000  -6.649846e+001  9.303623e+001 
3525000000  -7.215583e+001  1.080235e+002 
3528125000  -6.820347e+001  8.900868e+001 
3531250000  -6.614814e+001  1.049593e+002 
3534375000  -6.575388e+001  7.895444e+001 
3537500000  -6.841936e+001  7.103894e+001 
3540625000  -6.864089e+001  1.677416e+001 
3543750000  -7.539491e+001  7.487739e+001 
3546875000  -6.962055e+001  2.931637e+001 
3550000000  -6.842865e+001  1.060262e+002 
3553125000  -7.299954e+001  5.010179e+001 
3556250000  -6.819367e+001  7.572729e+001 
3559375000  -6.523429e+001  5.591636e+001 
3562500000  -6.837352e+001  2.029992e+001 
3565625000  -7.640871e+001  -7.516492e+000 
3568750000  -7.218987e+001  1.145340e+001 
3571875000  -7.596324e+001  5.404450e+001 
3575000000  -6.869679e+001  -1.414648e+001 
3578125000  -6.910362e+001  2.552356e+001 
3581250000  -7.253665e+001  -8.161430e+000 
3584375000  -7.517254e+001  4.759630e+001 
3587500000  -6.852814e+001  3.797188e+001 
3590625000  -6.589255e+001  -5.430074e+000 
3593750000  -6.921800e+001  -3.266002e+001 
3596875000  -6.636595e+001  3.760114e+001 
3600000000  -7.312639e+001  -1.736424e+001 
3603125000  -6.717516e+001  -2.363556e+001 
3606250000  -6.546359e+001  -4.104081e+001 
3609375000  -6.745826e+001  -3.912519e+001 
3612500000  -6.600076e+001  -5.849997e+001 
3615625000  -6.679158e+001  -6.609263e+001 
3618750000  -6.469106e+001  -7.387379e+001 
3621875000  -6.582108e+001  -8.025881e+001 
3625000000  -6.274233e+001  -6.479791e+001 
3628125000  -6.255030e+001  -1.058619e+002 
3631250000  -6.205256e+001  -1.119486e+002 
3634375000  -6.292913e+001  -1.343410e+002 
3637500000  -6.358990e+001  -1.260212e+002 
3640625000  -6.283322e+001  -1.221089e+002 
3643750000  -6.235261e+001  -1.477608e+002 
3646875000  -6.107616e+001  -1.647718e+002 
3650000000  -6.440855e+001  1.475075e+002 
3653125000  -6.040280e+001  1.716365e+002 
3656250000  -6.318132e+001  1.424646e+002 
3659375000  -6.452066e+001  1.794268e+002 
3662500000  -6.347022e+001  1.536536e+002 
3665625000  -6.481795e+001  1.728954e+002 
3668750000  -6.579930e+001  1.165180e+002 
3671875000  -6.535409e+001  1.512490e+002 
3675000000  -6.505963e+001  1.118264e+002 
3678125000  -6.353366e+001  1.201972e+002 
3681250000  -6.341258e+001  9.246170e+001 
3684375000  -6.816190e+001  7.626484e+001 
3687500000  -6.471965e+001  7.222846e+001 
3690625000  -7.007917e+001  6.606736e+001 
3693750000  -6.960590e+001  1.018216e+002 
3696875000  -6.713048e+001  1.039122e+002 
3700000000  -6.449864e+001  9.107386e+001 
3703125000  -6.497884e+001  7.520790e+001 
3706250000  -6.650310e+001  6.129679e+001 
3709375000  -7.328052e+001  4.388632e+001 
3712500000  -6.330444e+001  6.506521e+001 
3715625000  -5.998443e+001  4.863823e+001 
3718750000  -6.055697e+001  4.383921e+001 
3721875000  -6.236509e+001  2.158639e+001 
3725000000  -6.226939e+001  2.910908e+001 
3728125000  -5.909923e+001  1.167150e+001 
3731250000  -5.982805e+001  -8.642075e+000 
3734375000  -6.152575e+001  -2.243900e+001 
3737500000  -5.883472e+001  -2.465023e+001 
3740625000  -6.119953e+001  -5.107091e+001 
3743750000  -5.868627e+001  -5.859936e+001 
3746875000  -5.858824e+001  -6.889056e+001 
3750000000  -5.920414e+001  -8.007623e+001 
3753125000  -5.934058e+001  -9.367265e+001 
3756250000  -5.753562e+001  -1.002849e+002 
3759375000  -5.920423e+001  -1.170937e+002 
3762500000  -5.734191e+001  -1.180519e+002 
3765625000  -5.894305e+001  -1.263489e+002 
3768750000  -5.673926e+001  -1.298508e+002 
3771875000  -5.509404e+001  -1.471166e+002 
3775000000  -5.653750e+001  -1.644177e+002 
3778125000  -5.609865e+001  1.764545e+002 
3781250000  -5.733333e+001  -1.776673e+002 
3784375000  -5.728548e+001  1.583383e+002 
3787500000  -5.911801e+001  1.522776e+002 
3790625000  -5.816977e+001  1.384783e+002 
3793750000  -5.737017e+001  1.294415e+002 
3796875000  -5.744909e+001  1.341051e+002 
3800000000  -5.298912e+001  7.740612e+001 
3803125000  -5.798386e+001  1.008068e+002 
3806250000  -5.888421e+001  7.516730e+001 
3809375000  -5.820117e+001  7.178404e+001 
3812500000  -5.942998e+001  5.871153e+001 
3815625000  -6.031983e+001  1.588587e+001 
3818750000  -6.164233e+001  4.034745e+001 
3821875000  -6.188394e+001  6.060262e+001 
3825000000  -5.807994e+001  3.468087e+001 
3828125000  -6.016074e+001  2.043757e+001 
3831250000  -6.159768e+001  8.135811e+000 
3834375000  -6.500034e+001  6.750402e+000 
3837500000  -6.388175e+001  4.474698e+001 
3840625000  -5.990574e+001  6.478093e+000 
3843750000  -6.007570e+001  4.389914e+000 
3846875000  -6.173661e+001  -3.747334e+001 
3850000000  -6.480074e+001  -1.211808e+001 
3853125000  -6.533698e+001  -2.445654e+001 
3856250000  -6.106948e+001  -6.300732e+000 
3859375000  -6.046181e+001  -3.158133e+001 
3862500000  -6.188471e+001  -4.003008e+001 
3865625000  -6.028665e+001  -5.294545e+001 
3868750000  -6.103226e+001  -3.596611e+001 
3871875000  -5.747085e+001  -6.244929e+001 
3875000000  -5.937647e+001  -8.124760e+001 
3878125000  -5.794445e+001  -8.483755e+001 
3881250000  -5.712770e+001  -8.851035e+001 
3884375000  -5.490462e+001  -9.826522e+001 
3887500000  -5.622779e+001  -1.131686e+002 
3890625000  -5.600733e+001  -1.108125e+002 
3893750000  -5.719355e+001  -1.273640e+002 
3896875000  -5.662468e+001  -1.335592e+002 
3900000000  -5.648522e+001  -1.546173e+002 
3903125000  -5.482952e+001  -1.508443e+002 
3906250000  -5.404893e+001  -1.774600e+002 
3909375000  -5.452656e+001  1.757175e+002 
3912500000  -5.448969e+001  1.557155e+002 
3915625000  -5.425563e+001  1.583035e+002 
3918750000  -5.479815e+001  1.538478e+002 
3921875000  -5.403974e+001  1.505688e+002 
3925000000  -5.256968e+001  1.292837e+002 
3928125000  -5.364191e+001  1.055590e+002 
3931250000  -5.353290e+001  1.013916e+002 
3934375000  -5.367561e+001  9.272732e+001 
3937500000  -5.546089e+001  7.811452e+001 
3940625000  -5.662508e+001  7.871581e+001 
3943750000  -5.268287e+001  6.409336e+001 
3946875000  -5.366519e+001  5.142142e+001 
3950000000  -5.399126e+001  3.053017e+001 
3953125000  -5.495214e+001  3.084809e+001 
3956250000  -5.478373e+001  2.951016e+001 
3959375000  -5.184517e+001  1.362549e+001 
3962500000  -5.220071e+001  -4.106288e+000 
3965625000  -5.364330e+001  -1.537790e+001 
3968750000  -5.394596e+001  -3.117248e+001 
3971875000  -5.524806e+001  -3.525451e+001 
3975000000  -5.419385e+001  -5.450947e+001 
3978125000  -5.539738e+001  -5.769430e+001 
3981250000  -5.556725e+001  -7.648621e+001 
3984375000  -5.494577e+001  -9.178440e+001 
3987500000  -5.504816e+001  -9.949030e+001 
3990625000  -5.670515e+001  -9.347272e+001 
3993750000  -5.714234e+001  -1.092788e+002 
3996875000  -5.848083e+001  -1.317084e+002 
4000000000  -6.043070e+001  -1.287416e+002 
4003125000  -6.018976e+001  -1.219502e+002 
4006250000  -5.730836e+001  -1.465545e+002 
4009375000  -5.767509e+001  -1.476304e+002 
4012500000  -5.884374e+001  -1.595424e+002 
4015625000  -6.123496e+001  -1.652214e+002 
4018750000  -5.949043e+001  -1.589568e+002 
4021875000  -5.919298e+001  -1.639851e+002 
4025000000  -5.990615e+001  1.580785e+002 
4028125000  -5.967699e+001  1.667178e+002 
4031250000  -6.014524e+001  1.518379e+002 
4034375000  -5.864769e+001  1.715419e+002 
4037500000  -5.829307e+001  1.459751e+002 
4040625000  -5.896418e+001  1.533992e+002 
4043750000  -5.988222e+001  1.458264e+002 
4046875000  -5.736599e+001  1.274466e+002 
4050000000  -5.551862e+001  1.220215e+002 
4053125000  -5.755954e+001  1.018316e+002 
4056250000  -5.852785e+001  1.099883e+002 
4059375000  -5.652560e+001  1.102343e+002 
4062500000  -5.601268e+001  1.059463e+002 
4065625000  -5.451451e+001  8.126651e+001 
4068750000  -5.498041e+001  6.895248e+001 
4071875000  -5.246529e+001  5.747533e+001 
4075000000  -5.262998e+001  3.789267e+001 
4078125000  -5.329914e+001  3.940934e+001 
4081250000  -5.379670e+001  2.469052e+001 
4084375000  -5.201894e+001  7.931577e+000 
4087500000  -5.314820e+001  -6.814536e+000 
4090625000  -5.397889e+001  -2.389188e+000 
4093750000  -5.375614e+001  -2.385131e+001 
4096875000  -5.268112e+001  -3.145972e+001 
4100000000  -5.421968e+001  -5.318356e+001 
4103125000  -5.447383e+001  -4.715622e+001 
4106250000  -5.223154e+001  -6.048706e+001 
4109375000  -5.314129e+001  -6.580212e+001 
4112500000  -5.302255e+001  -8.454897e+001 
4115625000  -5.296195e+001  -9.636368e+001 
4118750000  -5.239623e+001  -1.037350e+002 
4121875000  -5.362183e+001  -1.169436e+002 
4125000000  -5.426070e+001  -1.223057e+002 
4128125000  -5.515908e+001  -1.344721e+002 
4131250000  -5.330646e+001  -1.364145e+002 
4134375000  -5.236453e+001  -1.468107e+002 
4137500000  -5.330698e+001  -1.708800e+002 
4140625000  -5.514619e+001  -1.781013e+002 
4143750000  -5.529050e+001  1.706724e+002 
4146875000  -5.401082e+001  1.679927e+002 
4150000000  -5.418702e+001  1.537402e+002 
4153125000  -5.339557e+001  1.452966e+002 
4156250000  -5.641455e+001  1.330684e+002 
4159375000  -5.598780e+001  1.219417e+002 
4162500000  -5.756054e+001  1.232300e+002 
4165625000  -5.480896e+001  1.068142e+002 
4168750000  -5.450904e+001  8.829483e+001 
4171875000  -5.499856e+001  6.694086e+001 
4175000000  -5.623474e+001  5.591351e+001 
4178125000  -5.595988e+001  6.634289e+001 
4181250000  -5.707022e+001  5.257170e+001 
4184375000  -5.960500e+001  3.039504e+001 
4187500000  -5.829997e+001  3.262062e+001 
4190625000  -5.935224e+001  1.812517e+001 
4193750000  -6.266719e+001  2.779860e+001 
4196875000  -6.217264e+001  -3.121220e+000 
4200000000  -6.673084e+001  1.784068e+001 
4203125000  -6.361100e+001  1.628382e+001 
4206250000  -5.737850e+001  2.614316e+001 
4209375000  -5.772465e+001  3.435374e-002 
4212500000  -6.512434e+001  7.474597e+000 
4215625000  -6.459402e+001  1.361852e+001 
4218750000  -6.044044e+001  -1.278721e+000 
4221875000  -6.278194e+001  -3.926788e+001 
4225000000  -6.215323e+001  -5.924438e+000 
4228125000  -5.934118e+001  -2.799937e+001 
4231250000  -5.741169e+001  -1.676026e+001 
4234375000  -5.606324e+001  -5.587717e+001 
4237500000  -5.782572e+001  -3.643567e+001 
4240625000  -5.686087e+001  -7.207129e+001 
4243750000  -5.640871e+001  -6.300628e+001 
4246875000  -5.678087e+001  -9.131566e+001 
4250000000  -5.883248e+001  -9.789258e+001 
4253125000  -5.556101e+001  -8.542426e+001 
4256250000  -5.709998e+001  -1.102479e+002 
4259375000  -5.603001e+001  -9.265973e+001 
4262500000  -5.641666e+001  -1.212790e+002 
4265625000  -5.374886e+001  -1.263528e+002 
4268750000  -5.158232e+001  -1.427696e+002 
4271875000  -5.156769e+001  -1.632666e+002 
4275000000  -5.017210e+001  1.796923e+002 
4278125000  -5.343812e+001  1.669312e+002 
4281250000  -5.378516e+001  1.556225e+002 
4284375000  -5.413867e+001  1.538706e+002 
4287500000  -5.436760e+001  1.491804e+002 
4290625000  -5.650741e+001  1.524908e+002 
4293750000  -5.393084e+001  1.375744e+002 
4296875000  -5.206334e+001  1.160509e+002 
4300000000  -5.339328e+001  1.026912e+002 
4303125000  -5.236747e+001  9.453157e+001 
4306250000  -5.280618e+001  9.653857e+001 
4309375000  -5.180770e+001  7.613352e+001 
4312500000  -5.214897e+001  6.544158e+001 
4315625000  -5.131396e+001  4.700236e+001 
4318750000  -5.359495e+001  3.692423e+001 
4321875000  -5.185884e+001  3.523804e+001 
4325000000  -5.278222e+001  2.226116e+001 
4328125000  -5.236546e+001  1.489729e+001 
4331250000  -5.264834e+001  -3.953817e+000 
4334375000  -5.383738e+001  -1.572409e+001 
4337500000  -5.432373e+001  -4.314926e+001 
4340625000  -5.481053e+001  -2.625672e+001 
4343750000  -5.540873e+001  -3.569352e+001 
4346875000  -5.534235e+001  -5.115861e+001 
4350000000  -5.610474e+001  -7.882429e+001 
4353125000  -5.542094e+001  -7.878725e+001 
4356250000  -5.838052e+001  -9.273676e+001 
4359375000  -5.826390e+001  -6.053558e+001 
4362500000  -5.382347e+001  -6.551396e+001 
4365625000  -5.538757e+001  -1.072816e+002 
4368750000  -5.605903e+001  -1.059081e+002 
4371875000  -5.774657e+001  -1.104987e+002 
4375000000  -5.645576e+001  -1.114502e+002 
4378125000  -5.560270e+001  -1.216455e+002 
4381250000  -5.624614e+001  -1.226356e+002 
4384375000  -5.692570e+001  -1.505466e+002 
4387500000  -5.668759e+001  -1.487734e+002 
4390625000  -5.858108e+001  -1.713972e+002 
4393750000  -5.974014e+001  -1.463281e+002 
4396875000  -5.654269e+001  -1.587807e+002 
4400000000  -5.733388e+001  -1.771470e+002 
4403125000  -5.545193e+001  1.791332e+002 
4406250000  -5.604750e+001  -1.713231e+002 
4409375000  -5.490919e+001  1.659194e+002 
4412500000  -5.742717e+001  1.503691e+002 
4415625000  -5.544743e+001  1.638379e+002 
4418750000  -5.357334e+001  1.572006e+002 
