!Agilent Technologies,E8363B,MY43030201,A.06.04.32
!Agilent E8363B: A.06.04.32
!Date: Tuesday, November 11, 2014 22:15:44
!Correction: S21(Response(S21)) 
!S1P File: Measurement: S21:
# Hz S  dB   R 50
3000000000  -4.889513e+001  -7.242535e+001 
3003125000  -5.122799e+001  -8.184566e+001 
3006250000  -5.156479e+001  -8.565543e+001 
3009375000  -5.155708e+001  -8.185907e+001 
3012500000  -5.077592e+001  -9.600687e+001 
3015625000  -5.110456e+001  -1.088176e+002 
3018750000  -5.172132e+001  -1.147249e+002 
3021875000  -4.948423e+001  -1.168213e+002 
3025000000  -4.850749e+001  -1.257164e+002 
3028125000  -4.805401e+001  -1.407515e+002 
3031250000  -4.668769e+001  -1.600542e+002 
3034375000  -4.695845e+001  -1.799399e+002 
3037500000  -4.764581e+001  1.661586e+002 
3040625000  -4.919648e+001  1.526674e+002 
3043750000  -4.936311e+001  1.450841e+002 
3046875000  -5.015568e+001  1.326376e+002 
3050000000  -5.190825e+001  1.241187e+002 
3053125000  -5.153235e+001  1.258038e+002 
3056250000  -5.139506e+001  1.257179e+002 
3059375000  -5.073946e+001  1.082766e+002 
3062500000  -4.935933e+001  1.028563e+002 
3065625000  -4.925429e+001  8.714979e+001 
3068750000  -4.859870e+001  7.604428e+001 
3071875000  -4.889982e+001  6.706781e+001 
3075000000  -4.858253e+001  5.564968e+001 
3078125000  -4.852880e+001  4.431239e+001 
3081250000  -4.855176e+001  3.392793e+001 
3084375000  -4.819152e+001  2.825957e+001 
3087500000  -4.805208e+001  1.512279e+001 
3090625000  -4.778454e+001  -5.855092e+000 
3093750000  -4.923382e+001  -1.544709e+001 
3096875000  -4.951476e+001  -2.414676e+001 
3100000000  -4.938231e+001  -3.291769e+001 
3103125000  -4.973035e+001  -3.794740e+001 
3106250000  -4.912190e+001  -4.526807e+001 
3109375000  -4.950948e+001  -5.772650e+001 
3112500000  -4.943917e+001  -6.843258e+001 
3115625000  -4.921247e+001  -7.668441e+001 
3118750000  -4.969831e+001  -8.550951e+001 
3121875000  -4.901323e+001  -9.626378e+001 
3125000000  -5.157132e+001  -1.043224e+002 
3128125000  -5.080758e+001  -1.059273e+002 
3131250000  -4.919645e+001  -1.193612e+002 
3134375000  -4.747615e+001  -1.383387e+002 
3137500000  -4.849610e+001  -1.530209e+002 
3140625000  -4.967946e+001  -1.597738e+002 
3143750000  -5.056599e+001  -1.699010e+002 
3146875000  -4.977347e+001  -1.702602e+002 
3150000000  -4.851875e+001  -1.798497e+002 
3153125000  -4.908043e+001  1.634311e+002 
3156250000  -5.037416e+001  1.641861e+002 
3159375000  -4.808619e+001  1.590333e+002 
3162500000  -4.691134e+001  1.380032e+002 
3165625000  -4.753585e+001  1.195022e+002 
3168750000  -4.753238e+001  1.157307e+002 
3171875000  -4.720749e+001  1.039846e+002 
3175000000  -4.755151e+001  8.807930e+001 
3178125000  -4.736573e+001  8.766454e+001 
3181250000  -4.658549e+001  6.979944e+001 
3184375000  -4.722978e+001  5.535830e+001 
3187500000  -4.769446e+001  3.344777e+001 
3190625000  -4.968230e+001  2.577790e+001 
3193750000  -4.969154e+001  2.118026e+001 
3196875000  -4.973529e+001  2.332982e+001 
3200000000  -4.829471e+001  1.057530e+001 
3203125000  -4.809502e+001  -8.334954e-001 
3206250000  -4.839831e+001  -1.019162e+001 
3209375000  -4.806048e+001  -2.950693e+001 
3212500000  -4.844741e+001  -3.684527e+001 
3215625000  -4.825498e+001  -4.261297e+001 
3218750000  -5.004900e+001  -5.972156e+001 
3221875000  -4.967989e+001  -7.177200e+001 
3225000000  -5.007165e+001  -8.340527e+001 
3228125000  -4.954186e+001  -9.204187e+001 
3231250000  -5.011374e+001  -1.010337e+002 
3234375000  -5.040989e+001  -1.084225e+002 
3237500000  -5.096521e+001  -1.160569e+002 
3240625000  -5.007117e+001  -1.261267e+002 
3243750000  -5.016434e+001  -1.433797e+002 
3246875000  -5.007458e+001  -1.523836e+002 
3250000000  -5.092257e+001  -1.653980e+002 
3253125000  -5.125704e+001  -1.694260e+002 
3256250000  -5.057675e+001  1.743092e+002 
3259375000  -5.047454e+001  1.580504e+002 
3262500000  -5.183476e+001  1.509227e+002 
3265625000  -5.380992e+001  1.477542e+002 
3268750000  -5.274799e+001  1.442927e+002 
3271875000  -5.215993e+001  1.381921e+002 
3275000000  -5.190699e+001  1.231241e+002 
3278125000  -5.220461e+001  1.110109e+002 
3281250000  -5.337217e+001  1.046518e+002 
3284375000  -5.261720e+001  9.125676e+001 
3287500000  -5.324261e+001  8.237646e+001 
3290625000  -5.364460e+001  7.181143e+001 
3293750000  -5.280685e+001  5.883223e+001 
3296875000  -5.344625e+001  5.613469e+001 
3300000000  -5.390693e+001  5.033743e+001 
3303125000  -5.260722e+001  4.160291e+001 
3306250000  -5.264664e+001  2.799104e+001 
3309375000  -5.272203e+001  2.016306e+001 
3312500000  -5.279955e+001  6.778324e-001 
3315625000  -5.466984e+001  -2.723408e+000 
3318750000  -5.547599e+001  -1.722394e+001 
3321875000  -5.687189e+001  -2.238486e+001 
3325000000  -5.614590e+001  -2.517216e+001 
3328125000  -5.596661e+001  -1.608022e+001 
3331250000  -5.480484e+001  -2.674837e+001 
3334375000  -5.248521e+001  -4.486895e+001 
3337500000  -5.186879e+001  -6.798957e+001 
3340625000  -5.418886e+001  -8.252974e+001 
3343750000  -5.578325e+001  -9.017934e+001 
3346875000  -5.501483e+001  -1.033070e+002 
3350000000  -5.439278e+001  -9.698026e+001 
3353125000  -5.459036e+001  -1.135093e+002 
3356250000  -5.483004e+001  -1.325857e+002 
3359375000  -5.596645e+001  -1.419471e+002 
3362500000  -5.596912e+001  -1.493365e+002 
3365625000  -5.609010e+001  -1.644918e+002 
3368750000  -5.792233e+001  -1.761376e+002 
3371875000  -5.709700e+001  -1.772464e+002 
3375000000  -5.844983e+001  1.766898e+002 
3378125000  -5.777501e+001  1.788323e+002 
3381250000  -6.065419e+001  1.771958e+002 
3384375000  -5.626958e+001  -1.792398e+002 
3387500000  -5.393233e+001  1.504209e+002 
3390625000  -5.621501e+001  1.306358e+002 
3393750000  -5.711155e+001  1.194031e+002 
3396875000  -5.704999e+001  1.218975e+002 
3400000000  -5.539853e+001  9.625097e+001 
3403125000  -5.678873e+001  8.563293e+001 
3406250000  -5.834223e+001  6.742722e+001 
3409375000  -5.851173e+001  6.388846e+001 
3412500000  -5.701744e+001  5.544538e+001 
3415625000  -5.943483e+001  5.409119e+001 
3418750000  -5.883000e+001  2.679655e+001 
3421875000  -5.897962e+001  3.331017e+001 
3425000000  -5.844589e+001  3.806289e+001 
3428125000  -5.909331e+001  7.432472e+000 
3431250000  -6.222196e+001  3.373671e+000 
3434375000  -6.112657e+001  -3.562561e+001 
3437500000  -6.055166e+001  -2.274290e+001 
3440625000  -5.873378e+001  -2.598036e+001 
3443750000  -5.982883e+001  -3.284092e+001 
3446875000  -5.946787e+001  -4.499472e+001 
3450000000  -6.321597e+001  -7.766417e+001 
3453125000  -6.424609e+001  -9.180898e+001 
3456250000  -6.543718e+001  -9.682317e+001 
3459375000  -6.835310e+001  -7.058224e+001 
3462500000  -6.713654e+001  -1.062633e+002 
3465625000  -6.365532e+001  -1.132486e+002 
3468750000  -6.743891e+001  -1.101920e+002 
3471875000  -6.303730e+001  -1.231436e+002 
3475000000  -6.616818e+001  -1.240938e+002 
3478125000  -7.267449e+001  -1.621073e+002 
3481250000  -6.875000e+001  -1.302205e+002 
3484375000  -6.526659e+001  -1.408235e+002 
3487500000  -6.372991e+001  -1.228675e+002 
3490625000  -6.565358e+001  -1.338077e+002 
3493750000  -6.659406e+001  -1.373662e+002 
3496875000  -6.676823e+001  -1.700869e+002 
3500000000  -6.639648e+001  1.770472e+002 
3503125000  -6.547881e+001  -1.428327e+002 
3506250000  -6.507117e+001  -1.630575e+002 
3509375000  -6.425157e+001  1.425634e+002 
3512500000  -6.747318e+001  1.517266e+002 
3515625000  -7.014780e+001  -1.512774e+002 
3518750000  -6.547153e+001  1.276818e+002 
3521875000  -7.363326e+001  1.351596e+002 
3525000000  -6.400809e+001  1.215709e+002 
3528125000  -7.339651e+001  1.372583e+002 
3531250000  -6.551770e+001  1.231426e+002 
3534375000  -6.806069e+001  8.619916e+001 
3537500000  -6.933698e+001  1.141772e+002 
3540625000  -6.770279e+001  6.981821e+001 
3543750000  -7.144901e+001  9.584434e+001 
3546875000  -7.111235e+001  7.794629e+001 
3550000000  -6.825043e+001  5.339098e+001 
3553125000  -6.926109e+001  8.064462e+000 
3556250000  -7.217747e+001  5.141217e+000 
3559375000  -6.886147e+001  8.916183e+000 
3562500000  -6.818345e+001  1.205501e+001 
3565625000  -8.676537e+001  2.831468e+001 
3568750000  -7.578535e+001  -1.255953e+002 
3571875000  -6.828055e+001  4.069297e+001 
3575000000  -7.777523e+001  -7.305458e+001 
3578125000  -6.818149e+001  3.866848e+001 
3581250000  -7.126387e+001  -9.254835e-001 
3584375000  -6.977115e+001  6.073348e+001 
3587500000  -8.019869e+001  9.138555e+001 
3590625000  -7.024516e+001  3.477165e+001 
3593750000  -6.842683e+001  -3.164334e+001 
3596875000  -6.438589e+001  2.147459e+001 
3600000000  -6.504502e+001  5.316384e+000 
3603125000  -6.723632e+001  3.008686e+000 
3606250000  -6.519105e+001  -5.050787e+001 
3609375000  -6.995334e+001  -3.743726e+001 
3612500000  -6.547422e+001  -6.874010e+001 
3615625000  -7.249767e+001  -6.501418e+001 
3618750000  -6.691496e+001  -1.000709e+002 
3621875000  -6.915664e+001  -5.712266e+001 
3625000000  -6.428371e+001  -7.170895e+001 
3628125000  -6.416876e+001  -1.206025e+002 
3631250000  -6.116182e+001  -1.269084e+002 
3634375000  -6.674287e+001  -1.154554e+002 
3637500000  -6.308308e+001  -1.240365e+002 
3640625000  -6.055110e+001  -1.366321e+002 
3643750000  -6.657834e+001  -1.392945e+002 
3646875000  -6.448861e+001  -1.689312e+002 
3650000000  -6.183822e+001  -1.772962e+002 
3653125000  -6.367950e+001  1.673569e+002 
3656250000  -7.274937e+001  1.564413e+002 
3659375000  -6.320963e+001  1.702279e+002 
3662500000  -6.413408e+001  1.558526e+002 
3665625000  -6.249488e+001  1.499510e+002 
3668750000  -6.210680e+001  1.271563e+002 
3671875000  -6.273649e+001  1.377031e+002 
3675000000  -6.445638e+001  9.675361e+001 
3678125000  -6.499012e+001  1.198278e+002 
3681250000  -6.268498e+001  9.401460e+001 
3684375000  -6.813406e+001  1.025791e+002 
3687500000  -6.582178e+001  7.050259e+001 
3690625000  -7.275891e+001  1.041476e+002 
3693750000  -6.771715e+001  1.077832e+002 
3696875000  -6.286088e+001  7.725194e+001 
3700000000  -6.267121e+001  8.774712e+001 
3703125000  -6.968780e+001  2.902462e+001 
3706250000  -6.646333e+001  7.628342e+001 
3709375000  -6.501798e+001  4.494284e+001 
3712500000  -6.294431e+001  4.914725e+001 
3715625000  -6.221531e+001  4.877945e+001 
3718750000  -5.997382e+001  4.637868e+001 
3721875000  -6.090015e+001  1.015854e+001 
3725000000  -6.096174e+001  1.221862e+001 
3728125000  -5.993234e+001  -1.067633e+001 
3731250000  -5.908265e+001  4.015299e+000 
3734375000  -5.815330e+001  -1.878520e+001 
3737500000  -6.060424e+001  -4.099180e+001 
3740625000  -6.127591e+001  -4.229858e+001 
3743750000  -5.877818e+001  -5.960238e+001 
3746875000  -5.875222e+001  -5.548609e+001 
3750000000  -5.859502e+001  -8.899745e+001 
3753125000  -5.930073e+001  -8.262975e+001 
3756250000  -5.738519e+001  -9.636415e+001 
3759375000  -5.973771e+001  -1.115195e+002 
3762500000  -5.737015e+001  -1.049487e+002 
3765625000  -5.894421e+001  -1.145377e+002 
3768750000  -5.798984e+001  -1.425581e+002 
3771875000  -5.712835e+001  -1.424543e+002 
3775000000  -5.717162e+001  -1.541245e+002 
3778125000  -5.806756e+001  1.766080e+002 
3781250000  -5.795022e+001  -1.740157e+002 
3784375000  -5.722479e+001  1.686948e+002 
3787500000  -5.781144e+001  1.588138e+002 
3790625000  -5.826553e+001  1.330666e+002 
3793750000  -5.848309e+001  1.438228e+002 
3796875000  -5.611671e+001  1.326848e+002 
3800000000  -5.394820e+001  8.466901e+001 
3803125000  -5.650449e+001  9.652514e+001 
3806250000  -5.999726e+001  7.982761e+001 
3809375000  -5.893380e+001  8.444075e+001 
3812500000  -5.711195e+001  6.510423e+001 
3815625000  -6.143906e+001  5.839921e+001 
3818750000  -6.034488e+001  4.196624e+001 
3821875000  -6.118184e+001  5.837256e+001 
3825000000  -6.084711e+001  2.828317e+001 
3828125000  -5.862489e+001  3.269608e+001 
3831250000  -6.017759e+001  6.747420e+000 
3834375000  -6.689163e+001  1.999651e+001 
3837500000  -6.510960e+001  2.873386e+001 
3840625000  -6.126096e+001  -4.945831e+000 
3843750000  -5.797653e+001  -3.735758e-002 
3846875000  -6.242095e+001  -1.603004e+001 
3850000000  -6.185419e+001  2.761352e+000 
3853125000  -5.988857e+001  -1.172440e+001 
3856250000  -6.045877e+001  4.265308e+000 
3859375000  -5.851522e+001  -3.347184e+001 
3862500000  -6.196526e+001  -4.349216e+001 
3865625000  -6.126015e+001  -5.434737e+001 
3868750000  -5.947121e+001  -4.015886e+001 
3871875000  -5.751424e+001  -5.561734e+001 
3875000000  -6.003573e+001  -6.755637e+001 
3878125000  -5.657227e+001  -7.485120e+001 
3881250000  -5.930549e+001  -8.900006e+001 
3884375000  -5.572010e+001  -8.941437e+001 
3887500000  -5.702766e+001  -1.154707e+002 
3890625000  -5.544732e+001  -1.197121e+002 
3893750000  -5.541424e+001  -1.289176e+002 
3896875000  -5.710951e+001  -1.408423e+002 
3900000000  -5.631739e+001  -1.329215e+002 
3903125000  -5.554618e+001  -1.474806e+002 
3906250000  -5.414516e+001  -1.730280e+002 
3909375000  -5.487076e+001  1.749941e+002 
3912500000  -5.410664e+001  1.623855e+002 
3915625000  -5.689437e+001  1.497528e+002 
3918750000  -5.463386e+001  1.555624e+002 
3921875000  -5.448848e+001  1.377990e+002 
3925000000  -5.295844e+001  1.290218e+002 
3928125000  -5.276729e+001  1.060107e+002 
3931250000  -5.378802e+001  1.025756e+002 
3934375000  -5.636015e+001  9.540079e+001 
3937500000  -5.405650e+001  8.538953e+001 
3940625000  -5.467641e+001  7.775175e+001 
3943750000  -5.621723e+001  7.013843e+001 
3946875000  -5.327291e+001  4.727335e+001 
3950000000  -5.429244e+001  4.588892e+001 
3953125000  -5.478259e+001  3.674675e+001 
3956250000  -5.350182e+001  2.828931e+001 
3959375000  -5.205759e+001  1.333344e+001 
3962500000  -5.202787e+001  -6.849164e+000 
3965625000  -5.250386e+001  -1.397934e+001 
3968750000  -5.392954e+001  -2.486440e+001 
3971875000  -5.551072e+001  -4.191590e+001 
3975000000  -5.400591e+001  -5.007181e+001 
3978125000  -5.355468e+001  -5.250900e+001 
3981250000  -5.528379e+001  -6.857118e+001 
3984375000  -5.615319e+001  -8.249588e+001 
3987500000  -5.762638e+001  -8.644570e+001 
3990625000  -5.683292e+001  -9.638385e+001 
3993750000  -5.703956e+001  -1.164993e+002 
3996875000  -5.762312e+001  -1.148617e+002 
4000000000  -5.944377e+001  -1.161231e+002 
4003125000  -5.798289e+001  -1.371201e+002 
4006250000  -5.626470e+001  -1.347305e+002 
4009375000  -5.737886e+001  -1.487383e+002 
4012500000  -5.888981e+001  -1.701608e+002 
4015625000  -6.196542e+001  -1.573799e+002 
4018750000  -5.985457e+001  -1.592250e+002 
4021875000  -5.935879e+001  -1.716820e+002 
4025000000  -5.993195e+001  1.672236e+002 
4028125000  -6.076766e+001  -1.722876e+002 
4031250000  -5.921596e+001  1.658750e+002 
4034375000  -5.839574e+001  1.678799e+002 
4037500000  -5.705807e+001  1.578400e+002 
4040625000  -5.752734e+001  1.617369e+002 
4043750000  -5.959285e+001  1.541327e+002 
4046875000  -5.695491e+001  1.392381e+002 
4050000000  -5.759454e+001  1.257331e+002 
4053125000  -5.901887e+001  1.122154e+002 
4056250000  -6.010341e+001  1.247262e+002 
4059375000  -5.563945e+001  1.195775e+002 
4062500000  -5.483298e+001  1.136191e+002 
4065625000  -5.339727e+001  8.887317e+001 
4068750000  -5.512034e+001  7.435791e+001 
4071875000  -5.325837e+001  6.131371e+001 
4075000000  -5.316340e+001  4.740723e+001 
4078125000  -5.331181e+001  4.280861e+001 
4081250000  -5.279461e+001  2.382667e+001 
4084375000  -5.260209e+001  8.979752e+000 
4087500000  -5.318921e+001  -4.307308e+000 
4090625000  -5.363247e+001  -6.645900e+000 
4093750000  -5.276574e+001  -1.969794e+001 
4096875000  -5.230735e+001  -3.076506e+001 
4100000000  -5.368843e+001  -4.488211e+001 
4103125000  -5.434515e+001  -5.225875e+001 
4106250000  -5.283732e+001  -5.210610e+001 
4109375000  -5.334492e+001  -5.293965e+001 
4112500000  -5.186675e+001  -7.983560e+001 
4115625000  -5.386029e+001  -8.399628e+001 
4118750000  -5.264285e+001  -1.012636e+002 
4121875000  -5.353504e+001  -1.238416e+002 
4125000000  -5.361332e+001  -1.246827e+002 
4128125000  -5.311511e+001  -1.327196e+002 
4131250000  -5.223065e+001  -1.255123e+002 
4134375000  -5.295186e+001  -1.518974e+002 
4137500000  -5.229919e+001  -1.617335e+002 
4140625000  -5.375248e+001  1.722489e+002 
4143750000  -5.467093e+001  1.719338e+002 
4146875000  -5.377879e+001  1.677725e+002 
4150000000  -5.495115e+001  1.614385e+002 
4153125000  -5.297538e+001  1.437043e+002 
4156250000  -5.580503e+001  1.349012e+002 
4159375000  -5.568699e+001  1.381516e+002 
4162500000  -5.595140e+001  1.143632e+002 
4165625000  -5.579939e+001  1.218922e+002 
4168750000  -5.393373e+001  9.171270e+001 
4171875000  -5.342710e+001  7.434308e+001 
4175000000  -5.611674e+001  6.197330e+001 
4178125000  -5.581309e+001  6.423976e+001 
4181250000  -5.663567e+001  4.803917e+001 
4184375000  -5.754486e+001  3.761796e+001 
4187500000  -5.978669e+001  3.551649e+001 
4190625000  -5.780462e+001  4.021507e+001 
4193750000  -5.937542e+001  2.522044e+001 
4196875000  -6.856890e+001  -9.803683e-001 
4200000000  -6.372425e+001  2.202999e+001 
4203125000  -6.492351e+001  2.548709e+001 
4206250000  -5.857549e+001  2.705496e+001 
4209375000  -6.277715e+001  -1.391024e+001 
4212500000  -6.835545e+001  -1.992023e+001 
4215625000  -6.908187e+001  2.316638e+001 
4218750000  -6.150841e+001  1.744834e+000 
4221875000  -6.017299e+001  3.221692e+000 
4225000000  -6.139948e+001  -9.902114e+000 
4228125000  -5.592439e+001  -4.003292e+001 
4231250000  -5.862938e+001  -1.140986e+001 
4234375000  -5.754995e+001  -3.760431e+001 
4237500000  -5.691116e+001  -5.991754e+001 
4240625000  -5.468112e+001  -6.257709e+001 
4243750000  -5.800294e+001  -7.216759e+001 
4246875000  -5.585408e+001  -6.747176e+001 
4250000000  -5.737082e+001  -9.408622e+001 
4253125000  -5.576400e+001  -8.000028e+001 
4256250000  -5.517453e+001  -9.382389e+001 
4259375000  -5.482901e+001  -9.958745e+001 
4262500000  -5.580180e+001  -1.224686e+002 
4265625000  -5.323883e+001  -1.180475e+002 
4268750000  -5.411187e+001  -1.453762e+002 
4271875000  -5.189483e+001  -1.528384e+002 
4275000000  -5.168263e+001  -1.788535e+002 
4278125000  -5.450803e+001  1.697192e+002 
4281250000  -5.288860e+001  1.637701e+002 
4284375000  -5.556456e+001  1.583808e+002 
4287500000  -5.436279e+001  1.540447e+002 
4290625000  -5.605401e+001  1.462781e+002 
4293750000  -5.468578e+001  1.467865e+002 
4296875000  -5.153098e+001  1.235821e+002 
4300000000  -5.346312e+001  1.060178e+002 
4303125000  -5.343609e+001  1.044186e+002 
4306250000  -5.164927e+001  9.687601e+001 
4309375000  -5.226962e+001  7.843045e+001 
4312500000  -5.138667e+001  7.168930e+001 
4315625000  -5.244046e+001  5.027156e+001 
4318750000  -5.352644e+001  4.008959e+001 
4321875000  -5.207117e+001  3.553452e+001 
4325000000  -5.311739e+001  2.169890e+001 
4328125000  -5.150589e+001  5.774888e+000 
4331250000  -5.333674e+001  -5.048876e+000 
4334375000  -5.408731e+001  -2.148327e+001 
4337500000  -5.599700e+001  -2.504394e+001 
4340625000  -5.504160e+001  -2.098910e+001 
4343750000  -5.457476e+001  -3.825269e+001 
4346875000  -5.643773e+001  -3.924232e+001 
4350000000  -5.583340e+001  -6.768768e+001 
4353125000  -5.707958e+001  -6.430038e+001 
4356250000  -5.678625e+001  -8.086356e+001 
4359375000  -5.841909e+001  -4.271848e+001 
4362500000  -5.647711e+001  -8.060234e+001 
4365625000  -5.358668e+001  -9.304278e+001 
4368750000  -5.419518e+001  -9.445955e+001 
4371875000  -5.556561e+001  -1.058983e+002 
4375000000  -5.598743e+001  -1.132121e+002 
4378125000  -5.710846e+001  -1.210198e+002 
4381250000  -5.835138e+001  -1.320955e+002 
4384375000  -5.660155e+001  -1.372374e+002 
4387500000  -5.847364e+001  -1.460116e+002 
4390625000  -5.710725e+001  -1.519699e+002 
4393750000  -5.934156e+001  -1.450216e+002 
4396875000  -5.578276e+001  -1.571871e+002 
4400000000  -5.720649e+001  -1.686027e+002 
4403125000  -5.543780e+001  1.728690e+002 
4406250000  -5.793386e+001  -1.792265e+002 
4409375000  -5.585132e+001  1.689654e+002 
4412500000  -5.785791e+001  1.580872e+002 
4415625000  -5.447419e+001  1.681411e+002 
4418750000  -5.529976e+001  1.523653e+002 
