!Agilent Technologies,E8363B,MY43030201,A.06.04.32
!Agilent E8363B: A.06.04.32
!Date: Tuesday, November 11, 2014 22:11:25
!Correction: S21(Response(S21)) 
!S1P File: Measurement: S21:
# Hz S  dB   R 50
3000000000  -4.884579e+001  -7.547054e+001 
3003125000  -5.175394e+001  -8.096880e+001 
3006250000  -5.187139e+001  -8.933469e+001 
3009375000  -5.278880e+001  -8.847397e+001 
3012500000  -5.129425e+001  -9.746268e+001 
3015625000  -5.131313e+001  -1.090780e+002 
3018750000  -5.174742e+001  -1.160960e+002 
3021875000  -4.985063e+001  -1.180531e+002 
3025000000  -4.860004e+001  -1.298505e+002 
3028125000  -4.808978e+001  -1.451822e+002 
3031250000  -4.724753e+001  -1.626161e+002 
3034375000  -4.706103e+001  1.770916e+002 
3037500000  -4.796241e+001  1.627532e+002 
3040625000  -4.922909e+001  1.518129e+002 
3043750000  -5.010362e+001  1.385250e+002 
3046875000  -5.064914e+001  1.291405e+002 
3050000000  -5.148266e+001  1.216856e+002 
3053125000  -5.207455e+001  1.185142e+002 
3056250000  -5.153453e+001  1.187633e+002 
3059375000  -5.109890e+001  1.083800e+002 
3062500000  -4.916756e+001  9.978756e+001 
3065625000  -4.937708e+001  8.396584e+001 
3068750000  -4.948536e+001  7.420641e+001 
3071875000  -4.949869e+001  6.782534e+001 
3075000000  -4.821935e+001  5.642919e+001 
3078125000  -4.837646e+001  4.372129e+001 
3081250000  -4.908956e+001  3.392760e+001 
3084375000  -4.818553e+001  2.520067e+001 
3087500000  -4.848611e+001  1.140710e+001 
3090625000  -4.800292e+001  -6.674212e+000 
3093750000  -4.908247e+001  -1.474088e+001 
3096875000  -4.926590e+001  -2.359494e+001 
3100000000  -4.919091e+001  -3.338701e+001 
3103125000  -4.966428e+001  -4.249029e+001 
3106250000  -4.955581e+001  -5.157115e+001 
3109375000  -4.973570e+001  -6.376500e+001 
3112500000  -4.937369e+001  -6.983642e+001 
3115625000  -4.896405e+001  -8.015885e+001 
3118750000  -4.929911e+001  -8.419579e+001 
3121875000  -4.914545e+001  -1.019473e+002 
3125000000  -5.112174e+001  -1.071713e+002 
3128125000  -5.044653e+001  -1.051201e+002 
3131250000  -4.865060e+001  -1.169165e+002 
3134375000  -4.720175e+001  -1.421320e+002 
3137500000  -4.888586e+001  -1.575788e+002 
3140625000  -5.028210e+001  -1.630367e+002 
3143750000  -5.029610e+001  -1.707739e+002 
3146875000  -4.964363e+001  -1.751363e+002 
3150000000  -4.937870e+001  1.756410e+002 
3153125000  -4.954688e+001  1.645117e+002 
3156250000  -4.959421e+001  1.640862e+002 
3159375000  -4.819703e+001  1.590406e+002 
3162500000  -4.607974e+001  1.331251e+002 
3165625000  -4.771866e+001  1.174614e+002 
3168750000  -4.731364e+001  1.139097e+002 
3171875000  -4.732141e+001  1.019421e+002 
3175000000  -4.764553e+001  8.455529e+001 
3178125000  -4.716011e+001  8.132726e+001 
3181250000  -4.618539e+001  6.416895e+001 
3184375000  -4.664930e+001  5.315817e+001 
3187500000  -4.767059e+001  3.537223e+001 
3190625000  -4.989096e+001  1.780403e+001 
3193750000  -4.969522e+001  1.962485e+001 
3196875000  -4.967611e+001  1.604826e+001 
3200000000  -4.829975e+001  6.691864e+000 
3203125000  -4.838861e+001  -6.500973e+000 
3206250000  -4.890007e+001  -1.870252e+001 
3209375000  -4.762807e+001  -3.368851e+001 
3212500000  -4.863570e+001  -4.432444e+001 
3215625000  -4.836996e+001  -4.694078e+001 
3218750000  -4.912887e+001  -6.591130e+001 
3221875000  -4.970167e+001  -7.568950e+001 
3225000000  -4.955387e+001  -8.473718e+001 
3228125000  -4.971402e+001  -9.377768e+001 
3231250000  -5.090204e+001  -1.045756e+002 
3234375000  -5.026729e+001  -1.104074e+002 
3237500000  -5.073735e+001  -1.195516e+002 
3240625000  -5.015744e+001  -1.317617e+002 
3243750000  -5.022494e+001  -1.474659e+002 
3246875000  -4.957270e+001  -1.566440e+002 
3250000000  -5.108448e+001  -1.641511e+002 
3253125000  -5.088776e+001  -1.723659e+002 
3256250000  -5.015090e+001  1.732833e+002 
3259375000  -5.103550e+001  1.536878e+002 
3262500000  -5.200940e+001  1.521078e+002 
3265625000  -5.300025e+001  1.469906e+002 
3268750000  -5.324546e+001  1.435564e+002 
3271875000  -5.227185e+001  1.361367e+002 
3275000000  -5.291468e+001  1.222505e+002 
3278125000  -5.215809e+001  1.092547e+002 
3281250000  -5.264101e+001  1.060182e+002 
3284375000  -5.201372e+001  9.360994e+001 
3287500000  -5.341905e+001  8.129288e+001 
3290625000  -5.348921e+001  7.541965e+001 
3293750000  -5.300997e+001  6.450713e+001 
3296875000  -5.370557e+001  5.555683e+001 
3300000000  -5.413882e+001  4.866706e+001 
3303125000  -5.366188e+001  3.813170e+001 
3306250000  -5.305385e+001  2.202794e+001 
3309375000  -5.295506e+001  1.664701e+001 
3312500000  -5.353227e+001  -3.821008e-001 
3315625000  -5.447519e+001  -6.395067e+000 
3318750000  -5.635774e+001  -2.329684e+001 
3321875000  -5.604709e+001  -1.658292e+001 
3325000000  -5.786313e+001  -2.150558e+001 
3328125000  -5.595597e+001  -2.167170e+001 
3331250000  -5.345168e+001  -2.756897e+001 
3334375000  -5.214935e+001  -4.598398e+001 
3337500000  -5.218031e+001  -7.300958e+001 
3340625000  -5.426767e+001  -9.150590e+001 
3343750000  -5.524947e+001  -8.835079e+001 
3346875000  -5.473036e+001  -1.032021e+002 
3350000000  -5.411382e+001  -9.905646e+001 
3353125000  -5.463313e+001  -1.213706e+002 
3356250000  -5.491780e+001  -1.367047e+002 
3359375000  -5.487415e+001  -1.515126e+002 
3362500000  -5.632421e+001  -1.595522e+002 
3365625000  -5.553565e+001  -1.650999e+002 
3368750000  -5.628476e+001  -1.786720e+002 
3371875000  -5.721523e+001  1.773809e+002 
3375000000  -5.852530e+001  1.662006e+002 
3378125000  -5.896093e+001  1.618686e+002 
3381250000  -6.001941e+001  1.743775e+002 
3384375000  -5.632219e+001  -1.663771e+002 
3387500000  -5.348806e+001  1.556387e+002 
3390625000  -5.763464e+001  1.169136e+002 
3393750000  -5.578984e+001  1.132970e+002 
3396875000  -5.642529e+001  1.108658e+002 
3400000000  -5.505482e+001  9.789185e+001 
3403125000  -5.802633e+001  8.987602e+001 
3406250000  -5.744540e+001  7.709583e+001 
3409375000  -5.770336e+001  5.670255e+001 
3412500000  -5.806526e+001  5.363943e+001 
3415625000  -5.955220e+001  4.202465e+001 
3418750000  -5.863290e+001  3.435368e+001 
3421875000  -5.917969e+001  2.745386e+001 
3425000000  -5.776122e+001  2.254057e+001 
3428125000  -5.829446e+001  4.158476e+000 
3431250000  -6.067617e+001  4.658096e+000 
3434375000  -6.062629e+001  -3.075141e+001 
3437500000  -6.109710e+001  -3.469669e+001 
3440625000  -6.115144e+001  -3.312035e+001 
3443750000  -6.396423e+001  -2.759958e+001 
3446875000  -5.971987e+001  -5.656578e+001 
3450000000  -6.220675e+001  -7.571928e+001 
3453125000  -6.244667e+001  -7.215767e+001 
3456250000  -6.659818e+001  -8.786234e+001 
3459375000  -6.609367e+001  -5.976485e+001 
3462500000  -7.006625e+001  -1.055848e+002 
3465625000  -6.685786e+001  -1.067403e+002 
3468750000  -7.060726e+001  -9.182735e+001 
3471875000  -6.654963e+001  -9.169312e+001 
3475000000  -6.621047e+001  -1.124309e+002 
3478125000  -6.945358e+001  -1.059706e+002 
3481250000  -6.967240e+001  -1.572287e+002 
3484375000  -6.949174e+001  -1.240959e+002 
3487500000  -6.787709e+001  -1.472224e+002 
3490625000  -6.581979e+001  -1.384569e+002 
3493750000  -6.598631e+001  -1.517338e+002 
3496875000  -6.796395e+001  -1.288564e+002 
3500000000  -7.135181e+001  -1.314985e+002 
3503125000  -6.803320e+001  -1.488688e+002 
3506250000  -6.726074e+001  1.781920e+002 
3509375000  -6.581204e+001  1.640097e+002 
3512500000  -6.631600e+001  1.219693e+002 
3515625000  -6.635075e+001  1.539857e+002 
3518750000  -6.459141e+001  1.436591e+002 
3521875000  -6.480952e+001  1.199885e+002 
3525000000  -7.339663e+001  8.434427e+001 
3528125000  -6.813809e+001  1.221119e+002 
3531250000  -6.523917e+001  1.373840e+002 
3534375000  -6.788909e+001  8.605155e+001 
3537500000  -6.988857e+001  1.121914e+002 
3540625000  -6.629716e+001  3.359642e+001 
3543750000  -6.936886e+001  1.143715e+002 
3546875000  -7.255257e+001  3.035358e+001 
3550000000  -6.589644e+001  9.305222e+001 
3553125000  -7.100242e+001  5.118233e+001 
3556250000  -7.702560e+001  1.074354e+002 
3559375000  -6.713279e+001  2.746432e+001 
3562500000  -7.304342e+001  1.999667e+001 
3565625000  -7.445053e+001  -3.117371e+001 
3568750000  -7.256854e+001  6.826514e+001 
3571875000  -6.779157e+001  2.587887e+001 
3575000000  -7.844852e+001  5.178133e+001 
3578125000  -7.585658e+001  6.378229e+001 
3581250000  -7.711315e+001  7.129626e+001 
3584375000  -8.214960e+001  1.071445e+001 
3587500000  -6.811307e+001  1.950133e+001 
3590625000  -6.794163e+001  3.759174e+001 
3593750000  -6.710423e+001  4.635468e+000 
3596875000  -6.867323e+001  1.785560e+001 
3600000000  -6.420551e+001  8.367646e+000 
3603125000  -6.791772e+001  -3.819678e+000 
3606250000  -6.315564e+001  -1.903831e+001 
3609375000  -7.179760e+001  -3.863168e+001 
3612500000  -6.268215e+001  -6.127191e+001 
3615625000  -6.615368e+001  -4.992681e+001 
3618750000  -6.612391e+001  -3.891928e+001 
3621875000  -6.623005e+001  -8.430899e+001 
3625000000  -6.071392e+001  -8.399641e+001 
3628125000  -6.315219e+001  -1.178797e+002 
3631250000  -6.467245e+001  -1.095847e+002 
3634375000  -7.019913e+001  -1.528071e+002 
3637500000  -6.402140e+001  -9.536630e+001 
3640625000  -6.253060e+001  -1.387191e+002 
3643750000  -6.206295e+001  -1.581754e+002 
3646875000  -6.056506e+001  -1.727820e+002 
3650000000  -6.309578e+001  1.761424e+002 
3653125000  -6.006997e+001  1.726925e+002 
3656250000  -6.348976e+001  1.595457e+002 
3659375000  -6.368147e+001  1.494563e+002 
3662500000  -6.623728e+001  1.734062e+002 
3665625000  -6.392743e+001  1.444789e+002 
3668750000  -6.073476e+001  1.040032e+002 
3671875000  -6.214045e+001  1.399873e+002 
3675000000  -6.301558e+001  9.977817e+001 
3678125000  -6.289539e+001  1.141287e+002 
3681250000  -6.207273e+001  9.996817e+001 
3684375000  -6.610283e+001  1.208414e+002 
3687500000  -6.687103e+001  8.312907e+001 
3690625000  -6.845049e+001  7.242729e+001 
3693750000  -6.390648e+001  9.303848e+001 
3696875000  -6.829985e+001  9.096281e+001 
3700000000  -6.551023e+001  8.123839e+001 
3703125000  -6.864605e+001  5.210161e+001 
3706250000  -7.194022e+001  6.610334e+001 
3709375000  -6.611815e+001  6.115070e+001 
3712500000  -6.639594e+001  5.688415e+001 
3715625000  -6.363960e+001  4.146888e+001 
3718750000  -6.398384e+001  3.755866e+001 
3721875000  -6.004661e+001  1.509173e+001 
3725000000  -6.204839e+001  -1.796119e+000 
3728125000  -6.116582e+001  2.872988e+000 
3731250000  -6.152993e+001  -2.986001e+001 
3734375000  -5.988278e+001  -1.014802e+001 
3737500000  -5.826014e+001  -4.247153e+001 
3740625000  -5.797743e+001  -4.500434e+001 
3743750000  -5.756598e+001  -5.613741e+001 
3746875000  -5.831192e+001  -6.695013e+001 
3750000000  -5.786878e+001  -8.921447e+001 
3753125000  -5.786902e+001  -7.199408e+001 
3756250000  -5.820056e+001  -1.073837e+002 
3759375000  -5.759575e+001  -1.056248e+002 
3762500000  -5.670152e+001  -1.206930e+002 
3765625000  -6.084229e+001  -1.124160e+002 
3768750000  -5.697879e+001  -1.384411e+002 
3771875000  -5.653638e+001  -1.472454e+002 
3775000000  -5.575468e+001  -1.506453e+002 
3778125000  -5.665147e+001  1.738836e+002 
3781250000  -5.800003e+001  1.731995e+002 
3784375000  -5.786432e+001  1.748245e+002 
3787500000  -5.760297e+001  1.486188e+002 
3790625000  -5.739514e+001  1.328698e+002 
3793750000  -5.839223e+001  1.316601e+002 
3796875000  -5.779767e+001  1.181319e+002 
3800000000  -5.280186e+001  7.808767e+001 
3803125000  -5.713650e+001  8.375103e+001 
3806250000  -6.112671e+001  8.843364e+001 
3809375000  -5.808729e+001  8.820028e+001 
3812500000  -5.675216e+001  7.121932e+001 
3815625000  -6.487050e+001  4.393419e+001 
3818750000  -6.212089e+001  2.116390e+001 
3821875000  -6.273130e+001  5.279940e+001 
3825000000  -5.853495e+001  5.478317e+001 
3828125000  -5.776272e+001  -2.996282e+000 
3831250000  -6.056321e+001  1.205300e+001 
3834375000  -6.195876e+001  -3.058970e+000 
3837500000  -6.506996e+001  -5.507801e+000 
3840625000  -6.357847e+001  -9.477599e+000 
3843750000  -6.296198e+001  -1.423450e+001 
3846875000  -6.271593e+001  -1.788623e+001 
3850000000  -6.285107e+001  -1.309002e+001 
3853125000  -6.496359e+001  -6.374964e+001 
3856250000  -6.079287e+001  -1.228121e+001 
3859375000  -6.208546e+001  -3.969413e+001 
3862500000  -6.136547e+001  -3.678675e+001 
3865625000  -6.556993e+001  -4.965973e+001 
3868750000  -5.878655e+001  -4.505708e+001 
3871875000  -5.579479e+001  -6.644498e+001 
3875000000  -5.986887e+001  -6.301155e+001 
3878125000  -5.848772e+001  -8.678333e+001 
3881250000  -5.934844e+001  -8.906962e+001 
3884375000  -5.691679e+001  -1.018545e+002 
3887500000  -5.643031e+001  -1.159005e+002 
3890625000  -5.531620e+001  -1.152931e+002 
3893750000  -5.586005e+001  -1.317156e+002 
3896875000  -5.699978e+001  -1.374696e+002 
3900000000  -5.659035e+001  -1.452281e+002 
3903125000  -5.507309e+001  -1.707903e+002 
3906250000  -5.468061e+001  -1.596439e+002 
3909375000  -5.432752e+001  1.673553e+002 
3912500000  -5.384624e+001  1.656100e+002 
3915625000  -5.581175e+001  1.548314e+002 
3918750000  -5.436073e+001  1.559334e+002 
3921875000  -5.598293e+001  1.448972e+002 
3925000000  -5.344326e+001  1.269140e+002 
3928125000  -5.259693e+001  1.042183e+002 
3931250000  -5.345651e+001  1.048306e+002 
3934375000  -5.342258e+001  8.337885e+001 
3937500000  -5.617862e+001  7.810881e+001 
3940625000  -5.401638e+001  7.585951e+001 
3943750000  -5.337255e+001  5.993376e+001 
3946875000  -5.351345e+001  4.346872e+001 
3950000000  -5.561511e+001  3.719481e+001 
3953125000  -5.377490e+001  3.320666e+001 
3956250000  -5.316334e+001  1.655906e+001 
3959375000  -5.344918e+001  1.583594e+001 
3962500000  -5.201336e+001  -4.059665e+000 
3965625000  -5.328704e+001  -1.435349e+001 
3968750000  -5.425521e+001  -2.971968e+001 
3971875000  -5.373147e+001  -4.255360e+001 
3975000000  -5.266247e+001  -5.542936e+001 
3978125000  -5.546498e+001  -5.987412e+001 
3981250000  -5.446474e+001  -7.622909e+001 
3984375000  -5.741192e+001  -8.641202e+001 
3987500000  -5.462013e+001  -9.157035e+001 
3990625000  -5.634438e+001  -9.784008e+001 
3993750000  -5.687052e+001  -1.160594e+002 
3996875000  -5.580952e+001  -1.176496e+002 
4000000000  -6.000117e+001  -1.243238e+002 
4003125000  -5.691107e+001  -1.208476e+002 
4006250000  -5.894855e+001  -1.342003e+002 
4009375000  -5.728292e+001  -1.479413e+002 
4012500000  -6.216219e+001  -1.521407e+002 
4015625000  -6.317574e+001  -1.593031e+002 
4018750000  -6.078682e+001  1.763627e+002 
4021875000  -5.994729e+001  1.734085e+002 
4025000000  -5.967088e+001  1.745201e+002 
4028125000  -6.007973e+001  1.632574e+002 
4031250000  -5.907904e+001  1.718223e+002 
4034375000  -6.090345e+001  1.626312e+002 
4037500000  -5.684840e+001  1.476220e+002 
4040625000  -6.049891e+001  1.584566e+002 
4043750000  -5.949736e+001  1.490973e+002 
4046875000  -5.970708e+001  1.393305e+002 
4050000000  -5.809649e+001  1.292472e+002 
4053125000  -6.003294e+001  1.182477e+002 
4056250000  -5.817350e+001  1.203880e+002 
4059375000  -5.630394e+001  1.140233e+002 
4062500000  -5.552833e+001  1.114893e+002 
4065625000  -5.381595e+001  8.836584e+001 
4068750000  -5.464198e+001  7.570155e+001 
4071875000  -5.397956e+001  5.773501e+001 
4075000000  -5.342304e+001  5.218301e+001 
4078125000  -5.318980e+001  4.481869e+001 
4081250000  -5.336735e+001  3.405243e+001 
4084375000  -5.257534e+001  5.987182e+000 
4087500000  -5.416715e+001  -6.529885e+000 
4090625000  -5.332195e+001  -9.006209e-001 
4093750000  -5.386902e+001  -1.423480e+001 
4096875000  -5.392003e+001  -2.959667e+001 
4100000000  -5.274941e+001  -4.910312e+001 
4103125000  -5.559491e+001  -5.514767e+001 
4106250000  -5.425743e+001  -6.221529e+001 
4109375000  -5.406060e+001  -5.396854e+001 
4112500000  -5.175355e+001  -8.087151e+001 
4115625000  -5.370977e+001  -9.001054e+001 
4118750000  -5.302435e+001  -1.029598e+002 
4121875000  -5.243045e+001  -1.156101e+002 
4125000000  -5.322918e+001  -1.262848e+002 
4128125000  -5.459898e+001  -1.305732e+002 
4131250000  -5.381007e+001  -1.347852e+002 
4134375000  -5.134707e+001  -1.433280e+002 
4137500000  -5.186292e+001  -1.775883e+002 
4140625000  -5.369036e+001  1.720642e+002 
4143750000  -5.486136e+001  1.742377e+002 
4146875000  -5.348343e+001  1.735508e+002 
4150000000  -5.600457e+001  1.513231e+002 
4153125000  -5.396002e+001  1.406926e+002 
4156250000  -5.718829e+001  1.241850e+002 
4159375000  -5.524173e+001  1.294685e+002 
4162500000  -5.816400e+001  1.142091e+002 
4165625000  -5.465349e+001  1.154221e+002 
4168750000  -5.471110e+001  8.594006e+001 
4171875000  -5.566061e+001  8.621493e+001 
4175000000  -5.576471e+001  6.399433e+001 
4178125000  -5.727818e+001  6.494488e+001 
4181250000  -5.778715e+001  4.721026e+001 
4184375000  -5.792886e+001  2.890558e+001 
4187500000  -5.969110e+001  2.415563e+001 
4190625000  -6.065173e+001  2.775207e+001 
4193750000  -6.218035e+001  6.301251e+000 
4196875000  -6.032065e+001  5.028035e+000 
4200000000  -6.657483e+001  2.058305e+001 
4203125000  -6.287212e+001  2.266704e+001 
4206250000  -5.905944e+001  2.966891e+001 
4209375000  -6.229918e+001  1.905048e+001 
4212500000  -6.195179e+001  1.696049e+000 
4215625000  -6.229088e+001  -2.356155e+001 
4218750000  -6.367580e+001  -5.809558e+000 
4221875000  -5.580312e+001  -8.161721e+000 
4225000000  -6.261870e+001  -2.333459e+001 
4228125000  -6.093636e+001  -2.279282e+001 
4231250000  -5.720259e+001  -3.396994e+001 
4234375000  -5.740032e+001  -3.691821e+001 
4237500000  -5.797078e+001  -3.226442e+001 
4240625000  -5.576114e+001  -7.414195e+001 
4243750000  -5.515382e+001  -6.851381e+001 
4246875000  -5.719923e+001  -7.103325e+001 
4250000000  -5.864122e+001  -9.334355e+001 
4253125000  -5.332805e+001  -8.196279e+001 
4256250000  -5.564197e+001  -1.039222e+002 
4259375000  -5.421817e+001  -1.056088e+002 
4262500000  -5.561868e+001  -1.264681e+002 
4265625000  -5.347839e+001  -1.257620e+002 
4268750000  -5.292659e+001  -1.439509e+002 
4271875000  -5.174846e+001  -1.611659e+002 
4275000000  -5.219129e+001  -1.769659e+002 
4278125000  -5.352198e+001  1.645103e+002 
4281250000  -5.418445e+001  1.594097e+002 
4284375000  -5.377190e+001  1.544785e+002 
4287500000  -5.428691e+001  1.508500e+002 
4290625000  -5.573447e+001  1.367491e+002 
4293750000  -5.172858e+001  1.345058e+002 
4296875000  -5.113483e+001  1.152845e+002 
4300000000  -5.172511e+001  9.919718e+001 
4303125000  -5.262440e+001  1.024310e+002 
4306250000  -5.274913e+001  1.002685e+002 
4309375000  -5.197049e+001  7.725724e+001 
4312500000  -5.277362e+001  6.346567e+001 
4315625000  -5.204372e+001  5.662107e+001 
4318750000  -5.397213e+001  4.483062e+001 
4321875000  -5.302113e+001  3.909650e+001 
4325000000  -5.430504e+001  2.174600e+001 
4328125000  -5.290041e+001  5.730134e+000 
4331250000  -5.367962e+001  -9.182821e+000 
4334375000  -5.486984e+001  -2.107039e+001 
4337500000  -5.556335e+001  -4.463905e+001 
4340625000  -5.608514e+001  -2.309924e+001 
4343750000  -5.667108e+001  -3.259509e+001 
4346875000  -5.543288e+001  -4.999938e+001 
4350000000  -5.733474e+001  -6.698425e+001 
4353125000  -5.821465e+001  -7.730426e+001 
4356250000  -5.751450e+001  -6.633612e+001 
4359375000  -5.927914e+001  -3.450098e+001 
4362500000  -5.648620e+001  -8.676600e+001 
4365625000  -5.306872e+001  -9.426076e+001 
4368750000  -5.447268e+001  -9.339996e+001 
4371875000  -5.700662e+001  -1.102318e+002 
4375000000  -5.559801e+001  -1.138799e+002 
4378125000  -5.611736e+001  -1.159355e+002 
4381250000  -5.612887e+001  -1.342079e+002 
4384375000  -5.562926e+001  -1.413947e+002 
4387500000  -5.593036e+001  -1.395981e+002 
4390625000  -5.672607e+001  -1.531747e+002 
4393750000  -5.951161e+001  -1.514103e+002 
4396875000  -5.641106e+001  -1.512063e+002 
4400000000  -5.614153e+001  -1.751963e+002 
4403125000  -5.595724e+001  1.701639e+002 
4406250000  -5.605218e+001  1.724411e+002 
4409375000  -5.607246e+001  1.609357e+002 
4412500000  -5.728286e+001  1.605603e+002 
4415625000  -5.602312e+001  1.672991e+002 
4418750000  -5.487905e+001  1.521085e+002 
