!Agilent Technologies,E8363B,MY43030201,A.06.04.32
!Agilent E8363B: A.06.04.32
!Date: Tuesday, November 11, 2014 22:09:29
!Correction: S21(Response(S21)) 
!S1P File: Measurement: S21:
# Hz S  dB   R 50
3000000000  -4.875566e+001  -7.696526e+001 
3003125000  -5.211116e+001  -8.073473e+001 
3006250000  -5.210509e+001  -9.190664e+001 
3009375000  -5.229860e+001  -8.768961e+001 
3012500000  -5.177427e+001  -9.767619e+001 
3015625000  -5.134501e+001  -1.100964e+002 
3018750000  -5.202073e+001  -1.159342e+002 
3021875000  -4.977844e+001  -1.209459e+002 
3025000000  -4.830728e+001  -1.304569e+002 
3028125000  -4.802124e+001  -1.483022e+002 
3031250000  -4.738030e+001  -1.613603e+002 
3034375000  -4.711068e+001  1.775976e+002 
3037500000  -4.771563e+001  1.642863e+002 
3040625000  -4.948794e+001  1.527182e+002 
3043750000  -4.960872e+001  1.380300e+002 
3046875000  -4.999340e+001  1.271342e+002 
3050000000  -5.161368e+001  1.210705e+002 
3053125000  -5.117113e+001  1.178324e+002 
3056250000  -5.172437e+001  1.208676e+002 
3059375000  -5.064190e+001  1.078767e+002 
3062500000  -4.929269e+001  1.013560e+002 
3065625000  -4.912841e+001  8.525845e+001 
3068750000  -4.938539e+001  7.593571e+001 
3071875000  -4.918726e+001  6.417912e+001 
3075000000  -4.879065e+001  5.256129e+001 
3078125000  -4.872721e+001  4.563776e+001 
3081250000  -4.890479e+001  3.182923e+001 
3084375000  -4.825915e+001  2.441123e+001 
3087500000  -4.812102e+001  1.209015e+001 
3090625000  -4.810665e+001  -6.560727e+000 
3093750000  -4.915753e+001  -1.879949e+001 
3096875000  -4.911996e+001  -2.503617e+001 
3100000000  -4.953829e+001  -3.595528e+001 
3103125000  -4.978608e+001  -4.190213e+001 
3106250000  -4.937519e+001  -5.007444e+001 
3109375000  -4.942697e+001  -6.175269e+001 
3112500000  -4.938203e+001  -7.106602e+001 
3115625000  -4.947840e+001  -7.908354e+001 
3118750000  -4.961806e+001  -8.487952e+001 
3121875000  -4.933632e+001  -1.035298e+002 
3125000000  -5.098935e+001  -1.127923e+002 
3128125000  -5.046083e+001  -1.109576e+002 
3131250000  -4.815545e+001  -1.173988e+002 
3134375000  -4.762357e+001  -1.421377e+002 
3137500000  -4.866478e+001  -1.595338e+002 
3140625000  -4.932508e+001  -1.643039e+002 
3143750000  -5.031496e+001  -1.733999e+002 
3146875000  -5.024261e+001  -1.759437e+002 
3150000000  -4.884909e+001  1.761190e+002 
3153125000  -4.936919e+001  1.625234e+002 
3156250000  -5.033191e+001  1.619901e+002 
3159375000  -4.759869e+001  1.581293e+002 
3162500000  -4.657255e+001  1.337102e+002 
3165625000  -4.721757e+001  1.212557e+002 
3168750000  -4.749648e+001  1.126558e+002 
3171875000  -4.702943e+001  9.898018e+001 
3175000000  -4.730830e+001  8.422033e+001 
3178125000  -4.735140e+001  8.048225e+001 
3181250000  -4.688445e+001  6.709709e+001 
3184375000  -4.695742e+001  5.114962e+001 
3187500000  -4.715223e+001  3.544916e+001 
3190625000  -4.918374e+001  2.065121e+001 
3193750000  -4.978205e+001  2.252828e+001 
3196875000  -4.972631e+001  1.732179e+001 
3200000000  -4.845479e+001  6.807582e+000 
3203125000  -4.852759e+001  -6.028429e+000 
3206250000  -4.882250e+001  -1.757129e+001 
3209375000  -4.791554e+001  -3.186594e+001 
3212500000  -4.900945e+001  -4.308779e+001 
3215625000  -4.823386e+001  -4.799765e+001 
3218750000  -4.874653e+001  -6.801022e+001 
3221875000  -4.944693e+001  -8.013235e+001 
3225000000  -4.941506e+001  -9.051556e+001 
3228125000  -5.113430e+001  -9.695086e+001 
3231250000  -5.109072e+001  -1.006899e+002 
3234375000  -4.995753e+001  -1.100107e+002 
3237500000  -5.020430e+001  -1.231869e+002 
3240625000  -5.011240e+001  -1.340153e+002 
3243750000  -5.036081e+001  -1.482422e+002 
3246875000  -5.008989e+001  -1.557428e+002 
3250000000  -5.096478e+001  -1.668205e+002 
3253125000  -5.181330e+001  -1.729014e+002 
3256250000  -5.075301e+001  1.675913e+002 
3259375000  -5.090043e+001  1.580767e+002 
3262500000  -5.278860e+001  1.494852e+002 
3265625000  -5.327742e+001  1.445370e+002 
3268750000  -5.285425e+001  1.433994e+002 
3271875000  -5.247679e+001  1.320987e+002 
3275000000  -5.240803e+001  1.204076e+002 
3278125000  -5.251665e+001  1.023057e+002 
3281250000  -5.302847e+001  1.073512e+002 
3284375000  -5.174019e+001  9.170255e+001 
3287500000  -5.355345e+001  8.985764e+001 
3290625000  -5.285855e+001  6.784862e+001 
3293750000  -5.330733e+001  5.654778e+001 
3296875000  -5.352402e+001  4.632745e+001 
3300000000  -5.393006e+001  5.299301e+001 
3303125000  -5.273495e+001  3.485637e+001 
3306250000  -5.368593e+001  2.193263e+001 
3309375000  -5.291050e+001  1.525644e+001 
3312500000  -5.296542e+001  -3.351710e+000 
3315625000  -5.355349e+001  -1.083496e+001 
3318750000  -5.611410e+001  -3.413731e+001 
3321875000  -5.720013e+001  -2.294312e+001 
3325000000  -5.578815e+001  -1.734555e+001 
3328125000  -5.696671e+001  -1.999010e+001 
3331250000  -5.297266e+001  -2.404427e+001 
3334375000  -5.303420e+001  -5.502822e+001 
3337500000  -5.328745e+001  -7.105815e+001 
3340625000  -5.341088e+001  -8.938602e+001 
3343750000  -5.602301e+001  -9.034572e+001 
3346875000  -5.552326e+001  -1.008802e+002 
3350000000  -5.505596e+001  -1.023456e+002 
3353125000  -5.467960e+001  -1.218795e+002 
3356250000  -5.437128e+001  -1.339598e+002 
3359375000  -5.366819e+001  -1.469565e+002 
3362500000  -5.559906e+001  -1.574219e+002 
3365625000  -5.525028e+001  -1.622790e+002 
3368750000  -5.698696e+001  -1.701649e+002 
3371875000  -5.748528e+001  1.780446e+002 
3375000000  -5.772448e+001  1.635787e+002 
3378125000  -5.900669e+001  1.537680e+002 
3381250000  -6.146113e+001  1.657826e+002 
3384375000  -5.737672e+001  1.790480e+002 
3387500000  -5.485950e+001  1.473058e+002 
3390625000  -5.549568e+001  1.324155e+002 
3393750000  -5.748233e+001  1.149337e+002 
3396875000  -5.933134e+001  1.166798e+002 
3400000000  -5.518744e+001  9.515106e+001 
3403125000  -5.665467e+001  8.084985e+001 
3406250000  -5.877530e+001  7.867505e+001 
3409375000  -5.695018e+001  5.684767e+001 
3412500000  -5.766204e+001  5.945918e+001 
3415625000  -5.957541e+001  3.920608e+001 
3418750000  -6.070914e+001  4.822166e+001 
3421875000  -6.090324e+001  1.619616e+001 
3425000000  -5.963457e+001  3.479007e+001 
3428125000  -5.838051e+001  1.040180e+001 
3431250000  -5.985688e+001  -8.825487e+000 
3434375000  -5.999890e+001  -3.211520e+001 
3437500000  -6.116056e+001  -4.248796e+001 
3440625000  -6.039011e+001  -2.259777e+001 
3443750000  -6.302147e+001  -2.672859e+001 
3446875000  -6.093282e+001  -5.600925e+001 
3450000000  -6.050380e+001  -6.927781e+001 
3453125000  -6.191867e+001  -8.121078e+001 
3456250000  -7.127901e+001  -8.286693e+001 
3459375000  -6.970772e+001  -9.056016e+001 
3462500000  -6.568835e+001  -1.155490e+002 
3465625000  -7.152522e+001  -1.431747e+002 
3468750000  -6.745300e+001  -9.574686e+001 
3471875000  -6.353187e+001  -1.163707e+002 
3475000000  -6.892461e+001  -1.530940e+002 
3478125000  -7.283486e+001  -1.508866e+002 
3481250000  -6.825137e+001  -1.212288e+002 
3484375000  -6.546709e+001  -1.264758e+002 
3487500000  -6.691403e+001  -1.433877e+002 
3490625000  -6.896577e+001  -1.371912e+002 
3493750000  -7.084225e+001  1.656470e+002 
3496875000  -6.807536e+001  1.573073e+002 
3500000000  -6.482622e+001  -1.744848e+002 
3503125000  -6.580319e+001  -1.581057e+002 
3506250000  -6.657072e+001  -1.523475e+002 
3509375000  -6.391410e+001  1.648682e+002 
3512500000  -7.145976e+001  1.158544e+002 
3515625000  -6.997327e+001  1.295697e+002 
3518750000  -6.527937e+001  1.437534e+002 
3521875000  -7.329047e+001  1.183919e+002 
3525000000  -6.452018e+001  1.094751e+002 
3528125000  -6.607848e+001  1.438840e+002 
3531250000  -6.968310e+001  1.407103e+002 
3534375000  -6.869709e+001  8.890910e+001 
3537500000  -6.864980e+001  6.888210e+001 
3540625000  -7.116161e+001  6.293045e+001 
3543750000  -9.121705e+001  3.520356e+001 
3546875000  -6.708234e+001  3.492222e+001 
3550000000  -7.300422e+001  5.080966e+001 
3553125000  -7.688815e+001  7.860964e+001 
3556250000  -7.789932e+001  4.965588e+001 
3559375000  -6.814902e+001  2.018217e+001 
3562500000  -7.633196e+001  2.597372e+001 
3565625000  -7.015088e+001  4.762444e+001 
3568750000  -8.204753e+001  3.630515e+001 
3571875000  -7.172665e+001  -2.318750e+001 
3575000000  -8.121977e+001  1.427918e+001 
3578125000  -6.690031e+001  5.669395e+001 
3581250000  -7.061266e+001  2.336276e+001 
3584375000  -6.999081e+001  2.587957e+001 
3587500000  -7.389322e+001  -3.382909e+001 
3590625000  -6.670753e+001  1.525848e+001 
3593750000  -7.088717e+001  8.947389e+000 
3596875000  -6.597736e+001  2.510261e+001 
3600000000  -6.344026e+001  1.715628e+001 
3603125000  -6.570750e+001  -1.069300e+001 
3606250000  -6.067326e+001  -3.909268e+001 
3609375000  -6.651256e+001  -5.132407e+001 
3612500000  -6.552759e+001  -6.915736e+001 
3615625000  -6.737363e+001  -9.088173e+001 
3618750000  -6.395980e+001  -6.574596e+001 
3621875000  -6.512993e+001  -7.036568e+001 
3625000000  -6.380089e+001  -8.229120e+001 
3628125000  -6.227771e+001  -1.235995e+002 
3631250000  -6.427104e+001  -1.053419e+002 
3634375000  -7.170435e+001  -1.298547e+002 
3637500000  -6.729095e+001  -1.170400e+002 
3640625000  -6.212634e+001  -1.435037e+002 
3643750000  -6.228636e+001  -1.270116e+002 
3646875000  -6.031093e+001  -1.659871e+002 
3650000000  -6.637092e+001  -1.698806e+002 
3653125000  -6.342953e+001  1.653086e+002 
3656250000  -6.417295e+001  1.554056e+002 
3659375000  -6.335954e+001  1.712355e+002 
3662500000  -6.164553e+001  1.406108e+002 
3665625000  -6.357178e+001  1.310775e+002 
3668750000  -6.391747e+001  1.133083e+002 
3671875000  -6.715325e+001  1.129886e+002 
3675000000  -6.234014e+001  1.091666e+002 
3678125000  -6.401958e+001  1.080101e+002 
3681250000  -6.105570e+001  9.978149e+001 
3684375000  -6.245689e+001  7.457520e+001 
3687500000  -6.341618e+001  7.698875e+001 
3690625000  -6.990201e+001  6.174361e+001 
3693750000  -6.845563e+001  8.723241e+001 
3696875000  -6.669650e+001  7.077187e+001 
3700000000  -6.235455e+001  8.099065e+001 
3703125000  -6.653770e+001  4.975052e+001 
3706250000  -6.785115e+001  7.055457e+001 
3709375000  -6.451025e+001  7.282753e+001 
3712500000  -6.288843e+001  5.767819e+001 
3715625000  -6.509389e+001  2.086036e+001 
3718750000  -6.247490e+001  3.677693e+001 
3721875000  -6.035669e+001  1.377620e+001 
3725000000  -6.100440e+001  2.517532e+001 
3728125000  -5.981289e+001  -3.362048e-001 
3731250000  -6.187725e+001  -4.575011e+000 
3734375000  -5.878286e+001  -1.485249e+001 
3737500000  -5.967613e+001  -4.213982e+001 
3740625000  -5.865357e+001  -4.997043e+001 
3743750000  -5.883427e+001  -6.427547e+001 
3746875000  -6.024506e+001  -6.654546e+001 
3750000000  -5.620066e+001  -7.544800e+001 
3753125000  -5.777459e+001  -7.444340e+001 
3756250000  -5.810101e+001  -1.020793e+002 
3759375000  -5.779480e+001  -1.119185e+002 
3762500000  -5.833531e+001  -1.185334e+002 
3765625000  -5.979916e+001  -1.181014e+002 
3768750000  -5.652105e+001  -1.469583e+002 
3771875000  -5.674858e+001  -1.452826e+002 
3775000000  -5.604705e+001  -1.615451e+002 
3778125000  -5.806833e+001  1.700004e+002 
3781250000  -5.648793e+001  1.697688e+002 
3784375000  -5.739160e+001  1.595167e+002 
3787500000  -5.727480e+001  1.523273e+002 
3790625000  -5.732615e+001  1.345854e+002 
3793750000  -5.851488e+001  1.425399e+002 
3796875000  -5.913170e+001  1.238022e+002 
3800000000  -5.361128e+001  8.021261e+001 
3803125000  -5.712757e+001  9.163094e+001 
3806250000  -5.932554e+001  8.347756e+001 
3809375000  -5.877285e+001  8.184896e+001 
3812500000  -5.838116e+001  7.460570e+001 
3815625000  -6.050447e+001  3.955706e+001 
3818750000  -6.149399e+001  4.525711e+001 
3821875000  -5.924226e+001  4.552229e+001 
3825000000  -6.091283e+001  3.884703e+001 
3828125000  -5.733551e+001  1.167241e+001 
3831250000  -5.902277e+001  5.449651e-001 
3834375000  -6.362633e+001  -3.789207e+000 
3837500000  -6.261428e+001  2.890807e+001 
3840625000  -6.154836e+001  4.322056e+000 
3843750000  -6.269209e+001  -6.965786e+000 
3846875000  -6.345455e+001  -1.056088e+001 
3850000000  -6.216558e+001  -9.765366e+000 
3853125000  -6.147225e+001  3.159559e+000 
3856250000  -6.001965e+001  -1.654654e+001 
3859375000  -5.990303e+001  -4.513079e+001 
3862500000  -6.059501e+001  -2.179009e+001 
3865625000  -5.939082e+001  -7.084229e+001 
3868750000  -5.898295e+001  -5.539742e+001 
3871875000  -5.672725e+001  -6.913626e+001 
3875000000  -6.034264e+001  -7.457410e+001 
3878125000  -5.872607e+001  -9.087411e+001 
3881250000  -5.684192e+001  -8.950237e+001 
3884375000  -5.618973e+001  -1.103115e+002 
3887500000  -5.874709e+001  -1.222980e+002 
3890625000  -5.766395e+001  -1.072759e+002 
3893750000  -5.613163e+001  -1.333125e+002 
3896875000  -5.641373e+001  -1.371239e+002 
3900000000  -5.549113e+001  -1.571547e+002 
3903125000  -5.537411e+001  -1.590871e+002 
3906250000  -5.563926e+001  -1.691906e+002 
3909375000  -5.366593e+001  1.729509e+002 
3912500000  -5.434616e+001  1.590076e+002 
3915625000  -5.512030e+001  1.508594e+002 
3918750000  -5.519100e+001  1.523583e+002 
3921875000  -5.534464e+001  1.347501e+002 
3925000000  -5.360703e+001  1.249489e+002 
3928125000  -5.385577e+001  1.075596e+002 
3931250000  -5.383527e+001  1.050647e+002 
3934375000  -5.417997e+001  8.997878e+001 
3937500000  -5.530835e+001  8.477115e+001 
3940625000  -5.426313e+001  7.551190e+001 
3943750000  -5.281046e+001  6.536134e+001 
3946875000  -5.527537e+001  4.301104e+001 
3950000000  -5.457201e+001  3.475875e+001 
3953125000  -5.438150e+001  3.316193e+001 
3956250000  -5.596320e+001  2.387062e+001 
3959375000  -5.250314e+001  7.732495e+000 
3962500000  -5.221836e+001  -1.277843e+001 
3965625000  -5.303564e+001  -1.699827e+001 
3968750000  -5.469590e+001  -3.279050e+001 
3971875000  -5.464524e+001  -4.155424e+001 
3975000000  -5.573008e+001  -6.127900e+001 
3978125000  -5.561417e+001  -6.067678e+001 
3981250000  -5.569186e+001  -8.210300e+001 
3984375000  -5.641958e+001  -9.799500e+001 
3987500000  -5.484366e+001  -9.457931e+001 
3990625000  -5.800003e+001  -1.007862e+002 
3993750000  -5.646970e+001  -1.162145e+002 
3996875000  -5.774396e+001  -1.363082e+002 
4000000000  -6.010994e+001  -1.209422e+002 
4003125000  -6.167064e+001  -1.312270e+002 
4006250000  -5.802895e+001  -1.422301e+002 
4009375000  -5.606636e+001  -1.593491e+002 
4012500000  -5.982724e+001  -1.648742e+002 
4015625000  -5.971833e+001  -1.739549e+002 
4018750000  -5.849880e+001  -1.585064e+002 
4021875000  -6.047917e+001  -1.793532e+002 
4025000000  -6.015682e+001  1.754182e+002 
4028125000  -5.841633e+001  1.600957e+002 
4031250000  -6.317137e+001  1.575851e+002 
4034375000  -6.028488e+001  1.581783e+002 
4037500000  -5.867532e+001  1.539811e+002 
4040625000  -6.189313e+001  1.379398e+002 
4043750000  -5.931315e+001  1.481540e+002 
4046875000  -5.944030e+001  1.365372e+002 
4050000000  -5.635883e+001  1.178073e+002 
4053125000  -5.922720e+001  1.042697e+002 
4056250000  -5.871338e+001  1.205509e+002 
4059375000  -5.454512e+001  9.958105e+001 
4062500000  -5.585292e+001  9.810932e+001 
4065625000  -5.423507e+001  8.181831e+001 
4068750000  -5.527702e+001  7.983056e+001 
4071875000  -5.219785e+001  6.093575e+001 
4075000000  -5.289787e+001  4.191295e+001 
4078125000  -5.319463e+001  3.885432e+001 
4081250000  -5.309658e+001  1.978699e+001 
4084375000  -5.115725e+001  9.986350e+000 
4087500000  -5.350396e+001  -8.605489e+000 
4090625000  -5.453651e+001  -3.318169e+000 
4093750000  -5.363659e+001  -2.157795e+001 
4096875000  -5.220906e+001  -3.311451e+001 
4100000000  -5.588485e+001  -5.059911e+001 
4103125000  -5.586386e+001  -4.924021e+001 
4106250000  -5.336510e+001  -5.846117e+001 
4109375000  -5.229395e+001  -6.878336e+001 
4112500000  -5.354007e+001  -8.325031e+001 
4115625000  -5.344434e+001  -9.363243e+001 
4118750000  -5.304688e+001  -1.031993e+002 
4121875000  -5.269080e+001  -1.244375e+002 
4125000000  -5.312432e+001  -1.205438e+002 
4128125000  -5.426032e+001  -1.335124e+002 
4131250000  -5.301393e+001  -1.288889e+002 
4134375000  -5.100407e+001  -1.546201e+002 
4137500000  -5.176070e+001  -1.748739e+002 
4140625000  -5.461475e+001  1.770866e+002 
4143750000  -5.647066e+001  1.697524e+002 
4146875000  -5.324589e+001  1.600770e+002 
4150000000  -5.369844e+001  1.541844e+002 
4153125000  -5.319618e+001  1.400302e+002 
4156250000  -5.475026e+001  1.184505e+002 
4159375000  -5.571347e+001  1.290377e+002 
4162500000  -5.566478e+001  1.089476e+002 
4165625000  -5.599721e+001  1.096273e+002 
4168750000  -5.471481e+001  9.117069e+001 
4171875000  -5.416828e+001  7.512887e+001 
4175000000  -5.778270e+001  4.724631e+001 
4178125000  -5.775464e+001  6.113142e+001 
4181250000  -5.946510e+001  2.867351e+001 
4184375000  -5.993857e+001  3.422346e+001 
4187500000  -5.839108e+001  2.047069e+001 
4190625000  -6.171745e+001  1.394012e+001 
4193750000  -6.053665e+001  3.296470e+000 
4196875000  -6.539074e+001  5.003786e+000 
4200000000  -6.822021e+001  3.569688e+001 
4203125000  -6.567326e+001  1.221970e-001 
4206250000  -5.756589e+001  1.573553e+001 
4209375000  -5.901718e+001  -5.846057e+000 
4212500000  -6.226088e+001  2.386381e+000 
4215625000  -6.272108e+001  -5.379241e-001 
4218750000  -6.311271e+001  2.753334e+001 
4221875000  -5.944442e+001  2.528594e+000 
4225000000  -6.091475e+001  -1.488307e+001 
4228125000  -5.711257e+001  -3.865357e+001 
4231250000  -5.906183e+001  -2.900146e+001 
4234375000  -5.776978e+001  -3.691320e+001 
4237500000  -5.632613e+001  -3.653702e+001 
4240625000  -5.543839e+001  -6.373826e+001 
4243750000  -5.661982e+001  -6.500444e+001 
4246875000  -5.836191e+001  -7.805196e+001 
4250000000  -5.714889e+001  -1.077020e+002 
4253125000  -5.389367e+001  -8.479309e+001 
4256250000  -5.483320e+001  -1.033898e+002 
4259375000  -5.581066e+001  -1.069324e+002 
4262500000  -5.558265e+001  -1.282934e+002 
4265625000  -5.425372e+001  -1.247968e+002 
4268750000  -5.366779e+001  -1.308526e+002 
4271875000  -5.345527e+001  -1.576324e+002 
4275000000  -5.065633e+001  -1.782282e+002 
4278125000  -5.353372e+001  1.511958e+002 
4281250000  -5.443827e+001  1.650446e+002 
4284375000  -5.446807e+001  1.491500e+002 
4287500000  -5.360640e+001  1.490110e+002 
4290625000  -5.560415e+001  1.379538e+002 
4293750000  -5.382496e+001  1.331325e+002 
4296875000  -5.268159e+001  1.171282e+002 
4300000000  -5.252096e+001  1.058129e+002 
4303125000  -5.236787e+001  9.621843e+001 
4306250000  -5.302081e+001  1.029673e+002 
4309375000  -5.141113e+001  7.377200e+001 
4312500000  -5.228909e+001  6.181552e+001 
4315625000  -5.173432e+001  4.723000e+001 
4318750000  -5.316249e+001  3.768493e+001 
4321875000  -5.384198e+001  3.854301e+001 
4325000000  -5.325554e+001  2.464578e+001 
4328125000  -5.087347e+001  7.979846e+000 
4331250000  -5.312214e+001  -9.025498e+000 
4334375000  -5.408801e+001  -1.468848e+001 
4337500000  -5.511440e+001  -3.324657e+001 
4340625000  -5.654811e+001  -2.371153e+001 
4343750000  -5.429813e+001  -3.643429e+001 
4346875000  -5.664049e+001  -4.501042e+001 
4350000000  -5.606081e+001  -7.158602e+001 
4353125000  -5.712365e+001  -7.141222e+001 
4356250000  -5.741591e+001  -7.489462e+001 
4359375000  -5.832534e+001  -4.295552e+001 
4362500000  -5.526096e+001  -6.715788e+001 
4365625000  -5.599752e+001  -9.066347e+001 
4368750000  -5.605547e+001  -9.387792e+001 
4371875000  -5.504051e+001  -1.094405e+002 
4375000000  -5.523683e+001  -1.151514e+002 
4378125000  -5.708801e+001  -1.250308e+002 
4381250000  -5.622999e+001  -1.355026e+002 
4384375000  -5.644079e+001  -1.532046e+002 
4387500000  -5.663919e+001  -1.463749e+002 
4390625000  -5.766182e+001  -1.507680e+002 
4393750000  -5.862128e+001  -1.602153e+002 
4396875000  -5.508242e+001  -1.644408e+002 
4400000000  -5.711450e+001  1.782109e+002 
4403125000  -5.580723e+001  1.700144e+002 
4406250000  -5.615244e+001  1.623861e+002 
4409375000  -5.682003e+001  1.677220e+002 
4412500000  -5.834650e+001  1.601731e+002 
4415625000  -5.609994e+001  1.692886e+002 
4418750000  -5.480877e+001  1.542507e+002 
