!Agilent Technologies,E8363B,MY43030201,A.06.04.32
!Agilent E8363B: A.06.04.32
!Date: Tuesday, November 11, 2014 22:13:55
!Correction: S21(Response(S21)) 
!S1P File: Measurement: S21:
# Hz S  dB   R 50
3000000000  -4.888145e+001  -7.400687e+001 
3003125000  -5.183608e+001  -8.110144e+001 
3006250000  -5.167452e+001  -8.815182e+001 
3009375000  -5.147571e+001  -8.565068e+001 
3012500000  -5.081184e+001  -1.018678e+002 
3015625000  -5.123941e+001  -1.068135e+002 
3018750000  -5.185143e+001  -1.125076e+002 
3021875000  -4.979142e+001  -1.172362e+002 
3025000000  -4.850794e+001  -1.266387e+002 
3028125000  -4.839057e+001  -1.449767e+002 
3031250000  -4.678164e+001  -1.623882e+002 
3034375000  -4.721281e+001  1.799612e+002 
3037500000  -4.792331e+001  1.661794e+002 
3040625000  -4.923070e+001  1.531379e+002 
3043750000  -4.916795e+001  1.439117e+002 
3046875000  -5.016617e+001  1.315140e+002 
3050000000  -5.168427e+001  1.224692e+002 
3053125000  -5.107583e+001  1.187128e+002 
3056250000  -5.158526e+001  1.201072e+002 
3059375000  -5.088631e+001  1.086694e+002 
3062500000  -4.890440e+001  9.989640e+001 
3065625000  -4.911756e+001  8.834634e+001 
3068750000  -4.922298e+001  7.726769e+001 
3071875000  -4.924375e+001  6.795364e+001 
3075000000  -4.886961e+001  5.576415e+001 
3078125000  -4.863704e+001  4.698960e+001 
3081250000  -4.874522e+001  3.563087e+001 
3084375000  -4.769577e+001  2.410912e+001 
3087500000  -4.824820e+001  1.250809e+001 
3090625000  -4.788802e+001  -5.387433e+000 
3093750000  -4.928236e+001  -1.337117e+001 
3096875000  -4.937352e+001  -2.390410e+001 
3100000000  -4.933397e+001  -3.664909e+001 
3103125000  -4.959058e+001  -4.166211e+001 
3106250000  -4.908950e+001  -5.141545e+001 
3109375000  -5.004448e+001  -5.884556e+001 
3112500000  -4.946361e+001  -6.886441e+001 
3115625000  -4.965981e+001  -7.712107e+001 
3118750000  -4.991782e+001  -8.246570e+001 
3121875000  -4.887344e+001  -9.802911e+001 
3125000000  -5.084071e+001  -1.079164e+002 
3128125000  -5.050467e+001  -1.073734e+002 
3131250000  -4.864182e+001  -1.160033e+002 
3134375000  -4.761427e+001  -1.389766e+002 
3137500000  -4.877528e+001  -1.544358e+002 
3140625000  -4.943966e+001  -1.598457e+002 
3143750000  -5.000189e+001  -1.659369e+002 
3146875000  -5.032856e+001  -1.700696e+002 
3150000000  -4.890918e+001  -1.791528e+002 
3153125000  -4.900339e+001  1.672873e+002 
3156250000  -5.059298e+001  1.671308e+002 
3159375000  -4.762544e+001  1.603787e+002 
3162500000  -4.662981e+001  1.355672e+002 
3165625000  -4.777066e+001  1.214165e+002 
3168750000  -4.744066e+001  1.160077e+002 
3171875000  -4.747926e+001  1.056631e+002 
3175000000  -4.779917e+001  8.881538e+001 
3178125000  -4.735752e+001  8.184382e+001 
3181250000  -4.637390e+001  6.692815e+001 
3184375000  -4.660304e+001  5.435240e+001 
3187500000  -4.750223e+001  3.414951e+001 
3190625000  -4.898887e+001  2.256831e+001 
3193750000  -5.016631e+001  2.541644e+001 
3196875000  -4.945763e+001  1.713179e+001 
3200000000  -4.817310e+001  8.840798e+000 
3203125000  -4.830847e+001  -3.317702e+000 
3206250000  -4.881520e+001  -1.756528e+001 
3209375000  -4.792154e+001  -3.022718e+001 
3212500000  -4.883936e+001  -4.249300e+001 
3215625000  -4.878701e+001  -4.340949e+001 
3218750000  -4.971159e+001  -6.526767e+001 
3221875000  -4.971410e+001  -7.851254e+001 
3225000000  -4.979154e+001  -8.532343e+001 
3228125000  -4.988196e+001  -9.403046e+001 
3231250000  -5.024303e+001  -1.042229e+002 
3234375000  -4.981694e+001  -1.092276e+002 
3237500000  -5.073472e+001  -1.193556e+002 
3240625000  -5.012774e+001  -1.300260e+002 
3243750000  -4.947931e+001  -1.470031e+002 
3246875000  -5.009274e+001  -1.567418e+002 
3250000000  -5.087932e+001  -1.649151e+002 
3253125000  -5.168140e+001  -1.719172e+002 
3256250000  -4.979847e+001  1.726983e+002 
3259375000  -5.111576e+001  1.611357e+002 
3262500000  -5.277342e+001  1.504172e+002 
3265625000  -5.271221e+001  1.436193e+002 
3268750000  -5.280545e+001  1.402725e+002 
3271875000  -5.239899e+001  1.345803e+002 
3275000000  -5.226563e+001  1.251844e+002 
3278125000  -5.335036e+001  1.078181e+002 
3281250000  -5.329850e+001  1.024329e+002 
3284375000  -5.228917e+001  8.898814e+001 
3287500000  -5.299809e+001  8.345168e+001 
3290625000  -5.440559e+001  7.011749e+001 
3293750000  -5.325151e+001  6.207103e+001 
3296875000  -5.357029e+001  5.483619e+001 
3300000000  -5.406279e+001  5.696198e+001 
3303125000  -5.302620e+001  4.050774e+001 
3306250000  -5.341196e+001  2.594118e+001 
3309375000  -5.241104e+001  1.738902e+001 
3312500000  -5.247741e+001  -7.545033e+000 
3315625000  -5.467708e+001  -1.349614e+001 
3318750000  -5.631587e+001  -2.649158e+001 
3321875000  -5.811237e+001  -1.983018e+001 
3325000000  -5.745921e+001  -2.188612e+001 
3328125000  -5.677805e+001  -2.852904e+001 
3331250000  -5.486550e+001  -3.143214e+001 
3334375000  -5.246073e+001  -4.334739e+001 
3337500000  -5.280775e+001  -6.792119e+001 
3340625000  -5.393168e+001  -8.764553e+001 
3343750000  -5.583723e+001  -8.370845e+001 
3346875000  -5.620887e+001  -9.557358e+001 
3350000000  -5.533292e+001  -9.699600e+001 
3353125000  -5.409636e+001  -1.205711e+002 
3356250000  -5.492218e+001  -1.297225e+002 
3359375000  -5.546461e+001  -1.445825e+002 
3362500000  -5.701554e+001  -1.436265e+002 
3365625000  -5.591964e+001  -1.594858e+002 
3368750000  -5.656142e+001  -1.682683e+002 
3371875000  -5.800941e+001  -1.759920e+002 
3375000000  -5.784151e+001  1.614366e+002 
3378125000  -5.754485e+001  1.687625e+002 
3381250000  -6.135211e+001  1.670752e+002 
3384375000  -5.717299e+001  1.780080e+002 
3387500000  -5.391980e+001  1.480728e+002 
3390625000  -5.636441e+001  1.344354e+002 
3393750000  -5.664658e+001  1.120632e+002 
3396875000  -5.766748e+001  1.245617e+002 
3400000000  -5.542705e+001  8.965990e+001 
3403125000  -5.730275e+001  8.594280e+001 
3406250000  -5.652476e+001  7.814005e+001 
3409375000  -5.829014e+001  5.219984e+001 
3412500000  -5.866538e+001  5.290273e+001 
3415625000  -5.818473e+001  3.871951e+001 
3418750000  -5.994372e+001  3.763839e+001 
3421875000  -5.897515e+001  2.147058e+001 
3425000000  -5.895295e+001  3.206327e+001 
3428125000  -5.973343e+001  1.684726e+001 
3431250000  -5.981958e+001  -4.952352e+000 
3434375000  -5.979339e+001  -1.735928e+001 
3437500000  -6.252674e+001  -4.496531e+001 
3440625000  -6.010813e+001  -1.757755e+001 
3443750000  -6.274842e+001  -2.956231e+001 
3446875000  -6.132703e+001  -4.861946e+001 
3450000000  -6.592822e+001  -8.227869e+001 
3453125000  -6.108541e+001  -7.189729e+001 
3456250000  -6.637242e+001  -1.097599e+002 
3459375000  -6.552944e+001  -6.343800e+001 
3462500000  -7.242313e+001  -1.237772e+002 
3465625000  -6.817043e+001  -1.090304e+002 
3468750000  -6.470247e+001  -1.289209e+002 
3471875000  -6.428593e+001  -8.163660e+001 
3475000000  -6.646580e+001  -1.029634e+002 
3478125000  -6.830759e+001  -1.175559e+002 
3481250000  -7.258932e+001  -1.722572e+002 
3484375000  -6.752002e+001  -1.208560e+002 
3487500000  -7.076248e+001  -1.455592e+002 
3490625000  -7.382140e+001  -1.145634e+002 
3493750000  -6.673722e+001  -1.403284e+002 
3496875000  -6.663847e+001  -1.667293e+002 
3500000000  -6.436810e+001  -1.668716e+002 
3503125000  -6.306267e+001  -1.416499e+002 
3506250000  -6.494599e+001  -1.635349e+002 
3509375000  -7.057159e+001  1.468557e+002 
3512500000  -6.778600e+001  1.651674e+002 
3515625000  -6.896388e+001  1.177360e+002 
3518750000  -6.739122e+001  1.224816e+002 
3521875000  -6.722888e+001  1.239313e+002 
3525000000  -6.955843e+001  1.267624e+002 
3528125000  -6.744633e+001  1.306531e+002 
3531250000  -6.623675e+001  9.469323e+001 
3534375000  -7.319158e+001  7.557962e+001 
3537500000  -7.054046e+001  7.106125e+001 
3540625000  -6.828302e+001  4.536106e+001 
3543750000  -7.163253e+001  1.017319e+002 
3546875000  -6.868845e+001  2.587601e+001 
3550000000  -7.470625e+001  8.047704e+001 
3553125000  -7.286019e+001  4.137373e+001 
3556250000  -6.717146e+001  8.843517e+001 
3559375000  -7.065150e+001  4.029567e+001 
3562500000  -7.212091e+001  5.588006e+001 
3565625000  -6.797723e+001  -1.616391e+001 
3568750000  -7.725714e+001  -6.698843e+001 
3571875000  -8.210436e+001  7.069959e+001 
3575000000  -6.606702e+001  -1.436310e+001 
3578125000  -7.489851e+001  5.971514e+001 
3581250000  -7.910238e+001  -4.594291e+001 
3584375000  -7.738300e+001  8.288136e+001 
3587500000  -7.042188e+001  -8.449888e+000 
3590625000  -7.114597e+001  2.041560e+001 
3593750000  -6.478419e+001  -2.000578e+001 
3596875000  -6.840829e+001  3.229359e+001 
3600000000  -6.971052e+001  -3.809496e+001 
3603125000  -6.563924e+001  8.915389e+000 
3606250000  -6.417496e+001  -3.828111e+001 
3609375000  -7.157127e+001  -3.968938e+001 
3612500000  -6.554269e+001  -4.310810e+001 
3615625000  -6.539121e+001  -4.692628e+001 
3618750000  -6.581111e+001  -6.886182e+001 
3621875000  -6.391552e+001  -5.800372e+001 
3625000000  -6.245771e+001  -8.734241e+001 
3628125000  -6.403035e+001  -9.835101e+001 
3631250000  -6.655689e+001  -9.599792e+001 
3634375000  -6.317215e+001  -1.315477e+002 
3637500000  -6.643018e+001  -1.292197e+002 
3640625000  -6.234851e+001  -1.131115e+002 
3643750000  -6.346037e+001  -1.372780e+002 
3646875000  -6.390151e+001  -1.777911e+002 
3650000000  -6.474615e+001  1.655556e+002 
3653125000  -6.319448e+001  -1.762232e+002 
3656250000  -6.245259e+001  1.652467e+002 
3659375000  -6.994675e+001  1.611017e+002 
3662500000  -6.178191e+001  1.502485e+002 
3665625000  -6.533622e+001  1.639242e+002 
3668750000  -6.005717e+001  1.144410e+002 
3671875000  -6.441983e+001  1.171150e+002 
3675000000  -6.389754e+001  1.168454e+002 
3678125000  -6.336158e+001  1.137759e+002 
3681250000  -6.239548e+001  9.376858e+001 
3684375000  -6.833562e+001  1.040246e+002 
3687500000  -6.717960e+001  9.041496e+001 
3690625000  -7.281703e+001  5.713638e+001 
3693750000  -6.421983e+001  1.037207e+002 
3696875000  -6.877335e+001  8.987116e+001 
3700000000  -6.615607e+001  4.278228e+001 
3703125000  -6.789311e+001  3.768718e+001 
3706250000  -6.684499e+001  6.914072e+001 
3709375000  -6.569829e+001  7.420964e+001 
3712500000  -6.325660e+001  6.614115e+001 
3715625000  -6.026115e+001  4.674769e+001 
3718750000  -6.253496e+001  4.816263e+001 
3721875000  -6.153183e+001  6.919201e+000 
3725000000  -5.793996e+001  1.305301e+001 
3728125000  -6.032785e+001  1.833377e+000 
3731250000  -5.879327e+001  -1.052160e+001 
3734375000  -5.879227e+001  -2.148139e+001 
3737500000  -5.948522e+001  -3.548325e+001 
3740625000  -5.717590e+001  -3.908375e+001 
3743750000  -5.820992e+001  -5.872197e+001 
3746875000  -5.881325e+001  -6.540341e+001 
3750000000  -5.856287e+001  -7.676435e+001 
3753125000  -5.926549e+001  -7.310581e+001 
3756250000  -5.797789e+001  -8.797809e+001 
3759375000  -5.941293e+001  -1.108470e+002 
3762500000  -5.713401e+001  -1.142820e+002 
3765625000  -6.112970e+001  -1.195920e+002 
3768750000  -5.645421e+001  -1.248797e+002 
3771875000  -5.586897e+001  -1.559647e+002 
3775000000  -5.768353e+001  -1.542567e+002 
3778125000  -5.830339e+001  -1.749407e+002 
3781250000  -5.677968e+001  1.784537e+002 
3784375000  -5.822985e+001  1.634105e+002 
3787500000  -5.731623e+001  1.530129e+002 
3790625000  -5.722639e+001  1.509302e+002 
3793750000  -5.902430e+001  1.287959e+002 
3796875000  -5.613432e+001  1.256022e+002 
3800000000  -5.286246e+001  8.426086e+001 
3803125000  -5.759546e+001  1.045474e+002 
3806250000  -6.064985e+001  8.834933e+001 
3809375000  -5.805595e+001  8.732999e+001 
3812500000  -5.811256e+001  6.690967e+001 
3815625000  -6.044053e+001  4.363546e+001 
3818750000  -6.131778e+001  3.070451e+001 
3821875000  -6.252535e+001  5.116544e+001 
3825000000  -5.853085e+001  3.273317e+001 
3828125000  -5.732335e+001  3.804736e+001 
3831250000  -6.276064e+001  4.373236e+000 
3834375000  -6.436989e+001  -1.691378e+001 
3837500000  -6.596415e+001  2.294956e+001 
3840625000  -6.292394e+001  -1.528100e+001 
3843750000  -6.110376e+001  -2.535615e+001 
3846875000  -6.199117e+001  -2.486864e+001 
3850000000  -6.404250e+001  2.119824e+001 
3853125000  -6.118423e+001  -3.556210e+001 
3856250000  -6.100960e+001  -5.919969e+000 
3859375000  -6.103091e+001  -3.546839e+001 
3862500000  -6.148265e+001  -4.741769e+001 
3865625000  -5.865106e+001  -5.429501e+001 
3868750000  -6.089049e+001  -5.014022e+001 
3871875000  -5.778020e+001  -5.778576e+001 
3875000000  -5.942102e+001  -6.502048e+001 
3878125000  -5.814895e+001  -7.096021e+001 
3881250000  -5.784865e+001  -8.956180e+001 
3884375000  -5.686718e+001  -9.538144e+001 
3887500000  -5.715384e+001  -1.180286e+002 
3890625000  -5.775947e+001  -1.218971e+002 
3893750000  -5.618035e+001  -1.270727e+002 
3896875000  -5.769800e+001  -1.293151e+002 
3900000000  -5.618478e+001  -1.549117e+002 
3903125000  -5.870879e+001  -1.456038e+002 
3906250000  -5.282581e+001  -1.649832e+002 
3909375000  -5.354649e+001  1.736982e+002 
3912500000  -5.432944e+001  1.674775e+002 
3915625000  -5.564830e+001  1.517881e+002 
3918750000  -5.438874e+001  1.556749e+002 
3921875000  -5.342881e+001  1.421408e+002 
3925000000  -5.304783e+001  1.293966e+002 
3928125000  -5.274403e+001  1.110323e+002 
3931250000  -5.366695e+001  9.972782e+001 
3934375000  -5.324099e+001  9.600951e+001 
3937500000  -5.474746e+001  8.376051e+001 
3940625000  -5.382059e+001  7.740424e+001 
3943750000  -5.408350e+001  6.234968e+001 
3946875000  -5.305978e+001  4.802165e+001 
3950000000  -5.455502e+001  3.995491e+001 
3953125000  -5.475835e+001  2.995044e+001 
3956250000  -5.340153e+001  2.224349e+001 
3959375000  -5.190202e+001  1.403657e+001 
3962500000  -5.345084e+001  -9.534013e+000 
3965625000  -5.271979e+001  -1.925346e+001 
3968750000  -5.537957e+001  -3.659452e+001 
3971875000  -5.417154e+001  -4.386838e+001 
3975000000  -5.392395e+001  -5.073501e+001 
3978125000  -5.550647e+001  -5.486420e+001 
3981250000  -5.569916e+001  -7.760410e+001 
3984375000  -5.592122e+001  -9.244959e+001 
3987500000  -5.534169e+001  -9.181426e+001 
3990625000  -5.592358e+001  -9.101766e+001 
3993750000  -5.766208e+001  -1.100883e+002 
3996875000  -5.873311e+001  -1.097238e+002 
4000000000  -5.858274e+001  -1.229627e+002 
4003125000  -5.937823e+001  -1.389122e+002 
4006250000  -5.620715e+001  -1.396091e+002 
4009375000  -5.517892e+001  -1.597273e+002 
4012500000  -5.879781e+001  -1.536810e+002 
4015625000  -6.188163e+001  -1.517517e+002 
4018750000  -5.885084e+001  -1.698085e+002 
4021875000  -5.838365e+001  -1.769166e+002 
4025000000  -5.949347e+001  -1.762143e+002 
4028125000  -5.913132e+001  -1.768447e+002 
4031250000  -6.286460e+001  1.659173e+002 
4034375000  -5.766487e+001  1.553815e+002 
4037500000  -5.943426e+001  1.523121e+002 
4040625000  -6.069481e+001  1.560813e+002 
4043750000  -5.886064e+001  1.523101e+002 
4046875000  -5.925218e+001  1.366946e+002 
4050000000  -5.897442e+001  1.337010e+002 
4053125000  -5.724673e+001  1.248033e+002 
4056250000  -5.804285e+001  1.144018e+002 
4059375000  -5.689735e+001  1.163677e+002 
4062500000  -5.561974e+001  1.040502e+002 
4065625000  -5.320689e+001  8.443395e+001 
4068750000  -5.451941e+001  7.719457e+001 
4071875000  -5.189218e+001  4.937270e+001 
4075000000  -5.345623e+001  4.311822e+001 
4078125000  -5.337067e+001  4.052126e+001 
4081250000  -5.306037e+001  2.994497e+001 
4084375000  -5.162139e+001  9.378704e+000 
4087500000  -5.347552e+001  -4.150828e+000 
4090625000  -5.390799e+001  -1.810460e+000 
4093750000  -5.196260e+001  -1.808628e+001 
4096875000  -5.216200e+001  -3.259752e+001 
4100000000  -5.323155e+001  -4.191571e+001 
4103125000  -5.515503e+001  -3.854969e+001 
4106250000  -5.472613e+001  -5.024331e+001 
4109375000  -5.372082e+001  -5.919506e+001 
4112500000  -5.260362e+001  -8.116702e+001 
4115625000  -5.276749e+001  -8.627205e+001 
4118750000  -5.267621e+001  -9.840891e+001 
4121875000  -5.225690e+001  -1.234641e+002 
4125000000  -5.357538e+001  -1.289310e+002 
4128125000  -5.434755e+001  -1.325029e+002 
4131250000  -5.403284e+001  -1.398864e+002 
4134375000  -5.069209e+001  -1.492712e+002 
4137500000  -5.174573e+001  -1.659305e+002 
4140625000  -5.386346e+001  1.762842e+002 
4143750000  -5.528151e+001  -1.712351e+002 
4146875000  -5.553155e+001  1.684751e+002 
4150000000  -5.464245e+001  1.586178e+002 
4153125000  -5.430095e+001  1.389160e+002 
4156250000  -5.476563e+001  1.341493e+002 
4159375000  -5.623302e+001  1.313396e+002 
4162500000  -5.688105e+001  1.191547e+002 
4165625000  -5.381158e+001  1.242547e+002 
4168750000  -5.545491e+001  8.732050e+001 
4171875000  -5.463808e+001  8.953035e+001 
4175000000  -5.599147e+001  6.518222e+001 
4178125000  -5.675213e+001  6.678249e+001 
4181250000  -5.703820e+001  5.267517e+001 
4184375000  -5.770284e+001  3.697150e+001 
4187500000  -5.837611e+001  2.734365e+001 
4190625000  -6.133221e+001  4.134013e+001 
4193750000  -5.959093e+001  2.153793e+001 
4196875000  -6.161152e+001  -2.029885e+000 
4200000000  -6.408160e+001  4.512993e+001 
4203125000  -7.226875e+001  -2.072677e+000 
4206250000  -6.142837e+001  2.672574e+001 
4209375000  -6.043436e+001  1.968340e+000 
4212500000  -6.408780e+001  1.262560e+001 
4215625000  -6.444497e+001  -2.595618e+001 
4218750000  -6.243324e+001  1.089459e+001 
4221875000  -5.978446e+001  -2.060546e+001 
4225000000  -6.126945e+001  1.660073e+001 
4228125000  -6.413576e+001  -2.599213e+001 
4231250000  -5.854578e+001  -2.527295e+001 
4234375000  -5.918257e+001  -5.134605e+001 
4237500000  -5.880893e+001  -4.245936e+001 
4240625000  -5.471581e+001  -7.014532e+001 
4243750000  -5.808712e+001  -5.986477e+001 
4246875000  -5.682747e+001  -6.924831e+001 
4250000000  -5.825546e+001  -8.562163e+001 
4253125000  -5.560030e+001  -8.801591e+001 
4256250000  -5.702628e+001  -1.065382e+002 
4259375000  -5.472013e+001  -1.025983e+002 
4262500000  -5.468257e+001  -1.173339e+002 
4265625000  -5.371609e+001  -1.191384e+002 
4268750000  -5.290879e+001  -1.401039e+002 
4271875000  -5.221525e+001  -1.493512e+002 
4275000000  -5.160322e+001  -1.758813e+002 
4278125000  -5.397467e+001  1.783445e+002 
4281250000  -5.366928e+001  1.636843e+002 
4284375000  -5.323596e+001  1.485878e+002 
4287500000  -5.416947e+001  1.452381e+002 
4290625000  -5.561934e+001  1.592435e+002 
4293750000  -5.209293e+001  1.425132e+002 
4296875000  -5.135907e+001  1.204281e+002 
4300000000  -5.222278e+001  1.069178e+002 
4303125000  -5.369316e+001  1.081676e+002 
4306250000  -5.355397e+001  1.052896e+002 
4309375000  -5.258504e+001  8.425166e+001 
4312500000  -5.264681e+001  7.418933e+001 
4315625000  -5.258820e+001  5.476925e+001 
4318750000  -5.381684e+001  4.516744e+001 
4321875000  -5.252493e+001  3.039354e+001 
4325000000  -5.240596e+001  2.899045e+001 
4328125000  -5.182516e+001  1.010442e+001 
4331250000  -5.300564e+001  -1.096469e+001 
4334375000  -5.420239e+001  -2.272534e+001 
4337500000  -5.475400e+001  -2.266534e+001 
4340625000  -5.729045e+001  -2.212890e+001 
4343750000  -5.494342e+001  -4.267124e+001 
4346875000  -5.666064e+001  -4.227186e+001 
4350000000  -5.577994e+001  -5.787833e+001 
4353125000  -5.420873e+001  -7.112478e+001 
4356250000  -5.736098e+001  -6.178473e+001 
4359375000  -5.868895e+001  -6.213398e+001 
4362500000  -5.436805e+001  -6.297499e+001 
4365625000  -5.291236e+001  -9.317578e+001 
4368750000  -5.575576e+001  -8.584331e+001 
4371875000  -5.571840e+001  -1.175183e+002 
4375000000  -5.616912e+001  -1.122554e+002 
4378125000  -5.615787e+001  -1.259505e+002 
4381250000  -5.802436e+001  -1.247190e+002 
4384375000  -5.899930e+001  -1.347914e+002 
4387500000  -5.791169e+001  -1.362317e+002 
4390625000  -5.549838e+001  -1.602952e+002 
4393750000  -5.832992e+001  -1.541763e+002 
4396875000  -5.684990e+001  -1.688678e+002 
4400000000  -5.639970e+001  -1.652851e+002 
4403125000  -5.652881e+001  1.775750e+002 
4406250000  -5.691610e+001  1.755017e+002 
4409375000  -5.585365e+001  1.675814e+002 
4412500000  -5.746217e+001  1.648283e+002 
4415625000  -5.475254e+001  1.563428e+002 
