!Agilent Technologies,E8363B,MY43030201,A.06.04.32
!Agilent E8363B: A.06.04.32
!Date: Tuesday, November 11, 2014 22:12:27
!Correction: S21(Response(S21)) 
!S1P File: Measurement: S21:
# Hz S  dB   R 50
3000000000  -4.890247e+001  -7.389627e+001 
3003125000  -5.195660e+001  -8.021738e+001 
3006250000  -5.122926e+001  -8.845966e+001 
3009375000  -5.244422e+001  -8.246622e+001 
3012500000  -5.142836e+001  -9.548275e+001 
3015625000  -5.143329e+001  -1.074351e+002 
3018750000  -5.226482e+001  -1.133754e+002 
3021875000  -4.973402e+001  -1.178241e+002 
3025000000  -4.892069e+001  -1.287476e+002 
3028125000  -4.804366e+001  -1.466497e+002 
3031250000  -4.707220e+001  -1.613987e+002 
3034375000  -4.732321e+001  1.786953e+002 
3037500000  -4.804940e+001  1.656522e+002 
3040625000  -4.899533e+001  1.503972e+002 
3043750000  -4.984698e+001  1.407828e+002 
3046875000  -5.055186e+001  1.283988e+002 
3050000000  -5.149296e+001  1.216101e+002 
3053125000  -5.095919e+001  1.172177e+002 
3056250000  -5.107734e+001  1.214834e+002 
3059375000  -5.081209e+001  1.075138e+002 
3062500000  -4.906859e+001  1.023841e+002 
3065625000  -4.926863e+001  8.629317e+001 
3068750000  -4.896335e+001  7.402196e+001 
3071875000  -4.853913e+001  6.877959e+001 
3075000000  -4.801722e+001  5.465130e+001 
3078125000  -4.880669e+001  4.617287e+001 
3081250000  -4.924258e+001  3.353550e+001 
3084375000  -4.770602e+001  2.356005e+001 
3087500000  -4.832846e+001  1.483805e+001 
3090625000  -4.808958e+001  -3.694633e+000 
3093750000  -4.933461e+001  -1.796415e+001 
3096875000  -4.942880e+001  -2.667641e+001 
3100000000  -4.922241e+001  -3.394559e+001 
3103125000  -4.929975e+001  -3.840451e+001 
3106250000  -4.878479e+001  -5.067556e+001 
3109375000  -4.959006e+001  -6.002594e+001 
3112500000  -4.911806e+001  -6.773593e+001 
3115625000  -4.922585e+001  -7.928455e+001 
3118750000  -4.976154e+001  -8.714452e+001 
3121875000  -4.894228e+001  -9.794990e+001 
3125000000  -5.081782e+001  -1.119026e+002 
3128125000  -5.069220e+001  -1.097213e+002 
3131250000  -4.793641e+001  -1.173094e+002 
3134375000  -4.772928e+001  -1.429626e+002 
3137500000  -4.827900e+001  -1.565017e+002 
3140625000  -4.986487e+001  -1.584985e+002 
3143750000  -5.023935e+001  -1.708152e+002 
3146875000  -4.986491e+001  -1.707936e+002 
3150000000  -4.902050e+001  1.788606e+002 
3153125000  -4.879018e+001  1.659302e+002 
3156250000  -5.072875e+001  1.641789e+002 
3159375000  -4.777648e+001  1.593286e+002 
3162500000  -4.625535e+001  1.366557e+002 
3165625000  -4.761084e+001  1.205518e+002 
3168750000  -4.738521e+001  1.170754e+002 
3171875000  -4.753184e+001  1.020322e+002 
3175000000  -4.770787e+001  8.941734e+001 
3178125000  -4.765420e+001  8.306743e+001 
3181250000  -4.670164e+001  6.929937e+001 
3184375000  -4.644638e+001  5.233900e+001 
3187500000  -4.759043e+001  3.110442e+001 
3190625000  -4.938210e+001  2.230831e+001 
3193750000  -4.974706e+001  2.085811e+001 
3196875000  -4.909343e+001  1.916305e+001 
3200000000  -4.820802e+001  7.055293e+000 
3203125000  -4.853905e+001  -3.108239e+000 
3206250000  -4.863063e+001  -2.031130e+001 
3209375000  -4.781935e+001  -3.107444e+001 
3212500000  -4.888377e+001  -4.171335e+001 
3215625000  -4.821955e+001  -4.571283e+001 
3218750000  -4.933155e+001  -6.798195e+001 
3221875000  -4.918678e+001  -7.759696e+001 
3225000000  -4.956400e+001  -8.584258e+001 
3228125000  -4.990870e+001  -9.660783e+001 
3231250000  -5.089760e+001  -1.065972e+002 
3234375000  -5.069442e+001  -1.116183e+002 
3237500000  -5.093626e+001  -1.180227e+002 
3240625000  -4.981661e+001  -1.290594e+002 
3243750000  -5.000010e+001  -1.501302e+002 
3246875000  -5.032101e+001  -1.525923e+002 
3250000000  -5.089465e+001  -1.687635e+002 
3253125000  -5.142007e+001  -1.677497e+002 
3256250000  -5.003621e+001  1.752616e+002 
3259375000  -5.127127e+001  1.560151e+002 
3262500000  -5.230631e+001  1.524976e+002 
3265625000  -5.301413e+001  1.499599e+002 
3268750000  -5.370818e+001  1.459768e+002 
3271875000  -5.217828e+001  1.296665e+002 
3275000000  -5.192134e+001  1.193161e+002 
3278125000  -5.296305e+001  1.080307e+002 
3281250000  -5.382438e+001  1.062564e+002 
3284375000  -5.191147e+001  8.877885e+001 
3287500000  -5.345576e+001  8.480650e+001 
3290625000  -5.219871e+001  6.925536e+001 
3293750000  -5.428487e+001  6.055906e+001 
3296875000  -5.406186e+001  5.267449e+001 
3300000000  -5.414581e+001  4.745235e+001 
3303125000  -5.330201e+001  3.967081e+001 
3306250000  -5.288157e+001  2.816190e+001 
3309375000  -5.263919e+001  1.349017e+001 
3312500000  -5.362877e+001  2.543888e+000 
3315625000  -5.384846e+001  -1.100605e+001 
3318750000  -5.546408e+001  -2.534042e+001 
3321875000  -5.891061e+001  -3.027843e+001 
3325000000  -5.557296e+001  -1.824642e+001 
3328125000  -5.782634e+001  -3.181232e+001 
3331250000  -5.506265e+001  -2.459021e+001 
3334375000  -5.243247e+001  -4.959831e+001 
3337500000  -5.202604e+001  -6.937200e+001 
3340625000  -5.414770e+001  -8.563842e+001 
3343750000  -5.652284e+001  -7.653803e+001 
3346875000  -5.500296e+001  -9.739493e+001 
3350000000  -5.395526e+001  -9.856473e+001 
3353125000  -5.395717e+001  -1.159280e+002 
3356250000  -5.497218e+001  -1.309432e+002 
3359375000  -5.481403e+001  -1.373906e+002 
3362500000  -5.562734e+001  -1.514721e+002 
3365625000  -5.618729e+001  -1.605706e+002 
3368750000  -5.712473e+001  -1.769379e+002 
3371875000  -5.674834e+001  1.728793e+002 
3375000000  -5.918396e+001  1.691341e+002 
3378125000  -5.853949e+001  1.686265e+002 
3381250000  -6.046552e+001  -1.783979e+002 
3384375000  -5.693357e+001  -1.773494e+002 
3387500000  -5.270756e+001  1.367247e+002 
3390625000  -5.516637e+001  1.241879e+002 
3393750000  -5.758932e+001  1.163192e+002 
3396875000  -5.791567e+001  1.161016e+002 
3400000000  -5.500563e+001  9.574811e+001 
3403125000  -5.669678e+001  9.314710e+001 
3406250000  -5.707967e+001  7.908222e+001 
3409375000  -5.667258e+001  5.713763e+001 
3412500000  -5.877386e+001  5.205449e+001 
3415625000  -6.049558e+001  4.628307e+001 
3418750000  -5.932548e+001  3.627704e+001 
3421875000  -6.073832e+001  1.663469e+001 
3425000000  -5.990936e+001  1.739464e+001 
3428125000  -6.097203e+001  5.768727e+000 
3431250000  -5.972239e+001  -1.187809e+001 
3434375000  -6.017682e+001  -1.833167e+001 
3437500000  -6.217214e+001  -1.936704e+001 
3440625000  -6.023672e+001  -2.550340e+001 
3443750000  -6.055043e+001  -3.284822e+001 
3446875000  -5.942287e+001  -4.850942e+001 
3450000000  -6.230860e+001  -7.889155e+001 
3453125000  -6.235106e+001  -7.687953e+001 
3456250000  -6.544818e+001  -8.517022e+001 
3459375000  -6.596800e+001  -7.016935e+001 
3462500000  -6.728472e+001  -8.169987e+001 
3465625000  -6.604345e+001  -9.835963e+001 
3468750000  -6.898383e+001  -1.271964e+002 
3471875000  -6.699536e+001  -1.124756e+002 
3475000000  -6.651929e+001  -1.011168e+002 
3478125000  -7.064957e+001  -8.885108e+001 
3481250000  -6.930077e+001  -1.618261e+002 
3484375000  -6.459032e+001  -1.380746e+002 
3487500000  -6.389012e+001  -1.390974e+002 
3490625000  -6.715482e+001  -1.072732e+002 
3493750000  -6.703586e+001  -1.697658e+002 
3496875000  -6.806743e+001  -1.411279e+002 
3500000000  -7.042212e+001  -1.619635e+002 
3503125000  -6.937634e+001  -1.499646e+002 
3506250000  -6.422836e+001  -1.433371e+002 
3509375000  -6.679625e+001  1.739076e+002 
3512500000  -6.351747e+001  1.576997e+002 
3515625000  -6.839310e+001  1.396567e+002 
3518750000  -6.632831e+001  1.412600e+002 
3521875000  -6.739721e+001  1.167287e+002 
3525000000  -6.664136e+001  1.373469e+002 
3528125000  -6.801269e+001  1.023256e+002 
3531250000  -6.829854e+001  1.212781e+002 
3534375000  -6.671278e+001  9.672536e+001 
3537500000  -6.886286e+001  5.335339e+001 
3540625000  -7.150824e+001  7.836930e+001 
3543750000  -7.176655e+001  7.769299e+001 
3546875000  -7.568813e+001  7.191341e+001 
3550000000  -6.932721e+001  6.158170e+001 
3553125000  -7.289321e+001  9.298282e+001 
3556250000  -6.951408e+001  5.297667e+001 
3559375000  -7.107353e+001  5.264110e+001 
3562500000  -7.915692e+001  -1.052800e-001 
3565625000  -7.248905e+001  1.430743e+001 
3568750000  -7.126828e+001  5.855463e+001 
3571875000  -7.256243e+001  3.675678e+000 
3575000000  -7.366300e+001  8.345441e+000 
3578125000  -7.435132e+001  4.178114e+001 
3581250000  -7.253314e+001  -2.749747e+001 
3584375000  -7.866249e+001  5.862181e+001 
3587500000  -6.803767e+001  -1.833480e+001 
3590625000  -6.666361e+001  2.502855e+001 
3593750000  -6.954618e+001  -3.272971e+001 
3596875000  -6.923895e+001  7.251427e+000 
3600000000  -6.681449e+001  -1.061173e+001 
3603125000  -6.699561e+001  -1.301955e+001 
3606250000  -6.644302e+001  -5.866515e+001 
3609375000  -6.696255e+001  -1.894511e+001 
3612500000  -6.265947e+001  -5.174711e+001 
3615625000  -7.147559e+001  -8.688660e+001 
3618750000  -6.719596e+001  -6.804768e+001 
3621875000  -6.288797e+001  -6.607186e+001 
3625000000  -6.216024e+001  -5.544824e+001 
3628125000  -6.341167e+001  -9.674000e+001 
3631250000  -6.058192e+001  -1.021396e+002 
3634375000  -6.270489e+001  -1.203000e+002 
3637500000  -6.552413e+001  -1.121116e+002 
3640625000  -6.156197e+001  -1.297468e+002 
3643750000  -6.207482e+001  -1.449070e+002 
3646875000  -5.967630e+001  -1.721036e+002 
3650000000  -6.249441e+001  1.744612e+002 
3653125000  -6.325967e+001  -1.624819e+002 
3656250000  -6.651192e+001  1.627088e+002 
3659375000  -6.217315e+001  1.748311e+002 
3662500000  -6.624329e+001  1.580080e+002 
3665625000  -6.261943e+001  1.503516e+002 
3668750000  -6.236381e+001  1.316230e+002 
3671875000  -6.344967e+001  1.244142e+002 
3675000000  -6.361507e+001  9.943105e+001 
3678125000  -6.511720e+001  8.904711e+001 
3681250000  -6.261945e+001  9.573479e+001 
3684375000  -6.574533e+001  7.683030e+001 
3687500000  -6.918229e+001  7.136985e+001 
3690625000  -7.253628e+001  8.406284e+001 
3693750000  -6.556704e+001  8.429787e+001 
3696875000  -7.104102e+001  8.297929e+001 
3700000000  -6.267036e+001  8.332348e+001 
3703125000  -6.364778e+001  4.087437e+001 
3706250000  -6.780426e+001  7.688514e+001 
3709375000  -7.161049e+001  -1.857872e+000 
3712500000  -6.058775e+001  7.782281e+001 
3715625000  -6.001113e+001  2.560072e+001 
3718750000  -6.109503e+001  1.777868e+001 
3721875000  -6.047013e+001  2.289985e+001 
3725000000  -6.144722e+001  3.478558e+001 
3728125000  -5.782537e+001  6.533308e+000 
3731250000  -5.834085e+001  -2.097959e+001 
3734375000  -5.961348e+001  -3.495963e+001 
3737500000  -5.893562e+001  -3.786176e+001 
3740625000  -6.000889e+001  -3.628084e+001 
3743750000  -5.941879e+001  -5.698808e+001 
3746875000  -5.970027e+001  -7.012633e+001 
3750000000  -5.839510e+001  -8.049562e+001 
3753125000  -5.889810e+001  -7.357971e+001 
3756250000  -5.768760e+001  -9.970160e+001 
3759375000  -5.961007e+001  -1.151917e+002 
3762500000  -5.731254e+001  -1.090734e+002 
3765625000  -5.853584e+001  -1.239535e+002 
3768750000  -5.744313e+001  -1.310011e+002 
3771875000  -5.510460e+001  -1.365924e+002 
3775000000  -5.720359e+001  -1.577438e+002 
3778125000  -5.700619e+001  1.776408e+002 
3781250000  -5.774016e+001  -1.779395e+002 
3784375000  -5.678321e+001  1.680777e+002 
3787500000  -5.729069e+001  1.512449e+002 
3790625000  -6.066237e+001  1.374530e+002 
3793750000  -5.816138e+001  1.373519e+002 
3796875000  -5.589363e+001  1.190343e+002 
3800000000  -5.353310e+001  7.677609e+001 
3803125000  -5.712761e+001  1.025303e+002 
3806250000  -6.090181e+001  7.602471e+001 
3809375000  -5.757791e+001  8.352350e+001 
3812500000  -5.739638e+001  6.333205e+001 
3815625000  -6.088720e+001  2.443338e+001 
3818750000  -5.893407e+001  3.707561e+001 
3821875000  -6.417677e+001  5.272776e+001 
3825000000  -5.832373e+001  4.933572e+001 
3828125000  -5.923903e+001  2.918719e+001 
3831250000  -6.299294e+001  1.509839e+001 
3834375000  -6.505137e+001  2.108632e+001 
3837500000  -6.249754e+001  1.870128e+001 
3840625000  -6.086698e+001  2.000749e+000 
3843750000  -6.152526e+001  -1.011880e+001 
3846875000  -6.277028e+001  -7.506265e+000 
3850000000  -6.420704e+001  -2.896839e+001 
3853125000  -6.330030e+001  -1.609348e+001 
3856250000  -6.207414e+001  -1.814199e+001 
3859375000  -6.005239e+001  -4.054525e+001 
3862500000  -6.043060e+001  -4.810326e+001 
3865625000  -5.967727e+001  -4.961830e+001 
3868750000  -5.928341e+001  -3.688902e+001 
3871875000  -5.828991e+001  -6.463607e+001 
3875000000  -5.822592e+001  -6.701341e+001 
3878125000  -5.846707e+001  -8.735369e+001 
3881250000  -5.891192e+001  -9.546956e+001 
3884375000  -5.700714e+001  -9.368584e+001 
3887500000  -5.569084e+001  -1.113919e+002 
3890625000  -5.755630e+001  -1.271525e+002 
3893750000  -5.661663e+001  -1.332050e+002 
3896875000  -5.744903e+001  -1.287628e+002 
3900000000  -5.690445e+001  -1.488564e+002 
3903125000  -5.541352e+001  -1.516800e+002 
3906250000  -5.502334e+001  -1.758128e+002 
3909375000  -5.547055e+001  1.722710e+002 
3912500000  -5.513535e+001  1.668559e+002 
3915625000  -5.581923e+001  1.648681e+002 
3918750000  -5.435308e+001  1.555736e+002 
3921875000  -5.459800e+001  1.355238e+002 
3925000000  -5.245739e+001  1.326398e+002 
3928125000  -5.293294e+001  1.066148e+002 
3931250000  -5.416836e+001  1.049274e+002 
3934375000  -5.386449e+001  8.838222e+001 
3937500000  -5.530189e+001  7.949216e+001 
3940625000  -5.496979e+001  7.049158e+001 
3943750000  -5.338654e+001  6.022082e+001 
3946875000  -5.251797e+001  4.877795e+001 
3950000000  -5.384736e+001  3.881023e+001 
3953125000  -5.387921e+001  3.060935e+001 
3956250000  -5.334545e+001  1.999458e+001 
3959375000  -5.172020e+001  1.101064e+001 
3962500000  -5.313475e+001  -1.070869e+001 
3965625000  -5.348718e+001  -1.160439e+001 
3968750000  -5.528457e+001  -3.751798e+001 
3971875000  -5.357238e+001  -3.789046e+001 
3975000000  -5.430157e+001  -5.864037e+001 
3978125000  -5.467239e+001  -6.141017e+001 
3981250000  -5.488330e+001  -7.010036e+001 
3984375000  -5.530371e+001  -9.349026e+001 
3987500000  -5.584698e+001  -9.434614e+001 
3990625000  -5.696005e+001  -1.019632e+002 
3993750000  -5.671450e+001  -1.216652e+002 
3996875000  -5.589221e+001  -1.145677e+002 
4000000000  -5.841961e+001  -1.244024e+002 
4003125000  -5.910823e+001  -1.369234e+002 
4006250000  -6.084690e+001  -1.501057e+002 
4009375000  -5.692265e+001  -1.568109e+002 
4012500000  -6.026314e+001  -1.690375e+002 
4015625000  -6.315589e+001  -1.692982e+002 
4018750000  -5.848739e+001  -1.685356e+002 
4021875000  -5.931791e+001  -1.739297e+002 
4025000000  -5.899586e+001  1.756577e+002 
4028125000  -5.880006e+001  1.665515e+002 
4031250000  -5.957248e+001  1.714230e+002 
4034375000  -6.094601e+001  1.657626e+002 
4037500000  -5.981860e+001  1.497654e+002 
4040625000  -5.906180e+001  1.608511e+002 
4043750000  -5.832028e+001  1.558598e+002 
4046875000  -5.886403e+001  1.493044e+002 
4050000000  -5.772073e+001  1.205424e+002 
4053125000  -5.626541e+001  1.236583e+002 
4056250000  -5.861077e+001  1.231236e+002 
4059375000  -5.633248e+001  1.085814e+002 
4062500000  -5.345797e+001  1.057440e+002 
4065625000  -5.355333e+001  8.555782e+001 
4068750000  -5.438362e+001  7.278119e+001 
4071875000  -5.313789e+001  6.030363e+001 
4075000000  -5.273339e+001  5.075533e+001 
4078125000  -5.355436e+001  3.579531e+001 
4081250000  -5.322604e+001  2.658125e+001 
4084375000  -5.158467e+001  8.564521e+000 
4087500000  -5.467570e+001  -6.739329e+000 
4090625000  -5.392336e+001  -1.559499e+000 
4093750000  -5.283654e+001  -2.576212e+001 
4096875000  -5.254157e+001  -3.138371e+001 
4100000000  -5.352968e+001  -4.950711e+001 
4103125000  -5.516687e+001  -5.093117e+001 
4106250000  -5.372884e+001  -5.946445e+001 
4109375000  -5.330066e+001  -6.550855e+001 
4112500000  -5.258623e+001  -8.271188e+001 
4115625000  -5.330664e+001  -8.885344e+001 
4118750000  -5.282623e+001  -9.895223e+001 
4121875000  -5.343283e+001  -1.228678e+002 
4125000000  -5.368783e+001  -1.231288e+002 
4128125000  -5.431484e+001  -1.301861e+002 
4131250000  -5.208684e+001  -1.377011e+002 
4134375000  -5.141148e+001  -1.456021e+002 
4137500000  -5.206957e+001  -1.686684e+002 
4140625000  -5.397675e+001  1.743354e+002 
4143750000  -5.523657e+001  1.730806e+002 
4146875000  -5.428131e+001  1.706707e+002 
4150000000  -5.274426e+001  1.653892e+002 
4153125000  -5.279779e+001  1.396437e+002 
4156250000  -5.626558e+001  1.233313e+002 
4159375000  -5.626164e+001  1.296112e+002 
4162500000  -5.608091e+001  1.181292e+002 
4165625000  -5.500211e+001  1.166252e+002 
4168750000  -5.558714e+001  8.285889e+001 
4171875000  -5.376468e+001  8.248873e+001 
4175000000  -5.834654e+001  6.168676e+001 
4178125000  -5.807363e+001  6.309664e+001 
4181250000  -5.873373e+001  4.264795e+001 
4184375000  -5.957170e+001  3.687164e+001 
4187500000  -5.914520e+001  2.159553e+001 
4190625000  -6.208527e+001  1.707848e+001 
4193750000  -6.354431e+001  2.614225e+001 
4196875000  -6.626741e+001  7.087638e+000 
4200000000  -6.312460e+001  1.902352e+001 
4203125000  -6.274666e+001  1.340033e+000 
4206250000  -5.843922e+001  1.994414e+001 
4209375000  -6.101694e+001  2.435269e+000 
4212500000  -6.179411e+001  9.136082e+000 
4215625000  -6.800796e+001  1.755386e+000 
4218750000  -6.659956e+001  1.678059e+001 
4221875000  -5.954196e+001  -7.465831e+000 
4225000000  -5.656050e+001  -2.634593e+001 
4228125000  -5.873093e+001  -2.665096e+001 
4231250000  -5.952725e+001  -1.930704e+001 
4234375000  -5.946360e+001  -3.997454e+001 
4237500000  -5.919696e+001  -4.352961e+001 
4240625000  -5.581240e+001  -7.539405e+001 
4243750000  -5.719399e+001  -6.238116e+001 
4246875000  -5.718143e+001  -7.359962e+001 
4250000000  -5.711206e+001  -8.879336e+001 
4253125000  -5.450949e+001  -8.861822e+001 
4256250000  -5.515028e+001  -1.079316e+002 
4259375000  -5.443981e+001  -1.039212e+002 
4262500000  -5.486359e+001  -1.382581e+002 
4265625000  -5.437768e+001  -1.178610e+002 
4268750000  -5.242258e+001  -1.459567e+002 
4271875000  -5.296660e+001  -1.607652e+002 
4275000000  -5.112357e+001  1.769065e+002 
4278125000  -5.534435e+001  1.660596e+002 
4281250000  -5.406064e+001  1.600674e+002 
4284375000  -5.433614e+001  1.591618e+002 
4287500000  -5.486137e+001  1.526545e+002 
4290625000  -5.559712e+001  1.514432e+002 
4293750000  -5.311437e+001  1.404662e+002 
4296875000  -5.134580e+001  1.178427e+002 
4300000000  -5.402078e+001  9.633475e+001 
4303125000  -5.290350e+001  9.032830e+001 
4306250000  -5.365649e+001  9.961568e+001 
4309375000  -5.051253e+001  8.391619e+001 
4312500000  -5.111642e+001  6.555509e+001 
4315625000  -5.163148e+001  5.476810e+001 
4318750000  -5.321228e+001  3.572235e+001 
4321875000  -5.213021e+001  4.213200e+001 
4325000000  -5.311425e+001  2.796728e+001 
4328125000  -5.068730e+001  1.175870e+001 
4331250000  -5.358553e+001  -4.415783e+000 
4334375000  -5.547414e+001  -1.825404e+001 
4337500000  -5.560157e+001  -3.303905e+001 
4340625000  -5.492672e+001  -2.211017e+001 
4343750000  -5.563056e+001  -3.567800e+001 
4346875000  -5.563687e+001  -4.095661e+001 
4350000000  -5.422154e+001  -5.725453e+001 
4353125000  -5.775443e+001  -7.487914e+001 
4356250000  -5.732577e+001  -7.622755e+001 
4359375000  -5.838882e+001  -3.715215e+001 
4362500000  -5.650726e+001  -8.918742e+001 
4365625000  -5.374611e+001  -9.889012e+001 
4368750000  -5.555830e+001  -8.932848e+001 
4371875000  -5.762244e+001  -1.155336e+002 
4375000000  -5.640225e+001  -1.142401e+002 
4378125000  -5.685321e+001  -1.157147e+002 
4381250000  -5.536418e+001  -1.289980e+002 
4384375000  -5.664388e+001  -1.499260e+002 
4387500000  -5.940389e+001  -1.457893e+002 
4390625000  -6.064894e+001  -1.440591e+002 
4393750000  -5.846186e+001  -1.405048e+002 
4396875000  -5.591210e+001  -1.588474e+002 
4400000000  -5.717680e+001  -1.775900e+002 
4403125000  -5.735406e+001  1.677840e+002 
4406250000  -5.582864e+001  1.730430e+002 
4409375000  -5.547496e+001  1.715136e+002 
4412500000  -5.871036e+001  1.535320e+002 
4415625000  -5.627439e+001  1.659995e+002 
4418750000  -5.540318e+001  1.626675e+002 
