!Agilent Technologies,E8363B,MY43030201,A.06.04.32
!Agilent E8363B: A.06.04.32
!Date: Tuesday, November 11, 2014 22:15:37
!Correction: S21(Response(S21)) 
!S1P File: Measurement: S21:
# Hz S  dB   R 50
3000000000  -4.920670e+001  -7.226269e+001 
3003125000  -5.153021e+001  -7.632104e+001 
3006250000  -5.159420e+001  -8.359019e+001 
3009375000  -5.242227e+001  -8.639612e+001 
3012500000  -5.072909e+001  -1.009408e+002 
3015625000  -5.089304e+001  -1.084365e+002 
3018750000  -5.159567e+001  -1.138018e+002 
3021875000  -4.990729e+001  -1.147018e+002 
3025000000  -4.844991e+001  -1.275314e+002 
3028125000  -4.799032e+001  -1.434559e+002 
3031250000  -4.703242e+001  -1.602392e+002 
3034375000  -4.657483e+001  1.796934e+002 
3037500000  -4.803089e+001  1.687750e+002 
3040625000  -4.931223e+001  1.513610e+002 
3043750000  -4.984934e+001  1.425021e+002 
3046875000  -5.059912e+001  1.319412e+002 
3050000000  -5.175513e+001  1.238484e+002 
3053125000  -5.156035e+001  1.203803e+002 
3056250000  -5.132771e+001  1.222065e+002 
3059375000  -5.043392e+001  1.151104e+002 
3062500000  -4.940368e+001  1.015650e+002 
3065625000  -4.859813e+001  8.929616e+001 
3068750000  -4.917890e+001  7.695435e+001 
3071875000  -4.903842e+001  6.939066e+001 
3075000000  -4.813511e+001  5.594647e+001 
3078125000  -4.826894e+001  4.898544e+001 
3081250000  -4.888189e+001  3.672128e+001 
3084375000  -4.766133e+001  2.485706e+001 
3087500000  -4.832526e+001  1.513511e+001 
3090625000  -4.789085e+001  -3.863628e+000 
3093750000  -4.902718e+001  -1.640095e+001 
3096875000  -4.929246e+001  -2.512701e+001 
3100000000  -4.931156e+001  -2.987326e+001 
3103125000  -4.952524e+001  -4.154476e+001 
3106250000  -4.914883e+001  -4.815183e+001 
3109375000  -4.960546e+001  -5.697648e+001 
3112500000  -4.918533e+001  -6.761844e+001 
3115625000  -4.942150e+001  -7.805611e+001 
3118750000  -5.024271e+001  -8.329598e+001 
3121875000  -4.926022e+001  -9.723548e+001 
3125000000  -5.118314e+001  -1.053597e+002 
3128125000  -5.054516e+001  -1.082631e+002 
3131250000  -4.869819e+001  -1.147500e+002 
3134375000  -4.817610e+001  -1.399189e+002 
3137500000  -4.927149e+001  -1.547497e+002 
3140625000  -4.958068e+001  -1.590751e+002 
3143750000  -5.070154e+001  -1.693259e+002 
3146875000  -5.011795e+001  -1.721987e+002 
3150000000  -4.913951e+001  -1.782028e+002 
3153125000  -4.875278e+001  1.644715e+002 
3156250000  -4.999034e+001  1.654409e+002 
3159375000  -4.816208e+001  1.607107e+002 
3162500000  -4.645838e+001  1.364615e+002 
3165625000  -4.766352e+001  1.230688e+002 
3168750000  -4.784010e+001  1.156242e+002 
3171875000  -4.744691e+001  1.034959e+002 
3175000000  -4.744987e+001  8.860038e+001 
3178125000  -4.741411e+001  8.529842e+001 
3181250000  -4.688096e+001  6.911289e+001 
3184375000  -4.686900e+001  5.290710e+001 
3187500000  -4.793288e+001  3.484578e+001 
3190625000  -4.943757e+001  2.343911e+001 
3193750000  -5.035579e+001  2.395889e+001 
3196875000  -4.932207e+001  2.027371e+001 
3200000000  -4.860635e+001  1.003228e+001 
3203125000  -4.847155e+001  -3.534443e+000 
3206250000  -4.850988e+001  -1.670686e+001 
3209375000  -4.803726e+001  -3.234121e+001 
3212500000  -4.815729e+001  -3.938784e+001 
3215625000  -4.857116e+001  -4.497911e+001 
3218750000  -4.919242e+001  -6.342064e+001 
3221875000  -4.929493e+001  -7.520410e+001 
3225000000  -4.964973e+001  -8.517697e+001 
3228125000  -5.007092e+001  -9.432040e+001 
3231250000  -5.077039e+001  -1.036277e+002 
3234375000  -4.981604e+001  -1.101604e+002 
3237500000  -5.097156e+001  -1.203910e+002 
3240625000  -5.012883e+001  -1.270945e+002 
3243750000  -5.031238e+001  -1.429169e+002 
3246875000  -5.026967e+001  -1.541269e+002 
3250000000  -5.088113e+001  -1.621404e+002 
3253125000  -5.153137e+001  -1.684944e+002 
3256250000  -5.049730e+001  1.745493e+002 
3259375000  -5.069719e+001  1.556768e+002 
3262500000  -5.251224e+001  1.521036e+002 
3265625000  -5.329358e+001  1.485278e+002 
3268750000  -5.313184e+001  1.430455e+002 
3271875000  -5.255251e+001  1.339495e+002 
3275000000  -5.192914e+001  1.201667e+002 
3278125000  -5.337338e+001  1.054498e+002 
3281250000  -5.243322e+001  1.068902e+002 
3284375000  -5.274722e+001  9.873863e+001 
3287500000  -5.424501e+001  8.586505e+001 
3290625000  -5.335065e+001  7.727325e+001 
3293750000  -5.332524e+001  6.096142e+001 
3296875000  -5.404953e+001  5.421628e+001 
3300000000  -5.430466e+001  4.896015e+001 
3303125000  -5.301180e+001  4.146481e+001 
3306250000  -5.357909e+001  2.493105e+001 
3309375000  -5.329941e+001  1.914464e+001 
3312500000  -5.322161e+001  -2.307448e+000 
3315625000  -5.449443e+001  -1.074775e+001 
3318750000  -5.557872e+001  -2.116721e+001 
3321875000  -5.767462e+001  -2.375852e+001 
3325000000  -5.616338e+001  -1.647312e+001 
3328125000  -5.613222e+001  -2.737622e+001 
3331250000  -5.440495e+001  -2.615267e+001 
3334375000  -5.223611e+001  -4.915574e+001 
3337500000  -5.317996e+001  -7.035770e+001 
3340625000  -5.450029e+001  -8.821769e+001 
3343750000  -5.618167e+001  -8.203812e+001 
3346875000  -5.491093e+001  -9.857082e+001 
3350000000  -5.495192e+001  -9.825071e+001 
3353125000  -5.456506e+001  -1.129597e+002 
3356250000  -5.472376e+001  -1.239320e+002 
3359375000  -5.423377e+001  -1.450979e+002 
3362500000  -5.616342e+001  -1.491735e+002 
3365625000  -5.605157e+001  -1.536263e+002 
3368750000  -5.782697e+001  -1.697009e+002 
3371875000  -5.701212e+001  1.771621e+002 
3375000000  -5.835134e+001  1.780999e+002 
3378125000  -5.935480e+001  1.720710e+002 
3381250000  -5.975231e+001  1.692017e+002 
3384375000  -5.864235e+001  -1.791423e+002 
3387500000  -5.485522e+001  1.594088e+002 
3390625000  -5.713601e+001  1.252503e+002 
3393750000  -5.786271e+001  1.275515e+002 
3396875000  -5.829702e+001  1.145920e+002 
3400000000  -5.574204e+001  9.970536e+001 
3403125000  -5.785791e+001  9.632778e+001 
3406250000  -5.784428e+001  8.347212e+001 
3409375000  -5.783659e+001  5.771672e+001 
3412500000  -5.648410e+001  5.648417e+001 
3415625000  -6.149519e+001  4.647306e+001 
3418750000  -5.916745e+001  4.160056e+001 
3421875000  -6.280433e+001  2.550230e+001 
3425000000  -6.052744e+001  3.335225e+001 
3428125000  -5.845800e+001  4.149630e+000 
3431250000  -6.031369e+001  -9.395745e+000 
3434375000  -6.007516e+001  -2.734149e+001 
3437500000  -6.205594e+001  -2.173468e+001 
3440625000  -6.220858e+001  -3.311189e+001 
3443750000  -6.169029e+001  -3.433265e+001 
3446875000  -6.081710e+001  -4.217418e+001 
3450000000  -6.307087e+001  -9.490320e+001 
3453125000  -6.300523e+001  -7.708554e+001 
3456250000  -6.693430e+001  -1.064908e+002 
3459375000  -6.697667e+001  -1.000235e+002 
3462500000  -6.591041e+001  -1.040502e+002 
3465625000  -6.658376e+001  -9.624198e+001 
3468750000  -6.938100e+001  -9.102122e+001 
3471875000  -7.319223e+001  -1.103826e+002 
3475000000  -6.595480e+001  -9.760992e+001 
3478125000  -6.950210e+001  -1.258630e+002 
3481250000  -6.875546e+001  -1.479945e+002 
3484375000  -7.009431e+001  -1.599800e+002 
3487500000  -6.701541e+001  -1.287867e+002 
3490625000  -6.447406e+001  -1.164175e+002 
3493750000  -6.970626e+001  -1.387714e+002 
3496875000  -7.363765e+001  -1.458881e+002 
3500000000  -6.772353e+001  -1.418680e+002 
3503125000  -7.101478e+001  1.799337e+002 
3506250000  -6.447864e+001  -1.698429e+002 
3509375000  -6.326709e+001  -1.675787e+002 
3512500000  -6.671137e+001  1.362133e+002 
3515625000  -6.697682e+001  1.512579e+002 
3518750000  -6.726056e+001  1.526142e+002 
3521875000  -7.652403e+001  1.144204e+002 
3525000000  -6.843847e+001  1.092965e+002 
3528125000  -8.441795e+001  1.719976e+002 
3531250000  -6.613067e+001  1.073076e+002 
3534375000  -6.515926e+001  1.410457e+002 
3537500000  -6.985374e+001  1.060474e+002 
3540625000  -7.298458e+001  4.773886e+001 
3543750000  -7.143557e+001  1.316946e+002 
3546875000  -7.374210e+001  8.043081e+001 
3550000000  -7.073067e+001  8.866479e+001 
3553125000  -6.706345e+001  3.887191e+001 
3556250000  -7.884383e+001  1.512823e+002 
3559375000  -7.525528e+001  2.030641e+001 
3562500000  -7.137056e+001  4.321228e+001 
3565625000  -7.109356e+001  4.908013e+001 
3568750000  -8.387712e+001  2.942872e+001 
3571875000  -7.235264e+001  4.407418e+001 
3575000000  -7.217288e+001  7.152520e+000 
3578125000  -6.933994e+001  5.004231e+001 
3581250000  -7.435188e+001  -2.174962e+001 
3584375000  -7.108801e+001  -2.757023e+001 
3587500000  -7.053732e+001  6.963392e+001 
3590625000  -6.656049e+001  3.595698e+000 
3593750000  -7.483949e+001  -5.746881e+001 
3596875000  -6.452746e+001  3.346587e+001 
3600000000  -6.786977e+001  1.502559e+001 
3603125000  -6.391662e+001  -1.842134e+001 
3606250000  -6.571252e+001  -5.153660e+001 
3609375000  -6.423290e+001  -2.665085e+001 
3612500000  -6.481611e+001  -4.931379e+001 
3615625000  -6.590095e+001  -1.564027e+001 
3618750000  -6.509492e+001  -6.007775e+001 
3621875000  -6.573566e+001  -8.890533e+001 
3625000000  -6.480388e+001  -8.719872e+001 
3628125000  -6.405202e+001  -1.112182e+002 
3631250000  -6.204421e+001  -1.007398e+002 
3634375000  -6.797234e+001  -1.182663e+002 
3637500000  -6.411226e+001  -1.070886e+002 
3640625000  -6.200242e+001  -1.308999e+002 
3643750000  -6.228788e+001  -1.434098e+002 
3646875000  -6.046507e+001  -1.696933e+002 
3650000000  -6.287673e+001  -1.712888e+002 
3653125000  -6.454853e+001  -1.761603e+002 
3656250000  -6.388884e+001  -1.790671e+002 
3659375000  -6.594588e+001  1.763050e+002 
3662500000  -6.313823e+001  1.652551e+002 
3665625000  -6.178945e+001  1.559014e+002 
3668750000  -6.391330e+001  1.362226e+002 
3671875000  -6.382832e+001  1.060430e+002 
3675000000  -6.518559e+001  9.495833e+001 
3678125000  -6.209956e+001  1.200690e+002 
3681250000  -6.353534e+001  1.032648e+002 
3684375000  -7.108602e+001  1.009782e+002 
3687500000  -6.701307e+001  7.557433e+001 
3690625000  -6.856814e+001  7.855136e+001 
3693750000  -6.403416e+001  9.607734e+001 
3696875000  -6.496946e+001  8.280663e+001 
3700000000  -6.357802e+001  8.237369e+001 
3703125000  -6.637743e+001  5.470879e+001 
3706250000  -6.492922e+001  6.021062e+001 
3709375000  -7.092960e+001  6.811369e+001 
3712500000  -6.162112e+001  6.141317e+001 
3715625000  -6.186565e+001  5.173022e+001 
3718750000  -6.294860e+001  3.475278e+001 
3721875000  -6.097757e+001  2.618246e+001 
3725000000  -6.040606e+001  5.494680e+000 
3728125000  -6.032924e+001  1.714309e+000 
3731250000  -6.139825e+001  -1.319442e+001 
3734375000  -5.861205e+001  -1.724268e+001 
3737500000  -5.776044e+001  -3.441604e+001 
3740625000  -5.855086e+001  -2.824095e+001 
3743750000  -5.863430e+001  -5.146980e+001 
3746875000  -5.860637e+001  -7.074107e+001 
3750000000  -5.826936e+001  -8.465448e+001 
3753125000  -5.780181e+001  -7.146671e+001 
3756250000  -5.709633e+001  -9.614430e+001 
3759375000  -5.829150e+001  -1.102963e+002 
3762500000  -5.686200e+001  -1.171969e+002 
3765625000  -5.870592e+001  -1.294326e+002 
3768750000  -5.744198e+001  -1.320539e+002 
3771875000  -5.533172e+001  -1.413995e+002 
3775000000  -5.718970e+001  -1.659456e+002 
3778125000  -5.759644e+001  1.777187e+002 
3781250000  -5.697503e+001  -1.794185e+002 
3784375000  -5.676533e+001  1.628046e+002 
3787500000  -5.712773e+001  1.472906e+002 
3790625000  -5.694844e+001  1.459064e+002 
3793750000  -5.693567e+001  1.328697e+002 
3796875000  -5.934695e+001  1.251096e+002 
3800000000  -5.335488e+001  8.503483e+001 
3803125000  -5.703520e+001  9.732710e+001 
3806250000  -5.797484e+001  8.434211e+001 
3809375000  -5.922664e+001  8.030862e+001 
3812500000  -5.596957e+001  5.888828e+001 
3815625000  -6.166721e+001  2.904323e+001 
3818750000  -6.152950e+001  4.292643e+001 
3821875000  -6.110553e+001  4.483425e+001 
3825000000  -6.036131e+001  4.533371e+001 
3828125000  -6.102101e+001  3.667424e+001 
3831250000  -6.114329e+001  1.001358e+001 
3834375000  -6.724932e+001  2.169471e-001 
3837500000  -6.621964e+001  4.133561e+001 
3840625000  -6.511015e+001  3.935806e+001 
3843750000  -6.129659e+001  1.826440e+000 
3846875000  -6.103169e+001  -1.621418e+001 
3850000000  -6.347784e+001  -9.444163e+000 
3853125000  -6.338964e+001  -2.165000e+001 
3856250000  -6.079452e+001  5.088682e+000 
3859375000  -5.800694e+001  -2.805939e+001 
3862500000  -6.140998e+001  -2.512369e+001 
3865625000  -6.103755e+001  -5.611571e+001 
3868750000  -5.872242e+001  -5.160803e+001 
3871875000  -5.672489e+001  -6.480012e+001 
3875000000  -5.857382e+001  -5.375739e+001 
3878125000  -5.807077e+001  -8.716341e+001 
3881250000  -5.678962e+001  -7.334272e+001 
3884375000  -5.487826e+001  -1.010339e+002 
3887500000  -5.636340e+001  -1.034354e+002 
3890625000  -5.667421e+001  -1.127742e+002 
3893750000  -5.746656e+001  -1.258213e+002 
3896875000  -5.819403e+001  -1.408243e+002 
3900000000  -5.528568e+001  -1.533273e+002 
3903125000  -5.472783e+001  -1.495835e+002 
3906250000  -5.389883e+001  -1.690247e+002 
3909375000  -5.549406e+001  1.786985e+002 
3912500000  -5.496399e+001  1.602185e+002 
3915625000  -5.607988e+001  1.577018e+002 
3918750000  -5.448913e+001  1.501816e+002 
3921875000  -5.332909e+001  1.445442e+002 
3925000000  -5.337776e+001  1.293910e+002 
3928125000  -5.293221e+001  1.082439e+002 
3931250000  -5.333550e+001  1.032755e+002 
3934375000  -5.421910e+001  9.030354e+001 
3937500000  -5.562570e+001  8.423219e+001 
3940625000  -5.524861e+001  7.457326e+001 
3943750000  -5.339335e+001  6.678368e+001 
3946875000  -5.274167e+001  5.413171e+001 
3950000000  -5.541704e+001  4.118377e+001 
3953125000  -5.460278e+001  3.813442e+001 
3956250000  -5.437517e+001  2.236490e+001 
3959375000  -5.196755e+001  1.463682e+001 
3962500000  -5.317652e+001  -1.313373e+000 
3965625000  -5.437827e+001  -9.461139e+000 
3968750000  -5.451136e+001  -2.605789e+001 
3971875000  -5.514783e+001  -3.918285e+001 
3975000000  -5.340641e+001  -5.729512e+001 
3978125000  -5.369146e+001  -5.062201e+001 
3981250000  -5.505968e+001  -7.649432e+001 
3984375000  -5.722356e+001  -8.347071e+001 
3987500000  -5.569297e+001  -8.933247e+001 
3990625000  -5.643743e+001  -1.048400e+002 
3993750000  -5.727179e+001  -1.136143e+002 
3996875000  -5.963761e+001  -1.147282e+002 
4000000000  -6.016489e+001  -1.305011e+002 
4003125000  -5.929686e+001  -1.358488e+002 
4006250000  -5.773333e+001  -1.296607e+002 
4009375000  -5.903145e+001  -1.549937e+002 
4012500000  -6.045729e+001  -1.546651e+002 
4015625000  -6.199617e+001  -1.593250e+002 
4018750000  -6.060729e+001  -1.458868e+002 
4021875000  -5.991938e+001  -1.654462e+002 
4025000000  -6.039812e+001  1.579510e+002 
4028125000  -5.898670e+001  1.757808e+002 
4031250000  -6.004384e+001  1.654483e+002 
4034375000  -5.975693e+001  1.634747e+002 
4037500000  -5.748470e+001  1.548893e+002 
4040625000  -5.973206e+001  1.457485e+002 
4043750000  -5.962620e+001  1.553189e+002 
4046875000  -5.675504e+001  1.414242e+002 
4050000000  -5.654425e+001  1.359695e+002 
4053125000  -5.827140e+001  1.184340e+002 
4056250000  -5.797152e+001  1.145058e+002 
4059375000  -5.700454e+001  1.148546e+002 
4062500000  -5.661440e+001  9.773328e+001 
4065625000  -5.442489e+001  8.488604e+001 
4068750000  -5.347545e+001  7.741203e+001 
4071875000  -5.321260e+001  5.915083e+001 
4075000000  -5.326571e+001  4.664647e+001 
4078125000  -5.324857e+001  4.163705e+001 
4081250000  -5.293519e+001  3.694902e+001 
4084375000  -5.214956e+001  1.265892e+001 
4087500000  -5.372300e+001  -6.552729e+000 
4090625000  -5.405792e+001  -9.141189e+000 
4093750000  -5.308534e+001  -1.063921e+001 
4096875000  -5.237397e+001  -3.351778e+001 
4100000000  -5.381569e+001  -4.711617e+001 
4103125000  -5.506665e+001  -4.185101e+001 
4106250000  -5.393530e+001  -5.092446e+001 
4109375000  -5.353964e+001  -5.879917e+001 
4112500000  -5.142692e+001  -8.400075e+001 
4115625000  -5.440236e+001  -8.309936e+001 
4118750000  -5.101159e+001  -9.796622e+001 
4121875000  -5.241993e+001  -1.147398e+002 
4125000000  -5.314175e+001  -1.247745e+002 
4128125000  -5.438819e+001  -1.305139e+002 
4131250000  -5.490594e+001  -1.255914e+002 
4134375000  -5.156300e+001  -1.517714e+002 
4137500000  -5.245994e+001  -1.796947e+002 
4140625000  -5.481242e+001  1.711227e+002 
4143750000  -5.495699e+001  1.775678e+002 
4146875000  -5.466903e+001  1.675056e+002 
4150000000  -5.556916e+001  1.555025e+002 
4153125000  -5.339444e+001  1.335974e+002 
4156250000  -5.803012e+001  1.336440e+002 
4159375000  -5.680939e+001  1.274559e+002 
4162500000  -5.660109e+001  1.285365e+002 
4165625000  -5.551218e+001  1.197974e+002 
4168750000  -5.541504e+001  9.282014e+001 
4171875000  -5.541176e+001  7.370296e+001 
4175000000  -5.641623e+001  7.256017e+001 
4178125000  -5.811581e+001  6.472514e+001 
4181250000  -5.766402e+001  5.696167e+001 
4184375000  -6.116941e+001  4.891663e+001 
4187500000  -5.819363e+001  3.210579e+001 
4190625000  -5.989675e+001  1.195342e+001 
4193750000  -5.921482e+001  9.493663e+000 
4196875000  -6.281106e+001  2.194032e+001 
4200000000  -6.328901e+001  4.214053e+001 
4203125000  -6.600330e+001  -3.682800e+000 
4206250000  -6.691165e+001  1.948405e+001 
4209375000  -5.759662e+001  -3.873335e+000 
4212500000  -6.148753e+001  -6.063595e+000 
4215625000  -6.254065e+001  -4.561235e+001 
4218750000  -6.214761e+001  -1.861325e+000 
4221875000  -6.157657e+001  -1.384189e+001 
4225000000  -5.987907e+001  1.884900e+001 
4228125000  -5.882652e+001  -2.320532e+001 
4231250000  -5.710233e+001  -2.374019e+001 
4234375000  -5.548769e+001  -3.970055e+001 
4237500000  -5.870179e+001  -5.763208e+001 
4240625000  -5.563532e+001  -6.518888e+001 
4243750000  -5.630822e+001  -8.204831e+001 
4246875000  -5.514107e+001  -7.026856e+001 
4250000000  -5.877709e+001  -9.178112e+001 
4253125000  -5.462073e+001  -8.222424e+001 
4256250000  -5.698956e+001  -1.007884e+002 
4259375000  -5.359863e+001  -9.956599e+001 
4262500000  -5.469804e+001  -1.344639e+002 
4265625000  -5.481676e+001  -1.237412e+002 
4268750000  -5.270047e+001  -1.419146e+002 
4271875000  -5.232382e+001  -1.545705e+002 
4275000000  -5.146065e+001  -1.754774e+002 
4278125000  -5.356523e+001  1.794659e+002 
4281250000  -5.382120e+001  1.559219e+002 
4284375000  -5.464573e+001  1.546486e+002 
4287500000  -5.455757e+001  1.486390e+002 
4290625000  -5.717596e+001  1.502443e+002 
4293750000  -5.353271e+001  1.456440e+002 
4296875000  -5.254808e+001  1.312725e+002 
4300000000  -5.399112e+001  1.115799e+002 
4303125000  -5.224247e+001  9.975580e+001 
4306250000  -5.258484e+001  1.016253e+002 
4309375000  -5.200665e+001  8.169926e+001 
4312500000  -5.145677e+001  7.086976e+001 
4315625000  -5.195046e+001  6.346729e+001 
4318750000  -5.334681e+001  3.505354e+001 
4321875000  -5.294051e+001  3.503848e+001 
4325000000  -5.260569e+001  2.735111e+001 
4328125000  -5.183054e+001  1.653103e+001 
4331250000  -5.370784e+001  -6.939805e+000 
4334375000  -5.337998e+001  -1.460075e+001 
4337500000  -5.422104e+001  -2.875476e+001 
4340625000  -5.570895e+001  -2.420296e+001 
4343750000  -5.526775e+001  -2.580962e+001 
4346875000  -5.523782e+001  -3.106771e+001 
4350000000  -5.567464e+001  -4.977342e+001 
4353125000  -5.677719e+001  -6.426326e+001 
4356250000  -5.692385e+001  -6.379573e+001 
4359375000  -5.813334e+001  -3.968311e+001 
4362500000  -5.635484e+001  -6.857178e+001 
4365625000  -5.444882e+001  -8.773637e+001 
4368750000  -5.325156e+001  -8.894358e+001 
4371875000  -5.677244e+001  -1.165036e+002 
4375000000  -5.603649e+001  -1.134936e+002 
4378125000  -5.758301e+001  -1.219310e+002 
4381250000  -5.850247e+001  -1.321135e+002 
4384375000  -5.787450e+001  -1.424112e+002 
4387500000  -5.661245e+001  -1.391166e+002 
4390625000  -5.785155e+001  -1.459520e+002 
4393750000  -5.610091e+001  -1.494661e+002 
4396875000  -5.630142e+001  -1.513460e+002 
4400000000  -5.596762e+001  -1.674738e+002 
4403125000  -5.645915e+001  -1.708728e+002 
4406250000  -5.784002e+001  -1.795849e+002 
4409375000  -5.546325e+001  1.702289e+002 
4412500000  -5.685983e+001  1.579673e+002 
4415625000  -5.550802e+001  1.653006e+002 
4418750000  -5.512078e+001  1.533628e+002 
