!Agilent Technologies,E8363B,MY43030201,A.06.04.32
!Agilent E8363B: A.06.04.32
!Date: Tuesday, November 11, 2014 22:10:28
!Correction: S21(Response(S21)) 
!S1P File: Measurement: S21:
# Hz S  dB   R 50
3000000000  -4.898523e+001  -7.500061e+001 
3003125000  -5.106844e+001  -8.615401e+001 
3006250000  -5.122392e+001  -9.139299e+001 
3009375000  -5.202487e+001  -8.951878e+001 
3012500000  -5.125906e+001  -9.805421e+001 
3015625000  -5.130985e+001  -1.110276e+002 
3018750000  -5.199582e+001  -1.134699e+002 
3021875000  -4.973919e+001  -1.191566e+002 
3025000000  -4.934464e+001  -1.299311e+002 
3028125000  -4.798453e+001  -1.448675e+002 
3031250000  -4.718753e+001  -1.639199e+002 
3034375000  -4.726805e+001  1.781069e+002 
3037500000  -4.783319e+001  1.644349e+002 
3040625000  -4.951731e+001  1.493425e+002 
3043750000  -4.967509e+001  1.394337e+002 
3046875000  -4.999595e+001  1.289671e+002 
3050000000  -5.115415e+001  1.228526e+002 
3053125000  -5.110558e+001  1.211724e+002 
3056250000  -5.088569e+001  1.198283e+002 
3059375000  -5.074678e+001  1.071678e+002 
3062500000  -4.980855e+001  9.720576e+001 
3065625000  -4.923363e+001  8.846945e+001 
3068750000  -4.831862e+001  7.501809e+001 
3071875000  -4.905554e+001  6.383379e+001 
3075000000  -4.847231e+001  5.470583e+001 
3078125000  -4.842209e+001  4.204603e+001 
3081250000  -4.884037e+001  3.407940e+001 
3084375000  -4.843613e+001  2.478298e+001 
3087500000  -4.806295e+001  1.198833e+001 
3090625000  -4.824049e+001  -6.124820e+000 
3093750000  -4.942128e+001  -1.648601e+001 
3096875000  -4.951116e+001  -2.785810e+001 
3100000000  -4.910325e+001  -3.702713e+001 
3103125000  -4.945228e+001  -4.064959e+001 
3106250000  -4.938497e+001  -4.977165e+001 
3109375000  -5.010179e+001  -6.296944e+001 
3112500000  -4.965926e+001  -7.006615e+001 
3115625000  -4.922601e+001  -7.935368e+001 
3118750000  -4.979393e+001  -8.529150e+001 
3121875000  -4.910679e+001  -1.001097e+002 
3125000000  -5.108136e+001  -1.078504e+002 
3128125000  -5.081491e+001  -1.088720e+002 
3131250000  -4.832943e+001  -1.176724e+002 
3134375000  -4.739876e+001  -1.432300e+002 
3137500000  -4.875091e+001  -1.557592e+002 
3140625000  -4.955032e+001  -1.611497e+002 
3143750000  -5.053773e+001  -1.699142e+002 
3146875000  -4.962470e+001  -1.740767e+002 
3150000000  -4.928457e+001  -1.794395e+002 
3153125000  -4.907975e+001  1.671908e+002 
3156250000  -5.033179e+001  1.632902e+002 
3159375000  -4.768888e+001  1.588273e+002 
3162500000  -4.616739e+001  1.346988e+002 
3165625000  -4.742178e+001  1.206579e+002 
3168750000  -4.780484e+001  1.139418e+002 
3171875000  -4.728866e+001  1.030445e+002 
3175000000  -4.764288e+001  9.010793e+001 
3178125000  -4.713311e+001  8.095141e+001 
3181250000  -4.612188e+001  6.761629e+001 
3184375000  -4.696621e+001  5.064534e+001 
3187500000  -4.815330e+001  3.462121e+001 
3190625000  -4.949170e+001  1.997285e+001 
3193750000  -5.009090e+001  2.092873e+001 
3196875000  -4.966979e+001  1.856338e+001 
3200000000  -4.828860e+001  8.453211e+000 
3203125000  -4.836580e+001  -5.746742e+000 
3206250000  -4.855092e+001  -1.781440e+001 
3209375000  -4.820038e+001  -3.233535e+001 
3212500000  -4.944752e+001  -4.312549e+001 
3215625000  -4.851870e+001  -4.790896e+001 
3218750000  -4.946381e+001  -6.661909e+001 
3221875000  -4.928107e+001  -7.514217e+001 
3225000000  -4.985315e+001  -8.602819e+001 
3228125000  -4.993018e+001  -9.369007e+001 
3231250000  -5.082687e+001  -1.038164e+002 
3234375000  -4.978284e+001  -1.137023e+002 
3237500000  -5.050889e+001  -1.213764e+002 
3240625000  -5.001918e+001  -1.289465e+002 
3243750000  -4.979236e+001  -1.474490e+002 
3246875000  -5.030325e+001  -1.576469e+002 
3250000000  -5.099447e+001  -1.642778e+002 
3253125000  -5.108178e+001  -1.682008e+002 
3256250000  -5.043214e+001  1.722309e+002 
3259375000  -5.102514e+001  1.564923e+002 
3262500000  -5.209217e+001  1.477258e+002 
3265625000  -5.277285e+001  1.429465e+002 
3268750000  -5.318149e+001  1.426161e+002 
3271875000  -5.311556e+001  1.362737e+002 
3275000000  -5.260761e+001  1.200563e+002 
3278125000  -5.265678e+001  1.126830e+002 
3281250000  -5.263856e+001  1.028019e+002 
3284375000  -5.258761e+001  9.751517e+001 
3287500000  -5.366397e+001  8.841571e+001 
3290625000  -5.282568e+001  6.954012e+001 
3293750000  -5.302621e+001  5.836504e+001 
3296875000  -5.348919e+001  4.879718e+001 
3300000000  -5.483400e+001  5.055556e+001 
3303125000  -5.264188e+001  3.896305e+001 
3306250000  -5.274010e+001  2.445034e+001 
3309375000  -5.290694e+001  1.420926e+001 
3312500000  -5.291739e+001  -5.227800e+000 
3315625000  -5.489288e+001  -8.128179e+000 
3318750000  -5.547056e+001  -2.221187e+001 
3321875000  -5.855078e+001  -3.195781e+001 
3325000000  -5.566951e+001  -2.197437e+001 
3328125000  -5.728632e+001  -2.120937e+001 
3331250000  -5.330965e+001  -2.276711e+001 
3334375000  -5.237938e+001  -5.409969e+001 
3337500000  -5.187191e+001  -6.991523e+001 
3340625000  -5.430263e+001  -8.654268e+001 
3343750000  -5.576671e+001  -9.104025e+001 
3346875000  -5.527316e+001  -1.009885e+002 
3350000000  -5.455429e+001  -1.058210e+002 
3353125000  -5.424989e+001  -1.199189e+002 
3356250000  -5.460345e+001  -1.313875e+002 
3359375000  -5.463017e+001  -1.492483e+002 
3362500000  -5.670703e+001  -1.549279e+002 
3365625000  -5.600011e+001  -1.624093e+002 
3368750000  -5.771453e+001  -1.756460e+002 
3371875000  -5.600144e+001  1.787451e+002 
3375000000  -5.751857e+001  1.659381e+002 
3378125000  -5.811486e+001  1.656560e+002 
3381250000  -5.886379e+001  1.637386e+002 
3384375000  -5.545781e+001  -1.762135e+002 
3387500000  -5.367142e+001  1.408161e+002 
3390625000  -5.708495e+001  1.199049e+002 
3393750000  -5.669739e+001  1.172193e+002 
3396875000  -5.798524e+001  1.069672e+002 
3400000000  -5.639808e+001  9.484898e+001 
3403125000  -5.735399e+001  8.098828e+001 
3406250000  -5.864252e+001  7.293934e+001 
3409375000  -5.753547e+001  5.891091e+001 
3412500000  -5.779650e+001  5.452704e+001 
3415625000  -5.843559e+001  4.386612e+001 
3418750000  -5.925449e+001  3.363348e+001 
3421875000  -6.026920e+001  2.720569e+001 
3425000000  -6.024232e+001  2.941051e+001 
3428125000  -5.783218e+001  4.979099e+000 
3431250000  -6.014611e+001  -8.534470e+000 
3434375000  -5.961589e+001  -2.612449e+001 
3437500000  -6.398373e+001  -2.014576e+001 
3440625000  -6.065337e+001  -2.724457e+001 
3443750000  -6.297159e+001  -3.376577e+001 
3446875000  -6.296612e+001  -5.402925e+001 
3450000000  -6.275592e+001  -6.988097e+001 
3453125000  -6.553382e+001  -7.975084e+001 
3456250000  -6.687112e+001  -7.915760e+001 
3459375000  -6.379713e+001  -7.088118e+001 
3462500000  -6.646522e+001  -1.170469e+002 
3465625000  -6.795480e+001  -1.026690e+002 
3468750000  -6.672771e+001  -1.208688e+002 
3471875000  -6.488553e+001  -1.182814e+002 
3475000000  -6.787239e+001  -1.057642e+002 
3478125000  -7.488877e+001  -7.668774e+001 
3481250000  -7.271698e+001  -1.581394e+002 
3484375000  -6.973004e+001  -1.242976e+002 
3487500000  -6.608148e+001  -1.378895e+002 
3490625000  -6.405562e+001  -1.305816e+002 
3493750000  -7.079123e+001  -1.358410e+002 
3496875000  -6.765226e+001  -1.449055e+002 
3500000000  -6.691367e+001  -1.791886e+002 
3503125000  -7.109579e+001  -1.408918e+002 
3506250000  -6.400239e+001  -1.720748e+002 
3509375000  -6.552460e+001  1.700490e+002 
3512500000  -6.630418e+001  1.515509e+002 
3515625000  -6.584986e+001  1.697506e+002 
3518750000  -6.548566e+001  1.579086e+002 
3521875000  -6.850806e+001  1.582909e+002 
3525000000  -6.674753e+001  1.159376e+002 
3528125000  -7.249413e+001  1.235380e+002 
3531250000  -6.537115e+001  1.038153e+002 
3534375000  -6.829698e+001  7.864166e+001 
3537500000  -6.763113e+001  6.347791e+001 
3540625000  -7.108579e+001  2.676197e+001 
3543750000  -6.870883e+001  9.274574e+001 
3546875000  -7.818501e+001  8.978754e+001 
3550000000  -7.414079e+001  -6.557411e+000 
3553125000  -7.077416e+001  4.303611e+000 
3556250000  -7.222092e+001  5.824472e+001 
3559375000  -7.293404e+001  3.624788e+001 
3562500000  -7.237935e+001  5.837117e+001 
3565625000  -7.346622e+001  -2.093857e+001 
3568750000  -7.143025e+001  1.207628e+002 
3571875000  -7.423228e+001  7.140311e+001 
3575000000  -9.058198e+001  -1.980747e+001 
3578125000  -6.719228e+001  2.320641e+001 
3581250000  -7.408220e+001  3.125181e+001 
3584375000  -6.898429e+001  4.231418e+001 
3587500000  -7.413529e+001  -4.757919e+001 
3590625000  -7.180493e+001  -1.099725e+001 
3593750000  -6.598566e+001  -1.465093e+001 
3596875000  -6.509022e+001  4.437241e+001 
3600000000  -6.558785e+001  1.296487e+001 
3603125000  -6.528547e+001  -2.310421e+001 
3606250000  -6.692514e+001  -5.132797e+001 
3609375000  -6.736464e+001  -6.432124e+001 
3612500000  -6.320419e+001  -4.911312e+001 
3615625000  -7.146494e+001  -6.199115e+001 
3618750000  -6.401781e+001  -6.004748e+001 
3621875000  -6.567907e+001  -6.483415e+001 
3625000000  -6.426318e+001  -8.875751e+001 
3628125000  -6.495432e+001  -9.915257e+001 
3631250000  -6.144370e+001  -1.151280e+002 
3634375000  -6.761278e+001  -1.078655e+002 
3637500000  -6.286383e+001  -1.417305e+002 
3640625000  -6.055983e+001  -1.418223e+002 
3643750000  -6.159502e+001  -1.426067e+002 
3646875000  -6.270576e+001  -1.777567e+002 
3650000000  -6.364188e+001  1.578649e+002 
3653125000  -6.196021e+001  1.692330e+002 
3656250000  -6.526720e+001  1.372653e+002 
3659375000  -6.585947e+001  1.660948e+002 
3662500000  -6.384501e+001  1.544343e+002 
3665625000  -6.595578e+001  1.579642e+002 
3668750000  -6.270959e+001  1.169770e+002 
3671875000  -6.572897e+001  1.216857e+002 
3675000000  -6.500197e+001  1.268433e+002 
3678125000  -6.416710e+001  1.024772e+002 
3681250000  -6.237595e+001  1.231118e+002 
3684375000  -6.741869e+001  7.239522e+001 
3687500000  -6.798482e+001  5.443928e+001 
3690625000  -6.934901e+001  6.120262e+001 
3693750000  -6.436642e+001  8.609943e+001 
3696875000  -6.729871e+001  6.733591e+001 
3700000000  -6.467147e+001  7.348978e+001 
3703125000  -6.669199e+001  5.926423e+001 
3706250000  -6.655587e+001  4.315663e+001 
3709375000  -6.398944e+001  5.335721e+001 
3712500000  -6.343478e+001  4.296141e+001 
3715625000  -6.108212e+001  3.155889e+001 
3718750000  -6.198782e+001  2.790026e+001 
3721875000  -6.208239e+001  1.596885e+001 
3725000000  -6.163243e+001  2.338859e+000 
3728125000  -5.819359e+001  1.038269e+001 
3731250000  -5.888955e+001  -1.643987e+001 
3734375000  -6.023583e+001  -8.424994e+000 
3737500000  -5.849919e+001  -3.504565e+001 
3740625000  -5.663075e+001  -4.305431e+001 
3743750000  -6.001200e+001  -5.239331e+001 
3746875000  -6.048414e+001  -6.699113e+001 
3750000000  -5.752455e+001  -7.952770e+001 
3753125000  -6.032719e+001  -8.547377e+001 
3756250000  -5.768148e+001  -9.531099e+001 
3759375000  -5.782343e+001  -1.059853e+002 
3762500000  -5.671275e+001  -1.118692e+002 
3765625000  -5.839883e+001  -1.286049e+002 
3768750000  -5.770779e+001  -1.400097e+002 
3771875000  -5.648685e+001  -1.508575e+002 
3775000000  -5.812312e+001  -1.536478e+002 
3778125000  -5.576921e+001  1.732573e+002 
3781250000  -5.747939e+001  1.717012e+002 
3784375000  -5.780587e+001  1.612321e+002 
3787500000  -5.676803e+001  1.483203e+002 
3790625000  -5.801790e+001  1.369190e+002 
3793750000  -5.829151e+001  1.250470e+002 
3796875000  -5.692199e+001  1.265058e+002 
3800000000  -5.271202e+001  7.563966e+001 
3803125000  -5.848095e+001  9.243839e+001 
3806250000  -5.962238e+001  8.044882e+001 
3809375000  -5.895615e+001  8.138872e+001 
3812500000  -5.777606e+001  6.803957e+001 
3815625000  -6.212518e+001  2.698255e+001 
3818750000  -6.006544e+001  2.793691e+001 
3821875000  -6.058778e+001  4.237675e+001 
3825000000  -5.780525e+001  4.595763e+001 
3828125000  -6.136040e+001  3.668147e+001 
3831250000  -5.884988e+001  -3.142167e+000 
3834375000  -6.165826e+001  7.960845e+000 
3837500000  -6.417052e+001  1.485464e+001 
3840625000  -5.979257e+001  1.536895e+001 
3843750000  -6.126465e+001  -2.768763e+001 
3846875000  -6.613871e+001  -2.066674e+001 
3850000000  -6.764085e+001  -1.164260e+001 
3853125000  -6.505382e+001  -3.809870e+001 
3856250000  -5.870842e+001  -7.246621e+000 
3859375000  -6.319106e+001  -4.018939e+001 
3862500000  -6.045413e+001  -3.512106e+001 
3865625000  -5.973420e+001  -4.372235e+001 
3868750000  -6.009307e+001  -4.785458e+001 
3871875000  -5.504074e+001  -6.210759e+001 
3875000000  -5.810099e+001  -7.202615e+001 
3878125000  -5.617940e+001  -7.393462e+001 
3881250000  -5.841589e+001  -9.288615e+001 
3884375000  -5.545753e+001  -9.972965e+001 
3887500000  -5.530860e+001  -1.228430e+002 
3890625000  -5.598040e+001  -1.257651e+002 
3893750000  -5.780239e+001  -1.268132e+002 
3896875000  -5.858765e+001  -1.344835e+002 
3900000000  -5.530903e+001  -1.487313e+002 
3903125000  -5.382256e+001  -1.578794e+002 
3906250000  -5.495206e+001  -1.725988e+002 
3909375000  -5.421015e+001  1.702592e+002 
3912500000  -5.330253e+001  1.684078e+002 
3915625000  -5.725085e+001  1.550247e+002 
3918750000  -5.490579e+001  1.505499e+002 
3921875000  -5.479454e+001  1.496206e+002 
3925000000  -5.262828e+001  1.268605e+002 
3928125000  -5.222875e+001  1.059822e+002 
3931250000  -5.380541e+001  9.069624e+001 
3934375000  -5.495663e+001  8.560574e+001 
3937500000  -5.602755e+001  7.511812e+001 
3940625000  -5.469992e+001  7.859965e+001 
3943750000  -5.292756e+001  6.044489e+001 
3946875000  -5.348283e+001  5.191174e+001 
3950000000  -5.422359e+001  3.646000e+001 
3953125000  -5.501628e+001  2.441508e+001 
3956250000  -5.374829e+001  2.854183e+001 
3959375000  -5.196326e+001  1.617423e+001 
3962500000  -5.196451e+001  -4.429404e+000 
3965625000  -5.403532e+001  -1.124750e+001 
3968750000  -5.352043e+001  -2.991513e+001 
3971875000  -5.485039e+001  -4.605799e+001 
3975000000  -5.432611e+001  -5.073136e+001 
3978125000  -5.521972e+001  -6.341430e+001 
3981250000  -5.549991e+001  -7.254941e+001 
3984375000  -5.653490e+001  -7.794202e+001 
3987500000  -5.541325e+001  -9.334313e+001 
3990625000  -5.657953e+001  -1.054868e+002 
3993750000  -5.608812e+001  -1.230514e+002 
3996875000  -5.761230e+001  -1.283231e+002 
4000000000  -5.888930e+001  -1.181320e+002 
4003125000  -5.884245e+001  -1.315406e+002 
4006250000  -5.606341e+001  -1.436743e+002 
4009375000  -5.751792e+001  -1.555295e+002 
4012500000  -5.863918e+001  -1.556916e+002 
4015625000  -5.919809e+001  -1.565214e+002 
4018750000  -6.012777e+001  -1.753313e+002 
4021875000  -5.938319e+001  -1.779197e+002 
4025000000  -5.943209e+001  1.746621e+002 
4028125000  -6.009037e+001  1.747573e+002 
4031250000  -5.947269e+001  1.548765e+002 
4034375000  -5.761868e+001  1.609223e+002 
4037500000  -6.069115e+001  1.598161e+002 
4040625000  -6.114714e+001  1.495475e+002 
4043750000  -5.920952e+001  1.412695e+002 
4046875000  -5.930148e+001  1.310442e+002 
4050000000  -5.759874e+001  1.212609e+002 
4053125000  -5.856748e+001  1.187033e+002 
4056250000  -5.755143e+001  1.227004e+002 
4059375000  -5.558231e+001  1.188997e+002 
4062500000  -5.554805e+001  1.025112e+002 
4065625000  -5.455712e+001  8.785987e+001 
4068750000  -5.349883e+001  6.856500e+001 
4071875000  -5.414841e+001  5.191011e+001 
4075000000  -5.263248e+001  4.246671e+001 
4078125000  -5.340353e+001  3.819270e+001 
4081250000  -5.471605e+001  2.835884e+001 
4084375000  -5.262291e+001  4.799533e+000 
4087500000  -5.317459e+001  -7.152589e+000 
4090625000  -5.235808e+001  -5.378229e+000 
4093750000  -5.313473e+001  -2.333975e+001 
4096875000  -5.257912e+001  -3.781768e+001 
4100000000  -5.317455e+001  -4.644129e+001 
4103125000  -5.494691e+001  -5.315441e+001 
4106250000  -5.456338e+001  -5.554442e+001 
4109375000  -5.337639e+001  -6.017193e+001 
4112500000  -5.224529e+001  -8.611082e+001 
4115625000  -5.361792e+001  -8.916113e+001 
4118750000  -5.347672e+001  -1.020350e+002 
4121875000  -5.292490e+001  -1.195672e+002 
4125000000  -5.199113e+001  -1.292614e+002 
4128125000  -5.408180e+001  -1.432765e+002 
4131250000  -5.280821e+001  -1.420284e+002 
4134375000  -5.130124e+001  -1.544063e+002 
4137500000  -5.273222e+001  -1.708968e+002 
4140625000  -5.561400e+001  1.721667e+002 
4143750000  -5.488435e+001  1.771895e+002 
4146875000  -5.310724e+001  1.744017e+002 
4150000000  -5.347672e+001  1.534066e+002 
4153125000  -5.334418e+001  1.459121e+002 
4156250000  -5.561481e+001  1.360004e+002 
4159375000  -5.683632e+001  1.354965e+002 
4162500000  -5.615561e+001  1.276146e+002 
4165625000  -5.290784e+001  1.151201e+002 
4168750000  -5.445427e+001  8.069410e+001 
4171875000  -5.591300e+001  8.360278e+001 
4175000000  -5.648246e+001  5.566465e+001 
4178125000  -5.662421e+001  5.811072e+001 
4181250000  -5.941867e+001  4.975565e+001 
4184375000  -5.955851e+001  3.445648e+001 
4187500000  -5.971768e+001  3.714582e+001 
4190625000  -6.403773e+001  1.880914e+001 
4193750000  -6.023237e+001  1.568018e+001 
4196875000  -6.415131e+001  1.101835e+001 
4200000000  -6.042364e+001  1.421915e+001 
4203125000  -6.456930e+001  1.268310e+001 
4206250000  -6.159163e+001  4.075634e+001 
4209375000  -6.182929e+001  1.360037e+001 
4212500000  -6.109832e+001  -3.200128e+000 
4215625000  -6.082876e+001  -3.455728e+001 
4218750000  -6.713029e+001  2.609823e+001 
4221875000  -6.305881e+001  -2.726894e+001 
4225000000  -6.588381e+001  -1.239004e+001 
4228125000  -5.916262e+001  -3.220517e+001 
4231250000  -6.114272e+001  -2.775789e+001 
4234375000  -5.623729e+001  -3.969066e+001 
4237500000  -5.792397e+001  -4.021672e+001 
4240625000  -5.536629e+001  -5.860447e+001 
4243750000  -5.701281e+001  -7.616103e+001 
4246875000  -5.702630e+001  -7.195127e+001 
4250000000  -5.637569e+001  -9.253539e+001 
4253125000  -5.512201e+001  -8.489555e+001 
4256250000  -5.697083e+001  -1.072859e+002 
4259375000  -5.505154e+001  -9.710086e+001 
4262500000  -5.436140e+001  -1.205513e+002 
4265625000  -5.322116e+001  -1.237651e+002 
4268750000  -5.352601e+001  -1.420688e+002 
4271875000  -5.197962e+001  -1.537810e+002 
4275000000  -5.131246e+001  -1.776631e+002 
4278125000  -5.254388e+001  1.617633e+002 
4281250000  -5.429034e+001  1.599657e+002 
4284375000  -5.588399e+001  1.507465e+002 
4287500000  -5.324074e+001  1.445420e+002 
4290625000  -5.614730e+001  1.493995e+002 
4293750000  -5.329227e+001  1.395989e+002 
4296875000  -5.224012e+001  1.128786e+002 
4300000000  -5.289664e+001  1.052483e+002 
4303125000  -5.319045e+001  9.529768e+001 
4306250000  -5.284480e+001  9.340536e+001 
4309375000  -5.131153e+001  7.448428e+001 
4312500000  -5.152952e+001  6.507843e+001 
4315625000  -5.180798e+001  5.256444e+001 
4318750000  -5.375159e+001  4.839506e+001 
4321875000  -5.277423e+001  3.013818e+001 
4325000000  -5.337402e+001  2.496056e+001 
4328125000  -5.179201e+001  1.107015e+001 
4331250000  -5.309131e+001  -6.999405e+000 
4334375000  -5.468050e+001  -1.398163e+001 
4337500000  -5.493248e+001  -3.421032e+001 
4340625000  -5.499394e+001  -3.132361e+001 
4343750000  -5.377994e+001  -4.612531e+001 
4346875000  -5.572635e+001  -5.490139e+001 
4350000000  -5.632233e+001  -7.114562e+001 
4353125000  -5.741530e+001  -6.901322e+001 
4356250000  -5.932805e+001  -6.794475e+001 
4359375000  -5.914880e+001  -6.533292e+001 
4362500000  -5.678456e+001  -7.209171e+001 
4365625000  -5.431561e+001  -1.064989e+002 
4368750000  -5.369519e+001  -1.101755e+002 
4371875000  -5.559486e+001  -9.927360e+001 
4375000000  -5.676054e+001  -1.239717e+002 
4378125000  -5.659016e+001  -1.279772e+002 
4381250000  -5.771743e+001  -1.283970e+002 
4384375000  -5.555717e+001  -1.346505e+002 
4387500000  -5.788127e+001  -1.524321e+002 
4390625000  -5.862951e+001  -1.602628e+002 
4393750000  -5.905540e+001  -1.495515e+002 
4396875000  -5.530853e+001  -1.689770e+002 
4400000000  -5.632813e+001  -1.727613e+002 
4403125000  -5.636847e+001  1.795647e+002 
4406250000  -5.680154e+001  1.674130e+002 
4409375000  -5.496212e+001  1.570832e+002 
4412500000  -5.874348e+001  1.665561e+002 
4415625000  -5.652528e+001  1.606609e+002 
4418750000  -5.494332e+001  1.567028e+002 
