!Agilent Technologies,E8363B,MY43030201,A.06.04.32
!Agilent E8363B: A.06.04.32
!Date: Tuesday, November 11, 2014 22:12:56
!Correction: S21(Response(S21)) 
!S1P File: Measurement: S21:
# Hz S  dB   R 50
3000000000  -4.883538e+001  -7.705091e+001 
3003125000  -5.196823e+001  -7.858910e+001 
3006250000  -5.150944e+001  -8.732136e+001 
3009375000  -5.185587e+001  -8.490771e+001 
3012500000  -5.062344e+001  -9.947670e+001 
3015625000  -5.135381e+001  -1.071666e+002 
3018750000  -5.109510e+001  -1.153677e+002 
3021875000  -4.971112e+001  -1.174365e+002 
3025000000  -4.878780e+001  -1.297525e+002 
3028125000  -4.781116e+001  -1.441748e+002 
3031250000  -4.698093e+001  -1.611022e+002 
3034375000  -4.687645e+001  1.764355e+002 
3037500000  -4.784801e+001  1.657863e+002 
3040625000  -4.923676e+001  1.500172e+002 
3043750000  -4.963397e+001  1.436626e+002 
3046875000  -5.041634e+001  1.320778e+002 
3050000000  -5.118836e+001  1.201502e+002 
3053125000  -5.165689e+001  1.191104e+002 
3056250000  -5.148565e+001  1.157725e+002 
3059375000  -5.060869e+001  1.127299e+002 
3062500000  -4.925948e+001  9.744406e+001 
3065625000  -4.939400e+001  8.466656e+001 
3068750000  -4.923202e+001  7.780648e+001 
3071875000  -4.903009e+001  6.677637e+001 
3075000000  -4.802472e+001  5.521260e+001 
3078125000  -4.843430e+001  4.562862e+001 
3081250000  -4.877237e+001  3.108009e+001 
3084375000  -4.817342e+001  2.415222e+001 
3087500000  -4.836197e+001  1.136190e+001 
3090625000  -4.789186e+001  -5.402329e+000 
3093750000  -4.875746e+001  -1.581104e+001 
3096875000  -4.939449e+001  -2.317763e+001 
3100000000  -4.926884e+001  -3.276746e+001 
3103125000  -4.986211e+001  -4.008207e+001 
3106250000  -4.910374e+001  -4.818073e+001 
3109375000  -4.956274e+001  -5.884085e+001 
3112500000  -4.988525e+001  -7.072736e+001 
3115625000  -4.950352e+001  -7.963123e+001 
3118750000  -4.981123e+001  -8.370103e+001 
3121875000  -4.903329e+001  -9.730984e+001 
3125000000  -5.107034e+001  -1.085427e+002 
3128125000  -5.064963e+001  -1.081485e+002 
3131250000  -4.840994e+001  -1.179253e+002 
3134375000  -4.787982e+001  -1.402211e+002 
3137500000  -4.862783e+001  -1.606341e+002 
3140625000  -5.018488e+001  -1.617934e+002 
3143750000  -5.053869e+001  -1.719696e+002 
3146875000  -4.983679e+001  -1.711892e+002 
3150000000  -4.892356e+001  1.799022e+002 
3153125000  -4.902292e+001  1.622601e+002 
3156250000  -5.120642e+001  1.660897e+002 
3159375000  -4.771069e+001  1.599145e+002 
3162500000  -4.634961e+001  1.360931e+002 
3165625000  -4.752015e+001  1.202399e+002 
3168750000  -4.733697e+001  1.141545e+002 
3171875000  -4.723151e+001  1.060790e+002 
3175000000  -4.745628e+001  8.769224e+001 
3178125000  -4.709925e+001  8.152670e+001 
3181250000  -4.658027e+001  6.795718e+001 
3184375000  -4.700584e+001  5.418578e+001 
3187500000  -4.785015e+001  3.682224e+001 
3190625000  -4.945909e+001  2.382152e+001 
3193750000  -4.953611e+001  2.482081e+001 
3196875000  -4.922908e+001  1.528635e+001 
3200000000  -4.835293e+001  6.763855e+000 
3203125000  -4.835596e+001  -6.977278e+000 
3206250000  -4.879483e+001  -1.827600e+001 
3209375000  -4.785373e+001  -2.826222e+001 
3212500000  -4.860660e+001  -3.985478e+001 
3215625000  -4.788211e+001  -4.977215e+001 
3218750000  -4.911529e+001  -6.112977e+001 
3221875000  -4.935609e+001  -7.681366e+001 
3225000000  -4.993095e+001  -8.304729e+001 
3228125000  -5.030091e+001  -9.596140e+001 
3231250000  -5.048519e+001  -1.040171e+002 
3234375000  -5.017200e+001  -1.095423e+002 
3237500000  -5.047356e+001  -1.171681e+002 
3240625000  -5.022549e+001  -1.281455e+002 
3243750000  -4.927548e+001  -1.440899e+002 
3246875000  -5.068901e+001  -1.562109e+002 
3250000000  -5.083969e+001  -1.671239e+002 
3253125000  -5.139028e+001  -1.720378e+002 
3256250000  -5.003162e+001  1.783074e+002 
3259375000  -5.113744e+001  1.637649e+002 
3262500000  -5.260146e+001  1.481884e+002 
3265625000  -5.328228e+001  1.481336e+002 
3268750000  -5.294374e+001  1.418819e+002 
3271875000  -5.187346e+001  1.367818e+002 
3275000000  -5.216208e+001  1.205826e+002 
3278125000  -5.314917e+001  1.059461e+002 
3281250000  -5.362827e+001  1.057792e+002 
3284375000  -5.304067e+001  9.250220e+001 
3287500000  -5.296628e+001  8.601306e+001 
3290625000  -5.297575e+001  7.414351e+001 
3293750000  -5.342662e+001  6.382423e+001 
3296875000  -5.379598e+001  4.823662e+001 
3300000000  -5.467700e+001  5.503811e+001 
3303125000  -5.352240e+001  4.388584e+001 
3306250000  -5.415234e+001  2.456095e+001 
3309375000  -5.278826e+001  2.069694e+001 
3312500000  -5.360416e+001  7.687643e-001 
3315625000  -5.393348e+001  -1.204205e+001 
3318750000  -5.439610e+001  -2.089802e+001 
3321875000  -5.659669e+001  -1.812220e+001 
3325000000  -5.571455e+001  -2.274370e+001 
3328125000  -5.613911e+001  -1.856586e+001 
3331250000  -5.420499e+001  -3.397530e+001 
3334375000  -5.212864e+001  -4.515168e+001 
3337500000  -5.183469e+001  -7.126885e+001 
3340625000  -5.328377e+001  -8.750176e+001 
3343750000  -5.538966e+001  -8.576242e+001 
3346875000  -5.509851e+001  -9.773248e+001 
3350000000  -5.460281e+001  -9.477667e+001 
3353125000  -5.361234e+001  -1.139463e+002 
3356250000  -5.500239e+001  -1.352538e+002 
3359375000  -5.459074e+001  -1.520968e+002 
3362500000  -5.670110e+001  -1.537512e+002 
3365625000  -5.585414e+001  -1.611573e+002 
3368750000  -5.674903e+001  -1.775205e+002 
3371875000  -5.691875e+001  1.762038e+002 
3375000000  -5.897886e+001  1.639721e+002 
3378125000  -5.898571e+001  1.710068e+002 
3381250000  -6.181113e+001  1.726953e+002 
3384375000  -5.550828e+001  1.759109e+002 
3387500000  -5.554095e+001  1.420062e+002 
3390625000  -5.679294e+001  1.299599e+002 
3393750000  -5.643353e+001  1.199992e+002 
3396875000  -5.756804e+001  1.062788e+002 
3400000000  -5.498892e+001  9.513467e+001 
3403125000  -5.684467e+001  8.200001e+001 
3406250000  -5.795757e+001  7.864201e+001 
3409375000  -5.696593e+001  6.105331e+001 
3412500000  -5.816317e+001  5.359466e+001 
3415625000  -6.095308e+001  4.682968e+001 
3418750000  -5.965248e+001  4.802541e+001 
3421875000  -5.935376e+001  2.959267e+001 
3425000000  -5.868177e+001  2.933488e+001 
3428125000  -5.813819e+001  1.234719e+001 
3431250000  -6.156256e+001  6.695508e-001 
3434375000  -6.008260e+001  -1.784023e+001 
3437500000  -6.099493e+001  -3.259723e+001 
3440625000  -6.091372e+001  -2.528923e+001 
3443750000  -6.168316e+001  -4.001345e+001 
3446875000  -6.062502e+001  -4.613905e+001 
3450000000  -6.381351e+001  -8.098543e+001 
3453125000  -6.399970e+001  -6.915075e+001 
3456250000  -6.409212e+001  -9.465235e+001 
3459375000  -6.298437e+001  -8.341022e+001 
3462500000  -6.900979e+001  -1.076565e+002 
3465625000  -6.517742e+001  -9.906315e+001 
3468750000  -6.762918e+001  -1.283705e+002 
3471875000  -6.686537e+001  -1.214500e+002 
3475000000  -7.165838e+001  -1.487430e+002 
3478125000  -6.897006e+001  -1.338509e+002 
3481250000  -6.648626e+001  -1.420240e+002 
3484375000  -6.812524e+001  -1.317527e+002 
3487500000  -6.566336e+001  -1.103359e+002 
3490625000  -6.774857e+001  -1.267668e+002 
3493750000  -6.636575e+001  -1.674914e+002 
3496875000  -7.054087e+001  -1.304402e+002 
3500000000  -6.809547e+001  -1.759489e+002 
3503125000  -6.968598e+001  1.708827e+002 
3506250000  -6.369490e+001  1.738903e+002 
3509375000  -7.871001e+001  1.771741e+002 
3512500000  -6.812828e+001  1.471790e+002 
3515625000  -6.546825e+001  1.595485e+002 
3518750000  -6.714387e+001  1.263307e+002 
3521875000  -7.377666e+001  1.558201e+002 
3525000000  -6.749142e+001  1.216947e+002 
3528125000  -7.342409e+001  1.657529e+002 
3531250000  -6.511054e+001  1.268589e+002 
3534375000  -6.710110e+001  1.101813e+002 
3537500000  -6.438412e+001  7.062325e+001 
3540625000  -6.886710e+001  8.834089e+001 
3543750000  -6.598137e+001  8.688197e+001 
3546875000  -6.696903e+001  7.484346e+001 
3550000000  -7.379591e+001  6.079016e+001 
3553125000  -6.591309e+001  4.900552e+001 
3556250000  -7.120862e+001  7.777671e+001 
3559375000  -6.635064e+001  4.035280e+001 
3562500000  -7.625945e+001  -1.407349e+001 
3565625000  -7.014144e+001  4.346426e+001 
3568750000  -7.277372e+001  1.449930e+002 
3571875000  -6.809795e+001  1.429034e+001 
3575000000  -8.227124e+001  -3.217216e+001 
3578125000  -7.284138e+001  6.397493e+001 
3581250000  -7.773238e+001  -3.569400e+001 
3584375000  -6.904891e+001  6.489839e+001 
3587500000  -7.472813e+001  1.870935e+001 
3590625000  -7.076405e+001  2.191319e+001 
3593750000  -7.480573e+001  -4.233205e+001 
3596875000  -6.810773e+001  -2.672720e+000 
3600000000  -7.002669e+001  -6.891441e+000 
3603125000  -7.354263e+001  -5.892491e+000 
3606250000  -6.371055e+001  -4.789795e+001 
3609375000  -6.728809e+001  -4.370031e+001 
3612500000  -6.320263e+001  -3.648388e+001 
3615625000  -6.686122e+001  -6.059764e+001 
3618750000  -6.401728e+001  -6.211530e+001 
3621875000  -6.340024e+001  -8.796967e+001 
3625000000  -6.271810e+001  -8.386621e+001 
3628125000  -6.291975e+001  -1.048953e+002 
3631250000  -6.343312e+001  -1.074463e+002 
3634375000  -6.592565e+001  -1.259435e+002 
3637500000  -6.739165e+001  -1.132428e+002 
3640625000  -6.139398e+001  -1.349222e+002 
3643750000  -6.499754e+001  -1.317413e+002 
3646875000  -6.190994e+001  -1.745482e+002 
3650000000  -6.317720e+001  -1.786379e+002 
3653125000  -6.230845e+001  1.687036e+002 
3656250000  -6.237833e+001  1.652141e+002 
3659375000  -6.482085e+001  1.518317e+002 
3662500000  -6.399680e+001  1.507022e+002 
3665625000  -6.127932e+001  1.489987e+002 
3668750000  -6.526124e+001  1.121531e+002 
3671875000  -6.432736e+001  1.048427e+002 
3675000000  -6.606741e+001  1.038269e+002 
3678125000  -6.479228e+001  1.360185e+002 
3681250000  -6.236464e+001  1.106130e+002 
3684375000  -6.572413e+001  1.160916e+002 
3687500000  -6.714671e+001  9.825379e+001 
3690625000  -7.042030e+001  6.806830e+001 
3693750000  -6.712630e+001  8.978259e+001 
3696875000  -8.113495e+001  1.004758e+002 
3700000000  -6.492950e+001  7.019692e+001 
3703125000  -6.551462e+001  4.430337e+001 
3706250000  -6.630279e+001  6.016349e+001 
3709375000  -6.547283e+001  5.189059e+001 
3712500000  -6.468552e+001  5.834560e+001 
3715625000  -6.344333e+001  3.966455e+001 
3718750000  -6.272482e+001  2.363000e+001 
3721875000  -6.225496e+001  2.865664e+001 
3725000000  -6.162797e+001  6.624693e+000 
3728125000  -5.950316e+001  9.646669e+000 
3731250000  -5.914142e+001  -6.533271e+000 
3734375000  -5.906252e+001  -2.377280e+001 
3737500000  -5.737578e+001  -4.252922e+001 
3740625000  -5.668287e+001  -4.267196e+001 
3743750000  -6.000866e+001  -6.289157e+001 
3746875000  -6.031496e+001  -7.203374e+001 
3750000000  -6.077687e+001  -7.318446e+001 
3753125000  -5.796084e+001  -7.931656e+001 
3756250000  -5.703096e+001  -1.058419e+002 
3759375000  -5.789443e+001  -1.015820e+002 
3762500000  -5.826049e+001  -1.184234e+002 
3765625000  -5.986551e+001  -1.318953e+002 
3768750000  -5.684562e+001  -1.460580e+002 
3771875000  -5.669686e+001  -1.458067e+002 
3775000000  -5.624557e+001  -1.576499e+002 
3778125000  -5.605858e+001  1.747714e+002 
3781250000  -5.713660e+001  1.764389e+002 
3784375000  -5.718383e+001  1.695466e+002 
3787500000  -5.743951e+001  1.474521e+002 
3790625000  -5.767981e+001  1.346758e+002 
3793750000  -5.772292e+001  1.243631e+002 
3796875000  -5.690515e+001  1.155037e+002 
3800000000  -5.310582e+001  7.972321e+001 
3803125000  -5.764971e+001  9.173553e+001 
3806250000  -6.058608e+001  7.349357e+001 
3809375000  -5.830403e+001  8.125370e+001 
3812500000  -5.863813e+001  6.250439e+001 
3815625000  -6.235392e+001  5.596466e+001 
3818750000  -6.045285e+001  2.839302e+001 
3821875000  -6.121244e+001  5.603545e+001 
3825000000  -6.140204e+001  3.927349e+001 
3828125000  -6.307326e+001  2.451597e+001 
3831250000  -5.910257e+001  1.482020e+001 
3834375000  -6.610325e+001  5.704768e+000 
3837500000  -6.229818e+001  4.433784e+000 
3840625000  -5.984082e+001  -5.469586e+000 
3843750000  -6.277331e+001  2.122718e+000 
3846875000  -6.158130e+001  -1.296916e+001 
3850000000  -6.274030e+001  -1.765234e+001 
3853125000  -7.414750e+001  -1.828215e+001 
3856250000  -6.147603e+001  -1.610068e+001 
3859375000  -5.770997e+001  -4.503955e+001 
3862500000  -6.262308e+001  -4.082057e+001 
3865625000  -5.889832e+001  -5.529726e+001 
3868750000  -5.909845e+001  -3.321106e+001 
3871875000  -5.598244e+001  -5.995214e+001 
3875000000  -5.755809e+001  -7.546754e+001 
3878125000  -5.776113e+001  -8.953339e+001 
3881250000  -5.804815e+001  -8.321871e+001 
3884375000  -5.628639e+001  -8.876740e+001 
3887500000  -5.551087e+001  -1.114525e+002 
3890625000  -5.614997e+001  -1.059684e+002 
3893750000  -5.590795e+001  -1.249587e+002 
3896875000  -5.748547e+001  -1.356216e+002 
3900000000  -5.617411e+001  -1.366172e+002 
3903125000  -5.520275e+001  -1.534198e+002 
3906250000  -5.340798e+001  -1.707338e+002 
3909375000  -5.466679e+001  1.713863e+002 
3912500000  -5.485923e+001  1.691160e+002 
3915625000  -5.592492e+001  1.607687e+002 
3918750000  -5.565971e+001  1.516346e+002 
3921875000  -5.392565e+001  1.401526e+002 
3925000000  -5.373309e+001  1.255914e+002 
3928125000  -5.212570e+001  1.157857e+002 
3931250000  -5.380369e+001  1.025766e+002 
3934375000  -5.502654e+001  9.621446e+001 
3937500000  -5.585980e+001  7.400636e+001 
3940625000  -5.549086e+001  7.587988e+001 
3943750000  -5.302557e+001  6.135254e+001 
3946875000  -5.287491e+001  5.258966e+001 
3950000000  -5.374052e+001  4.056734e+001 
3953125000  -5.452113e+001  3.431878e+001 
3956250000  -5.414718e+001  2.288913e+001 
3959375000  -5.236738e+001  1.199790e+001 
3962500000  -5.362624e+001  -4.200488e+000 
3965625000  -5.587302e+001  -1.596387e+001 
3968750000  -5.381489e+001  -2.316257e+001 
3971875000  -5.345848e+001  -5.159806e+001 
3975000000  -5.390481e+001  -5.502377e+001 
3978125000  -5.543930e+001  -6.455654e+001 
3981250000  -5.438504e+001  -7.649871e+001 
3984375000  -5.648626e+001  -9.532317e+001 
3987500000  -5.596509e+001  -8.790633e+001 
3990625000  -5.621902e+001  -1.099315e+002 
3993750000  -5.633065e+001  -1.255094e+002 
3996875000  -5.711529e+001  -1.171383e+002 
4000000000  -5.963904e+001  -1.413625e+002 
4003125000  -5.994002e+001  -1.284311e+002 
4006250000  -5.791265e+001  -1.284500e+002 
4009375000  -5.731255e+001  -1.409077e+002 
4012500000  -5.801130e+001  -1.617389e+002 
4015625000  -5.896938e+001  -1.765360e+002 
4018750000  -6.070852e+001  -1.653223e+002 
4021875000  -6.050820e+001  -1.723918e+002 
4025000000  -6.056187e+001  1.789743e+002 
4028125000  -6.023480e+001  1.650540e+002 
4031250000  -6.066226e+001  1.477967e+002 
4034375000  -6.071917e+001  1.697289e+002 
4037500000  -5.686276e+001  1.532560e+002 
4040625000  -5.798431e+001  1.356774e+002 
4043750000  -6.104870e+001  1.383054e+002 
4046875000  -5.943031e+001  1.382287e+002 
4050000000  -5.954654e+001  1.120855e+002 
4053125000  -6.057598e+001  1.192654e+002 
4056250000  -6.037337e+001  1.026431e+002 
4059375000  -5.608068e+001  1.055783e+002 
4062500000  -5.491771e+001  9.937865e+001 
4065625000  -5.372011e+001  8.440429e+001 
4068750000  -5.591155e+001  6.835790e+001 
4071875000  -5.139030e+001  5.852099e+001 
4075000000  -5.338087e+001  4.560021e+001 
4078125000  -5.315018e+001  4.178808e+001 
4081250000  -5.390255e+001  3.163364e+001 
4084375000  -5.216795e+001  1.114471e+001 
4087500000  -5.404983e+001  -1.840001e+000 
4090625000  -5.445321e+001  -2.925109e+000 
4093750000  -5.312305e+001  -1.042957e+001 
4096875000  -5.293992e+001  -3.234753e+001 
4100000000  -5.406792e+001  -4.823389e+001 
4103125000  -5.538510e+001  -4.013789e+001 
4106250000  -5.346252e+001  -5.467188e+001 
4109375000  -5.332904e+001  -6.575837e+001 
4112500000  -5.151072e+001  -7.959113e+001 
4115625000  -5.360546e+001  -9.256573e+001 
4118750000  -5.292439e+001  -1.080587e+002 
4121875000  -5.278903e+001  -1.098225e+002 
4125000000  -5.302974e+001  -1.260918e+002 
4128125000  -5.376576e+001  -1.366575e+002 
4131250000  -5.264486e+001  -1.296315e+002 
4134375000  -5.148994e+001  -1.526401e+002 
4137500000  -5.207058e+001  -1.716383e+002 
4140625000  -5.407545e+001  1.653632e+002 
4143750000  -5.640503e+001  -1.792360e+002 
4146875000  -5.429922e+001  1.640904e+002 
4150000000  -5.411302e+001  1.562350e+002 
4153125000  -5.255886e+001  1.503815e+002 
4156250000  -5.495483e+001  1.201098e+002 
4159375000  -5.668060e+001  1.304686e+002 
4162500000  -5.566703e+001  1.085582e+002 
4165625000  -5.529298e+001  1.224300e+002 
4168750000  -5.573038e+001  8.764468e+001 
4171875000  -5.289893e+001  8.527803e+001 
4175000000  -5.703985e+001  6.898009e+001 
4178125000  -5.840616e+001  6.386494e+001 
4181250000  -5.889338e+001  4.489812e+001 
4184375000  -5.843444e+001  3.434099e+001 
4187500000  -5.864796e+001  2.034133e+001 
4190625000  -6.532827e+001  8.132768e+000 
4193750000  -6.163148e+001  2.101980e+001 
4196875000  -6.294137e+001  4.271554e+001 
4200000000  -6.437265e+001  1.616388e+001 
4203125000  -6.169909e+001  1.224534e+001 
4206250000  -6.045134e+001  3.248129e+001 
4209375000  -6.163926e+001  2.229052e+000 
4212500000  -5.850663e+001  3.548591e+000 
4215625000  -6.724822e+001  -5.715782e+000 
4218750000  -6.128212e+001  -2.782598e+000 
4221875000  -5.740942e+001  -7.129520e+000 
4225000000  -6.006694e+001  -1.289384e+001 
4228125000  -5.975513e+001  -2.082477e+001 
4231250000  -6.158902e+001  -3.894674e+001 
4234375000  -5.539227e+001  -4.308602e+001 
4237500000  -5.961283e+001  -5.064323e+001 
4240625000  -5.470724e+001  -6.869644e+001 
4243750000  -5.836469e+001  -6.123851e+001 
4246875000  -5.685771e+001  -7.921957e+001 
4250000000  -5.863357e+001  -7.786255e+001 
4253125000  -5.610460e+001  -8.377071e+001 
4256250000  -5.667191e+001  -9.702946e+001 
4259375000  -5.610019e+001  -1.128620e+002 
4262500000  -5.545367e+001  -1.189555e+002 
4265625000  -5.400572e+001  -1.195225e+002 
4268750000  -5.296723e+001  -1.431810e+002 
4271875000  -5.353699e+001  -1.649359e+002 
4275000000  -5.174147e+001  -1.788502e+002 
4278125000  -5.253825e+001  1.652977e+002 
4281250000  -5.506235e+001  1.624815e+002 
4284375000  -5.462999e+001  1.600634e+002 
4287500000  -5.505707e+001  1.574247e+002 
4290625000  -5.488343e+001  1.410369e+002 
4293750000  -5.332710e+001  1.477661e+002 
4296875000  -5.257182e+001  1.234998e+002 
4300000000  -5.365318e+001  1.084670e+002 
4303125000  -5.303621e+001  9.432024e+001 
4306250000  -5.272530e+001  8.945987e+001 
4309375000  -5.234084e+001  8.190002e+001 
4312500000  -5.237650e+001  6.513251e+001 
4315625000  -5.207903e+001  5.360170e+001 
4318750000  -5.376628e+001  3.650319e+001 
4321875000  -5.269712e+001  3.834668e+001 
4325000000  -5.405632e+001  2.516465e+001 
4328125000  -5.183284e+001  1.892237e+000 
4331250000  -5.386654e+001  2.772365e+000 
4334375000  -5.430476e+001  -1.143095e+001 
4337500000  -5.476558e+001  -3.114233e+001 
4340625000  -5.612616e+001  -1.779080e+001 
4343750000  -5.488326e+001  -4.174020e+001 
4346875000  -5.633080e+001  -4.819542e+001 
4350000000  -5.621196e+001  -6.496880e+001 
4353125000  -5.876412e+001  -7.356758e+001 
4356250000  -5.913075e+001  -7.572668e+001 
4359375000  -6.024950e+001  -4.590992e+001 
4362500000  -5.414987e+001  -8.278683e+001 
4365625000  -5.636361e+001  -8.169136e+001 
4368750000  -5.607720e+001  -1.075260e+002 
4371875000  -5.591348e+001  -1.014458e+002 
4375000000  -5.662241e+001  -1.170231e+002 
4378125000  -5.578958e+001  -1.168168e+002 
4381250000  -5.640619e+001  -1.338778e+002 
4384375000  -5.681892e+001  -1.372962e+002 
4387500000  -5.792492e+001  -1.560346e+002 
4390625000  -5.725059e+001  -1.544456e+002 
4393750000  -5.864818e+001  -1.420869e+002 
4396875000  -5.500723e+001  -1.454173e+002 
4400000000  -5.594143e+001  -1.608061e+002 
4403125000  -5.633784e+001  1.759428e+002 
4406250000  -5.714895e+001  1.699305e+002 
4409375000  -5.521814e+001  1.681049e+002 
4412500000  -5.666383e+001  1.671920e+002 
4415625000  -5.402648e+001  1.650294e+002 
4418750000  -5.539714e+001  1.460147e+002 
