!Agilent Technologies,E8363B,MY43030201,A.06.04.32
!Agilent E8363B: A.06.04.32
!Date: Tuesday, November 11, 2014 22:14:16
!Correction: S21(Response(S21)) 
!S1P File: Measurement: S21:
# Hz S  dB   R 50
3000000000  -4.881900e+001  -7.555679e+001 
3003125000  -5.152067e+001  -7.903381e+001 
3006250000  -5.149397e+001  -8.885902e+001 
3009375000  -5.204193e+001  -8.312883e+001 
3012500000  -5.155828e+001  -9.875216e+001 
3015625000  -5.092517e+001  -1.089971e+002 
3018750000  -5.127442e+001  -1.145716e+002 
3021875000  -5.013255e+001  -1.165022e+002 
3025000000  -4.847588e+001  -1.272401e+002 
3028125000  -4.784448e+001  -1.449082e+002 
3031250000  -4.666603e+001  -1.613511e+002 
3034375000  -4.700018e+001  1.789769e+002 
3037500000  -4.776808e+001  1.666571e+002 
3040625000  -4.920662e+001  1.524786e+002 
3043750000  -4.939262e+001  1.428256e+002 
3046875000  -5.061535e+001  1.303747e+002 
3050000000  -5.106539e+001  1.218192e+002 
3053125000  -5.117847e+001  1.209869e+002 
3056250000  -5.131783e+001  1.227219e+002 
3059375000  -5.055209e+001  1.116662e+002 
3062500000  -4.927557e+001  1.009743e+002 
3065625000  -4.893436e+001  9.063488e+001 
3068750000  -4.889639e+001  7.521838e+001 
3071875000  -4.884746e+001  6.738229e+001 
3075000000  -4.868087e+001  5.480656e+001 
3078125000  -4.827932e+001  4.582794e+001 
3081250000  -4.907511e+001  3.392124e+001 
3084375000  -4.807781e+001  2.472557e+001 
3087500000  -4.834040e+001  1.315845e+001 
3090625000  -4.816535e+001  -3.400661e+000 
3093750000  -4.874424e+001  -1.474057e+001 
3096875000  -4.970852e+001  -2.661209e+001 
3100000000  -4.988290e+001  -3.409850e+001 
3103125000  -4.993338e+001  -4.086658e+001 
3106250000  -4.949787e+001  -4.763930e+001 
3109375000  -4.965186e+001  -6.029229e+001 
3112500000  -4.962397e+001  -6.994053e+001 
3115625000  -4.889083e+001  -7.979939e+001 
3118750000  -4.945134e+001  -8.550377e+001 
3121875000  -4.920810e+001  -1.000603e+002 
3125000000  -5.053360e+001  -1.107924e+002 
3128125000  -5.124911e+001  -1.091581e+002 
3131250000  -4.795491e+001  -1.175676e+002 
3134375000  -4.790073e+001  -1.372645e+002 
3137500000  -4.862346e+001  -1.583936e+002 
3140625000  -4.957851e+001  -1.620798e+002 
3143750000  -5.037778e+001  -1.693758e+002 
3146875000  -5.025224e+001  -1.732354e+002 
3150000000  -4.906086e+001  1.775363e+002 
3153125000  -4.962278e+001  1.679790e+002 
3156250000  -4.973979e+001  1.660632e+002 
3159375000  -4.749264e+001  1.611875e+002 
3162500000  -4.570779e+001  1.364027e+002 
3165625000  -4.771523e+001  1.190164e+002 
3168750000  -4.734079e+001  1.147833e+002 
3171875000  -4.703207e+001  1.025640e+002 
3175000000  -4.786952e+001  8.808318e+001 
3178125000  -4.733297e+001  8.203620e+001 
3181250000  -4.680258e+001  6.890822e+001 
3184375000  -4.669640e+001  5.300453e+001 
3187500000  -4.762883e+001  3.139644e+001 
3190625000  -4.966396e+001  2.505104e+001 
3193750000  -5.006422e+001  2.269871e+001 
3196875000  -4.982155e+001  1.685954e+001 
3200000000  -4.844302e+001  9.481304e+000 
3203125000  -4.868671e+001  -1.550159e+000 
3206250000  -4.884255e+001  -1.748876e+001 
3209375000  -4.795318e+001  -3.245158e+001 
3212500000  -4.886005e+001  -3.881561e+001 
3215625000  -4.821148e+001  -4.622734e+001 
3218750000  -4.981024e+001  -6.786874e+001 
3221875000  -4.988247e+001  -7.421930e+001 
3225000000  -4.932860e+001  -8.031872e+001 
3228125000  -5.023507e+001  -9.029631e+001 
3231250000  -5.082103e+001  -1.013110e+002 
3234375000  -4.979462e+001  -1.084678e+002 
3237500000  -5.044997e+001  -1.159098e+002 
3240625000  -4.991885e+001  -1.279609e+002 
3243750000  -4.985054e+001  -1.442579e+002 
3246875000  -5.047087e+001  -1.548252e+002 
3250000000  -5.131364e+001  -1.652993e+002 
3253125000  -5.106735e+001  -1.707925e+002 
3256250000  -5.024358e+001  1.785834e+002 
3259375000  -5.204144e+001  1.577210e+002 
3262500000  -5.247292e+001  1.532154e+002 
3265625000  -5.339592e+001  1.445624e+002 
3268750000  -5.312024e+001  1.459397e+002 
3271875000  -5.284566e+001  1.352117e+002 
3275000000  -5.190942e+001  1.206167e+002 
3278125000  -5.245423e+001  1.081148e+002 
3281250000  -5.307866e+001  1.065742e+002 
3284375000  -5.202663e+001  9.494705e+001 
3287500000  -5.323939e+001  8.993135e+001 
3290625000  -5.204904e+001  6.874323e+001 
3293750000  -5.285631e+001  5.953093e+001 
3296875000  -5.479499e+001  5.598903e+001 
3300000000  -5.392619e+001  4.767932e+001 
3303125000  -5.266185e+001  3.998810e+001 
3306250000  -5.348939e+001  3.025050e+001 
3309375000  -5.331160e+001  1.398535e+001 
3312500000  -5.277451e+001  1.186270e+000 
3315625000  -5.464946e+001  -4.476833e+000 
3318750000  -5.504156e+001  -2.837646e+001 
3321875000  -5.775144e+001  -1.641064e+001 
3325000000  -5.662209e+001  -1.920938e+001 
3328125000  -5.757268e+001  -3.284664e+001 
3331250000  -5.475459e+001  -3.049125e+001 
3334375000  -5.178971e+001  -4.927356e+001 
3337500000  -5.276983e+001  -6.744100e+001 
3340625000  -5.369201e+001  -8.861631e+001 
3343750000  -5.572543e+001  -8.867213e+001 
3346875000  -5.561904e+001  -9.548380e+001 
3350000000  -5.427710e+001  -9.875832e+001 
3353125000  -5.487793e+001  -1.218684e+002 
3356250000  -5.575465e+001  -1.241695e+002 
3359375000  -5.384568e+001  -1.465416e+002 
3362500000  -5.657182e+001  -1.477671e+002 
3365625000  -5.588157e+001  -1.596384e+002 
3368750000  -5.749433e+001  -1.700044e+002 
3371875000  -5.760118e+001  1.729310e+002 
3375000000  -5.922208e+001  1.733060e+002 
3378125000  -5.980989e+001  1.618063e+002 
3381250000  -6.037033e+001  1.616168e+002 
3384375000  -5.606152e+001  -1.774073e+002 
3387500000  -5.481483e+001  1.512887e+002 
3390625000  -5.646172e+001  1.378777e+002 
3393750000  -5.647687e+001  1.177662e+002 
3396875000  -5.709482e+001  1.156344e+002 
3400000000  -5.531050e+001  1.013391e+002 
3403125000  -5.678554e+001  8.046712e+001 
3406250000  -5.838986e+001  7.818266e+001 
3409375000  -5.769995e+001  5.600206e+001 
3412500000  -5.849673e+001  5.062320e+001 
3415625000  -6.163430e+001  3.985597e+001 
3418750000  -6.123940e+001  4.354184e+001 
3421875000  -6.035334e+001  2.262855e+001 
3425000000  -5.918111e+001  2.526501e+001 
3428125000  -5.797441e+001  6.941632e+000 
3431250000  -6.050579e+001  -4.075531e+000 
3434375000  -6.067015e+001  -2.895763e+001 
3437500000  -6.376392e+001  -2.827299e+001 
3440625000  -6.145536e+001  -2.114425e+001 
3443750000  -6.182518e+001  -4.130561e+001 
3446875000  -6.145723e+001  -4.183907e+001 
3450000000  -6.155439e+001  -7.641730e+001 
3453125000  -6.273182e+001  -7.209377e+001 
3456250000  -6.601665e+001  -1.184811e+002 
3459375000  -6.330686e+001  -8.266977e+001 
3462500000  -7.035752e+001  -7.880634e+001 
3465625000  -6.744933e+001  -1.103225e+002 
3468750000  -6.673218e+001  -1.407753e+002 
3471875000  -6.520227e+001  -8.443670e+001 
3475000000  -6.520158e+001  -1.099524e+002 
3478125000  -6.642343e+001  -1.419615e+002 
3481250000  -7.089036e+001  -1.505385e+002 
3484375000  -6.805724e+001  -9.709557e+001 
3487500000  -6.868616e+001  -1.585871e+002 
3490625000  -6.737523e+001  -1.469124e+002 
3493750000  -7.234973e+001  -1.161058e+002 
3496875000  -7.263506e+001  -1.594982e+002 
3500000000  -7.056039e+001  -1.596615e+002 
3503125000  -6.730695e+001  -1.582194e+002 
3506250000  -6.454283e+001  -1.766825e+002 
3509375000  -6.468954e+001  1.795039e+002 
3512500000  -6.609311e+001  1.554923e+002 
3515625000  -6.734085e+001  1.416566e+002 
3518750000  -6.586388e+001  1.542281e+002 
3521875000  -6.415111e+001  1.327995e+002 
3525000000  -6.225536e+001  1.312256e+002 
3528125000  -6.292560e+001  1.527169e+002 
3531250000  -7.619716e+001  1.212093e+002 
3534375000  -6.780876e+001  1.049657e+002 
3537500000  -6.735703e+001  6.860193e+001 
3540625000  -7.019611e+001  6.086097e+001 
3543750000  -7.265811e+001  1.424514e+002 
3546875000  -6.895226e+001  8.997411e+001 
3550000000  -7.362482e+001  6.507863e+001 
3553125000  -6.946996e+001  3.537541e+001 
3556250000  -7.174550e+001  -1.297256e+001 
3559375000  -6.922147e+001  1.929579e+001 
3562500000  -6.941686e+001  3.848161e+001 
3565625000  -7.033423e+001  2.956661e+001 
3568750000  -8.469511e+001  8.504371e+001 
3571875000  -7.053014e+001  2.705190e+001 
3575000000  -8.114523e+001  9.182039e+001 
3578125000  -7.324348e+001  2.499288e+001 
3581250000  -7.601419e+001  -6.109489e+001 
3584375000  -7.412886e+001  8.263081e+001 
3587500000  -7.754655e+001  -9.001942e+000 
3590625000  -8.070370e+001  8.600383e+001 
3593750000  -6.888438e+001  1.210890e+001 
3596875000  -6.609645e+001  5.287498e+001 
3600000000  -6.393834e+001  -1.003489e+001 
3603125000  -6.595729e+001  -1.338231e+001 
3606250000  -6.662357e+001  -2.108803e+001 
3609375000  -6.332313e+001  -2.974602e+001 
3612500000  -6.599801e+001  -7.117616e+001 
3615625000  -6.971943e+001  -9.058396e+000 
3618750000  -6.343324e+001  -6.675903e+001 
3621875000  -6.410323e+001  -8.151921e+001 
3625000000  -6.239371e+001  -7.342323e+001 
3628125000  -6.394675e+001  -1.000735e+002 
3631250000  -6.660265e+001  -1.179757e+002 
3634375000  -6.342474e+001  -1.102298e+002 
3637500000  -6.911777e+001  -1.186676e+002 
3640625000  -6.165435e+001  -1.206335e+002 
3643750000  -5.927777e+001  -1.454872e+002 
3646875000  -6.106852e+001  -1.673274e+002 
3650000000  -6.491906e+001  1.669835e+002 
3653125000  -6.379256e+001  1.636225e+002 
3656250000  -6.582001e+001  1.535935e+002 
3659375000  -6.296299e+001  1.699490e+002 
3662500000  -6.097687e+001  1.376603e+002 
3665625000  -6.234798e+001  -1.796936e+002 
3668750000  -6.130898e+001  1.119133e+002 
3671875000  -6.363420e+001  1.226497e+002 
3675000000  -6.454909e+001  1.035297e+002 
3678125000  -6.543080e+001  1.074971e+002 
3681250000  -6.148408e+001  1.075851e+002 
3684375000  -6.529494e+001  1.349611e+002 
3687500000  -6.603556e+001  7.424464e+001 
3690625000  -8.001920e+001  6.656249e+001 
3693750000  -6.779588e+001  6.652316e+001 
3696875000  -6.776612e+001  9.714120e+001 
3700000000  -6.111302e+001  8.086375e+001 
3703125000  -6.593472e+001  3.374556e+001 
3706250000  -6.880193e+001  6.890404e+001 
3709375000  -6.542429e+001  5.750113e+001 
3712500000  -6.256269e+001  7.447679e+001 
3715625000  -6.293684e+001  2.792506e+001 
3718750000  -6.389705e+001  4.120190e+001 
3721875000  -6.161953e+001  2.693305e+001 
3725000000  -6.083433e+001  3.338430e+001 
3728125000  -5.986614e+001  1.381945e+001 
3731250000  -5.947693e+001  -6.765292e+000 
3734375000  -6.032122e+001  -1.675304e+001 
3737500000  -5.845204e+001  -3.230315e+001 
3740625000  -5.981804e+001  -3.121940e+001 
3743750000  -6.197401e+001  -6.457273e+001 
3746875000  -5.757410e+001  -6.721077e+001 
3750000000  -5.745810e+001  -8.320170e+001 
3753125000  -5.967200e+001  -8.763358e+001 
3756250000  -5.789828e+001  -9.955184e+001 
3759375000  -5.881483e+001  -1.121418e+002 
3762500000  -5.776506e+001  -1.142768e+002 
3765625000  -5.831367e+001  -1.201250e+002 
3768750000  -5.822164e+001  -1.421786e+002 
3771875000  -5.646373e+001  -1.518466e+002 
3775000000  -5.691985e+001  -1.522922e+002 
3778125000  -5.669347e+001  1.731481e+002 
3781250000  -5.619651e+001  1.795074e+002 
3784375000  -5.873815e+001  1.621580e+002 
3787500000  -5.741030e+001  1.565841e+002 
3790625000  -5.737996e+001  1.330606e+002 
3793750000  -5.739909e+001  1.261508e+002 
3796875000  -5.779259e+001  1.269634e+002 
3800000000  -5.363858e+001  8.255322e+001 
3803125000  -5.779774e+001  9.024387e+001 
3806250000  -5.979409e+001  8.571098e+001 
3809375000  -5.863093e+001  7.477716e+001 
3812500000  -5.826096e+001  6.715325e+001 
3815625000  -5.994117e+001  3.995279e+001 
3818750000  -6.274908e+001  3.350035e+001 
3821875000  -5.751135e+001  6.178338e+001 
3825000000  -6.054917e+001  6.197345e+001 
3828125000  -5.721167e+001  1.470941e+001 
3831250000  -6.058290e+001  1.228284e+001 
3834375000  -6.348667e+001  -5.779284e+000 
3837500000  -6.546790e+001  -7.242223e+000 
3840625000  -6.103512e+001  1.195397e+001 
3843750000  -6.115979e+001  -1.405260e+001 
3846875000  -7.025261e+001  2.101251e+001 
3850000000  -6.352457e+001  -2.419245e+001 
3853125000  -6.336543e+001  -1.683785e+001 
3856250000  -6.018227e+001  1.757226e+001 
3859375000  -5.902481e+001  -3.011259e+001 
3862500000  -6.170214e+001  -1.543851e+001 
3865625000  -5.961707e+001  -5.887788e+001 
3868750000  -6.105996e+001  -4.298165e+001 
3871875000  -5.762431e+001  -6.088676e+001 
3875000000  -5.980751e+001  -7.936285e+001 
3878125000  -5.682286e+001  -8.394441e+001 
3881250000  -5.695193e+001  -9.102903e+001 
3884375000  -5.655193e+001  -9.479015e+001 
3887500000  -5.520211e+001  -1.226564e+002 
3890625000  -5.754560e+001  -1.153320e+002 
3893750000  -5.638717e+001  -1.300524e+002 
3896875000  -5.701378e+001  -1.383147e+002 
3900000000  -5.457242e+001  -1.447830e+002 
3903125000  -5.767229e+001  -1.430542e+002 
3906250000  -5.411392e+001  -1.627032e+002 
3909375000  -5.440723e+001  1.792009e+002 
3912500000  -5.478452e+001  1.683044e+002 
3915625000  -5.578875e+001  1.578102e+002 
3918750000  -5.534403e+001  1.525410e+002 
3921875000  -5.500788e+001  1.364196e+002 
3925000000  -5.367299e+001  1.235083e+002 
3928125000  -5.279832e+001  1.092354e+002 
3931250000  -5.325544e+001  1.081277e+002 
3934375000  -5.459605e+001  9.004668e+001 
3937500000  -5.635854e+001  9.618380e+001 
3940625000  -5.462767e+001  7.739149e+001 
3943750000  -5.455378e+001  7.038141e+001 
3946875000  -5.426665e+001  5.416680e+001 
3950000000  -5.403406e+001  3.987864e+001 
3953125000  -5.537856e+001  3.900613e+001 
3956250000  -5.354236e+001  1.807402e+001 
3959375000  -5.133614e+001  1.801683e+001 
3962500000  -5.373973e+001  1.913668e+000 
3965625000  -5.336388e+001  -1.925427e+001 
3968750000  -5.370921e+001  -3.639062e+001 
3971875000  -5.432664e+001  -4.016091e+001 
3975000000  -5.541652e+001  -4.695721e+001 
3978125000  -5.431825e+001  -5.580009e+001 
3981250000  -5.428485e+001  -7.186486e+001 
3984375000  -5.522118e+001  -7.817308e+001 
3987500000  -5.616026e+001  -8.609813e+001 
3990625000  -5.626876e+001  -1.010474e+002 
3993750000  -5.924846e+001  -1.144269e+002 
3996875000  -5.852473e+001  -1.267289e+002 
4000000000  -5.899133e+001  -1.239686e+002 
4003125000  -6.139632e+001  -1.248286e+002 
4006250000  -5.785358e+001  -1.297323e+002 
4009375000  -5.816954e+001  -1.416806e+002 
4012500000  -6.126992e+001  -1.566375e+002 
4015625000  -6.153729e+001  -1.726604e+002 
4018750000  -5.843911e+001  -1.730507e+002 
4021875000  -5.907794e+001  -1.716659e+002 
4025000000  -6.074182e+001  1.713610e+002 
4028125000  -5.944968e+001  -1.757356e+002 
4031250000  -5.889403e+001  1.585093e+002 
4034375000  -6.064833e+001  1.591227e+002 
4037500000  -5.918708e+001  1.642941e+002 
4040625000  -5.808318e+001  1.562828e+002 
4043750000  -6.071819e+001  1.520692e+002 
4046875000  -5.793678e+001  1.323586e+002 
4050000000  -5.624378e+001  1.309444e+002 
4053125000  -5.836816e+001  1.298933e+002 
4056250000  -5.704577e+001  1.126012e+002 
4059375000  -5.438912e+001  1.111348e+002 
4062500000  -5.511653e+001  1.036594e+002 
4065625000  -5.343475e+001  8.712045e+001 
4068750000  -5.446075e+001  8.171654e+001 
4071875000  -5.413532e+001  6.410423e+001 
4075000000  -5.333541e+001  5.073866e+001 
4078125000  -5.379869e+001  3.537590e+001 
4081250000  -5.326287e+001  3.099118e+001 
4084375000  -5.257149e+001  8.376111e+000 
4087500000  -5.466772e+001  -1.500422e+001 
4090625000  -5.385559e+001  -3.365072e+000 
4093750000  -5.281085e+001  -1.793388e+001 
4096875000  -5.270575e+001  -3.157086e+001 
4100000000  -5.347551e+001  -4.735629e+001 
4103125000  -5.526069e+001  -4.884940e+001 
4106250000  -5.349159e+001  -5.776637e+001 
4109375000  -5.393402e+001  -6.747923e+001 
4112500000  -5.202695e+001  -7.697583e+001 
4115625000  -5.335506e+001  -8.992351e+001 
4118750000  -5.264077e+001  -9.957370e+001 
4121875000  -5.261719e+001  -1.215195e+002 
4125000000  -5.418232e+001  -1.190297e+002 
4128125000  -5.450148e+001  -1.283102e+002 
4131250000  -5.399062e+001  -1.309535e+002 
4134375000  -5.229544e+001  -1.489663e+002 
4137500000  -5.219481e+001  -1.685164e+002 
4140625000  -5.453582e+001  1.749429e+002 
4143750000  -5.715493e+001  -1.778067e+002 
4146875000  -5.440446e+001  1.633267e+002 
4150000000  -5.313313e+001  1.625063e+002 
4153125000  -5.340257e+001  1.453320e+002 
4156250000  -5.499607e+001  1.290922e+002 
4159375000  -5.547784e+001  1.360212e+002 
4162500000  -5.666636e+001  1.101575e+002 
4165625000  -5.481414e+001  1.181204e+002 
4168750000  -5.477725e+001  8.788750e+001 
4171875000  -5.615792e+001  8.816615e+001 
4175000000  -5.541381e+001  6.046788e+001 
4178125000  -5.596376e+001  5.583855e+001 
4181250000  -5.709879e+001  3.965575e+001 
4184375000  -6.062318e+001  1.825341e+001 
4187500000  -6.032963e+001  2.637986e+001 
4190625000  -6.077009e+001  6.106788e+000 
4193750000  -6.015035e+001  1.826558e+001 
4196875000  -6.094205e+001  4.337147e+000 
4200000000  -7.190352e+001  6.812344e+001 
4203125000  -6.357864e+001  1.327847e+001 
4206250000  -5.762193e+001  2.628171e+001 
4209375000  -6.154805e+001  -9.426824e+000 
4212500000  -6.334544e+001  7.965922e+000 
4215625000  -6.416336e+001  -2.855987e+000 
4218750000  -5.961916e+001  1.758081e+001 
4221875000  -6.347890e+001  -1.609283e+001 
4225000000  -6.150655e+001  -1.369025e+001 
4228125000  -6.084848e+001  -2.171993e+001 
4231250000  -6.382087e+001  -8.426790e+000 
4234375000  -6.007056e+001  -1.437391e+001 
4237500000  -5.861712e+001  -2.881665e+001 
4240625000  -5.516488e+001  -5.567457e+001 
4243750000  -5.961860e+001  -5.937160e+001 
4246875000  -5.788578e+001  -8.359487e+001 
4250000000  -5.802647e+001  -7.446524e+001 
4253125000  -5.540992e+001  -8.789112e+001 
4256250000  -5.521241e+001  -1.003025e+002 
4259375000  -5.615084e+001  -1.002900e+002 
4262500000  -5.518950e+001  -1.244842e+002 
4265625000  -5.435818e+001  -1.269989e+002 
4268750000  -5.354274e+001  -1.468631e+002 
4271875000  -5.250827e+001  -1.499100e+002 
4275000000  -5.185277e+001  -1.702287e+002 
4278125000  -5.304823e+001  1.723374e+002 
4281250000  -5.379446e+001  1.732696e+002 
4284375000  -5.408111e+001  1.593300e+002 
4287500000  -5.368853e+001  1.456227e+002 
4290625000  -5.468578e+001  1.443057e+002 
4293750000  -5.222889e+001  1.461724e+002 
4296875000  -5.211278e+001  1.278836e+002 
4300000000  -5.197895e+001  1.098040e+002 
4303125000  -5.312494e+001  1.049752e+002 
4306250000  -5.356994e+001  9.691361e+001 
4309375000  -5.107574e+001  7.779117e+001 
4312500000  -5.152396e+001  7.093153e+001 
4315625000  -5.115273e+001  5.864457e+001 
4318750000  -5.353675e+001  4.338081e+001 
4321875000  -5.269745e+001  3.790236e+001 
4325000000  -5.308567e+001  2.371789e+001 
4328125000  -5.146168e+001  1.652946e+001 
4331250000  -5.266822e+001  -5.259279e+000 
4334375000  -5.390744e+001  -1.347498e+001 
4337500000  -5.458109e+001  -3.472556e+001 
4340625000  -5.544366e+001  -2.319821e+001 
4343750000  -5.378102e+001  -3.635447e+001 
4346875000  -5.464191e+001  -4.074209e+001 
4350000000  -5.528866e+001  -5.320164e+001 
4353125000  -5.714846e+001  -6.298081e+001 
4356250000  -5.533191e+001  -7.681375e+001 
4359375000  -5.762441e+001  -6.219989e+001 
4362500000  -5.379208e+001  -6.474986e+001 
4365625000  -5.450608e+001  -8.772678e+001 
4368750000  -5.595496e+001  -1.114032e+002 
4371875000  -5.813013e+001  -1.212542e+002 
4375000000  -5.632983e+001  -1.216846e+002 
4378125000  -5.757346e+001  -1.248392e+002 
4381250000  -5.726711e+001  -1.359326e+002 
4384375000  -5.759225e+001  -1.411977e+002 
4387500000  -5.634972e+001  -1.347190e+002 
4390625000  -5.792671e+001  -1.525742e+002 
4393750000  -5.792921e+001  -1.484396e+002 
4396875000  -5.495319e+001  -1.520294e+002 
4400000000  -5.555413e+001  -1.705442e+002 
4403125000  -5.620138e+001  1.712265e+002 
4406250000  -5.693629e+001  1.714044e+002 
4409375000  -5.519175e+001  1.603557e+002 
4412500000  -5.766153e+001  1.650773e+002 
4415625000  -5.540112e+001  1.639186e+002 
4418750000  -5.535250e+001  1.583652e+002 
