!Agilent Technologies,E8363B,MY43030201,A.06.04.32
!Agilent E8363B: A.06.04.32
!Date: Tuesday, November 11, 2014 22:08:42
!Correction: S21(Response(S21)) 
!S1P File: Measurement: S21:
# Hz S  dB   R 50
3000000000  -4.891108e+001  -7.419118e+001 
3003125000  -5.103703e+001  -8.271543e+001 
3006250000  -5.152557e+001  -8.902641e+001 
3009375000  -5.222794e+001  -8.579050e+001 
3012500000  -5.150785e+001  -1.007823e+002 
3015625000  -5.135807e+001  -1.151501e+002 
3018750000  -5.160590e+001  -1.142429e+002 
3021875000  -4.989449e+001  -1.193234e+002 
3025000000  -4.839648e+001  -1.320731e+002 
3028125000  -4.818507e+001  -1.474290e+002 
3031250000  -4.685698e+001  -1.637245e+002 
3034375000  -4.696712e+001  1.796422e+002 
3037500000  -4.800990e+001  1.616307e+002 
3040625000  -4.911740e+001  1.518144e+002 
3043750000  -4.975054e+001  1.372649e+002 
3046875000  -5.116171e+001  1.308964e+002 
3050000000  -5.160253e+001  1.231521e+002 
3053125000  -5.164186e+001  1.193111e+002 
3056250000  -5.105477e+001  1.150805e+002 
3059375000  -5.083562e+001  1.073653e+002 
3062500000  -4.906087e+001  9.941058e+001 
3065625000  -4.902052e+001  8.462396e+001 
3068750000  -4.940205e+001  7.308739e+001 
3071875000  -4.926534e+001  6.352834e+001 
3075000000  -4.815078e+001  5.367380e+001 
3078125000  -4.838585e+001  4.386787e+001 
3081250000  -4.891716e+001  3.249802e+001 
3084375000  -4.816303e+001  2.294675e+001 
3087500000  -4.834319e+001  1.309259e+001 
3090625000  -4.784685e+001  -5.829641e+000 
3093750000  -4.893131e+001  -1.664774e+001 
3096875000  -4.973934e+001  -2.613330e+001 
3100000000  -4.951653e+001  -3.473355e+001 
3103125000  -4.989246e+001  -3.963429e+001 
3106250000  -4.929988e+001  -5.232051e+001 
3109375000  -4.913266e+001  -6.214840e+001 
3112500000  -4.952285e+001  -6.837800e+001 
3115625000  -4.937435e+001  -8.085469e+001 
3118750000  -4.960957e+001  -8.946053e+001 
3121875000  -4.915858e+001  -1.001352e+002 
3125000000  -5.059692e+001  -1.115548e+002 
3128125000  -5.087415e+001  -1.120273e+002 
3131250000  -4.836423e+001  -1.174884e+002 
3134375000  -4.786906e+001  -1.413511e+002 
3137500000  -4.915915e+001  -1.568394e+002 
3140625000  -4.918620e+001  -1.625292e+002 
3143750000  -5.049031e+001  -1.703558e+002 
3146875000  -4.979094e+001  -1.725862e+002 
3150000000  -4.896224e+001  1.748782e+002 
3153125000  -4.952574e+001  1.659496e+002 
3156250000  -5.105788e+001  1.651446e+002 
3159375000  -4.735987e+001  1.559338e+002 
3162500000  -4.649651e+001  1.330417e+002 
3165625000  -4.861383e+001  1.190423e+002 
3168750000  -4.745348e+001  1.122443e+002 
3171875000  -4.737305e+001  9.699773e+001 
3175000000  -4.755873e+001  8.664621e+001 
3178125000  -4.752303e+001  7.929472e+001 
3181250000  -4.660402e+001  6.293726e+001 
3184375000  -4.682464e+001  5.076840e+001 
3187500000  -4.784042e+001  3.268964e+001 
3190625000  -4.969501e+001  2.008006e+001 
3193750000  -4.962954e+001  1.930382e+001 
3196875000  -4.945710e+001  1.528309e+001 
3200000000  -4.808830e+001  7.245997e+000 
3203125000  -4.818480e+001  -3.082777e+000 
3206250000  -4.865652e+001  -1.746842e+001 
3209375000  -4.812778e+001  -3.285272e+001 
3212500000  -4.893303e+001  -4.377584e+001 
3215625000  -4.746228e+001  -4.914019e+001 
3218750000  -4.945702e+001  -6.872461e+001 
3221875000  -4.972298e+001  -7.600269e+001 
3225000000  -4.923129e+001  -8.522449e+001 
3228125000  -4.965748e+001  -9.471608e+001 
3231250000  -5.051627e+001  -1.062219e+002 
3234375000  -4.982254e+001  -1.111443e+002 
3237500000  -5.015836e+001  -1.192381e+002 
3240625000  -5.011586e+001  -1.301760e+002 
3243750000  -4.983738e+001  -1.480143e+002 
3246875000  -5.017905e+001  -1.569805e+002 
3250000000  -5.125754e+001  -1.684805e+002 
3253125000  -5.110767e+001  -1.775435e+002 
3256250000  -5.129175e+001  1.704658e+002 
3259375000  -5.135284e+001  1.577757e+002 
3262500000  -5.175122e+001  1.504001e+002 
3265625000  -5.302120e+001  1.497017e+002 
3268750000  -5.325671e+001  1.389088e+002 
3271875000  -5.280060e+001  1.312839e+002 
3275000000  -5.241256e+001  1.199208e+002 
3278125000  -5.244650e+001  1.083158e+002 
3281250000  -5.280560e+001  1.017319e+002 
3284375000  -5.251519e+001  8.892822e+001 
3287500000  -5.441339e+001  8.370793e+001 
3290625000  -5.242075e+001  6.060676e+001 
3293750000  -5.309846e+001  6.089009e+001 
3296875000  -5.383000e+001  4.907945e+001 
3300000000  -5.505335e+001  4.302169e+001 
3303125000  -5.269395e+001  3.660045e+001 
3306250000  -5.337365e+001  2.043869e+001 
3309375000  -5.331048e+001  8.227226e+000 
3312500000  -5.381747e+001  -5.887015e+000 
3315625000  -5.493127e+001  -1.015584e+001 
3318750000  -5.591265e+001  -1.170526e+001 
3321875000  -5.616211e+001  -2.791918e+001 
3325000000  -5.680464e+001  -1.399352e+001 
3328125000  -5.620821e+001  -1.764185e+001 
3331250000  -5.412665e+001  -3.371840e+001 
3334375000  -5.243862e+001  -5.175337e+001 
3337500000  -5.234841e+001  -7.662721e+001 
3340625000  -5.447426e+001  -8.676875e+001 
3343750000  -5.820069e+001  -9.020852e+001 
3346875000  -5.606533e+001  -1.040508e+002 
3350000000  -5.483696e+001  -1.087895e+002 
3353125000  -5.415256e+001  -1.178579e+002 
3356250000  -5.520534e+001  -1.349186e+002 
3359375000  -5.485056e+001  -1.456162e+002 
3362500000  -5.697439e+001  -1.569375e+002 
3365625000  -5.590167e+001  -1.619435e+002 
3368750000  -5.734685e+001  -1.718902e+002 
3371875000  -5.729456e+001  1.725422e+002 
3375000000  -6.082513e+001  1.676663e+002 
3378125000  -6.083633e+001  1.618109e+002 
3381250000  -6.012627e+001  1.710264e+002 
3384375000  -5.628181e+001  1.773363e+002 
3387500000  -5.327887e+001  1.490747e+002 
3390625000  -5.685582e+001  1.261700e+002 
3393750000  -5.628587e+001  1.152636e+002 
3396875000  -5.663298e+001  1.072906e+002 
3400000000  -5.485519e+001  9.901029e+001 
3403125000  -5.825597e+001  8.080321e+001 
3406250000  -5.574742e+001  7.733226e+001 
3409375000  -5.888138e+001  4.798674e+001 
3412500000  -5.650552e+001  6.068000e+001 
3415625000  -5.949340e+001  4.300916e+001 
3418750000  -5.980660e+001  3.921618e+001 
3421875000  -5.849684e+001  2.176383e+001 
3425000000  -5.893295e+001  1.410237e+001 
3428125000  -6.029979e+001  7.882527e-002 
3431250000  -6.164302e+001  -5.921191e+000 
3434375000  -6.224938e+001  -2.370839e+001 
3437500000  -6.102866e+001  -3.212915e+001 
3440625000  -6.033090e+001  -3.151587e+001 
3443750000  -6.022469e+001  -1.951381e+001 
3446875000  -6.125222e+001  -5.285318e+001 
3450000000  -5.982637e+001  -7.252160e+001 
3453125000  -6.410165e+001  -7.851088e+001 
3456250000  -7.723164e+001  -9.490066e+001 
3459375000  -6.595264e+001  -7.377479e+001 
3462500000  -6.766875e+001  -1.371629e+002 
3465625000  -6.523568e+001  -1.004665e+002 
3468750000  -6.960568e+001  -1.534935e+002 
3471875000  -6.922192e+001  -1.112296e+002 
3475000000  -6.622062e+001  -1.319708e+002 
3478125000  -6.731492e+001  -1.693372e+002 
3481250000  -7.415192e+001  -1.615112e+002 
3484375000  -6.879863e+001  -1.107521e+002 
3487500000  -6.767831e+001  -1.218128e+002 
3490625000  -6.360543e+001  -1.304000e+002 
3493750000  -7.739267e+001  1.716956e+002 
3496875000  -6.691447e+001  -1.702123e+002 
3500000000  -6.500697e+001  1.699777e+002 
3503125000  -7.100319e+001  -1.397960e+002 
3506250000  -6.684070e+001  -1.725199e+002 
3509375000  -6.713938e+001  1.786145e+002 
3512500000  -6.727808e+001  1.634662e+002 
3515625000  -6.680634e+001  1.159173e+002 
3518750000  -6.574836e+001  1.479727e+002 
3521875000  -7.386051e+001  1.661133e+002 
3525000000  -6.566649e+001  1.026081e+002 
3528125000  -6.866234e+001  1.105089e+002 
3531250000  -7.021175e+001  1.326819e+002 
3534375000  -6.912214e+001  1.056224e+002 
3537500000  -6.653464e+001  8.121879e+001 
3540625000  -7.362904e+001  3.143195e+001 
3543750000  -7.224955e+001  7.929885e+001 
3546875000  -7.048106e+001  7.949564e+001 
3550000000  -6.876366e+001  1.060420e+002 
3553125000  -6.600990e+001  2.917424e+001 
3556250000  -7.494687e+001  5.243929e+001 
3559375000  -8.396028e+001  8.871635e+001 
3562500000  -6.982144e+001  8.284516e+001 
3565625000  -6.987259e+001  2.731345e+001 
3568750000  -8.049337e+001  1.695279e+002 
3571875000  -7.063471e+001  2.673697e+001 
3575000000  -8.398241e+001  -7.802945e+001 
3578125000  -6.943853e+001  4.538422e+001 
3581250000  -8.816236e+001  2.322790e+001 
3584375000  -7.106924e+001  5.790886e+001 
3587500000  -7.259301e+001  5.316378e+001 
3590625000  -6.668900e+001  -1.421394e+001 
3593750000  -6.861787e+001  -1.018865e+001 
3596875000  -6.988019e+001  4.285118e+001 
3600000000  -6.571214e+001  -3.136196e+001 
3603125000  -6.679159e+001  -2.455580e+001 
3606250000  -6.416711e+001  -5.639796e+001 
3609375000  -6.454093e+001  -4.259337e+001 
3612500000  -6.488631e+001  -7.014426e+001 
3615625000  -6.855172e+001  -4.941987e+001 
3618750000  -6.577946e+001  -4.741338e+001 
3621875000  -6.534041e+001  -6.268483e+001 
3625000000  -6.702848e+001  -1.052660e+002 
3628125000  -6.482451e+001  -1.141054e+002 
3631250000  -6.088146e+001  -1.146611e+002 
3634375000  -6.570913e+001  -1.101565e+002 
3637500000  -6.442262e+001  -1.034529e+002 
3640625000  -6.162992e+001  -1.206345e+002 
3643750000  -6.014565e+001  -1.488609e+002 
3646875000  -6.149299e+001  1.716438e+002 
3650000000  -6.247163e+001  1.740566e+002 
3653125000  -6.148410e+001  1.799453e+002 
3656250000  -6.559354e+001  1.517270e+002 
3659375000  -6.253482e+001  1.678379e+002 
3662500000  -6.236363e+001  1.532581e+002 
3665625000  -6.481751e+001  1.531871e+002 
3668750000  -6.091891e+001  9.946099e+001 
3671875000  -6.330912e+001  1.406273e+002 
3675000000  -6.398030e+001  1.057029e+002 
3678125000  -6.255898e+001  1.163444e+002 
3681250000  -5.985726e+001  1.032562e+002 
3684375000  -6.841823e+001  6.048850e+001 
3687500000  -6.264416e+001  7.118790e+001 
3690625000  -6.941077e+001  4.328642e+001 
3693750000  -6.297507e+001  1.199699e+002 
3696875000  -7.393761e+001  1.112712e+002 
3700000000  -6.296683e+001  7.411423e+001 
3703125000  -6.354365e+001  6.679211e+001 
3706250000  -6.612257e+001  9.025767e+001 
3709375000  -6.827660e+001  6.316478e+001 
3712500000  -6.201457e+001  4.912533e+001 
3715625000  -6.037353e+001  1.595749e+001 
3718750000  -6.213491e+001  2.345862e+001 
3721875000  -6.330767e+001  1.859763e+001 
3725000000  -6.078490e+001  1.717879e+001 
3728125000  -6.003725e+001  5.461024e+000 
3731250000  -5.914030e+001  -1.323693e+000 
3734375000  -6.051167e+001  -2.465153e+001 
3737500000  -5.855689e+001  -4.655210e+001 
3740625000  -5.846045e+001  -4.421498e+001 
3743750000  -5.916872e+001  -5.155222e+001 
3746875000  -5.807724e+001  -6.995704e+001 
3750000000  -5.857606e+001  -8.840670e+001 
3753125000  -5.910431e+001  -9.263259e+001 
3756250000  -5.935549e+001  -9.449713e+001 
3759375000  -5.821946e+001  -1.076236e+002 
3762500000  -5.855019e+001  -1.118879e+002 
3765625000  -5.816046e+001  -1.343294e+002 
3768750000  -5.536069e+001  -1.397560e+002 
3771875000  -5.739407e+001  -1.504768e+002 
3775000000  -5.537795e+001  -1.639210e+002 
3778125000  -5.702689e+001  -1.798467e+002 
3781250000  -5.653720e+001  -1.754665e+002 
3784375000  -5.747314e+001  1.680594e+002 
3787500000  -5.617566e+001  1.474722e+002 
3790625000  -5.770647e+001  1.250779e+002 
3793750000  -5.821690e+001  1.267239e+002 
3796875000  -5.706590e+001  1.030531e+002 
3800000000  -5.280436e+001  7.789947e+001 
3803125000  -5.686230e+001  1.033540e+002 
3806250000  -5.826398e+001  7.986091e+001 
3809375000  -5.684253e+001  8.058752e+001 
3812500000  -5.587424e+001  6.509629e+001 
3815625000  -5.988626e+001  4.542232e+001 
3818750000  -6.340868e+001  4.019864e+001 
3821875000  -6.138934e+001  6.014790e+001 
3825000000  -5.927321e+001  2.733037e+001 
3828125000  -5.662232e+001  2.071093e+001 
3831250000  -6.151331e+001  3.656128e+001 
3834375000  -6.704550e+001  2.770245e+001 
3837500000  -6.878077e+001  2.095129e+001 
3840625000  -6.036528e+001  -5.010448e+000 
3843750000  -6.108306e+001  -2.232257e+000 
3846875000  -6.387897e+001  -2.177689e+001 
3850000000  -6.338929e+001  -1.385117e+001 
3853125000  -6.242039e+001  -2.011438e+001 
3856250000  -6.082574e+001  -1.983235e+001 
3859375000  -6.029234e+001  -4.066935e+001 
3862500000  -6.045995e+001  -5.474126e+001 
3865625000  -5.945691e+001  -6.437227e+001 
3868750000  -6.011696e+001  -4.668381e+001 
3871875000  -5.680683e+001  -6.634289e+001 
3875000000  -5.778122e+001  -7.207090e+001 
3878125000  -5.734129e+001  -8.635139e+001 
3881250000  -5.850688e+001  -9.953744e+001 
3884375000  -5.648329e+001  -1.018970e+002 
3887500000  -5.537001e+001  -1.213924e+002 
3890625000  -5.602942e+001  -1.169159e+002 
3893750000  -5.658129e+001  -1.281488e+002 
3896875000  -5.673764e+001  -1.344135e+002 
3900000000  -5.738321e+001  -1.423898e+002 
3903125000  -5.497210e+001  -1.623446e+002 
3906250000  -5.378044e+001  -1.672486e+002 
3909375000  -5.347213e+001  -1.795683e+002 
3912500000  -5.341781e+001  1.722402e+002 
3915625000  -5.710745e+001  1.585945e+002 
3918750000  -5.530886e+001  1.461257e+002 
3921875000  -5.496414e+001  1.375066e+002 
3925000000  -5.332564e+001  1.290599e+002 
3928125000  -5.263160e+001  1.075177e+002 
3931250000  -5.411810e+001  9.694609e+001 
3934375000  -5.371729e+001  8.555271e+001 
3937500000  -5.583340e+001  8.506985e+001 
3940625000  -5.443668e+001  8.093026e+001 
3943750000  -5.314394e+001  6.881405e+001 
3946875000  -5.382330e+001  5.214693e+001 
3950000000  -5.483647e+001  3.401580e+001 
3953125000  -5.620381e+001  3.223512e+001 
3956250000  -5.421199e+001  2.511999e+001 
3959375000  -5.148273e+001  1.852672e+000 
3962500000  -5.315477e+001  -9.361320e+000 
3965625000  -5.407240e+001  -1.599269e+001 
3968750000  -5.446651e+001  -3.534264e+001 
3971875000  -5.282120e+001  -4.192290e+001 
3975000000  -5.266738e+001  -5.292692e+001 
3978125000  -5.439048e+001  -5.651339e+001 
3981250000  -5.424940e+001  -7.415078e+001 
3984375000  -5.446033e+001  -8.317249e+001 
3987500000  -5.514559e+001  -9.000149e+001 
3990625000  -5.724370e+001  -1.075829e+002 
3993750000  -5.819424e+001  -1.270311e+002 
3996875000  -5.851790e+001  -1.319401e+002 
4000000000  -6.046541e+001  -1.275580e+002 
4003125000  -5.918554e+001  -1.271517e+002 
4006250000  -5.731327e+001  -1.349135e+002 
4009375000  -5.666977e+001  -1.439902e+002 
4012500000  -5.864784e+001  -1.581565e+002 
4015625000  -6.491811e+001  -1.536798e+002 
4018750000  -5.961518e+001  -1.728392e+002 
4021875000  -5.894262e+001  1.743797e+002 
4025000000  -5.859578e+001  1.709055e+002 
4028125000  -5.833226e+001  1.732694e+002 
4031250000  -6.195024e+001  1.653705e+002 
4034375000  -6.106023e+001  1.646128e+002 
4037500000  -6.077988e+001  1.555712e+002 
4040625000  -5.923059e+001  1.359154e+002 
4043750000  -5.869726e+001  1.372737e+002 
4046875000  -5.829562e+001  1.256183e+002 
4050000000  -5.686765e+001  1.242065e+002 
4053125000  -5.781228e+001  1.256622e+002 
4056250000  -5.714646e+001  1.129132e+002 
4059375000  -5.551052e+001  1.075372e+002 
4062500000  -5.485217e+001  9.383664e+001 
4065625000  -5.475012e+001  7.470399e+001 
4068750000  -5.492673e+001  7.355155e+001 
4071875000  -5.251186e+001  5.499078e+001 
4075000000  -5.399316e+001  3.071564e+001 
4078125000  -5.341593e+001  3.540125e+001 
4081250000  -5.287034e+001  2.235055e+001 
4084375000  -5.198556e+001  6.387436e+000 
4087500000  -5.363717e+001  -1.065961e+001 
4090625000  -5.368036e+001  -1.080538e+001 
4093750000  -5.318913e+001  -1.758892e+001 
4096875000  -5.239027e+001  -3.718148e+001 
4100000000  -5.479140e+001  -5.531102e+001 
4103125000  -5.458187e+001  -5.639144e+001 
4106250000  -5.376290e+001  -5.408669e+001 
4109375000  -5.312896e+001  -6.631610e+001 
4112500000  -5.196600e+001  -8.150114e+001 
4115625000  -5.350663e+001  -8.979196e+001 
4118750000  -5.223237e+001  -1.084998e+002 
4121875000  -5.384739e+001  -1.201255e+002 
4125000000  -5.290987e+001  -1.248672e+002 
4128125000  -5.458760e+001  -1.296732e+002 
4131250000  -5.423634e+001  -1.355000e+002 
4134375000  -5.107582e+001  -1.546924e+002 
4137500000  -5.157802e+001  -1.742948e+002 
4140625000  -5.441500e+001  1.685842e+002 
4143750000  -5.641095e+001  1.765100e+002 
4146875000  -5.389268e+001  1.669953e+002 
4150000000  -5.555811e+001  1.481404e+002 
4153125000  -5.401589e+001  1.466527e+002 
4156250000  -5.512033e+001  1.241187e+002 
4159375000  -5.606617e+001  1.402034e+002 
4162500000  -5.642132e+001  1.175911e+002 
4165625000  -5.298589e+001  1.183225e+002 
4168750000  -5.501095e+001  8.203043e+001 
4171875000  -5.458829e+001  8.073795e+001 
4175000000  -5.561399e+001  5.155863e+001 
4178125000  -5.665342e+001  6.488998e+001 
4181250000  -5.719470e+001  3.743103e+001 
4184375000  -5.950060e+001  3.212273e+001 
4187500000  -5.889793e+001  3.332746e+001 
4190625000  -6.276069e+001  5.425434e+000 
4193750000  -6.061900e+001  1.656470e+001 
4196875000  -5.947725e+001  -5.784211e+000 
4200000000  -6.181286e+001  3.086080e+001 
4203125000  -6.116840e+001  1.062256e+001 
4206250000  -5.975235e+001  1.665192e+001 
4209375000  -6.115652e+001  -1.908793e+001 
4212500000  -6.167096e+001  -2.455240e+001 
4215625000  -6.435574e+001  -7.349768e+000 
4218750000  -6.260480e+001  -2.825508e+000 
4221875000  -5.977318e+001  -3.135900e+001 
4225000000  -6.256152e+001  -9.110432e+000 
4228125000  -5.894415e+001  -3.042703e+001 
4231250000  -6.058090e+001  -2.196754e+001 
4234375000  -5.794344e+001  -4.447263e+001 
4237500000  -5.815791e+001  -4.997270e+001 
4240625000  -5.597483e+001  -6.189041e+001 
4243750000  -5.883658e+001  -7.266656e+001 
4246875000  -5.704108e+001  -7.326572e+001 
4250000000  -5.865993e+001  -7.890851e+001 
4253125000  -5.506874e+001  -8.211236e+001 
4256250000  -5.619185e+001  -9.560519e+001 
4259375000  -5.465749e+001  -1.147281e+002 
4262500000  -5.545781e+001  -1.294812e+002 
4265625000  -5.378196e+001  -1.261012e+002 
4268750000  -5.270140e+001  -1.467376e+002 
4271875000  -5.303505e+001  -1.537055e+002 
4275000000  -5.074241e+001  1.797175e+002 
4278125000  -5.549224e+001  1.605696e+002 
4281250000  -5.364259e+001  1.627509e+002 
4284375000  -5.395290e+001  1.491693e+002 
4287500000  -5.386500e+001  1.455553e+002 
4290625000  -5.525190e+001  1.495512e+002 
4293750000  -5.287493e+001  1.413499e+002 
4296875000  -5.153451e+001  1.135225e+002 
4300000000  -5.295113e+001  1.024586e+002 
4303125000  -5.313311e+001  9.764709e+001 
4306250000  -5.281865e+001  9.413831e+001 
4309375000  -5.190460e+001  7.774535e+001 
4312500000  -5.176419e+001  6.625414e+001 
4315625000  -5.202888e+001  5.392494e+001 
4318750000  -5.433461e+001  4.161131e+001 
4321875000  -5.365274e+001  2.977230e+001 
4325000000  -5.428600e+001  2.774601e+001 
4328125000  -5.168342e+001  5.880993e+000 
4331250000  -5.297736e+001  -8.731077e+000 
4334375000  -5.348897e+001  -1.226971e+001 
4337500000  -5.508295e+001  -3.329250e+001 
4340625000  -5.559226e+001  -1.660716e+001 
4343750000  -5.466178e+001  -3.736225e+001 
4346875000  -5.495989e+001  -5.139578e+001 
4350000000  -5.693348e+001  -6.643816e+001 
4353125000  -5.518816e+001  -6.066002e+001 
4356250000  -5.836880e+001  -6.618784e+001 
4359375000  -6.001765e+001  -5.107447e+001 
4362500000  -5.578519e+001  -6.486951e+001 
4365625000  -5.338487e+001  -1.012495e+002 
4368750000  -5.518185e+001  -1.050945e+002 
4371875000  -5.772552e+001  -1.008038e+002 
4375000000  -5.566547e+001  -1.144599e+002 
4378125000  -5.565702e+001  -1.362841e+002 
4381250000  -5.996569e+001  -1.436584e+002 
4384375000  -5.647376e+001  -1.483850e+002 
4387500000  -5.591955e+001  -1.508986e+002 
4390625000  -5.863062e+001  -1.583230e+002 
4393750000  -5.739513e+001  -1.515895e+002 
4396875000  -5.609837e+001  -1.613735e+002 
4400000000  -5.591165e+001  -1.694344e+002 
4403125000  -5.638702e+001  1.681504e+002 
4406250000  -5.802490e+001  1.658996e+002 
4409375000  -5.669374e+001  1.599877e+002 
4412500000  -5.719263e+001  1.563138e+002 
4415625000  -5.636789e+001  1.676983e+002 
4418750000  -5.463865e+001  1.477802e+002 
