!Agilent Technologies,E8363B,MY43030201,A.06.04.32
!Agilent E8363B: A.06.04.32
!Date: Tuesday, November 11, 2014 22:16:15
!Correction: S21(Response(S21)) 
!S1P File: Measurement: S21:
# Hz S  dB   R 50
3000000000  -4.891183e+001  -7.179141e+001 
3003125000  -5.123000e+001  -7.835092e+001 
3006250000  -5.134835e+001  -8.369172e+001 
3009375000  -5.253025e+001  -8.852795e+001 
3012500000  -5.115182e+001  -9.862180e+001 
3015625000  -5.067130e+001  -1.061576e+002 
3018750000  -5.148104e+001  -1.116874e+002 
3021875000  -5.023468e+001  -1.166502e+002 
3025000000  -4.880222e+001  -1.263314e+002 
3028125000  -4.825060e+001  -1.445508e+002 
3031250000  -4.735113e+001  -1.608124e+002 
3034375000  -4.679976e+001  -1.792004e+002 
3037500000  -4.800740e+001  1.666051e+002 
3040625000  -4.945828e+001  1.560248e+002 
3043750000  -4.958968e+001  1.419256e+002 
3046875000  -5.113020e+001  1.329338e+002 
3050000000  -5.145482e+001  1.259201e+002 
3053125000  -5.144422e+001  1.257909e+002 
3056250000  -5.155156e+001  1.227651e+002 
3059375000  -5.036016e+001  1.120627e+002 
3062500000  -4.894905e+001  1.032800e+002 
3065625000  -4.961946e+001  8.945369e+001 
3068750000  -4.912402e+001  7.823200e+001 
3071875000  -4.932498e+001  6.767607e+001 
3075000000  -4.811401e+001  5.542318e+001 
3078125000  -4.865797e+001  4.686788e+001 
3081250000  -4.884785e+001  3.581908e+001 
3084375000  -4.803625e+001  2.766713e+001 
3087500000  -4.815131e+001  1.532730e+001 
3090625000  -4.794224e+001  -2.691501e+000 
3093750000  -4.897560e+001  -1.659236e+001 
3096875000  -4.935872e+001  -2.377139e+001 
3100000000  -4.945389e+001  -3.320586e+001 
3103125000  -4.987972e+001  -4.117799e+001 
3106250000  -4.913678e+001  -4.991768e+001 
3109375000  -4.923947e+001  -6.020601e+001 
3112500000  -4.946183e+001  -6.559553e+001 
3115625000  -4.950977e+001  -7.993864e+001 
3118750000  -4.963142e+001  -8.295500e+001 
3121875000  -4.902928e+001  -9.757915e+001 
3125000000  -5.120362e+001  -1.054947e+002 
3128125000  -5.094353e+001  -1.032492e+002 
3131250000  -4.902240e+001  -1.185714e+002 
3134375000  -4.805605e+001  -1.372970e+002 
3137500000  -4.850198e+001  -1.547818e+002 
3140625000  -4.978387e+001  -1.562527e+002 
3143750000  -5.099966e+001  -1.693411e+002 
3146875000  -4.962656e+001  -1.701308e+002 
3150000000  -4.931316e+001  -1.768771e+002 
3153125000  -4.899515e+001  1.653937e+002 
3156250000  -5.064975e+001  1.664813e+002 
3159375000  -4.765703e+001  1.647549e+002 
3162500000  -4.633827e+001  1.390058e+002 
3165625000  -4.751888e+001  1.243597e+002 
3168750000  -4.791423e+001  1.164453e+002 
3171875000  -4.704079e+001  1.061292e+002 
3175000000  -4.747571e+001  8.898136e+001 
3178125000  -4.749155e+001  8.492001e+001 
3181250000  -4.695237e+001  6.964239e+001 
3184375000  -4.682600e+001  5.469402e+001 
3187500000  -4.799504e+001  3.404325e+001 
3190625000  -5.011543e+001  2.474302e+001 
3193750000  -4.924868e+001  2.374026e+001 
3196875000  -4.986690e+001  2.226970e+001 
3200000000  -4.843920e+001  1.135310e+001 
3203125000  -4.833524e+001  -2.093976e+000 
3206250000  -4.876818e+001  -1.375556e+001 
3209375000  -4.817641e+001  -2.606961e+001 
3212500000  -4.843927e+001  -3.840255e+001 
3215625000  -4.835352e+001  -4.745214e+001 
3218750000  -4.911541e+001  -6.609389e+001 
3221875000  -4.976508e+001  -7.426131e+001 
3225000000  -4.982356e+001  -7.948697e+001 
3228125000  -4.967591e+001  -9.285345e+001 
3231250000  -5.075512e+001  -1.062018e+002 
3234375000  -5.033826e+001  -1.118661e+002 
3237500000  -5.035362e+001  -1.174403e+002 
3240625000  -4.973280e+001  -1.273171e+002 
3243750000  -4.931333e+001  -1.435416e+002 
3246875000  -5.012728e+001  -1.502086e+002 
3250000000  -5.159793e+001  -1.692645e+002 
3253125000  -5.115909e+001  -1.720856e+002 
3256250000  -5.011044e+001  1.781263e+002 
3259375000  -5.080900e+001  1.631770e+002 
3262500000  -5.214204e+001  1.502307e+002 
3265625000  -5.244975e+001  1.477653e+002 
3268750000  -5.290312e+001  1.409822e+002 
3271875000  -5.257036e+001  1.328001e+002 
3275000000  -5.202126e+001  1.257019e+002 
3278125000  -5.189695e+001  1.094374e+002 
3281250000  -5.281490e+001  1.050225e+002 
3284375000  -5.237442e+001  9.167509e+001 
3287500000  -5.277989e+001  8.830943e+001 
3290625000  -5.357594e+001  7.413226e+001 
3293750000  -5.349788e+001  6.120177e+001 
3296875000  -5.404062e+001  5.596410e+001 
3300000000  -5.419477e+001  5.064852e+001 
3303125000  -5.287388e+001  3.924581e+001 
3306250000  -5.384225e+001  2.324844e+001 
3309375000  -5.348573e+001  1.493808e+001 
3312500000  -5.300554e+001  2.777906e+000 
3315625000  -5.364621e+001  -1.025708e+001 
3318750000  -5.475100e+001  -7.119988e+000 
3321875000  -5.757330e+001  -2.284907e+001 
3325000000  -5.828368e+001  -1.216419e+001 
3328125000  -5.640106e+001  -3.190799e+001 
3331250000  -5.373503e+001  -2.119548e+001 
3334375000  -5.199401e+001  -4.224487e+001 
3337500000  -5.194132e+001  -6.894613e+001 
3340625000  -5.437488e+001  -8.670403e+001 
3343750000  -5.530824e+001  -8.355387e+001 
3346875000  -5.511191e+001  -9.554997e+001 
3350000000  -5.535773e+001  -9.998156e+001 
3353125000  -5.401130e+001  -1.153877e+002 
3356250000  -5.462142e+001  -1.315721e+002 
3359375000  -5.481552e+001  -1.391659e+002 
3362500000  -5.702276e+001  -1.453132e+002 
3365625000  -5.599068e+001  -1.643614e+002 
3368750000  -5.759105e+001  -1.741847e+002 
3371875000  -5.666740e+001  1.757675e+002 
3375000000  -5.919288e+001  1.762004e+002 
3378125000  -5.860642e+001  1.689536e+002 
3381250000  -6.066356e+001  1.686909e+002 
3384375000  -5.617789e+001  -1.790678e+002 
3387500000  -5.382481e+001  1.641643e+002 
3390625000  -5.719997e+001  1.398466e+002 
3393750000  -5.891097e+001  1.167206e+002 
3396875000  -5.664700e+001  1.200773e+002 
3400000000  -5.495272e+001  1.032009e+002 
3403125000  -5.636632e+001  8.181905e+001 
3406250000  -5.749590e+001  8.142900e+001 
3409375000  -5.719082e+001  5.204596e+001 
3412500000  -5.818646e+001  5.242870e+001 
3415625000  -5.946547e+001  5.209094e+001 
3418750000  -6.080772e+001  3.956954e+001 
3421875000  -6.273483e+001  1.982587e+001 
3425000000  -6.069481e+001  3.219097e+001 
3428125000  -5.948491e+001  6.415989e+000 
3431250000  -6.204369e+001  1.089515e+001 
3434375000  -6.131823e+001  -1.773519e+001 
3437500000  -6.389148e+001  -1.786542e+001 
3440625000  -6.148881e+001  -3.069950e+001 
3443750000  -6.211556e+001  -1.616795e+001 
3446875000  -6.182740e+001  -5.542198e+001 
3450000000  -6.344097e+001  -7.286870e+001 
3453125000  -6.185447e+001  -6.650804e+001 
3456250000  -6.516663e+001  -1.021684e+002 
3459375000  -6.761414e+001  -9.054275e+001 
3462500000  -6.714938e+001  -1.086438e+002 
3465625000  -6.496246e+001  -1.172073e+002 
3468750000  -6.697729e+001  -9.715224e+001 
3471875000  -6.737834e+001  -9.637043e+001 
3475000000  -6.500490e+001  -1.222946e+002 
3478125000  -7.512487e+001  -1.033689e+002 
3481250000  -6.583239e+001  -1.381271e+002 
3484375000  -6.903206e+001  -1.132740e+002 
3487500000  -6.704902e+001  -1.089997e+002 
3490625000  -6.474883e+001  -1.202922e+002 
3493750000  -6.736124e+001  -1.405700e+002 
3496875000  -6.508303e+001  -1.748989e+002 
3500000000  -6.726253e+001  -1.576382e+002 
3503125000  -6.614898e+001  -1.572048e+002 
3506250000  -6.300983e+001  -1.712775e+002 
3509375000  -6.516073e+001  1.492233e+002 
3512500000  -6.972604e+001  1.144720e+002 
3515625000  -6.978802e+001  1.385862e+002 
3518750000  -6.270998e+001  1.586820e+002 
3521875000  -6.787466e+001  1.477446e+002 
3525000000  -6.692755e+001  1.189740e+002 
3528125000  -7.477878e+001  1.143909e+002 
3531250000  -6.432030e+001  1.131326e+002 
3534375000  -6.343378e+001  1.072141e+002 
3537500000  -6.790486e+001  6.600481e+001 
3540625000  -6.611084e+001  4.596553e+001 
3543750000  -7.125105e+001  7.729563e+001 
3546875000  -6.846745e+001  2.501892e+001 
3550000000  -7.159511e+001  2.744201e+001 
3553125000  -6.767413e+001  3.877783e+001 
3556250000  -9.404929e+001  -1.063460e+002 
3559375000  -7.141507e+001  1.031886e+001 
3562500000  -7.492429e+001  3.061787e+001 
3565625000  -7.124425e+001  -1.358299e+001 
3568750000  -7.377909e+001  1.628169e+002 
3571875000  -6.637212e+001  1.384772e+001 
3575000000  -7.304197e+001  8.235539e+000 
3578125000  -7.070396e+001  4.451733e+001 
3581250000  -7.911038e+001  3.422939e+001 
3584375000  -6.985982e+001  3.248331e+001 
3587500000  -7.599696e+001  4.985257e+001 
3590625000  -7.728918e+001  9.341263e-001 
3593750000  -7.002567e+001  -4.418406e+001 
3596875000  -6.498954e+001  5.041316e+001 
3600000000  -6.370416e+001  -5.034770e+000 
3603125000  -6.769871e+001  -5.736106e+000 
3606250000  -6.798045e+001  -6.188529e+001 
3609375000  -6.645415e+001  -8.648415e+000 
3612500000  -6.344948e+001  -6.032895e+001 
3615625000  -6.579575e+001  -4.822422e+001 
3618750000  -6.331397e+001  -4.644338e+001 
3621875000  -6.242360e+001  -6.988940e+001 
3625000000  -6.572577e+001  -7.552608e+001 
3628125000  -6.175823e+001  -1.135050e+002 
3631250000  -6.860810e+001  -9.768556e+001 
3634375000  -6.501775e+001  -1.306860e+002 
3637500000  -6.623043e+001  -1.041167e+002 
3640625000  -6.176551e+001  -1.290595e+002 
3643750000  -6.446723e+001  -1.550400e+002 
3646875000  -6.158005e+001  -1.585435e+002 
3650000000  -6.444532e+001  -1.659890e+002 
3653125000  -6.502693e+001  -1.776392e+002 
3656250000  -6.323423e+001  1.676049e+002 
3659375000  -6.819210e+001  1.707650e+002 
3662500000  -6.593552e+001  1.302886e+002 
3665625000  -6.175368e+001  1.522218e+002 
3668750000  -6.570148e+001  1.276434e+002 
3671875000  -6.571740e+001  1.243915e+002 
3675000000  -6.464394e+001  1.050336e+002 
3678125000  -6.566171e+001  1.224906e+002 
3681250000  -6.107509e+001  1.137770e+002 
3684375000  -6.692941e+001  8.372295e+001 
3687500000  -6.818477e+001  1.036064e+002 
3690625000  -6.506402e+001  5.167380e+001 
3693750000  -6.438348e+001  9.856722e+001 
3696875000  -6.855213e+001  7.339392e+001 
3700000000  -6.212961e+001  7.217109e+001 
3703125000  -6.482186e+001  7.472617e+001 
3706250000  -6.984241e+001  6.786692e+001 
3709375000  -6.579572e+001  4.411847e+001 
3712500000  -6.177322e+001  6.092207e+001 
3715625000  -6.020839e+001  5.731477e+001 
3718750000  -6.094623e+001  1.644664e+001 
3721875000  -6.139364e+001  2.892582e+001 
3725000000  -6.201411e+001  1.367744e+001 
3728125000  -5.838319e+001  1.278725e+001 
3731250000  -5.859632e+001  -1.718582e+001 
3734375000  -5.772131e+001  -8.709147e+000 
3737500000  -5.860394e+001  -3.115586e+001 
3740625000  -6.024717e+001  -2.582539e+001 
3743750000  -5.870515e+001  -4.625832e+001 
3746875000  -5.813669e+001  -5.506129e+001 
3750000000  -5.818304e+001  -7.765961e+001 
3753125000  -5.976226e+001  -7.859913e+001 
3756250000  -5.978877e+001  -8.809091e+001 
3759375000  -5.792239e+001  -1.086217e+002 
3762500000  -5.680925e+001  -1.146050e+002 
3765625000  -5.870602e+001  -1.189486e+002 
3768750000  -5.696163e+001  -1.241776e+002 
3771875000  -5.803780e+001  -1.401845e+002 
3775000000  -5.699056e+001  -1.522020e+002 
3778125000  -5.697839e+001  -1.685603e+002 
3781250000  -5.744169e+001  -1.651598e+002 
3784375000  -5.739552e+001  1.692006e+002 
3787500000  -5.679815e+001  1.623164e+002 
3790625000  -5.595641e+001  1.514302e+002 
3793750000  -5.666529e+001  1.393672e+002 
3796875000  -5.583805e+001  1.296227e+002 
3800000000  -5.328399e+001  8.094018e+001 
3803125000  -5.681436e+001  9.120015e+001 
3806250000  -5.993055e+001  9.335554e+001 
3809375000  -5.994354e+001  8.984393e+001 
3812500000  -5.712997e+001  6.866129e+001 
3815625000  -5.878609e+001  4.933450e+001 
3818750000  -6.173861e+001  5.823673e+001 
3821875000  -6.367870e+001  5.534141e+001 
3825000000  -5.727180e+001  4.380003e+001 
3828125000  -5.759179e+001  3.154240e+001 
3831250000  -6.169384e+001  1.642776e+001 
3834375000  -6.354226e+001  -7.964922e-001 
3837500000  -6.379392e+001  2.133947e+001 
3840625000  -5.866734e+001  -1.212310e+000 
3843750000  -6.168733e+001  4.142831e+000 
3846875000  -6.293705e+001  -2.378600e+001 
3850000000  -6.219817e+001  -1.170529e+001 
3853125000  -6.239520e+001  -3.712991e+001 
3856250000  -6.319488e+001  -1.244499e+001 
3859375000  -5.914729e+001  -2.882928e+001 
3862500000  -5.814883e+001  -3.578369e+001 
3865625000  -5.924636e+001  -4.289774e+001 
3868750000  -5.954848e+001  -4.364499e+001 
3871875000  -5.546476e+001  -5.850432e+001 
3875000000  -5.960803e+001  -6.575151e+001 
3878125000  -5.763761e+001  -8.567123e+001 
3881250000  -5.902274e+001  -8.243949e+001 
3884375000  -5.592408e+001  -9.605527e+001 
3887500000  -5.654005e+001  -1.094306e+002 
3890625000  -5.647135e+001  -1.159941e+002 
3893750000  -5.690937e+001  -1.280901e+002 
3896875000  -5.748171e+001  -1.213135e+002 
3900000000  -5.647935e+001  -1.510430e+002 
3903125000  -5.361472e+001  -1.494189e+002 
3906250000  -5.457305e+001  -1.622972e+002 
3909375000  -5.418800e+001  1.751519e+002 
3912500000  -5.434179e+001  1.641754e+002 
3915625000  -5.532600e+001  1.620299e+002 
3918750000  -5.470434e+001  1.596148e+002 
3921875000  -5.343999e+001  1.447989e+002 
3925000000  -5.298251e+001  1.350122e+002 
3928125000  -5.310412e+001  1.125718e+002 
3931250000  -5.362103e+001  1.019988e+002 
3934375000  -5.482621e+001  8.749063e+001 
3937500000  -5.491657e+001  8.792768e+001 
3940625000  -5.442822e+001  7.809301e+001 
3943750000  -5.398061e+001  6.429304e+001 
3946875000  -5.458443e+001  4.851797e+001 
3950000000  -5.546493e+001  3.555748e+001 
3953125000  -5.526586e+001  3.076061e+001 
3956250000  -5.405380e+001  3.091069e+001 
3959375000  -5.212386e+001  2.515267e+001 
3962500000  -5.273349e+001  -8.617244e+000 
3965625000  -5.347189e+001  -1.625943e+001 
3968750000  -5.412427e+001  -2.364398e+001 
3971875000  -5.400973e+001  -3.491611e+001 
3975000000  -5.314482e+001  -5.471194e+001 
3978125000  -5.376137e+001  -5.329355e+001 
3981250000  -5.437107e+001  -7.505627e+001 
3984375000  -5.697262e+001  -8.988003e+001 
3987500000  -5.513863e+001  -9.386077e+001 
3990625000  -5.724661e+001  -1.042215e+002 
3993750000  -5.598181e+001  -1.170110e+002 
3996875000  -5.888646e+001  -1.296590e+002 
4000000000  -5.970291e+001  -1.337701e+002 
4003125000  -6.160507e+001  -1.294491e+002 
4006250000  -5.670407e+001  -1.349941e+002 
4009375000  -5.822209e+001  -1.438342e+002 
4012500000  -5.978348e+001  -1.548517e+002 
4015625000  -6.209142e+001  -1.582754e+002 
4018750000  -6.289231e+001  -1.401170e+002 
4021875000  -5.752011e+001  -1.647610e+002 
4025000000  -5.999089e+001  -1.695049e+002 
4028125000  -6.028106e+001  1.756457e+002 
4031250000  -6.051747e+001  1.640440e+002 
4034375000  -6.115231e+001  1.722758e+002 
4037500000  -5.609341e+001  1.481370e+002 
4040625000  -6.021899e+001  1.617385e+002 
4043750000  -5.833066e+001  1.485242e+002 
4046875000  -5.774146e+001  1.355164e+002 
4050000000  -5.745626e+001  1.185699e+002 
4053125000  -5.753874e+001  1.191903e+002 
4056250000  -5.836023e+001  1.241329e+002 
4059375000  -5.799979e+001  1.061785e+002 
4062500000  -5.390157e+001  1.029797e+002 
4065625000  -5.635653e+001  8.218398e+001 
4068750000  -5.464273e+001  8.013073e+001 
4071875000  -5.275553e+001  6.833870e+001 
4075000000  -5.341025e+001  4.577682e+001 
4078125000  -5.365696e+001  4.368986e+001 
4081250000  -5.277003e+001  2.743655e+001 
4084375000  -5.313303e+001  1.356469e+001 
4087500000  -5.318458e+001  -4.133574e+000 
4090625000  -5.304271e+001  1.353656e+000 
4093750000  -5.303314e+001  -1.597878e+001 
4096875000  -5.227146e+001  -2.428368e+001 
4100000000  -5.347766e+001  -4.960340e+001 
4103125000  -5.599959e+001  -4.286134e+001 
4106250000  -5.482371e+001  -5.565907e+001 
4109375000  -5.317841e+001  -6.321276e+001 
4112500000  -5.314252e+001  -8.068906e+001 
4115625000  -5.478620e+001  -7.776615e+001 
4118750000  -5.342066e+001  -9.406771e+001 
4121875000  -5.336064e+001  -1.167791e+002 
4125000000  -5.321681e+001  -1.234168e+002 
4128125000  -5.470782e+001  -1.290137e+002 
4131250000  -5.330979e+001  -1.198245e+002 
4134375000  -5.125491e+001  -1.448934e+002 
4137500000  -5.264801e+001  -1.709688e+002 
4140625000  -5.274663e+001  -1.782415e+002 
4143750000  -5.528948e+001  -1.782865e+002 
4146875000  -5.465769e+001  1.715062e+002 
4150000000  -5.530526e+001  1.597197e+002 
4153125000  -5.366992e+001  1.464053e+002 
4156250000  -5.566338e+001  1.230702e+002 
4159375000  -5.419134e+001  1.318537e+002 
4162500000  -5.704936e+001  1.135798e+002 
4165625000  -5.417665e+001  1.063955e+002 
4168750000  -5.544733e+001  8.288367e+001 
4171875000  -5.482752e+001  8.810059e+001 
4175000000  -5.763778e+001  6.536243e+001 
4178125000  -5.762040e+001  7.231287e+001 
4181250000  -5.619235e+001  4.862907e+001 
4184375000  -5.745615e+001  3.595794e+001 
4187500000  -5.818036e+001  3.863012e+001 
4190625000  -6.137383e+001  3.355841e+001 
4193750000  -5.984622e+001  8.513303e+000 
4196875000  -6.277775e+001  -4.309295e+000 
4200000000  -6.504202e+001  3.774481e+000 
4203125000  -6.279802e+001  4.371756e+001 
4206250000  -6.071231e+001  3.078272e+001 
4209375000  -5.977230e+001  -7.311903e-001 
4212500000  -6.230412e+001  -2.525164e+001 
4215625000  -6.805981e+001  -9.948997e+000 
4218750000  -6.111617e+001  1.520647e+001 
4221875000  -5.770144e+001  -1.422212e+001 
4225000000  -6.215696e+001  -2.070174e+001 
4228125000  -5.937622e+001  -3.901999e+001 
4231250000  -5.944920e+001  -2.848911e+001 
4234375000  -5.435011e+001  -3.815480e+001 
4237500000  -5.945046e+001  -5.331805e+001 
4240625000  -5.706694e+001  -5.858879e+001 
4243750000  -5.814603e+001  -7.522439e+001 
4246875000  -5.743355e+001  -6.982252e+001 
4250000000  -5.869058e+001  -7.841599e+001 
4253125000  -5.655219e+001  -8.265821e+001 
4256250000  -5.640237e+001  -9.764670e+001 
4259375000  -5.548693e+001  -1.126393e+002 
4262500000  -5.601141e+001  -1.232041e+002 
4265625000  -5.566800e+001  -1.198702e+002 
4268750000  -5.226566e+001  -1.453877e+002 
4271875000  -5.214843e+001  -1.558562e+002 
4275000000  -5.100497e+001  -1.778093e+002 
4278125000  -5.327642e+001  1.707040e+002 
4281250000  -5.415158e+001  1.595780e+002 
4284375000  -5.483923e+001  1.590642e+002 
4287500000  -5.427015e+001  1.511612e+002 
4290625000  -5.531813e+001  1.437497e+002 
4293750000  -5.251532e+001  1.386501e+002 
4296875000  -5.177891e+001  1.176896e+002 
4300000000  -5.377981e+001  1.082316e+002 
4303125000  -5.235844e+001  1.026825e+002 
4306250000  -5.205460e+001  9.902111e+001 
4309375000  -5.125456e+001  8.504884e+001 
4312500000  -5.192102e+001  6.656126e+001 
4315625000  -5.148776e+001  5.317812e+001 
4318750000  -5.347739e+001  4.283363e+001 
4321875000  -5.219575e+001  3.665879e+001 
4325000000  -5.188703e+001  2.438292e+001 
4328125000  -5.140097e+001  1.387982e+001 
4331250000  -5.392701e+001  -1.098297e+001 
4334375000  -5.403707e+001  -1.105164e+001 
4337500000  -5.362607e+001  -2.673903e+001 
4340625000  -5.614122e+001  -2.209940e+001 
4343750000  -5.447948e+001  -3.369667e+001 
4346875000  -5.528177e+001  -3.779142e+001 
4350000000  -5.444262e+001  -6.115012e+001 
4353125000  -5.782681e+001  -5.344128e+001 
4356250000  -6.204304e+001  -6.798494e+001 
4359375000  -6.217480e+001  -4.794478e+001 
4362500000  -5.464632e+001  -7.284960e+001 
4365625000  -5.468678e+001  -9.956862e+001 
4368750000  -5.655975e+001  -1.008594e+002 
4371875000  -5.555806e+001  -1.125573e+002 
4375000000  -5.800880e+001  -9.882488e+001 
4378125000  -5.692078e+001  -1.312669e+002 
4381250000  -5.609125e+001  -1.178462e+002 
4384375000  -5.449107e+001  -1.358622e+002 
4387500000  -5.752244e+001  -1.381516e+002 
4390625000  -5.846553e+001  -1.491411e+002 
4393750000  -5.618415e+001  -1.459870e+002 
4396875000  -5.608019e+001  -1.597553e+002 
4400000000  -5.547969e+001  -1.695345e+002 
4403125000  -5.627959e+001  1.762626e+002 
4406250000  -5.810888e+001  1.686543e+002 
4409375000  -5.527032e+001  1.635303e+002 
4412500000  -5.908408e+001  1.603833e+002 
4415625000  -5.492389e+001  1.653605e+002 
