!Agilent Technologies,E8363B,MY43030201,A.06.04.32
!Agilent E8363B: A.06.04.32
!Date: Tuesday, November 11, 2014 22:15:34
!Correction: S21(Response(S21)) 
!S1P File: Measurement: S21:
# Hz S  dB   R 50
3000000000  -4.855146e+001  -7.447181e+001 
3003125000  -5.123330e+001  -8.172527e+001 
3006250000  -5.121319e+001  -8.678394e+001 
3009375000  -5.210893e+001  -8.203817e+001 
3012500000  -5.091480e+001  -9.842160e+001 
3015625000  -5.165509e+001  -1.106912e+002 
3018750000  -5.153466e+001  -1.133279e+002 
3021875000  -4.957523e+001  -1.168754e+002 
3025000000  -4.876257e+001  -1.266665e+002 
3028125000  -4.827872e+001  -1.434133e+002 
3031250000  -4.705639e+001  -1.594633e+002 
3034375000  -4.715654e+001  -1.799498e+002 
3037500000  -4.758611e+001  1.651727e+002 
3040625000  -4.905638e+001  1.538355e+002 
3043750000  -4.925080e+001  1.421085e+002 
3046875000  -5.055954e+001  1.292459e+002 
3050000000  -5.063342e+001  1.225487e+002 
3053125000  -5.088303e+001  1.257091e+002 
3056250000  -5.189455e+001  1.200282e+002 
3059375000  -5.091333e+001  1.127786e+002 
3062500000  -4.894416e+001  1.005299e+002 
3065625000  -4.935019e+001  8.768712e+001 
3068750000  -4.924108e+001  7.576005e+001 
3071875000  -4.871130e+001  6.767057e+001 
3075000000  -4.837635e+001  5.756533e+001 
3078125000  -4.828087e+001  4.682666e+001 
3081250000  -4.908170e+001  3.493140e+001 
3084375000  -4.791651e+001  2.851474e+001 
3087500000  -4.824291e+001  1.672963e+001 
3090625000  -4.800367e+001  -4.338718e+000 
3093750000  -4.888418e+001  -1.533800e+001 
3096875000  -4.952972e+001  -2.234669e+001 
3100000000  -4.925538e+001  -3.290899e+001 
3103125000  -4.994530e+001  -3.815360e+001 
3106250000  -4.946463e+001  -4.917265e+001 
3109375000  -4.964724e+001  -6.032365e+001 
3112500000  -4.913045e+001  -7.207278e+001 
3115625000  -4.924148e+001  -7.942422e+001 
3118750000  -5.039878e+001  -8.276843e+001 
3121875000  -4.886683e+001  -9.772803e+001 
3125000000  -5.133984e+001  -1.104349e+002 
3128125000  -5.054889e+001  -1.045720e+002 
3131250000  -4.803798e+001  -1.157273e+002 
3134375000  -4.807143e+001  -1.389879e+002 
3137500000  -4.854683e+001  -1.542626e+002 
3140625000  -5.004231e+001  -1.564404e+002 
3143750000  -5.092145e+001  -1.655636e+002 
3146875000  -4.991190e+001  -1.716909e+002 
3150000000  -4.927138e+001  1.790095e+002 
3153125000  -4.925904e+001  1.666540e+002 
3156250000  -5.023905e+001  1.653957e+002 
3159375000  -4.784300e+001  1.572812e+002 
3162500000  -4.632201e+001  1.364293e+002 
3165625000  -4.810854e+001  1.214768e+002 
3168750000  -4.796638e+001  1.143564e+002 
3171875000  -4.715653e+001  1.038143e+002 
3175000000  -4.778051e+001  8.962672e+001 
3178125000  -4.740060e+001  8.490192e+001 
3181250000  -4.660909e+001  6.854311e+001 
3184375000  -4.668937e+001  5.485435e+001 
3187500000  -4.799941e+001  3.800520e+001 
3190625000  -4.943247e+001  2.200271e+001 
3193750000  -5.020406e+001  2.601019e+001 
3196875000  -4.943187e+001  2.095326e+001 
3200000000  -4.813788e+001  1.311452e+001 
3203125000  -4.791038e+001  -2.544353e+000 
3206250000  -4.864296e+001  -1.541128e+001 
3209375000  -4.801204e+001  -2.929852e+001 
3212500000  -4.870104e+001  -3.962548e+001 
3215625000  -4.870724e+001  -4.408870e+001 
3218750000  -4.968230e+001  -6.405920e+001 
3221875000  -4.937870e+001  -7.407181e+001 
3225000000  -4.960492e+001  -8.441742e+001 
3228125000  -4.998035e+001  -9.335239e+001 
3231250000  -5.061623e+001  -1.032892e+002 
3234375000  -5.036133e+001  -1.066023e+002 
3237500000  -5.030711e+001  -1.177478e+002 
3240625000  -5.000773e+001  -1.252850e+002 
3243750000  -4.976896e+001  -1.397994e+002 
3246875000  -5.020453e+001  -1.561699e+002 
3250000000  -5.101080e+001  -1.628291e+002 
3253125000  -5.168390e+001  -1.702843e+002 
3256250000  -5.092950e+001  1.725309e+002 
3259375000  -5.101627e+001  1.579184e+002 
3262500000  -5.216491e+001  1.508143e+002 
3265625000  -5.299953e+001  1.464441e+002 
3268750000  -5.343140e+001  1.403952e+002 
3271875000  -5.257022e+001  1.336793e+002 
3275000000  -5.316886e+001  1.261737e+002 
3278125000  -5.329928e+001  1.090219e+002 
3281250000  -5.406554e+001  1.086738e+002 
3284375000  -5.257818e+001  9.534097e+001 
3287500000  -5.389742e+001  8.533131e+001 
3290625000  -5.343911e+001  7.865513e+001 
3293750000  -5.363397e+001  6.323672e+001 
3296875000  -5.437583e+001  5.422335e+001 
3300000000  -5.368036e+001  5.893017e+001 
3303125000  -5.302147e+001  4.200521e+001 
3306250000  -5.342958e+001  2.361330e+001 
3309375000  -5.305033e+001  2.269337e+001 
3312500000  -5.344049e+001  -1.786934e+000 
3315625000  -5.435165e+001  -4.600110e+000 
3318750000  -5.569847e+001  -2.571195e+001 
3321875000  -5.842429e+001  -2.861993e+001 
3325000000  -5.733310e+001  -2.192876e+001 
3328125000  -5.746477e+001  -1.488200e+001 
3331250000  -5.388485e+001  -2.591353e+001 
3334375000  -5.167429e+001  -4.514706e+001 
3337500000  -5.313279e+001  -6.739326e+001 
3340625000  -5.459068e+001  -8.433041e+001 
3343750000  -5.555836e+001  -8.204517e+001 
3346875000  -5.689199e+001  -9.379819e+001 
3350000000  -5.509883e+001  -9.432448e+001 
3353125000  -5.504111e+001  -1.107827e+002 
3356250000  -5.444251e+001  -1.276219e+002 
3359375000  -5.575644e+001  -1.408745e+002 
3362500000  -5.528685e+001  -1.461539e+002 
3365625000  -5.549008e+001  -1.531439e+002 
3368750000  -5.669519e+001  -1.682908e+002 
3371875000  -5.798087e+001  -1.705948e+002 
3375000000  -5.859220e+001  1.677928e+002 
3378125000  -6.105844e+001  1.685893e+002 
3381250000  -6.042157e+001  1.622430e+002 
3384375000  -5.697232e+001  1.784439e+002 
3387500000  -5.487334e+001  1.418603e+002 
3390625000  -5.603137e+001  1.428561e+002 
3393750000  -5.809077e+001  1.216190e+002 
3396875000  -5.725857e+001  1.132386e+002 
3400000000  -5.616684e+001  9.695802e+001 
3403125000  -5.818365e+001  8.677174e+001 
3406250000  -5.713444e+001  8.479338e+001 
3409375000  -5.716103e+001  5.992215e+001 
3412500000  -5.946605e+001  5.166510e+001 
3415625000  -5.912675e+001  4.199286e+001 
3418750000  -6.035741e+001  4.233283e+001 
3421875000  -6.002801e+001  3.179154e+001 
3425000000  -5.963437e+001  2.322172e+001 
3428125000  -5.834334e+001  -3.150526e-002 
3431250000  -5.986946e+001  1.776620e-001 
3434375000  -6.059842e+001  -2.104029e+001 
3437500000  -6.263694e+001  -3.275432e+001 
3440625000  -5.989242e+001  -2.375601e+001 
3443750000  -6.239310e+001  -3.196032e+001 
3446875000  -6.177264e+001  -4.656779e+001 
3450000000  -6.069371e+001  -6.953145e+001 
3453125000  -6.221093e+001  -5.830434e+001 
3456250000  -6.841014e+001  -1.078807e+002 
3459375000  -6.630759e+001  -5.853840e+001 
3462500000  -6.393661e+001  -9.585595e+001 
3465625000  -6.323683e+001  -9.390332e+001 
3468750000  -7.048245e+001  -1.258002e+002 
3471875000  -6.789582e+001  -1.017677e+002 
3475000000  -6.671172e+001  -1.048888e+002 
3478125000  -7.434532e+001  -8.238685e+001 
3481250000  -6.875806e+001  -1.487688e+002 
3484375000  -6.850569e+001  -1.027789e+002 
3487500000  -6.364846e+001  -1.112449e+002 
3490625000  -6.863398e+001  -1.204406e+002 
3493750000  -7.306445e+001  -1.663312e+002 
3496875000  -6.592976e+001  -1.481702e+002 
3500000000  -6.237715e+001  -1.625739e+002 
3503125000  -6.872240e+001  -1.663623e+002 
3506250000  -6.788972e+001  1.714509e+002 
3509375000  -6.974587e+001  -1.755233e+002 
3512500000  -6.493237e+001  1.542411e+002 
3515625000  -6.309909e+001  1.567837e+002 
3518750000  -6.382276e+001  1.510294e+002 
3521875000  -6.833971e+001  1.335056e+002 
3525000000  -6.460397e+001  1.300456e+002 
3528125000  -6.960673e+001  1.248298e+002 
3531250000  -7.116994e+001  1.560735e+002 
3534375000  -6.363692e+001  8.865096e+001 
3537500000  -6.597884e+001  9.729322e+001 
3540625000  -7.095702e+001  3.777016e+001 
3543750000  -6.777135e+001  1.045957e+002 
3546875000  -6.688441e+001  8.130011e+001 
3550000000  -6.783793e+001  8.389880e+001 
3553125000  -8.688355e+001  5.098772e+001 
3556250000  -7.331931e+001  5.508102e+001 
3559375000  -6.848489e+001  3.347446e+000 
3562500000  -6.924277e+001  1.899649e+001 
3565625000  -8.548075e+001  1.507726e+001 
3568750000  -8.406583e+001  1.009925e+002 
3571875000  -7.683508e+001  3.540233e+001 
3575000000  -7.217496e+001  3.050551e+000 
3578125000  -7.314191e+001  4.962494e+001 
3581250000  -6.997827e+001  5.168125e+001 
3584375000  -7.457021e+001  8.026759e+001 
3587500000  -7.224669e+001  4.074490e+001 
3590625000  -6.931742e+001  1.642521e+001 
3593750000  -7.493218e+001  -4.354367e+001 
3596875000  -6.452251e+001  5.177808e+001 
3600000000  -6.417030e+001  5.615450e+000 
3603125000  -6.866254e+001  3.626003e+000 
3606250000  -6.203558e+001  -3.247598e+001 
3609375000  -6.564704e+001  -3.395792e+001 
3612500000  -6.228281e+001  -5.268756e+001 
3615625000  -6.807436e+001  -9.015208e+000 
3618750000  -6.722806e+001  -6.219038e+001 
3621875000  -6.303368e+001  -7.602522e+001 
3625000000  -6.398452e+001  -6.843031e+001 
3628125000  -6.872735e+001  -1.146784e+002 
3631250000  -6.644380e+001  -1.048913e+002 
3634375000  -6.666142e+001  -1.145128e+002 
3637500000  -6.411571e+001  -1.277232e+002 
3640625000  -5.951064e+001  -1.371204e+002 
3643750000  -6.376690e+001  -1.516070e+002 
3646875000  -6.153788e+001  -1.712272e+002 
3650000000  -6.268939e+001  -1.584575e+002 
3653125000  -6.617735e+001  -1.669105e+002 
3656250000  -6.646480e+001  -1.598542e+002 
3659375000  -6.427661e+001  1.721826e+002 
3662500000  -6.151147e+001  1.227560e+002 
3665625000  -5.975441e+001  1.496637e+002 
3668750000  -5.949483e+001  1.219073e+002 
3671875000  -6.090551e+001  1.245572e+002 
3675000000  -6.225205e+001  1.071687e+002 
3678125000  -6.457883e+001  1.252152e+002 
3681250000  -6.387096e+001  9.503989e+001 
3684375000  -6.726883e+001  1.016178e+002 
3687500000  -6.318897e+001  6.668331e+001 
3690625000  -6.808790e+001  7.793424e+001 
3693750000  -6.701247e+001  9.266276e+001 
3696875000  -6.733485e+001  4.467902e+001 
3700000000  -6.345817e+001  6.237787e+001 
3703125000  -6.586437e+001  5.148980e+001 
3706250000  -6.972221e+001  4.379685e+001 
3709375000  -6.351687e+001  5.327998e+001 
3712500000  -6.420144e+001  7.812933e+001 
3715625000  -6.381429e+001  4.778374e+001 
3718750000  -6.197566e+001  3.997177e+001 
3721875000  -6.192080e+001  1.072725e+001 
3725000000  -6.373921e+001  2.209931e+001 
3728125000  -5.935758e+001  1.983309e+001 
3731250000  -5.934352e+001  -6.307269e+000 
3734375000  -5.996753e+001  -1.940172e+001 
3737500000  -5.986609e+001  -2.740824e+001 
3740625000  -5.834942e+001  -3.439232e+001 
3743750000  -5.734439e+001  -5.689216e+001 
3746875000  -6.000628e+001  -6.491402e+001 
3750000000  -5.897429e+001  -6.959244e+001 
3753125000  -5.826430e+001  -8.693275e+001 
3756250000  -5.797233e+001  -1.064138e+002 
3759375000  -5.821951e+001  -1.173906e+002 
3762500000  -5.691467e+001  -1.138733e+002 
3765625000  -5.786121e+001  -1.237067e+002 
3768750000  -5.658911e+001  -1.274909e+002 
3771875000  -5.761510e+001  -1.370070e+002 
3775000000  -5.860143e+001  -1.540618e+002 
3778125000  -5.696650e+001  1.746971e+002 
3781250000  -5.615231e+001  -1.774642e+002 
3784375000  -5.715384e+001  1.672819e+002 
3787500000  -5.821845e+001  1.633039e+002 
3790625000  -5.745191e+001  1.497585e+002 
3793750000  -5.863559e+001  1.354171e+002 
3796875000  -5.670808e+001  1.274967e+002 
3800000000  -5.341938e+001  7.714323e+001 
3803125000  -5.577011e+001  1.045942e+002 
3806250000  -6.044684e+001  8.346494e+001 
3809375000  -5.747421e+001  9.149784e+001 
3812500000  -5.833039e+001  7.244128e+001 
3815625000  -6.309069e+001  4.083453e+001 
3818750000  -6.081864e+001  4.244370e+001 
3821875000  -6.021324e+001  5.885493e+001 
3825000000  -5.693074e+001  6.024832e+001 
3828125000  -5.785424e+001  2.697262e+001 
3831250000  -5.878798e+001  2.226966e+000 
3834375000  -6.315233e+001  -2.277037e+001 
3837500000  -6.856417e+001  4.209637e+000 
3840625000  -5.975085e+001  2.022194e+000 
3843750000  -6.046258e+001  9.595860e+000 
3846875000  -6.335517e+001  -1.730842e+001 
3850000000  -6.517628e+001  2.147492e+001 
3853125000  -6.114778e+001  -1.737909e+001 
3856250000  -6.141909e+001  2.473873e+000 
3859375000  -6.276315e+001  -4.302698e+001 
3862500000  -6.136625e+001  -3.682161e+001 
3865625000  -5.880073e+001  -4.264009e+001 
3868750000  -5.920687e+001  -4.604535e+001 
3871875000  -5.804463e+001  -5.720155e+001 
3875000000  -5.977022e+001  -7.319659e+001 
3878125000  -5.818627e+001  -8.560827e+001 
3881250000  -5.721692e+001  -8.231023e+001 
3884375000  -5.594135e+001  -9.568453e+001 
3887500000  -5.644688e+001  -1.182048e+002 
3890625000  -5.569015e+001  -1.053187e+002 
3893750000  -5.670658e+001  -1.406225e+002 
3896875000  -5.684570e+001  -1.339678e+002 
3900000000  -5.665561e+001  -1.498655e+002 
3903125000  -5.510248e+001  -1.530536e+002 
3906250000  -5.540727e+001  -1.645583e+002 
3909375000  -5.330675e+001  -1.730036e+002 
3912500000  -5.525223e+001  1.663025e+002 
3915625000  -5.587848e+001  1.586126e+002 
3918750000  -5.458395e+001  1.541432e+002 
3921875000  -5.278617e+001  1.491388e+002 
3925000000  -5.383112e+001  1.254422e+002 
3928125000  -5.347050e+001  1.118252e+002 
3931250000  -5.317076e+001  1.009095e+002 
3934375000  -5.521769e+001  8.205066e+001 
3937500000  -5.535203e+001  8.074688e+001 
3940625000  -5.411372e+001  8.339796e+001 
3943750000  -5.454906e+001  6.722501e+001 
3946875000  -5.311355e+001  4.948198e+001 
3950000000  -5.433154e+001  3.237127e+001 
3953125000  -5.397796e+001  2.955475e+001 
3956250000  -5.395224e+001  1.467856e+001 
3959375000  -5.231229e+001  1.756452e+001 
3962500000  -5.245306e+001  -2.409529e+000 
3965625000  -5.344917e+001  -9.401296e+000 
3968750000  -5.420839e+001  -3.107060e+001 
3971875000  -5.434694e+001  -4.022026e+001 
3975000000  -5.327126e+001  -5.620857e+001 
3978125000  -5.535501e+001  -6.671185e+001 
3981250000  -5.479189e+001  -7.366925e+001 
3984375000  -5.566721e+001  -8.505800e+001 
3987500000  -5.607143e+001  -8.295062e+001 
3990625000  -5.764976e+001  -8.712151e+001 
3993750000  -5.651358e+001  -1.183284e+002 
3996875000  -5.648737e+001  -1.155220e+002 
4000000000  -5.868206e+001  -1.286210e+002 
4003125000  -5.970698e+001  -1.360339e+002 
4006250000  -5.613395e+001  -1.359616e+002 
4009375000  -5.684828e+001  -1.532210e+002 
4012500000  -5.959940e+001  -1.623209e+002 
4015625000  -6.265454e+001  -1.594800e+002 
4018750000  -5.995360e+001  -1.619613e+002 
4021875000  -5.993519e+001  -1.733722e+002 
4025000000  -6.001603e+001  1.668728e+002 
4028125000  -5.994388e+001  1.768984e+002 
4031250000  -5.930467e+001  1.794733e+002 
4034375000  -5.873647e+001  1.649667e+002 
4037500000  -5.758270e+001  1.544264e+002 
4040625000  -6.054958e+001  1.522102e+002 
4043750000  -5.738887e+001  1.583058e+002 
4046875000  -5.856497e+001  1.340484e+002 
4050000000  -5.735914e+001  1.368802e+002 
4053125000  -5.980728e+001  1.117072e+002 
4056250000  -5.791623e+001  1.158640e+002 
4059375000  -5.655963e+001  1.184651e+002 
4062500000  -5.603469e+001  1.010754e+002 
4065625000  -5.409639e+001  8.735812e+001 
4068750000  -5.396244e+001  7.542240e+001 
4071875000  -5.285175e+001  6.314007e+001 
4075000000  -5.329956e+001  4.967886e+001 
4078125000  -5.282545e+001  4.354458e+001 
4081250000  -5.355812e+001  2.682750e+001 
4084375000  -5.251202e+001  9.992790e+000 
4087500000  -5.387951e+001  -3.900473e+000 
4090625000  -5.306794e+001  -5.721046e+000 
4093750000  -5.316548e+001  -1.841625e+001 
4096875000  -5.432048e+001  -3.209411e+001 
4100000000  -5.401398e+001  -5.230580e+001 
4103125000  -5.420327e+001  -5.271723e+001 
4106250000  -5.410802e+001  -4.939635e+001 
4109375000  -5.366432e+001  -6.397272e+001 
4112500000  -5.216788e+001  -7.845827e+001 
4115625000  -5.308797e+001  -8.725065e+001 
4118750000  -5.292698e+001  -9.512418e+001 
4121875000  -5.234988e+001  -1.138333e+002 
4125000000  -5.287675e+001  -1.273902e+002 
4128125000  -5.527232e+001  -1.350736e+002 
4131250000  -5.332440e+001  -1.320689e+002 
4134375000  -5.257615e+001  -1.576019e+002 
4137500000  -5.252669e+001  -1.679388e+002 
4140625000  -5.354772e+001  1.659143e+002 
4143750000  -5.540137e+001  1.666635e+002 
4146875000  -5.559778e+001  1.726723e+002 
4150000000  -5.513108e+001  1.541939e+002 
4153125000  -5.403091e+001  1.482643e+002 
4156250000  -5.580861e+001  1.255746e+002 
4159375000  -5.461674e+001  1.377350e+002 
4162500000  -5.574409e+001  1.228436e+002 
4165625000  -5.534315e+001  1.194843e+002 
4168750000  -5.603396e+001  8.718068e+001 
4171875000  -5.677730e+001  8.086153e+001 
4175000000  -5.617158e+001  6.275820e+001 
4178125000  -5.746648e+001  7.865923e+001 
4181250000  -5.640123e+001  3.728392e+001 
4184375000  -5.789912e+001  4.036107e+001 
4187500000  -5.746165e+001  4.193992e+001 
4190625000  -6.265815e+001  1.382246e+001 
4193750000  -6.250791e+001  7.960677e-001 
4196875000  -6.473943e+001  9.982876e+000 
4200000000  -6.526955e+001  1.684075e+001 
4203125000  -6.405961e+001  2.316230e+001 
4206250000  -6.317410e+001  1.520365e+001 
4209375000  -6.007787e+001  4.682501e+001 
4212500000  -6.451045e+001  7.676380e+000 
4215625000  -6.147432e+001  -6.961876e+000 
4218750000  -6.327934e+001  1.061503e+001 
4221875000  -6.348482e+001  -1.943281e+001 
4225000000  -6.100206e+001  -4.689055e+000 
4228125000  -5.716850e+001  -2.140087e+001 
4231250000  -5.777394e+001  -1.674766e+001 
4234375000  -5.668519e+001  -4.554980e+001 
4237500000  -5.768329e+001  -3.913919e+001 
4240625000  -5.610307e+001  -6.943896e+001 
4243750000  -5.727372e+001  -7.371495e+001 
4246875000  -5.702650e+001  -6.759903e+001 
4250000000  -5.835859e+001  -8.156869e+001 
4253125000  -5.670372e+001  -8.950277e+001 
4256250000  -5.481455e+001  -1.089033e+002 
4259375000  -5.618354e+001  -9.860958e+001 
4262500000  -5.551337e+001  -1.330158e+002 
4265625000  -5.417973e+001  -1.265223e+002 
4268750000  -5.193246e+001  -1.430287e+002 
4271875000  -5.286910e+001  -1.574904e+002 
4275000000  -5.208915e+001  -1.724689e+002 
4278125000  -5.402614e+001  1.701631e+002 
4281250000  -5.469589e+001  1.693908e+002 
4284375000  -5.377437e+001  1.604436e+002 
4287500000  -5.457425e+001  1.489658e+002 
4290625000  -5.558773e+001  1.546446e+002 
4293750000  -5.174572e+001  1.412502e+002 
4296875000  -5.140327e+001  1.216805e+002 
4300000000  -5.228264e+001  1.064008e+002 
4303125000  -5.311539e+001  9.945523e+001 
4306250000  -5.180055e+001  8.980253e+001 
4309375000  -5.176628e+001  7.681732e+001 
4312500000  -5.241775e+001  7.015419e+001 
4315625000  -5.172797e+001  5.148121e+001 
4318750000  -5.381067e+001  4.275270e+001 
4321875000  -5.241809e+001  3.641395e+001 
4325000000  -5.222972e+001  3.234201e+001 
4328125000  -5.212867e+001  9.901148e+000 
4331250000  -5.239661e+001  -3.427873e+000 
4334375000  -5.402637e+001  -1.849225e+001 
4337500000  -5.483718e+001  -2.881987e+001 
4340625000  -5.436743e+001  -2.528377e+001 
4343750000  -5.501117e+001  -3.334174e+001 
4346875000  -5.472408e+001  -4.333060e+001 
4350000000  -5.660249e+001  -6.082861e+001 
4353125000  -5.523122e+001  -7.875955e+001 
4356250000  -5.717319e+001  -6.129945e+001 
4359375000  -6.006878e+001  -6.797924e+001 
4362500000  -5.434841e+001  -8.289064e+001 
4365625000  -5.385300e+001  -8.487988e+001 
4368750000  -5.540666e+001  -9.464585e+001 
4371875000  -5.542600e+001  -1.113292e+002 
4375000000  -5.834885e+001  -1.104371e+002 
4378125000  -5.696352e+001  -1.207767e+002 
4381250000  -5.937328e+001  -1.346890e+002 
4384375000  -5.639510e+001  -1.388372e+002 
4387500000  -5.603893e+001  -1.430009e+002 
4390625000  -5.704066e+001  -1.575048e+002 
4393750000  -5.641485e+001  -1.361489e+002 
4396875000  -5.525234e+001  -1.517955e+002 
4400000000  -5.649987e+001  -1.559887e+002 
4403125000  -5.548742e+001  -1.767311e+002 
4406250000  -5.665676e+001  1.682973e+002 
4409375000  -5.744161e+001  1.754492e+002 
4412500000  -5.736916e+001  1.583782e+002 
4415625000  -5.546055e+001  1.678914e+002 
4418750000  -5.366266e+001  1.594650e+002 
