!Agilent Technologies,E8363B,MY43030201,A.06.04.32
!Agilent E8363B: A.06.04.32
!Date: Tuesday, November 11, 2014 22:12:01
!Correction: S21(Response(S21)) 
!S1P File: Measurement: S21:
# Hz S  dB   R 50
3000000000  -4.878242e+001  -7.456885e+001 
3003125000  -5.245197e+001  -8.017391e+001 
3006250000  -5.187801e+001  -8.971132e+001 
3009375000  -5.231023e+001  -8.684803e+001 
3012500000  -5.141204e+001  -9.705573e+001 
3015625000  -5.138766e+001  -1.060899e+002 
3018750000  -5.153427e+001  -1.134239e+002 
3021875000  -5.015736e+001  -1.123568e+002 
3025000000  -4.867306e+001  -1.257498e+002 
3028125000  -4.821328e+001  -1.457860e+002 
3031250000  -4.693883e+001  -1.621480e+002 
3034375000  -4.704799e+001  -1.798989e+002 
3037500000  -4.827172e+001  1.642704e+002 
3040625000  -4.905986e+001  1.531419e+002 
3043750000  -4.939925e+001  1.401513e+002 
3046875000  -5.057523e+001  1.257561e+002 
3050000000  -5.163638e+001  1.212400e+002 
3053125000  -5.143756e+001  1.219240e+002 
3056250000  -5.126157e+001  1.190145e+002 
3059375000  -5.008530e+001  1.074417e+002 
3062500000  -4.954019e+001  9.983320e+001 
3065625000  -4.895079e+001  8.521581e+001 
3068750000  -4.870343e+001  7.458195e+001 
3071875000  -4.906943e+001  6.864335e+001 
3075000000  -4.863334e+001  5.543763e+001 
3078125000  -4.886238e+001  4.364809e+001 
3081250000  -4.861032e+001  3.453376e+001 
3084375000  -4.825504e+001  2.654702e+001 
3087500000  -4.833760e+001  1.354066e+001 
3090625000  -4.820087e+001  -6.551554e+000 
3093750000  -4.896756e+001  -1.489647e+001 
3096875000  -4.958747e+001  -2.598507e+001 
3100000000  -5.001182e+001  -3.617128e+001 
3103125000  -4.940651e+001  -4.313504e+001 
3106250000  -4.952339e+001  -4.885067e+001 
3109375000  -4.975177e+001  -6.207664e+001 
3112500000  -4.935596e+001  -7.117561e+001 
3115625000  -4.935997e+001  -8.026397e+001 
3118750000  -5.031512e+001  -8.311018e+001 
3121875000  -4.904291e+001  -1.006957e+002 
3125000000  -5.094456e+001  -1.074974e+002 
3128125000  -5.038849e+001  -1.096594e+002 
3131250000  -4.793161e+001  -1.199077e+002 
3134375000  -4.837645e+001  -1.387940e+002 
3137500000  -4.840059e+001  -1.552189e+002 
3140625000  -4.905447e+001  -1.632082e+002 
3143750000  -5.038111e+001  -1.703036e+002 
3146875000  -4.970224e+001  -1.702115e+002 
3150000000  -4.886857e+001  1.777170e+002 
3153125000  -4.921754e+001  1.648838e+002 
3156250000  -4.993187e+001  1.614833e+002 
3159375000  -4.760102e+001  1.599771e+002 
3162500000  -4.608446e+001  1.345032e+002 
3165625000  -4.755832e+001  1.188962e+002 
3168750000  -4.777694e+001  1.137205e+002 
3171875000  -4.744332e+001  1.016123e+002 
3175000000  -4.753486e+001  8.977790e+001 
3178125000  -4.709010e+001  8.283091e+001 
3181250000  -4.676676e+001  6.783064e+001 
3184375000  -4.676671e+001  5.208900e+001 
3187500000  -4.726696e+001  3.588470e+001 
3190625000  -4.897210e+001  2.106080e+001 
3193750000  -4.966392e+001  2.038326e+001 
3196875000  -4.915894e+001  1.685944e+001 
3200000000  -4.810956e+001  1.056229e+001 
3203125000  -4.839991e+001  -5.878396e+000 
3206250000  -4.859264e+001  -1.344346e+001 
3209375000  -4.814741e+001  -3.130483e+001 
3212500000  -4.872487e+001  -4.406527e+001 
3215625000  -4.801810e+001  -4.892955e+001 
3218750000  -4.949937e+001  -6.015287e+001 
3221875000  -4.923235e+001  -7.925543e+001 
3225000000  -4.944260e+001  -8.394871e+001 
3228125000  -5.038564e+001  -9.392844e+001 
3231250000  -5.033621e+001  -1.035225e+002 
3234375000  -5.037289e+001  -1.102993e+002 
3237500000  -5.020010e+001  -1.182711e+002 
3240625000  -4.995581e+001  -1.312515e+002 
3243750000  -4.949249e+001  -1.464587e+002 
3246875000  -4.974604e+001  -1.576812e+002 
3250000000  -5.079631e+001  -1.665100e+002 
3253125000  -5.146611e+001  -1.724707e+002 
3256250000  -5.016404e+001  1.747076e+002 
3259375000  -5.051509e+001  1.563861e+002 
3262500000  -5.273829e+001  1.485846e+002 
3265625000  -5.279771e+001  1.459529e+002 
3268750000  -5.209007e+001  1.451664e+002 
3271875000  -5.277349e+001  1.346519e+002 
3275000000  -5.175478e+001  1.269915e+002 
3278125000  -5.328471e+001  1.066043e+002 
3281250000  -5.330919e+001  1.047178e+002 
3284375000  -5.267819e+001  8.912404e+001 
3287500000  -5.361956e+001  8.331812e+001 
3290625000  -5.259872e+001  7.067725e+001 
3293750000  -5.321173e+001  6.164745e+001 
3296875000  -5.445018e+001  5.079277e+001 
3300000000  -5.432411e+001  5.023005e+001 
3303125000  -5.257667e+001  3.924137e+001 
3306250000  -5.331287e+001  2.749480e+001 
3309375000  -5.348756e+001  1.276400e+001 
3312500000  -5.368929e+001  -1.136463e+000 
3315625000  -5.472193e+001  -1.070087e+001 
3318750000  -5.580759e+001  -2.462288e+001 
3321875000  -5.720428e+001  -1.548799e+001 
3325000000  -5.684254e+001  -1.756215e+001 
3328125000  -5.533475e+001  -2.452758e+001 
3331250000  -5.480712e+001  -2.375419e+001 
3334375000  -5.240235e+001  -4.975918e+001 
3337500000  -5.202330e+001  -6.786834e+001 
3340625000  -5.374915e+001  -8.796707e+001 
3343750000  -5.612677e+001  -9.020930e+001 
3346875000  -5.691625e+001  -9.791578e+001 
3350000000  -5.451657e+001  -1.026949e+002 
3353125000  -5.485722e+001  -1.149425e+002 
3356250000  -5.489889e+001  -1.296284e+002 
3359375000  -5.543216e+001  -1.447119e+002 
3362500000  -5.710696e+001  -1.497146e+002 
3365625000  -5.673169e+001  -1.635528e+002 
3368750000  -5.754756e+001  -1.745486e+002 
3371875000  -5.682724e+001  -1.749510e+002 
3375000000  -5.813382e+001  1.647528e+002 
3378125000  -5.808076e+001  1.665468e+002 
3381250000  -6.126516e+001  1.782328e+002 
3384375000  -5.632658e+001  1.731364e+002 
3387500000  -5.471768e+001  1.493998e+002 
3390625000  -5.705077e+001  1.309921e+002 
3393750000  -5.742074e+001  1.180182e+002 
3396875000  -5.695340e+001  1.109479e+002 
3400000000  -5.463857e+001  9.815509e+001 
3403125000  -5.692726e+001  9.403437e+001 
3406250000  -5.732609e+001  7.658466e+001 
3409375000  -5.796939e+001  5.518060e+001 
3412500000  -5.793983e+001  5.787816e+001 
3415625000  -6.051828e+001  3.757442e+001 
3418750000  -6.114690e+001  3.334669e+001 
3421875000  -6.083992e+001  2.864660e+001 
3425000000  -5.961511e+001  3.084217e+001 
3428125000  -6.002547e+001  7.810941e+000 
3431250000  -6.112084e+001  -7.533993e+000 
3434375000  -6.068800e+001  -1.071019e+001 
3437500000  -6.137732e+001  -2.672940e+001 
3440625000  -6.117397e+001  -2.199321e+001 
3443750000  -6.158294e+001  -2.283972e+001 
3446875000  -6.088078e+001  -5.551433e+001 
3450000000  -6.190450e+001  -6.827018e+001 
3453125000  -6.119250e+001  -7.690586e+001 
3456250000  -6.631818e+001  -7.605469e+001 
3459375000  -6.422063e+001  -9.219032e+001 
3462500000  -6.366132e+001  -9.600175e+001 
3465625000  -6.315629e+001  -9.805110e+001 
3468750000  -6.570883e+001  -1.345184e+002 
3471875000  -6.492133e+001  -8.946059e+001 
3475000000  -6.362614e+001  -1.270044e+002 
3478125000  -6.995229e+001  -1.343675e+002 
3481250000  -6.853511e+001  -1.651302e+002 
3484375000  -6.754716e+001  -1.234072e+002 
3487500000  -6.677456e+001  -1.279458e+002 
3490625000  -6.422189e+001  -1.131929e+002 
3493750000  -6.915576e+001  -1.309112e+002 
3496875000  -6.782108e+001  -1.425489e+002 
3500000000  -6.450629e+001  -1.774503e+002 
3503125000  -6.851640e+001  1.626197e+002 
3506250000  -6.368387e+001  1.658054e+002 
3509375000  -6.625859e+001  1.604764e+002 
3512500000  -6.659132e+001  1.609864e+002 
3515625000  -6.333034e+001  1.503794e+002 
3518750000  -6.655902e+001  1.579630e+002 
3521875000  -6.962982e+001  1.274540e+002 
3525000000  -7.134852e+001  1.369525e+002 
3528125000  -6.949959e+001  9.705533e+001 
3531250000  -6.320945e+001  1.257603e+002 
3534375000  -6.419209e+001  7.009699e+001 
3537500000  -6.733107e+001  7.765730e+001 
3540625000  -6.842589e+001  2.182405e+001 
3543750000  -8.435391e+001  1.138062e+002 
3546875000  -6.736758e+001  5.089007e+001 
3550000000  -7.190048e+001  4.046561e+001 
3553125000  -7.408648e+001  7.691000e+001 
3556250000  -6.642516e+001  7.266151e+001 
3559375000  -7.244664e+001  2.851247e+001 
3562500000  -8.175159e+001  6.220416e+000 
3565625000  -7.212007e+001  -4.682014e+000 
3568750000  -8.078381e+001  1.350461e+002 
3571875000  -7.086328e+001  4.506547e+001 
3575000000  -7.654291e+001  3.071767e+001 
3578125000  -6.805711e+001  6.374719e+000 
3581250000  -7.850731e+001  -5.966930e-002 
3584375000  -7.107082e+001  -6.834766e+001 
3587500000  -8.085407e+001  -4.842021e+001 
3590625000  -6.701414e+001  2.780569e+001 
3593750000  -6.394701e+001  6.730774e+000 
3596875000  -6.731329e+001  -1.172310e+001 
3600000000  -6.488003e+001  -2.204283e+001 
3603125000  -6.512702e+001  -1.660095e+000 
3606250000  -6.264073e+001  -4.381234e+001 
3609375000  -6.676273e+001  -4.143905e+001 
3612500000  -6.657737e+001  -6.969494e+001 
3615625000  -6.990923e+001  -5.066951e+001 
3618750000  -6.503538e+001  -7.735682e+001 
3621875000  -6.569878e+001  -7.804794e+001 
3625000000  -6.155272e+001  -7.077416e+001 
3628125000  -6.414874e+001  -1.081099e+002 
3631250000  -6.315278e+001  -1.031733e+002 
3634375000  -6.497723e+001  -1.313775e+002 
3637500000  -6.575127e+001  -1.352752e+002 
3640625000  -6.210099e+001  -1.524417e+002 
3643750000  -6.282245e+001  -1.446781e+002 
3646875000  -6.543211e+001  -1.703750e+002 
3650000000  -6.527991e+001  -1.669800e+002 
3653125000  -6.205118e+001  -1.668201e+002 
3656250000  -6.678257e+001  1.734072e+002 
3659375000  -6.207652e+001  1.533358e+002 
3662500000  -6.368622e+001  1.370990e+002 
3665625000  -6.587454e+001  1.485694e+002 
3668750000  -6.258564e+001  1.173418e+002 
3671875000  -6.385069e+001  1.008314e+002 
3675000000  -6.146517e+001  9.571460e+001 
3678125000  -6.365567e+001  1.284496e+002 
3681250000  -6.132600e+001  8.743891e+001 
3684375000  -6.699245e+001  7.953106e+001 
3687500000  -6.639532e+001  5.846868e+001 
3690625000  -6.901440e+001  9.618592e+001 
3693750000  -6.664870e+001  7.751905e+001 
3696875000  -6.998957e+001  7.761569e+001 
3700000000  -6.331873e+001  8.178645e+001 
3703125000  -6.554785e+001  4.585956e+001 
3706250000  -6.534151e+001  6.085503e+001 
3709375000  -6.965572e+001  6.419584e+001 
3712500000  -6.269156e+001  4.463014e+001 
3715625000  -6.071791e+001  5.211836e+001 
3718750000  -6.370963e+001  3.377220e+001 
3721875000  -6.166325e+001  1.521698e+001 
3725000000  -6.590991e+001  1.806117e+001 
3728125000  -5.980354e+001  1.524373e+000 
3731250000  -6.014248e+001  -1.513154e+001 
3734375000  -5.769547e+001  -2.224477e+001 
3737500000  -5.904216e+001  -4.018860e+001 
3740625000  -5.934308e+001  -4.169247e+001 
3743750000  -5.892556e+001  -5.017266e+001 
3746875000  -5.851526e+001  -7.377969e+001 
3750000000  -5.870132e+001  -7.578046e+001 
3753125000  -5.806332e+001  -8.206995e+001 
3756250000  -5.762214e+001  -9.764016e+001 
3759375000  -5.788983e+001  -1.193291e+002 
3762500000  -5.718576e+001  -1.220830e+002 
3765625000  -6.092315e+001  -1.267368e+002 
3768750000  -5.807026e+001  -1.342303e+002 
3771875000  -5.606066e+001  -1.424608e+002 
3775000000  -5.624290e+001  -1.605831e+002 
3778125000  -5.827641e+001  1.766932e+002 
3781250000  -5.706562e+001  1.721756e+002 
3784375000  -5.700201e+001  1.626993e+002 
3787500000  -5.751334e+001  1.604532e+002 
3790625000  -5.750922e+001  1.445780e+002 
3793750000  -5.837715e+001  1.245969e+002 
3796875000  -5.865611e+001  1.237361e+002 
3800000000  -5.335553e+001  7.992831e+001 
3803125000  -5.810709e+001  9.708208e+001 
3806250000  -5.946601e+001  7.329179e+001 
3809375000  -5.927963e+001  8.506823e+001 
3812500000  -5.736316e+001  5.260639e+001 
3815625000  -6.141237e+001  3.334727e+001 
3818750000  -6.029228e+001  5.171870e+001 
3821875000  -6.026036e+001  5.770762e+001 
3825000000  -5.845246e+001  3.549937e+001 
3828125000  -5.975600e+001  3.065387e+001 
3831250000  -6.180090e+001  9.506254e+000 
3834375000  -6.030157e+001  6.838677e+000 
3837500000  -6.210495e+001  3.403685e+001 
3840625000  -6.104413e+001  -7.438912e+000 
3843750000  -6.062358e+001  -9.215365e+000 
3846875000  -6.049557e+001  -3.071244e+001 
3850000000  -6.571049e+001  -5.775063e-001 
3853125000  -6.099561e+001  -3.468032e+001 
3856250000  -6.115454e+001  1.449268e+001 
3859375000  -6.107881e+001  -1.683357e+001 
3862500000  -6.102110e+001  -2.387610e+001 
3865625000  -6.132764e+001  -4.623903e+001 
3868750000  -6.211441e+001  -4.455364e+001 
3871875000  -5.624253e+001  -6.068592e+001 
3875000000  -5.838408e+001  -8.059106e+001 
3878125000  -5.857698e+001  -8.423344e+001 
3881250000  -5.768495e+001  -7.575262e+001 
3884375000  -5.575893e+001  -8.923042e+001 
3887500000  -5.678929e+001  -1.191684e+002 
3890625000  -5.618312e+001  -1.139061e+002 
3893750000  -5.752109e+001  -1.135368e+002 
3896875000  -5.748158e+001  -1.391589e+002 
3900000000  -5.669067e+001  -1.561912e+002 
3903125000  -5.425515e+001  -1.524367e+002 
3906250000  -5.364087e+001  -1.691271e+002 
3909375000  -5.384798e+001  -1.784712e+002 
3912500000  -5.419207e+001  1.676855e+002 
3915625000  -5.593084e+001  1.503320e+002 
3918750000  -5.457190e+001  1.561009e+002 
3921875000  -5.422231e+001  1.408832e+002 
3925000000  -5.426306e+001  1.287283e+002 
3928125000  -5.272234e+001  1.078779e+002 
3931250000  -5.443208e+001  1.002054e+002 
3934375000  -5.441119e+001  8.478566e+001 
3937500000  -5.785339e+001  8.858743e+001 
3940625000  -5.464898e+001  6.940902e+001 
3943750000  -5.448208e+001  5.962564e+001 
3946875000  -5.256201e+001  4.666907e+001 
3950000000  -5.560999e+001  4.347406e+001 
3953125000  -5.438896e+001  3.322372e+001 
3956250000  -5.523124e+001  2.138700e+001 
3959375000  -5.226674e+001  1.781099e+001 
3962500000  -5.214391e+001  -1.112455e+001 
3965625000  -5.218817e+001  -1.449039e+001 
3968750000  -5.417622e+001  -2.564624e+001 
3971875000  -5.447849e+001  -4.504553e+001 
3975000000  -5.339513e+001  -5.149785e+001 
3978125000  -5.519737e+001  -6.142546e+001 
3981250000  -5.501373e+001  -7.284784e+001 
3984375000  -5.407444e+001  -8.238234e+001 
3987500000  -5.469866e+001  -9.246117e+001 
3990625000  -5.657106e+001  -1.023972e+002 
3993750000  -5.599711e+001  -1.180753e+002 
3996875000  -5.900627e+001  -1.235776e+002 
4000000000  -6.094607e+001  -1.382290e+002 
4003125000  -5.746512e+001  -1.195552e+002 
4006250000  -5.829811e+001  -1.376189e+002 
4009375000  -5.766235e+001  -1.686096e+002 
4012500000  -6.159174e+001  -1.782676e+002 
4015625000  -5.994087e+001  -1.615582e+002 
4018750000  -6.085233e+001  -1.649684e+002 
4021875000  -5.820206e+001  -1.678676e+002 
4025000000  -5.931467e+001  -1.688705e+002 
4028125000  -5.893751e+001  1.684680e+002 
4031250000  -5.958653e+001  1.678760e+002 
4034375000  -6.006210e+001  1.763324e+002 
4037500000  -5.761379e+001  1.424327e+002 
4040625000  -5.866924e+001  1.415616e+002 
4043750000  -5.993869e+001  1.434981e+002 
4046875000  -5.935337e+001  1.463744e+002 
4050000000  -5.707753e+001  1.273577e+002 
4053125000  -5.854874e+001  1.282211e+002 
4056250000  -5.730082e+001  1.292570e+002 
4059375000  -5.509037e+001  1.151354e+002 
4062500000  -5.561398e+001  9.898964e+001 
4065625000  -5.379290e+001  8.086214e+001 
4068750000  -5.410418e+001  7.322926e+001 
4071875000  -5.325170e+001  6.022269e+001 
4075000000  -5.357897e+001  4.597400e+001 
4078125000  -5.307155e+001  4.028580e+001 
4081250000  -5.460311e+001  2.449179e+001 
4084375000  -5.267953e+001  1.067633e+001 
4087500000  -5.403703e+001  -5.868369e+000 
4090625000  -5.372561e+001  -1.135310e+001 
4093750000  -5.316188e+001  -2.287436e+001 
4096875000  -5.303392e+001  -3.332917e+001 
4100000000  -5.379126e+001  -4.782114e+001 
4103125000  -5.519294e+001  -4.921666e+001 
4106250000  -5.363818e+001  -5.167641e+001 
4109375000  -5.406268e+001  -5.719515e+001 
4112500000  -5.268086e+001  -8.549316e+001 
4115625000  -5.413384e+001  -9.751528e+001 
4118750000  -5.314964e+001  -9.676033e+001 
4121875000  -5.309800e+001  -1.198271e+002 
4125000000  -5.365791e+001  -1.251581e+002 
4128125000  -5.406248e+001  -1.406366e+002 
4131250000  -5.276050e+001  -1.310331e+002 
4134375000  -5.088510e+001  -1.486581e+002 
4137500000  -5.134676e+001  -1.755508e+002 
4140625000  -5.450740e+001  1.617928e+002 
4143750000  -5.532052e+001  1.739562e+002 
4146875000  -5.372898e+001  1.779985e+002 
4150000000  -5.426460e+001  1.537583e+002 
4153125000  -5.461320e+001  1.444213e+002 
4156250000  -5.687486e+001  1.299337e+002 
4159375000  -5.486519e+001  1.270549e+002 
4162500000  -5.541798e+001  1.166180e+002 
4165625000  -5.385487e+001  1.157813e+002 
4168750000  -5.586160e+001  8.745202e+001 
4171875000  -5.407964e+001  8.069008e+001 
4175000000  -5.808359e+001  5.536068e+001 
4178125000  -5.769165e+001  6.223124e+001 
4181250000  -5.721128e+001  5.470385e+001 
4184375000  -5.874577e+001  3.491341e+001 
4187500000  -5.782830e+001  2.590024e+001 
4190625000  -6.110263e+001  9.085054e+000 
4193750000  -6.297750e+001  -7.459530e+000 
4196875000  -6.159783e+001  1.183524e+001 
4200000000  -6.512363e+001  2.190278e+001 
4203125000  -6.581913e+001  2.266984e+001 
4206250000  -6.100087e+001  9.677899e+000 
4209375000  -5.987883e+001  -1.771879e+001 
4212500000  -6.575586e+001  1.167089e+001 
4215625000  -6.271849e+001  -1.030493e+001 
4218750000  -6.863265e+001  2.311213e+001 
4221875000  -6.147785e+001  -8.729592e+000 
4225000000  -5.860055e+001  7.225577e+000 
4228125000  -5.769680e+001  -3.245288e+001 
4231250000  -5.947834e+001  -6.900688e+000 
4234375000  -5.862619e+001  -3.616144e+001 
4237500000  -5.574747e+001  -5.605797e+001 
4240625000  -5.515645e+001  -6.195723e+001 
4243750000  -5.796457e+001  -8.285910e+001 
4246875000  -5.756497e+001  -8.492796e+001 
4250000000  -6.051381e+001  -8.091767e+001 
4253125000  -5.543977e+001  -8.411241e+001 
4256250000  -5.563579e+001  -1.044763e+002 
4259375000  -5.628091e+001  -1.019642e+002 
4262500000  -5.434079e+001  -1.252557e+002 
4265625000  -5.420329e+001  -1.232310e+002 
4268750000  -5.362487e+001  -1.475548e+002 
4271875000  -5.197296e+001  -1.587602e+002 
4275000000  -5.156379e+001  -1.713956e+002 
4278125000  -5.440202e+001  1.627134e+002 
4281250000  -5.376018e+001  1.624966e+002 
4284375000  -5.257244e+001  1.498204e+002 
4287500000  -5.432108e+001  1.513336e+002 
4290625000  -5.565930e+001  1.433418e+002 
4293750000  -5.307727e+001  1.406860e+002 
4296875000  -5.170500e+001  1.231666e+002 
4300000000  -5.257943e+001  1.060783e+002 
4303125000  -5.264099e+001  9.390886e+001 
4306250000  -5.198847e+001  9.616811e+001 
4309375000  -5.149038e+001  7.807361e+001 
4312500000  -5.318572e+001  6.866493e+001 
4315625000  -5.281276e+001  5.316858e+001 
4318750000  -5.383771e+001  4.065782e+001 
4321875000  -5.197646e+001  3.265501e+001 
4325000000  -5.400743e+001  2.629187e+001 
4328125000  -5.204195e+001  1.367217e+001 
4331250000  -5.416128e+001  -1.030624e+001 
4334375000  -5.429455e+001  -2.041619e+001 
4337500000  -5.535931e+001  -4.179936e+001 
4340625000  -5.550973e+001  -2.213445e+001 
4343750000  -5.664109e+001  -2.781370e+001 
4346875000  -5.570987e+001  -3.267851e+001 
4350000000  -5.401127e+001  -6.308191e+001 
4353125000  -5.452419e+001  -7.341730e+001 
4356250000  -6.062971e+001  -8.474433e+001 
4359375000  -5.898375e+001  -5.815129e+001 
4362500000  -5.311345e+001  -7.208202e+001 
4365625000  -5.390551e+001  -1.000712e+002 
4368750000  -5.641367e+001  -9.847967e+001 
4371875000  -5.739145e+001  -1.207798e+002 
4375000000  -5.717414e+001  -1.216008e+002 
4378125000  -5.558468e+001  -1.341392e+002 
4381250000  -5.509396e+001  -1.278372e+002 
4384375000  -5.729380e+001  -1.518673e+002 
4387500000  -5.851011e+001  -1.483832e+002 
4390625000  -5.718576e+001  -1.639382e+002 
4393750000  -5.672751e+001  -1.444076e+002 
4396875000  -5.454512e+001  -1.629246e+002 
4400000000  -5.700788e+001  -1.771399e+002 
4403125000  -5.561011e+001  1.797267e+002 
4406250000  -5.787481e+001  1.642841e+002 
4409375000  -5.658493e+001  1.732596e+002 
4412500000  -5.814682e+001  1.558549e+002 
4415625000  -5.521214e+001  1.612669e+002 
4418750000  -5.520224e+001  1.542563e+002 
