!Agilent Technologies,E8363B,MY43030201,A.06.04.32
!Agilent E8363B: A.06.04.32
!Date: Tuesday, November 11, 2014 22:09:47
!Correction: S21(Response(S21)) 
!S1P File: Measurement: S21:
# Hz S  dB   R 50
3000000000  -4.891077e+001  -7.544743e+001 
3003125000  -5.131086e+001  -8.517432e+001 
3006250000  -5.239858e+001  -8.950581e+001 
3009375000  -5.189641e+001  -9.053812e+001 
3012500000  -5.144396e+001  -1.007369e+002 
3015625000  -5.141145e+001  -1.077983e+002 
3018750000  -5.244794e+001  -1.122315e+002 
3021875000  -4.984615e+001  -1.213099e+002 
3025000000  -4.862525e+001  -1.300577e+002 
3028125000  -4.821394e+001  -1.471095e+002 
3031250000  -4.685440e+001  -1.633237e+002 
3034375000  -4.727668e+001  1.776823e+002 
3037500000  -4.781618e+001  1.636067e+002 
3040625000  -4.934383e+001  1.504649e+002 
3043750000  -4.984081e+001  1.405308e+002 
3046875000  -5.053341e+001  1.316750e+002 
3050000000  -5.159232e+001  1.188409e+002 
3053125000  -5.145039e+001  1.179804e+002 
3056250000  -5.152548e+001  1.208476e+002 
3059375000  -5.069708e+001  1.064449e+002 
3062500000  -4.903823e+001  9.946095e+001 
3065625000  -4.880780e+001  8.541197e+001 
3068750000  -4.886913e+001  7.409599e+001 
3071875000  -4.867234e+001  6.378191e+001 
3075000000  -4.854013e+001  5.515532e+001 
3078125000  -4.836975e+001  4.499384e+001 
3081250000  -4.867960e+001  3.101814e+001 
3084375000  -4.803952e+001  2.383052e+001 
3087500000  -4.837346e+001  1.181999e+001 
3090625000  -4.806459e+001  -8.345006e+000 
3093750000  -4.916105e+001  -1.954160e+001 
3096875000  -4.950743e+001  -2.467562e+001 
3100000000  -4.966639e+001  -3.375247e+001 
3103125000  -4.943468e+001  -3.953836e+001 
3106250000  -4.956038e+001  -5.244320e+001 
3109375000  -4.986146e+001  -6.161097e+001 
3112500000  -4.924621e+001  -7.124214e+001 
3115625000  -4.910489e+001  -7.959686e+001 
3118750000  -4.965080e+001  -8.485931e+001 
3121875000  -4.871073e+001  -1.006962e+002 
3125000000  -5.026379e+001  -1.106915e+002 
3128125000  -5.042325e+001  -1.093057e+002 
3131250000  -4.805411e+001  -1.171671e+002 
3134375000  -4.780560e+001  -1.412233e+002 
3137500000  -4.853666e+001  -1.570010e+002 
3140625000  -4.963017e+001  -1.627033e+002 
3143750000  -5.064428e+001  -1.703840e+002 
3146875000  -5.017651e+001  -1.749254e+002 
3150000000  -4.844968e+001  1.784119e+002 
3153125000  -4.934959e+001  1.657965e+002 
3156250000  -5.003029e+001  1.630543e+002 
3159375000  -4.797947e+001  1.569596e+002 
3162500000  -4.634705e+001  1.341451e+002 
3165625000  -4.801310e+001  1.167306e+002 
3168750000  -4.764734e+001  1.138911e+002 
3171875000  -4.699810e+001  1.049771e+002 
3175000000  -4.779858e+001  8.601143e+001 
3178125000  -4.719595e+001  8.165352e+001 
3181250000  -4.668698e+001  6.897652e+001 
3184375000  -4.662037e+001  5.294255e+001 
3187500000  -4.720203e+001  3.608210e+001 
3190625000  -4.932351e+001  1.925518e+001 
3193750000  -4.986447e+001  2.108095e+001 
3196875000  -4.993320e+001  1.584289e+001 
3200000000  -4.825166e+001  8.109289e+000 
3203125000  -4.857809e+001  -7.267179e+000 
3206250000  -4.857664e+001  -1.825211e+001 
3209375000  -4.780598e+001  -3.078229e+001 
3212500000  -4.962128e+001  -4.463951e+001 
3215625000  -4.865457e+001  -4.988059e+001 
3218750000  -4.929813e+001  -7.305766e+001 
3221875000  -4.935019e+001  -7.852267e+001 
3225000000  -4.980225e+001  -8.715203e+001 
3228125000  -4.970047e+001  -9.713010e+001 
3231250000  -5.019354e+001  -1.081601e+002 
3234375000  -5.017941e+001  -1.147151e+002 
3237500000  -5.069418e+001  -1.200812e+002 
3240625000  -5.023499e+001  -1.322488e+002 
3243750000  -5.020094e+001  -1.444468e+002 
3246875000  -5.025607e+001  -1.609645e+002 
3250000000  -5.105016e+001  -1.654198e+002 
3253125000  -5.100135e+001  -1.738872e+002 
3256250000  -5.032172e+001  1.719233e+002 
3259375000  -5.063655e+001  1.573775e+002 
3262500000  -5.327426e+001  1.514579e+002 
3265625000  -5.318306e+001  1.458829e+002 
3268750000  -5.285013e+001  1.402043e+002 
3271875000  -5.242598e+001  1.316321e+002 
3275000000  -5.196915e+001  1.197452e+002 
3278125000  -5.246039e+001  1.055933e+002 
3281250000  -5.374106e+001  1.030234e+002 
3284375000  -5.228841e+001  9.397262e+001 
3287500000  -5.325320e+001  8.161146e+001 
3290625000  -5.328019e+001  6.948515e+001 
3293750000  -5.307952e+001  5.976248e+001 
3296875000  -5.443942e+001  5.246714e+001 
3300000000  -5.391534e+001  4.538250e+001 
3303125000  -5.245189e+001  3.519269e+001 
3306250000  -5.421369e+001  2.097814e+001 
3309375000  -5.287159e+001  1.750477e+001 
3312500000  -5.295115e+001  -8.095495e+000 
3315625000  -5.454194e+001  -7.623817e+000 
3318750000  -5.528119e+001  -2.073116e+001 
3321875000  -5.753203e+001  -2.772097e+001 
3325000000  -5.761415e+001  -1.791713e+001 
3328125000  -5.750666e+001  -2.461892e+001 
3331250000  -5.402242e+001  -2.161625e+001 
3334375000  -5.308297e+001  -4.976777e+001 
3337500000  -5.173145e+001  -7.174035e+001 
3340625000  -5.444976e+001  -8.605305e+001 
3343750000  -5.538134e+001  -8.151327e+001 
3346875000  -5.531866e+001  -1.021575e+002 
3350000000  -5.619487e+001  -9.982854e+001 
3353125000  -5.370405e+001  -1.182599e+002 
3356250000  -5.431506e+001  -1.288769e+002 
3359375000  -5.490290e+001  -1.521820e+002 
3362500000  -5.593121e+001  -1.501037e+002 
3365625000  -5.519797e+001  -1.571044e+002 
3368750000  -5.580639e+001  -1.701060e+002 
3371875000  -5.616822e+001  1.795838e+002 
3375000000  -5.870135e+001  1.689346e+002 
3378125000  -5.821973e+001  1.761944e+002 
3381250000  -5.977704e+001  1.611208e+002 
3384375000  -5.683926e+001  1.785309e+002 
3387500000  -5.367479e+001  1.554094e+002 
3390625000  -5.740348e+001  1.351967e+002 
3393750000  -5.580140e+001  1.202285e+002 
3396875000  -5.686288e+001  1.082389e+002 
3400000000  -5.400504e+001  9.050716e+001 
3403125000  -5.885306e+001  7.837920e+001 
3406250000  -5.696370e+001  7.287405e+001 
3409375000  -5.658989e+001  4.976945e+001 
3412500000  -5.807741e+001  5.899596e+001 
3415625000  -6.036644e+001  5.437098e+001 
3418750000  -6.003942e+001  2.976309e+001 
3421875000  -5.974445e+001  2.831260e+001 
3425000000  -5.941331e+001  2.552110e+001 
3428125000  -5.918899e+001  -1.196079e+000 
3431250000  -5.910916e+001  -7.415971e-001 
3434375000  -6.076388e+001  -1.811466e+001 
3437500000  -6.311702e+001  -2.082409e+001 
3440625000  -6.258104e+001  -3.535073e+001 
3443750000  -6.046071e+001  -4.418788e+001 
3446875000  -5.861073e+001  -5.361411e+001 
3450000000  -6.314022e+001  -5.679427e+001 
3453125000  -6.335648e+001  -7.502728e+001 
3456250000  -6.847616e+001  -9.754585e+001 
3459375000  -6.513960e+001  -9.028135e+001 
3462500000  -6.215399e+001  -8.807135e+001 
3465625000  -6.677431e+001  -1.015130e+002 
3468750000  -6.786081e+001  -1.136521e+002 
3471875000  -7.015541e+001  -1.187664e+002 
3475000000  -6.232531e+001  -1.207636e+002 
3478125000  -7.053100e+001  -1.574122e+002 
3481250000  -7.751672e+001  -1.173705e+002 
3484375000  -6.559638e+001  -1.247139e+002 
3487500000  -6.537171e+001  -1.414170e+002 
3490625000  -6.582161e+001  -1.557980e+002 
3493750000  -6.833392e+001  -1.450170e+002 
3496875000  -6.875024e+001  -1.470679e+002 
3500000000  -6.327267e+001  -1.591053e+002 
3503125000  -6.367056e+001  -1.762653e+002 
3506250000  -6.568404e+001  -1.360092e+002 
3509375000  -6.694159e+001  1.670645e+002 
3512500000  -6.240832e+001  1.290335e+002 
3515625000  -6.697116e+001  1.257509e+002 
3518750000  -6.818767e+001  1.226415e+002 
3521875000  -6.986397e+001  1.361633e+002 
3525000000  -6.788914e+001  8.732218e+001 
3528125000  -6.655054e+001  9.397784e+001 
3531250000  -6.839726e+001  1.068787e+002 
3534375000  -6.853579e+001  5.016669e+001 
3537500000  -6.655302e+001  7.452592e+001 
3540625000  -6.914579e+001  3.145269e+001 
3543750000  -7.056698e+001  7.332754e+001 
3546875000  -6.594984e+001  2.498824e+001 
3550000000  -6.816263e+001  6.852465e+001 
3553125000  -7.141433e+001  5.044145e+001 
3556250000  -7.808805e+001  3.292173e+001 
3559375000  -6.841850e+001  6.549345e+001 
3562500000  -7.085283e+001  -2.002481e+001 
3565625000  -7.082351e+001  2.199939e+001 
3568750000  -7.588853e+001  -8.651175e+000 
3571875000  -6.916823e+001  2.188523e+001 
3575000000  -7.070185e+001  2.135185e+001 
3578125000  -7.273910e+001  4.840714e+001 
3581250000  -7.795547e+001  1.680532e+001 
3584375000  -6.711365e+001  5.020979e+001 
3587500000  -7.317912e+001  3.117739e+001 
3590625000  -7.099473e+001  1.201197e+001 
3593750000  -6.915773e+001  1.774259e+001 
3596875000  -6.624904e+001  4.629825e+001 
3600000000  -6.342559e+001  -3.293833e+001 
3603125000  -7.036858e+001  1.082080e+001 
3606250000  -6.062479e+001  -3.615958e+001 
3609375000  -6.615998e+001  -5.520682e+001 
3612500000  -6.747783e+001  -6.100918e+001 
3615625000  -6.441927e+001  -6.082994e+001 
3618750000  -6.475005e+001  -7.355644e+001 
3621875000  -6.403997e+001  -7.230656e+001 
3625000000  -6.345155e+001  -8.590838e+001 
3628125000  -6.320327e+001  -1.178761e+002 
3631250000  -6.314758e+001  -1.235563e+002 
3634375000  -6.654778e+001  -1.417554e+002 
3637500000  -6.254285e+001  -1.089712e+002 
3640625000  -6.264146e+001  -1.242256e+002 
3643750000  -6.110582e+001  -1.546017e+002 
3646875000  -6.193168e+001  -1.609604e+002 
3650000000  -6.442876e+001  -1.739559e+002 
3653125000  -6.180359e+001  1.696803e+002 
3656250000  -6.509490e+001  1.679335e+002 
3659375000  -6.288082e+001  1.721557e+002 
3662500000  -6.280511e+001  1.385324e+002 
3665625000  -6.384383e+001  1.539097e+002 
3668750000  -6.310160e+001  1.245520e+002 
3671875000  -6.512275e+001  9.738638e+001 
3675000000  -6.415630e+001  9.121945e+001 
3678125000  -6.528313e+001  1.014046e+002 
3681250000  -6.188134e+001  8.955785e+001 
3684375000  -6.533805e+001  9.418377e+001 
3687500000  -6.607724e+001  7.052391e+001 
3690625000  -7.157958e+001  5.904211e+001 
3693750000  -6.506895e+001  9.203106e+001 
3696875000  -7.092299e+001  9.450658e+001 
3700000000  -6.763412e+001  3.285251e+001 
3703125000  -7.049014e+001  4.441738e+001 
3706250000  -6.553089e+001  5.185685e+001 
3709375000  -6.432818e+001  5.262021e+001 
3712500000  -6.192275e+001  5.620782e+001 
3715625000  -6.284853e+001  4.140477e+001 
3718750000  -6.203772e+001  3.698163e+001 
3721875000  -6.139962e+001  1.552203e+001 
3725000000  -6.345174e+001  1.595228e+001 
3728125000  -5.881730e+001  7.024779e+000 
3731250000  -5.837080e+001  -6.412416e+000 
3734375000  -5.882736e+001  -1.126703e+001 
3737500000  -5.953901e+001  -3.700365e+001 
3740625000  -5.783809e+001  -3.849717e+001 
3743750000  -6.113548e+001  -4.651260e+001 
3746875000  -5.921403e+001  -6.583979e+001 
3750000000  -5.958621e+001  -7.991326e+001 
3753125000  -5.763860e+001  -8.073909e+001 
3756250000  -5.758678e+001  -1.020120e+002 
3759375000  -5.787783e+001  -1.117590e+002 
3762500000  -5.822753e+001  -1.225111e+002 
3765625000  -5.903368e+001  -1.317526e+002 
3768750000  -5.679917e+001  -1.365512e+002 
3771875000  -5.613277e+001  -1.450434e+002 
3775000000  -5.666190e+001  -1.548539e+002 
3778125000  -5.733334e+001  1.665730e+002 
3781250000  -5.655102e+001  1.678292e+002 
3784375000  -5.747570e+001  1.600990e+002 
3787500000  -5.702219e+001  1.482850e+002 
3790625000  -5.761700e+001  1.294504e+002 
3793750000  -5.698523e+001  1.277455e+002 
3796875000  -5.544062e+001  1.339444e+002 
3800000000  -5.239435e+001  7.904812e+001 
3803125000  -5.632558e+001  8.650552e+001 
3806250000  -5.712840e+001  8.122241e+001 
3809375000  -5.795898e+001  7.198554e+001 
3812500000  -5.810490e+001  6.185713e+001 
3815625000  -6.146778e+001  4.699163e+001 
3818750000  -6.014864e+001  4.272839e+001 
3821875000  -6.025450e+001  5.721242e+001 
3825000000  -5.826465e+001  3.471294e+001 
3828125000  -5.916853e+001  3.976345e+001 
3831250000  -6.035484e+001  -1.523051e+000 
3834375000  -6.390176e+001  -1.351468e+001 
3837500000  -6.414367e+001  1.325713e+001 
3840625000  -6.052191e+001  1.479731e+000 
3843750000  -6.019641e+001  -1.592366e+001 
3846875000  -6.173564e+001  -4.149514e+000 
3850000000  -6.695932e+001  -2.323485e+001 
3853125000  -5.915661e+001  -1.414477e+001 
3856250000  -6.107754e+001  -1.306123e+001 
3859375000  -6.036880e+001  -3.714735e+001 
3862500000  -5.962062e+001  -4.048660e+001 
3865625000  -5.847402e+001  -5.339529e+001 
3868750000  -6.050296e+001  -5.272372e+001 
3871875000  -5.572125e+001  -6.328234e+001 
3875000000  -6.031613e+001  -6.555177e+001 
3878125000  -5.800145e+001  -9.198856e+001 
3881250000  -5.584373e+001  -9.338669e+001 
3884375000  -5.592033e+001  -1.022151e+002 
3887500000  -5.534428e+001  -1.130055e+002 
3890625000  -5.741598e+001  -1.282215e+002 
3893750000  -5.668635e+001  -1.335390e+002 
3896875000  -5.598260e+001  -1.432734e+002 
3900000000  -5.700492e+001  -1.538271e+002 
3903125000  -5.499128e+001  -1.494308e+002 
3906250000  -5.387626e+001  -1.714595e+002 
3909375000  -5.477363e+001  1.735733e+002 
3912500000  -5.454637e+001  1.603811e+002 
3915625000  -5.569316e+001  1.536763e+002 
3918750000  -5.351274e+001  1.456112e+002 
3921875000  -5.583539e+001  1.404430e+002 
3925000000  -5.216828e+001  1.226468e+002 
3928125000  -5.289888e+001  1.017049e+002 
3931250000  -5.357215e+001  9.832404e+001 
3934375000  -5.536251e+001  9.341515e+001 
3937500000  -5.624660e+001  7.854064e+001 
3940625000  -5.513086e+001  7.708736e+001 
3943750000  -5.260124e+001  6.474704e+001 
3946875000  -5.393079e+001  4.505846e+001 
3950000000  -5.378570e+001  4.115487e+001 
3953125000  -5.455836e+001  1.790451e+001 
3956250000  -5.360481e+001  2.440620e+001 
3959375000  -5.228426e+001  1.599053e+001 
3962500000  -5.238515e+001  -5.435580e+000 
3965625000  -5.347074e+001  -1.985110e+001 
3968750000  -5.441352e+001  -4.332984e+001 
3971875000  -5.391088e+001  -4.419994e+001 
3975000000  -5.392153e+001  -5.634494e+001 
3978125000  -5.498732e+001  -6.357121e+001 
3981250000  -5.497184e+001  -8.042892e+001 
3984375000  -5.685557e+001  -8.436091e+001 
3987500000  -5.479027e+001  -9.579359e+001 
3990625000  -5.622967e+001  -9.577714e+001 
3993750000  -5.710192e+001  -1.257841e+002 
3996875000  -5.871892e+001  -1.224511e+002 
4000000000  -5.727850e+001  -1.365508e+002 
4003125000  -5.860976e+001  -1.301227e+002 
4006250000  -5.528591e+001  -1.541891e+002 
4009375000  -5.869196e+001  -1.571431e+002 
4012500000  -5.991330e+001  -1.700311e+002 
4015625000  -5.986832e+001  -1.696154e+002 
4018750000  -6.015934e+001  1.773922e+002 
4021875000  -5.761353e+001  -1.789818e+002 
4025000000  -5.901310e+001  1.710644e+002 
4028125000  -5.825028e+001  1.688761e+002 
4031250000  -6.077845e+001  1.764154e+002 
4034375000  -5.949687e+001  1.665507e+002 
4037500000  -5.730590e+001  1.489404e+002 
4040625000  -6.094123e+001  1.387040e+002 
4043750000  -5.945264e+001  1.447517e+002 
4046875000  -5.859560e+001  1.403343e+002 
4050000000  -5.705624e+001  1.277098e+002 
4053125000  -5.665542e+001  1.123591e+002 
4056250000  -5.880137e+001  9.877902e+001 
4059375000  -5.621588e+001  1.089740e+002 
4062500000  -5.496811e+001  9.913233e+001 
4065625000  -5.297427e+001  7.940540e+001 
4068750000  -5.474761e+001  7.183801e+001 
4071875000  -5.205578e+001  5.512316e+001 
4075000000  -5.190190e+001  4.090831e+001 
4078125000  -5.356797e+001  4.087130e+001 
4081250000  -5.328062e+001  2.711173e+001 
4084375000  -5.313612e+001  7.021554e+000 
4087500000  -5.376822e+001  -6.532224e+000 
4090625000  -5.381878e+001  -7.140275e-002 
4093750000  -5.308848e+001  -2.676909e+001 
4096875000  -5.240120e+001  -3.682526e+001 
4100000000  -5.247506e+001  -5.198741e+001 
4103125000  -5.510710e+001  -4.790648e+001 
4106250000  -5.308268e+001  -5.927448e+001 
4109375000  -5.316423e+001  -5.897940e+001 
4112500000  -5.279988e+001  -8.259142e+001 
4115625000  -5.371692e+001  -9.290444e+001 
4118750000  -5.178116e+001  -9.931016e+001 
4121875000  -5.337131e+001  -1.163350e+002 
4125000000  -5.439740e+001  -1.301737e+002 
4128125000  -5.403730e+001  -1.405939e+002 
4131250000  -5.361082e+001  -1.391460e+002 
4134375000  -5.088681e+001  -1.553137e+002 
4137500000  -5.260878e+001  -1.734532e+002 
4140625000  -5.407291e+001  1.662885e+002 
4143750000  -5.739318e+001  1.614674e+002 
4146875000  -5.472607e+001  1.707024e+002 
4150000000  -5.375176e+001  1.523901e+002 
4153125000  -5.392350e+001  1.340320e+002 
4156250000  -5.526339e+001  1.185024e+002 
4159375000  -5.530789e+001  1.324223e+002 
4162500000  -5.630297e+001  1.068376e+002 
4165625000  -5.340588e+001  1.107791e+002 
4168750000  -5.321840e+001  8.277745e+001 
4171875000  -5.512159e+001  7.732944e+001 
4175000000  -5.639795e+001  5.747877e+001 
4178125000  -5.667412e+001  5.647012e+001 
4181250000  -5.677078e+001  4.744333e+001 
4184375000  -6.132899e+001  2.861096e+001 
4187500000  -5.693597e+001  1.468542e+001 
4190625000  -5.899430e+001  6.199152e+000 
4193750000  -6.090895e+001  6.526729e+000 
4196875000  -6.218833e+001  1.288700e+001 
4200000000  -6.370379e+001  -2.411440e+001 
4203125000  -6.445988e+001  -1.474821e+001 
4206250000  -6.009361e+001  2.496243e+001 
4209375000  -6.018958e+001  -1.199656e+001 
4212500000  -6.046983e+001  -6.289220e-001 
4215625000  -6.897684e+001  -1.332421e+001 
4218750000  -6.382003e+001  1.633501e+001 
4221875000  -6.386773e+001  -3.777436e+001 
4225000000  -5.869549e+001  -1.533905e+001 
4228125000  -5.578018e+001  -3.866946e+001 
4231250000  -6.238182e+001  -3.674965e+001 
4234375000  -5.765536e+001  -4.619930e+001 
4237500000  -5.825435e+001  -4.617347e+001 
4240625000  -5.600273e+001  -6.564008e+001 
4243750000  -5.671040e+001  -7.628642e+001 
4246875000  -5.697496e+001  -6.825166e+001 
4250000000  -5.692515e+001  -9.502137e+001 
4253125000  -5.575991e+001  -8.179633e+001 
4256250000  -5.487057e+001  -1.064819e+002 
4259375000  -5.558698e+001  -1.022463e+002 
4262500000  -5.659834e+001  -1.231324e+002 
4265625000  -5.255314e+001  -1.260199e+002 
4268750000  -5.278680e+001  -1.423912e+002 
4271875000  -5.204110e+001  -1.550860e+002 
4275000000  -5.094713e+001  -1.750401e+002 
4278125000  -5.449659e+001  1.668930e+002 
4281250000  -5.415947e+001  1.566694e+002 
4284375000  -5.455321e+001  1.516709e+002 
4287500000  -5.330538e+001  1.471412e+002 
4290625000  -5.487823e+001  1.431913e+002 
4293750000  -5.184829e+001  1.359440e+002 
4296875000  -5.278092e+001  1.108531e+002 
4300000000  -5.278978e+001  9.842440e+001 
4303125000  -5.214656e+001  9.427501e+001 
4306250000  -5.183146e+001  9.729957e+001 
4309375000  -5.161449e+001  7.464392e+001 
4312500000  -5.270565e+001  6.572571e+001 
4315625000  -5.152442e+001  5.312742e+001 
4318750000  -5.303944e+001  3.791459e+001 
4321875000  -5.179085e+001  2.461532e+001 
4325000000  -5.309258e+001  1.906410e+001 
4328125000  -5.221029e+001  6.627508e+000 
4331250000  -5.354980e+001  -1.793660e+001 
4334375000  -5.434046e+001  -2.388261e+001 
4337500000  -5.547950e+001  -3.559016e+001 
4340625000  -5.584949e+001  -1.623451e+001 
4343750000  -5.658673e+001  -4.139544e+001 
4346875000  -5.336728e+001  -5.341878e+001 
4350000000  -5.656083e+001  -6.446694e+001 
4353125000  -5.760817e+001  -6.859991e+001 
4356250000  -5.623964e+001  -7.531007e+001 
4359375000  -6.392134e+001  -6.541193e+001 
4362500000  -5.703064e+001  -7.389076e+001 
4365625000  -5.546080e+001  -8.789863e+001 
4368750000  -5.543695e+001  -1.048649e+002 
4371875000  -5.625532e+001  -1.089875e+002 
4375000000  -5.735202e+001  -1.259412e+002 
4378125000  -5.538005e+001  -1.144436e+002 
4381250000  -5.779877e+001  -1.454905e+002 
4384375000  -5.744629e+001  -1.497584e+002 
4387500000  -5.755620e+001  -1.463816e+002 
4390625000  -5.884854e+001  -1.608421e+002 
4393750000  -5.937642e+001  -1.654841e+002 
4396875000  -5.451202e+001  -1.612505e+002 
4400000000  -5.518834e+001  -1.682152e+002 
4403125000  -5.590311e+001  1.746915e+002 
4406250000  -5.837702e+001  1.769858e+002 
4409375000  -5.639284e+001  1.654697e+002 
4412500000  -5.621429e+001  1.661230e+002 
4415625000  -5.549807e+001  1.640447e+002 
4418750000  -5.412921e+001  1.457954e+002 
