!Agilent Technologies,E8363B,MY43030201,A.06.04.32
!Agilent E8363B: A.06.04.32
!Date: Tuesday, November 11, 2014 22:14:33
!Correction: S21(Response(S21)) 
!S1P File: Measurement: S21:
# Hz S  dB   R 50
3000000000  -4.902929e+001  -7.236904e+001 
3003125000  -5.157095e+001  -8.371470e+001 
3006250000  -5.152659e+001  -8.548814e+001 
3009375000  -5.192599e+001  -8.932191e+001 
3012500000  -5.099585e+001  -9.773959e+001 
3015625000  -5.115328e+001  -1.099111e+002 
3018750000  -5.138815e+001  -1.149544e+002 
3021875000  -4.964737e+001  -1.168949e+002 
3025000000  -4.857586e+001  -1.297059e+002 
3028125000  -4.796859e+001  -1.446094e+002 
3031250000  -4.696075e+001  -1.629456e+002 
3034375000  -4.684419e+001  -1.796374e+002 
3037500000  -4.816125e+001  1.662684e+002 
3040625000  -4.909222e+001  1.531626e+002 
3043750000  -4.978338e+001  1.434143e+002 
3046875000  -5.059096e+001  1.313437e+002 
3050000000  -5.115617e+001  1.222471e+002 
3053125000  -5.122153e+001  1.211038e+002 
3056250000  -5.161220e+001  1.154022e+002 
3059375000  -5.038353e+001  1.102229e+002 
3062500000  -4.899718e+001  1.045027e+002 
3065625000  -4.915093e+001  9.075827e+001 
3068750000  -4.906995e+001  7.293323e+001 
3071875000  -4.890709e+001  6.807791e+001 
3075000000  -4.876377e+001  5.409629e+001 
3078125000  -4.842823e+001  4.582959e+001 
3081250000  -4.876693e+001  3.291740e+001 
3084375000  -4.817309e+001  2.609687e+001 
3087500000  -4.825219e+001  1.319942e+001 
3090625000  -4.784443e+001  -2.813484e+000 
3093750000  -4.876059e+001  -1.493395e+001 
3096875000  -4.942463e+001  -2.033335e+001 
3100000000  -4.931748e+001  -3.389541e+001 
3103125000  -4.925093e+001  -3.964987e+001 
3106250000  -4.896577e+001  -4.817450e+001 
3109375000  -4.948759e+001  -5.928804e+001 
3112500000  -4.940307e+001  -6.988030e+001 
3115625000  -5.008492e+001  -8.064690e+001 
3118750000  -4.964278e+001  -8.820894e+001 
3121875000  -4.901640e+001  -9.758057e+001 
3125000000  -5.100159e+001  -1.066118e+002 
3128125000  -5.071988e+001  -1.067028e+002 
3131250000  -4.802402e+001  -1.177210e+002 
3134375000  -4.807053e+001  -1.367467e+002 
3137500000  -4.883094e+001  -1.579990e+002 
3140625000  -4.922482e+001  -1.602013e+002 
3143750000  -5.081577e+001  -1.698270e+002 
3146875000  -4.959621e+001  -1.718180e+002 
3150000000  -4.878944e+001  1.797998e+002 
3153125000  -4.932318e+001  1.673256e+002 
3156250000  -5.010476e+001  1.658776e+002 
3159375000  -4.790278e+001  1.574738e+002 
3162500000  -4.619056e+001  1.367220e+002 
3165625000  -4.794455e+001  1.225681e+002 
3168750000  -4.773520e+001  1.171747e+002 
3171875000  -4.713744e+001  1.032579e+002 
3175000000  -4.749259e+001  8.912825e+001 
3178125000  -4.757406e+001  8.321117e+001 
3181250000  -4.671972e+001  6.909888e+001 
3184375000  -4.661135e+001  5.191925e+001 
3187500000  -4.742797e+001  3.698363e+001 
3190625000  -4.935262e+001  2.504503e+001 
3193750000  -5.014338e+001  2.436461e+001 
3196875000  -4.973711e+001  1.913984e+001 
3200000000  -4.819757e+001  1.017065e+001 
3203125000  -4.874613e+001  -3.865369e+000 
3206250000  -4.867526e+001  -1.391564e+001 
3209375000  -4.801499e+001  -3.108244e+001 
3212500000  -4.892968e+001  -4.277552e+001 
3215625000  -4.825717e+001  -4.316310e+001 
3218750000  -4.907812e+001  -6.371677e+001 
3221875000  -4.927476e+001  -7.947743e+001 
3225000000  -5.008703e+001  -8.341959e+001 
3228125000  -4.981815e+001  -9.376321e+001 
3231250000  -5.071862e+001  -1.039002e+002 
3234375000  -5.010946e+001  -1.064762e+002 
3237500000  -5.052843e+001  -1.170499e+002 
3240625000  -5.021498e+001  -1.284857e+002 
3243750000  -4.920562e+001  -1.422328e+002 
3246875000  -5.012735e+001  -1.533004e+002 
3250000000  -5.070348e+001  -1.645501e+002 
3253125000  -5.173924e+001  -1.686809e+002 
3256250000  -5.053193e+001  1.779312e+002 
3259375000  -5.107018e+001  1.614578e+002 
3262500000  -5.245148e+001  1.521471e+002 
3265625000  -5.301519e+001  1.453909e+002 
3268750000  -5.301511e+001  1.451021e+002 
3271875000  -5.260484e+001  1.356940e+002 
3275000000  -5.228984e+001  1.246208e+002 
3278125000  -5.274849e+001  1.119963e+002 
3281250000  -5.308217e+001  1.056380e+002 
3284375000  -5.239791e+001  9.530022e+001 
3287500000  -5.331705e+001  8.240623e+001 
3290625000  -5.307174e+001  6.998485e+001 
3293750000  -5.313840e+001  6.330851e+001 
3296875000  -5.385684e+001  5.626556e+001 
3300000000  -5.586139e+001  5.096902e+001 
3303125000  -5.390174e+001  4.801292e+001 
3306250000  -5.365688e+001  3.292778e+001 
3309375000  -5.258595e+001  1.273377e+001 
3312500000  -5.324660e+001  -6.603884e+000 
3315625000  -5.401627e+001  -1.378781e+001 
3318750000  -5.499689e+001  -1.939558e+001 
3321875000  -5.695843e+001  -1.861161e+001 
3325000000  -5.532136e+001  -3.151513e+001 
3328125000  -5.766526e+001  -2.535741e+001 
3331250000  -5.466981e+001  -2.403639e+001 
3334375000  -5.182302e+001  -4.484560e+001 
3337500000  -5.204686e+001  -7.158205e+001 
3340625000  -5.456005e+001  -8.789365e+001 
3343750000  -5.581034e+001  -8.143748e+001 
3346875000  -5.651495e+001  -9.466264e+001 
3350000000  -5.486047e+001  -1.059687e+002 
3353125000  -5.551044e+001  -1.141732e+002 
3356250000  -5.530080e+001  -1.213700e+002 
3359375000  -5.428995e+001  -1.464774e+002 
3362500000  -5.585019e+001  -1.476586e+002 
3365625000  -5.649469e+001  -1.579198e+002 
3368750000  -5.736202e+001  -1.714620e+002 
3371875000  -5.718661e+001  1.788632e+002 
3375000000  -5.829964e+001  1.632164e+002 
3378125000  -5.896997e+001  1.715846e+002 
3381250000  -6.224651e+001  -1.760878e+002 
3384375000  -5.724099e+001  -1.735947e+002 
3387500000  -5.258862e+001  1.434069e+002 
3390625000  -5.564378e+001  1.280683e+002 
3393750000  -5.763491e+001  1.209543e+002 
3396875000  -5.744470e+001  1.178775e+002 
3400000000  -5.469735e+001  9.742961e+001 
3403125000  -5.718059e+001  8.571246e+001 
3406250000  -5.708703e+001  7.319825e+001 
3409375000  -5.867174e+001  6.352523e+001 
3412500000  -5.889744e+001  5.685890e+001 
3415625000  -5.981019e+001  4.353462e+001 
3418750000  -5.931512e+001  4.338985e+001 
3421875000  -5.953117e+001  2.955527e+001 
3425000000  -5.966731e+001  3.050996e+001 
3428125000  -5.955772e+001  1.623967e+001 
3431250000  -6.027747e+001  1.762829e+000 
3434375000  -6.211370e+001  -1.074576e+001 
3437500000  -6.438898e+001  -2.374181e+001 
3440625000  -6.037324e+001  -3.541451e+001 
3443750000  -6.389349e+001  -1.304658e+001 
3446875000  -6.088620e+001  -4.912106e+001 
3450000000  -6.292037e+001  -7.231567e+001 
3453125000  -6.124972e+001  -6.672009e+001 
3456250000  -6.618889e+001  -9.140881e+001 
3459375000  -6.382983e+001  -5.228119e+001 
3462500000  -6.235370e+001  -9.124948e+001 
3465625000  -6.951033e+001  -9.886899e+001 
3468750000  -6.465686e+001  -1.203840e+002 
3471875000  -6.809492e+001  -1.014815e+002 
3475000000  -6.679252e+001  -9.140282e+001 
3478125000  -7.039082e+001  -1.108449e+002 
3481250000  -7.231259e+001  -1.031220e+002 
3484375000  -6.862485e+001  -1.154562e+002 
3487500000  -6.322433e+001  -1.305265e+002 
3490625000  -6.677347e+001  -1.519592e+002 
3493750000  -6.943233e+001  -1.295096e+002 
3496875000  -6.756909e+001  -1.678908e+002 
3500000000  -6.823434e+001  -1.605612e+002 
3503125000  -6.621516e+001  -1.553950e+002 
3506250000  -6.666888e+001  -1.685487e+002 
3509375000  -6.327950e+001  1.705615e+002 
3512500000  -6.425539e+001  1.324930e+002 
3515625000  -7.472644e+001  1.217776e+002 
3518750000  -6.590535e+001  1.350806e+002 
3521875000  -6.779546e+001  1.373535e+002 
3525000000  -6.854360e+001  1.251565e+002 
3528125000  -6.833435e+001  1.082767e+002 
3531250000  -6.855557e+001  9.919067e+001 
3534375000  -6.748582e+001  7.467287e+001 
3537500000  -6.479321e+001  8.393790e+001 
3540625000  -7.617358e+001  7.423396e+001 
3543750000  -7.437746e+001  9.805960e+001 
3546875000  -6.589369e+001  9.010755e+001 
3550000000  -6.988660e+001  7.305998e+001 
3553125000  -7.662708e+001  5.073534e+001 
3556250000  -6.909325e+001  5.489590e+001 
3559375000  -6.811134e+001  6.261651e+000 
3562500000  -7.719836e+001  -2.005398e+001 
3565625000  -7.776537e+001  5.153251e+001 
3568750000  -6.944515e+001  -1.454024e+001 
3571875000  -8.069990e+001  7.363004e+001 
3575000000  -7.234787e+001  -2.203371e+000 
3578125000  -7.413065e+001  6.825134e+001 
3581250000  -6.698825e+001  -3.208683e+000 
3584375000  -6.987151e+001  4.727169e+001 
3587500000  -7.683442e+001  3.318475e+001 
3590625000  -6.981141e+001  3.210389e+001 
3593750000  -7.052695e+001  -6.252157e+001 
3596875000  -6.682450e+001  3.039868e+001 
3600000000  -6.846299e+001  -2.264493e+001 
3603125000  -6.364764e+001  -3.021775e+001 
3606250000  -6.308334e+001  -3.038757e+001 
3609375000  -6.609243e+001  -6.042126e+001 
3612500000  -6.371024e+001  -5.308075e+001 
3615625000  -7.384624e+001  -3.925591e+001 
3618750000  -6.691108e+001  -5.785714e+001 
3621875000  -6.393763e+001  -6.428632e+001 
3625000000  -6.279069e+001  -5.852721e+001 
3628125000  -6.529655e+001  -1.010772e+002 
3631250000  -6.552502e+001  -1.105694e+002 
3634375000  -6.354704e+001  -1.123816e+002 
3637500000  -6.348428e+001  -9.878078e+001 
3640625000  -6.420303e+001  -1.341539e+002 
3643750000  -6.001439e+001  -1.469443e+002 
3646875000  -6.323375e+001  -1.795501e+002 
3650000000  -6.333164e+001  -1.728888e+002 
3653125000  -6.305103e+001  1.660332e+002 
3656250000  -6.784855e+001  1.754914e+002 
3659375000  -6.428876e+001  1.693420e+002 
3662500000  -6.303114e+001  1.393623e+002 
3665625000  -6.254336e+001  1.531143e+002 
3668750000  -6.519776e+001  1.294570e+002 
3671875000  -6.599836e+001  1.414263e+002 
3675000000  -6.272212e+001  1.039246e+002 
3678125000  -6.434119e+001  1.070514e+002 
3681250000  -6.263549e+001  1.050599e+002 
3684375000  -6.536958e+001  6.739918e+001 
3687500000  -6.566251e+001  7.325064e+001 
3690625000  -6.433490e+001  9.115507e+001 
3693750000  -6.762857e+001  7.866727e+001 
3696875000  -6.926819e+001  9.246713e+001 
3700000000  -6.659313e+001  7.399911e+001 
3703125000  -6.744473e+001  6.045651e+001 
3706250000  -6.123670e+001  7.412984e+001 
3709375000  -6.585763e+001  5.248605e+001 
3712500000  -6.572489e+001  5.562291e+001 
3715625000  -5.875454e+001  4.994487e+001 
3718750000  -6.205470e+001  1.424401e+001 
3721875000  -6.397532e+001  1.495565e+001 
3725000000  -6.125637e+001  2.406260e+001 
3728125000  -5.885027e+001  1.164349e+001 
3731250000  -5.898896e+001  -1.298574e+001 
3734375000  -5.797250e+001  -1.431142e+001 
3737500000  -5.742832e+001  -4.355555e+001 
3740625000  -6.084047e+001  -3.728880e+001 
3743750000  -5.655378e+001  -5.614312e+001 
3746875000  -5.946975e+001  -7.084364e+001 
3750000000  -5.862492e+001  -9.153058e+001 
3753125000  -5.937321e+001  -8.443285e+001 
3756250000  -5.928695e+001  -9.193436e+001 
3759375000  -5.847178e+001  -1.141328e+002 
3762500000  -5.734040e+001  -1.142822e+002 
3765625000  -5.704023e+001  -1.237294e+002 
3768750000  -5.720509e+001  -1.422344e+002 
3771875000  -5.670741e+001  -1.457764e+002 
3775000000  -5.655860e+001  -1.521597e+002 
3778125000  -5.730681e+001  -1.760794e+002 
3781250000  -5.743944e+001  1.669865e+002 
3784375000  -5.656099e+001  1.764391e+002 
3787500000  -5.690701e+001  1.519111e+002 
3790625000  -5.685956e+001  1.435381e+002 
3793750000  -5.759182e+001  1.386617e+002 
3796875000  -5.799133e+001  1.197305e+002 
3800000000  -5.380115e+001  8.233623e+001 
3803125000  -5.771640e+001  1.027412e+002 
3806250000  -5.801575e+001  7.880917e+001 
3809375000  -5.781538e+001  8.781289e+001 
3812500000  -5.665173e+001  6.580276e+001 
3815625000  -5.902699e+001  4.872494e+001 
3818750000  -6.049477e+001  4.785265e+001 
3821875000  -6.182690e+001  6.420120e+001 
3825000000  -5.775640e+001  4.590952e+001 
3828125000  -6.073083e+001  2.505610e+001 
3831250000  -5.775570e+001  -4.244910e+000 
3834375000  -6.887566e+001  -1.272104e+001 
3837500000  -6.476803e+001  1.273542e+001 
3840625000  -6.021964e+001  -8.334425e+000 
3843750000  -6.078583e+001  8.456544e+000 
3846875000  -6.695877e+001  4.234814e+000 
3850000000  -6.796072e+001  -2.584683e+001 
3853125000  -6.431068e+001  -1.426738e+001 
3856250000  -6.169097e+001  -2.574344e+001 
3859375000  -5.930836e+001  -2.758277e+001 
3862500000  -5.987812e+001  -2.586963e+001 
3865625000  -5.945945e+001  -4.548021e+001 
3868750000  -6.145111e+001  -3.591557e+001 
3871875000  -5.557655e+001  -5.860612e+001 
3875000000  -5.779797e+001  -6.888207e+001 
3878125000  -5.962902e+001  -8.212912e+001 
3881250000  -5.840779e+001  -7.302722e+001 
3884375000  -5.622636e+001  -9.781738e+001 
3887500000  -5.918236e+001  -1.228235e+002 
3890625000  -5.634280e+001  -1.191839e+002 
3893750000  -5.519510e+001  -1.259277e+002 
3896875000  -5.583516e+001  -1.258837e+002 
3900000000  -5.662822e+001  -1.370843e+002 
3903125000  -5.491364e+001  -1.514697e+002 
3906250000  -5.374509e+001  -1.705235e+002 
3909375000  -5.460545e+001  1.741923e+002 
3912500000  -5.452736e+001  1.617763e+002 
3915625000  -5.640501e+001  1.627379e+002 
3918750000  -5.565321e+001  1.568523e+002 
3921875000  -5.426758e+001  1.368391e+002 
3925000000  -5.310070e+001  1.315689e+002 
3928125000  -5.285907e+001  1.065502e+002 
3931250000  -5.399301e+001  9.753042e+001 
3934375000  -5.311335e+001  8.245056e+001 
3937500000  -5.558448e+001  7.948618e+001 
3940625000  -5.496314e+001  7.284640e+001 
3943750000  -5.304421e+001  6.797569e+001 
3946875000  -5.290407e+001  5.037986e+001 
3950000000  -5.423206e+001  4.253515e+001 
3953125000  -5.388775e+001  3.128777e+001 
3956250000  -5.399807e+001  2.173357e+001 
3959375000  -5.199713e+001  9.832971e+000 
3962500000  -5.180261e+001  7.207795e+000 
3965625000  -5.244154e+001  -1.545474e+001 
3968750000  -5.498446e+001  -2.899889e+001 
3971875000  -5.403441e+001  -3.605030e+001 
3975000000  -5.419585e+001  -5.473786e+001 
3978125000  -5.424192e+001  -5.553527e+001 
3981250000  -5.408490e+001  -7.557605e+001 
3984375000  -5.532137e+001  -8.683369e+001 
3987500000  -5.555807e+001  -8.505598e+001 
3990625000  -5.559973e+001  -9.583089e+001 
3993750000  -5.643649e+001  -1.316485e+002 
3996875000  -5.750523e+001  -1.279393e+002 
4000000000  -6.116627e+001  -1.195562e+002 
4003125000  -5.788026e+001  -1.164304e+002 
4006250000  -5.661941e+001  -1.559559e+002 
4009375000  -5.731921e+001  -1.515145e+002 
4012500000  -5.849512e+001  -1.549133e+002 
4015625000  -6.125363e+001  -1.599575e+002 
4018750000  -6.013127e+001  -1.511772e+002 
4021875000  -5.889454e+001  1.742503e+002 
4025000000  -6.071703e+001  1.625388e+002 
4028125000  -5.994118e+001  1.717065e+002 
4031250000  -6.110883e+001  1.690145e+002 
4034375000  -5.902245e+001  1.610927e+002 
4037500000  -5.906276e+001  1.527987e+002 
4040625000  -5.840705e+001  1.502199e+002 
4043750000  -5.944702e+001  1.378997e+002 
4046875000  -5.960978e+001  1.385780e+002 
4050000000  -5.541656e+001  1.278882e+002 
4053125000  -5.757923e+001  1.266756e+002 
4056250000  -5.952735e+001  1.231932e+002 
4059375000  -5.524523e+001  1.158830e+002 
4062500000  -5.625449e+001  1.005196e+002 
4065625000  -5.330933e+001  8.088380e+001 
4068750000  -5.347981e+001  7.447816e+001 
4071875000  -5.249937e+001  5.895878e+001 
4075000000  -5.277251e+001  4.754837e+001 
4078125000  -5.364635e+001  3.939332e+001 
4081250000  -5.334688e+001  2.305016e+001 
4084375000  -5.288843e+001  1.622260e+001 
4087500000  -5.288009e+001  -4.703917e-001 
4090625000  -5.300406e+001  -6.032408e+000 
4093750000  -5.226168e+001  -2.147806e+001 
4096875000  -5.340694e+001  -3.473210e+001 
4100000000  -5.360289e+001  -4.626316e+001 
4103125000  -5.479545e+001  -4.461702e+001 
4106250000  -5.294127e+001  -5.502698e+001 
4109375000  -5.466833e+001  -5.971542e+001 
4112500000  -5.150321e+001  -8.555629e+001 
4115625000  -5.356413e+001  -7.724605e+001 
4118750000  -5.247881e+001  -9.277677e+001 
4121875000  -5.287991e+001  -1.233533e+002 
4125000000  -5.342561e+001  -1.238445e+002 
4128125000  -5.496758e+001  -1.277991e+002 
4131250000  -5.365620e+001  -1.308939e+002 
4134375000  -5.107892e+001  -1.545602e+002 
4137500000  -5.155087e+001  -1.728978e+002 
4140625000  -5.339331e+001  1.720887e+002 
4143750000  -5.718435e+001  1.635165e+002 
4146875000  -5.279699e+001  1.731156e+002 
4150000000  -5.425089e+001  1.626511e+002 
4153125000  -5.420004e+001  1.484870e+002 
4156250000  -5.660726e+001  1.321283e+002 
4159375000  -5.532399e+001  1.332858e+002 
4162500000  -5.479458e+001  1.137479e+002 
4165625000  -5.411359e+001  1.098036e+002 
4168750000  -5.647239e+001  8.574223e+001 
4171875000  -5.381396e+001  7.436694e+001 
4175000000  -5.685313e+001  6.218945e+001 
4178125000  -5.857312e+001  6.261415e+001 
4181250000  -5.725443e+001  4.080747e+001 
4184375000  -5.702131e+001  4.448356e+001 
4187500000  -5.797375e+001  2.691106e+001 
4190625000  -6.100046e+001  2.659406e+001 
4193750000  -5.998324e+001  2.474208e+001 
4196875000  -6.238673e+001  7.569200e+000 
4200000000  -6.399695e+001  3.605933e+001 
4203125000  -6.408339e+001  3.480324e+001 
4206250000  -5.945058e+001  5.468017e+000 
4209375000  -5.901895e+001  -9.554093e-001 
4212500000  -6.573981e+001  1.120994e+001 
4215625000  -6.684892e+001  -5.477962e-001 
4218750000  -6.411554e+001  2.129763e+000 
4221875000  -5.787565e+001  -3.226086e+001 
4225000000  -6.165581e+001  -2.522341e+001 
4228125000  -5.977253e+001  -3.893312e+001 
4231250000  -5.708069e+001  -8.814585e+000 
4234375000  -5.649134e+001  -5.327010e+001 
4237500000  -5.957219e+001  -2.352633e+001 
4240625000  -5.386924e+001  -6.195193e+001 
4243750000  -5.891531e+001  -6.508912e+001 
4246875000  -5.573613e+001  -7.560452e+001 
4250000000  -5.788962e+001  -7.947466e+001 
4253125000  -5.540121e+001  -8.785426e+001 
4256250000  -5.785272e+001  -1.081262e+002 
4259375000  -5.455532e+001  -1.041076e+002 
4262500000  -5.425588e+001  -1.212739e+002 
4265625000  -5.430944e+001  -1.241358e+002 
4268750000  -5.134645e+001  -1.480137e+002 
4271875000  -5.295418e+001  -1.546116e+002 
4275000000  -5.148764e+001  -1.724234e+002 
4278125000  -5.237558e+001  1.731385e+002 
4281250000  -5.261203e+001  1.562648e+002 
4284375000  -5.488776e+001  1.535480e+002 
4287500000  -5.393990e+001  1.391672e+002 
4290625000  -5.585869e+001  1.495275e+002 
4293750000  -5.172299e+001  1.490791e+002 
4296875000  -5.277629e+001  1.145103e+002 
4300000000  -5.237904e+001  1.116775e+002 
4303125000  -5.276096e+001  9.659940e+001 
4306250000  -5.377439e+001  1.039606e+002 
4309375000  -5.170597e+001  7.994478e+001 
4312500000  -5.229049e+001  7.024820e+001 
4315625000  -5.235160e+001  5.778209e+001 
4318750000  -5.391174e+001  4.007523e+001 
4321875000  -5.230677e+001  3.212215e+001 
4325000000  -5.313747e+001  2.490203e+001 
4328125000  -5.161268e+001  1.058955e+001 
4331250000  -5.252868e+001  -8.021128e+000 
4334375000  -5.388789e+001  -1.433281e+001 
4337500000  -5.557256e+001  -2.816271e+001 
4340625000  -5.585128e+001  -2.239948e+001 
4343750000  -5.610851e+001  -4.112932e+001 
4346875000  -5.445720e+001  -5.461500e+001 
4350000000  -5.507698e+001  -6.596838e+001 
4353125000  -5.680011e+001  -7.548761e+001 
4356250000  -5.962318e+001  -6.574218e+001 
4359375000  -5.987400e+001  -5.860444e+001 
4362500000  -5.459617e+001  -6.949196e+001 
4365625000  -5.511353e+001  -9.087735e+001 
4368750000  -5.592897e+001  -1.016193e+002 
4371875000  -5.808419e+001  -9.955087e+001 
4375000000  -5.564105e+001  -1.114774e+002 
4378125000  -5.628120e+001  -1.251847e+002 
4381250000  -5.897122e+001  -1.262803e+002 
4384375000  -5.780688e+001  -1.453065e+002 
4387500000  -5.869400e+001  -1.511066e+002 
4390625000  -5.719518e+001  -1.607996e+002 
4393750000  -5.919120e+001  -1.567697e+002 
4396875000  -5.646818e+001  -1.586117e+002 
4400000000  -5.565104e+001  -1.657115e+002 
4403125000  -5.484739e+001  1.615022e+002 
4406250000  -5.827874e+001  1.729484e+002 
4409375000  -5.772443e+001  1.640711e+002 
4412500000  -5.716103e+001  1.626829e+002 
4415625000  -5.595963e+001  1.702936e+002 
4418750000  -5.592754e+001  1.604010e+002 
