!Agilent Technologies,E8363B,MY43030201,A.06.04.32
!Agilent E8363B: A.06.04.32
!Date: Tuesday, November 11, 2014 22:16:10
!Correction: S21(Response(S21)) 
!S1P File: Measurement: S21:
# Hz S  dB   R 50
3000000000  -4.897932e+001  -7.259521e+001 
3003125000  -5.131301e+001  -7.995686e+001 
3006250000  -5.144508e+001  -8.387343e+001 
3009375000  -5.153637e+001  -8.563276e+001 
3012500000  -5.085699e+001  -9.694296e+001 
3015625000  -5.099363e+001  -1.053190e+002 
3018750000  -5.150802e+001  -1.148826e+002 
3021875000  -4.948956e+001  -1.169745e+002 
3025000000  -4.876004e+001  -1.292077e+002 
3028125000  -4.799097e+001  -1.440998e+002 
3031250000  -4.703981e+001  -1.587287e+002 
3034375000  -4.686746e+001  -1.792963e+002 
3037500000  -4.802569e+001  1.658203e+002 
3040625000  -4.911186e+001  1.547247e+002 
3043750000  -4.965036e+001  1.403833e+002 
3046875000  -5.077880e+001  1.307886e+002 
3050000000  -5.100645e+001  1.265625e+002 
3053125000  -5.094301e+001  1.220834e+002 
3056250000  -5.149466e+001  1.243136e+002 
3059375000  -5.118776e+001  1.129472e+002 
3062500000  -4.906393e+001  1.031152e+002 
3065625000  -4.904438e+001  8.959663e+001 
3068750000  -4.845483e+001  7.782544e+001 
3071875000  -4.946175e+001  6.725541e+001 
3075000000  -4.814051e+001  5.658292e+001 
3078125000  -4.825665e+001  4.710922e+001 
3081250000  -4.901962e+001  3.268466e+001 
3084375000  -4.774403e+001  2.828344e+001 
3087500000  -4.803363e+001  1.332550e+001 
3090625000  -4.834207e+001  -3.068506e-001 
3093750000  -4.884472e+001  -1.266710e+001 
3096875000  -4.921325e+001  -2.338554e+001 
3100000000  -4.956080e+001  -3.420504e+001 
3103125000  -4.983817e+001  -3.953460e+001 
3106250000  -4.933350e+001  -4.908055e+001 
3109375000  -4.950407e+001  -5.848619e+001 
3112500000  -4.949200e+001  -6.393919e+001 
3115625000  -4.955176e+001  -7.324229e+001 
3118750000  -4.952905e+001  -8.548774e+001 
3121875000  -4.904946e+001  -1.000429e+002 
3125000000  -5.044607e+001  -1.076867e+002 
3128125000  -5.047795e+001  -1.081787e+002 
3131250000  -4.808276e+001  -1.147141e+002 
3134375000  -4.827304e+001  -1.366928e+002 
3137500000  -4.890655e+001  -1.548565e+002 
3140625000  -4.956254e+001  -1.595222e+002 
3143750000  -5.045980e+001  -1.668687e+002 
3146875000  -5.028492e+001  -1.695322e+002 
3150000000  -4.893517e+001  -1.788462e+002 
3153125000  -4.936271e+001  1.658546e+002 
3156250000  -5.025992e+001  1.676986e+002 
3159375000  -4.765139e+001  1.572037e+002 
3162500000  -4.627176e+001  1.341989e+002 
3165625000  -4.775261e+001  1.218930e+002 
3168750000  -4.811548e+001  1.156887e+002 
3171875000  -4.709378e+001  1.031472e+002 
3175000000  -4.753326e+001  9.147952e+001 
3178125000  -4.732110e+001  8.442947e+001 
3181250000  -4.670646e+001  7.026325e+001 
3184375000  -4.657346e+001  5.571540e+001 
3187500000  -4.764331e+001  3.330692e+001 
3190625000  -4.898908e+001  2.859105e+001 
3193750000  -4.972596e+001  2.165480e+001 
3196875000  -4.924000e+001  2.198881e+001 
3200000000  -4.821482e+001  1.002528e+001 
3203125000  -4.864417e+001  -3.589087e+000 
3206250000  -4.876375e+001  -1.695073e+001 
3209375000  -4.826571e+001  -2.706269e+001 
3212500000  -4.883994e+001  -3.843368e+001 
3215625000  -4.791346e+001  -4.649139e+001 
3218750000  -4.962406e+001  -6.321432e+001 
3221875000  -4.964225e+001  -7.446497e+001 
3225000000  -4.984896e+001  -8.258085e+001 
3228125000  -4.992364e+001  -9.340417e+001 
3231250000  -5.070877e+001  -9.996871e+001 
3234375000  -5.001727e+001  -1.124225e+002 
3237500000  -5.033420e+001  -1.204737e+002 
3240625000  -5.022860e+001  -1.257137e+002 
3243750000  -5.037182e+001  -1.442159e+002 
3246875000  -5.019157e+001  -1.548114e+002 
3250000000  -5.113758e+001  -1.645942e+002 
3253125000  -5.171161e+001  -1.715777e+002 
3256250000  -5.055747e+001  1.753275e+002 
3259375000  -5.079288e+001  1.576607e+002 
3262500000  -5.301236e+001  1.521034e+002 
3265625000  -5.282387e+001  1.467062e+002 
3268750000  -5.307211e+001  1.447870e+002 
3271875000  -5.281477e+001  1.395905e+002 
3275000000  -5.246154e+001  1.250666e+002 
3278125000  -5.235397e+001  1.129391e+002 
3281250000  -5.343369e+001  1.082759e+002 
3284375000  -5.258256e+001  9.471676e+001 
3287500000  -5.373463e+001  8.141589e+001 
3290625000  -5.341923e+001  7.044283e+001 
3293750000  -5.309970e+001  6.172995e+001 
3296875000  -5.408240e+001  5.291053e+001 
3300000000  -5.348571e+001  4.812867e+001 
3303125000  -5.304157e+001  4.112667e+001 
3306250000  -5.424197e+001  2.399697e+001 
3309375000  -5.276871e+001  1.762304e+001 
3312500000  -5.270013e+001  -2.463004e+000 
3315625000  -5.519586e+001  -7.633945e+000 
3318750000  -5.574077e+001  -2.201110e+001 
3321875000  -5.817146e+001  -1.595692e+001 
3325000000  -5.781378e+001  -2.823424e+001 
3328125000  -5.647248e+001  -3.218078e+001 
3331250000  -5.416732e+001  -2.512384e+001 
3334375000  -5.214989e+001  -4.673914e+001 
3337500000  -5.231138e+001  -7.068836e+001 
3340625000  -5.475367e+001  -8.888679e+001 
3343750000  -5.618204e+001  -8.537147e+001 
3346875000  -5.573850e+001  -9.882426e+001 
3350000000  -5.451023e+001  -9.836243e+001 
3353125000  -5.443727e+001  -1.105508e+002 
3356250000  -5.485457e+001  -1.300745e+002 
3359375000  -5.609065e+001  -1.444985e+002 
3362500000  -5.625614e+001  -1.439777e+002 
3365625000  -5.533929e+001  -1.533370e+002 
3368750000  -5.657069e+001  -1.731269e+002 
3371875000  -5.728257e+001  -1.768636e+002 
3375000000  -5.955829e+001  1.628078e+002 
3378125000  -5.851448e+001  1.706057e+002 
3381250000  -5.973923e+001  1.624715e+002 
3384375000  -5.584948e+001  1.797347e+002 
3387500000  -5.473765e+001  1.511066e+002 
3390625000  -5.479458e+001  1.319405e+002 
3393750000  -5.837699e+001  1.250000e+002 
3396875000  -5.782832e+001  1.178200e+002 
3400000000  -5.453131e+001  9.645094e+001 
3403125000  -5.780261e+001  8.235366e+001 
3406250000  -5.721090e+001  8.051036e+001 
3409375000  -5.681742e+001  6.041824e+001 
3412500000  -5.688982e+001  6.054073e+001 
3415625000  -6.059262e+001  4.593143e+001 
3418750000  -5.960247e+001  3.542903e+001 
3421875000  -6.014760e+001  2.802221e+001 
3425000000  -6.026733e+001  3.366513e+001 
3428125000  -5.910891e+001  8.429428e+000 
3431250000  -6.080725e+001  1.934363e+000 
3434375000  -5.998984e+001  -2.703954e+001 
3437500000  -6.399176e+001  -3.594837e+001 
3440625000  -6.096934e+001  -3.085963e+001 
3443750000  -6.131652e+001  -1.510807e+001 
3446875000  -6.035364e+001  -4.304926e+001 
3450000000  -6.215335e+001  -8.230031e+001 
3453125000  -6.221304e+001  -7.342075e+001 
3456250000  -7.202246e+001  -9.950505e+001 
3459375000  -6.232384e+001  -6.955312e+001 
3462500000  -6.895223e+001  -5.645553e+001 
3465625000  -6.437195e+001  -1.063522e+002 
3468750000  -6.739940e+001  -1.279133e+002 
3471875000  -6.737776e+001  -1.198569e+002 
3475000000  -6.718202e+001  -1.385439e+002 
3478125000  -6.695567e+001  -1.012838e+002 
3481250000  -7.075547e+001  -1.777090e+002 
3484375000  -6.789873e+001  -1.239231e+002 
3487500000  -6.681620e+001  -1.396028e+002 
3490625000  -6.662891e+001  -1.400938e+002 
3493750000  -6.649079e+001  -1.484532e+002 
3496875000  -7.041425e+001  -1.509808e+002 
3500000000  -6.499828e+001  -1.562445e+002 
3503125000  -6.681988e+001  1.790305e+002 
3506250000  -6.434905e+001  -1.617357e+002 
3509375000  -6.594313e+001  1.713789e+002 
3512500000  -6.549464e+001  1.430392e+002 
3515625000  -6.809265e+001  1.387008e+002 
3518750000  -6.428488e+001  1.537717e+002 
3521875000  -6.862215e+001  1.156172e+002 
3525000000  -6.677185e+001  7.928018e+001 
3528125000  -6.726915e+001  1.175663e+002 
3531250000  -6.445117e+001  1.385148e+002 
3534375000  -6.567436e+001  1.070313e+002 
3537500000  -7.168698e+001  6.370296e+001 
3540625000  -7.917731e+001  2.534406e+001 
3543750000  -7.301419e+001  6.549504e+001 
3546875000  -6.748048e+001  6.156998e+001 
3550000000  -6.774257e+001  6.199283e+001 
3553125000  -7.695438e+001  1.000583e+001 
3556250000  -7.795538e+001  1.254746e+002 
3559375000  -7.859980e+001  -1.954345e+001 
3562500000  -7.529053e+001  4.220146e+001 
3565625000  -7.924561e+001  1.887500e+001 
3568750000  -7.626064e+001  2.756403e+001 
3571875000  -6.803785e+001  7.664610e+001 
3575000000  -7.544512e+001  1.978519e+001 
3578125000  -7.271802e+001  5.264182e+001 
3581250000  -7.949325e+001  7.226958e+001 
3584375000  -7.161440e+001  7.260213e+001 
3587500000  -7.362631e+001  8.208653e-001 
3590625000  -6.813069e+001  -2.080920e+001 
3593750000  -7.274475e+001  -4.321148e+001 
3596875000  -6.547599e+001  2.326048e+001 
3600000000  -6.410294e+001  -2.186253e+001 
3603125000  -6.858914e+001  -7.732872e+000 
3606250000  -6.789309e+001  -4.892255e+001 
3609375000  -6.483743e+001  -4.533510e+001 
3612500000  -6.176904e+001  -5.471918e+001 
3615625000  -7.058473e+001  -6.332535e+001 
3618750000  -6.425942e+001  -5.158519e+001 
3621875000  -6.335469e+001  -9.495226e+001 
3625000000  -6.524543e+001  -7.399699e+001 
3628125000  -6.702785e+001  -9.951582e+001 
3631250000  -6.493263e+001  -9.503272e+001 
3634375000  -6.611182e+001  -1.180867e+002 
3637500000  -6.350082e+001  -1.051053e+002 
3640625000  -6.064275e+001  -1.290299e+002 
3643750000  -6.414490e+001  -1.220432e+002 
3646875000  -6.325612e+001  -1.561737e+002 
3650000000  -6.406423e+001  -1.621848e+002 
3653125000  -6.327300e+001  -1.780991e+002 
3656250000  -6.469505e+001  1.659904e+002 
3659375000  -6.384006e+001  1.730633e+002 
3662500000  -6.707188e+001  1.689297e+002 
3665625000  -6.108415e+001  1.600303e+002 
3668750000  -6.305554e+001  1.210569e+002 
3671875000  -6.311374e+001  1.228972e+002 
3675000000  -6.476736e+001  8.733633e+001 
3678125000  -6.703681e+001  1.148984e+002 
3681250000  -6.199297e+001  1.133555e+002 
3684375000  -7.449730e+001  1.047404e+002 
3687500000  -6.662779e+001  8.095662e+001 
3690625000  -7.246562e+001  7.266914e+001 
3693750000  -6.696029e+001  9.645339e+001 
3696875000  -6.703281e+001  8.371796e+001 
3700000000  -6.584670e+001  8.664359e+001 
3703125000  -6.591908e+001  5.433783e+001 
3706250000  -6.547615e+001  8.302063e+001 
3709375000  -6.413769e+001  7.395551e+001 
3712500000  -6.351950e+001  7.926616e+001 
3715625000  -6.192305e+001  4.862983e+001 
3718750000  -6.133502e+001  2.452917e+001 
3721875000  -6.323658e+001  2.831762e+001 
3725000000  -6.095932e+001  5.490768e+000 
3728125000  -6.161222e+001  7.536419e-001 
3731250000  -5.893727e+001  -1.705292e+001 
3734375000  -5.728404e+001  -1.158593e+001 
3737500000  -5.735895e+001  -3.074456e+001 
3740625000  -5.971070e+001  -3.712058e+001 
3743750000  -5.845700e+001  -7.064052e+001 
3746875000  -5.930451e+001  -6.407001e+001 
3750000000  -5.743773e+001  -8.743114e+001 
3753125000  -5.844080e+001  -7.774066e+001 
3756250000  -5.702087e+001  -9.958989e+001 
3759375000  -5.730633e+001  -1.061180e+002 
3762500000  -5.673748e+001  -1.027360e+002 
3765625000  -5.887358e+001  -1.281588e+002 
3768750000  -5.750647e+001  -1.335232e+002 
3771875000  -5.724820e+001  -1.476424e+002 
3775000000  -5.686673e+001  -1.592322e+002 
3778125000  -5.679082e+001  -1.778286e+002 
3781250000  -5.651522e+001  -1.728638e+002 
3784375000  -5.620559e+001  1.722606e+002 
3787500000  -5.806943e+001  1.653522e+002 
3790625000  -5.690530e+001  1.392138e+002 
3793750000  -5.694022e+001  1.347431e+002 
3796875000  -5.684375e+001  1.232664e+002 
3800000000  -5.347128e+001  8.200681e+001 
3803125000  -5.718810e+001  1.077754e+002 
3806250000  -5.844003e+001  8.403889e+001 
3809375000  -5.903460e+001  7.071357e+001 
3812500000  -5.706483e+001  6.070720e+001 
3815625000  -6.405781e+001  5.574959e+001 
3818750000  -6.309152e+001  4.636396e+001 
3821875000  -6.061005e+001  6.279045e+001 
3825000000  -5.962807e+001  3.852848e+001 
3828125000  -5.957232e+001  1.564065e+001 
3831250000  -6.165042e+001  -5.177320e-001 
3834375000  -6.122730e+001  -4.214830e+000 
3837500000  -6.170766e+001  7.976326e+000 
3840625000  -6.178743e+001  -4.831626e+000 
3843750000  -6.047313e+001  -1.439650e+001 
3846875000  -6.095132e+001  -1.264710e+001 
3850000000  -6.274305e+001  1.570961e+001 
3853125000  -6.270376e+001  1.202086e+001 
3856250000  -6.114716e+001  2.455494e+000 
3859375000  -6.197214e+001  -3.474342e+001 
3862500000  -6.234808e+001  -4.661136e+001 
3865625000  -6.003391e+001  -4.767370e+001 
3868750000  -5.875723e+001  -4.356255e+001 
3871875000  -5.705709e+001  -5.607055e+001 
3875000000  -5.837334e+001  -7.984842e+001 
3878125000  -5.770621e+001  -7.623405e+001 
3881250000  -5.792314e+001  -9.004308e+001 
3884375000  -5.686915e+001  -9.288068e+001 
3887500000  -5.616332e+001  -1.157780e+002 
3890625000  -5.779401e+001  -1.252775e+002 
3893750000  -5.740083e+001  -1.291019e+002 
3896875000  -5.802846e+001  -1.349034e+002 
3900000000  -5.536614e+001  -1.511037e+002 
3903125000  -5.579821e+001  -1.463662e+002 
3906250000  -5.285648e+001  -1.621522e+002 
3909375000  -5.397829e+001  1.749942e+002 
3912500000  -5.336394e+001  1.723599e+002 
3915625000  -5.646012e+001  1.649407e+002 
3918750000  -5.502180e+001  1.556789e+002 
3921875000  -5.358069e+001  1.394742e+002 
3925000000  -5.299394e+001  1.297652e+002 
3928125000  -5.177246e+001  1.142440e+002 
3931250000  -5.289929e+001  1.039995e+002 
3934375000  -5.444950e+001  8.890618e+001 
3937500000  -5.568466e+001  8.951653e+001 
3940625000  -5.590241e+001  8.286668e+001 
3943750000  -5.312251e+001  7.617153e+001 
3946875000  -5.350001e+001  5.640301e+001 
3950000000  -5.575938e+001  4.016368e+001 
3953125000  -5.538331e+001  3.157130e+001 
3956250000  -5.483557e+001  2.264348e+001 
3959375000  -5.110344e+001  1.924041e+001 
3962500000  -5.275177e+001  -3.521078e+000 
3965625000  -5.275607e+001  -1.535703e+001 
3968750000  -5.417684e+001  -3.204913e+001 
3971875000  -5.451486e+001  -3.842605e+001 
3975000000  -5.335109e+001  -5.484474e+001 
3978125000  -5.392372e+001  -5.260581e+001 
3981250000  -5.413830e+001  -7.029543e+001 
3984375000  -5.715495e+001  -7.567348e+001 
3987500000  -5.591554e+001  -8.886304e+001 
3990625000  -5.698656e+001  -1.043604e+002 
3993750000  -5.896630e+001  -1.069198e+002 
3996875000  -5.761695e+001  -1.257844e+002 
4000000000  -5.703669e+001  -1.255553e+002 
4003125000  -5.958467e+001  -1.416708e+002 
4006250000  -5.745465e+001  -1.286597e+002 
4009375000  -5.809166e+001  -1.450746e+002 
4012500000  -6.031066e+001  -1.548682e+002 
4015625000  -6.308562e+001  -1.686975e+002 
4018750000  -6.131524e+001  1.719424e+002 
4021875000  -5.916547e+001  -1.772077e+002 
4025000000  -5.964059e+001  1.755626e+002 
4028125000  -5.807534e+001  1.784759e+002 
4031250000  -6.057398e+001  1.733287e+002 
4034375000  -5.939961e+001  -1.728181e+002 
4037500000  -5.965484e+001  1.627419e+002 
4040625000  -5.856902e+001  1.454964e+002 
4043750000  -6.014635e+001  1.525079e+002 
4046875000  -5.710120e+001  1.507867e+002 
4050000000  -5.777542e+001  1.266528e+002 
4053125000  -5.900496e+001  1.193058e+002 
4056250000  -5.758651e+001  1.047636e+002 
4059375000  -5.524255e+001  1.136079e+002 
4062500000  -5.431455e+001  9.832800e+001 
4065625000  -5.397616e+001  8.128497e+001 
4068750000  -5.394497e+001  7.985413e+001 
4071875000  -5.174137e+001  5.883461e+001 
4075000000  -5.416090e+001  4.558939e+001 
4078125000  -5.313935e+001  4.212740e+001 
4081250000  -5.236199e+001  3.231743e+001 
4084375000  -5.232243e+001  1.809759e+001 
4087500000  -5.360109e+001  3.685420e+000 
4090625000  -5.324051e+001  -8.709131e+000 
4093750000  -5.343228e+001  -1.710270e+001 
4096875000  -5.328717e+001  -2.553746e+001 
4100000000  -5.398568e+001  -4.383712e+001 
4103125000  -5.571750e+001  -4.467736e+001 
4106250000  -5.411032e+001  -4.927694e+001 
4109375000  -5.339817e+001  -5.910543e+001 
4112500000  -5.357837e+001  -7.227110e+001 
4115625000  -5.286022e+001  -8.334259e+001 
4118750000  -5.257261e+001  -9.994345e+001 
4121875000  -5.300300e+001  -1.196679e+002 
4125000000  -5.274706e+001  -1.209724e+002 
4128125000  -5.591005e+001  -1.264524e+002 
4131250000  -5.399659e+001  -1.313057e+002 
4134375000  -5.149169e+001  -1.497367e+002 
4137500000  -5.232248e+001  -1.698113e+002 
4140625000  -5.453001e+001  1.759148e+002 
4143750000  -5.562732e+001  1.672978e+002 
4146875000  -5.442123e+001  1.654318e+002 
4150000000  -5.525452e+001  1.573281e+002 
4153125000  -5.427249e+001  1.444783e+002 
4156250000  -5.542721e+001  1.359145e+002 
4159375000  -5.677140e+001  1.284510e+002 
4162500000  -5.607721e+001  1.212152e+002 
4165625000  -5.410123e+001  1.239833e+002 
4168750000  -5.408435e+001  9.618683e+001 
4171875000  -5.303901e+001  8.614469e+001 
4175000000  -5.502965e+001  6.787313e+001 
4178125000  -5.766386e+001  6.790250e+001 
4181250000  -5.750089e+001  4.392048e+001 
4184375000  -6.167744e+001  6.999335e+001 
4187500000  -5.763786e+001  3.589993e+001 
4190625000  -6.342693e+001  3.239611e+001 
4193750000  -5.990253e+001  2.501001e+001 
4196875000  -6.254903e+001  1.242564e+001 
4200000000  -6.277325e+001  2.827895e+001 
4203125000  -6.322355e+001  2.899158e+001 
4206250000  -5.890960e+001  2.117097e+001 
4209375000  -6.228889e+001  -1.162123e+001 
4212500000  -6.343420e+001  1.965880e+000 
4215625000  -6.356421e+001  2.716169e+001 
4218750000  -6.381707e+001  3.464458e+000 
4221875000  -6.321132e+001  -2.001462e+001 
4225000000  -6.033488e+001  -1.696332e+001 
4228125000  -5.743763e+001  -3.133716e+001 
4231250000  -5.785754e+001  -1.715898e+001 
4234375000  -5.699892e+001  -3.859953e+001 
4237500000  -5.756725e+001  -4.462586e+001 
4240625000  -5.572396e+001  -6.270645e+001 
4243750000  -6.001092e+001  -6.665038e+001 
4246875000  -5.695016e+001  -8.142529e+001 
4250000000  -5.782232e+001  -8.352904e+001 
4253125000  -5.457079e+001  -8.875555e+001 
4256250000  -5.583772e+001  -1.009840e+002 
4259375000  -5.589423e+001  -1.010162e+002 
4262500000  -5.536358e+001  -1.260882e+002 
4265625000  -5.399500e+001  -1.143941e+002 
4268750000  -5.401347e+001  -1.334502e+002 
4271875000  -5.213255e+001  -1.579752e+002 
4275000000  -5.237627e+001  -1.783637e+002 
4278125000  -5.395626e+001  1.704497e+002 
4281250000  -5.511626e+001  1.640310e+002 
4284375000  -5.232117e+001  1.545392e+002 
4287500000  -5.647638e+001  1.509310e+002 
4290625000  -5.605105e+001  1.464090e+002 
4293750000  -5.442649e+001  1.524707e+002 
4296875000  -5.200892e+001  1.198496e+002 
4300000000  -5.306503e+001  1.051696e+002 
4303125000  -5.228603e+001  1.053213e+002 
4306250000  -5.294750e+001  9.835126e+001 
4309375000  -5.127869e+001  8.457649e+001 
4312500000  -5.215325e+001  6.656705e+001 
4315625000  -5.191541e+001  5.099548e+001 
4318750000  -5.375652e+001  4.856916e+001 
4321875000  -5.313576e+001  4.127651e+001 
4325000000  -5.293929e+001  3.001741e+001 
4328125000  -5.183946e+001  1.010172e+001 
4331250000  -5.368926e+001  -2.630292e+000 
4334375000  -5.453687e+001  -1.275695e+001 
4337500000  -5.452088e+001  -3.545684e+001 
4340625000  -5.483930e+001  -2.351525e+001 
4343750000  -5.539742e+001  -4.090619e+001 
4346875000  -5.539868e+001  -3.410959e+001 
4350000000  -5.415596e+001  -6.941328e+001 
4353125000  -5.688179e+001  -6.628194e+001 
4356250000  -5.506966e+001  -6.615235e+001 
4359375000  -5.913628e+001  -4.275616e+001 
4362500000  -5.483154e+001  -6.620994e+001 
4365625000  -5.333004e+001  -1.009700e+002 
4368750000  -5.487156e+001  -9.966872e+001 
4371875000  -5.632520e+001  -1.019775e+002 
4375000000  -5.648765e+001  -1.132844e+002 
4378125000  -5.666103e+001  -1.282631e+002 
4381250000  -5.735594e+001  -1.197768e+002 
4384375000  -5.749127e+001  -1.409273e+002 
4387500000  -5.773901e+001  -1.442953e+002 
4390625000  -5.929710e+001  -1.473164e+002 
4393750000  -5.823443e+001  -1.403184e+002 
4396875000  -5.569647e+001  -1.526048e+002 
4400000000  -5.511868e+001  -1.732108e+002 
4403125000  -5.481324e+001  1.703091e+002 
4406250000  -5.597764e+001  1.714055e+002 
4409375000  -5.436126e+001  1.715573e+002 
4412500000  -5.576977e+001  1.572762e+002 
4415625000  -5.532438e+001  1.789566e+002 
4418750000  -5.525360e+001  1.517805e+002 
