!Agilent Technologies,E8363B,MY43030201,A.06.04.32
!Agilent E8363B: A.06.04.32
!Date: Tuesday, November 11, 2014 22:15:09
!Correction: S21(Response(S21)) 
!S1P File: Measurement: S21:
# Hz S  dB   R 50
3000000000  -4.895856e+001  -7.303834e+001 
3003125000  -5.153834e+001  -8.114681e+001 
3006250000  -5.149089e+001  -8.587245e+001 
3009375000  -5.174825e+001  -8.719827e+001 
3012500000  -5.181395e+001  -9.717779e+001 
3015625000  -5.115287e+001  -1.083659e+002 
3018750000  -5.132027e+001  -1.125455e+002 
3021875000  -4.988680e+001  -1.207970e+002 
3025000000  -4.878260e+001  -1.261056e+002 
3028125000  -4.802887e+001  -1.438582e+002 
3031250000  -4.742126e+001  -1.619214e+002 
3034375000  -4.677018e+001  1.797387e+002 
3037500000  -4.779460e+001  1.647632e+002 
3040625000  -4.911887e+001  1.552365e+002 
3043750000  -4.930244e+001  1.431943e+002 
3046875000  -5.047562e+001  1.315503e+002 
3050000000  -5.140678e+001  1.272067e+002 
3053125000  -5.130075e+001  1.201731e+002 
3056250000  -5.190408e+001  1.198557e+002 
3059375000  -5.060805e+001  1.141646e+002 
3062500000  -4.935677e+001  1.005677e+002 
3065625000  -4.915356e+001  8.411845e+001 
3068750000  -4.890701e+001  7.781769e+001 
3071875000  -4.900459e+001  6.932594e+001 
3075000000  -4.874765e+001  5.781585e+001 
3078125000  -4.847891e+001  4.556262e+001 
3081250000  -4.880472e+001  3.778998e+001 
3084375000  -4.817729e+001  2.573647e+001 
3087500000  -4.801377e+001  1.254177e+001 
3090625000  -4.806405e+001  -5.213001e+000 
3093750000  -4.921218e+001  -1.392863e+001 
3096875000  -4.953041e+001  -2.383947e+001 
3100000000  -4.917940e+001  -3.134335e+001 
3103125000  -4.977240e+001  -3.935258e+001 
3106250000  -4.872610e+001  -4.826680e+001 
3109375000  -4.921375e+001  -6.082501e+001 
3112500000  -4.956186e+001  -6.887350e+001 
3115625000  -4.930001e+001  -7.870532e+001 
3118750000  -4.968451e+001  -8.703158e+001 
3121875000  -4.955084e+001  -9.585638e+001 
3125000000  -5.111328e+001  -1.082621e+002 
3128125000  -5.102777e+001  -1.042262e+002 
3131250000  -4.795378e+001  -1.150345e+002 
3134375000  -4.771100e+001  -1.411181e+002 
3137500000  -4.836230e+001  -1.542058e+002 
3140625000  -4.923282e+001  -1.607077e+002 
3143750000  -5.062575e+001  -1.709653e+002 
3146875000  -5.035423e+001  -1.702010e+002 
3150000000  -4.899216e+001  1.772743e+002 
3153125000  -4.942795e+001  1.681459e+002 
3156250000  -5.056102e+001  1.688225e+002 
3159375000  -4.754628e+001  1.601704e+002 
3162500000  -4.619795e+001  1.377155e+002 
3165625000  -4.754592e+001  1.241294e+002 
3168750000  -4.795153e+001  1.141073e+002 
3171875000  -4.731184e+001  1.027121e+002 
3175000000  -4.756200e+001  9.031039e+001 
3178125000  -4.716275e+001  8.390507e+001 
3181250000  -4.654102e+001  6.763712e+001 
3184375000  -4.631363e+001  5.444029e+001 
3187500000  -4.789412e+001  3.328405e+001 
3190625000  -4.918347e+001  2.068640e+001 
3193750000  -4.977903e+001  2.620967e+001 
3196875000  -4.956232e+001  1.950535e+001 
3200000000  -4.840514e+001  9.390962e+000 
3203125000  -4.814126e+001  -1.314359e+000 
3206250000  -4.840532e+001  -1.649528e+001 
3209375000  -4.790361e+001  -3.124923e+001 
3212500000  -4.837779e+001  -4.228230e+001 
3215625000  -4.822340e+001  -4.433704e+001 
3218750000  -4.919530e+001  -6.104511e+001 
3221875000  -4.961002e+001  -7.817535e+001 
3225000000  -5.007423e+001  -8.245457e+001 
3228125000  -5.018636e+001  -9.131937e+001 
3231250000  -5.179058e+001  -1.021908e+002 
3234375000  -5.003400e+001  -1.114691e+002 
3237500000  -5.043303e+001  -1.159321e+002 
3240625000  -4.977291e+001  -1.298734e+002 
3243750000  -4.979811e+001  -1.428995e+002 
3246875000  -4.973325e+001  -1.517509e+002 
3250000000  -5.157968e+001  -1.659788e+002 
3253125000  -5.184506e+001  -1.690042e+002 
3256250000  -5.025206e+001  1.761420e+002 
3259375000  -5.063537e+001  1.561477e+002 
3262500000  -5.205674e+001  1.516352e+002 
3265625000  -5.336442e+001  1.458776e+002 
3268750000  -5.260351e+001  1.435957e+002 
3271875000  -5.212045e+001  1.357573e+002 
3275000000  -5.181878e+001  1.199159e+002 
3278125000  -5.226379e+001  1.036247e+002 
3281250000  -5.302258e+001  1.030918e+002 
3284375000  -5.285979e+001  9.526862e+001 
3287500000  -5.478815e+001  8.719563e+001 
3290625000  -5.362212e+001  7.260298e+001 
3293750000  -5.338311e+001  5.870792e+001 
3296875000  -5.380226e+001  5.510651e+001 
3300000000  -5.502241e+001  5.349601e+001 
3303125000  -5.252253e+001  3.835083e+001 
3306250000  -5.276693e+001  2.716148e+001 
3309375000  -5.265989e+001  1.376718e+001 
3312500000  -5.263408e+001  -4.330787e+000 
3315625000  -5.495788e+001  -6.803961e+000 
3318750000  -5.582684e+001  -2.520512e+001 
3321875000  -5.589734e+001  -2.275415e+001 
3325000000  -5.570625e+001  -1.160917e+001 
3328125000  -5.648280e+001  -2.610068e+001 
3331250000  -5.381662e+001  -2.734685e+001 
3334375000  -5.198685e+001  -4.889208e+001 
3337500000  -5.252246e+001  -6.663255e+001 
3340625000  -5.377849e+001  -8.153781e+001 
3343750000  -5.630767e+001  -8.542273e+001 
3346875000  -5.539384e+001  -9.584766e+001 
3350000000  -5.469550e+001  -9.483620e+001 
3353125000  -5.401403e+001  -1.184488e+002 
3356250000  -5.453200e+001  -1.306587e+002 
3359375000  -5.531226e+001  -1.401013e+002 
3362500000  -5.698277e+001  -1.486273e+002 
3365625000  -5.539830e+001  -1.583962e+002 
3368750000  -5.666554e+001  -1.756868e+002 
3371875000  -5.716957e+001  -1.796366e+002 
3375000000  -5.868686e+001  1.679298e+002 
3378125000  -5.875273e+001  1.738982e+002 
3381250000  -5.953267e+001  1.791164e+002 
3384375000  -5.601867e+001  -1.772206e+002 
3387500000  -5.627417e+001  1.525683e+002 
3390625000  -5.636599e+001  1.409755e+002 
3393750000  -5.634599e+001  1.258886e+002 
3396875000  -5.802293e+001  1.147976e+002 
3400000000  -5.598879e+001  8.600305e+001 
3403125000  -5.733598e+001  8.546486e+001 
3406250000  -5.739967e+001  7.911128e+001 
3409375000  -5.724561e+001  5.991226e+001 
3412500000  -5.700858e+001  6.264257e+001 
3415625000  -6.011203e+001  4.250430e+001 
3418750000  -5.967150e+001  4.340690e+001 
3421875000  -6.043501e+001  3.207275e+001 
3425000000  -6.005038e+001  2.587078e+001 
3428125000  -6.024948e+001  1.290007e+001 
3431250000  -5.987458e+001  -4.826788e+000 
3434375000  -5.943836e+001  -2.814774e+001 
3437500000  -6.186091e+001  -1.865905e+001 
3440625000  -6.041690e+001  -3.565163e+001 
3443750000  -6.002559e+001  -4.004582e+001 
3446875000  -6.212996e+001  -3.503925e+001 
3450000000  -6.105950e+001  -7.671577e+001 
3453125000  -6.189308e+001  -6.446155e+001 
3456250000  -6.517990e+001  -9.857524e+001 
3459375000  -6.626057e+001  -6.605613e+001 
3462500000  -6.645295e+001  -1.190372e+002 
3465625000  -6.343627e+001  -9.475150e+001 
3468750000  -6.709492e+001  -1.387603e+002 
3471875000  -6.430967e+001  -1.007139e+002 
3475000000  -6.947595e+001  -1.145695e+002 
3478125000  -8.275197e+001  -1.424993e+002 
3481250000  -6.972014e+001  1.663543e+002 
3484375000  -6.805563e+001  -1.164406e+002 
3487500000  -6.734370e+001  -1.252763e+002 
3490625000  -6.460871e+001  -1.379974e+002 
3493750000  -7.440090e+001  -1.329199e+002 
3496875000  -6.780193e+001  -1.455725e+002 
3500000000  -6.782037e+001  -1.561248e+002 
3503125000  -7.016308e+001  -1.528018e+002 
3506250000  -6.673852e+001  -1.522489e+002 
3509375000  -6.658562e+001  -1.754454e+002 
3512500000  -6.516956e+001  1.257747e+002 
3515625000  -6.356973e+001  1.368495e+002 
3518750000  -6.498396e+001  1.524145e+002 
3521875000  -6.756089e+001  1.394910e+002 
3525000000  -6.461227e+001  1.158642e+002 
3528125000  -6.525038e+001  1.393522e+002 
3531250000  -7.153779e+001  9.525307e+001 
3534375000  -6.654932e+001  8.810461e+001 
3537500000  -6.448566e+001  9.910451e+001 
3540625000  -7.104342e+001  7.812114e+001 
3543750000  -7.439454e+001  9.492054e+001 
3546875000  -6.816101e+001  6.345893e+001 
3550000000  -7.022350e+001  9.395650e+001 
3553125000  -7.055746e+001  5.461325e+001 
3556250000  -7.307697e+001  1.023293e+002 
3559375000  -7.164806e+001  -1.130820e+001 
3562500000  -8.043036e+001  3.933502e+001 
3565625000  -7.507548e+001  6.039684e+001 
3568750000  -7.484283e+001  1.304953e+001 
3571875000  -9.286098e+001  -1.609225e+002 
3575000000  -7.656438e+001  9.693844e+000 
3578125000  -6.840322e+001  1.830703e+001 
3581250000  -8.048128e+001  -1.249920e+001 
3584375000  -7.671790e+001  2.587457e+001 
3587500000  -7.638149e+001  7.407255e+001 
3590625000  -6.918673e+001  -4.024383e-001 
3593750000  -6.871990e+001  -1.267876e+001 
3596875000  -6.811300e+001  7.233974e+000 
3600000000  -7.466759e+001  7.434748e+000 
3603125000  -7.187431e+001  1.300082e+001 
3606250000  -6.799554e+001  -4.510768e+001 
3609375000  -6.716578e+001  -6.053575e+001 
3612500000  -6.532340e+001  -6.436767e+001 
3615625000  -6.496409e+001  -4.432263e+001 
3618750000  -6.549925e+001  -5.249429e+001 
3621875000  -6.310358e+001  -8.251605e+001 
3625000000  -6.597204e+001  -5.767585e+001 
3628125000  -6.709003e+001  -1.083731e+002 
3631250000  -6.178512e+001  -1.054604e+002 
3634375000  -6.330610e+001  -1.177131e+002 
3637500000  -6.319386e+001  -1.217036e+002 
3640625000  -6.077192e+001  -1.241913e+002 
3643750000  -6.324702e+001  -1.405103e+002 
3646875000  -6.077738e+001  -1.717184e+002 
3650000000  -6.132001e+001  -1.563456e+002 
3653125000  -6.378593e+001  -1.697312e+002 
3656250000  -6.414606e+001  1.629969e+002 
3659375000  -6.405418e+001  1.635597e+002 
3662500000  -6.183966e+001  1.327155e+002 
3665625000  -6.770950e+001  1.487523e+002 
3668750000  -6.224840e+001  1.378617e+002 
3671875000  -6.479267e+001  1.311012e+002 
3675000000  -6.211447e+001  1.103829e+002 
3678125000  -6.472385e+001  1.233280e+002 
3681250000  -6.347107e+001  9.045057e+001 
3684375000  -7.313539e+001  9.357794e+001 
3687500000  -6.365143e+001  8.326460e+001 
3690625000  -7.247890e+001  1.004938e+002 
3693750000  -7.074714e+001  9.964503e+001 
3696875000  -6.892603e+001  7.848312e+001 
3700000000  -6.216286e+001  8.478705e+001 
3703125000  -6.423087e+001  5.389276e+001 
3706250000  -6.702813e+001  4.056339e+001 
3709375000  -6.446740e+001  5.016769e+001 
3712500000  -6.316571e+001  7.133530e+001 
3715625000  -6.234126e+001  3.325299e+001 
3718750000  -6.033087e+001  3.533210e+001 
3721875000  -6.148326e+001  2.201365e+001 
3725000000  -6.217675e+001  -3.512375e+000 
3728125000  -5.782090e+001  1.624697e+001 
3731250000  -6.068465e+001  -1.771463e+001 
3734375000  -5.975073e+001  -1.375268e+001 
3737500000  -5.916919e+001  -2.833223e+001 
3740625000  -5.894702e+001  -4.439071e+001 
3743750000  -6.087109e+001  -7.812159e+001 
3746875000  -5.975169e+001  -6.800370e+001 
3750000000  -5.774038e+001  -7.162437e+001 
3753125000  -5.896526e+001  -7.727114e+001 
3756250000  -5.730633e+001  -9.295777e+001 
3759375000  -5.997023e+001  -1.061862e+002 
3762500000  -5.861298e+001  -1.205772e+002 
3765625000  -5.820415e+001  -1.111471e+002 
3768750000  -5.731337e+001  -1.306769e+002 
3771875000  -5.546826e+001  -1.434370e+002 
3775000000  -5.696668e+001  -1.515074e+002 
3778125000  -5.578867e+001  -1.755376e+002 
3781250000  -5.757878e+001  1.713390e+002 
3784375000  -5.833528e+001  1.756569e+002 
3787500000  -5.699154e+001  1.481297e+002 
3790625000  -5.963780e+001  1.394778e+002 
3793750000  -5.630169e+001  1.414955e+002 
3796875000  -5.688749e+001  1.323403e+002 
3800000000  -5.330371e+001  8.516130e+001 
3803125000  -5.730949e+001  9.787653e+001 
3806250000  -5.896540e+001  6.888267e+001 
3809375000  -5.923495e+001  7.634527e+001 
3812500000  -5.818992e+001  5.688124e+001 
3815625000  -6.042337e+001  3.594422e+001 
3818750000  -6.091631e+001  3.126028e+001 
3821875000  -6.284634e+001  8.292521e+001 
3825000000  -6.184948e+001  6.327173e+001 
3828125000  -5.914245e+001  2.580127e+001 
3831250000  -6.066003e+001  1.168741e+001 
3834375000  -6.327174e+001  -8.266240e-002 
3837500000  -6.278605e+001  2.641731e+001 
3840625000  -6.249693e+001  -9.612570e+000 
3843750000  -6.194410e+001  5.711033e+000 
3846875000  -6.517297e+001  -1.917929e+001 
3850000000  -6.242442e+001  2.865778e+000 
3853125000  -6.380688e+001  -3.125898e+000 
3856250000  -5.920570e+001  -2.103648e-001 
3859375000  -5.873593e+001  -2.972584e+001 
3862500000  -6.132453e+001  -3.458452e+001 
3865625000  -6.104551e+001  -4.591626e+001 
3868750000  -5.963348e+001  -4.499067e+001 
3871875000  -5.609528e+001  -5.715830e+001 
3875000000  -6.102425e+001  -6.167764e+001 
3878125000  -5.846701e+001  -7.670093e+001 
3881250000  -5.940808e+001  -8.033999e+001 
3884375000  -5.666542e+001  -9.677810e+001 
3887500000  -5.644563e+001  -1.142972e+002 
3890625000  -5.657848e+001  -1.106947e+002 
3893750000  -5.648899e+001  -1.263375e+002 
3896875000  -5.724096e+001  -1.247167e+002 
3900000000  -5.552343e+001  -1.421320e+002 
3903125000  -5.587315e+001  -1.429211e+002 
3906250000  -5.512395e+001  -1.662254e+002 
3909375000  -5.463365e+001  -1.725054e+002 
3912500000  -5.344180e+001  1.667372e+002 
3915625000  -5.579641e+001  1.671968e+002 
3918750000  -5.445017e+001  1.528720e+002 
3921875000  -5.517783e+001  1.370346e+002 
3925000000  -5.256377e+001  1.255034e+002 
3928125000  -5.371592e+001  1.045008e+002 
3931250000  -5.588040e+001  1.145760e+002 
3934375000  -5.455232e+001  9.440920e+001 
3937500000  -5.551861e+001  8.228183e+001 
3940625000  -5.394959e+001  7.042651e+001 
3943750000  -5.343793e+001  7.242623e+001 
3946875000  -5.453372e+001  5.660576e+001 
3950000000  -5.383393e+001  4.390492e+001 
3953125000  -5.447572e+001  4.324664e+001 
3956250000  -5.400949e+001  2.910276e+001 
3959375000  -5.119377e+001  1.642935e+001 
3962500000  -5.248401e+001  -9.163082e-001 
3965625000  -5.447269e+001  -2.272858e+001 
3968750000  -5.309287e+001  -4.203957e+001 
3971875000  -5.312489e+001  -3.738578e+001 
3975000000  -5.406553e+001  -4.739194e+001 
3978125000  -5.499597e+001  -5.707169e+001 
3981250000  -5.487955e+001  -7.615748e+001 
3984375000  -5.669521e+001  -8.224262e+001 
3987500000  -5.550054e+001  -9.555992e+001 
3990625000  -5.745165e+001  -8.953302e+001 
3993750000  -5.670299e+001  -1.238156e+002 
3996875000  -5.819923e+001  -1.171999e+002 
4000000000  -5.997104e+001  -1.265094e+002 
4003125000  -6.098119e+001  -1.137959e+002 
4006250000  -5.590303e+001  -1.410679e+002 
4009375000  -5.735929e+001  -1.405238e+002 
4012500000  -6.165351e+001  -1.651702e+002 
4015625000  -6.127404e+001  -1.510742e+002 
4018750000  -5.716930e+001  -1.670256e+002 
4021875000  -6.035009e+001  -1.614731e+002 
4025000000  -6.222649e+001  -1.798307e+002 
4028125000  -6.094178e+001  1.760125e+002 
4031250000  -6.020219e+001  1.657655e+002 
4034375000  -6.110322e+001  1.742776e+002 
4037500000  -5.989599e+001  1.541259e+002 
4040625000  -6.148355e+001  1.486494e+002 
4043750000  -6.112025e+001  1.636362e+002 
4046875000  -5.730492e+001  1.362384e+002 
4050000000  -5.636787e+001  1.286070e+002 
4053125000  -5.781346e+001  1.237258e+002 
4056250000  -5.712829e+001  1.173125e+002 
4059375000  -5.606674e+001  1.052315e+002 
4062500000  -5.488510e+001  9.582382e+001 
4065625000  -5.471318e+001  7.987646e+001 
4068750000  -5.366386e+001  7.368709e+001 
4071875000  -5.297750e+001  5.691191e+001 
4075000000  -5.442205e+001  5.274602e+001 
4078125000  -5.410412e+001  4.557875e+001 
4081250000  -5.360458e+001  2.883277e+001 
4084375000  -5.265261e+001  7.793929e+000 
4087500000  -5.480894e+001  -5.463792e+000 
4090625000  -5.319810e+001  -3.915266e+000 
4093750000  -5.312551e+001  -1.699422e+001 
4096875000  -5.315471e+001  -2.785352e+001 
4100000000  -5.430603e+001  -4.375847e+001 
4103125000  -5.438343e+001  -4.491201e+001 
4106250000  -5.397100e+001  -5.734212e+001 
4109375000  -5.342991e+001  -5.716853e+001 
4112500000  -5.299604e+001  -7.907262e+001 
4115625000  -5.341826e+001  -9.143903e+001 
4118750000  -5.281820e+001  -9.845373e+001 
4121875000  -5.325173e+001  -1.230998e+002 
4125000000  -5.507629e+001  -1.229419e+002 
4128125000  -5.470052e+001  -1.318177e+002 
4131250000  -5.400691e+001  -1.294373e+002 
4134375000  -5.221812e+001  -1.568900e+002 
4137500000  -5.252227e+001  -1.664376e+002 
4140625000  -5.531762e+001  1.666354e+002 
4143750000  -5.732161e+001  1.777935e+002 
4146875000  -5.448333e+001  1.733560e+002 
4150000000  -5.345067e+001  1.515778e+002 
4153125000  -5.420335e+001  1.346479e+002 
4156250000  -5.456704e+001  1.295602e+002 
4159375000  -5.519342e+001  1.288207e+002 
4162500000  -5.605097e+001  1.251213e+002 
4165625000  -5.620230e+001  1.210321e+002 
4168750000  -5.487286e+001  7.367120e+001 
4171875000  -5.378095e+001  8.396568e+001 
4175000000  -5.691544e+001  5.877870e+001 
4178125000  -5.822414e+001  7.842311e+001 
4181250000  -5.805776e+001  4.449669e+001 
4184375000  -6.113966e+001  3.374378e+001 
4187500000  -5.978624e+001  3.150785e+001 
4190625000  -6.146099e+001  2.539102e+001 
4193750000  -5.981321e+001  1.555029e+001 
4196875000  -6.169204e+001  -1.341774e+000 
4200000000  -6.385370e+001  2.694605e+001 
4203125000  -6.472638e+001  3.262737e+001 
4206250000  -5.793981e+001  3.140537e+001 
4209375000  -6.070602e+001  1.772487e+001 
4212500000  -6.462737e+001  1.072094e+001 
4215625000  -6.245125e+001  4.578959e+000 
4218750000  -6.234095e+001  2.173974e+001 
4221875000  -6.430996e+001  -2.591508e+001 
4225000000  -5.978535e+001  2.720913e+000 
4228125000  -5.905113e+001  -1.815795e+001 
4231250000  -6.007032e+001  -2.233567e+001 
4234375000  -5.771367e+001  -2.054653e+001 
4237500000  -5.661626e+001  -4.592692e+001 
4240625000  -5.472392e+001  -5.467916e+001 
4243750000  -5.887837e+001  -6.813480e+001 
4246875000  -5.622720e+001  -6.638632e+001 
4250000000  -5.691340e+001  -7.748022e+001 
4253125000  -5.387817e+001  -8.502200e+001 
4256250000  -5.533220e+001  -1.011722e+002 
4259375000  -5.620492e+001  -1.147717e+002 
4262500000  -5.588958e+001  -1.247725e+002 
4265625000  -5.403270e+001  -1.163667e+002 
4268750000  -5.256754e+001  -1.266993e+002 
4271875000  -5.261623e+001  -1.510674e+002 
4275000000  -5.189359e+001  -1.786209e+002 
4278125000  -5.340636e+001  1.667118e+002 
4281250000  -5.326680e+001  1.687282e+002 
4284375000  -5.388029e+001  1.544755e+002 
4287500000  -5.573386e+001  1.404306e+002 
4290625000  -5.452242e+001  1.511442e+002 
4293750000  -5.157387e+001  1.462419e+002 
4296875000  -5.275917e+001  1.236989e+002 
4300000000  -5.192989e+001  1.039488e+002 
4303125000  -5.218061e+001  9.796046e+001 
4306250000  -5.288953e+001  9.747573e+001 
4309375000  -5.072779e+001  7.831162e+001 
4312500000  -5.221846e+001  6.675433e+001 
4315625000  -5.161438e+001  5.225022e+001 
4318750000  -5.414084e+001  4.685467e+001 
4321875000  -5.265935e+001  3.756324e+001 
4325000000  -5.299977e+001  3.324377e+001 
4328125000  -5.148039e+001  9.858531e+000 
4331250000  -5.249311e+001  -5.692990e+000 
4334375000  -5.486927e+001  -1.164427e+001 
4337500000  -5.557227e+001  -2.550953e+001 
4340625000  -5.680188e+001  -2.011905e+001 
4343750000  -5.659351e+001  -4.182725e+001 
4346875000  -5.549735e+001  -3.871094e+001 
4350000000  -5.411647e+001  -6.311404e+001 
4353125000  -5.645029e+001  -7.492543e+001 
4356250000  -5.882048e+001  -6.759184e+001 
4359375000  -6.134313e+001  -5.740696e+001 
4362500000  -5.359946e+001  -8.055198e+001 
4365625000  -5.532759e+001  -9.802467e+001 
4368750000  -5.501865e+001  -1.011342e+002 
4371875000  -5.561400e+001  -9.712862e+001 
4375000000  -5.818932e+001  -1.146685e+002 
4378125000  -5.790433e+001  -1.270892e+002 
4381250000  -5.645513e+001  -1.233793e+002 
4384375000  -5.489457e+001  -1.341513e+002 
4387500000  -5.725106e+001  -1.403988e+002 
4390625000  -5.753564e+001  -1.519600e+002 
4393750000  -5.806206e+001  -1.408348e+002 
4396875000  -5.799290e+001  -1.574075e+002 
4400000000  -5.698783e+001  -1.657353e+002 
4403125000  -5.553881e+001  -1.767092e+002 
4406250000  -5.705396e+001  -1.790110e+002 
4409375000  -5.586848e+001  1.763942e+002 
4412500000  -5.997059e+001  1.625943e+002 
4415625000  -5.515540e+001  1.753130e+002 
