!Agilent Technologies,E8363B,MY43030201,A.06.04.32
!Agilent E8363B: A.06.04.32
!Date: Tuesday, November 11, 2014 22:14:37
!Correction: S21(Response(S21)) 
!S1P File: Measurement: S21:
# Hz S  dB   R 50
3000000000  -4.901805e+001  -7.431842e+001 
3003125000  -5.136631e+001  -8.021000e+001 
3006250000  -5.162956e+001  -8.636593e+001 
3009375000  -5.233092e+001  -8.133300e+001 
3012500000  -5.130874e+001  -9.588585e+001 
3015625000  -5.114684e+001  -1.089615e+002 
3018750000  -5.159542e+001  -1.144195e+002 
3021875000  -4.914020e+001  -1.160486e+002 
3025000000  -4.892875e+001  -1.296569e+002 
3028125000  -4.831735e+001  -1.417404e+002 
3031250000  -4.712180e+001  -1.631149e+002 
3034375000  -4.739520e+001  1.794808e+002 
3037500000  -4.779266e+001  1.675069e+002 
3040625000  -4.903285e+001  1.549722e+002 
3043750000  -4.978184e+001  1.433420e+002 
3046875000  -5.029719e+001  1.317315e+002 
3050000000  -5.193640e+001  1.239154e+002 
3053125000  -5.121714e+001  1.236316e+002 
3056250000  -5.123783e+001  1.236422e+002 
3059375000  -5.093090e+001  1.086126e+002 
3062500000  -4.958646e+001  9.831158e+001 
3065625000  -4.914429e+001  8.810056e+001 
3068750000  -4.873779e+001  7.663567e+001 
3071875000  -4.903809e+001  6.924666e+001 
3075000000  -4.869326e+001  5.596351e+001 
3078125000  -4.875743e+001  4.589144e+001 
3081250000  -4.879258e+001  3.687833e+001 
3084375000  -4.826212e+001  2.296919e+001 
3087500000  -4.804987e+001  1.371974e+001 
3090625000  -4.754300e+001  -2.582391e+000 
3093750000  -4.878522e+001  -1.565994e+001 
3096875000  -4.958578e+001  -2.438284e+001 
3100000000  -4.909997e+001  -3.171486e+001 
3103125000  -4.949876e+001  -4.015628e+001 
3106250000  -4.944489e+001  -4.751932e+001 
3109375000  -4.924368e+001  -5.841034e+001 
3112500000  -4.938602e+001  -6.930647e+001 
3115625000  -4.941583e+001  -7.877507e+001 
3118750000  -4.978863e+001  -8.352320e+001 
3121875000  -4.929190e+001  -1.018841e+002 
3125000000  -5.132194e+001  -1.094469e+002 
3128125000  -5.076842e+001  -1.028962e+002 
3131250000  -4.834838e+001  -1.169953e+002 
3134375000  -4.781437e+001  -1.383400e+002 
3137500000  -4.858286e+001  -1.499760e+002 
3140625000  -4.996903e+001  -1.561857e+002 
3143750000  -5.033034e+001  -1.684830e+002 
3146875000  -4.960789e+001  -1.731215e+002 
3150000000  -4.925762e+001  1.779615e+002 
3153125000  -4.916431e+001  1.650084e+002 
3156250000  -5.069090e+001  1.647287e+002 
3159375000  -4.850022e+001  1.572328e+002 
3162500000  -4.593523e+001  1.370902e+002 
3165625000  -4.750895e+001  1.235738e+002 
3168750000  -4.831207e+001  1.170330e+002 
3171875000  -4.717990e+001  1.036840e+002 
3175000000  -4.783691e+001  8.656440e+001 
3178125000  -4.728248e+001  8.221063e+001 
3181250000  -4.673214e+001  6.712678e+001 
3184375000  -4.655062e+001  4.993147e+001 
3187500000  -4.790083e+001  3.665086e+001 
3190625000  -4.895943e+001  2.253839e+001 
3193750000  -4.988673e+001  2.518123e+001 
3196875000  -5.010122e+001  1.791066e+001 
3200000000  -4.819542e+001  6.938351e+000 
3203125000  -4.850591e+001  -2.646275e+000 
3206250000  -4.835293e+001  -1.751696e+001 
3209375000  -4.764946e+001  -2.906408e+001 
3212500000  -4.883162e+001  -3.952111e+001 
3215625000  -4.825574e+001  -4.617241e+001 
3218750000  -4.935616e+001  -6.420116e+001 
3221875000  -4.891151e+001  -7.629718e+001 
3225000000  -4.959885e+001  -8.527975e+001 
3228125000  -5.037463e+001  -9.092333e+001 
3231250000  -5.065362e+001  -1.001332e+002 
3234375000  -5.029633e+001  -1.072051e+002 
3237500000  -5.049741e+001  -1.165319e+002 
3240625000  -4.997320e+001  -1.253172e+002 
3243750000  -4.968518e+001  -1.439920e+002 
3246875000  -5.029832e+001  -1.562725e+002 
3250000000  -5.117140e+001  -1.667586e+002 
3253125000  -5.158239e+001  -1.687309e+002 
3256250000  -5.014818e+001  1.708956e+002 
3259375000  -5.138024e+001  1.586915e+002 
3262500000  -5.324177e+001  1.494330e+002 
3265625000  -5.351818e+001  1.429507e+002 
3268750000  -5.372984e+001  1.436719e+002 
3271875000  -5.240259e+001  1.334343e+002 
3275000000  -5.188127e+001  1.221332e+002 
3278125000  -5.225475e+001  1.091128e+002 
3281250000  -5.352569e+001  1.077384e+002 
3284375000  -5.209876e+001  9.858031e+001 
3287500000  -5.392633e+001  9.132751e+001 
3290625000  -5.287886e+001  7.341257e+001 
3293750000  -5.302159e+001  6.206598e+001 
3296875000  -5.402257e+001  5.394403e+001 
3300000000  -5.403348e+001  5.145432e+001 
3303125000  -5.255543e+001  4.300780e+001 
3306250000  -5.232711e+001  2.738145e+001 
3309375000  -5.308157e+001  1.639116e+001 
3312500000  -5.293148e+001  -7.239857e-001 
3315625000  -5.499380e+001  -1.532252e+001 
3318750000  -5.557231e+001  -2.744758e+001 
3321875000  -5.920546e+001  -1.831305e+001 
3325000000  -5.658297e+001  -2.080998e+001 
3328125000  -5.616864e+001  -2.680663e+001 
3331250000  -5.270114e+001  -3.122620e+001 
3334375000  -5.224183e+001  -4.834807e+001 
3337500000  -5.280919e+001  -6.321469e+001 
3340625000  -5.455532e+001  -8.432215e+001 
3343750000  -5.585617e+001  -8.966837e+001 
3346875000  -5.569111e+001  -9.621400e+001 
3350000000  -5.525503e+001  -1.013872e+002 
3353125000  -5.418269e+001  -1.081589e+002 
3356250000  -5.537134e+001  -1.283759e+002 
3359375000  -5.504538e+001  -1.428244e+002 
3362500000  -5.669361e+001  -1.434227e+002 
3365625000  -5.577718e+001  -1.548320e+002 
3368750000  -5.640626e+001  -1.795292e+002 
3371875000  -5.740995e+001  1.788396e+002 
3375000000  -5.745626e+001  1.665135e+002 
3378125000  -5.936494e+001  1.652826e+002 
3381250000  -5.740326e+001  1.690704e+002 
3384375000  -5.826788e+001  -1.735254e+002 
3387500000  -5.274014e+001  1.496150e+002 
3390625000  -5.698005e+001  1.313495e+002 
3393750000  -5.662555e+001  1.211909e+002 
3396875000  -5.673822e+001  1.074435e+002 
3400000000  -5.634162e+001  1.013933e+002 
3403125000  -5.667285e+001  8.008479e+001 
3406250000  -5.732116e+001  7.177596e+001 
3409375000  -5.761715e+001  5.624062e+001 
3412500000  -5.786464e+001  5.549756e+001 
3415625000  -6.113463e+001  4.914417e+001 
3418750000  -6.191211e+001  3.099734e+001 
3421875000  -5.925430e+001  1.580271e+001 
3425000000  -5.900686e+001  2.222057e+001 
3428125000  -5.977994e+001  1.011667e+001 
3431250000  -6.086779e+001  9.044588e-001 
3434375000  -5.908165e+001  -2.130923e+001 
3437500000  -6.123568e+001  -1.062539e+001 
3440625000  -6.374166e+001  -1.846549e+001 
3443750000  -6.291276e+001  -3.870737e+001 
3446875000  -5.935542e+001  -5.360555e+001 
3450000000  -6.411961e+001  -7.736385e+001 
3453125000  -6.229513e+001  -7.571708e+001 
3456250000  -6.504250e+001  -8.837086e+001 
3459375000  -6.263200e+001  -7.732494e+001 
3462500000  -6.547500e+001  -9.302022e+001 
3465625000  -6.808538e+001  -1.242539e+002 
3468750000  -6.392094e+001  -1.210598e+002 
3471875000  -6.489619e+001  -1.037105e+002 
3475000000  -6.371954e+001  -1.185501e+002 
3478125000  -6.997864e+001  -1.109235e+002 
3481250000  -6.793279e+001  -1.386497e+002 
3484375000  -6.495780e+001  -1.459310e+002 
3487500000  -6.503067e+001  -1.424437e+002 
3490625000  -7.057728e+001  -1.475005e+002 
3493750000  -6.727780e+001  -1.364470e+002 
3496875000  -7.263397e+001  -1.437150e+002 
3500000000  -6.748191e+001  -1.350658e+002 
3503125000  -6.754549e+001  -1.572550e+002 
3506250000  -6.677509e+001  -1.724104e+002 
3509375000  -6.611557e+001  -1.792941e+002 
3512500000  -6.638494e+001  1.702125e+002 
3515625000  -6.851638e+001  1.478820e+002 
3518750000  -6.772900e+001  1.503805e+002 
3521875000  -7.015770e+001  1.271381e+002 
3525000000  -6.943265e+001  1.259525e+002 
3528125000  -7.084647e+001  1.240342e+002 
3531250000  -6.448550e+001  1.266413e+002 
3534375000  -6.841955e+001  1.074885e+002 
3537500000  -6.737597e+001  8.832136e+001 
3540625000  -7.310262e+001  8.189423e+001 
3543750000  -7.190417e+001  1.234600e+002 
3546875000  -6.898934e+001  4.699508e+001 
3550000000  -6.956004e+001  9.889810e+001 
3553125000  -7.315913e+001  7.614468e+001 
3556250000  -7.170850e+001  6.784130e+001 
3559375000  -7.537321e+001  1.612892e+001 
3562500000  -7.896053e+001  1.193488e+002 
3565625000  -7.030338e+001  5.760723e+001 
3568750000  -7.250125e+001  8.649732e+001 
3571875000  -7.046424e+001  3.186307e+001 
3575000000  -6.616747e+001  5.273835e-002 
3578125000  -6.615977e+001  4.295162e+001 
3581250000  -7.254589e+001  5.710397e+001 
3584375000  -7.320052e+001  9.624532e+001 
3587500000  -6.884543e+001  4.249632e+001 
3590625000  -6.602053e+001  2.104056e+001 
3593750000  -7.356813e+001  -7.364133e+000 
3596875000  -6.501418e+001  3.686560e+001 
3600000000  -7.188416e+001  1.502395e+001 
3603125000  -6.959051e+001  -1.971128e+001 
3606250000  -6.981063e+001  -4.157063e+001 
3609375000  -6.295845e+001  -3.231113e+001 
3612500000  -6.427063e+001  -6.298230e+001 
3615625000  -6.783625e+001  -4.423872e+001 
3618750000  -6.553082e+001  -7.933001e+001 
3621875000  -6.644040e+001  -1.016894e+002 
3625000000  -6.108467e+001  -8.933283e+001 
3628125000  -6.283494e+001  -1.133876e+002 
3631250000  -6.325111e+001  -1.243176e+002 
3634375000  -6.311514e+001  -1.326342e+002 
3637500000  -6.556659e+001  -1.244346e+002 
3640625000  -6.385692e+001  -1.314958e+002 
3643750000  -6.373606e+001  -1.335549e+002 
3646875000  -5.978460e+001  -1.795474e+002 
3650000000  -6.177937e+001  -1.697763e+002 
3653125000  -6.435258e+001  1.588728e+002 
3656250000  -6.262888e+001  1.537159e+002 
3659375000  -6.162600e+001  1.631101e+002 
3662500000  -6.394054e+001  1.372315e+002 
3665625000  -6.195068e+001  1.603681e+002 
3668750000  -6.550072e+001  1.379296e+002 
3671875000  -6.368246e+001  1.211973e+002 
3675000000  -6.337452e+001  8.543146e+001 
3678125000  -6.272432e+001  1.212112e+002 
3681250000  -6.183075e+001  1.071777e+002 
3684375000  -6.325910e+001  1.061029e+002 
3687500000  -7.043353e+001  7.757752e+001 
3690625000  -7.438894e+001  6.716162e+001 
3693750000  -7.086761e+001  7.408588e+001 
3696875000  -6.673176e+001  8.353127e+001 
3700000000  -6.265178e+001  7.244720e+001 
3703125000  -6.376006e+001  4.429512e+001 
3706250000  -6.808292e+001  2.097980e+001 
3709375000  -6.288839e+001  5.802173e+001 
3712500000  -6.341244e+001  7.271156e+001 
3715625000  -6.265707e+001  4.222911e+001 
3718750000  -6.348830e+001  4.087990e+001 
3721875000  -6.286267e+001  2.516365e+000 
3725000000  -6.006946e+001  7.121217e+000 
3728125000  -6.043419e+001  1.138094e+001 
3731250000  -5.836549e+001  -1.430520e+001 
3734375000  -5.804723e+001  -1.613202e+001 
3737500000  -5.813484e+001  -3.824858e+001 
3740625000  -5.794929e+001  -3.162551e+001 
3743750000  -5.904421e+001  -6.948307e+001 
3746875000  -5.852106e+001  -6.066456e+001 
3750000000  -5.903530e+001  -9.370166e+001 
3753125000  -6.005890e+001  -7.329863e+001 
3756250000  -5.883683e+001  -1.011848e+002 
3759375000  -5.982131e+001  -1.021968e+002 
3762500000  -5.662861e+001  -1.164936e+002 
3765625000  -5.761132e+001  -1.179240e+002 
3768750000  -5.713324e+001  -1.316977e+002 
3771875000  -5.428998e+001  -1.501041e+002 
3775000000  -5.477969e+001  -1.627325e+002 
3778125000  -5.837549e+001  -1.788527e+002 
3781250000  -5.705792e+001  1.762200e+002 
3784375000  -5.782802e+001  1.749477e+002 
3787500000  -5.698719e+001  1.452014e+002 
3790625000  -5.833911e+001  1.418632e+002 
3793750000  -5.885979e+001  1.396370e+002 
3796875000  -5.811170e+001  1.265240e+002 
3800000000  -5.352612e+001  8.455307e+001 
3803125000  -5.881331e+001  1.010358e+002 
3806250000  -5.870996e+001  7.772509e+001 
3809375000  -5.829837e+001  8.390911e+001 
3812500000  -5.662264e+001  5.738105e+001 
3815625000  -6.068653e+001  3.982969e+001 
3818750000  -6.001106e+001  2.464574e+001 
3821875000  -6.280555e+001  6.451379e+001 
3825000000  -5.909001e+001  4.161690e+001 
3828125000  -5.868036e+001  3.028522e+001 
3831250000  -5.949113e+001  1.957688e+001 
3834375000  -6.365240e+001  9.963954e+000 
3837500000  -6.350738e+001  9.896257e+000 
3840625000  -6.336465e+001  1.600676e+001 
3843750000  -5.941520e+001  -7.455948e+000 
3846875000  -6.059933e+001  -2.821437e+001 
3850000000  -6.524101e+001  -1.177540e+001 
3853125000  -6.406706e+001  1.045209e+001 
3856250000  -6.084395e+001  1.469258e+001 
3859375000  -5.945842e+001  -2.912804e+001 
3862500000  -6.173069e+001  -4.516877e+001 
3865625000  -6.025719e+001  -4.829240e+001 
3868750000  -6.063225e+001  -4.375839e+001 
3871875000  -5.638257e+001  -5.991746e+001 
3875000000  -5.978769e+001  -8.728494e+001 
3878125000  -5.631970e+001  -9.387193e+001 
3881250000  -5.688264e+001  -8.603989e+001 
3884375000  -5.569541e+001  -9.068021e+001 
3887500000  -5.603047e+001  -1.140450e+002 
3890625000  -5.830547e+001  -1.113480e+002 
3893750000  -5.783408e+001  -1.234486e+002 
3896875000  -5.767620e+001  -1.311791e+002 
3900000000  -5.605122e+001  -1.480015e+002 
3903125000  -5.504057e+001  -1.508186e+002 
3906250000  -5.416374e+001  -1.674513e+002 
3909375000  -5.509089e+001  -1.729308e+002 
3912500000  -5.479016e+001  1.702651e+002 
3915625000  -5.570501e+001  1.538176e+002 
3918750000  -5.574617e+001  1.581281e+002 
3921875000  -5.350233e+001  1.281548e+002 
3925000000  -5.343879e+001  1.303445e+002 
3928125000  -5.347602e+001  1.086131e+002 
3931250000  -5.445692e+001  1.100792e+002 
3934375000  -5.372750e+001  9.039597e+001 
3937500000  -5.612381e+001  8.399398e+001 
3940625000  -5.509571e+001  7.640853e+001 
3943750000  -5.382420e+001  6.805731e+001 
3946875000  -5.372777e+001  5.375067e+001 
3950000000  -5.415037e+001  4.088316e+001 
3953125000  -5.392645e+001  3.884457e+001 
3956250000  -5.570877e+001  2.130179e+001 
3959375000  -5.179404e+001  1.168045e+001 
3962500000  -5.251770e+001  -8.413179e+000 
3965625000  -5.346740e+001  -2.048227e+001 
3968750000  -5.380141e+001  -3.003751e+001 
3971875000  -5.385577e+001  -4.009693e+001 
3975000000  -5.343507e+001  -5.055417e+001 
3978125000  -5.427452e+001  -6.360203e+001 
3981250000  -5.478419e+001  -7.076473e+001 
3984375000  -5.569761e+001  -8.723225e+001 
3987500000  -5.527010e+001  -8.787116e+001 
3990625000  -5.541116e+001  -9.672845e+001 
3993750000  -5.682769e+001  -1.244467e+002 
3996875000  -5.867149e+001  -1.071501e+002 
4000000000  -6.052139e+001  -1.357454e+002 
4003125000  -5.973081e+001  -1.334184e+002 
4006250000  -5.653572e+001  -1.425818e+002 
4009375000  -5.756369e+001  -1.549989e+002 
4012500000  -5.912326e+001  -1.520911e+002 
4015625000  -6.238998e+001  -1.702785e+002 
4018750000  -5.751794e+001  -1.605387e+002 
4021875000  -5.900345e+001  -1.682288e+002 
4025000000  -5.819246e+001  1.733345e+002 
4028125000  -5.891711e+001  -1.728882e+002 
4031250000  -5.873867e+001  1.701523e+002 
4034375000  -5.939271e+001  1.704860e+002 
4037500000  -5.973466e+001  1.513400e+002 
4040625000  -5.685915e+001  1.512938e+002 
4043750000  -5.934257e+001  1.386971e+002 
4046875000  -5.790750e+001  1.242355e+002 
4050000000  -5.792581e+001  1.157814e+002 
4053125000  -5.845005e+001  9.904246e+001 
4056250000  -5.700784e+001  1.216815e+002 
4059375000  -5.417622e+001  1.156776e+002 
4062500000  -5.506265e+001  9.958868e+001 
4065625000  -5.471649e+001  8.068810e+001 
4068750000  -5.523768e+001  7.862214e+001 
4071875000  -5.221742e+001  7.547291e+001 
4075000000  -5.335119e+001  4.685218e+001 
4078125000  -5.525604e+001  4.018539e+001 
4081250000  -5.216871e+001  3.280345e+001 
4084375000  -5.262320e+001  1.176881e+001 
4087500000  -5.377788e+001  -4.854636e+000 
4090625000  -5.424316e+001  -8.031839e+000 
4093750000  -5.364052e+001  -2.152351e+001 
4096875000  -5.307533e+001  -3.099067e+001 
4100000000  -5.371637e+001  -5.209800e+001 
4103125000  -5.530424e+001  -4.497630e+001 
4106250000  -5.406597e+001  -4.533918e+001 
4109375000  -5.217452e+001  -6.149522e+001 
4112500000  -5.395107e+001  -8.660118e+001 
4115625000  -5.394876e+001  -8.834959e+001 
4118750000  -5.272725e+001  -9.243664e+001 
4121875000  -5.387285e+001  -1.185291e+002 
4125000000  -5.315260e+001  -1.147729e+002 
4128125000  -5.641337e+001  -1.300160e+002 
4131250000  -5.296117e+001  -1.271947e+002 
4134375000  -5.175140e+001  -1.561861e+002 
4137500000  -5.304136e+001  -1.676172e+002 
4140625000  -5.408768e+001  1.703588e+002 
4143750000  -5.642330e+001  1.702554e+002 
4146875000  -5.423244e+001  1.733158e+002 
4150000000  -5.349635e+001  1.574796e+002 
4153125000  -5.318061e+001  1.387373e+002 
4156250000  -5.635417e+001  1.248321e+002 
4159375000  -5.576703e+001  1.271636e+002 
4162500000  -5.588735e+001  1.255167e+002 
4165625000  -5.339199e+001  1.121146e+002 
4168750000  -5.282018e+001  9.263520e+001 
4171875000  -5.544540e+001  7.101308e+001 
4175000000  -5.615962e+001  6.040623e+001 
4178125000  -5.844455e+001  7.303852e+001 
4181250000  -5.916338e+001  4.961194e+001 
4184375000  -6.014085e+001  4.967930e+001 
4187500000  -6.080928e+001  3.364508e+001 
4190625000  -6.126027e+001  1.657350e+001 
4193750000  -6.042775e+001  3.132799e+000 
4196875000  -6.262224e+001  -5.603774e+000 
4200000000  -6.427850e+001  2.415466e+001 
4203125000  -6.447488e+001  2.991606e+001 
4206250000  -6.045895e+001  2.033296e+001 
4209375000  -6.425135e+001  -7.771626e-001 
4212500000  -6.260302e+001  2.999197e+001 
4215625000  -6.250019e+001  -1.459049e+001 
4218750000  -6.514361e+001  3.006081e+001 
4221875000  -5.856156e+001  -9.795127e+000 
4225000000  -6.099825e+001  -2.155126e+001 
4228125000  -5.733377e+001  -3.195566e+001 
4231250000  -5.875069e+001  -3.035571e+001 
4234375000  -5.823962e+001  -3.458200e+001 
4237500000  -5.889808e+001  -2.786201e+001 
4240625000  -5.407106e+001  -6.829526e+001 
4243750000  -5.918172e+001  -8.093137e+001 
4246875000  -5.739293e+001  -7.890572e+001 
4250000000  -5.756791e+001  -8.019719e+001 
4253125000  -5.426564e+001  -7.787406e+001 
4256250000  -5.689907e+001  -1.036781e+002 
4259375000  -5.516368e+001  -1.183353e+002 
4262500000  -5.437489e+001  -1.234152e+002 
4265625000  -5.435430e+001  -1.263141e+002 
4268750000  -5.136219e+001  -1.413023e+002 
4271875000  -5.308739e+001  -1.508969e+002 
4275000000  -5.109508e+001  -1.700252e+002 
4278125000  -5.374904e+001  1.619532e+002 
4281250000  -5.434045e+001  1.678467e+002 
4284375000  -5.515746e+001  1.533242e+002 
4287500000  -5.366947e+001  1.464378e+002 
4290625000  -5.525028e+001  1.495110e+002 
4293750000  -5.171735e+001  1.542929e+002 
4296875000  -5.292994e+001  1.281615e+002 
4300000000  -5.293532e+001  1.112588e+002 
4303125000  -5.378804e+001  9.311376e+001 
4306250000  -5.252260e+001  9.824014e+001 
4309375000  -5.136757e+001  7.831235e+001 
4312500000  -5.221436e+001  7.589180e+001 
4315625000  -5.154264e+001  5.188001e+001 
4318750000  -5.385259e+001  4.909784e+001 
4321875000  -5.374488e+001  3.247821e+001 
4325000000  -5.355987e+001  2.312889e+001 
4328125000  -5.159271e+001  1.500523e+001 
4331250000  -5.203400e+001  -7.213285e+000 
4334375000  -5.384669e+001  -1.119949e+001 
4337500000  -5.497799e+001  -3.045989e+001 
4340625000  -5.631224e+001  -1.646452e+001 
4343750000  -5.680913e+001  -3.952793e+001 
4346875000  -5.554530e+001  -5.625400e+001 
4350000000  -5.392558e+001  -6.828565e+001 
4353125000  -5.787200e+001  -5.884924e+001 
4356250000  -5.788998e+001  -7.519756e+001 
4359375000  -5.707244e+001  -5.897028e+001 
4362500000  -5.367433e+001  -7.512649e+001 
4365625000  -5.399397e+001  -9.174482e+001 
4368750000  -5.695101e+001  -1.007662e+002 
4371875000  -6.002314e+001  -9.499185e+001 
4375000000  -5.722833e+001  -1.246965e+002 
4378125000  -5.730376e+001  -1.279353e+002 
4381250000  -5.683608e+001  -1.445496e+002 
4384375000  -5.647362e+001  -1.369257e+002 
4387500000  -5.736051e+001  -1.479592e+002 
4390625000  -5.930454e+001  -1.465128e+002 
4393750000  -5.735180e+001  -1.420108e+002 
4396875000  -5.547958e+001  -1.538214e+002 
4400000000  -5.534344e+001  -1.685275e+002 
4403125000  -5.536232e+001  1.705047e+002 
4406250000  -5.770375e+001  -1.767706e+002 
4409375000  -5.677577e+001  1.713232e+002 
4412500000  -5.851147e+001  1.522797e+002 
4415625000  -5.587415e+001  1.647937e+002 
4418750000  -5.555548e+001  1.520720e+002 
