!Agilent Technologies,E8363B,MY43030201,A.06.04.32
!Agilent E8363B: A.06.04.32
!Date: Tuesday, November 11, 2014 22:15:03
!Correction: S21(Response(S21)) 
!S1P File: Measurement: S21:
# Hz S  dB   R 50
3000000000  -4.896832e+001  -7.428197e+001 
3003125000  -5.165318e+001  -8.141539e+001 
3006250000  -5.185524e+001  -8.344994e+001 
3009375000  -5.181302e+001  -8.914705e+001 
3012500000  -5.160741e+001  -9.812317e+001 
3015625000  -5.120345e+001  -1.054059e+002 
3018750000  -5.153996e+001  -1.105794e+002 
3021875000  -4.996361e+001  -1.160303e+002 
3025000000  -4.881631e+001  -1.279257e+002 
3028125000  -4.825993e+001  -1.427587e+002 
3031250000  -4.692744e+001  -1.595469e+002 
3034375000  -4.707084e+001  1.795959e+002 
3037500000  -4.759716e+001  1.665543e+002 
3040625000  -4.886511e+001  1.548279e+002 
3043750000  -4.955063e+001  1.441838e+002 
3046875000  -5.023944e+001  1.312437e+002 
3050000000  -5.085624e+001  1.244118e+002 
3053125000  -5.134159e+001  1.218818e+002 
3056250000  -5.114162e+001  1.220566e+002 
3059375000  -5.073961e+001  1.102621e+002 
3062500000  -4.976125e+001  1.003386e+002 
3065625000  -4.943444e+001  8.611381e+001 
3068750000  -4.921288e+001  7.643061e+001 
3071875000  -4.962250e+001  6.833237e+001 
3075000000  -4.837083e+001  5.508436e+001 
3078125000  -4.880647e+001  4.548247e+001 
3081250000  -4.896638e+001  3.536075e+001 
3084375000  -4.809731e+001  2.538630e+001 
3087500000  -4.794088e+001  1.331001e+001 
3090625000  -4.819346e+001  -2.216033e+000 
3093750000  -4.864836e+001  -1.548580e+001 
3096875000  -4.910834e+001  -2.592739e+001 
3100000000  -4.913685e+001  -3.362546e+001 
3103125000  -4.935833e+001  -3.945074e+001 
3106250000  -4.923935e+001  -4.882219e+001 
3109375000  -4.925708e+001  -6.038748e+001 
3112500000  -4.991778e+001  -6.756309e+001 
3115625000  -4.906687e+001  -7.880000e+001 
3118750000  -4.947923e+001  -8.583707e+001 
3121875000  -4.937914e+001  -9.989488e+001 
3125000000  -5.044651e+001  -1.044517e+002 
3128125000  -5.046281e+001  -1.045592e+002 
3131250000  -4.822714e+001  -1.164411e+002 
3134375000  -4.806186e+001  -1.398300e+002 
3137500000  -4.862899e+001  -1.510295e+002 
3140625000  -4.971159e+001  -1.636597e+002 
3143750000  -5.044662e+001  -1.697570e+002 
3146875000  -5.017160e+001  -1.683683e+002 
3150000000  -4.949070e+001  1.782457e+002 
3153125000  -4.967890e+001  1.656084e+002 
3156250000  -5.059559e+001  1.683989e+002 
3159375000  -4.823149e+001  1.557296e+002 
3162500000  -4.603755e+001  1.366216e+002 
3165625000  -4.816138e+001  1.204483e+002 
3168750000  -4.760975e+001  1.177985e+002 
3171875000  -4.703182e+001  1.054334e+002 
3175000000  -4.769147e+001  8.794138e+001 
3178125000  -4.722301e+001  8.256987e+001 
3181250000  -4.697479e+001  6.700996e+001 
3184375000  -4.669852e+001  5.318648e+001 
3187500000  -4.777937e+001  3.773063e+001 
3190625000  -4.911742e+001  2.411926e+001 
3193750000  -4.958611e+001  2.046420e+001 
3196875000  -4.887832e+001  1.916223e+001 
3200000000  -4.880479e+001  1.005679e+001 
3203125000  -4.807629e+001  -6.134913e+000 
3206250000  -4.851679e+001  -1.631444e+001 
3209375000  -4.770340e+001  -2.977547e+001 
3212500000  -4.854021e+001  -4.051452e+001 
3215625000  -4.806107e+001  -4.570760e+001 
3218750000  -4.940997e+001  -6.417986e+001 
3221875000  -4.933052e+001  -7.446839e+001 
3225000000  -4.975733e+001  -8.304707e+001 
3228125000  -5.023623e+001  -9.513635e+001 
3231250000  -5.079943e+001  -1.032510e+002 
3234375000  -4.977281e+001  -1.085734e+002 
3237500000  -5.070207e+001  -1.182263e+002 
3240625000  -5.026990e+001  -1.286868e+002 
3243750000  -5.010810e+001  -1.433917e+002 
3246875000  -4.996553e+001  -1.577613e+002 
3250000000  -5.114668e+001  -1.656938e+002 
3253125000  -5.161455e+001  -1.712080e+002 
3256250000  -5.045379e+001  1.774861e+002 
3259375000  -5.178959e+001  1.546331e+002 
3262500000  -5.277153e+001  1.495692e+002 
3265625000  -5.300760e+001  1.469842e+002 
3268750000  -5.343171e+001  1.407691e+002 
3271875000  -5.286969e+001  1.325082e+002 
3275000000  -5.188968e+001  1.253394e+002 
3278125000  -5.219193e+001  1.074379e+002 
3281250000  -5.246280e+001  1.036248e+002 
3284375000  -5.185991e+001  9.789932e+001 
3287500000  -5.430448e+001  8.770463e+001 
3290625000  -5.264851e+001  6.892258e+001 
3293750000  -5.385187e+001  6.475295e+001 
3296875000  -5.387583e+001  6.211672e+001 
3300000000  -5.381630e+001  5.389610e+001 
3303125000  -5.252411e+001  4.246042e+001 
3306250000  -5.347047e+001  2.279822e+001 
3309375000  -5.255584e+001  2.068864e+001 
3312500000  -5.283886e+001  -1.265209e+000 
3315625000  -5.453932e+001  -6.400233e+000 
3318750000  -5.636113e+001  -2.635213e+001 
3321875000  -5.682107e+001  -2.452990e+001 
3325000000  -5.571801e+001  -1.685267e+001 
3328125000  -5.705392e+001  -1.381222e+001 
3331250000  -5.350220e+001  -2.463577e+001 
3334375000  -5.237992e+001  -4.316280e+001 
3337500000  -5.228304e+001  -7.381993e+001 
3340625000  -5.375906e+001  -8.304829e+001 
3343750000  -5.520264e+001  -8.309941e+001 
3346875000  -5.595968e+001  -9.483601e+001 
3350000000  -5.488828e+001  -9.904877e+001 
3353125000  -5.421808e+001  -1.150160e+002 
3356250000  -5.409451e+001  -1.280278e+002 
3359375000  -5.488667e+001  -1.468909e+002 
3362500000  -5.584578e+001  -1.549151e+002 
3365625000  -5.578296e+001  -1.582193e+002 
3368750000  -5.647178e+001  -1.721907e+002 
3371875000  -5.638558e+001  -1.788557e+002 
3375000000  -5.714308e+001  1.602779e+002 
3378125000  -5.856381e+001  1.748059e+002 
3381250000  -6.023463e+001  1.582504e+002 
3384375000  -5.749125e+001  -1.795771e+002 
3387500000  -5.396116e+001  1.519944e+002 
3390625000  -5.706488e+001  1.271088e+002 
3393750000  -5.642941e+001  1.133113e+002 
3396875000  -5.746501e+001  1.117456e+002 
3400000000  -5.574650e+001  1.005523e+002 
3403125000  -5.764509e+001  9.634284e+001 
3406250000  -5.713451e+001  8.542461e+001 
3409375000  -5.750943e+001  5.271228e+001 
3412500000  -5.795514e+001  5.722215e+001 
3415625000  -5.816722e+001  3.386652e+001 
3418750000  -5.946842e+001  3.884138e+001 
3421875000  -5.967672e+001  2.853214e+001 
3425000000  -6.042981e+001  2.798291e+001 
3428125000  -5.961304e+001  1.129544e+000 
3431250000  -6.024768e+001  -1.170385e+001 
3434375000  -5.935303e+001  -2.626946e+001 
3437500000  -6.327493e+001  -1.916097e+001 
3440625000  -6.087968e+001  -2.316478e+001 
3443750000  -6.142384e+001  -3.078936e+001 
3446875000  -5.963534e+001  -4.972029e+001 
3450000000  -6.235037e+001  -7.331024e+001 
3453125000  -6.092329e+001  -7.985529e+001 
3456250000  -6.574676e+001  -9.221937e+001 
3459375000  -6.455167e+001  -6.906066e+001 
3462500000  -6.726752e+001  -9.162051e+001 
3465625000  -6.446561e+001  -9.831181e+001 
3468750000  -6.732298e+001  -9.046289e+001 
3471875000  -6.483400e+001  -1.107564e+002 
3475000000  -6.581126e+001  -1.073105e+002 
3478125000  -7.008920e+001  -1.355689e+002 
3481250000  -7.782880e+001  -1.721615e+002 
3484375000  -6.710837e+001  -1.310094e+002 
3487500000  -6.444414e+001  -1.290027e+002 
3490625000  -6.834032e+001  -1.464440e+002 
3493750000  -7.057973e+001  -1.689524e+002 
3496875000  -6.685658e+001  -1.635100e+002 
3500000000  -6.634688e+001  1.730045e+002 
3503125000  -6.655314e+001  -1.487518e+002 
3506250000  -6.505049e+001  1.783956e+002 
3509375000  -7.037157e+001  1.561474e+002 
3512500000  -6.524144e+001  1.746935e+002 
3515625000  -6.453676e+001  1.613412e+002 
3518750000  -6.616099e+001  1.445074e+002 
3521875000  -6.797584e+001  1.622560e+002 
3525000000  -6.468516e+001  1.149178e+002 
3528125000  -6.742500e+001  1.061174e+002 
3531250000  -6.638027e+001  1.206599e+002 
3534375000  -6.770556e+001  1.332291e+002 
3537500000  -6.409760e+001  9.549644e+001 
3540625000  -7.329432e+001  8.072514e+001 
3543750000  -7.191644e+001  7.319051e+001 
3546875000  -6.997661e+001  3.038248e+001 
3550000000  -6.698682e+001  9.238705e+001 
3553125000  -6.899072e+001  6.068922e+001 
3556250000  -6.895717e+001  7.633442e+001 
3559375000  -6.961568e+001  -5.225740e+000 
3562500000  -7.783036e+001  1.636062e+002 
3565625000  -8.469717e+001  9.802945e+001 
3568750000  -7.662457e+001  1.353700e+002 
3571875000  -6.508963e+001  -3.511759e+000 
3575000000  -6.966925e+001  4.695592e+001 
3578125000  -7.352544e+001  1.010961e+002 
3581250000  -7.552430e+001  4.984091e+001 
3584375000  -7.336304e+001  9.465697e+001 
3587500000  -8.208326e+001  4.070386e+001 
3590625000  -6.661168e+001  2.933947e+001 
3593750000  -6.833936e+001  -2.018410e+001 
3596875000  -6.929893e+001  1.795433e+001 
3600000000  -6.588657e+001  3.184221e+001 
3603125000  -6.369090e+001  -1.788171e+001 
3606250000  -6.726933e+001  -3.899449e+001 
3609375000  -6.817505e+001  -2.199743e+001 
3612500000  -6.319799e+001  -5.984645e+001 
3615625000  -6.840203e+001  -5.120784e+001 
3618750000  -6.680663e+001  -5.377265e+001 
3621875000  -6.321600e+001  -7.379662e+001 
3625000000  -6.343753e+001  -7.262832e+001 
3628125000  -6.600385e+001  -9.499280e+001 
3631250000  -6.253678e+001  -9.818583e+001 
3634375000  -6.528708e+001  -1.242561e+002 
3637500000  -6.333954e+001  -1.043558e+002 
3640625000  -6.465932e+001  -1.080374e+002 
3643750000  -6.481257e+001  -1.525300e+002 
3646875000  -6.200255e+001  -1.481908e+002 
3650000000  -6.579411e+001  1.793098e+002 
3653125000  -6.485074e+001  -1.659014e+002 
3656250000  -6.705462e+001  1.761650e+002 
3659375000  -6.423563e+001  1.641439e+002 
3662500000  -6.645396e+001  1.512013e+002 
3665625000  -6.320152e+001  1.553483e+002 
3668750000  -6.229722e+001  1.091767e+002 
3671875000  -6.661150e+001  1.327205e+002 
3675000000  -6.333627e+001  9.889688e+001 
3678125000  -6.455040e+001  9.789025e+001 
3681250000  -6.348877e+001  8.460547e+001 
3684375000  -6.502419e+001  8.453279e+001 
3687500000  -6.622265e+001  6.093845e+001 
3690625000  -6.921666e+001  5.637156e+001 
3693750000  -6.851699e+001  1.171527e+002 
3696875000  -6.522624e+001  1.092053e+002 
3700000000  -6.310780e+001  8.277480e+001 
3703125000  -6.650318e+001  4.769199e+001 
3706250000  -6.669711e+001  8.730100e+001 
3709375000  -6.431795e+001  6.397701e+001 
3712500000  -6.286306e+001  5.526740e+001 
3715625000  -6.536210e+001  3.329010e+001 
3718750000  -6.081180e+001  1.413904e+001 
3721875000  -6.020360e+001  2.757301e+001 
3725000000  -5.996101e+001  2.386264e+001 
3728125000  -5.933866e+001  2.214583e-001 
3731250000  -5.953012e+001  -9.934718e+000 
3734375000  -5.833279e+001  -2.455628e+001 
3737500000  -5.818085e+001  -4.486875e+001 
3740625000  -5.849361e+001  -3.779475e+001 
3743750000  -5.903271e+001  -5.933339e+001 
3746875000  -5.838487e+001  -6.231300e+001 
3750000000  -5.711558e+001  -7.308315e+001 
3753125000  -5.937582e+001  -8.006532e+001 
3756250000  -5.856849e+001  -9.978733e+001 
3759375000  -6.224869e+001  -1.068250e+002 
3762500000  -5.697329e+001  -1.114986e+002 
3765625000  -5.886454e+001  -1.300964e+002 
3768750000  -5.837798e+001  -1.371936e+002 
3771875000  -5.486164e+001  -1.312915e+002 
3775000000  -5.835830e+001  -1.605987e+002 
3778125000  -5.608896e+001  -1.714410e+002 
3781250000  -5.708113e+001  1.769437e+002 
3784375000  -5.957706e+001  1.591558e+002 
3787500000  -5.697073e+001  1.452508e+002 
3790625000  -5.989550e+001  1.364835e+002 
3793750000  -5.930945e+001  1.258802e+002 
3796875000  -5.616315e+001  1.266518e+002 
3800000000  -5.325316e+001  8.191743e+001 
3803125000  -5.765165e+001  9.898509e+001 
3806250000  -5.797876e+001  8.749424e+001 
3809375000  -5.784482e+001  7.702392e+001 
3812500000  -5.823496e+001  5.788080e+001 
3815625000  -6.074139e+001  3.985714e+001 
3818750000  -6.034541e+001  5.120224e+001 
3821875000  -6.307481e+001  6.021601e+001 
3825000000  -5.808029e+001  3.980046e+001 
3828125000  -5.909144e+001  1.679822e+001 
3831250000  -5.982584e+001  2.540177e+001 
3834375000  -6.389310e+001  -6.731945e+000 
3837500000  -6.419090e+001  1.924389e+001 
3840625000  -6.298788e+001  3.934657e+000 
3843750000  -6.319973e+001  -9.885622e+000 
3846875000  -6.479327e+001  -1.011869e+001 
3850000000  -6.874140e+001  2.287737e+001 
3853125000  -6.364991e+001  -1.838164e+001 
3856250000  -6.203749e+001  1.626385e+001 
3859375000  -5.886030e+001  -1.694628e+001 
3862500000  -6.041653e+001  -3.908760e+001 
3865625000  -6.084501e+001  -5.192449e+001 
3868750000  -6.296135e+001  -4.728608e+001 
3871875000  -5.649590e+001  -5.715561e+001 
3875000000  -5.969340e+001  -6.756354e+001 
3878125000  -5.644049e+001  -7.921995e+001 
3881250000  -5.624025e+001  -7.863633e+001 
3884375000  -5.622267e+001  -9.657750e+001 
3887500000  -5.774141e+001  -1.046450e+002 
3890625000  -5.607639e+001  -1.071986e+002 
3893750000  -5.568120e+001  -1.298648e+002 
3896875000  -5.624376e+001  -1.228526e+002 
3900000000  -5.636032e+001  -1.508263e+002 
3903125000  -5.487152e+001  -1.505722e+002 
3906250000  -5.386203e+001  -1.596844e+002 
3909375000  -5.457282e+001  1.761393e+002 
3912500000  -5.528861e+001  1.658173e+002 
3915625000  -5.625949e+001  1.573011e+002 
3918750000  -5.449697e+001  1.567481e+002 
3921875000  -5.479092e+001  1.441695e+002 
3925000000  -5.346302e+001  1.313004e+002 
3928125000  -5.260783e+001  1.111273e+002 
3931250000  -5.338493e+001  1.032356e+002 
3934375000  -5.431560e+001  8.840332e+001 
3937500000  -5.485609e+001  8.269747e+001 
3940625000  -5.545914e+001  8.601102e+001 
3943750000  -5.308895e+001  7.424722e+001 
3946875000  -5.369470e+001  4.785225e+001 
3950000000  -5.460185e+001  4.928904e+001 
3953125000  -5.512609e+001  3.115801e+001 
3956250000  -5.341178e+001  1.792025e+001 
3959375000  -5.175306e+001  1.886687e+001 
3962500000  -5.240859e+001  -1.906778e+000 
3965625000  -5.386988e+001  -1.136366e+001 
3968750000  -5.392532e+001  -3.678155e+001 
3971875000  -5.400202e+001  -4.389544e+001 
3975000000  -5.414425e+001  -5.103230e+001 
3978125000  -5.523227e+001  -4.934328e+001 
3981250000  -5.445452e+001  -6.662615e+001 
3984375000  -5.712506e+001  -8.220514e+001 
3987500000  -5.609581e+001  -7.668071e+001 
3990625000  -5.666673e+001  -9.607845e+001 
3993750000  -5.737281e+001  -1.192846e+002 
3996875000  -5.954138e+001  -1.261697e+002 
4000000000  -5.926101e+001  -1.212334e+002 
4003125000  -6.040452e+001  -1.247392e+002 
4006250000  -5.518267e+001  -1.269700e+002 
4009375000  -5.557202e+001  -1.571174e+002 
4012500000  -6.037881e+001  -1.465570e+002 
4015625000  -6.400527e+001  -1.533266e+002 
4018750000  -6.015298e+001  -1.564773e+002 
4021875000  -5.908539e+001  -1.674135e+002 
4025000000  -5.822156e+001  1.717378e+002 
4028125000  -5.950245e+001  1.716172e+002 
4031250000  -6.270200e+001  1.733383e+002 
4034375000  -6.004520e+001  1.693195e+002 
4037500000  -5.880101e+001  1.649698e+002 
4040625000  -6.054391e+001  1.474067e+002 
4043750000  -5.993750e+001  1.507400e+002 
4046875000  -5.763641e+001  1.296380e+002 
4050000000  -5.617813e+001  1.304872e+002 
4053125000  -5.828469e+001  1.130934e+002 
4056250000  -6.037429e+001  1.184681e+002 
4059375000  -5.645408e+001  1.186865e+002 
4062500000  -5.583835e+001  9.931880e+001 
4065625000  -5.349484e+001  8.783794e+001 
4068750000  -5.421462e+001  8.016908e+001 
4071875000  -5.365332e+001  5.520595e+001 
4075000000  -5.419273e+001  4.936528e+001 
4078125000  -5.376017e+001  4.023880e+001 
4081250000  -5.326661e+001  3.420985e+001 
4084375000  -5.218719e+001  2.397849e+000 
4087500000  -5.380917e+001  -3.950249e+000 
4090625000  -5.325579e+001  -5.010360e+000 
4093750000  -5.401664e+001  -2.681060e+001 
4096875000  -5.392918e+001  -3.076468e+001 
4100000000  -5.310059e+001  -4.926861e+001 
4103125000  -5.480539e+001  -4.102607e+001 
4106250000  -5.331683e+001  -5.251920e+001 
4109375000  -5.435079e+001  -5.971158e+001 
4112500000  -5.167269e+001  -8.056034e+001 
4115625000  -5.441727e+001  -9.287231e+001 
4118750000  -5.216629e+001  -1.012400e+002 
4121875000  -5.293105e+001  -1.204760e+002 
4125000000  -5.413028e+001  -1.204055e+002 
4128125000  -5.541037e+001  -1.273963e+002 
4131250000  -5.382942e+001  -1.317072e+002 
4134375000  -5.175006e+001  -1.526448e+002 
4137500000  -5.146701e+001  -1.683219e+002 
4140625000  -5.515612e+001  1.736519e+002 
4143750000  -5.597359e+001  1.783339e+002 
4146875000  -5.605076e+001  1.756090e+002 
4150000000  -5.431320e+001  1.488749e+002 
4153125000  -5.334692e+001  1.395042e+002 
4156250000  -5.614685e+001  1.304656e+002 
4159375000  -5.508519e+001  1.281277e+002 
4162500000  -5.602300e+001  1.136661e+002 
4165625000  -5.490841e+001  1.168607e+002 
4168750000  -5.614114e+001  9.267651e+001 
4171875000  -5.342671e+001  8.295659e+001 
4175000000  -5.608716e+001  5.800233e+001 
4178125000  -5.743680e+001  6.873432e+001 
4181250000  -5.640044e+001  3.262016e+001 
4184375000  -5.944720e+001  3.854554e+001 
4187500000  -5.782463e+001  2.937699e+001 
4190625000  -6.105429e+001  2.686333e+001 
4193750000  -6.162593e+001  2.196819e+001 
4196875000  -6.697836e+001  1.967335e+001 
4200000000  -6.463995e+001  1.610934e+001 
4203125000  -6.139040e+001  2.362215e+001 
4206250000  -6.160289e+001  2.559356e+001 
4209375000  -5.904225e+001  1.341446e+001 
4212500000  -6.236078e+001  -9.328671e+000 
4215625000  -6.211889e+001  8.402638e+000 
4218750000  -6.162322e+001  7.403727e+000 
4221875000  -6.043705e+001  -8.031013e+000 
4225000000  -6.234920e+001  5.453823e+000 
4228125000  -5.798169e+001  -3.180791e+001 
4231250000  -5.636942e+001  -1.808180e+001 
4234375000  -5.818126e+001  -3.865754e+001 
4237500000  -5.760723e+001  -3.690997e+001 
4240625000  -5.714723e+001  -7.009843e+001 
4243750000  -5.601642e+001  -7.241359e+001 
4246875000  -5.784642e+001  -6.814445e+001 
4250000000  -5.879176e+001  -8.217083e+001 
4253125000  -5.577231e+001  -8.453592e+001 
4256250000  -5.526937e+001  -9.828983e+001 
4259375000  -5.394128e+001  -1.011945e+002 
4262500000  -5.532486e+001  -1.303946e+002 
4265625000  -5.335966e+001  -1.233040e+002 
4268750000  -5.174855e+001  -1.448303e+002 
4271875000  -5.176909e+001  -1.539385e+002 
4275000000  -5.157583e+001  -1.676001e+002 
4278125000  -5.367441e+001  -1.781832e+002 
4281250000  -5.288911e+001  1.625129e+002 
4284375000  -5.492517e+001  1.547009e+002 
4287500000  -5.421862e+001  1.503602e+002 
4290625000  -5.505211e+001  1.519602e+002 
4293750000  -5.257015e+001  1.396096e+002 
4296875000  -5.174511e+001  1.242800e+002 
4300000000  -5.353193e+001  1.080169e+002 
4303125000  -5.303514e+001  9.378563e+001 
4306250000  -5.285835e+001  1.007020e+002 
4309375000  -5.210246e+001  7.468071e+001 
4312500000  -5.167072e+001  7.375774e+001 
4315625000  -5.153722e+001  5.750757e+001 
4318750000  -5.269860e+001  4.879456e+001 
4321875000  -5.294345e+001  3.495435e+001 
4325000000  -5.355841e+001  2.878671e+001 
4328125000  -5.156499e+001  1.597688e+001 
4331250000  -5.374918e+001  3.834493e+000 
4334375000  -5.299402e+001  -8.693708e+000 
4337500000  -5.525838e+001  -3.477999e+001 
4340625000  -5.425713e+001  -1.989876e+001 
4343750000  -5.510561e+001  -3.296173e+001 
4346875000  -5.606828e+001  -4.014478e+001 
4350000000  -5.477608e+001  -6.776125e+001 
4353125000  -5.791199e+001  -7.857561e+001 
4356250000  -5.859803e+001  -7.696186e+001 
4359375000  -5.993190e+001  -4.254983e+001 
4362500000  -5.505251e+001  -7.361549e+001 
4365625000  -5.377209e+001  -8.267706e+001 
4368750000  -5.636547e+001  -1.024503e+002 
4371875000  -5.771342e+001  -1.219679e+002 
4375000000  -5.789342e+001  -1.107179e+002 
4378125000  -5.650979e+001  -1.251352e+002 
4381250000  -5.804105e+001  -1.225399e+002 
4384375000  -5.506113e+001  -1.463121e+002 
4387500000  -5.807484e+001  -1.518966e+002 
4390625000  -5.891695e+001  -1.381140e+002 
4393750000  -5.878442e+001  -1.375459e+002 
4396875000  -5.735350e+001  -1.550146e+002 
4400000000  -5.565018e+001  -1.665630e+002 
4403125000  -5.665033e+001  -1.799992e+002 
4406250000  -5.779112e+001  1.677665e+002 
4409375000  -5.573365e+001  1.596370e+002 
4412500000  -5.784262e+001  1.599892e+002 
4415625000  -5.636150e+001  1.589497e+002 
4418750000  -5.430840e+001  1.561302e+002 
