!Agilent Technologies,E8363B,MY43030201,A.06.04.32
!Agilent E8363B: A.06.04.32
!Date: Tuesday, November 11, 2014 22:16:24
!Correction: S21(Response(S21)) 
!S1P File: Measurement: S21:
# Hz S  dB   R 50
3000000000  -4.887115e+001  -7.116728e+001 
3003125000  -5.149562e+001  -7.892297e+001 
3006250000  -5.156629e+001  -8.545602e+001 
3009375000  -5.212767e+001  -8.472855e+001 
3012500000  -5.152792e+001  -9.897900e+001 
3015625000  -5.102396e+001  -1.043673e+002 
3018750000  -5.173282e+001  -1.148684e+002 
3021875000  -4.980264e+001  -1.161635e+002 
3025000000  -4.863023e+001  -1.258634e+002 
3028125000  -4.816252e+001  -1.444729e+002 
3031250000  -4.718112e+001  -1.610458e+002 
3034375000  -4.708672e+001  1.798556e+002 
3037500000  -4.799722e+001  1.644556e+002 
3040625000  -4.922845e+001  1.509592e+002 
3043750000  -4.992886e+001  1.411080e+002 
3046875000  -5.081568e+001  1.341011e+002 
3050000000  -5.110683e+001  1.261942e+002 
3053125000  -5.140842e+001  1.220555e+002 
3056250000  -5.161268e+001  1.232698e+002 
3059375000  -5.084030e+001  1.135713e+002 
3062500000  -4.922912e+001  1.020031e+002 
3065625000  -4.947610e+001  8.630190e+001 
3068750000  -4.898269e+001  7.675654e+001 
3071875000  -4.896757e+001  6.667046e+001 
3075000000  -4.815232e+001  5.810161e+001 
3078125000  -4.870235e+001  4.610595e+001 
3081250000  -4.932745e+001  3.521472e+001 
3084375000  -4.829406e+001  2.751485e+001 
3087500000  -4.838510e+001  1.468584e+001 
3090625000  -4.778628e+001  -4.189199e+000 
3093750000  -4.940632e+001  -1.493169e+001 
3096875000  -4.976803e+001  -2.291179e+001 
3100000000  -4.931770e+001  -3.357675e+001 
3103125000  -5.005854e+001  -3.587327e+001 
3106250000  -4.886005e+001  -4.896482e+001 
3109375000  -4.937156e+001  -5.695378e+001 
3112500000  -4.960440e+001  -6.768607e+001 
3115625000  -4.928173e+001  -7.911023e+001 
3118750000  -5.011304e+001  -8.319073e+001 
3121875000  -4.909554e+001  -9.720541e+001 
3125000000  -5.121385e+001  -1.090029e+002 
3128125000  -5.078161e+001  -1.046472e+002 
3131250000  -4.877351e+001  -1.139489e+002 
3134375000  -4.785427e+001  -1.412552e+002 
3137500000  -4.861540e+001  -1.535335e+002 
3140625000  -4.996723e+001  -1.604296e+002 
3143750000  -5.054205e+001  -1.696862e+002 
3146875000  -4.940458e+001  -1.724703e+002 
3150000000  -4.889472e+001  -1.761159e+002 
3153125000  -4.973427e+001  1.664861e+002 
3156250000  -5.056542e+001  1.649849e+002 
3159375000  -4.781270e+001  1.591861e+002 
3162500000  -4.588362e+001  1.382109e+002 
3165625000  -4.755737e+001  1.195425e+002 
3168750000  -4.803793e+001  1.154588e+002 
3171875000  -4.710110e+001  1.020144e+002 
3175000000  -4.755613e+001  8.840656e+001 
3178125000  -4.743075e+001  8.591134e+001 
3181250000  -4.643723e+001  6.973971e+001 
3184375000  -4.643986e+001  5.230553e+001 
3187500000  -4.762844e+001  3.675361e+001 
3190625000  -4.919704e+001  2.444199e+001 
3193750000  -4.997028e+001  2.018530e+001 
3196875000  -4.944987e+001  2.172698e+001 
3200000000  -4.782016e+001  1.298671e+001 
3203125000  -4.853156e+001  -1.398388e+000 
3206250000  -4.874867e+001  -1.505233e+001 
3209375000  -4.802425e+001  -3.037402e+001 
3212500000  -4.866424e+001  -4.206104e+001 
3215625000  -4.821922e+001  -4.827518e+001 
3218750000  -4.966618e+001  -6.496464e+001 
3221875000  -4.948427e+001  -7.707223e+001 
3225000000  -4.994282e+001  -8.194431e+001 
3228125000  -4.978615e+001  -9.067551e+001 
3231250000  -5.103347e+001  -9.747717e+001 
3234375000  -5.028048e+001  -1.035514e+002 
3237500000  -5.031586e+001  -1.197446e+002 
3240625000  -4.975809e+001  -1.268892e+002 
3243750000  -5.016910e+001  -1.450910e+002 
3246875000  -4.997989e+001  -1.556619e+002 
3250000000  -5.059714e+001  -1.632391e+002 
3253125000  -5.131129e+001  -1.720983e+002 
3256250000  -5.049492e+001  1.788587e+002 
3259375000  -5.138412e+001  1.530094e+002 
3262500000  -5.282092e+001  1.524825e+002 
3265625000  -5.340509e+001  1.515824e+002 
3268750000  -5.382816e+001  1.477166e+002 
3271875000  -5.274518e+001  1.319275e+002 
3275000000  -5.209817e+001  1.247022e+002 
3278125000  -5.313194e+001  1.120164e+002 
3281250000  -5.319445e+001  1.057660e+002 
3284375000  -5.291492e+001  9.637946e+001 
3287500000  -5.374083e+001  8.624372e+001 
3290625000  -5.348212e+001  7.767826e+001 
3293750000  -5.351820e+001  6.278194e+001 
3296875000  -5.468026e+001  5.447340e+001 
3300000000  -5.389811e+001  5.058786e+001 
3303125000  -5.306421e+001  4.667055e+001 
3306250000  -5.356604e+001  3.087430e+001 
3309375000  -5.293662e+001  1.670886e+001 
3312500000  -5.318898e+001  1.544056e+000 
3315625000  -5.427937e+001  -7.358775e+000 
3318750000  -5.591716e+001  -1.982194e+001 
3321875000  -5.676907e+001  -2.437304e+001 
3325000000  -5.781427e+001  -2.504031e+001 
3328125000  -5.760573e+001  -3.075708e+001 
3331250000  -5.381662e+001  -3.123645e+001 
3334375000  -5.197122e+001  -4.011304e+001 
3337500000  -5.253603e+001  -7.086803e+001 
3340625000  -5.475628e+001  -8.916476e+001 
3343750000  -5.586734e+001  -8.893173e+001 
3346875000  -5.479355e+001  -9.266087e+001 
3350000000  -5.473503e+001  -9.722012e+001 
3353125000  -5.434433e+001  -1.166583e+002 
3356250000  -5.391703e+001  -1.275904e+002 
3359375000  -5.517242e+001  -1.394921e+002 
3362500000  -5.649632e+001  -1.508495e+002 
3365625000  -5.696941e+001  -1.550810e+002 
3368750000  -5.768869e+001  -1.726950e+002 
3371875000  -5.721902e+001  1.766946e+002 
3375000000  -5.770464e+001  1.733331e+002 
3378125000  -5.882183e+001  1.663667e+002 
3381250000  -6.008677e+001  -1.753237e+002 
3384375000  -5.824405e+001  -1.772024e+002 
3387500000  -5.626433e+001  1.611254e+002 
3390625000  -5.669762e+001  1.356510e+002 
3393750000  -5.594245e+001  1.168284e+002 
3396875000  -5.632899e+001  1.113837e+002 
3400000000  -5.603268e+001  1.017841e+002 
3403125000  -5.555997e+001  9.069994e+001 
3406250000  -5.751696e+001  7.318113e+001 
3409375000  -5.752797e+001  6.156474e+001 
3412500000  -5.846365e+001  5.377350e+001 
3415625000  -6.047037e+001  4.221368e+001 
3418750000  -6.003030e+001  4.204190e+001 
3421875000  -6.225440e+001  2.566949e+001 
3425000000  -6.057548e+001  4.222815e+001 
3428125000  -5.984498e+001  1.388721e+001 
3431250000  -6.087994e+001  3.262929e+000 
3434375000  -5.951678e+001  -2.011063e+001 
3437500000  -6.340824e+001  -2.468875e+001 
3440625000  -6.062234e+001  -1.107273e+001 
3443750000  -6.629189e+001  -3.716022e+001 
3446875000  -5.906022e+001  -5.634576e+001 
3450000000  -6.314890e+001  -5.248841e+001 
3453125000  -6.378800e+001  -6.320480e+001 
3456250000  -6.760962e+001  -8.500504e+001 
3459375000  -6.460482e+001  -7.665952e+001 
3462500000  -6.809020e+001  -1.136626e+002 
3465625000  -6.561464e+001  -1.059555e+002 
3468750000  -6.417982e+001  -1.003255e+002 
3471875000  -6.837861e+001  -1.078095e+002 
3475000000  -6.827011e+001  -9.534862e+001 
3478125000  -7.090715e+001  -1.339839e+002 
3481250000  -9.052996e+001  1.238926e+001 
3484375000  -7.057454e+001  -1.180240e+002 
3487500000  -6.594125e+001  -1.348068e+002 
3490625000  -7.090158e+001  -1.686997e+002 
3493750000  -7.333087e+001  -1.451294e+002 
3496875000  -7.238421e+001  -1.421072e+002 
3500000000  -6.655225e+001  -1.593533e+002 
3503125000  -6.352060e+001  -1.337893e+002 
3506250000  -6.776340e+001  -1.301637e+002 
3509375000  -6.332188e+001  1.725358e+002 
3512500000  -6.464663e+001  1.618764e+002 
3515625000  -6.638935e+001  1.406409e+002 
3518750000  -6.768114e+001  1.136075e+002 
3521875000  -7.123350e+001  1.440379e+002 
3525000000  -6.832836e+001  1.032855e+002 
3528125000  -6.937174e+001  1.078812e+002 
3531250000  -6.293285e+001  1.122451e+002 
3534375000  -7.367211e+001  1.567234e+002 
3537500000  -7.555233e+001  1.255342e+002 
3540625000  -7.015529e+001  3.417887e+001 
3543750000  -6.983691e+001  8.381537e+001 
3546875000  -7.295686e+001  1.031894e+002 
3550000000  -6.952087e+001  5.728097e+001 
3553125000  -6.598400e+001  5.034813e+001 
3556250000  -7.042695e+001  1.803648e+001 
3559375000  -7.198335e+001  6.581013e+001 
3562500000  -7.174815e+001  9.952274e+001 
3565625000  -7.190001e+001  2.702258e+001 
3568750000  -7.186073e+001  1.040364e+002 
3571875000  -6.657446e+001  9.263783e+000 
3575000000  -8.361893e+001  1.417200e+002 
3578125000  -7.207545e+001  -3.479085e+001 
3581250000  -7.041784e+001  1.106955e+002 
3584375000  -7.205140e+001  -5.594632e+000 
3587500000  -8.044592e+001  -2.635497e+001 
3590625000  -6.975777e+001  1.485497e+001 
3593750000  -7.179676e+001  1.211943e+001 
3596875000  -6.871790e+001  4.195778e+001 
3600000000  -6.590739e+001  -7.667469e-001 
3603125000  -6.710374e+001  -9.411322e+000 
3606250000  -7.104089e+001  -5.298809e+001 
3609375000  -6.484830e+001  -4.095890e+001 
3612500000  -6.275750e+001  -5.974920e+001 
3615625000  -7.251633e+001  -6.253617e+001 
3618750000  -6.660162e+001  -5.840145e+001 
3621875000  -6.388934e+001  -9.276565e+001 
3625000000  -6.374587e+001  -8.289883e+001 
3628125000  -6.259887e+001  -1.138146e+002 
3631250000  -6.270882e+001  -1.051533e+002 
3634375000  -6.611929e+001  -1.274709e+002 
3637500000  -6.691298e+001  -1.173907e+002 
3640625000  -5.981710e+001  -1.313243e+002 
3643750000  -6.535590e+001  -1.440035e+002 
3646875000  -6.073085e+001  1.779906e+002 
3650000000  -6.524820e+001  -1.751239e+002 
3653125000  -6.445161e+001  1.680239e+002 
3656250000  -6.474732e+001  -1.756761e+002 
3659375000  -6.448360e+001  1.667957e+002 
3662500000  -6.504333e+001  -1.739819e+002 
3665625000  -6.043138e+001  1.389731e+002 
3668750000  -6.090555e+001  1.228279e+002 
3671875000  -6.222509e+001  1.387958e+002 
3675000000  -6.419345e+001  1.033960e+002 
3678125000  -6.408193e+001  1.183440e+002 
3681250000  -6.282186e+001  1.104935e+002 
3684375000  -6.456214e+001  7.871012e+001 
3687500000  -6.824486e+001  8.088988e+001 
3690625000  -6.974425e+001  9.571363e+001 
3693750000  -6.518488e+001  1.101141e+002 
3696875000  -6.749014e+001  6.255888e+001 
3700000000  -6.301088e+001  7.885215e+001 
3703125000  -6.461627e+001  5.415659e+001 
3706250000  -6.964077e+001  8.358041e+001 
3709375000  -6.534389e+001  4.626307e+001 
3712500000  -6.347052e+001  5.189840e+001 
3715625000  -6.255253e+001  5.803672e+001 
3718750000  -6.033953e+001  2.913388e+001 
3721875000  -6.281852e+001  8.524928e+000 
3725000000  -6.603289e+001  3.740534e+001 
3728125000  -6.026273e+001  -4.316681e+000 
3731250000  -6.121656e+001  -2.581461e+000 
3734375000  -6.015478e+001  -1.632373e+001 
3737500000  -5.834763e+001  -3.179643e+001 
3740625000  -5.681392e+001  -4.414845e+001 
3743750000  -5.822535e+001  -4.586670e+001 
3746875000  -5.865714e+001  -6.985459e+001 
3750000000  -5.840890e+001  -7.028065e+001 
3753125000  -5.799707e+001  -7.687482e+001 
3756250000  -5.654777e+001  -9.083694e+001 
3759375000  -5.920628e+001  -1.113491e+002 
3762500000  -5.831602e+001  -1.213571e+002 
3765625000  -5.830661e+001  -1.240125e+002 
3768750000  -5.746486e+001  -1.309867e+002 
3771875000  -5.617504e+001  -1.492677e+002 
3775000000  -5.573291e+001  -1.712813e+002 
3778125000  -5.787171e+001  1.775853e+002 
3781250000  -5.665063e+001  1.679897e+002 
3784375000  -5.627607e+001  1.664032e+002 
3787500000  -5.714421e+001  1.409890e+002 
3790625000  -5.677351e+001  1.405864e+002 
3793750000  -5.848380e+001  1.315353e+002 
3796875000  -5.571702e+001  1.259223e+002 
3800000000  -5.305178e+001  8.226057e+001 
3803125000  -5.716364e+001  9.105837e+001 
3806250000  -5.928646e+001  7.494095e+001 
3809375000  -5.648193e+001  9.435186e+001 
3812500000  -5.709771e+001  6.552232e+001 
3815625000  -6.137645e+001  3.751528e+001 
3818750000  -6.336535e+001  3.666250e+001 
3821875000  -6.352811e+001  5.878872e+001 
3825000000  -5.998412e+001  4.231382e+001 
3828125000  -5.772975e+001  3.065352e+001 
3831250000  -6.021698e+001  2.140883e+001 
3834375000  -6.549595e+001  1.436001e+001 
3837500000  -6.640836e+001  2.777800e+001 
3840625000  -6.237484e+001  4.859008e+000 
3843750000  -6.142070e+001  -1.661549e+000 
3846875000  -6.204859e+001  -1.841928e+001 
3850000000  -6.323750e+001  -2.204834e+000 
3853125000  -6.736999e+001  -1.242415e+001 
3856250000  -5.952598e+001  -1.024777e+001 
3859375000  -6.131242e+001  -4.866601e+001 
3862500000  -6.290532e+001  -3.887879e+001 
3865625000  -6.184309e+001  -5.567616e+001 
3868750000  -5.761463e+001  -4.166018e+001 
3871875000  -5.602382e+001  -6.760790e+001 
3875000000  -5.951820e+001  -7.279903e+001 
3878125000  -5.765423e+001  -6.788898e+001 
3881250000  -5.859692e+001  -9.492538e+001 
3884375000  -5.683137e+001  -8.879684e+001 
3887500000  -5.643567e+001  -1.036134e+002 
3890625000  -5.399068e+001  -1.201235e+002 
3893750000  -5.637528e+001  -1.298094e+002 
3896875000  -5.561354e+001  -1.313430e+002 
3900000000  -5.568610e+001  -1.456931e+002 
3903125000  -5.607219e+001  -1.467836e+002 
3906250000  -5.508253e+001  -1.675875e+002 
3909375000  -5.407777e+001  1.732406e+002 
3912500000  -5.344022e+001  1.614069e+002 
3915625000  -5.486441e+001  1.602711e+002 
3918750000  -5.565164e+001  1.597251e+002 
3921875000  -5.337671e+001  1.495311e+002 
3925000000  -5.211984e+001  1.332988e+002 
3928125000  -5.272279e+001  1.182502e+002 
3931250000  -5.400415e+001  1.068067e+002 
3934375000  -5.368723e+001  9.159307e+001 
3937500000  -5.500769e+001  8.832939e+001 
3940625000  -5.445643e+001  7.487759e+001 
3943750000  -5.370292e+001  6.820729e+001 
3946875000  -5.366039e+001  4.758305e+001 
3950000000  -5.486944e+001  4.199441e+001 
3953125000  -5.554121e+001  3.512595e+001 
3956250000  -5.378076e+001  2.696848e+001 
3959375000  -5.122727e+001  1.446759e+001 
3962500000  -5.225257e+001  -1.775724e+000 
3965625000  -5.407687e+001  -1.541718e+001 
3968750000  -5.343781e+001  -2.668250e+001 
3971875000  -5.393565e+001  -4.166143e+001 
3975000000  -5.430820e+001  -5.231160e+001 
3978125000  -5.450777e+001  -5.147996e+001 
3981250000  -5.594524e+001  -7.821875e+001 
3984375000  -5.521981e+001  -8.338227e+001 
3987500000  -5.570910e+001  -9.387133e+001 
3990625000  -5.645303e+001  -9.957840e+001 
3993750000  -5.596244e+001  -1.183531e+002 
3996875000  -5.777899e+001  -1.196114e+002 
4000000000  -6.010274e+001  -1.218462e+002 
4003125000  -5.760433e+001  -1.224366e+002 
4006250000  -5.562117e+001  -1.296668e+002 
4009375000  -5.726290e+001  -1.470593e+002 
4012500000  -6.142180e+001  -1.565425e+002 
4015625000  -6.009694e+001  -1.497850e+002 
4018750000  -5.915757e+001  -1.693357e+002 
4021875000  -6.146225e+001  -1.702832e+002 
4025000000  -6.002426e+001  -1.786316e+002 
4028125000  -5.977965e+001  -1.727683e+002 
4031250000  -6.060931e+001  1.615239e+002 
4034375000  -5.978770e+001  1.557548e+002 
4037500000  -5.770467e+001  1.480209e+002 
4040625000  -6.092789e+001  1.487114e+002 
4043750000  -5.796862e+001  1.589829e+002 
4046875000  -5.617459e+001  1.336623e+002 
4050000000  -5.664226e+001  1.300850e+002 
4053125000  -5.860444e+001  1.183248e+002 
4056250000  -5.880338e+001  1.118672e+002 
4059375000  -5.580004e+001  1.138908e+002 
4062500000  -5.528022e+001  1.014056e+002 
4065625000  -5.424231e+001  7.941750e+001 
4068750000  -5.567032e+001  8.047628e+001 
4071875000  -5.227788e+001  5.851779e+001 
4075000000  -5.415514e+001  5.144503e+001 
4078125000  -5.274354e+001  3.581616e+001 
4081250000  -5.335144e+001  3.471884e+001 
4084375000  -5.215385e+001  1.707054e+001 
4087500000  -5.344684e+001  -3.635988e+000 
4090625000  -5.352306e+001  4.245437e-001 
4093750000  -5.332331e+001  -1.644478e+001 
4096875000  -5.317546e+001  -3.383197e+001 
4100000000  -5.406020e+001  -4.812210e+001 
4103125000  -5.502563e+001  -3.637615e+001 
4106250000  -5.394746e+001  -6.007673e+001 
4109375000  -5.293204e+001  -5.593094e+001 
4112500000  -5.124633e+001  -7.928117e+001 
4115625000  -5.439349e+001  -8.698968e+001 
4118750000  -5.154319e+001  -1.016798e+002 
4121875000  -5.334792e+001  -1.160290e+002 
4125000000  -5.381868e+001  -1.260696e+002 
4128125000  -5.494206e+001  -1.306187e+002 
4131250000  -5.363639e+001  -1.272692e+002 
4134375000  -5.296147e+001  -1.475076e+002 
4137500000  -5.268376e+001  -1.708508e+002 
4140625000  -5.355647e+001  1.794017e+002 
4143750000  -5.647186e+001  1.799310e+002 
4146875000  -5.480099e+001  1.722086e+002 
4150000000  -5.397007e+001  1.649053e+002 
4153125000  -5.252843e+001  1.428279e+002 
4156250000  -5.671062e+001  1.373902e+002 
4159375000  -5.529255e+001  1.240757e+002 
4162500000  -5.497019e+001  1.098741e+002 
4165625000  -5.360354e+001  1.126232e+002 
4168750000  -5.465264e+001  9.365179e+001 
4171875000  -5.434947e+001  9.085749e+001 
4175000000  -5.654901e+001  5.861207e+001 
4178125000  -5.597481e+001  8.099461e+001 
4181250000  -5.699103e+001  5.374847e+001 
4184375000  -6.133168e+001  2.879872e+001 
4187500000  -5.956664e+001  4.125937e+001 
4190625000  -6.115902e+001  2.664860e+001 
4193750000  -5.959229e+001  1.262970e+001 
4196875000  -6.754105e+001  2.135596e+001 
4200000000  -6.597130e+001  1.980051e+001 
4203125000  -6.960664e+001  2.806711e+001 
4206250000  -6.147155e+001  5.097474e+001 
4209375000  -6.168382e+001  1.058630e+001 
4212500000  -6.532644e+001  6.952177e+000 
4215625000  -6.333301e+001  -2.730316e+001 
4218750000  -6.079432e+001  1.729858e+000 
4221875000  -5.747551e+001  -1.255619e+001 
4225000000  -5.759893e+001  -2.779238e+001 
4228125000  -6.093093e+001  -3.717729e+001 
4231250000  -5.814447e+001  -5.591157e+000 
4234375000  -5.716047e+001  -3.314652e+001 
4237500000  -5.810167e+001  -6.445056e+001 
4240625000  -5.490076e+001  -6.710828e+001 
4243750000  -5.813566e+001  -6.491861e+001 
4246875000  -5.779076e+001  -7.346173e+001 
4250000000  -5.699401e+001  -8.738514e+001 
4253125000  -5.511165e+001  -7.329375e+001 
4256250000  -5.679425e+001  -1.053973e+002 
4259375000  -5.662692e+001  -1.118867e+002 
4262500000  -5.511769e+001  -1.179514e+002 
4265625000  -5.369165e+001  -1.148316e+002 
4268750000  -5.190730e+001  -1.472094e+002 
4271875000  -5.227561e+001  -1.557381e+002 
4275000000  -5.064655e+001  -1.726405e+002 
4278125000  -5.444872e+001  1.756923e+002 
4281250000  -5.428873e+001  1.629872e+002 
4284375000  -5.337871e+001  1.569310e+002 
4287500000  -5.565403e+001  1.557682e+002 
4290625000  -5.678581e+001  1.552122e+002 
4293750000  -5.302936e+001  1.535819e+002 
4296875000  -5.230919e+001  1.161814e+002 
4300000000  -5.225401e+001  9.488169e+001 
4303125000  -5.272587e+001  1.006345e+002 
4306250000  -5.366515e+001  9.487196e+001 
4309375000  -5.120840e+001  8.017298e+001 
4312500000  -5.195569e+001  6.782894e+001 
4315625000  -5.245485e+001  6.094373e+001 
4318750000  -5.377392e+001  4.207482e+001 
4321875000  -5.304939e+001  3.998758e+001 
4325000000  -5.235697e+001  2.822525e+001 
4328125000  -5.232063e+001  9.443089e+000 
4331250000  -5.404027e+001  -1.538840e+000 
4334375000  -5.362551e+001  -1.177400e+001 
4337500000  -5.512449e+001  -2.443024e+001 
4340625000  -5.577886e+001  -2.163353e+001 
4343750000  -5.449743e+001  -3.896535e+001 
4346875000  -5.523965e+001  -4.065261e+001 
4350000000  -5.458570e+001  -5.634389e+001 
4353125000  -5.664853e+001  -6.295182e+001 
4356250000  -5.592007e+001  -6.925812e+001 
4359375000  -5.707018e+001  -4.069281e+001 
4362500000  -5.421880e+001  -6.884922e+001 
4365625000  -5.429419e+001  -8.821899e+001 
4368750000  -5.610801e+001  -9.720245e+001 
4371875000  -5.548523e+001  -1.083434e+002 
4375000000  -5.562097e+001  -9.940266e+001 
4378125000  -5.802339e+001  -1.212230e+002 
4381250000  -5.699098e+001  -1.314010e+002 
4384375000  -5.507118e+001  -1.451600e+002 
4387500000  -5.725196e+001  -1.299624e+002 
4390625000  -5.768036e+001  -1.595428e+002 
4393750000  -5.702597e+001  -1.615426e+002 
4396875000  -5.566902e+001  -1.627366e+002 
4400000000  -5.546215e+001  -1.672800e+002 
4403125000  -5.744391e+001  1.706518e+002 
4406250000  -5.864555e+001  1.708521e+002 
4409375000  -5.590604e+001  1.784954e+002 
4412500000  -5.769606e+001  1.545737e+002 
4415625000  -5.609854e+001  1.702912e+002 
4418750000  -5.500729e+001  1.576867e+002 
