!Agilent Technologies,E8363B,MY43030201,A.06.04.32
!Agilent E8363B: A.06.04.32
!Date: Tuesday, November 11, 2014 22:15:40
!Correction: S21(Response(S21)) 
!S1P File: Measurement: S21:
# Hz S  dB   R 50
3000000000  -4.899992e+001  -7.231827e+001 
3003125000  -5.168053e+001  -7.949055e+001 
3006250000  -5.176021e+001  -8.446082e+001 
3009375000  -5.216021e+001  -9.042952e+001 
3012500000  -5.103336e+001  -9.481835e+001 
3015625000  -5.081123e+001  -1.082617e+002 
3018750000  -5.120953e+001  -1.105568e+002 
3021875000  -4.973186e+001  -1.186002e+002 
3025000000  -4.863906e+001  -1.263502e+002 
3028125000  -4.856205e+001  -1.406824e+002 
3031250000  -4.730866e+001  -1.582129e+002 
3034375000  -4.713025e+001  -1.797803e+002 
3037500000  -4.772656e+001  1.693257e+002 
3040625000  -4.859685e+001  1.532005e+002 
3043750000  -4.958413e+001  1.456612e+002 
3046875000  -5.113909e+001  1.313239e+002 
3050000000  -5.149616e+001  1.250215e+002 
3053125000  -5.202012e+001  1.216442e+002 
3056250000  -5.065255e+001  1.219006e+002 
3059375000  -5.052939e+001  1.108750e+002 
3062500000  -4.906734e+001  1.007984e+002 
3065625000  -4.919795e+001  9.036491e+001 
3068750000  -4.905679e+001  7.982135e+001 
3071875000  -4.897006e+001  6.674691e+001 
3075000000  -4.821782e+001  5.651224e+001 
3078125000  -4.861458e+001  4.727048e+001 
3081250000  -4.882417e+001  3.537148e+001 
3084375000  -4.812828e+001  2.803098e+001 
3087500000  -4.791259e+001  1.531427e+001 
3090625000  -4.800470e+001  -1.886081e+000 
3093750000  -4.890752e+001  -1.634057e+001 
3096875000  -4.919263e+001  -2.372689e+001 
3100000000  -4.903212e+001  -3.010583e+001 
3103125000  -4.947947e+001  -3.784293e+001 
3106250000  -4.942912e+001  -4.847060e+001 
3109375000  -4.967291e+001  -5.695498e+001 
3112500000  -4.942123e+001  -6.815146e+001 
3115625000  -4.951630e+001  -7.704572e+001 
3118750000  -4.962111e+001  -8.468957e+001 
3121875000  -4.928096e+001  -9.743542e+001 
3125000000  -5.090965e+001  -1.039279e+002 
3128125000  -5.064963e+001  -1.036049e+002 
3131250000  -4.844103e+001  -1.179378e+002 
3134375000  -4.794147e+001  -1.403868e+002 
3137500000  -4.894991e+001  -1.556916e+002 
3140625000  -4.938573e+001  -1.576123e+002 
3143750000  -5.053729e+001  -1.692948e+002 
3146875000  -4.978132e+001  -1.701945e+002 
3150000000  -4.902454e+001  -1.769657e+002 
3153125000  -4.945696e+001  1.681844e+002 
3156250000  -5.018451e+001  1.658188e+002 
3159375000  -4.814657e+001  1.579194e+002 
3162500000  -4.645218e+001  1.364609e+002 
3165625000  -4.805622e+001  1.197603e+002 
3168750000  -4.746619e+001  1.161939e+002 
3171875000  -4.720436e+001  1.040587e+002 
3175000000  -4.750020e+001  8.902757e+001 
3178125000  -4.738396e+001  8.233949e+001 
3181250000  -4.645174e+001  6.770804e+001 
3184375000  -4.663052e+001  5.483971e+001 
3187500000  -4.708455e+001  3.770129e+001 
3190625000  -4.944607e+001  2.044377e+001 
3193750000  -5.018350e+001  2.501016e+001 
3196875000  -4.891970e+001  2.010944e+001 
3200000000  -4.840095e+001  1.108810e+001 
3203125000  -4.825961e+001  -4.519011e+000 
3206250000  -4.878153e+001  -1.282155e+001 
3209375000  -4.769118e+001  -2.963277e+001 
3212500000  -4.866731e+001  -3.867616e+001 
3215625000  -4.796730e+001  -4.317848e+001 
3218750000  -4.977256e+001  -6.350635e+001 
3221875000  -4.913632e+001  -7.737532e+001 
3225000000  -4.982089e+001  -8.491163e+001 
3228125000  -4.997375e+001  -9.237900e+001 
3231250000  -5.039809e+001  -1.019406e+002 
3234375000  -5.019751e+001  -1.087679e+002 
3237500000  -5.100452e+001  -1.163686e+002 
3240625000  -4.979769e+001  -1.257244e+002 
3243750000  -5.015392e+001  -1.444868e+002 
3246875000  -5.033307e+001  -1.559248e+002 
3250000000  -5.098870e+001  -1.655430e+002 
3253125000  -5.093157e+001  -1.676280e+002 
3256250000  -5.039604e+001  1.773979e+002 
3259375000  -5.087956e+001  1.575552e+002 
3262500000  -5.194436e+001  1.494383e+002 
3265625000  -5.299377e+001  1.498874e+002 
3268750000  -5.302368e+001  1.401268e+002 
3271875000  -5.253292e+001  1.330394e+002 
3275000000  -5.224522e+001  1.233234e+002 
3278125000  -5.272987e+001  1.107899e+002 
3281250000  -5.324755e+001  1.060241e+002 
3284375000  -5.293365e+001  9.392509e+001 
3287500000  -5.429340e+001  8.829995e+001 
3290625000  -5.342460e+001  7.639217e+001 
3293750000  -5.325925e+001  6.302800e+001 
3296875000  -5.453795e+001  5.657381e+001 
3300000000  -5.424350e+001  5.140406e+001 
3303125000  -5.246422e+001  4.131144e+001 
3306250000  -5.333529e+001  2.704692e+001 
3309375000  -5.278854e+001  1.639897e+001 
3312500000  -5.263221e+001  1.943315e+000 
3315625000  -5.440937e+001  -1.403561e+001 
3318750000  -5.598517e+001  -2.288102e+001 
3321875000  -5.770645e+001  -2.595803e+001 
3325000000  -5.759222e+001  -1.714834e+001 
3328125000  -5.733511e+001  -1.078128e+001 
3331250000  -5.390351e+001  -2.585511e+001 
3334375000  -5.202229e+001  -4.542294e+001 
3337500000  -5.247199e+001  -6.978639e+001 
3340625000  -5.414428e+001  -9.099908e+001 
3343750000  -5.618081e+001  -8.920406e+001 
3346875000  -5.573801e+001  -9.615056e+001 
3350000000  -5.436398e+001  -1.074497e+002 
3353125000  -5.377261e+001  -1.164443e+002 
3356250000  -5.513627e+001  -1.249641e+002 
3359375000  -5.443581e+001  -1.466269e+002 
3362500000  -5.600196e+001  -1.527823e+002 
3365625000  -5.553289e+001  -1.656562e+002 
3368750000  -5.781429e+001  -1.720441e+002 
3371875000  -5.645411e+001  -1.791496e+002 
3375000000  -5.792712e+001  1.702009e+002 
3378125000  -6.009208e+001  1.783658e+002 
3381250000  -6.007973e+001  1.744341e+002 
3384375000  -5.730590e+001  -1.701022e+002 
3387500000  -5.368585e+001  1.468619e+002 
3390625000  -5.655230e+001  1.306128e+002 
3393750000  -5.687675e+001  1.215945e+002 
3396875000  -5.755415e+001  1.153246e+002 
3400000000  -5.492424e+001  9.574758e+001 
3403125000  -5.650120e+001  8.440406e+001 
3406250000  -5.619548e+001  7.645560e+001 
3409375000  -5.803408e+001  6.148162e+001 
3412500000  -5.707227e+001  5.370674e+001 
3415625000  -6.042434e+001  3.773668e+001 
3418750000  -6.080695e+001  3.552193e+001 
3421875000  -6.047403e+001  3.102766e+001 
3425000000  -5.898575e+001  2.903193e+001 
3428125000  -5.888152e+001  7.262290e+000 
3431250000  -6.346162e+001  -1.399567e+001 
3434375000  -5.946514e+001  -1.844186e+001 
3437500000  -6.313810e+001  -2.616405e+001 
3440625000  -5.876821e+001  -2.220755e+001 
3443750000  -6.367045e+001  -2.392308e+001 
3446875000  -6.128248e+001  -5.511476e+001 
3450000000  -5.945871e+001  -7.481927e+001 
3453125000  -6.244147e+001  -6.959504e+001 
3456250000  -6.613227e+001  -1.015793e+002 
3459375000  -6.502330e+001  -6.950786e+001 
3462500000  -6.666074e+001  -9.700617e+001 
3465625000  -6.484537e+001  -1.039616e+002 
3468750000  -6.908775e+001  -8.437411e+001 
3471875000  -6.417302e+001  -1.082569e+002 
3475000000  -6.497116e+001  -1.262628e+002 
3478125000  -6.750078e+001  -1.249476e+002 
3481250000  -7.022002e+001  -1.571988e+002 
3484375000  -7.170596e+001  -1.201029e+002 
3487500000  -6.506336e+001  -1.376140e+002 
3490625000  -7.986492e+001  -1.213597e+002 
3493750000  -7.248064e+001  -1.189318e+002 
3496875000  -6.867242e+001  -1.395051e+002 
3500000000  -6.931388e+001  -1.577103e+002 
3503125000  -6.408850e+001  -1.786819e+002 
3506250000  -6.380680e+001  -1.722881e+002 
3509375000  -6.485715e+001  1.585908e+002 
3512500000  -6.978738e+001  1.456169e+002 
3515625000  -6.587202e+001  1.510458e+002 
3518750000  -6.781271e+001  1.115125e+002 
3521875000  -6.959164e+001  1.369359e+002 
3525000000  -6.625699e+001  1.102409e+002 
3528125000  -7.313578e+001  1.222398e+002 
3531250000  -7.150193e+001  1.354761e+002 
3534375000  -6.682723e+001  9.244532e+001 
3537500000  -6.509060e+001  5.807071e+001 
3540625000  -7.505960e+001  4.070367e+001 
3543750000  -7.499541e+001  9.521102e+001 
3546875000  -8.003014e+001  4.707132e+001 
3550000000  -7.074111e+001  8.896528e+001 
3553125000  -6.852975e+001  1.103467e+002 
3556250000  -7.122386e+001  3.615018e+001 
3559375000  -6.908012e+001  3.644578e+001 
3562500000  -7.824238e+001  -2.118867e+001 
3565625000  -7.009445e+001  7.804664e+000 
3568750000  -7.541982e+001  6.327099e+001 
3571875000  -7.630868e+001  5.495884e+001 
3575000000  -6.826251e+001  1.171521e+001 
3578125000  -7.000772e+001  7.684805e+001 
3581250000  -7.340623e+001  5.000734e-001 
3584375000  -6.756759e+001  3.957733e+001 
3587500000  -7.544128e+001  5.410420e+001 
3590625000  -6.605711e+001  2.275393e+000 
3593750000  -6.813754e+001  1.087236e+001 
3596875000  -6.707925e+001  4.386790e+001 
3600000000  -6.526236e+001  9.490356e+000 
3603125000  -6.508182e+001  -2.556758e+001 
3606250000  -6.326366e+001  -3.607861e+001 
3609375000  -6.682964e+001  -4.559349e+001 
3612500000  -6.363462e+001  -4.660826e+001 
3615625000  -7.115730e+001  -6.559577e+001 
3618750000  -6.266094e+001  -6.035654e+001 
3621875000  -6.613717e+001  -9.614870e+001 
3625000000  -6.499966e+001  -6.919397e+001 
3628125000  -6.344447e+001  -9.012030e+001 
3631250000  -6.614689e+001  -1.058706e+002 
3634375000  -6.813918e+001  -1.234750e+002 
3637500000  -6.192419e+001  -1.214537e+002 
3640625000  -6.174961e+001  -1.314075e+002 
3643750000  -6.202706e+001  -1.427985e+002 
3646875000  -6.049145e+001  -1.686910e+002 
3650000000  -6.346017e+001  -1.700016e+002 
3653125000  -6.407113e+001  1.696505e+002 
3656250000  -6.459718e+001  1.501191e+002 
3659375000  -6.437258e+001  -1.725855e+002 
3662500000  -6.236702e+001  1.507906e+002 
3665625000  -6.239666e+001  1.374656e+002 
3668750000  -6.790282e+001  1.387233e+002 
3671875000  -6.353419e+001  1.255200e+002 
3675000000  -6.591429e+001  9.710416e+001 
3678125000  -6.694022e+001  1.235301e+002 
3681250000  -6.348793e+001  9.729574e+001 
3684375000  -6.939925e+001  8.995419e+001 
3687500000  -6.843820e+001  6.898689e+001 
3690625000  -7.077504e+001  7.504922e+001 
3693750000  -6.548056e+001  1.107791e+002 
3696875000  -6.508593e+001  9.985775e+001 
3700000000  -6.470499e+001  1.090747e+002 
3703125000  -6.722671e+001  3.981217e+001 
3706250000  -6.568617e+001  6.613375e+001 
3709375000  -6.428314e+001  7.623233e+001 
3712500000  -6.259002e+001  3.862497e+001 
3715625000  -6.332561e+001  3.834459e+001 
3718750000  -6.287426e+001  2.649542e+001 
3721875000  -6.363124e+001  5.575050e+000 
3725000000  -6.257164e+001  1.659108e+001 
3728125000  -5.959491e+001  1.051473e+001 
3731250000  -6.006173e+001  -1.568497e+001 
3734375000  -5.986498e+001  -1.421292e+001 
3737500000  -5.960324e+001  -5.130675e+001 
3740625000  -5.789772e+001  -4.376099e+001 
3743750000  -5.908278e+001  -7.234065e+001 
3746875000  -5.939652e+001  -6.018391e+001 
3750000000  -5.951359e+001  -6.870787e+001 
3753125000  -5.841267e+001  -7.468969e+001 
3756250000  -5.869243e+001  -1.015674e+002 
3759375000  -5.906248e+001  -1.052828e+002 
3762500000  -5.601934e+001  -1.063089e+002 
3765625000  -5.901512e+001  -1.230992e+002 
3768750000  -5.750850e+001  -1.418003e+002 
3771875000  -5.582060e+001  -1.339859e+002 
3775000000  -5.586942e+001  -1.594695e+002 
3778125000  -5.752314e+001  1.736269e+002 
3781250000  -5.834986e+001  -1.767312e+002 
3784375000  -5.725809e+001  1.643119e+002 
3787500000  -5.688976e+001  1.621801e+002 
3790625000  -5.666279e+001  1.404188e+002 
3793750000  -5.970684e+001  1.315442e+002 
3796875000  -5.649214e+001  1.201481e+002 
3800000000  -5.372725e+001  8.189758e+001 
3803125000  -5.636731e+001  1.056024e+002 
3806250000  -5.955146e+001  8.343515e+001 
3809375000  -5.914196e+001  7.832825e+001 
3812500000  -5.748415e+001  6.882816e+001 
3815625000  -6.232558e+001  6.462418e+001 
3818750000  -6.159081e+001  3.419666e+001 
3821875000  -6.201614e+001  6.600699e+001 
3825000000  -5.844044e+001  4.895071e+001 
3828125000  -5.930407e+001  3.552066e+001 
3831250000  -5.987067e+001  1.998315e+000 
3834375000  -6.392305e+001  1.384072e+001 
3837500000  -6.274761e+001  1.145334e+001 
3840625000  -5.840863e+001  1.651758e+001 
3843750000  -6.223206e+001  2.211447e-001 
3846875000  -6.067984e+001  -1.776549e+001 
3850000000  -6.364861e+001  3.070332e+000 
3853125000  -6.426473e+001  -1.507742e+001 
3856250000  -5.810991e+001  4.934423e-001 
3859375000  -6.050719e+001  -3.621456e+001 
3862500000  -5.835401e+001  -2.376161e+001 
3865625000  -5.898554e+001  -4.841998e+001 
3868750000  -6.234129e+001  -4.711073e+001 
3871875000  -5.730202e+001  -6.236687e+001 
3875000000  -5.951834e+001  -6.862033e+001 
3878125000  -5.694144e+001  -6.997288e+001 
3881250000  -6.084267e+001  -8.867740e+001 
3884375000  -5.676645e+001  -9.555869e+001 
3887500000  -5.859899e+001  -1.096485e+002 
3890625000  -5.636518e+001  -1.098475e+002 
3893750000  -5.642050e+001  -1.375303e+002 
3896875000  -5.747815e+001  -1.268920e+002 
3900000000  -5.670522e+001  -1.502824e+002 
3903125000  -5.473117e+001  -1.437739e+002 
3906250000  -5.424338e+001  -1.681408e+002 
3909375000  -5.472425e+001  1.781844e+002 
3912500000  -5.413530e+001  1.607437e+002 
3915625000  -5.562739e+001  1.539636e+002 
3918750000  -5.544171e+001  1.570273e+002 
3921875000  -5.387508e+001  1.529163e+002 
3925000000  -5.264793e+001  1.246178e+002 
3928125000  -5.252896e+001  1.028522e+002 
3931250000  -5.404288e+001  1.086919e+002 
3934375000  -5.437177e+001  9.729734e+001 
3937500000  -5.448464e+001  8.654517e+001 
3940625000  -5.483504e+001  7.648790e+001 
3943750000  -5.310509e+001  6.376474e+001 
3946875000  -5.415639e+001  5.573897e+001 
3950000000  -5.657097e+001  4.767719e+001 
3953125000  -5.386520e+001  4.457969e+001 
3956250000  -5.361533e+001  2.371254e+001 
3959375000  -5.175410e+001  1.230800e+001 
3962500000  -5.238349e+001  -7.272773e+000 
3965625000  -5.477203e+001  -1.703112e+001 
3968750000  -5.350842e+001  -3.233038e+001 
3971875000  -5.303775e+001  -3.961259e+001 
3975000000  -5.472334e+001  -5.089329e+001 
3978125000  -5.480693e+001  -5.802336e+001 
3981250000  -5.539075e+001  -7.671847e+001 
3984375000  -5.598035e+001  -8.862092e+001 
3987500000  -5.576077e+001  -9.353381e+001 
3990625000  -5.756481e+001  -9.656647e+001 
3993750000  -5.759056e+001  -1.139366e+002 
3996875000  -5.979598e+001  -1.229147e+002 
4000000000  -6.025260e+001  -1.269265e+002 
4003125000  -5.952610e+001  -1.224673e+002 
4006250000  -5.515335e+001  -1.420278e+002 
4009375000  -5.803703e+001  -1.435726e+002 
4012500000  -5.893137e+001  -1.527967e+002 
4015625000  -5.990983e+001  -1.772379e+002 
4018750000  -6.209173e+001  -1.616087e+002 
4021875000  -6.055407e+001  -1.732843e+002 
4025000000  -5.965782e+001  1.682999e+002 
4028125000  -5.990211e+001  1.656903e+002 
4031250000  -6.039848e+001  1.716084e+002 
4034375000  -6.013207e+001  1.707696e+002 
4037500000  -5.721080e+001  1.584413e+002 
4040625000  -6.017732e+001  1.569881e+002 
4043750000  -5.803407e+001  1.419523e+002 
4046875000  -5.752129e+001  1.438024e+002 
4050000000  -5.815245e+001  1.258291e+002 
4053125000  -5.772789e+001  1.417192e+002 
4056250000  -5.725533e+001  1.227299e+002 
4059375000  -5.594718e+001  9.858476e+001 
4062500000  -5.592265e+001  9.743388e+001 
4065625000  -5.399038e+001  8.220353e+001 
4068750000  -5.373265e+001  7.593802e+001 
4071875000  -5.256913e+001  6.467483e+001 
4075000000  -5.416070e+001  4.658910e+001 
4078125000  -5.343112e+001  3.993851e+001 
4081250000  -5.346746e+001  3.322232e+001 
4084375000  -5.204722e+001  9.639312e+000 
4087500000  -5.381382e+001  -4.810113e+000 
4090625000  -5.402859e+001  -8.010210e+000 
4093750000  -5.304732e+001  -1.538326e+001 
4096875000  -5.328696e+001  -2.777271e+001 
4100000000  -5.285308e+001  -4.739822e+001 
4103125000  -5.512346e+001  -5.124567e+001 
4106250000  -5.414799e+001  -5.129459e+001 
4109375000  -5.329332e+001  -6.457825e+001 
4112500000  -5.199216e+001  -7.705079e+001 
4115625000  -5.269812e+001  -9.137024e+001 
4118750000  -5.313154e+001  -9.883010e+001 
4121875000  -5.310429e+001  -1.098861e+002 
4125000000  -5.481015e+001  -1.216302e+002 
4128125000  -5.439098e+001  -1.231662e+002 
4131250000  -5.393915e+001  -1.276107e+002 
4134375000  -5.207868e+001  -1.476318e+002 
4137500000  -5.215380e+001  -1.701473e+002 
4140625000  -5.383532e+001  1.796802e+002 
4143750000  -5.499983e+001  1.775989e+002 
4146875000  -5.370228e+001  1.734246e+002 
4150000000  -5.472118e+001  1.632966e+002 
4153125000  -5.448707e+001  1.401943e+002 
4156250000  -5.553892e+001  1.369930e+002 
4159375000  -5.567601e+001  1.347822e+002 
4162500000  -5.534785e+001  1.225458e+002 
4165625000  -5.634308e+001  1.184882e+002 
4168750000  -5.368289e+001  8.865831e+001 
4171875000  -5.541078e+001  7.968896e+001 
4175000000  -5.675688e+001  5.961131e+001 
4178125000  -5.824552e+001  6.860831e+001 
4181250000  -5.719842e+001  4.487580e+001 
4184375000  -5.773906e+001  4.616768e+001 
4187500000  -5.919297e+001  2.962672e+001 
4190625000  -6.037070e+001  3.736293e+001 
4193750000  -6.129067e+001  6.185764e+000 
4196875000  -6.188144e+001  1.722560e+001 
4200000000  -6.519459e+001  3.313033e+000 
4203125000  -6.705671e+001  8.169776e+000 
4206250000  -6.138553e+001  2.697953e+001 
4209375000  -5.922965e+001  -6.986609e+000 
4212500000  -6.097266e+001  9.690809e+000 
4215625000  -6.579578e+001  -1.477265e+001 
4218750000  -6.108754e+001  1.417077e+001 
4221875000  -6.310970e+001  -1.794815e+001 
4225000000  -5.949257e+001  -2.261703e+001 
4228125000  -5.773182e+001  -3.217318e+001 
4231250000  -5.756500e+001  -3.352338e+001 
4234375000  -5.759895e+001  -3.623825e+001 
4237500000  -5.904699e+001  -4.901757e+001 
4240625000  -5.716914e+001  -6.605587e+001 
4243750000  -5.748536e+001  -6.371627e+001 
4246875000  -5.616552e+001  -7.149921e+001 
4250000000  -5.701622e+001  -8.207424e+001 
4253125000  -5.510720e+001  -8.334044e+001 
4256250000  -5.637724e+001  -1.024805e+002 
4259375000  -5.486778e+001  -1.073654e+002 
4262500000  -5.452167e+001  -1.261380e+002 
4265625000  -5.316498e+001  -1.241749e+002 
4268750000  -5.284716e+001  -1.416584e+002 
4271875000  -5.216409e+001  -1.550020e+002 
4275000000  -5.124785e+001  -1.691167e+002 
4278125000  -5.295783e+001  1.765537e+002 
4281250000  -5.198310e+001  1.699623e+002 
4284375000  -5.515250e+001  1.533191e+002 
4287500000  -5.456963e+001  1.498368e+002 
4290625000  -5.634449e+001  1.478352e+002 
4293750000  -5.302768e+001  1.462621e+002 
4296875000  -5.070103e+001  1.210905e+002 
4300000000  -5.315354e+001  1.022272e+002 
4303125000  -5.304401e+001  1.024253e+002 
4306250000  -5.199321e+001  9.656615e+001 
4309375000  -5.121870e+001  7.735252e+001 
4312500000  -5.167137e+001  6.957932e+001 
4315625000  -5.187796e+001  5.957027e+001 
4318750000  -5.372345e+001  4.826877e+001 
4321875000  -5.303077e+001  3.908619e+001 
4325000000  -5.330510e+001  2.394649e+001 
4328125000  -5.155928e+001  1.484766e+001 
4331250000  -5.326432e+001  -8.642753e-001 
4334375000  -5.378938e+001  -1.844798e+001 
4337500000  -5.519867e+001  -3.457333e+001 
4340625000  -5.598161e+001  -2.895505e+001 
4343750000  -5.485918e+001  -2.900245e+001 
4346875000  -5.434125e+001  -4.583091e+001 
4350000000  -5.461188e+001  -5.404544e+001 
4353125000  -5.669769e+001  -5.963260e+001 
4356250000  -5.729869e+001  -7.482564e+001 
4359375000  -5.935092e+001  -3.638848e+001 
4362500000  -5.404417e+001  -5.230972e+001 
4365625000  -5.432207e+001  -8.108534e+001 
4368750000  -5.473594e+001  -9.687595e+001 
4371875000  -5.813512e+001  -1.017835e+002 
4375000000  -5.515776e+001  -1.137338e+002 
4378125000  -5.659092e+001  -1.040660e+002 
4381250000  -5.879478e+001  -1.336567e+002 
4384375000  -5.480532e+001  -1.395739e+002 
4387500000  -5.814368e+001  -1.484251e+002 
4390625000  -5.736280e+001  -1.466586e+002 
4393750000  -5.757028e+001  -1.462626e+002 
4396875000  -5.499910e+001  -1.567959e+002 
4400000000  -5.532041e+001  -1.594297e+002 
4403125000  -5.650064e+001  1.773363e+002 
4406250000  -5.786527e+001  1.710640e+002 
4409375000  -5.641397e+001  1.694252e+002 
4412500000  -5.585514e+001  1.543953e+002 
4415625000  -5.737911e+001  1.561459e+002 
4418750000  -5.443941e+001  1.488261e+002 
