!Agilent Technologies,E8363B,MY43030201,A.06.04.32
!Agilent E8363B: A.06.04.32
!Date: Tuesday, November 11, 2014 22:09:59
!Correction: S21(Response(S21)) 
!S1P File: Measurement: S21:
# Hz S  dB   R 50
3000000000  -4.901456e+001  -7.627162e+001 
3003125000  -5.171738e+001  -8.064700e+001 
3006250000  -5.179211e+001  -9.114619e+001 
3009375000  -5.242081e+001  -8.688116e+001 
3012500000  -5.145780e+001  -1.014821e+002 
3015625000  -5.172834e+001  -1.100698e+002 
3018750000  -5.148683e+001  -1.157182e+002 
3021875000  -4.955789e+001  -1.170704e+002 
3025000000  -4.871784e+001  -1.299356e+002 
3028125000  -4.768447e+001  -1.467037e+002 
3031250000  -4.701501e+001  -1.621383e+002 
3034375000  -4.684082e+001  1.776480e+002 
3037500000  -4.759602e+001  1.629330e+002 
3040625000  -4.942226e+001  1.530659e+002 
3043750000  -4.972317e+001  1.421819e+002 
3046875000  -5.056271e+001  1.279445e+002 
3050000000  -5.185970e+001  1.185392e+002 
3053125000  -5.168870e+001  1.189523e+002 
3056250000  -5.180446e+001  1.203043e+002 
3059375000  -5.056956e+001  1.055277e+002 
3062500000  -5.003907e+001  9.969125e+001 
3065625000  -4.956433e+001  8.500105e+001 
3068750000  -4.953859e+001  7.657034e+001 
3071875000  -4.898989e+001  6.912652e+001 
3075000000  -4.834685e+001  5.336669e+001 
3078125000  -4.844748e+001  4.198122e+001 
3081250000  -4.882121e+001  3.302879e+001 
3084375000  -4.848707e+001  2.519356e+001 
3087500000  -4.818108e+001  1.076572e+001 
3090625000  -4.794611e+001  -6.183328e+000 
3093750000  -4.905739e+001  -1.414909e+001 
3096875000  -4.924085e+001  -2.643296e+001 
3100000000  -4.912695e+001  -3.565489e+001 
3103125000  -4.999519e+001  -4.080875e+001 
3106250000  -4.924512e+001  -5.308833e+001 
3109375000  -4.982661e+001  -5.959945e+001 
3112500000  -4.949497e+001  -7.127496e+001 
3115625000  -4.935805e+001  -7.957697e+001 
3118750000  -4.975914e+001  -8.558098e+001 
3121875000  -4.880972e+001  -1.032985e+002 
3125000000  -5.071610e+001  -1.104210e+002 
3128125000  -5.082783e+001  -1.055876e+002 
3131250000  -4.802003e+001  -1.171924e+002 
3134375000  -4.722164e+001  -1.436759e+002 
3137500000  -4.853170e+001  -1.593414e+002 
3140625000  -4.946143e+001  -1.585252e+002 
3143750000  -5.016665e+001  -1.685237e+002 
3146875000  -4.995779e+001  -1.735966e+002 
3150000000  -4.950451e+001  1.756662e+002 
3153125000  -4.907048e+001  1.633918e+002 
3156250000  -5.033768e+001  1.622802e+002 
3159375000  -4.746759e+001  1.596753e+002 
3162500000  -4.661368e+001  1.365219e+002 
3165625000  -4.774230e+001  1.152719e+002 
3168750000  -4.779848e+001  1.160125e+002 
3171875000  -4.747080e+001  1.005599e+002 
3175000000  -4.810034e+001  8.614155e+001 
3178125000  -4.703392e+001  8.258043e+001 
3181250000  -4.674868e+001  6.697144e+001 
3184375000  -4.614827e+001  5.117730e+001 
3187500000  -4.812786e+001  3.533828e+001 
3190625000  -4.993960e+001  2.099927e+001 
3193750000  -4.941894e+001  2.004923e+001 
3196875000  -4.978307e+001  1.951808e+001 
3200000000  -4.823324e+001  6.835884e+000 
3203125000  -4.864990e+001  -4.388044e+000 
3206250000  -4.889281e+001  -1.717688e+001 
3209375000  -4.824755e+001  -3.129147e+001 
3212500000  -4.905654e+001  -4.120398e+001 
3215625000  -4.851373e+001  -4.616040e+001 
3218750000  -4.967183e+001  -6.832539e+001 
3221875000  -4.930080e+001  -7.584853e+001 
3225000000  -4.964667e+001  -8.768342e+001 
3228125000  -4.991432e+001  -9.729973e+001 
3231250000  -5.141570e+001  -1.023665e+002 
3234375000  -5.012162e+001  -1.089050e+002 
3237500000  -5.032961e+001  -1.197783e+002 
3240625000  -5.003954e+001  -1.295440e+002 
3243750000  -5.030026e+001  -1.493733e+002 
3246875000  -5.044147e+001  -1.564951e+002 
3250000000  -5.145227e+001  -1.654153e+002 
3253125000  -5.137777e+001  -1.718885e+002 
3256250000  -5.018375e+001  1.745422e+002 
3259375000  -5.130483e+001  1.566022e+002 
3262500000  -5.231777e+001  1.501192e+002 
3265625000  -5.272441e+001  1.415481e+002 
3268750000  -5.338425e+001  1.422724e+002 
3271875000  -5.218457e+001  1.306526e+002 
3275000000  -5.219056e+001  1.213497e+002 
3278125000  -5.239201e+001  1.061526e+002 
3281250000  -5.281768e+001  1.011128e+002 
3284375000  -5.180212e+001  9.031100e+001 
3287500000  -5.338154e+001  8.156209e+001 
3290625000  -5.293269e+001  6.636613e+001 
3293750000  -5.272427e+001  5.905959e+001 
3296875000  -5.426291e+001  5.528632e+001 
3300000000  -5.427755e+001  4.797384e+001 
3303125000  -5.332837e+001  4.067173e+001 
3306250000  -5.298333e+001  2.603849e+001 
3309375000  -5.266419e+001  1.710410e+001 
3312500000  -5.313544e+001  -9.377847e+000 
3315625000  -5.453697e+001  -1.075451e+001 
3318750000  -5.540929e+001  -1.806991e+001 
3321875000  -5.864741e+001  -2.204162e+001 
3325000000  -5.614868e+001  -2.659849e+001 
3328125000  -5.617365e+001  -3.621213e+001 
3331250000  -5.387338e+001  -3.422255e+001 
3334375000  -5.345405e+001  -4.655638e+001 
3337500000  -5.171280e+001  -7.610494e+001 
3340625000  -5.359569e+001  -9.095209e+001 
3343750000  -5.618028e+001  -8.655679e+001 
3346875000  -5.542711e+001  -1.048862e+002 
3350000000  -5.528781e+001  -1.009311e+002 
3353125000  -5.480987e+001  -1.153931e+002 
3356250000  -5.432897e+001  -1.292475e+002 
3359375000  -5.421391e+001  -1.456797e+002 
3362500000  -5.708041e+001  -1.588811e+002 
3365625000  -5.604356e+001  -1.653903e+002 
3368750000  -5.744238e+001  -1.728537e+002 
3371875000  -5.638768e+001  -1.780360e+002 
3375000000  -5.779063e+001  1.676884e+002 
3378125000  -5.870426e+001  1.765202e+002 
3381250000  -6.094398e+001  1.618935e+002 
3384375000  -5.574562e+001  -1.782709e+002 
3387500000  -5.351693e+001  1.489365e+002 
3390625000  -5.662228e+001  1.310236e+002 
3393750000  -5.792649e+001  1.223958e+002 
3396875000  -5.765137e+001  1.141084e+002 
3400000000  -5.441265e+001  9.505535e+001 
3403125000  -5.769770e+001  7.694205e+001 
3406250000  -5.742658e+001  7.275524e+001 
3409375000  -5.686340e+001  5.636606e+001 
3412500000  -5.851792e+001  5.782359e+001 
3415625000  -5.930762e+001  3.467815e+001 
3418750000  -6.155252e+001  3.585259e+001 
3421875000  -6.097005e+001  2.056772e+001 
3425000000  -5.867610e+001  3.150641e+001 
3428125000  -5.877018e+001  5.223711e+000 
3431250000  -6.023849e+001  2.101115e+000 
3434375000  -5.879391e+001  -2.827893e+001 
3437500000  -6.454285e+001  -1.854850e+001 
3440625000  -6.070887e+001  -1.632198e+001 
3443750000  -6.104755e+001  -3.774104e+001 
3446875000  -6.008282e+001  -6.249166e+001 
3450000000  -6.350943e+001  -7.805722e+001 
3453125000  -6.088316e+001  -6.833314e+001 
3456250000  -6.856197e+001  -1.063391e+002 
3459375000  -6.531730e+001  -6.872637e+001 
3462500000  -6.968291e+001  -9.522003e+001 
3465625000  -6.648741e+001  -1.047345e+002 
3468750000  -6.846458e+001  -1.095675e+002 
3471875000  -6.719471e+001  -1.120443e+002 
3475000000  -6.598126e+001  -9.381281e+001 
3478125000  -6.580441e+001  -7.869558e+001 
3481250000  -7.707462e+001  -1.521261e+002 
3484375000  -6.781911e+001  -1.350776e+002 
3487500000  -6.415299e+001  -1.372887e+002 
3490625000  -6.707030e+001  -1.285929e+002 
3493750000  -7.326180e+001  -1.607746e+002 
3496875000  -6.864088e+001  -1.769931e+002 
3500000000  -6.980229e+001  -1.787734e+002 
3503125000  -6.356934e+001  -1.371011e+002 
3506250000  -6.634966e+001  -1.660216e+002 
3509375000  -6.864851e+001  1.660543e+002 
3512500000  -6.521927e+001  1.571673e+002 
3515625000  -6.457529e+001  1.393354e+002 
3518750000  -6.754126e+001  1.586521e+002 
3521875000  -7.510511e+001  1.500779e+002 
3525000000  -7.160950e+001  1.042952e+002 
3528125000  -6.944235e+001  7.780721e+001 
3531250000  -6.530775e+001  1.437898e+002 
3534375000  -6.788671e+001  9.946156e+001 
3537500000  -7.050044e+001  9.892207e+001 
3540625000  -6.646256e+001  7.968593e+001 
3543750000  -7.680744e+001  9.896796e+001 
3546875000  -7.007899e+001  1.038865e+002 
3550000000  -6.734048e+001  9.204060e+001 
3553125000  -6.712487e+001  2.637185e+001 
3556250000  -7.674258e+001  2.795351e+001 
3559375000  -7.690186e+001  5.498800e+000 
3562500000  -6.920527e+001  8.338842e+000 
3565625000  -7.343387e+001  2.599991e+001 
3568750000  -7.661349e+001  -2.751826e+001 
3571875000  -7.089955e+001  3.099839e+001 
3575000000  -7.396201e+001  -6.265326e+000 
3578125000  -6.924412e+001  3.679408e+001 
3581250000  -8.081608e+001  3.365910e+001 
3584375000  -6.854567e+001  3.265476e+001 
3587500000  -7.722326e+001  -3.712865e+001 
3590625000  -6.680956e+001  2.811085e+001 
3593750000  -6.533812e+001  -3.151350e+001 
3596875000  -6.779959e+001  5.503122e+001 
3600000000  -6.791261e+001  -5.437653e+001 
3603125000  -6.436092e+001  -1.066313e+001 
3606250000  -6.680791e+001  -3.387658e+001 
3609375000  -6.394693e+001  -5.435802e+000 
3612500000  -6.456306e+001  -8.246852e+001 
3615625000  -6.740350e+001  -6.283283e+001 
3618750000  -6.462020e+001  -8.002011e+001 
3621875000  -6.244770e+001  -6.877335e+001 
3625000000  -6.827057e+001  -8.835940e+001 
3628125000  -6.515420e+001  -1.254356e+002 
3631250000  -6.121561e+001  -1.140339e+002 
3634375000  -6.234275e+001  -1.214348e+002 
3637500000  -6.266587e+001  -1.146206e+002 
3640625000  -5.966560e+001  -1.453888e+002 
3643750000  -6.191305e+001  -1.416794e+002 
3646875000  -6.040720e+001  -1.602246e+002 
3650000000  -6.167651e+001  1.732882e+002 
3653125000  -6.418766e+001  1.675800e+002 
3656250000  -7.088530e+001  -1.692781e+002 
3659375000  -6.302398e+001  1.481998e+002 
3662500000  -6.580211e+001  1.421691e+002 
3665625000  -6.233007e+001  1.610564e+002 
3668750000  -5.973493e+001  1.184778e+002 
3671875000  -6.641826e+001  1.149033e+002 
3675000000  -6.243050e+001  1.071040e+002 
3678125000  -6.522108e+001  1.263984e+002 
3681250000  -6.084113e+001  9.665781e+001 
3684375000  -6.931665e+001  7.257906e+001 
3687500000  -6.494199e+001  6.841983e+001 
3690625000  -6.708427e+001  6.925282e+001 
3693750000  -6.255441e+001  9.883572e+001 
3696875000  -6.919951e+001  5.404811e+001 
3700000000  -6.238194e+001  8.201974e+001 
3703125000  -6.477016e+001  6.116827e+001 
3706250000  -6.529066e+001  6.333064e+001 
3709375000  -6.861566e+001  7.342629e+001 
3712500000  -6.151837e+001  6.177256e+001 
3715625000  -6.277307e+001  2.927520e+001 
3718750000  -6.077286e+001  2.640002e+001 
3721875000  -6.194098e+001  1.233890e+001 
3725000000  -6.384591e+001  -1.025901e+001 
3728125000  -5.972720e+001  6.720399e+000 
3731250000  -6.187550e+001  -3.782902e+000 
3734375000  -6.125819e+001  -2.663821e+001 
3737500000  -5.850286e+001  -3.953445e+001 
3740625000  -5.760563e+001  -3.602086e+001 
3743750000  -5.906042e+001  -5.022794e+001 
3746875000  -5.859298e+001  -5.737092e+001 
3750000000  -6.058426e+001  -9.414729e+001 
3753125000  -5.802721e+001  -8.180440e+001 
3756250000  -5.712948e+001  -1.054597e+002 
3759375000  -5.804717e+001  -1.107733e+002 
3762500000  -5.805678e+001  -1.330073e+002 
3765625000  -5.839817e+001  -1.251843e+002 
3768750000  -5.693781e+001  -1.373710e+002 
3771875000  -5.594243e+001  -1.373878e+002 
3775000000  -5.519383e+001  -1.601629e+002 
3778125000  -5.646542e+001  1.698478e+002 
3781250000  -5.848586e+001  1.739999e+002 
3784375000  -5.758335e+001  1.653345e+002 
3787500000  -5.709086e+001  1.517575e+002 
3790625000  -5.841783e+001  1.398704e+002 
3793750000  -5.717345e+001  1.400827e+002 
3796875000  -5.645464e+001  1.247475e+002 
3800000000  -5.375518e+001  7.797737e+001 
3803125000  -5.692501e+001  9.684702e+001 
3806250000  -5.913476e+001  6.271641e+001 
3809375000  -5.948576e+001  7.764807e+001 
3812500000  -5.866776e+001  6.176196e+001 
3815625000  -6.019964e+001  3.096084e+001 
3818750000  -6.023455e+001  2.483477e+001 
3821875000  -6.411465e+001  6.683166e+001 
3825000000  -5.885306e+001  5.335221e+001 
3828125000  -5.854236e+001  3.470271e+001 
3831250000  -5.875999e+001  4.492354e+000 
3834375000  -6.220634e+001  2.394533e+001 
3837500000  -6.323088e+001  7.101641e+000 
3840625000  -6.148574e+001  -1.764039e+001 
3843750000  -6.161622e+001  1.219915e+001 
3846875000  -6.448101e+001  -2.360277e+001 
3850000000  -6.774846e+001  1.057214e+000 
3853125000  -6.481394e+001  -1.948650e+001 
3856250000  -6.306221e+001  -1.309213e+001 
3859375000  -6.127599e+001  -3.936962e+001 
3862500000  -5.999397e+001  -3.587698e+001 
3865625000  -6.004408e+001  -6.113381e+001 
3868750000  -5.866362e+001  -4.356580e+001 
3871875000  -5.777572e+001  -5.824955e+001 
3875000000  -6.158265e+001  -7.825657e+001 
3878125000  -5.766920e+001  -9.339199e+001 
3881250000  -5.712244e+001  -9.125703e+001 
3884375000  -5.582098e+001  -1.006887e+002 
3887500000  -5.644899e+001  -1.150460e+002 
3890625000  -5.495063e+001  -1.185547e+002 
3893750000  -5.604382e+001  -1.363495e+002 
3896875000  -5.567702e+001  -1.330548e+002 
3900000000  -5.695279e+001  -1.455942e+002 
3903125000  -5.353606e+001  -1.535412e+002 
3906250000  -5.372765e+001  -1.718737e+002 
3909375000  -5.489846e+001  1.715543e+002 
3912500000  -5.492913e+001  1.637878e+002 
3915625000  -5.662531e+001  1.469955e+002 
3918750000  -5.431366e+001  1.488487e+002 
3921875000  -5.565346e+001  1.349077e+002 
3925000000  -5.293040e+001  1.243913e+002 
3928125000  -5.312931e+001  1.066179e+002 
3931250000  -5.431246e+001  9.785523e+001 
3934375000  -5.440310e+001  8.538048e+001 
3937500000  -5.468730e+001  8.885167e+001 
3940625000  -5.431841e+001  7.707188e+001 
3943750000  -5.417301e+001  6.123778e+001 
3946875000  -5.293455e+001  4.514827e+001 
3950000000  -5.493516e+001  3.914158e+001 
3953125000  -5.456933e+001  3.012415e+001 
3956250000  -5.528391e+001  1.965535e+001 
3959375000  -5.112263e+001  8.094266e+000 
3962500000  -5.166934e+001  -2.847039e+000 
3965625000  -5.292699e+001  -1.732129e+001 
3968750000  -5.524237e+001  -3.118174e+001 
3971875000  -5.437485e+001  -4.090102e+001 
3975000000  -5.448095e+001  -6.122047e+001 
3978125000  -5.396945e+001  -6.602402e+001 
3981250000  -5.640972e+001  -7.252022e+001 
3984375000  -5.523182e+001  -8.472554e+001 
3987500000  -5.538817e+001  -9.347373e+001 
3990625000  -5.646500e+001  -9.595359e+001 
3993750000  -5.808519e+001  -1.194769e+002 
3996875000  -5.824457e+001  -1.245242e+002 
4000000000  -5.838041e+001  -1.455485e+002 
4003125000  -5.901119e+001  -1.269620e+002 
4006250000  -5.589007e+001  -1.272861e+002 
4009375000  -5.791022e+001  -1.521267e+002 
4012500000  -6.041649e+001  -1.773374e+002 
4015625000  -5.933489e+001  1.795713e+002 
4018750000  -5.984147e+001  -1.610741e+002 
4021875000  -6.038923e+001  -1.679996e+002 
4025000000  -5.909966e+001  1.726857e+002 
4028125000  -5.950936e+001  1.798620e+002 
4031250000  -6.127880e+001  1.633675e+002 
4034375000  -6.131229e+001  1.611907e+002 
4037500000  -5.852020e+001  1.589726e+002 
4040625000  -6.146825e+001  1.414787e+002 
4043750000  -5.761334e+001  1.416023e+002 
4046875000  -5.914215e+001  1.379459e+002 
4050000000  -5.711902e+001  1.184351e+002 
4053125000  -5.850108e+001  1.255477e+002 
4056250000  -5.950505e+001  1.253511e+002 
4059375000  -5.738034e+001  1.126029e+002 
4062500000  -5.365121e+001  9.620061e+001 
4065625000  -5.429710e+001  7.857185e+001 
4068750000  -5.440293e+001  7.242263e+001 
4071875000  -5.318439e+001  5.686134e+001 
4075000000  -5.362076e+001  4.539216e+001 
4078125000  -5.524990e+001  3.136034e+001 
4081250000  -5.350920e+001  2.540700e+001 
4084375000  -5.283019e+001  8.236722e+000 
4087500000  -5.292638e+001  -4.820146e+000 
4090625000  -5.325953e+001  -6.345587e+000 
4093750000  -5.284319e+001  -1.908825e+001 
4096875000  -5.231110e+001  -3.875506e+001 
4100000000  -5.379752e+001  -4.629029e+001 
4103125000  -5.553244e+001  -4.653237e+001 
4106250000  -5.426295e+001  -4.813161e+001 
4109375000  -5.325333e+001  -6.018790e+001 
4112500000  -5.258152e+001  -8.646017e+001 
4115625000  -5.352780e+001  -9.173856e+001 
4118750000  -5.261432e+001  -1.049109e+002 
4121875000  -5.311734e+001  -1.204060e+002 
4125000000  -5.315145e+001  -1.281661e+002 
4128125000  -5.443822e+001  -1.355239e+002 
4131250000  -5.387894e+001  -1.407226e+002 
4134375000  -5.141187e+001  -1.459546e+002 
4137500000  -5.195462e+001  -1.705792e+002 
4140625000  -5.518420e+001  1.771655e+002 
4143750000  -5.577186e+001  1.702133e+002 
4146875000  -5.470918e+001  1.555828e+002 
4150000000  -5.536073e+001  1.518686e+002 
4153125000  -5.510748e+001  1.407391e+002 
4156250000  -5.561338e+001  1.249121e+002 
4159375000  -5.613405e+001  1.373867e+002 
4162500000  -5.535194e+001  1.134133e+002 
4165625000  -5.535879e+001  1.110201e+002 
4168750000  -5.559111e+001  8.088789e+001 
4171875000  -5.486003e+001  7.248600e+001 
4175000000  -5.594326e+001  6.046172e+001 
4178125000  -5.569786e+001  6.317528e+001 
4181250000  -5.706967e+001  4.831259e+001 
4184375000  -5.800112e+001  3.555309e+001 
4187500000  -5.977507e+001  3.023225e+001 
4190625000  -6.091026e+001  2.854254e+001 
4193750000  -6.072364e+001  1.722424e+001 
4196875000  -6.244814e+001  -8.054116e+000 
4200000000  -6.348523e+001  2.537115e+001 
4203125000  -6.730052e+001  -6.553994e+000 
4206250000  -5.951453e+001  2.889653e+001 
4209375000  -5.926024e+001  -1.710691e+001 
4212500000  -6.396135e+001  1.403447e+000 
4215625000  -6.365706e+001  -2.765395e+001 
4218750000  -6.320982e+001  1.129420e+001 
4221875000  -6.115567e+001  -2.322155e+001 
4225000000  -6.184636e+001  -1.487788e+001 
4228125000  -5.648013e+001  -3.590413e+001 
4231250000  -5.905744e+001  -1.356985e+001 
4234375000  -5.719009e+001  -5.623766e+001 
4237500000  -5.689979e+001  -3.767794e+001 
4240625000  -5.702851e+001  -4.875514e+001 
4243750000  -5.844397e+001  -7.411183e+001 
4246875000  -5.691369e+001  -7.115569e+001 
4250000000  -5.759266e+001  -9.434503e+001 
4253125000  -5.485176e+001  -9.666441e+001 
4256250000  -5.611319e+001  -1.069026e+002 
4259375000  -5.629768e+001  -1.117093e+002 
4262500000  -5.442213e+001  -1.240978e+002 
4265625000  -5.538448e+001  -1.211154e+002 
4268750000  -5.350817e+001  -1.438688e+002 
4271875000  -5.161775e+001  -1.461431e+002 
4275000000  -5.158202e+001  -1.798510e+002 
4278125000  -5.415216e+001  1.692229e+002 
4281250000  -5.542743e+001  1.608272e+002 
4284375000  -5.414434e+001  1.583407e+002 
4287500000  -5.283880e+001  1.367135e+002 
4290625000  -5.419752e+001  1.464893e+002 
4293750000  -5.303971e+001  1.438881e+002 
4296875000  -5.213927e+001  1.169340e+002 
4300000000  -5.313921e+001  9.831512e+001 
4303125000  -5.304329e+001  8.536518e+001 
4306250000  -5.331162e+001  1.017200e+002 
4309375000  -5.129296e+001  8.137408e+001 
4312500000  -5.236675e+001  6.443512e+001 
4315625000  -5.111028e+001  4.795120e+001 
4318750000  -5.436463e+001  3.892830e+001 
4321875000  -5.201373e+001  3.183511e+001 
4325000000  -5.263894e+001  1.626354e+001 
4328125000  -5.217405e+001  1.106141e+001 
4331250000  -5.359561e+001  -1.025437e+001 
4334375000  -5.435460e+001  -6.978478e+000 
4337500000  -5.642332e+001  -3.012016e+001 
4340625000  -5.519273e+001  -2.672044e+001 
4343750000  -5.400502e+001  -4.608987e+001 
4346875000  -5.551235e+001  -4.158896e+001 
4350000000  -5.542496e+001  -7.443374e+001 
4353125000  -5.702509e+001  -9.162804e+001 
4356250000  -5.841700e+001  -7.773815e+001 
4359375000  -5.969385e+001  -3.606597e+001 
4362500000  -5.462203e+001  -6.698331e+001 
4365625000  -5.434182e+001  -1.000684e+002 
4368750000  -5.581238e+001  -1.134457e+002 
4371875000  -5.695176e+001  -1.173645e+002 
4375000000  -5.587816e+001  -1.118876e+002 
4378125000  -5.586291e+001  -1.284034e+002 
4381250000  -5.631950e+001  -1.337426e+002 
4384375000  -5.811075e+001  -1.324009e+002 
4387500000  -5.689482e+001  -1.422162e+002 
4390625000  -5.750819e+001  -1.618017e+002 
4393750000  -5.694176e+001  -1.480488e+002 
4396875000  -5.416922e+001  -1.594856e+002 
4400000000  -5.653389e+001  -1.687340e+002 
4403125000  -5.545374e+001  1.747251e+002 
4406250000  -5.615653e+001  1.747917e+002 
4409375000  -5.611396e+001  1.673509e+002 
4412500000  -5.804595e+001  1.546882e+002 
4415625000  -5.511965e+001  1.622975e+002 
4418750000  -5.372057e+001  1.549399e+002 
