!Agilent Technologies,E8363B,MY43030201,A.06.04.32
!Agilent E8363B: A.06.04.32
!Date: Tuesday, November 11, 2014 22:13:19
!Correction: S21(Response(S21)) 
!S1P File: Measurement: S21:
# Hz S  dB   R 50
3000000000  -4.907545e+001  -7.520834e+001 
3003125000  -5.180171e+001  -7.908794e+001 
3006250000  -5.157068e+001  -8.528651e+001 
3009375000  -5.175571e+001  -8.779517e+001 
3012500000  -5.172049e+001  -1.008788e+002 
3015625000  -5.090886e+001  -1.079295e+002 
3018750000  -5.159232e+001  -1.172680e+002 
3021875000  -4.997256e+001  -1.182144e+002 
3025000000  -4.883884e+001  -1.293232e+002 
3028125000  -4.811777e+001  -1.440552e+002 
3031250000  -4.707709e+001  -1.619204e+002 
3034375000  -4.731319e+001  -1.781084e+002 
3037500000  -4.770849e+001  1.657768e+002 
3040625000  -4.926244e+001  1.533352e+002 
3043750000  -4.982217e+001  1.392934e+002 
3046875000  -5.118253e+001  1.320187e+002 
3050000000  -5.179988e+001  1.218879e+002 
3053125000  -5.140239e+001  1.209339e+002 
3056250000  -5.021976e+001  1.195335e+002 
3059375000  -5.088148e+001  1.140456e+002 
3062500000  -4.953571e+001  1.012032e+002 
3065625000  -4.920763e+001  8.789879e+001 
3068750000  -4.873437e+001  7.567152e+001 
3071875000  -4.891321e+001  6.710590e+001 
3075000000  -4.884594e+001  5.614322e+001 
3078125000  -4.799402e+001  4.451443e+001 
3081250000  -4.863982e+001  3.543035e+001 
3084375000  -4.818269e+001  2.668961e+001 
3087500000  -4.806394e+001  1.377959e+001 
3090625000  -4.785825e+001  -5.776535e+000 
3093750000  -4.870638e+001  -1.513264e+001 
3096875000  -4.954960e+001  -2.353300e+001 
3100000000  -4.932949e+001  -3.549566e+001 
3103125000  -5.021574e+001  -3.895938e+001 
3106250000  -4.924525e+001  -4.916768e+001 
3109375000  -4.967763e+001  -5.887632e+001 
3112500000  -4.955991e+001  -7.042716e+001 
3115625000  -4.918777e+001  -7.972012e+001 
3118750000  -4.953883e+001  -8.512251e+001 
3121875000  -4.883778e+001  -9.839766e+001 
3125000000  -5.054367e+001  -1.072548e+002 
3128125000  -5.089933e+001  -1.069883e+002 
3131250000  -4.848543e+001  -1.170399e+002 
3134375000  -4.773516e+001  -1.404248e+002 
3137500000  -4.877530e+001  -1.569940e+002 
3140625000  -4.925030e+001  -1.636513e+002 
3143750000  -5.025188e+001  -1.700123e+002 
3146875000  -4.978505e+001  -1.733618e+002 
3150000000  -4.924723e+001  1.797849e+002 
3153125000  -4.930239e+001  1.656995e+002 
3156250000  -5.015955e+001  1.634849e+002 
3159375000  -4.765643e+001  1.572384e+002 
3162500000  -4.662033e+001  1.370279e+002 
3165625000  -4.784119e+001  1.199320e+002 
3168750000  -4.771221e+001  1.163142e+002 
3171875000  -4.708650e+001  1.031977e+002 
3175000000  -4.761815e+001  9.088934e+001 
3178125000  -4.752430e+001  8.387381e+001 
3181250000  -4.655912e+001  6.768954e+001 
3184375000  -4.701661e+001  5.170941e+001 
3187500000  -4.758672e+001  3.493584e+001 
3190625000  -4.929465e+001  1.805396e+001 
3193750000  -4.924894e+001  1.893472e+001 
3196875000  -4.944315e+001  1.502732e+001 
3200000000  -4.812192e+001  9.767431e+000 
3203125000  -4.814425e+001  -5.378239e+000 
3206250000  -4.836763e+001  -1.510807e+001 
3209375000  -4.804688e+001  -3.024624e+001 
3212500000  -4.883554e+001  -3.896094e+001 
3215625000  -4.792738e+001  -4.663623e+001 
3218750000  -4.908522e+001  -6.298396e+001 
3221875000  -4.955254e+001  -7.771820e+001 
3225000000  -5.010571e+001  -8.264832e+001 
3228125000  -4.981794e+001  -9.338121e+001 
3231250000  -5.029397e+001  -1.042317e+002 
3234375000  -5.038292e+001  -1.096655e+002 
3237500000  -5.040012e+001  -1.225838e+002 
3240625000  -5.067392e+001  -1.270057e+002 
3243750000  -4.966023e+001  -1.429055e+002 
3246875000  -5.032800e+001  -1.547051e+002 
3250000000  -5.120654e+001  -1.675951e+002 
3253125000  -5.155928e+001  -1.716875e+002 
3256250000  -5.007584e+001  1.753454e+002 
3259375000  -5.102462e+001  1.601224e+002 
3262500000  -5.243937e+001  1.502586e+002 
3265625000  -5.341714e+001  1.449921e+002 
3268750000  -5.373433e+001  1.464786e+002 
3271875000  -5.220099e+001  1.383642e+002 
3275000000  -5.121068e+001  1.215348e+002 
3278125000  -5.265528e+001  1.109337e+002 
3281250000  -5.301948e+001  1.042301e+002 
3284375000  -5.255630e+001  8.665914e+001 
3287500000  -5.308493e+001  8.430743e+001 
3290625000  -5.315007e+001  6.952326e+001 
3293750000  -5.291762e+001  6.136711e+001 
3296875000  -5.342147e+001  5.661330e+001 
3300000000  -5.394678e+001  4.740052e+001 
3303125000  -5.238883e+001  3.831926e+001 
3306250000  -5.346387e+001  2.997062e+001 
3309375000  -5.253643e+001  1.483824e+001 
3312500000  -5.370469e+001  -5.086674e+000 
3315625000  -5.456461e+001  -7.920329e+000 
3318750000  -5.533418e+001  -2.227560e+001 
3321875000  -5.819007e+001  -2.988592e+001 
3325000000  -5.603283e+001  -2.127961e+001 
3328125000  -5.600465e+001  -2.024940e+001 
3331250000  -5.442678e+001  -2.170072e+001 
3334375000  -5.282607e+001  -5.156873e+001 
3337500000  -5.275518e+001  -7.166595e+001 
3340625000  -5.475777e+001  -8.996507e+001 
3343750000  -5.586671e+001  -8.644283e+001 
3346875000  -5.499759e+001  -9.668741e+001 
3350000000  -5.421368e+001  -9.905422e+001 
3353125000  -5.432619e+001  -1.186990e+002 
3356250000  -5.435360e+001  -1.304285e+002 
3359375000  -5.516283e+001  -1.458792e+002 
3362500000  -5.604980e+001  -1.489146e+002 
3365625000  -5.651568e+001  -1.577834e+002 
3368750000  -5.731487e+001  -1.694012e+002 
3371875000  -5.695161e+001  -1.780812e+002 
3375000000  -5.898015e+001  1.709241e+002 
3378125000  -5.969952e+001  1.668515e+002 
3381250000  -5.967993e+001  1.622269e+002 
3384375000  -5.711835e+001  1.797623e+002 
3387500000  -5.448469e+001  1.486095e+002 
3390625000  -5.713027e+001  1.289970e+002 
3393750000  -5.606336e+001  1.199316e+002 
3396875000  -5.708777e+001  1.162279e+002 
3400000000  -5.524425e+001  9.518121e+001 
3403125000  -5.742698e+001  8.256990e+001 
3406250000  -5.706116e+001  6.988088e+001 
3409375000  -6.057706e+001  5.835460e+001 
3412500000  -5.775764e+001  5.482231e+001 
3415625000  -5.945215e+001  4.399738e+001 
3418750000  -5.999356e+001  4.104012e+001 
3421875000  -5.998558e+001  9.937002e+000 
3425000000  -5.897269e+001  2.105975e+001 
3428125000  -5.725731e+001  1.459863e+001 
3431250000  -6.017675e+001  -9.318549e+000 
3434375000  -5.957280e+001  -2.191024e+001 
3437500000  -6.261809e+001  -2.944818e+001 
3440625000  -6.058910e+001  -2.099881e+001 
3443750000  -6.291440e+001  -2.248071e+001 
3446875000  -6.127435e+001  -4.062220e+001 
3450000000  -6.148409e+001  -6.482949e+001 
3453125000  -6.122976e+001  -7.704405e+001 
3456250000  -6.597163e+001  -8.683154e+001 
3459375000  -6.296450e+001  -5.581656e+001 
3462500000  -6.411034e+001  -9.268144e+001 
3465625000  -6.528434e+001  -1.105259e+002 
3468750000  -6.451653e+001  -1.269015e+002 
3471875000  -6.437733e+001  -1.103378e+002 
3475000000  -6.548546e+001  -1.276181e+002 
3478125000  -7.301369e+001  -9.187040e+001 
3481250000  -6.880399e+001  -1.275600e+002 
3484375000  -6.872259e+001  -1.393267e+002 
3487500000  -7.018919e+001  -1.484618e+002 
3490625000  -6.733904e+001  -1.531227e+002 
3493750000  -6.719046e+001  -1.427548e+002 
3496875000  -7.151847e+001  -1.142359e+002 
3500000000  -6.486157e+001  -1.617285e+002 
3503125000  -6.626405e+001  -1.587622e+002 
3506250000  -6.258957e+001  -1.553303e+002 
3509375000  -6.535361e+001  1.532757e+002 
3512500000  -6.348263e+001  1.347101e+002 
3515625000  -7.282109e+001  9.068547e+001 
3518750000  -6.383372e+001  1.349031e+002 
3521875000  -7.230399e+001  1.108131e+002 
3525000000  -6.582677e+001  1.146450e+002 
3528125000  -7.191625e+001  1.191167e+002 
3531250000  -6.446506e+001  1.153789e+002 
3534375000  -6.643520e+001  1.032536e+002 
3537500000  -6.446792e+001  7.892724e+001 
3540625000  -7.357356e+001  6.824454e+001 
3543750000  -7.322699e+001  -3.156813e+000 
3546875000  -7.591792e+001  1.072444e+002 
3550000000  -6.530739e+001  6.292020e+001 
3553125000  -7.816853e+001  -1.728392e+002 
3556250000  -6.940224e+001  7.416150e+000 
3559375000  -7.079213e+001  4.252840e+001 
3562500000  -7.621629e+001  2.761838e+001 
3565625000  -6.966494e+001  -5.193673e+000 
3568750000  -7.103179e+001  2.188228e+001 
3571875000  -7.047881e+001  1.431586e+001 
3575000000  -7.279033e+001  -4.790590e+001 
3578125000  -7.359841e+001  2.835100e+001 
3581250000  -7.074593e+001  3.238461e+001 
3584375000  -8.120984e+001  1.784641e+001 
3587500000  -6.847624e+001  4.541074e+001 
3590625000  -6.506335e+001  1.172058e+000 
3593750000  -6.784359e+001  -9.125165e+000 
3596875000  -6.692525e+001  3.564120e+001 
3600000000  -7.182018e+001  9.356434e+000 
3603125000  -7.084161e+001  5.594523e+001 
3606250000  -6.330631e+001  -3.105023e+001 
3609375000  -6.850182e+001  -4.448933e+001 
3612500000  -6.880698e+001  -5.819757e+001 
3615625000  -6.988591e+001  -4.648528e+001 
3618750000  -6.318112e+001  -5.862534e+001 
3621875000  -6.205035e+001  -8.463906e+001 
3625000000  -6.187772e+001  -7.518573e+001 
3628125000  -6.432182e+001  -1.166359e+002 
3631250000  -6.541949e+001  -1.333295e+002 
3634375000  -6.578789e+001  -1.176879e+002 
3637500000  -6.793849e+001  -1.335804e+002 
3640625000  -6.120681e+001  -1.452930e+002 
3643750000  -6.207155e+001  -1.498030e+002 
3646875000  -6.233693e+001  -1.521952e+002 
3650000000  -6.734899e+001  -1.737571e+002 
3653125000  -6.264214e+001  1.741371e+002 
3656250000  -6.704847e+001  1.640286e+002 
3659375000  -6.314698e+001  1.627325e+002 
3662500000  -6.325502e+001  1.549963e+002 
3665625000  -6.619778e+001  1.647374e+002 
3668750000  -6.197002e+001  1.211994e+002 
3671875000  -6.268357e+001  1.116060e+002 
3675000000  -6.331830e+001  1.058672e+002 
3678125000  -6.529777e+001  1.164903e+002 
3681250000  -6.362654e+001  1.206169e+002 
3684375000  -6.628043e+001  6.148297e+001 
3687500000  -6.561409e+001  6.660960e+001 
3690625000  -7.252512e+001  8.187893e+001 
3693750000  -6.439271e+001  8.857938e+001 
3696875000  -7.323445e+001  1.036593e+002 
3700000000  -6.460269e+001  7.692063e+001 
3703125000  -6.506496e+001  3.717917e+001 
3706250000  -6.610302e+001  8.527727e+001 
3709375000  -6.341999e+001  6.739874e+001 
3712500000  -6.131966e+001  6.324550e+001 
3715625000  -5.970311e+001  4.287053e+001 
3718750000  -6.225952e+001  3.650240e+001 
3721875000  -6.228851e+001  3.336151e+001 
3725000000  -6.122501e+001  3.152573e+000 
3728125000  -6.336953e+001  1.293754e+001 
3731250000  -6.219153e+001  -1.908682e+001 
3734375000  -5.865516e+001  -1.747274e+001 
3737500000  -6.052493e+001  -2.818117e+001 
3740625000  -5.774664e+001  -5.386342e+001 
3743750000  -6.012474e+001  -4.344684e+001 
3746875000  -5.978572e+001  -6.151659e+001 
3750000000  -5.872139e+001  -8.141985e+001 
3753125000  -5.873467e+001  -6.867747e+001 
3756250000  -5.819078e+001  -9.157002e+001 
3759375000  -5.962360e+001  -1.074499e+002 
3762500000  -5.630253e+001  -1.133966e+002 
3765625000  -5.869313e+001  -1.250514e+002 
3768750000  -5.691859e+001  -1.307491e+002 
3771875000  -5.717105e+001  -1.414260e+002 
3775000000  -5.501122e+001  -1.632796e+002 
3778125000  -5.617592e+001  1.751089e+002 
3781250000  -5.851845e+001  1.785256e+002 
3784375000  -5.594339e+001  1.658272e+002 
3787500000  -5.595725e+001  1.446785e+002 
3790625000  -5.758116e+001  1.342358e+002 
3793750000  -5.716275e+001  1.369630e+002 
3796875000  -5.623555e+001  1.211023e+002 
3800000000  -5.280701e+001  7.582399e+001 
3803125000  -5.751060e+001  9.654184e+001 
3806250000  -6.169006e+001  7.863009e+001 
3809375000  -6.060909e+001  7.568993e+001 
3812500000  -5.969361e+001  6.745010e+001 
3815625000  -6.164104e+001  4.080591e+001 
3818750000  -6.174532e+001  4.496857e+001 
3821875000  -6.321221e+001  4.946906e+001 
3825000000  -6.148848e+001  7.016329e+001 
3828125000  -5.869715e+001  2.799733e+001 
3831250000  -6.074918e+001  4.369598e+000 
3834375000  -6.258218e+001  4.464053e+000 
3837500000  -6.224542e+001  -5.869731e+000 
3840625000  -6.322057e+001  5.383001e+000 
3843750000  -6.086866e+001  -2.995156e+001 
3846875000  -6.353868e+001  -2.329602e+001 
3850000000  -6.597098e+001  2.783766e+001 
3853125000  -6.151694e+001  -5.134932e+001 
3856250000  -6.090639e+001  -1.953820e+001 
3859375000  -6.065422e+001  -3.823822e+001 
3862500000  -6.175673e+001  -2.112120e+001 
3865625000  -6.145552e+001  -3.414959e+001 
3868750000  -6.105013e+001  -4.441831e+001 
3871875000  -5.600721e+001  -5.623886e+001 
3875000000  -5.901828e+001  -7.076715e+001 
3878125000  -5.744516e+001  -8.461221e+001 
3881250000  -5.722467e+001  -8.240921e+001 
3884375000  -5.780039e+001  -8.939629e+001 
3887500000  -5.670286e+001  -1.207432e+002 
3890625000  -5.598703e+001  -1.195840e+002 
3893750000  -5.585599e+001  -1.289356e+002 
3896875000  -5.625375e+001  -1.305777e+002 
3900000000  -5.717360e+001  -1.447424e+002 
3903125000  -5.588206e+001  -1.474906e+002 
3906250000  -5.339580e+001  -1.652281e+002 
3909375000  -5.449456e+001  1.784666e+002 
3912500000  -5.465015e+001  1.695539e+002 
3915625000  -5.503146e+001  1.614233e+002 
3918750000  -5.383159e+001  1.553575e+002 
3921875000  -5.518805e+001  1.358896e+002 
3925000000  -5.286029e+001  1.326643e+002 
3928125000  -5.383737e+001  1.108651e+002 
3931250000  -5.407429e+001  1.092635e+002 
3934375000  -5.334607e+001  8.655287e+001 
3937500000  -5.628164e+001  7.967078e+001 
3940625000  -5.489403e+001  8.325879e+001 
3943750000  -5.419899e+001  7.477233e+001 
3946875000  -5.343157e+001  5.413641e+001 
3950000000  -5.436024e+001  4.132373e+001 
3953125000  -5.498793e+001  4.034442e+001 
3956250000  -5.459494e+001  1.977182e+001 
3959375000  -5.279988e+001  2.132685e+001 
3962500000  -5.293235e+001  1.078093e+000 
3965625000  -5.369247e+001  -8.954381e+000 
3968750000  -5.348006e+001  -3.260003e+001 
3971875000  -5.401760e+001  -4.605191e+001 
3975000000  -5.458646e+001  -4.747540e+001 
3978125000  -5.703922e+001  -6.213592e+001 
3981250000  -5.547643e+001  -6.813557e+001 
3984375000  -5.469746e+001  -8.083181e+001 
3987500000  -5.632286e+001  -8.192287e+001 
3990625000  -5.725410e+001  -9.501086e+001 
3993750000  -5.729672e+001  -1.254752e+002 
3996875000  -5.780639e+001  -1.280835e+002 
4000000000  -5.974570e+001  -1.107360e+002 
4003125000  -5.940423e+001  -1.359900e+002 
4006250000  -5.609383e+001  -1.392616e+002 
4009375000  -5.749041e+001  -1.527846e+002 
4012500000  -5.801779e+001  -1.661843e+002 
4015625000  -6.169913e+001  -1.460738e+002 
4018750000  -5.874250e+001  -1.636997e+002 
4021875000  -5.876710e+001  -1.732741e+002 
4025000000  -6.114804e+001  1.762690e+002 
4028125000  -5.717400e+001  -1.781707e+002 
4031250000  -6.072544e+001  1.774430e+002 
4034375000  -6.009902e+001  1.652412e+002 
4037500000  -5.875232e+001  1.513653e+002 
4040625000  -5.806250e+001  1.302913e+002 
4043750000  -5.953384e+001  1.339768e+002 
4046875000  -5.719419e+001  1.313829e+002 
4050000000  -5.796022e+001  1.352297e+002 
4053125000  -5.872478e+001  1.125719e+002 
4056250000  -5.907442e+001  1.043844e+002 
4059375000  -5.537341e+001  9.932899e+001 
4062500000  -5.531876e+001  1.024138e+002 
4065625000  -5.512588e+001  8.111850e+001 
4068750000  -5.355793e+001  7.607688e+001 
4071875000  -5.192274e+001  5.897336e+001 
4075000000  -5.300171e+001  4.951490e+001 
4078125000  -5.380891e+001  4.635320e+001 
4081250000  -5.291147e+001  2.093800e+001 
4084375000  -5.287203e+001  9.086575e+000 
4087500000  -5.387559e+001  -9.312531e+000 
4090625000  -5.352355e+001  -1.747462e+000 
4093750000  -5.330096e+001  -1.882093e+001 
4096875000  -5.229665e+001  -3.181961e+001 
4100000000  -5.316935e+001  -4.688422e+001 
4103125000  -5.579129e+001  -4.698009e+001 
4106250000  -5.502154e+001  -5.710466e+001 
4109375000  -5.344532e+001  -6.189147e+001 
4112500000  -5.194075e+001  -7.700101e+001 
4115625000  -5.265974e+001  -9.123432e+001 
4118750000  -5.185653e+001  -9.650330e+001 
4121875000  -5.332816e+001  -1.135034e+002 
4125000000  -5.363745e+001  -1.282065e+002 
4128125000  -5.503764e+001  -1.299565e+002 
4131250000  -5.375645e+001  -1.276507e+002 
4134375000  -5.206318e+001  -1.475661e+002 
4137500000  -5.210495e+001  -1.688841e+002 
4140625000  -5.460085e+001  1.661103e+002 
4143750000  -5.634570e+001  1.681660e+002 
4146875000  -5.350553e+001  1.637551e+002 
4150000000  -5.548230e+001  1.605323e+002 
4153125000  -5.417957e+001  1.418450e+002 
4156250000  -5.472924e+001  1.298431e+002 
4159375000  -5.517265e+001  1.280608e+002 
4162500000  -5.649656e+001  1.115693e+002 
4165625000  -5.391650e+001  1.183428e+002 
4168750000  -5.433712e+001  8.991128e+001 
4171875000  -5.563277e+001  8.165926e+001 
4175000000  -5.667453e+001  5.042490e+001 
4178125000  -5.913959e+001  6.879092e+001 
4181250000  -5.554956e+001  4.592073e+001 
4184375000  -6.038963e+001  4.954269e+001 
4187500000  -5.751455e+001  2.896649e+001 
4190625000  -6.043412e+001  2.793229e+001 
4193750000  -6.017123e+001  7.775846e+000 
4196875000  -6.369009e+001  -1.060453e+001 
4200000000  -6.470382e+001  7.986818e+000 
4203125000  -6.349746e+001  1.469433e+001 
4206250000  -5.879017e+001  2.563285e+001 
4209375000  -6.091272e+001  -1.424933e+001 
4212500000  -5.929255e+001  -4.835853e+000 
4215625000  -6.691756e+001  -2.289728e+001 
4218750000  -6.105391e+001  1.270259e+001 
4221875000  -5.791982e+001  -3.509155e+001 
4225000000  -5.905903e+001  -1.879708e+001 
4228125000  -6.087144e+001  -2.053180e+001 
4231250000  -5.877870e+001  -1.909008e+001 
4234375000  -5.592170e+001  -5.182063e+001 
4237500000  -5.576926e+001  -4.709208e+001 
4240625000  -5.748899e+001  -7.696947e+001 
4243750000  -5.894644e+001  -5.538444e+001 
4246875000  -5.743871e+001  -7.609618e+001 
4250000000  -5.799947e+001  -9.155533e+001 
4253125000  -5.610809e+001  -8.240156e+001 
4256250000  -5.687669e+001  -1.087841e+002 
4259375000  -5.407930e+001  -9.624281e+001 
4262500000  -5.525299e+001  -1.280514e+002 
4265625000  -5.366477e+001  -1.125479e+002 
4268750000  -5.117287e+001  -1.341252e+002 
4271875000  -5.119354e+001  -1.519648e+002 
4275000000  -5.161682e+001  -1.773985e+002 
4278125000  -5.388946e+001  1.703779e+002 
4281250000  -5.434063e+001  1.647826e+002 
4284375000  -5.273480e+001  1.505526e+002 
4287500000  -5.480971e+001  1.372195e+002 
4290625000  -5.483683e+001  1.409064e+002 
4293750000  -5.313015e+001  1.500821e+002 
4296875000  -5.243022e+001  1.130760e+002 
4300000000  -5.166338e+001  1.035487e+002 
4303125000  -5.183307e+001  1.032341e+002 
4306250000  -5.310552e+001  1.027512e+002 
4309375000  -5.179023e+001  8.330107e+001 
4312500000  -5.240333e+001  6.672559e+001 
4315625000  -5.232109e+001  4.090877e+001 
4318750000  -5.329480e+001  3.831794e+001 
4321875000  -5.332390e+001  3.427605e+001 
4325000000  -5.410741e+001  2.287385e+001 
4328125000  -5.211449e+001  1.075668e+001 
4331250000  -5.469048e+001  -1.163806e+001 
4334375000  -5.396138e+001  -1.183359e+001 
4337500000  -5.469807e+001  -3.280085e+001 
4340625000  -5.538767e+001  -3.325550e+001 
4343750000  -5.489772e+001  -5.089313e+001 
4346875000  -5.526890e+001  -3.932241e+001 
4350000000  -5.549942e+001  -5.871252e+001 
4353125000  -5.763393e+001  -6.416484e+001 
4356250000  -5.765476e+001  -7.008204e+001 
4359375000  -5.663236e+001  -5.110459e+001 
4362500000  -5.560848e+001  -7.417551e+001 
4365625000  -5.339817e+001  -9.201559e+001 
4368750000  -5.544237e+001  -1.129008e+002 
4371875000  -6.031045e+001  -1.146854e+002 
4375000000  -5.736145e+001  -1.097409e+002 
4378125000  -5.569451e+001  -1.181560e+002 
4381250000  -5.674213e+001  -1.335146e+002 
4384375000  -5.586123e+001  -1.371627e+002 
4387500000  -5.956953e+001  -1.378228e+002 
4390625000  -5.618377e+001  -1.651529e+002 
4393750000  -5.793817e+001  -1.497818e+002 
4396875000  -5.467230e+001  -1.529702e+002 
4400000000  -5.627279e+001  -1.697368e+002 
4403125000  -5.546903e+001  1.704668e+002 
4406250000  -5.703858e+001  1.757710e+002 
4409375000  -5.485201e+001  1.695362e+002 
4412500000  -5.803213e+001  1.633836e+002 
4415625000  -5.654684e+001  1.700207e+002 
4418750000  -5.446388e+001  1.581381e+002 
