!Agilent Technologies,E8363B,MY43030201,A.06.04.32
!Agilent E8363B: A.06.04.32
!Date: Tuesday, November 11, 2014 22:15:28
!Correction: S21(Response(S21)) 
!S1P File: Measurement: S21:
# Hz S  dB   R 50
3000000000  -4.923230e+001  -7.348654e+001 
3003125000  -5.102512e+001  -8.066529e+001 
3006250000  -5.189396e+001  -8.472878e+001 
3009375000  -5.196112e+001  -8.558989e+001 
3012500000  -5.089169e+001  -9.786495e+001 
3015625000  -5.126803e+001  -1.087579e+002 
3018750000  -5.178762e+001  -1.129364e+002 
3021875000  -4.997863e+001  -1.189150e+002 
3025000000  -4.827745e+001  -1.291844e+002 
3028125000  -4.788797e+001  -1.421613e+002 
3031250000  -4.712533e+001  -1.620662e+002 
3034375000  -4.694920e+001  1.799462e+002 
3037500000  -4.787873e+001  1.690067e+002 
3040625000  -4.931569e+001  1.550773e+002 
3043750000  -4.934378e+001  1.422353e+002 
3046875000  -5.076451e+001  1.305290e+002 
3050000000  -5.178777e+001  1.219841e+002 
3053125000  -5.126065e+001  1.271458e+002 
3056250000  -5.127136e+001  1.156947e+002 
3059375000  -5.030169e+001  1.145263e+002 
3062500000  -4.988781e+001  1.016424e+002 
3065625000  -4.958277e+001  8.949474e+001 
3068750000  -4.879591e+001  7.546214e+001 
3071875000  -4.902185e+001  7.350126e+001 
3075000000  -4.876835e+001  5.834079e+001 
3078125000  -4.818690e+001  4.558184e+001 
3081250000  -4.896567e+001  3.494288e+001 
3084375000  -4.828702e+001  2.787660e+001 
3087500000  -4.852621e+001  1.373843e+001 
3090625000  -4.803455e+001  -4.003709e+000 
3093750000  -4.866110e+001  -1.289115e+001 
3096875000  -4.988805e+001  -2.289735e+001 
3100000000  -4.957605e+001  -3.327771e+001 
3103125000  -4.996486e+001  -3.780295e+001 
3106250000  -4.945334e+001  -4.666761e+001 
3109375000  -4.949098e+001  -5.802781e+001 
3112500000  -4.963164e+001  -7.018658e+001 
3115625000  -4.917809e+001  -7.550288e+001 
3118750000  -4.945706e+001  -8.604156e+001 
3121875000  -4.886417e+001  -9.804032e+001 
3125000000  -5.078317e+001  -1.058489e+002 
3128125000  -5.076182e+001  -1.087165e+002 
3131250000  -4.860033e+001  -1.164746e+002 
3134375000  -4.809278e+001  -1.381349e+002 
3137500000  -4.924807e+001  -1.540950e+002 
3140625000  -4.939666e+001  -1.605930e+002 
3143750000  -5.110749e+001  -1.696074e+002 
3146875000  -5.005388e+001  -1.734648e+002 
3150000000  -4.929082e+001  1.787926e+002 
3153125000  -4.869326e+001  1.680873e+002 
3156250000  -5.062999e+001  1.629049e+002 
3159375000  -4.795055e+001  1.596098e+002 
3162500000  -4.646250e+001  1.370936e+002 
3165625000  -4.816420e+001  1.201787e+002 
3168750000  -4.779415e+001  1.165902e+002 
3171875000  -4.721642e+001  1.056638e+002 
3175000000  -4.776083e+001  9.017194e+001 
3178125000  -4.785459e+001  8.086267e+001 
3181250000  -4.650602e+001  6.917274e+001 
3184375000  -4.661110e+001  5.527954e+001 
3187500000  -4.746225e+001  3.423159e+001 
3190625000  -4.892412e+001  2.255830e+001 
3193750000  -4.961151e+001  2.606677e+001 
3196875000  -4.989785e+001  1.661312e+001 
3200000000  -4.820986e+001  9.994562e+000 
3203125000  -4.851646e+001  -3.208111e+000 
3206250000  -4.861628e+001  -1.528245e+001 
3209375000  -4.761557e+001  -3.228852e+001 
3212500000  -4.889016e+001  -4.006111e+001 
3215625000  -4.818447e+001  -4.606052e+001 
3218750000  -5.011724e+001  -6.167443e+001 
3221875000  -4.982867e+001  -7.474438e+001 
3225000000  -4.957166e+001  -8.567416e+001 
3228125000  -5.007518e+001  -9.454481e+001 
3231250000  -5.072068e+001  -1.018651e+002 
3234375000  -5.069496e+001  -1.088579e+002 
3237500000  -5.028345e+001  -1.164712e+002 
3240625000  -5.037695e+001  -1.230887e+002 
3243750000  -4.989899e+001  -1.440929e+002 
3246875000  -4.977800e+001  -1.591706e+002 
3250000000  -5.066696e+001  -1.637794e+002 
3253125000  -5.135406e+001  -1.659132e+002 
3256250000  -5.067152e+001  1.759122e+002 
3259375000  -5.088400e+001  1.614515e+002 
3262500000  -5.281079e+001  1.488260e+002 
3265625000  -5.320784e+001  1.465521e+002 
3268750000  -5.345528e+001  1.450293e+002 
3271875000  -5.328528e+001  1.315503e+002 
3275000000  -5.223745e+001  1.285060e+002 
3278125000  -5.265641e+001  1.118365e+002 
3281250000  -5.325937e+001  1.053317e+002 
3284375000  -5.211681e+001  9.265613e+001 
3287500000  -5.435943e+001  8.649126e+001 
3290625000  -5.333990e+001  7.250160e+001 
3293750000  -5.282378e+001  5.820951e+001 
3296875000  -5.390502e+001  5.865939e+001 
3300000000  -5.442945e+001  5.012828e+001 
3303125000  -5.300569e+001  3.929175e+001 
3306250000  -5.378208e+001  2.435976e+001 
3309375000  -5.303128e+001  1.479181e+001 
3312500000  -5.264994e+001  3.037795e-001 
3315625000  -5.556479e+001  -7.151835e+000 
3318750000  -5.604004e+001  -1.639563e+001 
3321875000  -5.886090e+001  -2.585694e+001 
3325000000  -5.614748e+001  -1.493651e+001 
3328125000  -5.656416e+001  -2.005394e+001 
3331250000  -5.461654e+001  -2.618497e+001 
3334375000  -5.256480e+001  -3.975491e+001 
3337500000  -5.216866e+001  -6.979367e+001 
3340625000  -5.375878e+001  -8.551627e+001 
3343750000  -5.726249e+001  -7.795627e+001 
3346875000  -5.550694e+001  -9.491628e+001 
3350000000  -5.466755e+001  -9.953673e+001 
3353125000  -5.506771e+001  -1.115496e+002 
3356250000  -5.495531e+001  -1.249937e+002 
3359375000  -5.477667e+001  -1.506967e+002 
3362500000  -5.527541e+001  -1.547845e+002 
3365625000  -5.645135e+001  -1.536070e+002 
3368750000  -5.762462e+001  -1.770824e+002 
3371875000  -5.727108e+001  -1.755762e+002 
3375000000  -5.955016e+001  1.653228e+002 
3378125000  -6.037774e+001  1.668153e+002 
3381250000  -5.881046e+001  -1.733626e+002 
3384375000  -5.804426e+001  -1.742139e+002 
3387500000  -5.348281e+001  1.483161e+002 
3390625000  -5.634969e+001  1.262887e+002 
3393750000  -5.738378e+001  1.246456e+002 
3396875000  -5.801226e+001  1.131107e+002 
3400000000  -5.592372e+001  9.667334e+001 
3403125000  -5.707244e+001  7.608017e+001 
3406250000  -5.868150e+001  8.187272e+001 
3409375000  -5.765472e+001  6.239739e+001 
3412500000  -5.822653e+001  5.997550e+001 
3415625000  -6.028623e+001  3.962849e+001 
3418750000  -6.003662e+001  3.773114e+001 
3421875000  -6.067890e+001  2.553016e+001 
3425000000  -5.935029e+001  2.031965e+001 
3428125000  -5.927437e+001  5.388492e-001 
3431250000  -6.154070e+001  4.022199e+000 
3434375000  -5.901395e+001  -3.075523e+001 
3437500000  -6.256446e+001  -1.779276e+001 
3440625000  -6.112288e+001  -2.194306e+001 
3443750000  -6.227357e+001  -2.790200e+001 
3446875000  -6.191896e+001  -4.897585e+001 
3450000000  -6.064000e+001  -8.504060e+001 
3453125000  -6.012597e+001  -6.639590e+001 
3456250000  -6.785082e+001  -1.059474e+002 
3459375000  -6.611720e+001  -9.781432e+001 
3462500000  -7.033757e+001  -7.778429e+001 
3465625000  -6.884507e+001  -1.088685e+002 
3468750000  -6.507642e+001  -1.413517e+002 
3471875000  -6.527159e+001  -9.872244e+001 
3475000000  -6.928648e+001  -1.262562e+002 
3478125000  -6.646935e+001  -1.203797e+002 
3481250000  -7.391542e+001  -1.424458e+002 
3484375000  -6.924091e+001  -8.223309e+001 
3487500000  -6.881428e+001  -1.540902e+002 
3490625000  -6.902607e+001  -1.303571e+002 
3493750000  -7.045824e+001  -1.524513e+002 
3496875000  -6.861212e+001  -1.606122e+002 
3500000000  -6.592973e+001  -1.627772e+002 
3503125000  -6.443992e+001  -1.634504e+002 
3506250000  -6.325151e+001  -1.646894e+002 
3509375000  -6.573563e+001  1.720440e+002 
3512500000  -6.646237e+001  1.483586e+002 
3515625000  -7.016171e+001  1.037710e+002 
3518750000  -6.456464e+001  1.742746e+002 
3521875000  -6.354613e+001  1.594875e+002 
3525000000  -6.694663e+001  1.186659e+002 
3528125000  -7.179305e+001  8.570274e+001 
3531250000  -6.893580e+001  1.112014e+002 
3534375000  -6.482608e+001  1.014492e+002 
3537500000  -7.024190e+001  8.368166e+001 
3540625000  -6.609492e+001  6.067036e+001 
3543750000  -6.919445e+001  1.034781e+002 
3546875000  -7.483300e+001  3.949252e+001 
3550000000  -6.998224e+001  7.086338e+001 
3553125000  -7.119166e+001  5.258584e+001 
3556250000  -8.829818e+001  7.183263e+001 
3559375000  -7.506651e+001  1.566842e+001 
3562500000  -6.725853e+001  3.191019e+001 
3565625000  -7.002314e+001  -8.831432e+000 
3568750000  -7.802222e+001  -6.904681e+000 
3571875000  -7.087676e+001  4.393834e+001 
3575000000  -7.323151e+001  1.321826e+001 
3578125000  -7.145983e+001  7.828297e+001 
3581250000  -7.798051e+001  2.083920e+000 
3584375000  -7.139150e+001  3.994249e+001 
3587500000  -7.086671e+001  -3.157224e+001 
3590625000  -6.822672e+001  -3.063851e+000 
3593750000  -6.913674e+001  -7.828892e+000 
3596875000  -6.793565e+001  3.982273e+001 
3600000000  -6.594892e+001  -2.810797e+001 
3603125000  -6.517015e+001  2.671655e+000 
3606250000  -6.216102e+001  -3.323100e+001 
3609375000  -6.666370e+001  -5.646436e+001 
3612500000  -6.259327e+001  -4.993733e+001 
3615625000  -6.776743e+001  -5.381829e+001 
3618750000  -6.261048e+001  -6.926817e+001 
3621875000  -6.651451e+001  -7.754421e+001 
3625000000  -6.313880e+001  -7.817157e+001 
3628125000  -6.186511e+001  -1.005211e+002 
3631250000  -6.235838e+001  -1.244015e+002 
3634375000  -6.619261e+001  -1.238077e+002 
3637500000  -6.535218e+001  -1.044282e+002 
3640625000  -6.152622e+001  -1.246550e+002 
3643750000  -6.276638e+001  -1.463891e+002 
3646875000  -6.117143e+001  -1.620410e+002 
3650000000  -6.310482e+001  -1.763318e+002 
3653125000  -6.446568e+001  -1.747447e+002 
3656250000  -6.262330e+001  1.617121e+002 
3659375000  -6.321000e+001  -1.785345e+002 
3662500000  -6.137106e+001  1.498090e+002 
3665625000  -6.099022e+001  1.550619e+002 
3668750000  -6.202673e+001  1.168808e+002 
3671875000  -6.260648e+001  1.210460e+002 
3675000000  -6.500048e+001  8.908912e+001 
3678125000  -6.400018e+001  1.132015e+002 
3681250000  -6.473909e+001  9.688287e+001 
3684375000  -6.535431e+001  1.093775e+002 
3687500000  -6.714909e+001  4.952302e+001 
3690625000  -7.056720e+001  7.441109e+001 
3693750000  -6.393673e+001  8.651364e+001 
3696875000  -6.830666e+001  1.100216e+002 
3700000000  -6.376910e+001  6.233323e+001 
3703125000  -6.529942e+001  6.759879e+001 
3706250000  -6.586740e+001  6.837708e+001 
3709375000  -6.664161e+001  7.297999e+001 
3712500000  -6.331225e+001  7.538279e+001 
3715625000  -6.492798e+001  4.494197e+001 
3718750000  -6.253908e+001  3.509005e+001 
3721875000  -6.071900e+001  1.021719e+001 
3725000000  -6.170835e+001  2.384743e+001 
3728125000  -6.246677e+001  9.902639e+000 
3731250000  -5.982915e+001  6.435552e-001 
3734375000  -5.808081e+001  -1.293887e+001 
3737500000  -5.917598e+001  -5.103399e+001 
3740625000  -5.944318e+001  -4.438695e+001 
3743750000  -6.031896e+001  -5.089446e+001 
3746875000  -5.961086e+001  -5.386074e+001 
3750000000  -5.835099e+001  -7.423766e+001 
3753125000  -5.743723e+001  -8.144661e+001 
3756250000  -5.810067e+001  -9.835973e+001 
3759375000  -5.896352e+001  -1.088013e+002 
3762500000  -5.866443e+001  -1.086946e+002 
3765625000  -5.826382e+001  -1.204343e+002 
3768750000  -5.735361e+001  -1.227102e+002 
3771875000  -5.647486e+001  -1.451389e+002 
3775000000  -5.689408e+001  -1.525894e+002 
3778125000  -5.749207e+001  -1.711321e+002 
3781250000  -5.646032e+001  1.644662e+002 
3784375000  -5.794937e+001  1.661437e+002 
3787500000  -5.659937e+001  1.595347e+002 
3790625000  -5.599446e+001  1.441095e+002 
3793750000  -5.836761e+001  1.242002e+002 
3796875000  -5.546758e+001  1.217781e+002 
3800000000  -5.269017e+001  8.199551e+001 
3803125000  -5.633513e+001  9.526538e+001 
3806250000  -6.013718e+001  7.298486e+001 
3809375000  -5.838523e+001  7.550314e+001 
3812500000  -5.754752e+001  6.903487e+001 
3815625000  -6.121450e+001  5.519001e+001 
3818750000  -6.087871e+001  3.024127e+001 
3821875000  -6.574420e+001  6.499009e+001 
3825000000  -5.705773e+001  4.946362e+001 
3828125000  -5.828035e+001  3.029205e+001 
3831250000  -5.810465e+001  2.246135e+001 
3834375000  -6.371297e+001  -5.201468e+000 
3837500000  -6.450836e+001  1.383499e+001 
3840625000  -5.851508e+001  -8.852093e+000 
3843750000  -6.204161e+001  2.120910e+001 
3846875000  -6.225153e+001  -4.433920e+001 
3850000000  -6.472265e+001  -1.534749e+000 
3853125000  -6.277333e+001  -1.654135e+001 
3856250000  -6.272597e+001  -2.478039e+000 
3859375000  -5.966055e+001  -2.550846e+001 
3862500000  -6.191742e+001  -4.526600e+001 
3865625000  -6.241964e+001  -4.519868e+001 
3868750000  -5.875608e+001  -3.746769e+001 
3871875000  -5.650471e+001  -6.103312e+001 
3875000000  -5.910586e+001  -7.743562e+001 
3878125000  -5.687271e+001  -7.508949e+001 
3881250000  -5.708886e+001  -8.554160e+001 
3884375000  -5.641175e+001  -9.053735e+001 
3887500000  -5.608563e+001  -1.117859e+002 
3890625000  -5.734891e+001  -1.119600e+002 
3893750000  -5.734396e+001  -1.349664e+002 
3896875000  -5.567968e+001  -1.274367e+002 
3900000000  -5.524986e+001  -1.473982e+002 
3903125000  -5.566950e+001  -1.495324e+002 
3906250000  -5.505264e+001  -1.647745e+002 
3909375000  -5.368052e+001  1.751761e+002 
3912500000  -5.358131e+001  1.709579e+002 
3915625000  -5.712178e+001  1.531744e+002 
3918750000  -5.437587e+001  1.567817e+002 
3921875000  -5.438664e+001  1.422032e+002 
3925000000  -5.287310e+001  1.256231e+002 
3928125000  -5.272408e+001  1.064610e+002 
3931250000  -5.367297e+001  1.083651e+002 
3934375000  -5.520373e+001  9.335143e+001 
3937500000  -5.651384e+001  8.115266e+001 
3940625000  -5.427957e+001  7.745549e+001 
3943750000  -5.300178e+001  6.733111e+001 
3946875000  -5.409547e+001  5.250586e+001 
3950000000  -5.438718e+001  4.002076e+001 
3953125000  -5.504155e+001  4.234074e+001 
3956250000  -5.424453e+001  2.725320e+001 
3959375000  -5.266368e+001  2.564434e+001 
3962500000  -5.373606e+001  -2.766382e+000 
3965625000  -5.366007e+001  -1.268894e+001 
3968750000  -5.340162e+001  -1.919073e+001 
3971875000  -5.375246e+001  -4.064451e+001 
3975000000  -5.493147e+001  -4.843868e+001 
3978125000  -5.422867e+001  -5.547066e+001 
3981250000  -5.384383e+001  -7.300308e+001 
3984375000  -5.454541e+001  -8.612212e+001 
3987500000  -5.492405e+001  -8.664677e+001 
3990625000  -5.587188e+001  -9.715374e+001 
3993750000  -5.689987e+001  -1.124440e+002 
3996875000  -5.791296e+001  -1.233571e+002 
4000000000  -5.923785e+001  -1.176364e+002 
4003125000  -5.939417e+001  -1.382777e+002 
4006250000  -5.686921e+001  -1.265997e+002 
4009375000  -5.672084e+001  -1.482601e+002 
4012500000  -5.915189e+001  -1.470839e+002 
4015625000  -6.217995e+001  -1.483992e+002 
4018750000  -6.025050e+001  -1.622270e+002 
4021875000  -5.873384e+001  1.773284e+002 
4025000000  -5.935828e+001  1.660387e+002 
4028125000  -5.918400e+001  1.646906e+002 
4031250000  -6.275749e+001  1.542270e+002 
4034375000  -6.022758e+001  -1.747075e+002 
4037500000  -5.788062e+001  1.542243e+002 
4040625000  -5.866037e+001  1.387133e+002 
4043750000  -5.809039e+001  1.530486e+002 
4046875000  -5.788828e+001  1.268249e+002 
4050000000  -5.617987e+001  1.239658e+002 
4053125000  -5.813790e+001  1.262164e+002 
4056250000  -5.630665e+001  1.085455e+002 
4059375000  -5.701674e+001  1.049663e+002 
4062500000  -5.684463e+001  1.082183e+002 
4065625000  -5.567529e+001  8.879854e+001 
4068750000  -5.604796e+001  8.462636e+001 
4071875000  -5.340945e+001  6.737772e+001 
4075000000  -5.359706e+001  4.519828e+001 
4078125000  -5.399271e+001  4.500414e+001 
4081250000  -5.356960e+001  3.678222e+001 
4084375000  -5.261167e+001  1.431268e+001 
4087500000  -5.333236e+001  5.469549e-002 
4090625000  -5.415616e+001  -1.674380e+000 
4093750000  -5.329341e+001  -2.223229e+001 
4096875000  -5.357127e+001  -3.167093e+001 
4100000000  -5.438148e+001  -4.893774e+001 
4103125000  -5.566776e+001  -5.869928e+001 
4106250000  -5.282727e+001  -4.745524e+001 
4109375000  -5.266626e+001  -6.725267e+001 
4112500000  -5.349717e+001  -8.150983e+001 
4115625000  -5.344257e+001  -8.300143e+001 
4118750000  -5.331184e+001  -1.021945e+002 
4121875000  -5.277319e+001  -1.164071e+002 
4125000000  -5.371489e+001  -1.244173e+002 
4128125000  -5.482887e+001  -1.317132e+002 
4131250000  -5.325478e+001  -1.304367e+002 
4134375000  -5.135265e+001  -1.491280e+002 
4137500000  -5.245567e+001  -1.698828e+002 
4140625000  -5.343057e+001  1.715271e+002 
4143750000  -5.535018e+001  1.759122e+002 
4146875000  -5.457618e+001  1.676071e+002 
4150000000  -5.456605e+001  1.636777e+002 
4153125000  -5.380017e+001  1.429009e+002 
4156250000  -5.522234e+001  1.243430e+002 
4159375000  -5.602411e+001  1.270322e+002 
4162500000  -5.679906e+001  1.274028e+002 
4165625000  -5.400475e+001  1.146517e+002 
4168750000  -5.417966e+001  9.138343e+001 
4171875000  -5.510979e+001  8.250198e+001 
4175000000  -5.634732e+001  6.229271e+001 
4178125000  -5.763301e+001  6.786990e+001 
4181250000  -5.861242e+001  5.017685e+001 
4184375000  -5.889315e+001  4.503878e+001 
4187500000  -5.721272e+001  2.911836e+001 
4190625000  -6.152979e+001  2.995642e+001 
4193750000  -6.172295e+001  1.847221e+001 
4196875000  -6.247159e+001  1.796068e+001 
4200000000  -6.338205e+001  2.258241e+001 
4203125000  -6.270261e+001  8.242887e+000 
4206250000  -6.060542e+001  3.807624e+001 
4209375000  -6.038411e+001  -1.505776e+001 
4212500000  -6.013575e+001  -2.938619e+000 
4215625000  -6.288801e+001  -4.300253e+000 
4218750000  -6.264586e+001  4.119306e+001 
4221875000  -6.204621e+001  -3.975781e+001 
4225000000  -6.082649e+001  1.147412e+001 
4228125000  -5.990860e+001  -1.868548e+001 
4231250000  -5.966600e+001  -3.830473e+001 
4234375000  -5.674567e+001  -4.847577e+001 
4237500000  -5.893565e+001  -4.500481e+001 
4240625000  -5.584477e+001  -7.168067e+001 
4243750000  -5.956489e+001  -6.370103e+001 
4246875000  -5.936502e+001  -6.930378e+001 
4250000000  -5.746739e+001  -9.563945e+001 
4253125000  -5.491249e+001  -9.084341e+001 
4256250000  -5.719876e+001  -1.036585e+002 
4259375000  -5.568411e+001  -9.824306e+001 
4262500000  -5.637601e+001  -1.285798e+002 
4265625000  -5.464265e+001  -1.173838e+002 
4268750000  -5.209666e+001  -1.361392e+002 
4271875000  -5.215297e+001  -1.576764e+002 
4275000000  -5.124877e+001  -1.721475e+002 
4278125000  -5.402377e+001  1.782785e+002 
4281250000  -5.581131e+001  1.673617e+002 
4284375000  -5.410850e+001  1.586380e+002 
4287500000  -5.436066e+001  1.510131e+002 
4290625000  -5.517291e+001  1.428269e+002 
4293750000  -5.339035e+001  1.401868e+002 
4296875000  -5.175957e+001  1.236375e+002 
4300000000  -5.336169e+001  1.057786e+002 
4303125000  -5.270728e+001  1.059184e+002 
4306250000  -5.336531e+001  9.486739e+001 
4309375000  -5.171289e+001  8.019032e+001 
4312500000  -5.237299e+001  7.050365e+001 
4315625000  -5.185991e+001  5.261230e+001 
4318750000  -5.326955e+001  3.773446e+001 
4321875000  -5.244351e+001  4.313473e+001 
4325000000  -5.194532e+001  2.999238e+001 
4328125000  -5.227291e+001  1.054331e+001 
4331250000  -5.401280e+001  2.548943e+000 
4334375000  -5.395813e+001  -1.124205e+001 
4337500000  -5.551429e+001  -2.371776e+001 
4340625000  -5.604812e+001  -2.146384e+001 
4343750000  -5.423499e+001  -2.766997e+001 
4346875000  -5.589513e+001  -4.147747e+001 
4350000000  -5.540730e+001  -7.076802e+001 
4353125000  -5.649252e+001  -7.327393e+001 
4356250000  -5.850017e+001  -8.450685e+001 
4359375000  -5.987840e+001  -4.860139e+001 
4362500000  -5.541083e+001  -6.545811e+001 
4365625000  -5.438588e+001  -9.489130e+001 
4368750000  -5.722760e+001  -1.116015e+002 
4371875000  -5.564920e+001  -1.051119e+002 
4375000000  -5.718929e+001  -1.023149e+002 
4378125000  -5.760846e+001  -1.318785e+002 
4381250000  -5.628775e+001  -1.275419e+002 
4384375000  -5.735315e+001  -1.433170e+002 
4387500000  -5.808141e+001  -1.470612e+002 
4390625000  -5.718607e+001  -1.442303e+002 
4393750000  -5.779068e+001  -1.479900e+002 
4396875000  -5.544438e+001  -1.618810e+002 
4400000000  -5.610798e+001  -1.697738e+002 
4403125000  -5.640104e+001  1.751763e+002 
4406250000  -5.779769e+001  1.742942e+002 
4409375000  -5.477257e+001  1.610224e+002 
4412500000  -5.673885e+001  1.612067e+002 
4415625000  -5.514845e+001  1.584778e+002 
4418750000  -5.541087e+001  1.459095e+002 
