!Agilent Technologies,E8363B,MY43030201,A.06.04.32
!Agilent E8363B: A.06.04.32
!Date: Tuesday, November 11, 2014 22:09:13
!Correction: S21(Response(S21)) 
!S1P File: Measurement: S21:
# Hz S  dB   R 50
3000000000  -4.880737e+001  -7.541428e+001 
3003125000  -5.171987e+001  -8.251466e+001 
3006250000  -5.195859e+001  -8.815955e+001 
3009375000  -5.186140e+001  -9.025583e+001 
3012500000  -5.073580e+001  -9.983298e+001 
3015625000  -5.165432e+001  -1.124865e+002 
3018750000  -5.119597e+001  -1.144101e+002 
3021875000  -4.984404e+001  -1.202160e+002 
3025000000  -4.855529e+001  -1.296955e+002 
3028125000  -4.808599e+001  -1.463858e+002 
3031250000  -4.744117e+001  -1.622067e+002 
3034375000  -4.705698e+001  1.781335e+002 
3037500000  -4.794116e+001  1.620971e+002 
3040625000  -4.907631e+001  1.517682e+002 
3043750000  -4.931605e+001  1.408813e+002 
3046875000  -5.077322e+001  1.282221e+002 
3050000000  -5.184118e+001  1.210281e+002 
3053125000  -5.137668e+001  1.160186e+002 
3056250000  -5.135626e+001  1.171393e+002 
3059375000  -5.058241e+001  1.059991e+002 
3062500000  -4.968382e+001  1.003360e+002 
3065625000  -4.930938e+001  8.484717e+001 
3068750000  -4.894977e+001  7.654154e+001 
3071875000  -4.876901e+001  6.292167e+001 
3075000000  -4.817315e+001  5.563798e+001 
3078125000  -4.851443e+001  4.318881e+001 
3081250000  -4.889680e+001  3.135406e+001 
3084375000  -4.812545e+001  2.472606e+001 
3087500000  -4.846690e+001  1.248245e+001 
3090625000  -4.788950e+001  -4.532879e+000 
3093750000  -4.847965e+001  -1.881970e+001 
3096875000  -4.934734e+001  -2.748031e+001 
3100000000  -4.991418e+001  -3.666140e+001 
3103125000  -4.989746e+001  -4.369910e+001 
3106250000  -4.977773e+001  -5.188071e+001 
3109375000  -4.941742e+001  -6.084476e+001 
3112500000  -4.966310e+001  -7.212510e+001 
3115625000  -4.945349e+001  -8.331277e+001 
3118750000  -4.967988e+001  -8.654095e+001 
3121875000  -4.878266e+001  -1.024645e+002 
3125000000  -5.090012e+001  -1.111609e+002 
3128125000  -5.088324e+001  -1.052978e+002 
3131250000  -4.844800e+001  -1.172113e+002 
3134375000  -4.773686e+001  -1.411158e+002 
3137500000  -4.859727e+001  -1.571511e+002 
3140625000  -4.951812e+001  -1.666754e+002 
3143750000  -5.026296e+001  -1.712480e+002 
3146875000  -4.918201e+001  -1.736241e+002 
3150000000  -4.914454e+001  1.773817e+002 
3153125000  -4.943507e+001  1.612389e+002 
3156250000  -5.036559e+001  1.617837e+002 
3159375000  -4.732916e+001  1.554576e+002 
3162500000  -4.608279e+001  1.328320e+002 
3165625000  -4.786226e+001  1.186066e+002 
3168750000  -4.773776e+001  1.170145e+002 
3171875000  -4.698872e+001  9.899926e+001 
3175000000  -4.781134e+001  8.530339e+001 
3178125000  -4.729805e+001  7.964764e+001 
3181250000  -4.679232e+001  6.652471e+001 
3184375000  -4.661882e+001  5.143361e+001 
3187500000  -4.739879e+001  3.138622e+001 
3190625000  -4.928325e+001  1.970548e+001 
3193750000  -4.997005e+001  2.167398e+001 
3196875000  -4.963781e+001  1.721926e+001 
3200000000  -4.798429e+001  1.144012e+001 
3203125000  -4.827050e+001  -4.412803e+000 
3206250000  -4.839536e+001  -1.575312e+001 
3209375000  -4.785368e+001  -3.549077e+001 
3212500000  -4.799505e+001  -4.320633e+001 
3215625000  -4.811212e+001  -5.028363e+001 
3218750000  -4.943673e+001  -6.723106e+001 
3221875000  -4.980405e+001  -7.570582e+001 
3225000000  -4.969852e+001  -8.441608e+001 
3228125000  -4.983303e+001  -9.561132e+001 
3231250000  -5.088086e+001  -1.077425e+002 
3234375000  -5.069160e+001  -1.110795e+002 
3237500000  -5.072950e+001  -1.215622e+002 
3240625000  -5.023965e+001  -1.331483e+002 
3243750000  -4.950090e+001  -1.473474e+002 
3246875000  -4.998344e+001  -1.570189e+002 
3250000000  -5.092741e+001  -1.702619e+002 
3253125000  -5.102557e+001  -1.692670e+002 
3256250000  -5.038317e+001  1.692563e+002 
3259375000  -5.032994e+001  1.559169e+002 
3262500000  -5.283213e+001  1.477544e+002 
3265625000  -5.268549e+001  1.437823e+002 
3268750000  -5.229764e+001  1.442913e+002 
3271875000  -5.211187e+001  1.316612e+002 
3275000000  -5.210408e+001  1.197719e+002 
3278125000  -5.213548e+001  1.083165e+002 
3281250000  -5.325486e+001  1.010565e+002 
3284375000  -5.234139e+001  9.091181e+001 
3287500000  -5.404204e+001  7.824950e+001 
3290625000  -5.313787e+001  7.353757e+001 
3293750000  -5.327457e+001  5.707574e+001 
3296875000  -5.455900e+001  5.285706e+001 
3300000000  -5.478130e+001  4.755864e+001 
3303125000  -5.264539e+001  3.771479e+001 
3306250000  -5.298682e+001  2.727079e+001 
3309375000  -5.397886e+001  1.178476e+001 
3312500000  -5.355883e+001  -5.687773e+000 
3315625000  -5.468420e+001  -1.020136e+001 
3318750000  -5.539377e+001  -3.283662e+001 
3321875000  -5.682758e+001  -2.767439e+001 
3325000000  -5.721627e+001  -1.071594e+001 
3328125000  -5.732506e+001  -2.627519e+001 
3331250000  -5.333969e+001  -2.774204e+001 
3334375000  -5.184474e+001  -4.701934e+001 
3337500000  -5.116690e+001  -7.142819e+001 
3340625000  -5.424114e+001  -9.126752e+001 
3343750000  -5.551822e+001  -8.348995e+001 
3346875000  -5.566010e+001  -9.504782e+001 
3350000000  -5.457680e+001  -9.816816e+001 
3353125000  -5.448260e+001  -1.126599e+002 
3356250000  -5.528382e+001  -1.291707e+002 
3359375000  -5.479039e+001  -1.421747e+002 
3362500000  -5.636137e+001  -1.567214e+002 
3365625000  -5.621386e+001  -1.563524e+002 
3368750000  -5.796864e+001  -1.700253e+002 
3371875000  -5.606911e+001  1.790037e+002 
3375000000  -5.764114e+001  1.697972e+002 
3378125000  -5.795897e+001  1.699330e+002 
3381250000  -6.142733e+001  1.784815e+002 
3384375000  -5.726587e+001  -1.785884e+002 
3387500000  -5.385006e+001  1.533282e+002 
3390625000  -5.654803e+001  1.233775e+002 
3393750000  -5.714674e+001  1.120259e+002 
3396875000  -5.634008e+001  1.220832e+002 
3400000000  -5.500563e+001  1.031496e+002 
3403125000  -5.731300e+001  8.433374e+001 
3406250000  -5.653394e+001  7.016610e+001 
3409375000  -5.953786e+001  6.731213e+001 
3412500000  -5.762700e+001  5.746137e+001 
3415625000  -5.915031e+001  3.471168e+001 
3418750000  -6.150700e+001  3.746848e+001 
3421875000  -5.898985e+001  2.041837e+001 
3425000000  -5.685044e+001  2.399728e+001 
3428125000  -5.929644e+001  -2.441068e+000 
3431250000  -5.962242e+001  -7.672156e+000 
3434375000  -5.984393e+001  -1.888538e+001 
3437500000  -6.323909e+001  -2.783174e+001 
3440625000  -6.152243e+001  -3.390866e+001 
3443750000  -6.049450e+001  -3.613624e+001 
3446875000  -6.108772e+001  -4.572577e+001 
3450000000  -6.214060e+001  -8.615044e+001 
3453125000  -6.219310e+001  -7.965693e+001 
3456250000  -6.491364e+001  -9.286689e+001 
3459375000  -6.631859e+001  -7.476969e+001 
3462500000  -6.966125e+001  -1.020185e+002 
3465625000  -6.534241e+001  -1.150253e+002 
3468750000  -6.971973e+001  -1.312905e+002 
3471875000  -6.433631e+001  -1.048732e+002 
3475000000  -6.372320e+001  -1.244726e+002 
3478125000  -6.914896e+001  -1.409298e+002 
3481250000  -7.457182e+001  -1.386393e+002 
3484375000  -6.722411e+001  -1.529403e+002 
3487500000  -6.485982e+001  -1.334037e+002 
3490625000  -7.148729e+001  -1.273451e+002 
3493750000  -7.228751e+001  -1.447854e+002 
3496875000  -7.162724e+001  -1.676906e+002 
3500000000  -6.532873e+001  -1.676199e+002 
3503125000  -6.639423e+001  1.735469e+002 
3506250000  -6.659790e+001  -1.782558e+002 
3509375000  -6.674097e+001  1.733891e+002 
3512500000  -6.928872e+001  1.211254e+002 
3515625000  -6.294138e+001  1.515054e+002 
3518750000  -6.534612e+001  1.232897e+002 
3521875000  -6.574261e+001  1.259322e+002 
3525000000  -6.554128e+001  1.283717e+002 
3528125000  -6.953992e+001  1.229250e+002 
3531250000  -6.760880e+001  1.122164e+002 
3534375000  -6.435938e+001  9.173078e+001 
3537500000  -6.823672e+001  5.488467e+001 
3540625000  -6.911590e+001  3.170404e+001 
3543750000  -6.929503e+001  6.321909e+001 
3546875000  -6.991495e+001  7.148585e+001 
3550000000  -7.664522e+001  5.087779e+001 
3553125000  -7.502647e+001  5.779591e+001 
3556250000  -7.615549e+001  5.278304e+001 
3559375000  -6.526958e+001  4.622889e+001 
3562500000  -7.428834e+001  8.709103e+001 
3565625000  -6.758067e+001  -1.002179e+001 
3568750000  -7.380090e+001  4.689071e+001 
3571875000  -7.776022e+001  4.417476e+001 
3575000000  -7.930432e+001  -1.467876e+001 
3578125000  -6.777264e+001  3.339213e+000 
3581250000  -6.810313e+001  -2.669511e+001 
3584375000  -7.024670e+001  6.545759e+001 
3587500000  -7.483517e+001  -4.566434e+001 
3590625000  -6.606868e+001  1.341248e+001 
3593750000  -6.922005e+001  -6.384663e+001 
3596875000  -7.096041e+001  4.617403e+001 
3600000000  -6.825230e+001  -3.021309e+001 
3603125000  -6.800739e+001  -7.228575e-001 
3606250000  -6.536516e+001  -3.553038e+001 
3609375000  -6.653864e+001  -3.260336e+001 
3612500000  -6.234621e+001  -4.196107e+001 
3615625000  -6.600960e+001  -4.795064e+001 
3618750000  -6.356247e+001  -6.691171e+001 
3621875000  -6.450723e+001  -8.853927e+001 
3625000000  -6.273724e+001  -8.004693e+001 
3628125000  -6.196073e+001  -1.210817e+002 
3631250000  -6.530312e+001  -1.180015e+002 
3634375000  -6.698415e+001  -1.205135e+002 
3637500000  -6.632129e+001  -1.245317e+002 
3640625000  -6.129605e+001  -1.236722e+002 
3643750000  -6.418187e+001  -1.350637e+002 
3646875000  -6.121049e+001  -1.787806e+002 
3650000000  -6.771099e+001  -1.579318e+002 
3653125000  -6.283228e+001  1.678957e+002 
3656250000  -6.391435e+001  1.531263e+002 
3659375000  -6.166475e+001  1.492184e+002 
3662500000  -6.739772e+001  1.582771e+002 
3665625000  -6.540621e+001  1.361555e+002 
3668750000  -6.221578e+001  1.268240e+002 
3671875000  -6.199495e+001  1.132885e+002 
3675000000  -6.240181e+001  9.501399e+001 
3678125000  -6.440601e+001  1.213954e+002 
3681250000  -6.331138e+001  1.124006e+002 
3684375000  -7.129538e+001  8.977325e+001 
3687500000  -7.013680e+001  4.259172e+001 
3690625000  -6.834208e+001  5.563141e+001 
3693750000  -6.854487e+001  7.159523e+001 
3696875000  -7.188097e+001  6.934094e+001 
3700000000  -6.386580e+001  7.768833e+001 
3703125000  -6.511523e+001  5.191828e+001 
3706250000  -6.494748e+001  4.304212e+001 
3709375000  -6.687578e+001  4.324688e+001 
3712500000  -6.410035e+001  3.932207e+001 
3715625000  -5.985166e+001  4.487398e+001 
3718750000  -6.206380e+001  4.301200e+001 
3721875000  -6.128730e+001  8.609876e-002 
3725000000  -6.174150e+001  1.001625e+001 
3728125000  -6.014021e+001  -4.439604e-001 
3731250000  -6.164371e+001  -7.467033e+000 
3734375000  -5.967408e+001  -1.890798e+001 
3737500000  -5.848059e+001  -5.299046e+001 
3740625000  -5.792308e+001  -3.671524e+001 
3743750000  -5.864925e+001  -4.651219e+001 
3746875000  -5.852457e+001  -6.685836e+001 
3750000000  -5.815702e+001  -8.335095e+001 
3753125000  -5.948992e+001  -8.495786e+001 
3756250000  -5.805437e+001  -9.748746e+001 
3759375000  -6.024641e+001  -1.156558e+002 
3762500000  -5.682937e+001  -1.149448e+002 
3765625000  -5.956610e+001  -1.322332e+002 
3768750000  -5.767081e+001  -1.392948e+002 
3771875000  -5.623227e+001  -1.484941e+002 
3775000000  -5.688912e+001  -1.682031e+002 
3778125000  -5.687819e+001  -1.786489e+002 
3781250000  -5.755739e+001  1.672569e+002 
3784375000  -5.781417e+001  1.586118e+002 
3787500000  -5.676278e+001  1.445561e+002 
3790625000  -5.784290e+001  1.311982e+002 
3793750000  -6.049504e+001  1.340172e+002 
3796875000  -5.681902e+001  1.284971e+002 
3800000000  -5.287715e+001  7.336752e+001 
3803125000  -5.703417e+001  9.493427e+001 
3806250000  -5.847773e+001  7.776151e+001 
3809375000  -5.864672e+001  8.622256e+001 
3812500000  -5.776697e+001  6.379131e+001 
3815625000  -6.131336e+001  4.736666e+001 
3818750000  -6.135494e+001  4.219697e+001 
3821875000  -5.915154e+001  5.961863e+001 
3825000000  -5.946312e+001  4.880967e+001 
3828125000  -5.772206e+001  2.762145e+001 
3831250000  -6.224833e+001  1.323057e+001 
3834375000  -6.367691e+001  7.913434e+000 
3837500000  -6.386996e+001  3.492085e+001 
3840625000  -5.861132e+001  1.224052e+001 
3843750000  -6.180500e+001  -1.878474e+001 
3846875000  -6.354450e+001  -3.620756e+001 
3850000000  -6.574142e+001  8.119350e+000 
3853125000  -6.011396e+001  -1.702159e+001 
3856250000  -6.194831e+001  -4.799947e+000 
3859375000  -6.454692e+001  -2.745157e+001 
3862500000  -5.908220e+001  -3.140364e+001 
3865625000  -5.838111e+001  -5.176358e+001 
3868750000  -5.992239e+001  -5.383223e+001 
3871875000  -5.690393e+001  -6.623440e+001 
3875000000  -5.828328e+001  -6.401360e+001 
3878125000  -5.851378e+001  -8.472810e+001 
3881250000  -5.858847e+001  -7.472116e+001 
3884375000  -5.660842e+001  -9.502589e+001 
3887500000  -5.689417e+001  -1.204713e+002 
3890625000  -5.839674e+001  -1.233243e+002 
3893750000  -5.648655e+001  -1.295110e+002 
3896875000  -5.507325e+001  -1.353390e+002 
3900000000  -5.698821e+001  -1.435292e+002 
3903125000  -5.496756e+001  -1.757060e+002 
3906250000  -5.405933e+001  -1.684595e+002 
3909375000  -5.540049e+001  1.789066e+002 
3912500000  -5.340425e+001  1.627298e+002 
3915625000  -5.640987e+001  1.478275e+002 
3918750000  -5.489211e+001  1.533312e+002 
3921875000  -5.530271e+001  1.410187e+002 
3925000000  -5.235128e+001  1.301838e+002 
3928125000  -5.291122e+001  1.019428e+002 
3931250000  -5.455599e+001  1.029194e+002 
3934375000  -5.536804e+001  9.170255e+001 
3937500000  -5.495362e+001  7.832560e+001 
3940625000  -5.467208e+001  6.999681e+001 
3943750000  -5.419872e+001  6.560746e+001 
3946875000  -5.330554e+001  5.207019e+001 
3950000000  -5.525903e+001  4.016027e+001 
3953125000  -5.528544e+001  4.495810e+001 
3956250000  -5.404960e+001  1.832162e+001 
3959375000  -5.202206e+001  1.373638e+001 
3962500000  -5.233691e+001  -1.252390e+001 
3965625000  -5.333440e+001  -2.332400e+001 
3968750000  -5.367881e+001  -2.916381e+001 
3971875000  -5.320939e+001  -4.580151e+001 
3975000000  -5.528201e+001  -5.609077e+001 
3978125000  -5.432547e+001  -6.255921e+001 
3981250000  -5.563054e+001  -7.372301e+001 
3984375000  -5.636781e+001  -8.642208e+001 
3987500000  -5.619614e+001  -9.075769e+001 
3990625000  -5.684572e+001  -1.042554e+002 
3993750000  -5.736273e+001  -1.219618e+002 
3996875000  -5.806977e+001  -1.239031e+002 
4000000000  -5.776186e+001  -1.279618e+002 
4003125000  -5.779002e+001  -1.319476e+002 
4006250000  -5.681494e+001  -1.340964e+002 
4009375000  -5.844584e+001  -1.551252e+002 
4012500000  -5.958641e+001  1.789481e+002 
4015625000  -6.068367e+001  -1.723595e+002 
4018750000  -6.144588e+001  1.773271e+002 
4021875000  -5.959099e+001  -1.706919e+002 
4025000000  -6.132618e+001  -1.694362e+002 
4028125000  -5.831184e+001  -1.736428e+002 
4031250000  -6.011017e+001  1.639425e+002 
4034375000  -5.952306e+001  1.725839e+002 
4037500000  -5.800498e+001  1.524837e+002 
4040625000  -5.920853e+001  1.434020e+002 
4043750000  -5.840073e+001  1.336252e+002 
4046875000  -5.740538e+001  1.422296e+002 
4050000000  -5.769765e+001  1.286805e+002 
4053125000  -5.925907e+001  1.148738e+002 
4056250000  -6.002283e+001  1.311255e+002 
4059375000  -5.582832e+001  1.020873e+002 
4062500000  -5.581928e+001  9.621915e+001 
4065625000  -5.350173e+001  7.490331e+001 
4068750000  -5.334793e+001  7.529164e+001 
4071875000  -5.231688e+001  5.468166e+001 
4075000000  -5.372289e+001  3.606358e+001 
4078125000  -5.356856e+001  4.068267e+001 
4081250000  -5.258919e+001  2.477325e+001 
4084375000  -5.229881e+001  1.026922e+001 
4087500000  -5.427436e+001  -1.003980e+001 
4090625000  -5.452132e+001  -1.197850e+001 
4093750000  -5.317347e+001  -2.590733e+001 
4096875000  -5.355005e+001  -3.476990e+001 
4100000000  -5.433545e+001  -5.682924e+001 
4103125000  -5.570644e+001  -5.626229e+001 
4106250000  -5.396115e+001  -5.688430e+001 
4109375000  -5.185104e+001  -6.737362e+001 
4112500000  -5.308006e+001  -8.424611e+001 
4115625000  -5.343358e+001  -9.090942e+001 
4118750000  -5.221589e+001  -1.037885e+002 
4121875000  -5.270925e+001  -1.264790e+002 
4125000000  -5.523376e+001  -1.279055e+002 
4128125000  -5.425535e+001  -1.393150e+002 
4131250000  -5.281841e+001  -1.311114e+002 
4134375000  -5.068164e+001  -1.537139e+002 
4137500000  -5.230144e+001  -1.724927e+002 
4140625000  -5.382059e+001  1.732866e+002 
4143750000  -5.499203e+001  1.735620e+002 
4146875000  -5.371936e+001  1.717505e+002 
4150000000  -5.375053e+001  1.511533e+002 
4153125000  -5.435876e+001  1.451198e+002 
4156250000  -5.575468e+001  1.257985e+002 
4159375000  -5.528518e+001  1.310023e+002 
4162500000  -5.598973e+001  1.210434e+002 
4165625000  -5.442208e+001  1.072998e+002 
4168750000  -5.403430e+001  8.542511e+001 
4171875000  -5.581535e+001  8.212165e+001 
4175000000  -5.737900e+001  5.584469e+001 
4178125000  -5.863485e+001  6.760894e+001 
4181250000  -5.937399e+001  4.578181e+001 
4184375000  -5.941161e+001  2.831596e+001 
4187500000  -5.788199e+001  2.870413e+001 
4190625000  -6.107963e+001  3.572446e+001 
4193750000  -6.067111e+001  1.191956e+001 
4196875000  -6.404546e+001  -1.185836e+001 
4200000000  -6.457303e+001  2.340299e+001 
4203125000  -6.308628e+001  -4.674044e+000 
4206250000  -6.272790e+001  1.149082e+001 
4209375000  -6.488667e+001  6.489523e+000 
4212500000  -5.999430e+001  6.430696e+000 
4215625000  -6.369963e+001  -3.595310e+001 
4218750000  -6.396358e+001  3.198955e+001 
4221875000  -5.815759e+001  -2.000048e+001 
4225000000  -5.896008e+001  -2.069095e+001 
4228125000  -6.034966e+001  -4.858937e+001 
4231250000  -5.922850e+001  -2.910832e+001 
4234375000  -5.790901e+001  -6.595367e+001 
4237500000  -5.628291e+001  -5.387340e+001 
4240625000  -5.743922e+001  -7.258662e+001 
4243750000  -5.813523e+001  -7.607909e+001 
4246875000  -5.762145e+001  -7.315656e+001 
4250000000  -5.803798e+001  -8.765076e+001 
4253125000  -5.398910e+001  -8.267673e+001 
4256250000  -5.662184e+001  -1.170078e+002 
4259375000  -5.561467e+001  -1.195740e+002 
4262500000  -5.505364e+001  -1.302258e+002 
4265625000  -5.468243e+001  -1.225127e+002 
4268750000  -5.263747e+001  -1.412759e+002 
4271875000  -5.133851e+001  -1.578346e+002 
4275000000  -5.213018e+001  1.782786e+002 
4278125000  -5.450021e+001  1.593550e+002 
4281250000  -5.408031e+001  1.555161e+002 
4284375000  -5.521880e+001  1.578365e+002 
4287500000  -5.428958e+001  1.474255e+002 
4290625000  -5.478405e+001  1.507868e+002 
4293750000  -5.227021e+001  1.433049e+002 
4296875000  -5.190124e+001  1.090444e+002 
4300000000  -5.318063e+001  1.020396e+002 
4303125000  -5.266148e+001  9.003840e+001 
4306250000  -5.286592e+001  9.249406e+001 
4309375000  -5.116848e+001  8.391050e+001 
4312500000  -5.165564e+001  6.302813e+001 
4315625000  -5.195251e+001  5.084729e+001 
4318750000  -5.280191e+001  4.013482e+001 
4321875000  -5.277422e+001  3.383057e+001 
4325000000  -5.310696e+001  2.282898e+001 
4328125000  -5.047536e+001  7.629632e+000 
4331250000  -5.478691e+001  -4.917818e+000 
4334375000  -5.455136e+001  -1.708239e+001 
4337500000  -5.463315e+001  -3.357262e+001 
4340625000  -5.574888e+001  -3.547123e+001 
4343750000  -5.657725e+001  -3.151745e+001 
4346875000  -5.633565e+001  -4.119020e+001 
4350000000  -5.437093e+001  -6.335389e+001 
4353125000  -5.556874e+001  -7.274316e+001 
4356250000  -5.722778e+001  -7.947319e+001 
4359375000  -5.717757e+001  -5.523952e+001 
4362500000  -5.665391e+001  -9.502594e+001 
4365625000  -5.618316e+001  -8.625326e+001 
4368750000  -5.533967e+001  -9.927161e+001 
4371875000  -5.825138e+001  -1.047822e+002 
4375000000  -5.706099e+001  -1.170717e+002 
4378125000  -5.489356e+001  -1.327402e+002 
4381250000  -5.706180e+001  -1.350241e+002 
4384375000  -5.652797e+001  -1.397184e+002 
4387500000  -5.872424e+001  -1.466156e+002 
4390625000  -5.835757e+001  -1.577837e+002 
4393750000  -5.802028e+001  -1.611648e+002 
4396875000  -5.602603e+001  -1.631927e+002 
4400000000  -5.557071e+001  -1.763460e+002 
4403125000  -5.471749e+001  1.729990e+002 
4406250000  -5.894905e+001  1.782250e+002 
4409375000  -5.528623e+001  1.671959e+002 
4412500000  -5.645734e+001  1.517049e+002 
4415625000  -5.500578e+001  1.546992e+002 
4418750000  -5.443563e+001  1.560619e+002 
