!Agilent Technologies,E8363B,MY43030201,A.06.04.32
!Agilent E8363B: A.06.04.32
!Date: Tuesday, November 11, 2014 22:15:31
!Correction: S21(Response(S21)) 
!S1P File: Measurement: S21:
# Hz S  dB   R 50
3000000000  -4.882555e+001  -7.253639e+001 
3003125000  -5.095457e+001  -8.296172e+001 
3006250000  -5.149983e+001  -8.673300e+001 
3009375000  -5.209853e+001  -8.943734e+001 
3012500000  -5.103214e+001  -9.682566e+001 
3015625000  -5.170850e+001  -1.061995e+002 
3018750000  -5.100678e+001  -1.140703e+002 
3021875000  -5.015181e+001  -1.161973e+002 
3025000000  -4.847076e+001  -1.258802e+002 
3028125000  -4.814074e+001  -1.445080e+002 
3031250000  -4.733601e+001  -1.605969e+002 
3034375000  -4.689781e+001  -1.765549e+002 
3037500000  -4.777971e+001  1.686190e+002 
3040625000  -4.946391e+001  1.532846e+002 
3043750000  -4.979444e+001  1.429740e+002 
3046875000  -5.020484e+001  1.315604e+002 
3050000000  -5.195446e+001  1.236754e+002 
3053125000  -5.071633e+001  1.212962e+002 
3056250000  -5.095889e+001  1.208187e+002 
3059375000  -5.063706e+001  1.073133e+002 
3062500000  -4.934483e+001  1.015993e+002 
3065625000  -4.927778e+001  8.658500e+001 
3068750000  -4.921735e+001  7.713992e+001 
3071875000  -4.908786e+001  6.711053e+001 
3075000000  -4.843018e+001  5.647540e+001 
3078125000  -4.839476e+001  4.542554e+001 
3081250000  -4.909669e+001  3.574918e+001 
3084375000  -4.797948e+001  2.503637e+001 
3087500000  -4.828809e+001  1.305386e+001 
3090625000  -4.822609e+001  -4.163776e-002 
3093750000  -4.907656e+001  -1.622829e+001 
3096875000  -4.924899e+001  -2.355302e+001 
3100000000  -4.955930e+001  -3.319078e+001 
3103125000  -4.983152e+001  -3.853677e+001 
3106250000  -4.964652e+001  -5.016190e+001 
3109375000  -4.978436e+001  -6.000743e+001 
3112500000  -4.961304e+001  -6.720518e+001 
3115625000  -4.964659e+001  -7.644530e+001 
3118750000  -4.993149e+001  -8.427077e+001 
3121875000  -4.916189e+001  -9.929700e+001 
3125000000  -5.130121e+001  -1.096881e+002 
3128125000  -5.061119e+001  -1.044660e+002 
3131250000  -4.824250e+001  -1.115677e+002 
3134375000  -4.796714e+001  -1.393589e+002 
3137500000  -4.868418e+001  -1.525857e+002 
3140625000  -5.003079e+001  -1.598629e+002 
3143750000  -5.044745e+001  -1.663679e+002 
3146875000  -5.023963e+001  -1.694190e+002 
3150000000  -4.896991e+001  -1.768255e+002 
3153125000  -4.912998e+001  1.646511e+002 
3156250000  -5.046992e+001  1.663307e+002 
3159375000  -4.772322e+001  1.584233e+002 
3162500000  -4.623547e+001  1.348451e+002 
3165625000  -4.793793e+001  1.238969e+002 
3168750000  -4.798138e+001  1.176990e+002 
3171875000  -4.742323e+001  1.043228e+002 
3175000000  -4.775044e+001  8.988457e+001 
3178125000  -4.758390e+001  8.450242e+001 
3181250000  -4.680998e+001  7.023495e+001 
3184375000  -4.661717e+001  5.545855e+001 
3187500000  -4.747181e+001  3.512050e+001 
3190625000  -4.952473e+001  2.139165e+001 
3193750000  -5.002682e+001  2.577181e+001 
3196875000  -4.964195e+001  1.631141e+001 
3200000000  -4.796309e+001  9.174026e+000 
3203125000  -4.816220e+001  -3.195590e+000 
3206250000  -4.864606e+001  -1.588592e+001 
3209375000  -4.787041e+001  -3.016955e+001 
3212500000  -4.892437e+001  -4.107938e+001 
3215625000  -4.809370e+001  -4.632881e+001 
3218750000  -4.923177e+001  -6.329240e+001 
3221875000  -4.970151e+001  -7.427804e+001 
3225000000  -4.884795e+001  -8.237959e+001 
3228125000  -4.992732e+001  -9.348517e+001 
3231250000  -5.105820e+001  -9.923767e+001 
3234375000  -4.997123e+001  -1.106452e+002 
3237500000  -5.040210e+001  -1.191993e+002 
3240625000  -5.025790e+001  -1.276001e+002 
3243750000  -4.967108e+001  -1.422384e+002 
3246875000  -5.038030e+001  -1.544640e+002 
3250000000  -5.078089e+001  -1.646266e+002 
3253125000  -5.152601e+001  -1.682276e+002 
3256250000  -5.040976e+001  1.752649e+002 
3259375000  -5.193703e+001  1.595508e+002 
3262500000  -5.242150e+001  1.523373e+002 
3265625000  -5.310736e+001  1.506328e+002 
3268750000  -5.341441e+001  1.389354e+002 
3271875000  -5.297113e+001  1.372255e+002 
3275000000  -5.227707e+001  1.284947e+002 
3278125000  -5.255473e+001  1.037963e+002 
3281250000  -5.306486e+001  1.069654e+002 
3284375000  -5.211602e+001  9.377571e+001 
3287500000  -5.357673e+001  8.491590e+001 
3290625000  -5.355092e+001  7.650412e+001 
3293750000  -5.445456e+001  6.062171e+001 
3296875000  -5.522313e+001  5.534924e+001 
3300000000  -5.442739e+001  5.655958e+001 
3303125000  -5.245318e+001  4.248206e+001 
3306250000  -5.259975e+001  2.558983e+001 
3309375000  -5.261198e+001  2.045626e+001 
3312500000  -5.322166e+001  -3.793358e+000 
3315625000  -5.414869e+001  -1.127823e+001 
3318750000  -5.546764e+001  -1.528081e+001 
3321875000  -6.042302e+001  -1.333051e+001 
3325000000  -5.522800e+001  -3.014678e+001 
3328125000  -5.688637e+001  -1.418852e+001 
3331250000  -5.427036e+001  -2.876436e+001 
3334375000  -5.181784e+001  -4.988282e+001 
3337500000  -5.195653e+001  -6.862218e+001 
3340625000  -5.428976e+001  -8.005804e+001 
3343750000  -5.643118e+001  -8.283713e+001 
3346875000  -5.518893e+001  -9.563409e+001 
3350000000  -5.504679e+001  -1.042577e+002 
3353125000  -5.456361e+001  -1.103301e+002 
3356250000  -5.366920e+001  -1.289210e+002 
3359375000  -5.412069e+001  -1.412856e+002 
3362500000  -5.605839e+001  -1.482404e+002 
3365625000  -5.590594e+001  -1.544263e+002 
3368750000  -5.595660e+001  -1.717461e+002 
3371875000  -5.685275e+001  -1.732584e+002 
3375000000  -5.859251e+001  1.710304e+002 
3378125000  -5.862246e+001  1.652363e+002 
3381250000  -6.193842e+001  1.637133e+002 
3384375000  -5.670612e+001  1.769020e+002 
3387500000  -5.523386e+001  1.398184e+002 
3390625000  -5.774422e+001  1.344909e+002 
3393750000  -5.846959e+001  1.259432e+002 
3396875000  -5.669565e+001  1.188999e+002 
3400000000  -5.536584e+001  9.566033e+001 
3403125000  -5.598049e+001  8.464900e+001 
3406250000  -5.643647e+001  8.072272e+001 
3409375000  -5.806261e+001  5.633413e+001 
3412500000  -5.836260e+001  5.710648e+001 
3415625000  -5.884644e+001  4.085773e+001 
3418750000  -6.009242e+001  3.142975e+001 
3421875000  -5.960901e+001  2.270892e+001 
3425000000  -6.009666e+001  2.061322e+001 
3428125000  -5.859804e+001  4.005535e+000 
3431250000  -6.211335e+001  -1.137026e+001 
3434375000  -5.868389e+001  -2.086835e+001 
3437500000  -6.082019e+001  -1.585567e+001 
3440625000  -6.202215e+001  -3.319096e+001 
3443750000  -6.273841e+001  -7.765874e+000 
3446875000  -6.006796e+001  -4.665041e+001 
3450000000  -6.036084e+001  -7.937534e+001 
3453125000  -6.150417e+001  -7.903354e+001 
3456250000  -6.283356e+001  -9.675877e+001 
3459375000  -7.201458e+001  -8.696103e+001 
3462500000  -6.814851e+001  -8.459801e+001 
3465625000  -6.762444e+001  -1.006953e+002 
3468750000  -6.774625e+001  -1.353273e+002 
3471875000  -6.542580e+001  -1.038447e+002 
3475000000  -6.976907e+001  -1.142925e+002 
3478125000  -6.943694e+001  -9.688203e+001 
3481250000  -6.874297e+001  -1.446282e+002 
3484375000  -6.950040e+001  -1.221984e+002 
3487500000  -6.786954e+001  -1.225545e+002 
3490625000  -6.504343e+001  -1.275463e+002 
3493750000  -7.590517e+001  -1.328876e+002 
3496875000  -7.137164e+001  1.585631e+002 
3500000000  -7.118676e+001  -1.420412e+002 
3503125000  -6.823727e+001  -1.788358e+002 
3506250000  -6.413747e+001  -1.707552e+002 
3509375000  -6.858579e+001  1.533318e+002 
3512500000  -6.590980e+001  1.509285e+002 
3515625000  -6.418015e+001  1.642760e+002 
3518750000  -6.606641e+001  1.698471e+002 
3521875000  -7.348470e+001  1.621197e+002 
3525000000  -6.515508e+001  9.922253e+001 
3528125000  -6.598742e+001  1.111880e+002 
3531250000  -6.716460e+001  1.210515e+002 
3534375000  -6.849223e+001  1.151984e+002 
3537500000  -7.026546e+001  8.005801e+001 
3540625000  -6.732615e+001  6.189274e+001 
3543750000  -7.199525e+001  7.107819e+001 
3546875000  -6.814168e+001  7.085131e+001 
3550000000  -7.453294e+001  8.210455e+001 
3553125000  -7.106334e+001  5.839494e+001 
3556250000  -7.951484e+001  9.620560e+001 
3559375000  -7.464438e+001  -2.310212e+001 
3562500000  -7.661600e+001  -2.520133e+000 
3565625000  -7.111828e+001  2.650293e+001 
3568750000  -7.437802e+001  1.393487e+002 
3571875000  -7.256172e+001  7.802006e+000 
3575000000  -6.799397e+001  8.756033e+000 
3578125000  -6.711300e+001  6.464554e+001 
3581250000  -7.717333e+001  -4.502423e+000 
3584375000  -7.456120e+001  7.396265e+001 
3587500000  -7.709708e+001  4.528348e+001 
3590625000  -6.841313e+001  1.153433e+001 
3593750000  -6.637054e+001  -2.512536e+001 
3596875000  -7.029239e+001  2.835869e+001 
3600000000  -6.220985e+001  -3.603791e+000 
3603125000  -6.842001e+001  3.767020e+000 
3606250000  -6.514619e+001  -5.561594e+001 
3609375000  -6.496494e+001  -4.526422e+001 
3612500000  -6.488793e+001  -3.879211e+001 
3615625000  -6.404932e+001  -3.725997e+001 
3618750000  -6.523563e+001  -7.518024e+001 
3621875000  -6.440055e+001  -9.048589e+001 
3625000000  -6.739288e+001  -9.223930e+001 
3628125000  -6.783923e+001  -1.193899e+002 
3631250000  -6.780439e+001  -1.054645e+002 
3634375000  -6.537052e+001  -1.345386e+002 
3637500000  -6.544048e+001  -1.073480e+002 
3640625000  -6.280298e+001  -1.339233e+002 
3643750000  -6.342509e+001  -1.480770e+002 
3646875000  -6.315590e+001  -1.781295e+002 
3650000000  -6.387933e+001  1.647585e+002 
3653125000  -6.225751e+001  -1.777118e+002 
3656250000  -6.455101e+001  1.782981e+002 
3659375000  -6.688793e+001  1.559342e+002 
3662500000  -6.499918e+001  1.244828e+002 
3665625000  -6.256363e+001  1.329705e+002 
3668750000  -6.500272e+001  1.341355e+002 
3671875000  -6.528819e+001  1.162290e+002 
3675000000  -6.630447e+001  1.080647e+002 
3678125000  -6.780905e+001  1.128849e+002 
3681250000  -6.206987e+001  1.133907e+002 
3684375000  -6.735892e+001  9.148523e+001 
3687500000  -6.678528e+001  8.315663e+001 
3690625000  -6.712888e+001  7.034290e+001 
3693750000  -6.551300e+001  1.042860e+002 
3696875000  -7.000474e+001  1.242610e+002 
3700000000  -6.555988e+001  7.248771e+001 
3703125000  -6.637900e+001  2.585921e+001 
3706250000  -6.548808e+001  5.634181e+001 
3709375000  -6.133558e+001  6.417500e+001 
3712500000  -6.565802e+001  5.847180e+001 
3715625000  -6.171127e+001  5.160086e+001 
3718750000  -6.137931e+001  2.488789e+001 
3721875000  -5.947158e+001  1.162519e+001 
3725000000  -6.115184e+001  1.948327e+001 
3728125000  -6.006431e+001  1.137291e+001 
3731250000  -6.304185e+001  -1.043801e+001 
3734375000  -5.942378e+001  -2.397796e+001 
3737500000  -6.033433e+001  -3.428531e+001 
3740625000  -5.843216e+001  -4.086094e+001 
3743750000  -6.044109e+001  -5.751486e+001 
3746875000  -5.879741e+001  -6.245032e+001 
3750000000  -5.868036e+001  -7.839183e+001 
3753125000  -5.888558e+001  -7.297276e+001 
3756250000  -5.962529e+001  -9.773618e+001 
3759375000  -5.937952e+001  -1.163134e+002 
3762500000  -5.662561e+001  -1.098771e+002 
3765625000  -5.947894e+001  -1.228480e+002 
3768750000  -5.709985e+001  -1.336534e+002 
3771875000  -5.594931e+001  -1.431794e+002 
3775000000  -5.697338e+001  -1.553165e+002 
3778125000  -5.687404e+001  1.733993e+002 
3781250000  -5.831752e+001  1.706389e+002 
3784375000  -5.632675e+001  1.719906e+002 
3787500000  -5.626894e+001  1.532715e+002 
3790625000  -5.720866e+001  1.499833e+002 
3793750000  -5.802037e+001  1.270968e+002 
3796875000  -5.689746e+001  1.305477e+002 
3800000000  -5.338465e+001  8.111149e+001 
3803125000  -5.671139e+001  1.091396e+002 
3806250000  -6.052974e+001  8.568458e+001 
3809375000  -5.825549e+001  8.310908e+001 
3812500000  -5.759647e+001  6.445895e+001 
3815625000  -5.981657e+001  4.893812e+001 
3818750000  -6.051817e+001  2.988170e+001 
3821875000  -6.238054e+001  4.578816e+001 
3825000000  -5.817514e+001  6.392953e+001 
3828125000  -6.028148e+001  3.695196e+001 
3831250000  -5.868488e+001  7.524131e+000 
3834375000  -5.983678e+001  -1.161736e+001 
3837500000  -6.480352e+001  1.066901e+001 
3840625000  -6.053241e+001  7.411416e+000 
3843750000  -6.088747e+001  9.475716e+000 
3846875000  -6.306041e+001  -2.306677e+001 
3850000000  -6.291215e+001  -3.701921e+000 
3853125000  -7.003378e+001  -3.080379e+001 
3856250000  -5.925975e+001  1.460518e+000 
3859375000  -5.913770e+001  -1.634480e+001 
3862500000  -6.189684e+001  -3.068793e+001 
3865625000  -6.307705e+001  -5.571156e+001 
3868750000  -6.117302e+001  -4.915323e+001 
3871875000  -5.692985e+001  -6.780844e+001 
3875000000  -5.988737e+001  -7.592611e+001 
3878125000  -5.897261e+001  -7.990009e+001 
3881250000  -5.879538e+001  -8.458389e+001 
3884375000  -5.730206e+001  -9.087241e+001 
3887500000  -5.521781e+001  -1.076166e+002 
3890625000  -5.595728e+001  -1.202674e+002 
3893750000  -5.615070e+001  -1.239756e+002 
3896875000  -5.773612e+001  -1.340716e+002 
3900000000  -5.653830e+001  -1.397782e+002 
3903125000  -5.483413e+001  -1.511464e+002 
3906250000  -5.397352e+001  -1.615848e+002 
3909375000  -5.443073e+001  1.796737e+002 
3912500000  -5.406195e+001  1.715382e+002 
3915625000  -5.742827e+001  1.558242e+002 
3918750000  -5.537535e+001  1.463609e+002 
3921875000  -5.441404e+001  1.378953e+002 
3925000000  -5.315326e+001  1.254056e+002 
3928125000  -5.286644e+001  1.142587e+002 
3931250000  -5.464682e+001  1.046404e+002 
3934375000  -5.386503e+001  9.239558e+001 
3937500000  -5.710716e+001  8.887778e+001 
3940625000  -5.340930e+001  8.132240e+001 
3943750000  -5.381243e+001  7.586183e+001 
3946875000  -5.389130e+001  4.574082e+001 
3950000000  -5.597291e+001  3.621579e+001 
3953125000  -5.551778e+001  3.341039e+001 
3956250000  -5.342712e+001  2.494192e+001 
3959375000  -5.171873e+001  2.219968e+001 
3962500000  -5.396006e+001  -4.271341e+000 
3965625000  -5.335657e+001  -1.622761e+001 
3968750000  -5.357806e+001  -2.868767e+001 
3971875000  -5.316629e+001  -3.133697e+001 
3975000000  -5.353843e+001  -5.761226e+001 
3978125000  -5.500048e+001  -4.896781e+001 
3981250000  -5.610946e+001  -7.084722e+001 
3984375000  -5.647007e+001  -8.513987e+001 
3987500000  -5.575687e+001  -8.578123e+001 
3990625000  -5.729954e+001  -1.044877e+002 
3993750000  -5.786425e+001  -1.171028e+002 
3996875000  -5.764314e+001  -1.119381e+002 
4000000000  -6.162706e+001  -1.194178e+002 
4003125000  -5.968265e+001  -1.264192e+002 
4006250000  -5.661530e+001  -1.394898e+002 
4009375000  -5.569265e+001  -1.384636e+002 
4012500000  -5.957960e+001  -1.712341e+002 
4015625000  -6.087393e+001  -1.729251e+002 
4018750000  -5.853820e+001  -1.662307e+002 
4021875000  -6.105888e+001  -1.541242e+002 
4025000000  -5.858298e+001  -1.780598e+002 
4028125000  -5.733945e+001  -1.755999e+002 
4031250000  -5.853235e+001  1.683022e+002 
4034375000  -6.080420e+001  1.799044e+002 
4037500000  -5.820051e+001  1.675902e+002 
4040625000  -5.735139e+001  1.460935e+002 
4043750000  -5.853107e+001  1.559945e+002 
4046875000  -5.904491e+001  1.350517e+002 
4050000000  -5.761352e+001  1.231814e+002 
4053125000  -5.849788e+001  1.146435e+002 
4056250000  -5.853205e+001  1.164032e+002 
4059375000  -5.633120e+001  1.146133e+002 
4062500000  -5.643244e+001  1.074054e+002 
4065625000  -5.301202e+001  7.860687e+001 
4068750000  -5.466444e+001  6.890255e+001 
4071875000  -5.351705e+001  6.323532e+001 
4075000000  -5.250114e+001  4.714651e+001 
4078125000  -5.308532e+001  4.275795e+001 
4081250000  -5.311896e+001  2.764778e+001 
4084375000  -5.215631e+001  1.313389e+001 
4087500000  -5.268197e+001  -2.443827e+000 
4090625000  -5.393463e+001  -2.894441e+000 
4093750000  -5.334014e+001  -1.782229e+001 
4096875000  -5.300724e+001  -2.837326e+001 
4100000000  -5.356700e+001  -4.567247e+001 
4103125000  -5.553405e+001  -4.232692e+001 
4106250000  -5.371528e+001  -5.571946e+001 
4109375000  -5.288612e+001  -6.747674e+001 
4112500000  -5.183440e+001  -7.782661e+001 
4115625000  -5.324212e+001  -8.588088e+001 
4118750000  -5.277348e+001  -1.009340e+002 
4121875000  -5.370032e+001  -1.140795e+002 
4125000000  -5.289118e+001  -1.222405e+002 
4128125000  -5.398523e+001  -1.270565e+002 
4131250000  -5.241003e+001  -1.284481e+002 
4134375000  -5.109977e+001  -1.463391e+002 
4137500000  -5.076473e+001  -1.726771e+002 
4140625000  -5.312402e+001  1.769555e+002 
4143750000  -5.738161e+001  1.780491e+002 
4146875000  -5.403601e+001  -1.792398e+002 
4150000000  -5.627069e+001  1.572200e+002 
4153125000  -5.618644e+001  1.524745e+002 
4156250000  -5.662032e+001  1.338725e+002 
4159375000  -5.616112e+001  1.328226e+002 
4162500000  -5.589151e+001  1.191199e+002 
4165625000  -5.526085e+001  1.102652e+002 
4168750000  -5.423180e+001  9.448985e+001 
4171875000  -5.550795e+001  8.793368e+001 
4175000000  -5.526717e+001  6.608120e+001 
4178125000  -5.797574e+001  7.653250e+001 
4181250000  -5.820199e+001  4.732016e+001 
4184375000  -5.783463e+001  4.693774e+001 
4187500000  -5.751613e+001  3.918776e+001 
4190625000  -6.100278e+001  3.569418e+000 
4193750000  -6.019964e+001  2.037719e+001 
4196875000  -6.351961e+001  9.863670e+000 
4200000000  -6.922912e+001  -3.922192e-002 
4203125000  -6.742950e+001  4.199845e+001 
4206250000  -5.925153e+001  1.409272e+001 
4209375000  -6.280470e+001  -3.797193e+001 
4212500000  -6.819376e+001  -6.911734e+000 
4215625000  -6.715994e+001  6.069135e+000 
4218750000  -6.357441e+001  -2.443062e+000 
4221875000  -6.182546e+001  -2.996234e+001 
4225000000  -6.175543e+001  -1.032307e+001 
4228125000  -6.016129e+001  -3.191338e+001 
4231250000  -6.076337e+001  1.607119e+000 
4234375000  -5.626965e+001  -4.687498e+001 
4237500000  -5.856144e+001  -3.938083e+001 
4240625000  -5.733673e+001  -6.469511e+001 
4243750000  -5.763226e+001  -6.582450e+001 
4246875000  -5.747326e+001  -8.389222e+001 
4250000000  -5.637038e+001  -9.621236e+001 
4253125000  -5.541661e+001  -9.526998e+001 
4256250000  -5.443414e+001  -1.054347e+002 
4259375000  -5.480191e+001  -1.004355e+002 
4262500000  -5.574937e+001  -1.110143e+002 
4265625000  -5.414301e+001  -1.232800e+002 
4268750000  -5.215539e+001  -1.376539e+002 
4271875000  -5.190221e+001  -1.533408e+002 
4275000000  -5.084399e+001  -1.751341e+002 
4278125000  -5.429196e+001  1.691181e+002 
4281250000  -5.510233e+001  1.619778e+002 
4284375000  -5.414708e+001  1.614071e+002 
4287500000  -5.480255e+001  1.525834e+002 
4290625000  -5.668881e+001  1.411848e+002 
4293750000  -5.299671e+001  1.458128e+002 
4296875000  -5.153853e+001  1.183897e+002 
4300000000  -5.278202e+001  1.120772e+002 
4303125000  -5.289501e+001  9.733169e+001 
4306250000  -5.336136e+001  1.000063e+002 
4309375000  -5.119709e+001  7.916525e+001 
4312500000  -5.178754e+001  6.525056e+001 
4315625000  -5.160124e+001  5.667550e+001 
4318750000  -5.338747e+001  4.149798e+001 
4321875000  -5.216562e+001  3.386722e+001 
4325000000  -5.251062e+001  2.560124e+001 
4328125000  -5.055423e+001  9.716202e+000 
4331250000  -5.264378e+001  -3.920519e+000 
4334375000  -5.528604e+001  -1.537260e+001 
4337500000  -5.416648e+001  -2.785062e+001 
4340625000  -5.431946e+001  -2.258577e+001 
4343750000  -5.533169e+001  -2.968175e+001 
4346875000  -5.530311e+001  -4.436844e+001 
4350000000  -5.706375e+001  -5.971270e+001 
4353125000  -5.559159e+001  -7.739275e+001 
4356250000  -5.752180e+001  -5.756935e+001 
4359375000  -5.646264e+001  -5.953951e+001 
4362500000  -5.532330e+001  -6.952054e+001 
4365625000  -5.433790e+001  -9.065779e+001 
4368750000  -5.568316e+001  -1.031059e+002 
4371875000  -5.708174e+001  -9.284464e+001 
4375000000  -5.692175e+001  -1.046459e+002 
4378125000  -5.679882e+001  -1.215214e+002 
4381250000  -5.839499e+001  -1.244091e+002 
4384375000  -5.775883e+001  -1.488291e+002 
4387500000  -5.775483e+001  -1.480892e+002 
4390625000  -5.814181e+001  -1.577333e+002 
4393750000  -5.888700e+001  -1.401568e+002 
4396875000  -5.572872e+001  -1.556875e+002 
4400000000  -5.479350e+001  -1.705806e+002 
4403125000  -5.575217e+001  -1.799370e+002 
4406250000  -5.692545e+001  -1.774548e+002 
4409375000  -5.400581e+001  1.686660e+002 
4412500000  -5.844697e+001  1.552614e+002 
4415625000  -5.642608e+001  1.739751e+002 
