!Agilent Technologies,E8363B,MY43030201,A.06.04.32
!Agilent E8363B: A.06.04.32
!Date: Tuesday, November 11, 2014 22:13:22
!Correction: S21(Response(S21)) 
!S1P File: Measurement: S21:
# Hz S  dB   R 50
3000000000  -4.904378e+001  -7.404428e+001 
3003125000  -5.129133e+001  -8.013230e+001 
3006250000  -5.187751e+001  -8.679442e+001 
3009375000  -5.198113e+001  -8.682246e+001 
3012500000  -5.079089e+001  -9.313355e+001 
3015625000  -5.111417e+001  -1.081709e+002 
3018750000  -5.228101e+001  -1.142951e+002 
3021875000  -4.950710e+001  -1.161515e+002 
3025000000  -4.851776e+001  -1.293630e+002 
3028125000  -4.813999e+001  -1.456961e+002 
3031250000  -4.701155e+001  -1.621889e+002 
3034375000  -4.701798e+001  1.795652e+002 
3037500000  -4.773852e+001  1.665323e+002 
3040625000  -4.902581e+001  1.551897e+002 
3043750000  -4.991733e+001  1.438516e+002 
3046875000  -5.042035e+001  1.291467e+002 
3050000000  -5.158980e+001  1.196116e+002 
3053125000  -5.104844e+001  1.164094e+002 
3056250000  -5.172069e+001  1.169850e+002 
3059375000  -5.061297e+001  1.148042e+002 
3062500000  -4.907901e+001  1.018038e+002 
3065625000  -4.940008e+001  8.528610e+001 
3068750000  -4.927990e+001  7.926193e+001 
3071875000  -4.967587e+001  6.735256e+001 
3075000000  -4.853049e+001  5.485585e+001 
3078125000  -4.858895e+001  4.410698e+001 
3081250000  -4.887086e+001  3.679398e+001 
3084375000  -4.774171e+001  2.612027e+001 
3087500000  -4.818290e+001  1.293907e+001 
3090625000  -4.777878e+001  -5.414146e+000 
3093750000  -4.906971e+001  -1.733691e+001 
3096875000  -4.957675e+001  -2.641091e+001 
3100000000  -4.942474e+001  -3.416735e+001 
3103125000  -5.038889e+001  -4.105394e+001 
3106250000  -4.965673e+001  -5.152306e+001 
3109375000  -4.960669e+001  -6.026160e+001 
3112500000  -4.953256e+001  -6.967950e+001 
3115625000  -4.897958e+001  -7.881158e+001 
3118750000  -4.951904e+001  -8.535294e+001 
3121875000  -4.887287e+001  -1.013358e+002 
3125000000  -5.127087e+001  -1.071370e+002 
3128125000  -5.126820e+001  -1.058080e+002 
3131250000  -4.826458e+001  -1.162705e+002 
3134375000  -4.771422e+001  -1.418852e+002 
3137500000  -4.911060e+001  -1.537944e+002 
3140625000  -4.954023e+001  -1.620564e+002 
3143750000  -4.985178e+001  -1.680593e+002 
3146875000  -5.055891e+001  -1.742775e+002 
3150000000  -4.876987e+001  1.781735e+002 
3153125000  -4.878296e+001  1.663369e+002 
3156250000  -5.044784e+001  1.639107e+002 
3159375000  -4.777583e+001  1.591301e+002 
3162500000  -4.649541e+001  1.347964e+002 
3165625000  -4.790598e+001  1.183217e+002 
3168750000  -4.736242e+001  1.154678e+002 
3171875000  -4.758828e+001  1.022167e+002 
3175000000  -4.771230e+001  8.718816e+001 
3178125000  -4.756335e+001  8.222681e+001 
3181250000  -4.699210e+001  6.550688e+001 
3184375000  -4.622919e+001  5.295077e+001 
3187500000  -4.741386e+001  3.496701e+001 
3190625000  -4.916121e+001  2.047812e+001 
3193750000  -5.000616e+001  2.248305e+001 
3196875000  -4.912375e+001  1.913389e+001 
3200000000  -4.791865e+001  8.508620e+000 
3203125000  -4.826328e+001  -3.886913e+000 
3206250000  -4.845678e+001  -1.575048e+001 
3209375000  -4.807666e+001  -3.204639e+001 
3212500000  -4.922323e+001  -4.188842e+001 
3215625000  -4.877687e+001  -4.938440e+001 
3218750000  -4.980611e+001  -6.689305e+001 
3221875000  -4.946830e+001  -7.746465e+001 
3225000000  -4.931760e+001  -8.666677e+001 
3228125000  -4.970263e+001  -9.218177e+001 
3231250000  -5.032619e+001  -1.038529e+002 
3234375000  -5.019555e+001  -1.102964e+002 
3237500000  -5.044934e+001  -1.197943e+002 
3240625000  -5.014874e+001  -1.271752e+002 
3243750000  -4.970034e+001  -1.468610e+002 
3246875000  -5.025466e+001  -1.560205e+002 
3250000000  -5.108255e+001  -1.670659e+002 
3253125000  -5.043668e+001  -1.702428e+002 
3256250000  -4.961842e+001  1.742903e+002 
3259375000  -5.066082e+001  1.583377e+002 
3262500000  -5.263522e+001  1.500158e+002 
3265625000  -5.284568e+001  1.454727e+002 
3268750000  -5.321683e+001  1.410327e+002 
3271875000  -5.301902e+001  1.315188e+002 
3275000000  -5.189453e+001  1.203659e+002 
3278125000  -5.231140e+001  1.107644e+002 
3281250000  -5.315929e+001  1.120857e+002 
3284375000  -5.243423e+001  8.977040e+001 
3287500000  -5.351635e+001  8.759901e+001 
3290625000  -5.310582e+001  6.815830e+001 
3293750000  -5.341382e+001  6.388474e+001 
3296875000  -5.380850e+001  5.654702e+001 
3300000000  -5.487094e+001  4.859972e+001 
3303125000  -5.304211e+001  3.882485e+001 
3306250000  -5.401349e+001  2.632479e+001 
3309375000  -5.278105e+001  2.433422e+001 
3312500000  -5.302401e+001  -5.818390e-001 
3315625000  -5.493528e+001  -9.168048e+000 
3318750000  -5.565335e+001  -2.092582e+001 
3321875000  -5.674982e+001  -2.355965e+001 
3325000000  -5.657413e+001  -3.011333e+001 
3328125000  -5.699822e+001  -2.657859e+001 
3331250000  -5.379052e+001  -2.696066e+001 
3334375000  -5.167717e+001  -4.599216e+001 
3337500000  -5.238247e+001  -6.804095e+001 
3340625000  -5.423386e+001  -8.639249e+001 
3343750000  -5.577045e+001  -8.278942e+001 
3346875000  -5.585889e+001  -9.601559e+001 
3350000000  -5.516981e+001  -1.007887e+002 
3353125000  -5.392759e+001  -1.188096e+002 
3356250000  -5.511396e+001  -1.294341e+002 
3359375000  -5.450062e+001  -1.505093e+002 
3362500000  -5.642553e+001  -1.486119e+002 
3365625000  -5.595774e+001  -1.558063e+002 
3368750000  -5.655470e+001  -1.742882e+002 
3371875000  -5.675325e+001  1.766279e+002 
3375000000  -5.996047e+001  1.728515e+002 
3378125000  -5.991912e+001  1.713274e+002 
3381250000  -5.981454e+001  1.638806e+002 
3384375000  -5.659349e+001  1.734949e+002 
3387500000  -5.479427e+001  1.534585e+002 
3390625000  -5.622321e+001  1.374515e+002 
3393750000  -5.831308e+001  1.131042e+002 
3396875000  -5.677186e+001  1.188397e+002 
3400000000  -5.614030e+001  9.411007e+001 
3403125000  -5.672196e+001  8.750529e+001 
3406250000  -5.619521e+001  7.032882e+001 
3409375000  -5.671026e+001  5.819851e+001 
3412500000  -5.818084e+001  6.258656e+001 
3415625000  -6.048361e+001  5.125636e+001 
3418750000  -5.996113e+001  4.166177e+001 
3421875000  -6.058302e+001  3.844064e+001 
3425000000  -5.830667e+001  4.044773e+001 
3428125000  -5.919407e+001  3.465671e+000 
3431250000  -6.148533e+001  -6.048385e+000 
3434375000  -5.956192e+001  -2.282759e+001 
3437500000  -6.215683e+001  -2.816280e+001 
3440625000  -6.095924e+001  -2.028002e+001 
3443750000  -6.072472e+001  -2.199224e+001 
3446875000  -5.987502e+001  -5.184531e+001 
3450000000  -6.210572e+001  -8.888715e+001 
3453125000  -6.232433e+001  -8.048965e+001 
3456250000  -7.137115e+001  -8.280421e+001 
3459375000  -6.275114e+001  -7.023086e+001 
3462500000  -6.676763e+001  -7.848330e+001 
3465625000  -6.980241e+001  -9.373244e+001 
3468750000  -6.701590e+001  -1.052690e+002 
3471875000  -6.154572e+001  -1.038576e+002 
3475000000  -6.528053e+001  -1.165279e+002 
3478125000  -7.552495e+001  -3.316031e+001 
3481250000  -6.503278e+001  -1.419375e+002 
3484375000  -6.874272e+001  -1.348377e+002 
3487500000  -6.676977e+001  -1.233397e+002 
3490625000  -7.088707e+001  -1.301945e+002 
3493750000  -6.931098e+001  -1.366069e+002 
3496875000  -6.789268e+001  -1.499229e+002 
3500000000  -6.534332e+001  -1.503156e+002 
3503125000  -6.650835e+001  -1.632359e+002 
3506250000  -6.535867e+001  -1.656052e+002 
3509375000  -6.596463e+001  1.700914e+002 
3512500000  -6.540644e+001  1.492504e+002 
3515625000  -6.823112e+001  1.576677e+002 
3518750000  -6.793169e+001  1.702570e+002 
3521875000  -6.500970e+001  1.315170e+002 
3525000000  -6.574267e+001  1.095680e+002 
3528125000  -6.539753e+001  1.099865e+002 
3531250000  -6.839286e+001  1.055486e+002 
3534375000  -6.740027e+001  8.311458e+001 
3537500000  -6.710017e+001  9.277287e+001 
3540625000  -6.870693e+001  6.024753e+001 
3543750000  -7.459143e+001  8.089266e+001 
3546875000  -6.924016e+001  1.098283e+002 
3550000000  -7.520113e+001  8.655080e+001 
3553125000  -7.097455e+001  1.671543e+002 
3556250000  -7.677824e+001  1.007997e+002 
3559375000  -7.474158e+001  3.705170e+001 
3562500000  -7.349185e+001  -2.117470e+001 
3565625000  -7.323361e+001  2.006341e+001 
3568750000  -6.990891e+001  9.703328e+000 
3571875000  -6.986401e+001  2.212140e+001 
3575000000  -7.163589e+001  -6.017759e+001 
3578125000  -6.880247e+001  4.661778e+001 
3581250000  -7.979394e+001  1.097303e+002 
3584375000  -6.948576e+001  1.776713e+001 
3587500000  -7.262628e+001  7.610009e+000 
3590625000  -7.172292e+001  4.325679e+001 
3593750000  -7.398211e+001  -2.315917e-001 
3596875000  -6.277862e+001  1.530687e+001 
3600000000  -6.460883e+001  -1.045152e+001 
3603125000  -6.631886e+001  -2.438886e+001 
3606250000  -6.470570e+001  -3.866772e+001 
3609375000  -6.907703e+001  -4.078520e+001 
3612500000  -6.314208e+001  -6.490025e+001 
3615625000  -6.726801e+001  -3.848682e+001 
3618750000  -6.434051e+001  -6.736181e+001 
3621875000  -6.384173e+001  -8.710853e+001 
3625000000  -6.124657e+001  -7.582754e+001 
3628125000  -6.280668e+001  -1.223429e+002 
3631250000  -6.481079e+001  -1.081796e+002 
3634375000  -6.660803e+001  -1.276279e+002 
3637500000  -6.196893e+001  -1.303782e+002 
3640625000  -5.992038e+001  -1.157397e+002 
3643750000  -6.202440e+001  -1.519275e+002 
3646875000  -6.163910e+001  -1.747209e+002 
3650000000  -6.370792e+001  -1.714709e+002 
3653125000  -6.590490e+001  1.706569e+002 
3656250000  -6.301943e+001  1.794281e+002 
3659375000  -6.320682e+001  1.560880e+002 
3662500000  -6.462190e+001  1.481195e+002 
3665625000  -6.153905e+001  1.499571e+002 
3668750000  -6.584411e+001  1.305688e+002 
3671875000  -6.254906e+001  1.422019e+002 
3675000000  -6.327481e+001  1.025861e+002 
3678125000  -6.425612e+001  9.700660e+001 
3681250000  -6.200708e+001  1.000240e+002 
3684375000  -6.693124e+001  8.166908e+001 
3687500000  -6.698760e+001  8.606464e+001 
3690625000  -7.406779e+001  7.313818e+001 
3693750000  -6.660716e+001  7.139983e+001 
3696875000  -6.899514e+001  9.120964e+001 
3700000000  -6.366772e+001  6.273577e+001 
3703125000  -6.723182e+001  5.059362e+001 
3706250000  -6.577106e+001  4.623898e+001 
3709375000  -6.848057e+001  1.552249e+001 
3712500000  -6.070173e+001  6.522305e+001 
3715625000  -6.393019e+001  4.695061e+001 
3718750000  -6.217822e+001  4.641776e+001 
3721875000  -6.038980e+001  1.283407e+001 
3725000000  -6.302359e+001  3.366741e+000 
3728125000  -6.291143e+001  -1.071523e+001 
3731250000  -5.808299e+001  -1.366580e+001 
3734375000  -6.214784e+001  -1.902176e+001 
3737500000  -5.779324e+001  -2.029878e+001 
3740625000  -5.757693e+001  -3.753659e+001 
3743750000  -5.856539e+001  -5.417104e+001 
3746875000  -5.973090e+001  -8.095969e+001 
3750000000  -5.891643e+001  -7.949998e+001 
3753125000  -5.996914e+001  -8.624240e+001 
3756250000  -5.778516e+001  -1.003365e+002 
3759375000  -5.959874e+001  -9.858689e+001 
3762500000  -5.800338e+001  -1.237681e+002 
3765625000  -6.037820e+001  -1.453223e+002 
3768750000  -5.618937e+001  -1.375747e+002 
3771875000  -5.557809e+001  -1.374297e+002 
3775000000  -5.625735e+001  -1.568506e+002 
3778125000  -5.602171e+001  -1.734404e+002 
3781250000  -5.610492e+001  -1.797879e+002 
3784375000  -5.588319e+001  1.719011e+002 
3787500000  -5.540137e+001  1.493055e+002 
3790625000  -5.836771e+001  1.416140e+002 
3793750000  -5.948974e+001  1.308079e+002 
3796875000  -5.655075e+001  1.314288e+002 
3800000000  -5.242116e+001  8.258491e+001 
3803125000  -5.760431e+001  9.458479e+001 
3806250000  -5.864750e+001  8.333546e+001 
3809375000  -5.688072e+001  8.533910e+001 
3812500000  -5.699012e+001  5.876360e+001 
3815625000  -6.359524e+001  5.316032e+001 
3818750000  -6.187229e+001  3.724414e+001 
3821875000  -6.410955e+001  6.248350e+001 
3825000000  -5.731837e+001  4.734691e+001 
3828125000  -5.910265e+001  1.463126e+001 
3831250000  -6.092362e+001  1.533449e+001 
3834375000  -6.667596e+001  9.127243e+000 
3837500000  -6.578413e+001  3.396508e+000 
3840625000  -5.949053e+001  4.707231e+000 
3843750000  -6.090362e+001  -1.678409e+001 
3846875000  -6.414628e+001  -3.279898e+001 
3850000000  -6.690331e+001  2.004618e+001 
3853125000  -6.147192e+001  -1.920828e+000 
3856250000  -6.449367e+001  -2.126613e+001 
3859375000  -5.992607e+001  -5.711271e+000 
3862500000  -6.063479e+001  -4.897115e+001 
3865625000  -6.068369e+001  -3.346729e+001 
3868750000  -5.854428e+001  -3.732861e+001 
3871875000  -5.726614e+001  -6.263551e+001 
3875000000  -6.291351e+001  -7.274758e+001 
3878125000  -5.661485e+001  -8.865578e+001 
3881250000  -5.960867e+001  -9.101184e+001 
3884375000  -5.597177e+001  -9.116138e+001 
3887500000  -5.655288e+001  -1.123283e+002 
3890625000  -5.610945e+001  -1.199240e+002 
3893750000  -5.756010e+001  -1.263914e+002 
3896875000  -5.886002e+001  -1.389041e+002 
3900000000  -5.754435e+001  -1.455180e+002 
3903125000  -5.420205e+001  -1.632881e+002 
3906250000  -5.457703e+001  -1.632740e+002 
3909375000  -5.504279e+001  1.757837e+002 
3912500000  -5.591900e+001  1.726296e+002 
3915625000  -5.546596e+001  1.530355e+002 
3918750000  -5.472785e+001  1.564031e+002 
3921875000  -5.467262e+001  1.427773e+002 
3925000000  -5.304666e+001  1.296712e+002 
3928125000  -5.353744e+001  1.121130e+002 
3931250000  -5.491999e+001  1.004245e+002 
3934375000  -5.507665e+001  9.420702e+001 
3937500000  -5.532535e+001  9.034807e+001 
3940625000  -5.421939e+001  6.463287e+001 
3943750000  -5.447126e+001  6.037695e+001 
3946875000  -5.290316e+001  4.867424e+001 
3950000000  -5.449839e+001  4.107554e+001 
3953125000  -5.424355e+001  3.853104e+001 
3956250000  -5.611942e+001  1.580338e+001 
3959375000  -5.210558e+001  2.055336e+001 
3962500000  -5.309302e+001  -4.727883e+000 
3965625000  -5.277318e+001  -1.506069e+001 
3968750000  -5.371059e+001  -3.570427e+001 
3971875000  -5.473667e+001  -3.583672e+001 
3975000000  -5.404640e+001  -5.932976e+001 
3978125000  -5.438108e+001  -6.106098e+001 
3981250000  -5.439532e+001  -7.225742e+001 
3984375000  -5.509440e+001  -8.601476e+001 
3987500000  -5.590137e+001  -8.446655e+001 
3990625000  -5.608324e+001  -9.917518e+001 
3993750000  -5.723120e+001  -1.040668e+002 
3996875000  -5.854607e+001  -1.136312e+002 
4000000000  -6.040730e+001  -1.382423e+002 
4003125000  -5.800942e+001  -1.271820e+002 
4006250000  -5.755448e+001  -1.446334e+002 
4009375000  -5.894149e+001  -1.494297e+002 
4012500000  -6.012157e+001  -1.496873e+002 
4015625000  -6.041214e+001  -1.775155e+002 
4018750000  -6.089137e+001  -1.729073e+002 
4021875000  -6.029300e+001  -1.703637e+002 
4025000000  -6.175706e+001  1.680664e+002 
4028125000  -5.872004e+001  1.615967e+002 
4031250000  -5.932703e+001  1.652912e+002 
4034375000  -6.127252e+001  1.536250e+002 
4037500000  -5.813935e+001  1.478909e+002 
4040625000  -5.809546e+001  1.488953e+002 
4043750000  -5.851324e+001  1.504532e+002 
4046875000  -5.760099e+001  1.401469e+002 
4050000000  -5.627519e+001  1.166786e+002 
4053125000  -5.806684e+001  1.308492e+002 
4056250000  -5.902357e+001  1.204662e+002 
4059375000  -5.608667e+001  1.178895e+002 
4062500000  -5.493857e+001  1.097743e+002 
4065625000  -5.376250e+001  7.968472e+001 
4068750000  -5.389413e+001  7.329782e+001 
4071875000  -5.263630e+001  6.312449e+001 
4075000000  -5.380199e+001  4.662691e+001 
4078125000  -5.310546e+001  3.753522e+001 
4081250000  -5.210852e+001  2.914663e+001 
4084375000  -5.271874e+001  1.784229e+001 
4087500000  -5.340131e+001  1.011632e+000 
4090625000  -5.233654e+001  -5.347681e+000 
4093750000  -5.369329e+001  -2.031310e+001 
4096875000  -5.309377e+001  -3.172459e+001 
4100000000  -5.363342e+001  -4.676711e+001 
4103125000  -5.500132e+001  -5.220478e+001 
4106250000  -5.407277e+001  -5.878103e+001 
4109375000  -5.403072e+001  -6.082603e+001 
4112500000  -5.197879e+001  -8.011918e+001 
4115625000  -5.449614e+001  -9.253883e+001 
4118750000  -5.330045e+001  -1.022849e+002 
4121875000  -5.312568e+001  -1.143664e+002 
4125000000  -5.286949e+001  -1.232104e+002 
4128125000  -5.447876e+001  -1.347087e+002 
4131250000  -5.226646e+001  -1.343085e+002 
4134375000  -5.194769e+001  -1.445425e+002 
4137500000  -5.326160e+001  -1.708524e+002 
4140625000  -5.413280e+001  1.710478e+002 
4143750000  -5.584172e+001  1.751626e+002 
4146875000  -5.359725e+001  1.672463e+002 
4150000000  -5.514165e+001  1.545316e+002 
4153125000  -5.352363e+001  1.425312e+002 
4156250000  -5.627832e+001  1.320652e+002 
4159375000  -5.444456e+001  1.248907e+002 
4162500000  -5.621149e+001  1.253153e+002 
4165625000  -5.526041e+001  1.196820e+002 
4168750000  -5.504171e+001  8.972459e+001 
4171875000  -5.368325e+001  8.839590e+001 
4175000000  -5.427538e+001  5.620182e+001 
4178125000  -5.890071e+001  7.591158e+001 
4181250000  -5.744051e+001  3.859895e+001 
4184375000  -5.816876e+001  4.142493e+001 
4187500000  -5.834559e+001  2.112509e+001 
4190625000  -6.112704e+001  1.483357e+001 
4193750000  -6.095214e+001  1.338452e+001 
4196875000  -6.572796e+001  1.725292e+001 
4200000000  -6.423428e+001  3.956836e+001 
4203125000  -6.392653e+001  -7.920982e+000 
4206250000  -5.963030e+001  1.634713e+001 
4209375000  -6.415327e+001  -1.544571e+001 
4212500000  -6.379957e+001  3.418873e+000 
4215625000  -6.524032e+001  9.998751e+000 
4218750000  -6.425552e+001  4.264690e+001 
4221875000  -5.871027e+001  -3.091353e+001 
4225000000  -5.989066e+001  1.028152e+001 
4228125000  -5.882086e+001  -5.466193e+001 
4231250000  -5.976698e+001  -3.373270e+001 
4234375000  -5.611072e+001  -4.154266e+001 
4237500000  -5.831696e+001  -5.226527e+001 
4240625000  -5.640736e+001  -7.376959e+001 
4243750000  -5.842247e+001  -5.599595e+001 
4246875000  -5.781425e+001  -8.517820e+001 
4250000000  -5.686950e+001  -8.433965e+001 
4253125000  -5.597387e+001  -8.861732e+001 
4256250000  -5.759336e+001  -9.741875e+001 
4259375000  -5.557507e+001  -9.940868e+001 
4262500000  -5.456923e+001  -1.241139e+002 
4265625000  -5.406025e+001  -1.262781e+002 
4268750000  -5.221214e+001  -1.439721e+002 
4271875000  -5.182235e+001  -1.495333e+002 
4275000000  -5.164536e+001  -1.769686e+002 
4278125000  -5.270729e+001  1.650352e+002 
4281250000  -5.462869e+001  1.651617e+002 
4284375000  -5.420659e+001  1.556613e+002 
4287500000  -5.411322e+001  1.508367e+002 
4290625000  -5.544393e+001  1.560414e+002 
4293750000  -5.297029e+001  1.586817e+002 
4296875000  -5.239814e+001  1.279298e+002 
4300000000  -5.267464e+001  1.088492e+002 
4303125000  -5.284734e+001  9.965801e+001 
4306250000  -5.363783e+001  9.822309e+001 
4309375000  -5.166673e+001  7.577287e+001 
4312500000  -5.150388e+001  6.870742e+001 
4315625000  -5.151725e+001  4.549005e+001 
4318750000  -5.365697e+001  4.494009e+001 
4321875000  -5.246854e+001  3.681697e+001 
4325000000  -5.342001e+001  2.241823e+001 
4328125000  -5.270001e+001  1.327339e+001 
4331250000  -5.294018e+001  -6.283713e+000 
4334375000  -5.452469e+001  -1.866472e+001 
4337500000  -5.584343e+001  -3.707561e+001 
4340625000  -5.600362e+001  -2.184486e+001 
4343750000  -5.410828e+001  -2.702614e+001 
4346875000  -5.604500e+001  -4.467787e+001 
4350000000  -5.676987e+001  -6.442316e+001 
4353125000  -5.613736e+001  -7.087363e+001 
4356250000  -5.924813e+001  -6.885876e+001 
4359375000  -5.606091e+001  -5.875580e+001 
4362500000  -5.572459e+001  -5.088008e+001 
4365625000  -5.357918e+001  -9.999821e+001 
4368750000  -5.426863e+001  -9.945479e+001 
4371875000  -5.732239e+001  -9.695613e+001 
4375000000  -5.629877e+001  -1.124519e+002 
4378125000  -5.801779e+001  -1.339915e+002 
4381250000  -5.647941e+001  -1.405233e+002 
4384375000  -5.687083e+001  -1.486553e+002 
4387500000  -5.722499e+001  -1.472227e+002 
4390625000  -5.708775e+001  -1.506443e+002 
4393750000  -5.837367e+001  -1.580623e+002 
4396875000  -5.640976e+001  -1.577814e+002 
4400000000  -5.885009e+001  -1.761968e+002 
4403125000  -5.603410e+001  1.759951e+002 
4406250000  -5.705825e+001  -1.795032e+002 
4409375000  -5.554827e+001  -1.765937e+002 
4412500000  -5.684998e+001  1.615056e+002 
4415625000  -5.519521e+001  1.590013e+002 
4418750000  -5.483094e+001  1.623185e+002 
