!Agilent Technologies,E8363B,MY43030201,A.06.04.32
!Agilent E8363B: A.06.04.32
!Date: Tuesday, November 11, 2014 22:15:05
!Correction: S21(Response(S21)) 
!S1P File: Measurement: S21:
# Hz S  dB   R 50
3000000000  -4.904610e+001  -7.501879e+001 
3003125000  -5.147517e+001  -8.394249e+001 
3006250000  -5.180453e+001  -8.708238e+001 
3009375000  -5.244806e+001  -8.670377e+001 
3012500000  -5.077693e+001  -9.611526e+001 
3015625000  -5.056889e+001  -1.076218e+002 
3018750000  -5.223871e+001  -1.158629e+002 
3021875000  -4.966758e+001  -1.187790e+002 
3025000000  -4.878111e+001  -1.292865e+002 
3028125000  -4.827624e+001  -1.444008e+002 
3031250000  -4.726421e+001  -1.602808e+002 
3034375000  -4.712855e+001  1.787701e+002 
3037500000  -4.818537e+001  1.638755e+002 
3040625000  -4.904109e+001  1.540151e+002 
3043750000  -4.972989e+001  1.451974e+002 
3046875000  -5.049172e+001  1.320640e+002 
3050000000  -5.159290e+001  1.245686e+002 
3053125000  -5.103137e+001  1.248329e+002 
3056250000  -5.133057e+001  1.215941e+002 
3059375000  -5.098091e+001  1.120233e+002 
3062500000  -4.919472e+001  9.988612e+001 
3065625000  -4.855459e+001  8.837232e+001 
3068750000  -4.910120e+001  7.560213e+001 
3071875000  -4.881671e+001  6.940495e+001 
3075000000  -4.861502e+001  6.009875e+001 
3078125000  -4.840703e+001  4.462852e+001 
3081250000  -4.880891e+001  3.649882e+001 
3084375000  -4.805682e+001  2.903185e+001 
3087500000  -4.834701e+001  1.290339e+001 
3090625000  -4.807300e+001  -4.489587e+000 
3093750000  -4.904376e+001  -1.285201e+001 
3096875000  -4.925714e+001  -2.243545e+001 
3100000000  -4.965300e+001  -3.595876e+001 
3103125000  -4.947907e+001  -3.854575e+001 
3106250000  -4.957084e+001  -5.023877e+001 
3109375000  -4.939311e+001  -5.969059e+001 
3112500000  -4.926181e+001  -6.602594e+001 
3115625000  -4.934143e+001  -7.668468e+001 
3118750000  -4.962711e+001  -8.362666e+001 
3121875000  -4.941703e+001  -9.697836e+001 
3125000000  -5.068135e+001  -1.065485e+002 
3128125000  -5.088667e+001  -1.103906e+002 
3131250000  -4.860117e+001  -1.147154e+002 
3134375000  -4.755371e+001  -1.389186e+002 
3137500000  -4.896518e+001  -1.520714e+002 
3140625000  -4.958339e+001  -1.625671e+002 
3143750000  -5.038208e+001  -1.699440e+002 
3146875000  -5.011070e+001  -1.724346e+002 
3150000000  -4.860020e+001  1.788459e+002 
3153125000  -4.898549e+001  1.676776e+002 
3156250000  -5.033530e+001  1.623462e+002 
3159375000  -4.758633e+001  1.598441e+002 
3162500000  -4.625893e+001  1.373046e+002 
3165625000  -4.795512e+001  1.189852e+002 
3168750000  -4.773224e+001  1.170042e+002 
3171875000  -4.736260e+001  1.033526e+002 
3175000000  -4.764958e+001  8.907813e+001 
3178125000  -4.738310e+001  8.376218e+001 
3181250000  -4.599719e+001  6.950941e+001 
3184375000  -4.649796e+001  5.307296e+001 
3187500000  -4.823260e+001  3.151099e+001 
3190625000  -4.905921e+001  2.269969e+001 
3193750000  -4.980166e+001  2.640960e+001 
3196875000  -5.000818e+001  1.877373e+001 
3200000000  -4.808643e+001  8.775842e+000 
3203125000  -4.814034e+001  -1.138094e+000 
3206250000  -4.886278e+001  -1.527177e+001 
3209375000  -4.820278e+001  -2.881806e+001 
3212500000  -4.905637e+001  -3.974937e+001 
3215625000  -4.864481e+001  -4.671179e+001 
3218750000  -4.925027e+001  -6.553517e+001 
3221875000  -4.954178e+001  -7.671600e+001 
3225000000  -4.927589e+001  -8.337211e+001 
3228125000  -5.024590e+001  -9.114882e+001 
3231250000  -5.071471e+001  -1.030393e+002 
3234375000  -4.980366e+001  -1.106659e+002 
3237500000  -4.986438e+001  -1.191252e+002 
3240625000  -4.970916e+001  -1.313389e+002 
3243750000  -4.983802e+001  -1.415838e+002 
3246875000  -5.006090e+001  -1.543049e+002 
3250000000  -5.114242e+001  -1.661367e+002 
3253125000  -5.155250e+001  -1.735702e+002 
3256250000  -5.016510e+001  1.760744e+002 
3259375000  -5.101201e+001  1.570727e+002 
3262500000  -5.261529e+001  1.514624e+002 
3265625000  -5.331451e+001  1.454614e+002 
3268750000  -5.360407e+001  1.503570e+002 
3271875000  -5.304223e+001  1.359053e+002 
3275000000  -5.321899e+001  1.224188e+002 
3278125000  -5.303203e+001  1.081006e+002 
3281250000  -5.310013e+001  1.110763e+002 
3284375000  -5.219952e+001  9.302036e+001 
3287500000  -5.345781e+001  8.663718e+001 
3290625000  -5.303653e+001  7.527523e+001 
3293750000  -5.327641e+001  6.440084e+001 
3296875000  -5.370717e+001  5.700099e+001 
3300000000  -5.469625e+001  4.824810e+001 
3303125000  -5.375300e+001  4.151539e+001 
3306250000  -5.427086e+001  2.236901e+001 
3309375000  -5.273217e+001  2.078063e+001 
3312500000  -5.264375e+001  -3.841780e+000 
3315625000  -5.437151e+001  -1.264307e+001 
3318750000  -5.634490e+001  -1.273015e+001 
3321875000  -5.764091e+001  -1.587749e+001 
3325000000  -5.681645e+001  -1.593672e+001 
3328125000  -5.732249e+001  -3.036415e+001 
3331250000  -5.382370e+001  -2.711902e+001 
3334375000  -5.346272e+001  -4.489153e+001 
3337500000  -5.212965e+001  -7.534673e+001 
3340625000  -5.382174e+001  -8.917075e+001 
3343750000  -5.638776e+001  -8.192649e+001 
3346875000  -5.501110e+001  -1.026120e+002 
3350000000  -5.525200e+001  -1.033544e+002 
3353125000  -5.505535e+001  -1.163365e+002 
3356250000  -5.572141e+001  -1.253087e+002 
3359375000  -5.479768e+001  -1.457164e+002 
3362500000  -5.581385e+001  -1.447826e+002 
3365625000  -5.579594e+001  -1.594909e+002 
3368750000  -5.678346e+001  -1.711227e+002 
3371875000  -5.697667e+001  -1.754262e+002 
3375000000  -5.863559e+001  1.728820e+002 
3378125000  -5.909686e+001  1.634845e+002 
3381250000  -6.026568e+001  1.708539e+002 
3384375000  -5.715888e+001  1.754417e+002 
3387500000  -5.578281e+001  1.501349e+002 
3390625000  -5.656701e+001  1.325551e+002 
3393750000  -5.766776e+001  1.183610e+002 
3396875000  -5.689983e+001  1.297066e+002 
3400000000  -5.474604e+001  9.463789e+001 
3403125000  -5.791351e+001  8.124516e+001 
3406250000  -5.691502e+001  7.475244e+001 
3409375000  -5.836345e+001  6.674882e+001 
3412500000  -5.887326e+001  6.078191e+001 
3415625000  -6.098863e+001  4.793108e+001 
3418750000  -6.054285e+001  3.796939e+001 
3421875000  -6.166836e+001  1.330186e+001 
3425000000  -5.903338e+001  2.500930e+001 
3428125000  -6.130779e+001  7.295195e+000 
3431250000  -6.061731e+001  -8.487020e-001 
3434375000  -5.849017e+001  -1.900657e+001 
3437500000  -6.282368e+001  -3.026156e+001 
3440625000  -6.032445e+001  -2.759671e+001 
3443750000  -6.318602e+001  -2.948067e+001 
3446875000  -5.967817e+001  -5.281143e+001 
3450000000  -6.075979e+001  -9.379445e+001 
3453125000  -6.124767e+001  -7.924406e+001 
3456250000  -6.800841e+001  -9.022367e+001 
3459375000  -6.243235e+001  -7.350932e+001 
3462500000  -6.840396e+001  -9.933939e+001 
3465625000  -7.096347e+001  -9.390433e+001 
3468750000  -6.499840e+001  -1.058724e+002 
3471875000  -6.477789e+001  -9.359383e+001 
3475000000  -6.546412e+001  -1.176664e+002 
3478125000  -6.712531e+001  -1.382552e+002 
3481250000  -7.205612e+001  -1.484490e+002 
3484375000  -6.636308e+001  -1.190565e+002 
3487500000  -6.470576e+001  -1.386168e+002 
3490625000  -6.431275e+001  -1.253846e+002 
3493750000  -6.882054e+001  -1.550127e+002 
3496875000  -6.623884e+001  -1.647553e+002 
3500000000  -6.235368e+001  -1.666999e+002 
3503125000  -6.543680e+001  -1.546558e+002 
3506250000  -6.380088e+001  -1.598078e+002 
3509375000  -6.693604e+001  1.687855e+002 
3512500000  -6.489222e+001  1.641973e+002 
3515625000  -6.873567e+001  1.494313e+002 
3518750000  -6.620621e+001  1.536029e+002 
3521875000  -6.485387e+001  1.173687e+002 
3525000000  -6.449784e+001  1.294437e+002 
3528125000  -6.664787e+001  1.053291e+002 
3531250000  -6.417773e+001  9.644630e+001 
3534375000  -6.725974e+001  1.085483e+002 
3537500000  -7.246978e+001  6.702821e+001 
3540625000  -7.230975e+001  6.387903e+001 
3543750000  -6.816854e+001  9.080231e+001 
3546875000  -7.449931e+001  6.675751e+001 
3550000000  -7.903618e+001  1.280405e+002 
3553125000  -6.840763e+001  1.379804e+001 
3556250000  -7.564073e+001  1.006979e+002 
3559375000  -7.553062e+001  1.868115e+001 
3562500000  -7.240626e+001  6.852707e+001 
3565625000  -6.725985e+001  4.999764e+001 
3568750000  -8.917433e+001  7.486845e+001 
3571875000  -6.655363e+001  3.504172e+001 
3575000000  -7.052889e+001  5.240402e+001 
3578125000  -7.664475e+001  -9.732571e-001 
3581250000  -7.857544e+001  -4.094693e+001 
3584375000  -7.259590e+001  5.196555e+001 
3587500000  -6.818707e+001  -4.279053e+001 
3590625000  -6.798148e+001  7.209452e+000 
3593750000  -7.208244e+001  -5.801991e+001 
3596875000  -7.081615e+001  2.903596e+001 
3600000000  -6.428327e+001  -2.397095e+001 
3603125000  -6.858664e+001  6.298376e+000 
3606250000  -6.282584e+001  -3.406009e+001 
3609375000  -6.526856e+001  -4.982195e+001 
3612500000  -6.627531e+001  -3.378213e+001 
3615625000  -6.699310e+001  -5.349087e+001 
3618750000  -6.483427e+001  -5.932114e+001 
3621875000  -6.684158e+001  -4.472600e+001 
3625000000  -6.356380e+001  -7.149037e+001 
3628125000  -6.356197e+001  -1.098578e+002 
3631250000  -6.559178e+001  -9.992352e+001 
3634375000  -6.598711e+001  -1.118972e+002 
3637500000  -6.376887e+001  -1.040085e+002 
3640625000  -6.185778e+001  -1.372502e+002 
3643750000  -6.052096e+001  -1.275125e+002 
3646875000  -6.206118e+001  -1.676504e+002 
3650000000  -6.284951e+001  -1.590586e+002 
3653125000  -6.795525e+001  -1.694290e+002 
3656250000  -6.684347e+001  1.408148e+002 
3659375000  -6.447228e+001  1.536961e+002 
3662500000  -6.316689e+001  1.474433e+002 
3665625000  -6.494440e+001  1.790687e+002 
3668750000  -6.569193e+001  1.469565e+002 
3671875000  -6.427007e+001  1.451893e+002 
3675000000  -6.268026e+001  1.020137e+002 
3678125000  -6.372729e+001  9.827628e+001 
3681250000  -6.464551e+001  9.548555e+001 
3684375000  -6.792361e+001  1.059627e+002 
3687500000  -6.538339e+001  9.250129e+001 
3690625000  -7.764792e+001  6.632781e+001 
3693750000  -6.286282e+001  9.549094e+001 
3696875000  -7.079087e+001  1.040886e+002 
3700000000  -6.240631e+001  9.292715e+001 
3703125000  -6.643923e+001  5.367175e+001 
3706250000  -6.913189e+001  8.048527e+001 
3709375000  -6.483523e+001  6.986066e+001 
3712500000  -6.378748e+001  5.026421e+001 
3715625000  -5.961762e+001  3.009737e+001 
3718750000  -6.386749e+001  4.036293e+001 
3721875000  -6.275565e+001  1.078412e+001 
3725000000  -6.333948e+001  1.534713e+001 
3728125000  -5.911116e+001  1.618750e+001 
3731250000  -6.075855e+001  -1.417674e+001 
3734375000  -5.931093e+001  -1.360031e+001 
3737500000  -5.827659e+001  -2.871395e+001 
3740625000  -6.045301e+001  -3.041611e+001 
3743750000  -6.009131e+001  -4.883305e+001 
3746875000  -5.765072e+001  -6.610821e+001 
3750000000  -5.732133e+001  -7.974227e+001 
3753125000  -5.817838e+001  -7.370801e+001 
3756250000  -5.699911e+001  -9.238635e+001 
3759375000  -5.750091e+001  -1.067949e+002 
3762500000  -5.781025e+001  -1.110794e+002 
3765625000  -5.791946e+001  -1.179516e+002 
3768750000  -5.703412e+001  -1.397012e+002 
3771875000  -5.596381e+001  -1.427292e+002 
3775000000  -5.518364e+001  -1.527506e+002 
3778125000  -5.770536e+001  -1.799091e+002 
3781250000  -5.627022e+001  1.744666e+002 
3784375000  -5.833535e+001  1.674723e+002 
3787500000  -5.697410e+001  1.483592e+002 
3790625000  -5.750790e+001  1.339116e+002 
3793750000  -5.909808e+001  1.418076e+002 
3796875000  -5.662627e+001  1.299438e+002 
3800000000  -5.295335e+001  7.869121e+001 
3803125000  -5.755472e+001  9.670837e+001 
3806250000  -6.077434e+001  7.357265e+001 
3809375000  -5.972942e+001  8.045709e+001 
3812500000  -5.851400e+001  6.961881e+001 
3815625000  -6.293937e+001  6.794549e+001 
3818750000  -6.069239e+001  2.786555e+001 
3821875000  -6.174788e+001  8.129391e+001 
3825000000  -5.970973e+001  3.502657e+001 
3828125000  -6.152913e+001  2.245502e+001 
3831250000  -5.989152e+001  1.334672e+001 
3834375000  -6.345232e+001  2.882003e+001 
3837500000  -6.452109e+001  1.188487e+001 
3840625000  -6.183730e+001  2.007102e+001 
3843750000  -6.521232e+001  -4.850883e+000 
3846875000  -6.189035e+001  -1.710121e+001 
3850000000  -6.652757e+001  -3.732739e+001 
3853125000  -6.341969e+001  -1.920341e+001 
3856250000  -6.127585e+001  2.482702e+000 
3859375000  -5.724992e+001  -2.758986e+001 
3862500000  -6.207060e+001  -6.053757e+001 
3865625000  -5.853831e+001  -5.375772e+001 
3868750000  -5.934344e+001  -3.621844e+001 
3871875000  -5.754139e+001  -6.126000e+001 
3875000000  -5.850572e+001  -6.492289e+001 
3878125000  -5.784682e+001  -7.633537e+001 
3881250000  -5.840611e+001  -9.180294e+001 
3884375000  -5.532648e+001  -9.398387e+001 
3887500000  -5.635952e+001  -1.149456e+002 
3890625000  -5.641311e+001  -1.119793e+002 
3893750000  -5.621469e+001  -1.157085e+002 
3896875000  -5.752961e+001  -1.307221e+002 
3900000000  -5.514263e+001  -1.340273e+002 
3903125000  -5.493267e+001  -1.527610e+002 
3906250000  -5.429026e+001  -1.670204e+002 
3909375000  -5.411268e+001  1.735662e+002 
3912500000  -5.358017e+001  1.672385e+002 
3915625000  -5.705125e+001  1.565845e+002 
3918750000  -5.505326e+001  1.567237e+002 
3921875000  -5.528443e+001  1.408891e+002 
3925000000  -5.336209e+001  1.326372e+002 
3928125000  -5.340579e+001  1.110637e+002 
3931250000  -5.433350e+001  1.073666e+002 
3934375000  -5.413936e+001  9.542253e+001 
3937500000  -5.571080e+001  8.577182e+001 
3940625000  -5.414444e+001  6.917737e+001 
3943750000  -5.348410e+001  7.169748e+001 
3946875000  -5.410242e+001  5.803112e+001 
3950000000  -5.405540e+001  3.988688e+001 
3953125000  -5.472174e+001  3.170004e+001 
3956250000  -5.284037e+001  2.385789e+001 
3959375000  -5.144801e+001  1.983923e+001 
3962500000  -5.303833e+001  -1.455837e+000 
3965625000  -5.426553e+001  -1.304961e+001 
3968750000  -5.421523e+001  -2.949109e+001 
3971875000  -5.323942e+001  -3.982936e+001 
3975000000  -5.366122e+001  -5.900603e+001 
3978125000  -5.440567e+001  -5.548081e+001 
3981250000  -5.466357e+001  -6.948679e+001 
3984375000  -5.562276e+001  -8.474649e+001 
3987500000  -5.563458e+001  -9.208425e+001 
3990625000  -5.812677e+001  -8.864733e+001 
3993750000  -5.746096e+001  -1.218120e+002 
3996875000  -5.777265e+001  -1.089896e+002 
4000000000  -5.889698e+001  -1.272952e+002 
4003125000  -5.914064e+001  -1.261482e+002 
4006250000  -5.639378e+001  -1.326113e+002 
4009375000  -5.727045e+001  -1.454449e+002 
4012500000  -5.623723e+001  -1.576403e+002 
4015625000  -5.955043e+001  -1.700650e+002 
4018750000  -6.283331e+001  -1.702618e+002 
4021875000  -6.061015e+001  -1.692329e+002 
4025000000  -5.921868e+001  1.705625e+002 
4028125000  -5.649025e+001  1.759843e+002 
4031250000  -5.928753e+001  1.664189e+002 
4034375000  -6.255445e+001  1.567716e+002 
4037500000  -5.872434e+001  1.584120e+002 
4040625000  -5.910011e+001  1.408695e+002 
4043750000  -5.980920e+001  1.528448e+002 
4046875000  -5.677386e+001  1.426061e+002 
4050000000  -5.838138e+001  1.310202e+002 
4053125000  -6.006145e+001  1.290796e+002 
4056250000  -5.773643e+001  1.173784e+002 
4059375000  -5.679008e+001  1.134698e+002 
4062500000  -5.430587e+001  1.077135e+002 
4065625000  -5.309892e+001  7.908823e+001 
4068750000  -5.412008e+001  6.914392e+001 
4071875000  -5.237439e+001  7.105502e+001 
4075000000  -5.369109e+001  4.577865e+001 
4078125000  -5.306796e+001  3.843895e+001 
4081250000  -5.449982e+001  2.563868e+001 
4084375000  -5.258206e+001  1.313646e+001 
4087500000  -5.288193e+001  -5.450437e+000 
4090625000  -5.365732e+001  -6.586945e+000 
4093750000  -5.404079e+001  -2.132883e+001 
4096875000  -5.308167e+001  -3.472943e+001 
4100000000  -5.327508e+001  -5.287793e+001 
4103125000  -5.464081e+001  -4.513145e+001 
4106250000  -5.333280e+001  -4.896689e+001 
4109375000  -5.283706e+001  -6.156982e+001 
4112500000  -5.170979e+001  -7.761147e+001 
4115625000  -5.358265e+001  -8.195023e+001 
4118750000  -5.179199e+001  -9.769268e+001 
4121875000  -5.408936e+001  -1.224667e+002 
4125000000  -5.354721e+001  -1.247673e+002 
4128125000  -5.522668e+001  -1.290959e+002 
4131250000  -5.427588e+001  -1.293349e+002 
4134375000  -5.195452e+001  -1.482032e+002 
4137500000  -5.384986e+001  -1.742174e+002 
4140625000  -5.290662e+001  1.723250e+002 
4143750000  -5.714302e+001  1.798642e+002 
4146875000  -5.434962e+001  1.693540e+002 
4150000000  -5.428003e+001  1.588848e+002 
4153125000  -5.456920e+001  1.404843e+002 
4156250000  -5.658389e+001  1.332393e+002 
4159375000  -5.571195e+001  1.359285e+002 
4162500000  -5.535171e+001  1.310608e+002 
4165625000  -5.440660e+001  1.167545e+002 
4168750000  -5.539225e+001  9.518737e+001 
4171875000  -5.640799e+001  7.343747e+001 
4175000000  -5.457952e+001  6.603708e+001 
4178125000  -5.761046e+001  6.874188e+001 
4181250000  -5.787774e+001  4.469637e+001 
4184375000  -6.153405e+001  3.936248e+001 
4187500000  -5.730985e+001  3.041782e+001 
4190625000  -6.261288e+001  2.393888e+001 
4193750000  -6.086476e+001  1.212568e+001 
4196875000  -6.394691e+001  2.852131e+001 
4200000000  -6.444560e+001  4.248897e+000 
4203125000  -6.257725e+001  4.418194e+001 
4206250000  -5.864238e+001  3.654714e+001 
4209375000  -5.862920e+001  -3.275887e+000 
4212500000  -6.163724e+001  2.503454e+001 
4215625000  -6.423686e+001  -1.879254e+001 
4218750000  -6.223311e+001  3.238419e+001 
4221875000  -5.866593e+001  -1.922584e+001 
4225000000  -5.954886e+001  -1.951278e+001 
4228125000  -5.920782e+001  -2.783022e+001 
4231250000  -5.833677e+001  -2.068200e+001 
4234375000  -5.745913e+001  -3.166388e+001 
4237500000  -5.808797e+001  -4.567782e+001 
4240625000  -5.531074e+001  -5.986661e+001 
4243750000  -5.726793e+001  -6.949039e+001 
4246875000  -5.662981e+001  -7.621768e+001 
4250000000  -5.904886e+001  -9.350522e+001 
4253125000  -5.683754e+001  -8.049809e+001 
4256250000  -5.502932e+001  -1.084340e+002 
4259375000  -5.583136e+001  -9.320566e+001 
4262500000  -5.526925e+001  -1.352994e+002 
4265625000  -5.428595e+001  -1.109075e+002 
4268750000  -5.184537e+001  -1.489725e+002 
4271875000  -5.228972e+001  -1.514885e+002 
4275000000  -5.324960e+001  -1.686525e+002 
4278125000  -5.448762e+001  1.712890e+002 
4281250000  -5.417998e+001  1.602030e+002 
4284375000  -5.478951e+001  1.479827e+002 
4287500000  -5.430704e+001  1.463136e+002 
4290625000  -5.524124e+001  1.522501e+002 
4293750000  -5.308005e+001  1.415543e+002 
4296875000  -5.252829e+001  1.101826e+002 
4300000000  -5.216872e+001  1.132977e+002 
4303125000  -5.164813e+001  1.044652e+002 
4306250000  -5.269131e+001  9.491720e+001 
4309375000  -5.237182e+001  7.836955e+001 
4312500000  -5.153251e+001  7.017016e+001 
4315625000  -5.295706e+001  5.205058e+001 
4318750000  -5.434221e+001  3.831644e+001 
4321875000  -5.219179e+001  3.842626e+001 
4325000000  -5.290071e+001  2.421285e+001 
4328125000  -5.137301e+001  1.008497e+001 
4331250000  -5.404219e+001  -4.450857e+000 
4334375000  -5.426989e+001  -1.173519e+001 
4337500000  -5.403514e+001  -2.704434e+001 
4340625000  -5.561195e+001  -1.639824e+001 
4343750000  -5.472030e+001  -4.245219e+001 
4346875000  -5.619829e+001  -4.320382e+001 
4350000000  -5.585517e+001  -6.156292e+001 
4353125000  -5.708584e+001  -5.887373e+001 
4356250000  -5.780042e+001  -5.936569e+001 
4359375000  -5.784949e+001  -2.523100e+001 
4362500000  -5.777152e+001  -4.835564e+001 
4365625000  -5.454084e+001  -8.196875e+001 
4368750000  -5.483492e+001  -1.029890e+002 
4371875000  -5.591618e+001  -1.044812e+002 
4375000000  -5.556563e+001  -1.190716e+002 
4378125000  -5.686321e+001  -1.280237e+002 
4381250000  -5.605951e+001  -1.219579e+002 
4384375000  -5.667404e+001  -1.383605e+002 
4387500000  -5.622048e+001  -1.458129e+002 
4390625000  -5.909813e+001  -1.575110e+002 
4393750000  -5.729196e+001  -1.566460e+002 
4396875000  -5.595049e+001  -1.539004e+002 
4400000000  -5.688374e+001  -1.716306e+002 
4403125000  -5.651827e+001  -1.794106e+002 
4406250000  -5.757085e+001  1.738754e+002 
4409375000  -5.655717e+001  1.682071e+002 
4412500000  -5.681330e+001  1.633142e+002 
4415625000  -5.644453e+001  1.652147e+002 
4418750000  -5.390638e+001  1.500917e+002 
