!Agilent Technologies,E8363B,MY43030201,A.06.04.32
!Agilent E8363B: A.06.04.32
!Date: Tuesday, November 11, 2014 22:12:07
!Correction: S21(Response(S21)) 
!S1P File: Measurement: S21:
# Hz S  dB   R 50
3000000000  -4.894902e+001  -7.335697e+001 
3003125000  -5.108606e+001  -7.806685e+001 
3006250000  -5.109064e+001  -8.888519e+001 
3009375000  -5.211333e+001  -8.650620e+001 
3012500000  -5.132099e+001  -9.587892e+001 
3015625000  -5.124441e+001  -1.063306e+002 
3018750000  -5.167121e+001  -1.147947e+002 
3021875000  -4.979855e+001  -1.194635e+002 
3025000000  -4.862038e+001  -1.288525e+002 
3028125000  -4.798922e+001  -1.433804e+002 
3031250000  -4.723085e+001  -1.630938e+002 
3034375000  -4.710033e+001  -1.790797e+002 
3037500000  -4.791289e+001  1.672802e+002 
3040625000  -4.904448e+001  1.519130e+002 
3043750000  -4.981503e+001  1.392625e+002 
3046875000  -5.073531e+001  1.325347e+002 
3050000000  -5.196484e+001  1.178232e+002 
3053125000  -5.087564e+001  1.249567e+002 
3056250000  -5.145799e+001  1.202918e+002 
3059375000  -5.074354e+001  1.092738e+002 
3062500000  -4.929397e+001  1.013530e+002 
3065625000  -4.881813e+001  8.765495e+001 
3068750000  -4.933451e+001  7.153417e+001 
3071875000  -4.936027e+001  6.824483e+001 
3075000000  -4.818284e+001  5.886702e+001 
3078125000  -4.861414e+001  4.173310e+001 
3081250000  -4.914578e+001  3.101504e+001 
3084375000  -4.818307e+001  2.460286e+001 
3087500000  -4.809897e+001  1.127186e+001 
3090625000  -4.790699e+001  -6.055593e+000 
3093750000  -4.920279e+001  -1.687088e+001 
3096875000  -4.931379e+001  -2.382721e+001 
3100000000  -4.977478e+001  -3.219761e+001 
3103125000  -4.988465e+001  -3.892291e+001 
3106250000  -4.917681e+001  -5.247853e+001 
3109375000  -4.917003e+001  -6.141710e+001 
3112500000  -4.944471e+001  -7.104924e+001 
3115625000  -4.935164e+001  -8.190275e+001 
3118750000  -4.980944e+001  -8.653073e+001 
3121875000  -4.885122e+001  -1.010473e+002 
3125000000  -5.071914e+001  -1.109753e+002 
3128125000  -5.025599e+001  -1.099853e+002 
3131250000  -4.837155e+001  -1.179214e+002 
3134375000  -4.731271e+001  -1.410647e+002 
3137500000  -4.831762e+001  -1.513183e+002 
3140625000  -4.914173e+001  -1.620045e+002 
3143750000  -5.054736e+001  -1.692007e+002 
3146875000  -4.958331e+001  -1.721148e+002 
3150000000  -4.887028e+001  1.774231e+002 
3153125000  -4.930311e+001  1.632867e+002 
3156250000  -5.032560e+001  1.618512e+002 
3159375000  -4.788069e+001  1.615307e+002 
3162500000  -4.600863e+001  1.357658e+002 
3165625000  -4.774699e+001  1.209732e+002 
3168750000  -4.766505e+001  1.135907e+002 
3171875000  -4.691605e+001  1.046293e+002 
3175000000  -4.776866e+001  8.636168e+001 
3178125000  -4.723928e+001  8.320824e+001 
3181250000  -4.673023e+001  7.041993e+001 
3184375000  -4.692658e+001  5.005486e+001 
3187500000  -4.760422e+001  3.576789e+001 
3190625000  -4.921801e+001  2.503502e+001 
3193750000  -4.981779e+001  2.433762e+001 
3196875000  -4.954582e+001  2.009349e+001 
3200000000  -4.847118e+001  7.820177e+000 
3203125000  -4.853457e+001  -4.700094e+000 
3206250000  -4.832791e+001  -1.689768e+001 
3209375000  -4.823467e+001  -2.854797e+001 
3212500000  -4.876714e+001  -4.109066e+001 
3215625000  -4.819189e+001  -4.806110e+001 
3218750000  -4.895961e+001  -6.561600e+001 
3221875000  -4.926903e+001  -7.854224e+001 
3225000000  -4.971361e+001  -8.556311e+001 
3228125000  -5.033024e+001  -9.534638e+001 
3231250000  -5.094403e+001  -1.076153e+002 
3234375000  -4.980409e+001  -1.092689e+002 
3237500000  -5.060017e+001  -1.182330e+002 
3240625000  -4.976381e+001  -1.268159e+002 
3243750000  -4.969999e+001  -1.479926e+002 
3246875000  -5.005442e+001  -1.560447e+002 
3250000000  -5.151778e+001  -1.697658e+002 
3253125000  -5.200670e+001  -1.701993e+002 
3256250000  -5.038525e+001  1.735576e+002 
3259375000  -5.100800e+001  1.599515e+002 
3262500000  -5.195338e+001  1.515973e+002 
3265625000  -5.263351e+001  1.468047e+002 
3268750000  -5.301198e+001  1.392672e+002 
3271875000  -5.246331e+001  1.333944e+002 
3275000000  -5.134827e+001  1.256462e+002 
3278125000  -5.264754e+001  1.072837e+002 
3281250000  -5.306121e+001  1.064706e+002 
3284375000  -5.195772e+001  9.069324e+001 
3287500000  -5.401315e+001  8.645815e+001 
3290625000  -5.302373e+001  7.442380e+001 
3293750000  -5.378842e+001  6.112786e+001 
3296875000  -5.453585e+001  5.445078e+001 
3300000000  -5.413358e+001  4.630108e+001 
3303125000  -5.357650e+001  3.278513e+001 
3306250000  -5.366249e+001  2.597732e+001 
3309375000  -5.335409e+001  1.976679e+001 
3312500000  -5.284451e+001  -4.486138e+000 
3315625000  -5.501028e+001  -4.972858e+000 
3318750000  -5.552870e+001  -2.654727e+001 
3321875000  -5.666198e+001  -2.057200e+001 
3325000000  -5.763321e+001  -2.327506e+001 
3328125000  -5.581963e+001  -2.866318e+001 
3331250000  -5.308701e+001  -2.457774e+001 
3334375000  -5.199863e+001  -4.361570e+001 
3337500000  -5.156777e+001  -7.170378e+001 
3340625000  -5.439729e+001  -8.775312e+001 
3343750000  -5.619623e+001  -8.486514e+001 
3346875000  -5.466507e+001  -1.018252e+002 
3350000000  -5.378434e+001  -9.866190e+001 
3353125000  -5.504961e+001  -1.182419e+002 
3356250000  -5.560225e+001  -1.343959e+002 
3359375000  -5.516623e+001  -1.512693e+002 
3362500000  -5.607022e+001  -1.506239e+002 
3365625000  -5.585450e+001  -1.537862e+002 
3368750000  -5.781375e+001  -1.785622e+002 
3371875000  -5.639051e+001  1.784739e+002 
3375000000  -5.964088e+001  1.595884e+002 
3378125000  -6.015984e+001  1.660535e+002 
3381250000  -6.114814e+001  1.661258e+002 
3384375000  -5.526698e+001  1.756048e+002 
3387500000  -5.496509e+001  1.514998e+002 
3390625000  -5.677009e+001  1.230873e+002 
3393750000  -5.792918e+001  1.099871e+002 
3396875000  -5.611850e+001  1.157976e+002 
3400000000  -5.510884e+001  9.681474e+001 
3403125000  -5.619951e+001  8.718537e+001 
3406250000  -5.823510e+001  7.948954e+001 
3409375000  -5.670859e+001  5.577132e+001 
3412500000  -5.912249e+001  5.878512e+001 
3415625000  -5.890967e+001  5.032309e+001 
3418750000  -5.974009e+001  2.755317e+001 
3421875000  -5.987818e+001  2.658462e+001 
3425000000  -5.911415e+001  2.515043e+001 
3428125000  -5.889927e+001  7.780923e+000 
3431250000  -6.034620e+001  1.757647e+000 
3434375000  -5.979752e+001  -2.663415e+001 
3437500000  -6.504916e+001  -2.345659e+001 
3440625000  -5.956076e+001  -3.037651e+001 
3443750000  -6.156311e+001  -3.018500e+001 
3446875000  -5.994140e+001  -4.568192e+001 
3450000000  -6.195890e+001  -8.428495e+001 
3453125000  -6.258475e+001  -6.871345e+001 
3456250000  -6.399060e+001  -1.187915e+002 
3459375000  -6.336144e+001  -6.522064e+001 
3462500000  -6.627381e+001  -1.331291e+002 
3465625000  -6.382806e+001  -9.177612e+001 
3468750000  -6.750031e+001  -1.011850e+002 
3471875000  -6.396303e+001  -9.331472e+001 
3475000000  -6.544221e+001  -1.296198e+002 
3478125000  -6.771169e+001  -1.394540e+002 
3481250000  -7.108524e+001  -1.610759e+002 
3484375000  -6.750230e+001  -1.332060e+002 
3487500000  -6.477116e+001  -1.117606e+002 
3490625000  -6.915296e+001  1.772491e+002 
3493750000  -7.039944e+001  -1.295475e+002 
3496875000  -6.840450e+001  -1.478663e+002 
3500000000  -6.553301e+001  -1.671332e+002 
3503125000  -6.523079e+001  -1.348737e+002 
3506250000  -6.390200e+001  1.712579e+002 
3509375000  -6.799426e+001  1.545148e+002 
3512500000  -7.036302e+001  1.776788e+002 
3515625000  -7.096243e+001  1.474103e+002 
3518750000  -6.579685e+001  1.483435e+002 
3521875000  -6.542077e+001  1.043159e+002 
3525000000  -6.415192e+001  1.249708e+002 
3528125000  -6.702626e+001  1.226030e+002 
3531250000  -6.234991e+001  1.228540e+002 
3534375000  -7.009740e+001  7.140638e+001 
3537500000  -7.260066e+001  6.506859e+001 
3540625000  -6.721752e+001  7.572887e+001 
3543750000  -7.007639e+001  8.512170e+001 
3546875000  -7.020068e+001  5.389559e+001 
3550000000  -7.106172e+001  1.003487e+002 
3553125000  -7.016649e+001  7.955697e+000 
3556250000  -7.226392e+001  3.995744e+001 
3559375000  -6.956870e+001  -2.952706e+000 
3562500000  -7.844343e+001  -6.096105e+001 
3565625000  -7.158331e+001  6.133644e+001 
3568750000  -8.748773e+001  1.473461e+002 
3571875000  -7.025623e+001  2.656189e+001 
3575000000  -7.301531e+001  -1.191086e+001 
3578125000  -8.304060e+001  1.424777e+002 
3581250000  -9.414024e+001  9.278999e+001 
3584375000  -6.928766e+001  2.920527e+001 
3587500000  -7.929585e+001  -5.212098e+001 
3590625000  -6.928851e+001  -4.273642e+000 
3593750000  -6.634312e+001  -1.662774e+001 
3596875000  -6.313792e+001  3.247914e+001 
3600000000  -6.236539e+001  1.525084e+001 
3603125000  -6.941458e+001  -7.663898e+000 
3606250000  -6.600847e+001  -6.516467e+001 
3609375000  -6.498606e+001  -2.997084e+001 
3612500000  -6.330061e+001  -7.064323e+001 
3615625000  -7.240552e+001  -5.013346e+001 
3618750000  -6.265561e+001  -6.456865e+001 
3621875000  -6.782732e+001  -9.849040e+001 
3625000000  -6.403076e+001  -7.023373e+001 
3628125000  -6.702020e+001  -1.099349e+002 
3631250000  -6.433847e+001  -1.153335e+002 
3634375000  -6.567269e+001  -1.368767e+002 
3637500000  -6.693764e+001  -1.135238e+002 
3640625000  -6.198835e+001  -1.325891e+002 
3643750000  -6.125473e+001  -1.388341e+002 
3646875000  -6.078485e+001  -1.732988e+002 
3650000000  -6.377179e+001  -1.651830e+002 
3653125000  -6.623390e+001  1.797482e+002 
3656250000  -6.464128e+001  1.521206e+002 
3659375000  -6.585914e+001  1.744342e+002 
3662500000  -6.606297e+001  1.338696e+002 
3665625000  -6.319570e+001  1.609523e+002 
3668750000  -6.194520e+001  1.192912e+002 
3671875000  -6.426603e+001  1.140986e+002 
3675000000  -6.097575e+001  9.805840e+001 
3678125000  -6.193902e+001  1.053029e+002 
3681250000  -6.248641e+001  8.788237e+001 
3684375000  -6.598963e+001  7.535538e+001 
3687500000  -6.390795e+001  8.648717e+001 
3690625000  -6.818549e+001  7.679124e+001 
3693750000  -6.604455e+001  9.987519e+001 
3696875000  -6.668468e+001  6.566090e+001 
3700000000  -6.381465e+001  8.654438e+001 
3703125000  -6.768418e+001  7.270007e+001 
3706250000  -6.753333e+001  5.561299e+001 
3709375000  -6.679375e+001  7.748203e+001 
3712500000  -6.046640e+001  5.041898e+001 
3715625000  -6.147813e+001  3.376397e+001 
3718750000  -6.167680e+001  2.926020e+001 
3721875000  -6.038058e+001  1.156465e+001 
3725000000  -6.113465e+001  1.882531e+001 
3728125000  -6.025486e+001  -3.851029e+000 
3731250000  -5.945414e+001  -7.208258e+000 
3734375000  -6.129406e+001  -2.863569e+001 
3737500000  -5.875962e+001  -3.969506e+001 
3740625000  -6.044451e+001  -2.131602e+001 
3743750000  -5.996455e+001  -5.629883e+001 
3746875000  -6.033420e+001  -5.646802e+001 
3750000000  -5.826733e+001  -7.984769e+001 
3753125000  -5.873044e+001  -7.506631e+001 
3756250000  -5.838864e+001  -1.022982e+002 
3759375000  -5.900848e+001  -1.062745e+002 
3762500000  -5.771907e+001  -1.175320e+002 
3765625000  -5.933096e+001  -1.261810e+002 
3768750000  -5.723316e+001  -1.443010e+002 
3771875000  -5.592575e+001  -1.305355e+002 
3775000000  -5.628523e+001  -1.542464e+002 
3778125000  -5.748323e+001  -1.678228e+002 
3781250000  -5.797540e+001  1.734205e+002 
3784375000  -5.630503e+001  1.598728e+002 
3787500000  -5.674305e+001  1.504118e+002 
3790625000  -5.756953e+001  1.347963e+002 
3793750000  -5.767284e+001  1.342883e+002 
3796875000  -5.728869e+001  1.203822e+002 
3800000000  -5.357589e+001  7.679843e+001 
3803125000  -5.796319e+001  9.328611e+001 
3806250000  -6.091175e+001  8.514357e+001 
3809375000  -5.960828e+001  7.810854e+001 
3812500000  -5.831162e+001  6.067686e+001 
3815625000  -6.159074e+001  3.500446e+001 
3818750000  -6.384415e+001  2.634798e+001 
3821875000  -6.228918e+001  5.171221e+001 
3825000000  -5.852805e+001  3.796617e+001 
3828125000  -6.251328e+001  2.789884e+001 
3831250000  -6.120816e+001  -1.034455e+001 
3834375000  -6.371129e+001  -1.795882e+000 
3837500000  -5.939948e+001  1.457074e+001 
3840625000  -6.508250e+001  1.317281e+001 
3843750000  -6.233118e+001  -4.831544e+000 
3846875000  -6.209171e+001  -5.583591e+001 
3850000000  -6.456076e+001  1.108357e+001 
3853125000  -6.185757e+001  -3.043442e+001 
3856250000  -6.183133e+001  -7.158479e+000 
3859375000  -5.764205e+001  -4.655837e+001 
3862500000  -6.108339e+001  -2.274764e+001 
3865625000  -5.861638e+001  -5.689063e+001 
3868750000  -5.962647e+001  -3.791348e+001 
3871875000  -5.588005e+001  -5.779186e+001 
3875000000  -6.119357e+001  -7.475356e+001 
3878125000  -5.821058e+001  -8.317486e+001 
3881250000  -5.770744e+001  -9.183681e+001 
3884375000  -5.691819e+001  -9.590052e+001 
3887500000  -5.630424e+001  -1.101694e+002 
3890625000  -5.627974e+001  -1.169187e+002 
3893750000  -5.631230e+001  -1.349618e+002 
3896875000  -5.587157e+001  -1.356594e+002 
3900000000  -5.596146e+001  -1.542110e+002 
3903125000  -5.551654e+001  -1.495678e+002 
3906250000  -5.411823e+001  -1.634104e+002 
3909375000  -5.431499e+001  1.792453e+002 
3912500000  -5.487701e+001  1.688391e+002 
3915625000  -5.547260e+001  1.551482e+002 
3918750000  -5.493512e+001  1.518227e+002 
3921875000  -5.470547e+001  1.465205e+002 
3925000000  -5.340195e+001  1.356305e+002 
3928125000  -5.271058e+001  1.057633e+002 
3931250000  -5.449019e+001  1.039578e+002 
3934375000  -5.341497e+001  8.611844e+001 
3937500000  -5.550800e+001  8.404899e+001 
3940625000  -5.583099e+001  7.333808e+001 
3943750000  -5.312130e+001  5.953768e+001 
3946875000  -5.315190e+001  4.811472e+001 
3950000000  -5.290041e+001  4.677866e+001 
3953125000  -5.546645e+001  4.285048e+001 
3956250000  -5.385836e+001  1.845661e+001 
3959375000  -5.220520e+001  1.602648e+001 
3962500000  -5.211043e+001  -3.120395e+000 
3965625000  -5.238759e+001  -1.646119e+001 
3968750000  -5.326673e+001  -3.462803e+001 
3971875000  -5.447968e+001  -4.945461e+001 
3975000000  -5.388527e+001  -5.087895e+001 
3978125000  -5.472703e+001  -5.799682e+001 
3981250000  -5.562325e+001  -7.734232e+001 
3984375000  -5.657685e+001  -9.092213e+001 
3987500000  -5.678901e+001  -9.373199e+001 
3990625000  -5.739810e+001  -9.421612e+001 
3993750000  -5.732171e+001  -1.194006e+002 
3996875000  -5.832344e+001  -1.187124e+002 
4000000000  -6.023725e+001  -1.194272e+002 
4003125000  -5.699537e+001  -1.227919e+002 
4006250000  -5.707194e+001  -1.369399e+002 
4009375000  -5.805639e+001  -1.345881e+002 
4012500000  -5.842093e+001  -1.775618e+002 
4015625000  -6.158129e+001  -1.682788e+002 
4018750000  -6.095511e+001  -1.622774e+002 
4021875000  -5.775857e+001  -1.716798e+002 
4025000000  -5.917724e+001  1.680416e+002 
4028125000  -5.872243e+001  1.591320e+002 
4031250000  -5.950213e+001  1.653206e+002 
4034375000  -5.904480e+001  1.756308e+002 
4037500000  -5.719903e+001  1.551107e+002 
4040625000  -5.843749e+001  1.474658e+002 
4043750000  -5.871463e+001  1.413513e+002 
4046875000  -5.854346e+001  1.272216e+002 
4050000000  -5.639843e+001  1.266746e+002 
4053125000  -5.882898e+001  1.205295e+002 
4056250000  -5.668810e+001  1.127372e+002 
4059375000  -5.738194e+001  1.071228e+002 
4062500000  -5.658363e+001  1.040355e+002 
4065625000  -5.448139e+001  8.567387e+001 
4068750000  -5.421827e+001  7.447576e+001 
4071875000  -5.302472e+001  6.380070e+001 
4075000000  -5.243824e+001  4.633467e+001 
4078125000  -5.445358e+001  4.061399e+001 
4081250000  -5.360384e+001  2.535699e+001 
4084375000  -5.154242e+001  8.991364e+000 
4087500000  -5.339722e+001  -2.143921e+000 
4090625000  -5.288929e+001  -7.151376e+000 
4093750000  -5.262231e+001  -2.223178e+001 
4096875000  -5.364698e+001  -3.063780e+001 
4100000000  -5.477866e+001  -4.716779e+001 
4103125000  -5.428680e+001  -4.550653e+001 
4106250000  -5.414183e+001  -6.108321e+001 
4109375000  -5.371286e+001  -7.075357e+001 
4112500000  -5.175599e+001  -8.354807e+001 
4115625000  -5.475547e+001  -9.006345e+001 
4118750000  -5.243194e+001  -9.896523e+001 
4121875000  -5.260736e+001  -1.236741e+002 
4125000000  -5.409290e+001  -1.223262e+002 
4128125000  -5.537186e+001  -1.349526e+002 
4131250000  -5.361956e+001  -1.283834e+002 
4134375000  -5.168173e+001  -1.551140e+002 
4137500000  -5.338176e+001  -1.668037e+002 
4140625000  -5.412504e+001  1.691418e+002 
4143750000  -5.668017e+001  1.701672e+002 
4146875000  -5.383335e+001  1.710353e+002 
4150000000  -5.557327e+001  1.599937e+002 
4153125000  -5.497876e+001  1.465845e+002 
4156250000  -5.562019e+001  1.254050e+002 
4159375000  -5.541022e+001  1.339722e+002 
4162500000  -5.750814e+001  1.175954e+002 
4165625000  -5.469366e+001  1.098142e+002 
4168750000  -5.592971e+001  1.015210e+002 
4171875000  -5.439174e+001  8.047492e+001 
4175000000  -5.586072e+001  5.486018e+001 
4178125000  -5.872670e+001  6.890044e+001 
4181250000  -5.631897e+001  4.359122e+001 
4184375000  -5.957222e+001  3.313341e+001 
4187500000  -5.747935e+001  2.766203e+001 
4190625000  -6.337454e+001  2.187435e+001 
4193750000  -6.222341e+001  3.872768e+001 
4196875000  -6.340685e+001  1.251060e+001 
4200000000  -6.424224e+001  2.042247e+001 
4203125000  -6.635567e+001  2.623072e+001 
4206250000  -5.917331e+001  3.317540e+001 
4209375000  -6.023741e+001  1.348569e+001 
4212500000  -5.917403e+001  4.098384e+001 
4215625000  -6.087429e+001  -1.005832e+001 
4218750000  -6.088345e+001  3.706295e+000 
4221875000  -6.014230e+001  8.536751e-001 
4225000000  -6.008590e+001  -5.231247e+000 
4228125000  -5.840858e+001  -2.312233e+001 
4231250000  -5.884327e+001  -2.212799e+001 
4234375000  -5.827715e+001  -4.927964e+001 
4237500000  -5.888854e+001  -4.271012e+001 
4240625000  -5.544825e+001  -6.233851e+001 
4243750000  -5.743546e+001  -6.240333e+001 
4246875000  -5.722226e+001  -7.415655e+001 
4250000000  -5.785541e+001  -8.589528e+001 
4253125000  -5.372795e+001  -8.431792e+001 
4256250000  -5.584229e+001  -9.668031e+001 
4259375000  -5.560562e+001  -1.098077e+002 
4262500000  -5.713795e+001  -1.369395e+002 
4265625000  -5.449030e+001  -1.137886e+002 
4268750000  -5.439257e+001  -1.569679e+002 
4271875000  -5.234785e+001  -1.595383e+002 
4275000000  -5.261934e+001  -1.749661e+002 
4278125000  -5.399002e+001  1.594276e+002 
4281250000  -5.325619e+001  1.621292e+002 
4284375000  -5.329184e+001  1.493045e+002 
4287500000  -5.452828e+001  1.468807e+002 
4290625000  -5.561565e+001  1.498462e+002 
4293750000  -5.332277e+001  1.451932e+002 
4296875000  -5.198442e+001  1.153420e+002 
4300000000  -5.297325e+001  1.091655e+002 
4303125000  -5.223542e+001  8.924339e+001 
4306250000  -5.308852e+001  9.679507e+001 
4309375000  -5.142456e+001  8.114259e+001 
4312500000  -5.183509e+001  6.022991e+001 
4315625000  -5.316154e+001  5.107700e+001 
4318750000  -5.428965e+001  4.505120e+001 
4321875000  -5.243982e+001  3.412010e+001 
4325000000  -5.268048e+001  2.441681e+001 
4328125000  -5.142381e+001  1.832345e+001 
4331250000  -5.285069e+001  -1.000396e+001 
4334375000  -5.324263e+001  -1.765674e+001 
4337500000  -5.639356e+001  -2.348035e+001 
4340625000  -5.557656e+001  -2.095523e+001 
4343750000  -5.503206e+001  -3.839780e+001 
4346875000  -5.446424e+001  -3.722913e+001 
4350000000  -5.432035e+001  -6.462065e+001 
4353125000  -5.599581e+001  -6.884647e+001 
4356250000  -5.758720e+001  -6.071058e+001 
4359375000  -5.753524e+001  -4.211214e+001 
4362500000  -5.500638e+001  -6.780698e+001 
4365625000  -5.442377e+001  -9.084714e+001 
4368750000  -5.554566e+001  -1.013379e+002 
4371875000  -5.710162e+001  -1.069900e+002 
4375000000  -5.501323e+001  -1.174965e+002 
4378125000  -5.529209e+001  -1.168455e+002 
4381250000  -5.697909e+001  -1.328849e+002 
4384375000  -5.549022e+001  -1.454607e+002 
4387500000  -5.705764e+001  -1.432692e+002 
4390625000  -5.879635e+001  -1.506632e+002 
4393750000  -5.752088e+001  -1.428519e+002 
4396875000  -5.584665e+001  -1.507479e+002 
4400000000  -5.858887e+001  -1.657206e+002 
4403125000  -5.552070e+001  -1.789063e+002 
4406250000  -5.841005e+001  1.610748e+002 
4409375000  -5.558176e+001  1.672656e+002 
4412500000  -5.809926e+001  1.623308e+002 
4415625000  -5.548228e+001  1.527523e+002 
4418750000  -5.535791e+001  1.541528e+002 
