!Agilent Technologies,E8363B,MY43030201,A.06.04.32
!Agilent E8363B: A.06.04.32
!Date: Tuesday, November 11, 2014 22:12:33
!Correction: S21(Response(S21)) 
!S1P File: Measurement: S21:
# Hz S  dB   R 50
3000000000  -4.907324e+001  -7.355994e+001 
3003125000  -5.156244e+001  -8.303364e+001 
3006250000  -5.169007e+001  -8.885413e+001 
3009375000  -5.191450e+001  -8.716828e+001 
3012500000  -5.137419e+001  -9.977650e+001 
3015625000  -5.112397e+001  -1.076637e+002 
3018750000  -5.179876e+001  -1.147939e+002 
3021875000  -4.946986e+001  -1.165904e+002 
3025000000  -4.877562e+001  -1.289336e+002 
3028125000  -4.781398e+001  -1.432703e+002 
3031250000  -4.699854e+001  -1.639259e+002 
3034375000  -4.674038e+001  -1.791644e+002 
3037500000  -4.813089e+001  1.657300e+002 
3040625000  -4.950792e+001  1.528496e+002 
3043750000  -5.007342e+001  1.404693e+002 
3046875000  -5.051227e+001  1.319034e+002 
3050000000  -5.144001e+001  1.248731e+002 
3053125000  -5.145541e+001  1.240366e+002 
3056250000  -5.146878e+001  1.203584e+002 
3059375000  -5.103100e+001  1.092798e+002 
3062500000  -4.962112e+001  1.032581e+002 
3065625000  -4.915751e+001  8.755787e+001 
3068750000  -4.919589e+001  7.475376e+001 
3071875000  -4.908471e+001  6.752142e+001 
3075000000  -4.845818e+001  5.476171e+001 
3078125000  -4.845816e+001  4.529021e+001 
3081250000  -4.940633e+001  3.453457e+001 
3084375000  -4.798096e+001  2.310996e+001 
3087500000  -4.787560e+001  1.576214e+001 
3090625000  -4.781308e+001  -5.051302e+000 
3093750000  -4.858669e+001  -1.473901e+001 
3096875000  -4.945425e+001  -2.326622e+001 
3100000000  -4.957765e+001  -3.385214e+001 
3103125000  -5.013841e+001  -4.243089e+001 
3106250000  -4.948518e+001  -5.015342e+001 
3109375000  -4.947122e+001  -6.058231e+001 
3112500000  -4.911420e+001  -6.831082e+001 
3115625000  -4.923203e+001  -7.985657e+001 
3118750000  -4.985778e+001  -8.576661e+001 
3121875000  -4.935267e+001  -9.944374e+001 
3125000000  -5.062437e+001  -1.068159e+002 
3128125000  -5.065811e+001  -1.070935e+002 
3131250000  -4.832809e+001  -1.170506e+002 
3134375000  -4.774411e+001  -1.446488e+002 
3137500000  -4.864526e+001  -1.575624e+002 
3140625000  -4.997535e+001  -1.610787e+002 
3143750000  -5.080088e+001  -1.722350e+002 
3146875000  -4.991763e+001  -1.701817e+002 
3150000000  -4.905476e+001  -1.792835e+002 
3153125000  -4.933619e+001  1.648188e+002 
3156250000  -5.045848e+001  1.668432e+002 
3159375000  -4.820721e+001  1.588596e+002 
3162500000  -4.666449e+001  1.369744e+002 
3165625000  -4.749356e+001  1.204761e+002 
3168750000  -4.797116e+001  1.154439e+002 
3171875000  -4.711875e+001  1.029051e+002 
3175000000  -4.735334e+001  8.828428e+001 
3178125000  -4.736045e+001  7.943704e+001 
3181250000  -4.655290e+001  6.801070e+001 
3184375000  -4.718143e+001  5.235138e+001 
3187500000  -4.775803e+001  3.634035e+001 
3190625000  -4.944875e+001  2.012796e+001 
3193750000  -4.993132e+001  2.044548e+001 
3196875000  -4.985175e+001  1.759948e+001 
3200000000  -4.816357e+001  1.040926e+001 
3203125000  -4.843454e+001  -4.890729e+000 
3206250000  -4.876772e+001  -1.607648e+001 
3209375000  -4.813755e+001  -3.313742e+001 
3212500000  -4.909265e+001  -4.001702e+001 
3215625000  -4.807878e+001  -4.834794e+001 
3218750000  -4.903325e+001  -6.315209e+001 
3221875000  -4.870997e+001  -7.614544e+001 
3225000000  -4.955831e+001  -8.646451e+001 
3228125000  -4.990245e+001  -9.440710e+001 
3231250000  -5.041375e+001  -1.043101e+002 
3234375000  -5.035005e+001  -1.129486e+002 
3237500000  -5.028888e+001  -1.192590e+002 
3240625000  -5.014005e+001  -1.268447e+002 
3243750000  -5.028017e+001  -1.433913e+002 
3246875000  -5.054807e+001  -1.541569e+002 
3250000000  -5.092807e+001  -1.661702e+002 
3253125000  -5.127636e+001  -1.696340e+002 
3256250000  -5.008694e+001  1.775867e+002 
3259375000  -5.125361e+001  1.560092e+002 
3262500000  -5.236892e+001  1.498639e+002 
3265625000  -5.324843e+001  1.480088e+002 
3268750000  -5.328468e+001  1.465708e+002 
3271875000  -5.263547e+001  1.299222e+002 
3275000000  -5.191635e+001  1.236661e+002 
3278125000  -5.267027e+001  1.157717e+002 
3281250000  -5.274289e+001  1.047134e+002 
3284375000  -5.160662e+001  9.134004e+001 
3287500000  -5.363155e+001  8.513061e+001 
3290625000  -5.279008e+001  6.725632e+001 
3293750000  -5.338574e+001  5.578006e+001 
3296875000  -5.403163e+001  4.958293e+001 
3300000000  -5.476185e+001  5.092380e+001 
3303125000  -5.363963e+001  3.919503e+001 
3306250000  -5.313476e+001  2.710352e+001 
3309375000  -5.303393e+001  1.583453e+001 
3312500000  -5.330285e+001  -3.398186e+000 
3315625000  -5.427094e+001  -5.970501e+000 
3318750000  -5.558217e+001  -2.340114e+001 
3321875000  -5.656273e+001  -2.200922e+001 
3325000000  -5.603558e+001  -2.996988e+001 
3328125000  -5.597990e+001  -3.208959e+001 
3331250000  -5.416557e+001  -2.541156e+001 
3334375000  -5.268026e+001  -5.050486e+001 
3337500000  -5.290590e+001  -6.989108e+001 
3340625000  -5.350959e+001  -9.124865e+001 
3343750000  -5.529008e+001  -9.052673e+001 
3346875000  -5.599361e+001  -9.943565e+001 
3350000000  -5.427744e+001  -1.031383e+002 
3353125000  -5.432538e+001  -1.158655e+002 
3356250000  -5.460810e+001  -1.280363e+002 
3359375000  -5.518318e+001  -1.442491e+002 
3362500000  -5.657414e+001  -1.432403e+002 
3365625000  -5.502863e+001  -1.621426e+002 
3368750000  -5.631673e+001  -1.673313e+002 
3371875000  -5.705013e+001  -1.771479e+002 
3375000000  -5.791335e+001  1.611206e+002 
3378125000  -5.842871e+001  1.676735e+002 
3381250000  -5.915875e+001  1.582099e+002 
3384375000  -5.670681e+001  1.792790e+002 
3387500000  -5.459556e+001  1.543139e+002 
3390625000  -5.764840e+001  1.264030e+002 
3393750000  -5.662818e+001  1.176886e+002 
3396875000  -5.716852e+001  1.075802e+002 
3400000000  -5.547831e+001  9.409192e+001 
3403125000  -5.734290e+001  8.774172e+001 
3406250000  -5.907018e+001  7.093676e+001 
3409375000  -5.656072e+001  5.521666e+001 
3412500000  -5.706913e+001  6.466221e+001 
3415625000  -5.967524e+001  4.376124e+001 
3418750000  -5.947126e+001  4.534104e+001 
3421875000  -5.986149e+001  3.270163e+001 
3425000000  -5.869125e+001  1.917693e+001 
3428125000  -5.882357e+001  1.366958e+001 
3431250000  -5.969741e+001  -4.778358e+000 
3434375000  -6.137852e+001  -2.264117e+001 
3437500000  -6.292817e+001  -2.455765e+001 
3440625000  -6.059179e+001  -3.241864e+001 
3443750000  -6.167903e+001  -2.710855e+001 
3446875000  -6.215159e+001  -4.071666e+001 
3450000000  -6.115235e+001  -8.847078e+001 
3453125000  -6.241789e+001  -7.697032e+001 
3456250000  -6.902429e+001  -1.072105e+002 
3459375000  -6.505138e+001  -7.482131e+001 
3462500000  -6.371365e+001  -9.081718e+001 
3465625000  -6.616519e+001  -1.173360e+002 
3468750000  -6.916966e+001  -9.325082e+001 
3471875000  -6.319330e+001  -1.007049e+002 
3475000000  -6.691402e+001  -1.209109e+002 
3478125000  -6.916040e+001  -1.363672e+002 
3481250000  -6.666458e+001  -1.084381e+002 
3484375000  -6.406775e+001  -1.371194e+002 
3487500000  -6.416905e+001  -1.374944e+002 
3490625000  -6.449678e+001  -1.393446e+002 
3493750000  -7.153876e+001  -1.460005e+002 
3496875000  -6.691138e+001  -1.583830e+002 
3500000000  -7.253725e+001  -1.249297e+002 
3503125000  -7.303382e+001  -1.126380e+002 
3506250000  -6.467361e+001  -1.645004e+002 
3509375000  -6.583635e+001  1.497964e+002 
3512500000  -6.213655e+001  1.376324e+002 
3515625000  -6.946648e+001  1.643885e+002 
3518750000  -6.492500e+001  1.335300e+002 
3521875000  -6.495427e+001  1.204951e+002 
3525000000  -7.045761e+001  1.165003e+002 
3528125000  -6.844678e+001  1.188119e+002 
3531250000  -7.944254e+001  -1.462879e+002 
3534375000  -6.852812e+001  1.146388e+002 
3537500000  -6.687330e+001  8.998128e+001 
3540625000  -7.705588e+001  8.401351e+001 
3543750000  -7.736336e+001  1.350532e+002 
3546875000  -7.435489e+001  8.371500e+001 
3550000000  -6.831503e+001  8.364986e+001 
3553125000  -8.218835e+001  2.556734e+001 
3556250000  -7.029586e+001  9.413088e+001 
3559375000  -6.687421e+001  -2.350691e+001 
3562500000  -7.309465e+001  -5.316735e+000 
3565625000  -7.064140e+001  7.006062e+001 
3568750000  -8.558321e+001  1.013150e+002 
3571875000  -7.442712e+001  8.277249e-001 
3575000000  -6.893264e+001  2.718170e+001 
3578125000  -6.731324e+001  2.670512e+001 
3581250000  -7.198837e+001  -2.208873e+001 
3584375000  -7.758105e+001  3.698995e+001 
3587500000  -8.176890e+001  2.578438e+001 
3590625000  -6.666754e+001  3.676757e+001 
3593750000  -6.893552e+001  1.340980e+000 
3596875000  -6.754842e+001  1.854308e+001 
3600000000  -6.783649e+001  -3.759232e+000 
3603125000  -6.757767e+001  -2.471183e+001 
3606250000  -6.849575e+001  -2.684004e+001 
3609375000  -6.723434e+001  -3.737118e+001 
3612500000  -6.442352e+001  -5.816332e+001 
3615625000  -7.344579e+001  -4.463424e+001 
3618750000  -6.418739e+001  -5.969245e+001 
3621875000  -6.956634e+001  -8.279923e+001 
3625000000  -6.482085e+001  -7.968104e+001 
3628125000  -6.244007e+001  -1.039455e+002 
3631250000  -6.350906e+001  -1.060717e+002 
3634375000  -6.287795e+001  -1.224671e+002 
3637500000  -6.646980e+001  -1.077006e+002 
3640625000  -6.293591e+001  -1.329419e+002 
3643750000  -6.596786e+001  -1.251757e+002 
3646875000  -6.171892e+001  -1.761000e+002 
3650000000  -6.322692e+001  -1.765514e+002 
3653125000  -6.238463e+001  1.658931e+002 
3656250000  -6.499399e+001  1.660042e+002 
3659375000  -6.700904e+001  1.571798e+002 
3662500000  -6.241761e+001  1.552676e+002 
3665625000  -6.216071e+001  1.591474e+002 
3668750000  -6.314835e+001  1.213302e+002 
3671875000  -6.284495e+001  1.249074e+002 
3675000000  -6.288569e+001  1.014112e+002 
3678125000  -6.430453e+001  1.330002e+002 
3681250000  -6.479963e+001  9.699858e+001 
3684375000  -6.655715e+001  1.066561e+002 
3687500000  -6.658992e+001  7.600114e+001 
3690625000  -6.780605e+001  8.082336e+001 
3693750000  -6.807896e+001  1.002259e+002 
3696875000  -7.132951e+001  1.047502e+002 
3700000000  -6.088851e+001  7.917243e+001 
3703125000  -6.510019e+001  4.441421e+001 
3706250000  -6.770041e+001  7.029365e+001 
3709375000  -6.430357e+001  4.327724e+001 
3712500000  -6.332617e+001  7.988076e+001 
3715625000  -6.359148e+001  3.076068e+001 
3718750000  -6.237644e+001  3.210191e+001 
3721875000  -6.199978e+001  -7.811232e-001 
3725000000  -6.494844e+001  7.668439e+000 
3728125000  -5.996748e+001  3.708253e+000 
3731250000  -6.033802e+001  2.609180e+000 
3734375000  -6.010633e+001  -5.550692e+000 
3737500000  -5.872397e+001  -5.605714e+001 
3740625000  -5.847477e+001  -4.194094e+001 
3743750000  -6.032473e+001  -5.904591e+001 
3746875000  -5.900072e+001  -6.592705e+001 
3750000000  -5.904686e+001  -8.413729e+001 
3753125000  -6.172170e+001  -7.463678e+001 
3756250000  -5.938773e+001  -1.011834e+002 
3759375000  -5.837105e+001  -1.088082e+002 
3762500000  -5.584977e+001  -1.156063e+002 
3765625000  -5.865924e+001  -1.246950e+002 
3768750000  -5.717597e+001  -1.475370e+002 
3771875000  -5.733494e+001  -1.382071e+002 
3775000000  -5.544930e+001  -1.651159e+002 
3778125000  -5.723111e+001  -1.737230e+002 
3781250000  -5.697300e+001  1.677445e+002 
3784375000  -5.769375e+001  1.600111e+002 
3787500000  -5.564741e+001  1.478460e+002 
3790625000  -5.789201e+001  1.462633e+002 
3793750000  -5.855007e+001  1.239175e+002 
3796875000  -5.614770e+001  1.342763e+002 
3800000000  -5.344062e+001  7.852260e+001 
3803125000  -5.788906e+001  9.658474e+001 
3806250000  -6.120790e+001  9.452402e+001 
3809375000  -5.783216e+001  8.828855e+001 
3812500000  -5.871782e+001  6.717431e+001 
3815625000  -6.085364e+001  3.268972e+001 
3818750000  -6.201940e+001  1.395922e+001 
3821875000  -6.302362e+001  5.699579e+001 
3825000000  -5.751424e+001  4.525037e+001 
3828125000  -5.865077e+001  2.964542e+001 
3831250000  -6.061926e+001  1.271637e+001 
3834375000  -6.158661e+001  -1.289419e+001 
3837500000  -6.078378e+001  1.651331e+001 
3840625000  -6.189534e+001  1.725633e+001 
3843750000  -6.281103e+001  5.590927e+000 
3846875000  -6.489156e+001  -2.640119e+001 
3850000000  -6.511021e+001  -2.453055e+000 
3853125000  -6.240444e+001  4.094084e+000 
3856250000  -6.076402e+001  1.855842e+000 
3859375000  -5.686609e+001  -3.669323e+001 
3862500000  -6.268204e+001  -5.823950e+001 
3865625000  -5.929232e+001  -4.557825e+001 
3868750000  -6.025747e+001  -4.381179e+001 
3871875000  -5.616495e+001  -5.375297e+001 
3875000000  -5.976441e+001  -6.589810e+001 
3878125000  -5.945501e+001  -7.724931e+001 
3881250000  -5.812706e+001  -8.731615e+001 
3884375000  -5.543168e+001  -1.003761e+002 
3887500000  -5.650396e+001  -1.104331e+002 
3890625000  -5.651040e+001  -1.175296e+002 
3893750000  -5.773492e+001  -1.279873e+002 
3896875000  -5.646218e+001  -1.305135e+002 
3900000000  -5.656667e+001  -1.397595e+002 
3903125000  -5.486203e+001  -1.522336e+002 
3906250000  -5.463266e+001  -1.778531e+002 
3909375000  -5.390519e+001  1.762773e+002 
3912500000  -5.471426e+001  1.621989e+002 
3915625000  -5.540282e+001  1.543916e+002 
3918750000  -5.425532e+001  1.548643e+002 
3921875000  -5.471989e+001  1.393014e+002 
3925000000  -5.316851e+001  1.203953e+002 
3928125000  -5.296146e+001  1.028810e+002 
3931250000  -5.341206e+001  1.010780e+002 
3934375000  -5.413417e+001  9.307810e+001 
3937500000  -5.440292e+001  7.696041e+001 
3940625000  -5.523946e+001  7.661393e+001 
3943750000  -5.310646e+001  5.635965e+001 
3946875000  -5.344671e+001  5.399663e+001 
3950000000  -5.429068e+001  3.909444e+001 
3953125000  -5.456239e+001  3.666392e+001 
3956250000  -5.445310e+001  2.491661e+001 
3959375000  -5.203951e+001  7.116105e+000 
3962500000  -5.289602e+001  3.996830e+000 
3965625000  -5.456861e+001  -1.535357e+001 
3968750000  -5.394208e+001  -4.231568e+001 
3971875000  -5.331422e+001  -4.029755e+001 
3975000000  -5.400845e+001  -5.834403e+001 
3978125000  -5.387410e+001  -5.141177e+001 
3981250000  -5.459365e+001  -7.244608e+001 
3984375000  -5.624272e+001  -9.074975e+001 
3987500000  -5.533389e+001  -9.045589e+001 
3990625000  -5.641005e+001  -1.049738e+002 
3993750000  -5.717992e+001  -1.036123e+002 
3996875000  -5.733918e+001  -1.189122e+002 
4000000000  -5.919126e+001  -1.294916e+002 
4003125000  -5.928004e+001  -1.385536e+002 
4006250000  -5.757887e+001  -1.391014e+002 
4009375000  -5.767982e+001  -1.570983e+002 
4012500000  -6.106981e+001  -1.676708e+002 
4015625000  -6.134008e+001  -1.653891e+002 
4018750000  -5.883807e+001  -1.583153e+002 
4021875000  -5.796780e+001  -1.766230e+002 
4025000000  -5.922258e+001  1.768693e+002 
4028125000  -5.896453e+001  1.780092e+002 
4031250000  -6.156348e+001  1.562035e+002 
4034375000  -6.276065e+001  1.585943e+002 
4037500000  -5.924496e+001  1.509998e+002 
4040625000  -6.051612e+001  1.460925e+002 
4043750000  -5.986017e+001  1.387907e+002 
4046875000  -5.894195e+001  1.261993e+002 
4050000000  -5.732147e+001  1.247152e+002 
4053125000  -5.889801e+001  1.125291e+002 
4056250000  -6.005908e+001  1.205906e+002 
4059375000  -5.619798e+001  1.119780e+002 
4062500000  -5.558722e+001  9.971252e+001 
4065625000  -5.379752e+001  8.091275e+001 
4068750000  -5.316763e+001  7.658623e+001 
4071875000  -5.250128e+001  6.295622e+001 
4075000000  -5.345459e+001  3.956369e+001 
4078125000  -5.348453e+001  4.465110e+001 
4081250000  -5.297042e+001  2.729276e+001 
4084375000  -5.189818e+001  1.057553e+001 
4087500000  -5.392329e+001  -6.513887e+000 
4090625000  -5.360271e+001  -1.486813e-002 
4093750000  -5.347410e+001  -2.039227e+001 
4096875000  -5.390977e+001  -2.830125e+001 
4100000000  -5.407521e+001  -4.769919e+001 
4103125000  -5.418291e+001  -4.522174e+001 
4106250000  -5.360371e+001  -5.484752e+001 
4109375000  -5.405654e+001  -6.792372e+001 
4112500000  -5.270382e+001  -8.180920e+001 
4115625000  -5.494816e+001  -9.305953e+001 
4118750000  -5.353977e+001  -9.664407e+001 
4121875000  -5.214178e+001  -1.148588e+002 
4125000000  -5.377325e+001  -1.272415e+002 
4128125000  -5.553096e+001  -1.410481e+002 
4131250000  -5.360268e+001  -1.340785e+002 
4134375000  -5.235963e+001  -1.547129e+002 
4137500000  -5.138808e+001  -1.711942e+002 
4140625000  -5.375390e+001  1.702975e+002 
4143750000  -5.545913e+001  1.712644e+002 
4146875000  -5.352387e+001  1.617278e+002 
4150000000  -5.538971e+001  1.582702e+002 
4153125000  -5.437045e+001  1.470638e+002 
4156250000  -5.649841e+001  1.307430e+002 
4159375000  -5.560583e+001  1.308051e+002 
4162500000  -5.780954e+001  1.183121e+002 
4165625000  -5.425919e+001  1.165283e+002 
4168750000  -5.508234e+001  8.623788e+001 
4171875000  -5.472908e+001  9.659250e+001 
4175000000  -5.596101e+001  5.178624e+001 
4178125000  -5.758181e+001  5.402802e+001 
4181250000  -5.642708e+001  4.176437e+001 
4184375000  -6.018110e+001  3.014859e+001 
4187500000  -5.738567e+001  3.328881e+001 
4190625000  -6.379372e+001  3.033189e+000 
4193750000  -5.952579e+001  2.646515e+001 
4196875000  -6.171189e+001  -1.760851e+001 
4200000000  -6.517161e+001  3.419608e+001 
4203125000  -6.447923e+001  1.896099e+001 
4206250000  -5.859242e+001  1.754798e+001 
4209375000  -6.240030e+001  -4.464771e+000 
4212500000  -6.546705e+001  1.130038e+001 
4215625000  -6.709305e+001  -9.590651e+000 
4218750000  -6.031980e+001  -8.549894e+000 
4221875000  -6.068751e+001  -2.941445e+001 
4225000000  -6.037861e+001  -1.070878e+001 
4228125000  -5.988721e+001  -4.330349e+001 
4231250000  -5.786367e+001  -3.651408e+001 
4234375000  -6.116301e+001  -2.727780e+001 
4237500000  -6.093439e+001  -5.582032e+001 
4240625000  -5.549468e+001  -7.398207e+001 
4243750000  -5.784220e+001  -7.406609e+001 
4246875000  -5.546215e+001  -7.506561e+001 
4250000000  -5.786191e+001  -7.749205e+001 
4253125000  -5.505471e+001  -9.363702e+001 
4256250000  -5.627255e+001  -8.926311e+001 
4259375000  -5.343803e+001  -9.026762e+001 
4262500000  -5.561908e+001  -1.261171e+002 
4265625000  -5.465318e+001  -1.198264e+002 
4268750000  -5.201426e+001  -1.434009e+002 
4271875000  -5.123677e+001  -1.658865e+002 
4275000000  -5.230352e+001  -1.763766e+002 
4278125000  -5.486289e+001  1.671087e+002 
4281250000  -5.397477e+001  1.695813e+002 
4284375000  -5.555975e+001  1.594060e+002 
4287500000  -5.530946e+001  1.508304e+002 
4290625000  -5.604835e+001  1.548428e+002 
4293750000  -5.286586e+001  1.453524e+002 
4296875000  -5.197966e+001  1.219007e+002 
4300000000  -5.242258e+001  1.075804e+002 
4303125000  -5.288573e+001  9.759794e+001 
4306250000  -5.286801e+001  9.520642e+001 
4309375000  -5.177661e+001  7.831422e+001 
4312500000  -5.149987e+001  6.585542e+001 
4315625000  -5.182297e+001  4.874136e+001 
4318750000  -5.302388e+001  3.762513e+001 
4321875000  -5.308464e+001  3.494138e+001 
4325000000  -5.280015e+001  1.049328e+001 
4328125000  -5.153227e+001  1.026702e+001 
4331250000  -5.292525e+001  -2.763354e+000 
4334375000  -5.479501e+001  -1.100673e+001 
4337500000  -5.591720e+001  -3.577598e+001 
4340625000  -5.614494e+001  -1.410989e+001 
4343750000  -5.580904e+001  -4.668787e+001 
4346875000  -5.522070e+001  -4.619272e+001 
4350000000  -5.359439e+001  -6.312571e+001 
4353125000  -5.696080e+001  -8.384526e+001 
4356250000  -5.773275e+001  -6.821426e+001 
4359375000  -6.443451e+001  -5.746623e+001 
4362500000  -5.390231e+001  -5.546023e+001 
4365625000  -5.317442e+001  -9.846712e+001 
4368750000  -5.467998e+001  -9.680342e+001 
4371875000  -5.583637e+001  -1.031905e+002 
4375000000  -5.456010e+001  -1.231909e+002 
4378125000  -5.759375e+001  -1.256837e+002 
4381250000  -5.747713e+001  -1.250273e+002 
4384375000  -5.658868e+001  -1.523840e+002 
4387500000  -5.738042e+001  -1.479982e+002 
4390625000  -5.708780e+001  -1.522953e+002 
4393750000  -5.676762e+001  -1.500109e+002 
4396875000  -5.497588e+001  -1.643831e+002 
4400000000  -5.731899e+001  1.783695e+002 
4403125000  -5.578150e+001  1.660547e+002 
4406250000  -5.756023e+001  1.595610e+002 
4409375000  -5.664706e+001  1.747886e+002 
4412500000  -5.741522e+001  1.533185e+002 
4415625000  -5.430321e+001  1.668892e+002 
4418750000  -5.195615e+001  1.532979e+002 
