!Agilent Technologies,E8363B,MY43030201,A.06.04.32
!Agilent E8363B: A.06.04.32
!Date: Tuesday, November 11, 2014 22:13:36
!Correction: S21(Response(S21)) 
!S1P File: Measurement: S21:
# Hz S  dB   R 50
3000000000  -4.887871e+001  -7.311868e+001 
3003125000  -5.125450e+001  -7.994982e+001 
3006250000  -5.186409e+001  -8.645937e+001 
3009375000  -5.167385e+001  -8.947115e+001 
3012500000  -5.135605e+001  -9.909145e+001 
3015625000  -5.141384e+001  -1.118666e+002 
3018750000  -5.136651e+001  -1.105121e+002 
3021875000  -4.973371e+001  -1.156296e+002 
3025000000  -4.817257e+001  -1.274262e+002 
3028125000  -4.821770e+001  -1.466325e+002 
3031250000  -4.686666e+001  -1.626182e+002 
3034375000  -4.703700e+001  1.792633e+002 
3037500000  -4.814902e+001  1.643811e+002 
3040625000  -4.884541e+001  1.525680e+002 
3043750000  -4.950397e+001  1.422182e+002 
3046875000  -5.065041e+001  1.294745e+002 
3050000000  -5.269955e+001  1.262862e+002 
3053125000  -5.106897e+001  1.243669e+002 
3056250000  -5.165644e+001  1.236031e+002 
3059375000  -5.082896e+001  1.136085e+002 
3062500000  -4.907352e+001  1.055357e+002 
3065625000  -4.911784e+001  8.761854e+001 
3068750000  -4.933459e+001  7.714677e+001 
3071875000  -4.878589e+001  6.878877e+001 
3075000000  -4.863568e+001  5.628110e+001 
3078125000  -4.855964e+001  4.483901e+001 
3081250000  -4.918228e+001  3.519933e+001 
3084375000  -4.812184e+001  2.510266e+001 
3087500000  -4.836320e+001  1.176991e+001 
3090625000  -4.797793e+001  -4.656865e+000 
3093750000  -4.879782e+001  -1.582271e+001 
3096875000  -4.961661e+001  -2.789151e+001 
3100000000  -4.924534e+001  -3.086482e+001 
3103125000  -4.978216e+001  -4.054488e+001 
3106250000  -4.913191e+001  -5.265467e+001 
3109375000  -4.905589e+001  -6.188291e+001 
3112500000  -4.929010e+001  -6.852643e+001 
3115625000  -4.935368e+001  -7.812428e+001 
3118750000  -5.006424e+001  -8.686940e+001 
3121875000  -4.897795e+001  -9.767852e+001 
3125000000  -5.072808e+001  -1.090238e+002 
3128125000  -5.123009e+001  -1.093746e+002 
3131250000  -4.835375e+001  -1.179121e+002 
3134375000  -4.766777e+001  -1.362240e+002 
3137500000  -4.835397e+001  -1.557190e+002 
3140625000  -4.978758e+001  -1.606770e+002 
3143750000  -5.056577e+001  -1.684683e+002 
3146875000  -4.995380e+001  -1.718602e+002 
3150000000  -4.890006e+001  1.768893e+002 
3153125000  -4.939378e+001  1.658367e+002 
3156250000  -5.103354e+001  1.646966e+002 
3159375000  -4.806227e+001  1.578838e+002 
3162500000  -4.613036e+001  1.390140e+002 
3165625000  -4.736118e+001  1.226448e+002 
3168750000  -4.756491e+001  1.136392e+002 
3171875000  -4.713318e+001  1.024243e+002 
3175000000  -4.731833e+001  8.983167e+001 
3178125000  -4.737367e+001  8.140681e+001 
3181250000  -4.674768e+001  7.169538e+001 
3184375000  -4.679947e+001  5.328067e+001 
3187500000  -4.765124e+001  3.568693e+001 
3190625000  -4.920036e+001  2.339901e+001 
3193750000  -5.039508e+001  2.265702e+001 
3196875000  -4.974667e+001  2.024837e+001 
3200000000  -4.834579e+001  8.334830e+000 
3203125000  -4.869261e+001  -3.808220e+000 
3206250000  -4.841158e+001  -1.760756e+001 
3209375000  -4.799957e+001  -2.957956e+001 
3212500000  -4.854852e+001  -3.595559e+001 
3215625000  -4.783240e+001  -4.589141e+001 
3218750000  -4.959972e+001  -6.402236e+001 
3221875000  -4.898990e+001  -7.631224e+001 
3225000000  -4.984828e+001  -8.619946e+001 
3228125000  -4.989147e+001  -9.394857e+001 
3231250000  -5.068336e+001  -1.042986e+002 
3234375000  -4.980407e+001  -1.087689e+002 
3237500000  -5.040622e+001  -1.197971e+002 
3240625000  -5.047303e+001  -1.298024e+002 
3243750000  -4.984487e+001  -1.447729e+002 
3246875000  -4.968106e+001  -1.599144e+002 
3250000000  -5.101748e+001  -1.683000e+002 
3253125000  -5.215944e+001  -1.684915e+002 
3256250000  -5.053833e+001  1.727362e+002 
3259375000  -5.131319e+001  1.586129e+002 
3262500000  -5.295045e+001  1.452745e+002 
3265625000  -5.271780e+001  1.471731e+002 
3268750000  -5.336444e+001  1.481757e+002 
3271875000  -5.276449e+001  1.351479e+002 
3275000000  -5.204927e+001  1.206894e+002 
3278125000  -5.229841e+001  1.114057e+002 
3281250000  -5.254002e+001  1.055666e+002 
3284375000  -5.182277e+001  9.060839e+001 
3287500000  -5.292819e+001  8.783782e+001 
3290625000  -5.320374e+001  7.442068e+001 
3293750000  -5.292856e+001  5.309375e+001 
3296875000  -5.393894e+001  5.468127e+001 
3300000000  -5.408521e+001  4.960839e+001 
3303125000  -5.289208e+001  3.738408e+001 
3306250000  -5.337931e+001  2.412331e+001 
3309375000  -5.286589e+001  1.535105e+001 
3312500000  -5.305693e+001  -3.344343e-001 
3315625000  -5.446220e+001  -7.775009e+000 
3318750000  -5.510451e+001  -2.402879e+001 
3321875000  -5.714640e+001  -2.468287e+001 
3325000000  -5.646314e+001  -1.700338e+001 
3328125000  -5.675163e+001  -1.788461e+001 
3331250000  -5.367249e+001  -2.477143e+001 
3334375000  -5.291133e+001  -5.146715e+001 
3337500000  -5.230838e+001  -7.137073e+001 
3340625000  -5.420578e+001  -8.068138e+001 
3343750000  -5.830091e+001  -8.774731e+001 
3346875000  -5.507441e+001  -1.015962e+002 
3350000000  -5.443282e+001  -1.008584e+002 
3353125000  -5.429221e+001  -1.181564e+002 
3356250000  -5.572714e+001  -1.266273e+002 
3359375000  -5.460310e+001  -1.464942e+002 
3362500000  -5.621181e+001  -1.536503e+002 
3365625000  -5.570055e+001  -1.561203e+002 
3368750000  -5.738213e+001  -1.762348e+002 
3371875000  -5.723790e+001  -1.798615e+002 
3375000000  -5.869980e+001  1.729916e+002 
3378125000  -5.943056e+001  1.770794e+002 
3381250000  -5.979998e+001  1.721730e+002 
3384375000  -5.673674e+001  1.792003e+002 
3387500000  -5.634539e+001  1.618082e+002 
3390625000  -5.606535e+001  1.301897e+002 
3393750000  -5.858194e+001  1.275204e+002 
3396875000  -5.736557e+001  1.240041e+002 
3400000000  -5.617232e+001  9.404086e+001 
3403125000  -5.734773e+001  8.424877e+001 
3406250000  -5.835962e+001  7.292339e+001 
3409375000  -5.608065e+001  4.959747e+001 
3412500000  -5.748867e+001  5.545241e+001 
3415625000  -6.013553e+001  3.400251e+001 
3418750000  -6.066038e+001  4.116189e+001 
3421875000  -5.980674e+001  3.430658e+001 
3425000000  -5.877994e+001  2.931732e+001 
3428125000  -5.858380e+001  5.695381e+000 
3431250000  -6.097849e+001  9.080974e+000 
3434375000  -5.832350e+001  -2.451052e+001 
3437500000  -6.418959e+001  -1.065676e+001 
3440625000  -6.065880e+001  -3.618207e+001 
3443750000  -6.251590e+001  -3.191150e+001 
3446875000  -6.004938e+001  -4.975470e+001 
3450000000  -6.125336e+001  -6.302933e+001 
3453125000  -6.379327e+001  -6.801255e+001 
3456250000  -6.383356e+001  -1.103993e+002 
3459375000  -6.721616e+001  -5.037983e+001 
3462500000  -6.636941e+001  -9.155093e+001 
3465625000  -6.470596e+001  -9.581989e+001 
3468750000  -6.790459e+001  -1.042035e+002 
3471875000  -6.482610e+001  -8.706580e+001 
3475000000  -6.744975e+001  -1.325824e+002 
3478125000  -6.921513e+001  -1.109536e+002 
3481250000  -6.869343e+001  -1.320518e+002 
3484375000  -6.656078e+001  -1.175275e+002 
3487500000  -6.758517e+001  -1.300337e+002 
3490625000  -6.926352e+001  -1.485526e+002 
3493750000  -7.406267e+001  -1.435273e+002 
3496875000  -6.799121e+001  -1.325482e+002 
3500000000  -6.578836e+001  -1.616382e+002 
3503125000  -6.452029e+001  -1.704726e+002 
3506250000  -6.351220e+001  1.699301e+002 
3509375000  -6.332036e+001  1.758133e+002 
3512500000  -6.341896e+001  1.418478e+002 
3515625000  -6.426495e+001  1.413365e+002 
3518750000  -6.610723e+001  1.322728e+002 
3521875000  -7.084263e+001  1.114971e+002 
3525000000  -6.858165e+001  1.130752e+002 
3528125000  -7.014000e+001  1.259932e+002 
3531250000  -6.733392e+001  1.090203e+002 
3534375000  -6.209988e+001  1.128321e+002 
3537500000  -6.372063e+001  6.925269e+001 
3540625000  -7.300439e+001  7.081355e+001 
3543750000  -6.933567e+001  1.217100e+002 
3546875000  -7.151616e+001  3.726190e+001 
3550000000  -7.193084e+001  9.061206e+001 
3553125000  -6.442413e+001  5.084681e+001 
3556250000  -7.031470e+001  6.158193e+001 
3559375000  -6.963824e+001  4.168379e+001 
3562500000  -7.698193e+001  7.586694e+001 
3565625000  -8.929290e+001  2.818104e+001 
3568750000  -7.254532e+001  1.076552e+002 
3571875000  -6.841734e+001  1.509066e+001 
3575000000  -7.070591e+001  -4.504102e+001 
3578125000  -7.305672e+001  7.763805e+001 
3581250000  -6.565816e+001  -2.868411e+001 
3584375000  -7.410374e+001  4.546822e+001 
3587500000  -8.005680e+001  -2.626344e+001 
3590625000  -6.611208e+001  3.069955e+001 
3593750000  -8.095134e+001  -2.679174e+001 
3596875000  -6.842097e+001  1.396083e+001 
3600000000  -6.653533e+001  -1.051269e+000 
3603125000  -6.608972e+001  2.252075e+001 
3606250000  -6.352944e+001  -4.275944e+001 
3609375000  -6.703593e+001  -1.773125e+001 
3612500000  -6.602028e+001  -6.761922e+001 
3615625000  -7.188135e+001  -5.559495e+001 
3618750000  -6.570811e+001  -7.455043e+001 
3621875000  -6.261025e+001  -7.925790e+001 
3625000000  -6.569829e+001  -8.123093e+001 
3628125000  -6.594529e+001  -1.044791e+002 
3631250000  -6.202387e+001  -1.106315e+002 
3634375000  -6.380658e+001  -1.376438e+002 
3637500000  -6.439792e+001  -1.214571e+002 
3640625000  -6.252269e+001  -1.520822e+002 
3643750000  -6.488615e+001  -1.501786e+002 
3646875000  -6.133600e+001  -1.717377e+002 
3650000000  -6.387646e+001  1.725644e+002 
3653125000  -6.257935e+001  1.794046e+002 
3656250000  -6.420781e+001  1.537664e+002 
3659375000  -6.980145e+001  1.571526e+002 
3662500000  -6.291248e+001  1.644467e+002 
3665625000  -6.349572e+001  1.600501e+002 
3668750000  -6.122007e+001  1.313034e+002 
3671875000  -6.532864e+001  1.382984e+002 
3675000000  -6.129900e+001  1.041385e+002 
3678125000  -6.529003e+001  1.244996e+002 
3681250000  -6.273426e+001  1.059294e+002 
3684375000  -7.623397e+001  1.010749e+002 
3687500000  -6.387430e+001  7.608504e+001 
3690625000  -6.717764e+001  1.031219e+002 
3693750000  -6.523312e+001  1.002712e+002 
3696875000  -6.477943e+001  1.007291e+002 
3700000000  -6.415813e+001  7.434148e+001 
3703125000  -6.861804e+001  6.795403e+001 
3706250000  -6.927342e+001  6.313728e+001 
3709375000  -6.633457e+001  6.598767e+001 
3712500000  -6.131210e+001  6.142065e+001 
3715625000  -6.189280e+001  5.900917e+001 
3718750000  -6.222607e+001  3.601509e+001 
3721875000  -5.922010e+001  1.284057e+001 
3725000000  -6.386676e+001  4.828590e+000 
3728125000  -6.040831e+001  9.063076e+000 
3731250000  -6.077408e+001  -1.398235e+001 
3734375000  -5.911818e+001  -1.945081e+001 
3737500000  -5.788094e+001  -5.185644e+001 
3740625000  -5.957983e+001  -2.635858e+001 
3743750000  -5.712708e+001  -4.778114e+001 
3746875000  -6.122635e+001  -5.330069e+001 
3750000000  -5.962444e+001  -7.499345e+001 
3753125000  -5.837912e+001  -7.191724e+001 
3756250000  -5.811271e+001  -9.271095e+001 
3759375000  -5.891729e+001  -1.049897e+002 
3762500000  -5.708942e+001  -1.084948e+002 
3765625000  -5.743131e+001  -1.272860e+002 
3768750000  -5.581813e+001  -1.362513e+002 
3771875000  -5.718179e+001  -1.439398e+002 
3775000000  -5.533744e+001  -1.566212e+002 
3778125000  -5.667070e+001  -1.743613e+002 
3781250000  -5.603732e+001  1.708675e+002 
3784375000  -5.831485e+001  1.678622e+002 
3787500000  -5.671540e+001  1.542957e+002 
3790625000  -5.679047e+001  1.472957e+002 
3793750000  -5.826977e+001  1.270652e+002 
3796875000  -5.496774e+001  1.170984e+002 
3800000000  -5.295521e+001  8.162920e+001 
3803125000  -5.685513e+001  1.095454e+002 
3806250000  -6.025824e+001  7.079861e+001 
3809375000  -5.860117e+001  9.209596e+001 
3812500000  -5.827163e+001  6.096253e+001 
3815625000  -6.268502e+001  4.748722e+001 
3818750000  -6.282897e+001  4.284121e+001 
3821875000  -6.027727e+001  6.638284e+001 
3825000000  -6.160160e+001  6.399022e+001 
3828125000  -6.156600e+001  1.823623e+001 
3831250000  -6.186108e+001  9.831997e+000 
3834375000  -6.403719e+001  2.180798e+000 
3837500000  -6.441780e+001  1.869788e+001 
3840625000  -5.948435e+001  1.058593e+000 
3843750000  -5.816100e+001  1.196901e+001 
3846875000  -6.330521e+001  -5.253868e-001 
3850000000  -6.210021e+001  -7.391626e+000 
3853125000  -6.496739e+001  -3.377284e+001 
3856250000  -6.014083e+001  -6.631815e+000 
3859375000  -6.154055e+001  -4.399254e+001 
3862500000  -6.024187e+001  -4.631289e+001 
3865625000  -6.362610e+001  -5.499512e+001 
3868750000  -5.963781e+001  -5.149888e+001 
3871875000  -5.792202e+001  -6.064045e+001 
3875000000  -6.015925e+001  -6.401675e+001 
3878125000  -5.823375e+001  -7.331351e+001 
3881250000  -5.883555e+001  -7.587860e+001 
3884375000  -5.800423e+001  -8.033376e+001 
3887500000  -5.530382e+001  -1.174254e+002 
3890625000  -5.687519e+001  -1.119172e+002 
3893750000  -5.670855e+001  -1.356879e+002 
3896875000  -5.629732e+001  -1.316338e+002 
3900000000  -5.659935e+001  -1.382264e+002 
3903125000  -5.591449e+001  -1.574170e+002 
3906250000  -5.350343e+001  -1.746603e+002 
3909375000  -5.519189e+001  1.753399e+002 
3912500000  -5.411135e+001  1.610159e+002 
3915625000  -5.629794e+001  1.650182e+002 
3918750000  -5.471268e+001  1.525323e+002 
3921875000  -5.474982e+001  1.425005e+002 
3925000000  -5.323735e+001  1.242401e+002 
3928125000  -5.304063e+001  1.107921e+002 
3931250000  -5.438033e+001  1.047694e+002 
3934375000  -5.461003e+001  9.326032e+001 
3937500000  -5.614231e+001  7.284531e+001 
3940625000  -5.454506e+001  7.899544e+001 
3943750000  -5.339223e+001  6.473350e+001 
3946875000  -5.238333e+001  4.981611e+001 
3950000000  -5.343795e+001  3.693908e+001 
3953125000  -5.619456e+001  3.250148e+001 
3956250000  -5.250620e+001  2.113105e+001 
3959375000  -5.178302e+001  1.683416e+001 
3962500000  -5.277914e+001  -3.073708e+000 
3965625000  -5.244371e+001  -2.316796e+001 
3968750000  -5.533386e+001  -1.954167e+001 
3971875000  -5.533060e+001  -4.083220e+001 
3975000000  -5.400096e+001  -5.323761e+001 
3978125000  -5.433417e+001  -6.212138e+001 
3981250000  -5.434017e+001  -7.945949e+001 
3984375000  -5.554605e+001  -7.669550e+001 
3987500000  -5.543024e+001  -9.322568e+001 
3990625000  -5.603494e+001  -9.295893e+001 
3993750000  -5.632943e+001  -1.119534e+002 
3996875000  -5.871595e+001  -1.119535e+002 
4000000000  -5.745885e+001  -1.316027e+002 
4003125000  -6.055865e+001  -1.176179e+002 
4006250000  -5.825976e+001  -1.191174e+002 
4009375000  -5.730734e+001  -1.453188e+002 
4012500000  -5.788783e+001  -1.644884e+002 
4015625000  -6.051090e+001  -1.698998e+002 
4018750000  -5.952620e+001  -1.644163e+002 
4021875000  -5.850545e+001  -1.694581e+002 
4025000000  -5.792617e+001  1.705622e+002 
4028125000  -6.012045e+001  -1.781747e+002 
4031250000  -6.097649e+001  1.483049e+002 
4034375000  -5.971658e+001  1.645215e+002 
4037500000  -5.739631e+001  1.511510e+002 
4040625000  -5.866843e+001  1.428968e+002 
4043750000  -5.783584e+001  1.493392e+002 
4046875000  -5.697357e+001  1.394154e+002 
4050000000  -5.719452e+001  1.219355e+002 
4053125000  -6.057004e+001  1.277587e+002 
4056250000  -5.833270e+001  1.138650e+002 
4059375000  -5.732368e+001  1.216348e+002 
4062500000  -5.618597e+001  1.025102e+002 
4065625000  -5.511850e+001  9.915486e+001 
4068750000  -5.371187e+001  7.678925e+001 
4071875000  -5.351752e+001  5.890033e+001 
4075000000  -5.331619e+001  4.455204e+001 
4078125000  -5.271961e+001  3.817352e+001 
4081250000  -5.289782e+001  2.824838e+001 
4084375000  -5.270641e+001  8.036083e+000 
4087500000  -5.254840e+001  5.668261e+000 
4090625000  -5.294186e+001  -4.342306e+000 
4093750000  -5.458503e+001  -2.083121e+001 
4096875000  -5.288975e+001  -3.354195e+001 
4100000000  -5.414230e+001  -5.091661e+001 
4103125000  -5.429315e+001  -5.160165e+001 
4106250000  -5.431466e+001  -5.098817e+001 
4109375000  -5.297567e+001  -5.209536e+001 
4112500000  -5.277085e+001  -8.106374e+001 
4115625000  -5.487930e+001  -9.700439e+001 
4118750000  -5.203872e+001  -1.060612e+002 
4121875000  -5.306423e+001  -1.199186e+002 
4125000000  -5.356626e+001  -1.199456e+002 
4128125000  -5.482061e+001  -1.253077e+002 
4131250000  -5.313328e+001  -1.286033e+002 
4134375000  -5.137048e+001  -1.479966e+002 
4137500000  -5.249556e+001  -1.755267e+002 
4140625000  -5.344204e+001  1.646122e+002 
4143750000  -5.883664e+001  1.739343e+002 
4146875000  -5.349636e+001  1.643097e+002 
4150000000  -5.484129e+001  1.541784e+002 
4153125000  -5.342005e+001  1.428080e+002 
4156250000  -5.699605e+001  1.262118e+002 
4159375000  -5.651720e+001  1.222853e+002 
4162500000  -5.465999e+001  1.234936e+002 
4165625000  -5.349737e+001  1.158849e+002 
4168750000  -5.487629e+001  1.047100e+002 
4171875000  -5.566346e+001  8.092577e+001 
4175000000  -5.661411e+001  6.032800e+001 
4178125000  -5.753538e+001  5.865424e+001 
4181250000  -5.725055e+001  4.131450e+001 
4184375000  -5.841516e+001  5.481990e+001 
4187500000  -5.900715e+001  3.428956e+001 
4190625000  -6.109554e+001  1.370717e+001 
4193750000  -5.968092e+001  1.762269e+001 
4196875000  -6.478265e+001  -6.277531e+000 
4200000000  -6.155508e+001  3.682219e+001 
4203125000  -6.227523e+001  4.826271e+001 
4206250000  -5.798195e+001  3.197093e+001 
4209375000  -6.091978e+001  -2.051245e+001 
4212500000  -6.508539e+001  3.742423e+000 
4215625000  -6.416063e+001  -3.134402e+001 
4218750000  -6.273991e+001  4.217171e+001 
4221875000  -5.897739e+001  -4.604770e+000 
4225000000  -6.091888e+001  -2.717098e+001 
4228125000  -6.046331e+001  -2.013031e+001 
4231250000  -5.842192e+001  -2.077853e+001 
4234375000  -5.946779e+001  -5.189013e+001 
4237500000  -5.880779e+001  -5.066411e+001 
4240625000  -5.462713e+001  -5.176154e+001 
4243750000  -5.843391e+001  -6.603668e+001 
4246875000  -5.547912e+001  -7.578545e+001 
4250000000  -5.656536e+001  -8.645572e+001 
4253125000  -5.512121e+001  -8.794724e+001 
4256250000  -5.541611e+001  -9.859356e+001 
4259375000  -5.358508e+001  -1.036016e+002 
4262500000  -5.424681e+001  -1.203689e+002 
4265625000  -5.349990e+001  -1.207584e+002 
4268750000  -5.341384e+001  -1.407687e+002 
4271875000  -5.211272e+001  -1.670447e+002 
4275000000  -5.228209e+001  -1.772426e+002 
4278125000  -5.401234e+001  1.664024e+002 
4281250000  -5.350686e+001  1.573785e+002 
4284375000  -5.343293e+001  1.625220e+002 
4287500000  -5.544850e+001  1.409306e+002 
4290625000  -5.711409e+001  1.465349e+002 
4293750000  -5.350920e+001  1.478705e+002 
4296875000  -5.212171e+001  1.251212e+002 
4300000000  -5.293345e+001  1.148965e+002 
4303125000  -5.487520e+001  9.876746e+001 
4306250000  -5.252630e+001  1.016940e+002 
4309375000  -5.163979e+001  8.151328e+001 
4312500000  -5.155405e+001  6.797996e+001 
4315625000  -5.233656e+001  4.787500e+001 
4318750000  -5.355454e+001  4.103391e+001 
4321875000  -5.292273e+001  3.642821e+001 
4325000000  -5.347061e+001  2.892146e+001 
4328125000  -5.277532e+001  9.925923e+000 
4331250000  -5.312734e+001  -8.028803e+000 
4334375000  -5.373523e+001  -1.570035e+001 
4337500000  -5.524774e+001  -3.526925e+001 
4340625000  -5.731317e+001  -2.288984e+001 
4343750000  -5.580636e+001  -2.817800e+001 
4346875000  -5.566034e+001  -3.814760e+001 
4350000000  -5.626374e+001  -6.566348e+001 
4353125000  -5.726141e+001  -6.086326e+001 
4356250000  -5.648135e+001  -5.202372e+001 
4359375000  -5.796128e+001  -5.094771e+001 
4362500000  -5.283415e+001  -7.133173e+001 
4365625000  -5.402737e+001  -9.191879e+001 
4368750000  -5.440521e+001  -1.021370e+002 
4371875000  -5.677662e+001  -1.080463e+002 
4375000000  -5.578069e+001  -1.038999e+002 
4378125000  -5.575162e+001  -1.226762e+002 
4381250000  -5.515058e+001  -1.379572e+002 
4384375000  -5.621187e+001  -1.422700e+002 
4387500000  -5.594540e+001  -1.496722e+002 
4390625000  -5.831029e+001  -1.631209e+002 
4393750000  -5.954594e+001  -1.426526e+002 
4396875000  -5.490502e+001  -1.504359e+002 
4400000000  -5.706882e+001  -1.669398e+002 
4403125000  -5.425494e+001  1.779996e+002 
4406250000  -5.851489e+001  1.766703e+002 
4409375000  -5.532793e+001  1.542675e+002 
4412500000  -5.814741e+001  1.667290e+002 
4415625000  -5.509216e+001  1.606737e+002 
4418750000  -5.531368e+001  1.468167e+002 
