!Agilent Technologies,E8363B,MY43030201,A.06.04.32
!Agilent E8363B: A.06.04.32
!Date: Tuesday, November 11, 2014 22:11:43
!Correction: S21(Response(S21)) 
!S1P File: Measurement: S21:
# Hz S  dB   R 50
3000000000  -4.894440e+001  -7.623228e+001 
3003125000  -5.148454e+001  -7.834910e+001 
3006250000  -5.126937e+001  -8.519843e+001 
3009375000  -5.226204e+001  -9.071532e+001 
3012500000  -5.107876e+001  -9.932254e+001 
3015625000  -5.139652e+001  -1.106485e+002 
3018750000  -5.162788e+001  -1.154787e+002 
3021875000  -4.968128e+001  -1.176413e+002 
3025000000  -4.852477e+001  -1.274004e+002 
3028125000  -4.838250e+001  -1.451439e+002 
3031250000  -4.695573e+001  -1.627181e+002 
3034375000  -4.704158e+001  1.798760e+002 
3037500000  -4.777375e+001  1.650894e+002 
3040625000  -4.924466e+001  1.524099e+002 
3043750000  -4.946308e+001  1.404569e+002 
3046875000  -5.089579e+001  1.274869e+002 
3050000000  -5.164818e+001  1.250106e+002 
3053125000  -5.156648e+001  1.211599e+002 
3056250000  -5.101866e+001  1.217988e+002 
3059375000  -5.124313e+001  1.042793e+002 
3062500000  -4.951597e+001  9.950787e+001 
3065625000  -4.912043e+001  8.519816e+001 
3068750000  -4.889999e+001  7.645514e+001 
3071875000  -4.865444e+001  7.002918e+001 
3075000000  -4.884655e+001  5.646985e+001 
3078125000  -4.861610e+001  4.541750e+001 
3081250000  -4.892733e+001  3.330876e+001 
3084375000  -4.781831e+001  2.572770e+001 
3087500000  -4.816201e+001  1.064939e+001 
3090625000  -4.789259e+001  -4.606499e+000 
3093750000  -4.907935e+001  -1.733488e+001 
3096875000  -4.911150e+001  -2.513097e+001 
3100000000  -4.920199e+001  -3.881548e+001 
3103125000  -4.965095e+001  -4.421111e+001 
3106250000  -4.924495e+001  -5.080721e+001 
3109375000  -4.940035e+001  -6.206565e+001 
3112500000  -4.952325e+001  -7.045906e+001 
3115625000  -4.933129e+001  -8.268678e+001 
3118750000  -4.979913e+001  -8.475866e+001 
3121875000  -4.928513e+001  -1.009345e+002 
3125000000  -5.045530e+001  -1.123201e+002 
3128125000  -5.070567e+001  -1.052671e+002 
3131250000  -4.855082e+001  -1.158146e+002 
3134375000  -4.739098e+001  -1.391763e+002 
3137500000  -4.868512e+001  -1.558836e+002 
3140625000  -4.993415e+001  -1.595650e+002 
3143750000  -5.049491e+001  -1.711179e+002 
3146875000  -5.002071e+001  -1.726937e+002 
3150000000  -4.886617e+001  -1.797623e+002 
3153125000  -4.900925e+001  1.646785e+002 
3156250000  -5.052985e+001  1.637547e+002 
3159375000  -4.781667e+001  1.588328e+002 
3162500000  -4.640019e+001  1.351125e+002 
3165625000  -4.804802e+001  1.211767e+002 
3168750000  -4.772160e+001  1.136515e+002 
3171875000  -4.741624e+001  1.020810e+002 
3175000000  -4.797145e+001  8.670334e+001 
3178125000  -4.752561e+001  8.422423e+001 
3181250000  -4.663924e+001  6.737038e+001 
3184375000  -4.670612e+001  5.245897e+001 
3187500000  -4.728527e+001  3.672342e+001 
3190625000  -4.941584e+001  2.337972e+001 
3193750000  -4.921589e+001  2.070596e+001 
3196875000  -4.959834e+001  1.297940e+001 
3200000000  -4.821373e+001  7.494706e+000 
3203125000  -4.815499e+001  -5.603332e+000 
3206250000  -4.837900e+001  -1.666848e+001 
3209375000  -4.810094e+001  -3.119151e+001 
3212500000  -4.854876e+001  -4.157317e+001 
3215625000  -4.819511e+001  -4.809730e+001 
3218750000  -4.925655e+001  -6.604526e+001 
3221875000  -4.908326e+001  -7.593078e+001 
3225000000  -4.936782e+001  -8.779255e+001 
3228125000  -4.976434e+001  -9.457866e+001 
3231250000  -5.125859e+001  -1.007832e+002 
3234375000  -5.040742e+001  -1.104103e+002 
3237500000  -5.054425e+001  -1.197264e+002 
3240625000  -5.020124e+001  -1.310022e+002 
3243750000  -4.966852e+001  -1.419120e+002 
3246875000  -5.015055e+001  -1.572067e+002 
3250000000  -5.084131e+001  -1.679017e+002 
3253125000  -5.139102e+001  -1.714388e+002 
3256250000  -5.045464e+001  1.740335e+002 
3259375000  -5.100673e+001  1.545112e+002 
3262500000  -5.202579e+001  1.456977e+002 
3265625000  -5.348701e+001  1.446131e+002 
3268750000  -5.302375e+001  1.418451e+002 
3271875000  -5.202210e+001  1.324345e+002 
3275000000  -5.206029e+001  1.207383e+002 
3278125000  -5.263126e+001  1.098730e+002 
3281250000  -5.264958e+001  1.047625e+002 
3284375000  -5.192836e+001  8.879089e+001 
3287500000  -5.374063e+001  8.334870e+001 
3290625000  -5.313112e+001  7.102912e+001 
3293750000  -5.292339e+001  5.958477e+001 
3296875000  -5.450779e+001  5.646746e+001 
3300000000  -5.443280e+001  4.970361e+001 
3303125000  -5.301060e+001  4.085279e+001 
3306250000  -5.341440e+001  2.463154e+001 
3309375000  -5.284875e+001  1.577682e+001 
3312500000  -5.291394e+001  -3.906240e-001 
3315625000  -5.391558e+001  -1.412387e+001 
3318750000  -5.482541e+001  -2.256164e+001 
3321875000  -5.724150e+001  -2.770809e+001 
3325000000  -5.694962e+001  -2.150439e+001 
3328125000  -5.634959e+001  -1.966422e+001 
3331250000  -5.498109e+001  -3.016757e+001 
3334375000  -5.209802e+001  -5.060620e+001 
3337500000  -5.252774e+001  -7.678060e+001 
3340625000  -5.381659e+001  -8.235739e+001 
3343750000  -5.517543e+001  -8.200174e+001 
3346875000  -5.528425e+001  -9.790205e+001 
3350000000  -5.373746e+001  -9.740678e+001 
3353125000  -5.452316e+001  -1.151601e+002 
3356250000  -5.473227e+001  -1.313335e+002 
3359375000  -5.596738e+001  -1.459057e+002 
3362500000  -5.709656e+001  -1.558178e+002 
3365625000  -5.605204e+001  -1.616897e+002 
3368750000  -5.678366e+001  -1.767046e+002 
3371875000  -5.665895e+001  -1.771165e+002 
3375000000  -5.734401e+001  1.734908e+002 
3378125000  -5.885262e+001  1.689811e+002 
3381250000  -6.030508e+001  1.603762e+002 
3384375000  -5.610703e+001  -1.792807e+002 
3387500000  -5.372050e+001  1.521975e+002 
3390625000  -5.623311e+001  1.246286e+002 
3393750000  -5.721410e+001  1.123984e+002 
3396875000  -5.678043e+001  1.134935e+002 
3400000000  -5.593761e+001  9.200787e+001 
3403125000  -5.723206e+001  8.507206e+001 
3406250000  -5.694791e+001  7.286203e+001 
3409375000  -5.783208e+001  4.881415e+001 
3412500000  -5.659365e+001  5.325408e+001 
3415625000  -5.949622e+001  3.055177e+001 
3418750000  -6.142302e+001  3.945482e+001 
3421875000  -5.930590e+001  2.446436e+001 
3425000000  -5.963512e+001  3.261383e+001 
3428125000  -5.986354e+001  -5.930073e+000 
3431250000  -5.981831e+001  -7.035404e+000 
3434375000  -5.950379e+001  -1.379520e+001 
3437500000  -6.318861e+001  -3.659832e+001 
3440625000  -6.034917e+001  -2.566330e+001 
3443750000  -6.169059e+001  -2.803066e+001 
3446875000  -6.218939e+001  -4.977302e+001 
3450000000  -6.277043e+001  -7.589932e+001 
3453125000  -6.337756e+001  -7.841834e+001 
3456250000  -6.693410e+001  -9.961629e+001 
3459375000  -6.514684e+001  -7.414059e+001 
3462500000  -6.800017e+001  -8.323020e+001 
3465625000  -6.605723e+001  -1.073394e+002 
3468750000  -6.508358e+001  -1.068855e+002 
3471875000  -6.315599e+001  -1.080312e+002 
3475000000  -6.666654e+001  -1.193810e+002 
3478125000  -6.536264e+001  -1.214024e+002 
3481250000  -7.443047e+001  1.709631e+002 
3484375000  -7.072836e+001  -1.108512e+002 
3487500000  -6.912974e+001  -1.304059e+002 
3490625000  -6.824745e+001  -1.468060e+002 
3493750000  -6.741548e+001  -1.396240e+002 
3496875000  -6.696448e+001  -1.797614e+002 
3500000000  -6.544159e+001  -1.593536e+002 
3503125000  -6.342987e+001  -1.610559e+002 
3506250000  -6.502007e+001  -1.757078e+002 
3509375000  -6.253740e+001  1.615649e+002 
3512500000  -6.851497e+001  1.475160e+002 
3515625000  -6.481654e+001  1.255645e+002 
3518750000  -6.435492e+001  1.442321e+002 
3521875000  -6.838483e+001  1.403734e+002 
3525000000  -6.575923e+001  1.511221e+002 
3528125000  -6.873293e+001  8.865765e+001 
3531250000  -6.390392e+001  1.151315e+002 
3534375000  -6.768240e+001  9.828306e+001 
3537500000  -6.537550e+001  8.069598e+001 
3540625000  -6.829102e+001  5.362022e+001 
3543750000  -7.047878e+001  1.242338e+002 
3546875000  -6.702200e+001  9.668717e+001 
3550000000  -7.021078e+001  3.025607e+001 
3553125000  -6.718268e+001  3.231617e+001 
3556250000  -7.099745e+001  1.047477e+001 
3559375000  -6.814473e+001  1.156930e+001 
3562500000  -7.869593e+001  7.229647e+001 
3565625000  -6.756431e+001  2.027207e+001 
3568750000  -7.546069e+001  -9.831237e+001 
3571875000  -7.580505e+001  4.828924e+001 
3575000000  -7.408324e+001  -3.604330e+001 
3578125000  -6.562482e+001  3.519848e+001 
3581250000  -7.405396e+001  2.377748e+000 
3584375000  -7.260758e+001  3.387648e+001 
3587500000  -7.015701e+001  2.105237e+001 
3590625000  -6.903411e+001  -3.143175e+000 
3593750000  -7.066752e+001  -4.818817e+001 
3596875000  -7.193319e+001  2.476803e+001 
3600000000  -6.508576e+001  -1.844621e+001 
3603125000  -6.890566e+001  3.668422e+001 
3606250000  -6.449168e+001  -2.830838e+001 
3609375000  -6.425976e+001  -3.671010e+001 
3612500000  -6.335722e+001  -6.607661e+001 
3615625000  -6.376629e+001  -4.906906e+001 
3618750000  -6.662393e+001  -7.669601e+001 
3621875000  -6.586446e+001  -5.954996e+001 
3625000000  -6.344820e+001  -7.606857e+001 
3628125000  -6.487811e+001  -1.167702e+002 
3631250000  -6.272728e+001  -1.123687e+002 
3634375000  -6.585789e+001  -1.354843e+002 
3637500000  -6.370547e+001  -1.162009e+002 
3640625000  -6.072066e+001  -1.222526e+002 
3643750000  -6.424662e+001  -1.400258e+002 
3646875000  -6.036939e+001  -1.793688e+002 
3650000000  -6.434756e+001  -1.699717e+002 
3653125000  -6.325113e+001  -1.694144e+002 
3656250000  -6.295850e+001  1.493992e+002 
3659375000  -6.451488e+001  1.785769e+002 
3662500000  -6.397663e+001  1.335439e+002 
3665625000  -6.404958e+001  1.556216e+002 
3668750000  -6.346678e+001  1.144856e+002 
3671875000  -6.267894e+001  1.463886e+002 
3675000000  -6.548289e+001  8.609738e+001 
3678125000  -6.495703e+001  8.413493e+001 
3681250000  -6.233613e+001  1.052054e+002 
3684375000  -6.810983e+001  1.092334e+002 
3687500000  -6.967924e+001  7.593674e+001 
3690625000  -6.776550e+001  5.293856e+001 
3693750000  -6.623918e+001  1.127689e+002 
3696875000  -6.846834e+001  7.381618e+001 
3700000000  -6.327762e+001  8.846670e+001 
3703125000  -6.323991e+001  3.516652e+001 
3706250000  -6.664864e+001  4.727823e+001 
3709375000  -6.329395e+001  6.093182e+001 
3712500000  -6.339801e+001  6.851473e+001 
3715625000  -6.167349e+001  4.430421e+001 
3718750000  -6.419633e+001  4.550774e+001 
3721875000  -6.360157e+001  1.883123e+001 
3725000000  -6.233620e+001  1.966244e+001 
3728125000  -5.989265e+001  -4.602918e-001 
3731250000  -5.877002e+001  -1.885173e+001 
3734375000  -5.874281e+001  -1.986544e+001 
3737500000  -6.062582e+001  -4.828864e+001 
3740625000  -5.918401e+001  -3.708245e+001 
3743750000  -5.875071e+001  -4.926188e+001 
3746875000  -5.856976e+001  -6.894318e+001 
3750000000  -5.853891e+001  -8.530196e+001 
3753125000  -5.840263e+001  -8.047131e+001 
3756250000  -5.711960e+001  -1.010861e+002 
3759375000  -5.851190e+001  -1.117560e+002 
3762500000  -5.718391e+001  -1.154064e+002 
3765625000  -5.793515e+001  -1.137610e+002 
3768750000  -5.783298e+001  -1.424989e+002 
3771875000  -5.563245e+001  -1.494316e+002 
3775000000  -5.589661e+001  -1.613612e+002 
3778125000  -5.658636e+001  -1.764300e+002 
3781250000  -5.691992e+001  1.758285e+002 
3784375000  -5.547150e+001  1.540087e+002 
3787500000  -5.874430e+001  1.473905e+002 
3790625000  -5.874985e+001  1.447712e+002 
3793750000  -5.804815e+001  1.361706e+002 
3796875000  -5.680865e+001  1.179518e+002 
3800000000  -5.301651e+001  8.202064e+001 
3803125000  -5.902577e+001  1.080329e+002 
3806250000  -6.082536e+001  8.720052e+001 
3809375000  -5.909722e+001  6.871790e+001 
3812500000  -5.880913e+001  6.166636e+001 
3815625000  -6.010416e+001  4.036264e+001 
3818750000  -6.164870e+001  3.614647e+001 
3821875000  -6.255618e+001  6.107774e+001 
3825000000  -5.715535e+001  4.962831e+001 
3828125000  -5.919814e+001  2.305292e+001 
3831250000  -5.867427e+001  5.781585e+000 
3834375000  -6.277238e+001  1.094982e+001 
3837500000  -6.411691e+001  1.699489e+001 
3840625000  -6.300515e+001  -4.032938e+000 
3843750000  -6.023486e+001  -6.579719e+000 
3846875000  -6.763888e+001  -5.411365e+001 
3850000000  -6.143303e+001  -9.191426e+000 
3853125000  -6.721619e+001  -1.489132e+001 
3856250000  -6.309160e+001  -7.210026e+000 
3859375000  -6.185624e+001  -3.980447e+001 
3862500000  -6.186418e+001  -2.878981e+001 
3865625000  -6.234422e+001  -3.875180e+001 
3868750000  -5.791441e+001  -4.751313e+001 
3871875000  -5.765204e+001  -5.997426e+001 
3875000000  -5.815658e+001  -6.915032e+001 
3878125000  -5.845190e+001  -8.140127e+001 
3881250000  -6.084708e+001  -8.399273e+001 
3884375000  -5.763362e+001  -1.034068e+002 
3887500000  -5.760508e+001  -1.266527e+002 
3890625000  -5.668655e+001  -1.220539e+002 
3893750000  -5.693721e+001  -1.259172e+002 
3896875000  -5.727962e+001  -1.360765e+002 
3900000000  -5.666764e+001  -1.372436e+002 
3903125000  -5.543926e+001  -1.517050e+002 
3906250000  -5.354463e+001  -1.719754e+002 
3909375000  -5.482383e+001  1.782375e+002 
3912500000  -5.439535e+001  1.673491e+002 
3915625000  -5.617110e+001  1.571246e+002 
3918750000  -5.449887e+001  1.537743e+002 
3921875000  -5.436538e+001  1.513574e+002 
3925000000  -5.276207e+001  1.194575e+002 
3928125000  -5.345210e+001  1.064710e+002 
3931250000  -5.422733e+001  9.929025e+001 
3934375000  -5.294289e+001  9.305672e+001 
3937500000  -5.695086e+001  7.210204e+001 
3940625000  -5.531606e+001  7.298683e+001 
3943750000  -5.478967e+001  6.883372e+001 
3946875000  -5.317150e+001  5.155611e+001 
3950000000  -5.471727e+001  3.403449e+001 
3953125000  -5.592341e+001  3.312109e+001 
3956250000  -5.352627e+001  2.596385e+001 
3959375000  -5.273507e+001  1.528629e+001 
3962500000  -5.247356e+001  -7.139637e+000 
3965625000  -5.228256e+001  -1.945119e+001 
3968750000  -5.358876e+001  -4.118283e+001 
3971875000  -5.274432e+001  -4.450057e+001 
3975000000  -5.346985e+001  -5.413589e+001 
3978125000  -5.412499e+001  -6.305366e+001 
3981250000  -5.453918e+001  -7.005711e+001 
3984375000  -5.791896e+001  -9.014188e+001 
3987500000  -5.643343e+001  -9.662502e+001 
3990625000  -5.508594e+001  -1.086888e+002 
3993750000  -5.771404e+001  -1.119412e+002 
3996875000  -5.954589e+001  -1.115117e+002 
4000000000  -6.007986e+001  -1.244673e+002 
4003125000  -5.830209e+001  -1.259801e+002 
4006250000  -5.733688e+001  -1.471888e+002 
4009375000  -5.787041e+001  -1.508980e+002 
4012500000  -6.269941e+001  -1.581550e+002 
4015625000  -6.179406e+001  -1.722332e+002 
4018750000  -6.004882e+001  -1.549362e+002 
4021875000  -5.943006e+001  -1.700682e+002 
4025000000  -6.039106e+001  1.629041e+002 
4028125000  -6.019529e+001  1.762188e+002 
4031250000  -6.076563e+001  1.539030e+002 
4034375000  -5.936249e+001  1.615851e+002 
4037500000  -5.933991e+001  1.557580e+002 
4040625000  -6.066552e+001  1.346574e+002 
4043750000  -6.078529e+001  1.493214e+002 
4046875000  -5.761950e+001  1.202050e+002 
4050000000  -5.627633e+001  1.155334e+002 
4053125000  -5.713649e+001  1.168475e+002 
4056250000  -5.810167e+001  1.219755e+002 
4059375000  -5.528631e+001  1.024196e+002 
4062500000  -5.564110e+001  1.066049e+002 
4065625000  -5.397943e+001  9.574380e+001 
4068750000  -5.556218e+001  7.118755e+001 
4071875000  -5.298254e+001  6.223576e+001 
4075000000  -5.401841e+001  3.786438e+001 
4078125000  -5.327514e+001  4.133504e+001 
4081250000  -5.333030e+001  2.512222e+001 
4084375000  -5.223271e+001  7.702270e+000 
4087500000  -5.400710e+001  -9.526750e+000 
4090625000  -5.401041e+001  -5.901849e+000 
4093750000  -5.222226e+001  -1.954005e+001 
4096875000  -5.239128e+001  -2.831036e+001 
4100000000  -5.316932e+001  -5.255544e+001 
4103125000  -5.445580e+001  -5.168750e+001 
4106250000  -5.359369e+001  -5.651402e+001 
4109375000  -5.138183e+001  -6.029280e+001 
4112500000  -5.272296e+001  -8.556856e+001 
4115625000  -5.285033e+001  -8.814734e+001 
4118750000  -5.237031e+001  -9.876116e+001 
4121875000  -5.315431e+001  -1.131962e+002 
4125000000  -5.308614e+001  -1.281389e+002 
4128125000  -5.564857e+001  -1.301062e+002 
4131250000  -5.390155e+001  -1.304120e+002 
4134375000  -5.132813e+001  -1.494046e+002 
4137500000  -5.225171e+001  -1.714271e+002 
4140625000  -5.362988e+001  1.655697e+002 
4143750000  -5.608775e+001  1.639423e+002 
4146875000  -5.441525e+001  1.655717e+002 
4150000000  -5.385968e+001  1.584477e+002 
4153125000  -5.443773e+001  1.401322e+002 
4156250000  -5.691543e+001  1.288638e+002 
4159375000  -5.507132e+001  1.281836e+002 
4162500000  -5.349712e+001  1.173972e+002 
4165625000  -5.427109e+001  1.137053e+002 
4168750000  -5.407963e+001  8.867381e+001 
4171875000  -5.409442e+001  7.467687e+001 
4175000000  -5.412114e+001  5.351028e+001 
4178125000  -5.836632e+001  6.303582e+001 
4181250000  -5.691098e+001  3.932196e+001 
4184375000  -5.807395e+001  3.338810e+001 
4187500000  -5.911444e+001  2.598151e+001 
4190625000  -6.012574e+001  1.926074e+001 
4193750000  -6.079722e+001  2.657107e+001 
4196875000  -6.580666e+001  -1.152038e+001 
4200000000  -6.553963e+001  2.744991e+001 
4203125000  -6.265333e+001  2.141118e+001 
4206250000  -6.007191e+001  1.902147e+001 
4209375000  -5.934238e+001  -2.106285e+001 
4212500000  -6.658762e+001  2.320488e+001 
4215625000  -6.644650e+001  -5.110186e+001 
4218750000  -6.366943e+001  -2.742472e+001 
4221875000  -5.836700e+001  -1.836482e+001 
4225000000  -5.847861e+001  -1.920168e+001 
4228125000  -5.942043e+001  -2.842627e+001 
4231250000  -5.860407e+001  -2.109244e+001 
4234375000  -5.712499e+001  -3.717692e+001 
4237500000  -5.653790e+001  -5.903991e+001 
4240625000  -5.479389e+001  -6.742459e+001 
4243750000  -5.734468e+001  -7.412328e+001 
4246875000  -5.493630e+001  -7.805946e+001 
4250000000  -5.839119e+001  -1.009388e+002 
4253125000  -5.513680e+001  -9.720038e+001 
4256250000  -5.611750e+001  -1.075685e+002 
4259375000  -5.559791e+001  -1.087500e+002 
4262500000  -5.493506e+001  -1.194588e+002 
4265625000  -5.501876e+001  -1.226890e+002 
4268750000  -5.302411e+001  -1.525887e+002 
4271875000  -5.298686e+001  -1.629150e+002 
4275000000  -5.132858e+001  -1.754083e+002 
4278125000  -5.381551e+001  1.649785e+002 
4281250000  -5.348013e+001  1.631465e+002 
4284375000  -5.317840e+001  1.561261e+002 
4287500000  -5.486102e+001  1.529725e+002 
4290625000  -5.645783e+001  1.437473e+002 
4293750000  -5.276817e+001  1.490102e+002 
4296875000  -5.091325e+001  1.157606e+002 
4300000000  -5.283962e+001  9.722493e+001 
4303125000  -5.437543e+001  9.725898e+001 
4306250000  -5.257905e+001  9.459280e+001 
4309375000  -5.158406e+001  7.972749e+001 
4312500000  -5.201648e+001  6.406393e+001 
4315625000  -5.144490e+001  5.303444e+001 
4318750000  -5.321317e+001  4.159382e+001 
4321875000  -5.253227e+001  3.406598e+001 
4325000000  -5.259815e+001  2.114838e+001 
4328125000  -5.120744e+001  1.210250e+001 
4331250000  -5.319014e+001  -3.441589e+000 
4334375000  -5.332962e+001  -1.512674e+001 
4337500000  -5.622008e+001  -3.832655e+001 
4340625000  -5.473888e+001  -2.351693e+001 
4343750000  -5.577600e+001  -4.053297e+001 
4346875000  -5.448056e+001  -4.546958e+001 
4350000000  -5.551299e+001  -6.832554e+001 
4353125000  -5.753284e+001  -7.073119e+001 
4356250000  -5.808384e+001  -6.993367e+001 
4359375000  -5.863760e+001  -5.739502e+001 
4362500000  -5.540480e+001  -8.960285e+001 
4365625000  -5.447036e+001  -1.004664e+002 
4368750000  -5.543303e+001  -9.995203e+001 
4371875000  -5.745893e+001  -1.185689e+002 
4375000000  -5.498778e+001  -1.088755e+002 
4378125000  -5.613089e+001  -1.132879e+002 
4381250000  -5.483700e+001  -1.265325e+002 
4384375000  -5.733830e+001  -1.541091e+002 
4387500000  -5.627600e+001  -1.453822e+002 
4390625000  -5.757223e+001  -1.661678e+002 
4393750000  -5.713335e+001  -1.453638e+002 
4396875000  -5.542880e+001  -1.590781e+002 
4400000000  -5.552959e+001  -1.678127e+002 
4403125000  -5.806640e+001  1.652560e+002 
4406250000  -5.790339e+001  1.784709e+002 
4409375000  -5.568280e+001  1.673324e+002 
4412500000  -5.608923e+001  1.547503e+002 
4415625000  -5.664819e+001  1.645054e+002 
