!Agilent Technologies,E8363B,MY43030201,A.06.04.32
!Agilent E8363B: A.06.04.32
!Date: Tuesday, November 11, 2014 22:09:30
!Correction: S21(Response(S21)) 
!S1P File: Measurement: S21:
# Hz S  dB   R 50
3000000000  -4.886581e+001  -7.632086e+001 
3003125000  -5.133783e+001  -8.554780e+001 
3006250000  -5.160194e+001  -9.010164e+001 
3009375000  -5.253745e+001  -9.473824e+001 
3012500000  -5.124783e+001  -1.004343e+002 
3015625000  -5.122760e+001  -1.067055e+002 
3018750000  -5.186876e+001  -1.162945e+002 
3021875000  -5.026969e+001  -1.201833e+002 
3025000000  -4.892617e+001  -1.292501e+002 
3028125000  -4.790422e+001  -1.467697e+002 
3031250000  -4.689013e+001  -1.667542e+002 
3034375000  -4.725163e+001  1.775634e+002 
3037500000  -4.811059e+001  1.669085e+002 
3040625000  -4.911647e+001  1.517539e+002 
3043750000  -5.023610e+001  1.394259e+002 
3046875000  -5.076725e+001  1.308125e+002 
3050000000  -5.208118e+001  1.230039e+002 
3053125000  -5.099176e+001  1.184239e+002 
3056250000  -5.140200e+001  1.167368e+002 
3059375000  -5.066253e+001  1.097816e+002 
3062500000  -4.948024e+001  1.009557e+002 
3065625000  -4.891293e+001  8.532130e+001 
3068750000  -4.912766e+001  7.690754e+001 
3071875000  -4.919846e+001  6.501479e+001 
3075000000  -4.836047e+001  5.479433e+001 
3078125000  -4.863052e+001  4.473716e+001 
3081250000  -4.913231e+001  3.101316e+001 
3084375000  -4.815638e+001  2.417168e+001 
3087500000  -4.794941e+001  1.112185e+001 
3090625000  -4.786666e+001  -6.523533e+000 
3093750000  -4.893275e+001  -1.916184e+001 
3096875000  -4.941833e+001  -2.818698e+001 
3100000000  -4.926225e+001  -3.580309e+001 
3103125000  -4.975213e+001  -4.107437e+001 
3106250000  -4.929014e+001  -5.148023e+001 
3109375000  -4.985126e+001  -6.178217e+001 
3112500000  -4.926605e+001  -6.972237e+001 
3115625000  -4.910240e+001  -7.980378e+001 
3118750000  -5.010035e+001  -8.597160e+001 
3121875000  -4.935912e+001  -1.048342e+002 
3125000000  -5.025701e+001  -1.100164e+002 
3128125000  -5.055296e+001  -1.091615e+002 
3131250000  -4.895154e+001  -1.184930e+002 
3134375000  -4.801860e+001  -1.381954e+002 
3137500000  -4.839891e+001  -1.564019e+002 
3140625000  -4.950576e+001  -1.633167e+002 
3143750000  -5.065020e+001  -1.722345e+002 
3146875000  -4.947040e+001  -1.749249e+002 
3150000000  -4.915148e+001  1.760487e+002 
3153125000  -4.886686e+001  1.623114e+002 
3156250000  -4.981353e+001  1.628074e+002 
3159375000  -4.762472e+001  1.558145e+002 
3162500000  -4.643591e+001  1.361011e+002 
3165625000  -4.810453e+001  1.193207e+002 
3168750000  -4.750387e+001  1.133313e+002 
3171875000  -4.700904e+001  1.023433e+002 
3175000000  -4.767291e+001  8.750112e+001 
3178125000  -4.721921e+001  8.183696e+001 
3181250000  -4.644255e+001  6.687627e+001 
3184375000  -4.628494e+001  5.073793e+001 
3187500000  -4.735257e+001  2.857308e+001 
3190625000  -4.970509e+001  2.096029e+001 
3193750000  -4.923567e+001  1.764375e+001 
3196875000  -4.961466e+001  1.429472e+001 
3200000000  -4.821375e+001  8.786217e+000 
3203125000  -4.829207e+001  -5.348358e+000 
3206250000  -4.859033e+001  -1.798346e+001 
3209375000  -4.795961e+001  -3.229668e+001 
3212500000  -4.822591e+001  -4.148201e+001 
3215625000  -4.808395e+001  -4.986962e+001 
3218750000  -4.927544e+001  -6.698853e+001 
3221875000  -4.947152e+001  -7.530727e+001 
3225000000  -4.951278e+001  -8.719831e+001 
3228125000  -5.018341e+001  -9.716156e+001 
3231250000  -5.076432e+001  -1.071190e+002 
3234375000  -5.005706e+001  -1.092216e+002 
3237500000  -5.005578e+001  -1.214582e+002 
3240625000  -5.059348e+001  -1.306815e+002 
3243750000  -4.983556e+001  -1.462447e+002 
3246875000  -5.030481e+001  -1.568714e+002 
3250000000  -5.068129e+001  -1.666250e+002 
3253125000  -5.132102e+001  -1.740520e+002 
3256250000  -5.016743e+001  1.761794e+002 
3259375000  -5.092805e+001  1.589196e+002 
3262500000  -5.255733e+001  1.528506e+002 
3265625000  -5.205449e+001  1.452042e+002 
3268750000  -5.359175e+001  1.417399e+002 
3271875000  -5.323015e+001  1.314239e+002 
3275000000  -5.225021e+001  1.172410e+002 
3278125000  -5.246301e+001  1.117037e+002 
3281250000  -5.258328e+001  9.953801e+001 
3284375000  -5.229033e+001  9.122263e+001 
3287500000  -5.370912e+001  8.842144e+001 
3290625000  -5.254752e+001  6.925761e+001 
3293750000  -5.299850e+001  5.897139e+001 
3296875000  -5.436127e+001  5.087851e+001 
3300000000  -5.363554e+001  5.060835e+001 
3303125000  -5.360257e+001  4.233234e+001 
3306250000  -5.320514e+001  2.336002e+001 
3309375000  -5.335359e+001  1.534640e+001 
3312500000  -5.327994e+001  -8.633807e+000 
3315625000  -5.487947e+001  -1.385555e+001 
3318750000  -5.581611e+001  -1.944523e+001 
3321875000  -5.647480e+001  -2.298059e+001 
3325000000  -5.659805e+001  -1.761340e+001 
3328125000  -5.657120e+001  -2.486986e+001 
3331250000  -5.341978e+001  -3.440305e+001 
3334375000  -5.219137e+001  -4.951138e+001 
3337500000  -5.248589e+001  -7.909195e+001 
3340625000  -5.485783e+001  -8.801243e+001 
3343750000  -5.580291e+001  -8.806365e+001 
3346875000  -5.418925e+001  -1.001164e+002 
3350000000  -5.418129e+001  -9.307112e+001 
3353125000  -5.357340e+001  -1.209828e+002 
3356250000  -5.483943e+001  -1.367784e+002 
3359375000  -5.574409e+001  -1.467848e+002 
3362500000  -5.620765e+001  -1.487125e+002 
3365625000  -5.567855e+001  -1.727203e+002 
3368750000  -5.801974e+001  -1.724880e+002 
3371875000  -5.579197e+001  1.787550e+002 
3375000000  -5.791200e+001  1.650281e+002 
3378125000  -5.861860e+001  1.696099e+002 
3381250000  -6.160156e+001  -1.753110e+002 
3384375000  -5.788627e+001  1.788551e+002 
3387500000  -5.454010e+001  1.472460e+002 
3390625000  -5.675343e+001  1.207517e+002 
3393750000  -5.695749e+001  1.161210e+002 
3396875000  -5.730592e+001  1.209181e+002 
3400000000  -5.495229e+001  8.878818e+001 
3403125000  -5.740257e+001  8.221872e+001 
3406250000  -5.881235e+001  6.351260e+001 
3409375000  -5.559260e+001  6.419624e+001 
3412500000  -5.845428e+001  6.802137e+001 
3415625000  -5.975330e+001  3.562854e+001 
3418750000  -6.029847e+001  4.023161e+001 
3421875000  -5.875579e+001  3.468917e+001 
3425000000  -5.891045e+001  2.565744e+001 
3428125000  -5.875005e+001  1.775079e+001 
3431250000  -5.973932e+001  -4.178589e+000 
3434375000  -6.127718e+001  -1.754381e+001 
3437500000  -6.030692e+001  -2.757887e+001 
3440625000  -6.048024e+001  -3.308052e+001 
3443750000  -6.275316e+001  -3.133000e+001 
3446875000  -6.192487e+001  -6.010583e+001 
3450000000  -6.009086e+001  -8.212155e+001 
3453125000  -6.234271e+001  -9.083973e+001 
3456250000  -6.870257e+001  -1.044463e+002 
3459375000  -6.715650e+001  -8.528999e+001 
3462500000  -6.750889e+001  -9.484485e+001 
3465625000  -6.518980e+001  -1.070804e+002 
3468750000  -6.799181e+001  -1.442986e+002 
3471875000  -6.708675e+001  -1.083525e+002 
3475000000  -6.461501e+001  -1.055867e+002 
3478125000  -7.405278e+001  -1.119260e+002 
3481250000  -8.388805e+001  8.234862e+001 
3484375000  -6.972196e+001  -1.198830e+002 
3487500000  -6.699158e+001  -1.400249e+002 
3490625000  -6.444688e+001  -1.260813e+002 
3493750000  -7.237266e+001  -1.617965e+002 
3496875000  -6.795939e+001  -1.746013e+002 
3500000000  -6.458051e+001  -1.561150e+002 
3503125000  -6.644062e+001  -1.547976e+002 
3506250000  -6.562848e+001  -1.765676e+002 
3509375000  -6.463654e+001  -1.782216e+002 
3512500000  -6.716920e+001  1.732479e+002 
3515625000  -6.673406e+001  1.523244e+002 
3518750000  -6.952464e+001  1.519224e+002 
3521875000  -7.262247e+001  1.321767e+002 
3525000000  -6.957435e+001  1.360946e+002 
3528125000  -7.444418e+001  1.046380e+002 
3531250000  -6.738938e+001  1.485351e+002 
3534375000  -6.838457e+001  9.684547e+001 
3537500000  -6.728491e+001  7.392258e+001 
3540625000  -6.714167e+001  6.662861e+001 
3543750000  -6.780763e+001  7.435333e+001 
3546875000  -7.477245e+001  7.333975e+001 
3550000000  -6.516393e+001  9.168310e+001 
3553125000  -6.531711e+001  5.172118e+001 
3556250000  -7.737208e+001  6.651575e+001 
3559375000  -7.235778e+001  -4.941535e+000 
3562500000  -7.186849e+001  6.668099e+001 
3565625000  -8.132311e+001  1.000643e+002 
3568750000  -7.459166e+001  1.288006e+002 
3571875000  -7.432224e+001  4.969153e+001 
3575000000  -7.088759e+001  -6.417927e+000 
3578125000  -6.751677e+001  4.562735e+001 
3581250000  -8.033485e+001  -4.496569e+001 
3584375000  -7.213761e+001  7.894755e+001 
3587500000  -7.727885e+001  -1.096884e+001 
3590625000  -6.722449e+001  2.882305e+001 
3593750000  -7.031470e+001  -1.425248e+001 
3596875000  -6.449276e+001  2.430872e+001 
3600000000  -6.764896e+001  -1.745954e+001 
3603125000  -6.522431e+001  -2.369716e+001 
3606250000  -6.566040e+001  -4.634618e+001 
3609375000  -6.894631e+001  -8.917330e+001 
3612500000  -6.436511e+001  -4.982453e+001 
3615625000  -6.451583e+001  -5.849989e+001 
3618750000  -6.518654e+001  -6.216208e+001 
3621875000  -6.460389e+001  -7.815572e+001 
3625000000  -6.386197e+001  -8.874152e+001 
3628125000  -6.420028e+001  -1.163864e+002 
3631250000  -6.270480e+001  -1.018506e+002 
3634375000  -6.756733e+001  -1.140007e+002 
3637500000  -6.248982e+001  -1.427277e+002 
3640625000  -6.381227e+001  -1.257144e+002 
3643750000  -6.284019e+001  -1.495899e+002 
3646875000  -6.183760e+001  1.604304e+002 
3650000000  -6.446377e+001  1.746399e+002 
3653125000  -6.021056e+001  1.752908e+002 
3656250000  -6.597863e+001  1.766162e+002 
3659375000  -6.486535e+001  1.464469e+002 
3662500000  -6.519543e+001  1.616331e+002 
3665625000  -6.184124e+001  1.669231e+002 
3668750000  -6.429121e+001  1.464992e+002 
3671875000  -6.026692e+001  1.177730e+002 
3675000000  -6.508410e+001  9.076643e+001 
3678125000  -6.996494e+001  9.448620e+001 
3681250000  -6.030416e+001  9.374353e+001 
3684375000  -6.545291e+001  7.805638e+001 
3687500000  -6.482839e+001  7.443263e+001 
3690625000  -6.904544e+001  -1.826013e-001 
3693750000  -6.809402e+001  9.431644e+001 
3696875000  -6.709982e+001  6.249048e+001 
3700000000  -6.160855e+001  8.345681e+001 
3703125000  -6.539806e+001  7.344765e+001 
3706250000  -6.579387e+001  4.603975e+001 
3709375000  -6.685857e+001  7.935029e+001 
3712500000  -6.260012e+001  5.020273e+001 
3715625000  -6.107630e+001  3.665534e+001 
3718750000  -6.353075e+001  3.061114e+001 
3721875000  -6.148110e+001  5.952162e+000 
3725000000  -6.176801e+001  2.219579e+001 
3728125000  -6.018516e+001  -2.536299e+000 
3731250000  -6.002317e+001  -9.301745e+000 
3734375000  -5.866501e+001  -3.113526e+001 
3737500000  -5.942387e+001  -3.675949e+001 
3740625000  -5.921491e+001  -4.247006e+001 
3743750000  -5.994099e+001  -6.569717e+001 
3746875000  -5.944240e+001  -5.593501e+001 
3750000000  -5.759406e+001  -7.978707e+001 
3753125000  -5.883467e+001  -8.176650e+001 
3756250000  -5.817705e+001  -1.021063e+002 
3759375000  -5.721833e+001  -1.074669e+002 
3762500000  -5.739160e+001  -1.189647e+002 
3765625000  -6.003646e+001  -1.172372e+002 
3768750000  -5.654770e+001  -1.328576e+002 
3771875000  -5.667730e+001  -1.383492e+002 
3775000000  -5.759720e+001  -1.596776e+002 
3778125000  -5.668208e+001  1.749610e+002 
3781250000  -5.639845e+001  1.788318e+002 
3784375000  -5.627999e+001  1.668816e+002 
3787500000  -5.747619e+001  1.522914e+002 
3790625000  -5.925729e+001  1.446475e+002 
3793750000  -5.818337e+001  1.205499e+002 
3796875000  -5.598750e+001  1.210197e+002 
3800000000  -5.338695e+001  7.770547e+001 
3803125000  -5.771606e+001  9.451484e+001 
3806250000  -5.941799e+001  7.829353e+001 
3809375000  -5.710458e+001  7.097061e+001 
3812500000  -5.789373e+001  6.197606e+001 
3815625000  -6.003718e+001  3.870064e+001 
3818750000  -6.187506e+001  5.784809e+001 
3821875000  -6.203678e+001  5.695777e+001 
3825000000  -5.833530e+001  4.923573e+001 
3828125000  -5.997331e+001  2.466681e+001 
3831250000  -6.004976e+001  6.626416e+000 
3834375000  -6.447474e+001  -1.599005e+001 
3837500000  -6.464039e+001  -3.151289e+000 
3840625000  -6.003175e+001  -1.118482e+001 
3843750000  -6.076281e+001  -1.550144e+001 
3846875000  -6.318618e+001  -2.565437e+001 
3850000000  -6.230742e+001  4.251707e+000 
3853125000  -6.118226e+001  -1.794729e+001 
3856250000  -5.861079e+001  3.198332e+000 
3859375000  -6.287525e+001  -4.960872e+001 
3862500000  -6.310704e+001  -4.521770e+001 
3865625000  -5.927743e+001  -5.482998e+001 
3868750000  -5.805598e+001  -2.578112e+001 
3871875000  -5.696502e+001  -6.218723e+001 
3875000000  -6.159090e+001  -8.187316e+001 
3878125000  -5.737392e+001  -7.976398e+001 
3881250000  -5.689606e+001  -9.205653e+001 
3884375000  -5.676798e+001  -9.929522e+001 
3887500000  -5.725985e+001  -1.139504e+002 
3890625000  -5.578240e+001  -1.233983e+002 
3893750000  -5.561540e+001  -1.301144e+002 
3896875000  -5.756191e+001  -1.339662e+002 
3900000000  -5.744392e+001  -1.348858e+002 
3903125000  -5.558555e+001  -1.580831e+002 
3906250000  -5.332558e+001  -1.705996e+002 
3909375000  -5.386666e+001  1.696136e+002 
3912500000  -5.381268e+001  1.614169e+002 
3915625000  -5.607113e+001  1.532336e+002 
3918750000  -5.481110e+001  1.539431e+002 
3921875000  -5.518497e+001  1.398329e+002 
3925000000  -5.410369e+001  1.249201e+002 
3928125000  -5.183114e+001  1.097327e+002 
3931250000  -5.365632e+001  1.050875e+002 
3934375000  -5.416994e+001  8.334380e+001 
3937500000  -5.448203e+001  8.122722e+001 
3940625000  -5.363087e+001  7.173323e+001 
3943750000  -5.344003e+001  5.960696e+001 
3946875000  -5.275866e+001  5.208400e+001 
3950000000  -5.357317e+001  3.495992e+001 
3953125000  -5.485828e+001  2.941602e+001 
3956250000  -5.369663e+001  1.965808e+001 
3959375000  -5.108962e+001  1.605084e+001 
3962500000  -5.207942e+001  -5.647628e+000 
3965625000  -5.312267e+001  -2.357497e+001 
3968750000  -5.403600e+001  -3.520559e+001 
3971875000  -5.413916e+001  -4.105061e+001 
3975000000  -5.406733e+001  -5.939965e+001 
3978125000  -5.462214e+001  -6.255071e+001 
3981250000  -5.502588e+001  -7.361317e+001 
3984375000  -5.570168e+001  -8.369348e+001 
3987500000  -5.508258e+001  -9.604161e+001 
3990625000  -5.678931e+001  -9.763897e+001 
3993750000  -5.657932e+001  -1.205749e+002 
3996875000  -5.665473e+001  -1.248441e+002 
4000000000  -5.900578e+001  -1.271569e+002 
4003125000  -6.070920e+001  -1.379345e+002 
4006250000  -5.712283e+001  -1.466234e+002 
4009375000  -5.719273e+001  -1.475848e+002 
4012500000  -5.840283e+001  -1.602924e+002 
4015625000  -5.993414e+001  1.798468e+002 
4018750000  -6.055165e+001  -1.597827e+002 
4021875000  -5.710810e+001  -1.781974e+002 
4025000000  -5.864845e+001  1.601348e+002 
4028125000  -6.031946e+001  1.755535e+002 
4031250000  -6.018866e+001  1.527502e+002 
4034375000  -5.913160e+001  1.624136e+002 
4037500000  -5.983921e+001  1.465938e+002 
4040625000  -5.989140e+001  1.622898e+002 
4043750000  -6.043511e+001  1.445948e+002 
4046875000  -5.815509e+001  1.376313e+002 
4050000000  -5.842745e+001  1.233850e+002 
4053125000  -5.888966e+001  1.265548e+002 
4056250000  -5.867342e+001  1.113126e+002 
4059375000  -5.677868e+001  1.123858e+002 
4062500000  -5.481997e+001  9.127539e+001 
4065625000  -5.307830e+001  7.731268e+001 
4068750000  -5.510797e+001  6.993965e+001 
4071875000  -5.378799e+001  5.566420e+001 
4075000000  -5.348811e+001  4.245714e+001 
4078125000  -5.270575e+001  3.608725e+001 
4081250000  -5.414815e+001  2.612883e+001 
4084375000  -5.218098e+001  9.825857e+000 
4087500000  -5.416286e+001  -1.033105e+001 
4090625000  -5.294308e+001  -4.434254e+000 
4093750000  -5.371249e+001  -3.172166e+001 
4096875000  -5.319468e+001  -3.299784e+001 
4100000000  -5.425106e+001  -5.291778e+001 
4103125000  -5.516603e+001  -4.738107e+001 
4106250000  -5.380764e+001  -5.944386e+001 
4109375000  -5.380819e+001  -5.749601e+001 
4112500000  -5.179741e+001  -8.487441e+001 
4115625000  -5.302987e+001  -9.586143e+001 
4118750000  -5.250723e+001  -9.851011e+001 
4121875000  -5.338309e+001  -1.260522e+002 
4125000000  -5.354445e+001  -1.245895e+002 
4128125000  -5.554150e+001  -1.412235e+002 
4131250000  -5.303397e+001  -1.368530e+002 
4134375000  -5.119088e+001  -1.534697e+002 
4137500000  -5.061902e+001  -1.680050e+002 
4140625000  -5.376838e+001  1.762269e+002 
4143750000  -5.468933e+001  1.688611e+002 
4146875000  -5.350352e+001  1.666443e+002 
4150000000  -5.463832e+001  1.519009e+002 
4153125000  -5.374428e+001  1.467986e+002 
4156250000  -5.447636e+001  1.255344e+002 
4159375000  -5.525215e+001  1.263105e+002 
4162500000  -5.662437e+001  1.254547e+002 
4165625000  -5.446392e+001  1.047860e+002 
4168750000  -5.427365e+001  9.115990e+001 
4171875000  -5.532585e+001  7.159662e+001 
4175000000  -5.570232e+001  4.911802e+001 
4178125000  -5.942313e+001  5.451554e+001 
4181250000  -6.098383e+001  2.644784e+001 
4184375000  -6.094693e+001  3.626642e+001 
4187500000  -5.640804e+001  2.319224e+001 
4190625000  -6.009593e+001  2.331125e+001 
4193750000  -5.981898e+001  2.725738e+001 
4196875000  -6.488530e+001  6.298820e-001 
4200000000  -6.432028e+001  1.317917e+001 
4203125000  -6.396612e+001  1.799893e+001 
4206250000  -5.795784e+001  1.685187e+001 
4209375000  -6.206615e+001  -3.599147e+001 
4212500000  -6.421760e+001  6.306805e+000 
4215625000  -6.816694e+001  -1.909710e+001 
4218750000  -5.990552e+001  1.083097e+001 
4221875000  -5.808405e+001  7.652214e+000 
4225000000  -6.191401e+001  -1.743278e+001 
4228125000  -5.969542e+001  -4.185608e+001 
4231250000  -5.939379e+001  -1.889141e+001 
4234375000  -5.771867e+001  -5.720615e+001 
4237500000  -5.675226e+001  -4.749527e+001 
4240625000  -5.688305e+001  -7.036037e+001 
4243750000  -5.966243e+001  -8.270238e+001 
4246875000  -5.689313e+001  -7.909982e+001 
4250000000  -5.720813e+001  -8.366600e+001 
4253125000  -5.573337e+001  -9.214742e+001 
4256250000  -5.643897e+001  -1.094129e+002 
4259375000  -5.574925e+001  -1.116702e+002 
4262500000  -5.410380e+001  -1.326385e+002 
4265625000  -5.394545e+001  -1.351368e+002 
4268750000  -5.317031e+001  -1.494888e+002 
4271875000  -5.168213e+001  -1.592478e+002 
4275000000  -5.094683e+001  -1.775348e+002 
4278125000  -5.401913e+001  1.653829e+002 
4281250000  -5.436566e+001  1.551425e+002 
4284375000  -5.503202e+001  1.599175e+002 
4287500000  -5.463696e+001  1.472748e+002 
4290625000  -5.531762e+001  1.450269e+002 
4293750000  -5.361547e+001  1.441597e+002 
4296875000  -5.280062e+001  1.112009e+002 
4300000000  -5.091621e+001  1.027831e+002 
4303125000  -5.293937e+001  1.044983e+002 
4306250000  -5.317630e+001  9.711346e+001 
4309375000  -5.188742e+001  8.758666e+001 
4312500000  -5.236496e+001  6.354902e+001 
4315625000  -5.245398e+001  4.875183e+001 
4318750000  -5.295362e+001  3.982199e+001 
4321875000  -5.260413e+001  3.174377e+001 
4325000000  -5.389108e+001  1.148459e+001 
4328125000  -5.193133e+001  7.834844e+000 
4331250000  -5.297052e+001  -1.018815e+001 
4334375000  -5.281367e+001  -1.795916e+001 
4337500000  -5.517449e+001  -3.451666e+001 
4340625000  -5.571322e+001  -2.165929e+001 
4343750000  -5.547839e+001  -4.036163e+001 
4346875000  -5.583390e+001  -4.207350e+001 
4350000000  -5.441472e+001  -6.458820e+001 
4353125000  -5.654607e+001  -7.082784e+001 
4356250000  -5.789021e+001  -8.015925e+001 
4359375000  -5.934316e+001  -5.628222e+001 
4362500000  -5.568399e+001  -6.634998e+001 
4365625000  -5.502493e+001  -1.041626e+002 
4368750000  -5.494192e+001  -1.049113e+002 
4371875000  -5.868644e+001  -1.035541e+002 
4375000000  -5.549653e+001  -1.062126e+002 
4378125000  -5.703363e+001  -1.272979e+002 
4381250000  -5.787227e+001  -1.376993e+002 
4384375000  -5.735677e+001  -1.506625e+002 
4387500000  -6.122924e+001  -1.567484e+002 
4390625000  -5.841085e+001  -1.565132e+002 
4393750000  -5.767681e+001  -1.565181e+002 
4396875000  -5.681295e+001  -1.688134e+002 
4400000000  -5.682219e+001  -1.752614e+002 
4403125000  -5.542898e+001  1.712610e+002 
4406250000  -5.665522e+001  1.781086e+002 
4409375000  -5.712461e+001  1.639019e+002 
4412500000  -5.661492e+001  1.623633e+002 
4415625000  -5.523378e+001  1.602551e+002 
4418750000  -5.520643e+001  1.570421e+002 
