!Agilent Technologies,E8363B,MY43030201,A.06.04.32
!Agilent E8363B: A.06.04.32
!Date: Tuesday, November 11, 2014 22:14:15
!Correction: S21(Response(S21)) 
!S1P File: Measurement: S21:
# Hz S  dB   R 50
3000000000  -4.895225e+001  -7.437734e+001 
3003125000  -5.140568e+001  -8.066167e+001 
3006250000  -5.237457e+001  -8.980250e+001 
3009375000  -5.192968e+001  -8.752036e+001 
3012500000  -5.054744e+001  -9.594152e+001 
3015625000  -5.122285e+001  -1.078162e+002 
3018750000  -5.188261e+001  -1.115377e+002 
3021875000  -4.988611e+001  -1.173429e+002 
3025000000  -4.847400e+001  -1.294134e+002 
3028125000  -4.792044e+001  -1.407958e+002 
3031250000  -4.695218e+001  -1.602380e+002 
3034375000  -4.712862e+001  -1.799733e+002 
3037500000  -4.787212e+001  1.678327e+002 
3040625000  -4.874934e+001  1.535399e+002 
3043750000  -4.984300e+001  1.428758e+002 
3046875000  -5.018615e+001  1.281974e+002 
3050000000  -5.138412e+001  1.262764e+002 
3053125000  -5.169703e+001  1.236210e+002 
3056250000  -5.192662e+001  1.173344e+002 
3059375000  -5.093560e+001  1.131689e+002 
3062500000  -4.968298e+001  9.949801e+001 
3065625000  -4.899926e+001  8.697873e+001 
3068750000  -4.856419e+001  7.769687e+001 
3071875000  -4.944949e+001  6.593719e+001 
3075000000  -4.854022e+001  5.515244e+001 
3078125000  -4.858144e+001  4.724902e+001 
3081250000  -4.879219e+001  3.409892e+001 
3084375000  -4.831997e+001  2.568192e+001 
3087500000  -4.842960e+001  1.285835e+001 
3090625000  -4.761704e+001  -4.443978e+000 
3093750000  -4.913119e+001  -1.374810e+001 
3096875000  -5.002279e+001  -2.306585e+001 
3100000000  -4.961163e+001  -3.241623e+001 
3103125000  -4.952294e+001  -3.734379e+001 
3106250000  -4.920570e+001  -5.003080e+001 
3109375000  -4.959681e+001  -5.842695e+001 
3112500000  -4.942699e+001  -7.001121e+001 
3115625000  -4.936986e+001  -7.942042e+001 
3118750000  -4.895834e+001  -8.554543e+001 
3121875000  -4.908221e+001  -9.866339e+001 
3125000000  -5.082731e+001  -1.117957e+002 
3128125000  -5.060686e+001  -1.071400e+002 
3131250000  -4.806490e+001  -1.167118e+002 
3134375000  -4.742709e+001  -1.374388e+002 
3137500000  -4.887773e+001  -1.555511e+002 
3140625000  -4.992340e+001  -1.609189e+002 
3143750000  -5.089320e+001  -1.694396e+002 
3146875000  -4.941973e+001  -1.741889e+002 
3150000000  -4.918180e+001  1.791993e+002 
3153125000  -4.933681e+001  1.676373e+002 
3156250000  -5.070140e+001  1.603044e+002 
3159375000  -4.748784e+001  1.589253e+002 
3162500000  -4.646031e+001  1.368572e+002 
3165625000  -4.797517e+001  1.203434e+002 
3168750000  -4.752480e+001  1.134269e+002 
3171875000  -4.709840e+001  1.040811e+002 
3175000000  -4.783631e+001  8.888545e+001 
3178125000  -4.747049e+001  8.337832e+001 
3181250000  -4.662613e+001  6.939972e+001 
3184375000  -4.654605e+001  5.504463e+001 
3187500000  -4.771656e+001  3.368839e+001 
3190625000  -4.949385e+001  1.930095e+001 
3193750000  -4.956338e+001  2.439880e+001 
3196875000  -4.952618e+001  2.127103e+001 
3200000000  -4.781569e+001  1.027894e+001 
3203125000  -4.828678e+001  -1.222209e+000 
3206250000  -4.848923e+001  -1.632479e+001 
3209375000  -4.787289e+001  -2.947623e+001 
3212500000  -4.903616e+001  -4.037625e+001 
3215625000  -4.846873e+001  -4.440610e+001 
3218750000  -4.916776e+001  -6.362407e+001 
3221875000  -4.957207e+001  -7.714416e+001 
3225000000  -4.959755e+001  -8.507563e+001 
3228125000  -4.968731e+001  -9.397818e+001 
3231250000  -5.107371e+001  -1.060651e+002 
3234375000  -4.952444e+001  -1.113635e+002 
3237500000  -5.014048e+001  -1.199406e+002 
3240625000  -5.024179e+001  -1.297975e+002 
3243750000  -4.933168e+001  -1.439510e+002 
3246875000  -5.015007e+001  -1.525570e+002 
3250000000  -5.106774e+001  -1.637106e+002 
3253125000  -5.173588e+001  -1.722059e+002 
3256250000  -5.040787e+001  1.778928e+002 
3259375000  -5.127414e+001  1.578583e+002 
3262500000  -5.245818e+001  1.464929e+002 
3265625000  -5.253186e+001  1.467429e+002 
3268750000  -5.319452e+001  1.429482e+002 
3271875000  -5.326424e+001  1.308013e+002 
3275000000  -5.195084e+001  1.207053e+002 
3278125000  -5.244450e+001  1.065599e+002 
3281250000  -5.314063e+001  1.023552e+002 
3284375000  -5.184410e+001  8.839981e+001 
3287500000  -5.401307e+001  8.440381e+001 
3290625000  -5.389900e+001  6.808305e+001 
3293750000  -5.304527e+001  5.903073e+001 
3296875000  -5.427980e+001  5.396835e+001 
3300000000  -5.499014e+001  4.629844e+001 
3303125000  -5.256845e+001  3.715783e+001 
3306250000  -5.404285e+001  2.767004e+001 
3309375000  -5.328591e+001  1.926529e+001 
3312500000  -5.360530e+001  -1.977687e+000 
3315625000  -5.476389e+001  -9.043441e+000 
3318750000  -5.718558e+001  -1.570431e+001 
3321875000  -5.759927e+001  -1.691992e+001 
3325000000  -5.607752e+001  -2.547268e+001 
3328125000  -5.631083e+001  -2.900007e+001 
3331250000  -5.432672e+001  -2.559139e+001 
3334375000  -5.189772e+001  -4.643960e+001 
3337500000  -5.288552e+001  -6.795105e+001 
3340625000  -5.453355e+001  -8.974052e+001 
3343750000  -5.639540e+001  -8.789355e+001 
3346875000  -5.436385e+001  -9.493510e+001 
3350000000  -5.430493e+001  -9.018306e+001 
3353125000  -5.428492e+001  -1.101739e+002 
3356250000  -5.465472e+001  -1.332581e+002 
3359375000  -5.463828e+001  -1.421157e+002 
3362500000  -5.565984e+001  -1.425129e+002 
3365625000  -5.533885e+001  -1.543294e+002 
3368750000  -5.723985e+001  -1.799345e+002 
3371875000  -5.766084e+001  -1.789061e+002 
3375000000  -5.878783e+001  1.684820e+002 
3378125000  -5.865815e+001  1.651130e+002 
3381250000  -5.958175e+001  1.725098e+002 
3384375000  -5.656538e+001  -1.710231e+002 
3387500000  -5.336404e+001  1.548652e+002 
3390625000  -5.717041e+001  1.259374e+002 
3393750000  -5.733608e+001  1.176255e+002 
3396875000  -5.771708e+001  1.061245e+002 
3400000000  -5.552614e+001  1.015363e+002 
3403125000  -5.786357e+001  9.198772e+001 
3406250000  -5.764758e+001  7.572358e+001 
3409375000  -5.664168e+001  5.545459e+001 
3412500000  -5.810574e+001  5.231186e+001 
3415625000  -5.999157e+001  3.957042e+001 
3418750000  -6.036870e+001  3.949933e+001 
3421875000  -5.954073e+001  2.559182e+001 
3425000000  -6.031110e+001  1.865550e+001 
3428125000  -6.119804e+001  1.030502e+001 
3431250000  -6.122470e+001  8.829679e-001 
3434375000  -6.006528e+001  -2.369961e+001 
3437500000  -6.393133e+001  -1.560114e+001 
3440625000  -6.051559e+001  -2.340331e+001 
3443750000  -6.225519e+001  -2.382216e+001 
3446875000  -5.920966e+001  -5.752396e+001 
3450000000  -6.179589e+001  -7.820287e+001 
3453125000  -6.322141e+001  -5.741796e+001 
3456250000  -6.374813e+001  -1.123301e+002 
3459375000  -6.643127e+001  -9.246947e+001 
3462500000  -6.273077e+001  -9.083435e+001 
3465625000  -6.380557e+001  -9.255482e+001 
3468750000  -6.846088e+001  -1.150935e+002 
3471875000  -6.632761e+001  -1.217494e+002 
3475000000  -6.441550e+001  -1.383937e+002 
3478125000  -6.751065e+001  -1.199151e+002 
3481250000  -6.994892e+001  -1.741844e+002 
3484375000  -8.054408e+001  -6.222541e+001 
3487500000  -6.689653e+001  -1.290753e+002 
3490625000  -7.069723e+001  -1.661233e+002 
3493750000  -7.091184e+001  -1.259234e+002 
3496875000  -6.774947e+001  -1.347076e+002 
3500000000  -6.506068e+001  -1.733211e+002 
3503125000  -6.803601e+001  -1.564281e+002 
3506250000  -6.528460e+001  -1.677040e+002 
3509375000  -6.753804e+001  1.561051e+002 
3512500000  -6.672688e+001  1.544295e+002 
3515625000  -6.845054e+001  1.709310e+002 
3518750000  -6.879278e+001  1.565327e+002 
3521875000  -6.999601e+001  1.277821e+002 
3525000000  -6.964687e+001  1.039291e+002 
3528125000  -6.331875e+001  1.405519e+002 
3531250000  -6.752329e+001  1.015132e+002 
3534375000  -6.523385e+001  1.041029e+002 
3537500000  -6.853352e+001  5.594110e+001 
3540625000  -6.409660e+001  6.427891e+001 
3543750000  -6.923646e+001  1.261529e+002 
3546875000  -7.077187e+001  7.637876e+001 
3550000000  -7.178222e+001  1.101076e+002 
3553125000  -7.510772e+001  5.263564e+001 
3556250000  -7.085368e+001  -8.506358e+000 
3559375000  -6.931063e+001  3.143998e+001 
3562500000  -7.890530e+001  1.385588e+002 
3565625000  -7.112551e+001  6.476682e+000 
3568750000  -7.346827e+001  -4.090405e+001 
3571875000  -7.508625e+001  4.037802e+000 
3575000000  -7.721095e+001  -3.965556e+001 
3578125000  -6.796639e+001  3.347291e+001 
3581250000  -7.181906e+001  4.964620e+001 
3584375000  -6.790446e+001  5.665155e+001 
3587500000  -8.269582e+001  -3.530882e+001 
3590625000  -6.670586e+001  4.581131e+000 
3593750000  -7.069982e+001  -1.567367e+001 
3596875000  -6.917409e+001  -3.812035e+001 
3600000000  -7.273985e+001  2.596540e+001 
3603125000  -6.844311e+001  1.358670e+001 
3606250000  -6.631444e+001  -4.695557e+001 
3609375000  -6.887620e+001  -3.659221e+001 
3612500000  -6.667397e+001  -5.949669e+001 
3615625000  -6.461213e+001  -4.390632e+001 
3618750000  -6.368040e+001  -5.883091e+001 
3621875000  -6.593182e+001  -7.486784e+001 
3625000000  -6.369099e+001  -7.229353e+001 
3628125000  -6.331870e+001  -9.436591e+001 
3631250000  -6.339901e+001  -1.043783e+002 
3634375000  -6.194215e+001  -1.229188e+002 
3637500000  -6.474651e+001  -1.124801e+002 
3640625000  -6.102800e+001  -1.370007e+002 
3643750000  -6.355185e+001  -1.587775e+002 
3646875000  -6.093499e+001  -1.626934e+002 
3650000000  -6.543935e+001  -1.752908e+002 
3653125000  -6.668300e+001  -1.778874e+002 
3656250000  -6.266606e+001  1.647685e+002 
3659375000  -6.152343e+001  -1.773268e+002 
3662500000  -6.635493e+001  1.680937e+002 
3665625000  -6.202005e+001  1.582958e+002 
3668750000  -6.202420e+001  1.207652e+002 
3671875000  -6.324573e+001  1.207449e+002 
3675000000  -6.476041e+001  1.060862e+002 
3678125000  -6.669764e+001  1.105802e+002 
3681250000  -6.387931e+001  9.746585e+001 
3684375000  -6.616289e+001  1.202317e+002 
3687500000  -6.913249e+001  8.451863e+001 
3690625000  -7.490442e+001  9.291420e+001 
3693750000  -6.854803e+001  1.028504e+002 
3696875000  -6.885327e+001  1.159978e+002 
3700000000  -6.602091e+001  7.774796e+001 
3703125000  -6.361932e+001  4.613592e+001 
3706250000  -6.682271e+001  6.820437e+001 
3709375000  -6.763272e+001  6.362617e+001 
3712500000  -6.330816e+001  4.360089e+001 
3715625000  -6.216352e+001  4.132682e+001 
3718750000  -6.117031e+001  3.868140e+001 
3721875000  -6.361857e+001  1.799248e+001 
3725000000  -6.097454e+001  3.875176e+000 
3728125000  -6.007579e+001  -4.262460e+000 
3731250000  -5.839410e+001  -1.690457e+001 
3734375000  -5.825336e+001  -1.761515e+001 
3737500000  -5.928746e+001  -4.334267e+001 
3740625000  -5.854765e+001  -3.212703e+001 
3743750000  -6.005959e+001  -5.987071e+001 
3746875000  -5.850473e+001  -6.303596e+001 
3750000000  -5.802277e+001  -8.134440e+001 
3753125000  -5.711489e+001  -8.337513e+001 
3756250000  -5.819980e+001  -9.809005e+001 
3759375000  -5.849696e+001  -1.074489e+002 
3762500000  -5.646930e+001  -1.142610e+002 
3765625000  -5.822556e+001  -1.259537e+002 
3768750000  -5.800167e+001  -1.378844e+002 
3771875000  -5.648317e+001  -1.421203e+002 
3775000000  -5.619444e+001  -1.578919e+002 
3778125000  -5.727709e+001  -1.753491e+002 
3781250000  -5.658523e+001  -1.775134e+002 
3784375000  -5.754615e+001  1.755397e+002 
3787500000  -5.595269e+001  1.609074e+002 
3790625000  -5.755927e+001  1.505330e+002 
3793750000  -5.761113e+001  1.294994e+002 
3796875000  -5.654634e+001  1.219276e+002 
3800000000  -5.394186e+001  7.626853e+001 
3803125000  -5.740355e+001  1.018894e+002 
3806250000  -6.013429e+001  8.032878e+001 
3809375000  -5.783000e+001  8.553723e+001 
3812500000  -5.711879e+001  7.091473e+001 
3815625000  -6.169473e+001  5.386119e+001 
3818750000  -6.415639e+001  4.166246e+001 
3821875000  -6.114595e+001  5.957626e+001 
3825000000  -6.156957e+001  5.073262e+001 
3828125000  -5.810490e+001  3.548421e+001 
3831250000  -5.968409e+001  5.513706e+000 
3834375000  -6.330642e+001  -7.162410e+000 
3837500000  -6.566167e+001  -6.372455e+000 
3840625000  -6.411553e+001  2.948385e+001 
3843750000  -6.182663e+001  9.603539e-001 
3846875000  -6.347232e+001  -8.153004e+000 
3850000000  -6.581229e+001  3.724255e+000 
3853125000  -6.798672e+001  -2.303521e+001 
3856250000  -6.026815e+001  -1.622778e-001 
3859375000  -5.945980e+001  -2.352434e+001 
3862500000  -6.039359e+001  -2.489204e+001 
3865625000  -6.047948e+001  -4.991260e+001 
3868750000  -6.164615e+001  -6.751177e+001 
3871875000  -5.758390e+001  -6.609577e+001 
3875000000  -5.967680e+001  -8.564783e+001 
3878125000  -5.756052e+001  -7.322337e+001 
3881250000  -6.000986e+001  -8.501742e+001 
3884375000  -5.618500e+001  -9.100326e+001 
3887500000  -5.516899e+001  -1.132440e+002 
3890625000  -5.538048e+001  -1.117549e+002 
3893750000  -5.438734e+001  -1.329030e+002 
3896875000  -5.632644e+001  -1.392257e+002 
3900000000  -5.627762e+001  -1.464321e+002 
3903125000  -5.511251e+001  -1.535759e+002 
3906250000  -5.435304e+001  -1.700753e+002 
3909375000  -5.364360e+001  1.745849e+002 
3912500000  -5.428081e+001  1.695424e+002 
3915625000  -5.527655e+001  1.578092e+002 
3918750000  -5.561300e+001  1.602135e+002 
3921875000  -5.304108e+001  1.451947e+002 
3925000000  -5.333223e+001  1.284232e+002 
3928125000  -5.298401e+001  1.099582e+002 
3931250000  -5.311241e+001  1.052952e+002 
3934375000  -5.517167e+001  1.041119e+002 
3937500000  -5.593057e+001  7.898064e+001 
3940625000  -5.459811e+001  6.996857e+001 
3943750000  -5.451826e+001  7.345820e+001 
3946875000  -5.278380e+001  5.028846e+001 
3950000000  -5.383776e+001  3.379729e+001 
3953125000  -5.519256e+001  3.326924e+001 
3956250000  -5.409839e+001  2.577188e+001 
3959375000  -5.224753e+001  8.223678e+000 
3962500000  -5.325914e+001  -3.243209e-001 
3965625000  -5.265806e+001  -9.131827e+000 
3968750000  -5.339420e+001  -3.060028e+001 
3971875000  -5.352861e+001  -3.706779e+001 
3975000000  -5.472696e+001  -5.430917e+001 
3978125000  -5.438540e+001  -5.043069e+001 
3981250000  -5.444534e+001  -7.799673e+001 
3984375000  -5.563595e+001  -8.549873e+001 
3987500000  -5.562932e+001  -8.460062e+001 
3990625000  -5.617434e+001  -9.515479e+001 
3993750000  -5.903815e+001  -1.093620e+002 
3996875000  -5.537699e+001  -1.302218e+002 
4000000000  -5.753786e+001  -1.264299e+002 
4003125000  -5.979028e+001  -1.295768e+002 
4006250000  -5.781319e+001  -1.413313e+002 
4009375000  -6.118311e+001  -1.629662e+002 
4012500000  -5.894348e+001  -1.649025e+002 
4015625000  -6.112122e+001  -1.546272e+002 
4018750000  -6.058896e+001  -1.677678e+002 
4021875000  -5.850370e+001  -1.715005e+002 
4025000000  -5.920850e+001  1.626513e+002 
4028125000  -6.030547e+001  -1.774041e+002 
4031250000  -6.057711e+001  1.769386e+002 
4034375000  -5.875281e+001  1.690263e+002 
4037500000  -5.892195e+001  1.368864e+002 
4040625000  -5.952369e+001  1.461277e+002 
4043750000  -5.789947e+001  1.369747e+002 
4046875000  -5.730338e+001  1.381402e+002 
4050000000  -5.760900e+001  1.269112e+002 
4053125000  -5.762676e+001  1.206474e+002 
4056250000  -5.722454e+001  1.193358e+002 
4059375000  -5.768281e+001  1.082370e+002 
4062500000  -5.572163e+001  1.003431e+002 
4065625000  -5.492367e+001  8.538163e+001 
4068750000  -5.447202e+001  7.598103e+001 
4071875000  -5.273389e+001  6.370754e+001 
4075000000  -5.265778e+001  4.790451e+001 
4078125000  -5.357263e+001  4.605714e+001 
4081250000  -5.366532e+001  2.427239e+001 
4084375000  -5.269476e+001  8.874052e+000 
4087500000  -5.437846e+001  -4.475244e+000 
4090625000  -5.229137e+001  -7.242097e+000 
4093750000  -5.290284e+001  -1.873245e+001 
4096875000  -5.295707e+001  -3.095819e+001 
4100000000  -5.326210e+001  -5.213668e+001 
4103125000  -5.413977e+001  -4.816083e+001 
4106250000  -5.425412e+001  -5.142249e+001 
4109375000  -5.239780e+001  -6.091026e+001 
4112500000  -5.208354e+001  -8.058306e+001 
4115625000  -5.312213e+001  -9.295789e+001 
4118750000  -5.345476e+001  -9.602840e+001 
4121875000  -5.327668e+001  -1.137061e+002 
4125000000  -5.331215e+001  -1.244151e+002 
4128125000  -5.404544e+001  -1.382400e+002 
4131250000  -5.347496e+001  -1.294374e+002 
4134375000  -5.063812e+001  -1.584330e+002 
4137500000  -5.319746e+001  -1.692708e+002 
4140625000  -5.486477e+001  1.798006e+002 
4143750000  -5.483567e+001  1.759045e+002 
4146875000  -5.393129e+001  1.706758e+002 
4150000000  -5.382008e+001  1.663268e+002 
4153125000  -5.406971e+001  1.501206e+002 
4156250000  -5.590677e+001  1.327352e+002 
4159375000  -5.601358e+001  1.317121e+002 
4162500000  -5.522488e+001  1.192449e+002 
4165625000  -5.434837e+001  1.163169e+002 
4168750000  -5.641084e+001  8.029952e+001 
4171875000  -5.447556e+001  7.906207e+001 
4175000000  -5.548882e+001  5.184504e+001 
4178125000  -5.683434e+001  6.498782e+001 
4181250000  -5.765627e+001  4.212830e+001 
4184375000  -6.138352e+001  2.913233e+001 
4187500000  -5.758661e+001  3.342423e+001 
4190625000  -6.185659e+001  1.027492e+001 
4193750000  -6.171278e+001  2.272659e+001 
4196875000  -6.362545e+001  -5.635826e+000 
4200000000  -6.301728e+001  2.735551e+001 
4203125000  -6.930912e+001  1.350927e+001 
4206250000  -5.791916e+001  3.843013e+001 
4209375000  -6.014688e+001  -1.562383e+000 
4212500000  -6.434681e+001  9.725328e+000 
4215625000  -6.319653e+001  -1.218485e+001 
4218750000  -6.305135e+001  2.568595e+001 
4221875000  -6.020867e+001  -3.034196e+001 
4225000000  -6.210893e+001  -1.908149e+001 
4228125000  -6.224436e+001  -2.929266e+001 
4231250000  -5.873539e+001  -3.499154e+001 
4234375000  -5.691528e+001  -4.752750e+001 
4237500000  -5.645088e+001  -5.041915e+001 
4240625000  -5.601222e+001  -7.559366e+001 
4243750000  -5.971215e+001  -6.899177e+001 
4246875000  -5.712667e+001  -6.329643e+001 
4250000000  -5.747366e+001  -9.551390e+001 
4253125000  -5.570620e+001  -7.959969e+001 
4256250000  -5.606234e+001  -1.078884e+002 
4259375000  -5.481403e+001  -1.131586e+002 
4262500000  -5.737414e+001  -1.245876e+002 
4265625000  -5.297819e+001  -1.204651e+002 
4268750000  -5.265099e+001  -1.425893e+002 
4271875000  -5.311668e+001  -1.522615e+002 
4275000000  -5.114346e+001  -1.676027e+002 
4278125000  -5.338422e+001  1.715411e+002 
4281250000  -5.362568e+001  1.556588e+002 
4284375000  -5.395251e+001  1.632064e+002 
4287500000  -5.559008e+001  1.385774e+002 
4290625000  -5.512129e+001  1.510739e+002 
4293750000  -5.217005e+001  1.493298e+002 
4296875000  -5.307376e+001  1.197986e+002 
4300000000  -5.234596e+001  1.088644e+002 
4303125000  -5.291146e+001  9.695407e+001 
4306250000  -5.284206e+001  9.346555e+001 
4309375000  -5.145104e+001  8.084817e+001 
4312500000  -5.330636e+001  6.635352e+001 
4315625000  -5.102888e+001  5.470087e+001 
4318750000  -5.384274e+001  5.032579e+001 
4321875000  -5.224942e+001  3.460329e+001 
4325000000  -5.269622e+001  2.271516e+001 
4328125000  -5.220634e+001  1.329508e+001 
4331250000  -5.355229e+001  -1.410946e+000 
4334375000  -5.443692e+001  -1.200023e+001 
4337500000  -5.573883e+001  -3.355682e+001 
4340625000  -5.501974e+001  -1.617327e+001 
4343750000  -5.676188e+001  -3.200858e+001 
4346875000  -5.595741e+001  -3.596912e+001 
4350000000  -5.472728e+001  -6.339574e+001 
4353125000  -5.803874e+001  -6.466894e+001 
4356250000  -6.025212e+001  -6.243928e+001 
4359375000  -6.187206e+001  -6.401427e+001 
4362500000  -5.596712e+001  -7.723326e+001 
4365625000  -5.605886e+001  -9.387806e+001 
4368750000  -5.473473e+001  -9.361877e+001 
4371875000  -5.717124e+001  -1.140644e+002 
4375000000  -5.547100e+001  -1.150037e+002 
4378125000  -5.649276e+001  -1.285791e+002 
4381250000  -5.757164e+001  -1.239984e+002 
4384375000  -5.789307e+001  -1.331173e+002 
4387500000  -5.657634e+001  -1.486065e+002 
4390625000  -5.694900e+001  -1.600876e+002 
4393750000  -5.700956e+001  -1.548671e+002 
4396875000  -5.450666e+001  -1.546526e+002 
4400000000  -5.683325e+001  -1.710217e+002 
4403125000  -5.551404e+001  -1.792406e+002 
4406250000  -5.648250e+001  1.742516e+002 
4409375000  -5.530615e+001  1.721753e+002 
4412500000  -5.717770e+001  1.580936e+002 
4415625000  -5.534133e+001  1.580302e+002 
