!Agilent Technologies,E8363B,MY43030201,A.06.04.32
!Agilent E8363B: A.06.04.32
!Date: Tuesday, November 11, 2014 22:12:44
!Correction: S21(Response(S21)) 
!S1P File: Measurement: S21:
# Hz S  dB   R 50
3000000000  -4.887371e+001  -7.384035e+001 
3003125000  -5.165913e+001  -8.027798e+001 
3006250000  -5.170918e+001  -8.582645e+001 
3009375000  -5.202686e+001  -8.911377e+001 
3012500000  -5.125795e+001  -9.955134e+001 
3015625000  -5.123855e+001  -1.064213e+002 
3018750000  -5.152435e+001  -1.139847e+002 
3021875000  -5.023796e+001  -1.174573e+002 
3025000000  -4.849838e+001  -1.275228e+002 
3028125000  -4.835355e+001  -1.458406e+002 
3031250000  -4.723849e+001  -1.620555e+002 
3034375000  -4.674218e+001  -1.796218e+002 
3037500000  -4.811383e+001  1.662584e+002 
3040625000  -4.894967e+001  1.516389e+002 
3043750000  -4.949768e+001  1.449260e+002 
3046875000  -5.062724e+001  1.284361e+002 
3050000000  -5.073243e+001  1.228934e+002 
3053125000  -5.144265e+001  1.251033e+002 
3056250000  -5.161409e+001  1.205424e+002 
3059375000  -5.090517e+001  1.085974e+002 
3062500000  -4.945712e+001  9.889845e+001 
3065625000  -4.944024e+001  8.717101e+001 
3068750000  -4.875105e+001  7.704754e+001 
3071875000  -4.869931e+001  6.917323e+001 
3075000000  -4.846737e+001  5.619537e+001 
3078125000  -4.869534e+001  4.273682e+001 
3081250000  -4.889751e+001  3.324918e+001 
3084375000  -4.758561e+001  2.820136e+001 
3087500000  -4.820528e+001  9.972775e+000 
3090625000  -4.788986e+001  -4.561731e+000 
3093750000  -4.905815e+001  -1.585524e+001 
3096875000  -4.971262e+001  -2.588948e+001 
3100000000  -4.928599e+001  -3.479335e+001 
3103125000  -4.936190e+001  -3.970601e+001 
3106250000  -4.920011e+001  -5.162809e+001 
3109375000  -4.981635e+001  -6.241863e+001 
3112500000  -4.930532e+001  -6.628818e+001 
3115625000  -4.920298e+001  -7.751956e+001 
3118750000  -4.999302e+001  -8.417798e+001 
3121875000  -4.913454e+001  -1.016607e+002 
3125000000  -5.075846e+001  -1.111132e+002 
3128125000  -5.075620e+001  -1.115936e+002 
3131250000  -4.839091e+001  -1.162024e+002 
3134375000  -4.768652e+001  -1.434252e+002 
3137500000  -4.827197e+001  -1.548736e+002 
3140625000  -4.929863e+001  -1.595601e+002 
3143750000  -5.054315e+001  -1.698391e+002 
3146875000  -5.051884e+001  -1.729484e+002 
3150000000  -4.897747e+001  1.790583e+002 
3153125000  -4.928623e+001  1.656239e+002 
3156250000  -5.054012e+001  1.664841e+002 
3159375000  -4.784682e+001  1.597746e+002 
3162500000  -4.623506e+001  1.372178e+002 
3165625000  -4.793686e+001  1.197629e+002 
3168750000  -4.764471e+001  1.160208e+002 
3171875000  -4.726160e+001  1.022814e+002 
3175000000  -4.753032e+001  8.713611e+001 
3178125000  -4.749127e+001  8.176134e+001 
3181250000  -4.622490e+001  6.865115e+001 
3184375000  -4.631094e+001  4.980251e+001 
3187500000  -4.793909e+001  3.593434e+001 
3190625000  -4.946591e+001  2.027690e+001 
3193750000  -4.929424e+001  2.286164e+001 
3196875000  -4.969233e+001  1.773986e+001 
3200000000  -4.814060e+001  9.501714e+000 
3203125000  -4.832496e+001  -1.714233e+000 
3206250000  -4.856566e+001  -1.795486e+001 
3209375000  -4.815577e+001  -2.879304e+001 
3212500000  -4.842809e+001  -4.407894e+001 
3215625000  -4.803363e+001  -4.553284e+001 
3218750000  -4.897400e+001  -6.093608e+001 
3221875000  -4.903202e+001  -7.595914e+001 
3225000000  -5.001129e+001  -8.688338e+001 
3228125000  -4.959428e+001  -1.016244e+002 
3231250000  -5.075795e+001  -1.039506e+002 
3234375000  -5.025963e+001  -1.126634e+002 
3237500000  -5.050286e+001  -1.182805e+002 
3240625000  -4.980887e+001  -1.266580e+002 
3243750000  -4.975890e+001  -1.459742e+002 
3246875000  -5.019842e+001  -1.556144e+002 
3250000000  -5.099334e+001  -1.625176e+002 
3253125000  -5.168614e+001  -1.699326e+002 
3256250000  -5.083239e+001  1.739690e+002 
3259375000  -5.097395e+001  1.578849e+002 
3262500000  -5.259176e+001  1.527655e+002 
3265625000  -5.288832e+001  1.438201e+002 
3268750000  -5.297104e+001  1.434055e+002 
3271875000  -5.306836e+001  1.341584e+002 
3275000000  -5.239206e+001  1.256087e+002 
3278125000  -5.287099e+001  1.130230e+002 
3281250000  -5.288298e+001  1.020069e+002 
3284375000  -5.222823e+001  9.079198e+001 
3287500000  -5.296278e+001  8.661845e+001 
3290625000  -5.408128e+001  7.099934e+001 
3293750000  -5.376182e+001  6.313319e+001 
3296875000  -5.340039e+001  5.842130e+001 
3300000000  -5.353786e+001  5.098465e+001 
3303125000  -5.353302e+001  3.691732e+001 
3306250000  -5.344548e+001  2.584910e+001 
3309375000  -5.290277e+001  1.867725e+001 
3312500000  -5.317003e+001  -2.037555e+000 
3315625000  -5.422052e+001  -3.988549e+000 
3318750000  -5.577535e+001  -2.430318e+001 
3321875000  -5.612922e+001  -3.388654e+001 
3325000000  -5.743174e+001  -2.525232e+001 
3328125000  -5.690677e+001  -2.245517e+001 
3331250000  -5.366665e+001  -2.480928e+001 
3334375000  -5.136227e+001  -4.782981e+001 
3337500000  -5.319286e+001  -7.658047e+001 
3340625000  -5.459587e+001  -8.998653e+001 
3343750000  -5.567923e+001  -8.349395e+001 
3346875000  -5.542939e+001  -9.405640e+001 
3350000000  -5.375123e+001  -1.025540e+002 
3353125000  -5.478936e+001  -1.131267e+002 
3356250000  -5.561217e+001  -1.293385e+002 
3359375000  -5.564708e+001  -1.549813e+002 
3362500000  -5.657402e+001  -1.471754e+002 
3365625000  -5.602275e+001  -1.639242e+002 
3368750000  -5.678627e+001  -1.686191e+002 
3371875000  -5.567884e+001  1.756559e+002 
3375000000  -5.800436e+001  1.557422e+002 
3378125000  -5.898533e+001  1.727624e+002 
3381250000  -5.900955e+001  1.509596e+002 
3384375000  -5.561500e+001  1.742655e+002 
3387500000  -5.489161e+001  1.410506e+002 
3390625000  -5.606847e+001  1.347034e+002 
3393750000  -5.768519e+001  1.203897e+002 
3396875000  -5.706788e+001  1.152293e+002 
3400000000  -5.575344e+001  9.926569e+001 
3403125000  -5.742532e+001  8.481265e+001 
3406250000  -5.721829e+001  7.749271e+001 
3409375000  -5.837199e+001  5.432407e+001 
3412500000  -5.824232e+001  4.458451e+001 
3415625000  -6.005661e+001  3.397312e+001 
3418750000  -6.110847e+001  3.533674e+001 
3421875000  -5.997947e+001  3.534956e+001 
3425000000  -5.864505e+001  2.664079e+001 
3428125000  -5.885707e+001  5.732170e+000 
3431250000  -6.025764e+001  -4.150406e-001 
3434375000  -5.921373e+001  -2.130009e+001 
3437500000  -6.187030e+001  -3.205770e+001 
3440625000  -6.112637e+001  -2.234182e+001 
3443750000  -6.143190e+001  -2.842023e+001 
3446875000  -6.057964e+001  -5.325342e+001 
3450000000  -6.289012e+001  -7.304194e+001 
3453125000  -6.289585e+001  -7.807436e+001 
3456250000  -7.008780e+001  -9.328802e+001 
3459375000  -6.634031e+001  -7.182512e+001 
3462500000  -6.459186e+001  -1.003846e+002 
3465625000  -6.500246e+001  -1.077596e+002 
3468750000  -6.674258e+001  -1.106904e+002 
3471875000  -6.923769e+001  -9.300443e+001 
3475000000  -6.532801e+001  -9.485452e+001 
3478125000  -6.972334e+001  -1.463996e+002 
3481250000  -6.967265e+001  -1.291837e+002 
3484375000  -6.942550e+001  -1.457413e+002 
3487500000  -6.684289e+001  -1.407896e+002 
3490625000  -6.809918e+001  -1.384788e+002 
3493750000  -7.585291e+001  1.476339e+002 
3496875000  -6.875127e+001  -1.567224e+002 
3500000000  -7.401254e+001  -1.600061e+002 
3503125000  -6.617447e+001  -1.324710e+002 
3506250000  -6.096258e+001  1.698152e+002 
3509375000  -6.329504e+001  1.567052e+002 
3512500000  -6.411926e+001  1.425605e+002 
3515625000  -7.086998e+001  1.518270e+002 
3518750000  -6.598899e+001  1.382497e+002 
3521875000  -6.637706e+001  1.314689e+002 
3525000000  -6.982220e+001  1.260523e+002 
3528125000  -6.963645e+001  9.673983e+001 
3531250000  -6.592938e+001  1.072153e+002 
3534375000  -6.428214e+001  9.997807e+001 
3537500000  -6.462328e+001  8.274168e+001 
3540625000  -6.935874e+001  4.885725e+001 
3543750000  -7.511470e+001  1.498656e+002 
3546875000  -6.849826e+001  5.476250e+001 
3550000000  -6.972538e+001  6.809979e+001 
3553125000  -7.185117e+001  9.799789e+001 
3556250000  -7.425144e+001  4.563381e+001 
3559375000  -6.904681e+001  7.823219e+001 
3562500000  -7.616914e+001  1.598645e+001 
3565625000  -7.600669e+001  8.441122e+001 
3568750000  -7.900434e+001  -5.484995e+001 
3571875000  -7.014423e+001  -4.427302e+000 
3575000000  -6.471351e+001  3.857147e+001 
3578125000  -6.645604e+001  6.429430e+001 
3581250000  -7.282059e+001  -8.138557e+001 
3584375000  -7.042686e+001  1.015376e+002 
3587500000  -7.616952e+001  -8.183798e+001 
3590625000  -6.855253e+001  2.816103e+001 
3593750000  -6.931353e+001  -5.705296e+001 
3596875000  -6.900463e+001  -5.956258e+000 
3600000000  -6.998482e+001  1.394575e+000 
3603125000  -6.643694e+001  -5.885106e-001 
3606250000  -6.538528e+001  -5.474188e+001 
3609375000  -6.508782e+001  -2.876133e+001 
3612500000  -6.618362e+001  -6.162616e+001 
3615625000  -7.014366e+001  -5.729258e+001 
3618750000  -6.615202e+001  -6.494238e+001 
3621875000  -6.501127e+001  -8.128020e+001 
3625000000  -6.574195e+001  -5.689899e+001 
3628125000  -6.454876e+001  -9.736337e+001 
3631250000  -6.533535e+001  -9.690775e+001 
3634375000  -6.219998e+001  -1.352754e+002 
3637500000  -6.542009e+001  -9.688847e+001 
3640625000  -6.164514e+001  -1.220155e+002 
3643750000  -6.168113e+001  -1.364185e+002 
3646875000  -6.214681e+001  -1.753963e+002 
3650000000  -6.279018e+001  -1.745525e+002 
3653125000  -6.160738e+001  1.710892e+002 
3656250000  -7.191517e+001  1.505160e+002 
3659375000  -6.639342e+001  1.574159e+002 
3662500000  -6.184266e+001  1.418601e+002 
3665625000  -6.132357e+001  1.700771e+002 
3668750000  -6.415516e+001  1.122942e+002 
3671875000  -6.339215e+001  1.253457e+002 
3675000000  -6.460279e+001  8.838085e+001 
3678125000  -6.355651e+001  1.213048e+002 
3681250000  -6.439964e+001  1.074131e+002 
3684375000  -6.488522e+001  6.639745e+001 
3687500000  -6.583409e+001  7.333230e+001 
3690625000  -7.312260e+001  -1.206111e+001 
3693750000  -6.730192e+001  7.932307e+001 
3696875000  -6.741246e+001  8.778609e+001 
3700000000  -6.267485e+001  8.254281e+001 
3703125000  -6.930062e+001  2.161193e+001 
3706250000  -6.356196e+001  5.921658e+001 
3709375000  -7.146829e+001  6.070025e+001 
3712500000  -6.871359e+001  5.712446e+001 
3715625000  -6.103236e+001  2.777831e+001 
3718750000  -6.180133e+001  4.206287e+001 
3721875000  -6.200041e+001  5.000266e+000 
3725000000  -6.214882e+001  1.659554e+001 
3728125000  -5.995368e+001  9.367508e-001 
3731250000  -5.954033e+001  -9.977099e+000 
3734375000  -6.039579e+001  -1.901798e+001 
3737500000  -5.876851e+001  -3.701971e+001 
3740625000  -6.056332e+001  -4.755876e+001 
3743750000  -6.024596e+001  -6.564468e+001 
3746875000  -5.972436e+001  -6.274014e+001 
3750000000  -5.860895e+001  -7.681469e+001 
3753125000  -5.807756e+001  -9.442706e+001 
3756250000  -5.759739e+001  -1.015159e+002 
3759375000  -5.792239e+001  -1.039785e+002 
3762500000  -5.842438e+001  -1.256635e+002 
3765625000  -6.004087e+001  -1.356063e+002 
3768750000  -5.742285e+001  -1.281941e+002 
3771875000  -5.734798e+001  -1.396108e+002 
3775000000  -5.625000e+001  -1.663554e+002 
3778125000  -5.631561e+001  1.753693e+002 
3781250000  -5.580818e+001  1.786435e+002 
3784375000  -5.789321e+001  1.696416e+002 
3787500000  -5.730681e+001  1.520940e+002 
3790625000  -5.756377e+001  1.326329e+002 
3793750000  -5.728518e+001  1.387117e+002 
3796875000  -5.766024e+001  1.207773e+002 
3800000000  -5.324235e+001  7.943815e+001 
3803125000  -5.749609e+001  1.057276e+002 
3806250000  -5.837865e+001  7.355410e+001 
3809375000  -5.900607e+001  8.070507e+001 
3812500000  -5.812772e+001  6.612928e+001 
3815625000  -6.065852e+001  4.707922e+001 
3818750000  -6.360834e+001  3.062321e+001 
3821875000  -6.157716e+001  4.810905e+001 
3825000000  -5.926563e+001  3.345105e+001 
3828125000  -6.072048e+001  4.351230e+001 
3831250000  -6.036007e+001  -1.221019e+000 
3834375000  -6.907651e+001  5.715498e+000 
3837500000  -6.134907e+001  1.018811e+001 
3840625000  -6.158016e+001  1.151123e+001 
3843750000  -6.367091e+001  1.876334e+000 
3846875000  -6.612599e+001  -2.922730e+001 
3850000000  -6.232529e+001  -1.236540e+001 
3853125000  -6.113441e+001  -3.064783e+001 
3856250000  -5.892660e+001  -2.732967e-001 
3859375000  -5.962677e+001  -3.141249e+001 
3862500000  -6.397992e+001  -2.256429e+001 
3865625000  -6.052516e+001  -5.801274e+001 
3868750000  -5.933983e+001  -5.006670e+001 
3871875000  -5.519770e+001  -6.299628e+001 
3875000000  -5.960292e+001  -7.177528e+001 
3878125000  -5.805906e+001  -7.879556e+001 
3881250000  -5.805247e+001  -1.001288e+002 
3884375000  -5.733243e+001  -1.013158e+002 
3887500000  -5.845664e+001  -1.177162e+002 
3890625000  -5.652613e+001  -1.070364e+002 
3893750000  -5.818184e+001  -1.310278e+002 
3896875000  -5.813125e+001  -1.402054e+002 
3900000000  -5.608556e+001  -1.526772e+002 
3903125000  -5.488071e+001  -1.596420e+002 
3906250000  -5.453958e+001  -1.645097e+002 
3909375000  -5.453009e+001  1.766660e+002 
3912500000  -5.367712e+001  1.704786e+002 
3915625000  -5.670599e+001  1.652072e+002 
3918750000  -5.460239e+001  1.547164e+002 
3921875000  -5.451844e+001  1.434705e+002 
3925000000  -5.255950e+001  1.277925e+002 
3928125000  -5.248124e+001  1.102428e+002 
3931250000  -5.385437e+001  1.066852e+002 
3934375000  -5.509499e+001  8.656931e+001 
3937500000  -5.744721e+001  7.628950e+001 
3940625000  -5.406408e+001  7.366229e+001 
3943750000  -5.311642e+001  6.733946e+001 
3946875000  -5.392089e+001  5.041313e+001 
3950000000  -5.456631e+001  4.405285e+001 
3953125000  -5.485809e+001  3.515092e+001 
3956250000  -5.463155e+001  1.904679e+001 
3959375000  -5.215760e+001  2.153391e+001 
3962500000  -5.242633e+001  -6.249684e+000 
3965625000  -5.339774e+001  -1.357552e+001 
3968750000  -5.341065e+001  -2.427797e+001 
3971875000  -5.355129e+001  -3.747437e+001 
3975000000  -5.390353e+001  -5.191048e+001 
3978125000  -5.571564e+001  -6.262095e+001 
3981250000  -5.426991e+001  -7.767822e+001 
3984375000  -5.512336e+001  -9.194418e+001 
3987500000  -5.627660e+001  -9.232806e+001 
3990625000  -5.512795e+001  -9.857001e+001 
3993750000  -5.736451e+001  -1.119496e+002 
3996875000  -5.693907e+001  -1.299385e+002 
4000000000  -5.828149e+001  -1.265713e+002 
4003125000  -6.004456e+001  -1.253352e+002 
4006250000  -5.655782e+001  -1.427529e+002 
4009375000  -5.543418e+001  -1.518036e+002 
4012500000  -5.983323e+001  -1.610445e+002 
4015625000  -6.187919e+001  -1.562958e+002 
4018750000  -6.181182e+001  -1.649861e+002 
4021875000  -6.021698e+001  -1.709873e+002 
4025000000  -5.998497e+001  1.665008e+002 
4028125000  -6.081876e+001  1.728184e+002 
4031250000  -6.032371e+001  1.632777e+002 
4034375000  -6.049681e+001  1.669458e+002 
4037500000  -5.818055e+001  1.530474e+002 
4040625000  -5.910535e+001  1.545780e+002 
4043750000  -6.184252e+001  1.590338e+002 
4046875000  -5.932895e+001  1.332872e+002 
4050000000  -5.671408e+001  1.272140e+002 
4053125000  -5.799847e+001  9.449224e+001 
4056250000  -5.644601e+001  1.056499e+002 
4059375000  -5.591542e+001  1.170866e+002 
4062500000  -5.610410e+001  1.093788e+002 
4065625000  -5.474844e+001  7.720370e+001 
4068750000  -5.435232e+001  7.843043e+001 
4071875000  -5.180771e+001  6.472620e+001 
4075000000  -5.300673e+001  4.160878e+001 
4078125000  -5.358618e+001  4.053708e+001 
4081250000  -5.254707e+001  3.126329e+001 
4084375000  -5.279430e+001  1.536207e+001 
4087500000  -5.358686e+001  2.577041e-001 
4090625000  -5.385596e+001  -5.053960e+000 
4093750000  -5.279118e+001  -2.855929e+001 
4096875000  -5.231293e+001  -3.280736e+001 
4100000000  -5.446587e+001  -4.446814e+001 
4103125000  -5.483404e+001  -5.136654e+001 
4106250000  -5.374843e+001  -5.120854e+001 
4109375000  -5.358823e+001  -5.933812e+001 
4112500000  -5.185487e+001  -8.358904e+001 
4115625000  -5.237493e+001  -9.601411e+001 
4118750000  -5.243501e+001  -1.012295e+002 
4121875000  -5.295104e+001  -1.155026e+002 
4125000000  -5.230688e+001  -1.220250e+002 
4128125000  -5.471907e+001  -1.300846e+002 
4131250000  -5.271193e+001  -1.327189e+002 
4134375000  -5.198082e+001  -1.529375e+002 
4137500000  -5.223410e+001  -1.671382e+002 
4140625000  -5.351780e+001  -1.775601e+002 
4143750000  -5.708501e+001  -1.727897e+002 
4146875000  -5.383092e+001  1.654860e+002 
4150000000  -5.441253e+001  1.562997e+002 
4153125000  -5.478952e+001  1.403849e+002 
4156250000  -5.566399e+001  1.241287e+002 
4159375000  -5.550444e+001  1.298344e+002 
4162500000  -5.529899e+001  1.100437e+002 
4165625000  -5.302097e+001  1.028825e+002 
4168750000  -5.571784e+001  8.631190e+001 
4171875000  -5.384624e+001  8.600039e+001 
4175000000  -5.802856e+001  5.645044e+001 
4178125000  -5.735093e+001  6.889569e+001 
4181250000  -5.616991e+001  4.310535e+001 
4184375000  -5.855705e+001  3.044660e+001 
4187500000  -5.859844e+001  2.923045e+001 
4190625000  -6.002600e+001  3.075625e+001 
4193750000  -6.326248e+001  2.859418e+001 
4196875000  -6.507169e+001  -5.764848e+000 
4200000000  -6.303559e+001  1.660712e+001 
4203125000  -6.346333e+001  1.333335e+001 
4206250000  -6.108764e+001  3.158309e+001 
4209375000  -6.476650e+001  -1.650070e+000 
4212500000  -6.189388e+001  -1.360896e+001 
4215625000  -6.332456e+001  -1.706676e+001 
4218750000  -6.179836e+001  -6.170508e+000 
4221875000  -6.082708e+001  -8.998818e+000 
4225000000  -6.226419e+001  -9.611730e+000 
4228125000  -5.957915e+001  -2.627423e+001 
4231250000  -6.155328e+001  -3.700910e+001 
4234375000  -5.771687e+001  -3.524642e+001 
4237500000  -5.792810e+001  -3.816248e+001 
4240625000  -5.675958e+001  -5.913206e+001 
4243750000  -5.787105e+001  -6.212899e+001 
4246875000  -5.627682e+001  -7.038457e+001 
4250000000  -5.771247e+001  -8.905835e+001 
4253125000  -5.508655e+001  -8.333535e+001 
4256250000  -5.576499e+001  -1.078744e+002 
4259375000  -5.455571e+001  -9.364385e+001 
4262500000  -5.443443e+001  -1.264480e+002 
4265625000  -5.449461e+001  -1.171456e+002 
4268750000  -5.264688e+001  -1.392706e+002 
4271875000  -5.124715e+001  -1.489940e+002 
4275000000  -5.225236e+001  -1.676118e+002 
4278125000  -5.431338e+001  1.634682e+002 
4281250000  -5.417770e+001  1.556169e+002 
4284375000  -5.363175e+001  1.556386e+002 
4287500000  -5.456127e+001  1.487709e+002 
4290625000  -5.530796e+001  1.402319e+002 
4293750000  -5.287923e+001  1.420792e+002 
4296875000  -5.179843e+001  1.210347e+002 
4300000000  -5.260964e+001  1.032930e+002 
4303125000  -5.325906e+001  1.030041e+002 
4306250000  -5.221948e+001  8.921380e+001 
4309375000  -5.181007e+001  7.446402e+001 
4312500000  -5.184999e+001  6.459992e+001 
4315625000  -5.184861e+001  5.129271e+001 
4318750000  -5.313683e+001  5.281070e+001 
4321875000  -5.171289e+001  3.644954e+001 
4325000000  -5.406870e+001  2.598059e+001 
4328125000  -5.101746e+001  1.212495e+001 
4331250000  -5.346298e+001  -2.902317e+000 
4334375000  -5.441046e+001  -2.297999e+001 
4337500000  -5.600575e+001  -3.237331e+001 
4340625000  -5.551448e+001  -2.437510e+001 
4343750000  -5.628997e+001  -3.414178e+001 
4346875000  -5.590014e+001  -4.380350e+001 
4350000000  -5.518983e+001  -5.919966e+001 
4353125000  -5.519858e+001  -6.573866e+001 
4356250000  -5.704408e+001  -9.394822e+001 
4359375000  -5.696036e+001  -4.361569e+001 
4362500000  -5.505904e+001  -8.256528e+001 
4365625000  -5.656871e+001  -9.472762e+001 
4368750000  -5.509603e+001  -1.160525e+002 
4371875000  -5.572102e+001  -1.219804e+002 
4375000000  -5.736858e+001  -1.237318e+002 
4378125000  -5.626696e+001  -1.233678e+002 
4381250000  -5.802086e+001  -1.260846e+002 
4384375000  -5.650320e+001  -1.487917e+002 
4387500000  -5.843676e+001  -1.405359e+002 
4390625000  -5.754477e+001  -1.633474e+002 
4393750000  -5.828626e+001  -1.406185e+002 
4396875000  -5.681671e+001  -1.465179e+002 
4400000000  -5.637072e+001  -1.734997e+002 
4403125000  -5.476253e+001  1.784046e+002 
4406250000  -5.738393e+001  1.730027e+002 
4409375000  -5.591169e+001  1.692284e+002 
4412500000  -5.814641e+001  1.609001e+002 
4415625000  -5.410250e+001  1.615692e+002 
4418750000  -5.576607e+001  1.584610e+002 
