!Agilent Technologies,E8363B,MY43030201,A.06.04.32
!Agilent E8363B: A.06.04.32
!Date: Tuesday, November 11, 2014 22:15:19
!Correction: S21(Response(S21)) 
!S1P File: Measurement: S21:
# Hz S  dB   R 50
3000000000  -4.888175e+001  -7.494190e+001 
3003125000  -5.126860e+001  -7.922609e+001 
3006250000  -5.153339e+001  -8.567064e+001 
3009375000  -5.233742e+001  -8.605900e+001 
3012500000  -5.112931e+001  -9.840012e+001 
3015625000  -5.094653e+001  -1.067236e+002 
3018750000  -5.196098e+001  -1.165588e+002 
3021875000  -4.986411e+001  -1.175940e+002 
3025000000  -4.879433e+001  -1.246257e+002 
3028125000  -4.853672e+001  -1.420361e+002 
3031250000  -4.753875e+001  -1.599294e+002 
3034375000  -4.715248e+001  -1.775229e+002 
3037500000  -4.834987e+001  1.635737e+002 
3040625000  -4.913112e+001  1.539959e+002 
3043750000  -4.956646e+001  1.429680e+002 
3046875000  -5.059060e+001  1.312979e+002 
3050000000  -5.234473e+001  1.214701e+002 
3053125000  -5.126673e+001  1.237883e+002 
3056250000  -5.085735e+001  1.181871e+002 
3059375000  -5.077276e+001  1.106303e+002 
3062500000  -4.968601e+001  1.055610e+002 
3065625000  -4.962808e+001  8.536578e+001 
3068750000  -4.938232e+001  7.572399e+001 
3071875000  -4.937241e+001  6.686888e+001 
3075000000  -4.862638e+001  5.602337e+001 
3078125000  -4.865678e+001  4.716765e+001 
3081250000  -4.886105e+001  3.786700e+001 
3084375000  -4.862930e+001  2.702398e+001 
3087500000  -4.842317e+001  1.301048e+001 
3090625000  -4.759274e+001  -5.727505e+000 
3093750000  -4.893642e+001  -1.535956e+001 
3096875000  -4.976848e+001  -2.261409e+001 
3100000000  -4.935044e+001  -3.295893e+001 
3103125000  -4.971224e+001  -3.943937e+001 
3106250000  -4.932965e+001  -4.725475e+001 
3109375000  -4.992327e+001  -6.105021e+001 
3112500000  -4.927134e+001  -6.937389e+001 
3115625000  -4.892738e+001  -7.906042e+001 
3118750000  -4.975706e+001  -8.571704e+001 
3121875000  -4.924895e+001  -1.003004e+002 
3125000000  -5.130222e+001  -1.069461e+002 
3128125000  -5.058569e+001  -1.101624e+002 
3131250000  -4.859340e+001  -1.161853e+002 
3134375000  -4.777862e+001  -1.408068e+002 
3137500000  -4.888194e+001  -1.521360e+002 
3140625000  -4.906697e+001  -1.587549e+002 
3143750000  -5.061265e+001  -1.708739e+002 
3146875000  -4.969885e+001  -1.731316e+002 
3150000000  -4.931840e+001  1.770442e+002 
3153125000  -4.893673e+001  1.687243e+002 
3156250000  -5.042743e+001  1.676186e+002 
3159375000  -4.793810e+001  1.594166e+002 
3162500000  -4.654931e+001  1.351031e+002 
3165625000  -4.775852e+001  1.216524e+002 
3168750000  -4.768005e+001  1.149861e+002 
3171875000  -4.713278e+001  1.050049e+002 
3175000000  -4.751497e+001  8.840494e+001 
3178125000  -4.688594e+001  8.463723e+001 
3181250000  -4.619514e+001  6.987126e+001 
3184375000  -4.665261e+001  5.265557e+001 
3187500000  -4.726343e+001  3.244834e+001 
3190625000  -4.894506e+001  1.758134e+001 
3193750000  -4.998631e+001  2.445387e+001 
3196875000  -4.935798e+001  1.881111e+001 
3200000000  -4.858112e+001  8.798285e+000 
3203125000  -4.855605e+001  -8.960117e-001 
3206250000  -4.887003e+001  -1.442928e+001 
3209375000  -4.845889e+001  -3.154248e+001 
3212500000  -4.914951e+001  -3.910772e+001 
3215625000  -4.835363e+001  -4.329728e+001 
3218750000  -4.919117e+001  -6.580813e+001 
3221875000  -4.931639e+001  -7.628274e+001 
3225000000  -5.034076e+001  -8.177802e+001 
3228125000  -5.051907e+001  -9.474401e+001 
3231250000  -5.074115e+001  -1.047255e+002 
3234375000  -4.997799e+001  -1.085110e+002 
3237500000  -5.059697e+001  -1.166318e+002 
3240625000  -4.949916e+001  -1.314817e+002 
3243750000  -4.990378e+001  -1.445849e+002 
3246875000  -5.043971e+001  -1.517442e+002 
3250000000  -5.105613e+001  -1.677899e+002 
3253125000  -5.143761e+001  -1.682442e+002 
3256250000  -4.967360e+001  1.767820e+002 
3259375000  -5.106353e+001  1.637154e+002 
3262500000  -5.243309e+001  1.475326e+002 
3265625000  -5.234071e+001  1.487577e+002 
3268750000  -5.350797e+001  1.405218e+002 
3271875000  -5.241578e+001  1.338932e+002 
3275000000  -5.246357e+001  1.233107e+002 
3278125000  -5.294889e+001  1.121332e+002 
3281250000  -5.360308e+001  1.046206e+002 
3284375000  -5.241738e+001  9.540820e+001 
3287500000  -5.448460e+001  8.678620e+001 
3290625000  -5.330284e+001  7.311466e+001 
3293750000  -5.316525e+001  6.453030e+001 
3296875000  -5.371459e+001  5.869638e+001 
3300000000  -5.413197e+001  5.283602e+001 
3303125000  -5.310486e+001  4.265459e+001 
3306250000  -5.400956e+001  2.751627e+001 
3309375000  -5.299285e+001  1.942473e+001 
3312500000  -5.288508e+001  -2.099614e+000 
3315625000  -5.425048e+001  -1.356715e+001 
3318750000  -5.458573e+001  -1.773226e+001 
3321875000  -5.786454e+001  -2.029390e+001 
3325000000  -5.650404e+001  -1.482885e+001 
3328125000  -5.657453e+001  -2.099011e+001 
3331250000  -5.461906e+001  -3.138792e+001 
3334375000  -5.213040e+001  -4.478345e+001 
3337500000  -5.111889e+001  -7.026981e+001 
3340625000  -5.412395e+001  -9.063571e+001 
3343750000  -5.563260e+001  -8.262077e+001 
3346875000  -5.638787e+001  -9.782538e+001 
3350000000  -5.358530e+001  -9.886926e+001 
3353125000  -5.567845e+001  -1.191641e+002 
3356250000  -5.527516e+001  -1.312345e+002 
3359375000  -5.436380e+001  -1.457907e+002 
3362500000  -5.590672e+001  -1.541214e+002 
3365625000  -5.667958e+001  -1.540704e+002 
3368750000  -5.662326e+001  -1.724235e+002 
3371875000  -5.734646e+001  1.768764e+002 
3375000000  -5.780890e+001  1.702003e+002 
3378125000  -6.048627e+001  1.649814e+002 
3381250000  -6.249331e+001  1.659931e+002 
3384375000  -5.519384e+001  -1.743080e+002 
3387500000  -5.470483e+001  1.572309e+002 
3390625000  -5.768010e+001  1.214821e+002 
3393750000  -5.655354e+001  1.267011e+002 
3396875000  -5.674109e+001  1.120060e+002 
3400000000  -5.513983e+001  9.665379e+001 
3403125000  -5.726916e+001  8.572298e+001 
3406250000  -5.826997e+001  8.429390e+001 
3409375000  -5.649141e+001  5.911981e+001 
3412500000  -5.782536e+001  5.611474e+001 
3415625000  -6.000518e+001  4.213163e+001 
3418750000  -6.022491e+001  3.603110e+001 
3421875000  -6.043793e+001  3.588524e+001 
3425000000  -5.839498e+001  2.597065e+001 
3428125000  -5.862983e+001  1.021155e+001 
3431250000  -6.158959e+001  5.678246e+000 
3434375000  -6.016127e+001  -2.730406e+001 
3437500000  -6.273652e+001  -3.672410e+001 
3440625000  -6.139319e+001  -2.030336e+001 
3443750000  -6.269520e+001  -5.416541e+001 
3446875000  -6.024295e+001  -4.993444e+001 
3450000000  -6.394873e+001  -6.689291e+001 
3453125000  -6.428674e+001  -6.492120e+001 
3456250000  -6.789807e+001  -9.473091e+001 
3459375000  -6.547966e+001  -6.881059e+001 
3462500000  -7.067920e+001  -1.146124e+002 
3465625000  -6.789555e+001  -8.365090e+001 
3468750000  -6.741265e+001  -1.057878e+002 
3471875000  -6.598840e+001  -9.099216e+001 
3475000000  -6.650831e+001  -1.184418e+002 
3478125000  -7.245916e+001  -8.243845e+001 
3481250000  -7.085896e+001  -1.450002e+002 
3484375000  -6.660449e+001  -1.254581e+002 
3487500000  -6.631792e+001  -1.221363e+002 
3490625000  -6.237486e+001  -1.238438e+002 
3493750000  -6.727740e+001  1.785962e+002 
3496875000  -6.663917e+001  -1.470081e+002 
3500000000  -6.972403e+001  -1.543293e+002 
3503125000  -6.690448e+001  -1.605410e+002 
3506250000  -6.451044e+001  -1.434162e+002 
3509375000  -6.788178e+001  1.694030e+002 
3512500000  -6.686933e+001  1.674706e+002 
3515625000  -6.467920e+001  1.426897e+002 
3518750000  -6.613412e+001  1.725754e+002 
3521875000  -6.863438e+001  1.258383e+002 
3525000000  -6.464929e+001  1.144541e+002 
3528125000  -6.942655e+001  1.343263e+002 
3531250000  -6.738768e+001  1.087767e+002 
3534375000  -7.334622e+001  1.105476e+002 
3537500000  -7.149082e+001  1.077607e+002 
3540625000  -7.758866e+001  1.043343e+002 
3543750000  -7.503262e+001  1.548016e+002 
3546875000  -6.834232e+001  1.123761e+002 
3550000000  -6.825826e+001  7.599463e+001 
3553125000  -6.798421e+001  4.277292e+001 
3556250000  -7.255499e+001  3.855717e+001 
3559375000  -7.127974e+001  5.025075e+001 
3562500000  -6.807690e+001  8.569356e+001 
3565625000  -7.089837e+001  4.367684e+001 
3568750000  -7.502539e+001  -1.573683e+002 
3571875000  -6.669129e+001  4.222464e+001 
3575000000  -7.982298e+001  -7.311098e+001 
3578125000  -7.663346e+001  3.071431e+001 
3581250000  -6.983701e+001  7.693302e+001 
3584375000  -6.868951e+001  1.748647e+001 
3587500000  -7.418252e+001  3.939186e+001 
3590625000  -6.996846e+001  -2.534229e+000 
3593750000  -6.712988e+001  -5.992303e-001 
3596875000  -6.984696e+001  9.464211e+000 
3600000000  -7.101916e+001  5.097205e+000 
3603125000  -7.151940e+001  8.510723e+000 
3606250000  -6.804415e+001  -6.060019e+001 
3609375000  -6.548435e+001  -5.003359e+001 
3612500000  -6.338820e+001  -5.383228e+001 
3615625000  -6.413114e+001  -5.363275e+001 
3618750000  -6.589114e+001  -7.112687e+001 
3621875000  -6.918584e+001  -7.650739e+001 
3625000000  -6.775183e+001  -8.326780e+001 
3628125000  -6.251504e+001  -1.203933e+002 
3631250000  -6.155464e+001  -1.189817e+002 
3634375000  -6.491970e+001  -1.123427e+002 
3637500000  -6.727311e+001  -1.296023e+002 
3640625000  -6.263866e+001  -1.303887e+002 
3643750000  -6.236535e+001  -1.544654e+002 
3646875000  -6.121542e+001  -1.748565e+002 
3650000000  -6.470918e+001  -1.688305e+002 
3653125000  -6.488101e+001  -1.764800e+002 
3656250000  -6.508515e+001  1.706479e+002 
3659375000  -6.296851e+001  1.666161e+002 
3662500000  -6.449768e+001  1.454787e+002 
3665625000  -6.484074e+001  1.631380e+002 
3668750000  -6.094732e+001  1.216722e+002 
3671875000  -6.093891e+001  1.257005e+002 
3675000000  -6.488471e+001  9.647977e+001 
3678125000  -6.383583e+001  1.221184e+002 
3681250000  -6.354728e+001  8.811582e+001 
3684375000  -7.369263e+001  7.359141e+001 
3687500000  -6.637251e+001  7.480162e+001 
3690625000  -7.052419e+001  8.094673e+001 
3693750000  -6.985641e+001  8.745727e+001 
3696875000  -6.569244e+001  4.940568e+001 
3700000000  -6.162858e+001  7.566933e+001 
3703125000  -6.791659e+001  4.902013e+001 
3706250000  -6.552605e+001  6.115557e+001 
3709375000  -6.507915e+001  6.150663e+001 
3712500000  -6.306008e+001  7.433254e+001 
3715625000  -6.492691e+001  1.310862e+001 
3718750000  -6.527867e+001  3.786427e+001 
3721875000  -6.110378e+001  4.973983e+000 
3725000000  -6.116017e+001  9.099031e+000 
3728125000  -5.928720e+001  3.705326e+000 
3731250000  -5.899258e+001  5.471377e+000 
3734375000  -5.959488e+001  -1.662708e+001 
3737500000  -5.839574e+001  -4.335818e+001 
3740625000  -5.929145e+001  -3.757531e+001 
3743750000  -5.940344e+001  -6.129116e+001 
3746875000  -5.980272e+001  -6.200084e+001 
3750000000  -5.709295e+001  -8.780305e+001 
3753125000  -5.784076e+001  -8.009568e+001 
3756250000  -5.827231e+001  -8.960925e+001 
3759375000  -5.727837e+001  -1.051620e+002 
3762500000  -5.813453e+001  -1.188162e+002 
3765625000  -5.874344e+001  -1.259044e+002 
3768750000  -5.743873e+001  -1.439327e+002 
3771875000  -5.663621e+001  -1.440640e+002 
3775000000  -5.591640e+001  -1.597501e+002 
3778125000  -5.566669e+001  -1.790457e+002 
3781250000  -5.751763e+001  -1.798652e+002 
3784375000  -5.701187e+001  1.735949e+002 
3787500000  -5.733749e+001  1.507507e+002 
3790625000  -5.853040e+001  1.467693e+002 
3793750000  -5.612861e+001  1.367129e+002 
3796875000  -5.681678e+001  1.245157e+002 
3800000000  -5.310107e+001  8.696182e+001 
3803125000  -5.734041e+001  9.696518e+001 
3806250000  -5.808730e+001  6.623707e+001 
3809375000  -5.863242e+001  8.015831e+001 
3812500000  -5.825993e+001  6.370404e+001 
3815625000  -6.008913e+001  3.627950e+001 
3818750000  -6.238737e+001  3.435262e+001 
3821875000  -6.027934e+001  4.480130e+001 
3825000000  -5.743307e+001  4.320415e+001 
3828125000  -5.921331e+001  4.032879e+001 
3831250000  -5.933509e+001  6.864280e+000 
3834375000  -6.448863e+001  1.220421e+001 
3837500000  -6.631361e+001  9.314991e+000 
3840625000  -6.360215e+001  -2.681616e+001 
3843750000  -6.153663e+001  -1.387451e+001 
3846875000  -6.213155e+001  1.577395e+001 
3850000000  -6.671770e+001  2.871148e+001 
3853125000  -6.395214e+001  -2.323351e+001 
3856250000  -6.140323e+001  -3.526466e+000 
3859375000  -6.070378e+001  -3.059838e+001 
3862500000  -6.193011e+001  -4.342946e+001 
3865625000  -5.848885e+001  -5.104231e+001 
3868750000  -6.080908e+001  -5.206965e+001 
3871875000  -5.707643e+001  -6.269724e+001 
3875000000  -5.879850e+001  -9.015835e+001 
3878125000  -5.791328e+001  -8.102637e+001 
3881250000  -5.817230e+001  -9.562727e+001 
3884375000  -5.696292e+001  -9.906635e+001 
3887500000  -5.737863e+001  -1.194467e+002 
3890625000  -5.608921e+001  -1.132656e+002 
3893750000  -5.655075e+001  -1.303635e+002 
3896875000  -5.646515e+001  -1.274526e+002 
3900000000  -5.477313e+001  -1.341866e+002 
3903125000  -5.430020e+001  -1.539461e+002 
3906250000  -5.443410e+001  -1.618570e+002 
3909375000  -5.455179e+001  1.775166e+002 
3912500000  -5.467835e+001  1.612347e+002 
3915625000  -5.746240e+001  1.560144e+002 
3918750000  -5.561200e+001  1.550906e+002 
3921875000  -5.645512e+001  1.364471e+002 
3925000000  -5.383710e+001  1.259110e+002 
3928125000  -5.306519e+001  1.145668e+002 
3931250000  -5.418166e+001  1.091621e+002 
3934375000  -5.560381e+001  9.683012e+001 
3937500000  -5.495316e+001  8.286249e+001 
3940625000  -5.394456e+001  8.211574e+001 
3943750000  -5.306539e+001  6.965250e+001 
3946875000  -5.284170e+001  5.504028e+001 
3950000000  -5.444554e+001  3.609525e+001 
3953125000  -5.550689e+001  3.678069e+001 
3956250000  -5.403146e+001  2.418175e+001 
3959375000  -5.261038e+001  1.822779e+001 
3962500000  -5.301411e+001  -5.489201e+000 
3965625000  -5.307309e+001  -1.404975e+001 
3968750000  -5.579687e+001  -2.996939e+001 
3971875000  -5.304104e+001  -3.997996e+001 
3975000000  -5.396436e+001  -5.553811e+001 
3978125000  -5.521053e+001  -5.669115e+001 
3981250000  -5.533824e+001  -7.000884e+001 
3984375000  -5.553701e+001  -8.491879e+001 
3987500000  -5.612704e+001  -8.172138e+001 
3990625000  -5.755362e+001  -9.165219e+001 
3993750000  -5.601899e+001  -1.190641e+002 
3996875000  -5.604087e+001  -1.046757e+002 
4000000000  -6.125503e+001  -1.282572e+002 
4003125000  -6.214563e+001  -1.236451e+002 
4006250000  -5.481447e+001  -1.458803e+002 
4009375000  -5.737058e+001  -1.438850e+002 
4012500000  -5.834921e+001  -1.594435e+002 
4015625000  -6.015479e+001  -1.575320e+002 
4018750000  -5.907206e+001  -1.633766e+002 
4021875000  -5.837371e+001  -1.722840e+002 
4025000000  -6.014991e+001  1.783769e+002 
4028125000  -6.032592e+001  1.744499e+002 
4031250000  -6.113479e+001  1.522494e+002 
4034375000  -6.162416e+001  1.733363e+002 
4037500000  -5.878193e+001  1.622211e+002 
4040625000  -5.910734e+001  1.547529e+002 
4043750000  -5.765782e+001  1.501231e+002 
4046875000  -6.057795e+001  1.521635e+002 
4050000000  -5.861707e+001  1.360848e+002 
4053125000  -5.898872e+001  1.255151e+002 
4056250000  -6.036543e+001  1.331825e+002 
4059375000  -5.440992e+001  1.117701e+002 
4062500000  -5.510452e+001  1.086095e+002 
4065625000  -5.467809e+001  8.846586e+001 
4068750000  -5.384510e+001  7.210108e+001 
4071875000  -5.270996e+001  5.703799e+001 
4075000000  -5.303294e+001  4.995937e+001 
4078125000  -5.234945e+001  4.638629e+001 
4081250000  -5.204040e+001  2.686754e+001 
4084375000  -5.235435e+001  8.714629e+000 
4087500000  -5.389498e+001  -1.991119e+000 
4090625000  -5.434662e+001  3.215765e+000 
4093750000  -5.271029e+001  -1.544146e+001 
4096875000  -5.314886e+001  -3.307345e+001 
4100000000  -5.550868e+001  -4.171102e+001 
4103125000  -5.425521e+001  -4.694606e+001 
4106250000  -5.374773e+001  -5.626087e+001 
4109375000  -5.331474e+001  -6.691766e+001 
4112500000  -5.322967e+001  -8.273047e+001 
4115625000  -5.263210e+001  -8.869193e+001 
4118750000  -5.256992e+001  -9.538557e+001 
4121875000  -5.285152e+001  -1.149035e+002 
4125000000  -5.449311e+001  -1.178894e+002 
4128125000  -5.554446e+001  -1.346642e+002 
4131250000  -5.363409e+001  -1.309825e+002 
4134375000  -5.151150e+001  -1.488682e+002 
4137500000  -5.223628e+001  -1.713731e+002 
4140625000  -5.439425e+001  1.732808e+002 
4143750000  -5.567970e+001  1.667547e+002 
4146875000  -5.451276e+001  1.754758e+002 
4150000000  -5.488583e+001  1.644889e+002 
4153125000  -5.460188e+001  1.483498e+002 
4156250000  -5.533799e+001  1.301318e+002 
4159375000  -5.434898e+001  1.396113e+002 
4162500000  -5.732582e+001  1.174603e+002 
4165625000  -5.387449e+001  1.149745e+002 
4168750000  -5.448605e+001  8.720341e+001 
4171875000  -5.700054e+001  7.619353e+001 
4175000000  -5.738769e+001  6.277072e+001 
4178125000  -5.744557e+001  6.504951e+001 
4181250000  -5.708046e+001  4.431038e+001 
4184375000  -6.072734e+001  2.842294e+001 
4187500000  -5.856529e+001  3.199505e+001 
4190625000  -6.152532e+001  4.224931e+001 
4193750000  -6.168985e+001  1.679556e+001 
4196875000  -6.487554e+001  1.186509e+001 
4200000000  -6.331639e+001  3.338015e+001 
4203125000  -7.155414e+001  1.510254e+001 
4206250000  -6.205255e+001  3.323460e+001 
4209375000  -6.015418e+001  -8.659765e+000 
4212500000  -6.613013e+001  -1.014231e+001 
4215625000  -6.689088e+001  -2.096149e+001 
4218750000  -6.416025e+001  2.058563e+001 
4221875000  -5.836795e+001  -1.418719e+001 
4225000000  -6.053875e+001  -1.219415e+001 
4228125000  -5.704303e+001  -2.207583e+001 
4231250000  -5.842424e+001  -2.323043e+001 
4234375000  -5.681858e+001  -3.337905e+001 
4237500000  -5.688989e+001  -4.122033e+001 
4240625000  -5.422217e+001  -6.605926e+001 
4243750000  -5.797746e+001  -6.130302e+001 
4246875000  -5.837127e+001  -7.826931e+001 
4250000000  -5.630386e+001  -8.681220e+001 
4253125000  -5.504036e+001  -8.994719e+001 
4256250000  -5.612367e+001  -9.983754e+001 
4259375000  -5.426085e+001  -9.902723e+001 
4262500000  -5.596568e+001  -1.183175e+002 
4265625000  -5.419292e+001  -1.166068e+002 
4268750000  -5.203636e+001  -1.375170e+002 
4271875000  -5.302263e+001  -1.619411e+002 
4275000000  -5.083012e+001  -1.754921e+002 
4278125000  -5.216475e+001  1.729687e+002 
4281250000  -5.330722e+001  1.700781e+002 
4284375000  -5.420319e+001  1.545152e+002 
4287500000  -5.477844e+001  1.366555e+002 
4290625000  -5.627632e+001  1.407378e+002 
4293750000  -5.269852e+001  1.400248e+002 
4296875000  -5.222225e+001  1.210745e+002 
4300000000  -5.302948e+001  1.033383e+002 
4303125000  -5.325700e+001  1.070968e+002 
4306250000  -5.195907e+001  9.004263e+001 
4309375000  -5.117781e+001  8.357639e+001 
4312500000  -5.245555e+001  6.678416e+001 
4315625000  -5.213937e+001  4.911573e+001 
4318750000  -5.429261e+001  4.997111e+001 
4321875000  -5.357384e+001  3.532494e+001 
4325000000  -5.370440e+001  2.781562e+001 
4328125000  -5.202649e+001  2.622050e+001 
4331250000  -5.403282e+001  -6.188455e+000 
4334375000  -5.506725e+001  -1.563440e+001 
4337500000  -5.526270e+001  -2.286412e+001 
4340625000  -5.561067e+001  -2.149759e+001 
4343750000  -5.463270e+001  -3.231321e+001 
4346875000  -5.408033e+001  -3.091095e+001 
4350000000  -5.712154e+001  -6.162071e+001 
4353125000  -5.499254e+001  -6.459728e+001 
4356250000  -5.833788e+001  -5.631453e+001 
4359375000  -5.993100e+001  -4.339533e+001 
4362500000  -5.388342e+001  -7.415035e+001 
4365625000  -5.469109e+001  -9.634219e+001 
4368750000  -5.590427e+001  -1.074791e+002 
4371875000  -5.612370e+001  -1.134767e+002 
4375000000  -5.970702e+001  -9.684062e+001 
4378125000  -5.791296e+001  -1.097044e+002 
4381250000  -5.665702e+001  -1.286997e+002 
4384375000  -5.715679e+001  -1.486468e+002 
4387500000  -5.666447e+001  -1.545259e+002 
4390625000  -5.625307e+001  -1.466059e+002 
4393750000  -5.854193e+001  -1.479362e+002 
4396875000  -5.648259e+001  -1.529295e+002 
4400000000  -5.640075e+001  -1.629777e+002 
4403125000  -5.565823e+001  1.757882e+002 
4406250000  -5.716331e+001  -1.752227e+002 
4409375000  -5.441763e+001  1.654422e+002 
4412500000  -5.856761e+001  1.607234e+002 
4415625000  -5.555436e+001  1.722646e+002 
4418750000  -5.429892e+001  1.619819e+002 
