!Agilent Technologies,E8363B,MY43030201,A.06.04.32
!Agilent E8363B: A.06.04.32
!Date: Tuesday, November 11, 2014 22:09:18
!Correction: S21(Response(S21)) 
!S1P File: Measurement: S21:
# Hz S  dB   R 50
3000000000  -4.874534e+001  -7.712917e+001 
3003125000  -5.169820e+001  -8.235207e+001 
3006250000  -5.123373e+001  -8.977593e+001 
3009375000  -5.222074e+001  -8.835918e+001 
3012500000  -5.086336e+001  -9.738554e+001 
3015625000  -5.142287e+001  -1.116312e+002 
3018750000  -5.219846e+001  -1.110602e+002 
3021875000  -4.968055e+001  -1.200782e+002 
3025000000  -4.806046e+001  -1.311449e+002 
3028125000  -4.778988e+001  -1.437400e+002 
3031250000  -4.729422e+001  -1.624066e+002 
3034375000  -4.704370e+001  1.779852e+002 
3037500000  -4.766382e+001  1.641273e+002 
3040625000  -4.895430e+001  1.502012e+002 
3043750000  -4.964891e+001  1.401991e+002 
3046875000  -5.047869e+001  1.282283e+002 
3050000000  -5.219710e+001  1.232052e+002 
3053125000  -5.104604e+001  1.181423e+002 
3056250000  -5.087834e+001  1.225401e+002 
3059375000  -5.102935e+001  1.088969e+002 
3062500000  -4.903779e+001  9.995277e+001 
3065625000  -4.938617e+001  8.532298e+001 
3068750000  -4.936658e+001  7.579091e+001 
3071875000  -4.929200e+001  6.468839e+001 
3075000000  -4.885801e+001  5.370763e+001 
3078125000  -4.848363e+001  4.393953e+001 
3081250000  -4.910062e+001  3.311576e+001 
3084375000  -4.827910e+001  2.284829e+001 
3087500000  -4.817540e+001  1.095740e+001 
3090625000  -4.826046e+001  -8.733678e+000 
3093750000  -4.894630e+001  -1.709543e+001 
3096875000  -4.907285e+001  -2.431089e+001 
3100000000  -4.931916e+001  -3.472716e+001 
3103125000  -5.021274e+001  -4.289103e+001 
3106250000  -4.890249e+001  -5.258443e+001 
3109375000  -4.934051e+001  -6.245355e+001 
3112500000  -4.972515e+001  -6.997848e+001 
3115625000  -4.886335e+001  -8.190921e+001 
3118750000  -4.972876e+001  -8.907862e+001 
3121875000  -4.928506e+001  -1.035246e+002 
3125000000  -5.044921e+001  -1.069294e+002 
3128125000  -5.081824e+001  -1.109585e+002 
3131250000  -4.852584e+001  -1.186185e+002 
3134375000  -4.801070e+001  -1.429740e+002 
3137500000  -4.812988e+001  -1.551449e+002 
3140625000  -4.990008e+001  -1.618730e+002 
3143750000  -5.050959e+001  -1.673499e+002 
3146875000  -4.937466e+001  -1.743425e+002 
3150000000  -4.881910e+001  1.779619e+002 
3153125000  -4.898033e+001  1.637671e+002 
3156250000  -5.037651e+001  1.621841e+002 
3159375000  -4.804300e+001  1.547251e+002 
3162500000  -4.607380e+001  1.335506e+002 
3165625000  -4.773928e+001  1.195172e+002 
3168750000  -4.770023e+001  1.163955e+002 
3171875000  -4.742549e+001  1.009319e+002 
3175000000  -4.782804e+001  8.556956e+001 
3178125000  -4.733936e+001  8.040951e+001 
3181250000  -4.688425e+001  6.836816e+001 
3184375000  -4.625430e+001  5.082666e+001 
3187500000  -4.756407e+001  3.413657e+001 
3190625000  -4.943496e+001  1.789844e+001 
3193750000  -4.986941e+001  1.699667e+001 
3196875000  -4.981297e+001  1.725080e+001 
3200000000  -4.826965e+001  6.717360e+000 
3203125000  -4.830603e+001  -9.386860e+000 
3206250000  -4.830378e+001  -1.873337e+001 
3209375000  -4.821264e+001  -3.200393e+001 
3212500000  -4.886700e+001  -4.056603e+001 
3215625000  -4.818368e+001  -5.097155e+001 
3218750000  -4.894639e+001  -7.025082e+001 
3221875000  -4.933121e+001  -7.540664e+001 
3225000000  -4.941066e+001  -8.605818e+001 
3228125000  -5.033873e+001  -9.559681e+001 
3231250000  -5.088523e+001  -1.060603e+002 
3234375000  -5.010670e+001  -1.128190e+002 
3237500000  -5.033249e+001  -1.228253e+002 
3240625000  -4.989647e+001  -1.325640e+002 
3243750000  -4.949129e+001  -1.487727e+002 
3246875000  -4.977308e+001  -1.576439e+002 
3250000000  -5.052567e+001  -1.669598e+002 
3253125000  -5.171274e+001  -1.695601e+002 
3256250000  -5.043878e+001  1.758769e+002 
3259375000  -5.040445e+001  1.515745e+002 
3262500000  -5.290966e+001  1.487839e+002 
3265625000  -5.366462e+001  1.484317e+002 
3268750000  -5.311594e+001  1.405544e+002 
3271875000  -5.250787e+001  1.321561e+002 
3275000000  -5.221041e+001  1.210170e+002 
3278125000  -5.246657e+001  1.053614e+002 
3281250000  -5.311635e+001  1.009149e+002 
3284375000  -5.251799e+001  9.478542e+001 
3287500000  -5.389241e+001  7.577221e+001 
3290625000  -5.252287e+001  7.409158e+001 
3293750000  -5.262542e+001  5.645644e+001 
3296875000  -5.375230e+001  4.745949e+001 
3300000000  -5.461993e+001  4.589395e+001 
3303125000  -5.283343e+001  3.557285e+001 
3306250000  -5.419522e+001  2.283434e+001 
3309375000  -5.315620e+001  1.564618e+001 
3312500000  -5.328399e+001  -4.111876e+000 
3315625000  -5.514515e+001  -1.666724e+001 
3318750000  -5.583219e+001  -2.105730e+001 
3321875000  -5.735324e+001  -2.246073e+001 
3325000000  -5.697580e+001  -2.497298e+001 
3328125000  -5.689507e+001  -3.338342e+001 
3331250000  -5.329051e+001  -2.042113e+001 
3334375000  -5.159037e+001  -5.683408e+001 
3337500000  -5.209792e+001  -7.242622e+001 
3340625000  -5.327976e+001  -9.122314e+001 
3343750000  -5.741361e+001  -7.991611e+001 
3346875000  -5.543044e+001  -1.033936e+002 
3350000000  -5.461374e+001  -9.987732e+001 
3353125000  -5.408949e+001  -1.229176e+002 
3356250000  -5.483620e+001  -1.277076e+002 
3359375000  -5.468527e+001  -1.406137e+002 
3362500000  -5.526388e+001  -1.530592e+002 
3365625000  -5.522305e+001  -1.621041e+002 
3368750000  -5.791583e+001  -1.737563e+002 
3371875000  -5.659060e+001  1.733266e+002 
3375000000  -5.756784e+001  1.688213e+002 
3378125000  -5.900325e+001  1.669007e+002 
3381250000  -6.130196e+001  1.671759e+002 
3384375000  -5.831770e+001  1.771356e+002 
3387500000  -5.285793e+001  1.495357e+002 
3390625000  -5.673693e+001  1.290263e+002 
3393750000  -5.714202e+001  1.094261e+002 
3396875000  -5.719634e+001  1.219356e+002 
3400000000  -5.553461e+001  9.856281e+001 
3403125000  -5.797492e+001  7.611734e+001 
3406250000  -5.724197e+001  8.465852e+001 
3409375000  -5.616175e+001  4.907125e+001 
3412500000  -5.867900e+001  4.908689e+001 
3415625000  -6.077645e+001  5.300283e+001 
3418750000  -5.992363e+001  4.671914e+001 
3421875000  -6.039683e+001  2.783868e+001 
3425000000  -5.855800e+001  2.859429e+001 
3428125000  -5.898915e+001  3.822044e+000 
3431250000  -6.022693e+001  -6.194440e+000 
3434375000  -5.961317e+001  -7.393451e+000 
3437500000  -6.498427e+001  -1.417749e+001 
3440625000  -5.981194e+001  -1.842687e+001 
3443750000  -6.133642e+001  -3.167741e+001 
3446875000  -5.850432e+001  -5.139733e+001 
3450000000  -5.926730e+001  -6.998772e+001 
3453125000  -6.682180e+001  -8.514213e+001 
3456250000  -6.482298e+001  -1.207091e+002 
3459375000  -6.322789e+001  -9.452199e+001 
3462500000  -6.632408e+001  -9.636785e+001 
3465625000  -6.502798e+001  -1.221570e+002 
3468750000  -6.557564e+001  -1.293743e+002 
3471875000  -6.481036e+001  -1.333079e+002 
3475000000  -6.593431e+001  -1.343600e+002 
3478125000  -6.871107e+001  -8.374083e+001 
3481250000  -6.937523e+001  -1.262213e+002 
3484375000  -6.681804e+001  -1.167825e+002 
3487500000  -7.027319e+001  -1.356659e+002 
3490625000  -6.697459e+001  -1.312760e+002 
3493750000  -6.776723e+001  -1.419667e+002 
3496875000  -6.550889e+001  -1.328220e+002 
3500000000  -6.893344e+001  -1.518200e+002 
3503125000  -6.497984e+001  -1.540294e+002 
3506250000  -6.539905e+001  1.779117e+002 
3509375000  -6.391012e+001  1.523236e+002 
3512500000  -6.348923e+001  1.608474e+002 
3515625000  -6.833494e+001  1.581909e+002 
3518750000  -6.891109e+001  1.349413e+002 
3521875000  -6.686753e+001  1.463813e+002 
3525000000  -6.670673e+001  1.383696e+002 
3528125000  -6.419994e+001  1.171520e+002 
3531250000  -6.502586e+001  1.142766e+002 
3534375000  -6.795368e+001  1.088600e+002 
3537500000  -6.461125e+001  9.073812e+001 
3540625000  -6.981051e+001  1.597346e+002 
3543750000  -8.218947e+001  -8.444142e+001 
3546875000  -7.045117e+001  9.672211e+001 
3550000000  -7.098492e+001  7.872133e+001 
3553125000  -7.193734e+001  9.095617e+001 
3556250000  -7.759305e+001  1.099133e+002 
3559375000  -6.883922e+001  2.571023e+001 
3562500000  -7.089504e+001  2.052061e+000 
3565625000  -7.201302e+001  1.854913e+000 
3568750000  -7.178122e+001  7.726505e+001 
3571875000  -7.377849e+001  6.337767e+000 
3575000000  -7.109412e+001  -1.448495e+001 
3578125000  -7.071677e+001  1.898474e+001 
3581250000  -6.891528e+001  8.031772e+000 
3584375000  -7.035625e+001  2.689912e+001 
3587500000  -7.246272e+001  -6.871651e+001 
3590625000  -6.651358e+001  -1.412970e+001 
3593750000  -6.617343e+001  -7.651963e+000 
3596875000  -6.691554e+001  2.236695e+001 
3600000000  -7.180047e+001  -1.506007e+001 
3603125000  -6.569600e+001  -4.475906e+000 
3606250000  -6.236631e+001  -4.159001e+001 
3609375000  -6.598109e+001  -4.631400e+001 
3612500000  -6.505491e+001  -4.813670e+001 
3615625000  -7.247824e+001  -3.269524e+001 
3618750000  -6.204216e+001  -7.285473e+001 
3621875000  -6.694615e+001  -9.220731e+001 
3625000000  -6.716870e+001  -7.148698e+001 
3628125000  -6.293834e+001  -1.113363e+002 
3631250000  -6.228851e+001  -1.005082e+002 
3634375000  -6.171835e+001  -1.260734e+002 
3637500000  -6.498170e+001  -1.312318e+002 
3640625000  -6.005072e+001  -1.273772e+002 
3643750000  -6.203224e+001  -1.423386e+002 
3646875000  -5.905867e+001  -1.635468e+002 
3650000000  -6.127007e+001  1.723722e+002 
3653125000  -6.324150e+001  1.725504e+002 
3656250000  -6.430796e+001  1.516846e+002 
3659375000  -6.488348e+001  1.697649e+002 
3662500000  -6.588736e+001  1.282428e+002 
3665625000  -6.524451e+001  1.376304e+002 
3668750000  -6.228093e+001  1.476121e+002 
3671875000  -6.598386e+001  1.129555e+002 
3675000000  -6.523498e+001  8.545859e+001 
3678125000  -6.318446e+001  1.196582e+002 
3681250000  -6.254892e+001  9.566134e+001 
3684375000  -6.832536e+001  1.144022e+002 
3687500000  -6.652058e+001  7.414811e+001 
3690625000  -6.833560e+001  1.001358e+002 
3693750000  -6.673975e+001  1.197852e+002 
3696875000  -6.433506e+001  8.849398e+001 
3700000000  -6.132094e+001  7.509911e+001 
3703125000  -6.700448e+001  3.637335e+001 
3706250000  -6.285173e+001  6.720828e+001 
3709375000  -6.775721e+001  3.373069e+001 
3712500000  -5.965223e+001  4.838203e+001 
3715625000  -6.235882e+001  3.949017e+001 
3718750000  -6.041918e+001  2.243814e+001 
3721875000  -6.090683e+001  1.380953e+001 
3725000000  -6.214750e+001  2.436414e+001 
3728125000  -5.997104e+001  1.994944e+001 
3731250000  -5.826046e+001  -5.614999e+000 
3734375000  -5.950508e+001  -2.090803e+001 
3737500000  -6.031101e+001  -2.041919e+001 
3740625000  -5.827304e+001  -6.119771e+001 
3743750000  -6.145002e+001  -5.841896e+001 
3746875000  -5.904854e+001  -7.370348e+001 
3750000000  -5.757965e+001  -8.472609e+001 
3753125000  -5.998637e+001  -7.953509e+001 
3756250000  -5.918881e+001  -1.038487e+002 
3759375000  -5.862031e+001  -1.087272e+002 
3762500000  -5.864489e+001  -1.156949e+002 
3765625000  -5.985931e+001  -1.230308e+002 
3768750000  -5.756771e+001  -1.269624e+002 
3771875000  -5.628377e+001  -1.518645e+002 
3775000000  -5.594808e+001  -1.543665e+002 
3778125000  -5.739709e+001  1.773355e+002 
3781250000  -5.649284e+001  1.614626e+002 
3784375000  -5.726136e+001  1.622453e+002 
3787500000  -5.611665e+001  1.492618e+002 
3790625000  -5.671851e+001  1.328845e+002 
3793750000  -5.796610e+001  1.276673e+002 
3796875000  -5.801403e+001  1.128732e+002 
3800000000  -5.273269e+001  7.549866e+001 
3803125000  -5.621554e+001  1.011833e+002 
3806250000  -5.841921e+001  8.477367e+001 
3809375000  -5.882787e+001  8.765626e+001 
3812500000  -5.871684e+001  5.216804e+001 
3815625000  -6.189583e+001  5.364996e+001 
3818750000  -6.368206e+001  3.277834e+001 
3821875000  -6.093730e+001  5.827225e+001 
3825000000  -5.829549e+001  3.445731e+001 
3828125000  -5.663364e+001  2.197478e+001 
3831250000  -5.798133e+001  1.109707e+000 
3834375000  -6.390863e+001  -1.071525e+001 
3837500000  -6.436816e+001  4.423673e+000 
3840625000  -5.909320e+001  -3.598951e+000 
3843750000  -5.771390e+001  -2.660837e+000 
3846875000  -6.648486e+001  -2.772129e+001 
3850000000  -6.388009e+001  -1.714948e+001 
3853125000  -6.167681e+001  -2.308479e+001 
3856250000  -5.774083e+001  -5.510596e-001 
3859375000  -6.054844e+001  -9.749936e+000 
3862500000  -6.165097e+001  -3.813747e+001 
3865625000  -5.799877e+001  -5.035262e+001 
3868750000  -5.915491e+001  -5.876499e+001 
3871875000  -5.638643e+001  -6.541413e+001 
3875000000  -5.822593e+001  -6.697491e+001 
3878125000  -5.798171e+001  -9.632171e+001 
3881250000  -5.806266e+001  -9.249239e+001 
3884375000  -5.601900e+001  -9.425883e+001 
3887500000  -5.782392e+001  -1.185981e+002 
3890625000  -5.573353e+001  -1.230503e+002 
3893750000  -5.686202e+001  -1.331801e+002 
3896875000  -5.678493e+001  -1.246333e+002 
3900000000  -5.529597e+001  -1.495225e+002 
3903125000  -5.491138e+001  -1.566479e+002 
3906250000  -5.400010e+001  -1.711409e+002 
3909375000  -5.398260e+001  1.714273e+002 
3912500000  -5.495115e+001  1.626071e+002 
3915625000  -5.490792e+001  1.527489e+002 
3918750000  -5.429794e+001  1.512139e+002 
3921875000  -5.531528e+001  1.420410e+002 
3925000000  -5.343874e+001  1.280138e+002 
3928125000  -5.288088e+001  1.112645e+002 
3931250000  -5.445560e+001  1.011686e+002 
3934375000  -5.407576e+001  8.747585e+001 
3937500000  -5.529699e+001  8.346692e+001 
3940625000  -5.424815e+001  6.825049e+001 
3943750000  -5.429053e+001  6.116848e+001 
3946875000  -5.335947e+001  5.435706e+001 
3950000000  -5.455917e+001  4.348578e+001 
3953125000  -5.484026e+001  2.593201e+001 
3956250000  -5.374765e+001  1.890409e+001 
3959375000  -5.265538e+001  1.443646e+001 
3962500000  -5.227436e+001  -8.717619e+000 
3965625000  -5.325019e+001  -3.017784e+001 
3968750000  -5.435438e+001  -4.202539e+001 
3971875000  -5.414090e+001  -4.736850e+001 
3975000000  -5.376799e+001  -5.265905e+001 
3978125000  -5.393486e+001  -6.139235e+001 
3981250000  -5.557026e+001  -6.814870e+001 
3984375000  -5.531350e+001  -7.751688e+001 
3987500000  -5.580254e+001  -8.879860e+001 
3990625000  -5.804089e+001  -1.081388e+002 
3993750000  -5.651699e+001  -1.194039e+002 
3996875000  -5.943322e+001  -1.204441e+002 
4000000000  -6.030371e+001  -1.472782e+002 
4003125000  -5.853976e+001  -1.299207e+002 
4006250000  -5.799542e+001  -1.288192e+002 
4009375000  -5.875436e+001  -1.611398e+002 
4012500000  -6.050352e+001  1.781510e+002 
4015625000  -5.944658e+001  -1.627209e+002 
4018750000  -6.073034e+001  -1.610209e+002 
4021875000  -6.039693e+001  1.791713e+002 
4025000000  -5.928873e+001  1.675502e+002 
4028125000  -5.992319e+001  1.794601e+002 
4031250000  -6.043535e+001  1.710551e+002 
4034375000  -5.845674e+001  1.554733e+002 
4037500000  -5.882662e+001  1.496257e+002 
4040625000  -5.950130e+001  1.406043e+002 
4043750000  -5.610151e+001  1.417449e+002 
4046875000  -5.710825e+001  1.388549e+002 
4050000000  -5.582824e+001  1.298600e+002 
4053125000  -5.889963e+001  1.004650e+002 
4056250000  -5.723751e+001  1.207995e+002 
4059375000  -5.581118e+001  1.060304e+002 
4062500000  -5.401024e+001  1.013764e+002 
4065625000  -5.362426e+001  8.314944e+001 
4068750000  -5.491607e+001  6.737447e+001 
4071875000  -5.351861e+001  5.802968e+001 
4075000000  -5.432072e+001  3.386028e+001 
4078125000  -5.251569e+001  4.218055e+001 
4081250000  -5.291419e+001  2.124363e+001 
4084375000  -5.206427e+001  8.234114e+000 
4087500000  -5.356147e+001  -1.281343e+001 
4090625000  -5.416492e+001  -6.635949e+000 
4093750000  -5.267909e+001  -2.275785e+001 
4096875000  -5.285035e+001  -4.066991e+001 
4100000000  -5.319612e+001  -5.001646e+001 
4103125000  -5.476271e+001  -4.848068e+001 
4106250000  -5.365250e+001  -5.984438e+001 
4109375000  -5.472893e+001  -5.898318e+001 
4112500000  -5.197326e+001  -8.850014e+001 
4115625000  -5.350487e+001  -8.965475e+001 
4118750000  -5.277849e+001  -1.055763e+002 
4121875000  -5.207320e+001  -1.222330e+002 
4125000000  -5.392415e+001  -1.226859e+002 
4128125000  -5.446632e+001  -1.265081e+002 
4131250000  -5.308942e+001  -1.342865e+002 
4134375000  -5.181996e+001  -1.566248e+002 
4137500000  -5.352054e+001  -1.712281e+002 
4140625000  -5.441607e+001  1.720340e+002 
4143750000  -5.831647e+001  1.727237e+002 
4146875000  -5.456123e+001  1.709602e+002 
4150000000  -5.394632e+001  1.551515e+002 
4153125000  -5.477971e+001  1.475039e+002 
4156250000  -5.580377e+001  1.234385e+002 
4159375000  -5.514071e+001  1.327353e+002 
4162500000  -5.723517e+001  1.123403e+002 
4165625000  -5.472374e+001  1.130555e+002 
4168750000  -5.461731e+001  8.547459e+001 
4171875000  -5.497578e+001  6.752757e+001 
4175000000  -5.613786e+001  5.174384e+001 
4178125000  -5.755429e+001  5.464558e+001 
4181250000  -5.906923e+001  3.223703e+001 
4184375000  -6.143387e+001  4.407581e+001 
4187500000  -5.863792e+001  3.166762e+001 
4190625000  -6.110615e+001  1.440619e+001 
4193750000  -5.881628e+001  1.006809e+001 
4196875000  -6.877430e+001  3.235672e+000 
4200000000  -6.315582e+001  1.935997e+001 
4203125000  -6.531282e+001  2.804075e+001 
4206250000  -6.106308e+001  3.383442e+001 
4209375000  -6.082567e+001  1.012877e+001 
4212500000  -6.373041e+001  -5.273282e+000 
4215625000  -6.265964e+001  -4.161931e+001 
4218750000  -6.185779e+001  -3.554616e+000 
4221875000  -5.897430e+001  -1.226165e+001 
4225000000  -6.268682e+001  -3.284665e+001 
4228125000  -6.010020e+001  -4.026359e+001 
4231250000  -5.912125e+001  -3.781301e+001 
4234375000  -5.882121e+001  -5.789943e+001 
4237500000  -6.130752e+001  -4.418790e+001 
4240625000  -5.575549e+001  -7.797738e+001 
4243750000  -5.811341e+001  -7.215764e+001 
4246875000  -5.777530e+001  -9.578551e+001 
4250000000  -5.773791e+001  -7.804103e+001 
4253125000  -5.489697e+001  -9.436368e+001 
4256250000  -5.687003e+001  -1.027377e+002 
4259375000  -5.649759e+001  -1.078224e+002 
4262500000  -5.627161e+001  -1.345538e+002 
4265625000  -5.471062e+001  -1.253259e+002 
4268750000  -5.381355e+001  -1.518118e+002 
4271875000  -5.078857e+001  -1.610515e+002 
4275000000  -5.129680e+001  1.771349e+002 
4278125000  -5.494043e+001  1.609175e+002 
4281250000  -5.424052e+001  1.571991e+002 
4284375000  -5.524079e+001  1.552523e+002 
4287500000  -5.427597e+001  1.457654e+002 
4290625000  -5.507909e+001  1.477495e+002 
4293750000  -5.254734e+001  1.380099e+002 
4296875000  -5.106903e+001  1.217705e+002 
4300000000  -5.322427e+001  1.071270e+002 
4303125000  -5.334583e+001  9.805612e+001 
4306250000  -5.271397e+001  9.522241e+001 
4309375000  -5.158225e+001  7.766471e+001 
4312500000  -5.123692e+001  5.794478e+001 
4315625000  -5.249699e+001  5.258862e+001 
4318750000  -5.344294e+001  4.267247e+001 
4321875000  -5.244781e+001  3.762853e+001 
4325000000  -5.244954e+001  2.223979e+001 
4328125000  -5.120196e+001  5.090137e+000 
4331250000  -5.475658e+001  -1.412409e+001 
4334375000  -5.507800e+001  -1.713522e+001 
4337500000  -5.521137e+001  -3.014613e+001 
4340625000  -5.436887e+001  -3.473502e+001 
4343750000  -5.523241e+001  -4.566664e+001 
4346875000  -5.536802e+001  -3.805804e+001 
4350000000  -5.577218e+001  -6.728024e+001 
4353125000  -5.792147e+001  -8.101643e+001 
4356250000  -5.619515e+001  -9.505654e+001 
4359375000  -5.622817e+001  -4.230842e+001 
4362500000  -5.486797e+001  -7.884664e+001 
4365625000  -5.623388e+001  -1.145868e+002 
4368750000  -5.592645e+001  -1.053581e+002 
4371875000  -5.661994e+001  -1.078481e+002 
4375000000  -5.684133e+001  -1.102835e+002 
4378125000  -5.626802e+001  -1.219558e+002 
4381250000  -5.773328e+001  -1.343914e+002 
4384375000  -5.596570e+001  -1.449971e+002 
4387500000  -5.738097e+001  -1.378427e+002 
4390625000  -5.781591e+001  -1.533271e+002 
4393750000  -5.773405e+001  -1.500058e+002 
4396875000  -5.530334e+001  -1.578146e+002 
4400000000  -5.698107e+001  1.796293e+002 
4403125000  -5.696407e+001  1.767167e+002 
4406250000  -5.649068e+001  1.745531e+002 
4409375000  -5.433655e+001  1.741546e+002 
4412500000  -5.857728e+001  1.554382e+002 
4415625000  -5.672599e+001  1.561940e+002 
4418750000  -5.467072e+001  1.528137e+002 
