!Agilent Technologies,E8363B,MY43030201,A.06.04.32
!Agilent E8363B: A.06.04.32
!Date: Tuesday, November 11, 2014 22:16:32
!Correction: S21(Response(S21)) 
!S1P File: Measurement: S21:
# Hz S  dB   R 50
3000000000  -4.877536e+001  -7.259705e+001 
3003125000  -5.173304e+001  -8.022337e+001 
3006250000  -5.156733e+001  -8.348629e+001 
3009375000  -5.171085e+001  -8.475048e+001 
3012500000  -5.154381e+001  -9.595863e+001 
3015625000  -5.121527e+001  -1.069893e+002 
3018750000  -5.183071e+001  -1.148502e+002 
3021875000  -4.965422e+001  -1.146708e+002 
3025000000  -4.851919e+001  -1.259256e+002 
3028125000  -4.819990e+001  -1.420436e+002 
3031250000  -4.722540e+001  -1.607467e+002 
3034375000  -4.721062e+001  -1.791830e+002 
3037500000  -4.790442e+001  1.670541e+002 
3040625000  -4.902977e+001  1.506586e+002 
3043750000  -4.963472e+001  1.426248e+002 
3046875000  -5.031382e+001  1.321957e+002 
3050000000  -5.099279e+001  1.252734e+002 
3053125000  -5.121053e+001  1.229749e+002 
3056250000  -5.091857e+001  1.228502e+002 
3059375000  -5.028859e+001  1.128587e+002 
3062500000  -4.957272e+001  1.068592e+002 
3065625000  -4.926707e+001  8.585419e+001 
3068750000  -4.929340e+001  7.770649e+001 
3071875000  -4.931194e+001  6.530567e+001 
3075000000  -4.835445e+001  5.707057e+001 
3078125000  -4.830616e+001  4.805001e+001 
3081250000  -4.883363e+001  3.401653e+001 
3084375000  -4.828741e+001  2.635578e+001 
3087500000  -4.834286e+001  1.333770e+001 
3090625000  -4.794495e+001  -5.037517e+000 
3093750000  -4.902991e+001  -1.510665e+001 
3096875000  -4.939997e+001  -2.397940e+001 
3100000000  -4.937956e+001  -3.369690e+001 
3103125000  -4.982337e+001  -3.875822e+001 
3106250000  -4.892861e+001  -4.745897e+001 
3109375000  -4.924548e+001  -5.740090e+001 
3112500000  -4.947488e+001  -6.646446e+001 
3115625000  -4.939842e+001  -7.627499e+001 
3118750000  -4.934629e+001  -8.453014e+001 
3121875000  -4.884461e+001  -1.005795e+002 
3125000000  -5.101456e+001  -1.042255e+002 
3128125000  -5.091895e+001  -1.058165e+002 
3131250000  -4.850948e+001  -1.144248e+002 
3134375000  -4.765462e+001  -1.340489e+002 
3137500000  -4.880609e+001  -1.524980e+002 
3140625000  -4.965292e+001  -1.627273e+002 
3143750000  -5.021418e+001  -1.684763e+002 
3146875000  -4.985527e+001  -1.718359e+002 
3150000000  -4.899231e+001  -1.768493e+002 
3153125000  -4.932570e+001  1.676270e+002 
3156250000  -5.045595e+001  1.672660e+002 
3159375000  -4.794113e+001  1.610358e+002 
3162500000  -4.631069e+001  1.372518e+002 
3165625000  -4.759024e+001  1.227016e+002 
3168750000  -4.743612e+001  1.181982e+002 
3171875000  -4.692699e+001  1.040291e+002 
3175000000  -4.743703e+001  8.880177e+001 
3178125000  -4.762011e+001  8.313991e+001 
3181250000  -4.675889e+001  6.866203e+001 
3184375000  -4.639813e+001  5.378679e+001 
3187500000  -4.758716e+001  3.461795e+001 
3190625000  -4.971873e+001  2.096016e+001 
3193750000  -4.955976e+001  2.330949e+001 
3196875000  -4.971201e+001  1.798791e+001 
3200000000  -4.830359e+001  8.392354e+000 
3203125000  -4.821946e+001  -2.008877e+000 
3206250000  -4.843200e+001  -1.429207e+001 
3209375000  -4.837949e+001  -2.664129e+001 
3212500000  -4.882689e+001  -4.012728e+001 
3215625000  -4.824107e+001  -4.202783e+001 
3218750000  -4.929249e+001  -6.220628e+001 
3221875000  -4.952721e+001  -7.540125e+001 
3225000000  -4.990993e+001  -8.236463e+001 
3228125000  -4.975443e+001  -9.068600e+001 
3231250000  -5.091113e+001  -1.012637e+002 
3234375000  -4.995155e+001  -1.056706e+002 
3237500000  -5.070348e+001  -1.180488e+002 
3240625000  -4.996778e+001  -1.283271e+002 
3243750000  -4.949942e+001  -1.416305e+002 
3246875000  -5.046941e+001  -1.553838e+002 
3250000000  -5.087870e+001  -1.639822e+002 
3253125000  -5.063840e+001  -1.679935e+002 
3256250000  -5.064377e+001  1.747869e+002 
3259375000  -5.106206e+001  1.619515e+002 
3262500000  -5.211271e+001  1.518972e+002 
3265625000  -5.316454e+001  1.468471e+002 
3268750000  -5.315350e+001  1.434909e+002 
3271875000  -5.215059e+001  1.311814e+002 
3275000000  -5.352433e+001  1.266637e+002 
3278125000  -5.253507e+001  1.079908e+002 
3281250000  -5.328872e+001  1.074147e+002 
3284375000  -5.183190e+001  9.457513e+001 
3287500000  -5.367348e+001  9.042885e+001 
3290625000  -5.345615e+001  7.312578e+001 
3293750000  -5.282451e+001  5.856947e+001 
3296875000  -5.390810e+001  5.694201e+001 
3300000000  -5.411427e+001  5.270441e+001 
3303125000  -5.236534e+001  4.608760e+001 
3306250000  -5.384322e+001  2.363099e+001 
3309375000  -5.361274e+001  1.993361e+001 
3312500000  -5.357626e+001  1.848002e+000 
3315625000  -5.436792e+001  -1.208411e+001 
3318750000  -5.501937e+001  -1.627565e+001 
3321875000  -5.697624e+001  -2.056213e+001 
3325000000  -5.723368e+001  -2.631507e+001 
3328125000  -5.672456e+001  -1.685187e+001 
3331250000  -5.461822e+001  -2.408503e+001 
3334375000  -5.214771e+001  -4.989537e+001 
3337500000  -5.233493e+001  -7.116165e+001 
3340625000  -5.388170e+001  -8.883727e+001 
3343750000  -5.607704e+001  -8.216283e+001 
3346875000  -5.486916e+001  -9.592198e+001 
3350000000  -5.500422e+001  -9.408669e+001 
3353125000  -5.436594e+001  -1.145486e+002 
3356250000  -5.437990e+001  -1.310510e+002 
3359375000  -5.465379e+001  -1.427357e+002 
3362500000  -5.712879e+001  -1.474926e+002 
3365625000  -5.597050e+001  -1.658451e+002 
3368750000  -5.681255e+001  -1.716125e+002 
3371875000  -5.658105e+001  -1.799538e+002 
3375000000  -5.963858e+001  1.597090e+002 
3378125000  -6.030476e+001  1.773562e+002 
3381250000  -6.564771e+001  1.433484e+002 
3384375000  -5.722161e+001  -1.701983e+002 
3387500000  -5.403459e+001  1.486551e+002 
3390625000  -5.698239e+001  1.258380e+002 
3393750000  -5.712659e+001  1.174402e+002 
3396875000  -5.656601e+001  1.257983e+002 
3400000000  -5.570565e+001  9.654316e+001 
3403125000  -5.628630e+001  8.435088e+001 
3406250000  -5.753987e+001  8.754059e+001 
3409375000  -5.662700e+001  5.400672e+001 
3412500000  -5.740918e+001  6.050425e+001 
3415625000  -5.983317e+001  4.505042e+001 
3418750000  -5.939124e+001  4.638935e+001 
3421875000  -6.152565e+001  2.886547e+001 
3425000000  -5.927032e+001  2.363351e+001 
3428125000  -5.846288e+001  1.512904e+001 
3431250000  -6.498768e+001  -6.788799e+000 
3434375000  -5.991831e+001  -2.801182e+001 
3437500000  -6.276955e+001  -1.815392e+001 
3440625000  -6.026073e+001  -2.672832e+001 
3443750000  -6.479158e+001  -1.985371e+001 
3446875000  -6.006525e+001  -7.381269e+001 
3450000000  -6.182076e+001  -6.573897e+001 
3453125000  -6.426520e+001  -7.905913e+001 
3456250000  -6.909035e+001  -1.108729e+002 
3459375000  -6.565930e+001  -5.943972e+001 
3462500000  -6.570785e+001  -1.021554e+002 
3465625000  -6.678087e+001  -1.023497e+002 
3468750000  -6.433099e+001  -1.074036e+002 
3471875000  -6.591779e+001  -9.697709e+001 
3475000000  -6.969625e+001  -1.375695e+002 
3478125000  -6.718241e+001  1.774976e+002 
3481250000  -6.619279e+001  -1.775749e+002 
3484375000  -7.236382e+001  -1.224612e+002 
3487500000  -6.555657e+001  -1.369641e+002 
3490625000  -7.058781e+001  -1.582260e+002 
3493750000  -6.953407e+001  -1.456444e+002 
3496875000  -7.232117e+001  -1.707011e+002 
3500000000  -6.410239e+001  -1.624018e+002 
3503125000  -6.740086e+001  -1.627909e+002 
3506250000  -6.383249e+001  -1.792756e+002 
3509375000  -6.747196e+001  -1.557169e+002 
3512500000  -6.682952e+001  1.477244e+002 
3515625000  -6.536564e+001  1.430115e+002 
3518750000  -6.813708e+001  1.147614e+002 
3521875000  -6.482173e+001  1.040781e+002 
3525000000  -6.214811e+001  1.062696e+002 
3528125000  -6.790197e+001  1.268272e+002 
3531250000  -6.848568e+001  1.301428e+002 
3534375000  -6.971078e+001  1.094121e+002 
3537500000  -7.433660e+001  4.578310e+001 
3540625000  -6.463627e+001  7.343303e+001 
3543750000  -7.693007e+001  6.576100e+001 
3546875000  -8.163791e+001  1.110534e+002 
3550000000  -7.539236e+001  1.461419e+001 
3553125000  -6.806561e+001  1.072358e+001 
3556250000  -6.968432e+001  -4.202464e+001 
3559375000  -8.158371e+001  6.670151e+001 
3562500000  -7.111534e+001  4.585593e+001 
3565625000  -7.276576e+001  6.687015e+000 
3568750000  -7.101099e+001  -3.172829e+001 
3571875000  -7.165535e+001  8.102077e+001 
3575000000  -7.599186e+001  -7.813569e+001 
3578125000  -7.202722e+001  6.959865e+001 
3581250000  -7.953747e+001  1.634499e+001 
3584375000  -6.798898e+001  5.100349e+001 
3587500000  -7.973063e+001  1.143645e+002 
3590625000  -7.631960e+001  1.673986e+001 
3593750000  -7.165636e+001  -5.330061e+000 
3596875000  -6.468452e+001  3.290798e+001 
3600000000  -7.217951e+001  9.928123e+000 
3603125000  -6.452038e+001  -1.472858e+001 
3606250000  -6.831512e+001  -5.012086e+001 
3609375000  -6.464542e+001  -2.309075e+001 
3612500000  -6.102860e+001  -5.829847e+001 
3615625000  -7.175182e+001  -4.570415e+001 
3618750000  -6.455587e+001  -7.030851e+001 
3621875000  -6.415035e+001  -1.033697e+002 
3625000000  -6.124406e+001  -8.549483e+001 
3628125000  -6.477200e+001  -1.067584e+002 
3631250000  -6.260880e+001  -1.086809e+002 
3634375000  -6.255091e+001  -1.215679e+002 
3637500000  -6.282196e+001  -1.101566e+002 
3640625000  -6.063257e+001  -1.222317e+002 
3643750000  -6.412833e+001  -1.516083e+002 
3646875000  -6.421686e+001  -1.677912e+002 
3650000000  -6.266181e+001  -1.798026e+002 
3653125000  -6.511220e+001  1.699328e+002 
3656250000  -6.554082e+001  1.616783e+002 
3659375000  -6.158661e+001  1.772599e+002 
3662500000  -6.406664e+001  1.455365e+002 
3665625000  -6.157951e+001  1.367553e+002 
3668750000  -6.255205e+001  1.194213e+002 
3671875000  -6.221030e+001  1.110021e+002 
3675000000  -6.337546e+001  1.325826e+002 
3678125000  -6.506915e+001  1.311991e+002 
3681250000  -6.387271e+001  1.161076e+002 
3684375000  -6.504955e+001  1.088808e+002 
3687500000  -6.588165e+001  6.684457e+001 
3690625000  -6.773462e+001  1.049610e+002 
3693750000  -6.737201e+001  1.101686e+002 
3696875000  -6.584216e+001  6.140760e+001 
3700000000  -6.085411e+001  1.003713e+002 
3703125000  -6.880061e+001  5.565182e+001 
3706250000  -7.478703e+001  4.375835e+001 
3709375000  -6.730408e+001  6.346700e+001 
3712500000  -6.594582e+001  7.142291e+001 
3715625000  -6.104823e+001  3.901637e+001 
3718750000  -6.141096e+001  3.912343e+001 
3721875000  -6.194076e+001  3.217453e+001 
3725000000  -6.213809e+001  1.740498e+001 
3728125000  -5.895807e+001  -1.511344e+000 
3731250000  -6.141132e+001  -1.261433e+001 
3734375000  -6.057574e+001  1.960305e+000 
3737500000  -5.829390e+001  -3.226735e+001 
3740625000  -5.756404e+001  -3.815651e+001 
3743750000  -5.762695e+001  -5.597669e+001 
3746875000  -5.765683e+001  -6.168592e+001 
3750000000  -5.732022e+001  -7.969620e+001 
3753125000  -5.946983e+001  -7.178957e+001 
3756250000  -5.863644e+001  -8.987403e+001 
3759375000  -5.968780e+001  -1.097074e+002 
3762500000  -5.950114e+001  -1.153783e+002 
3765625000  -5.752405e+001  -1.230124e+002 
3768750000  -5.689116e+001  -1.294684e+002 
3771875000  -5.429655e+001  -1.468153e+002 
3775000000  -5.671730e+001  -1.563421e+002 
3778125000  -5.723311e+001  -1.764771e+002 
3781250000  -5.725119e+001  -1.704641e+002 
3784375000  -5.556490e+001  1.677587e+002 
3787500000  -5.659016e+001  1.547076e+002 
3790625000  -5.702105e+001  1.380719e+002 
3793750000  -5.816518e+001  1.401327e+002 
3796875000  -5.638210e+001  1.118500e+002 
3800000000  -5.291092e+001  8.233598e+001 
3803125000  -5.794536e+001  9.541465e+001 
3806250000  -5.896089e+001  8.886720e+001 
3809375000  -5.800515e+001  7.902415e+001 
3812500000  -5.884246e+001  5.474015e+001 
3815625000  -6.265295e+001  3.537455e+001 
3818750000  -6.142147e+001  5.683706e+001 
3821875000  -6.381004e+001  6.427888e+001 
3825000000  -5.915116e+001  5.958958e+001 
3828125000  -5.842376e+001  2.556103e+001 
3831250000  -5.987604e+001  -2.171606e+000 
3834375000  -6.323325e+001  1.422112e+001 
3837500000  -6.410381e+001  3.482914e+001 
3840625000  -6.037580e+001  1.206055e+001 
3843750000  -6.066857e+001  -9.209846e+000 
3846875000  -6.185958e+001  -7.604733e+000 
3850000000  -6.408754e+001  5.986657e+000 
3853125000  -5.945272e+001  -1.518421e+001 
3856250000  -6.352449e+001  -9.135377e+000 
3859375000  -6.057774e+001  -3.289504e+001 
3862500000  -5.789112e+001  -2.718718e+001 
3865625000  -6.012911e+001  -4.113118e+001 
3868750000  -6.049639e+001  -3.081809e+001 
3871875000  -5.804815e+001  -5.856750e+001 
3875000000  -6.156808e+001  -6.907167e+001 
3878125000  -5.845024e+001  -7.897433e+001 
3881250000  -5.819932e+001  -7.936182e+001 
3884375000  -5.552237e+001  -8.779407e+001 
3887500000  -5.572005e+001  -1.074212e+002 
3890625000  -5.757500e+001  -1.166749e+002 
3893750000  -5.525406e+001  -1.320600e+002 
3896875000  -5.702534e+001  -1.440373e+002 
3900000000  -5.701619e+001  -1.421515e+002 
3903125000  -5.364794e+001  -1.521176e+002 
3906250000  -5.397408e+001  -1.616918e+002 
3909375000  -5.496260e+001  1.778476e+002 
3912500000  -5.396227e+001  1.652087e+002 
3915625000  -5.545860e+001  1.565872e+002 
3918750000  -5.470066e+001  1.597875e+002 
3921875000  -5.531195e+001  1.578305e+002 
3925000000  -5.362266e+001  1.305387e+002 
3928125000  -5.278468e+001  1.102176e+002 
3931250000  -5.329248e+001  9.860761e+001 
3934375000  -5.458816e+001  9.009184e+001 
3937500000  -5.559491e+001  9.053254e+001 
3940625000  -5.394934e+001  7.472155e+001 
3943750000  -5.327751e+001  6.927231e+001 
3946875000  -5.341787e+001  4.866762e+001 
3950000000  -5.300836e+001  4.204988e+001 
3953125000  -5.462719e+001  3.652748e+001 
3956250000  -5.354021e+001  1.805942e+001 
3959375000  -5.244744e+001  1.299791e+001 
3962500000  -5.228957e+001  -3.994898e+000 
3965625000  -5.448176e+001  -1.188371e+001 
3968750000  -5.403356e+001  -2.183585e+001 
3971875000  -5.323079e+001  -3.776388e+001 
3975000000  -5.411713e+001  -4.910336e+001 
3978125000  -5.404633e+001  -5.389028e+001 
3981250000  -5.484109e+001  -8.172154e+001 
3984375000  -5.602684e+001  -8.899493e+001 
3987500000  -5.591183e+001  -8.487626e+001 
3990625000  -5.713379e+001  -9.789613e+001 
3993750000  -5.519440e+001  -1.156223e+002 
3996875000  -5.813983e+001  -1.197136e+002 
4000000000  -5.821432e+001  -1.286035e+002 
4003125000  -6.047873e+001  -1.272252e+002 
4006250000  -5.607961e+001  -1.476087e+002 
4009375000  -5.723904e+001  -1.504533e+002 
4012500000  -5.953100e+001  -1.670081e+002 
4015625000  -6.338142e+001  -1.589541e+002 
4018750000  -5.928785e+001  -1.689309e+002 
4021875000  -5.817171e+001  -1.727965e+002 
4025000000  -6.071750e+001  1.675219e+002 
4028125000  -5.860446e+001  1.746621e+002 
4031250000  -6.022042e+001  1.601806e+002 
4034375000  -6.042265e+001  1.589055e+002 
4037500000  -5.912363e+001  1.593161e+002 
4040625000  -5.861042e+001  1.394048e+002 
4043750000  -6.106751e+001  1.503463e+002 
4046875000  -5.875715e+001  1.439172e+002 
4050000000  -5.776415e+001  1.340706e+002 
4053125000  -5.876804e+001  1.079929e+002 
4056250000  -6.010386e+001  1.211862e+002 
4059375000  -5.458148e+001  1.141570e+002 
4062500000  -5.610312e+001  1.111497e+002 
4065625000  -5.486502e+001  8.931766e+001 
4068750000  -5.561745e+001  6.688381e+001 
4071875000  -5.219028e+001  5.527034e+001 
4075000000  -5.341384e+001  4.345989e+001 
4078125000  -5.399976e+001  3.987333e+001 
4081250000  -5.326468e+001  2.802045e+001 
4084375000  -5.285271e+001  3.011841e+000 
4087500000  -5.332937e+001  2.669966e+000 
4090625000  -5.340671e+001  -3.223682e+000 
4093750000  -5.272058e+001  -2.136332e+001 
4096875000  -5.271044e+001  -3.106446e+001 
4100000000  -5.444705e+001  -4.148397e+001 
4103125000  -5.399767e+001  -4.782558e+001 
4106250000  -5.350230e+001  -5.496640e+001 
4109375000  -5.316909e+001  -6.347393e+001 
4112500000  -5.165895e+001  -7.108787e+001 
4115625000  -5.446204e+001  -8.468075e+001 
4118750000  -5.187054e+001  -9.552722e+001 
4121875000  -5.305293e+001  -1.158107e+002 
4125000000  -5.297238e+001  -1.224666e+002 
4128125000  -5.465611e+001  -1.375151e+002 
4131250000  -5.364961e+001  -1.309380e+002 
4134375000  -5.170108e+001  -1.463402e+002 
4137500000  -5.233118e+001  -1.622621e+002 
4140625000  -5.421465e+001  -1.786862e+002 
4143750000  -5.794875e+001  -1.780877e+002 
4146875000  -5.420331e+001  1.711548e+002 
4150000000  -5.633359e+001  1.591221e+002 
4153125000  -5.404230e+001  1.496489e+002 
4156250000  -5.648482e+001  1.293810e+002 
4159375000  -5.565981e+001  1.358074e+002 
4162500000  -5.572106e+001  1.276088e+002 
4165625000  -5.419611e+001  1.281017e+002 
4168750000  -5.479845e+001  9.053732e+001 
4171875000  -5.492175e+001  9.097602e+001 
4175000000  -5.511045e+001  6.053848e+001 
4178125000  -5.913826e+001  8.584893e+001 
4181250000  -5.709664e+001  3.550404e+001 
4184375000  -6.003703e+001  1.841861e+001 
4187500000  -5.772577e+001  3.128446e+001 
4190625000  -6.139159e+001  1.159219e+001 
4193750000  -6.251421e+001  1.224142e+001 
4196875000  -6.324455e+001  2.175035e+001 
4200000000  -6.412660e+001  2.153368e+001 
4203125000  -6.281055e+001  2.546030e+001 
4206250000  -6.019106e+001  2.337663e+001 
4209375000  -5.913316e+001  -2.051438e+001 
4212500000  -6.037038e+001  2.405641e+000 
4215625000  -6.437476e+001  1.952927e+000 
4218750000  -6.670847e+001  1.610206e+001 
4221875000  -6.329966e+001  -2.622047e+001 
4225000000  -6.126529e+001  -3.754475e+001 
4228125000  -5.935538e+001  -1.757426e+001 
4231250000  -6.302194e+001  -2.017064e+001 
4234375000  -5.620704e+001  -3.289436e+001 
4237500000  -5.806139e+001  -3.258076e+001 
4240625000  -5.824139e+001  -7.043918e+001 
4243750000  -5.972293e+001  -7.095263e+001 
4246875000  -5.746655e+001  -6.222164e+001 
4250000000  -5.850259e+001  -8.083522e+001 
4253125000  -5.576079e+001  -7.865116e+001 
4256250000  -5.756298e+001  -8.232536e+001 
4259375000  -5.399653e+001  -9.796558e+001 
4262500000  -5.580363e+001  -1.280015e+002 
4265625000  -5.380610e+001  -1.242751e+002 
4268750000  -5.304416e+001  -1.539268e+002 
4271875000  -5.219528e+001  -1.517160e+002 
4275000000  -5.051675e+001  -1.704269e+002 
4278125000  -5.328793e+001  1.638913e+002 
4281250000  -5.424536e+001  1.534157e+002 
4284375000  -5.422567e+001  1.640801e+002 
4287500000  -5.492554e+001  1.409049e+002 
4290625000  -5.491792e+001  1.517230e+002 
4293750000  -5.404652e+001  1.476922e+002 
4296875000  -5.142207e+001  1.246376e+002 
4300000000  -5.196886e+001  1.204852e+002 
4303125000  -5.385731e+001  9.909225e+001 
4306250000  -5.365020e+001  1.104383e+002 
4309375000  -5.109442e+001  8.533274e+001 
4312500000  -5.238319e+001  6.994063e+001 
4315625000  -5.235306e+001  5.763626e+001 
4318750000  -5.339315e+001  4.258723e+001 
4321875000  -5.331031e+001  3.868787e+001 
4325000000  -5.145048e+001  2.500786e+001 
4328125000  -5.183441e+001  1.123865e+001 
4331250000  -5.469467e+001  -4.043810e+000 
4334375000  -5.395475e+001  -1.854021e+001 
4337500000  -5.621144e+001  -2.869263e+001 
4340625000  -5.574382e+001  -5.398482e+000 
4343750000  -5.616307e+001  -3.474581e+001 
4346875000  -5.482376e+001  -3.804367e+001 
4350000000  -5.485361e+001  -5.589901e+001 
4353125000  -5.592368e+001  -7.682960e+001 
4356250000  -5.956137e+001  -6.093296e+001 
4359375000  -5.737477e+001  -5.255604e+001 
4362500000  -5.633031e+001  -6.594125e+001 
4365625000  -5.602236e+001  -9.021465e+001 
4368750000  -5.526852e+001  -9.545827e+001 
4371875000  -5.833906e+001  -1.009090e+002 
4375000000  -5.670750e+001  -1.035479e+002 
4378125000  -5.652913e+001  -1.171347e+002 
4381250000  -5.800190e+001  -1.177813e+002 
4384375000  -5.632306e+001  -1.388890e+002 
4387500000  -5.648500e+001  -1.376830e+002 
4390625000  -5.879382e+001  -1.492660e+002 
4393750000  -5.755326e+001  -1.490459e+002 
4396875000  -5.520188e+001  -1.563038e+002 
4400000000  -5.568687e+001  -1.742601e+002 
4403125000  -5.526483e+001  -1.756197e+002 
4406250000  -5.712234e+001  -1.797005e+002 
4409375000  -5.510530e+001  1.753374e+002 
4412500000  -5.707091e+001  1.531762e+002 
4415625000  -5.537506e+001  1.648818e+002 
