!Agilent Technologies,E8363B,MY43030201,A.06.04.32
!Agilent E8363B: A.06.04.32
!Date: Tuesday, November 11, 2014 22:11:49
!Correction: S21(Response(S21)) 
!S1P File: Measurement: S21:
# Hz S  dB   R 50
3000000000  -4.896069e+001  -7.567735e+001 
3003125000  -5.149483e+001  -7.938248e+001 
3006250000  -5.174284e+001  -8.922974e+001 
3009375000  -5.183612e+001  -8.762228e+001 
3012500000  -5.111324e+001  -9.998959e+001 
3015625000  -5.157288e+001  -1.100857e+002 
3018750000  -5.187352e+001  -1.126683e+002 
3021875000  -4.991098e+001  -1.183985e+002 
3025000000  -4.824231e+001  -1.304534e+002 
3028125000  -4.787886e+001  -1.455410e+002 
3031250000  -4.761485e+001  -1.618978e+002 
3034375000  -4.690420e+001  1.783684e+002 
3037500000  -4.801133e+001  1.652578e+002 
3040625000  -4.938763e+001  1.542502e+002 
3043750000  -4.931847e+001  1.412776e+002 
3046875000  -5.096574e+001  1.288224e+002 
3050000000  -5.093438e+001  1.218364e+002 
3053125000  -5.137905e+001  1.184473e+002 
3056250000  -5.091110e+001  1.194072e+002 
3059375000  -5.077449e+001  1.071061e+002 
3062500000  -4.997725e+001  1.002489e+002 
3065625000  -4.956057e+001  8.691747e+001 
3068750000  -4.882752e+001  7.641923e+001 
3071875000  -4.934144e+001  6.743499e+001 
3075000000  -4.846465e+001  5.476985e+001 
3078125000  -4.849725e+001  4.460137e+001 
3081250000  -4.891107e+001  3.262807e+001 
3084375000  -4.800911e+001  2.551529e+001 
3087500000  -4.811376e+001  1.214022e+001 
3090625000  -4.769944e+001  -6.783518e+000 
3093750000  -4.856197e+001  -1.625921e+001 
3096875000  -4.944742e+001  -2.663544e+001 
3100000000  -4.924120e+001  -3.462463e+001 
3103125000  -5.039280e+001  -4.330583e+001 
3106250000  -4.908606e+001  -5.227888e+001 
3109375000  -5.001112e+001  -5.997697e+001 
3112500000  -4.976600e+001  -6.999319e+001 
3115625000  -4.923294e+001  -7.870829e+001 
3118750000  -4.919212e+001  -8.599268e+001 
3121875000  -4.925829e+001  -1.009868e+002 
3125000000  -5.074976e+001  -1.103643e+002 
3128125000  -4.996019e+001  -1.075062e+002 
3131250000  -4.863138e+001  -1.167569e+002 
3134375000  -4.756974e+001  -1.417319e+002 
3137500000  -4.874717e+001  -1.560099e+002 
3140625000  -4.939684e+001  -1.637231e+002 
3143750000  -5.029699e+001  -1.724123e+002 
3146875000  -4.932030e+001  -1.731445e+002 
3150000000  -4.926619e+001  1.770417e+002 
3153125000  -4.935723e+001  1.665988e+002 
3156250000  -5.031455e+001  1.631475e+002 
3159375000  -4.843460e+001  1.582363e+002 
3162500000  -4.657606e+001  1.350751e+002 
3165625000  -4.819151e+001  1.209459e+002 
3168750000  -4.771423e+001  1.158342e+002 
3171875000  -4.740159e+001  1.009652e+002 
3175000000  -4.743559e+001  9.023685e+001 
3178125000  -4.716891e+001  8.072944e+001 
3181250000  -4.664318e+001  6.633141e+001 
3184375000  -4.630960e+001  5.384439e+001 
3187500000  -4.735983e+001  3.276052e+001 
3190625000  -4.964902e+001  1.594294e+001 
3193750000  -4.962625e+001  2.165573e+001 
3196875000  -4.981879e+001  1.779100e+001 
3200000000  -4.863675e+001  9.270403e+000 
3203125000  -4.826424e+001  -5.791927e+000 
3206250000  -4.886264e+001  -1.696803e+001 
3209375000  -4.786082e+001  -3.157409e+001 
3212500000  -4.907137e+001  -4.168743e+001 
3215625000  -4.803462e+001  -4.986464e+001 
3218750000  -4.961740e+001  -6.420385e+001 
3221875000  -4.940400e+001  -7.746447e+001 
3225000000  -4.913721e+001  -8.887782e+001 
3228125000  -5.013223e+001  -9.586884e+001 
3231250000  -5.044363e+001  -1.080897e+002 
3234375000  -5.057011e+001  -1.134535e+002 
3237500000  -5.043744e+001  -1.198407e+002 
3240625000  -4.962898e+001  -1.293509e+002 
3243750000  -4.954954e+001  -1.460445e+002 
3246875000  -4.998944e+001  -1.576604e+002 
3250000000  -5.119836e+001  -1.697240e+002 
3253125000  -5.097309e+001  -1.730735e+002 
3256250000  -4.981766e+001  1.730535e+002 
3259375000  -5.150840e+001  1.542997e+002 
3262500000  -5.181952e+001  1.508006e+002 
3265625000  -5.332515e+001  1.411273e+002 
3268750000  -5.326272e+001  1.480725e+002 
3271875000  -5.258013e+001  1.359561e+002 
3275000000  -5.190644e+001  1.258023e+002 
3278125000  -5.242178e+001  1.043228e+002 
3281250000  -5.277365e+001  1.032761e+002 
3284375000  -5.175056e+001  9.025793e+001 
3287500000  -5.325776e+001  8.756994e+001 
3290625000  -5.316287e+001  7.417398e+001 
3293750000  -5.356180e+001  6.077103e+001 
3296875000  -5.390044e+001  5.813650e+001 
3300000000  -5.458474e+001  5.290493e+001 
3303125000  -5.271622e+001  3.162681e+001 
3306250000  -5.311570e+001  1.696932e+001 
3309375000  -5.353711e+001  1.222774e+001 
3312500000  -5.261176e+001  -4.451702e+000 
3315625000  -5.370287e+001  -7.637671e+000 
3318750000  -5.594910e+001  -1.708140e+001 
3321875000  -5.654885e+001  -1.734997e+001 
3325000000  -5.616860e+001  -1.769451e+001 
3328125000  -5.646662e+001  -2.736592e+001 
3331250000  -5.332324e+001  -2.971555e+001 
3334375000  -5.203635e+001  -4.916827e+001 
3337500000  -5.245892e+001  -7.297071e+001 
3340625000  -5.438234e+001  -8.556758e+001 
3343750000  -5.550427e+001  -8.061198e+001 
3346875000  -5.600354e+001  -1.014494e+002 
3350000000  -5.512600e+001  -9.906191e+001 
3353125000  -5.558545e+001  -1.222314e+002 
3356250000  -5.518289e+001  -1.241592e+002 
3359375000  -5.521513e+001  -1.454076e+002 
3362500000  -5.607474e+001  -1.449614e+002 
3365625000  -5.585847e+001  -1.615991e+002 
3368750000  -5.684281e+001  -1.722355e+002 
3371875000  -5.676419e+001  -1.776606e+002 
3375000000  -5.871611e+001  1.651465e+002 
3378125000  -5.818431e+001  1.689472e+002 
3381250000  -6.113912e+001  1.644321e+002 
3384375000  -5.659418e+001  1.767977e+002 
3387500000  -5.421572e+001  1.443021e+002 
3390625000  -5.780707e+001  1.244928e+002 
3393750000  -5.748394e+001  1.101377e+002 
3396875000  -5.710557e+001  1.149334e+002 
3400000000  -5.633303e+001  9.790102e+001 
3403125000  -5.701184e+001  8.252171e+001 
3406250000  -5.709068e+001  8.043417e+001 
3409375000  -5.731254e+001  6.183368e+001 
3412500000  -5.699174e+001  5.929848e+001 
3415625000  -6.113485e+001  3.726940e+001 
3418750000  -5.932187e+001  3.803619e+001 
3421875000  -5.996896e+001  1.991367e+001 
3425000000  -5.963976e+001  2.702743e+001 
3428125000  -5.878655e+001  3.886683e+000 
3431250000  -5.956363e+001  -8.652103e+000 
3434375000  -5.967001e+001  -2.494679e+001 
3437500000  -6.333356e+001  -1.492987e+001 
3440625000  -6.051042e+001  -1.696981e+001 
3443750000  -6.063340e+001  -2.184227e+001 
3446875000  -5.909435e+001  -4.166805e+001 
3450000000  -6.150775e+001  -5.848298e+001 
3453125000  -6.307627e+001  -6.860438e+001 
3456250000  -6.830213e+001  -8.962806e+001 
3459375000  -6.658158e+001  -7.447739e+001 
3462500000  -6.638348e+001  -9.666479e+001 
3465625000  -6.542265e+001  -1.057799e+002 
3468750000  -7.345196e+001  -1.202939e+002 
3471875000  -6.345628e+001  -9.998332e+001 
3475000000  -6.913362e+001  -1.045031e+002 
3478125000  -6.702579e+001  -1.059355e+002 
3481250000  -7.180910e+001  -1.300277e+002 
3484375000  -6.607845e+001  -1.173967e+002 
3487500000  -6.485629e+001  -1.077044e+002 
3490625000  -6.734769e+001  -1.264987e+002 
3493750000  -6.600840e+001  -1.614891e+002 
3496875000  -6.945482e+001  1.654622e+002 
3500000000  -6.861961e+001  -1.558764e+002 
3503125000  -6.755855e+001  -1.118032e+002 
3506250000  -6.765934e+001  -1.577784e+002 
3509375000  -6.470972e+001  1.703759e+002 
3512500000  -7.039591e+001  1.514903e+002 
3515625000  -6.514350e+001  1.219318e+002 
3518750000  -7.014174e+001  1.279958e+002 
3521875000  -6.643848e+001  1.329250e+002 
3525000000  -6.627108e+001  1.399131e+002 
3528125000  -6.602228e+001  1.012656e+002 
3531250000  -6.530634e+001  1.312637e+002 
3534375000  -6.979340e+001  8.546317e+001 
3537500000  -7.278819e+001  9.128483e+001 
3540625000  -6.807197e+001  6.320872e+001 
3543750000  -6.645105e+001  7.763523e+001 
3546875000  -7.740622e+001  5.625780e+001 
3550000000  -7.385378e+001  6.798902e+001 
3553125000  -7.546313e+001  1.169224e+002 
3556250000  -7.449419e+001  2.138221e+001 
3559375000  -7.888987e+001  2.508314e+001 
3562500000  -6.892502e+001  -5.450143e+000 
3565625000  -7.542205e+001  2.634817e+001 
3568750000  -7.206752e+001  7.297089e+001 
3571875000  -7.226117e+001  -3.516336e+001 
3575000000  -7.437030e+001  -5.567864e+001 
3578125000  -7.737520e+001  3.845958e+001 
3581250000  -7.165843e+001  -3.264675e+001 
3584375000  -7.466193e+001  -1.432343e+002 
3587500000  -7.122335e+001  -1.617147e+001 
3590625000  -6.560483e+001  2.468344e+001 
3593750000  -7.007376e+001  1.368268e+001 
3596875000  -6.907018e+001  4.821927e+001 
3600000000  -6.612427e+001  -7.005270e+001 
3603125000  -6.955949e+001  -7.647000e+000 
3606250000  -6.423348e+001  -3.530948e+001 
3609375000  -6.654230e+001  -5.084798e+001 
3612500000  -6.289988e+001  -4.407557e+001 
3615625000  -6.759183e+001  -2.991459e+001 
3618750000  -6.912202e+001  -5.211911e+001 
3621875000  -6.585864e+001  -8.905003e+001 
3625000000  -6.367752e+001  -8.632249e+001 
3628125000  -6.554740e+001  -1.220084e+002 
3631250000  -6.338680e+001  -1.166645e+002 
3634375000  -6.523598e+001  -1.314692e+002 
3637500000  -6.362672e+001  -1.180811e+002 
3640625000  -6.385686e+001  -1.238637e+002 
3643750000  -6.273113e+001  -1.475616e+002 
3646875000  -6.090708e+001  -1.687031e+002 
3650000000  -6.336007e+001  -1.461041e+002 
3653125000  -6.217946e+001  -1.786626e+002 
3656250000  -6.413639e+001  1.628929e+002 
3659375000  -6.377758e+001  1.748237e+002 
3662500000  -6.338819e+001  1.396726e+002 
3665625000  -6.464137e+001  1.563399e+002 
3668750000  -6.144319e+001  1.262525e+002 
3671875000  -6.750916e+001  1.200283e+002 
3675000000  -6.264542e+001  9.239249e+001 
3678125000  -6.675043e+001  1.191172e+002 
3681250000  -6.262476e+001  9.646933e+001 
3684375000  -6.704074e+001  7.420231e+001 
3687500000  -6.308886e+001  6.738808e+001 
3690625000  -6.882343e+001  6.953841e+001 
3693750000  -7.243066e+001  7.275243e+001 
3696875000  -6.331591e+001  8.876550e+001 
3700000000  -6.297408e+001  7.759684e+001 
3703125000  -6.684846e+001  3.908483e+001 
3706250000  -6.585281e+001  5.289095e+001 
3709375000  -6.950721e+001  7.781286e+001 
3712500000  -6.526233e+001  4.917149e+001 
3715625000  -6.434761e+001  4.217070e+001 
3718750000  -6.308234e+001  2.075290e+001 
3721875000  -6.316222e+001  1.091667e+001 
3725000000  -6.045821e+001  9.807287e+000 
3728125000  -5.995251e+001  2.255791e+000 
3731250000  -5.990451e+001  -5.071035e+000 
3734375000  -5.973407e+001  -1.773588e+001 
3737500000  -5.876429e+001  -3.592650e+001 
3740625000  -5.963992e+001  -2.239491e+001 
3743750000  -5.883839e+001  -6.030852e+001 
3746875000  -5.871481e+001  -6.000097e+001 
3750000000  -5.879595e+001  -8.961244e+001 
3753125000  -5.805584e+001  -7.784842e+001 
3756250000  -5.714898e+001  -1.003604e+002 
3759375000  -5.840315e+001  -1.104840e+002 
3762500000  -5.725797e+001  -1.149401e+002 
3765625000  -5.973238e+001  -1.245630e+002 
3768750000  -5.662911e+001  -1.325255e+002 
3771875000  -5.689131e+001  -1.482323e+002 
3775000000  -5.567231e+001  -1.473828e+002 
3778125000  -5.746925e+001  1.785697e+002 
3781250000  -5.670991e+001  1.775412e+002 
3784375000  -5.630756e+001  1.700598e+002 
3787500000  -5.868235e+001  1.566910e+002 
3790625000  -5.652577e+001  1.359512e+002 
3793750000  -5.693667e+001  1.299162e+002 
3796875000  -5.673607e+001  1.330959e+002 
3800000000  -5.348793e+001  7.617948e+001 
3803125000  -5.668579e+001  9.474593e+001 
3806250000  -5.856318e+001  8.178774e+001 
3809375000  -5.750122e+001  8.547453e+001 
3812500000  -5.747614e+001  7.513688e+001 
3815625000  -5.996942e+001  4.738159e+001 
3818750000  -6.140099e+001  4.066684e+001 
3821875000  -6.051016e+001  6.353453e+001 
3825000000  -5.906565e+001  4.025157e+001 
3828125000  -5.976474e+001  3.820733e+001 
3831250000  -6.053638e+001  1.864737e+001 
3834375000  -6.262721e+001  -1.922690e+001 
3837500000  -6.541906e+001  1.168530e+001 
3840625000  -6.069108e+001  -1.972387e-001 
3843750000  -6.126578e+001  -1.015540e+000 
3846875000  -6.249373e+001  -1.510981e+001 
3850000000  -6.203843e+001  7.194523e+000 
3853125000  -6.333629e+001  3.378191e+000 
3856250000  -5.979921e+001  -1.166091e+001 
3859375000  -5.744988e+001  -4.205103e+001 
3862500000  -6.257451e+001  -4.118184e+001 
3865625000  -6.186256e+001  -4.538789e+001 
3868750000  -6.044046e+001  -4.459153e+001 
3871875000  -5.686509e+001  -7.147939e+001 
3875000000  -5.775998e+001  -7.696646e+001 
3878125000  -5.814621e+001  -8.128103e+001 
3881250000  -5.753253e+001  -9.074251e+001 
3884375000  -5.613242e+001  -9.400396e+001 
3887500000  -5.589419e+001  -1.061070e+002 
3890625000  -5.641967e+001  -1.120673e+002 
3893750000  -5.750304e+001  -1.355972e+002 
3896875000  -5.558943e+001  -1.375857e+002 
3900000000  -5.664863e+001  -1.666428e+002 
3903125000  -5.495457e+001  -1.534691e+002 
3906250000  -5.320805e+001  -1.620066e+002 
3909375000  -5.472637e+001  -1.709255e+002 
3912500000  -5.401717e+001  1.623679e+002 
3915625000  -5.578098e+001  1.502957e+002 
3918750000  -5.423150e+001  1.490639e+002 
3921875000  -5.436008e+001  1.370943e+002 
3925000000  -5.289499e+001  1.284024e+002 
3928125000  -5.263616e+001  1.092991e+002 
3931250000  -5.333857e+001  1.071296e+002 
3934375000  -5.393476e+001  8.583399e+001 
3937500000  -5.573479e+001  8.344550e+001 
3940625000  -5.513762e+001  7.065720e+001 
3943750000  -5.326935e+001  6.516621e+001 
3946875000  -5.354243e+001  5.191897e+001 
3950000000  -5.409746e+001  4.267147e+001 
3953125000  -5.485844e+001  3.433276e+001 
3956250000  -5.383335e+001  2.351470e+001 
3959375000  -5.148819e+001  8.557217e+000 
3962500000  -5.276372e+001  -2.924253e+000 
3965625000  -5.292963e+001  -1.824786e+001 
3968750000  -5.580765e+001  -3.987269e+001 
3971875000  -5.495290e+001  -4.363752e+001 
3975000000  -5.375438e+001  -5.184349e+001 
3978125000  -5.547961e+001  -5.302129e+001 
3981250000  -5.450783e+001  -8.079459e+001 
3984375000  -5.739661e+001  -8.532075e+001 
3987500000  -5.667892e+001  -8.842532e+001 
3990625000  -5.675220e+001  -9.576969e+001 
3993750000  -5.646334e+001  -1.085537e+002 
3996875000  -5.703908e+001  -1.177303e+002 
4000000000  -5.866781e+001  -1.357111e+002 
4003125000  -5.897075e+001  -1.201585e+002 
4006250000  -5.876839e+001  -1.386483e+002 
4009375000  -5.789404e+001  -1.440320e+002 
4012500000  -6.080971e+001  -1.687902e+002 
4015625000  -5.841412e+001  -1.663589e+002 
4018750000  -5.980602e+001  -1.709330e+002 
4021875000  -5.878739e+001  -1.695092e+002 
4025000000  -6.041787e+001  1.712702e+002 
4028125000  -5.889221e+001  1.789568e+002 
4031250000  -5.934032e+001  1.616051e+002 
4034375000  -6.036553e+001  1.519348e+002 
4037500000  -5.758139e+001  1.494377e+002 
4040625000  -6.245463e+001  1.312400e+002 
4043750000  -5.973463e+001  1.376478e+002 
4046875000  -5.768231e+001  1.347939e+002 
4050000000  -5.898024e+001  1.247039e+002 
4053125000  -6.063482e+001  1.219909e+002 
4056250000  -5.811953e+001  1.302109e+002 
4059375000  -5.751503e+001  1.093758e+002 
4062500000  -5.448735e+001  9.936436e+001 
4065625000  -5.337011e+001  9.318347e+001 
4068750000  -5.397441e+001  7.376154e+001 
4071875000  -5.175999e+001  5.410504e+001 
4075000000  -5.278746e+001  4.796568e+001 
4078125000  -5.361954e+001  3.324494e+001 
4081250000  -5.343255e+001  2.619198e+001 
4084375000  -5.191575e+001  1.126413e+001 
4087500000  -5.395236e+001  -1.128014e+001 
4090625000  -5.390484e+001  -3.831581e+000 
4093750000  -5.338761e+001  -1.934841e+001 
4096875000  -5.254717e+001  -3.495822e+001 
4100000000  -5.269108e+001  -4.585940e+001 
4103125000  -5.532294e+001  -4.392154e+001 
4106250000  -5.381588e+001  -5.631189e+001 
4109375000  -5.374371e+001  -5.449717e+001 
4112500000  -5.280713e+001  -8.008966e+001 
4115625000  -5.345226e+001  -9.269855e+001 
4118750000  -5.330988e+001  -9.284882e+001 
4121875000  -5.243497e+001  -1.217061e+002 
4125000000  -5.304451e+001  -1.215413e+002 
4128125000  -5.450946e+001  -1.357551e+002 
4131250000  -5.269040e+001  -1.346993e+002 
4134375000  -5.242145e+001  -1.440080e+002 
4137500000  -5.237297e+001  -1.658326e+002 
4140625000  -5.349551e+001  1.720473e+002 
4143750000  -5.645796e+001  1.631501e+002 
4146875000  -5.415247e+001  1.668819e+002 
4150000000  -5.464065e+001  1.589345e+002 
4153125000  -5.339051e+001  1.462056e+002 
4156250000  -5.507405e+001  1.266954e+002 
4159375000  -5.568762e+001  1.304026e+002 
4162500000  -5.668280e+001  1.209715e+002 
4165625000  -5.415302e+001  1.167986e+002 
4168750000  -5.461415e+001  9.694368e+001 
4171875000  -5.573325e+001  8.537617e+001 
4175000000  -5.456163e+001  5.734053e+001 
4178125000  -5.784441e+001  6.752904e+001 
4181250000  -5.881153e+001  4.882805e+001 
4184375000  -5.771931e+001  3.623146e+001 
4187500000  -5.671240e+001  2.351167e+001 
4190625000  -6.360898e+001  2.902068e+001 
4193750000  -6.002248e+001  2.833145e+001 
4196875000  -6.727209e+001  -1.643213e+001 
4200000000  -6.651234e+001  1.857035e+001 
4203125000  -6.884354e+001  2.928651e+001 
4206250000  -6.070028e+001  2.497197e+001 
4209375000  -6.189815e+001  -2.907060e+001 
4212500000  -6.165624e+001  -2.746656e+001 
4215625000  -6.411390e+001  5.716707e+000 
4218750000  -6.322292e+001  4.968193e+000 
4221875000  -6.131237e+001  6.700083e+000 
4225000000  -5.938472e+001  -4.218568e+000 
4228125000  -5.645950e+001  -3.031139e+001 
4231250000  -5.730778e+001  -2.602466e+001 
4234375000  -5.583347e+001  -4.195625e+001 
4237500000  -6.178810e+001  -3.560861e+001 
4240625000  -5.534480e+001  -5.545146e+001 
4243750000  -5.925755e+001  -6.679031e+001 
4246875000  -5.692450e+001  -7.686259e+001 
4250000000  -6.018116e+001  -8.840784e+001 
4253125000  -5.581160e+001  -9.278922e+001 
4256250000  -5.600158e+001  -1.163628e+002 
4259375000  -5.536303e+001  -1.048420e+002 
4262500000  -5.553225e+001  -1.333591e+002 
4265625000  -5.505919e+001  -1.251594e+002 
4268750000  -5.253332e+001  -1.442969e+002 
4271875000  -5.202277e+001  -1.589772e+002 
4275000000  -5.118322e+001  -1.752070e+002 
4278125000  -5.436658e+001  1.619114e+002 
4281250000  -5.305753e+001  1.517093e+002 
4284375000  -5.440577e+001  1.547007e+002 
4287500000  -5.571618e+001  1.441619e+002 
4290625000  -5.467494e+001  1.497611e+002 
4293750000  -5.362846e+001  1.444792e+002 
4296875000  -5.162546e+001  1.148608e+002 
4300000000  -5.167028e+001  1.039712e+002 
4303125000  -5.291751e+001  1.005324e+002 
4306250000  -5.338769e+001  9.644439e+001 
4309375000  -5.095370e+001  8.202992e+001 
4312500000  -5.260023e+001  6.157837e+001 
4315625000  -5.136861e+001  5.054527e+001 
4318750000  -5.346116e+001  4.384606e+001 
4321875000  -5.324011e+001  3.325911e+001 
4325000000  -5.186952e+001  1.633084e+001 
4328125000  -5.164779e+001  1.188577e+001 
4331250000  -5.417638e+001  2.961506e+000 
4334375000  -5.442261e+001  -1.246117e+001 
4337500000  -5.554128e+001  -3.660228e+001 
4340625000  -5.378620e+001  -2.340428e+001 
4343750000  -5.415815e+001  -3.329969e+001 
4346875000  -5.474910e+001  -3.871303e+001 
4350000000  -5.706775e+001  -6.367869e+001 
4353125000  -5.631420e+001  -7.284590e+001 
4356250000  -5.758292e+001  -6.916000e+001 
4359375000  -5.864505e+001  -6.510994e+001 
4362500000  -5.460408e+001  -7.049654e+001 
4365625000  -5.461997e+001  -1.058815e+002 
4368750000  -5.545823e+001  -9.963736e+001 
4371875000  -5.822124e+001  -1.045976e+002 
4375000000  -5.636652e+001  -1.196539e+002 
4378125000  -5.539071e+001  -1.252834e+002 
4381250000  -5.812946e+001  -1.402237e+002 
4384375000  -5.474454e+001  -1.409552e+002 
4387500000  -5.616644e+001  -1.463106e+002 
4390625000  -5.805243e+001  -1.510801e+002 
4393750000  -5.723614e+001  -1.518933e+002 
4396875000  -5.590664e+001  -1.575343e+002 
4400000000  -5.526773e+001  -1.740169e+002 
4403125000  -5.642742e+001  1.707498e+002 
4406250000  -5.699910e+001  1.736910e+002 
4409375000  -5.533319e+001  1.654306e+002 
4412500000  -5.692086e+001  1.558655e+002 
4415625000  -5.639372e+001  1.653660e+002 
4418750000  -5.615768e+001  1.486634e+002 
