!Agilent Technologies,E8363B,MY43030201,A.06.04.32
!Agilent E8363B: A.06.04.32
!Date: Tuesday, November 11, 2014 22:16:35
!Correction: S21(Response(S21)) 
!S1P File: Measurement: S21:
# Hz S  dB   R 50
3000000000  -4.913641e+001  -7.542387e+001 
3003125000  -5.158055e+001  -8.000120e+001 
3006250000  -5.125844e+001  -8.714283e+001 
3009375000  -5.200895e+001  -8.423479e+001 
3012500000  -5.131421e+001  -9.640683e+001 
3015625000  -5.090103e+001  -1.070714e+002 
3018750000  -5.108181e+001  -1.117064e+002 
3021875000  -5.008969e+001  -1.157553e+002 
3025000000  -4.845963e+001  -1.265458e+002 
3028125000  -4.792023e+001  -1.410170e+002 
3031250000  -4.740857e+001  -1.601847e+002 
3034375000  -4.727863e+001  -1.771857e+002 
3037500000  -4.812627e+001  1.675600e+002 
3040625000  -4.956720e+001  1.538341e+002 
3043750000  -4.974404e+001  1.425986e+002 
3046875000  -5.062685e+001  1.303941e+002 
3050000000  -5.179012e+001  1.251506e+002 
3053125000  -5.127145e+001  1.251067e+002 
3056250000  -5.136288e+001  1.224951e+002 
3059375000  -5.102775e+001  1.052574e+002 
3062500000  -4.946186e+001  1.052545e+002 
3065625000  -4.898449e+001  8.922591e+001 
3068750000  -4.860205e+001  7.856643e+001 
3071875000  -4.872027e+001  6.940785e+001 
3075000000  -4.860740e+001  5.776025e+001 
3078125000  -4.838854e+001  4.552131e+001 
3081250000  -4.854950e+001  3.543908e+001 
3084375000  -4.782383e+001  2.601306e+001 
3087500000  -4.828159e+001  1.278357e+001 
3090625000  -4.795113e+001  -4.334907e+000 
3093750000  -4.884773e+001  -1.411083e+001 
3096875000  -4.935632e+001  -2.253851e+001 
3100000000  -4.975150e+001  -3.299666e+001 
3103125000  -5.026882e+001  -3.925077e+001 
3106250000  -4.900544e+001  -4.918093e+001 
3109375000  -4.961697e+001  -5.776219e+001 
3112500000  -4.950484e+001  -6.879730e+001 
3115625000  -4.932002e+001  -7.539038e+001 
3118750000  -4.993656e+001  -8.377071e+001 
3121875000  -4.897578e+001  -1.010517e+002 
3125000000  -5.066442e+001  -1.089528e+002 
3128125000  -5.086347e+001  -1.063808e+002 
3131250000  -4.847528e+001  -1.163236e+002 
3134375000  -4.803265e+001  -1.370085e+002 
3137500000  -4.895026e+001  -1.513322e+002 
3140625000  -5.038269e+001  -1.614064e+002 
3143750000  -5.014879e+001  -1.687932e+002 
3146875000  -5.001703e+001  -1.700460e+002 
3150000000  -4.854708e+001  -1.778051e+002 
3153125000  -4.885238e+001  1.648278e+002 
3156250000  -5.042260e+001  1.658946e+002 
3159375000  -4.770728e+001  1.622917e+002 
3162500000  -4.674035e+001  1.389118e+002 
3165625000  -4.759956e+001  1.193316e+002 
3168750000  -4.730973e+001  1.169924e+002 
3171875000  -4.740215e+001  1.057061e+002 
3175000000  -4.764304e+001  8.927228e+001 
3178125000  -4.738810e+001  8.392812e+001 
3181250000  -4.642880e+001  6.938148e+001 
3184375000  -4.661165e+001  5.413955e+001 
3187500000  -4.783779e+001  3.749852e+001 
3190625000  -4.948047e+001  2.323959e+001 
3193750000  -4.967789e+001  2.740817e+001 
3196875000  -4.997307e+001  1.642485e+001 
3200000000  -4.816979e+001  1.083468e+001 
3203125000  -4.829890e+001  -1.949148e-001 
3206250000  -4.890849e+001  -1.272652e+001 
3209375000  -4.813134e+001  -2.690797e+001 
3212500000  -4.872386e+001  -3.875244e+001 
3215625000  -4.822483e+001  -4.338326e+001 
3218750000  -4.889552e+001  -6.227235e+001 
3221875000  -4.936131e+001  -7.619055e+001 
3225000000  -4.927472e+001  -7.885220e+001 
3228125000  -5.031430e+001  -9.062295e+001 
3231250000  -5.061781e+001  -1.033733e+002 
3234375000  -4.971323e+001  -1.099168e+002 
3237500000  -5.058113e+001  -1.168796e+002 
3240625000  -5.009414e+001  -1.285432e+002 
3243750000  -4.974965e+001  -1.424149e+002 
3246875000  -4.994250e+001  -1.546310e+002 
3250000000  -5.163395e+001  -1.640892e+002 
3253125000  -5.081136e+001  -1.669256e+002 
3256250000  -5.099951e+001  1.770610e+002 
3259375000  -5.076364e+001  1.615757e+002 
3262500000  -5.217189e+001  1.571995e+002 
3265625000  -5.278232e+001  1.463152e+002 
3268750000  -5.402451e+001  1.451738e+002 
3271875000  -5.217549e+001  1.296704e+002 
3275000000  -5.159497e+001  1.223549e+002 
3278125000  -5.214119e+001  1.121215e+002 
3281250000  -5.297095e+001  1.065168e+002 
3284375000  -5.213792e+001  9.397926e+001 
3287500000  -5.346704e+001  9.240363e+001 
3290625000  -5.287094e+001  7.408038e+001 
3293750000  -5.377504e+001  6.514918e+001 
3296875000  -5.391974e+001  4.802618e+001 
3300000000  -5.392285e+001  5.383253e+001 
3303125000  -5.376460e+001  4.449059e+001 
3306250000  -5.431699e+001  2.696625e+001 
3309375000  -5.273362e+001  1.683322e+001 
3312500000  -5.297429e+001  -3.965923e-002 
3315625000  -5.515079e+001  -1.384839e+001 
3318750000  -5.574368e+001  -2.032356e+001 
3321875000  -5.813411e+001  -2.120926e+001 
3325000000  -5.517894e+001  -2.158745e+001 
3328125000  -5.520350e+001  -1.737622e+001 
3331250000  -5.264360e+001  -2.562358e+001 
3334375000  -5.164564e+001  -4.380047e+001 
3337500000  -5.260238e+001  -6.888226e+001 
3340625000  -5.428759e+001  -8.626927e+001 
3343750000  -5.519798e+001  -8.025074e+001 
3346875000  -5.534771e+001  -9.840411e+001 
3350000000  -5.509196e+001  -1.027630e+002 
3353125000  -5.448381e+001  -1.208990e+002 
3356250000  -5.436357e+001  -1.291248e+002 
3359375000  -5.563271e+001  -1.425735e+002 
3362500000  -5.655970e+001  -1.496587e+002 
3365625000  -5.536610e+001  -1.508359e+002 
3368750000  -5.700230e+001  -1.744740e+002 
3371875000  -5.785180e+001  1.766217e+002 
3375000000  -5.887567e+001  1.665356e+002 
3378125000  -5.902470e+001  1.797402e+002 
3381250000  -5.917420e+001  1.702184e+002 
3384375000  -5.778873e+001  -1.762549e+002 
3387500000  -5.387794e+001  1.435188e+002 
3390625000  -5.677990e+001  1.245957e+002 
3393750000  -5.661314e+001  1.146384e+002 
3396875000  -5.674053e+001  1.250511e+002 
3400000000  -5.654619e+001  9.573994e+001 
3403125000  -5.788984e+001  8.717901e+001 
3406250000  -5.731133e+001  8.227892e+001 
3409375000  -5.682943e+001  5.726306e+001 
3412500000  -5.757689e+001  5.699361e+001 
3415625000  -5.928479e+001  3.922302e+001 
3418750000  -5.923910e+001  5.405836e+001 
3421875000  -6.040482e+001  3.753647e+001 
3425000000  -6.046841e+001  3.041862e+001 
3428125000  -6.035634e+001  1.839029e+001 
3431250000  -5.978188e+001  -8.075482e+000 
3434375000  -5.916375e+001  -1.781665e+001 
3437500000  -6.213217e+001  -2.876722e+001 
3440625000  -5.975086e+001  -2.496618e+001 
3443750000  -6.287862e+001  -3.611852e+001 
3446875000  -6.141741e+001  -6.731795e+001 
3450000000  -6.322658e+001  -6.734764e+001 
3453125000  -6.271073e+001  -8.259389e+001 
3456250000  -6.879447e+001  -1.020730e+002 
3459375000  -6.618198e+001  -9.085097e+001 
3462500000  -6.689264e+001  -9.742599e+001 
3465625000  -6.783992e+001  -1.284436e+002 
3468750000  -6.385682e+001  -1.113625e+002 
3471875000  -6.447713e+001  -9.485220e+001 
3475000000  -6.715133e+001  -1.186046e+002 
3478125000  -6.749937e+001  -9.092358e+001 
3481250000  -6.907385e+001  -1.610133e+002 
3484375000  -6.760075e+001  -1.302511e+002 
3487500000  -6.773219e+001  -1.219224e+002 
3490625000  -6.658629e+001  -1.184032e+002 
3493750000  -6.830762e+001  -1.711558e+002 
3496875000  -6.805827e+001  -1.634995e+002 
3500000000  -6.824825e+001  -1.460676e+002 
3503125000  -6.830232e+001  -1.518937e+002 
3506250000  -6.265781e+001  -1.630453e+002 
3509375000  -6.564360e+001  -1.787661e+002 
3512500000  -6.465158e+001  1.372843e+002 
3515625000  -6.788804e+001  1.547713e+002 
3518750000  -6.431979e+001  1.473295e+002 
3521875000  -6.848014e+001  1.364974e+002 
3525000000  -6.839024e+001  1.024654e+002 
3528125000  -7.387788e+001  1.414577e+002 
3531250000  -6.749380e+001  1.061358e+002 
3534375000  -6.664354e+001  9.545646e+001 
3537500000  -6.899211e+001  4.673456e+001 
3540625000  -6.812454e+001  3.874308e+001 
3543750000  -6.939072e+001  9.522818e+001 
3546875000  -7.140402e+001  6.528938e+001 
3550000000  -6.777457e+001  8.768849e+001 
3553125000  -6.985349e+001  7.384602e+001 
3556250000  -7.563715e+001  9.483947e+001 
3559375000  -7.168621e+001  7.255077e+001 
3562500000  -7.889339e+001  8.658189e+001 
3565625000  -6.776489e+001  3.191742e+000 
3568750000  -7.712716e+001  1.299669e+002 
3571875000  -6.657361e+001  1.635648e+001 
3575000000  -7.487252e+001  7.817025e+001 
3578125000  -6.950629e+001  3.757725e+001 
3581250000  -7.016186e+001  7.167491e+001 
3584375000  -6.747726e+001  3.499024e+001 
3587500000  -7.499860e+001  3.047494e+001 
3590625000  -7.067328e+001  -5.036941e+000 
3593750000  -6.724572e+001  -3.363505e+000 
3596875000  -6.534988e+001  2.837297e+001 
3600000000  -6.772726e+001  -9.721685e+000 
3603125000  -6.685788e+001  -4.268163e+001 
3606250000  -6.504118e+001  -3.288578e+001 
3609375000  -6.967634e+001  -1.905339e+001 
3612500000  -6.311269e+001  -5.780185e+001 
3615625000  -6.526727e+001  -5.088165e+001 
3618750000  -6.539047e+001  -6.839928e+001 
3621875000  -6.521677e+001  -8.868620e+001 
3625000000  -6.369322e+001  -7.090600e+001 
3628125000  -6.195293e+001  -8.368858e+001 
3631250000  -6.263700e+001  -1.032045e+002 
3634375000  -6.427930e+001  -9.587844e+001 
3637500000  -6.669598e+001  -1.000384e+002 
3640625000  -6.101623e+001  -1.372633e+002 
3643750000  -6.527536e+001  -1.533143e+002 
3646875000  -6.350648e+001  -1.713539e+002 
3650000000  -6.401860e+001  -1.560485e+002 
3653125000  -6.499266e+001  1.748029e+002 
3656250000  -6.559364e+001  1.793714e+002 
3659375000  -6.491756e+001  1.692253e+002 
3662500000  -6.636527e+001  1.564348e+002 
3665625000  -6.382425e+001  1.577989e+002 
3668750000  -6.492629e+001  1.416068e+002 
3671875000  -6.447128e+001  9.679047e+001 
3675000000  -6.283241e+001  1.111603e+002 
3678125000  -6.462698e+001  1.167494e+002 
3681250000  -6.039676e+001  1.046531e+002 
3684375000  -6.683197e+001  9.518553e+001 
3687500000  -6.665481e+001  6.093767e+001 
3690625000  -7.052001e+001  5.854396e+001 
3693750000  -6.942051e+001  5.730537e+001 
3696875000  -6.654708e+001  1.028991e+002 
3700000000  -6.241047e+001  9.335089e+001 
3703125000  -6.710461e+001  3.952650e+001 
3706250000  -6.385566e+001  5.844229e+001 
3709375000  -6.550561e+001  7.602152e+001 
3712500000  -6.182914e+001  7.282720e+001 
3715625000  -6.117790e+001  5.975138e+001 
3718750000  -6.383879e+001  3.160517e+001 
3721875000  -6.020078e+001  1.597529e+001 
3725000000  -6.308609e+001  2.675746e+001 
3728125000  -6.211981e+001  2.535817e+000 
3731250000  -5.964746e+001  -2.354767e+001 
3734375000  -6.005689e+001  -2.068233e+001 
3737500000  -5.683613e+001  -3.829452e+001 
3740625000  -5.912579e+001  -3.675145e+001 
3743750000  -5.758545e+001  -5.881215e+001 
3746875000  -6.064979e+001  -6.166297e+001 
3750000000  -5.793441e+001  -8.361526e+001 
3753125000  -5.989618e+001  -8.750531e+001 
3756250000  -5.757468e+001  -9.055103e+001 
3759375000  -6.009264e+001  -1.083382e+002 
3762500000  -5.802710e+001  -1.039754e+002 
3765625000  -5.965470e+001  -1.131250e+002 
3768750000  -5.712305e+001  -1.328612e+002 
3771875000  -5.542059e+001  -1.444135e+002 
3775000000  -5.518641e+001  -1.611441e+002 
3778125000  -5.696109e+001  -1.760781e+002 
3781250000  -5.731910e+001  -1.770198e+002 
3784375000  -5.716755e+001  1.716708e+002 
3787500000  -5.666860e+001  1.547496e+002 
3790625000  -5.745755e+001  1.410691e+002 
3793750000  -5.870694e+001  1.367195e+002 
3796875000  -5.603581e+001  1.338440e+002 
3800000000  -5.344244e+001  8.492278e+001 
3803125000  -5.867300e+001  1.039889e+002 
3806250000  -5.819339e+001  8.543740e+001 
3809375000  -5.737998e+001  7.423219e+001 
3812500000  -5.737628e+001  5.897376e+001 
3815625000  -6.382284e+001  2.734189e+001 
3818750000  -6.285620e+001  6.436784e+001 
3821875000  -6.015873e+001  4.337905e+001 
3825000000  -5.738396e+001  5.331908e+001 
3828125000  -5.773986e+001  2.846344e+001 
3831250000  -5.914740e+001  2.033807e+001 
3834375000  -6.393907e+001  2.424666e+001 
3837500000  -6.483732e+001  6.299547e+000 
3840625000  -6.174199e+001  -7.927825e-001 
3843750000  -6.099490e+001  1.044092e+001 
3846875000  -6.300472e+001  -1.669587e+001 
3850000000  -6.184365e+001  3.766989e+000 
3853125000  -6.173405e+001  2.243788e+001 
3856250000  -6.091017e+001  1.677988e+001 
3859375000  -6.006398e+001  -3.205486e+001 
3862500000  -5.947216e+001  -6.599664e+000 
3865625000  -5.932187e+001  -4.018781e+001 
3868750000  -5.774749e+001  -3.630338e+001 
3871875000  -5.642374e+001  -5.891803e+001 
3875000000  -5.917412e+001  -7.218979e+001 
3878125000  -5.734180e+001  -7.351618e+001 
3881250000  -5.684399e+001  -9.046732e+001 
3884375000  -5.563660e+001  -9.272859e+001 
3887500000  -5.505343e+001  -1.115718e+002 
3890625000  -5.772043e+001  -1.106325e+002 
3893750000  -5.559645e+001  -1.314859e+002 
3896875000  -5.658770e+001  -1.349322e+002 
3900000000  -5.590830e+001  -1.473058e+002 
3903125000  -5.519486e+001  -1.500565e+002 
3906250000  -5.363003e+001  -1.698115e+002 
3909375000  -5.480680e+001  -1.754638e+002 
3912500000  -5.412389e+001  1.599051e+002 
3915625000  -5.600412e+001  1.561620e+002 
3918750000  -5.563672e+001  1.628455e+002 
3921875000  -5.380768e+001  1.363048e+002 
3925000000  -5.278164e+001  1.278941e+002 
3928125000  -5.326573e+001  1.123783e+002 
3931250000  -5.364199e+001  1.011783e+002 
3934375000  -5.481399e+001  9.035251e+001 
3937500000  -5.557383e+001  8.551469e+001 
3940625000  -5.481877e+001  8.092180e+001 
3943750000  -5.248793e+001  7.230629e+001 
3946875000  -5.259889e+001  6.151929e+001 
3950000000  -5.530232e+001  3.569347e+001 
3953125000  -5.394291e+001  3.605490e+001 
3956250000  -5.288029e+001  2.676469e+001 
3959375000  -5.337160e+001  1.184819e+001 
3962500000  -5.265237e+001  -1.654897e+000 
3965625000  -5.421958e+001  -1.333314e+001 
3968750000  -5.434583e+001  -3.740800e+001 
3971875000  -5.428131e+001  -3.213273e+001 
3975000000  -5.410148e+001  -4.858607e+001 
3978125000  -5.421474e+001  -5.857680e+001 
3981250000  -5.459103e+001  -6.686018e+001 
3984375000  -5.539942e+001  -8.697721e+001 
3987500000  -5.585959e+001  -8.465804e+001 
3990625000  -5.653922e+001  -9.558514e+001 
3993750000  -5.778190e+001  -1.145006e+002 
3996875000  -5.941995e+001  -1.230101e+002 
4000000000  -6.115462e+001  -1.247333e+002 
4003125000  -5.993807e+001  -1.190928e+002 
4006250000  -5.838680e+001  -1.387979e+002 
4009375000  -5.617709e+001  -1.357620e+002 
4012500000  -5.950060e+001  -1.702780e+002 
4015625000  -6.235289e+001  -1.644027e+002 
4018750000  -6.164363e+001  -1.501208e+002 
4021875000  -6.054116e+001  -1.717585e+002 
4025000000  -5.860785e+001  -1.787341e+002 
4028125000  -5.957174e+001  -1.662869e+002 
4031250000  -5.913380e+001  1.582177e+002 
4034375000  -6.087346e+001  1.519183e+002 
4037500000  -5.910074e+001  1.600193e+002 
4040625000  -5.959470e+001  1.483123e+002 
4043750000  -6.029219e+001  1.405972e+002 
4046875000  -5.722588e+001  1.387232e+002 
4050000000  -5.843411e+001  1.357961e+002 
4053125000  -5.719593e+001  1.264422e+002 
4056250000  -5.753336e+001  1.201144e+002 
4059375000  -5.618549e+001  1.137590e+002 
4062500000  -5.662647e+001  1.004811e+002 
4065625000  -5.335117e+001  8.809988e+001 
4068750000  -5.504034e+001  8.519575e+001 
4071875000  -5.321486e+001  6.291419e+001 
4075000000  -5.368072e+001  5.160155e+001 
4078125000  -5.290198e+001  4.613309e+001 
4081250000  -5.321415e+001  3.735046e+001 
4084375000  -5.200941e+001  1.100972e+001 
4087500000  -5.350960e+001  -2.624227e+000 
4090625000  -5.231127e+001  -4.645012e+000 
4093750000  -5.216793e+001  -2.424970e+001 
4096875000  -5.248734e+001  -2.621808e+001 
4100000000  -5.356645e+001  -5.029153e+001 
4103125000  -5.486652e+001  -4.013779e+001 
4106250000  -5.348321e+001  -5.593447e+001 
4109375000  -5.286380e+001  -5.975844e+001 
4112500000  -5.190489e+001  -7.955886e+001 
4115625000  -5.318383e+001  -8.981339e+001 
4118750000  -5.244318e+001  -9.689209e+001 
4121875000  -5.201276e+001  -1.167144e+002 
4125000000  -5.383075e+001  -1.275564e+002 
4128125000  -5.584937e+001  -1.299310e+002 
4131250000  -5.324154e+001  -1.268954e+002 
4134375000  -5.270652e+001  -1.467379e+002 
4137500000  -5.219357e+001  -1.720819e+002 
4140625000  -5.459666e+001  1.748667e+002 
4143750000  -5.521564e+001  1.733409e+002 
4146875000  -5.454440e+001  1.741219e+002 
4150000000  -5.376994e+001  1.562211e+002 
4153125000  -5.371723e+001  1.556410e+002 
4156250000  -5.550934e+001  1.306375e+002 
4159375000  -5.602683e+001  1.312887e+002 
4162500000  -5.682365e+001  1.193735e+002 
4165625000  -5.385575e+001  1.101661e+002 
4168750000  -5.431538e+001  9.020914e+001 
4171875000  -5.609238e+001  8.259541e+001 
4175000000  -5.552442e+001  5.921917e+001 
4178125000  -5.841816e+001  6.384119e+001 
4181250000  -5.661499e+001  4.271077e+001 
4184375000  -5.929274e+001  3.281428e+001 
4187500000  -5.978794e+001  2.899439e+001 
4190625000  -6.362115e+001  2.101380e+001 
4193750000  -6.042916e+001  1.459735e+001 
4196875000  -6.235264e+001  1.705268e+001 
4200000000  -6.242891e+001  3.002504e+001 
4203125000  -6.059025e+001  4.697685e+000 
4206250000  -6.249937e+001  3.781682e+001 
4209375000  -6.379217e+001  -2.306890e+001 
4212500000  -6.127407e+001  1.082102e+001 
4215625000  -6.247075e+001  -1.034717e+001 
4218750000  -6.221978e+001  2.681738e+001 
4221875000  -5.994303e+001  1.598601e+001 
4225000000  -5.962701e+001  1.326702e+001 
4228125000  -5.839140e+001  -3.260812e+001 
4231250000  -6.300581e+001  -3.992585e+001 
4234375000  -6.105331e+001  -2.812626e+001 
4237500000  -5.761984e+001  -3.158479e+001 
4240625000  -5.455717e+001  -6.096715e+001 
4243750000  -5.809676e+001  -7.336050e+001 
4246875000  -5.778543e+001  -6.184900e+001 
4250000000  -5.670388e+001  -8.131899e+001 
4253125000  -5.363197e+001  -8.939198e+001 
4256250000  -5.661566e+001  -9.556220e+001 
4259375000  -5.354679e+001  -1.065049e+002 
4262500000  -5.557711e+001  -1.259847e+002 
4265625000  -5.524695e+001  -1.185946e+002 
4268750000  -5.288674e+001  -1.345256e+002 
4271875000  -5.115231e+001  -1.486122e+002 
4275000000  -5.156815e+001  -1.711633e+002 
4278125000  -5.409226e+001  -1.738491e+002 
4281250000  -5.300070e+001  1.656742e+002 
4284375000  -5.329989e+001  1.509325e+002 
4287500000  -5.502927e+001  1.547697e+002 
4290625000  -5.430847e+001  1.498702e+002 
4293750000  -5.392868e+001  1.506799e+002 
4296875000  -5.135680e+001  1.127888e+002 
4300000000  -5.304465e+001  1.151409e+002 
4303125000  -5.269306e+001  1.034868e+002 
4306250000  -5.247815e+001  9.638724e+001 
4309375000  -5.155040e+001  7.775726e+001 
4312500000  -5.215529e+001  7.236311e+001 
4315625000  -5.152046e+001  5.115900e+001 
4318750000  -5.426132e+001  4.482882e+001 
4321875000  -5.299196e+001  3.606021e+001 
4325000000  -5.385625e+001  2.894732e+001 
4328125000  -5.140269e+001  1.287715e+001 
4331250000  -5.308163e+001  -5.828310e-001 
4334375000  -5.455081e+001  -1.982979e+001 
4337500000  -5.497134e+001  -2.786140e+001 
4340625000  -5.532357e+001  -2.013572e+001 
4343750000  -5.540340e+001  -3.344636e+001 
4346875000  -5.438221e+001  -3.859439e+001 
4350000000  -5.503732e+001  -7.063321e+001 
4353125000  -5.591970e+001  -7.140151e+001 
4356250000  -5.709802e+001  -8.289828e+001 
4359375000  -5.587561e+001  -5.439775e+001 
4362500000  -5.427819e+001  -7.708869e+001 
4365625000  -5.685084e+001  -8.937271e+001 
4368750000  -5.359167e+001  -9.802883e+001 
4371875000  -5.603951e+001  -1.158457e+002 
4375000000  -5.660608e+001  -1.089505e+002 
4378125000  -5.681822e+001  -1.177845e+002 
4381250000  -5.854226e+001  -1.242000e+002 
4384375000  -5.518704e+001  -1.458793e+002 
4387500000  -5.818076e+001  -1.411006e+002 
4390625000  -5.715597e+001  -1.610705e+002 
4393750000  -5.877259e+001  -1.538319e+002 
4396875000  -5.721961e+001  -1.504535e+002 
4400000000  -5.716627e+001  -1.610644e+002 
4403125000  -5.684838e+001  1.770768e+002 
4406250000  -5.765074e+001  1.642301e+002 
4409375000  -5.508791e+001  1.620025e+002 
4412500000  -5.612392e+001  1.621821e+002 
4415625000  -5.488783e+001  1.666336e+002 
4418750000  -5.508247e+001  1.579002e+002 
