!Agilent Technologies,E8363B,MY43030201,A.06.04.32
!Agilent E8363B: A.06.04.32
!Date: Tuesday, November 11, 2014 22:13:13
!Correction: S21(Response(S21)) 
!S1P File: Measurement: S21:
# Hz S  dB   R 50
3000000000  -4.919350e+001  -7.596287e+001 
3003125000  -5.171928e+001  -8.020909e+001 
3006250000  -5.243874e+001  -8.501514e+001 
3009375000  -5.187489e+001  -8.666030e+001 
3012500000  -5.122079e+001  -9.873639e+001 
3015625000  -5.114013e+001  -1.064709e+002 
3018750000  -5.143050e+001  -1.132716e+002 
3021875000  -4.985658e+001  -1.222722e+002 
3025000000  -4.849648e+001  -1.285337e+002 
3028125000  -4.807421e+001  -1.457863e+002 
3031250000  -4.710829e+001  -1.615745e+002 
3034375000  -4.715415e+001  1.797086e+002 
3037500000  -4.757966e+001  1.630513e+002 
3040625000  -4.901285e+001  1.513748e+002 
3043750000  -4.920847e+001  1.435422e+002 
3046875000  -5.013331e+001  1.318550e+002 
3050000000  -5.182774e+001  1.215085e+002 
3053125000  -5.126688e+001  1.212115e+002 
3056250000  -5.143795e+001  1.207835e+002 
3059375000  -5.102802e+001  1.110543e+002 
3062500000  -4.927554e+001  1.033680e+002 
3065625000  -4.906142e+001  8.607097e+001 
3068750000  -4.871716e+001  7.500736e+001 
3071875000  -4.932386e+001  6.865310e+001 
3075000000  -4.864257e+001  5.856380e+001 
3078125000  -4.858829e+001  4.785943e+001 
3081250000  -4.866393e+001  3.053190e+001 
3084375000  -4.841107e+001  2.513799e+001 
3087500000  -4.815494e+001  1.253103e+001 
3090625000  -4.806339e+001  -5.131556e+000 
3093750000  -4.885679e+001  -1.731236e+001 
3096875000  -4.957436e+001  -2.347147e+001 
3100000000  -4.951106e+001  -3.261046e+001 
3103125000  -5.024135e+001  -3.723474e+001 
3106250000  -4.929536e+001  -5.221686e+001 
3109375000  -4.980938e+001  -5.814915e+001 
3112500000  -4.948095e+001  -6.556577e+001 
3115625000  -4.930968e+001  -7.696391e+001 
3118750000  -4.973355e+001  -8.626607e+001 
3121875000  -4.924554e+001  -1.003002e+002 
3125000000  -5.051688e+001  -1.076583e+002 
3128125000  -5.078536e+001  -1.072362e+002 
3131250000  -4.858212e+001  -1.169075e+002 
3134375000  -4.777829e+001  -1.401028e+002 
3137500000  -4.875404e+001  -1.535417e+002 
3140625000  -4.975586e+001  -1.606250e+002 
3143750000  -5.049662e+001  -1.713101e+002 
3146875000  -4.975257e+001  -1.702225e+002 
3150000000  -4.895918e+001  -1.799508e+002 
3153125000  -4.927499e+001  1.666476e+002 
3156250000  -5.027365e+001  1.659663e+002 
3159375000  -4.793756e+001  1.587494e+002 
3162500000  -4.623602e+001  1.355255e+002 
3165625000  -4.757089e+001  1.220240e+002 
3168750000  -4.769721e+001  1.156588e+002 
3171875000  -4.744828e+001  1.057913e+002 
3175000000  -4.763660e+001  8.825913e+001 
3178125000  -4.737158e+001  8.198218e+001 
3181250000  -4.654339e+001  6.849084e+001 
3184375000  -4.622722e+001  5.331804e+001 
3187500000  -4.727280e+001  3.247881e+001 
3190625000  -4.932879e+001  2.090104e+001 
3193750000  -4.955637e+001  2.556707e+001 
3196875000  -4.941593e+001  1.872354e+001 
3200000000  -4.829116e+001  7.995981e+000 
3203125000  -4.834208e+001  -2.443854e+000 
3206250000  -4.837465e+001  -1.704397e+001 
3209375000  -4.764035e+001  -3.054142e+001 
3212500000  -4.956730e+001  -4.158768e+001 
3215625000  -4.850186e+001  -4.636045e+001 
3218750000  -4.938654e+001  -6.426604e+001 
3221875000  -4.929239e+001  -7.665413e+001 
3225000000  -4.930587e+001  -8.472643e+001 
3228125000  -5.006744e+001  -9.165543e+001 
3231250000  -5.031325e+001  -1.001933e+002 
3234375000  -5.001056e+001  -1.071870e+002 
3237500000  -5.025600e+001  -1.194449e+002 
3240625000  -4.979095e+001  -1.320637e+002 
3243750000  -4.969906e+001  -1.451538e+002 
3246875000  -5.084795e+001  -1.553223e+002 
3250000000  -5.092673e+001  -1.656315e+002 
3253125000  -5.182966e+001  -1.714908e+002 
3256250000  -5.003758e+001  1.728863e+002 
3259375000  -5.120601e+001  1.569225e+002 
3262500000  -5.290966e+001  1.554496e+002 
3265625000  -5.404694e+001  1.447242e+002 
3268750000  -5.255273e+001  1.441836e+002 
3271875000  -5.317435e+001  1.347486e+002 
3275000000  -5.260748e+001  1.240814e+002 
3278125000  -5.188461e+001  1.096611e+002 
3281250000  -5.308873e+001  1.076817e+002 
3284375000  -5.217317e+001  9.256081e+001 
3287500000  -5.394493e+001  8.250317e+001 
3290625000  -5.295160e+001  7.369997e+001 
3293750000  -5.327232e+001  6.178287e+001 
3296875000  -5.344428e+001  5.113022e+001 
3300000000  -5.414876e+001  5.470142e+001 
3303125000  -5.323319e+001  3.846761e+001 
3306250000  -5.441319e+001  2.624412e+001 
3309375000  -5.411857e+001  1.110850e+001 
3312500000  -5.267065e+001  -4.052425e+000 
3315625000  -5.438363e+001  -2.015382e+000 
3318750000  -5.613618e+001  -2.342047e+001 
3321875000  -5.808592e+001  -2.411868e+001 
3325000000  -5.686024e+001  -1.416436e+001 
3328125000  -5.783726e+001  -2.836507e+001 
3331250000  -5.242232e+001  -1.901149e+001 
3334375000  -5.203804e+001  -4.810621e+001 
3337500000  -5.218335e+001  -6.585288e+001 
3340625000  -5.385048e+001  -8.029966e+001 
3343750000  -5.547132e+001  -8.284311e+001 
3346875000  -5.592501e+001  -9.696215e+001 
3350000000  -5.513321e+001  -9.285889e+001 
3353125000  -5.423362e+001  -1.114620e+002 
3356250000  -5.488564e+001  -1.284274e+002 
3359375000  -5.477581e+001  -1.513550e+002 
3362500000  -5.764131e+001  -1.545408e+002 
3365625000  -5.509176e+001  -1.574592e+002 
3368750000  -5.630527e+001  -1.752581e+002 
3371875000  -5.755848e+001  1.785192e+002 
3375000000  -5.846387e+001  1.683195e+002 
3378125000  -5.934576e+001  1.796289e+002 
3381250000  -6.058092e+001  1.750649e+002 
3384375000  -5.659536e+001  -1.760543e+002 
3387500000  -5.387632e+001  1.622832e+002 
3390625000  -5.471413e+001  1.214345e+002 
3393750000  -5.712677e+001  1.197525e+002 
3396875000  -5.682847e+001  1.089627e+002 
3400000000  -5.441828e+001  9.481358e+001 
3403125000  -5.803285e+001  8.859814e+001 
3406250000  -5.721823e+001  7.815868e+001 
3409375000  -5.829415e+001  5.820723e+001 
3412500000  -5.856951e+001  4.777542e+001 
3415625000  -5.950991e+001  3.507258e+001 
3418750000  -6.062365e+001  3.747627e+001 
3421875000  -6.009896e+001  2.745819e+001 
3425000000  -6.005390e+001  2.655727e+001 
3428125000  -6.118617e+001  9.337200e+000 
3431250000  -5.948150e+001  -1.159701e+000 
3434375000  -5.962922e+001  -1.387988e+001 
3437500000  -6.092709e+001  -3.176463e+001 
3440625000  -5.918668e+001  -3.275443e+001 
3443750000  -6.356174e+001  -3.725063e+001 
3446875000  -6.017751e+001  -5.674987e+001 
3450000000  -6.059718e+001  -6.982398e+001 
3453125000  -6.397545e+001  -8.582578e+001 
3456250000  -6.909590e+001  -9.128145e+001 
3459375000  -6.430125e+001  -7.767953e+001 
3462500000  -6.812034e+001  -1.230967e+002 
3465625000  -6.493784e+001  -9.657531e+001 
3468750000  -6.415784e+001  -1.062008e+002 
3471875000  -6.775098e+001  -1.051958e+002 
3475000000  -6.740150e+001  -1.051975e+002 
3478125000  -6.718563e+001  -1.189929e+002 
3481250000  -6.875749e+001  -1.642520e+002 
3484375000  -6.971636e+001  -1.442153e+002 
3487500000  -6.733820e+001  -1.350959e+002 
3490625000  -6.470203e+001  -1.463846e+002 
3493750000  -6.887122e+001  -1.381296e+002 
3496875000  -6.517480e+001  -1.609858e+002 
3500000000  -6.571570e+001  -1.612541e+002 
3503125000  -6.844723e+001  -1.683344e+002 
3506250000  -6.328852e+001  -1.758730e+002 
3509375000  -6.227079e+001  -1.648471e+002 
3512500000  -6.769749e+001  1.326120e+002 
3515625000  -7.169444e+001  1.404592e+002 
3518750000  -6.178780e+001  1.255889e+002 
3521875000  -6.903474e+001  1.348529e+002 
3525000000  -6.469244e+001  1.196967e+002 
3528125000  -6.539046e+001  1.140538e+002 
3531250000  -6.387376e+001  1.507398e+002 
3534375000  -6.727362e+001  7.484439e+001 
3537500000  -7.266648e+001  9.439653e+001 
3540625000  -7.052200e+001  4.916363e+001 
3543750000  -7.020300e+001  5.141634e+001 
3546875000  -6.963377e+001  5.073799e+001 
3550000000  -6.984693e+001  4.062709e+001 
3553125000  -7.142619e+001  9.302750e+001 
3556250000  -7.482725e+001  9.352879e+001 
3559375000  -7.052900e+001  -5.164930e+000 
3562500000  -7.398524e+001  1.622692e+002 
3565625000  -7.253545e+001  4.235901e+001 
3568750000  -7.542471e+001  -3.606510e+001 
3571875000  -6.866502e+001  5.496379e+001 
3575000000  -7.987759e+001  -1.418985e+000 
3578125000  -7.134995e+001  3.442818e+001 
3581250000  -7.781583e+001  -3.693691e+000 
3584375000  -6.872055e+001  7.911642e+001 
3587500000  -6.761582e+001  3.097380e+000 
3590625000  -6.930004e+001  3.688505e+001 
3593750000  -6.637992e+001  -1.439378e+001 
3596875000  -6.459438e+001  -1.915135e-001 
3600000000  -6.864262e+001  -3.659558e+001 
3603125000  -6.502097e+001  -1.458846e+001 
3606250000  -6.521333e+001  -2.141012e+001 
3609375000  -7.009497e+001  -4.339476e+001 
3612500000  -6.444564e+001  -6.262267e+001 
3615625000  -6.670492e+001  -5.117169e+001 
3618750000  -6.419953e+001  -7.794619e+001 
3621875000  -6.537129e+001  -8.600626e+001 
3625000000  -6.314591e+001  -6.482024e+001 
3628125000  -6.370586e+001  -1.186968e+002 
3631250000  -6.451170e+001  -1.163912e+002 
3634375000  -6.327168e+001  -1.056526e+002 
3637500000  -6.639922e+001  -1.209585e+002 
3640625000  -6.219995e+001  -1.471674e+002 
3643750000  -6.068855e+001  -1.350569e+002 
3646875000  -6.039610e+001  -1.679596e+002 
3650000000  -6.677000e+001  1.799583e+002 
3653125000  -6.278259e+001  1.661975e+002 
3656250000  -6.250260e+001  1.448140e+002 
3659375000  -6.350443e+001  1.733087e+002 
3662500000  -6.491372e+001  1.731091e+002 
3665625000  -6.517567e+001  1.500795e+002 
3668750000  -6.284729e+001  1.278255e+002 
3671875000  -6.487174e+001  1.197717e+002 
3675000000  -6.275648e+001  1.086844e+002 
3678125000  -6.417612e+001  1.228833e+002 
3681250000  -6.023478e+001  1.015545e+002 
3684375000  -7.098583e+001  7.476598e+001 
3687500000  -6.961806e+001  7.850159e+001 
3690625000  -7.719572e+001  4.409798e+001 
3693750000  -6.710580e+001  8.610526e+001 
3696875000  -6.734993e+001  8.667875e+001 
3700000000  -6.231997e+001  6.883565e+001 
3703125000  -6.747352e+001  5.463871e+001 
3706250000  -6.465802e+001  7.270284e+001 
3709375000  -6.712165e+001  4.483398e+001 
3712500000  -6.331735e+001  7.292652e+001 
3715625000  -6.341010e+001  4.247802e+001 
3718750000  -6.133179e+001  4.049852e+001 
3721875000  -6.290857e+001  2.435131e+001 
3725000000  -6.254214e+001  1.922314e+001 
3728125000  -5.934919e+001  5.323400e+000 
3731250000  -6.222658e+001  -8.829828e+000 
3734375000  -5.862576e+001  -1.910490e+001 
3737500000  -5.894638e+001  -3.222983e+001 
3740625000  -5.878169e+001  -3.587847e+001 
3743750000  -5.994576e+001  -6.179721e+001 
3746875000  -6.066587e+001  -7.354187e+001 
3750000000  -5.876578e+001  -8.531619e+001 
3753125000  -5.938160e+001  -8.027171e+001 
3756250000  -5.659858e+001  -1.011943e+002 
3759375000  -5.905295e+001  -9.723960e+001 
3762500000  -5.870446e+001  -1.196994e+002 
3765625000  -5.953836e+001  -1.258604e+002 
3768750000  -5.661094e+001  -1.355791e+002 
3771875000  -5.656476e+001  -1.519576e+002 
3775000000  -5.536777e+001  -1.667421e+002 
3778125000  -5.709428e+001  -1.763061e+002 
3781250000  -5.529288e+001  -1.794020e+002 
3784375000  -5.729923e+001  1.683512e+002 
3787500000  -5.600010e+001  1.602940e+002 
3790625000  -5.730396e+001  1.467921e+002 
3793750000  -5.700976e+001  1.321670e+002 
3796875000  -5.877363e+001  1.259399e+002 
3800000000  -5.356199e+001  8.406063e+001 
3803125000  -5.902367e+001  1.172487e+002 
3806250000  -5.966684e+001  7.468437e+001 
3809375000  -5.747078e+001  8.224103e+001 
3812500000  -5.803984e+001  5.518177e+001 
3815625000  -6.129355e+001  3.413379e+001 
3818750000  -6.120146e+001  4.090999e+001 
3821875000  -6.353892e+001  7.398681e+001 
3825000000  -6.025103e+001  4.758605e+001 
3828125000  -5.768024e+001  1.795151e+001 
3831250000  -6.104219e+001  7.378619e+000 
3834375000  -6.347368e+001  3.684397e+000 
3837500000  -6.287893e+001  1.433936e+001 
3840625000  -6.021162e+001  2.178067e+000 
3843750000  -6.113041e+001  -8.560288e+000 
3846875000  -6.376992e+001  -1.480140e+001 
3850000000  -6.409568e+001  -2.081751e+001 
3853125000  -6.301548e+001  -2.291664e+001 
3856250000  -6.335540e+001  -8.412989e+000 
3859375000  -6.086547e+001  -2.983252e+001 
3862500000  -6.027138e+001  -2.953182e+001 
3865625000  -6.102975e+001  -4.918910e+001 
3868750000  -6.274944e+001  -4.252243e+001 
3871875000  -5.752726e+001  -4.921561e+001 
3875000000  -6.014294e+001  -6.584724e+001 
3878125000  -5.804816e+001  -7.939455e+001 
3881250000  -5.816562e+001  -7.576410e+001 
3884375000  -5.701253e+001  -8.666068e+001 
3887500000  -5.771786e+001  -1.119594e+002 
3890625000  -5.702185e+001  -1.193134e+002 
3893750000  -5.731934e+001  -1.354566e+002 
3896875000  -5.746016e+001  -1.280343e+002 
3900000000  -5.639299e+001  -1.392201e+002 
3903125000  -5.706819e+001  -1.472410e+002 
3906250000  -5.304388e+001  -1.672222e+002 
3909375000  -5.465763e+001  1.663992e+002 
3912500000  -5.533900e+001  1.636532e+002 
3915625000  -5.772273e+001  1.589558e+002 
3918750000  -5.476131e+001  1.506589e+002 
3921875000  -5.458947e+001  1.425163e+002 
3925000000  -5.306509e+001  1.319208e+002 
3928125000  -5.382425e+001  1.103556e+002 
3931250000  -5.300974e+001  1.038205e+002 
3934375000  -5.500640e+001  8.705552e+001 
3937500000  -5.576623e+001  8.336073e+001 
3940625000  -5.455713e+001  6.828645e+001 
3943750000  -5.311893e+001  7.007868e+001 
3946875000  -5.413976e+001  5.176664e+001 
3950000000  -5.400148e+001  3.740675e+001 
3953125000  -5.399523e+001  4.200777e+001 
3956250000  -5.356008e+001  2.672920e+001 
3959375000  -5.208347e+001  1.352617e+001 
3962500000  -5.315831e+001  -1.212422e+000 
3965625000  -5.389332e+001  -1.794911e+001 
3968750000  -5.466893e+001  -3.095164e+001 
3971875000  -5.510905e+001  -4.077536e+001 
3975000000  -5.358150e+001  -5.703193e+001 
3978125000  -5.483095e+001  -5.350832e+001 
3981250000  -5.507819e+001  -7.664182e+001 
3984375000  -5.726162e+001  -7.703730e+001 
3987500000  -5.470598e+001  -9.087501e+001 
3990625000  -5.642947e+001  -9.568562e+001 
3993750000  -5.797581e+001  -1.195894e+002 
3996875000  -5.880731e+001  -1.166764e+002 
4000000000  -5.718455e+001  -1.266610e+002 
4003125000  -5.890090e+001  -1.137587e+002 
4006250000  -5.657596e+001  -1.390938e+002 
4009375000  -5.678652e+001  -1.482522e+002 
4012500000  -6.160834e+001  -1.698708e+002 
4015625000  -5.990911e+001  -1.721625e+002 
4018750000  -5.875822e+001  -1.704746e+002 
4021875000  -5.982560e+001  -1.679038e+002 
4025000000  -6.100428e+001  1.771221e+002 
4028125000  -6.037500e+001  1.634431e+002 
4031250000  -5.888797e+001  1.721674e+002 
4034375000  -6.288771e+001  1.698429e+002 
4037500000  -5.795686e+001  1.429934e+002 
4040625000  -5.910295e+001  1.472019e+002 
4043750000  -5.834814e+001  1.559006e+002 
4046875000  -5.825351e+001  1.301132e+002 
4050000000  -5.695323e+001  1.319237e+002 
4053125000  -5.897304e+001  1.261292e+002 
4056250000  -5.674282e+001  1.140953e+002 
4059375000  -5.639468e+001  1.118673e+002 
4062500000  -5.569004e+001  1.058055e+002 
4065625000  -5.489173e+001  8.145554e+001 
4068750000  -5.258237e+001  6.854633e+001 
4071875000  -5.229484e+001  6.396663e+001 
4075000000  -5.277388e+001  4.663065e+001 
4078125000  -5.351115e+001  3.620184e+001 
4081250000  -5.423392e+001  1.984989e+001 
4084375000  -5.203297e+001  1.020483e+001 
4087500000  -5.360372e+001  -4.554583e+000 
4090625000  -5.271512e+001  1.198632e+000 
4093750000  -5.279897e+001  -2.089247e+001 
4096875000  -5.387473e+001  -3.391390e+001 
4100000000  -5.380030e+001  -5.002033e+001 
4103125000  -5.467347e+001  -5.219298e+001 
4106250000  -5.376626e+001  -6.594588e+001 
4109375000  -5.233167e+001  -5.705768e+001 
4112500000  -5.178559e+001  -8.349615e+001 
4115625000  -5.445877e+001  -8.451114e+001 
4118750000  -5.252431e+001  -1.013070e+002 
4121875000  -5.191303e+001  -1.210092e+002 
4125000000  -5.258925e+001  -1.254017e+002 
4128125000  -5.513924e+001  -1.304454e+002 
4131250000  -5.341101e+001  -1.275956e+002 
4134375000  -5.146066e+001  -1.449514e+002 
4137500000  -5.128925e+001  -1.772786e+002 
4140625000  -5.493430e+001  1.741319e+002 
4143750000  -5.594919e+001  1.777845e+002 
4146875000  -5.375499e+001  1.759665e+002 
4150000000  -5.632924e+001  1.543902e+002 
4153125000  -5.310290e+001  1.508773e+002 
4156250000  -5.524330e+001  1.219258e+002 
4159375000  -5.739597e+001  1.313326e+002 
4162500000  -5.693143e+001  1.143061e+002 
4165625000  -5.577546e+001  1.188478e+002 
4168750000  -5.429224e+001  7.091164e+001 
4171875000  -5.551894e+001  8.241579e+001 
4175000000  -5.625651e+001  6.198903e+001 
4178125000  -5.795701e+001  5.721001e+001 
4181250000  -5.884267e+001  4.618056e+001 
4184375000  -6.051221e+001  2.595750e+001 
4187500000  -5.894991e+001  3.385766e+001 
4190625000  -6.208161e+001  7.896457e+000 
4193750000  -6.117659e+001  1.552031e+001 
4196875000  -6.409064e+001  7.775358e+000 
4200000000  -6.245697e+001  2.383288e+001 
4203125000  -6.695508e+001  1.997833e+001 
4206250000  -5.836021e+001  7.907098e+000 
4209375000  -6.208805e+001  -1.892119e+001 
4212500000  -6.250380e+001  8.254207e+000 
4215625000  -6.099771e+001  -1.297978e+001 
4218750000  -6.237526e+001  2.170148e+001 
4221875000  -6.247404e+001  -1.772300e+001 
4225000000  -6.139224e+001  -1.488809e+001 
4228125000  -5.933234e+001  -3.900750e+001 
4231250000  -5.979937e+001  -3.202414e+001 
4234375000  -6.058401e+001  -2.878036e+001 
4237500000  -5.842129e+001  -3.635828e+001 
4240625000  -5.590311e+001  -6.620593e+001 
4243750000  -5.824028e+001  -7.038882e+001 
4246875000  -5.621191e+001  -7.464966e+001 
4250000000  -5.844376e+001  -7.956834e+001 
4253125000  -5.341005e+001  -8.822890e+001 
4256250000  -5.811373e+001  -1.041024e+002 
4259375000  -5.574298e+001  -1.091455e+002 
4262500000  -5.583896e+001  -1.114176e+002 
4265625000  -5.589696e+001  -1.239819e+002 
4268750000  -5.114228e+001  -1.407990e+002 
4271875000  -5.121257e+001  -1.536251e+002 
4275000000  -5.143597e+001  -1.724537e+002 
4278125000  -5.224453e+001  1.645319e+002 
4281250000  -5.324832e+001  1.569055e+002 
4284375000  -5.380506e+001  1.585182e+002 
4287500000  -5.545782e+001  1.420752e+002 
4290625000  -5.404009e+001  1.532489e+002 
4293750000  -5.362814e+001  1.509380e+002 
4296875000  -5.219646e+001  1.249046e+002 
4300000000  -5.200272e+001  1.091312e+002 
4303125000  -5.151791e+001  9.705890e+001 
4306250000  -5.297210e+001  9.419939e+001 
4309375000  -5.043146e+001  8.069379e+001 
4312500000  -5.126443e+001  6.328493e+001 
4315625000  -5.128473e+001  5.557636e+001 
4318750000  -5.323327e+001  4.159315e+001 
4321875000  -5.235939e+001  4.202176e+001 
4325000000  -5.355469e+001  3.467469e+001 
4328125000  -5.191743e+001  6.553441e+000 
4331250000  -5.282066e+001  -7.998609e+000 
4334375000  -5.445820e+001  -1.711862e+001 
4337500000  -5.417612e+001  -3.878727e+001 
4340625000  -5.588583e+001  -2.882551e+001 
4343750000  -5.375984e+001  -3.271439e+001 
4346875000  -5.668032e+001  -4.178880e+001 
4350000000  -5.607825e+001  -6.002894e+001 
4353125000  -5.609054e+001  -7.020481e+001 
4356250000  -5.871337e+001  -5.707860e+001 
4359375000  -5.815659e+001  -4.958274e+001 
4362500000  -5.257978e+001  -9.323584e+001 
4365625000  -5.700485e+001  -8.548068e+001 
4368750000  -5.574772e+001  -8.849606e+001 
4371875000  -5.846389e+001  -1.037483e+002 
4375000000  -5.754352e+001  -1.128995e+002 
4378125000  -5.730638e+001  -1.126443e+002 
4381250000  -5.948781e+001  -1.239508e+002 
4384375000  -5.616660e+001  -1.487156e+002 
4387500000  -5.862488e+001  -1.468058e+002 
4390625000  -5.678553e+001  -1.580980e+002 
4393750000  -5.680590e+001  -1.473872e+002 
4396875000  -5.648056e+001  -1.556227e+002 
4400000000  -5.706335e+001  -1.696465e+002 
4403125000  -5.480405e+001  -1.728165e+002 
4406250000  -5.675526e+001  1.698688e+002 
4409375000  -5.570367e+001  1.622801e+002 
4412500000  -5.896382e+001  1.512955e+002 
4415625000  -5.480152e+001  1.558007e+002 
