!Agilent Technologies,E8363B,MY43030201,A.06.04.32
!Agilent E8363B: A.06.04.32
!Date: Tuesday, November 11, 2014 22:15:53
!Correction: S21(Response(S21)) 
!S1P File: Measurement: S21:
# Hz S  dB   R 50
3000000000  -4.911708e+001  -7.334267e+001 
3003125000  -5.157440e+001  -7.934496e+001 
3006250000  -5.175984e+001  -8.652567e+001 
3009375000  -5.207676e+001  -8.667146e+001 
3012500000  -5.077231e+001  -9.754450e+001 
3015625000  -5.117447e+001  -1.069091e+002 
3018750000  -5.153706e+001  -1.138362e+002 
3021875000  -5.005495e+001  -1.180351e+002 
3025000000  -4.869009e+001  -1.279938e+002 
3028125000  -4.830937e+001  -1.439115e+002 
3031250000  -4.714849e+001  -1.605911e+002 
3034375000  -4.711794e+001  1.797871e+002 
3037500000  -4.786464e+001  1.661090e+002 
3040625000  -4.928183e+001  1.538121e+002 
3043750000  -5.014604e+001  1.451505e+002 
3046875000  -5.087836e+001  1.343395e+002 
3050000000  -5.129336e+001  1.230006e+002 
3053125000  -5.136553e+001  1.242924e+002 
3056250000  -5.129859e+001  1.246798e+002 
3059375000  -5.015096e+001  1.118049e+002 
3062500000  -4.909721e+001  1.012887e+002 
3065625000  -4.916460e+001  8.944256e+001 
3068750000  -4.905698e+001  7.730825e+001 
3071875000  -4.921107e+001  7.141119e+001 
3075000000  -4.859260e+001  5.819218e+001 
3078125000  -4.859863e+001  4.887270e+001 
3081250000  -4.897414e+001  3.562812e+001 
3084375000  -4.824154e+001  2.676049e+001 
3087500000  -4.846382e+001  1.468606e+001 
3090625000  -4.809966e+001  -2.986352e+000 
3093750000  -4.926370e+001  -1.588453e+001 
3096875000  -4.935965e+001  -2.167041e+001 
3100000000  -4.955890e+001  -3.308189e+001 
3103125000  -5.013634e+001  -3.854579e+001 
3106250000  -4.946729e+001  -4.753278e+001 
3109375000  -4.939063e+001  -5.812979e+001 
3112500000  -4.917196e+001  -6.725338e+001 
3115625000  -4.935352e+001  -7.692789e+001 
3118750000  -4.964751e+001  -8.273296e+001 
3121875000  -4.913198e+001  -9.926521e+001 
3125000000  -5.086483e+001  -1.028658e+002 
3128125000  -5.079532e+001  -1.074825e+002 
3131250000  -4.823500e+001  -1.166699e+002 
3134375000  -4.754302e+001  -1.342719e+002 
3137500000  -4.849659e+001  -1.543401e+002 
3140625000  -4.942460e+001  -1.612645e+002 
3143750000  -5.108535e+001  -1.675980e+002 
3146875000  -5.010504e+001  -1.729341e+002 
3150000000  -4.909127e+001  -1.792992e+002 
3153125000  -4.943696e+001  1.683077e+002 
3156250000  -5.095190e+001  1.644424e+002 
3159375000  -4.826127e+001  1.615940e+002 
3162500000  -4.628718e+001  1.386897e+002 
3165625000  -4.783547e+001  1.213228e+002 
3168750000  -4.791085e+001  1.178087e+002 
3171875000  -4.722429e+001  1.043712e+002 
3175000000  -4.756824e+001  8.914891e+001 
3178125000  -4.740424e+001  8.510410e+001 
3181250000  -4.638098e+001  7.029836e+001 
3184375000  -4.686811e+001  5.505840e+001 
3187500000  -4.753001e+001  3.671299e+001 
3190625000  -4.937931e+001  2.544287e+001 
3193750000  -4.987660e+001  2.529098e+001 
3196875000  -4.965499e+001  1.882698e+001 
3200000000  -4.813375e+001  1.104406e+001 
3203125000  -4.810895e+001  -2.959326e+000 
3206250000  -4.883093e+001  -1.171534e+001 
3209375000  -4.825542e+001  -2.958551e+001 
3212500000  -4.848655e+001  -3.665754e+001 
3215625000  -4.833127e+001  -4.217745e+001 
3218750000  -4.934070e+001  -6.305373e+001 
3221875000  -4.941940e+001  -7.369279e+001 
3225000000  -5.001743e+001  -8.432162e+001 
3228125000  -5.030718e+001  -9.210882e+001 
3231250000  -5.098560e+001  -1.039227e+002 
3234375000  -5.000486e+001  -1.060147e+002 
3237500000  -5.038478e+001  -1.186136e+002 
3240625000  -4.989431e+001  -1.247535e+002 
3243750000  -4.982111e+001  -1.459301e+002 
3246875000  -5.032415e+001  -1.533336e+002 
3250000000  -5.051940e+001  -1.633020e+002 
3253125000  -5.077842e+001  -1.714857e+002 
3256250000  -5.064674e+001  1.757978e+002 
3259375000  -5.108240e+001  1.593026e+002 
3262500000  -5.160817e+001  1.511699e+002 
3265625000  -5.212967e+001  1.462948e+002 
3268750000  -5.339798e+001  1.390650e+002 
3271875000  -5.327199e+001  1.366512e+002 
3275000000  -5.211777e+001  1.232106e+002 
3278125000  -5.272987e+001  1.088859e+002 
3281250000  -5.282210e+001  1.050284e+002 
3284375000  -5.220445e+001  9.767789e+001 
3287500000  -5.407537e+001  8.238515e+001 
3290625000  -5.305342e+001  7.627213e+001 
3293750000  -5.326646e+001  6.359397e+001 
3296875000  -5.308350e+001  5.898878e+001 
3300000000  -5.464468e+001  4.810763e+001 
3303125000  -5.324210e+001  4.070208e+001 
3306250000  -5.336885e+001  2.982459e+001 
3309375000  -5.240214e+001  1.737522e+001 
3312500000  -5.274570e+001  -4.174961e+000 
3315625000  -5.548551e+001  -1.010980e+001 
3318750000  -5.712672e+001  -1.683767e+001 
3321875000  -5.680486e+001  -1.581756e+001 
3325000000  -5.587060e+001  -1.777352e+001 
3328125000  -5.734218e+001  -1.515651e+001 
3331250000  -5.419339e+001  -3.457018e+001 
3334375000  -5.207480e+001  -4.814882e+001 
3337500000  -5.223660e+001  -7.021677e+001 
3340625000  -5.429523e+001  -8.547624e+001 
3343750000  -5.707246e+001  -8.692239e+001 
3346875000  -5.505701e+001  -9.384784e+001 
3350000000  -5.477592e+001  -9.516367e+001 
3353125000  -5.448824e+001  -1.160827e+002 
3356250000  -5.400236e+001  -1.269956e+002 
3359375000  -5.506459e+001  -1.393448e+002 
3362500000  -5.608782e+001  -1.533550e+002 
3365625000  -5.542268e+001  -1.608030e+002 
3368750000  -5.723809e+001  -1.780712e+002 
3371875000  -5.717760e+001  -1.755060e+002 
3375000000  -5.924853e+001  1.661033e+002 
3378125000  -5.838103e+001  1.755917e+002 
3381250000  -5.938390e+001  1.773179e+002 
3384375000  -5.629567e+001  -1.726468e+002 
3387500000  -5.466682e+001  1.482393e+002 
3390625000  -5.780425e+001  1.365953e+002 
3393750000  -5.731184e+001  1.120525e+002 
3396875000  -5.827769e+001  1.194087e+002 
3400000000  -5.602414e+001  9.112090e+001 
3403125000  -5.701333e+001  8.615259e+001 
3406250000  -5.721952e+001  7.211801e+001 
3409375000  -5.733286e+001  6.128695e+001 
3412500000  -5.701554e+001  6.415473e+001 
3415625000  -6.159958e+001  4.334496e+001 
3418750000  -5.974270e+001  4.717893e+001 
3421875000  -6.006462e+001  2.081194e+001 
3425000000  -5.991880e+001  2.533450e+001 
3428125000  -5.916336e+001  2.153609e+000 
3431250000  -6.349508e+001  -8.607796e-001 
3434375000  -5.917327e+001  -1.770979e+001 
3437500000  -5.954071e+001  -1.109175e+001 
3440625000  -6.122581e+001  -1.950647e+001 
3443750000  -6.247829e+001  -2.582256e+001 
3446875000  -6.002790e+001  -6.756269e+001 
3450000000  -6.152077e+001  -7.976411e+001 
3453125000  -6.259914e+001  -6.655949e+001 
3456250000  -6.865080e+001  -8.891585e+001 
3459375000  -6.616559e+001  -7.282500e+001 
3462500000  -6.688086e+001  -1.207036e+002 
3465625000  -6.515734e+001  -9.001572e+001 
3468750000  -6.822531e+001  -1.180710e+002 
3471875000  -6.446265e+001  -1.006436e+002 
3475000000  -6.710687e+001  -1.118254e+002 
3478125000  -6.494668e+001  -1.353819e+002 
3481250000  -6.795515e+001  -1.273463e+002 
3484375000  -6.574368e+001  -1.100143e+002 
3487500000  -6.749307e+001  -1.112487e+002 
3490625000  -6.637193e+001  -1.363445e+002 
3493750000  -7.450484e+001  -1.497781e+002 
3496875000  -6.841528e+001  -1.422506e+002 
3500000000  -6.490353e+001  -1.725453e+002 
3503125000  -7.056694e+001  -1.405099e+002 
3506250000  -6.366569e+001  -1.669200e+002 
3509375000  -6.337306e+001  -1.734059e+002 
3512500000  -6.644557e+001  -1.797327e+002 
3515625000  -6.618269e+001  1.535767e+002 
3518750000  -6.508117e+001  1.579001e+002 
3521875000  -7.143763e+001  1.518275e+002 
3525000000  -7.094748e+001  1.299100e+002 
3528125000  -7.072328e+001  8.697314e+001 
3531250000  -6.695255e+001  1.245815e+002 
3534375000  -6.872237e+001  8.466319e+001 
3537500000  -6.378949e+001  7.604216e+001 
3540625000  -6.973505e+001  7.480564e+001 
3543750000  -7.174332e+001  8.826797e+001 
3546875000  -6.916252e+001  5.475697e+001 
3550000000  -6.855508e+001  7.717230e+001 
3553125000  -6.539756e+001  4.977340e+001 
3556250000  -7.316521e+001  8.334688e+001 
3559375000  -7.038002e+001  5.247006e+001 
3562500000  -7.872998e+001  -1.716922e+002 
3565625000  -6.973415e+001  5.224870e+001 
3568750000  -7.520692e+001  2.231592e+001 
3571875000  -7.752045e+001  1.504066e+000 
3575000000  -6.790741e+001  5.665860e+001 
3578125000  -6.658273e+001  3.958379e+001 
3581250000  -8.008505e+001  1.084652e+002 
3584375000  -7.127277e+001  7.261498e+001 
3587500000  -7.339567e+001  -1.017781e+001 
3590625000  -6.684467e+001  3.442752e+001 
3593750000  -6.779000e+001  1.124689e+001 
3596875000  -6.549064e+001  4.924887e+001 
3600000000  -6.645441e+001  -5.336506e+001 
3603125000  -7.227821e+001  -2.824609e+001 
3606250000  -6.556487e+001  -3.785926e+001 
3609375000  -6.635476e+001  -5.201702e+001 
3612500000  -6.724583e+001  -6.037822e+001 
3615625000  -6.874287e+001  -8.185365e+001 
3618750000  -6.228607e+001  -7.122888e+001 
3621875000  -6.684415e+001  -9.957768e+001 
3625000000  -6.409168e+001  -6.649506e+001 
3628125000  -6.222040e+001  -9.448998e+001 
3631250000  -6.149347e+001  -9.784904e+001 
3634375000  -6.403827e+001  -1.071771e+002 
3637500000  -6.527798e+001  -1.117270e+002 
3640625000  -6.060646e+001  -1.248568e+002 
3643750000  -6.052304e+001  -1.507971e+002 
3646875000  -6.210733e+001  -1.773725e+002 
3650000000  -6.549761e+001  -1.777737e+002 
3653125000  -6.229644e+001  1.660497e+002 
3656250000  -6.275660e+001  -1.787433e+002 
3659375000  -6.370857e+001  1.549000e+002 
3662500000  -6.227349e+001  1.526305e+002 
3665625000  -6.300184e+001  1.597755e+002 
3668750000  -6.062588e+001  1.306452e+002 
3671875000  -6.467570e+001  1.046091e+002 
3675000000  -6.710674e+001  9.556764e+001 
3678125000  -6.486221e+001  1.379011e+002 
3681250000  -6.217463e+001  1.092104e+002 
3684375000  -6.319333e+001  9.402921e+001 
3687500000  -6.409695e+001  1.113954e+002 
3690625000  -6.830116e+001  5.726406e+001 
3693750000  -6.650677e+001  1.096319e+002 
3696875000  -6.725444e+001  8.786723e+001 
3700000000  -6.496988e+001  7.569348e+001 
3703125000  -6.532580e+001  4.153708e+001 
3706250000  -6.454612e+001  4.303296e+001 
3709375000  -6.882621e+001  2.701900e+001 
3712500000  -6.153798e+001  6.771232e+001 
3715625000  -6.272308e+001  2.726643e+001 
3718750000  -6.171986e+001  2.663303e+001 
3721875000  -6.091965e+001  1.552636e+001 
3725000000  -6.455054e+001  2.091196e+001 
3728125000  -5.964962e+001  2.201544e+000 
3731250000  -6.038438e+001  -1.265117e+001 
3734375000  -5.628840e+001  -3.117884e+001 
3737500000  -5.863771e+001  -3.003097e+001 
3740625000  -5.986531e+001  -3.036410e+001 
3743750000  -5.829119e+001  -6.305609e+001 
3746875000  -5.936048e+001  -6.653713e+001 
3750000000  -5.703068e+001  -7.767107e+001 
3753125000  -5.800842e+001  -7.390884e+001 
3756250000  -5.859640e+001  -8.838501e+001 
3759375000  -5.777150e+001  -1.077819e+002 
3762500000  -5.674274e+001  -1.079958e+002 
3765625000  -5.688616e+001  -1.259403e+002 
3768750000  -5.587344e+001  -1.325380e+002 
3771875000  -5.525689e+001  -1.406457e+002 
3775000000  -5.541909e+001  -1.586011e+002 
3778125000  -5.671074e+001  -1.781728e+002 
3781250000  -5.558901e+001  1.770945e+002 
3784375000  -5.638145e+001  1.533609e+002 
3787500000  -5.577534e+001  1.573190e+002 
3790625000  -5.735083e+001  1.356350e+002 
3793750000  -5.706565e+001  1.348153e+002 
3796875000  -5.743263e+001  1.184907e+002 
3800000000  -5.284138e+001  8.200460e+001 
3803125000  -5.655839e+001  1.067958e+002 
3806250000  -6.128822e+001  6.286933e+001 
3809375000  -5.972115e+001  7.771842e+001 
3812500000  -5.712967e+001  5.867948e+001 
3815625000  -5.975301e+001  4.087669e+001 
3818750000  -6.076991e+001  2.433728e+001 
3821875000  -6.150656e+001  8.031706e+001 
3825000000  -6.075569e+001  4.022727e+001 
3828125000  -5.976731e+001  3.264740e+001 
3831250000  -5.775273e+001  1.692459e+001 
3834375000  -6.352682e+001  -2.215989e+000 
3837500000  -6.344019e+001  1.719954e+001 
3840625000  -6.144234e+001  -2.238793e+000 
3843750000  -6.238537e+001  -5.769608e+000 
3846875000  -6.216368e+001  -3.437574e+001 
3850000000  -6.424230e+001  -1.253840e+001 
3853125000  -6.626632e+001  8.504518e+000 
3856250000  -5.917493e+001  1.016813e+001 
3859375000  -6.101561e+001  -2.707778e+001 
3862500000  -6.219550e+001  -3.917645e+001 
3865625000  -6.074365e+001  -3.640824e+001 
3868750000  -6.144971e+001  -2.887454e+001 
3871875000  -5.724088e+001  -5.683308e+001 
3875000000  -6.024615e+001  -6.838529e+001 
3878125000  -5.960229e+001  -7.864467e+001 
3881250000  -5.738096e+001  -8.221724e+001 
3884375000  -5.631706e+001  -9.806841e+001 
3887500000  -5.640938e+001  -1.183567e+002 
3890625000  -5.736940e+001  -1.128157e+002 
3893750000  -5.681071e+001  -1.349106e+002 
3896875000  -5.649842e+001  -1.349841e+002 
3900000000  -5.710203e+001  -1.407651e+002 
3903125000  -5.509319e+001  -1.555952e+002 
3906250000  -5.476672e+001  -1.656595e+002 
3909375000  -5.530824e+001  1.792800e+002 
3912500000  -5.463288e+001  1.629227e+002 
3915625000  -5.745115e+001  1.568268e+002 
3918750000  -5.571573e+001  1.443756e+002 
3921875000  -5.420729e+001  1.410404e+002 
3925000000  -5.340858e+001  1.309092e+002 
3928125000  -5.241063e+001  1.105577e+002 
3931250000  -5.400156e+001  9.869622e+001 
3934375000  -5.440137e+001  8.771510e+001 
3937500000  -5.447395e+001  7.864494e+001 
3940625000  -5.288668e+001  7.977305e+001 
3943750000  -5.467444e+001  6.190147e+001 
3946875000  -5.307051e+001  4.443187e+001 
3950000000  -5.413575e+001  4.087214e+001 
3953125000  -5.489002e+001  2.717325e+001 
3956250000  -5.390265e+001  2.943279e+001 
3959375000  -5.288465e+001  1.623228e+001 
3962500000  -5.325700e+001  -2.667710e+000 
3965625000  -5.280346e+001  -1.630090e+001 
3968750000  -5.403598e+001  -2.672209e+001 
3971875000  -5.307564e+001  -3.723456e+001 
3975000000  -5.457254e+001  -5.330015e+001 
3978125000  -5.477599e+001  -5.474976e+001 
3981250000  -5.473648e+001  -7.554871e+001 
3984375000  -5.483195e+001  -7.729947e+001 
3987500000  -5.625383e+001  -8.382143e+001 
3990625000  -5.890061e+001  -9.020818e+001 
3993750000  -5.810336e+001  -1.162294e+002 
3996875000  -5.718704e+001  -1.204938e+002 
4000000000  -6.178196e+001  -1.241364e+002 
4003125000  -6.134578e+001  -1.350503e+002 
4006250000  -5.607785e+001  -1.417349e+002 
4009375000  -5.624386e+001  -1.614344e+002 
4012500000  -6.022980e+001  -1.753942e+002 
4015625000  -6.012518e+001  -1.681632e+002 
4018750000  -5.953970e+001  -1.751153e+002 
4021875000  -5.950588e+001  1.732669e+002 
4025000000  -6.080983e+001  1.769847e+002 
4028125000  -5.877633e+001  1.755217e+002 
4031250000  -6.098073e+001  1.547035e+002 
4034375000  -5.984753e+001  1.563592e+002 
4037500000  -6.003530e+001  1.634870e+002 
4040625000  -5.941643e+001  1.404465e+002 
4043750000  -5.969762e+001  1.655125e+002 
4046875000  -5.774065e+001  1.388384e+002 
4050000000  -5.791688e+001  1.167758e+002 
4053125000  -5.698720e+001  1.193139e+002 
4056250000  -5.829987e+001  1.267254e+002 
4059375000  -5.619559e+001  1.091454e+002 
4062500000  -5.496492e+001  9.061572e+001 
4065625000  -5.399901e+001  8.480298e+001 
4068750000  -5.440122e+001  7.315546e+001 
4071875000  -5.222582e+001  6.680439e+001 
4075000000  -5.400391e+001  4.059332e+001 
4078125000  -5.305983e+001  4.206449e+001 
4081250000  -5.423577e+001  3.203034e+001 
4084375000  -5.152550e+001  1.499155e+001 
4087500000  -5.271913e+001  -1.611078e+000 
4090625000  -5.360406e+001  -6.330929e+000 
4093750000  -5.279832e+001  -1.408053e+001 
4096875000  -5.239232e+001  -3.299718e+001 
4100000000  -5.328860e+001  -5.435872e+001 
4103125000  -5.543233e+001  -3.920528e+001 
4106250000  -5.451102e+001  -5.044165e+001 
4109375000  -5.342546e+001  -6.383765e+001 
4112500000  -5.286247e+001  -7.860542e+001 
4115625000  -5.244727e+001  -8.801050e+001 
4118750000  -5.342859e+001  -9.895266e+001 
4121875000  -5.359546e+001  -1.123207e+002 
4125000000  -5.355292e+001  -1.235002e+002 
4128125000  -5.474195e+001  -1.350168e+002 
4131250000  -5.354901e+001  -1.216786e+002 
4134375000  -5.235228e+001  -1.366483e+002 
4137500000  -5.101151e+001  -1.679645e+002 
4140625000  -5.358862e+001  1.758242e+002 
4143750000  -5.539367e+001  1.666714e+002 
4146875000  -5.430236e+001  1.696485e+002 
4150000000  -5.534542e+001  1.678664e+002 
4153125000  -5.505291e+001  1.466014e+002 
4156250000  -5.604414e+001  1.391518e+002 
4159375000  -5.612177e+001  1.298826e+002 
4162500000  -5.554590e+001  1.064277e+002 
4165625000  -5.435197e+001  1.150037e+002 
4168750000  -5.559549e+001  8.355817e+001 
4171875000  -5.423034e+001  8.819174e+001 
4175000000  -5.573610e+001  6.134850e+001 
4178125000  -5.729831e+001  6.551008e+001 
4181250000  -5.857561e+001  4.734971e+001 
4184375000  -6.255125e+001  2.856421e+001 
4187500000  -5.870756e+001  3.028255e+001 
4190625000  -6.130387e+001  1.760632e+001 
4193750000  -6.415723e+001  1.338241e+001 
4196875000  -6.138087e+001  1.526255e+001 
4200000000  -7.367269e+001  5.250738e+001 
4203125000  -6.338635e+001  7.902410e+000 
4206250000  -5.920020e+001  4.490660e+001 
4209375000  -5.967473e+001  -1.898689e+001 
4212500000  -6.175525e+001  9.359668e-001 
4215625000  -6.581487e+001  2.765442e+000 
4218750000  -6.469254e+001  -7.653145e+000 
4221875000  -5.886123e+001  -8.625087e+000 
4225000000  -6.033527e+001  -3.815953e+000 
4228125000  -5.838737e+001  -2.528287e+001 
4231250000  -6.050547e+001  -2.081923e+001 
4234375000  -5.702195e+001  -4.196848e+001 
4237500000  -5.876386e+001  -5.799382e+001 
4240625000  -5.571968e+001  -6.229148e+001 
4243750000  -5.880562e+001  -7.549254e+001 
4246875000  -5.477441e+001  -7.317355e+001 
4250000000  -5.879213e+001  -8.552881e+001 
4253125000  -5.629294e+001  -8.367673e+001 
4256250000  -5.550256e+001  -1.042616e+002 
4259375000  -5.403802e+001  -1.060886e+002 
4262500000  -5.511137e+001  -1.254057e+002 
4265625000  -5.440502e+001  -1.152248e+002 
4268750000  -5.416233e+001  -1.474057e+002 
4271875000  -5.235700e+001  -1.482450e+002 
4275000000  -5.182051e+001  -1.750341e+002 
4278125000  -5.377498e+001  1.743916e+002 
4281250000  -5.228150e+001  1.699813e+002 
4284375000  -5.304978e+001  1.552388e+002 
4287500000  -5.472224e+001  1.451762e+002 
4290625000  -5.683896e+001  1.644766e+002 
4293750000  -5.239493e+001  1.427064e+002 
4296875000  -5.215572e+001  1.294705e+002 
4300000000  -5.208135e+001  1.009455e+002 
4303125000  -5.256049e+001  1.045249e+002 
4306250000  -5.310956e+001  1.015471e+002 
4309375000  -5.099944e+001  8.207895e+001 
4312500000  -5.251171e+001  6.292550e+001 
4315625000  -5.177620e+001  5.513455e+001 
4318750000  -5.326566e+001  4.604929e+001 
4321875000  -5.252428e+001  3.607251e+001 
4325000000  -5.262616e+001  2.703504e+001 
4328125000  -5.150225e+001  1.105405e+001 
4331250000  -5.357273e+001  -4.898239e+000 
4334375000  -5.471053e+001  -9.199373e+000 
4337500000  -5.490052e+001  -2.608787e+001 
4340625000  -5.772293e+001  -2.366147e+001 
4343750000  -5.454274e+001  -3.118918e+001 
4346875000  -5.467541e+001  -5.071901e+001 
4350000000  -5.712791e+001  -5.537318e+001 
4353125000  -5.706004e+001  -6.197725e+001 
4356250000  -5.659912e+001  -6.771838e+001 
4359375000  -5.784716e+001  -6.006768e+001 
4362500000  -5.581495e+001  -6.755289e+001 
4365625000  -5.368283e+001  -8.804428e+001 
4368750000  -5.506417e+001  -1.072986e+002 
4371875000  -5.812955e+001  -1.052775e+002 
4375000000  -5.701762e+001  -1.028446e+002 
4378125000  -5.594035e+001  -1.201563e+002 
4381250000  -5.677179e+001  -1.322934e+002 
4384375000  -5.600316e+001  -1.349294e+002 
4387500000  -5.904744e+001  -1.508434e+002 
4390625000  -5.735500e+001  -1.523982e+002 
4393750000  -5.794062e+001  -1.447084e+002 
4396875000  -5.452943e+001  -1.474188e+002 
4400000000  -5.656195e+001  -1.698175e+002 
4403125000  -5.533743e+001  1.674312e+002 
4406250000  -5.728486e+001  -1.795032e+002 
4409375000  -5.506260e+001  1.738256e+002 
4412500000  -5.625349e+001  1.605187e+002 
4415625000  -5.627042e+001  1.587693e+002 
4418750000  -5.577086e+001  1.559234e+002 
