!Agilent Technologies,E8363B,MY43030201,A.06.04.32
!Agilent E8363B: A.06.04.32
!Date: Tuesday, November 11, 2014 22:16:37
!Correction: S21(Response(S21)) 
!S1P File: Measurement: S21:
# Hz S  dB   R 50
3000000000  -4.884669e+001  -7.496465e+001 
3003125000  -5.160147e+001  -7.894185e+001 
3006250000  -5.196967e+001  -8.447659e+001 
3009375000  -5.200209e+001  -8.636049e+001 
3012500000  -5.138773e+001  -9.456198e+001 
3015625000  -5.150165e+001  -1.063377e+002 
3018750000  -5.176721e+001  -1.147751e+002 
3021875000  -4.957520e+001  -1.186206e+002 
3025000000  -4.870585e+001  -1.239964e+002 
3028125000  -4.783052e+001  -1.456056e+002 
3031250000  -4.680311e+001  -1.590436e+002 
3034375000  -4.700457e+001  -1.788578e+002 
3037500000  -4.810339e+001  1.678250e+002 
3040625000  -4.891581e+001  1.544569e+002 
3043750000  -4.895673e+001  1.448296e+002 
3046875000  -5.062662e+001  1.287622e+002 
3050000000  -5.119246e+001  1.260676e+002 
3053125000  -5.162919e+001  1.229809e+002 
3056250000  -5.071002e+001  1.211699e+002 
3059375000  -5.020634e+001  1.120032e+002 
3062500000  -4.918382e+001  1.046296e+002 
3065625000  -4.851852e+001  8.877618e+001 
3068750000  -4.904971e+001  7.831760e+001 
3071875000  -4.910254e+001  6.882580e+001 
3075000000  -4.862350e+001  5.828567e+001 
3078125000  -4.850014e+001  4.783878e+001 
3081250000  -4.893565e+001  3.737491e+001 
3084375000  -4.812698e+001  2.448512e+001 
3087500000  -4.840083e+001  1.488930e+001 
3090625000  -4.838644e+001  -2.436978e+000 
3093750000  -4.861691e+001  -1.487293e+001 
3096875000  -4.946202e+001  -2.249646e+001 
3100000000  -4.962293e+001  -3.302116e+001 
3103125000  -4.947164e+001  -3.629178e+001 
3106250000  -4.934928e+001  -4.938725e+001 
3109375000  -4.965874e+001  -5.837595e+001 
3112500000  -4.899006e+001  -6.855554e+001 
3115625000  -4.963465e+001  -7.583058e+001 
3118750000  -4.998098e+001  -8.312473e+001 
3121875000  -4.889832e+001  -9.733209e+001 
3125000000  -5.073490e+001  -1.096475e+002 
3128125000  -5.092672e+001  -1.042578e+002 
3131250000  -4.816723e+001  -1.139555e+002 
3134375000  -4.768570e+001  -1.383362e+002 
3137500000  -4.854109e+001  -1.534628e+002 
3140625000  -4.952999e+001  -1.572509e+002 
3143750000  -5.056700e+001  -1.656122e+002 
3146875000  -5.043146e+001  -1.726563e+002 
3150000000  -4.910543e+001  -1.770401e+002 
3153125000  -4.944022e+001  1.695411e+002 
3156250000  -4.993368e+001  1.656554e+002 
3159375000  -4.797045e+001  1.590630e+002 
3162500000  -4.659937e+001  1.371826e+002 
3165625000  -4.774329e+001  1.198129e+002 
3168750000  -4.746968e+001  1.168596e+002 
3171875000  -4.727663e+001  1.040743e+002 
3175000000  -4.751852e+001  8.756374e+001 
3178125000  -4.712648e+001  8.259589e+001 
3181250000  -4.661611e+001  7.031847e+001 
3184375000  -4.625840e+001  5.294532e+001 
3187500000  -4.734816e+001  3.550455e+001 
3190625000  -4.888686e+001  2.265294e+001 
3193750000  -4.960181e+001  2.272674e+001 
3196875000  -4.971516e+001  2.229324e+001 
3200000000  -4.832892e+001  1.045950e+001 
3203125000  -4.816421e+001  -2.593456e+000 
3206250000  -4.844417e+001  -1.708887e+001 
3209375000  -4.807504e+001  -2.964474e+001 
3212500000  -4.862456e+001  -3.989289e+001 
3215625000  -4.828046e+001  -4.741188e+001 
3218750000  -4.947962e+001  -6.283755e+001 
3221875000  -4.938826e+001  -7.600080e+001 
3225000000  -4.929562e+001  -8.336597e+001 
3228125000  -4.987212e+001  -9.134893e+001 
3231250000  -5.093288e+001  -9.986498e+001 
3234375000  -5.036819e+001  -1.067367e+002 
3237500000  -5.075113e+001  -1.156966e+002 
3240625000  -4.977960e+001  -1.268733e+002 
3243750000  -5.001808e+001  -1.474235e+002 
3246875000  -5.006104e+001  -1.556454e+002 
3250000000  -5.082023e+001  -1.652259e+002 
3253125000  -5.130288e+001  -1.732654e+002 
3256250000  -5.114382e+001  1.714987e+002 
3259375000  -5.093661e+001  1.584008e+002 
3262500000  -5.255365e+001  1.524651e+002 
3265625000  -5.311824e+001  1.497532e+002 
3268750000  -5.281531e+001  1.422453e+002 
3271875000  -5.247681e+001  1.410543e+002 
3275000000  -5.175125e+001  1.252498e+002 
3278125000  -5.233018e+001  1.104292e+002 
3281250000  -5.289532e+001  1.094116e+002 
3284375000  -5.226958e+001  9.051447e+001 
3287500000  -5.404939e+001  8.524509e+001 
3290625000  -5.313230e+001  7.324171e+001 
3293750000  -5.279888e+001  6.085905e+001 
3296875000  -5.365718e+001  4.964275e+001 
3300000000  -5.394149e+001  5.319144e+001 
3303125000  -5.267350e+001  4.033868e+001 
3306250000  -5.308535e+001  2.070997e+001 
3309375000  -5.315503e+001  1.657536e+001 
3312500000  -5.358095e+001  -7.839125e-001 
3315625000  -5.336256e+001  -1.123530e+001 
3318750000  -5.684049e+001  -1.365156e+001 
3321875000  -5.709711e+001  -2.767215e+001 
3325000000  -5.598780e+001  -1.953185e+001 
3328125000  -5.624665e+001  -2.033908e+001 
3331250000  -5.337295e+001  -2.771353e+001 
3334375000  -5.246886e+001  -3.848153e+001 
3337500000  -5.226917e+001  -6.714984e+001 
3340625000  -5.428730e+001  -8.600930e+001 
3343750000  -5.625983e+001  -8.892901e+001 
3346875000  -5.558088e+001  -9.401054e+001 
3350000000  -5.478276e+001  -1.020960e+002 
3353125000  -5.438979e+001  -1.120079e+002 
3356250000  -5.498528e+001  -1.291546e+002 
3359375000  -5.424333e+001  -1.428438e+002 
3362500000  -5.540614e+001  -1.491887e+002 
3365625000  -5.522552e+001  -1.611682e+002 
3368750000  -5.659204e+001  -1.731127e+002 
3371875000  -5.673849e+001  1.760732e+002 
3375000000  -5.833869e+001  1.649504e+002 
3378125000  -5.914209e+001  1.724341e+002 
3381250000  -6.017116e+001  1.789290e+002 
3384375000  -5.926484e+001  -1.756414e+002 
3387500000  -5.309110e+001  1.570223e+002 
3390625000  -5.585870e+001  1.312975e+002 
3393750000  -5.724421e+001  1.178573e+002 
3396875000  -5.649042e+001  1.248419e+002 
3400000000  -5.559109e+001  9.843627e+001 
3403125000  -5.970120e+001  8.389394e+001 
3406250000  -5.748195e+001  6.686247e+001 
3409375000  -5.742843e+001  5.904254e+001 
3412500000  -5.771945e+001  4.996282e+001 
3415625000  -6.104404e+001  3.912315e+001 
3418750000  -5.844896e+001  4.442960e+001 
3421875000  -5.934444e+001  3.115416e+001 
3425000000  -5.884568e+001  2.780637e+001 
3428125000  -5.870090e+001  6.796860e+000 
3431250000  -5.993836e+001  -4.117112e+000 
3434375000  -5.947847e+001  -2.215392e+001 
3437500000  -6.355713e+001  -2.352674e+001 
3440625000  -6.260709e+001  -1.239044e+001 
3443750000  -6.270867e+001  -2.655800e+001 
3446875000  -6.129363e+001  -3.377416e+001 
3450000000  -6.513784e+001  -7.042245e+001 
3453125000  -6.496278e+001  -7.643584e+001 
3456250000  -6.415467e+001  -9.483022e+001 
3459375000  -6.275270e+001  -8.112793e+001 
3462500000  -7.326460e+001  -1.335256e+002 
3465625000  -6.818277e+001  -8.767347e+001 
3468750000  -6.752093e+001  -1.142664e+002 
3471875000  -6.675755e+001  -1.053654e+002 
3475000000  -6.684636e+001  -1.165559e+002 
3478125000  -6.857712e+001  -1.386007e+002 
3481250000  -6.914147e+001  -1.278886e+002 
3484375000  -6.716856e+001  -1.253601e+002 
3487500000  -6.770853e+001  -1.131752e+002 
3490625000  -7.137340e+001  -1.295573e+002 
3493750000  -7.691726e+001  -1.288584e+002 
3496875000  -7.475803e+001  -1.651182e+002 
3500000000  -6.275829e+001  -1.524471e+002 
3503125000  -6.840454e+001  -1.212237e+002 
3506250000  -6.171815e+001  1.788136e+002 
3509375000  -6.516262e+001  -1.781060e+002 
3512500000  -6.593876e+001  1.288520e+002 
3515625000  -6.396931e+001  1.356371e+002 
3518750000  -6.734020e+001  1.509163e+002 
3521875000  -7.004781e+001  1.448802e+002 
3525000000  -6.619332e+001  1.350277e+002 
3528125000  -7.632578e+001  1.161981e+002 
3531250000  -6.575559e+001  1.336423e+002 
3534375000  -6.932191e+001  8.662135e+001 
3537500000  -6.303825e+001  9.324618e+001 
3540625000  -7.347060e+001  6.660250e+001 
3543750000  -7.222427e+001  7.555367e+001 
3546875000  -7.074219e+001  6.752409e+001 
3550000000  -7.700912e+001  9.491457e+001 
3553125000  -6.951138e+001  3.563235e+001 
3556250000  -7.271211e+001  5.852579e+001 
3559375000  -7.640581e+001  6.070887e+001 
3562500000  -7.319958e+001  6.905322e+000 
3565625000  -7.609947e+001  -9.450294e+000 
3568750000  -7.971080e+001  4.921484e+001 
3571875000  -8.178696e+001  3.855203e+001 
3575000000  -6.809098e+001  6.151587e+000 
3578125000  -7.154173e+001  2.290284e+001 
3581250000  -7.304275e+001  2.606562e+001 
3584375000  -7.311446e+001  5.866209e+001 
3587500000  -7.106893e+001  -1.595858e+001 
3590625000  -6.921465e+001  1.659611e+001 
3593750000  -6.666840e+001  -8.793992e+000 
3596875000  -6.950925e+001  5.133916e+001 
3600000000  -6.787013e+001  -3.518663e+001 
3603125000  -6.834093e+001  1.857139e+001 
3606250000  -6.312325e+001  -2.393830e+001 
3609375000  -6.689970e+001  -4.557804e+001 
3612500000  -6.293151e+001  -4.821104e+001 
3615625000  -6.712492e+001  -8.154362e+001 
3618750000  -6.470789e+001  -5.771571e+001 
3621875000  -6.737415e+001  -8.146955e+001 
3625000000  -6.282550e+001  -8.413465e+001 
3628125000  -6.397215e+001  -1.124520e+002 
3631250000  -6.282147e+001  -9.097710e+001 
3634375000  -6.711591e+001  -1.220206e+002 
3637500000  -6.371779e+001  -1.055989e+002 
3640625000  -6.322164e+001  -1.290472e+002 
3643750000  -6.024643e+001  -1.341085e+002 
3646875000  -6.576933e+001  1.794052e+002 
3650000000  -6.746075e+001  1.684579e+002 
3653125000  -6.434457e+001  -1.757824e+002 
3656250000  -6.595937e+001  1.444119e+002 
3659375000  -6.205880e+001  1.713434e+002 
3662500000  -6.674889e+001  1.534295e+002 
3665625000  -6.155359e+001  1.544846e+002 
3668750000  -6.508456e+001  1.190580e+002 
3671875000  -6.413143e+001  1.408788e+002 
3675000000  -6.276634e+001  9.995402e+001 
3678125000  -6.412013e+001  1.155533e+002 
3681250000  -5.967683e+001  1.006961e+002 
3684375000  -6.848452e+001  8.074818e+001 
3687500000  -6.671754e+001  8.348676e+001 
3690625000  -6.934275e+001  1.151006e+002 
3693750000  -6.775476e+001  7.141460e+001 
3696875000  -6.308811e+001  8.653767e+001 
3700000000  -6.159633e+001  8.359426e+001 
3703125000  -6.628928e+001  4.197447e+001 
3706250000  -6.751466e+001  7.538746e+001 
3709375000  -6.661548e+001  3.656116e+001 
3712500000  -6.227159e+001  7.592819e+001 
3715625000  -6.359027e+001  4.547097e+001 
3718750000  -6.363080e+001  3.568282e+001 
3721875000  -6.160986e+001  2.633373e+001 
3725000000  -6.381339e+001  1.901880e+001 
3728125000  -5.833315e+001  8.560766e+000 
3731250000  -5.913198e+001  -1.095835e+001 
3734375000  -5.900737e+001  -2.886572e+001 
3737500000  -5.987135e+001  -4.829295e+001 
3740625000  -5.892427e+001  -3.269176e+001 
3743750000  -5.886233e+001  -3.844862e+001 
3746875000  -5.880796e+001  -6.063944e+001 
3750000000  -5.752827e+001  -7.210800e+001 
3753125000  -5.846011e+001  -7.585130e+001 
3756250000  -5.953731e+001  -9.709117e+001 
3759375000  -5.777265e+001  -9.826099e+001 
3762500000  -5.671464e+001  -1.198015e+002 
3765625000  -5.923358e+001  -1.233299e+002 
3768750000  -5.702086e+001  -1.387072e+002 
3771875000  -5.590952e+001  -1.447907e+002 
3775000000  -5.801086e+001  -1.559483e+002 
3778125000  -5.665532e+001  -1.769109e+002 
3781250000  -5.812631e+001  1.746521e+002 
3784375000  -5.535455e+001  1.697310e+002 
3787500000  -5.719289e+001  1.421361e+002 
3790625000  -5.729165e+001  1.389357e+002 
3793750000  -5.705223e+001  1.352666e+002 
3796875000  -5.591600e+001  1.283517e+002 
3800000000  -5.335015e+001  8.425298e+001 
3803125000  -5.735454e+001  1.117905e+002 
3806250000  -6.007700e+001  7.897298e+001 
3809375000  -5.845377e+001  8.991627e+001 
3812500000  -5.689534e+001  6.721950e+001 
3815625000  -6.240025e+001  4.592163e+001 
3818750000  -6.274955e+001  4.874626e+001 
3821875000  -6.024605e+001  6.387826e+001 
3825000000  -6.000503e+001  5.024662e+001 
3828125000  -5.741587e+001  2.590497e+001 
3831250000  -6.108792e+001  1.057803e+001 
3834375000  -6.168837e+001  1.211991e+001 
3837500000  -6.250778e+001  3.171235e+001 
3840625000  -6.150472e+001  -5.148427e-001 
3843750000  -5.954716e+001  -7.347818e+000 
3846875000  -6.222876e+001  -1.834314e+001 
3850000000  -6.354602e+001  -1.778159e+001 
3853125000  -5.950804e+001  -2.933478e+001 
3856250000  -6.016995e+001  2.330695e+001 
3859375000  -6.002644e+001  -4.582177e+001 
3862500000  -6.194748e+001  -2.520099e+001 
3865625000  -5.940298e+001  -4.561593e+001 
3868750000  -5.794566e+001  -3.532080e+001 
3871875000  -5.654973e+001  -5.517466e+001 
3875000000  -6.116378e+001  -5.201663e+001 
3878125000  -5.879815e+001  -8.393256e+001 
3881250000  -5.799140e+001  -9.016266e+001 
3884375000  -5.544431e+001  -1.011981e+002 
3887500000  -5.515051e+001  -1.135839e+002 
3890625000  -5.647113e+001  -1.263637e+002 
3893750000  -5.804090e+001  -1.281071e+002 
3896875000  -5.673341e+001  -1.385474e+002 
3900000000  -5.416388e+001  -1.487011e+002 
3903125000  -5.478458e+001  -1.554031e+002 
3906250000  -5.423072e+001  -1.670089e+002 
3909375000  -5.416335e+001  1.759505e+002 
3912500000  -5.513900e+001  1.715630e+002 
3915625000  -5.611665e+001  1.590247e+002 
3918750000  -5.354033e+001  1.506408e+002 
3921875000  -5.506865e+001  1.382236e+002 
3925000000  -5.355553e+001  1.258828e+002 
3928125000  -5.282571e+001  1.130605e+002 
3931250000  -5.489287e+001  1.068927e+002 
3934375000  -5.439576e+001  9.458411e+001 
3937500000  -5.632856e+001  8.495038e+001 
3940625000  -5.473282e+001  7.614465e+001 
3943750000  -5.320596e+001  7.485350e+001 
3946875000  -5.321533e+001  5.646847e+001 
3950000000  -5.566875e+001  4.204871e+001 
3953125000  -5.429185e+001  3.891582e+001 
3956250000  -5.459339e+001  2.103985e+001 
3959375000  -5.226294e+001  1.920997e+001 
3962500000  -5.301870e+001  -6.043929e+000 
3965625000  -5.411375e+001  -1.627144e+001 
3968750000  -5.486298e+001  -4.078670e+001 
3971875000  -5.466847e+001  -4.051345e+001 
3975000000  -5.353514e+001  -5.568932e+001 
3978125000  -5.418301e+001  -6.066845e+001 
3981250000  -5.592013e+001  -7.657649e+001 
3984375000  -5.540225e+001  -8.504911e+001 
3987500000  -5.685495e+001  -9.602364e+001 
3990625000  -5.727058e+001  -9.982085e+001 
3993750000  -5.729041e+001  -1.199464e+002 
3996875000  -5.959571e+001  -1.166673e+002 
4000000000  -5.936981e+001  -1.324725e+002 
4003125000  -6.092939e+001  -1.209543e+002 
4006250000  -5.695371e+001  -1.428175e+002 
4009375000  -5.707326e+001  -1.454672e+002 
4012500000  -5.851608e+001  -1.472012e+002 
4015625000  -6.096210e+001  -1.515435e+002 
4018750000  -5.952968e+001  -1.425109e+002 
4021875000  -6.097340e+001  -1.764207e+002 
4025000000  -6.056731e+001  -1.630407e+002 
4028125000  -5.880940e+001  -1.721119e+002 
4031250000  -5.868161e+001  -1.771266e+002 
4034375000  -5.975060e+001  1.678195e+002 
4037500000  -5.752473e+001  1.672303e+002 
4040625000  -5.969027e+001  1.546761e+002 
4043750000  -5.749650e+001  1.486292e+002 
4046875000  -5.771949e+001  1.366312e+002 
4050000000  -5.751616e+001  1.218508e+002 
4053125000  -5.804181e+001  1.252284e+002 
4056250000  -5.683426e+001  1.132639e+002 
4059375000  -5.679379e+001  1.110436e+002 
4062500000  -5.534209e+001  1.123171e+002 
4065625000  -5.404883e+001  8.563773e+001 
4068750000  -5.351190e+001  7.169250e+001 
4071875000  -5.219865e+001  6.204774e+001 
4075000000  -5.392437e+001  4.491274e+001 
4078125000  -5.308475e+001  4.343832e+001 
4081250000  -5.373065e+001  2.926029e+001 
4084375000  -5.222444e+001  7.281013e+000 
4087500000  -5.355807e+001  -1.587988e+000 
4090625000  -5.458118e+001  -4.681019e-001 
4093750000  -5.346372e+001  -1.295563e+001 
4096875000  -5.252581e+001  -2.992549e+001 
4100000000  -5.321899e+001  -4.338639e+001 
4103125000  -5.548873e+001  -4.642511e+001 
4106250000  -5.370735e+001  -5.548605e+001 
4109375000  -5.325618e+001  -5.883688e+001 
4112500000  -5.144919e+001  -8.276022e+001 
4115625000  -5.364743e+001  -9.324404e+001 
4118750000  -5.230647e+001  -9.563728e+001 
4121875000  -5.380818e+001  -1.205669e+002 
4125000000  -5.331197e+001  -1.207722e+002 
4128125000  -5.677711e+001  -1.287394e+002 
4131250000  -5.407880e+001  -1.311635e+002 
4134375000  -5.223140e+001  -1.516218e+002 
4137500000  -5.317577e+001  -1.684568e+002 
4140625000  -5.331829e+001  1.761523e+002 
4143750000  -5.458431e+001  -1.768473e+002 
4146875000  -5.452704e+001  1.755303e+002 
4150000000  -5.477052e+001  1.536965e+002 
4153125000  -5.355634e+001  1.481505e+002 
4156250000  -5.586441e+001  1.304456e+002 
4159375000  -5.503137e+001  1.284363e+002 
4162500000  -5.455497e+001  1.166240e+002 
4165625000  -5.476385e+001  1.083168e+002 
4168750000  -5.464813e+001  8.035580e+001 
4171875000  -5.445735e+001  8.852668e+001 
4175000000  -5.636364e+001  6.532559e+001 
4178125000  -5.910122e+001  7.373590e+001 
4181250000  -5.916521e+001  5.170120e+001 
4184375000  -6.068084e+001  4.731813e+001 
4187500000  -5.825924e+001  2.934992e+001 
4190625000  -5.953364e+001  1.888096e+001 
4193750000  -5.846502e+001  3.346442e+001 
4196875000  -6.213351e+001  -2.076443e+000 
4200000000  -6.368261e+001  2.268345e+001 
4203125000  -6.432710e+001  4.382767e+001 
4206250000  -5.862816e+001  2.777954e+001 
4209375000  -5.912820e+001  -3.658948e-001 
4212500000  -6.167265e+001  6.459502e+000 
4215625000  -6.438985e+001  -1.994210e+001 
4218750000  -6.065179e+001  1.335994e+001 
4221875000  -6.461931e+001  -3.278742e+001 
4225000000  -5.927042e+001  -5.310881e+000 
4228125000  -5.735167e+001  -3.005150e+001 
4231250000  -5.921740e+001  -1.952216e+001 
4234375000  -5.790257e+001  -2.778426e+001 
4237500000  -5.554395e+001  -3.758066e+001 
4240625000  -5.533705e+001  -5.973278e+001 
4243750000  -5.651007e+001  -6.430298e+001 
4246875000  -5.553850e+001  -6.417863e+001 
4250000000  -5.741445e+001  -8.290943e+001 
4253125000  -5.377290e+001  -7.990339e+001 
4256250000  -5.926943e+001  -1.098420e+002 
4259375000  -5.535516e+001  -1.008113e+002 
4262500000  -5.424509e+001  -1.183066e+002 
4265625000  -5.353455e+001  -1.185029e+002 
4268750000  -5.327942e+001  -1.430450e+002 
4271875000  -5.280825e+001  -1.581097e+002 
4275000000  -5.138389e+001  -1.688958e+002 
4278125000  -5.555215e+001  1.773549e+002 
4281250000  -5.625834e+001  1.638955e+002 
4284375000  -5.321257e+001  1.596156e+002 
4287500000  -5.431837e+001  1.488484e+002 
4290625000  -5.400926e+001  1.460954e+002 
4293750000  -5.241843e+001  1.510559e+002 
4296875000  -5.223065e+001  1.142073e+002 
4300000000  -5.242414e+001  1.106847e+002 
4303125000  -5.353555e+001  9.614890e+001 
4306250000  -5.305141e+001  1.017535e+002 
4309375000  -5.229666e+001  8.131307e+001 
4312500000  -5.143147e+001  7.211468e+001 
4315625000  -5.249775e+001  5.162152e+001 
4318750000  -5.423050e+001  4.752348e+001 
4321875000  -5.217949e+001  3.580670e+001 
4325000000  -5.341350e+001  2.760911e+001 
4328125000  -5.120033e+001  1.517378e+001 
4331250000  -5.258753e+001  -1.092881e+001 
4334375000  -5.431620e+001  -1.610646e+001 
4337500000  -5.587136e+001  -3.136437e+001 
4340625000  -5.491786e+001  -1.222056e+001 
4343750000  -5.476128e+001  -3.480632e+001 
4346875000  -5.429467e+001  -4.674999e+001 
4350000000  -5.587023e+001  -6.030737e+001 
4353125000  -5.585986e+001  -7.578024e+001 
4356250000  -5.849197e+001  -7.372623e+001 
4359375000  -5.803681e+001  -6.675739e+001 
4362500000  -5.569570e+001  -7.337134e+001 
4365625000  -5.418536e+001  -8.983759e+001 
4368750000  -5.477906e+001  -8.928915e+001 
4371875000  -5.761410e+001  -1.130408e+002 
4375000000  -5.699623e+001  -1.131201e+002 
4378125000  -5.710431e+001  -1.174146e+002 
4381250000  -5.783874e+001  -1.390158e+002 
4384375000  -5.688857e+001  -1.273228e+002 
4387500000  -5.760184e+001  -1.393768e+002 
4390625000  -5.772326e+001  -1.534807e+002 
4393750000  -5.854763e+001  -1.432067e+002 
4396875000  -5.614244e+001  -1.632665e+002 
4400000000  -5.617526e+001  -1.711474e+002 
4403125000  -5.674601e+001  -1.786889e+002 
4406250000  -5.593831e+001  1.746284e+002 
4409375000  -5.566634e+001  1.764079e+002 
4412500000  -6.048491e+001  1.610339e+002 
4415625000  -5.562802e+001  1.735992e+002 
