!Agilent Technologies,E8363B,MY43030201,A.06.04.32
!Agilent E8363B: A.06.04.32
!Date: Tuesday, November 11, 2014 21:46:20
!Correction: S21(Response(S21)) 
!S1P File: Measurement: S21:
# Hz S  dB   R 50
3000000000  -4.369422e+001  -1.620699e+002 
3003125000  -4.530466e+001  -1.657524e+002 
3006250000  -4.521980e+001  -1.692397e+002 
3009375000  -4.626920e+001  -1.637317e+002 
3012500000  -4.472638e+001  -1.709578e+002 
3015625000  -4.524606e+001  -1.794151e+002 
3018750000  -4.548978e+001  -1.790949e+002 
3021875000  -4.410886e+001  -1.786814e+002 
3025000000  -4.272342e+001  1.775609e+002 
3028125000  -4.167614e+001  1.641819e+002 
3031250000  -4.105846e+001  1.519559e+002 
3034375000  -4.082804e+001  1.369223e+002 
3037500000  -4.185034e+001  1.264149e+002 
3040625000  -4.291666e+001  1.205820e+002 
3043750000  -4.326287e+001  1.136730e+002 
3046875000  -4.415415e+001  1.082147e+002 
3050000000  -4.525034e+001  1.014795e+002 
3053125000  -4.515564e+001  1.069084e+002 
3056250000  -4.471967e+001  1.081839e+002 
3059375000  -4.414375e+001  1.054806e+002 
3062500000  -4.230531e+001  9.861208e+001 
3065625000  -4.213898e+001  8.895274e+001 
3068750000  -4.179371e+001  8.082021e+001 
3071875000  -4.158740e+001  7.927296e+001 
3075000000  -4.133815e+001  7.151109e+001 
3078125000  -4.125390e+001  6.355527e+001 
3081250000  -4.140679e+001  5.785018e+001 
3084375000  -4.042430e+001  5.198045e+001 
3087500000  -4.054627e+001  4.363812e+001 
3090625000  -4.006275e+001  3.070236e+001 
3093750000  -4.114884e+001  2.285801e+001 
3096875000  -4.105392e+001  1.629808e+001 
3100000000  -4.110428e+001  1.155367e+001 
3103125000  -4.140987e+001  7.813792e+000 
3106250000  -4.097504e+001  8.682976e-001 
3109375000  -4.103701e+001  -3.882658e+000 
3112500000  -4.080619e+001  -1.107122e+001 
3115625000  -4.088967e+001  -1.501004e+001 
3118750000  -4.063679e+001  -2.012774e+001 
3121875000  -4.018741e+001  -3.244379e+001 
3125000000  -4.203225e+001  -3.783455e+001 
3128125000  -4.209921e+001  -3.026766e+001 
3131250000  -3.969828e+001  -3.840742e+001 
3134375000  -3.885717e+001  -5.685837e+001 
3137500000  -3.944905e+001  -7.113596e+001 
3140625000  -4.098569e+001  -7.618955e+001 
3143750000  -4.152454e+001  -7.732843e+001 
3146875000  -4.104922e+001  -7.733792e+001 
3150000000  -4.029964e+001  -8.204581e+001 
3153125000  -4.068079e+001  -9.232771e+001 
3156250000  -4.132878e+001  -8.792890e+001 
3159375000  -3.909714e+001  -9.268315e+001 
3162500000  -3.776719e+001  -1.091473e+002 
3165625000  -3.899879e+001  -1.227546e+002 
3168750000  -3.911487e+001  -1.245514e+002 
3171875000  -3.862092e+001  -1.324278e+002 
3175000000  -3.907570e+001  -1.421770e+002 
3178125000  -3.875061e+001  -1.452401e+002 
3181250000  -3.799805e+001  -1.537622e+002 
3184375000  -3.794122e+001  -1.659317e+002 
3187500000  -3.916466e+001  1.783500e+002 
3190625000  -4.083969e+001  1.696605e+002 
3193750000  -4.097010e+001  1.756482e+002 
3196875000  -4.111848e+001  1.744385e+002 
3200000000  -3.992726e+001  1.685978e+002 
3203125000  -3.970964e+001  1.605768e+002 
3206250000  -3.971843e+001  1.519265e+002 
3209375000  -3.950481e+001  1.429539e+002 
3212500000  -3.986332e+001  1.360320e+002 
3215625000  -3.979740e+001  1.329295e+002 
3218750000  -4.029495e+001  1.228384e+002 
3221875000  -4.066089e+001  1.145680e+002 
3225000000  -4.039429e+001  1.082736e+002 
3228125000  -4.110996e+001  1.003612e+002 
3231250000  -4.142648e+001  9.787323e+001 
3234375000  -4.070173e+001  9.426411e+001 
3237500000  -4.094236e+001  9.036032e+001 
3240625000  -4.029848e+001  8.351026e+001 
3243750000  -4.027427e+001  7.148885e+001 
3246875000  -4.064524e+001  6.488827e+001 
3250000000  -4.130021e+001  5.777872e+001 
3253125000  -4.127924e+001  5.356752e+001 
3256250000  -4.033585e+001  4.373103e+001 
3259375000  -4.074005e+001  3.190729e+001 
3262500000  -4.253918e+001  2.596044e+001 
3265625000  -4.247515e+001  2.789793e+001 
3268750000  -4.259861e+001  2.755613e+001 
3271875000  -4.153320e+001  2.046976e+001 
3275000000  -4.119522e+001  9.811713e+000 
3278125000  -4.153881e+001  3.023014e+000 
3281250000  -4.174518e+001  -1.247982e+000 
3284375000  -4.091275e+001  -8.400823e+000 
3287500000  -4.158170e+001  -1.562088e+001 
3290625000  -4.139952e+001  -2.589390e+001 
3293750000  -4.148106e+001  -3.328405e+001 
3296875000  -4.291961e+001  -3.886580e+001 
3300000000  -4.195231e+001  -4.061742e+001 
3303125000  -4.105815e+001  -5.082661e+001 
3306250000  -4.088302e+001  -6.078937e+001 
3309375000  -4.053428e+001  -7.124013e+001 
3312500000  -4.095032e+001  -8.704620e+001 
3315625000  -4.222543e+001  -9.359898e+001 
3318750000  -4.407830e+001  -1.000014e+002 
3321875000  -4.511791e+001  -9.940153e+001 
3325000000  -4.480036e+001  -9.746128e+001 
3328125000  -4.419675e+001  -9.707288e+001 
3331250000  -4.255659e+001  -9.674783e+001 
3334375000  -4.011041e+001  -1.176691e+002 
3337500000  -4.065570e+001  -1.403979e+002 
3340625000  -4.263241e+001  -1.511274e+002 
3343750000  -4.456657e+001  -1.530479e+002 
3346875000  -4.408487e+001  -1.554852e+002 
3350000000  -4.356260e+001  -1.607386e+002 
3353125000  -4.364283e+001  -1.724105e+002 
3356250000  -4.357555e+001  1.769327e+002 
3359375000  -4.438171e+001  1.669452e+002 
3362500000  -4.517442e+001  1.561744e+002 
3365625000  -4.554815e+001  1.509966e+002 
3368750000  -4.648280e+001  1.470128e+002 
3371875000  -4.732964e+001  1.405893e+002 
3375000000  -4.863696e+001  1.328460e+002 
3378125000  -4.947253e+001  1.306399e+002 
3381250000  -5.096236e+001  1.412337e+002 
3384375000  -4.752721e+001  1.512967e+002 
3387500000  -4.492542e+001  1.271614e+002 
3390625000  -4.663332e+001  1.077089e+002 
3393750000  -4.759910e+001  1.079680e+002 
3396875000  -4.645278e+001  1.003051e+002 
3400000000  -4.611264e+001  8.552450e+001 
3403125000  -4.657976e+001  7.730740e+001 
3406250000  -4.737333e+001  7.020158e+001 
3409375000  -4.699383e+001  6.110044e+001 
3412500000  -4.762920e+001  5.342384e+001 
3415625000  -4.833478e+001  4.952310e+001 
3418750000  -4.883479e+001  4.229092e+001 
3421875000  -4.851193e+001  4.025999e+001 
3425000000  -4.736882e+001  3.705810e+001 
3428125000  -4.680572e+001  2.810645e+001 
3431250000  -4.754113e+001  1.643181e+001 
3434375000  -4.688604e+001  1.847482e+000 
3437500000  -4.743724e+001  -4.106165e+000 
3440625000  -4.809764e+001  -9.424487e+000 
3443750000  -4.693449e+001  -1.256012e+001 
3446875000  -4.621185e+001  -2.766893e+001 
3450000000  -4.518793e+001  -4.405994e+001 
3453125000  -4.604399e+001  -6.044191e+001 
3456250000  -4.761723e+001  -6.936948e+001 
3459375000  -4.831093e+001  -7.473208e+001 
3462500000  -4.778107e+001  -7.807394e+001 
3465625000  -4.730502e+001  -9.097508e+001 
3468750000  -4.773555e+001  -9.564441e+001 
3471875000  -4.652627e+001  -1.045766e+002 
3475000000  -4.688965e+001  -1.181128e+002 
3478125000  -4.772520e+001  -1.304988e+002 
3481250000  -4.842387e+001  -1.347190e+002 
3484375000  -4.870799e+001  -1.336817e+002 
3487500000  -4.779716e+001  -1.447480e+002 
3490625000  -4.719234e+001  -1.563062e+002 
3493750000  -4.758020e+001  -1.693371e+002 
3496875000  -4.866108e+001  -1.721144e+002 
3500000000  -4.851622e+001  -1.702593e+002 
3503125000  -4.740675e+001  -1.744428e+002 
3506250000  -4.528138e+001  1.709675e+002 
3509375000  -4.560197e+001  1.510330e+002 
3512500000  -4.627089e+001  1.378716e+002 
3515625000  -4.804115e+001  1.317766e+002 
3518750000  -4.810954e+001  1.294960e+002 
3521875000  -4.819195e+001  1.145457e+002 
3525000000  -4.875760e+001  1.134234e+002 
3528125000  -4.744622e+001  1.180788e+002 
3531250000  -4.567659e+001  1.057381e+002 
3534375000  -4.694411e+001  8.532275e+001 
3537500000  -4.735956e+001  7.765583e+001 
3540625000  -4.870362e+001  7.749697e+001 
3543750000  -4.962037e+001  8.056928e+001 
3546875000  -4.871415e+001  8.088704e+001 
3550000000  -4.664268e+001  7.097401e+001 
3553125000  -4.603151e+001  5.294515e+001 
3556250000  -4.690417e+001  4.605172e+001 
3559375000  -4.622598e+001  4.313561e+001 
3562500000  -4.665014e+001  3.098549e+001 
3565625000  -4.765234e+001  2.580881e+001 
3568750000  -4.752692e+001  2.462752e+001 
3571875000  -4.796019e+001  1.627635e+001 
3575000000  -4.686931e+001  8.285562e+000 
3578125000  -4.825355e+001  7.820009e+000 
3581250000  -4.739968e+001  3.872174e+000 
3584375000  -4.591478e+001  -1.322185e+000 
3587500000  -4.598714e+001  -1.631610e+001 
3590625000  -4.587235e+001  -2.767240e+001 
3593750000  -4.788680e+001  -2.551206e+001 
3596875000  -4.662177e+001  -2.237881e+001 
3600000000  -4.482234e+001  -3.412307e+001 
3603125000  -4.504860e+001  -4.684803e+001 
3606250000  -4.601803e+001  -5.486625e+001 
3609375000  -4.604921e+001  -5.761542e+001 
3612500000  -4.626613e+001  -6.397469e+001 
3615625000  -4.615971e+001  -6.901947e+001 
3618750000  -4.633202e+001  -7.205659e+001 
3621875000  -4.527494e+001  -7.467525e+001 
3625000000  -4.540844e+001  -8.193622e+001 
3628125000  -4.455982e+001  -8.739125e+001 
3631250000  -4.482088e+001  -9.693304e+001 
3634375000  -4.604370e+001  -9.822963e+001 
3637500000  -4.448835e+001  -9.978687e+001 
3640625000  -4.369275e+001  -1.084882e+002 
3643750000  -4.298476e+001  -1.185584e+002 
3646875000  -4.402057e+001  -1.294561e+002 
3650000000  -4.374707e+001  -1.350005e+002 
3653125000  -4.306782e+001  -1.413021e+002 
3656250000  -4.368192e+001  -1.490643e+002 
3659375000  -4.385049e+001  -1.525657e+002 
3662500000  -4.355666e+001  -1.607382e+002 
3665625000  -4.363722e+001  -1.650472e+002 
3668750000  -4.195643e+001  -1.684254e+002 
3671875000  -4.130688e+001  1.775922e+002 
3675000000  -4.219883e+001  1.684816e+002 
3678125000  -4.266641e+001  1.626513e+002 
3681250000  -4.209706e+001  1.555584e+002 
3684375000  -4.262237e+001  1.477395e+002 
3687500000  -4.281435e+001  1.389188e+002 
3690625000  -4.312188e+001  1.341652e+002 
3693750000  -4.416322e+001  1.328616e+002 
3696875000  -4.387486e+001  1.304816e+002 
3700000000  -4.282512e+001  1.202278e+002 
3703125000  -4.354234e+001  1.126586e+002 
3706250000  -4.462470e+001  1.108786e+002 
3709375000  -4.369170e+001  1.098067e+002 
3712500000  -4.290145e+001  1.048069e+002 
3715625000  -4.159135e+001  9.582668e+001 
3718750000  -4.178957e+001  8.578371e+001 
3721875000  -4.189670e+001  7.718073e+001 
3725000000  -4.227822e+001  6.817632e+001 
3728125000  -4.263846e+001  6.815730e+001 
3731250000  -4.203969e+001  5.747401e+001 
3734375000  -4.207452e+001  5.223087e+001 
3737500000  -4.292164e+001  4.474199e+001 
3740625000  -4.289024e+001  3.924519e+001 
3743750000  -4.287527e+001  3.085794e+001 
3746875000  -4.350126e+001  2.417019e+001 
3750000000  -4.327997e+001  2.046415e+001 
3753125000  -4.407799e+001  1.740511e+001 
3756250000  -4.363126e+001  1.226808e+001 
3759375000  -4.369945e+001  7.775632e+000 
3762500000  -4.345681e+001  3.813861e+000 
3765625000  -4.419955e+001  -4.182304e-001 
3768750000  -4.324752e+001  2.000409e+000 
3771875000  -4.190902e+001  -8.962066e+000 
3775000000  -4.213792e+001  -2.112382e+001 
3778125000  -4.282152e+001  -2.472662e+001 
3781250000  -4.234798e+001  -2.849842e+001 
3784375000  -4.234381e+001  -3.786174e+001 
3787500000  -4.275018e+001  -4.203714e+001 
3790625000  -4.298553e+001  -5.111189e+001 
3793750000  -4.267998e+001  -5.550895e+001 
3796875000  -4.176676e+001  -5.987086e+001 
3800000000  -4.072073e+001  -6.753329e+001 
3803125000  -4.168271e+001  -7.921317e+001 
3806250000  -4.244768e+001  -8.492498e+001 
3809375000  -4.178967e+001  -8.863596e+001 
3812500000  -4.208934e+001  -1.009557e+002 
3815625000  -4.298952e+001  -1.115753e+002 
3818750000  -4.447498e+001  -1.094989e+002 
3821875000  -4.353339e+001  -9.847750e+001 
3825000000  -4.136103e+001  -1.040223e+002 
3828125000  -4.060595e+001  -1.255038e+002 
3831250000  -4.124292e+001  -1.402641e+002 
3834375000  -4.389007e+001  -1.399892e+002 
3837500000  -4.402637e+001  -1.382990e+002 
3840625000  -4.244365e+001  -1.428594e+002 
3843750000  -4.168781e+001  -1.593588e+002 
3846875000  -4.335167e+001  -1.657617e+002 
3850000000  -4.415150e+001  -1.598664e+002 
3853125000  -4.352686e+001  -1.631310e+002 
3856250000  -4.256799e+001  -1.729175e+002 
3859375000  -4.228072e+001  -1.796820e+002 
3862500000  -4.195609e+001  1.694874e+002 
3865625000  -4.291870e+001  1.627935e+002 
3868750000  -4.223132e+001  1.607536e+002 
3871875000  -4.184975e+001  1.516057e+002 
3875000000  -4.273006e+001  1.440658e+002 
3878125000  -4.339478e+001  1.405072e+002 
3881250000  -4.333556e+001  1.405508e+002 
3884375000  -4.270198e+001  1.273399e+002 
3887500000  -4.341838e+001  1.223839e+002 
3890625000  -4.396725e+001  1.175595e+002 
3893750000  -4.442660e+001  1.167156e+002 
3896875000  -4.441700e+001  1.114021e+002 
3900000000  -4.434697e+001  1.058363e+002 
3903125000  -4.370810e+001  1.014260e+002 
3906250000  -4.345852e+001  9.768088e+001 
3909375000  -4.266071e+001  8.850489e+001 
3912500000  -4.402268e+001  7.900232e+001 
3915625000  -4.505120e+001  7.999966e+001 
3918750000  -4.420538e+001  7.708045e+001 
3921875000  -4.377052e+001  7.226451e+001 
3925000000  -4.284269e+001  6.615394e+001 
3928125000  -4.268995e+001  5.652385e+001 
3931250000  -4.370813e+001  5.011485e+001 
3934375000  -4.367083e+001  4.611272e+001 
3937500000  -4.436533e+001  4.558237e+001 
3940625000  -4.469448e+001  4.345470e+001 
3943750000  -4.327567e+001  3.759535e+001 
3946875000  -4.291924e+001  3.070057e+001 
3950000000  -4.335450e+001  1.920130e+001 
3953125000  -4.433652e+001  2.156528e+001 
3956250000  -4.293833e+001  2.109424e+001 
3959375000  -4.167305e+001  1.358803e+001 
3962500000  -4.140974e+001  4.279659e+000 
3965625000  -4.177343e+001  -8.228188e+000 
3968750000  -4.277053e+001  -1.825490e+001 
3971875000  -4.236197e+001  -2.245081e+001 
3975000000  -4.193561e+001  -2.535950e+001 
3978125000  -4.203933e+001  -3.109964e+001 
3981250000  -4.195628e+001  -3.787231e+001 
3984375000  -4.225673e+001  -4.716340e+001 
3987500000  -4.277471e+001  -5.118118e+001 
3990625000  -4.287269e+001  -5.649548e+001 
3993750000  -4.278495e+001  -6.227393e+001 
3996875000  -4.289052e+001  -7.180000e+001 
4000000000  -4.359840e+001  -7.337566e+001 
4003125000  -4.368866e+001  -7.228635e+001 
4006250000  -4.179790e+001  -7.762954e+001 
4009375000  -4.109084e+001  -9.515638e+001 
4012500000  -4.294058e+001  -1.053175e+002 
4015625000  -4.387748e+001  -1.038582e+002 
4018750000  -4.392158e+001  -1.062077e+002 
4021875000  -4.313708e+001  -1.142284e+002 
4025000000  -4.317367e+001  -1.216393e+002 
4028125000  -4.294931e+001  -1.300344e+002 
4031250000  -4.367093e+001  -1.367962e+002 
4034375000  -4.425645e+001  -1.373566e+002 
4037500000  -4.397203e+001  -1.441581e+002 
4040625000  -4.393536e+001  -1.450775e+002 
4043750000  -4.428502e+001  -1.496572e+002 
4046875000  -4.449967e+001  -1.577043e+002 
4050000000  -4.449894e+001  -1.631154e+002 
4053125000  -4.536910e+001  -1.661902e+002 
4056250000  -4.564897e+001  -1.637006e+002 
4059375000  -4.416784e+001  -1.619899e+002 
4062500000  -4.366226e+001  -1.750903e+002 
4065625000  -4.408022e+001  -1.763441e+002 
4068750000  -4.320209e+001  1.707667e+002 
4071875000  -4.231818e+001  1.619898e+002 
4075000000  -4.384807e+001  1.537863e+002 
4078125000  -4.363711e+001  1.520228e+002 
4081250000  -4.325482e+001  1.479856e+002 
4084375000  -4.325384e+001  1.362111e+002 
4087500000  -4.421651e+001  1.285425e+002 
4090625000  -4.490916e+001  1.280597e+002 
4093750000  -4.437718e+001  1.246667e+002 
4096875000  -4.435171e+001  1.173277e+002 
4100000000  -4.513102e+001  1.113809e+002 
4103125000  -4.594519e+001  1.154906e+002 
4106250000  -4.512994e+001  1.124760e+002 
4109375000  -4.399642e+001  1.110697e+002 
4112500000  -4.382368e+001  9.954198e+001 
4115625000  -4.432109e+001  9.593024e+001 
4118750000  -4.437612e+001  8.930576e+001 
4121875000  -4.345727e+001  8.475803e+001 
4125000000  -4.454525e+001  7.806380e+001 
4128125000  -4.479896e+001  7.878463e+001 
4131250000  -4.345472e+001  8.285902e+001 
4134375000  -4.140442e+001  7.005383e+001 
4137500000  -4.195484e+001  4.809332e+001 
4140625000  -4.426958e+001  4.424288e+001 
4143750000  -4.440637e+001  4.728978e+001 
4146875000  -4.412204e+001  5.082633e+001 
4150000000  -4.254008e+001  3.995329e+001 
4153125000  -4.312542e+001  3.036581e+001 
4156250000  -4.357106e+001  2.516412e+001 
4159375000  -4.387413e+001  2.860894e+001 
4162500000  -4.243924e+001  2.674007e+001 
4165625000  -4.127183e+001  1.657497e+001 
4168750000  -4.130596e+001  4.295288e+000 
4171875000  -4.096319e+001  -6.744937e+000 
4175000000  -4.160983e+001  -1.382529e+001 
4178125000  -4.207941e+001  -1.817778e+001 
4181250000  -4.190526e+001  -2.436403e+001 
4184375000  -4.258113e+001  -2.999693e+001 
4187500000  -4.234737e+001  -3.808811e+001 
4190625000  -4.269171e+001  -4.446648e+001 
4193750000  -4.362080e+001  -5.019912e+001 
4196875000  -4.487992e+001  -5.779326e+001 
4200000000  -4.572587e+001  -4.620865e+001 
4203125000  -4.468561e+001  -3.844526e+001 
4206250000  -4.136446e+001  -4.863269e+001 
4209375000  -4.144581e+001  -7.032351e+001 
4212500000  -4.399368e+001  -7.901111e+001 
4215625000  -4.404421e+001  -7.214671e+001 
4218750000  -4.225794e+001  -7.405142e+001 
4221875000  -4.117175e+001  -8.420807e+001 
4225000000  -4.239907e+001  -9.770322e+001 
4228125000  -4.223732e+001  -9.405918e+001 
4231250000  -4.067714e+001  -1.013846e+002 
4234375000  -4.107038e+001  -1.139171e+002 
4237500000  -4.081033e+001  -1.199921e+002 
4240625000  -4.112317e+001  -1.306685e+002 
4243750000  -4.240755e+001  -1.412311e+002 
4246875000  -4.296794e+001  -1.390069e+002 
4250000000  -4.294395e+001  -1.418820e+002 
4253125000  -4.231693e+001  -1.438487e+002 
4256250000  -4.251348e+001  -1.497729e+002 
4259375000  -4.237082e+001  -1.554731e+002 
4262500000  -4.217957e+001  -1.608983e+002 
4265625000  -4.191091e+001  -1.632098e+002 
4268750000  -4.060454e+001  -1.696145e+002 
4271875000  -4.058229e+001  -1.795105e+002 
4275000000  -4.037790e+001  1.710199e+002 
4278125000  -4.161418e+001  1.584321e+002 
4281250000  -4.238869e+001  1.575876e+002 
4284375000  -4.222986e+001  1.524560e+002 
4287500000  -4.316730e+001  1.485116e+002 
4290625000  -4.365712e+001  1.561104e+002 
4293750000  -4.161855e+001  1.546262e+002 
4296875000  -4.046128e+001  1.391354e+002 
4300000000  -4.120428e+001  1.302423e+002 
4303125000  -4.198740e+001  1.309707e+002 
4306250000  -4.049606e+001  1.312316e+002 
4309375000  -3.966109e+001  1.199204e+002 
4312500000  -3.996398e+001  1.069722e+002 
4315625000  -4.010712e+001  9.887143e+001 
4318750000  -4.063485e+001  9.168232e+001 
4321875000  -4.098163e+001  9.061881e+001 
4325000000  -4.022929e+001  8.749670e+001 
4328125000  -3.963387e+001  7.508618e+001 
4331250000  -3.969280e+001  6.415724e+001 
4334375000  -4.063468e+001  5.460898e+001 
4337500000  -4.190086e+001  5.306907e+001 
4340625000  -4.193650e+001  5.540998e+001 
4343750000  -4.095737e+001  5.143663e+001 
4346875000  -4.059692e+001  4.188071e+001 
4350000000  -4.111192e+001  3.130533e+001 
4353125000  -4.177956e+001  2.251423e+001 
4356250000  -4.440349e+001  3.077689e+001 
4359375000  -4.293306e+001  3.408322e+001 
4362500000  -3.927153e+001  2.994618e+001 
4365625000  -3.863754e+001  1.084093e+001 
4368750000  -4.038826e+001  -1.252240e+000 
4371875000  -4.093789e+001  2.990874e-002 
4375000000  -4.078415e+001  -6.059112e+000 
4378125000  -4.051156e+001  -1.508913e+001 
4381250000  -4.040041e+001  -2.196044e+001 
4384375000  -4.026079e+001  -3.007141e+001 
4387500000  -4.121066e+001  -3.623567e+001 
4390625000  -4.226828e+001  -3.963054e+001 
4393750000  -4.210490e+001  -4.001635e+001 
4396875000  -4.114882e+001  -4.683174e+001 
4400000000  -4.052072e+001  -5.545281e+001 
4403125000  -4.157062e+001  -6.754817e+001 
4406250000  -4.205365e+001  -7.020695e+001 
4409375000  -4.257683e+001  -7.535487e+001 
4412500000  -4.351688e+001  -7.897631e+001 
4415625000  -4.306680e+001  -7.328892e+001 
4418750000  -4.187665e+001  -7.202496e+001 
