!Agilent Technologies,E8363B,MY43030201,A.06.04.32
!Agilent E8363B: A.06.04.32
!Date: Tuesday, November 11, 2014 21:46:03
!Correction: S21(Response(S21)) 
!S1P File: Measurement: S21:
# Hz S  dB   R 50
3000000000  -4.360933e+001  -1.611880e+002 
3003125000  -4.520171e+001  -1.665547e+002 
3006250000  -4.526559e+001  -1.688099e+002 
3009375000  -4.616514e+001  -1.644983e+002 
3012500000  -4.500861e+001  -1.722083e+002 
3015625000  -4.541850e+001  -1.773674e+002 
3018750000  -4.529791e+001  -1.776443e+002 
3021875000  -4.395238e+001  -1.795971e+002 
3025000000  -4.254448e+001  1.773533e+002 
3028125000  -4.154811e+001  1.633739e+002 
3031250000  -4.103918e+001  1.510928e+002 
3034375000  -4.085432e+001  1.373073e+002 
3037500000  -4.193210e+001  1.260120e+002 
3040625000  -4.288513e+001  1.213046e+002 
3043750000  -4.357861e+001  1.153164e+002 
3046875000  -4.408049e+001  1.084177e+002 
3050000000  -4.507237e+001  1.047122e+002 
3053125000  -4.519653e+001  1.069331e+002 
3056250000  -4.479426e+001  1.098930e+002 
3059375000  -4.382591e+001  1.058584e+002 
3062500000  -4.264082e+001  1.026110e+002 
3065625000  -4.202942e+001  8.984208e+001 
3068750000  -4.179224e+001  8.197046e+001 
3071875000  -4.164889e+001  7.897435e+001 
3075000000  -4.115375e+001  7.143028e+001 
3078125000  -4.126669e+001  6.293569e+001 
3081250000  -4.145245e+001  5.793425e+001 
3084375000  -4.034953e+001  5.044620e+001 
3087500000  -4.055371e+001  4.352441e+001 
3090625000  -3.994541e+001  3.139384e+001 
3093750000  -4.094200e+001  2.111248e+001 
3096875000  -4.115281e+001  1.615833e+001 
3100000000  -4.113668e+001  1.276066e+001 
3103125000  -4.143752e+001  7.873119e+000 
3106250000  -4.099218e+001  1.964260e+000 
3109375000  -4.093063e+001  -2.844440e+000 
3112500000  -4.102442e+001  -1.073868e+001 
3115625000  -4.093996e+001  -1.534176e+001 
3118750000  -4.075592e+001  -2.022030e+001 
3121875000  -4.000929e+001  -3.258886e+001 
3125000000  -4.220887e+001  -3.544659e+001 
3128125000  -4.219042e+001  -3.040448e+001 
3131250000  -3.946326e+001  -3.868104e+001 
3134375000  -3.892910e+001  -5.682959e+001 
3137500000  -3.938512e+001  -6.919125e+001 
3140625000  -4.070734e+001  -7.400716e+001 
3143750000  -4.144853e+001  -7.874600e+001 
3146875000  -4.112886e+001  -7.677235e+001 
3150000000  -4.025245e+001  -8.232156e+001 
3153125000  -4.085126e+001  -9.187675e+001 
3156250000  -4.148069e+001  -8.857996e+001 
3159375000  -3.910222e+001  -9.230237e+001 
3162500000  -3.775707e+001  -1.089996e+002 
3165625000  -3.892438e+001  -1.226629e+002 
3168750000  -3.917844e+001  -1.227138e+002 
3171875000  -3.857029e+001  -1.326350e+002 
3175000000  -3.913394e+001  -1.424956e+002 
3178125000  -3.855790e+001  -1.455436e+002 
3181250000  -3.812462e+001  -1.540681e+002 
3184375000  -3.794509e+001  -1.664612e+002 
3187500000  -3.932342e+001  1.775717e+002 
3190625000  -4.089469e+001  1.715768e+002 
3193750000  -4.121748e+001  1.758382e+002 
3196875000  -4.093263e+001  1.742208e+002 
3200000000  -3.979260e+001  1.679435e+002 
3203125000  -3.971603e+001  1.614115e+002 
3206250000  -3.991356e+001  1.525486e+002 
3209375000  -3.946053e+001  1.425673e+002 
3212500000  -4.000430e+001  1.361559e+002 
3215625000  -3.966230e+001  1.339088e+002 
3218750000  -4.022863e+001  1.216626e+002 
3221875000  -4.045014e+001  1.126297e+002 
3225000000  -4.046719e+001  1.085702e+002 
3228125000  -4.093004e+001  1.007054e+002 
3231250000  -4.143718e+001  9.840990e+001 
3234375000  -4.114161e+001  9.439009e+001 
3237500000  -4.084670e+001  8.926692e+001 
3240625000  -4.038144e+001  8.271638e+001 
3243750000  -4.043510e+001  7.143774e+001 
3246875000  -4.064232e+001  6.268419e+001 
3250000000  -4.107192e+001  5.838498e+001 
3253125000  -4.116302e+001  5.453755e+001 
3256250000  -4.023703e+001  4.618642e+001 
3259375000  -4.094388e+001  3.179205e+001 
3262500000  -4.250027e+001  2.504992e+001 
3265625000  -4.266855e+001  2.716364e+001 
3268750000  -4.244054e+001  2.804385e+001 
3271875000  -4.136955e+001  2.077666e+001 
3275000000  -4.114571e+001  1.051212e+001 
3278125000  -4.138664e+001  3.904400e+000 
3281250000  -4.160268e+001  3.711428e-001 
3284375000  -4.094192e+001  -6.627839e+000 
3287500000  -4.145395e+001  -1.560334e+001 
3290625000  -4.150884e+001  -2.730199e+001 
3293750000  -4.159908e+001  -3.421937e+001 
3296875000  -4.269493e+001  -3.862143e+001 
3300000000  -4.207171e+001  -4.065551e+001 
3303125000  -4.086262e+001  -4.976574e+001 
3306250000  -4.091240e+001  -6.016966e+001 
3309375000  -4.059669e+001  -7.010948e+001 
3312500000  -4.099986e+001  -8.647829e+001 
3315625000  -4.249929e+001  -9.416645e+001 
3318750000  -4.397819e+001  -1.011388e+002 
3321875000  -4.488233e+001  -1.019904e+002 
3325000000  -4.480340e+001  -9.913278e+001 
3328125000  -4.383385e+001  -9.609629e+001 
3331250000  -4.220026e+001  -1.008314e+002 
3334375000  -4.008460e+001  -1.174045e+002 
3337500000  -4.093528e+001  -1.394999e+002 
3340625000  -4.266217e+001  -1.505401e+002 
3343750000  -4.460051e+001  -1.527175e+002 
3346875000  -4.408433e+001  -1.587592e+002 
3350000000  -4.365297e+001  -1.614170e+002 
3353125000  -4.341663e+001  -1.707341e+002 
3356250000  -4.322717e+001  1.772243e+002 
3359375000  -4.417721e+001  1.645494e+002 
3362500000  -4.540059e+001  1.575082e+002 
3365625000  -4.556789e+001  1.519609e+002 
3368750000  -4.666712e+001  1.463244e+002 
3371875000  -4.674129e+001  1.406294e+002 
3375000000  -4.824318e+001  1.313356e+002 
3378125000  -4.894109e+001  1.356271e+002 
3381250000  -5.067692e+001  1.449530e+002 
3384375000  -4.703187e+001  1.550549e+002 
3387500000  -4.472137e+001  1.265932e+002 
3390625000  -4.683325e+001  1.096977e+002 
3393750000  -4.767928e+001  1.065671e+002 
3396875000  -4.609302e+001  1.015842e+002 
3400000000  -4.621209e+001  8.872427e+001 
3403125000  -4.699421e+001  7.859698e+001 
3406250000  -4.757959e+001  7.228313e+001 
3409375000  -4.722919e+001  6.133431e+001 
3412500000  -4.801141e+001  5.545149e+001 
3415625000  -4.903511e+001  4.768878e+001 
3418750000  -4.874196e+001  4.504578e+001 
3421875000  -4.958727e+001  4.221635e+001 
3425000000  -4.793035e+001  3.481322e+001 
3428125000  -4.709144e+001  2.865528e+001 
3431250000  -4.688470e+001  1.672908e+001 
3434375000  -4.667305e+001  3.237092e+000 
3437500000  -4.781236e+001  -5.630504e+000 
3440625000  -4.764492e+001  -8.289659e+000 
3443750000  -4.640631e+001  -1.466600e+001 
3446875000  -4.572229e+001  -2.957105e+001 
3450000000  -4.530313e+001  -4.241605e+001 
3453125000  -4.550129e+001  -5.958680e+001 
3456250000  -4.753349e+001  -6.935334e+001 
3459375000  -4.780475e+001  -7.204433e+001 
3462500000  -4.797012e+001  -7.230875e+001 
3465625000  -4.733787e+001  -8.565882e+001 
3468750000  -4.828251e+001  -9.362547e+001 
3471875000  -4.703606e+001  -1.020578e+002 
3475000000  -4.718119e+001  -1.175961e+002 
3478125000  -4.782606e+001  -1.295587e+002 
3481250000  -4.914791e+001  -1.330639e+002 
3484375000  -4.860581e+001  -1.353927e+002 
3487500000  -4.762755e+001  -1.414559e+002 
3490625000  -4.724160e+001  -1.557740e+002 
3493750000  -4.819625e+001  -1.654994e+002 
3496875000  -4.793832e+001  -1.723316e+002 
3500000000  -4.802046e+001  -1.744875e+002 
3503125000  -4.740670e+001  -1.742800e+002 
3506250000  -4.550202e+001  1.685746e+002 
3509375000  -4.577476e+001  1.546171e+002 
3512500000  -4.598517e+001  1.385544e+002 
3515625000  -4.746042e+001  1.325392e+002 
3518750000  -4.792017e+001  1.287080e+002 
3521875000  -4.757071e+001  1.173732e+002 
3525000000  -4.927408e+001  1.169221e+002 
3528125000  -4.739334e+001  1.184449e+002 
3531250000  -4.679837e+001  1.048052e+002 
3534375000  -4.684614e+001  8.593561e+001 
3537500000  -4.823635e+001  7.833598e+001 
3540625000  -4.913006e+001  7.448436e+001 
3543750000  -4.983262e+001  7.806419e+001 
3546875000  -4.856807e+001  8.325116e+001 
3550000000  -4.651473e+001  7.597815e+001 
3553125000  -4.602801e+001  5.362180e+001 
3556250000  -4.757023e+001  4.287723e+001 
3559375000  -4.675871e+001  4.179208e+001 
3562500000  -4.666742e+001  3.355773e+001 
3565625000  -4.759674e+001  2.319387e+001 
3568750000  -4.863679e+001  2.594428e+001 
3571875000  -4.731239e+001  1.946375e+001 
3575000000  -4.739309e+001  9.247012e+000 
3578125000  -4.767520e+001  7.490094e+000 
3581250000  -4.761961e+001  8.597251e-001 
3584375000  -4.624801e+001  -1.457326e+000 
3587500000  -4.548434e+001  -1.622725e+001 
3590625000  -4.604048e+001  -2.433012e+001 
3593750000  -4.728730e+001  -2.504107e+001 
3596875000  -4.647706e+001  -2.242231e+001 
3600000000  -4.481423e+001  -3.039971e+001 
3603125000  -4.556039e+001  -4.927832e+001 
3606250000  -4.584594e+001  -5.209670e+001 
3609375000  -4.621435e+001  -5.723230e+001 
3612500000  -4.588633e+001  -6.469506e+001 
3615625000  -4.617767e+001  -6.858579e+001 
3618750000  -4.583492e+001  -7.164863e+001 
3621875000  -4.571490e+001  -7.746935e+001 
3625000000  -4.575099e+001  -8.307629e+001 
3628125000  -4.452630e+001  -8.857226e+001 
3631250000  -4.514067e+001  -9.587775e+001 
3634375000  -4.584270e+001  -9.913270e+001 
3637500000  -4.445174e+001  -1.008832e+002 
3640625000  -4.352045e+001  -1.066113e+002 
3643750000  -4.310317e+001  -1.188316e+002 
3646875000  -4.369950e+001  -1.293095e+002 
3650000000  -4.400347e+001  -1.326252e+002 
3653125000  -4.331105e+001  -1.426684e+002 
3656250000  -4.403547e+001  -1.488479e+002 
3659375000  -4.356585e+001  -1.512742e+002 
3662500000  -4.319223e+001  -1.599289e+002 
3665625000  -4.309602e+001  -1.637347e+002 
3668750000  -4.213010e+001  -1.681087e+002 
3671875000  -4.149057e+001  1.780325e+002 
3675000000  -4.202271e+001  1.683751e+002 
3678125000  -4.272147e+001  1.615230e+002 
3681250000  -4.264291e+001  1.556500e+002 
3684375000  -4.253100e+001  1.480484e+002 
3687500000  -4.286831e+001  1.400512e+002 
3690625000  -4.365148e+001  1.327343e+002 
3693750000  -4.425945e+001  1.338602e+002 
3696875000  -4.391230e+001  1.296559e+002 
3700000000  -4.298958e+001  1.223478e+002 
3703125000  -4.405645e+001  1.121530e+002 
3706250000  -4.448818e+001  1.108381e+002 
3709375000  -4.376718e+001  1.106136e+002 
3712500000  -4.296346e+001  1.068545e+002 
3715625000  -4.198629e+001  9.578822e+001 
3718750000  -4.145353e+001  8.695602e+001 
3721875000  -4.165870e+001  7.775672e+001 
3725000000  -4.213876e+001  6.849284e+001 
3728125000  -4.259222e+001  6.587392e+001 
3731250000  -4.187096e+001  5.771106e+001 
3734375000  -4.190060e+001  5.305746e+001 
3737500000  -4.304531e+001  4.292030e+001 
3740625000  -4.325040e+001  3.581538e+001 
3743750000  -4.262609e+001  3.241246e+001 
3746875000  -4.316038e+001  2.305779e+001 
3750000000  -4.380495e+001  2.212552e+001 
3753125000  -4.381966e+001  1.650683e+001 
3756250000  -4.397164e+001  1.515806e+001 
3759375000  -4.354610e+001  9.332817e+000 
3762500000  -4.356128e+001  4.840414e+000 
3765625000  -4.404642e+001  -1.850804e+000 
3768750000  -4.367235e+001  -1.159898e+000 
3771875000  -4.212918e+001  -7.890226e+000 
3775000000  -4.213718e+001  -1.902073e+001 
3778125000  -4.266548e+001  -2.575869e+001 
3781250000  -4.272133e+001  -3.001730e+001 
3784375000  -4.247665e+001  -3.704244e+001 
3787500000  -4.189225e+001  -4.266717e+001 
3790625000  -4.251482e+001  -5.232054e+001 
3793750000  -4.261893e+001  -5.517321e+001 
3796875000  -4.177786e+001  -6.000040e+001 
3800000000  -4.062842e+001  -6.546337e+001 
3803125000  -4.147720e+001  -8.010134e+001 
3806250000  -4.241904e+001  -8.599609e+001 
3809375000  -4.164608e+001  -8.840556e+001 
3812500000  -4.172446e+001  -9.866307e+001 
3815625000  -4.309865e+001  -1.098073e+002 
3818750000  -4.433463e+001  -1.074478e+002 
3821875000  -4.329294e+001  -9.727077e+001 
3825000000  -4.173382e+001  -1.037691e+002 
3828125000  -4.033358e+001  -1.247117e+002 
3831250000  -4.165689e+001  -1.412081e+002 
3834375000  -4.370347e+001  -1.388603e+002 
3837500000  -4.360500e+001  -1.380825e+002 
3840625000  -4.248053e+001  -1.456123e+002 
3843750000  -4.174425e+001  -1.585553e+002 
3846875000  -4.345750e+001  -1.683923e+002 
3850000000  -4.424852e+001  -1.629338e+002 
3853125000  -4.333658e+001  -1.607619e+002 
3856250000  -4.298015e+001  -1.701336e+002 
3859375000  -4.202557e+001  -1.796180e+002 
3862500000  -4.212032e+001  1.713256e+002 
3865625000  -4.295316e+001  1.625808e+002 
3868750000  -4.217939e+001  1.620921e+002 
3871875000  -4.178318e+001  1.513510e+002 
3875000000  -4.248876e+001  1.422200e+002 
3878125000  -4.311494e+001  1.387581e+002 
3881250000  -4.354665e+001  1.385862e+002 
3884375000  -4.222997e+001  1.262663e+002 
3887500000  -4.283634e+001  1.215596e+002 
3890625000  -4.377091e+001  1.190965e+002 
3893750000  -4.430265e+001  1.146084e+002 
3896875000  -4.413860e+001  1.134553e+002 
3900000000  -4.408075e+001  1.088634e+002 
3903125000  -4.347398e+001  1.030724e+002 
3906250000  -4.296349e+001  9.873965e+001 
3909375000  -4.245536e+001  9.030846e+001 
3912500000  -4.388444e+001  8.069645e+001 
3915625000  -4.461826e+001  7.860799e+001 
3918750000  -4.455865e+001  7.671745e+001 
3921875000  -4.384110e+001  7.179095e+001 
3925000000  -4.318473e+001  6.436892e+001 
3928125000  -4.269799e+001  5.693177e+001 
3931250000  -4.349017e+001  4.995101e+001 
3934375000  -4.430360e+001  4.567149e+001 
3937500000  -4.427583e+001  4.476155e+001 
3940625000  -4.473068e+001  4.479134e+001 
3943750000  -4.334086e+001  3.925034e+001 
3946875000  -4.276134e+001  2.927767e+001 
3950000000  -4.355391e+001  1.932191e+001 
3953125000  -4.433641e+001  1.896423e+001 
3956250000  -4.233141e+001  2.102067e+001 
3959375000  -4.205862e+001  1.565853e+001 
3962500000  -4.131602e+001  3.046088e+000 
3965625000  -4.166278e+001  -5.652244e+000 
3968750000  -4.209858e+001  -1.528806e+001 
3971875000  -4.246349e+001  -2.331436e+001 
3975000000  -4.206816e+001  -2.475061e+001 
3978125000  -4.204878e+001  -3.119509e+001 
3981250000  -4.176940e+001  -3.949305e+001 
3984375000  -4.225134e+001  -4.714164e+001 
3987500000  -4.296828e+001  -5.032428e+001 
3990625000  -4.282006e+001  -5.735021e+001 
3993750000  -4.313456e+001  -6.098372e+001 
3996875000  -4.279381e+001  -6.962506e+001 
4000000000  -4.339271e+001  -7.066517e+001 
4003125000  -4.381233e+001  -7.142890e+001 
4006250000  -4.192119e+001  -7.852822e+001 
4009375000  -4.094981e+001  -9.525438e+001 
4012500000  -4.279952e+001  -1.055656e+002 
4015625000  -4.406521e+001  -1.069747e+002 
4018750000  -4.360135e+001  -1.062735e+002 
4021875000  -4.292633e+001  -1.149520e+002 
4025000000  -4.294019e+001  -1.208860e+002 
4028125000  -4.324628e+001  -1.290374e+002 
4031250000  -4.395583e+001  -1.331343e+002 
4034375000  -4.425709e+001  -1.391552e+002 
4037500000  -4.395869e+001  -1.400190e+002 
4040625000  -4.410967e+001  -1.478250e+002 
4043750000  -4.447767e+001  -1.515700e+002 
4046875000  -4.429214e+001  -1.574386e+002 
4050000000  -4.396066e+001  -1.659583e+002 
4053125000  -4.508386e+001  -1.661685e+002 
4056250000  -4.579361e+001  -1.640729e+002 
4059375000  -4.351112e+001  -1.638107e+002 
4062500000  -4.332890e+001  -1.740251e+002 
4065625000  -4.354971e+001  1.795983e+002 
4068750000  -4.294893e+001  1.733455e+002 
4071875000  -4.237376e+001  1.603153e+002 
4075000000  -4.356813e+001  1.530112e+002 
4078125000  -4.437812e+001  1.517329e+002 
4081250000  -4.326403e+001  1.459014e+002 
4084375000  -4.314523e+001  1.363618e+002 
4087500000  -4.381245e+001  1.302545e+002 
4090625000  -4.444867e+001  1.281901e+002 
4093750000  -4.428753e+001  1.258457e+002 
4096875000  -4.432669e+001  1.163474e+002 
4100000000  -4.545724e+001  1.098839e+002 
4103125000  -4.586258e+001  1.145950e+002 
4106250000  -4.548812e+001  1.148292e+002 
4109375000  -4.375411e+001  1.122858e+002 
4112500000  -4.402426e+001  1.012510e+002 
4115625000  -4.399660e+001  9.505724e+001 
4118750000  -4.418953e+001  8.984678e+001 
4121875000  -4.357235e+001  8.464426e+001 
4125000000  -4.423497e+001  7.477997e+001 
4128125000  -4.503340e+001  8.042982e+001 
4131250000  -4.396643e+001  8.395876e+001 
4134375000  -4.163729e+001  6.879353e+001 
4137500000  -4.204996e+001  5.127998e+001 
4140625000  -4.394797e+001  4.303933e+001 
4143750000  -4.480682e+001  4.896407e+001 
4146875000  -4.359885e+001  4.814659e+001 
4150000000  -4.218903e+001  3.692910e+001 
4153125000  -4.277881e+001  2.982694e+001 
4156250000  -4.424634e+001  2.789676e+001 
4159375000  -4.383897e+001  2.804753e+001 
4162500000  -4.258770e+001  2.706830e+001 
4165625000  -4.095503e+001  1.759473e+001 
4168750000  -4.101686e+001  5.505650e+000 
4171875000  -4.091684e+001  -3.784225e+000 
4175000000  -4.203395e+001  -1.691525e+001 
4178125000  -4.214744e+001  -1.683736e+001 
4181250000  -4.190081e+001  -2.231690e+001 
4184375000  -4.285010e+001  -3.165175e+001 
4187500000  -4.243376e+001  -3.758367e+001 
4190625000  -4.262713e+001  -4.585437e+001 
4193750000  -4.408587e+001  -5.392799e+001 
4196875000  -4.494106e+001  -5.239915e+001 
4200000000  -4.581464e+001  -4.751632e+001 
4203125000  -4.429087e+001  -3.838597e+001 
4206250000  -4.087831e+001  -5.065094e+001 
4209375000  -4.190669e+001  -7.384370e+001 
4212500000  -4.391784e+001  -8.112293e+001 
4215625000  -4.382311e+001  -7.582313e+001 
4218750000  -4.229400e+001  -7.386485e+001 
4221875000  -4.097463e+001  -8.414820e+001 
4225000000  -4.229350e+001  -9.518029e+001 
4228125000  -4.225126e+001  -9.665542e+001 
4231250000  -4.085341e+001  -1.053825e+002 
4234375000  -4.097886e+001  -1.153706e+002 
4237500000  -4.070471e+001  -1.184110e+002 
4240625000  -4.092591e+001  -1.290991e+002 
4243750000  -4.220626e+001  -1.388785e+002 
4246875000  -4.254589e+001  -1.400323e+002 
4250000000  -4.251498e+001  -1.414754e+002 
4253125000  -4.269054e+001  -1.422962e+002 
4256250000  -4.266398e+001  -1.503548e+002 
4259375000  -4.203831e+001  -1.544294e+002 
4262500000  -4.226305e+001  -1.616197e+002 
4265625000  -4.170736e+001  -1.607282e+002 
4268750000  -4.077743e+001  -1.671917e+002 
4271875000  -4.051443e+001  -1.793562e+002 
4275000000  -4.015101e+001  1.704314e+002 
4278125000  -4.146302e+001  1.580945e+002 
4281250000  -4.251857e+001  1.556161e+002 
4284375000  -4.247830e+001  1.514883e+002 
4287500000  -4.335245e+001  1.492899e+002 
4290625000  -4.345223e+001  1.583553e+002 
4293750000  -4.155151e+001  1.556981e+002 
4296875000  -4.036166e+001  1.404740e+002 
4300000000  -4.162913e+001  1.318091e+002 
4303125000  -4.200800e+001  1.284484e+002 
4306250000  -4.068685e+001  1.286585e+002 
4309375000  -4.016799e+001  1.200903e+002 
4312500000  -3.988362e+001  1.070102e+002 
4315625000  -4.017522e+001  9.896235e+001 
4318750000  -4.062669e+001  9.273068e+001 
4321875000  -4.060765e+001  9.028272e+001 
4325000000  -3.991003e+001  8.744509e+001 
4328125000  -3.920600e+001  7.741252e+001 
4331250000  -3.976481e+001  6.509052e+001 
4334375000  -4.091572e+001  5.722406e+001 
4337500000  -4.184007e+001  5.253988e+001 
4340625000  -4.180919e+001  5.549923e+001 
4343750000  -4.119712e+001  5.069580e+001 
4346875000  -4.111420e+001  3.961905e+001 
4350000000  -4.087748e+001  3.223170e+001 
4353125000  -4.187251e+001  2.389375e+001 
4356250000  -4.372216e+001  2.762962e+001 
4359375000  -4.293648e+001  4.111470e+001 
4362500000  -3.949100e+001  2.779469e+001 
4365625000  -3.862331e+001  1.292745e+001 
4368750000  -4.051445e+001  1.604709e+000 
4371875000  -4.090906e+001  -1.446076e+000 
4375000000  -4.038169e+001  -5.038278e+000 
4378125000  -4.054498e+001  -1.372921e+001 
4381250000  -4.039676e+001  -2.266794e+001 
4384375000  -4.075177e+001  -3.051097e+001 
4387500000  -4.128104e+001  -3.952753e+001 
4390625000  -4.239772e+001  -4.031123e+001 
4393750000  -4.175845e+001  -4.008163e+001 
4396875000  -4.102855e+001  -4.426904e+001 
4400000000  -4.073325e+001  -5.496292e+001 
4403125000  -4.149449e+001  -6.708444e+001 
4406250000  -4.202948e+001  -7.028047e+001 
4409375000  -4.252137e+001  -7.273946e+001 
4412500000  -4.346384e+001  -7.456606e+001 
4415625000  -4.301454e+001  -7.525954e+001 
4418750000  -4.153668e+001  -7.462199e+001 
