!Agilent Technologies,E8363B,MY43030201,A.06.04.32
!Agilent E8363B: A.06.04.32
!Date: Tuesday, November 11, 2014 21:43:01
!Correction: S21(Response(S21)) 
!S1P File: Measurement: S21:
# Hz S  dB   R 50
3000000000  -4.361092e+001  -1.586354e+002 
3003125000  -4.506426e+001  -1.634073e+002 
3006250000  -4.521981e+001  -1.647859e+002 
3009375000  -4.619239e+001  -1.625221e+002 
3012500000  -4.502056e+001  -1.674886e+002 
3015625000  -4.486699e+001  -1.759896e+002 
3018750000  -4.529062e+001  -1.766543e+002 
3021875000  -4.411893e+001  -1.767104e+002 
3025000000  -4.276115e+001  1.783952e+002 
3028125000  -4.175835e+001  1.677127e+002 
3031250000  -4.087911e+001  1.533465e+002 
3034375000  -4.061014e+001  1.394675e+002 
3037500000  -4.174542e+001  1.303664e+002 
3040625000  -4.290518e+001  1.229028e+002 
3043750000  -4.300541e+001  1.162587e+002 
3046875000  -4.406799e+001  1.075613e+002 
3050000000  -4.555323e+001  1.039440e+002 
3053125000  -4.465980e+001  1.100845e+002 
3056250000  -4.494579e+001  1.127413e+002 
3059375000  -4.433347e+001  1.082128e+002 
3062500000  -4.276076e+001  1.023805e+002 
3065625000  -4.218488e+001  9.229343e+001 
3068750000  -4.179966e+001  8.495390e+001 
3071875000  -4.177139e+001  8.065788e+001 
3075000000  -4.116322e+001  7.251291e+001 
3078125000  -4.139925e+001  6.575243e+001 
3081250000  -4.128514e+001  5.985563e+001 
3084375000  -4.052446e+001  5.277201e+001 
3087500000  -4.070083e+001  4.634318e+001 
3090625000  -4.005139e+001  3.310257e+001 
3093750000  -4.092538e+001  2.348121e+001 
3096875000  -4.106555e+001  1.863947e+001 
3100000000  -4.124368e+001  1.439288e+001 
3103125000  -4.144089e+001  7.882788e+000 
3106250000  -4.105280e+001  3.961062e+000 
3109375000  -4.092505e+001  -5.069078e-001 
3112500000  -4.083963e+001  -9.543161e+000 
3115625000  -4.079148e+001  -1.352687e+001 
3118750000  -4.083553e+001  -1.880072e+001 
3121875000  -4.010495e+001  -2.995694e+001 
3125000000  -4.213555e+001  -3.442702e+001 
3128125000  -4.209562e+001  -2.835896e+001 
3131250000  -3.961589e+001  -3.697792e+001 
3134375000  -3.894623e+001  -5.513682e+001 
3137500000  -3.952354e+001  -6.749995e+001 
3140625000  -4.076598e+001  -7.166743e+001 
3143750000  -4.141580e+001  -7.575311e+001 
3146875000  -4.110936e+001  -7.389464e+001 
3150000000  -4.046682e+001  -8.091306e+001 
3153125000  -4.088579e+001  -9.092139e+001 
3156250000  -4.144564e+001  -8.686404e+001 
3159375000  -3.930310e+001  -9.059245e+001 
3162500000  -3.782125e+001  -1.062675e+002 
3165625000  -3.902851e+001  -1.201189e+002 
3168750000  -3.905489e+001  -1.218825e+002 
3171875000  -3.858335e+001  -1.306186e+002 
3175000000  -3.917345e+001  -1.406340e+002 
3178125000  -3.878805e+001  -1.425786e+002 
3181250000  -3.813148e+001  -1.520114e+002 
3184375000  -3.778277e+001  -1.648563e+002 
3187500000  -3.905695e+001  -1.783888e+002 
3190625000  -4.098067e+001  1.736594e+002 
3193750000  -4.136115e+001  1.768093e+002 
3196875000  -4.116248e+001  1.768613e+002 
3200000000  -3.987788e+001  1.708946e+002 
3203125000  -3.965738e+001  1.622843e+002 
3206250000  -3.980624e+001  1.526123e+002 
3209375000  -3.940452e+001  1.446552e+002 
3212500000  -4.009089e+001  1.368197e+002 
3215625000  -3.992891e+001  1.341187e+002 
3218750000  -4.032855e+001  1.235757e+002 
3221875000  -4.082159e+001  1.152689e+002 
3225000000  -4.062220e+001  1.088121e+002 
3228125000  -4.117348e+001  1.022983e+002 
3231250000  -4.158434e+001  1.019166e+002 
3234375000  -4.104279e+001  9.556486e+001 
3237500000  -4.106983e+001  9.280643e+001 
3240625000  -4.042718e+001  8.463023e+001 
3243750000  -4.041475e+001  7.335582e+001 
3246875000  -4.085530e+001  6.503280e+001 
3250000000  -4.127058e+001  6.118401e+001 
3253125000  -4.150711e+001  5.470084e+001 
3256250000  -4.055972e+001  4.712794e+001 
3259375000  -4.094014e+001  3.407946e+001 
3262500000  -4.228148e+001  2.663211e+001 
3265625000  -4.280208e+001  2.954125e+001 
3268750000  -4.255963e+001  2.852919e+001 
3271875000  -4.151802e+001  2.335189e+001 
3275000000  -4.116076e+001  1.355469e+001 
3278125000  -4.150150e+001  5.662827e+000 
3281250000  -4.210708e+001  1.762444e+000 
3284375000  -4.094774e+001  -7.789570e+000 
3287500000  -4.167235e+001  -1.514984e+001 
3290625000  -4.176163e+001  -2.583687e+001 
3293750000  -4.168064e+001  -3.284266e+001 
3296875000  -4.260558e+001  -3.710310e+001 
3300000000  -4.204712e+001  -3.787115e+001 
3303125000  -4.108182e+001  -4.853469e+001 
3306250000  -4.101149e+001  -5.835332e+001 
3309375000  -4.071634e+001  -6.962337e+001 
3312500000  -4.123281e+001  -8.492146e+001 
3315625000  -4.279258e+001  -9.040481e+001 
3318750000  -4.375229e+001  -9.932507e+001 
3321875000  -4.502526e+001  -9.592044e+001 
3325000000  -4.523753e+001  -9.065331e+001 
3328125000  -4.416712e+001  -9.629260e+001 
3331250000  -4.240873e+001  -9.726962e+001 
3334375000  -4.014101e+001  -1.156117e+002 
3337500000  -4.078110e+001  -1.383204e+002 
3340625000  -4.280280e+001  -1.486440e+002 
3343750000  -4.467684e+001  -1.496395e+002 
3346875000  -4.417776e+001  -1.538002e+002 
3350000000  -4.387089e+001  -1.578436e+002 
3353125000  -4.397609e+001  -1.675695e+002 
3356250000  -4.350948e+001  -1.778545e+002 
3359375000  -4.445867e+001  1.678490e+002 
3362500000  -4.528308e+001  1.583371e+002 
3365625000  -4.586987e+001  1.533968e+002 
3368750000  -4.653872e+001  1.497862e+002 
3371875000  -4.720772e+001  1.432710e+002 
3375000000  -4.890219e+001  1.319461e+002 
3378125000  -4.975240e+001  1.326040e+002 
3381250000  -5.042309e+001  1.416849e+002 
3384375000  -4.735119e+001  1.543041e+002 
3387500000  -4.536819e+001  1.322437e+002 
3390625000  -4.671954e+001  1.048498e+002 
3393750000  -4.804628e+001  1.059763e+002 
3396875000  -4.630743e+001  1.033684e+002 
3400000000  -4.633623e+001  8.574958e+001 
3403125000  -4.688300e+001  8.092159e+001 
3406250000  -4.745283e+001  7.650391e+001 
3409375000  -4.761900e+001  6.254824e+001 
3412500000  -4.774395e+001  5.575159e+001 
3415625000  -4.898196e+001  4.909972e+001 
3418750000  -4.861924e+001  4.374760e+001 
3421875000  -4.886585e+001  4.296193e+001 
3425000000  -4.790502e+001  3.874683e+001 
3428125000  -4.733402e+001  2.907460e+001 
3431250000  -4.724637e+001  1.808851e+001 
3434375000  -4.719879e+001  4.273503e+000 
3437500000  -4.780826e+001  -2.018586e+000 
3440625000  -4.766438e+001  -1.001215e+001 
3443750000  -4.639284e+001  -1.261544e+001 
3446875000  -4.527850e+001  -2.548150e+001 
3450000000  -4.506319e+001  -4.349505e+001 
3453125000  -4.583662e+001  -5.810219e+001 
3456250000  -4.714132e+001  -6.711700e+001 
3459375000  -4.781314e+001  -7.262934e+001 
3462500000  -4.821844e+001  -7.752496e+001 
3465625000  -4.740036e+001  -8.810632e+001 
3468750000  -4.740543e+001  -9.515164e+001 
3471875000  -4.704224e+001  -1.024687e+002 
3475000000  -4.688383e+001  -1.166505e+002 
3478125000  -4.741113e+001  -1.292370e+002 
3481250000  -4.862212e+001  -1.302970e+002 
3484375000  -4.827383e+001  -1.325099e+002 
3487500000  -4.782303e+001  -1.429387e+002 
3490625000  -4.704139e+001  -1.508334e+002 
3493750000  -4.803315e+001  -1.658647e+002 
3496875000  -4.774565e+001  -1.691853e+002 
3500000000  -4.824476e+001  -1.693771e+002 
3503125000  -4.692226e+001  -1.705478e+002 
3506250000  -4.568621e+001  1.750876e+002 
3509375000  -4.532890e+001  1.517962e+002 
3512500000  -4.591222e+001  1.385049e+002 
3515625000  -4.768319e+001  1.361152e+002 
3518750000  -4.753368e+001  1.296986e+002 
3521875000  -4.779593e+001  1.233653e+002 
3525000000  -4.917332e+001  1.202789e+002 
3528125000  -4.761044e+001  1.191298e+002 
3531250000  -4.695457e+001  1.094106e+002 
3534375000  -4.706261e+001  9.141320e+001 
3537500000  -4.749681e+001  7.939691e+001 
3540625000  -4.924307e+001  7.753384e+001 
3543750000  -5.001101e+001  7.995259e+001 
3546875000  -4.896099e+001  8.670521e+001 
3550000000  -4.618493e+001  7.734768e+001 
3553125000  -4.537944e+001  5.466180e+001 
3556250000  -4.713251e+001  5.104871e+001 
3559375000  -4.641155e+001  4.363360e+001 
3562500000  -4.636401e+001  3.612078e+001 
3565625000  -4.759455e+001  2.662366e+001 
3568750000  -4.810754e+001  2.879638e+001 
3571875000  -4.719627e+001  2.080066e+001 
3575000000  -4.653096e+001  1.378282e+001 
3578125000  -4.760921e+001  9.740191e+000 
3581250000  -4.732811e+001  4.506966e+000 
3584375000  -4.570082e+001  -1.440043e+000 
3587500000  -4.570106e+001  -1.381861e+001 
3590625000  -4.699454e+001  -2.341091e+001 
3593750000  -4.806647e+001  -2.384640e+001 
3596875000  -4.661131e+001  -1.874760e+001 
3600000000  -4.467919e+001  -3.100223e+001 
3603125000  -4.485940e+001  -4.370340e+001 
3606250000  -4.554867e+001  -5.219603e+001 
3609375000  -4.664027e+001  -5.358525e+001 
3612500000  -4.657311e+001  -6.142369e+001 
3615625000  -4.624454e+001  -6.663196e+001 
3618750000  -4.600576e+001  -6.931691e+001 
3621875000  -4.564208e+001  -7.482701e+001 
3625000000  -4.577692e+001  -8.053428e+001 
3628125000  -4.489759e+001  -8.393448e+001 
3631250000  -4.511414e+001  -9.246352e+001 
3634375000  -4.559711e+001  -9.487663e+001 
3637500000  -4.434404e+001  -9.695115e+001 
3640625000  -4.377264e+001  -1.041564e+002 
3643750000  -4.354451e+001  -1.179583e+002 
3646875000  -4.386399e+001  -1.278192e+002 
3650000000  -4.412077e+001  -1.318574e+002 
3653125000  -4.306093e+001  -1.376315e+002 
3656250000  -4.418962e+001  -1.472173e+002 
3659375000  -4.373727e+001  -1.471538e+002 
3662500000  -4.345840e+001  -1.571698e+002 
3665625000  -4.355571e+001  -1.608902e+002 
3668750000  -4.224879e+001  -1.662066e+002 
3671875000  -4.134827e+001  -1.784792e+002 
3675000000  -4.228323e+001  1.694580e+002 
3678125000  -4.258263e+001  1.663338e+002 
3681250000  -4.232674e+001  1.591978e+002 
3684375000  -4.281300e+001  1.509065e+002 
3687500000  -4.279966e+001  1.440553e+002 
3690625000  -4.347191e+001  1.362906e+002 
3693750000  -4.481321e+001  1.340899e+002 
3696875000  -4.383066e+001  1.321931e+002 
3700000000  -4.307632e+001  1.263517e+002 
3703125000  -4.365985e+001  1.159054e+002 
3706250000  -4.490208e+001  1.152081e+002 
3709375000  -4.403911e+001  1.164022e+002 
3712500000  -4.311853e+001  1.064696e+002 
3715625000  -4.184350e+001  9.788776e+001 
3718750000  -4.151296e+001  8.776934e+001 
3721875000  -4.202299e+001  8.002559e+001 
3725000000  -4.241768e+001  7.381453e+001 
3728125000  -4.266679e+001  6.733965e+001 
3731250000  -4.187343e+001  6.203151e+001 
3734375000  -4.197041e+001  5.496965e+001 
3737500000  -4.310130e+001  4.610707e+001 
3740625000  -4.323358e+001  3.880246e+001 
3743750000  -4.273789e+001  3.108278e+001 
3746875000  -4.349536e+001  2.700406e+001 
3750000000  -4.370702e+001  2.334602e+001 
3753125000  -4.403521e+001  2.072926e+001 
3756250000  -4.413232e+001  1.832535e+001 
3759375000  -4.357242e+001  1.370420e+001 
3762500000  -4.344476e+001  6.308264e+000 
3765625000  -4.425014e+001  7.994575e-001 
3768750000  -4.347953e+001  3.070559e+000 
3771875000  -4.200912e+001  -6.217924e+000 
3775000000  -4.203920e+001  -1.694017e+001 
3778125000  -4.238898e+001  -2.291640e+001 
3781250000  -4.297456e+001  -2.577786e+001 
3784375000  -4.261375e+001  -3.474809e+001 
3787500000  -4.240727e+001  -3.809394e+001 
3790625000  -4.296930e+001  -4.893085e+001 
3793750000  -4.273783e+001  -5.263501e+001 
3796875000  -4.182214e+001  -5.596023e+001 
3800000000  -4.080323e+001  -6.315556e+001 
3803125000  -4.169233e+001  -7.540646e+001 
3806250000  -4.251349e+001  -8.007475e+001 
3809375000  -4.179539e+001  -8.331850e+001 
3812500000  -4.188614e+001  -9.518661e+001 
3815625000  -4.292458e+001  -1.066026e+002 
3818750000  -4.438300e+001  -1.028084e+002 
3821875000  -4.367534e+001  -9.396291e+001 
3825000000  -4.135020e+001  -9.826131e+001 
3828125000  -4.038748e+001  -1.225616e+002 
3831250000  -4.142923e+001  -1.384445e+002 
3834375000  -4.399528e+001  -1.413342e+002 
3837500000  -4.398187e+001  -1.355276e+002 
3840625000  -4.276109e+001  -1.401716e+002 
3843750000  -4.182367e+001  -1.555187e+002 
3846875000  -4.348651e+001  -1.661104e+002 
3850000000  -4.457486e+001  -1.579226e+002 
3853125000  -4.364361e+001  -1.581337e+002 
3856250000  -4.268145e+001  -1.690371e+002 
3859375000  -4.200993e+001  -1.773777e+002 
3862500000  -4.199568e+001  1.754344e+002 
3865625000  -4.280350e+001  1.662318e+002 
3868750000  -4.280667e+001  1.668861e+002 
3871875000  -4.182933e+001  1.556788e+002 
3875000000  -4.250850e+001  1.452570e+002 
3878125000  -4.364483e+001  1.427507e+002 
3881250000  -4.340606e+001  1.400756e+002 
3884375000  -4.265975e+001  1.311852e+002 
3887500000  -4.323127e+001  1.247056e+002 
3890625000  -4.367237e+001  1.238551e+002 
3893750000  -4.423752e+001  1.193893e+002 
3896875000  -4.449537e+001  1.156203e+002 
3900000000  -4.450431e+001  1.121895e+002 
3903125000  -4.370684e+001  1.056368e+002 
3906250000  -4.370081e+001  1.027152e+002 
3909375000  -4.300386e+001  9.200948e+001 
3912500000  -4.378519e+001  8.441097e+001 
3915625000  -4.492537e+001  8.260917e+001 
3918750000  -4.475134e+001  8.245808e+001 
3921875000  -4.357122e+001  7.450241e+001 
3925000000  -4.298785e+001  7.000600e+001 
3928125000  -4.292427e+001  6.035699e+001 
3931250000  -4.384339e+001  5.146315e+001 
3934375000  -4.428117e+001  5.259539e+001 
3937500000  -4.439554e+001  4.895791e+001 
3940625000  -4.477028e+001  4.727198e+001 
3943750000  -4.338169e+001  3.905529e+001 
3946875000  -4.299566e+001  3.486674e+001 
3950000000  -4.423155e+001  2.529794e+001 
3953125000  -4.449561e+001  2.620449e+001 
3956250000  -4.263646e+001  2.389400e+001 
3959375000  -4.209060e+001  1.869424e+001 
3962500000  -4.174170e+001  5.153568e+000 
3965625000  -4.204384e+001  -6.370264e+000 
3968750000  -4.264963e+001  -1.151716e+001 
3971875000  -4.284976e+001  -1.616614e+001 
3975000000  -4.211326e+001  -2.146613e+001 
3978125000  -4.220221e+001  -3.097402e+001 
3981250000  -4.227099e+001  -3.452826e+001 
3984375000  -4.259709e+001  -4.445911e+001 
3987500000  -4.336322e+001  -4.762280e+001 
3990625000  -4.354818e+001  -5.343445e+001 
3993750000  -4.342455e+001  -5.718293e+001 
3996875000  -4.323421e+001  -6.296835e+001 
4000000000  -4.377794e+001  -6.879668e+001 
4003125000  -4.402967e+001  -7.092361e+001 
4006250000  -4.209367e+001  -7.644528e+001 
4009375000  -4.137943e+001  -8.998209e+001 
4012500000  -4.318513e+001  -9.872032e+001 
4015625000  -4.421827e+001  -1.004603e+002 
4018750000  -4.386996e+001  -1.028226e+002 
4021875000  -4.312675e+001  -1.130413e+002 
4025000000  -4.336504e+001  -1.161348e+002 
4028125000  -4.342043e+001  -1.264764e+002 
4031250000  -4.431784e+001  -1.342113e+002 
4034375000  -4.435379e+001  -1.359279e+002 
4037500000  -4.417413e+001  -1.373986e+002 
4040625000  -4.415648e+001  -1.453058e+002 
4043750000  -4.436279e+001  -1.489382e+002 
4046875000  -4.438915e+001  -1.534293e+002 
4050000000  -4.427808e+001  -1.595572e+002 
4053125000  -4.552034e+001  -1.629429e+002 
4056250000  -4.602008e+001  -1.597062e+002 
4059375000  -4.423534e+001  -1.615683e+002 
4062500000  -4.363728e+001  -1.722133e+002 
4065625000  -4.378690e+001  -1.794272e+002 
4068750000  -4.342236e+001  1.743203e+002 
4071875000  -4.291789e+001  1.667908e+002 
4075000000  -4.382431e+001  1.561061e+002 
4078125000  -4.418263e+001  1.550708e+002 
4081250000  -4.368899e+001  1.475133e+002 
4084375000  -4.363796e+001  1.393022e+002 
4087500000  -4.412238e+001  1.317145e+002 
4090625000  -4.487660e+001  1.286268e+002 
4093750000  -4.494777e+001  1.274564e+002 
4096875000  -4.453625e+001  1.190355e+002 
4100000000  -4.562833e+001  1.118598e+002 
4103125000  -4.618425e+001  1.177114e+002 
4106250000  -4.550347e+001  1.201166e+002 
4109375000  -4.434687e+001  1.155784e+002 
4112500000  -4.453289e+001  1.039946e+002 
4115625000  -4.433807e+001  9.757938e+001 
4118750000  -4.419041e+001  9.330523e+001 
4121875000  -4.442219e+001  8.903812e+001 
4125000000  -4.522066e+001  8.022574e+001 
4128125000  -4.523394e+001  8.270911e+001 
4131250000  -4.405953e+001  8.428422e+001 
4134375000  -4.240331e+001  7.429239e+001 
4137500000  -4.219398e+001  5.172913e+001 
4140625000  -4.457746e+001  4.787159e+001 
4143750000  -4.534529e+001  5.196231e+001 
4146875000  -4.433137e+001  5.073653e+001 
4150000000  -4.289838e+001  4.105691e+001 
4153125000  -4.368488e+001  3.407305e+001 
4156250000  -4.447946e+001  3.095934e+001 
4159375000  -4.404028e+001  3.282006e+001 
4162500000  -4.287995e+001  2.993758e+001 
4165625000  -4.183233e+001  2.035279e+001 
4168750000  -4.158774e+001  8.377956e+000 
4171875000  -4.133141e+001  -2.046713e+000 
4175000000  -4.201372e+001  -8.545518e+000 
4178125000  -4.287154e+001  -1.360610e+001 
4181250000  -4.265173e+001  -1.761769e+001 
4184375000  -4.266680e+001  -2.596145e+001 
4187500000  -4.292932e+001  -3.159843e+001 
4190625000  -4.315244e+001  -4.319070e+001 
4193750000  -4.442086e+001  -4.729146e+001 
4196875000  -4.526092e+001  -5.115672e+001 
4200000000  -4.622783e+001  -4.498436e+001 
4203125000  -4.471735e+001  -3.521742e+001 
4206250000  -4.148785e+001  -4.390874e+001 
4209375000  -4.186512e+001  -7.285512e+001 
4212500000  -4.402650e+001  -7.787151e+001 
4215625000  -4.455244e+001  -6.933138e+001 
4218750000  -4.292643e+001  -6.859152e+001 
4221875000  -4.152402e+001  -7.868170e+001 
4225000000  -4.268470e+001  -9.476018e+001 
4228125000  -4.246689e+001  -9.004089e+001 
4231250000  -4.155809e+001  -9.806406e+001 
4234375000  -4.114750e+001  -1.108655e+002 
4237500000  -4.109530e+001  -1.148005e+002 
4240625000  -4.152926e+001  -1.270467e+002 
4243750000  -4.245493e+001  -1.343450e+002 
4246875000  -4.355098e+001  -1.361718e+002 
4250000000  -4.305222e+001  -1.342689e+002 
4253125000  -4.298693e+001  -1.381034e+002 
4256250000  -4.299253e+001  -1.436801e+002 
4259375000  -4.237261e+001  -1.497793e+002 
4262500000  -4.275645e+001  -1.568582e+002 
4265625000  -4.234581e+001  -1.572314e+002 
4268750000  -4.116013e+001  -1.654974e+002 
4271875000  -4.094912e+001  -1.751232e+002 
4275000000  -4.079581e+001  1.751209e+002 
4278125000  -4.202806e+001  1.621480e+002 
4281250000  -4.290535e+001  1.607611e+002 
4284375000  -4.247007e+001  1.570340e+002 
4287500000  -4.421896e+001  1.543510e+002 
4290625000  -4.414958e+001  1.598146e+002 
4293750000  -4.205114e+001  1.615571e+002 
4296875000  -4.098772e+001  1.429849e+002 
4300000000  -4.178590e+001  1.359737e+002 
4303125000  -4.234721e+001  1.336016e+002 
4306250000  -4.130783e+001  1.352354e+002 
4309375000  -4.036586e+001  1.244008e+002 
4312500000  -4.003433e+001  1.100624e+002 
4315625000  -4.046104e+001  1.024522e+002 
4318750000  -4.116267e+001  9.796423e+001 
4321875000  -4.125558e+001  9.703663e+001 
4325000000  -4.071976e+001  9.057685e+001 
4328125000  -3.976730e+001  8.097786e+001 
4331250000  -4.024081e+001  6.922488e+001 
4334375000  -4.109341e+001  6.062173e+001 
4337500000  -4.228557e+001  5.905550e+001 
4340625000  -4.283561e+001  6.165686e+001 
4343750000  -4.137217e+001  5.691179e+001 
4346875000  -4.132495e+001  4.722631e+001 
4350000000  -4.199979e+001  3.713561e+001 
4353125000  -4.234084e+001  2.788295e+001 
4356250000  -4.426558e+001  3.066360e+001 
4359375000  -4.317819e+001  4.700879e+001 
4362500000  -3.999049e+001  3.487519e+001 
4365625000  -3.941785e+001  1.541856e+001 
4368750000  -4.080620e+001  4.895816e+000 
4371875000  -4.160366e+001  2.924474e+000 
4375000000  -4.112392e+001  -5.608794e-001 
4378125000  -4.096762e+001  -8.358092e+000 
4381250000  -4.083808e+001  -1.941240e+001 
4384375000  -4.145011e+001  -2.449669e+001 
4387500000  -4.233730e+001  -3.014848e+001 
4390625000  -4.291498e+001  -3.475359e+001 
4393750000  -4.241329e+001  -3.568262e+001 
4396875000  -4.165918e+001  -3.848757e+001 
4400000000  -4.099126e+001  -4.910630e+001 
4403125000  -4.221865e+001  -6.056526e+001 
4406250000  -4.253024e+001  -6.111351e+001 
4409375000  -4.310126e+001  -6.558814e+001 
4412500000  -4.417267e+001  -7.171715e+001 
4415625000  -4.354036e+001  -6.640496e+001 
4418750000  -4.248156e+001  -6.854941e+001 
