!Agilent Technologies,E8363B,MY43030201,A.06.04.32
!Agilent E8363B: A.06.04.32
!Date: Tuesday, November 11, 2014 21:43:08
!Correction: S21(Response(S21)) 
!S1P File: Measurement: S21:
# Hz S  dB   R 50
3000000000  -4.371113e+001  -1.601990e+002 
3003125000  -4.522702e+001  -1.650102e+002 
3006250000  -4.548903e+001  -1.653895e+002 
3009375000  -4.565824e+001  -1.616124e+002 
3012500000  -4.464998e+001  -1.682843e+002 
3015625000  -4.503469e+001  -1.756481e+002 
3018750000  -4.539624e+001  -1.758405e+002 
3021875000  -4.410238e+001  -1.761946e+002 
3025000000  -4.255619e+001  1.797779e+002 
3028125000  -4.167653e+001  1.668618e+002 
3031250000  -4.083330e+001  1.548194e+002 
3034375000  -4.076377e+001  1.396059e+002 
3037500000  -4.163622e+001  1.285042e+002 
3040625000  -4.309953e+001  1.220514e+002 
3043750000  -4.321527e+001  1.152063e+002 
3046875000  -4.402806e+001  1.083792e+002 
3050000000  -4.548648e+001  1.045828e+002 
3053125000  -4.469219e+001  1.073782e+002 
3056250000  -4.467862e+001  1.126117e+002 
3059375000  -4.364802e+001  1.081414e+002 
3062500000  -4.239408e+001  1.021684e+002 
3065625000  -4.212104e+001  9.094427e+001 
3068750000  -4.201466e+001  8.371272e+001 
3071875000  -4.174304e+001  8.108081e+001 
3075000000  -4.135848e+001  7.270153e+001 
3078125000  -4.112039e+001  6.581973e+001 
3081250000  -4.128315e+001  5.953646e+001 
3084375000  -4.049277e+001  5.321786e+001 
3087500000  -4.065281e+001  4.593080e+001 
3090625000  -4.010478e+001  3.268454e+001 
3093750000  -4.091251e+001  2.355344e+001 
3096875000  -4.112514e+001  1.636175e+001 
3100000000  -4.114826e+001  1.389020e+001 
3103125000  -4.136643e+001  9.452919e+000 
3106250000  -4.102987e+001  3.907317e+000 
3109375000  -4.099615e+001  3.084024e-001 
3112500000  -4.075301e+001  -8.238421e+000 
3115625000  -4.086027e+001  -1.396458e+001 
3118750000  -4.064805e+001  -1.921886e+001 
3121875000  -4.016967e+001  -3.128348e+001 
3125000000  -4.206328e+001  -3.390648e+001 
3128125000  -4.201977e+001  -3.009547e+001 
3131250000  -3.949405e+001  -3.829138e+001 
3134375000  -3.888274e+001  -5.387331e+001 
3137500000  -3.942697e+001  -6.789520e+001 
3140625000  -4.106751e+001  -7.135458e+001 
3143750000  -4.143342e+001  -7.583553e+001 
3146875000  -4.100375e+001  -7.590784e+001 
3150000000  -4.035109e+001  -8.063387e+001 
3153125000  -4.060358e+001  -9.049134e+001 
3156250000  -4.135714e+001  -8.749116e+001 
3159375000  -3.927451e+001  -9.041936e+001 
3162500000  -3.778688e+001  -1.065503e+002 
3165625000  -3.904670e+001  -1.208813e+002 
3168750000  -3.898621e+001  -1.212474e+002 
3171875000  -3.859443e+001  -1.298302e+002 
3175000000  -3.917943e+001  -1.405144e+002 
3178125000  -3.871177e+001  -1.426554e+002 
3181250000  -3.814037e+001  -1.526328e+002 
3184375000  -3.788147e+001  -1.646608e+002 
3187500000  -3.925381e+001  -1.792002e+002 
3190625000  -4.107840e+001  1.704360e+002 
3193750000  -4.111059e+001  1.774531e+002 
3196875000  -4.114756e+001  1.765423e+002 
3200000000  -3.979061e+001  1.709130e+002 
3203125000  -3.983050e+001  1.620277e+002 
3206250000  -3.976688e+001  1.552509e+002 
3209375000  -3.962860e+001  1.460237e+002 
3212500000  -4.000135e+001  1.373086e+002 
3215625000  -3.961274e+001  1.351288e+002 
3218750000  -4.032369e+001  1.220630e+002 
3221875000  -4.068179e+001  1.155639e+002 
3225000000  -4.073913e+001  1.100826e+002 
3228125000  -4.136507e+001  1.022456e+002 
3231250000  -4.141745e+001  1.002557e+002 
3234375000  -4.094127e+001  9.632581e+001 
3237500000  -4.106106e+001  9.168678e+001 
3240625000  -4.033774e+001  8.518218e+001 
3243750000  -4.036007e+001  7.332028e+001 
3246875000  -4.085484e+001  6.584911e+001 
3250000000  -4.112801e+001  5.951372e+001 
3253125000  -4.125032e+001  5.732158e+001 
3256250000  -4.040961e+001  4.578532e+001 
3259375000  -4.096029e+001  3.255099e+001 
3262500000  -4.252911e+001  2.928768e+001 
3265625000  -4.270770e+001  3.049549e+001 
3268750000  -4.272971e+001  2.943057e+001 
3271875000  -4.185754e+001  2.371266e+001 
3275000000  -4.120631e+001  1.223038e+001 
3278125000  -4.182922e+001  5.199652e+000 
3281250000  -4.194098e+001  8.066664e-001 
3284375000  -4.106244e+001  -6.827891e+000 
3287500000  -4.167100e+001  -1.418874e+001 
3290625000  -4.179506e+001  -2.329507e+001 
3293750000  -4.148191e+001  -3.294069e+001 
3296875000  -4.263552e+001  -3.706628e+001 
3300000000  -4.177867e+001  -3.768681e+001 
3303125000  -4.101324e+001  -4.789318e+001 
3306250000  -4.109274e+001  -5.885860e+001 
3309375000  -4.077364e+001  -6.991137e+001 
3312500000  -4.136337e+001  -8.383192e+001 
3315625000  -4.254214e+001  -9.382139e+001 
3318750000  -4.419905e+001  -9.852879e+001 
3321875000  -4.526670e+001  -9.703543e+001 
3325000000  -4.526873e+001  -9.449048e+001 
3328125000  -4.435240e+001  -9.693802e+001 
3331250000  -4.254359e+001  -9.776830e+001 
3334375000  -4.047751e+001  -1.152838e+002 
3337500000  -4.115048e+001  -1.382027e+002 
3340625000  -4.272190e+001  -1.482496e+002 
3343750000  -4.468233e+001  -1.534724e+002 
3346875000  -4.402709e+001  -1.540026e+002 
3350000000  -4.386257e+001  -1.609219e+002 
3353125000  -4.376272e+001  -1.710344e+002 
3356250000  -4.317758e+001  1.799906e+002 
3359375000  -4.438600e+001  1.661197e+002 
3362500000  -4.525893e+001  1.582088e+002 
3365625000  -4.595783e+001  1.516535e+002 
3368750000  -4.633238e+001  1.459670e+002 
3371875000  -4.695703e+001  1.408280e+002 
3375000000  -4.833084e+001  1.360056e+002 
3378125000  -4.976020e+001  1.346694e+002 
3381250000  -5.030593e+001  1.469966e+002 
3384375000  -4.694170e+001  1.512254e+002 
3387500000  -4.470407e+001  1.320427e+002 
3390625000  -4.669597e+001  1.094016e+002 
3393750000  -4.784772e+001  1.050011e+002 
3396875000  -4.682207e+001  1.027517e+002 
3400000000  -4.670748e+001  8.702257e+001 
3403125000  -4.715561e+001  7.892757e+001 
3406250000  -4.770995e+001  7.322417e+001 
3409375000  -4.708530e+001  6.224731e+001 
3412500000  -4.752805e+001  5.459244e+001 
3415625000  -4.830541e+001  4.904129e+001 
3418750000  -4.880178e+001  4.361324e+001 
3421875000  -4.889647e+001  4.286541e+001 
3425000000  -4.759426e+001  3.614902e+001 
3428125000  -4.737002e+001  2.803856e+001 
3431250000  -4.706984e+001  1.576024e+001 
3434375000  -4.703653e+001  5.047444e+000 
3437500000  -4.784440e+001  -5.356145e+000 
3440625000  -4.756915e+001  -5.566585e+000 
3443750000  -4.705756e+001  -1.054406e+001 
3446875000  -4.549692e+001  -2.657957e+001 
3450000000  -4.553990e+001  -4.178612e+001 
3453125000  -4.557351e+001  -5.898288e+001 
3456250000  -4.726559e+001  -6.680269e+001 
3459375000  -4.811496e+001  -6.803912e+001 
3462500000  -4.787484e+001  -7.672634e+001 
3465625000  -4.734645e+001  -8.738675e+001 
3468750000  -4.742628e+001  -9.330010e+001 
3471875000  -4.698500e+001  -1.018665e+002 
3475000000  -4.742683e+001  -1.121509e+002 
3478125000  -4.752059e+001  -1.273527e+002 
3481250000  -4.872009e+001  -1.342257e+002 
3484375000  -4.859582e+001  -1.338570e+002 
3487500000  -4.738521e+001  -1.411991e+002 
3490625000  -4.710970e+001  -1.517498e+002 
3493750000  -4.798531e+001  -1.649915e+002 
3496875000  -4.800502e+001  -1.663476e+002 
3500000000  -4.846255e+001  -1.729559e+002 
3503125000  -4.704815e+001  -1.739469e+002 
3506250000  -4.567263e+001  1.717607e+002 
3509375000  -4.581746e+001  1.553929e+002 
3512500000  -4.586424e+001  1.388840e+002 
3515625000  -4.706538e+001  1.309793e+002 
3518750000  -4.760506e+001  1.307098e+002 
3521875000  -4.775802e+001  1.195070e+002 
3525000000  -4.879748e+001  1.155306e+002 
3528125000  -4.748181e+001  1.221543e+002 
3531250000  -4.643816e+001  1.041975e+002 
3534375000  -4.698721e+001  8.922005e+001 
3537500000  -4.742660e+001  7.852870e+001 
3540625000  -4.915900e+001  7.268440e+001 
3543750000  -4.907122e+001  8.248620e+001 
3546875000  -4.850686e+001  8.678783e+001 
3550000000  -4.663919e+001  7.557584e+001 
3553125000  -4.590457e+001  5.808093e+001 
3556250000  -4.736970e+001  5.144436e+001 
3559375000  -4.669448e+001  4.458002e+001 
3562500000  -4.636044e+001  3.389411e+001 
3565625000  -4.743521e+001  2.726720e+001 
3568750000  -4.807852e+001  2.778721e+001 
3571875000  -4.737943e+001  2.036096e+001 
3575000000  -4.729345e+001  1.785913e+001 
3578125000  -4.755357e+001  1.073376e+001 
3581250000  -4.750730e+001  5.353790e+000 
3584375000  -4.565906e+001  -2.759387e+000 
3587500000  -4.601236e+001  -1.197145e+001 
3590625000  -4.629579e+001  -2.296030e+001 
3593750000  -4.811243e+001  -2.481235e+001 
3596875000  -4.661834e+001  -1.903150e+001 
3600000000  -4.444511e+001  -2.782300e+001 
3603125000  -4.487889e+001  -4.683787e+001 
3606250000  -4.598070e+001  -5.062307e+001 
3609375000  -4.612846e+001  -5.527539e+001 
3612500000  -4.587458e+001  -6.220031e+001 
3615625000  -4.575157e+001  -6.717305e+001 
3618750000  -4.630537e+001  -6.592037e+001 
3621875000  -4.556319e+001  -7.647167e+001 
3625000000  -4.604993e+001  -8.043609e+001 
3628125000  -4.458342e+001  -8.632818e+001 
3631250000  -4.506400e+001  -9.446800e+001 
3634375000  -4.564727e+001  -9.650072e+001 
3637500000  -4.452925e+001  -9.703728e+001 
3640625000  -4.394511e+001  -1.032124e+002 
3643750000  -4.353829e+001  -1.162464e+002 
3646875000  -4.368600e+001  -1.264839e+002 
3650000000  -4.348322e+001  -1.325546e+002 
3653125000  -4.339003e+001  -1.406140e+002 
3656250000  -4.429295e+001  -1.439477e+002 
3659375000  -4.388989e+001  -1.506797e+002 
3662500000  -4.318602e+001  -1.573102e+002 
3665625000  -4.341085e+001  -1.616224e+002 
3668750000  -4.205603e+001  -1.652382e+002 
3671875000  -4.150825e+001  -1.792612e+002 
3675000000  -4.217363e+001  1.717904e+002 
3678125000  -4.247201e+001  1.640501e+002 
3681250000  -4.255074e+001  1.601419e+002 
3684375000  -4.263486e+001  1.508166e+002 
3687500000  -4.287206e+001  1.419507e+002 
3690625000  -4.393377e+001  1.366531e+002 
3693750000  -4.462918e+001  1.333793e+002 
3696875000  -4.361971e+001  1.325842e+002 
3700000000  -4.282877e+001  1.233193e+002 
3703125000  -4.372763e+001  1.170799e+002 
3706250000  -4.428766e+001  1.134875e+002 
3709375000  -4.405292e+001  1.149718e+002 
3712500000  -4.310008e+001  1.081946e+002 
3715625000  -4.138807e+001  9.758985e+001 
3718750000  -4.159535e+001  8.879236e+001 
3721875000  -4.216269e+001  7.987511e+001 
3725000000  -4.261820e+001  7.120083e+001 
3728125000  -4.271722e+001  6.944703e+001 
3731250000  -4.206720e+001  6.186380e+001 
3734375000  -4.215306e+001  5.449534e+001 
3737500000  -4.283199e+001  4.684822e+001 
3740625000  -4.330246e+001  3.924319e+001 
3743750000  -4.291825e+001  3.398389e+001 
3746875000  -4.368200e+001  2.686107e+001 
3750000000  -4.383538e+001  2.232673e+001 
3753125000  -4.384365e+001  2.068669e+001 
3756250000  -4.383133e+001  1.718657e+001 
3759375000  -4.384587e+001  9.210601e+000 
3762500000  -4.342696e+001  6.648456e+000 
3765625000  -4.411380e+001  7.980333e-001 
3768750000  -4.354269e+001  2.367055e+000 
3771875000  -4.210145e+001  -6.341010e+000 
3775000000  -4.199741e+001  -1.503561e+001 
3778125000  -4.267497e+001  -2.125925e+001 
3781250000  -4.260986e+001  -2.695519e+001 
3784375000  -4.250803e+001  -3.302341e+001 
3787500000  -4.263655e+001  -3.966424e+001 
3790625000  -4.296976e+001  -4.698124e+001 
3793750000  -4.267794e+001  -5.020111e+001 
3796875000  -4.161362e+001  -5.422523e+001 
3800000000  -4.078812e+001  -6.414027e+001 
3803125000  -4.166307e+001  -7.616296e+001 
3806250000  -4.267885e+001  -7.959483e+001 
3809375000  -4.208658e+001  -8.524269e+001 
3812500000  -4.151643e+001  -9.873254e+001 
3815625000  -4.299652e+001  -1.055262e+002 
3818750000  -4.446378e+001  -1.052223e+002 
3821875000  -4.319165e+001  -9.408598e+001 
3825000000  -4.165587e+001  -9.960192e+001 
3828125000  -4.044583e+001  -1.215543e+002 
3831250000  -4.147530e+001  -1.388028e+002 
3834375000  -4.386108e+001  -1.372358e+002 
3837500000  -4.423580e+001  -1.350197e+002 
3840625000  -4.243146e+001  -1.421504e+002 
3843750000  -4.154945e+001  -1.557009e+002 
3846875000  -4.385163e+001  -1.624724e+002 
3850000000  -4.439428e+001  -1.563345e+002 
3853125000  -4.358225e+001  -1.569889e+002 
3856250000  -4.296096e+001  -1.679252e+002 
3859375000  -4.231548e+001  -1.755454e+002 
3862500000  -4.200749e+001  1.721982e+002 
3865625000  -4.242078e+001  1.660030e+002 
3868750000  -4.233338e+001  1.639902e+002 
3871875000  -4.178816e+001  1.557832e+002 
3875000000  -4.257973e+001  1.436593e+002 
3878125000  -4.351725e+001  1.424334e+002 
3881250000  -4.342423e+001  1.387336e+002 
3884375000  -4.270289e+001  1.282842e+002 
3887500000  -4.370036e+001  1.261488e+002 
3890625000  -4.382425e+001  1.208148e+002 
3893750000  -4.429182e+001  1.196340e+002 
3896875000  -4.441283e+001  1.151980e+002 
3900000000  -4.424061e+001  1.089735e+002 
3903125000  -4.397746e+001  1.049693e+002 
3906250000  -4.338470e+001  9.984816e+001 
3909375000  -4.276029e+001  9.278907e+001 
3912500000  -4.370271e+001  8.086644e+001 
3915625000  -4.518526e+001  8.290525e+001 
3918750000  -4.483750e+001  8.224894e+001 
3921875000  -4.404831e+001  7.463586e+001 
3925000000  -4.300397e+001  7.026225e+001 
3928125000  -4.301838e+001  5.992825e+001 
3931250000  -4.359330e+001  5.093298e+001 
3934375000  -4.422747e+001  5.016953e+001 
3937500000  -4.491785e+001  4.773826e+001 
3940625000  -4.460703e+001  4.578905e+001 
3943750000  -4.346141e+001  3.954278e+001 
3946875000  -4.287560e+001  3.084396e+001 
3950000000  -4.372503e+001  2.035856e+001 
3953125000  -4.498034e+001  2.121017e+001 
3956250000  -4.281789e+001  2.337615e+001 
3959375000  -4.157600e+001  1.334872e+001 
3962500000  -4.161919e+001  4.802917e+000 
3965625000  -4.209617e+001  -3.277583e+000 
3968750000  -4.225820e+001  -1.238733e+001 
3971875000  -4.272297e+001  -1.789501e+001 
3975000000  -4.249026e+001  -2.273501e+001 
3978125000  -4.203029e+001  -2.928631e+001 
3981250000  -4.188504e+001  -3.600243e+001 
3984375000  -4.258763e+001  -4.473241e+001 
3987500000  -4.310855e+001  -4.543733e+001 
3990625000  -4.287687e+001  -5.327662e+001 
3993750000  -4.340234e+001  -5.975006e+001 
3996875000  -4.306867e+001  -6.483308e+001 
4000000000  -4.378433e+001  -6.830052e+001 
4003125000  -4.409313e+001  -7.053809e+001 
4006250000  -4.224057e+001  -7.447520e+001 
4009375000  -4.168419e+001  -9.373451e+001 
4012500000  -4.344537e+001  -1.010957e+002 
4015625000  -4.436085e+001  -1.015341e+002 
4018750000  -4.404329e+001  -1.049788e+002 
4021875000  -4.322047e+001  -1.117914e+002 
4025000000  -4.384014e+001  -1.178929e+002 
4028125000  -4.334956e+001  -1.261979e+002 
4031250000  -4.420006e+001  -1.314935e+002 
4034375000  -4.455204e+001  -1.339347e+002 
4037500000  -4.393589e+001  -1.377081e+002 
4040625000  -4.447479e+001  -1.438129e+002 
4043750000  -4.498812e+001  -1.476087e+002 
4046875000  -4.434212e+001  -1.541309e+002 
4050000000  -4.473142e+001  -1.572939e+002 
4053125000  -4.532126e+001  -1.643970e+002 
4056250000  -4.571770e+001  -1.594683e+002 
4059375000  -4.404491e+001  -1.624463e+002 
4062500000  -4.365189e+001  -1.710561e+002 
4065625000  -4.362939e+001  -1.785947e+002 
4068750000  -4.368003e+001  1.741978e+002 
4071875000  -4.288047e+001  1.656394e+002 
4075000000  -4.399742e+001  1.564336e+002 
4078125000  -4.448591e+001  1.518836e+002 
4081250000  -4.381619e+001  1.513162e+002 
4084375000  -4.398693e+001  1.385783e+002 
4087500000  -4.406313e+001  1.332021e+002 
4090625000  -4.480114e+001  1.290872e+002 
4093750000  -4.499738e+001  1.278914e+002 
4096875000  -4.454106e+001  1.199264e+002 
4100000000  -4.539674e+001  1.131155e+002 
4103125000  -4.631635e+001  1.143453e+002 
4106250000  -4.508834e+001  1.170060e+002 
4109375000  -4.465281e+001  1.129048e+002 
4112500000  -4.444804e+001  1.030455e+002 
4115625000  -4.477706e+001  9.867172e+001 
4118750000  -4.432742e+001  9.269658e+001 
4121875000  -4.381769e+001  8.634542e+001 
4125000000  -4.481993e+001  7.864680e+001 
4128125000  -4.522774e+001  8.115260e+001 
4131250000  -4.416936e+001  8.596168e+001 
4134375000  -4.198424e+001  7.471053e+001 
4137500000  -4.235749e+001  5.513560e+001 
4140625000  -4.444196e+001  4.392002e+001 
4143750000  -4.508449e+001  5.006138e+001 
4146875000  -4.435490e+001  5.205746e+001 
4150000000  -4.321124e+001  4.252456e+001 
4153125000  -4.351395e+001  3.438673e+001 
4156250000  -4.426431e+001  2.989947e+001 
4159375000  -4.377438e+001  3.278108e+001 
4162500000  -4.240265e+001  2.945249e+001 
4165625000  -4.189914e+001  1.753446e+001 
4168750000  -4.191458e+001  9.452798e+000 
4171875000  -4.122845e+001  -4.208092e+000 
4175000000  -4.227686e+001  -9.476011e+000 
4178125000  -4.258696e+001  -1.441053e+001 
4181250000  -4.232403e+001  -1.906340e+001 
4184375000  -4.330815e+001  -2.674428e+001 
4187500000  -4.253685e+001  -3.245774e+001 
4190625000  -4.316339e+001  -3.998771e+001 
4193750000  -4.445337e+001  -4.715115e+001 
4196875000  -4.525161e+001  -4.888880e+001 
4200000000  -4.636552e+001  -4.329340e+001 
4203125000  -4.524644e+001  -3.624640e+001 
4206250000  -4.120322e+001  -4.206322e+001 
4209375000  -4.219755e+001  -6.976897e+001 
4212500000  -4.429616e+001  -7.464597e+001 
4215625000  -4.439714e+001  -7.041486e+001 
4218750000  -4.307318e+001  -6.690533e+001 
4221875000  -4.180950e+001  -7.890892e+001 
4225000000  -4.226264e+001  -9.078351e+001 
4228125000  -4.263579e+001  -8.818541e+001 
4231250000  -4.155857e+001  -9.765530e+001 
4234375000  -4.128313e+001  -1.105512e+002 
4237500000  -4.129178e+001  -1.168612e+002 
4240625000  -4.155402e+001  -1.254130e+002 
4243750000  -4.265281e+001  -1.364787e+002 
4246875000  -4.324832e+001  -1.358362e+002 
4250000000  -4.317183e+001  -1.373757e+002 
4253125000  -4.311634e+001  -1.361833e+002 
4256250000  -4.289514e+001  -1.425592e+002 
4259375000  -4.238026e+001  -1.494131e+002 
4262500000  -4.276712e+001  -1.569893e+002 
4265625000  -4.209591e+001  -1.593670e+002 
4268750000  -4.159323e+001  -1.669543e+002 
4271875000  -4.134760e+001  -1.751638e+002 
4275000000  -4.036520e+001  1.767312e+002 
4278125000  -4.197721e+001  1.657807e+002 
4281250000  -4.294231e+001  1.648620e+002 
4284375000  -4.282429e+001  1.557344e+002 
4287500000  -4.438866e+001  1.546024e+002 
4290625000  -4.408331e+001  1.626757e+002 
4293750000  -4.179597e+001  1.592463e+002 
4296875000  -4.081953e+001  1.447072e+002 
4300000000  -4.195969e+001  1.347217e+002 
4303125000  -4.234767e+001  1.361017e+002 
4306250000  -4.105035e+001  1.331069e+002 
4309375000  -3.980497e+001  1.245248e+002 
4312500000  -4.007722e+001  1.123325e+002 
4315625000  -4.064344e+001  1.041437e+002 
4318750000  -4.102925e+001  9.786396e+001 
4321875000  -4.112395e+001  9.653279e+001 
4325000000  -4.056405e+001  9.187955e+001 
4328125000  -3.989175e+001  8.070837e+001 
4331250000  -4.023297e+001  6.950829e+001 
4334375000  -4.126520e+001  5.923562e+001 
4337500000  -4.271231e+001  5.897633e+001 
4340625000  -4.229752e+001  6.127320e+001 
4343750000  -4.197312e+001  5.773144e+001 
4346875000  -4.152887e+001  4.758150e+001 
4350000000  -4.154798e+001  3.556246e+001 
4353125000  -4.225454e+001  2.981405e+001 
4356250000  -4.451648e+001  3.212217e+001 
4359375000  -4.286451e+001  4.393507e+001 
4362500000  -3.978827e+001  3.496784e+001 
4365625000  -3.950776e+001  1.555432e+001 
4368750000  -4.077832e+001  4.354369e+000 
4371875000  -4.153984e+001  1.380319e+000 
4375000000  -4.121291e+001  -2.170673e+000 
4378125000  -4.091039e+001  -1.060331e+001 
4381250000  -4.098573e+001  -1.712066e+001 
4384375000  -4.120850e+001  -2.423256e+001 
4387500000  -4.225634e+001  -3.368541e+001 
4390625000  -4.287809e+001  -3.668155e+001 
4393750000  -4.244857e+001  -3.669959e+001 
4396875000  -4.165620e+001  -4.143618e+001 
4400000000  -4.157624e+001  -4.966323e+001 
4403125000  -4.231554e+001  -5.934315e+001 
4406250000  -4.277801e+001  -6.518517e+001 
4409375000  -4.281921e+001  -6.760736e+001 
4412500000  -4.399950e+001  -7.132617e+001 
4415625000  -4.384930e+001  -6.932915e+001 
4418750000  -4.273195e+001  -6.910528e+001 
