!Agilent Technologies,E8363B,MY43030201,A.06.04.32
!Agilent E8363B: A.06.04.32
!Date: Tuesday, November 11, 2014 21:43:50
!Correction: S21(Response(S21)) 
!S1P File: Measurement: S21:
# Hz S  dB   R 50
3000000000  -4.380954e+001  -1.597595e+002 
3003125000  -4.531502e+001  -1.649762e+002 
3006250000  -4.521228e+001  -1.646474e+002 
3009375000  -4.592643e+001  -1.623633e+002 
3012500000  -4.488682e+001  -1.690891e+002 
3015625000  -4.502220e+001  -1.754537e+002 
3018750000  -4.521674e+001  -1.769055e+002 
3021875000  -4.387864e+001  -1.766937e+002 
3025000000  -4.260443e+001  1.789930e+002 
3028125000  -4.154216e+001  1.654283e+002 
3031250000  -4.096846e+001  1.535750e+002 
3034375000  -4.077520e+001  1.393071e+002 
3037500000  -4.154699e+001  1.270327e+002 
3040625000  -4.296745e+001  1.234842e+002 
3043750000  -4.330239e+001  1.151538e+002 
3046875000  -4.392931e+001  1.069963e+002 
3050000000  -4.477761e+001  1.031757e+002 
3053125000  -4.488800e+001  1.070593e+002 
3056250000  -4.481549e+001  1.107810e+002 
3059375000  -4.392083e+001  1.055780e+002 
3062500000  -4.259635e+001  1.039052e+002 
3065625000  -4.207269e+001  9.128952e+001 
3068750000  -4.180712e+001  8.293860e+001 
3071875000  -4.182524e+001  8.075829e+001 
3075000000  -4.119660e+001  7.342837e+001 
3078125000  -4.139124e+001  6.547285e+001 
3081250000  -4.128499e+001  5.891217e+001 
3084375000  -4.042940e+001  5.370936e+001 
3087500000  -4.047360e+001  4.495529e+001 
3090625000  -4.002533e+001  3.287012e+001 
3093750000  -4.118250e+001  2.414844e+001 
3096875000  -4.108259e+001  1.756351e+001 
3100000000  -4.103637e+001  1.287206e+001 
3103125000  -4.142092e+001  9.026097e+000 
3106250000  -4.095525e+001  2.976136e+000 
3109375000  -4.101722e+001  -1.731081e+000 
3112500000  -4.086391e+001  -9.475060e+000 
3115625000  -4.080655e+001  -1.372751e+001 
3118750000  -4.083641e+001  -1.857553e+001 
3121875000  -4.023381e+001  -3.152104e+001 
3125000000  -4.205497e+001  -3.517410e+001 
3128125000  -4.180428e+001  -2.997075e+001 
3131250000  -3.941178e+001  -3.781882e+001 
3134375000  -3.886773e+001  -5.683962e+001 
3137500000  -3.956274e+001  -6.816000e+001 
3140625000  -4.091843e+001  -7.238926e+001 
3143750000  -4.145343e+001  -7.776799e+001 
3146875000  -4.114869e+001  -7.588489e+001 
3150000000  -4.027630e+001  -8.096667e+001 
3153125000  -4.071737e+001  -9.092731e+001 
3156250000  -4.153430e+001  -8.713104e+001 
3159375000  -3.921615e+001  -9.115337e+001 
3162500000  -3.783636e+001  -1.075335e+002 
3165625000  -3.903302e+001  -1.208091e+002 
3168750000  -3.907895e+001  -1.226209e+002 
3171875000  -3.865002e+001  -1.326088e+002 
3175000000  -3.915149e+001  -1.401658e+002 
3178125000  -3.888436e+001  -1.441301e+002 
3181250000  -3.807648e+001  -1.535764e+002 
3184375000  -3.787722e+001  -1.649169e+002 
3187500000  -3.906079e+001  1.797881e+002 
3190625000  -4.095419e+001  1.726863e+002 
3193750000  -4.127337e+001  1.756050e+002 
3196875000  -4.126814e+001  1.760606e+002 
3200000000  -3.979558e+001  1.695937e+002 
3203125000  -3.976731e+001  1.614545e+002 
3206250000  -3.979241e+001  1.533145e+002 
3209375000  -3.944920e+001  1.451864e+002 
3212500000  -4.004637e+001  1.363350e+002 
3215625000  -3.970356e+001  1.326447e+002 
3218750000  -4.045459e+001  1.210400e+002 
3221875000  -4.084338e+001  1.157575e+002 
3225000000  -4.050177e+001  1.092662e+002 
3228125000  -4.122337e+001  1.025176e+002 
3231250000  -4.139925e+001  9.939603e+001 
3234375000  -4.100714e+001  9.545715e+001 
3237500000  -4.108961e+001  9.160783e+001 
3240625000  -4.045593e+001  8.429979e+001 
3243750000  -4.018145e+001  7.253083e+001 
3246875000  -4.085315e+001  6.545226e+001 
3250000000  -4.145137e+001  5.995216e+001 
3253125000  -4.138118e+001  5.598665e+001 
3256250000  -4.047024e+001  4.544958e+001 
3259375000  -4.107950e+001  3.285324e+001 
3262500000  -4.237250e+001  2.805351e+001 
3265625000  -4.272136e+001  2.999899e+001 
3268750000  -4.252860e+001  2.750522e+001 
3271875000  -4.174694e+001  2.117028e+001 
3275000000  -4.110281e+001  1.186188e+001 
3278125000  -4.171476e+001  4.618503e+000 
3281250000  -4.201033e+001  1.655867e+000 
3284375000  -4.091224e+001  -7.710926e+000 
3287500000  -4.151601e+001  -1.579622e+001 
3290625000  -4.186319e+001  -2.555028e+001 
3293750000  -4.162416e+001  -3.376865e+001 
3296875000  -4.286769e+001  -3.625804e+001 
3300000000  -4.220887e+001  -3.823778e+001 
3303125000  -4.107328e+001  -4.887878e+001 
3306250000  -4.096576e+001  -5.826052e+001 
3309375000  -4.082229e+001  -6.928185e+001 
3312500000  -4.126910e+001  -8.455773e+001 
3315625000  -4.247721e+001  -9.460780e+001 
3318750000  -4.372435e+001  -1.010915e+002 
3321875000  -4.518993e+001  -9.703564e+001 
3325000000  -4.493238e+001  -9.414317e+001 
3328125000  -4.423679e+001  -9.726965e+001 
3331250000  -4.248655e+001  -9.785651e+001 
3334375000  -4.041042e+001  -1.170942e+002 
3337500000  -4.093579e+001  -1.391491e+002 
3340625000  -4.306554e+001  -1.499297e+002 
3343750000  -4.461553e+001  -1.498504e+002 
3346875000  -4.410423e+001  -1.565989e+002 
3350000000  -4.377081e+001  -1.601667e+002 
3353125000  -4.360617e+001  -1.701353e+002 
3356250000  -4.353589e+001  -1.796942e+002 
3359375000  -4.448658e+001  1.666138e+002 
3362500000  -4.531886e+001  1.579992e+002 
3365625000  -4.579103e+001  1.532887e+002 
3368750000  -4.630006e+001  1.480115e+002 
3371875000  -4.696152e+001  1.399905e+002 
3375000000  -4.869272e+001  1.341281e+002 
3378125000  -4.937065e+001  1.323283e+002 
3381250000  -5.107165e+001  1.459665e+002 
3384375000  -4.739063e+001  1.552556e+002 
3387500000  -4.491360e+001  1.303780e+002 
3390625000  -4.700031e+001  1.110098e+002 
3393750000  -4.761100e+001  1.054872e+002 
3396875000  -4.668047e+001  1.006762e+002 
3400000000  -4.599046e+001  8.746365e+001 
3403125000  -4.724589e+001  8.273515e+001 
3406250000  -4.750289e+001  7.443731e+001 
3409375000  -4.732891e+001  5.872643e+001 
3412500000  -4.761697e+001  5.866505e+001 
3415625000  -4.893359e+001  4.675358e+001 
3418750000  -4.909832e+001  4.434157e+001 
3421875000  -4.923055e+001  4.243022e+001 
3425000000  -4.786395e+001  3.435925e+001 
3428125000  -4.701677e+001  2.731590e+001 
3431250000  -4.686484e+001  1.473083e+001 
3434375000  -4.704155e+001  1.858806e+000 
3437500000  -4.749514e+001  -3.549551e+000 
3440625000  -4.762188e+001  -7.191244e+000 
3443750000  -4.676945e+001  -1.175903e+001 
3446875000  -4.570188e+001  -2.815445e+001 
3450000000  -4.540328e+001  -4.251498e+001 
3453125000  -4.586610e+001  -5.931892e+001 
3456250000  -4.715668e+001  -6.944859e+001 
3459375000  -4.865542e+001  -7.406915e+001 
3462500000  -4.773390e+001  -7.610982e+001 
3465625000  -4.748989e+001  -8.962991e+001 
3468750000  -4.753151e+001  -9.374371e+001 
3471875000  -4.703869e+001  -1.010187e+002 
3475000000  -4.716135e+001  -1.155471e+002 
3478125000  -4.749362e+001  -1.288823e+002 
3481250000  -4.916816e+001  -1.347783e+002 
3484375000  -4.871616e+001  -1.331880e+002 
3487500000  -4.762177e+001  -1.408202e+002 
3490625000  -4.705046e+001  -1.525623e+002 
3493750000  -4.781688e+001  -1.658928e+002 
3496875000  -4.766219e+001  -1.682264e+002 
3500000000  -4.803737e+001  -1.701834e+002 
3503125000  -4.708759e+001  -1.731108e+002 
3506250000  -4.540089e+001  1.773639e+002 
3509375000  -4.520690e+001  1.518378e+002 
3512500000  -4.583530e+001  1.399601e+002 
3515625000  -4.742517e+001  1.326014e+002 
3518750000  -4.763768e+001  1.275827e+002 
3521875000  -4.800875e+001  1.202336e+002 
3525000000  -4.867400e+001  1.136884e+002 
3528125000  -4.748376e+001  1.239748e+002 
3531250000  -4.640935e+001  1.082888e+002 
3534375000  -4.709644e+001  9.041895e+001 
3537500000  -4.747896e+001  7.836356e+001 
3540625000  -4.895578e+001  7.964096e+001 
3543750000  -4.911580e+001  8.019144e+001 
3546875000  -4.850467e+001  8.595287e+001 
3550000000  -4.682664e+001  7.929454e+001 
3553125000  -4.627307e+001  5.555724e+001 
3556250000  -4.739635e+001  4.899333e+001 
3559375000  -4.679540e+001  4.325070e+001 
3562500000  -4.637662e+001  3.677761e+001 
3565625000  -4.739695e+001  2.627208e+001 
3568750000  -4.777477e+001  2.687403e+001 
3571875000  -4.731640e+001  1.938142e+001 
3575000000  -4.684040e+001  1.343004e+001 
3578125000  -4.769622e+001  8.765385e+000 
3581250000  -4.791586e+001  5.685974e+000 
3584375000  -4.595886e+001  -1.033870e+000 
3587500000  -4.594665e+001  -1.147154e+001 
3590625000  -4.636932e+001  -2.436884e+001 
3593750000  -4.771811e+001  -2.754970e+001 
3596875000  -4.670876e+001  -2.110262e+001 
3600000000  -4.519569e+001  -3.053170e+001 
3603125000  -4.526503e+001  -4.627448e+001 
3606250000  -4.555237e+001  -5.157734e+001 
3609375000  -4.619396e+001  -5.722354e+001 
3612500000  -4.589433e+001  -6.309146e+001 
3615625000  -4.606605e+001  -6.848905e+001 
3618750000  -4.631795e+001  -6.836330e+001 
3621875000  -4.519640e+001  -7.711397e+001 
3625000000  -4.570265e+001  -8.020463e+001 
3628125000  -4.483230e+001  -8.502485e+001 
3631250000  -4.509744e+001  -9.633971e+001 
3634375000  -4.541827e+001  -9.572670e+001 
3637500000  -4.451364e+001  -9.917014e+001 
3640625000  -4.354374e+001  -1.026631e+002 
3643750000  -4.286884e+001  -1.145320e+002 
3646875000  -4.369914e+001  -1.273506e+002 
3650000000  -4.346780e+001  -1.343079e+002 
3653125000  -4.331228e+001  -1.393712e+002 
3656250000  -4.416124e+001  -1.476514e+002 
3659375000  -4.388303e+001  -1.499572e+002 
3662500000  -4.304414e+001  -1.575676e+002 
3665625000  -4.341011e+001  -1.610199e+002 
3668750000  -4.209151e+001  -1.663624e+002 
3671875000  -4.154978e+001  -1.795011e+002 
3675000000  -4.210489e+001  1.696344e+002 
3678125000  -4.274821e+001  1.653264e+002 
3681250000  -4.232714e+001  1.585773e+002 
3684375000  -4.286332e+001  1.499387e+002 
3687500000  -4.315549e+001  1.416703e+002 
3690625000  -4.352458e+001  1.365420e+002 
3693750000  -4.441724e+001  1.344391e+002 
3696875000  -4.410508e+001  1.313241e+002 
3700000000  -4.338326e+001  1.232541e+002 
3703125000  -4.393246e+001  1.154127e+002 
3706250000  -4.457255e+001  1.105443e+002 
3709375000  -4.376426e+001  1.139649e+002 
3712500000  -4.286576e+001  1.071000e+002 
3715625000  -4.172293e+001  9.871317e+001 
3718750000  -4.191692e+001  8.848903e+001 
3721875000  -4.202335e+001  7.902247e+001 
3725000000  -4.233004e+001  7.147028e+001 
3728125000  -4.260015e+001  6.885181e+001 
3731250000  -4.181688e+001  6.156726e+001 
3734375000  -4.215540e+001  5.262038e+001 
3737500000  -4.269797e+001  4.444149e+001 
3740625000  -4.340272e+001  3.956074e+001 
3743750000  -4.290696e+001  3.186572e+001 
3746875000  -4.329709e+001  2.609571e+001 
3750000000  -4.356916e+001  2.330670e+001 
3753125000  -4.374630e+001  2.020500e+001 
3756250000  -4.376948e+001  1.473821e+001 
3759375000  -4.360821e+001  1.173827e+001 
3762500000  -4.333054e+001  4.702308e+000 
3765625000  -4.415590e+001  1.725222e-001 
3768750000  -4.350019e+001  7.790325e-001 
3771875000  -4.208252e+001  -6.196496e+000 
3775000000  -4.198359e+001  -1.668596e+001 
3778125000  -4.267210e+001  -2.373008e+001 
3781250000  -4.244859e+001  -2.574141e+001 
3784375000  -4.220504e+001  -3.310235e+001 
3787500000  -4.249286e+001  -4.026046e+001 
3790625000  -4.277328e+001  -4.792685e+001 
3793750000  -4.266532e+001  -5.102444e+001 
3796875000  -4.191941e+001  -5.700140e+001 
3800000000  -4.099179e+001  -6.507132e+001 
3803125000  -4.207706e+001  -7.545586e+001 
3806250000  -4.258809e+001  -8.085401e+001 
3809375000  -4.210784e+001  -8.531939e+001 
3812500000  -4.174468e+001  -9.726671e+001 
3815625000  -4.279427e+001  -1.089914e+002 
3818750000  -4.455334e+001  -1.068455e+002 
3821875000  -4.363501e+001  -9.607323e+001 
3825000000  -4.174907e+001  -1.016565e+002 
3828125000  -4.064094e+001  -1.208716e+002 
3831250000  -4.157042e+001  -1.393736e+002 
3834375000  -4.372075e+001  -1.375965e+002 
3837500000  -4.407568e+001  -1.338833e+002 
3840625000  -4.248074e+001  -1.412157e+002 
3843750000  -4.175389e+001  -1.551588e+002 
3846875000  -4.367285e+001  -1.634655e+002 
3850000000  -4.405690e+001  -1.577316e+002 
3853125000  -4.361757e+001  -1.617286e+002 
3856250000  -4.329926e+001  -1.700387e+002 
3859375000  -4.235641e+001  -1.792945e+002 
3862500000  -4.241973e+001  1.738280e+002 
3865625000  -4.270267e+001  1.657427e+002 
3868750000  -4.238289e+001  1.641178e+002 
3871875000  -4.185715e+001  1.578661e+002 
3875000000  -4.250147e+001  1.437611e+002 
3878125000  -4.336298e+001  1.420435e+002 
3881250000  -4.348835e+001  1.377235e+002 
3884375000  -4.274268e+001  1.292820e+002 
3887500000  -4.362705e+001  1.240366e+002 
3890625000  -4.417272e+001  1.196093e+002 
3893750000  -4.403381e+001  1.160110e+002 
3896875000  -4.412464e+001  1.143820e+002 
3900000000  -4.433128e+001  1.092272e+002 
3903125000  -4.413448e+001  1.026449e+002 
3906250000  -4.364770e+001  9.986384e+001 
3909375000  -4.289783e+001  9.249749e+001 
3912500000  -4.386076e+001  8.078901e+001 
3915625000  -4.529268e+001  8.329417e+001 
3918750000  -4.421191e+001  8.075230e+001 
3921875000  -4.371338e+001  7.672437e+001 
3925000000  -4.300790e+001  6.729953e+001 
3928125000  -4.314415e+001  5.814803e+001 
3931250000  -4.363462e+001  5.121704e+001 
3934375000  -4.398442e+001  4.777465e+001 
3937500000  -4.465338e+001  4.649078e+001 
3940625000  -4.485087e+001  4.801369e+001 
3943750000  -4.336943e+001  4.190208e+001 
3946875000  -4.295935e+001  3.033719e+001 
3950000000  -4.378912e+001  2.281501e+001 
3953125000  -4.421562e+001  2.341190e+001 
3956250000  -4.289838e+001  2.148685e+001 
3959375000  -4.211710e+001  1.583655e+001 
3962500000  -4.167146e+001  4.542429e+000 
3965625000  -4.219175e+001  -5.486932e+000 
3968750000  -4.254680e+001  -1.300612e+001 
3971875000  -4.249614e+001  -1.943026e+001 
3975000000  -4.192555e+001  -2.183668e+001 
3978125000  -4.237169e+001  -2.924399e+001 
3981250000  -4.206356e+001  -3.491679e+001 
3984375000  -4.272186e+001  -4.712645e+001 
3987500000  -4.322672e+001  -4.971358e+001 
3990625000  -4.283800e+001  -5.353723e+001 
3993750000  -4.345769e+001  -5.892530e+001 
3996875000  -4.313361e+001  -6.382209e+001 
4000000000  -4.393383e+001  -6.999858e+001 
4003125000  -4.401878e+001  -6.869756e+001 
4006250000  -4.222767e+001  -7.553857e+001 
4009375000  -4.148807e+001  -9.291322e+001 
4012500000  -4.306995e+001  -1.015814e+002 
4015625000  -4.440964e+001  -1.024970e+002 
4018750000  -4.367488e+001  -1.043985e+002 
4021875000  -4.310241e+001  -1.142823e+002 
4025000000  -4.344547e+001  -1.166708e+002 
4028125000  -4.354625e+001  -1.262765e+002 
4031250000  -4.435007e+001  -1.334427e+002 
4034375000  -4.468938e+001  -1.365755e+002 
4037500000  -4.409188e+001  -1.390527e+002 
4040625000  -4.456476e+001  -1.469463e+002 
4043750000  -4.470598e+001  -1.496931e+002 
4046875000  -4.467106e+001  -1.535908e+002 
4050000000  -4.454756e+001  -1.609683e+002 
4053125000  -4.552286e+001  -1.641198e+002 
4056250000  -4.560410e+001  -1.609888e+002 
4059375000  -4.389780e+001  -1.636125e+002 
4062500000  -4.325391e+001  -1.717534e+002 
4065625000  -4.426086e+001  -1.779695e+002 
4068750000  -4.321513e+001  1.747402e+002 
4071875000  -4.322109e+001  1.625161e+002 
4075000000  -4.378337e+001  1.559447e+002 
4078125000  -4.429301e+001  1.558135e+002 
4081250000  -4.378857e+001  1.476960e+002 
4084375000  -4.369101e+001  1.403000e+002 
4087500000  -4.483752e+001  1.288417e+002 
4090625000  -4.488495e+001  1.306300e+002 
4093750000  -4.474860e+001  1.279671e+002 
4096875000  -4.464603e+001  1.186787e+002 
4100000000  -4.571699e+001  1.133880e+002 
4103125000  -4.642702e+001  1.147721e+002 
4106250000  -4.564444e+001  1.204513e+002 
4109375000  -4.484480e+001  1.119603e+002 
4112500000  -4.439957e+001  1.050268e+002 
4115625000  -4.453814e+001  9.754139e+001 
4118750000  -4.407384e+001  9.151785e+001 
4121875000  -4.416598e+001  8.571123e+001 
4125000000  -4.535986e+001  7.729085e+001 
4128125000  -4.564837e+001  7.934414e+001 
4131250000  -4.375240e+001  8.501960e+001 
4134375000  -4.164265e+001  7.226158e+001 
4137500000  -4.205181e+001  5.325945e+001 
4140625000  -4.459148e+001  4.942001e+001 
4143750000  -4.520311e+001  4.966397e+001 
4146875000  -4.433757e+001  5.268852e+001 
4150000000  -4.321607e+001  4.293332e+001 
4153125000  -4.345070e+001  3.404127e+001 
4156250000  -4.427853e+001  2.746835e+001 
4159375000  -4.409470e+001  3.180567e+001 
4162500000  -4.257055e+001  3.032423e+001 
4165625000  -4.217538e+001  1.853607e+001 
4168750000  -4.114568e+001  8.169011e+000 
4171875000  -4.184227e+001  -1.006193e+000 
4175000000  -4.212192e+001  -1.260745e+001 
4178125000  -4.259845e+001  -1.555637e+001 
4181250000  -4.228032e+001  -2.064460e+001 
4184375000  -4.271666e+001  -2.777615e+001 
4187500000  -4.265196e+001  -3.433089e+001 
4190625000  -4.306714e+001  -4.351661e+001 
4193750000  -4.407214e+001  -5.100959e+001 
4196875000  -4.516905e+001  -4.876268e+001 
4200000000  -4.606815e+001  -4.523660e+001 
4203125000  -4.449468e+001  -3.129168e+001 
4206250000  -4.161577e+001  -4.739307e+001 
4209375000  -4.187135e+001  -6.830186e+001 
4212500000  -4.425961e+001  -7.592199e+001 
4215625000  -4.451258e+001  -7.123450e+001 
4218750000  -4.276023e+001  -7.240650e+001 
4221875000  -4.148829e+001  -8.201727e+001 
4225000000  -4.243604e+001  -8.992144e+001 
4228125000  -4.237488e+001  -9.185303e+001 
4231250000  -4.082282e+001  -9.851662e+001 
4234375000  -4.113112e+001  -1.121147e+002 
4237500000  -4.122318e+001  -1.172023e+002 
4240625000  -4.142406e+001  -1.273312e+002 
4243750000  -4.295951e+001  -1.363553e+002 
4246875000  -4.386770e+001  -1.378023e+002 
4250000000  -4.362275e+001  -1.344173e+002 
4253125000  -4.312686e+001  -1.396384e+002 
4256250000  -4.264371e+001  -1.436095e+002 
4259375000  -4.241560e+001  -1.512458e+002 
4262500000  -4.269099e+001  -1.585771e+002 
4265625000  -4.246424e+001  -1.585015e+002 
4268750000  -4.146262e+001  -1.659310e+002 
4271875000  -4.105200e+001  -1.767852e+002 
4275000000  -4.069263e+001  1.739386e+002 
4278125000  -4.158500e+001  1.633895e+002 
4281250000  -4.319123e+001  1.597074e+002 
4284375000  -4.252504e+001  1.556591e+002 
4287500000  -4.421294e+001  1.534798e+002 
4290625000  -4.435010e+001  1.584690e+002 
4293750000  -4.157656e+001  1.598907e+002 
4296875000  -4.056767e+001  1.437874e+002 
4300000000  -4.192026e+001  1.322000e+002 
4303125000  -4.226474e+001  1.357953e+002 
4306250000  -4.124207e+001  1.322200e+002 
4309375000  -4.031488e+001  1.244394e+002 
4312500000  -3.980577e+001  1.107705e+002 
4315625000  -4.027518e+001  1.038821e+002 
4318750000  -4.117574e+001  9.610028e+001 
4321875000  -4.117817e+001  9.386350e+001 
4325000000  -4.061006e+001  9.032393e+001 
4328125000  -3.985489e+001  7.857720e+001 
4331250000  -4.019103e+001  6.712065e+001 
4334375000  -4.125366e+001  5.877217e+001 
4337500000  -4.236686e+001  5.610740e+001 
4340625000  -4.251647e+001  5.951538e+001 
4343750000  -4.137242e+001  5.577951e+001 
4346875000  -4.157286e+001  4.550734e+001 
4350000000  -4.183430e+001  3.703790e+001 
4353125000  -4.275744e+001  2.814002e+001 
4356250000  -4.454015e+001  3.292724e+001 
4359375000  -4.364623e+001  4.270249e+001 
4362500000  -3.993658e+001  3.370990e+001 
4365625000  -3.929364e+001  1.432416e+001 
4368750000  -4.105758e+001  4.401633e+000 
4371875000  -4.210138e+001  1.544456e+000 
4375000000  -4.108583e+001  -3.008257e+000 
4378125000  -4.100150e+001  -1.192415e+001 
4381250000  -4.082040e+001  -1.919619e+001 
4384375000  -4.118621e+001  -2.558421e+001 
4387500000  -4.206039e+001  -3.394142e+001 
4390625000  -4.270085e+001  -3.446848e+001 
4393750000  -4.210836e+001  -3.569930e+001 
4396875000  -4.184323e+001  -4.282126e+001 
4400000000  -4.134416e+001  -5.169112e+001 
4403125000  -4.202546e+001  -5.881461e+001 
4406250000  -4.258608e+001  -6.534860e+001 
4409375000  -4.297408e+001  -6.744279e+001 
4412500000  -4.389199e+001  -7.015018e+001 
4415625000  -4.341343e+001  -6.678738e+001 
4418750000  -4.236103e+001  -6.703073e+001 
