!Agilent Technologies,E8363B,MY43030201,A.06.04.32
!Agilent E8363B: A.06.04.32
!Date: Tuesday, November 11, 2014 21:45:39
!Correction: S21(Response(S21)) 
!S1P File: Measurement: S21:
# Hz S  dB   R 50
3000000000  -4.376031e+001  -1.607873e+002 
3003125000  -4.505960e+001  -1.662279e+002 
3006250000  -4.541524e+001  -1.675309e+002 
3009375000  -4.613546e+001  -1.637285e+002 
3012500000  -4.471991e+001  -1.696796e+002 
3015625000  -4.497683e+001  -1.768953e+002 
3018750000  -4.536919e+001  -1.784789e+002 
3021875000  -4.386088e+001  -1.796059e+002 
3025000000  -4.255117e+001  1.769915e+002 
3028125000  -4.185279e+001  1.645279e+002 
3031250000  -4.098319e+001  1.519611e+002 
3034375000  -4.079224e+001  1.385397e+002 
3037500000  -4.171474e+001  1.278593e+002 
3040625000  -4.282552e+001  1.216203e+002 
3043750000  -4.334381e+001  1.142287e+002 
3046875000  -4.399656e+001  1.065058e+002 
3050000000  -4.563399e+001  1.027752e+002 
3053125000  -4.517022e+001  1.068576e+002 
3056250000  -4.506836e+001  1.095299e+002 
3059375000  -4.408447e+001  1.049915e+002 
3062500000  -4.257410e+001  1.033161e+002 
3065625000  -4.205391e+001  8.983260e+001 
3068750000  -4.177003e+001  8.241064e+001 
3071875000  -4.190989e+001  7.877962e+001 
3075000000  -4.117311e+001  7.207927e+001 
3078125000  -4.124338e+001  6.402361e+001 
3081250000  -4.131314e+001  5.800724e+001 
3084375000  -4.036191e+001  5.241627e+001 
3087500000  -4.042164e+001  4.546385e+001 
3090625000  -3.992014e+001  3.174339e+001 
3093750000  -4.106218e+001  2.193264e+001 
3096875000  -4.118262e+001  1.581367e+001 
3100000000  -4.096385e+001  1.327873e+001 
3103125000  -4.147430e+001  8.733886e+000 
3106250000  -4.107793e+001  9.856619e-001 
3109375000  -4.082605e+001  -3.085477e+000 
3112500000  -4.090806e+001  -1.016587e+001 
3115625000  -4.098750e+001  -1.503834e+001 
3118750000  -4.082518e+001  -2.047223e+001 
3121875000  -4.013866e+001  -3.226636e+001 
3125000000  -4.223582e+001  -3.591641e+001 
3128125000  -4.191055e+001  -2.947175e+001 
3131250000  -3.943808e+001  -3.846049e+001 
3134375000  -3.888246e+001  -5.620554e+001 
3137500000  -3.958981e+001  -6.922439e+001 
3140625000  -4.091551e+001  -7.489749e+001 
3143750000  -4.163371e+001  -7.848903e+001 
3146875000  -4.114052e+001  -7.718010e+001 
3150000000  -4.029765e+001  -8.247319e+001 
3153125000  -4.080138e+001  -9.074494e+001 
3156250000  -4.134597e+001  -8.789639e+001 
3159375000  -3.908230e+001  -9.295810e+001 
3162500000  -3.783681e+001  -1.079073e+002 
3165625000  -3.893001e+001  -1.226808e+002 
3168750000  -3.889674e+001  -1.244873e+002 
3171875000  -3.842284e+001  -1.322906e+002 
3175000000  -3.900543e+001  -1.425851e+002 
3178125000  -3.868644e+001  -1.443360e+002 
3181250000  -3.800598e+001  -1.540989e+002 
3184375000  -3.777814e+001  -1.655409e+002 
3187500000  -3.911737e+001  1.787102e+002 
3190625000  -4.081196e+001  1.731458e+002 
3193750000  -4.125807e+001  1.761212e+002 
3196875000  -4.104998e+001  1.750780e+002 
3200000000  -3.981420e+001  1.688055e+002 
3203125000  -3.951946e+001  1.603555e+002 
3206250000  -3.982703e+001  1.528490e+002 
3209375000  -3.943943e+001  1.429608e+002 
3212500000  -3.993072e+001  1.369494e+002 
3215625000  -3.944444e+001  1.333927e+002 
3218750000  -4.054271e+001  1.206064e+002 
3221875000  -4.070405e+001  1.137690e+002 
3225000000  -4.053414e+001  1.080259e+002 
3228125000  -4.104116e+001  1.009890e+002 
3231250000  -4.136930e+001  9.788561e+001 
3234375000  -4.096580e+001  9.426190e+001 
3237500000  -4.114652e+001  8.916585e+001 
3240625000  -4.039059e+001  8.277116e+001 
3243750000  -4.022912e+001  7.115804e+001 
3246875000  -4.060818e+001  6.410444e+001 
3250000000  -4.112138e+001  6.021329e+001 
3253125000  -4.113835e+001  5.503598e+001 
3256250000  -4.035397e+001  4.549544e+001 
3259375000  -4.091504e+001  3.182020e+001 
3262500000  -4.248445e+001  2.663478e+001 
3265625000  -4.245266e+001  2.967712e+001 
3268750000  -4.250859e+001  2.752982e+001 
3271875000  -4.165844e+001  2.130285e+001 
3275000000  -4.104306e+001  1.069478e+001 
3278125000  -4.182286e+001  4.629361e+000 
3281250000  -4.177483e+001  -2.939776e-001 
3284375000  -4.106448e+001  -8.912162e+000 
3287500000  -4.166687e+001  -1.767960e+001 
3290625000  -4.151798e+001  -2.408582e+001 
3293750000  -4.134497e+001  -3.372198e+001 
3296875000  -4.268779e+001  -3.687426e+001 
3300000000  -4.179898e+001  -4.139468e+001 
3303125000  -4.097268e+001  -4.939472e+001 
3306250000  -4.095931e+001  -6.012637e+001 
3309375000  -4.077437e+001  -6.949570e+001 
3312500000  -4.121707e+001  -8.569901e+001 
3315625000  -4.238081e+001  -9.384990e+001 
3318750000  -4.410777e+001  -9.939014e+001 
3321875000  -4.540330e+001  -9.811815e+001 
3325000000  -4.500055e+001  -9.544260e+001 
3328125000  -4.425597e+001  -9.656006e+001 
3331250000  -4.250819e+001  -9.745271e+001 
3334375000  -4.017111e+001  -1.184224e+002 
3337500000  -4.087938e+001  -1.419564e+002 
3340625000  -4.254026e+001  -1.496313e+002 
3343750000  -4.457641e+001  -1.537169e+002 
3346875000  -4.398989e+001  -1.551006e+002 
3350000000  -4.345173e+001  -1.614757e+002 
3353125000  -4.326305e+001  -1.704495e+002 
3356250000  -4.337090e+001  1.782118e+002 
3359375000  -4.438271e+001  1.658455e+002 
3362500000  -4.501868e+001  1.584302e+002 
3365625000  -4.589056e+001  1.517736e+002 
3368750000  -4.640175e+001  1.469028e+002 
3371875000  -4.702830e+001  1.407939e+002 
3375000000  -4.874693e+001  1.322093e+002 
3378125000  -4.928291e+001  1.289265e+002 
3381250000  -4.996289e+001  1.406196e+002 
3384375000  -4.722449e+001  1.547865e+002 
3387500000  -4.468647e+001  1.277467e+002 
3390625000  -4.663121e+001  1.054319e+002 
3393750000  -4.862696e+001  1.063462e+002 
3396875000  -4.637848e+001  1.002042e+002 
3400000000  -4.645741e+001  8.621217e+001 
3403125000  -4.690464e+001  8.108372e+001 
3406250000  -4.758105e+001  7.316672e+001 
3409375000  -4.744348e+001  6.309311e+001 
3412500000  -4.761952e+001  5.314573e+001 
3415625000  -4.907500e+001  5.166086e+001 
3418750000  -4.899780e+001  4.262692e+001 
3421875000  -4.956002e+001  4.368817e+001 
3425000000  -4.744080e+001  3.638834e+001 
3428125000  -4.726276e+001  2.911817e+001 
3431250000  -4.703289e+001  1.672712e+001 
3434375000  -4.717445e+001  3.344742e+000 
3437500000  -4.736846e+001  -4.119234e+000 
3440625000  -4.773366e+001  -8.156425e+000 
3443750000  -4.635751e+001  -1.254646e+001 
3446875000  -4.543435e+001  -2.770328e+001 
3450000000  -4.529285e+001  -4.384743e+001 
3453125000  -4.561909e+001  -5.967049e+001 
3456250000  -4.718182e+001  -6.967001e+001 
3459375000  -4.824525e+001  -7.196800e+001 
3462500000  -4.761200e+001  -7.613477e+001 
3465625000  -4.702446e+001  -8.816946e+001 
3468750000  -4.721744e+001  -9.460510e+001 
3471875000  -4.693427e+001  -1.016710e+002 
3475000000  -4.680369e+001  -1.150736e+002 
3478125000  -4.750560e+001  -1.300723e+002 
3481250000  -4.895990e+001  -1.349783e+002 
3484375000  -4.846947e+001  -1.356354e+002 
3487500000  -4.704863e+001  -1.422710e+002 
3490625000  -4.733740e+001  -1.525492e+002 
3493750000  -4.827165e+001  -1.660227e+002 
3496875000  -4.781934e+001  -1.690126e+002 
3500000000  -4.833326e+001  -1.702613e+002 
3503125000  -4.706359e+001  -1.776582e+002 
3506250000  -4.523228e+001  1.720159e+002 
3509375000  -4.576617e+001  1.545769e+002 
3512500000  -4.633996e+001  1.360817e+002 
3515625000  -4.742960e+001  1.298156e+002 
3518750000  -4.743919e+001  1.293512e+002 
3521875000  -4.853351e+001  1.187173e+002 
3525000000  -4.889114e+001  1.165220e+002 
3528125000  -4.734689e+001  1.157968e+002 
3531250000  -4.709791e+001  1.058809e+002 
3534375000  -4.709538e+001  8.925504e+001 
3537500000  -4.807831e+001  8.282397e+001 
3540625000  -4.889272e+001  7.098336e+001 
3543750000  -4.919122e+001  8.014012e+001 
3546875000  -4.879514e+001  8.176740e+001 
3550000000  -4.626085e+001  7.493334e+001 
3553125000  -4.631479e+001  5.437167e+001 
3556250000  -4.682494e+001  5.121976e+001 
3559375000  -4.640103e+001  4.507392e+001 
3562500000  -4.610096e+001  3.392009e+001 
3565625000  -4.761954e+001  2.284682e+001 
3568750000  -4.743250e+001  2.277197e+001 
3571875000  -4.685154e+001  1.766122e+001 
3575000000  -4.719656e+001  1.219816e+001 
3578125000  -4.747905e+001  7.771245e+000 
3581250000  -4.732457e+001  5.064064e+000 
3584375000  -4.617729e+001  -2.723688e+000 
3587500000  -4.561599e+001  -1.472904e+001 
3590625000  -4.645065e+001  -2.385216e+001 
3593750000  -4.772271e+001  -2.697368e+001 
3596875000  -4.672771e+001  -2.060560e+001 
3600000000  -4.479507e+001  -3.175448e+001 
3603125000  -4.525834e+001  -4.772121e+001 
3606250000  -4.612201e+001  -5.674949e+001 
3609375000  -4.561213e+001  -5.669914e+001 
3612500000  -4.598355e+001  -6.798489e+001 
3615625000  -4.638543e+001  -6.771037e+001 
3618750000  -4.601859e+001  -6.933184e+001 
3621875000  -4.562798e+001  -7.535658e+001 
3625000000  -4.564854e+001  -8.235690e+001 
3628125000  -4.462617e+001  -8.604193e+001 
3631250000  -4.504966e+001  -9.628925e+001 
3634375000  -4.547014e+001  -9.949686e+001 
3637500000  -4.455988e+001  -1.016093e+002 
3640625000  -4.390218e+001  -1.066826e+002 
3643750000  -4.338953e+001  -1.177682e+002 
3646875000  -4.365083e+001  -1.302128e+002 
3650000000  -4.364885e+001  -1.354565e+002 
3653125000  -4.334636e+001  -1.418325e+002 
3656250000  -4.409301e+001  -1.480285e+002 
3659375000  -4.382526e+001  -1.524454e+002 
3662500000  -4.356153e+001  -1.600777e+002 
3665625000  -4.317261e+001  -1.623080e+002 
3668750000  -4.196326e+001  -1.686480e+002 
3671875000  -4.135311e+001  1.778783e+002 
3675000000  -4.216996e+001  1.673398e+002 
3678125000  -4.254987e+001  1.633034e+002 
3681250000  -4.228822e+001  1.547361e+002 
3684375000  -4.265799e+001  1.481801e+002 
3687500000  -4.298967e+001  1.398607e+002 
3690625000  -4.337402e+001  1.315326e+002 
3693750000  -4.420648e+001  1.333040e+002 
3696875000  -4.358141e+001  1.298692e+002 
3700000000  -4.279140e+001  1.220997e+002 
3703125000  -4.350297e+001  1.146576e+002 
3706250000  -4.449363e+001  1.112414e+002 
3709375000  -4.372534e+001  1.126883e+002 
3712500000  -4.309691e+001  1.055096e+002 
3715625000  -4.161753e+001  9.545561e+001 
3718750000  -4.159849e+001  8.354665e+001 
3721875000  -4.211116e+001  7.750595e+001 
3725000000  -4.210906e+001  6.977430e+001 
3728125000  -4.235083e+001  6.693791e+001 
3731250000  -4.195401e+001  5.816182e+001 
3734375000  -4.195730e+001  5.401884e+001 
3737500000  -4.265022e+001  4.384795e+001 
3740625000  -4.319860e+001  3.768503e+001 
3743750000  -4.285098e+001  3.193192e+001 
3746875000  -4.329003e+001  2.440779e+001 
3750000000  -4.373910e+001  2.092732e+001 
3753125000  -4.393452e+001  1.814367e+001 
3756250000  -4.378589e+001  1.498547e+001 
3759375000  -4.368394e+001  8.429170e+000 
3762500000  -4.352832e+001  4.156955e+000 
3765625000  -4.391921e+001  -3.006534e+000 
3768750000  -4.353983e+001  -2.253943e+000 
3771875000  -4.193730e+001  -7.419168e+000 
3775000000  -4.199131e+001  -1.876100e+001 
3778125000  -4.264535e+001  -2.430551e+001 
3781250000  -4.269735e+001  -3.022673e+001 
3784375000  -4.254052e+001  -3.490565e+001 
3787500000  -4.218272e+001  -3.875529e+001 
3790625000  -4.276130e+001  -5.068843e+001 
3793750000  -4.263731e+001  -5.380333e+001 
3796875000  -4.155141e+001  -5.975682e+001 
3800000000  -4.071809e+001  -6.627766e+001 
3803125000  -4.177985e+001  -7.774455e+001 
3806250000  -4.238620e+001  -8.358988e+001 
3809375000  -4.187506e+001  -9.036356e+001 
3812500000  -4.149726e+001  -1.003625e+002 
3815625000  -4.292221e+001  -1.097705e+002 
3818750000  -4.442339e+001  -1.072874e+002 
3821875000  -4.320644e+001  -9.844383e+001 
3825000000  -4.119456e+001  -1.065821e+002 
3828125000  -4.053150e+001  -1.249366e+002 
3831250000  -4.143440e+001  -1.391001e+002 
3834375000  -4.359007e+001  -1.422822e+002 
3837500000  -4.379477e+001  -1.388190e+002 
3840625000  -4.218626e+001  -1.432424e+002 
3843750000  -4.141930e+001  -1.580180e+002 
3846875000  -4.327711e+001  -1.653773e+002 
3850000000  -4.387781e+001  -1.631005e+002 
3853125000  -4.360241e+001  -1.622610e+002 
3856250000  -4.284472e+001  -1.685892e+002 
3859375000  -4.192488e+001  -1.784463e+002 
3862500000  -4.190641e+001  1.702109e+002 
3865625000  -4.266290e+001  1.646876e+002 
3868750000  -4.250985e+001  1.613480e+002 
3871875000  -4.190124e+001  1.534372e+002 
3875000000  -4.269936e+001  1.407935e+002 
3878125000  -4.360749e+001  1.407124e+002 
3881250000  -4.329409e+001  1.408655e+002 
3884375000  -4.241559e+001  1.271621e+002 
3887500000  -4.337231e+001  1.224586e+002 
3890625000  -4.391798e+001  1.207662e+002 
3893750000  -4.385696e+001  1.162282e+002 
3896875000  -4.415357e+001  1.110655e+002 
3900000000  -4.438507e+001  1.095330e+002 
3903125000  -4.381873e+001  1.001044e+002 
3906250000  -4.317289e+001  9.609989e+001 
3909375000  -4.264536e+001  8.796593e+001 
3912500000  -4.338294e+001  8.040852e+001 
3915625000  -4.464779e+001  7.766002e+001 
3918750000  -4.459375e+001  7.848537e+001 
3921875000  -4.380376e+001  7.321237e+001 
3925000000  -4.288587e+001  6.626918e+001 
3928125000  -4.269393e+001  5.766435e+001 
3931250000  -4.380618e+001  5.066279e+001 
3934375000  -4.422924e+001  4.654541e+001 
3937500000  -4.427379e+001  4.606508e+001 
3940625000  -4.459786e+001  4.442142e+001 
3943750000  -4.304061e+001  3.745747e+001 
3946875000  -4.278329e+001  3.027432e+001 
3950000000  -4.383217e+001  1.865510e+001 
3953125000  -4.448642e+001  2.151340e+001 
3956250000  -4.259793e+001  2.163392e+001 
3959375000  -4.173815e+001  1.606816e+001 
3962500000  -4.162542e+001  1.940944e+000 
3965625000  -4.164190e+001  -7.301761e+000 
3968750000  -4.250042e+001  -1.556125e+001 
3971875000  -4.227569e+001  -1.907246e+001 
3975000000  -4.183181e+001  -2.363722e+001 
3978125000  -4.206503e+001  -3.306069e+001 
3981250000  -4.196485e+001  -3.856036e+001 
3984375000  -4.247356e+001  -4.565972e+001 
3987500000  -4.272524e+001  -5.120017e+001 
3990625000  -4.292456e+001  -5.471188e+001 
3993750000  -4.274239e+001  -6.214000e+001 
3996875000  -4.316907e+001  -6.917735e+001 
4000000000  -4.372803e+001  -7.252212e+001 
4003125000  -4.365896e+001  -7.107670e+001 
4006250000  -4.175495e+001  -7.772211e+001 
4009375000  -4.113007e+001  -9.338200e+001 
4012500000  -4.253974e+001  -1.016063e+002 
4015625000  -4.398987e+001  -1.052850e+002 
4018750000  -4.381609e+001  -1.064219e+002 
4021875000  -4.306070e+001  -1.150357e+002 
4025000000  -4.278649e+001  -1.213693e+002 
4028125000  -4.355769e+001  -1.288775e+002 
4031250000  -4.399828e+001  -1.341805e+002 
4034375000  -4.405332e+001  -1.372932e+002 
4037500000  -4.376053e+001  -1.410783e+002 
4040625000  -4.421833e+001  -1.458387e+002 
4043750000  -4.438607e+001  -1.522387e+002 
4046875000  -4.477125e+001  -1.580890e+002 
4050000000  -4.435432e+001  -1.631391e+002 
4053125000  -4.496815e+001  -1.670778e+002 
4056250000  -4.538316e+001  -1.613711e+002 
4059375000  -4.411426e+001  -1.672924e+002 
4062500000  -4.333751e+001  -1.739140e+002 
4065625000  -4.357753e+001  -1.798315e+002 
4068750000  -4.261673e+001  1.723727e+002 
4071875000  -4.242420e+001  1.612784e+002 
4075000000  -4.352151e+001  1.551612e+002 
4078125000  -4.406577e+001  1.512002e+002 
4081250000  -4.349584e+001  1.482943e+002 
4084375000  -4.316979e+001  1.389630e+002 
4087500000  -4.400699e+001  1.289917e+002 
4090625000  -4.466595e+001  1.283323e+002 
4093750000  -4.454792e+001  1.236852e+002 
4096875000  -4.410602e+001  1.157108e+002 
4100000000  -4.488100e+001  1.136272e+002 
4103125000  -4.588593e+001  1.151973e+002 
4106250000  -4.503146e+001  1.128144e+002 
4109375000  -4.391053e+001  1.075693e+002 
4112500000  -4.415652e+001  1.009673e+002 
4115625000  -4.424479e+001  9.797033e+001 
4118750000  -4.387814e+001  9.250381e+001 
4121875000  -4.367171e+001  8.432193e+001 
4125000000  -4.493230e+001  7.683521e+001 
4128125000  -4.504312e+001  7.971729e+001 
4131250000  -4.380280e+001  8.196516e+001 
4134375000  -4.152992e+001  7.038078e+001 
4137500000  -4.221990e+001  4.856430e+001 
4140625000  -4.393088e+001  4.323149e+001 
4143750000  -4.452337e+001  4.661657e+001 
4146875000  -4.351841e+001  4.717154e+001 
4150000000  -4.255498e+001  4.095346e+001 
4153125000  -4.336355e+001  2.877245e+001 
4156250000  -4.367835e+001  2.662070e+001 
4159375000  -4.396487e+001  2.922904e+001 
4162500000  -4.233980e+001  2.591356e+001 
4165625000  -4.157260e+001  1.804926e+001 
4168750000  -4.107706e+001  4.888998e+000 
4171875000  -4.111938e+001  -8.286437e+000 
4175000000  -4.194873e+001  -1.383980e+001 
4178125000  -4.228286e+001  -1.884192e+001 
4181250000  -4.211341e+001  -2.447932e+001 
4184375000  -4.244180e+001  -3.109651e+001 
4187500000  -4.261348e+001  -3.718977e+001 
4190625000  -4.238877e+001  -4.752567e+001 
4193750000  -4.409648e+001  -5.109323e+001 
4196875000  -4.514922e+001  -5.472481e+001 
4200000000  -4.614045e+001  -4.646058e+001 
4203125000  -4.438165e+001  -3.844474e+001 
4206250000  -4.122325e+001  -4.877441e+001 
4209375000  -4.123497e+001  -7.252969e+001 
4212500000  -4.399992e+001  -8.058683e+001 
4215625000  -4.398253e+001  -7.476174e+001 
4218750000  -4.254523e+001  -7.562747e+001 
4221875000  -4.061745e+001  -8.209335e+001 
4225000000  -4.192360e+001  -9.508085e+001 
4228125000  -4.200597e+001  -9.445686e+001 
4231250000  -4.094440e+001  -1.023696e+002 
4234375000  -4.065353e+001  -1.133153e+002 
4237500000  -4.063489e+001  -1.189280e+002 
4240625000  -4.085574e+001  -1.307983e+002 
4243750000  -4.217256e+001  -1.397008e+002 
4246875000  -4.295891e+001  -1.409631e+002 
4250000000  -4.268982e+001  -1.380355e+002 
4253125000  -4.264483e+001  -1.430389e+002 
4256250000  -4.235986e+001  -1.504301e+002 
4259375000  -4.189191e+001  -1.547993e+002 
4262500000  -4.230304e+001  -1.569404e+002 
4265625000  -4.207751e+001  -1.602170e+002 
4268750000  -4.078912e+001  -1.693118e+002 
4271875000  -4.053439e+001  -1.788254e+002 
4275000000  -4.019887e+001  1.736179e+002 
4278125000  -4.117593e+001  1.571230e+002 
4281250000  -4.229126e+001  1.540419e+002 
4284375000  -4.236357e+001  1.531588e+002 
4287500000  -4.347517e+001  1.495021e+002 
4290625000  -4.351399e+001  1.564575e+002 
4293750000  -4.166991e+001  1.565834e+002 
4296875000  -4.046743e+001  1.443754e+002 
4300000000  -4.138065e+001  1.278453e+002 
4303125000  -4.165829e+001  1.304448e+002 
4306250000  -4.057321e+001  1.309498e+002 
4309375000  -3.954161e+001  1.205182e+002 
4312500000  -4.001829e+001  1.072120e+002 
4315625000  -3.993219e+001  9.858372e+001 
4318750000  -4.079926e+001  9.454931e+001 
4321875000  -4.066372e+001  9.024986e+001 
4325000000  -4.017575e+001  8.781396e+001 
4328125000  -3.918499e+001  7.599230e+001 
4331250000  -3.980408e+001  6.423171e+001 
4334375000  -4.056055e+001  5.609278e+001 
4337500000  -4.185208e+001  5.455967e+001 
4340625000  -4.198225e+001  5.598940e+001 
4343750000  -4.113895e+001  5.214599e+001 
4346875000  -4.082230e+001  4.219847e+001 
4350000000  -4.096252e+001  3.355382e+001 
4353125000  -4.184055e+001  2.283413e+001 
4356250000  -4.411189e+001  3.196926e+001 
4359375000  -4.291262e+001  3.742752e+001 
4362500000  -3.950451e+001  2.884890e+001 
4365625000  -3.925167e+001  1.140971e+001 
4368750000  -4.037492e+001  -8.985930e-002 
4371875000  -4.123166e+001  -1.241309e+000 
4375000000  -4.066260e+001  -5.691833e+000 
4378125000  -4.030282e+001  -1.311268e+001 
4381250000  -4.052373e+001  -2.070325e+001 
4384375000  -4.067713e+001  -3.073884e+001 
4387500000  -4.097655e+001  -3.525523e+001 
4390625000  -4.227578e+001  -3.783049e+001 
4393750000  -4.157260e+001  -3.981005e+001 
4396875000  -4.123309e+001  -4.377311e+001 
4400000000  -4.084422e+001  -5.464205e+001 
4403125000  -4.179230e+001  -6.453509e+001 
4406250000  -4.236446e+001  -6.878129e+001 
4409375000  -4.253100e+001  -7.529883e+001 
4412500000  -4.331035e+001  -7.660743e+001 
4415625000  -4.288813e+001  -7.080129e+001 
4418750000  -4.174348e+001  -7.427950e+001 
