!Agilent Technologies,E8363B,MY43030201,A.06.04.32
!Agilent E8363B: A.06.04.32
!Date: Tuesday, November 11, 2014 21:47:14
!Correction: S21(Response(S21)) 
!S1P File: Measurement: S21:
# Hz S  dB   R 50
3000000000  -4.363888e+001  -1.619279e+002 
3003125000  -4.560994e+001  -1.679533e+002 
3006250000  -4.538512e+001  -1.669892e+002 
3009375000  -4.634100e+001  -1.652150e+002 
3012500000  -4.493524e+001  -1.715110e+002 
3015625000  -4.513702e+001  -1.789305e+002 
3018750000  -4.514110e+001  -1.787901e+002 
3021875000  -4.384747e+001  -1.793889e+002 
3025000000  -4.272218e+001  1.778058e+002 
3028125000  -4.165083e+001  1.655728e+002 
3031250000  -4.090862e+001  1.522305e+002 
3034375000  -4.084990e+001  1.373642e+002 
3037500000  -4.163108e+001  1.272697e+002 
3040625000  -4.286687e+001  1.203501e+002 
3043750000  -4.335488e+001  1.143412e+002 
3046875000  -4.422416e+001  1.063973e+002 
3050000000  -4.511683e+001  1.019899e+002 
3053125000  -4.476986e+001  1.078524e+002 
3056250000  -4.503346e+001  1.080202e+002 
3059375000  -4.374806e+001  1.041242e+002 
3062500000  -4.261469e+001  1.015081e+002 
3065625000  -4.218041e+001  8.889623e+001 
3068750000  -4.174624e+001  8.330960e+001 
3071875000  -4.189255e+001  7.975067e+001 
3075000000  -4.153478e+001  7.249248e+001 
3078125000  -4.147761e+001  6.257216e+001 
3081250000  -4.135894e+001  5.734557e+001 
3084375000  -4.044140e+001  5.094520e+001 
3087500000  -4.059861e+001  4.398711e+001 
3090625000  -4.011264e+001  3.111746e+001 
3093750000  -4.109694e+001  2.179605e+001 
3096875000  -4.112163e+001  1.539190e+001 
3100000000  -4.102878e+001  1.238123e+001 
3103125000  -4.137398e+001  7.631297e+000 
3106250000  -4.110690e+001  1.245352e+000 
3109375000  -4.095269e+001  -3.943281e+000 
3112500000  -4.076084e+001  -1.026134e+001 
3115625000  -4.080262e+001  -1.602810e+001 
3118750000  -4.070132e+001  -2.031650e+001 
3121875000  -4.031676e+001  -3.284970e+001 
3125000000  -4.208678e+001  -3.574520e+001 
3128125000  -4.203614e+001  -3.103935e+001 
3131250000  -3.957787e+001  -3.866199e+001 
3134375000  -3.885783e+001  -5.647483e+001 
3137500000  -3.953441e+001  -6.986433e+001 
3140625000  -4.086440e+001  -7.451621e+001 
3143750000  -4.140624e+001  -7.887325e+001 
3146875000  -4.119889e+001  -7.669575e+001 
3150000000  -4.021790e+001  -8.254051e+001 
3153125000  -4.077742e+001  -9.159153e+001 
3156250000  -4.117042e+001  -8.839661e+001 
3159375000  -3.919013e+001  -9.229895e+001 
3162500000  -3.779860e+001  -1.085402e+002 
3165625000  -3.914440e+001  -1.221740e+002 
3168750000  -3.907245e+001  -1.236154e+002 
3171875000  -3.865627e+001  -1.334010e+002 
3175000000  -3.893624e+001  -1.425772e+002 
3178125000  -3.879756e+001  -1.451682e+002 
3181250000  -3.803117e+001  -1.548613e+002 
3184375000  -3.783762e+001  -1.662767e+002 
3187500000  -3.906732e+001  1.779530e+002 
3190625000  -4.076339e+001  1.715954e+002 
3193750000  -4.134365e+001  1.747932e+002 
3196875000  -4.109914e+001  1.742507e+002 
3200000000  -3.996737e+001  1.689640e+002 
3203125000  -3.960207e+001  1.608605e+002 
3206250000  -3.981543e+001  1.524131e+002 
3209375000  -3.946357e+001  1.431598e+002 
3212500000  -4.007107e+001  1.364783e+002 
3215625000  -3.963006e+001  1.335125e+002 
3218750000  -4.030780e+001  1.210261e+002 
3221875000  -4.062161e+001  1.132251e+002 
3225000000  -4.052171e+001  1.082691e+002 
3228125000  -4.096800e+001  1.020150e+002 
3231250000  -4.132877e+001  9.727455e+001 
3234375000  -4.110608e+001  9.302686e+001 
3237500000  -4.079774e+001  9.116833e+001 
3240625000  -4.021898e+001  8.343916e+001 
3243750000  -4.031290e+001  7.128111e+001 
3246875000  -4.079383e+001  6.416854e+001 
3250000000  -4.099518e+001  5.775502e+001 
3253125000  -4.126547e+001  5.511374e+001 
3256250000  -4.034269e+001  4.449881e+001 
3259375000  -4.091759e+001  3.066731e+001 
3262500000  -4.219662e+001  2.519888e+001 
3265625000  -4.262291e+001  2.842440e+001 
3268750000  -4.236549e+001  2.900180e+001 
3271875000  -4.143745e+001  2.227266e+001 
3275000000  -4.111819e+001  1.005116e+001 
3278125000  -4.178997e+001  3.797468e+000 
3281250000  -4.185448e+001  7.231410e-001 
3284375000  -4.092921e+001  -8.670356e+000 
3287500000  -4.164526e+001  -1.554652e+001 
3290625000  -4.128635e+001  -2.699105e+001 
3293750000  -4.149400e+001  -3.439046e+001 
3296875000  -4.277308e+001  -3.823213e+001 
3300000000  -4.190587e+001  -4.090792e+001 
3303125000  -4.093142e+001  -4.918534e+001 
3306250000  -4.102153e+001  -5.993934e+001 
3309375000  -4.061365e+001  -7.258668e+001 
3312500000  -4.124294e+001  -8.539602e+001 
3315625000  -4.245713e+001  -9.540990e+001 
3318750000  -4.420833e+001  -1.011628e+002 
3321875000  -4.540840e+001  -1.018244e+002 
3325000000  -4.499073e+001  -9.457868e+001 
3328125000  -4.417546e+001  -9.864240e+001 
3331250000  -4.246778e+001  -9.676627e+001 
3334375000  -4.010530e+001  -1.168909e+002 
3337500000  -4.085333e+001  -1.412065e+002 
3340625000  -4.271489e+001  -1.489869e+002 
3343750000  -4.452791e+001  -1.511381e+002 
3346875000  -4.405614e+001  -1.546382e+002 
3350000000  -4.367727e+001  -1.590065e+002 
3353125000  -4.371924e+001  -1.707320e+002 
3356250000  -4.336491e+001  1.782066e+002 
3359375000  -4.425556e+001  1.652134e+002 
3362500000  -4.530723e+001  1.555688e+002 
3365625000  -4.560305e+001  1.535401e+002 
3368750000  -4.638187e+001  1.445012e+002 
3371875000  -4.688208e+001  1.402177e+002 
3375000000  -4.858913e+001  1.340582e+002 
3378125000  -4.859517e+001  1.343914e+002 
3381250000  -5.113279e+001  1.434229e+002 
3384375000  -4.774767e+001  1.514672e+002 
3387500000  -4.518058e+001  1.294062e+002 
3390625000  -4.719117e+001  1.057874e+002 
3393750000  -4.750516e+001  1.061910e+002 
3396875000  -4.600611e+001  1.012753e+002 
3400000000  -4.613883e+001  8.587946e+001 
3403125000  -4.699469e+001  8.152948e+001 
3406250000  -4.732145e+001  7.003922e+001 
3409375000  -4.712871e+001  6.190405e+001 
3412500000  -4.807961e+001  5.292209e+001 
3415625000  -4.880846e+001  5.338874e+001 
3418750000  -4.922782e+001  4.200958e+001 
3421875000  -4.892768e+001  4.165492e+001 
3425000000  -4.787762e+001  3.620552e+001 
3428125000  -4.730303e+001  3.175656e+001 
3431250000  -4.673518e+001  1.639742e+001 
3434375000  -4.707347e+001  1.090564e+000 
3437500000  -4.746316e+001  -4.011077e+000 
3440625000  -4.794879e+001  -7.831588e+000 
3443750000  -4.625629e+001  -1.459596e+001 
3446875000  -4.591228e+001  -2.927930e+001 
3450000000  -4.494410e+001  -4.373703e+001 
3453125000  -4.569132e+001  -5.973259e+001 
3456250000  -4.726956e+001  -6.847565e+001 
3459375000  -4.833215e+001  -7.205524e+001 
3462500000  -4.777321e+001  -7.689764e+001 
3465625000  -4.753091e+001  -8.801380e+001 
3468750000  -4.773780e+001  -9.864338e+001 
3471875000  -4.668366e+001  -1.024408e+002 
3475000000  -4.725316e+001  -1.162944e+002 
3478125000  -4.769874e+001  -1.323242e+002 
3481250000  -4.874194e+001  -1.329218e+002 
3484375000  -4.897324e+001  -1.347325e+002 
3487500000  -4.740901e+001  -1.431568e+002 
3490625000  -4.721122e+001  -1.543873e+002 
3493750000  -4.805947e+001  -1.667300e+002 
3496875000  -4.846230e+001  -1.683291e+002 
3500000000  -4.893349e+001  -1.712425e+002 
3503125000  -4.756620e+001  -1.719768e+002 
3506250000  -4.539740e+001  1.717089e+002 
3509375000  -4.577023e+001  1.511871e+002 
3512500000  -4.607466e+001  1.383857e+002 
3515625000  -4.712617e+001  1.289119e+002 
3518750000  -4.763515e+001  1.296355e+002 
3521875000  -4.804684e+001  1.183305e+002 
3525000000  -4.893115e+001  1.156346e+002 
3528125000  -4.712313e+001  1.174456e+002 
3531250000  -4.697422e+001  1.024256e+002 
3534375000  -4.698671e+001  8.755119e+001 
3537500000  -4.759290e+001  7.892013e+001 
3540625000  -4.888398e+001  7.511588e+001 
3543750000  -4.923510e+001  7.898005e+001 
3546875000  -4.858755e+001  8.140868e+001 
3550000000  -4.686686e+001  7.533297e+001 
3553125000  -4.616167e+001  5.350456e+001 
3556250000  -4.737033e+001  4.914856e+001 
3559375000  -4.593112e+001  4.523685e+001 
3562500000  -4.717548e+001  3.270102e+001 
3565625000  -4.732978e+001  2.306399e+001 
3568750000  -4.810499e+001  2.705330e+001 
3571875000  -4.719068e+001  1.987918e+001 
3575000000  -4.713569e+001  9.065723e+000 
3578125000  -4.810973e+001  7.406417e+000 
3581250000  -4.746005e+001  5.189781e+000 
3584375000  -4.606872e+001  -2.869871e+000 
3587500000  -4.593086e+001  -1.638952e+001 
3590625000  -4.691108e+001  -2.404409e+001 
3593750000  -4.801334e+001  -2.565183e+001 
3596875000  -4.650976e+001  -2.215611e+001 
3600000000  -4.466107e+001  -3.367907e+001 
3603125000  -4.508978e+001  -4.961321e+001 
3606250000  -4.589835e+001  -5.199788e+001 
3609375000  -4.622873e+001  -5.781707e+001 
3612500000  -4.605526e+001  -6.387954e+001 
3615625000  -4.626310e+001  -6.868433e+001 
3618750000  -4.633524e+001  -7.063020e+001 
3621875000  -4.555878e+001  -7.792817e+001 
3625000000  -4.536135e+001  -8.246175e+001 
3628125000  -4.488159e+001  -8.679491e+001 
3631250000  -4.490121e+001  -9.838560e+001 
3634375000  -4.540624e+001  -9.945380e+001 
3637500000  -4.418486e+001  -1.017817e+002 
3640625000  -4.344581e+001  -1.061351e+002 
3643750000  -4.305067e+001  -1.185008e+002 
3646875000  -4.383816e+001  -1.317026e+002 
3650000000  -4.391704e+001  -1.357736e+002 
3653125000  -4.316887e+001  -1.447685e+002 
3656250000  -4.374832e+001  -1.474138e+002 
3659375000  -4.365381e+001  -1.543068e+002 
3662500000  -4.339903e+001  -1.585037e+002 
3665625000  -4.348517e+001  -1.630200e+002 
3668750000  -4.216988e+001  -1.688615e+002 
3671875000  -4.157434e+001  1.798110e+002 
3675000000  -4.202739e+001  1.689093e+002 
3678125000  -4.273525e+001  1.630466e+002 
3681250000  -4.246297e+001  1.565661e+002 
3684375000  -4.236514e+001  1.473115e+002 
3687500000  -4.305478e+001  1.392354e+002 
3690625000  -4.370657e+001  1.325600e+002 
3693750000  -4.436077e+001  1.328153e+002 
3696875000  -4.387899e+001  1.303052e+002 
3700000000  -4.293218e+001  1.203184e+002 
3703125000  -4.348008e+001  1.122287e+002 
3706250000  -4.451042e+001  1.099595e+002 
3709375000  -4.348063e+001  1.107751e+002 
3712500000  -4.330112e+001  1.032871e+002 
3715625000  -4.188776e+001  9.593820e+001 
3718750000  -4.164790e+001  8.499503e+001 
3721875000  -4.179384e+001  7.491142e+001 
3725000000  -4.227769e+001  6.894881e+001 
3728125000  -4.250585e+001  6.503552e+001 
3731250000  -4.168895e+001  5.877329e+001 
3734375000  -4.215208e+001  5.303393e+001 
3737500000  -4.289484e+001  4.276953e+001 
3740625000  -4.285418e+001  3.833503e+001 
3743750000  -4.272493e+001  3.054477e+001 
3746875000  -4.339634e+001  2.474395e+001 
3750000000  -4.376348e+001  1.904779e+001 
3753125000  -4.375809e+001  1.641252e+001 
3756250000  -4.362356e+001  1.363308e+001 
3759375000  -4.327737e+001  9.163522e+000 
3762500000  -4.340339e+001  2.016576e+000 
3765625000  -4.428179e+001  -1.230740e+000 
3768750000  -4.372392e+001  1.518962e+000 
3771875000  -4.207888e+001  -8.064456e+000 
3775000000  -4.231424e+001  -2.009219e+001 
3778125000  -4.275811e+001  -2.785229e+001 
3781250000  -4.246723e+001  -2.962990e+001 
3784375000  -4.254758e+001  -3.571801e+001 
3787500000  -4.261435e+001  -4.231412e+001 
3790625000  -4.290590e+001  -5.210601e+001 
3793750000  -4.285545e+001  -5.412467e+001 
3796875000  -4.156237e+001  -5.904873e+001 
3800000000  -4.081881e+001  -6.730262e+001 
3803125000  -4.169466e+001  -7.844800e+001 
3806250000  -4.240316e+001  -8.324419e+001 
3809375000  -4.179749e+001  -8.822378e+001 
3812500000  -4.148210e+001  -1.006998e+002 
3815625000  -4.287334e+001  -1.094007e+002 
3818750000  -4.428595e+001  -1.079584e+002 
3821875000  -4.354039e+001  -9.709997e+001 
3825000000  -4.116914e+001  -1.044137e+002 
3828125000  -4.031829e+001  -1.251389e+002 
3831250000  -4.162182e+001  -1.398672e+002 
3834375000  -4.374750e+001  -1.426786e+002 
3837500000  -4.426632e+001  -1.383192e+002 
3840625000  -4.247264e+001  -1.442039e+002 
3843750000  -4.160588e+001  -1.604620e+002 
3846875000  -4.312760e+001  -1.685689e+002 
3850000000  -4.443903e+001  -1.606200e+002 
3853125000  -4.338786e+001  -1.653745e+002 
3856250000  -4.311770e+001  -1.702157e+002 
3859375000  -4.209869e+001  -1.786022e+002 
3862500000  -4.227519e+001  1.706375e+002 
3865625000  -4.286658e+001  1.666960e+002 
3868750000  -4.227290e+001  1.601602e+002 
3871875000  -4.173775e+001  1.529990e+002 
3875000000  -4.252303e+001  1.390172e+002 
3878125000  -4.350008e+001  1.376869e+002 
3881250000  -4.358773e+001  1.381580e+002 
3884375000  -4.251599e+001  1.282376e+002 
3887500000  -4.315694e+001  1.226013e+002 
3890625000  -4.371175e+001  1.163510e+002 
3893750000  -4.433396e+001  1.153102e+002 
3896875000  -4.445339e+001  1.097556e+002 
3900000000  -4.428460e+001  1.064666e+002 
3903125000  -4.350330e+001  1.014832e+002 
3906250000  -4.394148e+001  9.884476e+001 
3909375000  -4.259166e+001  8.698238e+001 
3912500000  -4.382843e+001  7.705874e+001 
3915625000  -4.493197e+001  7.898627e+001 
3918750000  -4.422865e+001  7.871114e+001 
3921875000  -4.385171e+001  7.362334e+001 
3925000000  -4.310601e+001  6.674404e+001 
3928125000  -4.332994e+001  5.803701e+001 
3931250000  -4.371826e+001  5.028542e+001 
3934375000  -4.424753e+001  4.586530e+001 
3937500000  -4.436499e+001  4.402421e+001 
3940625000  -4.432604e+001  4.387417e+001 
3943750000  -4.336860e+001  3.790946e+001 
3946875000  -4.258900e+001  2.873487e+001 
3950000000  -4.367707e+001  2.210709e+001 
3953125000  -4.441661e+001  2.133034e+001 
3956250000  -4.313152e+001  2.126040e+001 
3959375000  -4.162112e+001  1.371980e+001 
3962500000  -4.127987e+001  2.405520e+000 
3965625000  -4.172036e+001  -5.466240e+000 
3968750000  -4.257951e+001  -1.856106e+001 
3971875000  -4.261949e+001  -2.040564e+001 
3975000000  -4.205271e+001  -2.539400e+001 
3978125000  -4.182490e+001  -3.274329e+001 
3981250000  -4.165430e+001  -4.029350e+001 
3984375000  -4.233125e+001  -4.923595e+001 
3987500000  -4.272670e+001  -5.277518e+001 
3990625000  -4.311343e+001  -5.620673e+001 
3993750000  -4.315966e+001  -6.133472e+001 
3996875000  -4.320041e+001  -6.874607e+001 
4000000000  -4.386010e+001  -7.321711e+001 
4003125000  -4.384383e+001  -7.329066e+001 
4006250000  -4.193910e+001  -7.667874e+001 
4009375000  -4.123783e+001  -9.431377e+001 
4012500000  -4.300477e+001  -1.052496e+002 
4015625000  -4.380639e+001  -1.022007e+002 
4018750000  -4.392529e+001  -1.082332e+002 
4021875000  -4.275120e+001  -1.138816e+002 
4025000000  -4.324707e+001  -1.205223e+002 
4028125000  -4.323487e+001  -1.292739e+002 
4031250000  -4.374028e+001  -1.368315e+002 
4034375000  -4.406894e+001  -1.371589e+002 
4037500000  -4.387328e+001  -1.406535e+002 
4040625000  -4.389432e+001  -1.475399e+002 
4043750000  -4.438998e+001  -1.522283e+002 
4046875000  -4.425515e+001  -1.568190e+002 
4050000000  -4.398865e+001  -1.659022e+002 
4053125000  -4.546629e+001  -1.658465e+002 
4056250000  -4.541012e+001  -1.640521e+002 
4059375000  -4.349992e+001  -1.647885e+002 
4062500000  -4.345605e+001  -1.717201e+002 
4065625000  -4.333537e+001  -1.799082e+002 
4068750000  -4.298335e+001  1.706438e+002 
4071875000  -4.256132e+001  1.614035e+002 
4075000000  -4.328816e+001  1.534783e+002 
4078125000  -4.395285e+001  1.520948e+002 
4081250000  -4.369835e+001  1.464668e+002 
4084375000  -4.307803e+001  1.378308e+002 
4087500000  -4.386526e+001  1.285244e+002 
4090625000  -4.471883e+001  1.294962e+002 
4093750000  -4.435524e+001  1.235743e+002 
4096875000  -4.417564e+001  1.168025e+002 
4100000000  -4.538897e+001  1.078697e+002 
4103125000  -4.597397e+001  1.138803e+002 
4106250000  -4.538983e+001  1.142676e+002 
4109375000  -4.427446e+001  1.078117e+002 
4112500000  -4.417933e+001  9.869242e+001 
4115625000  -4.373400e+001  9.465442e+001 
4118750000  -4.369290e+001  8.971544e+001 
4121875000  -4.377668e+001  8.689751e+001 
4125000000  -4.476007e+001  7.636192e+001 
4128125000  -4.521924e+001  7.757893e+001 
4131250000  -4.400098e+001  8.192434e+001 
4134375000  -4.155188e+001  6.918153e+001 
4137500000  -4.193318e+001  4.737703e+001 
4140625000  -4.416391e+001  4.064085e+001 
4143750000  -4.480337e+001  4.734218e+001 
4146875000  -4.378811e+001  4.755937e+001 
4150000000  -4.268235e+001  4.098159e+001 
4153125000  -4.293058e+001  3.112388e+001 
4156250000  -4.430943e+001  2.725150e+001 
4159375000  -4.360464e+001  2.758712e+001 
4162500000  -4.267063e+001  2.511246e+001 
4165625000  -4.130740e+001  1.672602e+001 
4168750000  -4.104451e+001  4.157701e+000 
4171875000  -4.095993e+001  -5.601068e+000 
4175000000  -4.147602e+001  -1.326477e+001 
4178125000  -4.208294e+001  -1.715866e+001 
4181250000  -4.237530e+001  -2.339648e+001 
4184375000  -4.251768e+001  -3.050692e+001 
4187500000  -4.220966e+001  -3.689308e+001 
4190625000  -4.276918e+001  -4.545745e+001 
4193750000  -4.359132e+001  -5.284954e+001 
4196875000  -4.487396e+001  -5.308860e+001 
4200000000  -4.580170e+001  -4.666715e+001 
4203125000  -4.457981e+001  -3.815239e+001 
4206250000  -4.094146e+001  -4.958757e+001 
4209375000  -4.122946e+001  -7.409515e+001 
4212500000  -4.399211e+001  -7.966750e+001 
4215625000  -4.429385e+001  -7.223656e+001 
4218750000  -4.224627e+001  -7.277966e+001 
4221875000  -4.087463e+001  -8.281252e+001 
4225000000  -4.217888e+001  -9.374448e+001 
4228125000  -4.236758e+001  -9.299899e+001 
4231250000  -4.073456e+001  -1.044595e+002 
4234375000  -4.103008e+001  -1.149313e+002 
4237500000  -4.085828e+001  -1.190088e+002 
4240625000  -4.091805e+001  -1.297959e+002 
4243750000  -4.217394e+001  -1.411159e+002 
4246875000  -4.311036e+001  -1.376942e+002 
4250000000  -4.287877e+001  -1.402766e+002 
4253125000  -4.227713e+001  -1.417920e+002 
4256250000  -4.251604e+001  -1.488496e+002 
4259375000  -4.225220e+001  -1.544981e+002 
4262500000  -4.248925e+001  -1.602683e+002 
4265625000  -4.200186e+001  -1.609021e+002 
4268750000  -4.097223e+001  -1.691521e+002 
4271875000  -4.042644e+001  -1.793611e+002 
4275000000  -4.007089e+001  1.720517e+002 
4278125000  -4.136064e+001  1.590462e+002 
4281250000  -4.219150e+001  1.549179e+002 
4284375000  -4.172656e+001  1.550921e+002 
4287500000  -4.384078e+001  1.499062e+002 
4290625000  -4.386392e+001  1.581222e+002 
4293750000  -4.148388e+001  1.563118e+002 
4296875000  -4.042777e+001  1.394986e+002 
4300000000  -4.161140e+001  1.310877e+002 
4303125000  -4.192527e+001  1.299205e+002 
4306250000  -4.075359e+001  1.280020e+002 
4309375000  -3.979451e+001  1.188206e+002 
4312500000  -3.972813e+001  1.084650e+002 
4315625000  -3.995394e+001  9.820061e+001 
4318750000  -4.095898e+001  9.385815e+001 
4321875000  -4.078062e+001  9.226424e+001 
4325000000  -4.005085e+001  8.541026e+001 
4328125000  -3.933721e+001  7.536894e+001 
4331250000  -3.968386e+001  6.446095e+001 
4334375000  -4.098861e+001  5.457683e+001 
4337500000  -4.199477e+001  5.613485e+001 
4340625000  -4.224537e+001  5.708841e+001 
4343750000  -4.115807e+001  5.065475e+001 
4346875000  -4.090417e+001  4.081903e+001 
4350000000  -4.083076e+001  3.079638e+001 
4353125000  -4.176725e+001  2.286376e+001 
4356250000  -4.394500e+001  2.757592e+001 
4359375000  -4.317097e+001  3.945444e+001 
4362500000  -3.944107e+001  2.794995e+001 
4365625000  -3.910295e+001  1.262668e+001 
4368750000  -4.052875e+001  8.227295e-001 
4371875000  -4.097235e+001  -3.128618e+000 
4375000000  -4.084452e+001  -9.346075e+000 
4378125000  -4.061479e+001  -1.452955e+001 
4381250000  -4.060831e+001  -2.351788e+001 
4384375000  -4.086023e+001  -3.110114e+001 
4387500000  -4.142849e+001  -3.809605e+001 
4390625000  -4.218264e+001  -3.948844e+001 
4393750000  -4.174872e+001  -4.204766e+001 
4396875000  -4.098865e+001  -4.665406e+001 
4400000000  -4.095696e+001  -5.717437e+001 
4403125000  -4.157406e+001  -6.516614e+001 
4406250000  -4.205935e+001  -6.917549e+001 
4409375000  -4.260975e+001  -7.473629e+001 
4412500000  -4.313344e+001  -7.785620e+001 
4415625000  -4.337138e+001  -7.501764e+001 
4418750000  -4.175744e+001  -7.648903e+001 
