!Agilent Technologies,E8363B,MY43030201,A.06.04.32
!Agilent E8363B: A.06.04.32
!Date: Tuesday, November 11, 2014 21:51:36
!Correction: S21(Response(S21)) 
!S1P File: Measurement: S21:
# Hz S  dB   R 50
3000000000  -4.373325e+001  -1.627449e+002 
3003125000  -4.551416e+001  -1.658871e+002 
3006250000  -4.548623e+001  -1.672647e+002 
3009375000  -4.589703e+001  -1.663803e+002 
3012500000  -4.475291e+001  -1.716052e+002 
3015625000  -4.462323e+001  -1.792268e+002 
3018750000  -4.526890e+001  -1.792032e+002 
3021875000  -4.401848e+001  -1.778530e+002 
3025000000  -4.267371e+001  1.764734e+002 
3028125000  -4.153345e+001  1.628235e+002 
3031250000  -4.082199e+001  1.509275e+002 
3034375000  -4.076168e+001  1.372498e+002 
3037500000  -4.156921e+001  1.252622e+002 
3040625000  -4.302150e+001  1.194362e+002 
3043750000  -4.320944e+001  1.120183e+002 
3046875000  -4.420798e+001  1.067500e+002 
3050000000  -4.554171e+001  9.963953e+001 
3053125000  -4.462485e+001  1.043878e+002 
3056250000  -4.474150e+001  1.075253e+002 
3059375000  -4.417415e+001  1.052023e+002 
3062500000  -4.250483e+001  1.005266e+002 
3065625000  -4.234021e+001  8.808868e+001 
3068750000  -4.189101e+001  7.845501e+001 
3071875000  -4.168777e+001  7.737125e+001 
3075000000  -4.116970e+001  7.028877e+001 
3078125000  -4.138152e+001  6.230122e+001 
3081250000  -4.144201e+001  5.612281e+001 
3084375000  -4.032663e+001  5.015636e+001 
3087500000  -4.057718e+001  4.338271e+001 
3090625000  -4.007790e+001  2.928199e+001 
3093750000  -4.107028e+001  2.129890e+001 
3096875000  -4.123955e+001  1.446266e+001 
3100000000  -4.110723e+001  1.083089e+001 
3103125000  -4.128848e+001  5.344420e+000 
3106250000  -4.113985e+001  -1.887338e-001 
3109375000  -4.103665e+001  -5.084266e+000 
3112500000  -4.091677e+001  -1.333992e+001 
3115625000  -4.081217e+001  -1.802946e+001 
3118750000  -4.073160e+001  -2.128248e+001 
3121875000  -4.024326e+001  -3.345413e+001 
3125000000  -4.197546e+001  -3.817684e+001 
3128125000  -4.202767e+001  -3.094749e+001 
3131250000  -3.955772e+001  -3.905937e+001 
3134375000  -3.875212e+001  -5.707290e+001 
3137500000  -3.961965e+001  -7.045602e+001 
3140625000  -4.077630e+001  -7.563213e+001 
3143750000  -4.157510e+001  -7.955844e+001 
3146875000  -4.093477e+001  -7.820226e+001 
3150000000  -4.027864e+001  -8.356438e+001 
3153125000  -4.066705e+001  -9.250039e+001 
3156250000  -4.136653e+001  -9.010980e+001 
3159375000  -3.900309e+001  -9.267379e+001 
3162500000  -3.763591e+001  -1.089109e+002 
3165625000  -3.892736e+001  -1.242780e+002 
3168750000  -3.906232e+001  -1.257684e+002 
3171875000  -3.865585e+001  -1.351456e+002 
3175000000  -3.898412e+001  -1.436346e+002 
3178125000  -3.870967e+001  -1.458362e+002 
3181250000  -3.799147e+001  -1.551030e+002 
3184375000  -3.783957e+001  -1.680832e+002 
3187500000  -3.925274e+001  1.751069e+002 
3190625000  -4.055699e+001  1.698324e+002 
3193750000  -4.123512e+001  1.737284e+002 
3196875000  -4.094848e+001  1.729824e+002 
3200000000  -3.993300e+001  1.681582e+002 
3203125000  -3.951446e+001  1.591118e+002 
3206250000  -3.966398e+001  1.515597e+002 
3209375000  -3.944689e+001  1.413195e+002 
3212500000  -3.994559e+001  1.352696e+002 
3215625000  -3.975856e+001  1.322267e+002 
3218750000  -4.032798e+001  1.184053e+002 
3221875000  -4.070511e+001  1.134959e+002 
3225000000  -4.056799e+001  1.069577e+002 
3228125000  -4.103510e+001  1.005319e+002 
3231250000  -4.140978e+001  9.642930e+001 
3234375000  -4.097527e+001  9.295580e+001 
3237500000  -4.082162e+001  8.830654e+001 
3240625000  -4.028091e+001  8.249950e+001 
3243750000  -4.023772e+001  6.917722e+001 
3246875000  -4.077735e+001  6.153351e+001 
3250000000  -4.103736e+001  5.633884e+001 
3253125000  -4.107739e+001  5.333881e+001 
3256250000  -4.046854e+001  4.317936e+001 
3259375000  -4.084023e+001  3.068272e+001 
3262500000  -4.234433e+001  2.600547e+001 
3265625000  -4.253278e+001  2.585706e+001 
3268750000  -4.225632e+001  2.441444e+001 
3271875000  -4.161605e+001  1.891802e+001 
3275000000  -4.119865e+001  9.201107e+000 
3278125000  -4.171844e+001  2.854802e+000 
3281250000  -4.148141e+001  -1.305445e+000 
3284375000  -4.090657e+001  -8.610440e+000 
3287500000  -4.151176e+001  -1.669659e+001 
3290625000  -4.158112e+001  -2.691126e+001 
3293750000  -4.139426e+001  -3.517696e+001 
3296875000  -4.263179e+001  -4.051447e+001 
3300000000  -4.195327e+001  -4.100801e+001 
3303125000  -4.108472e+001  -5.166053e+001 
3306250000  -4.098047e+001  -6.054470e+001 
3309375000  -4.068560e+001  -7.149646e+001 
3312500000  -4.122910e+001  -8.493645e+001 
3315625000  -4.257335e+001  -9.555742e+001 
3318750000  -4.413365e+001  -1.007874e+002 
3321875000  -4.515876e+001  -1.018277e+002 
3325000000  -4.492401e+001  -9.547583e+001 
3328125000  -4.420390e+001  -9.944456e+001 
3331250000  -4.197487e+001  -9.810291e+001 
3334375000  -3.988887e+001  -1.182865e+002 
3337500000  -4.068870e+001  -1.413628e+002 
3340625000  -4.255751e+001  -1.512599e+002 
3343750000  -4.444105e+001  -1.542641e+002 
3346875000  -4.402437e+001  -1.558118e+002 
3350000000  -4.354651e+001  -1.631305e+002 
3353125000  -4.349445e+001  -1.719499e+002 
3356250000  -4.301215e+001  1.784540e+002 
3359375000  -4.415628e+001  1.640453e+002 
3362500000  -4.493971e+001  1.581231e+002 
3365625000  -4.560017e+001  1.503992e+002 
3368750000  -4.627610e+001  1.467136e+002 
3371875000  -4.701933e+001  1.394890e+002 
3375000000  -4.809008e+001  1.348446e+002 
3378125000  -4.935444e+001  1.304213e+002 
3381250000  -5.110317e+001  1.450114e+002 
3384375000  -4.786773e+001  1.531635e+002 
3387500000  -4.488213e+001  1.273661e+002 
3390625000  -4.663888e+001  1.065168e+002 
3393750000  -4.730344e+001  1.048141e+002 
3396875000  -4.627748e+001  9.775435e+001 
3400000000  -4.576637e+001  8.411214e+001 
3403125000  -4.661469e+001  7.997601e+001 
3406250000  -4.775382e+001  7.302133e+001 
3409375000  -4.694543e+001  5.851495e+001 
3412500000  -4.801491e+001  5.244521e+001 
3415625000  -4.901059e+001  4.733218e+001 
3418750000  -4.870942e+001  4.501519e+001 
3421875000  -4.897055e+001  4.202614e+001 
3425000000  -4.759742e+001  3.269863e+001 
3428125000  -4.733929e+001  2.685120e+001 
3431250000  -4.687155e+001  1.558998e+001 
3434375000  -4.648728e+001  4.582966e+000 
3437500000  -4.749011e+001  -5.787324e+000 
3440625000  -4.790208e+001  -6.209600e+000 
3443750000  -4.598506e+001  -1.359093e+001 
3446875000  -4.570516e+001  -2.887512e+001 
3450000000  -4.515416e+001  -4.162902e+001 
3453125000  -4.569260e+001  -5.989683e+001 
3456250000  -4.692497e+001  -7.137530e+001 
3459375000  -4.816010e+001  -7.001168e+001 
3462500000  -4.774797e+001  -7.671336e+001 
3465625000  -4.721989e+001  -8.782386e+001 
3468750000  -4.779576e+001  -9.712531e+001 
3471875000  -4.714079e+001  -1.031117e+002 
3475000000  -4.747283e+001  -1.145473e+002 
3478125000  -4.757901e+001  -1.278479e+002 
3481250000  -4.853456e+001  -1.341055e+002 
3484375000  -4.881175e+001  -1.361667e+002 
3487500000  -4.775615e+001  -1.460497e+002 
3490625000  -4.729282e+001  -1.525831e+002 
3493750000  -4.800844e+001  -1.721894e+002 
3496875000  -4.834827e+001  -1.711858e+002 
3500000000  -4.871196e+001  -1.687328e+002 
3503125000  -4.730107e+001  -1.749431e+002 
3506250000  -4.582056e+001  1.688569e+002 
3509375000  -4.579374e+001  1.493943e+002 
3512500000  -4.610805e+001  1.348714e+002 
3515625000  -4.707992e+001  1.288652e+002 
3518750000  -4.766116e+001  1.271237e+002 
3521875000  -4.780903e+001  1.134032e+002 
3525000000  -4.931456e+001  1.146117e+002 
3528125000  -4.740464e+001  1.161596e+002 
3531250000  -4.650710e+001  1.045265e+002 
3534375000  -4.676074e+001  8.591383e+001 
3537500000  -4.819706e+001  7.894437e+001 
3540625000  -4.916842e+001  7.327058e+001 
3543750000  -4.944341e+001  7.648190e+001 
3546875000  -4.869045e+001  8.321925e+001 
3550000000  -4.634230e+001  7.124760e+001 
3553125000  -4.641273e+001  5.467378e+001 
3556250000  -4.731552e+001  4.658790e+001 
3559375000  -4.653339e+001  4.228752e+001 
3562500000  -4.682995e+001  2.878148e+001 
3565625000  -4.738642e+001  2.490904e+001 
3568750000  -4.782166e+001  2.317128e+001 
3571875000  -4.699708e+001  1.620350e+001 
3575000000  -4.730326e+001  1.242487e+001 
3578125000  -4.776776e+001  6.165875e+000 
3581250000  -4.727315e+001  1.344226e+000 
3584375000  -4.594091e+001  -5.162606e+000 
3587500000  -4.582537e+001  -1.513450e+001 
3590625000  -4.689797e+001  -2.774784e+001 
3593750000  -4.772108e+001  -2.386510e+001 
3596875000  -4.708067e+001  -2.373536e+001 
3600000000  -4.427626e+001  -3.534398e+001 
3603125000  -4.528072e+001  -5.044279e+001 
3606250000  -4.577392e+001  -5.653117e+001 
3609375000  -4.610905e+001  -5.974663e+001 
3612500000  -4.611830e+001  -6.838471e+001 
3615625000  -4.587841e+001  -7.061386e+001 
3618750000  -4.610160e+001  -7.450615e+001 
3621875000  -4.569107e+001  -8.024862e+001 
3625000000  -4.587899e+001  -8.316656e+001 
3628125000  -4.469160e+001  -8.878835e+001 
3631250000  -4.495608e+001  -9.840176e+001 
3634375000  -4.586433e+001  -1.008052e+002 
3637500000  -4.448259e+001  -1.029403e+002 
3640625000  -4.372921e+001  -1.080892e+002 
3643750000  -4.318692e+001  -1.205991e+002 
3646875000  -4.356014e+001  -1.294837e+002 
3650000000  -4.379138e+001  -1.347643e+002 
3653125000  -4.308118e+001  -1.444789e+002 
3656250000  -4.434088e+001  -1.497146e+002 
3659375000  -4.395713e+001  -1.552543e+002 
3662500000  -4.324822e+001  -1.592154e+002 
3665625000  -4.364206e+001  -1.670861e+002 
3668750000  -4.187051e+001  -1.688639e+002 
3671875000  -4.165418e+001  1.767143e+002 
3675000000  -4.204890e+001  1.653602e+002 
3678125000  -4.281818e+001  1.619347e+002 
3681250000  -4.267653e+001  1.545374e+002 
3684375000  -4.271360e+001  1.467595e+002 
3687500000  -4.312242e+001  1.393544e+002 
3690625000  -4.358619e+001  1.323848e+002 
3693750000  -4.443063e+001  1.316976e+002 
3696875000  -4.370744e+001  1.284814e+002 
3700000000  -4.351755e+001  1.176632e+002 
3703125000  -4.355270e+001  1.126830e+002 
3706250000  -4.427466e+001  1.094973e+002 
3709375000  -4.372747e+001  1.090962e+002 
3712500000  -4.319874e+001  1.042552e+002 
3715625000  -4.181011e+001  9.426152e+001 
3718750000  -4.177543e+001  8.480618e+001 
3721875000  -4.193439e+001  7.444627e+001 
3725000000  -4.197328e+001  6.588261e+001 
3728125000  -4.228210e+001  6.550637e+001 
3731250000  -4.207891e+001  5.612317e+001 
3734375000  -4.189747e+001  4.899705e+001 
3737500000  -4.263047e+001  4.183061e+001 
3740625000  -4.290694e+001  3.426967e+001 
3743750000  -4.269931e+001  2.839411e+001 
3746875000  -4.338190e+001  2.294148e+001 
3750000000  -4.340414e+001  1.876023e+001 
3753125000  -4.375805e+001  1.400753e+001 
3756250000  -4.377325e+001  1.190026e+001 
3759375000  -4.340469e+001  5.850103e+000 
3762500000  -4.361043e+001  2.859789e+000 
3765625000  -4.416793e+001  -3.206370e+000 
3768750000  -4.355724e+001  -2.386546e+000 
3771875000  -4.212603e+001  -1.105456e+001 
3775000000  -4.201485e+001  -2.018513e+001 
3778125000  -4.256083e+001  -2.793250e+001 
3781250000  -4.251036e+001  -3.385208e+001 
3784375000  -4.209728e+001  -3.776405e+001 
3787500000  -4.230285e+001  -4.432652e+001 
3790625000  -4.262698e+001  -5.211806e+001 
3793750000  -4.255335e+001  -5.663984e+001 
3796875000  -4.178937e+001  -6.041183e+001 
3800000000  -4.061613e+001  -7.022659e+001 
3803125000  -4.185409e+001  -8.057702e+001 
3806250000  -4.252208e+001  -8.658086e+001 
3809375000  -4.186765e+001  -9.100034e+001 
3812500000  -4.159555e+001  -1.028461e+002 
3815625000  -4.307658e+001  -1.118129e+002 
3818750000  -4.434398e+001  -1.095665e+002 
3821875000  -4.346115e+001  -9.776086e+001 
3825000000  -4.167950e+001  -1.066428e+002 
3828125000  -4.053283e+001  -1.272896e+002 
3831250000  -4.145507e+001  -1.417050e+002 
3834375000  -4.403606e+001  -1.448966e+002 
3837500000  -4.421503e+001  -1.403589e+002 
3840625000  -4.213581e+001  -1.471806e+002 
3843750000  -4.143248e+001  -1.620445e+002 
3846875000  -4.356716e+001  -1.685562e+002 
3850000000  -4.390112e+001  -1.642173e+002 
3853125000  -4.321051e+001  -1.645336e+002 
3856250000  -4.267802e+001  -1.713568e+002 
3859375000  -4.199149e+001  1.793206e+002 
3862500000  -4.209671e+001  1.674498e+002 
3865625000  -4.255680e+001  1.618733e+002 
3868750000  -4.226230e+001  1.600514e+002 
3871875000  -4.172005e+001  1.510031e+002 
3875000000  -4.229113e+001  1.385392e+002 
3878125000  -4.326716e+001  1.384996e+002 
3881250000  -4.307549e+001  1.355481e+002 
3884375000  -4.287946e+001  1.265017e+002 
3887500000  -4.342572e+001  1.188203e+002 
3890625000  -4.360488e+001  1.153928e+002 
3893750000  -4.463577e+001  1.125528e+002 
3896875000  -4.437617e+001  1.105239e+002 
3900000000  -4.442024e+001  1.063092e+002 
3903125000  -4.358223e+001  1.041228e+002 
3906250000  -4.343815e+001  9.681498e+001 
3909375000  -4.271332e+001  8.660301e+001 
3912500000  -4.359373e+001  7.921590e+001 
3915625000  -4.460930e+001  7.909398e+001 
3918750000  -4.444861e+001  7.472426e+001 
3921875000  -4.377560e+001  6.997399e+001 
3925000000  -4.285527e+001  6.439539e+001 
3928125000  -4.280064e+001  5.579663e+001 
3931250000  -4.351775e+001  4.963994e+001 
3934375000  -4.402310e+001  4.629328e+001 
3937500000  -4.447792e+001  4.267984e+001 
3940625000  -4.503839e+001  4.275570e+001 
3943750000  -4.326428e+001  3.423240e+001 
3946875000  -4.292063e+001  2.802578e+001 
3950000000  -4.363210e+001  1.672048e+001 
3953125000  -4.483587e+001  2.119257e+001 
3956250000  -4.254452e+001  1.981594e+001 
3959375000  -4.165734e+001  1.425544e+001 
3962500000  -4.137317e+001  5.511617e-002 
3965625000  -4.190149e+001  -1.219345e+001 
3968750000  -4.229979e+001  -1.784632e+001 
3971875000  -4.246826e+001  -2.062307e+001 
3975000000  -4.204399e+001  -2.786716e+001 
3978125000  -4.227407e+001  -3.394535e+001 
3981250000  -4.191069e+001  -4.160233e+001 
3984375000  -4.237882e+001  -5.029221e+001 
3987500000  -4.270424e+001  -5.310639e+001 
3990625000  -4.305759e+001  -5.763281e+001 
3993750000  -4.337817e+001  -6.464553e+001 
3996875000  -4.329883e+001  -7.244722e+001 
4000000000  -4.371725e+001  -7.472482e+001 
4003125000  -4.392830e+001  -7.311662e+001 
4006250000  -4.191972e+001  -8.142679e+001 
4009375000  -4.114457e+001  -9.687437e+001 
4012500000  -4.285994e+001  -1.058294e+002 
4015625000  -4.408689e+001  -1.050189e+002 
4018750000  -4.441068e+001  -1.114694e+002 
4021875000  -4.300760e+001  -1.185928e+002 
4025000000  -4.311998e+001  -1.231625e+002 
4028125000  -4.370102e+001  -1.302857e+002 
4031250000  -4.391525e+001  -1.364241e+002 
4034375000  -4.397016e+001  -1.383610e+002 
4037500000  -4.413698e+001  -1.408730e+002 
4040625000  -4.417477e+001  -1.501583e+002 
4043750000  -4.435730e+001  -1.549895e+002 
4046875000  -4.431054e+001  -1.585136e+002 
4050000000  -4.411271e+001  -1.622692e+002 
4053125000  -4.501207e+001  -1.717927e+002 
4056250000  -4.549611e+001  -1.661026e+002 
4059375000  -4.423756e+001  -1.682650e+002 
4062500000  -4.327223e+001  -1.779218e+002 
4065625000  -4.307687e+001  1.768184e+002 
4068750000  -4.310277e+001  1.704077e+002 
4071875000  -4.263140e+001  1.588820e+002 
4075000000  -4.366354e+001  1.522359e+002 
4078125000  -4.410524e+001  1.496512e+002 
4081250000  -4.339315e+001  1.443251e+002 
4084375000  -4.325644e+001  1.365118e+002 
4087500000  -4.358064e+001  1.280421e+002 
4090625000  -4.469514e+001  1.258240e+002 
4093750000  -4.468845e+001  1.216132e+002 
4096875000  -4.443018e+001  1.153816e+002 
4100000000  -4.525849e+001  1.104837e+002 
4103125000  -4.620390e+001  1.113767e+002 
4106250000  -4.529494e+001  1.147305e+002 
4109375000  -4.448153e+001  1.074045e+002 
4112500000  -4.421726e+001  9.722361e+001 
4115625000  -4.454417e+001  9.283096e+001 
4118750000  -4.385698e+001  8.652985e+001 
4121875000  -4.385001e+001  8.320462e+001 
4125000000  -4.462299e+001  7.401842e+001 
4128125000  -4.469586e+001  7.795100e+001 
4131250000  -4.383855e+001  7.904897e+001 
4134375000  -4.136782e+001  6.972537e+001 
4137500000  -4.228841e+001  4.744268e+001 
4140625000  -4.411974e+001  4.098361e+001 
4143750000  -4.467992e+001  4.494413e+001 
4146875000  -4.406352e+001  4.822831e+001 
4150000000  -4.239506e+001  3.867063e+001 
4153125000  -4.300269e+001  2.673299e+001 
4156250000  -4.408150e+001  2.603528e+001 
4159375000  -4.375762e+001  2.678743e+001 
4162500000  -4.256265e+001  2.550349e+001 
4165625000  -4.122862e+001  1.435222e+001 
4168750000  -4.082446e+001  3.543640e+000 
4171875000  -4.120436e+001  -9.667334e+000 
4175000000  -4.171767e+001  -1.857027e+001 
4178125000  -4.202282e+001  -1.886436e+001 
4181250000  -4.184893e+001  -2.645192e+001 
4184375000  -4.239967e+001  -3.238803e+001 
4187500000  -4.257707e+001  -3.708335e+001 
4190625000  -4.284707e+001  -4.946849e+001 
4193750000  -4.396690e+001  -5.075255e+001 
4196875000  -4.492004e+001  -5.626655e+001 
4200000000  -4.605388e+001  -4.905822e+001 
4203125000  -4.390022e+001  -4.108804e+001 
4206250000  -4.116304e+001  -5.295133e+001 
4209375000  -4.123587e+001  -7.503482e+001 
4212500000  -4.368147e+001  -7.842242e+001 
4215625000  -4.409356e+001  -7.298968e+001 
4218750000  -4.238186e+001  -7.456279e+001 
4221875000  -4.089326e+001  -8.580151e+001 
4225000000  -4.195100e+001  -9.689101e+001 
4228125000  -4.230713e+001  -9.756973e+001 
4231250000  -4.072516e+001  -1.040351e+002 
4234375000  -4.079010e+001  -1.150247e+002 
4237500000  -4.106146e+001  -1.228415e+002 
4240625000  -4.104955e+001  -1.318852e+002 
4243750000  -4.216626e+001  -1.421069e+002 
4246875000  -4.278471e+001  -1.399600e+002 
4250000000  -4.233590e+001  -1.419777e+002 
4253125000  -4.215179e+001  -1.432630e+002 
4256250000  -4.254970e+001  -1.506678e+002 
4259375000  -4.221591e+001  -1.594282e+002 
4262500000  -4.229119e+001  -1.626198e+002 
4265625000  -4.197010e+001  -1.643578e+002 
4268750000  -4.099506e+001  -1.727224e+002 
4271875000  -4.043261e+001  1.792814e+002 
4275000000  -4.051512e+001  1.699014e+002 
4278125000  -4.110775e+001  1.548013e+002 
4281250000  -4.204947e+001  1.538342e+002 
4284375000  -4.199096e+001  1.513372e+002 
4287500000  -4.349745e+001  1.446228e+002 
4290625000  -4.375809e+001  1.556357e+002 
4293750000  -4.129726e+001  1.535064e+002 
4296875000  -4.064299e+001  1.370551e+002 
4300000000  -4.121529e+001  1.292914e+002 
4303125000  -4.146700e+001  1.282224e+002 
4306250000  -4.028563e+001  1.267360e+002 
4309375000  -3.989742e+001  1.188625e+002 
4312500000  -3.968871e+001  1.056307e+002 
4315625000  -4.008664e+001  9.739787e+001 
4318750000  -4.076469e+001  9.211420e+001 
4321875000  -4.060462e+001  9.008668e+001 
4325000000  -4.026517e+001  8.323824e+001 
4328125000  -3.947777e+001  7.338322e+001 
4331250000  -3.977352e+001  6.025027e+001 
4334375000  -4.071711e+001  5.335030e+001 
4337500000  -4.186927e+001  5.147589e+001 
4340625000  -4.212208e+001  5.421145e+001 
4343750000  -4.109869e+001  4.894414e+001 
4346875000  -4.067162e+001  3.908117e+001 
4350000000  -4.092480e+001  3.011296e+001 
4353125000  -4.182494e+001  1.962816e+001 
4356250000  -4.437741e+001  2.732430e+001 
4359375000  -4.190439e+001  3.749697e+001 
4362500000  -3.924537e+001  2.825738e+001 
4365625000  -3.876640e+001  6.927245e+000 
4368750000  -4.005056e+001  -1.000672e+000 
4371875000  -4.069820e+001  -3.273068e+000 
4375000000  -4.046738e+001  -9.679152e+000 
4378125000  -3.978419e+001  -1.665115e+001 
4381250000  -4.062453e+001  -2.427140e+001 
4384375000  -4.074343e+001  -3.144992e+001 
4387500000  -4.120274e+001  -4.157331e+001 
4390625000  -4.207637e+001  -4.171943e+001 
4393750000  -4.150655e+001  -4.147727e+001 
4396875000  -4.151528e+001  -4.740837e+001 
4400000000  -4.075554e+001  -5.708882e+001 
4403125000  -4.139855e+001  -6.676662e+001 
4406250000  -4.203588e+001  -7.145608e+001 
4409375000  -4.262458e+001  -7.628334e+001 
4412500000  -4.322815e+001  -7.847382e+001 
4415625000  -4.337858e+001  -7.734937e+001 
4418750000  -4.168252e+001  -7.609097e+001 
