!Agilent Technologies,E8363B,MY43030201,A.06.04.32
!Agilent E8363B: A.06.04.32
!Date: Tuesday, November 11, 2014 21:45:52
!Correction: S21(Response(S21)) 
!S1P File: Measurement: S21:
# Hz S  dB   R 50
3000000000  -4.376867e+001  -1.609358e+002 
3003125000  -4.504166e+001  -1.657290e+002 
3006250000  -4.527242e+001  -1.676553e+002 
3009375000  -4.622307e+001  -1.641201e+002 
3012500000  -4.499215e+001  -1.701751e+002 
3015625000  -4.508652e+001  -1.794413e+002 
3018750000  -4.540482e+001  -1.771868e+002 
3021875000  -4.385160e+001  -1.786827e+002 
3025000000  -4.233453e+001  1.786649e+002 
3028125000  -4.172813e+001  1.643260e+002 
3031250000  -4.092722e+001  1.526035e+002 
3034375000  -4.076222e+001  1.390959e+002 
3037500000  -4.175861e+001  1.280792e+002 
3040625000  -4.301660e+001  1.207360e+002 
3043750000  -4.334184e+001  1.125399e+002 
3046875000  -4.399076e+001  1.075123e+002 
3050000000  -4.507462e+001  1.010371e+002 
3053125000  -4.480043e+001  1.051463e+002 
3056250000  -4.491022e+001  1.068345e+002 
3059375000  -4.391722e+001  1.051842e+002 
3062500000  -4.251830e+001  1.001849e+002 
3065625000  -4.226413e+001  8.946914e+001 
3068750000  -4.152089e+001  8.134201e+001 
3071875000  -4.180196e+001  7.871706e+001 
3075000000  -4.115897e+001  7.000156e+001 
3078125000  -4.145976e+001  6.484801e+001 
3081250000  -4.105317e+001  5.736100e+001 
3084375000  -4.037589e+001  5.145525e+001 
3087500000  -4.043206e+001  4.376613e+001 
3090625000  -4.009722e+001  3.070683e+001 
3093750000  -4.091719e+001  2.212305e+001 
3096875000  -4.120576e+001  1.565881e+001 
3100000000  -4.106385e+001  1.348757e+001 
3103125000  -4.156549e+001  7.864018e+000 
3106250000  -4.107721e+001  1.454890e+000 
3109375000  -4.095586e+001  -3.086348e+000 
3112500000  -4.075624e+001  -1.140898e+001 
3115625000  -4.099122e+001  -1.486023e+001 
3118750000  -4.085033e+001  -2.034859e+001 
3121875000  -4.012766e+001  -3.233539e+001 
3125000000  -4.222822e+001  -3.770992e+001 
3128125000  -4.197250e+001  -3.171810e+001 
3131250000  -3.957954e+001  -3.955515e+001 
3134375000  -3.872112e+001  -5.638427e+001 
3137500000  -3.946034e+001  -7.125266e+001 
3140625000  -4.085263e+001  -7.475658e+001 
3143750000  -4.182089e+001  -7.831586e+001 
3146875000  -4.115058e+001  -7.735818e+001 
3150000000  -4.016746e+001  -8.299066e+001 
3153125000  -4.069754e+001  -9.185835e+001 
3156250000  -4.151242e+001  -8.710393e+001 
3159375000  -3.915402e+001  -9.152530e+001 
3162500000  -3.760645e+001  -1.082452e+002 
3165625000  -3.905555e+001  -1.226433e+002 
3168750000  -3.909001e+001  -1.249341e+002 
3171875000  -3.859104e+001  -1.322211e+002 
3175000000  -3.911514e+001  -1.416033e+002 
3178125000  -3.877830e+001  -1.459829e+002 
3181250000  -3.804449e+001  -1.543281e+002 
3184375000  -3.782794e+001  -1.659887e+002 
3187500000  -3.932510e+001  1.788416e+002 
3190625000  -4.070118e+001  1.710288e+002 
3193750000  -4.098748e+001  1.744382e+002 
3196875000  -4.112679e+001  1.730379e+002 
3200000000  -3.998048e+001  1.690833e+002 
3203125000  -3.964986e+001  1.605975e+002 
3206250000  -3.977772e+001  1.522598e+002 
3209375000  -3.959089e+001  1.444350e+002 
3212500000  -3.999607e+001  1.359072e+002 
3215625000  -3.942014e+001  1.327663e+002 
3218750000  -4.035885e+001  1.208770e+002 
3221875000  -4.059967e+001  1.139039e+002 
3225000000  -4.042884e+001  1.086719e+002 
3228125000  -4.106611e+001  1.001301e+002 
3231250000  -4.141743e+001  9.721320e+001 
3234375000  -4.100159e+001  9.330968e+001 
3237500000  -4.101783e+001  9.017906e+001 
3240625000  -4.024807e+001  8.307338e+001 
3243750000  -4.034180e+001  7.148776e+001 
3246875000  -4.067108e+001  6.367139e+001 
3250000000  -4.110734e+001  5.873593e+001 
3253125000  -4.128592e+001  5.591718e+001 
3256250000  -4.035757e+001  4.513346e+001 
3259375000  -4.112478e+001  3.107679e+001 
3262500000  -4.225307e+001  2.659106e+001 
3265625000  -4.264769e+001  2.976275e+001 
3268750000  -4.243315e+001  2.727638e+001 
3271875000  -4.174026e+001  2.055262e+001 
3275000000  -4.125014e+001  1.082019e+001 
3278125000  -4.170591e+001  3.138612e+000 
3281250000  -4.175237e+001  -3.240081e-002 
3284375000  -4.087566e+001  -7.650685e+000 
3287500000  -4.159672e+001  -1.575584e+001 
3290625000  -4.167581e+001  -2.618267e+001 
3293750000  -4.156304e+001  -3.466840e+001 
3296875000  -4.265554e+001  -3.928246e+001 
3300000000  -4.203772e+001  -3.902004e+001 
3303125000  -4.111008e+001  -4.973922e+001 
3306250000  -4.095611e+001  -5.947911e+001 
3309375000  -4.079308e+001  -7.138934e+001 
3312500000  -4.105537e+001  -8.527705e+001 
3315625000  -4.240766e+001  -9.304919e+001 
3318750000  -4.404391e+001  -1.006182e+002 
3321875000  -4.529967e+001  -9.778359e+001 
3325000000  -4.529225e+001  -9.410796e+001 
3328125000  -4.415822e+001  -9.785373e+001 
3331250000  -4.257833e+001  -9.825043e+001 
3334375000  -4.008928e+001  -1.162808e+002 
3337500000  -4.098333e+001  -1.409745e+002 
3340625000  -4.286259e+001  -1.515638e+002 
3343750000  -4.428393e+001  -1.527171e+002 
3346875000  -4.409955e+001  -1.578846e+002 
3350000000  -4.369107e+001  -1.625430e+002 
3353125000  -4.367054e+001  -1.699467e+002 
3356250000  -4.320827e+001  1.788747e+002 
3359375000  -4.442964e+001  1.659048e+002 
3362500000  -4.503197e+001  1.585906e+002 
3365625000  -4.557822e+001  1.535249e+002 
3368750000  -4.695104e+001  1.499187e+002 
3371875000  -4.684431e+001  1.412143e+002 
3375000000  -4.851397e+001  1.304859e+002 
3378125000  -4.922719e+001  1.306172e+002 
3381250000  -5.033675e+001  1.428944e+002 
3384375000  -4.726059e+001  1.500748e+002 
3387500000  -4.470082e+001  1.284494e+002 
3390625000  -4.734775e+001  1.061100e+002 
3393750000  -4.778530e+001  1.029046e+002 
3396875000  -4.637600e+001  1.009891e+002 
3400000000  -4.598639e+001  8.705286e+001 
3403125000  -4.644823e+001  7.965617e+001 
3406250000  -4.747659e+001  7.167819e+001 
3409375000  -4.746846e+001  6.151914e+001 
3412500000  -4.776777e+001  5.205543e+001 
3415625000  -4.876799e+001  4.802617e+001 
3418750000  -4.914652e+001  4.500462e+001 
3421875000  -4.889744e+001  4.230056e+001 
3425000000  -4.756265e+001  3.624180e+001 
3428125000  -4.731479e+001  3.055189e+001 
3431250000  -4.688080e+001  1.533450e+001 
3434375000  -4.734140e+001  3.340764e+000 
3437500000  -4.782226e+001  -5.169703e+000 
3440625000  -4.796173e+001  -7.514023e+000 
3443750000  -4.634160e+001  -1.199400e+001 
3446875000  -4.561565e+001  -2.839891e+001 
3450000000  -4.547900e+001  -4.107248e+001 
3453125000  -4.576459e+001  -5.834747e+001 
3456250000  -4.780140e+001  -6.893124e+001 
3459375000  -4.834326e+001  -7.591943e+001 
3462500000  -4.783141e+001  -7.456139e+001 
3465625000  -4.719938e+001  -8.987129e+001 
3468750000  -4.730519e+001  -9.578761e+001 
3471875000  -4.675989e+001  -1.035061e+002 
3475000000  -4.725512e+001  -1.149095e+002 
3478125000  -4.743819e+001  -1.301073e+002 
3481250000  -4.919615e+001  -1.315029e+002 
3484375000  -4.834834e+001  -1.356835e+002 
3487500000  -4.749590e+001  -1.414433e+002 
3490625000  -4.727275e+001  -1.533410e+002 
3493750000  -4.789958e+001  -1.658887e+002 
3496875000  -4.865610e+001  -1.687560e+002 
3500000000  -4.869388e+001  -1.741650e+002 
3503125000  -4.746349e+001  -1.731696e+002 
3506250000  -4.571283e+001  1.715125e+002 
3509375000  -4.524749e+001  1.525510e+002 
3512500000  -4.636237e+001  1.365269e+002 
3515625000  -4.763035e+001  1.308765e+002 
3518750000  -4.779427e+001  1.287070e+002 
3521875000  -4.755970e+001  1.195430e+002 
3525000000  -4.876327e+001  1.140578e+002 
3528125000  -4.767202e+001  1.189579e+002 
3531250000  -4.668602e+001  1.061019e+002 
3534375000  -4.674298e+001  8.834770e+001 
3537500000  -4.802840e+001  7.897694e+001 
3540625000  -4.923988e+001  7.529665e+001 
3543750000  -4.950428e+001  7.862992e+001 
3546875000  -4.803371e+001  7.928973e+001 
3550000000  -4.685661e+001  7.446425e+001 
3553125000  -4.601741e+001  5.042143e+001 
3556250000  -4.729863e+001  4.524819e+001 
3559375000  -4.650596e+001  4.009146e+001 
3562500000  -4.669481e+001  3.375239e+001 
3565625000  -4.727694e+001  2.496758e+001 
3568750000  -4.829386e+001  2.437974e+001 
3571875000  -4.695681e+001  1.578738e+001 
3575000000  -4.689948e+001  1.212077e+001 
3578125000  -4.809510e+001  7.472548e+000 
3581250000  -4.753332e+001  2.314332e+000 
3584375000  -4.578728e+001  -4.708102e+000 
3587500000  -4.534421e+001  -1.381679e+001 
3590625000  -4.621111e+001  -2.437539e+001 
3593750000  -4.809827e+001  -2.217648e+001 
3596875000  -4.652565e+001  -2.237092e+001 
3600000000  -4.462558e+001  -3.250927e+001 
3603125000  -4.510122e+001  -4.554854e+001 
3606250000  -4.594638e+001  -5.469524e+001 
3609375000  -4.622646e+001  -5.455099e+001 
3612500000  -4.596939e+001  -6.294172e+001 
3615625000  -4.614214e+001  -6.846898e+001 
3618750000  -4.601155e+001  -7.191441e+001 
3621875000  -4.549412e+001  -7.714942e+001 
3625000000  -4.580546e+001  -8.025687e+001 
3628125000  -4.465816e+001  -8.601073e+001 
3631250000  -4.495805e+001  -9.702972e+001 
3634375000  -4.553412e+001  -9.619303e+001 
3637500000  -4.440621e+001  -1.000486e+002 
3640625000  -4.386097e+001  -1.064574e+002 
3643750000  -4.309547e+001  -1.189263e+002 
3646875000  -4.361084e+001  -1.310596e+002 
3650000000  -4.379584e+001  -1.350341e+002 
3653125000  -4.335738e+001  -1.416989e+002 
3656250000  -4.430503e+001  -1.503197e+002 
3659375000  -4.382409e+001  -1.553757e+002 
3662500000  -4.316938e+001  -1.597580e+002 
3665625000  -4.352361e+001  -1.631123e+002 
3668750000  -4.196946e+001  -1.693937e+002 
3671875000  -4.149543e+001  1.786756e+002 
3675000000  -4.202132e+001  1.677944e+002 
3678125000  -4.256973e+001  1.627279e+002 
3681250000  -4.238123e+001  1.557830e+002 
3684375000  -4.276843e+001  1.481922e+002 
3687500000  -4.277881e+001  1.400325e+002 
3690625000  -4.365024e+001  1.337093e+002 
3693750000  -4.473701e+001  1.334418e+002 
3696875000  -4.391019e+001  1.295433e+002 
3700000000  -4.319941e+001  1.213207e+002 
3703125000  -4.393155e+001  1.125235e+002 
3706250000  -4.449901e+001  1.103363e+002 
3709375000  -4.394707e+001  1.104594e+002 
3712500000  -4.322317e+001  1.040785e+002 
3715625000  -4.179712e+001  9.646991e+001 
3718750000  -4.159853e+001  8.588715e+001 
3721875000  -4.159018e+001  7.753897e+001 
3725000000  -4.216688e+001  6.852625e+001 
3728125000  -4.265480e+001  6.573949e+001 
3731250000  -4.196622e+001  5.976500e+001 
3734375000  -4.209911e+001  5.373891e+001 
3737500000  -4.251579e+001  4.331808e+001 
3740625000  -4.323949e+001  3.511807e+001 
3743750000  -4.283618e+001  3.240290e+001 
3746875000  -4.331362e+001  2.396610e+001 
3750000000  -4.386659e+001  2.004931e+001 
3753125000  -4.345677e+001  1.856655e+001 
3756250000  -4.381234e+001  1.559986e+001 
3759375000  -4.390738e+001  8.191442e+000 
3762500000  -4.365375e+001  4.595430e+000 
3765625000  -4.379402e+001  -1.561697e+000 
3768750000  -4.358502e+001  -5.406169e-001 
3771875000  -4.210995e+001  -8.542423e+000 
3775000000  -4.209156e+001  -1.833617e+001 
3778125000  -4.269788e+001  -2.428541e+001 
3781250000  -4.273270e+001  -3.148360e+001 
3784375000  -4.248014e+001  -3.467562e+001 
3787500000  -4.228767e+001  -4.203944e+001 
3790625000  -4.257772e+001  -5.044663e+001 
3793750000  -4.262553e+001  -5.611896e+001 
3796875000  -4.173486e+001  -5.925076e+001 
3800000000  -4.070793e+001  -6.774900e+001 
3803125000  -4.160474e+001  -7.814497e+001 
3806250000  -4.254789e+001  -8.308974e+001 
3809375000  -4.180642e+001  -8.894783e+001 
3812500000  -4.166328e+001  -9.995912e+001 
3815625000  -4.311821e+001  -1.094524e+002 
3818750000  -4.412239e+001  -1.070432e+002 
3821875000  -4.319554e+001  -9.692297e+001 
3825000000  -4.144975e+001  -1.065807e+002 
3828125000  -4.037719e+001  -1.248730e+002 
3831250000  -4.145447e+001  -1.406068e+002 
3834375000  -4.372145e+001  -1.423256e+002 
3837500000  -4.368362e+001  -1.370656e+002 
3840625000  -4.221756e+001  -1.433896e+002 
3843750000  -4.158460e+001  -1.601785e+002 
3846875000  -4.328537e+001  -1.665661e+002 
3850000000  -4.380426e+001  -1.600319e+002 
3853125000  -4.362326e+001  -1.634353e+002 
3856250000  -4.287825e+001  -1.697735e+002 
3859375000  -4.225365e+001  -1.798531e+002 
3862500000  -4.221708e+001  1.700195e+002 
3865625000  -4.253092e+001  1.642122e+002 
3868750000  -4.228847e+001  1.632483e+002 
3871875000  -4.174759e+001  1.520537e+002 
3875000000  -4.249691e+001  1.423349e+002 
3878125000  -4.299862e+001  1.383593e+002 
3881250000  -4.315019e+001  1.370416e+002 
3884375000  -4.278547e+001  1.310361e+002 
3887500000  -4.328948e+001  1.224332e+002 
3890625000  -4.406780e+001  1.180527e+002 
3893750000  -4.420459e+001  1.181508e+002 
3896875000  -4.415492e+001  1.143108e+002 
3900000000  -4.446386e+001  1.071711e+002 
3903125000  -4.371636e+001  1.003921e+002 
3906250000  -4.408244e+001  9.976359e+001 
3909375000  -4.271862e+001  9.217908e+001 
3912500000  -4.360667e+001  7.682033e+001 
3915625000  -4.497591e+001  8.065171e+001 
3918750000  -4.421197e+001  7.834397e+001 
3921875000  -4.360566e+001  7.330363e+001 
3925000000  -4.288512e+001  6.506039e+001 
3928125000  -4.276684e+001  5.696431e+001 
3931250000  -4.386343e+001  4.769424e+001 
3934375000  -4.362415e+001  4.808545e+001 
3937500000  -4.411451e+001  4.737643e+001 
3940625000  -4.455022e+001  4.489343e+001 
3943750000  -4.317601e+001  3.693692e+001 
3946875000  -4.260476e+001  3.158445e+001 
3950000000  -4.372584e+001  2.169880e+001 
3953125000  -4.477411e+001  2.115155e+001 
3956250000  -4.250265e+001  2.076742e+001 
3959375000  -4.152177e+001  1.492848e+001 
3962500000  -4.143090e+001  5.963671e+000 
3965625000  -4.180165e+001  -8.163751e+000 
3968750000  -4.248536e+001  -1.533926e+001 
3971875000  -4.228643e+001  -1.867334e+001 
3975000000  -4.187115e+001  -2.453041e+001 
3978125000  -4.209595e+001  -3.109083e+001 
3981250000  -4.193471e+001  -3.900055e+001 
3984375000  -4.239280e+001  -4.729191e+001 
3987500000  -4.278520e+001  -5.158036e+001 
3990625000  -4.287132e+001  -5.468073e+001 
3993750000  -4.317795e+001  -6.301488e+001 
3996875000  -4.321905e+001  -6.775043e+001 
4000000000  -4.375653e+001  -7.260931e+001 
4003125000  -4.399863e+001  -7.283557e+001 
4006250000  -4.172020e+001  -7.808148e+001 
4009375000  -4.114925e+001  -9.577762e+001 
4012500000  -4.305190e+001  -1.041132e+002 
4015625000  -4.397244e+001  -1.028490e+002 
4018750000  -4.384286e+001  -1.071934e+002 
4021875000  -4.318533e+001  -1.150268e+002 
4025000000  -4.307680e+001  -1.228256e+002 
4028125000  -4.317059e+001  -1.283859e+002 
4031250000  -4.377078e+001  -1.363773e+002 
4034375000  -4.411268e+001  -1.353622e+002 
4037500000  -4.375493e+001  -1.428768e+002 
4040625000  -4.412234e+001  -1.474263e+002 
4043750000  -4.439137e+001  -1.536977e+002 
4046875000  -4.409863e+001  -1.569290e+002 
4050000000  -4.439532e+001  -1.662232e+002 
4053125000  -4.515185e+001  -1.635863e+002 
4056250000  -4.589022e+001  -1.620227e+002 
4059375000  -4.373580e+001  -1.659820e+002 
4062500000  -4.362645e+001  -1.734666e+002 
4065625000  -4.331060e+001  1.784270e+002 
4068750000  -4.305550e+001  1.731424e+002 
4071875000  -4.247210e+001  1.629228e+002 
4075000000  -4.343068e+001  1.518939e+002 
4078125000  -4.416406e+001  1.497065e+002 
4081250000  -4.354048e+001  1.456644e+002 
4084375000  -4.330259e+001  1.387249e+002 
4087500000  -4.386079e+001  1.299716e+002 
4090625000  -4.474469e+001  1.259566e+002 
4093750000  -4.444627e+001  1.268823e+002 
4096875000  -4.386522e+001  1.175440e+002 
4100000000  -4.539680e+001  1.111593e+002 
4103125000  -4.553847e+001  1.131459e+002 
4106250000  -4.512928e+001  1.155066e+002 
4109375000  -4.439172e+001  1.092372e+002 
4112500000  -4.374968e+001  1.012202e+002 
4115625000  -4.376402e+001  9.386063e+001 
4118750000  -4.388948e+001  8.949069e+001 
4121875000  -4.359523e+001  8.517931e+001 
4125000000  -4.411718e+001  7.423727e+001 
4128125000  -4.499756e+001  8.113400e+001 
4131250000  -4.383012e+001  8.437318e+001 
4134375000  -4.169949e+001  6.881270e+001 
4137500000  -4.212118e+001  4.905672e+001 
4140625000  -4.422276e+001  4.394819e+001 
4143750000  -4.493361e+001  4.663374e+001 
4146875000  -4.383688e+001  4.966056e+001 
4150000000  -4.272471e+001  4.046037e+001 
4153125000  -4.281083e+001  3.139283e+001 
4156250000  -4.367441e+001  2.669270e+001 
4159375000  -4.348445e+001  2.969686e+001 
4162500000  -4.241792e+001  2.760467e+001 
4165625000  -4.143798e+001  1.660859e+001 
4168750000  -4.088122e+001  5.052583e+000 
4171875000  -4.090323e+001  -6.847284e+000 
4175000000  -4.178243e+001  -1.482837e+001 
4178125000  -4.235394e+001  -1.576886e+001 
4181250000  -4.213436e+001  -2.219982e+001 
4184375000  -4.272111e+001  -2.952785e+001 
4187500000  -4.242107e+001  -3.583266e+001 
4190625000  -4.257115e+001  -4.657145e+001 
4193750000  -4.369471e+001  -5.051659e+001 
4196875000  -4.450611e+001  -5.359666e+001 
4200000000  -4.564011e+001  -5.270449e+001 
4203125000  -4.385186e+001  -3.625613e+001 
4206250000  -4.090660e+001  -4.706217e+001 
4209375000  -4.163381e+001  -7.338551e+001 
4212500000  -4.397541e+001  -7.849585e+001 
4215625000  -4.389803e+001  -7.129569e+001 
4218750000  -4.259911e+001  -7.134603e+001 
4221875000  -4.112062e+001  -8.368961e+001 
4225000000  -4.255587e+001  -9.512022e+001 
4228125000  -4.218895e+001  -9.271494e+001 
4231250000  -4.091017e+001  -1.026119e+002 
4234375000  -4.075629e+001  -1.141153e+002 
4237500000  -4.085781e+001  -1.203707e+002 
4240625000  -4.126286e+001  -1.292036e+002 
4243750000  -4.216708e+001  -1.401000e+002 
4246875000  -4.315383e+001  -1.384059e+002 
4250000000  -4.269835e+001  -1.389946e+002 
4253125000  -4.231216e+001  -1.442432e+002 
4256250000  -4.228313e+001  -1.513710e+002 
4259375000  -4.210780e+001  -1.546644e+002 
4262500000  -4.239713e+001  -1.603390e+002 
4265625000  -4.204242e+001  -1.613488e+002 
4268750000  -4.068215e+001  -1.673589e+002 
4271875000  -4.042920e+001  1.798794e+002 
4275000000  -4.037685e+001  1.708170e+002 
4278125000  -4.154964e+001  1.568764e+002 
4281250000  -4.194748e+001  1.552542e+002 
4284375000  -4.250625e+001  1.519822e+002 
4287500000  -4.366746e+001  1.490190e+002 
4290625000  -4.350654e+001  1.583336e+002 
4293750000  -4.149887e+001  1.566452e+002 
4296875000  -4.028501e+001  1.421028e+002 
4300000000  -4.124707e+001  1.309764e+002 
4303125000  -4.206050e+001  1.329774e+002 
4306250000  -4.077129e+001  1.300410e+002 
4309375000  -3.977254e+001  1.203863e+002 
4312500000  -3.970164e+001  1.074456e+002 
4315625000  -4.021682e+001  1.006586e+002 
4318750000  -4.071266e+001  9.374155e+001 
4321875000  -4.046466e+001  9.164469e+001 
4325000000  -4.010943e+001  8.689957e+001 
4328125000  -3.938227e+001  7.658530e+001 
4331250000  -3.955720e+001  6.379729e+001 
4334375000  -4.071672e+001  5.627558e+001 
4337500000  -4.184877e+001  5.455659e+001 
4340625000  -4.194880e+001  5.302493e+001 
4343750000  -4.143496e+001  5.201224e+001 
4346875000  -4.085194e+001  4.085752e+001 
4350000000  -4.112124e+001  3.450398e+001 
4353125000  -4.186967e+001  2.394740e+001 
4356250000  -4.349604e+001  2.661852e+001 
4359375000  -4.278357e+001  3.977937e+001 
4362500000  -3.911156e+001  2.906168e+001 
4365625000  -3.894600e+001  1.116877e+001 
4368750000  -4.034029e+001  -2.285351e-001 
4371875000  -4.127870e+001  -1.522309e+000 
4375000000  -4.098267e+001  -7.410379e+000 
4378125000  -4.061288e+001  -1.551165e+001 
4381250000  -4.048906e+001  -2.261696e+001 
4384375000  -4.099366e+001  -2.917296e+001 
4387500000  -4.178075e+001  -3.884034e+001 
4390625000  -4.223394e+001  -4.019928e+001 
4393750000  -4.183116e+001  -4.075986e+001 
4396875000  -4.091462e+001  -4.575722e+001 
4400000000  -4.071713e+001  -5.385335e+001 
4403125000  -4.161376e+001  -6.742439e+001 
4406250000  -4.194197e+001  -6.940998e+001 
4409375000  -4.252586e+001  -7.334264e+001 
4412500000  -4.356982e+001  -7.590720e+001 
4415625000  -4.319759e+001  -7.336562e+001 
4418750000  -4.179776e+001  -7.565232e+001 
