!Agilent Technologies,E8363B,MY43030201,A.06.04.32
!Agilent E8363B: A.06.04.32
!Date: Tuesday, November 11, 2014 21:48:03
!Correction: S21(Response(S21)) 
!S1P File: Measurement: S21:
# Hz S  dB   R 50
3000000000  -4.369115e+001  -1.617870e+002 
3003125000  -4.526853e+001  -1.679359e+002 
3006250000  -4.527505e+001  -1.676946e+002 
3009375000  -4.592678e+001  -1.650841e+002 
3012500000  -4.486319e+001  -1.711397e+002 
3015625000  -4.516331e+001  -1.781416e+002 
3018750000  -4.550341e+001  -1.787376e+002 
3021875000  -4.405212e+001  -1.785394e+002 
3025000000  -4.253025e+001  1.764677e+002 
3028125000  -4.156861e+001  1.643000e+002 
3031250000  -4.101692e+001  1.514905e+002 
3034375000  -4.081345e+001  1.374015e+002 
3037500000  -4.157059e+001  1.268716e+002 
3040625000  -4.296373e+001  1.195904e+002 
3043750000  -4.333015e+001  1.130686e+002 
3046875000  -4.443063e+001  1.062450e+002 
3050000000  -4.538868e+001  1.004899e+002 
3053125000  -4.510556e+001  1.056802e+002 
3056250000  -4.515901e+001  1.088976e+002 
3059375000  -4.402686e+001  1.063209e+002 
3062500000  -4.238956e+001  1.012821e+002 
3065625000  -4.219424e+001  9.047250e+001 
3068750000  -4.194887e+001  8.045860e+001 
3071875000  -4.186701e+001  7.832927e+001 
3075000000  -4.124683e+001  7.161494e+001 
3078125000  -4.122384e+001  6.348298e+001 
3081250000  -4.143325e+001  5.719210e+001 
3084375000  -4.045455e+001  5.185856e+001 
3087500000  -4.047157e+001  4.395308e+001 
3090625000  -4.010722e+001  3.057499e+001 
3093750000  -4.099247e+001  2.092773e+001 
3096875000  -4.146555e+001  1.622447e+001 
3100000000  -4.117471e+001  1.171859e+001 
3103125000  -4.131268e+001  6.413179e+000 
3106250000  -4.108214e+001  1.267977e+000 
3109375000  -4.104042e+001  -3.239994e+000 
3112500000  -4.081805e+001  -1.185168e+001 
3115625000  -4.092031e+001  -1.588853e+001 
3118750000  -4.084289e+001  -2.115427e+001 
3121875000  -4.020468e+001  -3.335866e+001 
3125000000  -4.193999e+001  -3.673336e+001 
3128125000  -4.209098e+001  -3.147836e+001 
3131250000  -3.957442e+001  -3.881767e+001 
3134375000  -3.873499e+001  -5.603752e+001 
3137500000  -3.936717e+001  -6.977723e+001 
3140625000  -4.088179e+001  -7.382309e+001 
3143750000  -4.162257e+001  -7.881399e+001 
3146875000  -4.098836e+001  -7.642596e+001 
3150000000  -4.025134e+001  -8.213782e+001 
3153125000  -4.084322e+001  -9.263019e+001 
3156250000  -4.130812e+001  -8.795534e+001 
3159375000  -3.912971e+001  -9.369080e+001 
3162500000  -3.782410e+001  -1.070428e+002 
3165625000  -3.909789e+001  -1.235829e+002 
3168750000  -3.900584e+001  -1.249671e+002 
3171875000  -3.856059e+001  -1.333782e+002 
3175000000  -3.908722e+001  -1.414308e+002 
3178125000  -3.864825e+001  -1.450978e+002 
3181250000  -3.825433e+001  -1.544933e+002 
3184375000  -3.782273e+001  -1.661206e+002 
3187500000  -3.939778e+001  1.780866e+002 
3190625000  -4.069158e+001  1.713269e+002 
3193750000  -4.122499e+001  1.745500e+002 
3196875000  -4.119640e+001  1.744502e+002 
3200000000  -3.988916e+001  1.674269e+002 
3203125000  -3.966444e+001  1.591512e+002 
3206250000  -3.974714e+001  1.514544e+002 
3209375000  -3.945414e+001  1.428423e+002 
3212500000  -3.985506e+001  1.357987e+002 
3215625000  -3.975138e+001  1.329062e+002 
3218750000  -4.037369e+001  1.197800e+002 
3221875000  -4.069239e+001  1.125717e+002 
3225000000  -4.045949e+001  1.074241e+002 
3228125000  -4.102054e+001  1.004079e+002 
3231250000  -4.138713e+001  9.694761e+001 
3234375000  -4.105306e+001  9.488734e+001 
3237500000  -4.087455e+001  8.977750e+001 
3240625000  -4.037772e+001  8.347374e+001 
3243750000  -4.023964e+001  7.103734e+001 
3246875000  -4.069021e+001  6.360452e+001 
3250000000  -4.120563e+001  5.931724e+001 
3253125000  -4.111913e+001  5.388425e+001 
3256250000  -4.027383e+001  4.466168e+001 
3259375000  -4.082365e+001  3.084518e+001 
3262500000  -4.235342e+001  2.579144e+001 
3265625000  -4.269856e+001  2.717994e+001 
3268750000  -4.261428e+001  2.616634e+001 
3271875000  -4.156961e+001  1.944132e+001 
3275000000  -4.123214e+001  9.992162e+000 
3278125000  -4.165298e+001  2.522943e+000 
3281250000  -4.182338e+001  -1.446750e+000 
3284375000  -4.107230e+001  -9.017058e+000 
3287500000  -4.151260e+001  -1.530287e+001 
3290625000  -4.152711e+001  -2.503418e+001 
3293750000  -4.152108e+001  -3.411519e+001 
3296875000  -4.246121e+001  -3.857700e+001 
3300000000  -4.191872e+001  -4.073800e+001 
3303125000  -4.097256e+001  -5.047672e+001 
3306250000  -4.091180e+001  -5.931907e+001 
3309375000  -4.073030e+001  -7.094196e+001 
3312500000  -4.128690e+001  -8.595411e+001 
3315625000  -4.248994e+001  -9.379524e+001 
3318750000  -4.395187e+001  -9.947414e+001 
3321875000  -4.535524e+001  -9.990027e+001 
3325000000  -4.497648e+001  -9.591928e+001 
3328125000  -4.432646e+001  -9.828175e+001 
3331250000  -4.236860e+001  -9.860921e+001 
3334375000  -4.016985e+001  -1.165285e+002 
3337500000  -4.108007e+001  -1.403884e+002 
3340625000  -4.272881e+001  -1.506304e+002 
3343750000  -4.463877e+001  -1.525059e+002 
3346875000  -4.394591e+001  -1.579464e+002 
3350000000  -4.374896e+001  -1.619617e+002 
3353125000  -4.369672e+001  -1.705571e+002 
3356250000  -4.328664e+001  1.790309e+002 
3359375000  -4.440242e+001  1.655208e+002 
3362500000  -4.492856e+001  1.583428e+002 
3365625000  -4.566423e+001  1.496059e+002 
3368750000  -4.662274e+001  1.467310e+002 
3371875000  -4.658630e+001  1.408543e+002 
3375000000  -4.859097e+001  1.342927e+002 
3378125000  -4.920085e+001  1.313243e+002 
3381250000  -5.077827e+001  1.395527e+002 
3384375000  -4.712930e+001  1.528736e+002 
3387500000  -4.454659e+001  1.286756e+002 
3390625000  -4.682297e+001  1.057000e+002 
3393750000  -4.784592e+001  1.047071e+002 
3396875000  -4.617580e+001  9.998608e+001 
3400000000  -4.612260e+001  8.499277e+001 
3403125000  -4.707478e+001  7.587772e+001 
3406250000  -4.738757e+001  7.001613e+001 
3409375000  -4.702808e+001  6.202293e+001 
3412500000  -4.784112e+001  5.468302e+001 
3415625000  -4.801525e+001  4.725078e+001 
3418750000  -4.866938e+001  4.290588e+001 
3421875000  -4.892961e+001  4.384477e+001 
3425000000  -4.779474e+001  3.266782e+001 
3428125000  -4.757837e+001  2.832763e+001 
3431250000  -4.660674e+001  1.312419e+001 
3434375000  -4.712104e+001  1.763755e+000 
3437500000  -4.765060e+001  -5.940214e+000 
3440625000  -4.774878e+001  -7.030091e+000 
3443750000  -4.666162e+001  -1.455365e+001 
3446875000  -4.547363e+001  -2.747473e+001 
3450000000  -4.509714e+001  -4.222428e+001 
3453125000  -4.575129e+001  -5.960744e+001 
3456250000  -4.752287e+001  -7.202946e+001 
3459375000  -4.783878e+001  -7.130114e+001 
3462500000  -4.825133e+001  -7.591752e+001 
3465625000  -4.741670e+001  -9.170594e+001 
3468750000  -4.749556e+001  -9.286559e+001 
3471875000  -4.723193e+001  -1.018527e+002 
3475000000  -4.666148e+001  -1.167625e+002 
3478125000  -4.734785e+001  -1.302121e+002 
3481250000  -4.902390e+001  -1.346999e+002 
3484375000  -4.845198e+001  -1.333389e+002 
3487500000  -4.773516e+001  -1.401866e+002 
3490625000  -4.698451e+001  -1.536370e+002 
3493750000  -4.774622e+001  -1.676153e+002 
3496875000  -4.795545e+001  -1.685815e+002 
3500000000  -4.864423e+001  -1.751904e+002 
3503125000  -4.730014e+001  -1.739211e+002 
3506250000  -4.556641e+001  1.705719e+002 
3509375000  -4.545731e+001  1.524677e+002 
3512500000  -4.623396e+001  1.361501e+002 
3515625000  -4.749259e+001  1.306296e+002 
3518750000  -4.753502e+001  1.301264e+002 
3521875000  -4.781991e+001  1.157577e+002 
3525000000  -4.847638e+001  1.130123e+002 
3528125000  -4.752543e+001  1.156376e+002 
3531250000  -4.705103e+001  1.056175e+002 
3534375000  -4.687799e+001  8.776935e+001 
3537500000  -4.806430e+001  7.838183e+001 
3540625000  -4.868820e+001  7.502363e+001 
3543750000  -4.953401e+001  7.788544e+001 
3546875000  -4.853922e+001  8.454907e+001 
3550000000  -4.652339e+001  7.080070e+001 
3553125000  -4.564174e+001  5.827647e+001 
3556250000  -4.720872e+001  4.591782e+001 
3559375000  -4.670367e+001  4.062902e+001 
3562500000  -4.634262e+001  2.985670e+001 
3565625000  -4.789051e+001  2.661704e+001 
3568750000  -4.794904e+001  2.227247e+001 
3571875000  -4.819111e+001  2.013153e+001 
3575000000  -4.714880e+001  1.173589e+001 
3578125000  -4.756358e+001  8.525038e+000 
3581250000  -4.764319e+001  -1.134906e+000 
3584375000  -4.607676e+001  -2.779452e+000 
3587500000  -4.588012e+001  -1.472327e+001 
3590625000  -4.672230e+001  -2.835471e+001 
3593750000  -4.807754e+001  -2.736121e+001 
3596875000  -4.698075e+001  -1.896357e+001 
3600000000  -4.498508e+001  -3.410026e+001 
3603125000  -4.538859e+001  -4.780255e+001 
3606250000  -4.611792e+001  -5.811814e+001 
3609375000  -4.619053e+001  -5.701933e+001 
3612500000  -4.620776e+001  -6.438451e+001 
3615625000  -4.606821e+001  -7.021813e+001 
3618750000  -4.590300e+001  -7.383681e+001 
3621875000  -4.549409e+001  -7.922406e+001 
3625000000  -4.587144e+001  -8.321729e+001 
3628125000  -4.500662e+001  -8.760941e+001 
3631250000  -4.484901e+001  -9.855530e+001 
3634375000  -4.571175e+001  -9.911148e+001 
3637500000  -4.409037e+001  -9.978436e+001 
3640625000  -4.359401e+001  -1.075614e+002 
3643750000  -4.312666e+001  -1.179618e+002 
3646875000  -4.358834e+001  -1.306943e+002 
3650000000  -4.387488e+001  -1.335879e+002 
3653125000  -4.346119e+001  -1.432325e+002 
3656250000  -4.410599e+001  -1.473010e+002 
3659375000  -4.359545e+001  -1.529213e+002 
3662500000  -4.352698e+001  -1.596153e+002 
3665625000  -4.326595e+001  -1.660541e+002 
3668750000  -4.195150e+001  -1.669234e+002 
3671875000  -4.127775e+001  1.757005e+002 
3675000000  -4.221191e+001  1.689637e+002 
3678125000  -4.270533e+001  1.622335e+002 
3681250000  -4.253288e+001  1.562843e+002 
3684375000  -4.233228e+001  1.470393e+002 
3687500000  -4.281428e+001  1.389441e+002 
3690625000  -4.366497e+001  1.340853e+002 
3693750000  -4.433347e+001  1.315802e+002 
3696875000  -4.394772e+001  1.291629e+002 
3700000000  -4.289886e+001  1.223347e+002 
3703125000  -4.362215e+001  1.130573e+002 
3706250000  -4.475668e+001  1.086647e+002 
3709375000  -4.400655e+001  1.110313e+002 
3712500000  -4.298932e+001  1.043816e+002 
3715625000  -4.142217e+001  9.490292e+001 
3718750000  -4.163470e+001  8.591640e+001 
3721875000  -4.196371e+001  7.651149e+001 
3725000000  -4.274272e+001  6.877670e+001 
3728125000  -4.242540e+001  6.535509e+001 
3731250000  -4.198819e+001  6.026908e+001 
3734375000  -4.211677e+001  5.189743e+001 
3737500000  -4.258888e+001  4.060233e+001 
3740625000  -4.311844e+001  3.776805e+001 
3743750000  -4.304974e+001  3.028209e+001 
3746875000  -4.309943e+001  2.546949e+001 
3750000000  -4.358533e+001  1.820214e+001 
3753125000  -4.363705e+001  1.749118e+001 
3756250000  -4.401716e+001  1.364989e+001 
3759375000  -4.370231e+001  6.415155e+000 
3762500000  -4.332545e+001  2.728793e+000 
3765625000  -4.417944e+001  -1.180786e+000 
3768750000  -4.351568e+001  -9.368919e-001 
3771875000  -4.205909e+001  -8.767993e+000 
3775000000  -4.224917e+001  -1.982851e+001 
3778125000  -4.278057e+001  -2.761583e+001 
3781250000  -4.271767e+001  -2.995077e+001 
3784375000  -4.247807e+001  -3.717863e+001 
3787500000  -4.238995e+001  -4.164472e+001 
3790625000  -4.290189e+001  -5.131546e+001 
3793750000  -4.220630e+001  -5.240654e+001 
3796875000  -4.169024e+001  -6.014523e+001 
3800000000  -4.084540e+001  -6.761748e+001 
3803125000  -4.173142e+001  -7.911909e+001 
3806250000  -4.229709e+001  -8.456968e+001 
3809375000  -4.204551e+001  -8.868662e+001 
3812500000  -4.177241e+001  -1.002086e+002 
3815625000  -4.326637e+001  -1.112495e+002 
3818750000  -4.464939e+001  -1.068390e+002 
3821875000  -4.332230e+001  -9.800783e+001 
3825000000  -4.142592e+001  -1.050629e+002 
3828125000  -4.019398e+001  -1.263873e+002 
3831250000  -4.140897e+001  -1.414750e+002 
3834375000  -4.378636e+001  -1.398780e+002 
3837500000  -4.393030e+001  -1.374242e+002 
3840625000  -4.238910e+001  -1.441262e+002 
3843750000  -4.202808e+001  -1.601618e+002 
3846875000  -4.347103e+001  -1.694073e+002 
3850000000  -4.425938e+001  -1.576886e+002 
3853125000  -4.344799e+001  -1.653698e+002 
3856250000  -4.315241e+001  -1.698695e+002 
3859375000  -4.239513e+001  1.792984e+002 
3862500000  -4.209858e+001  1.690991e+002 
3865625000  -4.251775e+001  1.612198e+002 
3868750000  -4.256276e+001  1.608798e+002 
3871875000  -4.172650e+001  1.521924e+002 
3875000000  -4.231296e+001  1.445709e+002 
3878125000  -4.333043e+001  1.392892e+002 
3881250000  -4.312215e+001  1.368819e+002 
3884375000  -4.268065e+001  1.276488e+002 
3887500000  -4.306503e+001  1.218339e+002 
3890625000  -4.361467e+001  1.202015e+002 
3893750000  -4.395222e+001  1.145293e+002 
3896875000  -4.439007e+001  1.118050e+002 
3900000000  -4.461852e+001  1.063975e+002 
3903125000  -4.360851e+001  1.017623e+002 
3906250000  -4.315839e+001  9.715669e+001 
3909375000  -4.280930e+001  8.672264e+001 
3912500000  -4.406134e+001  7.974792e+001 
3915625000  -4.461692e+001  7.607081e+001 
3918750000  -4.435316e+001  7.754404e+001 
3921875000  -4.374203e+001  7.184265e+001 
3925000000  -4.321981e+001  6.681570e+001 
3928125000  -4.292581e+001  5.752753e+001 
3931250000  -4.341363e+001  4.883208e+001 
3934375000  -4.411473e+001  4.654717e+001 
3937500000  -4.472129e+001  4.365719e+001 
3940625000  -4.506090e+001  4.481900e+001 
3943750000  -4.349377e+001  3.808816e+001 
3946875000  -4.241510e+001  2.778697e+001 
3950000000  -4.360320e+001  1.993501e+001 
3953125000  -4.465326e+001  2.070678e+001 
3956250000  -4.257436e+001  1.961434e+001 
3959375000  -4.175780e+001  1.553443e+001 
3962500000  -4.159354e+001  3.171456e+000 
3965625000  -4.158889e+001  -7.679955e+000 
3968750000  -4.219300e+001  -1.765291e+001 
3971875000  -4.248329e+001  -2.298164e+001 
3975000000  -4.187982e+001  -2.498352e+001 
3978125000  -4.201347e+001  -3.195090e+001 
3981250000  -4.178942e+001  -3.805949e+001 
3984375000  -4.287860e+001  -4.701068e+001 
3987500000  -4.319843e+001  -5.268293e+001 
3990625000  -4.312656e+001  -5.658875e+001 
3993750000  -4.273022e+001  -6.401652e+001 
3996875000  -4.284132e+001  -7.015152e+001 
4000000000  -4.382648e+001  -7.196117e+001 
4003125000  -4.388768e+001  -7.153811e+001 
4006250000  -4.194584e+001  -7.717267e+001 
4009375000  -4.105641e+001  -9.565242e+001 
4012500000  -4.286520e+001  -1.042335e+002 
4015625000  -4.395176e+001  -1.023310e+002 
4018750000  -4.383344e+001  -1.095686e+002 
4021875000  -4.299050e+001  -1.139572e+002 
4025000000  -4.309829e+001  -1.218143e+002 
4028125000  -4.319291e+001  -1.305740e+002 
4031250000  -4.393689e+001  -1.365903e+002 
4034375000  -4.393636e+001  -1.379792e+002 
4037500000  -4.391257e+001  -1.414176e+002 
4040625000  -4.403962e+001  -1.462670e+002 
4043750000  -4.445510e+001  -1.526299e+002 
4046875000  -4.407450e+001  -1.573731e+002 
4050000000  -4.396878e+001  -1.644386e+002 
4053125000  -4.505519e+001  -1.657488e+002 
4056250000  -4.574410e+001  -1.643793e+002 
4059375000  -4.368618e+001  -1.688116e+002 
4062500000  -4.300150e+001  -1.748105e+002 
4065625000  -4.283416e+001  -1.788347e+002 
4068750000  -4.331521e+001  1.703470e+002 
4071875000  -4.221608e+001  1.615645e+002 
4075000000  -4.348905e+001  1.540403e+002 
4078125000  -4.408352e+001  1.499980e+002 
4081250000  -4.333320e+001  1.449597e+002 
4084375000  -4.344802e+001  1.356155e+002 
4087500000  -4.383276e+001  1.294632e+002 
4090625000  -4.468003e+001  1.255896e+002 
4093750000  -4.452427e+001  1.257445e+002 
4096875000  -4.423897e+001  1.176274e+002 
4100000000  -4.503255e+001  1.098593e+002 
4103125000  -4.582909e+001  1.145299e+002 
4106250000  -4.524575e+001  1.158775e+002 
4109375000  -4.431230e+001  1.092150e+002 
4112500000  -4.395754e+001  1.019136e+002 
4115625000  -4.419400e+001  9.482191e+001 
4118750000  -4.395961e+001  8.770213e+001 
4121875000  -4.344993e+001  8.292037e+001 
4125000000  -4.453959e+001  7.701071e+001 
4128125000  -4.513926e+001  7.641108e+001 
4131250000  -4.361755e+001  8.373891e+001 
4134375000  -4.139691e+001  7.135128e+001 
4137500000  -4.187617e+001  4.765363e+001 
4140625000  -4.397461e+001  4.290069e+001 
4143750000  -4.473193e+001  4.799714e+001 
4146875000  -4.414532e+001  5.065899e+001 
4150000000  -4.286719e+001  3.952269e+001 
4153125000  -4.315279e+001  3.124091e+001 
4156250000  -4.413082e+001  2.381503e+001 
4159375000  -4.371865e+001  2.914585e+001 
4162500000  -4.242411e+001  2.592578e+001 
4165625000  -4.128638e+001  1.813017e+001 
4168750000  -4.128195e+001  5.799531e+000 
4171875000  -4.122062e+001  -8.604851e+000 
4175000000  -4.154262e+001  -1.470611e+001 
4178125000  -4.193155e+001  -1.780362e+001 
4181250000  -4.188448e+001  -2.382757e+001 
4184375000  -4.259091e+001  -3.043267e+001 
4187500000  -4.201521e+001  -3.622542e+001 
4190625000  -4.241399e+001  -4.656583e+001 
4193750000  -4.407208e+001  -5.471875e+001 
4196875000  -4.478152e+001  -5.220317e+001 
4200000000  -4.604819e+001  -5.115934e+001 
4203125000  -4.418081e+001  -3.900079e+001 
4206250000  -4.117025e+001  -4.951863e+001 
4209375000  -4.134868e+001  -7.364346e+001 
4212500000  -4.364572e+001  -7.677277e+001 
4215625000  -4.391476e+001  -7.240506e+001 
4218750000  -4.261573e+001  -7.463176e+001 
4221875000  -4.107530e+001  -8.543633e+001 
4225000000  -4.253945e+001  -9.546867e+001 
4228125000  -4.230350e+001  -9.430258e+001 
4231250000  -4.117129e+001  -1.021172e+002 
4234375000  -4.094078e+001  -1.134945e+002 
4237500000  -4.087886e+001  -1.203711e+002 
4240625000  -4.121864e+001  -1.318382e+002 
4243750000  -4.215778e+001  -1.391299e+002 
4246875000  -4.286533e+001  -1.405122e+002 
4250000000  -4.269999e+001  -1.390434e+002 
4253125000  -4.275739e+001  -1.413590e+002 
4256250000  -4.212237e+001  -1.498924e+002 
4259375000  -4.229567e+001  -1.551412e+002 
4262500000  -4.172956e+001  -1.589574e+002 
4265625000  -4.204235e+001  -1.598290e+002 
4268750000  -4.068610e+001  -1.712079e+002 
4271875000  -4.064550e+001  1.793239e+002 
4275000000  -4.041878e+001  1.706428e+002 
4278125000  -4.127855e+001  1.575426e+002 
4281250000  -4.208710e+001  1.549139e+002 
4284375000  -4.213106e+001  1.513967e+002 
4287500000  -4.340450e+001  1.511137e+002 
4290625000  -4.362382e+001  1.551151e+002 
4293750000  -4.143312e+001  1.567329e+002 
4296875000  -4.029929e+001  1.404710e+002 
4300000000  -4.138586e+001  1.302448e+002 
4303125000  -4.175792e+001  1.292252e+002 
4306250000  -4.071768e+001  1.308568e+002 
4309375000  -3.986363e+001  1.204789e+002 
4312500000  -3.963750e+001  1.082917e+002 
4315625000  -4.008470e+001  9.788683e+001 
4318750000  -4.066034e+001  9.414777e+001 
4321875000  -4.087899e+001  9.002033e+001 
4325000000  -4.000153e+001  8.718294e+001 
4328125000  -3.929879e+001  7.439782e+001 
4331250000  -3.959574e+001  6.360430e+001 
4334375000  -4.081652e+001  5.636966e+001 
4337500000  -4.189481e+001  5.508120e+001 
4340625000  -4.197102e+001  5.636837e+001 
4343750000  -4.095959e+001  5.425529e+001 
4346875000  -4.085897e+001  4.120150e+001 
4350000000  -4.096070e+001  3.314938e+001 
4353125000  -4.180616e+001  2.166284e+001 
4356250000  -4.379479e+001  2.331715e+001 
4359375000  -4.259099e+001  3.688268e+001 
4362500000  -3.917915e+001  2.871764e+001 
4365625000  -3.896902e+001  9.223343e+000 
4368750000  -4.030502e+001  8.769185e-001 
4371875000  -4.113251e+001  3.675750e-001 
4375000000  -4.043994e+001  -4.874127e+000 
4378125000  -4.077020e+001  -1.424280e+001 
4381250000  -4.033267e+001  -2.357066e+001 
4384375000  -4.068452e+001  -3.072783e+001 
4387500000  -4.144374e+001  -3.895380e+001 
4390625000  -4.220735e+001  -3.994628e+001 
4393750000  -4.174536e+001  -4.145047e+001 
4396875000  -4.113832e+001  -4.593991e+001 
4400000000  -4.070431e+001  -5.627964e+001 
4403125000  -4.146612e+001  -6.392526e+001 
4406250000  -4.209161e+001  -6.958523e+001 
4409375000  -4.276655e+001  -7.687558e+001 
4412500000  -4.333551e+001  -7.823968e+001 
4415625000  -4.308764e+001  -7.367015e+001 
4418750000  -4.206684e+001  -7.518411e+001 
