!Agilent Technologies,E8363B,MY43030201,A.06.04.32
!Agilent E8363B: A.06.04.32
!Date: Tuesday, November 11, 2014 21:49:20
!Correction: S21(Response(S21)) 
!S1P File: Measurement: S21:
# Hz S  dB   R 50
3000000000  -4.376072e+001  -1.618159e+002 
3003125000  -4.541513e+001  -1.671794e+002 
3006250000  -4.547158e+001  -1.678181e+002 
3009375000  -4.613065e+001  -1.662036e+002 
3012500000  -4.515002e+001  -1.717699e+002 
3015625000  -4.517228e+001  -1.782526e+002 
3018750000  -4.520118e+001  1.786787e+002 
3021875000  -4.401075e+001  -1.784705e+002 
3025000000  -4.255220e+001  1.775507e+002 
3028125000  -4.169843e+001  1.641503e+002 
3031250000  -4.097225e+001  1.525679e+002 
3034375000  -4.069284e+001  1.376117e+002 
3037500000  -4.161459e+001  1.267839e+002 
3040625000  -4.289203e+001  1.204197e+002 
3043750000  -4.323460e+001  1.124784e+002 
3046875000  -4.405331e+001  1.055756e+002 
3050000000  -4.519415e+001  1.013677e+002 
3053125000  -4.462093e+001  1.053279e+002 
3056250000  -4.477945e+001  1.067932e+002 
3059375000  -4.404033e+001  1.069523e+002 
3062500000  -4.270328e+001  1.005381e+002 
3065625000  -4.235236e+001  8.777995e+001 
3068750000  -4.173028e+001  7.977652e+001 
3071875000  -4.165240e+001  7.831190e+001 
3075000000  -4.125911e+001  7.062450e+001 
3078125000  -4.132687e+001  6.364953e+001 
3081250000  -4.110802e+001  5.588917e+001 
3084375000  -4.052415e+001  5.034134e+001 
3087500000  -4.052827e+001  4.369909e+001 
3090625000  -3.995992e+001  3.090061e+001 
3093750000  -4.105996e+001  2.177453e+001 
3096875000  -4.119613e+001  1.611502e+001 
3100000000  -4.124945e+001  1.238635e+001 
3103125000  -4.138219e+001  7.175822e+000 
3106250000  -4.120925e+001  4.370538e-001 
3109375000  -4.105269e+001  -2.807459e+000 
3112500000  -4.079144e+001  -1.213366e+001 
3115625000  -4.092450e+001  -1.647578e+001 
3118750000  -4.083208e+001  -2.014467e+001 
3121875000  -4.009291e+001  -3.267348e+001 
3125000000  -4.210571e+001  -3.757468e+001 
3128125000  -4.187107e+001  -3.166599e+001 
3131250000  -3.939782e+001  -3.907593e+001 
3134375000  -3.885898e+001  -5.621491e+001 
3137500000  -3.947552e+001  -7.067254e+001 
3140625000  -4.057748e+001  -7.579987e+001 
3143750000  -4.152976e+001  -7.836098e+001 
3146875000  -4.110859e+001  -7.780872e+001 
3150000000  -4.034678e+001  -8.352613e+001 
3153125000  -4.065577e+001  -9.092884e+001 
3156250000  -4.145174e+001  -8.952409e+001 
3159375000  -3.907153e+001  -9.205387e+001 
3162500000  -3.758847e+001  -1.076242e+002 
3165625000  -3.884660e+001  -1.230933e+002 
3168750000  -3.893478e+001  -1.254105e+002 
3171875000  -3.874036e+001  -1.333534e+002 
3175000000  -3.908704e+001  -1.432318e+002 
3178125000  -3.864486e+001  -1.452378e+002 
3181250000  -3.808269e+001  -1.547015e+002 
3184375000  -3.776427e+001  -1.658766e+002 
3187500000  -3.915821e+001  1.782340e+002 
3190625000  -4.094770e+001  1.704723e+002 
3193750000  -4.110587e+001  1.750786e+002 
3196875000  -4.109700e+001  1.738831e+002 
3200000000  -3.994905e+001  1.691508e+002 
3203125000  -3.952047e+001  1.597061e+002 
3206250000  -3.986940e+001  1.532462e+002 
3209375000  -3.947453e+001  1.432355e+002 
3212500000  -3.982203e+001  1.354663e+002 
3215625000  -3.948381e+001  1.338953e+002 
3218750000  -4.020797e+001  1.191965e+002 
3221875000  -4.053251e+001  1.118966e+002 
3225000000  -4.029000e+001  1.067432e+002 
3228125000  -4.103823e+001  9.930028e+001 
3231250000  -4.137030e+001  9.829295e+001 
3234375000  -4.109583e+001  9.418738e+001 
3237500000  -4.100631e+001  8.932594e+001 
3240625000  -4.033451e+001  8.215576e+001 
3243750000  -4.031333e+001  7.114268e+001 
3246875000  -4.064812e+001  6.211120e+001 
3250000000  -4.111041e+001  5.935030e+001 
3253125000  -4.109019e+001  5.521835e+001 
3256250000  -4.019410e+001  4.380708e+001 
3259375000  -4.098061e+001  3.139946e+001 
3262500000  -4.243663e+001  2.587097e+001 
3265625000  -4.265936e+001  2.664294e+001 
3268750000  -4.252137e+001  2.589886e+001 
3271875000  -4.153570e+001  2.083638e+001 
3275000000  -4.101096e+001  9.764041e+000 
3278125000  -4.181853e+001  2.901555e+000 
3281250000  -4.166690e+001  -1.718148e+000 
3284375000  -4.096437e+001  -7.878911e+000 
3287500000  -4.133747e+001  -1.527002e+001 
3290625000  -4.147303e+001  -2.698310e+001 
3293750000  -4.131565e+001  -3.466600e+001 
3296875000  -4.258067e+001  -3.796041e+001 
3300000000  -4.203742e+001  -4.130530e+001 
3303125000  -4.079486e+001  -5.014878e+001 
3306250000  -4.101132e+001  -6.082853e+001 
3309375000  -4.065181e+001  -7.101681e+001 
3312500000  -4.098915e+001  -8.560381e+001 
3315625000  -4.236363e+001  -9.431969e+001 
3318750000  -4.390862e+001  -1.020329e+002 
3321875000  -4.541039e+001  -1.001151e+002 
3325000000  -4.517669e+001  -9.620570e+001 
3328125000  -4.396933e+001  -9.910542e+001 
3331250000  -4.231542e+001  -9.858635e+001 
3334375000  -4.000377e+001  -1.170145e+002 
3337500000  -4.080160e+001  -1.408599e+002 
3340625000  -4.268414e+001  -1.521700e+002 
3343750000  -4.465002e+001  -1.532866e+002 
3346875000  -4.404457e+001  -1.560372e+002 
3350000000  -4.377644e+001  -1.606898e+002 
3353125000  -4.357750e+001  -1.714801e+002 
3356250000  -4.323271e+001  1.798547e+002 
3359375000  -4.430298e+001  1.645886e+002 
3362500000  -4.516965e+001  1.580176e+002 
3365625000  -4.584260e+001  1.495931e+002 
3368750000  -4.641042e+001  1.465188e+002 
3371875000  -4.672802e+001  1.408013e+002 
3375000000  -4.823779e+001  1.356690e+002 
3378125000  -4.868341e+001  1.343765e+002 
3381250000  -5.031007e+001  1.423114e+002 
3384375000  -4.713797e+001  1.534536e+002 
3387500000  -4.459170e+001  1.282298e+002 
3390625000  -4.666166e+001  1.062116e+002 
3393750000  -4.756643e+001  1.058774e+002 
3396875000  -4.596786e+001  1.022830e+002 
3400000000  -4.625384e+001  8.848993e+001 
3403125000  -4.668867e+001  7.844724e+001 
3406250000  -4.719426e+001  6.788159e+001 
3409375000  -4.664169e+001  5.941392e+001 
3412500000  -4.785580e+001  5.497532e+001 
3415625000  -4.908347e+001  5.040397e+001 
3418750000  -4.860245e+001  4.504255e+001 
3421875000  -4.917203e+001  3.974449e+001 
3425000000  -4.778065e+001  3.329292e+001 
3428125000  -4.763553e+001  2.906875e+001 
3431250000  -4.678293e+001  1.382413e+001 
3434375000  -4.711554e+001  1.194335e+000 
3437500000  -4.733824e+001  -4.233434e+000 
3440625000  -4.792885e+001  -9.856219e+000 
3443750000  -4.655029e+001  -1.086602e+001 
3446875000  -4.579208e+001  -2.699882e+001 
3450000000  -4.515378e+001  -4.165760e+001 
3453125000  -4.582269e+001  -6.105073e+001 
3456250000  -4.717907e+001  -6.726167e+001 
3459375000  -4.827010e+001  -7.406427e+001 
3462500000  -4.808023e+001  -7.867628e+001 
3465625000  -4.700358e+001  -8.968264e+001 
3468750000  -4.791610e+001  -9.663998e+001 
3471875000  -4.675081e+001  -1.034921e+002 
3475000000  -4.669882e+001  -1.170781e+002 
3478125000  -4.743573e+001  -1.308498e+002 
3481250000  -4.883867e+001  -1.334674e+002 
3484375000  -4.849807e+001  -1.361565e+002 
3487500000  -4.779435e+001  -1.426995e+002 
3490625000  -4.751098e+001  -1.529941e+002 
3493750000  -4.777792e+001  -1.671331e+002 
3496875000  -4.836802e+001  -1.656166e+002 
3500000000  -4.866096e+001  -1.703932e+002 
3503125000  -4.720063e+001  -1.749573e+002 
3506250000  -4.548191e+001  1.674114e+002 
3509375000  -4.581493e+001  1.527775e+002 
3512500000  -4.615599e+001  1.340558e+002 
3515625000  -4.743549e+001  1.316442e+002 
3518750000  -4.783407e+001  1.317105e+002 
3521875000  -4.770375e+001  1.173117e+002 
3525000000  -4.864518e+001  1.187476e+002 
3528125000  -4.738456e+001  1.164953e+002 
3531250000  -4.647219e+001  1.032925e+002 
3534375000  -4.672016e+001  9.009426e+001 
3537500000  -4.776328e+001  7.875069e+001 
3540625000  -4.858041e+001  7.466966e+001 
3543750000  -4.945196e+001  7.964736e+001 
3546875000  -4.892423e+001  8.167195e+001 
3550000000  -4.616385e+001  7.092950e+001 
3553125000  -4.623647e+001  5.394161e+001 
3556250000  -4.736281e+001  4.804013e+001 
3559375000  -4.633448e+001  4.270968e+001 
3562500000  -4.618409e+001  3.213826e+001 
3565625000  -4.743115e+001  2.253216e+001 
3568750000  -4.813416e+001  1.939217e+001 
3571875000  -4.751536e+001  2.111360e+001 
3575000000  -4.702507e+001  6.765180e+000 
3578125000  -4.741776e+001  1.082180e+001 
3581250000  -4.752295e+001  6.403631e+000 
3584375000  -4.639285e+001  -4.803037e+000 
3587500000  -4.579979e+001  -1.637204e+001 
3590625000  -4.657474e+001  -2.639728e+001 
3593750000  -4.794028e+001  -2.624732e+001 
3596875000  -4.654233e+001  -2.191812e+001 
3600000000  -4.462791e+001  -3.288792e+001 
3603125000  -4.506636e+001  -4.910582e+001 
3606250000  -4.577278e+001  -5.369370e+001 
3609375000  -4.599528e+001  -5.818186e+001 
3612500000  -4.568516e+001  -6.539301e+001 
3615625000  -4.591003e+001  -7.077949e+001 
3618750000  -4.622339e+001  -7.191194e+001 
3621875000  -4.593719e+001  -7.664255e+001 
3625000000  -4.568784e+001  -8.266629e+001 
3628125000  -4.502522e+001  -8.886028e+001 
3631250000  -4.475641e+001  -9.858693e+001 
3634375000  -4.536672e+001  -9.841972e+001 
3637500000  -4.441558e+001  -9.993214e+001 
3640625000  -4.357781e+001  -1.085612e+002 
3643750000  -4.327089e+001  -1.184943e+002 
3646875000  -4.377164e+001  -1.297677e+002 
3650000000  -4.376167e+001  -1.356284e+002 
3653125000  -4.305585e+001  -1.432843e+002 
3656250000  -4.369213e+001  -1.492572e+002 
3659375000  -4.378910e+001  -1.553208e+002 
3662500000  -4.337859e+001  -1.612379e+002 
3665625000  -4.327716e+001  -1.644048e+002 
3668750000  -4.196709e+001  -1.683291e+002 
3671875000  -4.158031e+001  1.771180e+002 
3675000000  -4.199701e+001  1.687791e+002 
3678125000  -4.259409e+001  1.618955e+002 
3681250000  -4.224658e+001  1.558380e+002 
3684375000  -4.267215e+001  1.474732e+002 
3687500000  -4.292088e+001  1.401847e+002 
3690625000  -4.336944e+001  1.337065e+002 
3693750000  -4.421189e+001  1.328759e+002 
3696875000  -4.410429e+001  1.290356e+002 
3700000000  -4.284692e+001  1.202784e+002 
3703125000  -4.372882e+001  1.125228e+002 
3706250000  -4.497126e+001  1.102578e+002 
3709375000  -4.388264e+001  1.099980e+002 
3712500000  -4.285252e+001  1.053507e+002 
3715625000  -4.155876e+001  9.319546e+001 
3718750000  -4.172722e+001  8.369131e+001 
3721875000  -4.170783e+001  7.539361e+001 
3725000000  -4.251183e+001  6.732100e+001 
3728125000  -4.258091e+001  6.441310e+001 
3731250000  -4.197374e+001  5.973273e+001 
3734375000  -4.200857e+001  5.241731e+001 
3737500000  -4.282748e+001  3.924921e+001 
3740625000  -4.288485e+001  3.330779e+001 
3743750000  -4.294269e+001  2.882213e+001 
3746875000  -4.353336e+001  2.542395e+001 
3750000000  -4.358549e+001  2.012721e+001 
3753125000  -4.357059e+001  1.647983e+001 
3756250000  -4.368629e+001  1.335952e+001 
3759375000  -4.355138e+001  6.693794e+000 
3762500000  -4.339512e+001  2.791083e+000 
3765625000  -4.389155e+001  -4.922776e+000 
3768750000  -4.333255e+001  -6.562632e-001 
3771875000  -4.213279e+001  -9.865819e+000 
3775000000  -4.220609e+001  -2.170084e+001 
3778125000  -4.270354e+001  -2.518279e+001 
3781250000  -4.234938e+001  -2.959268e+001 
3784375000  -4.271661e+001  -3.718747e+001 
3787500000  -4.228068e+001  -4.090667e+001 
3790625000  -4.253516e+001  -5.309945e+001 
3793750000  -4.256343e+001  -5.630619e+001 
3796875000  -4.152586e+001  -6.099147e+001 
3800000000  -4.062764e+001  -6.793256e+001 
3803125000  -4.179387e+001  -7.889854e+001 
3806250000  -4.239502e+001  -8.485520e+001 
3809375000  -4.183369e+001  -9.097836e+001 
3812500000  -4.177448e+001  -1.017998e+002 
3815625000  -4.289993e+001  -1.103328e+002 
3818750000  -4.462503e+001  -1.093272e+002 
3821875000  -4.343058e+001  -9.644313e+001 
3825000000  -4.169411e+001  -1.069944e+002 
3828125000  -4.033062e+001  -1.258290e+002 
3831250000  -4.163414e+001  -1.407823e+002 
3834375000  -4.392850e+001  -1.424852e+002 
3837500000  -4.398267e+001  -1.381572e+002 
3840625000  -4.260030e+001  -1.439892e+002 
3843750000  -4.154585e+001  -1.589207e+002 
3846875000  -4.332866e+001  -1.688822e+002 
3850000000  -4.425484e+001  -1.614688e+002 
3853125000  -4.353585e+001  -1.594996e+002 
3856250000  -4.297083e+001  -1.694754e+002 
3859375000  -4.207261e+001  1.784234e+002 
3862500000  -4.237169e+001  1.697729e+002 
3865625000  -4.260163e+001  1.630598e+002 
3868750000  -4.200678e+001  1.613145e+002 
3871875000  -4.180349e+001  1.517037e+002 
3875000000  -4.252920e+001  1.427235e+002 
3878125000  -4.338808e+001  1.401879e+002 
3881250000  -4.329146e+001  1.367645e+002 
3884375000  -4.253522e+001  1.295413e+002 
3887500000  -4.323364e+001  1.226378e+002 
3890625000  -4.405832e+001  1.176292e+002 
3893750000  -4.408839e+001  1.141057e+002 
3896875000  -4.428077e+001  1.134073e+002 
3900000000  -4.435432e+001  1.061240e+002 
3903125000  -4.364737e+001  1.003710e+002 
3906250000  -4.309879e+001  9.683808e+001 
3909375000  -4.289013e+001  8.939960e+001 
3912500000  -4.380501e+001  8.002712e+001 
3915625000  -4.448687e+001  7.828201e+001 
3918750000  -4.445072e+001  7.785886e+001 
3921875000  -4.394075e+001  7.361134e+001 
3925000000  -4.319115e+001  6.606209e+001 
3928125000  -4.289949e+001  5.864316e+001 
3931250000  -4.362675e+001  4.739182e+001 
3934375000  -4.391993e+001  4.596452e+001 
3937500000  -4.439980e+001  4.288003e+001 
3940625000  -4.470237e+001  4.200737e+001 
3943750000  -4.334298e+001  3.513739e+001 
3946875000  -4.271351e+001  2.922462e+001 
3950000000  -4.357362e+001  1.761469e+001 
3953125000  -4.463577e+001  2.070477e+001 
3956250000  -4.289580e+001  1.897009e+001 
3959375000  -4.188341e+001  1.269398e+001 
3962500000  -4.151830e+001  3.428725e+000 
3965625000  -4.179141e+001  -1.057885e+001 
3968750000  -4.286781e+001  -1.682168e+001 
3971875000  -4.230911e+001  -2.230092e+001 
3975000000  -4.196577e+001  -2.611394e+001 
3978125000  -4.221511e+001  -3.354927e+001 
3981250000  -4.189175e+001  -4.080027e+001 
3984375000  -4.250310e+001  -4.734997e+001 
3987500000  -4.310992e+001  -5.095070e+001 
3990625000  -4.330247e+001  -5.752673e+001 
3993750000  -4.297908e+001  -6.159484e+001 
3996875000  -4.285022e+001  -7.020711e+001 
4000000000  -4.374496e+001  -7.331757e+001 
4003125000  -4.401553e+001  -7.122428e+001 
4006250000  -4.161768e+001  -7.873120e+001 
4009375000  -4.109313e+001  -9.610911e+001 
4012500000  -4.256136e+001  -1.039077e+002 
4015625000  -4.386911e+001  -1.060273e+002 
4018750000  -4.372581e+001  -1.066631e+002 
4021875000  -4.307665e+001  -1.174752e+002 
4025000000  -4.327626e+001  -1.227528e+002 
4028125000  -4.345615e+001  -1.286684e+002 
4031250000  -4.413802e+001  -1.384531e+002 
4034375000  -4.386281e+001  -1.387207e+002 
4037500000  -4.424057e+001  -1.426224e+002 
4040625000  -4.430449e+001  -1.465797e+002 
4043750000  -4.459826e+001  -1.500927e+002 
4046875000  -4.426300e+001  -1.572203e+002 
4050000000  -4.429196e+001  -1.623890e+002 
4053125000  -4.533322e+001  -1.675587e+002 
4056250000  -4.581172e+001  -1.673194e+002 
4059375000  -4.372406e+001  -1.656484e+002 
4062500000  -4.319001e+001  -1.721316e+002 
4065625000  -4.328740e+001  1.789470e+002 
4068750000  -4.254571e+001  1.708470e+002 
4071875000  -4.257369e+001  1.603963e+002 
4075000000  -4.346367e+001  1.528128e+002 
4078125000  -4.401286e+001  1.505404e+002 
4081250000  -4.338688e+001  1.455267e+002 
4084375000  -4.304330e+001  1.377757e+002 
4087500000  -4.393376e+001  1.314518e+002 
4090625000  -4.462451e+001  1.279116e+002 
4093750000  -4.473332e+001  1.265340e+002 
4096875000  -4.432673e+001  1.151038e+002 
4100000000  -4.553366e+001  1.085340e+002 
4103125000  -4.562774e+001  1.160491e+002 
4106250000  -4.524845e+001  1.111017e+002 
4109375000  -4.394457e+001  1.076337e+002 
4112500000  -4.391192e+001  9.979015e+001 
4115625000  -4.428904e+001  9.408193e+001 
4118750000  -4.400461e+001  8.935725e+001 
4121875000  -4.380758e+001  8.135291e+001 
4125000000  -4.450226e+001  7.668871e+001 
4128125000  -4.481785e+001  7.993419e+001 
4131250000  -4.396053e+001  8.113686e+001 
4134375000  -4.163114e+001  6.910900e+001 
4137500000  -4.199220e+001  4.804031e+001 
4140625000  -4.389240e+001  4.149220e+001 
4143750000  -4.462245e+001  4.664921e+001 
4146875000  -4.383061e+001  4.917453e+001 
4150000000  -4.258342e+001  3.738617e+001 
4153125000  -4.315623e+001  2.911558e+001 
4156250000  -4.378934e+001  2.566237e+001 
4159375000  -4.358509e+001  2.745199e+001 
4162500000  -4.220299e+001  2.510306e+001 
4165625000  -4.136906e+001  1.527973e+001 
4168750000  -4.105176e+001  3.221491e+000 
4171875000  -4.143166e+001  -6.798371e+000 
4175000000  -4.184653e+001  -1.556296e+001 
4178125000  -4.216573e+001  -1.678164e+001 
4181250000  -4.184660e+001  -2.542546e+001 
4184375000  -4.269639e+001  -3.262772e+001 
4187500000  -4.257012e+001  -4.004197e+001 
4190625000  -4.291684e+001  -4.719197e+001 
4193750000  -4.391773e+001  -5.128722e+001 
4196875000  -4.454171e+001  -5.186263e+001 
4200000000  -4.608733e+001  -5.134581e+001 
4203125000  -4.420862e+001  -3.806885e+001 
4206250000  -4.123246e+001  -4.930737e+001 
4209375000  -4.131842e+001  -7.471712e+001 
4212500000  -4.367784e+001  -7.905915e+001 
4215625000  -4.429533e+001  -7.267590e+001 
4218750000  -4.216552e+001  -7.460695e+001 
4221875000  -4.087814e+001  -8.457697e+001 
4225000000  -4.170341e+001  -9.636575e+001 
4228125000  -4.244139e+001  -9.583210e+001 
4231250000  -4.095103e+001  -1.044636e+002 
4234375000  -4.077093e+001  -1.155752e+002 
4237500000  -4.071878e+001  -1.201527e+002 
4240625000  -4.109644e+001  -1.305868e+002 
4243750000  -4.202418e+001  -1.385833e+002 
4246875000  -4.296684e+001  -1.406711e+002 
4250000000  -4.255121e+001  -1.402723e+002 
4253125000  -4.241950e+001  -1.455044e+002 
4256250000  -4.250597e+001  -1.513354e+002 
4259375000  -4.211166e+001  -1.572839e+002 
4262500000  -4.246448e+001  -1.565009e+002 
4265625000  -4.208593e+001  -1.624776e+002 
4268750000  -4.075527e+001  -1.709646e+002 
4271875000  -4.072759e+001  1.787039e+002 
4275000000  -4.006273e+001  1.690559e+002 
4278125000  -4.143090e+001  1.575800e+002 
4281250000  -4.243790e+001  1.531132e+002 
4284375000  -4.227748e+001  1.505940e+002 
4287500000  -4.382901e+001  1.484634e+002 
4290625000  -4.380021e+001  1.548588e+002 
4293750000  -4.135228e+001  1.545843e+002 
4296875000  -4.018655e+001  1.396775e+002 
4300000000  -4.102821e+001  1.296985e+002 
4303125000  -4.204649e+001  1.298636e+002 
4306250000  -4.078570e+001  1.266921e+002 
4309375000  -3.983760e+001  1.199769e+002 
4312500000  -3.946444e+001  1.083261e+002 
4315625000  -4.040205e+001  9.667927e+001 
4318750000  -4.081111e+001  9.326331e+001 
4321875000  -4.068439e+001  9.039844e+001 
4325000000  -3.997002e+001  8.574345e+001 
4328125000  -3.954117e+001  7.311890e+001 
4331250000  -3.972327e+001  6.308826e+001 
4334375000  -4.069668e+001  5.602118e+001 
4337500000  -4.178384e+001  5.038951e+001 
4340625000  -4.229703e+001  5.641595e+001 
4343750000  -4.088926e+001  5.144548e+001 
4346875000  -4.076496e+001  4.036819e+001 
4350000000  -4.080371e+001  3.222131e+001 
4353125000  -4.173338e+001  2.395463e+001 
4356250000  -4.402753e+001  2.679708e+001 
4359375000  -4.241728e+001  4.136637e+001 
4362500000  -3.952043e+001  2.713795e+001 
4365625000  -3.918631e+001  1.136735e+001 
4368750000  -4.011606e+001  -2.514030e-001 
4371875000  -4.152263e+001  -1.540633e+000 
4375000000  -4.071882e+001  -5.484197e+000 
4378125000  -4.048487e+001  -1.509869e+001 
4381250000  -4.051329e+001  -2.479099e+001 
4384375000  -4.039095e+001  -3.053477e+001 
4387500000  -4.174479e+001  -3.821576e+001 
4390625000  -4.221431e+001  -4.007206e+001 
4393750000  -4.187537e+001  -4.145859e+001 
4396875000  -4.125290e+001  -4.767292e+001 
4400000000  -4.040967e+001  -5.505233e+001 
4403125000  -4.182589e+001  -6.434867e+001 
4406250000  -4.209177e+001  -6.864757e+001 
4409375000  -4.270624e+001  -7.623334e+001 
4412500000  -4.301962e+001  -7.623126e+001 
4415625000  -4.317619e+001  -7.232595e+001 
4418750000  -4.161481e+001  -7.550658e+001 
