!Agilent Technologies,E8363B,MY43030201,A.06.04.32
!Agilent E8363B: A.06.04.32
!Date: Tuesday, November 11, 2014 21:51:31
!Correction: S21(Response(S21)) 
!S1P File: Measurement: S21:
# Hz S  dB   R 50
3000000000  -4.379546e+001  -1.618285e+002 
3003125000  -4.562881e+001  -1.683458e+002 
3006250000  -4.544719e+001  -1.692380e+002 
3009375000  -4.601749e+001  -1.649121e+002 
3012500000  -4.492481e+001  -1.741636e+002 
3015625000  -4.527744e+001  -1.792237e+002 
3018750000  -4.556675e+001  -1.780070e+002 
3021875000  -4.391663e+001  -1.798171e+002 
3025000000  -4.254650e+001  1.768172e+002 
3028125000  -4.172355e+001  1.641273e+002 
3031250000  -4.099502e+001  1.502423e+002 
3034375000  -4.072487e+001  1.371675e+002 
3037500000  -4.168947e+001  1.263150e+002 
3040625000  -4.294561e+001  1.200259e+002 
3043750000  -4.331956e+001  1.134346e+002 
3046875000  -4.394358e+001  1.057299e+002 
3050000000  -4.546161e+001  1.013972e+002 
3053125000  -4.476363e+001  1.039429e+002 
3056250000  -4.478857e+001  1.075062e+002 
3059375000  -4.382499e+001  1.030986e+002 
3062500000  -4.263121e+001  9.888470e+001 
3065625000  -4.237096e+001  8.603349e+001 
3068750000  -4.193266e+001  7.956958e+001 
3071875000  -4.199812e+001  7.733868e+001 
3075000000  -4.114787e+001  6.930518e+001 
3078125000  -4.131735e+001  6.246128e+001 
3081250000  -4.146067e+001  5.443766e+001 
3084375000  -4.053104e+001  5.090224e+001 
3087500000  -4.055167e+001  4.224627e+001 
3090625000  -4.003756e+001  2.933387e+001 
3093750000  -4.105421e+001  2.135476e+001 
3096875000  -4.124071e+001  1.479314e+001 
3100000000  -4.124519e+001  1.097555e+001 
3103125000  -4.134847e+001  6.537597e+000 
3106250000  -4.104247e+001  6.878594e-001 
3109375000  -4.116124e+001  -4.806192e+000 
3112500000  -4.077293e+001  -1.158144e+001 
3115625000  -4.090268e+001  -1.778329e+001 
3118750000  -4.086352e+001  -2.231817e+001 
3121875000  -4.030833e+001  -3.497251e+001 
3125000000  -4.204017e+001  -3.807787e+001 
3128125000  -4.199220e+001  -3.143423e+001 
3131250000  -3.954379e+001  -4.013454e+001 
3134375000  -3.900238e+001  -5.692985e+001 
3137500000  -3.963751e+001  -6.937791e+001 
3140625000  -4.098330e+001  -7.387319e+001 
3143750000  -4.163816e+001  -8.045538e+001 
3146875000  -4.095314e+001  -7.758015e+001 
3150000000  -4.045640e+001  -8.250623e+001 
3153125000  -4.101360e+001  -9.249623e+001 
3156250000  -4.128345e+001  -9.028132e+001 
3159375000  -3.912255e+001  -9.325692e+001 
3162500000  -3.762946e+001  -1.093043e+002 
3165625000  -3.896446e+001  -1.239669e+002 
3168750000  -3.893499e+001  -1.244510e+002 
3171875000  -3.862506e+001  -1.350618e+002 
3175000000  -3.912854e+001  -1.437616e+002 
3178125000  -3.862732e+001  -1.465651e+002 
3181250000  -3.817965e+001  -1.557933e+002 
3184375000  -3.794273e+001  -1.678754e+002 
3187500000  -3.913496e+001  1.759519e+002 
3190625000  -4.083409e+001  1.693177e+002 
3193750000  -4.113244e+001  1.741725e+002 
3196875000  -4.086953e+001  1.720963e+002 
3200000000  -3.981152e+001  1.678162e+002 
3203125000  -3.966586e+001  1.585010e+002 
3206250000  -3.978005e+001  1.498489e+002 
3209375000  -3.949348e+001  1.417781e+002 
3212500000  -3.993888e+001  1.348672e+002 
3215625000  -3.977335e+001  1.322465e+002 
3218750000  -4.010131e+001  1.190734e+002 
3221875000  -4.055294e+001  1.125467e+002 
3225000000  -4.031854e+001  1.060953e+002 
3228125000  -4.100872e+001  1.001866e+002 
3231250000  -4.134266e+001  9.580961e+001 
3234375000  -4.101050e+001  9.284955e+001 
3237500000  -4.086615e+001  8.773083e+001 
3240625000  -4.027587e+001  8.214787e+001 
3243750000  -4.038038e+001  7.094520e+001 
3246875000  -4.050795e+001  6.338366e+001 
3250000000  -4.115248e+001  5.675864e+001 
3253125000  -4.127338e+001  5.362533e+001 
3256250000  -4.033994e+001  4.448038e+001 
3259375000  -4.089552e+001  3.051786e+001 
3262500000  -4.226501e+001  2.629774e+001 
3265625000  -4.273575e+001  2.708446e+001 
3268750000  -4.253973e+001  2.534210e+001 
3271875000  -4.141325e+001  1.970741e+001 
3275000000  -4.109993e+001  8.169793e+000 
3278125000  -4.170586e+001  3.089412e+000 
3281250000  -4.170681e+001  -1.560870e+000 
3284375000  -4.083571e+001  -9.809566e+000 
3287500000  -4.144142e+001  -1.647213e+001 
3290625000  -4.137844e+001  -2.658685e+001 
3293750000  -4.155371e+001  -3.540602e+001 
3296875000  -4.279737e+001  -3.837791e+001 
3300000000  -4.203562e+001  -4.051292e+001 
3303125000  -4.059171e+001  -5.069365e+001 
3306250000  -4.071859e+001  -6.200997e+001 
3309375000  -4.041214e+001  -7.181901e+001 
3312500000  -4.115989e+001  -8.742474e+001 
3315625000  -4.228377e+001  -9.544035e+001 
3318750000  -4.416082e+001  -1.015436e+002 
3321875000  -4.519591e+001  -1.016607e+002 
3325000000  -4.508607e+001  -9.770972e+001 
3328125000  -4.434860e+001  -9.956229e+001 
3331250000  -4.250494e+001  -1.000452e+002 
3334375000  -4.029480e+001  -1.189199e+002 
3337500000  -4.086636e+001  -1.411996e+002 
3340625000  -4.287819e+001  -1.513236e+002 
3343750000  -4.459449e+001  -1.532540e+002 
3346875000  -4.394262e+001  -1.581094e+002 
3350000000  -4.365330e+001  -1.629001e+002 
3353125000  -4.329155e+001  -1.719915e+002 
3356250000  -4.304311e+001  1.792349e+002 
3359375000  -4.394096e+001  1.658695e+002 
3362500000  -4.494951e+001  1.572754e+002 
3365625000  -4.542018e+001  1.505470e+002 
3368750000  -4.630053e+001  1.465992e+002 
3371875000  -4.689458e+001  1.409760e+002 
3375000000  -4.884516e+001  1.292460e+002 
3378125000  -4.902192e+001  1.303162e+002 
3381250000  -5.108215e+001  1.453731e+002 
3384375000  -4.741834e+001  1.514946e+002 
3387500000  -4.442056e+001  1.305764e+002 
3390625000  -4.668349e+001  1.062506e+002 
3393750000  -4.775121e+001  1.049970e+002 
3396875000  -4.672569e+001  1.014157e+002 
3400000000  -4.616378e+001  8.339439e+001 
3403125000  -4.676701e+001  7.790788e+001 
3406250000  -4.764017e+001  7.213759e+001 
3409375000  -4.733280e+001  6.081530e+001 
3412500000  -4.762734e+001  5.361763e+001 
3415625000  -4.804891e+001  4.792276e+001 
3418750000  -4.871383e+001  4.455571e+001 
3421875000  -4.895615e+001  4.158449e+001 
3425000000  -4.806141e+001  3.479770e+001 
3428125000  -4.684027e+001  2.584038e+001 
3431250000  -4.702428e+001  1.269775e+001 
3434375000  -4.701976e+001  3.334191e+000 
3437500000  -4.771410e+001  -4.384753e+000 
3440625000  -4.790500e+001  -8.772560e+000 
3443750000  -4.611378e+001  -1.390696e+001 
3446875000  -4.630934e+001  -2.751202e+001 
3450000000  -4.582467e+001  -4.375297e+001 
3453125000  -4.582363e+001  -6.123936e+001 
3456250000  -4.768943e+001  -7.242997e+001 
3459375000  -4.833116e+001  -7.000926e+001 
3462500000  -4.795745e+001  -7.741843e+001 
3465625000  -4.764590e+001  -9.021921e+001 
3468750000  -4.776247e+001  -9.371616e+001 
3471875000  -4.732364e+001  -1.052180e+002 
3475000000  -4.733510e+001  -1.174292e+002 
3478125000  -4.768766e+001  -1.324064e+002 
3481250000  -4.913387e+001  -1.355057e+002 
3484375000  -4.865740e+001  -1.348900e+002 
3487500000  -4.779169e+001  -1.430313e+002 
3490625000  -4.699350e+001  -1.530959e+002 
3493750000  -4.809509e+001  -1.672486e+002 
3496875000  -4.840741e+001  -1.713765e+002 
3500000000  -4.815304e+001  -1.750098e+002 
3503125000  -4.755959e+001  -1.784396e+002 
3506250000  -4.581960e+001  1.691929e+002 
3509375000  -4.578278e+001  1.523667e+002 
3512500000  -4.623552e+001  1.377854e+002 
3515625000  -4.728806e+001  1.302009e+002 
3518750000  -4.795042e+001  1.278662e+002 
3521875000  -4.790931e+001  1.177456e+002 
3525000000  -4.855909e+001  1.155047e+002 
3528125000  -4.742277e+001  1.167980e+002 
3531250000  -4.667345e+001  1.040313e+002 
3534375000  -4.643986e+001  8.672902e+001 
3537500000  -4.828576e+001  7.934552e+001 
3540625000  -4.888276e+001  7.589970e+001 
3543750000  -4.923446e+001  7.753060e+001 
3546875000  -4.838390e+001  8.384370e+001 
3550000000  -4.646376e+001  7.532637e+001 
3553125000  -4.605302e+001  5.281524e+001 
3556250000  -4.780931e+001  4.176127e+001 
3559375000  -4.660831e+001  3.955024e+001 
3562500000  -4.632509e+001  2.983417e+001 
3565625000  -4.777189e+001  1.984569e+001 
3568750000  -4.798011e+001  1.916132e+001 
3571875000  -4.715821e+001  1.834279e+001 
3575000000  -4.715437e+001  9.358831e+000 
3578125000  -4.803060e+001  3.471489e+000 
3581250000  -4.737744e+001  4.113969e+000 
3584375000  -4.613110e+001  -6.202375e+000 
3587500000  -4.551793e+001  -1.549138e+001 
3590625000  -4.641123e+001  -2.650514e+001 
3593750000  -4.822392e+001  -2.547572e+001 
3596875000  -4.667109e+001  -2.083259e+001 
3600000000  -4.484317e+001  -3.666283e+001 
3603125000  -4.510799e+001  -4.923245e+001 
3606250000  -4.621645e+001  -5.635511e+001 
3609375000  -4.599964e+001  -5.944612e+001 
3612500000  -4.603226e+001  -6.768858e+001 
3615625000  -4.612094e+001  -7.020343e+001 
3618750000  -4.614228e+001  -7.187090e+001 
3621875000  -4.562766e+001  -7.943809e+001 
3625000000  -4.565735e+001  -8.207361e+001 
3628125000  -4.489589e+001  -9.070706e+001 
3631250000  -4.508249e+001  -9.987479e+001 
3634375000  -4.556293e+001  -9.927020e+001 
3637500000  -4.450330e+001  -1.001209e+002 
3640625000  -4.363883e+001  -1.095341e+002 
3643750000  -4.329870e+001  -1.208421e+002 
3646875000  -4.368853e+001  -1.294126e+002 
3650000000  -4.401395e+001  -1.373604e+002 
3653125000  -4.317029e+001  -1.442684e+002 
3656250000  -4.417319e+001  -1.513231e+002 
3659375000  -4.417966e+001  -1.528839e+002 
3662500000  -4.353543e+001  -1.601451e+002 
3665625000  -4.332957e+001  -1.650381e+002 
3668750000  -4.197793e+001  -1.700021e+002 
3671875000  -4.171998e+001  1.768277e+002 
3675000000  -4.222797e+001  1.664632e+002 
3678125000  -4.266431e+001  1.612505e+002 
3681250000  -4.212098e+001  1.574559e+002 
3684375000  -4.273043e+001  1.457259e+002 
3687500000  -4.285384e+001  1.364182e+002 
3690625000  -4.379437e+001  1.301979e+002 
3693750000  -4.422562e+001  1.291106e+002 
3696875000  -4.377829e+001  1.286870e+002 
3700000000  -4.288989e+001  1.199106e+002 
3703125000  -4.390534e+001  1.132883e+002 
3706250000  -4.444677e+001  1.092358e+002 
3709375000  -4.378658e+001  1.106970e+002 
3712500000  -4.281671e+001  1.034982e+002 
3715625000  -4.183434e+001  9.296928e+001 
3718750000  -4.143589e+001  8.476788e+001 
3721875000  -4.183589e+001  7.482596e+001 
3725000000  -4.221745e+001  6.860386e+001 
3728125000  -4.212950e+001  6.488544e+001 
3731250000  -4.180735e+001  5.736024e+001 
3734375000  -4.188940e+001  5.024427e+001 
3737500000  -4.280078e+001  4.110792e+001 
3740625000  -4.309652e+001  3.596085e+001 
3743750000  -4.284975e+001  3.035197e+001 
3746875000  -4.306943e+001  2.347578e+001 
3750000000  -4.367850e+001  1.733860e+001 
3753125000  -4.387210e+001  1.458093e+001 
3756250000  -4.344853e+001  1.275591e+001 
3759375000  -4.327548e+001  6.717949e+000 
3762500000  -4.358529e+001  1.224345e+000 
3765625000  -4.396144e+001  -6.559098e+000 
3768750000  -4.363061e+001  -4.885873e+000 
3771875000  -4.228476e+001  -8.054304e+000 
3775000000  -4.213355e+001  -2.030696e+001 
3778125000  -4.288144e+001  -2.782363e+001 
3781250000  -4.240184e+001  -3.076179e+001 
3784375000  -4.250492e+001  -3.883785e+001 
3787500000  -4.199385e+001  -4.431823e+001 
3790625000  -4.286262e+001  -5.287290e+001 
3793750000  -4.231352e+001  -5.536173e+001 
3796875000  -4.148038e+001  -6.123188e+001 
3800000000  -4.059008e+001  -7.014965e+001 
3803125000  -4.174165e+001  -7.983353e+001 
3806250000  -4.243751e+001  -8.569638e+001 
3809375000  -4.189596e+001  -9.068045e+001 
3812500000  -4.173518e+001  -9.997403e+001 
3815625000  -4.292867e+001  -1.111461e+002 
3818750000  -4.434374e+001  -1.131864e+002 
3821875000  -4.357852e+001  -9.991075e+001 
3825000000  -4.119044e+001  -1.073201e+002 
3828125000  -4.032257e+001  -1.261127e+002 
3831250000  -4.137766e+001  -1.432151e+002 
3834375000  -4.359622e+001  -1.442233e+002 
3837500000  -4.405468e+001  -1.406021e+002 
3840625000  -4.229281e+001  -1.473998e+002 
3843750000  -4.186366e+001  -1.611889e+002 
3846875000  -4.319840e+001  -1.712945e+002 
3850000000  -4.426883e+001  -1.630505e+002 
3853125000  -4.371725e+001  -1.665131e+002 
3856250000  -4.254578e+001  -1.721648e+002 
3859375000  -4.233417e+001  1.788822e+002 
3862500000  -4.216955e+001  1.681071e+002 
3865625000  -4.256614e+001  1.621765e+002 
3868750000  -4.212873e+001  1.610292e+002 
3871875000  -4.169843e+001  1.517613e+002 
3875000000  -4.223761e+001  1.402382e+002 
3878125000  -4.328920e+001  1.381538e+002 
3881250000  -4.364091e+001  1.357130e+002 
3884375000  -4.267362e+001  1.267603e+002 
3887500000  -4.314964e+001  1.201624e+002 
3890625000  -4.387488e+001  1.146885e+002 
3893750000  -4.410017e+001  1.143180e+002 
3896875000  -4.430084e+001  1.100203e+002 
3900000000  -4.403668e+001  1.073270e+002 
3903125000  -4.339249e+001  9.853763e+001 
3906250000  -4.372387e+001  9.494556e+001 
3909375000  -4.246877e+001  8.619735e+001 
3912500000  -4.364054e+001  7.555663e+001 
3915625000  -4.513464e+001  7.586587e+001 
3918750000  -4.423552e+001  7.430902e+001 
3921875000  -4.387008e+001  7.263478e+001 
3925000000  -4.292445e+001  6.555541e+001 
3928125000  -4.274872e+001  5.573351e+001 
3931250000  -4.380788e+001  4.869216e+001 
3934375000  -4.365165e+001  4.422868e+001 
3937500000  -4.452967e+001  4.110379e+001 
3940625000  -4.420377e+001  4.167084e+001 
3943750000  -4.298400e+001  3.670734e+001 
3946875000  -4.288859e+001  2.781548e+001 
3950000000  -4.383677e+001  1.960002e+001 
3953125000  -4.459483e+001  2.022849e+001 
3956250000  -4.317053e+001  2.094201e+001 
3959375000  -4.186750e+001  1.272415e+001 
3962500000  -4.147467e+001  1.163171e+000 
3965625000  -4.177123e+001  -1.023262e+001 
3968750000  -4.260254e+001  -1.930339e+001 
3971875000  -4.237811e+001  -2.292002e+001 
3975000000  -4.183919e+001  -2.857717e+001 
3978125000  -4.199581e+001  -3.428967e+001 
3981250000  -4.171696e+001  -4.334434e+001 
3984375000  -4.260069e+001  -5.058014e+001 
3987500000  -4.294831e+001  -5.297655e+001 
3990625000  -4.303831e+001  -5.849123e+001 
3993750000  -4.295811e+001  -6.603371e+001 
3996875000  -4.325445e+001  -6.975455e+001 
4000000000  -4.391808e+001  -7.583991e+001 
4003125000  -4.363562e+001  -7.387135e+001 
4006250000  -4.182174e+001  -8.166482e+001 
4009375000  -4.122101e+001  -9.704185e+001 
4012500000  -4.291072e+001  -1.045328e+002 
4015625000  -4.397241e+001  -1.054366e+002 
4018750000  -4.385497e+001  -1.099291e+002 
4021875000  -4.294995e+001  -1.175930e+002 
4025000000  -4.306936e+001  -1.244132e+002 
4028125000  -4.353412e+001  -1.310466e+002 
4031250000  -4.392861e+001  -1.363555e+002 
4034375000  -4.415314e+001  -1.416841e+002 
4037500000  -4.406737e+001  -1.448829e+002 
4040625000  -4.419990e+001  -1.478977e+002 
4043750000  -4.477135e+001  -1.512785e+002 
4046875000  -4.430643e+001  -1.581843e+002 
4050000000  -4.446109e+001  -1.644164e+002 
4053125000  -4.480677e+001  -1.686100e+002 
4056250000  -4.604372e+001  -1.653568e+002 
4059375000  -4.345834e+001  -1.660927e+002 
4062500000  -4.327720e+001  -1.752381e+002 
4065625000  -4.379018e+001  1.792371e+002 
4068750000  -4.307746e+001  1.703944e+002 
4071875000  -4.227577e+001  1.602823e+002 
4075000000  -4.307299e+001  1.522104e+002 
4078125000  -4.394914e+001  1.491555e+002 
4081250000  -4.338057e+001  1.440176e+002 
4084375000  -4.321577e+001  1.368424e+002 
4087500000  -4.387614e+001  1.273502e+002 
4090625000  -4.503988e+001  1.240909e+002 
4093750000  -4.445809e+001  1.226728e+002 
4096875000  -4.365850e+001  1.129948e+002 
4100000000  -4.526536e+001  1.060553e+002 
4103125000  -4.610275e+001  1.108528e+002 
4106250000  -4.509645e+001  1.123829e+002 
4109375000  -4.407000e+001  1.063090e+002 
4112500000  -4.395581e+001  9.922975e+001 
4115625000  -4.378075e+001  9.299495e+001 
4118750000  -4.370902e+001  8.886652e+001 
4121875000  -4.389400e+001  7.984396e+001 
4125000000  -4.449290e+001  7.210851e+001 
4128125000  -4.546012e+001  7.644110e+001 
4131250000  -4.392078e+001  8.000829e+001 
4134375000  -4.138722e+001  6.572158e+001 
4137500000  -4.241558e+001  4.812844e+001 
4140625000  -4.379434e+001  4.125338e+001 
4143750000  -4.460379e+001  4.788811e+001 
4146875000  -4.374744e+001  4.451918e+001 
4150000000  -4.252710e+001  3.644070e+001 
4153125000  -4.311442e+001  2.630603e+001 
4156250000  -4.401868e+001  2.537501e+001 
4159375000  -4.386179e+001  2.585025e+001 
4162500000  -4.294268e+001  2.260802e+001 
4165625000  -4.137753e+001  1.331047e+001 
4168750000  -4.122320e+001  3.499052e+000 
4171875000  -4.105459e+001  -8.495633e+000 
4175000000  -4.185093e+001  -1.621288e+001 
4178125000  -4.234120e+001  -2.048718e+001 
4181250000  -4.186714e+001  -2.501547e+001 
4184375000  -4.252090e+001  -3.096906e+001 
4187500000  -4.227118e+001  -3.932624e+001 
4190625000  -4.269907e+001  -4.968489e+001 
4193750000  -4.430367e+001  -5.459115e+001 
4196875000  -4.470794e+001  -5.552332e+001 
4200000000  -4.576780e+001  -5.173181e+001 
4203125000  -4.430356e+001  -4.143603e+001 
4206250000  -4.074992e+001  -5.167966e+001 
4209375000  -4.185112e+001  -7.575807e+001 
4212500000  -4.397095e+001  -8.114787e+001 
4215625000  -4.380116e+001  -7.503648e+001 
4218750000  -4.227634e+001  -7.409122e+001 
4221875000  -4.082124e+001  -8.726469e+001 
4225000000  -4.222227e+001  -9.565691e+001 
4228125000  -4.233887e+001  -9.536483e+001 
4231250000  -4.105569e+001  -1.052894e+002 
4234375000  -4.123339e+001  -1.161605e+002 
4237500000  -4.062177e+001  -1.212314e+002 
4240625000  -4.132700e+001  -1.327920e+002 
4243750000  -4.205310e+001  -1.415080e+002 
4246875000  -4.324229e+001  -1.417684e+002 
4250000000  -4.266379e+001  -1.405807e+002 
4253125000  -4.267863e+001  -1.450041e+002 
4256250000  -4.259757e+001  -1.502833e+002 
4259375000  -4.215639e+001  -1.572336e+002 
4262500000  -4.216534e+001  -1.636417e+002 
4265625000  -4.216294e+001  -1.622123e+002 
4268750000  -4.092807e+001  -1.719724e+002 
4271875000  -4.066230e+001  1.795134e+002 
4275000000  -4.041587e+001  1.697592e+002 
4278125000  -4.157172e+001  1.559945e+002 
4281250000  -4.221181e+001  1.530204e+002 
4284375000  -4.218053e+001  1.505925e+002 
4287500000  -4.383181e+001  1.473608e+002 
4290625000  -4.381670e+001  1.540410e+002 
4293750000  -4.141937e+001  1.524282e+002 
4296875000  -4.035059e+001  1.372727e+002 
4300000000  -4.114935e+001  1.282337e+002 
4303125000  -4.158956e+001  1.279118e+002 
4306250000  -4.049948e+001  1.274927e+002 
4309375000  -3.983390e+001  1.180193e+002 
4312500000  -3.975412e+001  1.061595e+002 
4315625000  -3.984376e+001  9.600040e+001 
4318750000  -4.098444e+001  9.070755e+001 
4321875000  -4.063864e+001  8.734393e+001 
4325000000  -4.014676e+001  8.445514e+001 
4328125000  -3.946454e+001  7.489255e+001 
4331250000  -3.975259e+001  6.216180e+001 
4334375000  -4.075422e+001  5.110646e+001 
4337500000  -4.205549e+001  5.153529e+001 
4340625000  -4.197093e+001  5.373056e+001 
4343750000  -4.091767e+001  5.043251e+001 
4346875000  -4.090900e+001  4.061005e+001 
4350000000  -4.125996e+001  2.845068e+001 
4353125000  -4.148051e+001  1.956544e+001 
4356250000  -4.384458e+001  2.814063e+001 
4359375000  -4.285680e+001  3.585904e+001 
4362500000  -3.977234e+001  2.654323e+001 
4365625000  -3.936784e+001  1.001594e+001 
4368750000  -4.004679e+001  -2.295418e+000 
4371875000  -4.134567e+001  -4.141216e+000 
4375000000  -4.068418e+001  -1.022725e+001 
4378125000  -3.984509e+001  -1.819737e+001 
4381250000  -4.055995e+001  -2.472479e+001 
4384375000  -4.035349e+001  -3.150796e+001 
4387500000  -4.167124e+001  -3.916529e+001 
4390625000  -4.241193e+001  -4.171968e+001 
4393750000  -4.199750e+001  -4.139777e+001 
4396875000  -4.104159e+001  -4.691213e+001 
4400000000  -4.100370e+001  -5.941417e+001 
4403125000  -4.140915e+001  -6.709399e+001 
4406250000  -4.169267e+001  -7.378481e+001 
4409375000  -4.252154e+001  -7.929974e+001 
4412500000  -4.337692e+001  -8.235638e+001 
4415625000  -4.277164e+001  -7.433403e+001 
4418750000  -4.201214e+001  -7.894810e+001 
