!Agilent Technologies,E8363B,MY43030201,A.06.04.32
!Agilent E8363B: A.06.04.32
!Date: Tuesday, November 11, 2014 21:40:32
!Correction: S21(Response(S21)) 
!S1P File: Measurement: S21:
# Hz S  dB   R 50
3000000000  -4.358341e+001  -1.581052e+002 
3003125000  -4.507579e+001  -1.608463e+002 
3006250000  -4.539872e+001  -1.634991e+002 
3009375000  -4.618373e+001  -1.575522e+002 
3012500000  -4.480453e+001  -1.656744e+002 
3015625000  -4.493044e+001  -1.745989e+002 
3018750000  -4.527105e+001  -1.741041e+002 
3021875000  -4.381193e+001  -1.746817e+002 
3025000000  -4.252465e+001  -1.789146e+002 
3028125000  -4.162920e+001  1.699716e+002 
3031250000  -4.081911e+001  1.562722e+002 
3034375000  -4.080489e+001  1.411860e+002 
3037500000  -4.170426e+001  1.318791e+002 
3040625000  -4.285989e+001  1.254666e+002 
3043750000  -4.325185e+001  1.183875e+002 
3046875000  -4.384187e+001  1.127353e+002 
3050000000  -4.527687e+001  1.060345e+002 
3053125000  -4.478583e+001  1.106653e+002 
3056250000  -4.466452e+001  1.151411e+002 
3059375000  -4.409457e+001  1.107239e+002 
3062500000  -4.250904e+001  1.042184e+002 
3065625000  -4.195995e+001  9.286937e+001 
3068750000  -4.173141e+001  8.401631e+001 
3071875000  -4.176266e+001  8.327975e+001 
3075000000  -4.112910e+001  7.558750e+001 
3078125000  -4.126740e+001  6.817377e+001 
3081250000  -4.138931e+001  6.063262e+001 
3084375000  -4.034791e+001  5.611382e+001 
3087500000  -4.057368e+001  4.846106e+001 
3090625000  -3.977140e+001  3.516678e+001 
3093750000  -4.098133e+001  2.647169e+001 
3096875000  -4.113471e+001  2.027421e+001 
3100000000  -4.109380e+001  1.554267e+001 
3103125000  -4.133904e+001  1.108888e+001 
3106250000  -4.095595e+001  5.021945e+000 
3109375000  -4.116572e+001  1.133343e+000 
3112500000  -4.086767e+001  -7.988624e+000 
3115625000  -4.073906e+001  -1.173958e+001 
3118750000  -4.065950e+001  -1.748169e+001 
3121875000  -4.026214e+001  -2.861871e+001 
3125000000  -4.196154e+001  -3.260084e+001 
3128125000  -4.199592e+001  -2.688549e+001 
3131250000  -3.944300e+001  -3.522187e+001 
3134375000  -3.892729e+001  -5.189839e+001 
3137500000  -3.935979e+001  -6.589136e+001 
3140625000  -4.074109e+001  -6.976788e+001 
3143750000  -4.149965e+001  -7.454919e+001 
3146875000  -4.092450e+001  -7.340971e+001 
3150000000  -4.042035e+001  -7.906045e+001 
3153125000  -4.070865e+001  -8.842888e+001 
3156250000  -4.151305e+001  -8.543848e+001 
3159375000  -3.923678e+001  -8.743789e+001 
3162500000  -3.779073e+001  -1.041716e+002 
3165625000  -3.919056e+001  -1.188794e+002 
3168750000  -3.910314e+001  -1.197523e+002 
3171875000  -3.858701e+001  -1.285385e+002 
3175000000  -3.926849e+001  -1.392202e+002 
3178125000  -3.875408e+001  -1.412597e+002 
3181250000  -3.803964e+001  -1.506191e+002 
3184375000  -3.793033e+001  -1.628190e+002 
3187500000  -3.942526e+001  -1.787492e+002 
3190625000  -4.093829e+001  1.738630e+002 
3193750000  -4.112262e+001  1.783588e+002 
3196875000  -4.121137e+001  1.774103e+002 
3200000000  -3.987075e+001  1.734873e+002 
3203125000  -3.946613e+001  1.645122e+002 
3206250000  -3.994386e+001  1.571656e+002 
3209375000  -3.945315e+001  1.466451e+002 
3212500000  -4.006316e+001  1.407437e+002 
3215625000  -3.994529e+001  1.372853e+002 
3218750000  -4.046104e+001  1.240968e+002 
3221875000  -4.064437e+001  1.172259e+002 
3225000000  -4.031275e+001  1.127508e+002 
3228125000  -4.117312e+001  1.047941e+002 
3231250000  -4.148666e+001  1.005905e+002 
3234375000  -4.090417e+001  9.828041e+001 
3237500000  -4.093189e+001  9.421945e+001 
3240625000  -4.045055e+001  8.755444e+001 
3243750000  -4.028632e+001  7.466869e+001 
3246875000  -4.056569e+001  6.669559e+001 
3250000000  -4.130801e+001  6.234052e+001 
3253125000  -4.121240e+001  5.875398e+001 
3256250000  -4.028751e+001  4.810643e+001 
3259375000  -4.104137e+001  3.544841e+001 
3262500000  -4.233111e+001  3.012661e+001 
3265625000  -4.258858e+001  3.393593e+001 
3268750000  -4.271996e+001  3.089165e+001 
3271875000  -4.175256e+001  2.447117e+001 
3275000000  -4.104607e+001  1.431437e+001 
3278125000  -4.196466e+001  7.532461e+000 
3281250000  -4.183334e+001  2.419836e+000 
3284375000  -4.111166e+001  -5.372079e+000 
3287500000  -4.149828e+001  -1.203845e+001 
3290625000  -4.149427e+001  -2.366282e+001 
3293750000  -4.143000e+001  -3.059773e+001 
3296875000  -4.284141e+001  -3.589996e+001 
3300000000  -4.179436e+001  -3.671412e+001 
3303125000  -4.113040e+001  -4.654951e+001 
3306250000  -4.076094e+001  -5.703677e+001 
3309375000  -4.086866e+001  -6.646463e+001 
3312500000  -4.130357e+001  -8.255146e+001 
3315625000  -4.257644e+001  -9.028938e+001 
3318750000  -4.400466e+001  -9.828698e+001 
3321875000  -4.533989e+001  -9.734555e+001 
3325000000  -4.541428e+001  -9.118547e+001 
3328125000  -4.425307e+001  -9.777333e+001 
3331250000  -4.259284e+001  -9.442387e+001 
3334375000  -4.035602e+001  -1.137095e+002 
3337500000  -4.096764e+001  -1.371405e+002 
3340625000  -4.308604e+001  -1.470144e+002 
3343750000  -4.467507e+001  -1.509166e+002 
3346875000  -4.432215e+001  -1.519529e+002 
3350000000  -4.385648e+001  -1.562999e+002 
3353125000  -4.400461e+001  -1.672838e+002 
3356250000  -4.374949e+001  -1.770499e+002 
3359375000  -4.429552e+001  1.687857e+002 
3362500000  -4.543018e+001  1.603083e+002 
3365625000  -4.584889e+001  1.574440e+002 
3368750000  -4.664579e+001  1.497198e+002 
3371875000  -4.704133e+001  1.459727e+002 
3375000000  -4.855400e+001  1.386584e+002 
3378125000  -4.976686e+001  1.350508e+002 
3381250000  -5.009773e+001  1.460959e+002 
3384375000  -4.770356e+001  1.552959e+002 
3387500000  -4.529053e+001  1.316904e+002 
3390625000  -4.726212e+001  1.087156e+002 
3393750000  -4.804777e+001  1.078614e+002 
3396875000  -4.651134e+001  1.043335e+002 
3400000000  -4.607466e+001  8.804908e+001 
3403125000  -4.713095e+001  8.336175e+001 
3406250000  -4.765047e+001  7.905080e+001 
3409375000  -4.755973e+001  6.352855e+001 
3412500000  -4.820825e+001  5.739026e+001 
3415625000  -4.836644e+001  5.335118e+001 
3418750000  -4.871465e+001  4.708443e+001 
3421875000  -4.910636e+001  4.512968e+001 
3425000000  -4.801514e+001  3.703502e+001 
3428125000  -4.739693e+001  3.375400e+001 
3431250000  -4.683504e+001  1.854837e+001 
3434375000  -4.730536e+001  5.685245e+000 
3437500000  -4.780678e+001  -1.041570e+000 
3440625000  -4.775750e+001  -6.614461e+000 
3443750000  -4.672689e+001  -8.963886e+000 
3446875000  -4.549989e+001  -2.515716e+001 
3450000000  -4.533157e+001  -3.927131e+001 
3453125000  -4.567397e+001  -5.425792e+001 
3456250000  -4.727426e+001  -6.448284e+001 
3459375000  -4.789749e+001  -6.822218e+001 
3462500000  -4.806728e+001  -7.085088e+001 
3465625000  -4.721061e+001  -8.714075e+001 
3468750000  -4.720648e+001  -9.300695e+001 
3471875000  -4.727083e+001  -9.965077e+001 
3475000000  -4.720956e+001  -1.118873e+002 
3478125000  -4.742736e+001  -1.273482e+002 
3481250000  -4.888877e+001  -1.316305e+002 
3484375000  -4.873190e+001  -1.330177e+002 
3487500000  -4.794854e+001  -1.380542e+002 
3490625000  -4.702405e+001  -1.483952e+002 
3493750000  -4.742220e+001  -1.638819e+002 
3496875000  -4.785720e+001  -1.690811e+002 
3500000000  -4.791492e+001  -1.690193e+002 
3503125000  -4.757341e+001  -1.708160e+002 
3506250000  -4.555900e+001  1.743334e+002 
3509375000  -4.565517e+001  1.548474e+002 
3512500000  -4.585436e+001  1.435003e+002 
3515625000  -4.733379e+001  1.357447e+002 
3518750000  -4.785213e+001  1.336792e+002 
3521875000  -4.781609e+001  1.231649e+002 
3525000000  -4.890287e+001  1.164660e+002 
3528125000  -4.722027e+001  1.245590e+002 
3531250000  -4.677039e+001  1.081380e+002 
3534375000  -4.711541e+001  9.075380e+001 
3537500000  -4.787812e+001  8.188516e+001 
3540625000  -4.884909e+001  8.037257e+001 
3543750000  -4.932657e+001  8.707607e+001 
3546875000  -4.832264e+001  9.044849e+001 
3550000000  -4.638408e+001  8.043438e+001 
3553125000  -4.564265e+001  5.909237e+001 
3556250000  -4.737254e+001  5.418239e+001 
3559375000  -4.658079e+001  4.986490e+001 
3562500000  -4.618979e+001  3.560862e+001 
3565625000  -4.761320e+001  2.985561e+001 
3568750000  -4.812674e+001  2.737166e+001 
3571875000  -4.727280e+001  2.502540e+001 
3575000000  -4.669868e+001  1.698631e+001 
3578125000  -4.750865e+001  1.222621e+001 
3581250000  -4.743000e+001  9.626418e+000 
3584375000  -4.626943e+001  3.127419e+000 
3587500000  -4.609006e+001  -1.159594e+001 
3590625000  -4.632224e+001  -1.988778e+001 
3593750000  -4.817651e+001  -2.241605e+001 
3596875000  -4.706172e+001  -1.594402e+001 
3600000000  -4.457740e+001  -2.675775e+001 
3603125000  -4.526449e+001  -4.255668e+001 
3606250000  -4.617071e+001  -4.847160e+001 
3609375000  -4.618079e+001  -5.089468e+001 
3612500000  -4.597990e+001  -6.171587e+001 
3615625000  -4.610623e+001  -6.289944e+001 
3618750000  -4.633293e+001  -6.354500e+001 
3621875000  -4.587661e+001  -7.330681e+001 
3625000000  -4.539631e+001  -7.583959e+001 
3628125000  -4.504992e+001  -8.340147e+001 
3631250000  -4.499900e+001  -9.247940e+001 
3634375000  -4.589292e+001  -9.237473e+001 
3637500000  -4.467518e+001  -9.703402e+001 
3640625000  -4.360195e+001  -1.002272e+002 
3643750000  -4.322251e+001  -1.152483e+002 
3646875000  -4.358834e+001  -1.240868e+002 
3650000000  -4.372841e+001  -1.282606e+002 
3653125000  -4.325103e+001  -1.379177e+002 
3656250000  -4.412629e+001  -1.430563e+002 
3659375000  -4.380938e+001  -1.483650e+002 
3662500000  -4.338884e+001  -1.569824e+002 
3665625000  -4.332232e+001  -1.600521e+002 
3668750000  -4.150991e+001  -1.627002e+002 
3671875000  -4.133086e+001  -1.775514e+002 
3675000000  -4.257286e+001  1.753459e+002 
3678125000  -4.329876e+001  1.686683e+002 
3681250000  -4.248000e+001  1.615872e+002 
3684375000  -4.247507e+001  1.545282e+002 
3687500000  -4.309948e+001  1.444070e+002 
3690625000  -4.340654e+001  1.389990e+002 
3693750000  -4.468400e+001  1.373944e+002 
3696875000  -4.388578e+001  1.349192e+002 
3700000000  -4.327705e+001  1.266024e+002 
3703125000  -4.366639e+001  1.202728e+002 
3706250000  -4.456125e+001  1.175258e+002 
3709375000  -4.392379e+001  1.152787e+002 
3712500000  -4.298683e+001  1.106340e+002 
3715625000  -4.185739e+001  1.009243e+002 
3718750000  -4.169824e+001  9.206567e+001 
3721875000  -4.216323e+001  8.137579e+001 
3725000000  -4.240750e+001  7.467511e+001 
3728125000  -4.280682e+001  7.114851e+001 
3731250000  -4.198371e+001  6.427507e+001 
3734375000  -4.219397e+001  5.651353e+001 
3737500000  -4.306957e+001  4.934860e+001 
3740625000  -4.326784e+001  4.180499e+001 
3743750000  -4.279559e+001  3.476217e+001 
3746875000  -4.312358e+001  2.918789e+001 
3750000000  -4.370885e+001  2.595502e+001 
3753125000  -4.372986e+001  2.304652e+001 
3756250000  -4.422231e+001  2.063433e+001 
3759375000  -4.371353e+001  1.590908e+001 
3762500000  -4.340682e+001  1.147066e+001 
3765625000  -4.422899e+001  3.596711e+000 
3768750000  -4.364017e+001  4.490725e+000 
3771875000  -4.231327e+001  -8.134870e-001 
3775000000  -4.238896e+001  -1.263412e+001 
3778125000  -4.280832e+001  -2.070685e+001 
3781250000  -4.302976e+001  -2.450448e+001 
3784375000  -4.265683e+001  -2.946936e+001 
3787500000  -4.248309e+001  -3.642115e+001 
3790625000  -4.306454e+001  -4.602221e+001 
3793750000  -4.279528e+001  -4.802977e+001 
3796875000  -4.159419e+001  -5.434084e+001 
3800000000  -4.063255e+001  -6.135827e+001 
3803125000  -4.190239e+001  -7.336195e+001 
3806250000  -4.275560e+001  -7.903129e+001 
3809375000  -4.189592e+001  -8.275187e+001 
3812500000  -4.164090e+001  -9.451246e+001 
3815625000  -4.340079e+001  -1.051916e+002 
3818750000  -4.394436e+001  -1.022581e+002 
3821875000  -4.358478e+001  -9.266362e+001 
3825000000  -4.152052e+001  -9.824870e+001 
3828125000  -4.039006e+001  -1.185941e+002 
3831250000  -4.159831e+001  -1.376599e+002 
3834375000  -4.381180e+001  -1.339792e+002 
3837500000  -4.429838e+001  -1.334012e+002 
3840625000  -4.282698e+001  -1.410112e+002 
3843750000  -4.180274e+001  -1.544294e+002 
3846875000  -4.355930e+001  -1.612504e+002 
3850000000  -4.425588e+001  -1.527556e+002 
3853125000  -4.327780e+001  -1.555259e+002 
3856250000  -4.289043e+001  -1.644002e+002 
3859375000  -4.236519e+001  -1.740063e+002 
3862500000  -4.228470e+001  1.770381e+002 
3865625000  -4.262738e+001  1.666189e+002 
3868750000  -4.270152e+001  1.677420e+002 
3871875000  -4.195678e+001  1.569553e+002 
3875000000  -4.274897e+001  1.487233e+002 
3878125000  -4.357183e+001  1.438455e+002 
3881250000  -4.334586e+001  1.427801e+002 
3884375000  -4.268905e+001  1.334081e+002 
3887500000  -4.344695e+001  1.286904e+002 
3890625000  -4.392079e+001  1.212596e+002 
3893750000  -4.458575e+001  1.221703e+002 
3896875000  -4.425040e+001  1.175026e+002 
3900000000  -4.450670e+001  1.120371e+002 
3903125000  -4.379414e+001  1.089691e+002 
3906250000  -4.361653e+001  1.032386e+002 
3909375000  -4.292722e+001  9.077142e+001 
3912500000  -4.423482e+001  8.648984e+001 
3915625000  -4.460845e+001  8.647643e+001 
3918750000  -4.443624e+001  8.368864e+001 
3921875000  -4.384208e+001  8.048138e+001 
3925000000  -4.313140e+001  7.179913e+001 
3928125000  -4.291846e+001  6.199339e+001 
3931250000  -4.400214e+001  5.668402e+001 
3934375000  -4.402979e+001  5.431718e+001 
3937500000  -4.493147e+001  4.630856e+001 
3940625000  -4.476682e+001  5.143394e+001 
3943750000  -4.340924e+001  4.386317e+001 
3946875000  -4.315305e+001  3.160986e+001 
3950000000  -4.414560e+001  2.261767e+001 
3953125000  -4.478918e+001  2.649459e+001 
3956250000  -4.294068e+001  2.645898e+001 
3959375000  -4.207176e+001  1.939022e+001 
3962500000  -4.143638e+001  7.467075e+000 
3965625000  -4.170298e+001  -7.219318e-001 
3968750000  -4.283097e+001  -1.108112e+001 
3971875000  -4.305093e+001  -1.377457e+001 
3975000000  -4.222253e+001  -2.020396e+001 
3978125000  -4.245889e+001  -2.572136e+001 
3981250000  -4.203404e+001  -3.496484e+001 
3984375000  -4.235382e+001  -4.112102e+001 
3987500000  -4.313165e+001  -4.344697e+001 
3990625000  -4.345789e+001  -4.979757e+001 
3993750000  -4.309828e+001  -5.635646e+001 
3996875000  -4.311460e+001  -5.920033e+001 
4000000000  -4.367604e+001  -6.609162e+001 
4003125000  -4.404370e+001  -6.634483e+001 
4006250000  -4.194362e+001  -7.370576e+001 
4009375000  -4.159780e+001  -8.833204e+001 
4012500000  -4.354496e+001  -9.973259e+001 
4015625000  -4.443616e+001  -9.858387e+001 
4018750000  -4.382746e+001  -1.023064e+002 
4021875000  -4.319623e+001  -1.088249e+002 
4025000000  -4.326213e+001  -1.155813e+002 
4028125000  -4.372791e+001  -1.196187e+002 
4031250000  -4.408373e+001  -1.309729e+002 
4034375000  -4.416815e+001  -1.316966e+002 
4037500000  -4.407194e+001  -1.380650e+002 
4040625000  -4.458662e+001  -1.390739e+002 
4043750000  -4.469270e+001  -1.441768e+002 
4046875000  -4.439358e+001  -1.486481e+002 
4050000000  -4.420262e+001  -1.580624e+002 
4053125000  -4.552056e+001  -1.616021e+002 
4056250000  -4.607674e+001  -1.577341e+002 
4059375000  -4.429245e+001  -1.612184e+002 
4062500000  -4.323346e+001  -1.683579e+002 
4065625000  -4.393771e+001  -1.734111e+002 
4068750000  -4.334605e+001  -1.794104e+002 
4071875000  -4.307804e+001  1.674062e+002 
4075000000  -4.421220e+001  1.598375e+002 
4078125000  -4.453252e+001  1.547069e+002 
4081250000  -4.377847e+001  1.504708e+002 
4084375000  -4.392148e+001  1.446495e+002 
4087500000  -4.458258e+001  1.333346e+002 
4090625000  -4.517632e+001  1.336686e+002 
4093750000  -4.484312e+001  1.294274e+002 
4096875000  -4.456926e+001  1.252393e+002 
4100000000  -4.576794e+001  1.179599e+002 
4103125000  -4.596296e+001  1.206190e+002 
4106250000  -4.582214e+001  1.202332e+002 
4109375000  -4.470665e+001  1.174288e+002 
4112500000  -4.422672e+001  1.065085e+002 
4115625000  -4.477296e+001  1.060356e+002 
4118750000  -4.441906e+001  9.666422e+001 
4121875000  -4.429570e+001  8.789066e+001 
4125000000  -4.527293e+001  8.037337e+001 
4128125000  -4.542231e+001  8.608344e+001 
4131250000  -4.436849e+001  8.908665e+001 
4134375000  -4.159554e+001  7.434414e+001 
4137500000  -4.235094e+001  5.646062e+001 
4140625000  -4.375857e+001  5.101070e+001 
4143750000  -4.557659e+001  5.167468e+001 
4146875000  -4.447052e+001  5.407742e+001 
4150000000  -4.295959e+001  4.414178e+001 
4153125000  -4.357212e+001  3.453665e+001 
4156250000  -4.420508e+001  3.218661e+001 
4159375000  -4.395368e+001  3.354428e+001 
4162500000  -4.253717e+001  3.354773e+001 
4165625000  -4.186136e+001  2.189684e+001 
4168750000  -4.150658e+001  1.320258e+001 
4171875000  -4.188341e+001  4.108337e-001 
4175000000  -4.192999e+001  -8.667972e+000 
4178125000  -4.301903e+001  -1.013140e+001 
4181250000  -4.247458e+001  -1.820838e+001 
4184375000  -4.251295e+001  -2.323482e+001 
4187500000  -4.269883e+001  -3.038272e+001 
4190625000  -4.311106e+001  -3.836464e+001 
4193750000  -4.478856e+001  -4.510378e+001 
4196875000  -4.520773e+001  -4.760596e+001 
4200000000  -4.650980e+001  -4.062421e+001 
4203125000  -4.511614e+001  -3.100368e+001 
4206250000  -4.121618e+001  -4.106112e+001 
4209375000  -4.220422e+001  -6.552631e+001 
4212500000  -4.407698e+001  -7.343393e+001 
4215625000  -4.475388e+001  -6.523578e+001 
4218750000  -4.298483e+001  -6.619156e+001 
4221875000  -4.139639e+001  -7.915565e+001 
4225000000  -4.308935e+001  -8.599717e+001 
4228125000  -4.264948e+001  -8.519598e+001 
4231250000  -4.125246e+001  -9.569150e+001 
4234375000  -4.130707e+001  -1.069267e+002 
4237500000  -4.122660e+001  -1.122575e+002 
4240625000  -4.177849e+001  -1.276538e+002 
4243750000  -4.279937e+001  -1.329747e+002 
4246875000  -4.353881e+001  -1.314879e+002 
4250000000  -4.310862e+001  -1.358994e+002 
4253125000  -4.291579e+001  -1.356336e+002 
4256250000  -4.270772e+001  -1.433298e+002 
4259375000  -4.242382e+001  -1.488448e+002 
4262500000  -4.277448e+001  -1.545690e+002 
4265625000  -4.275787e+001  -1.520894e+002 
4268750000  -4.114133e+001  -1.624045e+002 
4271875000  -4.119173e+001  -1.727159e+002 
4275000000  -4.069228e+001  1.798925e+002 
4278125000  -4.207640e+001  1.659346e+002 
4281250000  -4.326611e+001  1.642000e+002 
4284375000  -4.281581e+001  1.611150e+002 
4287500000  -4.398937e+001  1.599147e+002 
4290625000  -4.379485e+001  1.612194e+002 
4293750000  -4.203210e+001  1.639485e+002 
4296875000  -4.074434e+001  1.469818e+002 
4300000000  -4.160622e+001  1.351515e+002 
4303125000  -4.274348e+001  1.369837e+002 
4306250000  -4.129585e+001  1.380168e+002 
4309375000  -4.031378e+001  1.271201e+002 
4312500000  -3.982330e+001  1.153502e+002 
4315625000  -4.055132e+001  1.069733e+002 
4318750000  -4.109551e+001  1.005215e+002 
4321875000  -4.143405e+001  9.881049e+001 
4325000000  -4.057309e+001  9.507256e+001 
4328125000  -3.965535e+001  8.316218e+001 
4331250000  -4.020360e+001  7.320762e+001 
4334375000  -4.105865e+001  6.449086e+001 
4337500000  -4.222407e+001  6.235974e+001 
4340625000  -4.276691e+001  6.092844e+001 
4343750000  -4.156553e+001  6.051994e+001 
4346875000  -4.141407e+001  5.127038e+001 
4350000000  -4.165335e+001  4.012516e+001 
4353125000  -4.232994e+001  3.127398e+001 
4356250000  -4.415527e+001  3.236643e+001 
4359375000  -4.361467e+001  4.707591e+001 
4362500000  -3.998439e+001  3.457047e+001 
4365625000  -3.969419e+001  1.782369e+001 
4368750000  -4.090712e+001  1.101715e+001 
4371875000  -4.179504e+001  8.093627e+000 
4375000000  -4.102821e+001  3.040838e+000 
4378125000  -4.116989e+001  -5.941686e+000 
4381250000  -4.101571e+001  -1.364217e+001 
4384375000  -4.107737e+001  -2.138163e+001 
4387500000  -4.233915e+001  -2.872174e+001 
4390625000  -4.285622e+001  -3.019204e+001 
4393750000  -4.248508e+001  -3.203001e+001 
4396875000  -4.192282e+001  -3.823015e+001 
4400000000  -4.147329e+001  -4.656087e+001 
4403125000  -4.226713e+001  -5.577040e+001 
4406250000  -4.264855e+001  -6.312358e+001 
4409375000  -4.304916e+001  -6.575076e+001 
4412500000  -4.399068e+001  -6.774788e+001 
4415625000  -4.395634e+001  -6.473532e+001 
4418750000  -4.220322e+001  -6.503876e+001 
