!Agilent Technologies,E8363B,MY43030201,A.06.04.32
!Agilent E8363B: A.06.04.32
!Date: Tuesday, November 11, 2014 21:52:14
!Correction: S21(Response(S21)) 
!S1P File: Measurement: S21:
# Hz S  dB   R 50
3000000000  -4.381367e+001  -1.615534e+002 
3003125000  -4.522620e+001  -1.685160e+002 
3006250000  -4.524685e+001  -1.685394e+002 
3009375000  -4.601328e+001  -1.650032e+002 
3012500000  -4.487170e+001  -1.722527e+002 
3015625000  -4.520465e+001  1.787027e+002 
3018750000  -4.547382e+001  1.791710e+002 
3021875000  -4.387799e+001  -1.787287e+002 
3025000000  -4.263322e+001  1.753329e+002 
3028125000  -4.179491e+001  1.633560e+002 
3031250000  -4.096080e+001  1.509722e+002 
3034375000  -4.090144e+001  1.353392e+002 
3037500000  -4.171503e+001  1.251571e+002 
3040625000  -4.291539e+001  1.177759e+002 
3043750000  -4.335938e+001  1.114950e+002 
3046875000  -4.425970e+001  1.060812e+002 
3050000000  -4.518903e+001  9.957939e+001 
3053125000  -4.493054e+001  1.058741e+002 
3056250000  -4.494979e+001  1.088885e+002 
3059375000  -4.406193e+001  1.032919e+002 
3062500000  -4.267647e+001  9.852100e+001 
3065625000  -4.223553e+001  8.596920e+001 
3068750000  -4.168933e+001  7.917500e+001 
3071875000  -4.167483e+001  7.783559e+001 
3075000000  -4.112707e+001  6.940170e+001 
3078125000  -4.141409e+001  6.195790e+001 
3081250000  -4.137102e+001  5.639656e+001 
3084375000  -4.061089e+001  4.934980e+001 
3087500000  -4.049527e+001  4.147474e+001 
3090625000  -4.005444e+001  2.933002e+001 
3093750000  -4.114136e+001  2.026625e+001 
3096875000  -4.108377e+001  1.351862e+001 
3100000000  -4.117693e+001  1.024412e+001 
3103125000  -4.145035e+001  5.993573e+000 
3106250000  -4.098442e+001  1.092795e-002 
3109375000  -4.116733e+001  -4.871284e+000 
3112500000  -4.102959e+001  -1.339875e+001 
3115625000  -4.090328e+001  -1.738464e+001 
3118750000  -4.065751e+001  -2.243373e+001 
3121875000  -4.021069e+001  -3.325534e+001 
3125000000  -4.222094e+001  -3.816912e+001 
3128125000  -4.198159e+001  -3.169527e+001 
3131250000  -3.946332e+001  -4.022424e+001 
3134375000  -3.881429e+001  -5.825387e+001 
3137500000  -3.976057e+001  -7.132254e+001 
3140625000  -4.083783e+001  -7.426044e+001 
3143750000  -4.150816e+001  -8.157648e+001 
3146875000  -4.100926e+001  -7.791037e+001 
3150000000  -4.039598e+001  -8.487505e+001 
3153125000  -4.083126e+001  -9.314010e+001 
3156250000  -4.134879e+001  -8.925056e+001 
3159375000  -3.909312e+001  -9.361089e+001 
3162500000  -3.781873e+001  -1.096485e+002 
3165625000  -3.894366e+001  -1.248784e+002 
3168750000  -3.898179e+001  -1.258558e+002 
3171875000  -3.873214e+001  -1.343550e+002 
3175000000  -3.920832e+001  -1.444886e+002 
3178125000  -3.868969e+001  -1.467257e+002 
3181250000  -3.804989e+001  -1.563432e+002 
3184375000  -3.764204e+001  -1.684338e+002 
3187500000  -3.926962e+001  1.757388e+002 
3190625000  -4.095580e+001  1.669705e+002 
3193750000  -4.122747e+001  1.746896e+002 
3196875000  -4.110117e+001  1.726732e+002 
3200000000  -3.987962e+001  1.670993e+002 
3203125000  -3.962095e+001  1.587671e+002 
3206250000  -3.985770e+001  1.507265e+002 
3209375000  -3.952804e+001  1.413136e+002 
3212500000  -4.006876e+001  1.339819e+002 
3215625000  -3.959733e+001  1.320261e+002 
3218750000  -4.006827e+001  1.185388e+002 
3221875000  -4.062650e+001  1.113562e+002 
3225000000  -4.021104e+001  1.066629e+002 
3228125000  -4.112856e+001  1.007417e+002 
3231250000  -4.126197e+001  9.613320e+001 
3234375000  -4.098873e+001  9.200599e+001 
3237500000  -4.087795e+001  8.771369e+001 
3240625000  -4.040105e+001  8.201044e+001 
3243750000  -4.041650e+001  6.999165e+001 
3246875000  -4.099348e+001  6.219374e+001 
3250000000  -4.105404e+001  5.755410e+001 
3253125000  -4.104962e+001  5.167039e+001 
3256250000  -4.052865e+001  4.313570e+001 
3259375000  -4.085575e+001  3.034443e+001 
3262500000  -4.245377e+001  2.467804e+001 
3265625000  -4.244944e+001  2.683684e+001 
3268750000  -4.258947e+001  2.710786e+001 
3271875000  -4.147626e+001  1.858765e+001 
3275000000  -4.110408e+001  7.586216e+000 
3278125000  -4.158804e+001  5.231660e-001 
3281250000  -4.184437e+001  -1.427425e+000 
3284375000  -4.108246e+001  -9.771927e+000 
3287500000  -4.145168e+001  -1.743081e+001 
3290625000  -4.143775e+001  -2.693965e+001 
3293750000  -4.150008e+001  -3.591814e+001 
3296875000  -4.286094e+001  -3.983603e+001 
3300000000  -4.191679e+001  -4.198442e+001 
3303125000  -4.089623e+001  -5.071584e+001 
3306250000  -4.082205e+001  -6.170766e+001 
3309375000  -4.052772e+001  -7.207684e+001 
3312500000  -4.121162e+001  -8.646246e+001 
3315625000  -4.252425e+001  -9.624258e+001 
3318750000  -4.401783e+001  -1.028191e+002 
3321875000  -4.524670e+001  -1.019451e+002 
3325000000  -4.506900e+001  -9.790489e+001 
3328125000  -4.427367e+001  -9.620834e+001 
3331250000  -4.210146e+001  -9.988707e+001 
3334375000  -3.999753e+001  -1.195828e+002 
3337500000  -4.080362e+001  -1.423301e+002 
3340625000  -4.277898e+001  -1.507303e+002 
3343750000  -4.452803e+001  -1.529317e+002 
3346875000  -4.388872e+001  -1.590571e+002 
3350000000  -4.341512e+001  -1.637221e+002 
3353125000  -4.344798e+001  -1.716603e+002 
3356250000  -4.329464e+001  1.781206e+002 
3359375000  -4.441394e+001  1.633551e+002 
3362500000  -4.483126e+001  1.543431e+002 
3365625000  -4.564787e+001  1.523013e+002 
3368750000  -4.651692e+001  1.446912e+002 
3371875000  -4.685198e+001  1.393815e+002 
3375000000  -4.850775e+001  1.349425e+002 
3378125000  -4.931594e+001  1.303902e+002 
3381250000  -5.039829e+001  1.406410e+002 
3384375000  -4.685008e+001  1.467687e+002 
3387500000  -4.481904e+001  1.274226e+002 
3390625000  -4.708167e+001  1.032093e+002 
3393750000  -4.776292e+001  1.037270e+002 
3396875000  -4.606798e+001  1.013112e+002 
3400000000  -4.608225e+001  8.525078e+001 
3403125000  -4.688287e+001  7.912046e+001 
3406250000  -4.733926e+001  6.985926e+001 
3409375000  -4.729429e+001  5.941351e+001 
3412500000  -4.762375e+001  4.853166e+001 
3415625000  -4.859245e+001  4.691399e+001 
3418750000  -4.861732e+001  4.409844e+001 
3421875000  -4.895401e+001  4.120441e+001 
3425000000  -4.765702e+001  3.269045e+001 
3428125000  -4.710165e+001  2.821615e+001 
3431250000  -4.708669e+001  1.467823e+001 
3434375000  -4.720086e+001  1.174569e+000 
3437500000  -4.757413e+001  -8.759398e+000 
3440625000  -4.757233e+001  -1.082116e+001 
3443750000  -4.640026e+001  -1.550693e+001 
3446875000  -4.599004e+001  -2.712467e+001 
3450000000  -4.550415e+001  -4.367915e+001 
3453125000  -4.586805e+001  -6.219717e+001 
3456250000  -4.702725e+001  -7.200273e+001 
3459375000  -4.848332e+001  -7.169276e+001 
3462500000  -4.781538e+001  -7.519974e+001 
3465625000  -4.714395e+001  -8.891775e+001 
3468750000  -4.764514e+001  -9.360911e+001 
3471875000  -4.707003e+001  -1.056579e+002 
3475000000  -4.681156e+001  -1.174672e+002 
3478125000  -4.734365e+001  -1.287410e+002 
3481250000  -4.909502e+001  -1.345645e+002 
3484375000  -4.861252e+001  -1.370611e+002 
3487500000  -4.725795e+001  -1.413255e+002 
3490625000  -4.727247e+001  -1.538113e+002 
3493750000  -4.776555e+001  -1.662857e+002 
3496875000  -4.814476e+001  -1.696146e+002 
3500000000  -4.820440e+001  -1.755453e+002 
3503125000  -4.694748e+001  -1.742072e+002 
3506250000  -4.564335e+001  1.700640e+002 
3509375000  -4.566496e+001  1.535050e+002 
3512500000  -4.619298e+001  1.356436e+002 
3515625000  -4.757341e+001  1.294146e+002 
3518750000  -4.781992e+001  1.288541e+002 
3521875000  -4.790934e+001  1.195946e+002 
3525000000  -4.897150e+001  1.087841e+002 
3528125000  -4.781662e+001  1.159114e+002 
3531250000  -4.663393e+001  1.031811e+002 
3534375000  -4.622425e+001  8.596146e+001 
3537500000  -4.753591e+001  7.993064e+001 
3540625000  -4.870371e+001  7.481903e+001 
3543750000  -4.943087e+001  7.782854e+001 
3546875000  -4.877355e+001  8.342960e+001 
3550000000  -4.593843e+001  7.316254e+001 
3553125000  -4.627552e+001  5.613448e+001 
3556250000  -4.744518e+001  4.559423e+001 
3559375000  -4.704164e+001  3.992828e+001 
3562500000  -4.641903e+001  2.953724e+001 
3565625000  -4.691948e+001  2.376769e+001 
3568750000  -4.787745e+001  2.403189e+001 
3571875000  -4.771721e+001  1.760466e+001 
3575000000  -4.687733e+001  6.356575e+000 
3578125000  -4.807647e+001  4.596349e+000 
3581250000  -4.791196e+001  2.443800e+000 
3584375000  -4.608590e+001  -5.845457e+000 
3587500000  -4.578001e+001  -1.763851e+001 
3590625000  -4.663737e+001  -2.728846e+001 
3593750000  -4.751798e+001  -2.580218e+001 
3596875000  -4.664364e+001  -2.179387e+001 
3600000000  -4.476870e+001  -3.580426e+001 
3603125000  -4.502154e+001  -4.761380e+001 
3606250000  -4.623782e+001  -5.721168e+001 
3609375000  -4.599913e+001  -6.004210e+001 
3612500000  -4.560003e+001  -6.715635e+001 
3615625000  -4.612544e+001  -6.988543e+001 
3618750000  -4.607415e+001  -7.569083e+001 
3621875000  -4.530645e+001  -7.827346e+001 
3625000000  -4.614481e+001  -8.380176e+001 
3628125000  -4.461737e+001  -9.080847e+001 
3631250000  -4.538958e+001  -1.009155e+002 
3634375000  -4.586726e+001  -1.007381e+002 
3637500000  -4.445811e+001  -1.025924e+002 
3640625000  -4.397662e+001  -1.104258e+002 
3643750000  -4.332400e+001  -1.196751e+002 
3646875000  -4.362740e+001  -1.316003e+002 
3650000000  -4.379563e+001  -1.374571e+002 
3653125000  -4.362794e+001  -1.443851e+002 
3656250000  -4.404770e+001  -1.480610e+002 
3659375000  -4.418540e+001  -1.556448e+002 
3662500000  -4.338133e+001  -1.632460e+002 
3665625000  -4.319223e+001  -1.670064e+002 
3668750000  -4.214501e+001  -1.724789e+002 
3671875000  -4.164664e+001  1.758718e+002 
3675000000  -4.227322e+001  1.653833e+002 
3678125000  -4.282044e+001  1.598633e+002 
3681250000  -4.218289e+001  1.546286e+002 
3684375000  -4.265126e+001  1.453993e+002 
3687500000  -4.293871e+001  1.369996e+002 
3690625000  -4.341271e+001  1.322393e+002 
3693750000  -4.450984e+001  1.302940e+002 
3696875000  -4.381782e+001  1.279436e+002 
3700000000  -4.305758e+001  1.184241e+002 
3703125000  -4.378127e+001  1.119397e+002 
3706250000  -4.452082e+001  1.083774e+002 
3709375000  -4.380443e+001  1.099375e+002 
3712500000  -4.279555e+001  1.021315e+002 
3715625000  -4.184418e+001  9.282757e+001 
3718750000  -4.164143e+001  8.462984e+001 
3721875000  -4.184715e+001  7.620699e+001 
3725000000  -4.233696e+001  6.653520e+001 
3728125000  -4.241442e+001  6.386692e+001 
3731250000  -4.187378e+001  5.634726e+001 
3734375000  -4.240474e+001  5.052803e+001 
3737500000  -4.261766e+001  4.234760e+001 
3740625000  -4.291084e+001  3.531283e+001 
3743750000  -4.309381e+001  2.812719e+001 
3746875000  -4.308241e+001  2.147119e+001 
3750000000  -4.367007e+001  1.954641e+001 
3753125000  -4.385493e+001  1.335913e+001 
3756250000  -4.374293e+001  1.116052e+001 
3759375000  -4.350339e+001  6.278265e+000 
3762500000  -4.345432e+001  1.175596e+000 
3765625000  -4.419942e+001  -5.704453e+000 
3768750000  -4.351448e+001  -4.879225e+000 
3771875000  -4.235907e+001  -1.077471e+001 
3775000000  -4.216375e+001  -2.237727e+001 
3778125000  -4.284966e+001  -2.822953e+001 
3781250000  -4.296401e+001  -3.352219e+001 
3784375000  -4.215143e+001  -3.749544e+001 
3787500000  -4.211988e+001  -4.491054e+001 
3790625000  -4.272403e+001  -5.521742e+001 
3793750000  -4.266410e+001  -5.695314e+001 
3796875000  -4.165698e+001  -6.263272e+001 
3800000000  -4.053323e+001  -6.946597e+001 
3803125000  -4.158102e+001  -8.062565e+001 
3806250000  -4.215813e+001  -8.681520e+001 
3809375000  -4.186314e+001  -9.048935e+001 
3812500000  -4.183689e+001  -1.028827e+002 
3815625000  -4.286040e+001  -1.123984e+002 
3818750000  -4.424190e+001  -1.116167e+002 
3821875000  -4.364420e+001  -1.018284e+002 
3825000000  -4.127374e+001  -1.065662e+002 
3828125000  -4.041615e+001  -1.286376e+002 
3831250000  -4.139200e+001  -1.433201e+002 
3834375000  -4.346537e+001  -1.436463e+002 
3837500000  -4.409171e+001  -1.407497e+002 
3840625000  -4.255259e+001  -1.458726e+002 
3843750000  -4.185394e+001  -1.623970e+002 
3846875000  -4.329430e+001  -1.683635e+002 
3850000000  -4.425555e+001  -1.627686e+002 
3853125000  -4.334920e+001  -1.664842e+002 
3856250000  -4.320932e+001  -1.707011e+002 
3859375000  -4.225307e+001  1.789064e+002 
3862500000  -4.196975e+001  1.684670e+002 
3865625000  -4.300227e+001  1.630127e+002 
3868750000  -4.211951e+001  1.611048e+002 
3871875000  -4.185211e+001  1.500359e+002 
3875000000  -4.229807e+001  1.386436e+002 
3878125000  -4.299765e+001  1.382802e+002 
3881250000  -4.321949e+001  1.377248e+002 
3884375000  -4.217221e+001  1.256934e+002 
3887500000  -4.323774e+001  1.206873e+002 
3890625000  -4.370684e+001  1.144307e+002 
3893750000  -4.407083e+001  1.130573e+002 
3896875000  -4.420140e+001  1.126571e+002 
3900000000  -4.413696e+001  1.050109e+002 
3903125000  -4.360542e+001  9.563642e+001 
3906250000  -4.367551e+001  9.517529e+001 
3909375000  -4.269885e+001  8.618205e+001 
3912500000  -4.359518e+001  7.609979e+001 
3915625000  -4.450534e+001  7.668514e+001 
3918750000  -4.422084e+001  7.663272e+001 
3921875000  -4.395252e+001  6.938805e+001 
3925000000  -4.298087e+001  6.365396e+001 
3928125000  -4.277459e+001  5.316170e+001 
3931250000  -4.339607e+001  4.612241e+001 
3934375000  -4.366671e+001  4.596990e+001 
3937500000  -4.418408e+001  4.048471e+001 
3940625000  -4.440936e+001  4.194603e+001 
3943750000  -4.306033e+001  3.544230e+001 
3946875000  -4.269839e+001  2.642190e+001 
3950000000  -4.370604e+001  1.806763e+001 
3953125000  -4.436761e+001  1.810845e+001 
3956250000  -4.261485e+001  1.741057e+001 
3959375000  -4.156221e+001  9.921036e+000 
3962500000  -4.134622e+001  1.356840e+000 
3965625000  -4.141251e+001  -1.069328e+001 
3968750000  -4.244398e+001  -1.932056e+001 
3971875000  -4.233157e+001  -2.386347e+001 
3975000000  -4.216196e+001  -2.780565e+001 
3978125000  -4.199930e+001  -3.473911e+001 
3981250000  -4.183037e+001  -4.365380e+001 
3984375000  -4.246368e+001  -4.917879e+001 
3987500000  -4.306270e+001  -5.455118e+001 
3990625000  -4.311739e+001  -5.690473e+001 
3993750000  -4.291780e+001  -6.643978e+001 
3996875000  -4.295433e+001  -7.312051e+001 
4000000000  -4.328869e+001  -7.517867e+001 
4003125000  -4.381986e+001  -7.488969e+001 
4006250000  -4.219490e+001  -8.284039e+001 
4009375000  -4.130148e+001  -9.698942e+001 
4012500000  -4.283920e+001  -1.066029e+002 
4015625000  -4.380971e+001  -1.064253e+002 
4018750000  -4.396569e+001  -1.101832e+002 
4021875000  -4.289890e+001  -1.179986e+002 
4025000000  -4.270356e+001  -1.241380e+002 
4028125000  -4.314854e+001  -1.306482e+002 
4031250000  -4.385411e+001  -1.399796e+002 
4034375000  -4.448316e+001  -1.405990e+002 
4037500000  -4.387498e+001  -1.447416e+002 
4040625000  -4.407616e+001  -1.508307e+002 
4043750000  -4.478094e+001  -1.553408e+002 
4046875000  -4.429849e+001  -1.595873e+002 
4050000000  -4.397709e+001  -1.675412e+002 
4053125000  -4.527384e+001  -1.708793e+002 
4056250000  -4.554981e+001  -1.655823e+002 
4059375000  -4.392234e+001  -1.660607e+002 
4062500000  -4.373257e+001  -1.767520e+002 
4065625000  -4.353035e+001  1.790575e+002 
4068750000  -4.278596e+001  1.683751e+002 
4071875000  -4.260115e+001  1.595177e+002 
4075000000  -4.329790e+001  1.507150e+002 
4078125000  -4.443241e+001  1.479967e+002 
4081250000  -4.344414e+001  1.449239e+002 
4084375000  -4.310083e+001  1.349691e+002 
4087500000  -4.378826e+001  1.253014e+002 
4090625000  -4.453968e+001  1.255998e+002 
4093750000  -4.439360e+001  1.219689e+002 
4096875000  -4.404941e+001  1.146778e+002 
4100000000  -4.516173e+001  1.093373e+002 
4103125000  -4.559047e+001  1.121676e+002 
4106250000  -4.521568e+001  1.121750e+002 
4109375000  -4.443233e+001  1.066080e+002 
4112500000  -4.413461e+001  9.909598e+001 
4115625000  -4.422578e+001  9.693523e+001 
4118750000  -4.400552e+001  8.666327e+001 
4121875000  -4.391524e+001  8.203065e+001 
4125000000  -4.459332e+001  7.367405e+001 
4128125000  -4.489453e+001  7.661542e+001 
4131250000  -4.351443e+001  8.152630e+001 
4134375000  -4.161992e+001  6.649560e+001 
4137500000  -4.181380e+001  4.701074e+001 
4140625000  -4.402181e+001  3.904062e+001 
4143750000  -4.457599e+001  4.537707e+001 
4146875000  -4.366854e+001  4.691372e+001 
4150000000  -4.249758e+001  3.512894e+001 
4153125000  -4.310389e+001  2.547074e+001 
4156250000  -4.437212e+001  2.469535e+001 
4159375000  -4.358496e+001  2.593400e+001 
4162500000  -4.222143e+001  2.651991e+001 
4165625000  -4.145404e+001  1.344843e+001 
4168750000  -4.121721e+001  3.556351e+000 
4171875000  -4.130043e+001  -8.376712e+000 
4175000000  -4.206619e+001  -1.601601e+001 
4178125000  -4.202231e+001  -2.100525e+001 
4181250000  -4.172547e+001  -2.513759e+001 
4184375000  -4.279774e+001  -3.557609e+001 
4187500000  -4.216695e+001  -3.925797e+001 
4190625000  -4.276712e+001  -4.944125e+001 
4193750000  -4.397818e+001  -5.595468e+001 
4196875000  -4.487245e+001  -5.780666e+001 
4200000000  -4.594901e+001  -4.962406e+001 
4203125000  -4.393226e+001  -4.274847e+001 
4206250000  -4.116281e+001  -5.138164e+001 
4209375000  -4.151559e+001  -7.613907e+001 
4212500000  -4.389273e+001  -8.065769e+001 
4215625000  -4.376844e+001  -7.505080e+001 
4218750000  -4.223272e+001  -7.739510e+001 
4221875000  -4.074397e+001  -8.585570e+001 
4225000000  -4.220947e+001  -9.760722e+001 
4228125000  -4.232742e+001  -9.859311e+001 
4231250000  -4.121526e+001  -1.036601e+002 
4234375000  -4.108126e+001  -1.166014e+002 
4237500000  -4.067008e+001  -1.230109e+002 
4240625000  -4.126317e+001  -1.333594e+002 
4243750000  -4.242291e+001  -1.401105e+002 
4246875000  -4.316661e+001  -1.407086e+002 
4250000000  -4.271180e+001  -1.426127e+002 
4253125000  -4.254285e+001  -1.408048e+002 
4256250000  -4.230001e+001  -1.544782e+002 
4259375000  -4.201902e+001  -1.558473e+002 
4262500000  -4.248385e+001  -1.637904e+002 
4265625000  -4.197978e+001  -1.638733e+002 
4268750000  -4.110987e+001  -1.714660e+002 
4271875000  -4.043317e+001  1.781542e+002 
4275000000  -4.013786e+001  1.677644e+002 
4278125000  -4.115234e+001  1.552980e+002 
4281250000  -4.245987e+001  1.510946e+002 
4284375000  -4.252771e+001  1.480747e+002 
4287500000  -4.369924e+001  1.453827e+002 
4290625000  -4.389080e+001  1.522731e+002 
4293750000  -4.130485e+001  1.513280e+002 
4296875000  -4.040264e+001  1.361795e+002 
4300000000  -4.171013e+001  1.257400e+002 
4303125000  -4.179441e+001  1.289621e+002 
4306250000  -4.059243e+001  1.267240e+002 
4309375000  -3.966440e+001  1.191748e+002 
4312500000  -3.951012e+001  1.061085e+002 
4315625000  -3.996513e+001  9.586688e+001 
4318750000  -4.067398e+001  9.142601e+001 
4321875000  -4.074019e+001  8.832708e+001 
4325000000  -4.005405e+001  8.436904e+001 
4328125000  -3.925896e+001  7.446832e+001 
4331250000  -3.970391e+001  6.177294e+001 
4334375000  -4.078315e+001  5.178830e+001 
4337500000  -4.188567e+001  5.032431e+001 
4340625000  -4.199431e+001  5.419360e+001 
4343750000  -4.097099e+001  4.930829e+001 
4346875000  -4.088595e+001  3.728599e+001 
4350000000  -4.093022e+001  2.910458e+001 
4353125000  -4.210090e+001  2.153679e+001 
4356250000  -4.382224e+001  2.398382e+001 
4359375000  -4.279200e+001  3.619173e+001 
4362500000  -3.940938e+001  2.673876e+001 
4365625000  -3.922860e+001  9.279514e+000 
4368750000  -3.980154e+001  -7.690473e-001 
4371875000  -4.126814e+001  -5.949071e+000 
4375000000  -4.052228e+001  -9.276216e+000 
4378125000  -4.051231e+001  -1.841069e+001 
4381250000  -4.056209e+001  -2.389490e+001 
4384375000  -4.045882e+001  -3.472822e+001 
4387500000  -4.130497e+001  -3.971684e+001 
4390625000  -4.227709e+001  -4.316315e+001 
4393750000  -4.174465e+001  -4.430638e+001 
4396875000  -4.094863e+001  -4.810632e+001 
4400000000  -4.033385e+001  -5.865833e+001 
4403125000  -4.132584e+001  -6.917995e+001 
4406250000  -4.220705e+001  -7.298511e+001 
4409375000  -4.273697e+001  -7.796230e+001 
4412500000  -4.372306e+001  -7.909991e+001 
4415625000  -4.298389e+001  -7.701682e+001 
4418750000  -4.167564e+001  -7.795193e+001 
