!Agilent Technologies,E8363B,MY43030201,A.06.04.32
!Agilent E8363B: A.06.04.32
!Date: Tuesday, November 11, 2014 21:51:53
!Correction: S21(Response(S21)) 
!S1P File: Measurement: S21:
# Hz S  dB   R 50
3000000000  -4.377858e+001  -1.632856e+002 
3003125000  -4.513279e+001  -1.677648e+002 
3006250000  -4.534615e+001  -1.705498e+002 
3009375000  -4.591482e+001  -1.641609e+002 
3012500000  -4.494116e+001  -1.708771e+002 
3015625000  -4.492390e+001  -1.777355e+002 
3018750000  -4.522791e+001  -1.793179e+002 
3021875000  -4.381134e+001  1.790859e+002 
3025000000  -4.257949e+001  1.779060e+002 
3028125000  -4.175252e+001  1.648639e+002 
3031250000  -4.102719e+001  1.499442e+002 
3034375000  -4.077133e+001  1.371465e+002 
3037500000  -4.158419e+001  1.256387e+002 
3040625000  -4.309849e+001  1.201048e+002 
3043750000  -4.332359e+001  1.132746e+002 
3046875000  -4.422401e+001  1.071485e+002 
3050000000  -4.511905e+001  1.001713e+002 
3053125000  -4.468085e+001  1.042061e+002 
3056250000  -4.490058e+001  1.057332e+002 
3059375000  -4.396049e+001  1.049102e+002 
3062500000  -4.259688e+001  9.903688e+001 
3065625000  -4.235204e+001  8.637059e+001 
3068750000  -4.179439e+001  8.041697e+001 
3071875000  -4.178872e+001  7.827066e+001 
3075000000  -4.127973e+001  6.939384e+001 
3078125000  -4.128574e+001  6.243653e+001 
3081250000  -4.128857e+001  5.635973e+001 
3084375000  -4.041170e+001  4.936365e+001 
3087500000  -4.042041e+001  4.228488e+001 
3090625000  -4.003391e+001  2.907306e+001 
3093750000  -4.109881e+001  1.999361e+001 
3096875000  -4.128814e+001  1.335167e+001 
3100000000  -4.116537e+001  1.049874e+001 
3103125000  -4.143248e+001  7.107910e+000 
3106250000  -4.101039e+001  -3.448626e-001 
3109375000  -4.088668e+001  -4.167725e+000 
3112500000  -4.085536e+001  -1.234424e+001 
3115625000  -4.089161e+001  -1.734923e+001 
3118750000  -4.066069e+001  -2.221880e+001 
3121875000  -4.012602e+001  -3.470983e+001 
3125000000  -4.229585e+001  -3.728569e+001 
3128125000  -4.190785e+001  -3.174513e+001 
3131250000  -3.951097e+001  -3.994118e+001 
3134375000  -3.894645e+001  -5.751567e+001 
3137500000  -3.964618e+001  -7.236893e+001 
3140625000  -4.099895e+001  -7.523901e+001 
3143750000  -4.168895e+001  -8.027596e+001 
3146875000  -4.101918e+001  -7.887822e+001 
3150000000  -4.025796e+001  -8.416294e+001 
3153125000  -4.066267e+001  -9.266258e+001 
3156250000  -4.127949e+001  -9.095640e+001 
3159375000  -3.907573e+001  -9.355218e+001 
3162500000  -3.771474e+001  -1.103666e+002 
3165625000  -3.900178e+001  -1.232485e+002 
3168750000  -3.896952e+001  -1.249505e+002 
3171875000  -3.849587e+001  -1.335294e+002 
3175000000  -3.898713e+001  -1.435824e+002 
3178125000  -3.854548e+001  -1.450588e+002 
3181250000  -3.806915e+001  -1.566818e+002 
3184375000  -3.771068e+001  -1.677565e+002 
3187500000  -3.934100e+001  1.753782e+002 
3190625000  -4.078065e+001  1.694839e+002 
3193750000  -4.102230e+001  1.734527e+002 
3196875000  -4.107783e+001  1.727062e+002 
3200000000  -3.982786e+001  1.682222e+002 
3203125000  -3.952296e+001  1.590615e+002 
3206250000  -3.977629e+001  1.501606e+002 
3209375000  -3.948685e+001  1.417809e+002 
3212500000  -3.997411e+001  1.355031e+002 
3215625000  -3.961479e+001  1.319512e+002 
3218750000  -4.037843e+001  1.188580e+002 
3221875000  -4.090806e+001  1.130933e+002 
3225000000  -4.021259e+001  1.065497e+002 
3228125000  -4.110731e+001  9.935683e+001 
3231250000  -4.137691e+001  9.646953e+001 
3234375000  -4.103543e+001  9.167474e+001 
3237500000  -4.111265e+001  8.849967e+001 
3240625000  -4.023872e+001  8.207941e+001 
3243750000  -4.027686e+001  6.944846e+001 
3246875000  -4.060712e+001  6.126074e+001 
3250000000  -4.086642e+001  5.718930e+001 
3253125000  -4.116299e+001  5.304965e+001 
3256250000  -4.046755e+001  4.227800e+001 
3259375000  -4.084970e+001  3.067358e+001 
3262500000  -4.249171e+001  2.510008e+001 
3265625000  -4.252700e+001  2.727459e+001 
3268750000  -4.237168e+001  2.569205e+001 
3271875000  -4.170864e+001  1.941196e+001 
3275000000  -4.113743e+001  9.114551e+000 
3278125000  -4.173887e+001  2.604763e+000 
3281250000  -4.173460e+001  -2.307367e+000 
3284375000  -4.099737e+001  -8.497540e+000 
3287500000  -4.146165e+001  -1.714024e+001 
3290625000  -4.161098e+001  -2.765861e+001 
3293750000  -4.162324e+001  -3.395739e+001 
3296875000  -4.268351e+001  -3.877261e+001 
3300000000  -4.173907e+001  -4.061384e+001 
3303125000  -4.091610e+001  -5.035428e+001 
3306250000  -4.085815e+001  -6.197005e+001 
3309375000  -4.039286e+001  -7.241145e+001 
3312500000  -4.123079e+001  -8.771119e+001 
3315625000  -4.258755e+001  -9.518831e+001 
3318750000  -4.376014e+001  -1.031715e+002 
3321875000  -4.525177e+001  -1.007812e+002 
3325000000  -4.520397e+001  -9.623548e+001 
3328125000  -4.416357e+001  -9.776416e+001 
3331250000  -4.212140e+001  -1.001897e+002 
3334375000  -3.997906e+001  -1.180589e+002 
3337500000  -4.103136e+001  -1.414896e+002 
3340625000  -4.242842e+001  -1.518544e+002 
3343750000  -4.478004e+001  -1.542247e+002 
3346875000  -4.424195e+001  -1.572321e+002 
3350000000  -4.352459e+001  -1.603736e+002 
3353125000  -4.365636e+001  -1.721684e+002 
3356250000  -4.338502e+001  1.792519e+002 
3359375000  -4.432110e+001  1.644758e+002 
3362500000  -4.525226e+001  1.571373e+002 
3365625000  -4.575929e+001  1.490752e+002 
3368750000  -4.626320e+001  1.448115e+002 
3371875000  -4.663478e+001  1.385707e+002 
3375000000  -4.880629e+001  1.322857e+002 
3378125000  -4.907206e+001  1.324465e+002 
3381250000  -5.094049e+001  1.392928e+002 
3384375000  -4.695728e+001  1.542708e+002 
3387500000  -4.455031e+001  1.252770e+002 
3390625000  -4.679616e+001  1.056230e+002 
3393750000  -4.742328e+001  1.058605e+002 
3396875000  -4.640771e+001  1.005567e+002 
3400000000  -4.624490e+001  8.733810e+001 
3403125000  -4.691883e+001  7.907034e+001 
3406250000  -4.761378e+001  6.946004e+001 
3409375000  -4.735157e+001  5.900447e+001 
3412500000  -4.739444e+001  5.464498e+001 
3415625000  -4.885672e+001  4.723442e+001 
3418750000  -4.848079e+001  4.253410e+001 
3421875000  -4.873984e+001  4.278670e+001 
3425000000  -4.762815e+001  3.506145e+001 
3428125000  -4.714952e+001  2.538672e+001 
3431250000  -4.697628e+001  1.596495e+001 
3434375000  -4.687474e+001  -8.643044e-001 
3437500000  -4.760384e+001  -6.043046e+000 
3440625000  -4.786843e+001  -1.027888e+001 
3443750000  -4.641369e+001  -1.212065e+001 
3446875000  -4.572037e+001  -2.915371e+001 
3450000000  -4.531034e+001  -4.530524e+001 
3453125000  -4.584729e+001  -6.393814e+001 
3456250000  -4.717196e+001  -7.188010e+001 
3459375000  -4.839860e+001  -7.544269e+001 
3462500000  -4.801175e+001  -7.505495e+001 
3465625000  -4.714902e+001  -9.209451e+001 
3468750000  -4.758716e+001  -9.513475e+001 
3471875000  -4.699063e+001  -1.043124e+002 
3475000000  -4.724853e+001  -1.164954e+002 
3478125000  -4.803126e+001  -1.310314e+002 
3481250000  -4.952555e+001  -1.313257e+002 
3484375000  -4.881506e+001  -1.348858e+002 
3487500000  -4.789482e+001  -1.408638e+002 
3490625000  -4.761726e+001  -1.529233e+002 
3493750000  -4.842377e+001  -1.669714e+002 
3496875000  -4.835045e+001  -1.686435e+002 
3500000000  -4.844301e+001  -1.729483e+002 
3503125000  -4.692676e+001  -1.762340e+002 
3506250000  -4.549017e+001  1.702149e+002 
3509375000  -4.544349e+001  1.530524e+002 
3512500000  -4.620218e+001  1.346465e+002 
3515625000  -4.724139e+001  1.322215e+002 
3518750000  -4.795647e+001  1.287368e+002 
3521875000  -4.799063e+001  1.190252e+002 
3525000000  -4.849415e+001  1.127281e+002 
3528125000  -4.785148e+001  1.155998e+002 
3531250000  -4.655695e+001  1.029323e+002 
3534375000  -4.697167e+001  8.516407e+001 
3537500000  -4.777379e+001  7.813933e+001 
3540625000  -4.841210e+001  7.529073e+001 
3543750000  -4.904997e+001  7.964009e+001 
3546875000  -4.857355e+001  8.038393e+001 
3550000000  -4.648991e+001  7.326682e+001 
3553125000  -4.590338e+001  5.590581e+001 
3556250000  -4.749995e+001  4.755712e+001 
3559375000  -4.699456e+001  4.210936e+001 
3562500000  -4.655122e+001  2.957645e+001 
3565625000  -4.718266e+001  2.503538e+001 
3568750000  -4.819833e+001  2.268973e+001 
3571875000  -4.742863e+001  1.663162e+001 
3575000000  -4.693495e+001  1.208601e+001 
3578125000  -4.743170e+001  8.356710e+000 
3581250000  -4.725926e+001  3.785485e-001 
3584375000  -4.599459e+001  -5.129587e+000 
3587500000  -4.585221e+001  -1.575517e+001 
3590625000  -4.649221e+001  -2.951649e+001 
3593750000  -4.770720e+001  -2.555478e+001 
3596875000  -4.674123e+001  -2.161378e+001 
3600000000  -4.485740e+001  -3.339568e+001 
3603125000  -4.482716e+001  -4.917369e+001 
3606250000  -4.601926e+001  -5.202870e+001 
3609375000  -4.585294e+001  -5.900034e+001 
3612500000  -4.578339e+001  -6.527667e+001 
3615625000  -4.604921e+001  -7.030185e+001 
3618750000  -4.646343e+001  -7.325108e+001 
3621875000  -4.539077e+001  -7.971069e+001 
3625000000  -4.536795e+001  -8.389966e+001 
3628125000  -4.507804e+001  -8.968074e+001 
3631250000  -4.503976e+001  -1.008174e+002 
3634375000  -4.571757e+001  -9.785877e+001 
3637500000  -4.452674e+001  -1.026017e+002 
3640625000  -4.360295e+001  -1.099722e+002 
3643750000  -4.343339e+001  -1.221724e+002 
3646875000  -4.389640e+001  -1.297906e+002 
3650000000  -4.419552e+001  -1.359190e+002 
3653125000  -4.321098e+001  -1.449442e+002 
3656250000  -4.412845e+001  -1.489926e+002 
3659375000  -4.382629e+001  -1.543554e+002 
3662500000  -4.302827e+001  -1.617331e+002 
3665625000  -4.346843e+001  -1.664380e+002 
3668750000  -4.226554e+001  -1.689078e+002 
3671875000  -4.142391e+001  1.750007e+002 
3675000000  -4.229446e+001  1.661862e+002 
3678125000  -4.263939e+001  1.605912e+002 
3681250000  -4.249741e+001  1.532323e+002 
3684375000  -4.285830e+001  1.471571e+002 
3687500000  -4.291596e+001  1.375303e+002 
3690625000  -4.332655e+001  1.323169e+002 
3693750000  -4.426864e+001  1.299072e+002 
3696875000  -4.368801e+001  1.276043e+002 
3700000000  -4.324463e+001  1.182311e+002 
3703125000  -4.376462e+001  1.127250e+002 
3706250000  -4.478499e+001  1.093185e+002 
3709375000  -4.406783e+001  1.089348e+002 
3712500000  -4.261598e+001  1.030445e+002 
3715625000  -4.151385e+001  9.347854e+001 
3718750000  -4.188686e+001  8.407911e+001 
3721875000  -4.166902e+001  7.691516e+001 
3725000000  -4.236919e+001  6.816591e+001 
3728125000  -4.249328e+001  6.458379e+001 
3731250000  -4.182907e+001  5.845046e+001 
3734375000  -4.209794e+001  4.906513e+001 
3737500000  -4.254045e+001  4.104370e+001 
3740625000  -4.292663e+001  3.381195e+001 
3743750000  -4.287078e+001  2.992336e+001 
3746875000  -4.318741e+001  2.216791e+001 
3750000000  -4.355604e+001  1.885347e+001 
3753125000  -4.383976e+001  1.292823e+001 
3756250000  -4.417742e+001  1.187855e+001 
3759375000  -4.350954e+001  5.921753e+000 
3762500000  -4.333236e+001  9.079831e-001 
3765625000  -4.420014e+001  -3.972760e+000 
3768750000  -4.356624e+001  -4.242571e+000 
3771875000  -4.178479e+001  -9.144699e+000 
3775000000  -4.210398e+001  -2.266839e+001 
3778125000  -4.250436e+001  -2.782603e+001 
3781250000  -4.257881e+001  -3.085967e+001 
3784375000  -4.225477e+001  -3.897744e+001 
3787500000  -4.237464e+001  -4.181423e+001 
3790625000  -4.271201e+001  -5.476366e+001 
3793750000  -4.242963e+001  -5.635504e+001 
3796875000  -4.170649e+001  -6.342717e+001 
3800000000  -4.078534e+001  -6.976864e+001 
3803125000  -4.147484e+001  -8.109504e+001 
3806250000  -4.263257e+001  -8.498798e+001 
3809375000  -4.198429e+001  -9.093951e+001 
3812500000  -4.200539e+001  -1.014280e+002 
3815625000  -4.326623e+001  -1.131888e+002 
3818750000  -4.393382e+001  -1.101505e+002 
3821875000  -4.363786e+001  -1.000817e+002 
3825000000  -4.157185e+001  -1.043023e+002 
3828125000  -4.044903e+001  -1.276940e+002 
3831250000  -4.151717e+001  -1.419837e+002 
3834375000  -4.357421e+001  -1.451718e+002 
3837500000  -4.406255e+001  -1.408088e+002 
3840625000  -4.210801e+001  -1.469636e+002 
3843750000  -4.153918e+001  -1.631038e+002 
3846875000  -4.331557e+001  -1.699264e+002 
3850000000  -4.417715e+001  -1.620748e+002 
3853125000  -4.368684e+001  -1.621470e+002 
3856250000  -4.325475e+001  -1.709234e+002 
3859375000  -4.214274e+001  1.780665e+002 
3862500000  -4.207372e+001  1.677239e+002 
3865625000  -4.256573e+001  1.618478e+002 
3868750000  -4.210505e+001  1.612849e+002 
3871875000  -4.145062e+001  1.503503e+002 
3875000000  -4.235719e+001  1.400356e+002 
3878125000  -4.309567e+001  1.367031e+002 
3881250000  -4.331405e+001  1.363569e+002 
3884375000  -4.221758e+001  1.253681e+002 
3887500000  -4.286428e+001  1.190956e+002 
3890625000  -4.389990e+001  1.134206e+002 
3893750000  -4.433020e+001  1.115131e+002 
3896875000  -4.410885e+001  1.095350e+002 
3900000000  -4.427545e+001  1.035895e+002 
3903125000  -4.321503e+001  9.870809e+001 
3906250000  -4.313729e+001  9.767761e+001 
3909375000  -4.265080e+001  8.581759e+001 
3912500000  -4.392053e+001  7.735901e+001 
3915625000  -4.455590e+001  7.716232e+001 
3918750000  -4.467986e+001  7.609076e+001 
3921875000  -4.353069e+001  7.102022e+001 
3925000000  -4.322179e+001  6.433174e+001 
3928125000  -4.270652e+001  5.441063e+001 
3931250000  -4.370416e+001  4.685443e+001 
3934375000  -4.381448e+001  4.542058e+001 
3937500000  -4.458252e+001  4.118222e+001 
3940625000  -4.443406e+001  4.120378e+001 
3943750000  -4.337998e+001  3.429327e+001 
3946875000  -4.257695e+001  2.841855e+001 
3950000000  -4.431017e+001  1.799946e+001 
3953125000  -4.429694e+001  1.924922e+001 
3956250000  -4.307886e+001  1.701307e+001 
3959375000  -4.175335e+001  1.237422e+001 
3962500000  -4.124535e+001  1.253042e+000 
3965625000  -4.163852e+001  -9.329247e+000 
3968750000  -4.275343e+001  -1.960481e+001 
3971875000  -4.258449e+001  -2.292337e+001 
3975000000  -4.198941e+001  -2.671577e+001 
3978125000  -4.219321e+001  -3.331496e+001 
3981250000  -4.181692e+001  -4.133594e+001 
3984375000  -4.248705e+001  -5.039401e+001 
3987500000  -4.314185e+001  -5.742587e+001 
3990625000  -4.314631e+001  -5.764083e+001 
3993750000  -4.308208e+001  -6.409826e+001 
3996875000  -4.262843e+001  -7.083903e+001 
4000000000  -4.366745e+001  -7.346846e+001 
4003125000  -4.368593e+001  -7.234015e+001 
4006250000  -4.209122e+001  -8.034279e+001 
4009375000  -4.106857e+001  -9.778571e+001 
4012500000  -4.269878e+001  -1.043657e+002 
4015625000  -4.364407e+001  -1.063292e+002 
4018750000  -4.405256e+001  -1.095266e+002 
4021875000  -4.292549e+001  -1.177049e+002 
4025000000  -4.269129e+001  -1.230959e+002 
4028125000  -4.326131e+001  -1.323717e+002 
4031250000  -4.416543e+001  -1.390461e+002 
4034375000  -4.398758e+001  -1.405147e+002 
4037500000  -4.410741e+001  -1.449105e+002 
4040625000  -4.439622e+001  -1.519566e+002 
4043750000  -4.429316e+001  -1.526126e+002 
4046875000  -4.411003e+001  -1.576682e+002 
4050000000  -4.433903e+001  -1.643985e+002 
4053125000  -4.498625e+001  -1.683248e+002 
4056250000  -4.526307e+001  -1.663623e+002 
4059375000  -4.374041e+001  -1.683913e+002 
4062500000  -4.343975e+001  -1.758655e+002 
4065625000  -4.346983e+001  1.786688e+002 
4068750000  -4.263638e+001  1.668900e+002 
4071875000  -4.271767e+001  1.609567e+002 
4075000000  -4.349506e+001  1.540360e+002 
4078125000  -4.401556e+001  1.494225e+002 
4081250000  -4.361635e+001  1.419033e+002 
4084375000  -4.317511e+001  1.377166e+002 
4087500000  -4.380479e+001  1.301710e+002 
4090625000  -4.454375e+001  1.243401e+002 
4093750000  -4.456165e+001  1.207625e+002 
4096875000  -4.422995e+001  1.129037e+002 
4100000000  -4.502464e+001  1.078571e+002 
4103125000  -4.557701e+001  1.111955e+002 
4106250000  -4.570004e+001  1.137602e+002 
4109375000  -4.444205e+001  1.053946e+002 
4112500000  -4.396582e+001  9.840089e+001 
4115625000  -4.412445e+001  9.274704e+001 
4118750000  -4.396221e+001  8.845025e+001 
4121875000  -4.384674e+001  7.910443e+001 
4125000000  -4.466185e+001  7.228895e+001 
4128125000  -4.505233e+001  7.679561e+001 
4131250000  -4.370359e+001  8.047208e+001 
4134375000  -4.182735e+001  6.794588e+001 
4137500000  -4.261208e+001  4.554521e+001 
4140625000  -4.405148e+001  4.164023e+001 
4143750000  -4.472865e+001  4.593298e+001 
4146875000  -4.376820e+001  4.551783e+001 
4150000000  -4.256751e+001  3.600197e+001 
4153125000  -4.306913e+001  2.854546e+001 
4156250000  -4.412472e+001  2.213694e+001 
4159375000  -4.336809e+001  2.776147e+001 
4162500000  -4.266903e+001  2.309837e+001 
4165625000  -4.142067e+001  1.346203e+001 
4168750000  -4.100874e+001  1.859038e+000 
4171875000  -4.128715e+001  -7.965347e+000 
4175000000  -4.228774e+001  -1.533069e+001 
4178125000  -4.225618e+001  -2.048895e+001 
4181250000  -4.198468e+001  -2.325154e+001 
4184375000  -4.253911e+001  -3.391378e+001 
4187500000  -4.228237e+001  -3.827785e+001 
4190625000  -4.275844e+001  -4.940400e+001 
4193750000  -4.412428e+001  -5.510530e+001 
4196875000  -4.504025e+001  -5.665456e+001 
4200000000  -4.623071e+001  -4.919108e+001 
4203125000  -4.430483e+001  -3.773589e+001 
4206250000  -4.139341e+001  -5.197446e+001 
4209375000  -4.127859e+001  -7.664721e+001 
4212500000  -4.360797e+001  -8.247998e+001 
4215625000  -4.406404e+001  -7.366862e+001 
4218750000  -4.213397e+001  -7.581470e+001 
4221875000  -4.146053e+001  -8.503384e+001 
4225000000  -4.186828e+001  -9.628441e+001 
4228125000  -4.212774e+001  -9.675225e+001 
4231250000  -4.090177e+001  -1.050863e+002 
4234375000  -4.089727e+001  -1.156796e+002 
4237500000  -4.066112e+001  -1.218809e+002 
4240625000  -4.111078e+001  -1.339419e+002 
4243750000  -4.234958e+001  -1.406858e+002 
4246875000  -4.311203e+001  -1.427780e+002 
4250000000  -4.227305e+001  -1.419818e+002 
4253125000  -4.273863e+001  -1.457324e+002 
4256250000  -4.263180e+001  -1.507246e+002 
4259375000  -4.195404e+001  -1.584907e+002 
4262500000  -4.220008e+001  -1.617200e+002 
4265625000  -4.182626e+001  -1.652700e+002 
4268750000  -4.065832e+001  -1.721293e+002 
4271875000  -4.075723e+001  1.778405e+002 
4275000000  -4.008459e+001  1.685591e+002 
4278125000  -4.135342e+001  1.537910e+002 
4281250000  -4.256355e+001  1.538472e+002 
4284375000  -4.225644e+001  1.485793e+002 
4287500000  -4.367676e+001  1.466590e+002 
4290625000  -4.366363e+001  1.544708e+002 
4293750000  -4.138755e+001  1.546507e+002 
4296875000  -4.069749e+001  1.376713e+002 
4300000000  -4.168830e+001  1.274182e+002 
4303125000  -4.185734e+001  1.284448e+002 
4306250000  -4.051796e+001  1.274079e+002 
4309375000  -3.966908e+001  1.174013e+002 
4312500000  -3.955150e+001  1.051060e+002 
4315625000  -4.009632e+001  9.667088e+001 
4318750000  -4.073564e+001  9.060030e+001 
4321875000  -4.051529e+001  8.845063e+001 
4325000000  -4.024226e+001  8.425416e+001 
4328125000  -3.916336e+001  7.190774e+001 
4331250000  -3.974202e+001  6.120304e+001 
4334375000  -4.086683e+001  5.343162e+001 
4337500000  -4.200907e+001  5.001517e+001 
4340625000  -4.209702e+001  5.584165e+001 
4343750000  -4.106063e+001  4.785393e+001 
4346875000  -4.079964e+001  4.270833e+001 
4350000000  -4.085155e+001  3.013722e+001 
4353125000  -4.169513e+001  2.091426e+001 
4356250000  -4.367400e+001  2.195635e+001 
4359375000  -4.274780e+001  3.830445e+001 
4362500000  -3.945129e+001  2.861678e+001 
4365625000  -3.893172e+001  9.482733e+000 
4368750000  -4.035850e+001  -7.654733e-001 
4371875000  -4.113928e+001  -3.769299e+000 
4375000000  -4.064864e+001  -8.020913e+000 
4378125000  -4.038640e+001  -1.793881e+001 
4381250000  -4.067006e+001  -2.423532e+001 
4384375000  -4.052317e+001  -3.453448e+001 
4387500000  -4.152055e+001  -4.029271e+001 
4390625000  -4.251688e+001  -4.300035e+001 
4393750000  -4.174855e+001  -4.365307e+001 
4396875000  -4.113608e+001  -4.859883e+001 
4400000000  -4.051815e+001  -5.993622e+001 
4403125000  -4.159089e+001  -6.774493e+001 
4406250000  -4.220087e+001  -7.320983e+001 
4409375000  -4.259284e+001  -7.670741e+001 
4412500000  -4.363927e+001  -7.776372e+001 
4415625000  -4.287563e+001  -7.533089e+001 
4418750000  -4.167578e+001  -7.561392e+001 
