!Agilent Technologies,E8363B,MY43030201,A.06.04.32
!Agilent E8363B: A.06.04.32
!Date: Tuesday, November 11, 2014 21:43:48
!Correction: S21(Response(S21)) 
!S1P File: Measurement: S21:
# Hz S  dB   R 50
3000000000  -4.364772e+001  -1.594885e+002 
3003125000  -4.541491e+001  -1.648002e+002 
3006250000  -4.536150e+001  -1.655719e+002 
3009375000  -4.599002e+001  -1.627600e+002 
3012500000  -4.476990e+001  -1.693357e+002 
3015625000  -4.520377e+001  -1.766339e+002 
3018750000  -4.526495e+001  -1.767813e+002 
3021875000  -4.398428e+001  -1.790612e+002 
3025000000  -4.263142e+001  1.790257e+002 
3028125000  -4.166285e+001  1.676550e+002 
3031250000  -4.098674e+001  1.528615e+002 
3034375000  -4.076146e+001  1.394862e+002 
3037500000  -4.152481e+001  1.279700e+002 
3040625000  -4.295834e+001  1.224847e+002 
3043750000  -4.342474e+001  1.155308e+002 
3046875000  -4.422439e+001  1.072545e+002 
3050000000  -4.558806e+001  1.031372e+002 
3053125000  -4.473665e+001  1.083449e+002 
3056250000  -4.466864e+001  1.096481e+002 
3059375000  -4.394886e+001  1.073311e+002 
3062500000  -4.256366e+001  1.035023e+002 
3065625000  -4.198859e+001  9.005575e+001 
3068750000  -4.176818e+001  8.364800e+001 
3071875000  -4.186174e+001  8.019967e+001 
3075000000  -4.117083e+001  7.162157e+001 
3078125000  -4.135365e+001  6.431223e+001 
3081250000  -4.144119e+001  5.790619e+001 
3084375000  -4.041067e+001  5.250193e+001 
3087500000  -4.070557e+001  4.497832e+001 
3090625000  -4.014069e+001  3.275425e+001 
3093750000  -4.111216e+001  2.271908e+001 
3096875000  -4.123022e+001  1.899552e+001 
3100000000  -4.105794e+001  1.331179e+001 
3103125000  -4.139513e+001  9.385489e+000 
3106250000  -4.092953e+001  3.490808e+000 
3109375000  -4.080899e+001  -1.612897e+000 
3112500000  -4.094307e+001  -9.773757e+000 
3115625000  -4.092447e+001  -1.418184e+001 
3118750000  -4.088050e+001  -1.896944e+001 
3121875000  -4.024959e+001  -2.993872e+001 
3125000000  -4.233376e+001  -3.580139e+001 
3128125000  -4.196543e+001  -2.845513e+001 
3131250000  -3.946521e+001  -3.716366e+001 
3134375000  -3.891730e+001  -5.592142e+001 
3137500000  -3.960450e+001  -6.891207e+001 
3140625000  -4.088428e+001  -7.288139e+001 
3143750000  -4.171623e+001  -7.636408e+001 
3146875000  -4.104424e+001  -7.565264e+001 
3150000000  -4.049051e+001  -8.110540e+001 
3153125000  -4.075578e+001  -8.889452e+001 
3156250000  -4.139069e+001  -8.763489e+001 
3159375000  -3.932547e+001  -8.916074e+001 
3162500000  -3.762911e+001  -1.081442e+002 
3165625000  -3.913801e+001  -1.219207e+002 
3168750000  -3.895474e+001  -1.229515e+002 
3171875000  -3.857650e+001  -1.321272e+002 
3175000000  -3.908886e+001  -1.416073e+002 
3178125000  -3.864077e+001  -1.436560e+002 
3181250000  -3.805116e+001  -1.529990e+002 
3184375000  -3.783383e+001  -1.660542e+002 
3187500000  -3.926621e+001  1.784817e+002 
3190625000  -4.103949e+001  1.719486e+002 
3193750000  -4.102511e+001  1.766375e+002 
3196875000  -4.107247e+001  1.768227e+002 
3200000000  -3.988950e+001  1.697007e+002 
3203125000  -3.966921e+001  1.618111e+002 
3206250000  -3.971708e+001  1.538073e+002 
3209375000  -3.957046e+001  1.457630e+002 
3212500000  -4.012766e+001  1.377983e+002 
3215625000  -3.977036e+001  1.333158e+002 
3218750000  -4.024171e+001  1.223409e+002 
3221875000  -4.062409e+001  1.143340e+002 
3225000000  -4.067098e+001  1.091427e+002 
3228125000  -4.116825e+001  1.022467e+002 
3231250000  -4.154079e+001  9.838934e+001 
3234375000  -4.114627e+001  9.537698e+001 
3237500000  -4.086281e+001  9.178570e+001 
3240625000  -4.054012e+001  8.492588e+001 
3243750000  -4.043940e+001  7.140598e+001 
3246875000  -4.067350e+001  6.517199e+001 
3250000000  -4.110022e+001  6.012445e+001 
3253125000  -4.125466e+001  5.440581e+001 
3256250000  -4.050407e+001  4.671378e+001 
3259375000  -4.110053e+001  3.298397e+001 
3262500000  -4.241369e+001  2.810816e+001 
3265625000  -4.273642e+001  2.927063e+001 
3268750000  -4.261147e+001  2.892355e+001 
3271875000  -4.180644e+001  2.183014e+001 
3275000000  -4.138621e+001  9.866956e+000 
3278125000  -4.178716e+001  5.458885e+000 
3281250000  -4.170013e+001  2.013126e+000 
3284375000  -4.118660e+001  -7.007880e+000 
3287500000  -4.169732e+001  -1.490909e+001 
3290625000  -4.164373e+001  -2.548534e+001 
3293750000  -4.160411e+001  -3.341830e+001 
3296875000  -4.282097e+001  -3.698082e+001 
3300000000  -4.213170e+001  -3.848625e+001 
3303125000  -4.097544e+001  -4.867518e+001 
3306250000  -4.101968e+001  -5.869566e+001 
3309375000  -4.069315e+001  -7.098401e+001 
3312500000  -4.120018e+001  -8.452761e+001 
3315625000  -4.263523e+001  -9.293699e+001 
3318750000  -4.390816e+001  -1.004040e+002 
3321875000  -4.570931e+001  -9.897992e+001 
3325000000  -4.527089e+001  -9.464261e+001 
3328125000  -4.392389e+001  -9.718143e+001 
3331250000  -4.246171e+001  -9.772033e+001 
3334375000  -4.006768e+001  -1.166357e+002 
3337500000  -4.102295e+001  -1.405154e+002 
3340625000  -4.286063e+001  -1.505340e+002 
3343750000  -4.480228e+001  -1.520085e+002 
3346875000  -4.413629e+001  -1.576606e+002 
3350000000  -4.349636e+001  -1.595543e+002 
3353125000  -4.391795e+001  -1.708146e+002 
3356250000  -4.361994e+001  1.799126e+002 
3359375000  -4.444647e+001  1.657017e+002 
3362500000  -4.548091e+001  1.583700e+002 
3365625000  -4.551302e+001  1.523238e+002 
3368750000  -4.641594e+001  1.467467e+002 
3371875000  -4.681786e+001  1.403770e+002 
3375000000  -4.859911e+001  1.340143e+002 
3378125000  -4.903574e+001  1.351696e+002 
3381250000  -5.037621e+001  1.428366e+002 
3384375000  -4.732368e+001  1.565085e+002 
3387500000  -4.466533e+001  1.278687e+002 
3390625000  -4.720667e+001  1.043053e+002 
3393750000  -4.749955e+001  1.058650e+002 
3396875000  -4.656392e+001  9.929421e+001 
3400000000  -4.646463e+001  8.584057e+001 
3403125000  -4.699326e+001  8.062032e+001 
3406250000  -4.754906e+001  7.324784e+001 
3409375000  -4.742949e+001  6.059407e+001 
3412500000  -4.773455e+001  5.350753e+001 
3415625000  -4.872454e+001  4.781752e+001 
3418750000  -4.861418e+001  4.437723e+001 
3421875000  -4.924498e+001  4.251975e+001 
3425000000  -4.777768e+001  3.304094e+001 
3428125000  -4.708407e+001  2.925660e+001 
3431250000  -4.685451e+001  1.490679e+001 
3434375000  -4.748906e+001  3.198389e+000 
3437500000  -4.745710e+001  -3.439871e+000 
3440625000  -4.779247e+001  -9.266226e+000 
3443750000  -4.669978e+001  -1.213603e+001 
3446875000  -4.550774e+001  -2.536177e+001 
3450000000  -4.485635e+001  -4.231847e+001 
3453125000  -4.558723e+001  -6.008263e+001 
3456250000  -4.745209e+001  -6.839248e+001 
3459375000  -4.793496e+001  -7.222013e+001 
3462500000  -4.772103e+001  -7.854865e+001 
3465625000  -4.725663e+001  -8.667461e+001 
3468750000  -4.778466e+001  -9.734264e+001 
3471875000  -4.656942e+001  -1.053114e+002 
3475000000  -4.674081e+001  -1.136829e+002 
3478125000  -4.769811e+001  -1.289631e+002 
3481250000  -4.867697e+001  -1.333257e+002 
3484375000  -4.914295e+001  -1.335737e+002 
3487500000  -4.794281e+001  -1.401583e+002 
3490625000  -4.722108e+001  -1.506637e+002 
3493750000  -4.800740e+001  -1.657497e+002 
3496875000  -4.807850e+001  -1.694888e+002 
3500000000  -4.836966e+001  -1.702939e+002 
3503125000  -4.712444e+001  -1.761059e+002 
3506250000  -4.509610e+001  1.705092e+002 
3509375000  -4.539634e+001  1.528764e+002 
3512500000  -4.588760e+001  1.389918e+002 
3515625000  -4.742266e+001  1.331315e+002 
3518750000  -4.780083e+001  1.300020e+002 
3521875000  -4.773408e+001  1.175211e+002 
3525000000  -4.852965e+001  1.148702e+002 
3528125000  -4.739040e+001  1.166866e+002 
3531250000  -4.641390e+001  1.050797e+002 
3534375000  -4.693568e+001  8.811226e+001 
3537500000  -4.785032e+001  8.139574e+001 
3540625000  -4.894413e+001  7.985637e+001 
3543750000  -4.969551e+001  7.991238e+001 
3546875000  -4.886645e+001  8.559541e+001 
3550000000  -4.681987e+001  7.760745e+001 
3553125000  -4.573651e+001  5.714111e+001 
3556250000  -4.700626e+001  5.087263e+001 
3559375000  -4.632733e+001  4.428750e+001 
3562500000  -4.666307e+001  3.551239e+001 
3565625000  -4.750072e+001  2.492668e+001 
3568750000  -4.765829e+001  2.361533e+001 
3571875000  -4.716055e+001  2.044937e+001 
3575000000  -4.710589e+001  1.085700e+001 
3578125000  -4.800194e+001  9.968985e+000 
3581250000  -4.750373e+001  4.409807e+000 
3584375000  -4.595834e+001  3.155169e-001 
3587500000  -4.566885e+001  -1.146776e+001 
3590625000  -4.663963e+001  -2.312400e+001 
3593750000  -4.719984e+001  -2.581981e+001 
3596875000  -4.643292e+001  -2.136154e+001 
3600000000  -4.513554e+001  -3.219364e+001 
3603125000  -4.532178e+001  -4.458570e+001 
3606250000  -4.547729e+001  -5.034284e+001 
3609375000  -4.591126e+001  -5.478981e+001 
3612500000  -4.612710e+001  -6.167791e+001 
3615625000  -4.607689e+001  -6.973912e+001 
3618750000  -4.608395e+001  -6.704397e+001 
3621875000  -4.562394e+001  -7.447021e+001 
3625000000  -4.556559e+001  -7.771289e+001 
3628125000  -4.475048e+001  -8.736926e+001 
3631250000  -4.494528e+001  -9.504318e+001 
3634375000  -4.578173e+001  -9.675323e+001 
3637500000  -4.468096e+001  -9.838583e+001 
3640625000  -4.391690e+001  -1.044701e+002 
3643750000  -4.316172e+001  -1.181917e+002 
3646875000  -4.393907e+001  -1.276966e+002 
3650000000  -4.385635e+001  -1.323996e+002 
3653125000  -4.316340e+001  -1.404279e+002 
3656250000  -4.431847e+001  -1.454906e+002 
3659375000  -4.399024e+001  -1.497456e+002 
3662500000  -4.338145e+001  -1.599694e+002 
3665625000  -4.341508e+001  -1.641098e+002 
3668750000  -4.201527e+001  -1.662455e+002 
3671875000  -4.150470e+001  1.786443e+002 
3675000000  -4.227401e+001  1.687957e+002 
3678125000  -4.282800e+001  1.662834e+002 
3681250000  -4.243522e+001  1.590291e+002 
3684375000  -4.265245e+001  1.502571e+002 
3687500000  -4.311067e+001  1.413365e+002 
3690625000  -4.352833e+001  1.350965e+002 
3693750000  -4.434380e+001  1.351390e+002 
3696875000  -4.399603e+001  1.332243e+002 
3700000000  -4.302970e+001  1.244854e+002 
3703125000  -4.364148e+001  1.178129e+002 
3706250000  -4.475606e+001  1.134235e+002 
3709375000  -4.392448e+001  1.148177e+002 
3712500000  -4.328740e+001  1.082368e+002 
3715625000  -4.207128e+001  9.920112e+001 
3718750000  -4.186206e+001  9.090495e+001 
3721875000  -4.193735e+001  7.736533e+001 
3725000000  -4.259140e+001  7.129266e+001 
3728125000  -4.240648e+001  6.946929e+001 
3731250000  -4.189395e+001  6.066188e+001 
3734375000  -4.212463e+001  5.638006e+001 
3737500000  -4.278962e+001  4.633714e+001 
3740625000  -4.312128e+001  4.025346e+001 
3743750000  -4.300215e+001  3.166639e+001 
3746875000  -4.367585e+001  2.569716e+001 
3750000000  -4.356855e+001  2.203734e+001 
3753125000  -4.369970e+001  2.075423e+001 
3756250000  -4.409050e+001  1.737414e+001 
3759375000  -4.355753e+001  1.031756e+001 
3762500000  -4.339646e+001  5.373349e+000 
3765625000  -4.434706e+001  -8.302304e-001 
3768750000  -4.373614e+001  9.190336e-001 
3771875000  -4.245982e+001  -5.483035e+000 
3775000000  -4.211053e+001  -1.587068e+001 
3778125000  -4.282171e+001  -2.320669e+001 
3781250000  -4.288472e+001  -2.820260e+001 
3784375000  -4.242565e+001  -3.313042e+001 
3787500000  -4.240536e+001  -3.748242e+001 
3790625000  -4.266712e+001  -4.929204e+001 
3793750000  -4.283522e+001  -5.317139e+001 
3796875000  -4.181167e+001  -5.749192e+001 
3800000000  -4.081948e+001  -6.554543e+001 
3803125000  -4.178356e+001  -7.492538e+001 
3806250000  -4.229881e+001  -8.042710e+001 
3809375000  -4.190782e+001  -8.728473e+001 
3812500000  -4.167296e+001  -9.702945e+001 
3815625000  -4.327327e+001  -1.052775e+002 
3818750000  -4.447077e+001  -1.046538e+002 
3821875000  -4.355853e+001  -9.474271e+001 
3825000000  -4.156791e+001  -1.038369e+002 
3828125000  -4.056945e+001  -1.254319e+002 
3831250000  -4.156707e+001  -1.382174e+002 
3834375000  -4.359609e+001  -1.379057e+002 
3837500000  -4.378978e+001  -1.359950e+002 
3840625000  -4.284984e+001  -1.401635e+002 
3843750000  -4.176465e+001  -1.573153e+002 
3846875000  -4.339088e+001  -1.658918e+002 
3850000000  -4.430713e+001  -1.576933e+002 
3853125000  -4.354774e+001  -1.577712e+002 
3856250000  -4.336539e+001  -1.680554e+002 
3859375000  -4.248507e+001  -1.785004e+002 
3862500000  -4.198059e+001  1.724005e+002 
3865625000  -4.249480e+001  1.653941e+002 
3868750000  -4.236878e+001  1.641448e+002 
3871875000  -4.195153e+001  1.552107e+002 
3875000000  -4.246960e+001  1.432555e+002 
3878125000  -4.336886e+001  1.406778e+002 
3881250000  -4.296432e+001  1.391048e+002 
3884375000  -4.257668e+001  1.294225e+002 
3887500000  -4.321777e+001  1.226973e+002 
3890625000  -4.413124e+001  1.181611e+002 
3893750000  -4.409797e+001  1.194446e+002 
3896875000  -4.435831e+001  1.157864e+002 
3900000000  -4.465385e+001  1.069449e+002 
3903125000  -4.382674e+001  1.054852e+002 
3906250000  -4.321030e+001  9.810767e+001 
3909375000  -4.281485e+001  9.102048e+001 
3912500000  -4.399748e+001  8.186356e+001 
3915625000  -4.497163e+001  8.217029e+001 
3918750000  -4.453489e+001  7.978954e+001 
3921875000  -4.407020e+001  7.503598e+001 
3925000000  -4.268626e+001  6.826946e+001 
3928125000  -4.291449e+001  5.761618e+001 
3931250000  -4.355209e+001  5.221892e+001 
3934375000  -4.379947e+001  4.878890e+001 
3937500000  -4.489437e+001  4.775534e+001 
3940625000  -4.473395e+001  4.565415e+001 
3943750000  -4.306419e+001  3.797991e+001 
3946875000  -4.257119e+001  3.327420e+001 
3950000000  -4.331180e+001  2.325772e+001 
3953125000  -4.467996e+001  2.392825e+001 
3956250000  -4.280341e+001  2.381993e+001 
3959375000  -4.202049e+001  1.623989e+001 
3962500000  -4.200768e+001  4.937824e+000 
3965625000  -4.204573e+001  -4.334625e+000 
3968750000  -4.283636e+001  -1.335285e+001 
3971875000  -4.237468e+001  -1.772335e+001 
3975000000  -4.194388e+001  -2.529722e+001 
3978125000  -4.215184e+001  -2.876040e+001 
3981250000  -4.202360e+001  -3.741966e+001 
3984375000  -4.272899e+001  -4.622338e+001 
3987500000  -4.319956e+001  -5.062305e+001 
3990625000  -4.355433e+001  -5.177729e+001 
3993750000  -4.332073e+001  -5.922314e+001 
3996875000  -4.345376e+001  -6.516402e+001 
4000000000  -4.396494e+001  -6.926847e+001 
4003125000  -4.386835e+001  -6.892516e+001 
4006250000  -4.201384e+001  -7.548461e+001 
4009375000  -4.151223e+001  -9.467909e+001 
4012500000  -4.294689e+001  -9.879061e+001 
4015625000  -4.425454e+001  -1.008312e+002 
4018750000  -4.367173e+001  -1.050358e+002 
4021875000  -4.338722e+001  -1.120329e+002 
4025000000  -4.334889e+001  -1.200401e+002 
4028125000  -4.399925e+001  -1.274460e+002 
4031250000  -4.426191e+001  -1.328055e+002 
4034375000  -4.425338e+001  -1.367187e+002 
4037500000  -4.389040e+001  -1.405052e+002 
4040625000  -4.458501e+001  -1.463535e+002 
4043750000  -4.446867e+001  -1.495722e+002 
4046875000  -4.474788e+001  -1.544220e+002 
4050000000  -4.436778e+001  -1.602729e+002 
4053125000  -4.549881e+001  -1.638983e+002 
4056250000  -4.659119e+001  -1.610444e+002 
4059375000  -4.448690e+001  -1.632841e+002 
4062500000  -4.359814e+001  -1.740160e+002 
4065625000  -4.398359e+001  -1.782027e+002 
4068750000  -4.304853e+001  1.727088e+002 
4071875000  -4.334289e+001  1.635360e+002 
4075000000  -4.373204e+001  1.597718e+002 
4078125000  -4.435590e+001  1.514443e+002 
4081250000  -4.383061e+001  1.490793e+002 
4084375000  -4.368261e+001  1.398585e+002 
4087500000  -4.420473e+001  1.311085e+002 
4090625000  -4.499607e+001  1.328617e+002 
4093750000  -4.470270e+001  1.293748e+002 
4096875000  -4.498015e+001  1.194747e+002 
4100000000  -4.529029e+001  1.146262e+002 
4103125000  -4.596745e+001  1.125573e+002 
4106250000  -4.572718e+001  1.171788e+002 
4109375000  -4.442394e+001  1.117576e+002 
4112500000  -4.457500e+001  1.056123e+002 
4115625000  -4.404805e+001  9.888861e+001 
4118750000  -4.399517e+001  9.164433e+001 
4121875000  -4.396771e+001  8.639407e+001 
4125000000  -4.494320e+001  8.043324e+001 
4128125000  -4.536379e+001  8.400446e+001 
4131250000  -4.423018e+001  8.387856e+001 
4134375000  -4.177410e+001  7.395620e+001 
4137500000  -4.246387e+001  5.349250e+001 
4140625000  -4.483401e+001  4.661063e+001 
4143750000  -4.546239e+001  4.878149e+001 
4146875000  -4.410569e+001  5.352394e+001 
4150000000  -4.315120e+001  4.302984e+001 
4153125000  -4.349348e+001  3.368746e+001 
4156250000  -4.432373e+001  2.734805e+001 
4159375000  -4.400271e+001  3.044047e+001 
4162500000  -4.244017e+001  3.064511e+001 
4165625000  -4.157073e+001  1.938763e+001 
4168750000  -4.153733e+001  7.541425e+000 
4171875000  -4.144099e+001  -3.820078e+000 
4175000000  -4.204755e+001  -1.082492e+001 
4178125000  -4.257449e+001  -1.381523e+001 
4181250000  -4.246024e+001  -2.228798e+001 
4184375000  -4.323586e+001  -2.727385e+001 
4187500000  -4.293957e+001  -3.373770e+001 
4190625000  -4.316199e+001  -4.252426e+001 
4193750000  -4.441108e+001  -4.877930e+001 
4196875000  -4.555711e+001  -4.813931e+001 
4200000000  -4.654645e+001  -4.184848e+001 
4203125000  -4.466814e+001  -3.569587e+001 
4206250000  -4.161129e+001  -4.614932e+001 
4209375000  -4.163064e+001  -6.985777e+001 
4212500000  -4.423012e+001  -7.737724e+001 
4215625000  -4.499052e+001  -7.084108e+001 
4218750000  -4.285267e+001  -7.051759e+001 
4221875000  -4.156105e+001  -8.147165e+001 
4225000000  -4.267783e+001  -9.264220e+001 
4228125000  -4.234669e+001  -9.188761e+001 
4231250000  -4.139107e+001  -9.809959e+001 
4234375000  -4.168087e+001  -1.129336e+002 
4237500000  -4.114669e+001  -1.192135e+002 
4240625000  -4.165674e+001  -1.273296e+002 
4243750000  -4.250713e+001  -1.363098e+002 
4246875000  -4.326226e+001  -1.357736e+002 
4250000000  -4.282864e+001  -1.363881e+002 
4253125000  -4.322054e+001  -1.382870e+002 
4256250000  -4.236449e+001  -1.454835e+002 
4259375000  -4.252508e+001  -1.515395e+002 
4262500000  -4.257543e+001  -1.587990e+002 
4265625000  -4.227729e+001  -1.550590e+002 
4268750000  -4.128898e+001  -1.623004e+002 
4271875000  -4.091819e+001  -1.771792e+002 
4275000000  -4.109347e+001  1.746247e+002 
4278125000  -4.187086e+001  1.611684e+002 
4281250000  -4.295722e+001  1.597727e+002 
4284375000  -4.244063e+001  1.577848e+002 
4287500000  -4.408083e+001  1.520117e+002 
4290625000  -4.417752e+001  1.589084e+002 
4293750000  -4.242903e+001  1.575636e+002 
4296875000  -4.057156e+001  1.427876e+002 
4300000000  -4.190639e+001  1.318981e+002 
4303125000  -4.269985e+001  1.298796e+002 
4306250000  -4.124284e+001  1.327910e+002 
4309375000  -4.002884e+001  1.234370e+002 
4312500000  -3.986260e+001  1.118691e+002 
4315625000  -4.078917e+001  1.013767e+002 
4318750000  -4.121105e+001  9.742114e+001 
4321875000  -4.129125e+001  9.248520e+001 
4325000000  -4.050296e+001  9.131379e+001 
4328125000  -3.971558e+001  8.002554e+001 
4331250000  -4.008199e+001  6.781667e+001 
4334375000  -4.122529e+001  5.880389e+001 
4337500000  -4.216711e+001  5.547527e+001 
4340625000  -4.239050e+001  6.073475e+001 
4343750000  -4.160960e+001  5.503556e+001 
4346875000  -4.143454e+001  4.605178e+001 
4350000000  -4.166696e+001  3.693605e+001 
4353125000  -4.250112e+001  2.797776e+001 
4356250000  -4.463623e+001  2.903426e+001 
4359375000  -4.333196e+001  4.409526e+001 
4362500000  -4.027821e+001  3.363906e+001 
4365625000  -3.919101e+001  1.657866e+001 
4368750000  -4.054228e+001  5.222766e+000 
4371875000  -4.153831e+001  3.760172e+000 
4375000000  -4.094016e+001  -3.654693e+000 
4378125000  -4.084572e+001  -9.219320e+000 
4381250000  -4.130627e+001  -1.844238e+001 
4384375000  -4.124141e+001  -2.712813e+001 
4387500000  -4.222802e+001  -3.401313e+001 
4390625000  -4.270644e+001  -3.459901e+001 
4393750000  -4.195201e+001  -3.555007e+001 
4396875000  -4.136537e+001  -3.965334e+001 
4400000000  -4.118002e+001  -5.240020e+001 
4403125000  -4.234059e+001  -6.180413e+001 
4406250000  -4.249240e+001  -6.502082e+001 
4409375000  -4.286538e+001  -7.109298e+001 
4412500000  -4.420597e+001  -7.182799e+001 
4415625000  -4.323060e+001  -6.856049e+001 
4418750000  -4.257199e+001  -6.988371e+001 
