!Agilent Technologies,E8363B,MY43030201,A.06.04.32
!Agilent E8363B: A.06.04.32
!Date: Tuesday, November 11, 2014 21:48:06
!Correction: S21(Response(S21)) 
!S1P File: Measurement: S21:
# Hz S  dB   R 50
3000000000  -4.365874e+001  -1.612859e+002 
3003125000  -4.538703e+001  -1.659049e+002 
3006250000  -4.514167e+001  -1.675085e+002 
3009375000  -4.591243e+001  -1.635873e+002 
3012500000  -4.484367e+001  -1.697525e+002 
3015625000  -4.505204e+001  -1.787865e+002 
3018750000  -4.536910e+001  1.796653e+002 
3021875000  -4.409135e+001  -1.790486e+002 
3025000000  -4.273112e+001  1.777767e+002 
3028125000  -4.174710e+001  1.634102e+002 
3031250000  -4.107792e+001  1.519778e+002 
3034375000  -4.063780e+001  1.372602e+002 
3037500000  -4.163810e+001  1.264225e+002 
3040625000  -4.305788e+001  1.209483e+002 
3043750000  -4.348512e+001  1.128503e+002 
3046875000  -4.426545e+001  1.066718e+002 
3050000000  -4.548792e+001  1.010556e+002 
3053125000  -4.495410e+001  1.041330e+002 
3056250000  -4.475437e+001  1.097277e+002 
3059375000  -4.389978e+001  1.069083e+002 
3062500000  -4.263302e+001  9.898836e+001 
3065625000  -4.193912e+001  8.841801e+001 
3068750000  -4.183820e+001  8.012006e+001 
3071875000  -4.165460e+001  7.912361e+001 
3075000000  -4.127079e+001  7.112701e+001 
3078125000  -4.123500e+001  6.361924e+001 
3081250000  -4.143241e+001  5.693290e+001 
3084375000  -4.043822e+001  5.118458e+001 
3087500000  -4.044843e+001  4.318993e+001 
3090625000  -3.993097e+001  2.995350e+001 
3093750000  -4.112792e+001  2.172637e+001 
3096875000  -4.135849e+001  1.568155e+001 
3100000000  -4.121189e+001  1.218139e+001 
3103125000  -4.143116e+001  7.015211e+000 
3106250000  -4.111490e+001  2.083819e+000 
3109375000  -4.096721e+001  -3.621780e+000 
3112500000  -4.081167e+001  -1.197427e+001 
3115625000  -4.084682e+001  -1.569122e+001 
3118750000  -4.091060e+001  -2.109795e+001 
3121875000  -4.013772e+001  -3.377024e+001 
3125000000  -4.208847e+001  -3.724040e+001 
3128125000  -4.240087e+001  -3.168831e+001 
3131250000  -3.943605e+001  -3.897095e+001 
3134375000  -3.866375e+001  -5.679882e+001 
3137500000  -3.959081e+001  -6.996679e+001 
3140625000  -4.114828e+001  -7.397858e+001 
3143750000  -4.161435e+001  -7.748776e+001 
3146875000  -4.122391e+001  -7.657461e+001 
3150000000  -4.032287e+001  -8.254920e+001 
3153125000  -4.078651e+001  -9.142470e+001 
3156250000  -4.141780e+001  -8.844205e+001 
3159375000  -3.916140e+001  -9.207954e+001 
3162500000  -3.756308e+001  -1.092251e+002 
3165625000  -3.914615e+001  -1.224338e+002 
3168750000  -3.913013e+001  -1.241131e+002 
3171875000  -3.858648e+001  -1.329891e+002 
3175000000  -3.905141e+001  -1.421476e+002 
3178125000  -3.852389e+001  -1.456611e+002 
3181250000  -3.804818e+001  -1.553915e+002 
3184375000  -3.776931e+001  -1.661779e+002 
3187500000  -3.908855e+001  1.776032e+002 
3190625000  -4.082526e+001  1.696670e+002 
3193750000  -4.132624e+001  1.751672e+002 
3196875000  -4.103159e+001  1.740316e+002 
3200000000  -3.985120e+001  1.687447e+002 
3203125000  -3.954780e+001  1.602700e+002 
3206250000  -3.978000e+001  1.517935e+002 
3209375000  -3.934960e+001  1.428672e+002 
3212500000  -3.997937e+001  1.363092e+002 
3215625000  -3.959779e+001  1.326063e+002 
3218750000  -4.025042e+001  1.201490e+002 
3221875000  -4.066774e+001  1.130436e+002 
3225000000  -4.037457e+001  1.078311e+002 
3228125000  -4.098154e+001  1.009102e+002 
3231250000  -4.119090e+001  9.672687e+001 
3234375000  -4.111380e+001  9.444016e+001 
3237500000  -4.080226e+001  9.020016e+001 
3240625000  -4.028707e+001  8.305241e+001 
3243750000  -4.029287e+001  7.100586e+001 
3246875000  -4.055427e+001  6.366086e+001 
3250000000  -4.100053e+001  5.816616e+001 
3253125000  -4.112156e+001  5.410593e+001 
3256250000  -4.037633e+001  4.447577e+001 
3259375000  -4.068241e+001  3.103079e+001 
3262500000  -4.212533e+001  2.645812e+001 
3265625000  -4.261362e+001  2.763703e+001 
3268750000  -4.233438e+001  2.744327e+001 
3271875000  -4.151877e+001  2.110039e+001 
3275000000  -4.101473e+001  1.053316e+001 
3278125000  -4.165820e+001  3.999878e+000 
3281250000  -4.171414e+001  8.923591e-001 
3284375000  -4.096674e+001  -9.232118e+000 
3287500000  -4.133602e+001  -1.747082e+001 
3290625000  -4.171434e+001  -2.586358e+001 
3293750000  -4.152408e+001  -3.413702e+001 
3296875000  -4.271354e+001  -3.977228e+001 
3300000000  -4.175581e+001  -4.039938e+001 
3303125000  -4.067566e+001  -4.951248e+001 
3306250000  -4.093918e+001  -5.990915e+001 
3309375000  -4.062493e+001  -7.123354e+001 
3312500000  -4.113328e+001  -8.705315e+001 
3315625000  -4.239758e+001  -9.570701e+001 
3318750000  -4.401751e+001  -1.025361e+002 
3321875000  -4.509369e+001  -1.000778e+002 
3325000000  -4.490505e+001  -9.525246e+001 
3328125000  -4.405219e+001  -9.895384e+001 
3331250000  -4.225680e+001  -9.963229e+001 
3334375000  -4.004338e+001  -1.180605e+002 
3337500000  -4.073644e+001  -1.408595e+002 
3340625000  -4.299550e+001  -1.506950e+002 
3343750000  -4.453422e+001  -1.531973e+002 
3346875000  -4.418200e+001  -1.571086e+002 
3350000000  -4.383543e+001  -1.602350e+002 
3353125000  -4.346488e+001  -1.704901e+002 
3356250000  -4.347152e+001  1.799071e+002 
3359375000  -4.459374e+001  1.652317e+002 
3362500000  -4.513291e+001  1.579892e+002 
3365625000  -4.547772e+001  1.513062e+002 
3368750000  -4.658450e+001  1.473416e+002 
3371875000  -4.690878e+001  1.376316e+002 
3375000000  -4.850581e+001  1.353729e+002 
3378125000  -4.927795e+001  1.341608e+002 
3381250000  -4.987498e+001  1.408766e+002 
3384375000  -4.698781e+001  1.530401e+002 
3387500000  -4.492905e+001  1.268805e+002 
3390625000  -4.685952e+001  1.064235e+002 
3393750000  -4.707685e+001  1.049538e+002 
3396875000  -4.645402e+001  9.857668e+001 
3400000000  -4.605616e+001  8.717654e+001 
3403125000  -4.677354e+001  7.929700e+001 
3406250000  -4.749116e+001  6.985339e+001 
3409375000  -4.714072e+001  5.704425e+001 
3412500000  -4.752548e+001  5.522279e+001 
3415625000  -4.849687e+001  5.157432e+001 
3418750000  -4.843714e+001  4.407859e+001 
3421875000  -4.903115e+001  4.152432e+001 
3425000000  -4.768911e+001  3.677914e+001 
3428125000  -4.721786e+001  2.554057e+001 
3431250000  -4.670792e+001  1.405391e+001 
3434375000  -4.697912e+001  2.338742e+000 
3437500000  -4.736792e+001  -6.092449e+000 
3440625000  -4.774783e+001  -8.285403e+000 
3443750000  -4.652002e+001  -1.116973e+001 
3446875000  -4.533929e+001  -2.803730e+001 
3450000000  -4.507296e+001  -4.206804e+001 
3453125000  -4.593041e+001  -5.895717e+001 
3456250000  -4.754144e+001  -6.986865e+001 
3459375000  -4.791034e+001  -7.079939e+001 
3462500000  -4.794588e+001  -7.792227e+001 
3465625000  -4.745396e+001  -8.730068e+001 
3468750000  -4.737810e+001  -9.394219e+001 
3471875000  -4.723036e+001  -1.028886e+002 
3475000000  -4.686961e+001  -1.133887e+002 
3478125000  -4.741692e+001  -1.300598e+002 
3481250000  -4.896345e+001  -1.341867e+002 
3484375000  -4.854417e+001  -1.340950e+002 
3487500000  -4.800397e+001  -1.404770e+002 
3490625000  -4.756012e+001  -1.533988e+002 
3493750000  -4.818898e+001  -1.680282e+002 
3496875000  -4.797561e+001  -1.689875e+002 
3500000000  -4.812523e+001  -1.739795e+002 
3503125000  -4.678659e+001  -1.772313e+002 
3506250000  -4.567969e+001  1.719706e+002 
3509375000  -4.571006e+001  1.538333e+002 
3512500000  -4.617553e+001  1.369035e+002 
3515625000  -4.747028e+001  1.315610e+002 
3518750000  -4.817121e+001  1.305873e+002 
3521875000  -4.748943e+001  1.204392e+002 
3525000000  -4.832689e+001  1.146646e+002 
3528125000  -4.716766e+001  1.163633e+002 
3531250000  -4.714162e+001  1.027271e+002 
3534375000  -4.702769e+001  8.764503e+001 
3537500000  -4.751837e+001  7.786488e+001 
3540625000  -4.865453e+001  7.832919e+001 
3543750000  -4.916048e+001  7.740935e+001 
3546875000  -4.871972e+001  8.319897e+001 
3550000000  -4.657685e+001  7.262981e+001 
3553125000  -4.617716e+001  5.621119e+001 
3556250000  -4.723279e+001  4.440202e+001 
3559375000  -4.650129e+001  4.311591e+001 
3562500000  -4.645393e+001  3.399984e+001 
3565625000  -4.757578e+001  2.356642e+001 
3568750000  -4.800967e+001  2.401501e+001 
3571875000  -4.693731e+001  2.036808e+001 
3575000000  -4.692173e+001  1.133079e+001 
3578125000  -4.763936e+001  2.932224e+000 
3581250000  -4.792020e+001  2.618960e+000 
3584375000  -4.588892e+001  -2.861074e+000 
3587500000  -4.611088e+001  -1.626385e+001 
3590625000  -4.602729e+001  -2.306138e+001 
3593750000  -4.819637e+001  -2.688732e+001 
3596875000  -4.691223e+001  -2.349476e+001 
3600000000  -4.484598e+001  -3.236420e+001 
3603125000  -4.500798e+001  -4.955499e+001 
3606250000  -4.573026e+001  -5.514214e+001 
3609375000  -4.553410e+001  -5.659500e+001 
3612500000  -4.604676e+001  -6.458719e+001 
3615625000  -4.605157e+001  -6.863546e+001 
3618750000  -4.639698e+001  -7.420694e+001 
3621875000  -4.563282e+001  -7.748075e+001 
3625000000  -4.563484e+001  -8.137112e+001 
3628125000  -4.486879e+001  -8.903875e+001 
3631250000  -4.529753e+001  -9.689888e+001 
3634375000  -4.538548e+001  -9.791914e+001 
3637500000  -4.420632e+001  -1.008988e+002 
3640625000  -4.343517e+001  -1.060375e+002 
3643750000  -4.340797e+001  -1.192504e+002 
3646875000  -4.367046e+001  -1.301680e+002 
3650000000  -4.340946e+001  -1.343649e+002 
3653125000  -4.354149e+001  -1.419546e+002 
3656250000  -4.424951e+001  -1.493182e+002 
3659375000  -4.359076e+001  -1.525519e+002 
3662500000  -4.341490e+001  -1.613812e+002 
3665625000  -4.355036e+001  -1.637159e+002 
3668750000  -4.169675e+001  -1.691262e+002 
3671875000  -4.135743e+001  1.767113e+002 
3675000000  -4.210413e+001  1.681493e+002 
3678125000  -4.250495e+001  1.610625e+002 
3681250000  -4.232863e+001  1.568361e+002 
3684375000  -4.246374e+001  1.470108e+002 
3687500000  -4.296555e+001  1.389711e+002 
3690625000  -4.364742e+001  1.336489e+002 
3693750000  -4.433688e+001  1.317493e+002 
3696875000  -4.402021e+001  1.289101e+002 
3700000000  -4.292311e+001  1.205684e+002 
3703125000  -4.374271e+001  1.138058e+002 
3706250000  -4.430680e+001  1.100303e+002 
3709375000  -4.400743e+001  1.131939e+002 
3712500000  -4.319816e+001  1.052909e+002 
3715625000  -4.133013e+001  9.654881e+001 
3718750000  -4.173168e+001  8.649922e+001 
3721875000  -4.201821e+001  7.651979e+001 
3725000000  -4.247648e+001  6.863797e+001 
3728125000  -4.235580e+001  6.576236e+001 
3731250000  -4.176439e+001  5.849817e+001 
3734375000  -4.194741e+001  5.278189e+001 
3737500000  -4.293506e+001  4.592955e+001 
3740625000  -4.313000e+001  3.696776e+001 
3743750000  -4.304480e+001  3.036125e+001 
3746875000  -4.319499e+001  2.287230e+001 
3750000000  -4.375021e+001  1.988472e+001 
3753125000  -4.393069e+001  1.851738e+001 
3756250000  -4.383441e+001  1.307454e+001 
3759375000  -4.348129e+001  7.168544e+000 
3762500000  -4.321720e+001  4.778360e+000 
3765625000  -4.417735e+001  -4.018673e+000 
3768750000  -4.341143e+001  8.126867e-001 
3771875000  -4.172485e+001  -7.617468e+000 
3775000000  -4.184431e+001  -2.026787e+001 
3778125000  -4.262824e+001  -2.529951e+001 
3781250000  -4.253016e+001  -3.045431e+001 
3784375000  -4.265126e+001  -3.777052e+001 
3787500000  -4.226609e+001  -4.498816e+001 
3790625000  -4.284868e+001  -5.182934e+001 
3793750000  -4.254688e+001  -5.315987e+001 
3796875000  -4.157881e+001  -5.890337e+001 
3800000000  -4.067939e+001  -6.644405e+001 
3803125000  -4.160601e+001  -7.913622e+001 
3806250000  -4.240322e+001  -8.305463e+001 
3809375000  -4.187323e+001  -8.827646e+001 
3812500000  -4.184636e+001  -9.948055e+001 
3815625000  -4.303577e+001  -1.113122e+002 
3818750000  -4.421189e+001  -1.056568e+002 
3821875000  -4.310360e+001  -9.868464e+001 
3825000000  -4.171658e+001  -1.053738e+002 
3828125000  -4.026999e+001  -1.269866e+002 
3831250000  -4.144622e+001  -1.416295e+002 
3834375000  -4.357101e+001  -1.420029e+002 
3837500000  -4.403924e+001  -1.396982e+002 
3840625000  -4.226545e+001  -1.446622e+002 
3843750000  -4.148119e+001  -1.587925e+002 
3846875000  -4.324255e+001  -1.664401e+002 
3850000000  -4.410615e+001  -1.599879e+002 
3853125000  -4.359718e+001  -1.637810e+002 
3856250000  -4.274461e+001  -1.717336e+002 
3859375000  -4.211246e+001  1.795278e+002 
3862500000  -4.219535e+001  1.697368e+002 
3865625000  -4.272808e+001  1.626957e+002 
3868750000  -4.226157e+001  1.587357e+002 
3871875000  -4.221525e+001  1.514281e+002 
3875000000  -4.221852e+001  1.421938e+002 
3878125000  -4.357517e+001  1.395417e+002 
3881250000  -4.318898e+001  1.380462e+002 
3884375000  -4.236360e+001  1.297128e+002 
3887500000  -4.294673e+001  1.218423e+002 
3890625000  -4.384418e+001  1.209688e+002 
3893750000  -4.441755e+001  1.130563e+002 
3896875000  -4.456972e+001  1.106448e+002 
3900000000  -4.412325e+001  1.063219e+002 
3903125000  -4.387154e+001  9.957724e+001 
3906250000  -4.346431e+001  9.823743e+001 
3909375000  -4.274157e+001  8.813637e+001 
3912500000  -4.348876e+001  7.944923e+001 
3915625000  -4.490128e+001  7.794820e+001 
3918750000  -4.420522e+001  7.638597e+001 
3921875000  -4.367255e+001  7.354373e+001 
3925000000  -4.311725e+001  6.641041e+001 
3928125000  -4.286976e+001  5.525028e+001 
3931250000  -4.387814e+001  4.976918e+001 
3934375000  -4.384102e+001  4.595432e+001 
3937500000  -4.434933e+001  4.313671e+001 
3940625000  -4.450735e+001  4.426595e+001 
3943750000  -4.315451e+001  3.822227e+001 
3946875000  -4.285995e+001  3.103404e+001 
3950000000  -4.364402e+001  2.026117e+001 
3953125000  -4.400396e+001  2.050730e+001 
3956250000  -4.270427e+001  1.903314e+001 
3959375000  -4.146657e+001  1.138457e+001 
3962500000  -4.170054e+001  4.074734e+000 
3965625000  -4.174442e+001  -8.719554e+000 
3968750000  -4.273492e+001  -1.728499e+001 
3971875000  -4.209919e+001  -1.937608e+001 
3975000000  -4.224904e+001  -2.494120e+001 
3978125000  -4.238736e+001  -3.360370e+001 
3981250000  -4.169284e+001  -3.962233e+001 
3984375000  -4.245621e+001  -4.767829e+001 
3987500000  -4.284890e+001  -5.033132e+001 
3990625000  -4.298981e+001  -5.550035e+001 
3993750000  -4.277985e+001  -6.294820e+001 
3996875000  -4.291413e+001  -7.160445e+001 
4000000000  -4.390651e+001  -7.089600e+001 
4003125000  -4.369267e+001  -7.296382e+001 
4006250000  -4.189048e+001  -7.913898e+001 
4009375000  -4.128394e+001  -9.633186e+001 
4012500000  -4.319872e+001  -1.041848e+002 
4015625000  -4.426808e+001  -1.039979e+002 
4018750000  -4.411218e+001  -1.077977e+002 
4021875000  -4.283305e+001  -1.147360e+002 
4025000000  -4.308815e+001  -1.220455e+002 
4028125000  -4.343300e+001  -1.307763e+002 
4031250000  -4.386650e+001  -1.355907e+002 
4034375000  -4.409564e+001  -1.401253e+002 
4037500000  -4.433536e+001  -1.428130e+002 
4040625000  -4.395112e+001  -1.477136e+002 
4043750000  -4.430372e+001  -1.512436e+002 
4046875000  -4.417643e+001  -1.573528e+002 
4050000000  -4.435104e+001  -1.616272e+002 
4053125000  -4.529323e+001  -1.670036e+002 
4056250000  -4.599045e+001  -1.623305e+002 
4059375000  -4.374282e+001  -1.647142e+002 
4062500000  -4.335289e+001  -1.703430e+002 
4065625000  -4.380302e+001  -1.799884e+002 
4068750000  -4.269818e+001  1.716220e+002 
4071875000  -4.261366e+001  1.635999e+002 
4075000000  -4.326512e+001  1.542714e+002 
4078125000  -4.400681e+001  1.488678e+002 
4081250000  -4.343027e+001  1.435883e+002 
4084375000  -4.348478e+001  1.386193e+002 
4087500000  -4.375895e+001  1.287801e+002 
4090625000  -4.447746e+001  1.269683e+002 
4093750000  -4.460686e+001  1.248551e+002 
4096875000  -4.419075e+001  1.161941e+002 
4100000000  -4.498346e+001  1.118365e+002 
4103125000  -4.578962e+001  1.101774e+002 
4106250000  -4.513866e+001  1.148474e+002 
4109375000  -4.459649e+001  1.095178e+002 
4112500000  -4.382077e+001  9.797825e+001 
4115625000  -4.408889e+001  9.476403e+001 
4118750000  -4.409957e+001  9.085342e+001 
4121875000  -4.374514e+001  8.472002e+001 
4125000000  -4.464735e+001  7.469011e+001 
4128125000  -4.485668e+001  8.021293e+001 
4131250000  -4.353824e+001  8.160909e+001 
4134375000  -4.145688e+001  6.904292e+001 
4137500000  -4.174834e+001  4.935413e+001 
4140625000  -4.435296e+001  3.986309e+001 
4143750000  -4.458141e+001  4.746046e+001 
4146875000  -4.402694e+001  4.801347e+001 
4150000000  -4.290831e+001  3.896387e+001 
4153125000  -4.331395e+001  2.955266e+001 
4156250000  -4.403208e+001  2.712281e+001 
4159375000  -4.331785e+001  2.724045e+001 
4162500000  -4.221566e+001  2.479239e+001 
4165625000  -4.156097e+001  1.449509e+001 
4168750000  -4.071704e+001  4.897969e+000 
4171875000  -4.089750e+001  -7.867422e+000 
4175000000  -4.184838e+001  -1.395542e+001 
4178125000  -4.225470e+001  -1.770266e+001 
4181250000  -4.196682e+001  -2.281697e+001 
4184375000  -4.218287e+001  -3.010744e+001 
4187500000  -4.245304e+001  -3.713646e+001 
4190625000  -4.247346e+001  -4.626612e+001 
4193750000  -4.440243e+001  -5.154328e+001 
4196875000  -4.508979e+001  -5.316054e+001 
4200000000  -4.657639e+001  -4.720844e+001 
4203125000  -4.471131e+001  -3.970820e+001 
4206250000  -4.105440e+001  -4.902958e+001 
4209375000  -4.129329e+001  -7.344517e+001 
4212500000  -4.381857e+001  -7.708875e+001 
4215625000  -4.374914e+001  -7.198950e+001 
4218750000  -4.252375e+001  -7.154749e+001 
4221875000  -4.118250e+001  -8.289923e+001 
4225000000  -4.232809e+001  -9.534581e+001 
4228125000  -4.215130e+001  -9.361532e+001 
4231250000  -4.100788e+001  -1.030633e+002 
4234375000  -4.095314e+001  -1.140950e+002 
4237500000  -4.094727e+001  -1.215575e+002 
4240625000  -4.125249e+001  -1.307162e+002 
4243750000  -4.269143e+001  -1.405650e+002 
4246875000  -4.299410e+001  -1.391270e+002 
4250000000  -4.244138e+001  -1.406744e+002 
4253125000  -4.251767e+001  -1.445352e+002 
4256250000  -4.238042e+001  -1.487388e+002 
4259375000  -4.197335e+001  -1.556405e+002 
4262500000  -4.249749e+001  -1.588253e+002 
4265625000  -4.210510e+001  -1.607101e+002 
4268750000  -4.078758e+001  -1.714055e+002 
4271875000  -4.094351e+001  -1.797170e+002 
4275000000  -4.014457e+001  1.708574e+002 
4278125000  -4.172516e+001  1.565862e+002 
4281250000  -4.233839e+001  1.566559e+002 
4284375000  -4.245407e+001  1.526849e+002 
4287500000  -4.340082e+001  1.481783e+002 
4290625000  -4.399377e+001  1.570474e+002 
4293750000  -4.174999e+001  1.554476e+002 
4296875000  -4.011359e+001  1.406232e+002 
4300000000  -4.161395e+001  1.295276e+002 
4303125000  -4.186801e+001  1.322633e+002 
4306250000  -4.067022e+001  1.310424e+002 
4309375000  -3.979087e+001  1.192776e+002 
4312500000  -3.983455e+001  1.075227e+002 
4315625000  -4.012798e+001  9.802160e+001 
4318750000  -4.088176e+001  9.367441e+001 
4321875000  -4.050698e+001  9.084355e+001 
4325000000  -4.010275e+001  8.697237e+001 
4328125000  -3.950597e+001  7.572184e+001 
4331250000  -3.963562e+001  6.411398e+001 
4334375000  -4.064652e+001  5.555920e+001 
4337500000  -4.204808e+001  5.391442e+001 
4340625000  -4.183706e+001  5.551485e+001 
4343750000  -4.090504e+001  5.067521e+001 
4346875000  -4.080284e+001  4.213627e+001 
4350000000  -4.084130e+001  3.417439e+001 
4353125000  -4.184494e+001  2.389251e+001 
4356250000  -4.384188e+001  2.571678e+001 
4359375000  -4.256601e+001  3.842120e+001 
4362500000  -3.939330e+001  2.762192e+001 
4365625000  -3.910111e+001  1.037840e+001 
4368750000  -4.022520e+001  1.375152e+000 
4371875000  -4.132955e+001  -3.415986e+000 
4375000000  -4.079193e+001  -6.662566e+000 
4378125000  -4.038470e+001  -1.243989e+001 
4381250000  -4.054156e+001  -2.230610e+001 
4384375000  -4.067007e+001  -3.030173e+001 
4387500000  -4.177180e+001  -3.764958e+001 
4390625000  -4.231679e+001  -4.118650e+001 
4393750000  -4.169155e+001  -4.043276e+001 
4396875000  -4.119935e+001  -4.866169e+001 
4400000000  -4.082849e+001  -5.484259e+001 
4403125000  -4.156576e+001  -6.583203e+001 
4406250000  -4.205600e+001  -6.868686e+001 
4409375000  -4.238899e+001  -7.541924e+001 
4412500000  -4.366539e+001  -7.505657e+001 
4415625000  -4.283708e+001  -7.452970e+001 
4418750000  -4.200053e+001  -7.294407e+001 
