!Agilent Technologies,E8363B,MY43030201,A.06.04.32
!Agilent E8363B: A.06.04.32
!Date: Tuesday, November 11, 2014 21:40:46
!Correction: S21(Response(S21)) 
!S1P File: Measurement: S21:
# Hz S  dB   R 50
3000000000  -4.359044e+001  -1.575100e+002 
3003125000  -4.527341e+001  -1.624234e+002 
3006250000  -4.518214e+001  -1.627334e+002 
3009375000  -4.596466e+001  -1.597615e+002 
3012500000  -4.489659e+001  -1.698968e+002 
3015625000  -4.491914e+001  -1.730178e+002 
3018750000  -4.536014e+001  -1.741132e+002 
3021875000  -4.392171e+001  -1.740301e+002 
3025000000  -4.251659e+001  -1.791998e+002 
3028125000  -4.168988e+001  1.699984e+002 
3031250000  -4.070295e+001  1.561539e+002 
3034375000  -4.081054e+001  1.406062e+002 
3037500000  -4.164630e+001  1.297891e+002 
3040625000  -4.287271e+001  1.249918e+002 
3043750000  -4.317093e+001  1.173707e+002 
3046875000  -4.363791e+001  1.085570e+002 
3050000000  -4.492699e+001  1.071958e+002 
3053125000  -4.458986e+001  1.100107e+002 
3056250000  -4.472269e+001  1.137158e+002 
3059375000  -4.379473e+001  1.101831e+002 
3062500000  -4.242151e+001  1.038354e+002 
3065625000  -4.198201e+001  9.339356e+001 
3068750000  -4.159287e+001  8.671070e+001 
3071875000  -4.182870e+001  8.260902e+001 
3075000000  -4.102031e+001  7.620125e+001 
3078125000  -4.118415e+001  6.743017e+001 
3081250000  -4.131531e+001  6.107914e+001 
3084375000  -4.054597e+001  5.524633e+001 
3087500000  -4.056562e+001  4.707700e+001 
3090625000  -3.997808e+001  3.508876e+001 
3093750000  -4.087718e+001  2.541570e+001 
3096875000  -4.128876e+001  2.042331e+001 
3100000000  -4.109705e+001  1.635073e+001 
3103125000  -4.132853e+001  1.088244e+001 
3106250000  -4.105210e+001  5.233824e+000 
3109375000  -4.098958e+001  9.688343e-001 
3112500000  -4.088337e+001  -7.688630e+000 
3115625000  -4.064463e+001  -1.208976e+001 
3118750000  -4.075928e+001  -1.725245e+001 
3121875000  -4.028837e+001  -2.878142e+001 
3125000000  -4.195021e+001  -3.310133e+001 
3128125000  -4.207185e+001  -2.678277e+001 
3131250000  -3.935299e+001  -3.436150e+001 
3134375000  -3.891783e+001  -5.222275e+001 
3137500000  -3.974160e+001  -6.583111e+001 
3140625000  -4.076557e+001  -7.060630e+001 
3143750000  -4.142272e+001  -7.342749e+001 
3146875000  -4.129859e+001  -7.322987e+001 
3150000000  -4.030954e+001  -7.777955e+001 
3153125000  -4.071138e+001  -8.864689e+001 
3156250000  -4.140525e+001  -8.431408e+001 
3159375000  -3.929621e+001  -8.883830e+001 
3162500000  -3.777490e+001  -1.045517e+002 
3165625000  -3.895195e+001  -1.188562e+002 
3168750000  -3.904415e+001  -1.198149e+002 
3171875000  -3.846696e+001  -1.291630e+002 
3175000000  -3.921773e+001  -1.391079e+002 
3178125000  -3.867488e+001  -1.405023e+002 
3181250000  -3.817886e+001  -1.519277e+002 
3184375000  -3.773342e+001  -1.617299e+002 
3187500000  -3.926149e+001  -1.765847e+002 
3190625000  -4.075146e+001  1.747477e+002 
3193750000  -4.142063e+001  1.783256e+002 
3196875000  -4.115237e+001  1.789890e+002 
3200000000  -3.982108e+001  1.726433e+002 
3203125000  -3.960320e+001  1.637386e+002 
3206250000  -3.973344e+001  1.563056e+002 
3209375000  -3.945808e+001  1.478424e+002 
3212500000  -3.997765e+001  1.399860e+002 
3215625000  -3.977653e+001  1.375807e+002 
3218750000  -4.049876e+001  1.247123e+002 
3221875000  -4.065091e+001  1.175493e+002 
3225000000  -4.042173e+001  1.115390e+002 
3228125000  -4.117798e+001  1.053103e+002 
3231250000  -4.163245e+001  1.009626e+002 
3234375000  -4.099039e+001  9.782898e+001 
3237500000  -4.103496e+001  9.423830e+001 
3240625000  -4.038890e+001  8.625027e+001 
3243750000  -4.043425e+001  7.457641e+001 
3246875000  -4.080398e+001  6.689063e+001 
3250000000  -4.127740e+001  6.229779e+001 
3253125000  -4.135504e+001  5.898135e+001 
3256250000  -4.056509e+001  4.826802e+001 
3259375000  -4.122135e+001  3.413817e+001 
3262500000  -4.233536e+001  3.191023e+001 
3265625000  -4.260428e+001  3.206989e+001 
3268750000  -4.265928e+001  2.978117e+001 
3271875000  -4.152491e+001  2.453363e+001 
3275000000  -4.122114e+001  1.312983e+001 
3278125000  -4.148171e+001  7.181678e+000 
3281250000  -4.199612e+001  4.149749e+000 
3284375000  -4.082490e+001  -5.489529e+000 
3287500000  -4.152739e+001  -1.273864e+001 
3290625000  -4.162843e+001  -2.307802e+001 
3293750000  -4.165781e+001  -2.993327e+001 
3296875000  -4.280656e+001  -3.315977e+001 
3300000000  -4.217092e+001  -3.622090e+001 
3303125000  -4.102011e+001  -4.672478e+001 
3306250000  -4.120754e+001  -5.699319e+001 
3309375000  -4.085738e+001  -6.823477e+001 
3312500000  -4.115762e+001  -8.196699e+001 
3315625000  -4.231720e+001  -9.254317e+001 
3318750000  -4.381599e+001  -9.712923e+001 
3321875000  -4.516113e+001  -9.646395e+001 
3325000000  -4.491590e+001  -9.352062e+001 
3328125000  -4.433358e+001  -9.474687e+001 
3331250000  -4.255581e+001  -9.456538e+001 
3334375000  -4.026939e+001  -1.152268e+002 
3337500000  -4.084034e+001  -1.377253e+002 
3340625000  -4.323108e+001  -1.476236e+002 
3343750000  -4.485421e+001  -1.486749e+002 
3346875000  -4.454144e+001  -1.524094e+002 
3350000000  -4.383685e+001  -1.586022e+002 
3353125000  -4.351856e+001  -1.674623e+002 
3356250000  -4.355439e+001  -1.774810e+002 
3359375000  -4.433654e+001  1.690815e+002 
3362500000  -4.513505e+001  1.617298e+002 
3365625000  -4.577865e+001  1.535147e+002 
3368750000  -4.660070e+001  1.483540e+002 
3371875000  -4.692377e+001  1.435345e+002 
3375000000  -4.838889e+001  1.352513e+002 
3378125000  -4.969513e+001  1.362562e+002 
3381250000  -5.042825e+001  1.431306e+002 
3384375000  -4.751492e+001  1.535960e+002 
3387500000  -4.478935e+001  1.323110e+002 
3390625000  -4.723118e+001  1.078371e+002 
3393750000  -4.766891e+001  1.073816e+002 
3396875000  -4.612506e+001  1.038045e+002 
3400000000  -4.628624e+001  8.819305e+001 
3403125000  -4.707893e+001  8.255611e+001 
3406250000  -4.791100e+001  7.583582e+001 
3409375000  -4.717301e+001  6.542844e+001 
3412500000  -4.795990e+001  5.509583e+001 
3415625000  -4.892839e+001  5.254349e+001 
3418750000  -4.897358e+001  4.658890e+001 
3421875000  -4.898116e+001  4.476885e+001 
3425000000  -4.834111e+001  3.767528e+001 
3428125000  -4.758889e+001  3.342439e+001 
3431250000  -4.698555e+001  1.893709e+001 
3434375000  -4.663739e+001  4.020771e+000 
3437500000  -4.757541e+001  -4.938469e+000 
3440625000  -4.769162e+001  -6.735785e+000 
3443750000  -4.633767e+001  -1.038041e+001 
3446875000  -4.565880e+001  -2.510340e+001 
3450000000  -4.513521e+001  -4.228702e+001 
3453125000  -4.572107e+001  -5.539793e+001 
3456250000  -4.678959e+001  -6.607530e+001 
3459375000  -4.784813e+001  -6.907159e+001 
3462500000  -4.796120e+001  -7.852340e+001 
3465625000  -4.734615e+001  -8.694285e+001 
3468750000  -4.737535e+001  -9.299337e+001 
3471875000  -4.679834e+001  -1.022922e+002 
3475000000  -4.713835e+001  -1.112070e+002 
3478125000  -4.776332e+001  -1.249823e+002 
3481250000  -4.872539e+001  -1.333357e+002 
3484375000  -4.815879e+001  -1.293124e+002 
3487500000  -4.748194e+001  -1.373738e+002 
3490625000  -4.701777e+001  -1.500430e+002 
3493750000  -4.737071e+001  -1.646373e+002 
3496875000  -4.809775e+001  -1.677222e+002 
3500000000  -4.807216e+001  -1.692804e+002 
3503125000  -4.697480e+001  -1.732221e+002 
3506250000  -4.534227e+001  1.738844e+002 
3509375000  -4.537876e+001  1.576409e+002 
3512500000  -4.553436e+001  1.424384e+002 
3515625000  -4.696389e+001  1.321556e+002 
3518750000  -4.768807e+001  1.319427e+002 
3521875000  -4.806280e+001  1.228556e+002 
3525000000  -4.865965e+001  1.184658e+002 
3528125000  -4.719765e+001  1.232904e+002 
3531250000  -4.635140e+001  1.077597e+002 
3534375000  -4.697390e+001  9.178764e+001 
3537500000  -4.777246e+001  8.272960e+001 
3540625000  -4.888854e+001  7.943024e+001 
3543750000  -4.956457e+001  8.326980e+001 
3546875000  -4.873619e+001  8.816722e+001 
3550000000  -4.631657e+001  7.843078e+001 
3553125000  -4.592038e+001  6.160773e+001 
3556250000  -4.741585e+001  5.191365e+001 
3559375000  -4.662886e+001  4.620139e+001 
3562500000  -4.654594e+001  3.581998e+001 
3565625000  -4.740245e+001  2.981062e+001 
3568750000  -4.769643e+001  3.047363e+001 
3571875000  -4.729223e+001  2.278449e+001 
3575000000  -4.698235e+001  1.424169e+001 
3578125000  -4.790504e+001  1.290768e+001 
3581250000  -4.721993e+001  8.113661e+000 
3584375000  -4.600863e+001  1.097698e+000 
3587500000  -4.579419e+001  -1.251198e+001 
3590625000  -4.667723e+001  -1.945391e+001 
3593750000  -4.789980e+001  -2.010796e+001 
3596875000  -4.662414e+001  -1.748215e+001 
3600000000  -4.461921e+001  -2.701723e+001 
3603125000  -4.522345e+001  -4.398959e+001 
3606250000  -4.589305e+001  -4.610600e+001 
3609375000  -4.619212e+001  -5.218354e+001 
3612500000  -4.625599e+001  -6.108491e+001 
3615625000  -4.582742e+001  -6.527712e+001 
3618750000  -4.588629e+001  -6.539429e+001 
3621875000  -4.559460e+001  -7.261972e+001 
3625000000  -4.596165e+001  -7.720535e+001 
3628125000  -4.451437e+001  -8.393748e+001 
3631250000  -4.529402e+001  -9.082346e+001 
3634375000  -4.586082e+001  -9.264070e+001 
3637500000  -4.453768e+001  -9.660180e+001 
3640625000  -4.359165e+001  -1.011841e+002 
3643750000  -4.316091e+001  -1.137520e+002 
3646875000  -4.387247e+001  -1.235444e+002 
3650000000  -4.371315e+001  -1.291173e+002 
3653125000  -4.317690e+001  -1.375366e+002 
3656250000  -4.416994e+001  -1.424121e+002 
3659375000  -4.359153e+001  -1.485328e+002 
3662500000  -4.333549e+001  -1.543365e+002 
3665625000  -4.343639e+001  -1.602534e+002 
3668750000  -4.172641e+001  -1.640559e+002 
3671875000  -4.167952e+001  -1.781481e+002 
3675000000  -4.214905e+001  1.721565e+002 
3678125000  -4.259240e+001  1.689373e+002 
3681250000  -4.238768e+001  1.623105e+002 
3684375000  -4.259475e+001  1.535793e+002 
3687500000  -4.284624e+001  1.459883e+002 
3690625000  -4.381607e+001  1.396597e+002 
3693750000  -4.416005e+001  1.371083e+002 
3696875000  -4.406563e+001  1.376965e+002 
3700000000  -4.331855e+001  1.277915e+002 
3703125000  -4.398518e+001  1.177831e+002 
3706250000  -4.521379e+001  1.172017e+002 
3709375000  -4.419854e+001  1.176939e+002 
3712500000  -4.302245e+001  1.110960e+002 
3715625000  -4.171088e+001  9.899985e+001 
3718750000  -4.167781e+001  9.127789e+001 
3721875000  -4.196033e+001  8.178406e+001 
3725000000  -4.254607e+001  7.498462e+001 
3728125000  -4.256199e+001  7.212825e+001 
3731250000  -4.226966e+001  6.475594e+001 
3734375000  -4.212587e+001  5.609514e+001 
3737500000  -4.308997e+001  4.823532e+001 
3740625000  -4.310579e+001  4.390255e+001 
3743750000  -4.295860e+001  3.605806e+001 
3746875000  -4.388651e+001  2.861745e+001 
3750000000  -4.370350e+001  2.824422e+001 
3753125000  -4.409387e+001  2.307214e+001 
3756250000  -4.382029e+001  1.959931e+001 
3759375000  -4.375902e+001  1.514315e+001 
3762500000  -4.329734e+001  9.552738e+000 
3765625000  -4.423616e+001  2.125105e+000 
3768750000  -4.335944e+001  5.114583e+000 
3771875000  -4.208079e+001  -2.194239e+000 
3775000000  -4.196602e+001  -1.464796e+001 
3778125000  -4.273000e+001  -1.890552e+001 
3781250000  -4.280524e+001  -2.255829e+001 
3784375000  -4.272863e+001  -3.003859e+001 
3787500000  -4.219728e+001  -3.378033e+001 
3790625000  -4.304268e+001  -4.498926e+001 
3793750000  -4.259356e+001  -4.972968e+001 
3796875000  -4.144585e+001  -5.448410e+001 
3800000000  -4.101569e+001  -6.144944e+001 
3803125000  -4.180486e+001  -7.220944e+001 
3806250000  -4.238832e+001  -7.812548e+001 
3809375000  -4.180204e+001  -8.229349e+001 
3812500000  -4.188453e+001  -9.265166e+001 
3815625000  -4.307200e+001  -1.038075e+002 
3818750000  -4.472162e+001  -1.038759e+002 
3821875000  -4.356373e+001  -9.338651e+001 
3825000000  -4.154089e+001  -9.845663e+001 
3828125000  -4.059091e+001  -1.198204e+002 
3831250000  -4.186428e+001  -1.357967e+002 
3834375000  -4.405455e+001  -1.343741e+002 
3837500000  -4.384778e+001  -1.332857e+002 
3840625000  -4.253855e+001  -1.383661e+002 
3843750000  -4.198428e+001  -1.525218e+002 
3846875000  -4.333539e+001  -1.629941e+002 
3850000000  -4.439464e+001  -1.558594e+002 
3853125000  -4.378277e+001  -1.568123e+002 
3856250000  -4.307765e+001  -1.643541e+002 
3859375000  -4.232263e+001  -1.745436e+002 
3862500000  -4.211662e+001  1.733642e+002 
3865625000  -4.277597e+001  1.697265e+002 
3868750000  -4.255616e+001  1.658271e+002 
3871875000  -4.179988e+001  1.580203e+002 
3875000000  -4.284002e+001  1.460216e+002 
3878125000  -4.351109e+001  1.461122e+002 
3881250000  -4.340688e+001  1.436770e+002 
3884375000  -4.270756e+001  1.318133e+002 
3887500000  -4.347320e+001  1.274008e+002 
3890625000  -4.385922e+001  1.267575e+002 
3893750000  -4.439571e+001  1.209246e+002 
3896875000  -4.473240e+001  1.176203e+002 
3900000000  -4.455783e+001  1.138890e+002 
3903125000  -4.420417e+001  1.101001e+002 
3906250000  -4.325640e+001  1.051548e+002 
3909375000  -4.275646e+001  9.469096e+001 
3912500000  -4.375401e+001  8.308276e+001 
3915625000  -4.496251e+001  8.194366e+001 
3918750000  -4.453387e+001  8.221175e+001 
3921875000  -4.366063e+001  7.725558e+001 
3925000000  -4.299036e+001  7.248863e+001 
3928125000  -4.309299e+001  6.362286e+001 
3931250000  -4.402677e+001  5.423686e+001 
3934375000  -4.409424e+001  5.296391e+001 
3937500000  -4.474894e+001  5.081254e+001 
3940625000  -4.459414e+001  4.935572e+001 
3943750000  -4.341323e+001  4.196450e+001 
3946875000  -4.307491e+001  3.437856e+001 
3950000000  -4.416231e+001  2.450122e+001 
3953125000  -4.458262e+001  2.582832e+001 
3956250000  -4.296293e+001  2.399376e+001 
3959375000  -4.211264e+001  1.912087e+001 
3962500000  -4.174451e+001  7.013944e+000 
3965625000  -4.215252e+001  -2.731234e+000 
3968750000  -4.303797e+001  -9.697879e+000 
3971875000  -4.275288e+001  -1.441278e+001 
3975000000  -4.221836e+001  -1.915884e+001 
3978125000  -4.219841e+001  -2.573827e+001 
3981250000  -4.202241e+001  -3.314507e+001 
3984375000  -4.246972e+001  -4.253323e+001 
3987500000  -4.303561e+001  -4.608849e+001 
3990625000  -4.336547e+001  -4.877627e+001 
3993750000  -4.309680e+001  -5.769826e+001 
3996875000  -4.333920e+001  -6.352357e+001 
4000000000  -4.393141e+001  -6.477017e+001 
4003125000  -4.410740e+001  -6.627378e+001 
4006250000  -4.176265e+001  -7.326089e+001 
4009375000  -4.171043e+001  -9.042195e+001 
4012500000  -4.298602e+001  -9.714764e+001 
4015625000  -4.373575e+001  -9.762591e+001 
4018750000  -4.408437e+001  -1.037104e+002 
4021875000  -4.357390e+001  -1.088611e+002 
4025000000  -4.326085e+001  -1.144190e+002 
4028125000  -4.336510e+001  -1.234285e+002 
4031250000  -4.429661e+001  -1.291933e+002 
4034375000  -4.432485e+001  -1.357064e+002 
4037500000  -4.436739e+001  -1.359902e+002 
4040625000  -4.436124e+001  -1.425007e+002 
4043750000  -4.445455e+001  -1.470448e+002 
4046875000  -4.467373e+001  -1.528493e+002 
4050000000  -4.464148e+001  -1.572165e+002 
4053125000  -4.565718e+001  -1.590472e+002 
4056250000  -4.555118e+001  -1.560847e+002 
4059375000  -4.412905e+001  -1.591925e+002 
4062500000  -4.395527e+001  -1.700225e+002 
4065625000  -4.400539e+001  -1.738620e+002 
4068750000  -4.326206e+001  1.769861e+002 
4071875000  -4.277086e+001  1.680886e+002 
4075000000  -4.396642e+001  1.632321e+002 
4078125000  -4.440958e+001  1.579439e+002 
4081250000  -4.365871e+001  1.529435e+002 
4084375000  -4.356255e+001  1.427651e+002 
4087500000  -4.402191e+001  1.352211e+002 
4090625000  -4.521944e+001  1.346563e+002 
4093750000  -4.502268e+001  1.302721e+002 
4096875000  -4.464886e+001  1.235643e+002 
4100000000  -4.593047e+001  1.156250e+002 
4103125000  -4.565402e+001  1.163490e+002 
4106250000  -4.553299e+001  1.207385e+002 
4109375000  -4.452128e+001  1.184066e+002 
4112500000  -4.449717e+001  1.088660e+002 
4115625000  -4.447851e+001  1.010415e+002 
4118750000  -4.442340e+001  9.844451e+001 
4121875000  -4.387333e+001  8.625877e+001 
4125000000  -4.477459e+001  8.294877e+001 
4128125000  -4.558639e+001  8.653737e+001 
4131250000  -4.432984e+001  8.683142e+001 
4134375000  -4.178526e+001  7.540603e+001 
4137500000  -4.221323e+001  5.645274e+001 
4140625000  -4.428403e+001  4.942431e+001 
4143750000  -4.546111e+001  5.230820e+001 
4146875000  -4.425855e+001  5.469691e+001 
4150000000  -4.280080e+001  4.549594e+001 
4153125000  -4.363699e+001  3.685585e+001 
4156250000  -4.499221e+001  3.139801e+001 
4159375000  -4.390630e+001  3.513100e+001 
4162500000  -4.247588e+001  3.254185e+001 
4165625000  -4.178747e+001  2.383883e+001 
4168750000  -4.158676e+001  1.187509e+001 
4171875000  -4.128743e+001  2.201425e+000 
4175000000  -4.211951e+001  -8.153995e+000 
4178125000  -4.262444e+001  -1.099338e+001 
4181250000  -4.258613e+001  -1.638249e+001 
4184375000  -4.245355e+001  -2.476094e+001 
4187500000  -4.310906e+001  -2.990569e+001 
4190625000  -4.291521e+001  -3.970996e+001 
4193750000  -4.461704e+001  -4.491186e+001 
4196875000  -4.497429e+001  -4.704708e+001 
4200000000  -4.581639e+001  -4.440023e+001 
4203125000  -4.452071e+001  -2.989704e+001 
4206250000  -4.153833e+001  -4.138607e+001 
4209375000  -4.152871e+001  -6.532178e+001 
4212500000  -4.443883e+001  -7.394275e+001 
4215625000  -4.467824e+001  -6.977867e+001 
4218750000  -4.314398e+001  -6.617808e+001 
4221875000  -4.166831e+001  -7.453318e+001 
4225000000  -4.285046e+001  -8.775139e+001 
4228125000  -4.249409e+001  -8.914267e+001 
4231250000  -4.132856e+001  -9.433169e+001 
4234375000  -4.136015e+001  -1.078673e+002 
4237500000  -4.099393e+001  -1.126673e+002 
4240625000  -4.147493e+001  -1.231049e+002 
4243750000  -4.277450e+001  -1.322679e+002 
4246875000  -4.370751e+001  -1.316318e+002 
4250000000  -4.310032e+001  -1.302897e+002 
4253125000  -4.317885e+001  -1.337036e+002 
4256250000  -4.290311e+001  -1.446095e+002 
4259375000  -4.283686e+001  -1.451362e+002 
4262500000  -4.272306e+001  -1.516332e+002 
4265625000  -4.252199e+001  -1.549835e+002 
4268750000  -4.125056e+001  -1.626709e+002 
4271875000  -4.136787e+001  -1.721430e+002 
4275000000  -4.099636e+001  1.796425e+002 
4278125000  -4.171133e+001  1.664220e+002 
4281250000  -4.292783e+001  1.663566e+002 
4284375000  -4.284709e+001  1.603239e+002 
4287500000  -4.383096e+001  1.543778e+002 
4290625000  -4.395972e+001  1.655227e+002 
4293750000  -4.207045e+001  1.618265e+002 
4296875000  -4.092231e+001  1.493487e+002 
4300000000  -4.199027e+001  1.352159e+002 
4303125000  -4.204944e+001  1.371100e+002 
4306250000  -4.110661e+001  1.356101e+002 
4309375000  -4.060373e+001  1.280540e+002 
4312500000  -4.006811e+001  1.155582e+002 
4315625000  -4.053510e+001  1.056733e+002 
4318750000  -4.135150e+001  1.022783e+002 
4321875000  -4.129301e+001  9.841709e+001 
4325000000  -4.039024e+001  9.460588e+001 
4328125000  -3.974236e+001  8.377666e+001 
4331250000  -4.025382e+001  7.187103e+001 
4334375000  -4.120877e+001  6.239195e+001 
4337500000  -4.212989e+001  6.031846e+001 
4340625000  -4.260235e+001  6.384269e+001 
4343750000  -4.134814e+001  5.855407e+001 
4346875000  -4.173895e+001  4.760375e+001 
4350000000  -4.126957e+001  4.065033e+001 
4353125000  -4.241553e+001  3.000747e+001 
4356250000  -4.456925e+001  3.140447e+001 
4359375000  -4.314817e+001  4.427729e+001 
4362500000  -3.995172e+001  3.931516e+001 
4365625000  -3.968849e+001  2.081334e+001 
4368750000  -4.085835e+001  5.609550e+000 
4371875000  -4.170121e+001  7.446275e+000 
4375000000  -4.143190e+001  1.726243e+000 
4378125000  -4.115822e+001  -7.617809e+000 
4381250000  -4.121556e+001  -1.584055e+001 
4384375000  -4.148268e+001  -2.036730e+001 
4387500000  -4.232201e+001  -2.930377e+001 
4390625000  -4.255088e+001  -3.136850e+001 
4393750000  -4.223052e+001  -3.124039e+001 
4396875000  -4.173115e+001  -3.648543e+001 
4400000000  -4.118861e+001  -4.568467e+001 
4403125000  -4.218602e+001  -5.578765e+001 
4406250000  -4.257699e+001  -6.034340e+001 
4409375000  -4.328516e+001  -6.637082e+001 
4412500000  -4.427313e+001  -6.750799e+001 
4415625000  -4.364721e+001  -6.355439e+001 
4418750000  -4.227536e+001  -6.315110e+001 
