!Agilent Technologies,E8363B,MY43030201,A.06.04.32
!Agilent E8363B: A.06.04.32
!Date: Tuesday, November 11, 2014 21:44:21
!Correction: S21(Response(S21)) 
!S1P File: Measurement: S21:
# Hz S  dB   R 50
3000000000  -4.359223e+001  -1.591557e+002 
3003125000  -4.505881e+001  -1.664035e+002 
3006250000  -4.540612e+001  -1.667036e+002 
3009375000  -4.594413e+001  -1.635938e+002 
3012500000  -4.480128e+001  -1.702906e+002 
3015625000  -4.492891e+001  -1.754026e+002 
3018750000  -4.546173e+001  -1.777104e+002 
3021875000  -4.406342e+001  -1.793854e+002 
3025000000  -4.278458e+001  1.772710e+002 
3028125000  -4.161412e+001  1.668376e+002 
3031250000  -4.075321e+001  1.538470e+002 
3034375000  -4.055447e+001  1.387705e+002 
3037500000  -4.179970e+001  1.283401e+002 
3040625000  -4.295645e+001  1.224552e+002 
3043750000  -4.317709e+001  1.145116e+002 
3046875000  -4.425642e+001  1.077814e+002 
3050000000  -4.518800e+001  1.020844e+002 
3053125000  -4.479976e+001  1.075910e+002 
3056250000  -4.442083e+001  1.103898e+002 
3059375000  -4.376952e+001  1.083635e+002 
3062500000  -4.247438e+001  9.967459e+001 
3065625000  -4.217544e+001  9.008875e+001 
3068750000  -4.179964e+001  8.291278e+001 
3071875000  -4.163584e+001  8.095422e+001 
3075000000  -4.143771e+001  7.271784e+001 
3078125000  -4.136949e+001  6.454831e+001 
3081250000  -4.151767e+001  5.666917e+001 
3084375000  -4.041407e+001  5.223452e+001 
3087500000  -4.049997e+001  4.466154e+001 
3090625000  -4.007504e+001  3.183936e+001 
3093750000  -4.106047e+001  2.283379e+001 
3096875000  -4.121792e+001  1.685778e+001 
3100000000  -4.108878e+001  1.314753e+001 
3103125000  -4.137435e+001  9.227702e+000 
3106250000  -4.085201e+001  2.832576e+000 
3109375000  -4.098829e+001  -1.803772e+000 
3112500000  -4.084701e+001  -1.036632e+001 
3115625000  -4.065482e+001  -1.410210e+001 
3118750000  -4.059700e+001  -1.978533e+001 
3121875000  -4.017938e+001  -3.279828e+001 
3125000000  -4.207184e+001  -3.429378e+001 
3128125000  -4.195129e+001  -3.005932e+001 
3131250000  -3.949086e+001  -3.825419e+001 
3134375000  -3.894719e+001  -5.591362e+001 
3137500000  -3.961656e+001  -6.902624e+001 
3140625000  -4.092471e+001  -7.213592e+001 
3143750000  -4.151500e+001  -7.708582e+001 
3146875000  -4.098277e+001  -7.531749e+001 
3150000000  -4.048613e+001  -8.122417e+001 
3153125000  -4.054509e+001  -8.993236e+001 
3156250000  -4.151485e+001  -8.803034e+001 
3159375000  -3.925412e+001  -9.157718e+001 
3162500000  -3.781043e+001  -1.080153e+002 
3165625000  -3.908769e+001  -1.217648e+002 
3168750000  -3.903374e+001  -1.233362e+002 
3171875000  -3.847828e+001  -1.308813e+002 
3175000000  -3.926704e+001  -1.427074e+002 
3178125000  -3.889107e+001  -1.438271e+002 
3181250000  -3.800988e+001  -1.532603e+002 
3184375000  -3.800563e+001  -1.663736e+002 
3187500000  -3.931166e+001  1.782056e+002 
3190625000  -4.083525e+001  1.713030e+002 
3193750000  -4.110229e+001  1.763257e+002 
3196875000  -4.099469e+001  1.759845e+002 
3200000000  -4.001902e+001  1.697676e+002 
3203125000  -3.960110e+001  1.607450e+002 
3206250000  -3.988428e+001  1.530977e+002 
3209375000  -3.962200e+001  1.445053e+002 
3212500000  -4.010179e+001  1.375829e+002 
3215625000  -3.973238e+001  1.331443e+002 
3218750000  -4.027106e+001  1.218955e+002 
3221875000  -4.063061e+001  1.139382e+002 
3225000000  -4.040020e+001  1.096823e+002 
3228125000  -4.109621e+001  1.024042e+002 
3231250000  -4.146311e+001  9.785314e+001 
3234375000  -4.099114e+001  9.489615e+001 
3237500000  -4.102202e+001  9.165096e+001 
3240625000  -4.021750e+001  8.372073e+001 
3243750000  -4.036001e+001  7.306723e+001 
3246875000  -4.062447e+001  6.436301e+001 
3250000000  -4.128160e+001  5.925513e+001 
3253125000  -4.114512e+001  5.575205e+001 
3256250000  -4.058232e+001  4.528046e+001 
3259375000  -4.099659e+001  3.207529e+001 
3262500000  -4.244981e+001  2.769425e+001 
3265625000  -4.266622e+001  2.933054e+001 
3268750000  -4.258646e+001  2.700028e+001 
3271875000  -4.159438e+001  2.303684e+001 
3275000000  -4.116570e+001  1.159846e+001 
3278125000  -4.184875e+001  4.605945e+000 
3281250000  -4.181091e+001  1.220000e+000 
3284375000  -4.096789e+001  -8.160347e+000 
3287500000  -4.163118e+001  -1.569873e+001 
3290625000  -4.165218e+001  -2.517635e+001 
3293750000  -4.147168e+001  -3.458051e+001 
3296875000  -4.282697e+001  -3.754953e+001 
3300000000  -4.226390e+001  -3.992190e+001 
3303125000  -4.113256e+001  -4.847816e+001 
3306250000  -4.110185e+001  -5.921440e+001 
3309375000  -4.075159e+001  -7.114989e+001 
3312500000  -4.111971e+001  -8.663644e+001 
3315625000  -4.270287e+001  -9.372195e+001 
3318750000  -4.439810e+001  -1.003230e+002 
3321875000  -4.531966e+001  -9.773197e+001 
3325000000  -4.468829e+001  -9.451516e+001 
3328125000  -4.432103e+001  -9.900600e+001 
3331250000  -4.222174e+001  -9.879415e+001 
3334375000  -4.029074e+001  -1.162680e+002 
3337500000  -4.101194e+001  -1.402070e+002 
3340625000  -4.283551e+001  -1.510368e+002 
3343750000  -4.453040e+001  -1.494685e+002 
3346875000  -4.426432e+001  -1.580614e+002 
3350000000  -4.373460e+001  -1.608636e+002 
3353125000  -4.369540e+001  -1.705785e+002 
3356250000  -4.362108e+001  1.787398e+002 
3359375000  -4.473840e+001  1.644605e+002 
3362500000  -4.514740e+001  1.587839e+002 
3365625000  -4.583763e+001  1.529147e+002 
3368750000  -4.681585e+001  1.478031e+002 
3371875000  -4.670248e+001  1.373518e+002 
3375000000  -4.854016e+001  1.355817e+002 
3378125000  -4.940207e+001  1.345297e+002 
3381250000  -5.059340e+001  1.444859e+002 
3384375000  -4.783497e+001  1.556617e+002 
3387500000  -4.486115e+001  1.293008e+002 
3390625000  -4.660083e+001  1.080491e+002 
3393750000  -4.815082e+001  1.063790e+002 
3396875000  -4.602124e+001  1.014207e+002 
3400000000  -4.630867e+001  8.809673e+001 
3403125000  -4.695192e+001  7.794822e+001 
3406250000  -4.786174e+001  7.131981e+001 
3409375000  -4.692328e+001  5.914940e+001 
3412500000  -4.777141e+001  5.386533e+001 
3415625000  -4.837257e+001  4.614512e+001 
3418750000  -4.862793e+001  4.466684e+001 
3421875000  -4.928008e+001  4.189750e+001 
3425000000  -4.795471e+001  3.616936e+001 
3428125000  -4.736110e+001  2.757452e+001 
3431250000  -4.707572e+001  1.485694e+001 
3434375000  -4.674057e+001  3.263800e+000 
3437500000  -4.790260e+001  -4.379620e+000 
3440625000  -4.770681e+001  -8.760497e+000 
3443750000  -4.696790e+001  -1.386330e+001 
3446875000  -4.541773e+001  -2.728058e+001 
3450000000  -4.533099e+001  -4.119530e+001 
3453125000  -4.586506e+001  -6.092843e+001 
3456250000  -4.749036e+001  -6.816546e+001 
3459375000  -4.813805e+001  -7.162261e+001 
3462500000  -4.764863e+001  -7.652085e+001 
3465625000  -4.732973e+001  -8.870426e+001 
3468750000  -4.728025e+001  -9.692424e+001 
3471875000  -4.718728e+001  -1.023778e+002 
3475000000  -4.674411e+001  -1.176842e+002 
3478125000  -4.742312e+001  -1.275980e+002 
3481250000  -4.934509e+001  -1.375722e+002 
3484375000  -4.845932e+001  -1.338941e+002 
3487500000  -4.765424e+001  -1.418944e+002 
3490625000  -4.680920e+001  -1.520367e+002 
3493750000  -4.765694e+001  -1.642356e+002 
3496875000  -4.804335e+001  -1.683505e+002 
3500000000  -4.896166e+001  -1.706325e+002 
3503125000  -4.685456e+001  -1.758651e+002 
3506250000  -4.523119e+001  1.720428e+002 
3509375000  -4.553821e+001  1.542337e+002 
3512500000  -4.569843e+001  1.389358e+002 
3515625000  -4.726109e+001  1.352208e+002 
3518750000  -4.804594e+001  1.278816e+002 
3521875000  -4.786255e+001  1.200968e+002 
3525000000  -4.833396e+001  1.163207e+002 
3528125000  -4.759834e+001  1.190159e+002 
3531250000  -4.658434e+001  1.030841e+002 
3534375000  -4.705791e+001  9.188477e+001 
3537500000  -4.731743e+001  8.209142e+001 
3540625000  -4.912298e+001  7.800884e+001 
3543750000  -4.950879e+001  8.410645e+001 
3546875000  -4.868880e+001  8.538152e+001 
3550000000  -4.660098e+001  7.532610e+001 
3553125000  -4.599603e+001  5.479375e+001 
3556250000  -4.738918e+001  4.750019e+001 
3559375000  -4.683762e+001  4.519481e+001 
3562500000  -4.641719e+001  2.905725e+001 
3565625000  -4.761031e+001  2.448304e+001 
3568750000  -4.777703e+001  2.570296e+001 
3571875000  -4.704475e+001  2.292973e+001 
3575000000  -4.684230e+001  1.243209e+001 
3578125000  -4.771339e+001  8.727299e+000 
3581250000  -4.764524e+001  5.415469e+000 
3584375000  -4.589664e+001  -2.834021e+000 
3587500000  -4.560144e+001  -1.388801e+001 
3590625000  -4.633790e+001  -2.187013e+001 
3593750000  -4.743889e+001  -2.261697e+001 
3596875000  -4.654702e+001  -1.948607e+001 
3600000000  -4.447078e+001  -3.099931e+001 
3603125000  -4.512517e+001  -4.732180e+001 
3606250000  -4.584484e+001  -4.967242e+001 
3609375000  -4.589053e+001  -5.685207e+001 
3612500000  -4.551752e+001  -6.115691e+001 
3615625000  -4.622538e+001  -6.647571e+001 
3618750000  -4.607379e+001  -6.998530e+001 
3621875000  -4.560101e+001  -7.664194e+001 
3625000000  -4.599207e+001  -8.041705e+001 
3628125000  -4.460658e+001  -8.634148e+001 
3631250000  -4.506012e+001  -9.537257e+001 
3634375000  -4.563552e+001  -9.716975e+001 
3637500000  -4.442029e+001  -9.913955e+001 
3640625000  -4.356701e+001  -1.058924e+002 
3643750000  -4.330999e+001  -1.188582e+002 
3646875000  -4.355385e+001  -1.283328e+002 
3650000000  -4.351434e+001  -1.329056e+002 
3653125000  -4.317332e+001  -1.384337e+002 
3656250000  -4.391543e+001  -1.466872e+002 
3659375000  -4.392649e+001  -1.513151e+002 
3662500000  -4.335826e+001  -1.593362e+002 
3665625000  -4.327546e+001  -1.626247e+002 
3668750000  -4.184926e+001  -1.660050e+002 
3671875000  -4.162600e+001  -1.786883e+002 
3675000000  -4.202419e+001  1.702477e+002 
3678125000  -4.297465e+001  1.635743e+002 
3681250000  -4.211951e+001  1.601256e+002 
3684375000  -4.273135e+001  1.503799e+002 
3687500000  -4.289194e+001  1.415994e+002 
3690625000  -4.372811e+001  1.345205e+002 
3693750000  -4.451727e+001  1.363391e+002 
3696875000  -4.362049e+001  1.315954e+002 
3700000000  -4.304156e+001  1.237582e+002 
3703125000  -4.339316e+001  1.156101e+002 
3706250000  -4.467200e+001  1.129255e+002 
3709375000  -4.391915e+001  1.117261e+002 
3712500000  -4.303433e+001  1.067175e+002 
3715625000  -4.158199e+001  9.682857e+001 
3718750000  -4.156963e+001  8.784314e+001 
3721875000  -4.207174e+001  7.847062e+001 
3725000000  -4.252283e+001  7.176129e+001 
3728125000  -4.246997e+001  6.842932e+001 
3731250000  -4.187613e+001  6.096593e+001 
3734375000  -4.210598e+001  5.308470e+001 
3737500000  -4.250168e+001  4.568151e+001 
3740625000  -4.343561e+001  3.969607e+001 
3743750000  -4.295446e+001  3.126211e+001 
3746875000  -4.338990e+001  2.635385e+001 
3750000000  -4.345832e+001  2.213768e+001 
3753125000  -4.415265e+001  1.999887e+001 
3756250000  -4.397244e+001  1.754415e+001 
3759375000  -4.359583e+001  8.400766e+000 
3762500000  -4.348888e+001  3.736603e+000 
3765625000  -4.429169e+001  -1.252379e+000 
3768750000  -4.350883e+001  6.725485e-001 
3771875000  -4.200095e+001  -5.257868e+000 
3775000000  -4.237533e+001  -1.715864e+001 
3778125000  -4.289023e+001  -2.278247e+001 
3781250000  -4.261070e+001  -2.716676e+001 
3784375000  -4.249020e+001  -3.476744e+001 
3787500000  -4.249854e+001  -3.832735e+001 
3790625000  -4.279318e+001  -4.894373e+001 
3793750000  -4.267778e+001  -5.214412e+001 
3796875000  -4.193604e+001  -5.864371e+001 
3800000000  -4.080253e+001  -6.702876e+001 
3803125000  -4.165412e+001  -7.520406e+001 
3806250000  -4.239645e+001  -8.192510e+001 
3809375000  -4.182335e+001  -8.690771e+001 
3812500000  -4.205164e+001  -9.873990e+001 
3815625000  -4.298222e+001  -1.099544e+002 
3818750000  -4.450452e+001  -1.088461e+002 
3821875000  -4.343995e+001  -9.501929e+001 
3825000000  -4.159835e+001  -9.980444e+001 
3828125000  -4.036617e+001  -1.236505e+002 
3831250000  -4.141792e+001  -1.386091e+002 
3834375000  -4.407922e+001  -1.396033e+002 
3837500000  -4.407750e+001  -1.360642e+002 
3840625000  -4.270788e+001  -1.413141e+002 
3843750000  -4.175864e+001  -1.573907e+002 
3846875000  -4.345889e+001  -1.620827e+002 
3850000000  -4.401022e+001  -1.584633e+002 
3853125000  -4.340673e+001  -1.591256e+002 
3856250000  -4.287766e+001  -1.694581e+002 
3859375000  -4.231023e+001  -1.761729e+002 
3862500000  -4.203345e+001  1.736055e+002 
3865625000  -4.264816e+001  1.634889e+002 
3868750000  -4.264221e+001  1.621077e+002 
3871875000  -4.153722e+001  1.549269e+002 
3875000000  -4.234697e+001  1.426774e+002 
3878125000  -4.333119e+001  1.425523e+002 
3881250000  -4.323446e+001  1.400467e+002 
3884375000  -4.277703e+001  1.307882e+002 
3887500000  -4.289495e+001  1.245658e+002 
3890625000  -4.412100e+001  1.188803e+002 
3893750000  -4.455705e+001  1.180877e+002 
3896875000  -4.444236e+001  1.128212e+002 
3900000000  -4.424189e+001  1.057456e+002 
3903125000  -4.365165e+001  1.045754e+002 
3906250000  -4.339270e+001  1.000771e+002 
3909375000  -4.272745e+001  9.229395e+001 
3912500000  -4.344476e+001  8.288854e+001 
3915625000  -4.499165e+001  8.329024e+001 
3918750000  -4.458238e+001  7.921482e+001 
3921875000  -4.374810e+001  7.486550e+001 
3925000000  -4.307039e+001  6.813760e+001 
3928125000  -4.303740e+001  5.947348e+001 
3931250000  -4.382272e+001  5.063723e+001 
3934375000  -4.380120e+001  4.929606e+001 
3937500000  -4.497084e+001  4.532261e+001 
3940625000  -4.466169e+001  4.646614e+001 
3943750000  -4.315372e+001  4.082726e+001 
3946875000  -4.307168e+001  3.110331e+001 
3950000000  -4.413524e+001  2.081550e+001 
3953125000  -4.471196e+001  2.457983e+001 
3956250000  -4.294108e+001  2.502697e+001 
3959375000  -4.162199e+001  1.438473e+001 
3962500000  -4.176539e+001  5.443626e+000 
3965625000  -4.218133e+001  -8.333126e+000 
3968750000  -4.316351e+001  -1.544568e+001 
3971875000  -4.266768e+001  -1.578552e+001 
3975000000  -4.217099e+001  -2.493063e+001 
3978125000  -4.250740e+001  -3.122404e+001 
3981250000  -4.200406e+001  -3.909311e+001 
3984375000  -4.244729e+001  -4.576263e+001 
3987500000  -4.323366e+001  -4.977768e+001 
3990625000  -4.279561e+001  -5.296384e+001 
3993750000  -4.310703e+001  -6.037730e+001 
3996875000  -4.289645e+001  -6.664872e+001 
4000000000  -4.387926e+001  -7.086198e+001 
4003125000  -4.383948e+001  -7.165205e+001 
4006250000  -4.224041e+001  -7.673164e+001 
4009375000  -4.145270e+001  -9.324992e+001 
4012500000  -4.318323e+001  -1.028146e+002 
4015625000  -4.422392e+001  -1.042606e+002 
4018750000  -4.354524e+001  -1.061014e+002 
4021875000  -4.309270e+001  -1.138829e+002 
4025000000  -4.324574e+001  -1.181830e+002 
4028125000  -4.328443e+001  -1.280065e+002 
4031250000  -4.414645e+001  -1.341329e+002 
4034375000  -4.424231e+001  -1.349018e+002 
4037500000  -4.408357e+001  -1.409749e+002 
4040625000  -4.410876e+001  -1.452220e+002 
4043750000  -4.480969e+001  -1.491475e+002 
4046875000  -4.459890e+001  -1.511155e+002 
4050000000  -4.418652e+001  -1.637620e+002 
4053125000  -4.562631e+001  -1.649966e+002 
4056250000  -4.585299e+001  -1.612130e+002 
4059375000  -4.409541e+001  -1.626229e+002 
4062500000  -4.384510e+001  -1.736880e+002 
4065625000  -4.380014e+001  -1.783679e+002 
4068750000  -4.323014e+001  1.722905e+002 
4071875000  -4.285813e+001  1.635770e+002 
4075000000  -4.396455e+001  1.565205e+002 
4078125000  -4.431345e+001  1.526485e+002 
4081250000  -4.365022e+001  1.465095e+002 
4084375000  -4.341336e+001  1.394359e+002 
4087500000  -4.445354e+001  1.287588e+002 
4090625000  -4.528434e+001  1.283474e+002 
4093750000  -4.472052e+001  1.280079e+002 
4096875000  -4.486450e+001  1.174470e+002 
4100000000  -4.564834e+001  1.115493e+002 
4103125000  -4.621640e+001  1.156601e+002 
4106250000  -4.527390e+001  1.175831e+002 
4109375000  -4.467349e+001  1.110218e+002 
4112500000  -4.451863e+001  1.029346e+002 
4115625000  -4.469332e+001  9.643164e+001 
4118750000  -4.430642e+001  9.393996e+001 
4121875000  -4.383630e+001  8.436433e+001 
4125000000  -4.522517e+001  7.690549e+001 
4128125000  -4.532850e+001  7.967968e+001 
4131250000  -4.420764e+001  8.527403e+001 
4134375000  -4.159793e+001  7.408926e+001 
4137500000  -4.227676e+001  5.179228e+001 
4140625000  -4.448086e+001  4.344022e+001 
4143750000  -4.535863e+001  5.120378e+001 
4146875000  -4.465314e+001  5.001403e+001 
4150000000  -4.315498e+001  4.200057e+001 
4153125000  -4.348295e+001  3.247684e+001 
4156250000  -4.452924e+001  2.783923e+001 
4159375000  -4.391191e+001  3.277184e+001 
4162500000  -4.252991e+001  3.066096e+001 
4165625000  -4.164852e+001  2.009236e+001 
4168750000  -4.159713e+001  9.223925e+000 
4171875000  -4.193906e+001  -2.569928e+000 
4175000000  -4.234695e+001  -1.327216e+001 
4178125000  -4.281251e+001  -1.485958e+001 
4181250000  -4.236916e+001  -2.196390e+001 
4184375000  -4.310503e+001  -2.586755e+001 
4187500000  -4.278348e+001  -3.327114e+001 
4190625000  -4.295071e+001  -4.290548e+001 
4193750000  -4.411938e+001  -4.883126e+001 
4196875000  -4.544305e+001  -5.226461e+001 
4200000000  -4.653186e+001  -4.472878e+001 
4203125000  -4.489872e+001  -3.580196e+001 
4206250000  -4.167100e+001  -4.541219e+001 
4209375000  -4.176910e+001  -7.082066e+001 
4212500000  -4.390213e+001  -8.001286e+001 
4215625000  -4.479551e+001  -7.237670e+001 
4218750000  -4.283360e+001  -7.368804e+001 
4221875000  -4.140741e+001  -8.375027e+001 
4225000000  -4.269695e+001  -9.717818e+001 
4228125000  -4.246774e+001  -9.052818e+001 
4231250000  -4.134954e+001  -1.024207e+002 
4234375000  -4.135294e+001  -1.117058e+002 
4237500000  -4.130326e+001  -1.197808e+002 
4240625000  -4.165958e+001  -1.289712e+002 
4243750000  -4.304187e+001  -1.354778e+002 
4246875000  -4.329721e+001  -1.368241e+002 
4250000000  -4.330113e+001  -1.374490e+002 
4253125000  -4.293184e+001  -1.399539e+002 
4256250000  -4.320586e+001  -1.489842e+002 
4259375000  -4.231863e+001  -1.507802e+002 
4262500000  -4.271070e+001  -1.583398e+002 
4265625000  -4.233691e+001  -1.570630e+002 
4268750000  -4.087865e+001  -1.669228e+002 
4271875000  -4.127716e+001  -1.757145e+002 
4275000000  -4.101875e+001  1.735429e+002 
4278125000  -4.182782e+001  1.609233e+002 
4281250000  -4.296333e+001  1.581928e+002 
4284375000  -4.262897e+001  1.576911e+002 
4287500000  -4.399228e+001  1.510179e+002 
4290625000  -4.406160e+001  1.597626e+002 
4293750000  -4.260451e+001  1.584466e+002 
4296875000  -4.052424e+001  1.429662e+002 
4300000000  -4.213158e+001  1.332364e+002 
4303125000  -4.223064e+001  1.362523e+002 
4306250000  -4.120354e+001  1.334939e+002 
4309375000  -4.035102e+001  1.236590e+002 
4312500000  -3.999183e+001  1.090910e+002 
4315625000  -4.053341e+001  1.009050e+002 
4318750000  -4.113751e+001  9.679640e+001 
4321875000  -4.081514e+001  9.416283e+001 
4325000000  -4.056850e+001  9.106612e+001 
4328125000  -4.017803e+001  7.753218e+001 
4331250000  -4.006898e+001  6.652583e+001 
4334375000  -4.113219e+001  5.805634e+001 
4337500000  -4.259269e+001  5.559344e+001 
4340625000  -4.245987e+001  5.983109e+001 
4343750000  -4.131762e+001  5.371515e+001 
4346875000  -4.197308e+001  4.477781e+001 
4350000000  -4.145401e+001  3.528008e+001 
4353125000  -4.240236e+001  2.654524e+001 
4356250000  -4.440775e+001  2.776140e+001 
4359375000  -4.298528e+001  4.240062e+001 
4362500000  -4.011097e+001  3.356739e+001 
4365625000  -3.979153e+001  1.387490e+001 
4368750000  -4.095416e+001  3.185106e+000 
4371875000  -4.169733e+001  -1.451562e+000 
4375000000  -4.102229e+001  -4.129261e+000 
4378125000  -4.129618e+001  -1.231990e+001 
4381250000  -4.114433e+001  -1.927933e+001 
4384375000  -4.139260e+001  -2.560136e+001 
4387500000  -4.232331e+001  -3.498008e+001 
4390625000  -4.321211e+001  -3.394151e+001 
4393750000  -4.247472e+001  -3.625071e+001 
4396875000  -4.188748e+001  -4.476635e+001 
4400000000  -4.131795e+001  -5.151833e+001 
4403125000  -4.240340e+001  -6.247468e+001 
4406250000  -4.279816e+001  -6.597176e+001 
4409375000  -4.316779e+001  -7.124622e+001 
4412500000  -4.430526e+001  -6.990318e+001 
4415625000  -4.352658e+001  -6.606783e+001 
4418750000  -4.248348e+001  -7.208408e+001 
