!Agilent Technologies,E8363B,MY43030201,A.06.04.32
!Agilent E8363B: A.06.04.32
!Date: Tuesday, November 11, 2014 21:47:07
!Correction: S21(Response(S21)) 
!S1P File: Measurement: S21:
# Hz S  dB   R 50
3000000000  -4.374261e+001  -1.618215e+002 
3003125000  -4.541407e+001  -1.654240e+002 
3006250000  -4.521534e+001  -1.674442e+002 
3009375000  -4.609578e+001  -1.664890e+002 
3012500000  -4.482684e+001  -1.726956e+002 
3015625000  -4.504163e+001  -1.775900e+002 
3018750000  -4.526247e+001  -1.778460e+002 
3021875000  -4.370485e+001  -1.777529e+002 
3025000000  -4.273965e+001  1.764501e+002 
3028125000  -4.186700e+001  1.651131e+002 
3031250000  -4.091595e+001  1.521919e+002 
3034375000  -4.072173e+001  1.377017e+002 
3037500000  -4.142503e+001  1.253862e+002 
3040625000  -4.304932e+001  1.216787e+002 
3043750000  -4.330685e+001  1.127187e+002 
3046875000  -4.453784e+001  1.071589e+002 
3050000000  -4.525137e+001  1.027224e+002 
3053125000  -4.457624e+001  1.056848e+002 
3056250000  -4.466928e+001  1.090940e+002 
3059375000  -4.400616e+001  1.040793e+002 
3062500000  -4.245279e+001  1.025518e+002 
3065625000  -4.219175e+001  8.991850e+001 
3068750000  -4.166981e+001  8.065224e+001 
3071875000  -4.166626e+001  8.044073e+001 
3075000000  -4.127906e+001  7.133038e+001 
3078125000  -4.134624e+001  6.338291e+001 
3081250000  -4.133358e+001  5.663030e+001 
3084375000  -4.054369e+001  5.150223e+001 
3087500000  -4.048550e+001  4.335752e+001 
3090625000  -3.998772e+001  3.083698e+001 
3093750000  -4.087100e+001  2.329655e+001 
3096875000  -4.120190e+001  1.650727e+001 
3100000000  -4.116233e+001  1.210896e+001 
3103125000  -4.125290e+001  6.883473e+000 
3106250000  -4.124632e+001  1.863494e+000 
3109375000  -4.100997e+001  -3.463367e+000 
3112500000  -4.082938e+001  -1.172118e+001 
3115625000  -4.085216e+001  -1.553926e+001 
3118750000  -4.088833e+001  -1.980773e+001 
3121875000  -4.034102e+001  -3.264952e+001 
3125000000  -4.211714e+001  -3.688652e+001 
3128125000  -4.180635e+001  -3.011448e+001 
3131250000  -3.942422e+001  -3.942253e+001 
3134375000  -3.885297e+001  -5.744777e+001 
3137500000  -3.949570e+001  -6.954436e+001 
3140625000  -4.089876e+001  -7.492268e+001 
3143750000  -4.155850e+001  -7.718427e+001 
3146875000  -4.116518e+001  -7.695009e+001 
3150000000  -4.033056e+001  -8.212035e+001 
3153125000  -4.079018e+001  -9.075318e+001 
3156250000  -4.144262e+001  -8.889435e+001 
3159375000  -3.904649e+001  -9.164450e+001 
3162500000  -3.778595e+001  -1.086090e+002 
3165625000  -3.887469e+001  -1.230916e+002 
3168750000  -3.896253e+001  -1.228798e+002 
3171875000  -3.866636e+001  -1.328805e+002 
3175000000  -3.911309e+001  -1.429263e+002 
3178125000  -3.885656e+001  -1.451528e+002 
3181250000  -3.810601e+001  -1.540587e+002 
3184375000  -3.781879e+001  -1.667822e+002 
3187500000  -3.933829e+001  1.788545e+002 
3190625000  -4.074393e+001  1.697738e+002 
3193750000  -4.131121e+001  1.741397e+002 
3196875000  -4.102499e+001  1.728825e+002 
3200000000  -3.977322e+001  1.686668e+002 
3203125000  -3.958979e+001  1.598365e+002 
3206250000  -3.994203e+001  1.516330e+002 
3209375000  -3.949585e+001  1.433461e+002 
3212500000  -3.992244e+001  1.364892e+002 
3215625000  -3.957768e+001  1.327945e+002 
3218750000  -4.017009e+001  1.207800e+002 
3221875000  -4.035997e+001  1.138352e+002 
3225000000  -4.037346e+001  1.073967e+002 
3228125000  -4.100784e+001  1.008014e+002 
3231250000  -4.135378e+001  9.722759e+001 
3234375000  -4.115798e+001  9.501622e+001 
3237500000  -4.100338e+001  8.966045e+001 
3240625000  -4.034556e+001  8.242488e+001 
3243750000  -4.028728e+001  7.085080e+001 
3246875000  -4.068041e+001  6.318301e+001 
3250000000  -4.120386e+001  5.907164e+001 
3253125000  -4.104084e+001  5.416388e+001 
3256250000  -4.044350e+001  4.414037e+001 
3259375000  -4.102501e+001  3.106946e+001 
3262500000  -4.256335e+001  2.702893e+001 
3265625000  -4.274162e+001  2.888502e+001 
3268750000  -4.253846e+001  2.435020e+001 
3271875000  -4.161248e+001  2.159190e+001 
3275000000  -4.104763e+001  1.110120e+001 
3278125000  -4.165146e+001  4.561174e+000 
3281250000  -4.193294e+001  6.915452e-002 
3284375000  -4.092735e+001  -9.078442e+000 
3287500000  -4.136795e+001  -1.669160e+001 
3290625000  -4.139035e+001  -2.637215e+001 
3293750000  -4.156774e+001  -3.427271e+001 
3296875000  -4.267450e+001  -3.755979e+001 
3300000000  -4.222062e+001  -4.168774e+001 
3303125000  -4.099546e+001  -5.094321e+001 
3306250000  -4.094759e+001  -5.986673e+001 
3309375000  -4.045096e+001  -7.104534e+001 
3312500000  -4.108628e+001  -8.537029e+001 
3315625000  -4.229741e+001  -9.383271e+001 
3318750000  -4.385021e+001  -1.011153e+002 
3321875000  -4.518020e+001  -1.001407e+002 
3325000000  -4.521563e+001  -9.476742e+001 
3328125000  -4.387349e+001  -1.007071e+002 
3331250000  -4.221717e+001  -9.867617e+001 
3334375000  -3.998018e+001  -1.172050e+002 
3337500000  -4.089459e+001  -1.420356e+002 
3340625000  -4.272775e+001  -1.513804e+002 
3343750000  -4.435978e+001  -1.530305e+002 
3346875000  -4.409491e+001  -1.570602e+002 
3350000000  -4.356463e+001  -1.618496e+002 
3353125000  -4.350220e+001  -1.705094e+002 
3356250000  -4.316908e+001  1.791214e+002 
3359375000  -4.416658e+001  1.662674e+002 
3362500000  -4.512978e+001  1.572785e+002 
3365625000  -4.557098e+001  1.528235e+002 
3368750000  -4.627830e+001  1.465374e+002 
3371875000  -4.702042e+001  1.387494e+002 
3375000000  -4.832429e+001  1.346150e+002 
3378125000  -4.930824e+001  1.305085e+002 
3381250000  -5.029958e+001  1.405426e+002 
3384375000  -4.691406e+001  1.527590e+002 
3387500000  -4.493839e+001  1.281463e+002 
3390625000  -4.730594e+001  1.064343e+002 
3393750000  -4.777101e+001  1.048983e+002 
3396875000  -4.640459e+001  9.972916e+001 
3400000000  -4.647860e+001  8.609291e+001 
3403125000  -4.696523e+001  7.935057e+001 
3406250000  -4.767363e+001  7.263740e+001 
3409375000  -4.697235e+001  6.082417e+001 
3412500000  -4.804998e+001  5.056996e+001 
3415625000  -4.825260e+001  4.671854e+001 
3418750000  -4.884589e+001  4.490418e+001 
3421875000  -4.892524e+001  4.140462e+001 
3425000000  -4.793857e+001  3.599630e+001 
3428125000  -4.760433e+001  2.721089e+001 
3431250000  -4.692472e+001  1.436999e+001 
3434375000  -4.669890e+001  4.984396e+000 
3437500000  -4.784586e+001  -4.321001e+000 
3440625000  -4.818617e+001  -1.078200e+001 
3443750000  -4.643559e+001  -1.374087e+001 
3446875000  -4.572912e+001  -2.912825e+001 
3450000000  -4.532860e+001  -4.260459e+001 
3453125000  -4.572958e+001  -5.863398e+001 
3456250000  -4.723288e+001  -7.196061e+001 
3459375000  -4.833896e+001  -7.175172e+001 
3462500000  -4.818806e+001  -7.747623e+001 
3465625000  -4.754485e+001  -9.105452e+001 
3468750000  -4.774596e+001  -9.349429e+001 
3471875000  -4.695758e+001  -1.051807e+002 
3475000000  -4.652068e+001  -1.172349e+002 
3478125000  -4.756668e+001  -1.290007e+002 
3481250000  -4.902295e+001  -1.330486e+002 
3484375000  -4.859843e+001  -1.330801e+002 
3487500000  -4.766557e+001  -1.435475e+002 
3490625000  -4.697530e+001  -1.566002e+002 
3493750000  -4.790086e+001  -1.673452e+002 
3496875000  -4.810009e+001  -1.682841e+002 
3500000000  -4.812663e+001  -1.721458e+002 
3503125000  -4.716896e+001  -1.741783e+002 
3506250000  -4.554530e+001  1.722006e+002 
3509375000  -4.564345e+001  1.523014e+002 
3512500000  -4.615714e+001  1.352240e+002 
3515625000  -4.723359e+001  1.304273e+002 
3518750000  -4.816468e+001  1.307324e+002 
3521875000  -4.823187e+001  1.169371e+002 
3525000000  -4.837816e+001  1.132737e+002 
3528125000  -4.774074e+001  1.183028e+002 
3531250000  -4.648550e+001  1.045871e+002 
3534375000  -4.700677e+001  8.783785e+001 
3537500000  -4.794287e+001  7.783914e+001 
3540625000  -4.914732e+001  7.579881e+001 
3543750000  -4.884105e+001  7.952579e+001 
3546875000  -4.888675e+001  8.306656e+001 
3550000000  -4.726424e+001  7.279126e+001 
3553125000  -4.623463e+001  5.617545e+001 
3556250000  -4.701992e+001  4.833817e+001 
3559375000  -4.630938e+001  4.419678e+001 
3562500000  -4.683801e+001  3.091264e+001 
3565625000  -4.710831e+001  2.509881e+001 
3568750000  -4.771457e+001  2.359379e+001 
3571875000  -4.716574e+001  1.780322e+001 
3575000000  -4.715552e+001  8.186371e+000 
3578125000  -4.764853e+001  5.925541e+000 
3581250000  -4.704554e+001  4.817771e+000 
3584375000  -4.604673e+001  -4.093537e+000 
3587500000  -4.548759e+001  -1.569290e+001 
3590625000  -4.638321e+001  -2.644193e+001 
3593750000  -4.743847e+001  -2.624848e+001 
3596875000  -4.699898e+001  -2.318564e+001 
3600000000  -4.485160e+001  -2.998446e+001 
3603125000  -4.517380e+001  -5.043027e+001 
3606250000  -4.640728e+001  -5.517420e+001 
3609375000  -4.622784e+001  -5.705465e+001 
3612500000  -4.633380e+001  -6.373324e+001 
3615625000  -4.586708e+001  -7.017543e+001 
3618750000  -4.623726e+001  -7.272442e+001 
3621875000  -4.572258e+001  -7.941359e+001 
3625000000  -4.599694e+001  -8.210509e+001 
3628125000  -4.502758e+001  -8.726785e+001 
3631250000  -4.500396e+001  -9.647340e+001 
3634375000  -4.600279e+001  -9.729518e+001 
3637500000  -4.464373e+001  -9.980695e+001 
3640625000  -4.376347e+001  -1.079460e+002 
3643750000  -4.332682e+001  -1.201843e+002 
3646875000  -4.403246e+001  -1.279719e+002 
3650000000  -4.391108e+001  -1.347371e+002 
3653125000  -4.332230e+001  -1.426391e+002 
3656250000  -4.409391e+001  -1.464774e+002 
3659375000  -4.367456e+001  -1.495831e+002 
3662500000  -4.349585e+001  -1.614342e+002 
3665625000  -4.330151e+001  -1.640962e+002 
3668750000  -4.210242e+001  -1.685655e+002 
3671875000  -4.128723e+001  1.781373e+002 
3675000000  -4.232675e+001  1.678784e+002 
3678125000  -4.256257e+001  1.619512e+002 
3681250000  -4.242331e+001  1.559953e+002 
3684375000  -4.236051e+001  1.486689e+002 
3687500000  -4.309427e+001  1.404638e+002 
3690625000  -4.375299e+001  1.343554e+002 
3693750000  -4.416985e+001  1.339860e+002 
3696875000  -4.382064e+001  1.287937e+002 
3700000000  -4.293534e+001  1.196004e+002 
3703125000  -4.365490e+001  1.137478e+002 
3706250000  -4.460620e+001  1.106180e+002 
3709375000  -4.376108e+001  1.115679e+002 
3712500000  -4.289819e+001  1.019732e+002 
3715625000  -4.199448e+001  9.342933e+001 
3718750000  -4.163845e+001  8.575186e+001 
3721875000  -4.184830e+001  7.557113e+001 
3725000000  -4.261636e+001  6.865463e+001 
3728125000  -4.221230e+001  6.363811e+001 
3731250000  -4.187247e+001  5.919244e+001 
3734375000  -4.196439e+001  5.220567e+001 
3737500000  -4.254556e+001  4.372948e+001 
3740625000  -4.301446e+001  3.644625e+001 
3743750000  -4.285990e+001  3.194637e+001 
3746875000  -4.303667e+001  2.448465e+001 
3750000000  -4.335467e+001  2.111032e+001 
3753125000  -4.373824e+001  1.805289e+001 
3756250000  -4.377339e+001  1.581112e+001 
3759375000  -4.352236e+001  8.012861e+000 
3762500000  -4.333361e+001  2.587011e+000 
3765625000  -4.417254e+001  -3.192810e+000 
3768750000  -4.364543e+001  -1.947066e+000 
3771875000  -4.215896e+001  -7.730315e+000 
3775000000  -4.198128e+001  -2.004845e+001 
3778125000  -4.250988e+001  -2.630796e+001 
3781250000  -4.272288e+001  -3.037793e+001 
3784375000  -4.244239e+001  -3.679691e+001 
3787500000  -4.244656e+001  -4.114951e+001 
3790625000  -4.276221e+001  -5.222992e+001 
3793750000  -4.242515e+001  -5.569380e+001 
3796875000  -4.152333e+001  -5.992294e+001 
3800000000  -4.066218e+001  -6.809102e+001 
3803125000  -4.186293e+001  -7.955738e+001 
3806250000  -4.254604e+001  -8.445392e+001 
3809375000  -4.188323e+001  -8.861537e+001 
3812500000  -4.153110e+001  -1.001595e+002 
3815625000  -4.277463e+001  -1.111131e+002 
3818750000  -4.447663e+001  -1.087562e+002 
3821875000  -4.343490e+001  -9.887877e+001 
3825000000  -4.170473e+001  -1.037006e+002 
3828125000  -4.034857e+001  -1.249017e+002 
3831250000  -4.139754e+001  -1.384426e+002 
3834375000  -4.349177e+001  -1.406986e+002 
3837500000  -4.368451e+001  -1.407129e+002 
3840625000  -4.220755e+001  -1.452413e+002 
3843750000  -4.156827e+001  -1.604658e+002 
3846875000  -4.346010e+001  -1.654497e+002 
3850000000  -4.429858e+001  -1.582146e+002 
3853125000  -4.332707e+001  -1.652446e+002 
3856250000  -4.303440e+001  -1.737479e+002 
3859375000  -4.209414e+001  -1.783600e+002 
3862500000  -4.207276e+001  1.695315e+002 
3865625000  -4.263869e+001  1.645434e+002 
3868750000  -4.227713e+001  1.601850e+002 
3871875000  -4.200067e+001  1.538125e+002 
3875000000  -4.245216e+001  1.402284e+002 
3878125000  -4.320586e+001  1.394701e+002 
3881250000  -4.322232e+001  1.372764e+002 
3884375000  -4.260664e+001  1.276147e+002 
3887500000  -4.301648e+001  1.228773e+002 
3890625000  -4.372862e+001  1.174866e+002 
3893750000  -4.411494e+001  1.168923e+002 
3896875000  -4.418465e+001  1.130660e+002 
3900000000  -4.446031e+001  1.074255e+002 
3903125000  -4.362342e+001  1.006331e+002 
3906250000  -4.337775e+001  9.721838e+001 
3909375000  -4.267914e+001  8.856163e+001 
3912500000  -4.403238e+001  7.711133e+001 
3915625000  -4.458195e+001  7.840086e+001 
3918750000  -4.467829e+001  7.751434e+001 
3921875000  -4.394474e+001  7.204675e+001 
3925000000  -4.298841e+001  6.614162e+001 
3928125000  -4.287125e+001  5.879399e+001 
3931250000  -4.338277e+001  4.949780e+001 
3934375000  -4.381664e+001  4.663329e+001 
3937500000  -4.452694e+001  4.498635e+001 
3940625000  -4.449107e+001  4.430185e+001 
3943750000  -4.323529e+001  3.550504e+001 
3946875000  -4.307008e+001  2.888090e+001 
3950000000  -4.361766e+001  2.334621e+001 
3953125000  -4.435038e+001  2.213902e+001 
3956250000  -4.220078e+001  1.896010e+001 
3959375000  -4.164863e+001  1.135602e+001 
3962500000  -4.112246e+001  1.802617e+000 
3965625000  -4.166715e+001  -8.376581e+000 
3968750000  -4.239672e+001  -1.441085e+001 
3971875000  -4.239738e+001  -2.139007e+001 
3975000000  -4.173979e+001  -2.398528e+001 
3978125000  -4.169493e+001  -3.198611e+001 
3981250000  -4.188848e+001  -4.037508e+001 
3984375000  -4.231583e+001  -4.795232e+001 
3987500000  -4.329881e+001  -5.266614e+001 
3990625000  -4.288461e+001  -5.706844e+001 
3993750000  -4.263560e+001  -6.290244e+001 
3996875000  -4.289010e+001  -6.896828e+001 
4000000000  -4.344489e+001  -7.136800e+001 
4003125000  -4.363442e+001  -7.249514e+001 
4006250000  -4.179442e+001  -7.812564e+001 
4009375000  -4.125433e+001  -9.581326e+001 
4012500000  -4.300192e+001  -1.021575e+002 
4015625000  -4.369714e+001  -1.046479e+002 
4018750000  -4.364915e+001  -1.095135e+002 
4021875000  -4.265339e+001  -1.148108e+002 
4025000000  -4.264952e+001  -1.210466e+002 
4028125000  -4.299305e+001  -1.301349e+002 
4031250000  -4.386510e+001  -1.326841e+002 
4034375000  -4.410480e+001  -1.385751e+002 
4037500000  -4.388494e+001  -1.434718e+002 
4040625000  -4.408619e+001  -1.459538e+002 
4043750000  -4.446731e+001  -1.513525e+002 
4046875000  -4.423508e+001  -1.556690e+002 
4050000000  -4.449866e+001  -1.626698e+002 
4053125000  -4.523099e+001  -1.669062e+002 
4056250000  -4.528416e+001  -1.642652e+002 
4059375000  -4.385788e+001  -1.640394e+002 
4062500000  -4.296163e+001  -1.739183e+002 
4065625000  -4.350405e+001  -1.784203e+002 
4068750000  -4.275278e+001  1.741936e+002 
4071875000  -4.262306e+001  1.606808e+002 
4075000000  -4.351546e+001  1.552878e+002 
4078125000  -4.412590e+001  1.501423e+002 
4081250000  -4.324429e+001  1.450498e+002 
4084375000  -4.312821e+001  1.393241e+002 
4087500000  -4.350578e+001  1.290701e+002 
4090625000  -4.463014e+001  1.293380e+002 
4093750000  -4.449751e+001  1.235119e+002 
4096875000  -4.443859e+001  1.190751e+002 
4100000000  -4.500589e+001  1.114630e+002 
4103125000  -4.599604e+001  1.129307e+002 
4106250000  -4.514445e+001  1.108680e+002 
4109375000  -4.433615e+001  1.094706e+002 
4112500000  -4.444394e+001  9.916531e+001 
4115625000  -4.416150e+001  9.575604e+001 
4118750000  -4.398548e+001  9.110590e+001 
4121875000  -4.393318e+001  8.266927e+001 
4125000000  -4.420048e+001  7.688249e+001 
4128125000  -4.527016e+001  7.995876e+001 
4131250000  -4.364663e+001  8.168311e+001 
4134375000  -4.135144e+001  7.078590e+001 
4137500000  -4.180570e+001  5.092340e+001 
4140625000  -4.413091e+001  4.181164e+001 
4143750000  -4.463625e+001  4.662592e+001 
4146875000  -4.372996e+001  4.965881e+001 
4150000000  -4.268523e+001  4.211520e+001 
4153125000  -4.352768e+001  2.855690e+001 
4156250000  -4.394161e+001  2.436817e+001 
4159375000  -4.360211e+001  2.832308e+001 
4162500000  -4.254109e+001  2.724339e+001 
4165625000  -4.174335e+001  1.636017e+001 
4168750000  -4.106699e+001  8.222483e+000 
4171875000  -4.106406e+001  -6.083424e+000 
4175000000  -4.163434e+001  -1.548807e+001 
4178125000  -4.255415e+001  -1.988049e+001 
4181250000  -4.182071e+001  -2.345180e+001 
4184375000  -4.233755e+001  -3.018999e+001 
4187500000  -4.251672e+001  -3.575774e+001 
4190625000  -4.246168e+001  -4.530500e+001 
4193750000  -4.411750e+001  -5.242722e+001 
4196875000  -4.490532e+001  -5.744297e+001 
4200000000  -4.580449e+001  -4.567770e+001 
4203125000  -4.484000e+001  -3.733767e+001 
4206250000  -4.112625e+001  -5.028328e+001 
4209375000  -4.176878e+001  -7.192181e+001 
4212500000  -4.393536e+001  -7.755785e+001 
4215625000  -4.412412e+001  -7.246372e+001 
4218750000  -4.267778e+001  -7.401587e+001 
4221875000  -4.103254e+001  -8.501370e+001 
4225000000  -4.189020e+001  -9.370021e+001 
4228125000  -4.194353e+001  -9.459393e+001 
4231250000  -4.089001e+001  -1.049238e+002 
4234375000  -4.094856e+001  -1.144882e+002 
4237500000  -4.088983e+001  -1.194955e+002 
4240625000  -4.091245e+001  -1.291591e+002 
4243750000  -4.203089e+001  -1.383739e+002 
4246875000  -4.296565e+001  -1.398302e+002 
4250000000  -4.258919e+001  -1.410022e+002 
4253125000  -4.285322e+001  -1.462805e+002 
4256250000  -4.234134e+001  -1.501071e+002 
4259375000  -4.209908e+001  -1.547068e+002 
4262500000  -4.218940e+001  -1.584849e+002 
4265625000  -4.178413e+001  -1.602388e+002 
4268750000  -4.103868e+001  -1.711008e+002 
4271875000  -4.075653e+001  1.792423e+002 
4275000000  -4.046487e+001  1.721534e+002 
4278125000  -4.129454e+001  1.583287e+002 
4281250000  -4.251182e+001  1.560996e+002 
4284375000  -4.199331e+001  1.505214e+002 
4287500000  -4.345519e+001  1.492356e+002 
4290625000  -4.330910e+001  1.555922e+002 
4293750000  -4.151240e+001  1.546509e+002 
4296875000  -4.036699e+001  1.408052e+002 
4300000000  -4.119639e+001  1.291673e+002 
4303125000  -4.183231e+001  1.301417e+002 
4306250000  -4.068424e+001  1.308993e+002 
4309375000  -3.980074e+001  1.195639e+002 
4312500000  -3.973993e+001  1.071336e+002 
4315625000  -4.015291e+001  9.745735e+001 
4318750000  -4.066076e+001  9.195172e+001 
4321875000  -4.079933e+001  9.073977e+001 
4325000000  -4.012844e+001  8.648051e+001 
4328125000  -3.949761e+001  7.707684e+001 
4331250000  -3.981623e+001  6.409755e+001 
4334375000  -4.057357e+001  5.669358e+001 
4337500000  -4.196888e+001  5.356024e+001 
4340625000  -4.217523e+001  5.762078e+001 
4343750000  -4.093360e+001  5.272158e+001 
4346875000  -4.102484e+001  4.073592e+001 
4350000000  -4.093997e+001  3.102755e+001 
4353125000  -4.194934e+001  2.201361e+001 
4356250000  -4.408469e+001  2.741767e+001 
4359375000  -4.270363e+001  4.045881e+001 
4362500000  -3.895267e+001  2.959607e+001 
4365625000  -3.929473e+001  1.023717e+001 
4368750000  -4.011058e+001  6.698474e-001 
4371875000  -4.107042e+001  -3.421895e+000 
4375000000  -4.054636e+001  -4.350841e+000 
4378125000  -4.063718e+001  -1.485198e+001 
4381250000  -4.068018e+001  -2.239237e+001 
4384375000  -4.060273e+001  -2.984689e+001 
4387500000  -4.147421e+001  -3.878588e+001 
4390625000  -4.219800e+001  -3.877253e+001 
4393750000  -4.148896e+001  -4.168525e+001 
4396875000  -4.133312e+001  -4.664470e+001 
4400000000  -4.046662e+001  -5.549385e+001 
4403125000  -4.172383e+001  -6.609643e+001 
4406250000  -4.206516e+001  -7.185620e+001 
4409375000  -4.266909e+001  -7.455399e+001 
4412500000  -4.360363e+001  -7.686598e+001 
4415625000  -4.282778e+001  -7.038918e+001 
4418750000  -4.157346e+001  -7.668951e+001 
