!Agilent Technologies,E8363B,MY43030201,A.06.04.32
!Agilent E8363B: A.06.04.32
!Date: Tuesday, November 11, 2014 21:47:23
!Correction: S21(Response(S21)) 
!S1P File: Measurement: S21:
# Hz S  dB   R 50
3000000000  -4.371351e+001  -1.616967e+002 
3003125000  -4.510674e+001  -1.657078e+002 
3006250000  -4.551652e+001  -1.676932e+002 
3009375000  -4.595892e+001  -1.636951e+002 
3012500000  -4.490596e+001  -1.708482e+002 
3015625000  -4.482156e+001  -1.798837e+002 
3018750000  -4.547771e+001  -1.773916e+002 
3021875000  -4.383772e+001  -1.790413e+002 
3025000000  -4.272649e+001  1.778736e+002 
3028125000  -4.204099e+001  1.656762e+002 
3031250000  -4.095966e+001  1.514263e+002 
3034375000  -4.080273e+001  1.377055e+002 
3037500000  -4.173551e+001  1.287398e+002 
3040625000  -4.278763e+001  1.199778e+002 
3043750000  -4.326365e+001  1.129648e+002 
3046875000  -4.413016e+001  1.049038e+002 
3050000000  -4.498972e+001  1.029735e+002 
3053125000  -4.462419e+001  1.056612e+002 
3056250000  -4.493980e+001  1.090566e+002 
3059375000  -4.374388e+001  1.035168e+002 
3062500000  -4.244247e+001  9.884810e+001 
3065625000  -4.222149e+001  8.942181e+001 
3068750000  -4.184612e+001  8.208411e+001 
3071875000  -4.186197e+001  7.892336e+001 
3075000000  -4.132799e+001  7.069518e+001 
3078125000  -4.135265e+001  6.348457e+001 
3081250000  -4.134936e+001  5.587114e+001 
3084375000  -4.035799e+001  5.102155e+001 
3087500000  -4.063288e+001  4.337835e+001 
3090625000  -4.000942e+001  3.088304e+001 
3093750000  -4.088166e+001  2.119546e+001 
3096875000  -4.127111e+001  1.579793e+001 
3100000000  -4.123066e+001  1.247180e+001 
3103125000  -4.136514e+001  7.501909e+000 
3106250000  -4.093209e+001  1.474504e+000 
3109375000  -4.114745e+001  -4.061258e+000 
3112500000  -4.064993e+001  -1.174186e+001 
3115625000  -4.079276e+001  -1.502472e+001 
3118750000  -4.083957e+001  -2.199183e+001 
3121875000  -4.021817e+001  -3.340477e+001 
3125000000  -4.222533e+001  -3.594735e+001 
3128125000  -4.205224e+001  -3.110167e+001 
3131250000  -3.945396e+001  -3.895129e+001 
3134375000  -3.879573e+001  -5.687305e+001 
3137500000  -3.970962e+001  -6.992369e+001 
3140625000  -4.089956e+001  -7.351849e+001 
3143750000  -4.179145e+001  -8.003266e+001 
3146875000  -4.102515e+001  -7.740515e+001 
3150000000  -4.035368e+001  -8.316547e+001 
3153125000  -4.072800e+001  -9.162478e+001 
3156250000  -4.151126e+001  -8.782500e+001 
3159375000  -3.920549e+001  -9.260297e+001 
3162500000  -3.776937e+001  -1.086069e+002 
3165625000  -3.901859e+001  -1.223879e+002 
3168750000  -3.886447e+001  -1.240633e+002 
3171875000  -3.853522e+001  -1.330148e+002 
3175000000  -3.910798e+001  -1.426654e+002 
3178125000  -3.877554e+001  -1.452257e+002 
3181250000  -3.791212e+001  -1.543553e+002 
3184375000  -3.778171e+001  -1.678615e+002 
3187500000  -3.919510e+001  1.770145e+002 
3190625000  -4.077301e+001  1.709042e+002 
3193750000  -4.112730e+001  1.749890e+002 
3196875000  -4.109602e+001  1.735047e+002 
3200000000  -3.976494e+001  1.682896e+002 
3203125000  -3.972445e+001  1.598402e+002 
3206250000  -3.976245e+001  1.517160e+002 
3209375000  -3.950343e+001  1.439909e+002 
3212500000  -4.008275e+001  1.357959e+002 
3215625000  -3.973213e+001  1.328055e+002 
3218750000  -4.037415e+001  1.206476e+002 
3221875000  -4.059539e+001  1.135775e+002 
3225000000  -4.038565e+001  1.070359e+002 
3228125000  -4.101311e+001  1.010133e+002 
3231250000  -4.155460e+001  9.920523e+001 
3234375000  -4.098554e+001  9.413464e+001 
3237500000  -4.086128e+001  9.049237e+001 
3240625000  -4.034618e+001  8.371445e+001 
3243750000  -4.035997e+001  7.101149e+001 
3246875000  -4.055355e+001  6.266137e+001 
3250000000  -4.102061e+001  5.838181e+001 
3253125000  -4.107397e+001  5.420517e+001 
3256250000  -4.027764e+001  4.482964e+001 
3259375000  -4.101419e+001  3.172587e+001 
3262500000  -4.227742e+001  2.687571e+001 
3265625000  -4.250529e+001  2.937578e+001 
3268750000  -4.249641e+001  2.652803e+001 
3271875000  -4.157004e+001  2.181794e+001 
3275000000  -4.119567e+001  9.078379e+000 
3278125000  -4.162865e+001  2.728039e+000 
3281250000  -4.179239e+001  -6.312765e-001 
3284375000  -4.100229e+001  -9.306205e+000 
3287500000  -4.154256e+001  -1.572871e+001 
3290625000  -4.142332e+001  -2.658030e+001 
3293750000  -4.160520e+001  -3.475602e+001 
3296875000  -4.269319e+001  -3.899770e+001 
3300000000  -4.198510e+001  -3.937292e+001 
3303125000  -4.095097e+001  -4.964805e+001 
3306250000  -4.081793e+001  -6.152349e+001 
3309375000  -4.057777e+001  -7.008758e+001 
3312500000  -4.140094e+001  -8.662108e+001 
3315625000  -4.244007e+001  -9.405265e+001 
3318750000  -4.391000e+001  -1.009865e+002 
3321875000  -4.477948e+001  -1.009574e+002 
3325000000  -4.530875e+001  -9.611010e+001 
3328125000  -4.395142e+001  -1.010593e+002 
3331250000  -4.254896e+001  -1.004287e+002 
3334375000  -4.033099e+001  -1.168440e+002 
3337500000  -4.079874e+001  -1.408045e+002 
3340625000  -4.275205e+001  -1.486989e+002 
3343750000  -4.449575e+001  -1.531229e+002 
3346875000  -4.429758e+001  -1.556784e+002 
3350000000  -4.377691e+001  -1.630557e+002 
3353125000  -4.372792e+001  -1.718463e+002 
3356250000  -4.336960e+001  1.791549e+002 
3359375000  -4.422685e+001  1.659398e+002 
3362500000  -4.543193e+001  1.577117e+002 
3365625000  -4.551086e+001  1.528467e+002 
3368750000  -4.638223e+001  1.478802e+002 
3371875000  -4.647219e+001  1.370443e+002 
3375000000  -4.849632e+001  1.345508e+002 
3378125000  -4.928570e+001  1.332539e+002 
3381250000  -5.020312e+001  1.448055e+002 
3384375000  -4.720374e+001  1.496215e+002 
3387500000  -4.462978e+001  1.246359e+002 
3390625000  -4.685125e+001  1.066217e+002 
3393750000  -4.802959e+001  1.051670e+002 
3396875000  -4.636154e+001  9.929664e+001 
3400000000  -4.644065e+001  8.789728e+001 
3403125000  -4.753563e+001  7.719422e+001 
3406250000  -4.765051e+001  6.890039e+001 
3409375000  -4.715632e+001  6.204444e+001 
3412500000  -4.795781e+001  5.298359e+001 
3415625000  -4.872465e+001  5.094218e+001 
3418750000  -4.856171e+001  4.533514e+001 
3421875000  -4.906834e+001  4.307369e+001 
3425000000  -4.805915e+001  3.587965e+001 
3428125000  -4.753522e+001  2.803970e+001 
3431250000  -4.709805e+001  1.647284e+001 
3434375000  -4.697986e+001  2.399928e-001 
3437500000  -4.770962e+001  -5.625020e+000 
3440625000  -4.839402e+001  -9.547717e+000 
3443750000  -4.653903e+001  -1.361426e+001 
3446875000  -4.586161e+001  -2.704779e+001 
3450000000  -4.551999e+001  -4.324154e+001 
3453125000  -4.593109e+001  -6.027359e+001 
3456250000  -4.719469e+001  -7.037090e+001 
3459375000  -4.781129e+001  -7.399833e+001 
3462500000  -4.777681e+001  -7.395140e+001 
3465625000  -4.689044e+001  -8.964930e+001 
3468750000  -4.814596e+001  -9.434705e+001 
3471875000  -4.705573e+001  -1.041399e+002 
3475000000  -4.726561e+001  -1.192878e+002 
3478125000  -4.761948e+001  -1.329649e+002 
3481250000  -4.876779e+001  -1.327442e+002 
3484375000  -4.862489e+001  -1.326409e+002 
3487500000  -4.746196e+001  -1.438885e+002 
3490625000  -4.723151e+001  -1.523656e+002 
3493750000  -4.788855e+001  -1.677521e+002 
3496875000  -4.799002e+001  -1.700264e+002 
3500000000  -4.835244e+001  -1.746393e+002 
3503125000  -4.717988e+001  -1.768344e+002 
3506250000  -4.536460e+001  1.696912e+002 
3509375000  -4.587195e+001  1.515679e+002 
3512500000  -4.623290e+001  1.387897e+002 
3515625000  -4.719409e+001  1.279941e+002 
3518750000  -4.755968e+001  1.322094e+002 
3521875000  -4.847974e+001  1.146778e+002 
3525000000  -4.868895e+001  1.145788e+002 
3528125000  -4.703718e+001  1.154295e+002 
3531250000  -4.636584e+001  1.038120e+002 
3534375000  -4.676859e+001  8.769530e+001 
3537500000  -4.761197e+001  7.982524e+001 
3540625000  -4.961808e+001  7.245770e+001 
3543750000  -4.945858e+001  7.971510e+001 
3546875000  -4.833826e+001  8.327892e+001 
3550000000  -4.646305e+001  7.180154e+001 
3553125000  -4.621201e+001  5.550182e+001 
3556250000  -4.732407e+001  4.787030e+001 
3559375000  -4.672097e+001  4.022672e+001 
3562500000  -4.637288e+001  3.439591e+001 
3565625000  -4.723872e+001  2.364502e+001 
3568750000  -4.821111e+001  2.287384e+001 
3571875000  -4.724614e+001  1.884550e+001 
3575000000  -4.693866e+001  1.221070e+001 
3578125000  -4.800144e+001  7.759694e+000 
3581250000  -4.744934e+001  2.330693e+000 
3584375000  -4.570401e+001  -5.211728e+000 
3587500000  -4.556382e+001  -1.383782e+001 
3590625000  -4.597111e+001  -2.174452e+001 
3593750000  -4.810703e+001  -2.565447e+001 
3596875000  -4.651870e+001  -2.098830e+001 
3600000000  -4.477211e+001  -3.415174e+001 
3603125000  -4.526417e+001  -5.144632e+001 
3606250000  -4.568285e+001  -5.652992e+001 
3609375000  -4.619517e+001  -5.669109e+001 
3612500000  -4.592738e+001  -6.503275e+001 
3615625000  -4.603660e+001  -6.762846e+001 
3618750000  -4.668127e+001  -7.229699e+001 
3621875000  -4.549805e+001  -7.681116e+001 
3625000000  -4.579548e+001  -8.217957e+001 
3628125000  -4.454921e+001  -8.979740e+001 
3631250000  -4.490915e+001  -9.607271e+001 
3634375000  -4.577759e+001  -9.786194e+001 
3637500000  -4.440694e+001  -1.011321e+002 
3640625000  -4.335020e+001  -1.079462e+002 
3643750000  -4.329466e+001  -1.187520e+002 
3646875000  -4.334882e+001  -1.283879e+002 
3650000000  -4.366818e+001  -1.323217e+002 
3653125000  -4.326707e+001  -1.437184e+002 
3656250000  -4.402190e+001  -1.491357e+002 
3659375000  -4.374919e+001  -1.529172e+002 
3662500000  -4.305222e+001  -1.605456e+002 
3665625000  -4.335547e+001  -1.636163e+002 
3668750000  -4.188371e+001  -1.689646e+002 
3671875000  -4.136155e+001  1.772685e+002 
3675000000  -4.219171e+001  1.693736e+002 
3678125000  -4.256125e+001  1.628777e+002 
3681250000  -4.236497e+001  1.553602e+002 
3684375000  -4.244893e+001  1.487910e+002 
3687500000  -4.293095e+001  1.401524e+002 
3690625000  -4.339765e+001  1.324854e+002 
3693750000  -4.439629e+001  1.310312e+002 
3696875000  -4.393460e+001  1.294251e+002 
3700000000  -4.293132e+001  1.224808e+002 
3703125000  -4.346740e+001  1.150015e+002 
3706250000  -4.441909e+001  1.138911e+002 
3709375000  -4.397793e+001  1.115975e+002 
3712500000  -4.274739e+001  1.036880e+002 
3715625000  -4.174444e+001  9.620850e+001 
3718750000  -4.166172e+001  8.541880e+001 
3721875000  -4.182193e+001  7.601125e+001 
3725000000  -4.230000e+001  6.969912e+001 
3728125000  -4.257859e+001  6.550077e+001 
3731250000  -4.183969e+001  5.800639e+001 
3734375000  -4.213761e+001  5.167160e+001 
3737500000  -4.246045e+001  4.406048e+001 
3740625000  -4.302668e+001  3.484735e+001 
3743750000  -4.295209e+001  3.038380e+001 
3746875000  -4.344607e+001  2.562508e+001 
3750000000  -4.355463e+001  1.948974e+001 
3753125000  -4.397082e+001  1.765255e+001 
3756250000  -4.358171e+001  1.526769e+001 
3759375000  -4.351387e+001  6.609629e+000 
3762500000  -4.318563e+001  3.192479e+000 
3765625000  -4.410752e+001  -2.318711e+000 
3768750000  -4.345649e+001  -7.217587e-001 
3771875000  -4.204908e+001  -8.167215e+000 
3775000000  -4.197366e+001  -1.982703e+001 
3778125000  -4.266348e+001  -2.720390e+001 
3781250000  -4.275810e+001  -3.001078e+001 
3784375000  -4.228131e+001  -3.670615e+001 
3787500000  -4.233288e+001  -3.902978e+001 
3790625000  -4.307970e+001  -5.185793e+001 
3793750000  -4.315694e+001  -5.452886e+001 
3796875000  -4.177318e+001  -5.847937e+001 
3800000000  -4.073037e+001  -6.948540e+001 
3803125000  -4.125782e+001  -7.977796e+001 
3806250000  -4.244709e+001  -8.439832e+001 
3809375000  -4.184481e+001  -8.839462e+001 
3812500000  -4.188137e+001  -1.002504e+002 
3815625000  -4.308872e+001  -1.085692e+002 
3818750000  -4.427385e+001  -1.076118e+002 
3821875000  -4.379880e+001  -9.869712e+001 
3825000000  -4.140574e+001  -1.043857e+002 
3828125000  -4.043774e+001  -1.245298e+002 
3831250000  -4.140714e+001  -1.409817e+002 
3834375000  -4.344524e+001  -1.417230e+002 
3837500000  -4.408187e+001  -1.377106e+002 
3840625000  -4.258605e+001  -1.470538e+002 
3843750000  -4.174874e+001  -1.589726e+002 
3846875000  -4.331259e+001  -1.678613e+002 
3850000000  -4.412722e+001  -1.611013e+002 
3853125000  -4.357568e+001  -1.622448e+002 
3856250000  -4.293608e+001  -1.695347e+002 
3859375000  -4.178050e+001  1.791497e+002 
3862500000  -4.192757e+001  1.717022e+002 
3865625000  -4.272198e+001  1.633234e+002 
3868750000  -4.229993e+001  1.628021e+002 
3871875000  -4.174675e+001  1.532233e+002 
3875000000  -4.239143e+001  1.428840e+002 
3878125000  -4.336950e+001  1.390234e+002 
3881250000  -4.304298e+001  1.370834e+002 
3884375000  -4.269559e+001  1.252902e+002 
3887500000  -4.326231e+001  1.220454e+002 
3890625000  -4.342289e+001  1.188951e+002 
3893750000  -4.423569e+001  1.138187e+002 
3896875000  -4.392698e+001  1.132474e+002 
3900000000  -4.466780e+001  1.052524e+002 
3903125000  -4.334258e+001  1.041491e+002 
3906250000  -4.343604e+001  9.513004e+001 
3909375000  -4.260202e+001  8.892719e+001 
3912500000  -4.355482e+001  7.917992e+001 
3915625000  -4.480784e+001  7.853759e+001 
3918750000  -4.420598e+001  7.774145e+001 
3921875000  -4.366576e+001  7.349248e+001 
3925000000  -4.307063e+001  6.447612e+001 
3928125000  -4.303536e+001  5.757632e+001 
3931250000  -4.384967e+001  4.810406e+001 
3934375000  -4.382635e+001  4.650178e+001 
3937500000  -4.430528e+001  4.303868e+001 
3940625000  -4.479145e+001  4.307507e+001 
3943750000  -4.346538e+001  3.746902e+001 
3946875000  -4.259555e+001  3.237978e+001 
3950000000  -4.374287e+001  2.168716e+001 
3953125000  -4.410615e+001  1.987155e+001 
3956250000  -4.290521e+001  1.927107e+001 
3959375000  -4.202731e+001  1.291321e+001 
3962500000  -4.130560e+001  4.103133e+000 
3965625000  -4.161263e+001  -9.218020e+000 
3968750000  -4.240706e+001  -1.624186e+001 
3971875000  -4.252604e+001  -2.011027e+001 
3975000000  -4.199118e+001  -2.673468e+001 
3978125000  -4.203074e+001  -3.071038e+001 
3981250000  -4.166011e+001  -3.942683e+001 
3984375000  -4.216278e+001  -5.060335e+001 
3987500000  -4.274360e+001  -5.170018e+001 
3990625000  -4.301521e+001  -5.697495e+001 
3993750000  -4.303521e+001  -6.298788e+001 
3996875000  -4.312447e+001  -6.998352e+001 
4000000000  -4.351037e+001  -7.224512e+001 
4003125000  -4.334141e+001  -7.429317e+001 
4006250000  -4.161172e+001  -7.781013e+001 
4009375000  -4.112910e+001  -9.399648e+001 
4012500000  -4.269070e+001  -1.017655e+002 
4015625000  -4.408016e+001  -1.036882e+002 
4018750000  -4.387557e+001  -1.068118e+002 
4021875000  -4.329313e+001  -1.165409e+002 
4025000000  -4.321432e+001  -1.200855e+002 
4028125000  -4.325179e+001  -1.292146e+002 
4031250000  -4.418344e+001  -1.345575e+002 
4034375000  -4.394131e+001  -1.388693e+002 
4037500000  -4.421090e+001  -1.420260e+002 
4040625000  -4.410143e+001  -1.480375e+002 
4043750000  -4.452116e+001  -1.522359e+002 
4046875000  -4.439438e+001  -1.571406e+002 
4050000000  -4.409786e+001  -1.645420e+002 
4053125000  -4.485543e+001  -1.662183e+002 
4056250000  -4.539920e+001  -1.629172e+002 
4059375000  -4.385191e+001  -1.649468e+002 
4062500000  -4.343045e+001  -1.740027e+002 
4065625000  -4.325537e+001  -1.787172e+002 
4068750000  -4.305117e+001  1.723022e+002 
4071875000  -4.229788e+001  1.606610e+002 
4075000000  -4.355225e+001  1.530353e+002 
4078125000  -4.397029e+001  1.488830e+002 
4081250000  -4.344833e+001  1.472049e+002 
4084375000  -4.314782e+001  1.372736e+002 
4087500000  -4.371938e+001  1.284300e+002 
4090625000  -4.461308e+001  1.269484e+002 
4093750000  -4.478847e+001  1.228783e+002 
4096875000  -4.433887e+001  1.176384e+002 
4100000000  -4.525201e+001  1.088103e+002 
4103125000  -4.583400e+001  1.132724e+002 
4106250000  -4.489925e+001  1.164232e+002 
4109375000  -4.420473e+001  1.112272e+002 
4112500000  -4.414364e+001  1.023507e+002 
4115625000  -4.401458e+001  9.423071e+001 
4118750000  -4.361942e+001  8.841360e+001 
4121875000  -4.343502e+001  8.434251e+001 
4125000000  -4.488315e+001  7.656711e+001 
4128125000  -4.514817e+001  7.844812e+001 
4131250000  -4.361057e+001  8.209022e+001 
4134375000  -4.139309e+001  7.174231e+001 
4137500000  -4.229255e+001  4.823461e+001 
4140625000  -4.420301e+001  4.143890e+001 
4143750000  -4.515930e+001  4.817658e+001 
4146875000  -4.393427e+001  5.107212e+001 
4150000000  -4.286314e+001  3.685869e+001 
4153125000  -4.290620e+001  3.077412e+001 
4156250000  -4.413742e+001  2.501053e+001 
4159375000  -4.372524e+001  2.832819e+001 
4162500000  -4.236760e+001  2.684376e+001 
4165625000  -4.157248e+001  1.706779e+001 
4168750000  -4.122441e+001  5.732531e+000 
4171875000  -4.119337e+001  -6.025209e+000 
4175000000  -4.166499e+001  -1.246384e+001 
4178125000  -4.201618e+001  -1.867315e+001 
4181250000  -4.192955e+001  -2.344478e+001 
4184375000  -4.238785e+001  -2.945059e+001 
4187500000  -4.183384e+001  -3.780804e+001 
4190625000  -4.276849e+001  -4.597652e+001 
4193750000  -4.382259e+001  -5.235540e+001 
4196875000  -4.441659e+001  -5.683576e+001 
4200000000  -4.575549e+001  -4.650794e+001 
4203125000  -4.430281e+001  -4.131540e+001 
4206250000  -4.138946e+001  -5.035190e+001 
4209375000  -4.136684e+001  -7.388999e+001 
4212500000  -4.383417e+001  -7.867487e+001 
4215625000  -4.411872e+001  -7.173846e+001 
4218750000  -4.249970e+001  -7.247073e+001 
4221875000  -4.110483e+001  -8.524902e+001 
4225000000  -4.180126e+001  -9.582434e+001 
4228125000  -4.221626e+001  -9.462423e+001 
4231250000  -4.098954e+001  -1.038290e+002 
4234375000  -4.082454e+001  -1.155928e+002 
4237500000  -4.085976e+001  -1.216467e+002 
4240625000  -4.099821e+001  -1.284780e+002 
4243750000  -4.214157e+001  -1.363443e+002 
4246875000  -4.330577e+001  -1.387422e+002 
4250000000  -4.278744e+001  -1.392801e+002 
4253125000  -4.255431e+001  -1.423147e+002 
4256250000  -4.233833e+001  -1.496953e+002 
4259375000  -4.219362e+001  -1.551777e+002 
4262500000  -4.218335e+001  -1.602816e+002 
4265625000  -4.239672e+001  -1.619825e+002 
4268750000  -4.101819e+001  -1.694477e+002 
4271875000  -4.073006e+001  -1.786967e+002 
4275000000  -4.023151e+001  1.701384e+002 
4278125000  -4.133022e+001  1.587746e+002 
4281250000  -4.239901e+001  1.555425e+002 
4284375000  -4.235206e+001  1.519532e+002 
4287500000  -4.357398e+001  1.465110e+002 
4290625000  -4.441864e+001  1.555762e+002 
4293750000  -4.136332e+001  1.536028e+002 
4296875000  -4.017085e+001  1.390950e+002 
4300000000  -4.161390e+001  1.314544e+002 
4303125000  -4.201325e+001  1.308854e+002 
4306250000  -4.054877e+001  1.309572e+002 
4309375000  -3.966841e+001  1.213764e+002 
4312500000  -3.964546e+001  1.074128e+002 
4315625000  -4.026326e+001  9.779828e+001 
4318750000  -4.071765e+001  9.503686e+001 
4321875000  -4.091602e+001  9.242888e+001 
4325000000  -3.997317e+001  8.780398e+001 
4328125000  -3.922551e+001  7.513491e+001 
4331250000  -3.976997e+001  6.272932e+001 
4334375000  -4.079624e+001  5.304800e+001 
4337500000  -4.189114e+001  5.434262e+001 
4340625000  -4.222898e+001  5.542361e+001 
4343750000  -4.092642e+001  4.944561e+001 
4346875000  -4.113388e+001  4.194852e+001 
4350000000  -4.099749e+001  3.394079e+001 
4353125000  -4.159182e+001  2.202118e+001 
4356250000  -4.380735e+001  2.571562e+001 
4359375000  -4.278828e+001  3.889178e+001 
4362500000  -3.915755e+001  2.696613e+001 
4365625000  -3.918161e+001  1.211859e+001 
4368750000  -4.069161e+001  1.200011e+000 
4371875000  -4.099759e+001  -8.302823e-001 
4375000000  -4.025336e+001  -7.280545e+000 
4378125000  -4.039536e+001  -1.272278e+001 
4381250000  -4.070845e+001  -2.171116e+001 
4384375000  -4.075800e+001  -3.030817e+001 
4387500000  -4.147744e+001  -3.856990e+001 
4390625000  -4.188834e+001  -4.125736e+001 
4393750000  -4.170585e+001  -3.962464e+001 
4396875000  -4.124141e+001  -4.705121e+001 
4400000000  -4.071378e+001  -5.637262e+001 
4403125000  -4.154736e+001  -6.393876e+001 
4406250000  -4.187573e+001  -7.076410e+001 
4409375000  -4.268853e+001  -7.416521e+001 
4412500000  -4.355466e+001  -7.637991e+001 
4415625000  -4.273420e+001  -7.529729e+001 
4418750000  -4.187524e+001  -7.587912e+001 
