!Agilent Technologies,E8363B,MY43030201,A.06.04.32
!Agilent E8363B: A.06.04.32
!Date: Tuesday, November 11, 2014 21:48:31
!Correction: S21(Response(S21)) 
!S1P File: Measurement: S21:
# Hz S  dB   R 50
3000000000  -4.363578e+001  -1.611136e+002 
3003125000  -4.536439e+001  -1.661192e+002 
3006250000  -4.511934e+001  -1.671986e+002 
3009375000  -4.617778e+001  -1.644869e+002 
3012500000  -4.502113e+001  -1.720316e+002 
3015625000  -4.505630e+001  -1.781591e+002 
3018750000  -4.547853e+001  -1.784921e+002 
3021875000  -4.375649e+001  -1.785873e+002 
3025000000  -4.277037e+001  1.772935e+002 
3028125000  -4.158472e+001  1.642450e+002 
3031250000  -4.102055e+001  1.516446e+002 
3034375000  -4.082137e+001  1.376333e+002 
3037500000  -4.159657e+001  1.263964e+002 
3040625000  -4.292830e+001  1.205600e+002 
3043750000  -4.331184e+001  1.132990e+002 
3046875000  -4.413435e+001  1.076494e+002 
3050000000  -4.539634e+001  1.009699e+002 
3053125000  -4.488200e+001  1.059987e+002 
3056250000  -4.473921e+001  1.099003e+002 
3059375000  -4.398441e+001  1.064098e+002 
3062500000  -4.239780e+001  1.006288e+002 
3065625000  -4.199522e+001  8.816125e+001 
3068750000  -4.149468e+001  8.025358e+001 
3071875000  -4.175544e+001  7.736740e+001 
3075000000  -4.125104e+001  7.183887e+001 
3078125000  -4.135236e+001  6.305017e+001 
3081250000  -4.126219e+001  5.623940e+001 
3084375000  -4.056976e+001  5.060019e+001 
3087500000  -4.062714e+001  4.337252e+001 
3090625000  -3.992299e+001  3.082005e+001 
3093750000  -4.103066e+001  2.165779e+001 
3096875000  -4.135795e+001  1.591767e+001 
3100000000  -4.118655e+001  1.185256e+001 
3103125000  -4.135176e+001  8.014783e+000 
3106250000  -4.107077e+001  1.948803e+000 
3109375000  -4.090550e+001  -3.836860e+000 
3112500000  -4.077509e+001  -1.070871e+001 
3115625000  -4.084544e+001  -1.484973e+001 
3118750000  -4.080673e+001  -2.139123e+001 
3121875000  -4.008759e+001  -3.268771e+001 
3125000000  -4.223343e+001  -3.827840e+001 
3128125000  -4.206792e+001  -3.115203e+001 
3131250000  -3.946174e+001  -4.008677e+001 
3134375000  -3.900665e+001  -5.641307e+001 
3137500000  -3.971208e+001  -7.015788e+001 
3140625000  -4.091231e+001  -7.353276e+001 
3143750000  -4.162423e+001  -7.892656e+001 
3146875000  -4.101026e+001  -7.572365e+001 
3150000000  -4.047559e+001  -8.326411e+001 
3153125000  -4.083819e+001  -9.250890e+001 
3156250000  -4.166802e+001  -8.750881e+001 
3159375000  -3.912457e+001  -9.121346e+001 
3162500000  -3.775473e+001  -1.089666e+002 
3165625000  -3.896865e+001  -1.227300e+002 
3168750000  -3.904375e+001  -1.242210e+002 
3171875000  -3.855885e+001  -1.328499e+002 
3175000000  -3.937635e+001  -1.427519e+002 
3178125000  -3.868720e+001  -1.452265e+002 
3181250000  -3.803885e+001  -1.546755e+002 
3184375000  -3.785736e+001  -1.666837e+002 
3187500000  -3.912602e+001  1.783540e+002 
3190625000  -4.108471e+001  1.695379e+002 
3193750000  -4.115343e+001  1.737856e+002 
3196875000  -4.096249e+001  1.738912e+002 
3200000000  -3.972679e+001  1.695975e+002 
3203125000  -3.944845e+001  1.602074e+002 
3206250000  -3.966498e+001  1.522552e+002 
3209375000  -3.938342e+001  1.425896e+002 
3212500000  -4.002618e+001  1.373801e+002 
3215625000  -3.964426e+001  1.332071e+002 
3218750000  -4.027790e+001  1.215872e+002 
3221875000  -4.054391e+001  1.133267e+002 
3225000000  -4.037771e+001  1.080371e+002 
3228125000  -4.099624e+001  1.019022e+002 
3231250000  -4.140547e+001  9.667237e+001 
3234375000  -4.115238e+001  9.494077e+001 
3237500000  -4.100954e+001  9.065316e+001 
3240625000  -4.036043e+001  8.260929e+001 
3243750000  -4.030104e+001  7.141211e+001 
3246875000  -4.067947e+001  6.343271e+001 
3250000000  -4.132471e+001  5.850740e+001 
3253125000  -4.126596e+001  5.428577e+001 
3256250000  -4.054022e+001  4.438358e+001 
3259375000  -4.074618e+001  3.047665e+001 
3262500000  -4.235028e+001  2.649850e+001 
3265625000  -4.273203e+001  2.810556e+001 
3268750000  -4.239583e+001  2.769508e+001 
3271875000  -4.151078e+001  2.103063e+001 
3275000000  -4.103323e+001  9.757658e+000 
3278125000  -4.157806e+001  4.182832e+000 
3281250000  -4.184400e+001  1.069639e+000 
3284375000  -4.094417e+001  -9.665624e+000 
3287500000  -4.157298e+001  -1.387771e+001 
3290625000  -4.163025e+001  -2.703058e+001 
3293750000  -4.160622e+001  -3.464027e+001 
3296875000  -4.260588e+001  -3.658864e+001 
3300000000  -4.194901e+001  -4.020546e+001 
3303125000  -4.106101e+001  -4.988253e+001 
3306250000  -4.082864e+001  -5.944817e+001 
3309375000  -4.049490e+001  -7.020470e+001 
3312500000  -4.094618e+001  -8.561308e+001 
3315625000  -4.235389e+001  -9.489237e+001 
3318750000  -4.391579e+001  -1.006069e+002 
3321875000  -4.534020e+001  -1.005599e+002 
3325000000  -4.530098e+001  -9.348531e+001 
3328125000  -4.406872e+001  -9.858424e+001 
3331250000  -4.233514e+001  -9.861298e+001 
3334375000  -4.015040e+001  -1.178166e+002 
3337500000  -4.094282e+001  -1.404324e+002 
3340625000  -4.277505e+001  -1.502878e+002 
3343750000  -4.454091e+001  -1.542476e+002 
3346875000  -4.402557e+001  -1.555851e+002 
3350000000  -4.373193e+001  -1.638063e+002 
3353125000  -4.351473e+001  -1.724616e+002 
3356250000  -4.341759e+001  1.788105e+002 
3359375000  -4.438288e+001  1.667036e+002 
3362500000  -4.518219e+001  1.593466e+002 
3365625000  -4.575964e+001  1.530796e+002 
3368750000  -4.633081e+001  1.451952e+002 
3371875000  -4.671792e+001  1.379782e+002 
3375000000  -4.873862e+001  1.345520e+002 
3378125000  -4.883381e+001  1.328318e+002 
3381250000  -5.064277e+001  1.388651e+002 
3384375000  -4.693954e+001  1.538760e+002 
3387500000  -4.476795e+001  1.301560e+002 
3390625000  -4.684219e+001  1.078999e+002 
3393750000  -4.773895e+001  1.037192e+002 
3396875000  -4.652351e+001  1.003619e+002 
3400000000  -4.673986e+001  8.700548e+001 
3403125000  -4.702713e+001  7.657154e+001 
3406250000  -4.766402e+001  6.958807e+001 
3409375000  -4.738083e+001  5.997237e+001 
3412500000  -4.765380e+001  5.448772e+001 
3415625000  -4.858874e+001  5.062819e+001 
3418750000  -4.817256e+001  4.356972e+001 
3421875000  -4.893282e+001  4.274767e+001 
3425000000  -4.746111e+001  3.352831e+001 
3428125000  -4.707961e+001  3.113445e+001 
3431250000  -4.723160e+001  1.392991e+001 
3434375000  -4.741541e+001  2.220787e+000 
3437500000  -4.753007e+001  -8.837700e+000 
3440625000  -4.774591e+001  -9.625228e+000 
3443750000  -4.670474e+001  -1.384735e+001 
3446875000  -4.579095e+001  -2.786636e+001 
3450000000  -4.495411e+001  -4.229471e+001 
3453125000  -4.560835e+001  -6.116388e+001 
3456250000  -4.764427e+001  -7.050146e+001 
3459375000  -4.818856e+001  -7.394189e+001 
3462500000  -4.782135e+001  -7.515887e+001 
3465625000  -4.727143e+001  -8.842896e+001 
3468750000  -4.720775e+001  -9.620352e+001 
3471875000  -4.682125e+001  -1.040744e+002 
3475000000  -4.698751e+001  -1.153299e+002 
3478125000  -4.770689e+001  -1.290000e+002 
3481250000  -4.866218e+001  -1.311011e+002 
3484375000  -4.870159e+001  -1.325962e+002 
3487500000  -4.755639e+001  -1.400255e+002 
3490625000  -4.710069e+001  -1.534532e+002 
3493750000  -4.808826e+001  -1.651787e+002 
3496875000  -4.829199e+001  -1.663665e+002 
3500000000  -4.824768e+001  -1.734731e+002 
3503125000  -4.711713e+001  -1.758319e+002 
3506250000  -4.556636e+001  1.718917e+002 
3509375000  -4.544790e+001  1.527877e+002 
3512500000  -4.626393e+001  1.362640e+002 
3515625000  -4.745184e+001  1.330513e+002 
3518750000  -4.812274e+001  1.303811e+002 
3521875000  -4.820936e+001  1.201189e+002 
3525000000  -4.847700e+001  1.151058e+002 
3528125000  -4.748894e+001  1.222196e+002 
3531250000  -4.654100e+001  1.018854e+002 
3534375000  -4.745363e+001  8.633246e+001 
3537500000  -4.775406e+001  7.857154e+001 
3540625000  -4.849707e+001  7.225808e+001 
3543750000  -4.902346e+001  7.892226e+001 
3546875000  -4.825000e+001  8.573563e+001 
3550000000  -4.651347e+001  7.108467e+001 
3553125000  -4.596409e+001  5.183586e+001 
3556250000  -4.739250e+001  4.727684e+001 
3559375000  -4.681083e+001  4.065201e+001 
3562500000  -4.611271e+001  3.033005e+001 
3565625000  -4.702180e+001  2.424239e+001 
3568750000  -4.846632e+001  1.954173e+001 
3571875000  -4.715028e+001  1.619277e+001 
3575000000  -4.701527e+001  1.312382e+001 
3578125000  -4.754241e+001  8.996991e+000 
3581250000  -4.767347e+001  2.715016e+000 
3584375000  -4.588099e+001  -4.276832e+000 
3587500000  -4.563576e+001  -1.427212e+001 
3590625000  -4.658623e+001  -2.765289e+001 
3593750000  -4.772689e+001  -2.704894e+001 
3596875000  -4.666489e+001  -2.125644e+001 
3600000000  -4.469522e+001  -3.398089e+001 
3603125000  -4.516321e+001  -4.868822e+001 
3606250000  -4.560703e+001  -5.453184e+001 
3609375000  -4.627700e+001  -5.762038e+001 
3612500000  -4.578896e+001  -6.288962e+001 
3615625000  -4.594854e+001  -6.856699e+001 
3618750000  -4.640306e+001  -7.334682e+001 
3621875000  -4.512961e+001  -7.802784e+001 
3625000000  -4.553719e+001  -8.415801e+001 
3628125000  -4.505106e+001  -8.964958e+001 
3631250000  -4.527119e+001  -9.698379e+001 
3634375000  -4.559651e+001  -9.968382e+001 
3637500000  -4.424069e+001  -1.022126e+002 
3640625000  -4.337832e+001  -1.073834e+002 
3643750000  -4.332531e+001  -1.179922e+002 
3646875000  -4.406635e+001  -1.308204e+002 
3650000000  -4.382637e+001  -1.354119e+002 
3653125000  -4.307458e+001  -1.433808e+002 
3656250000  -4.404660e+001  -1.484469e+002 
3659375000  -4.367694e+001  -1.534477e+002 
3662500000  -4.325211e+001  -1.611308e+002 
3665625000  -4.374249e+001  -1.635589e+002 
3668750000  -4.180323e+001  -1.693601e+002 
3671875000  -4.145647e+001  1.780676e+002 
3675000000  -4.225998e+001  1.682410e+002 
3678125000  -4.242688e+001  1.618520e+002 
3681250000  -4.271404e+001  1.550068e+002 
3684375000  -4.256300e+001  1.472815e+002 
3687500000  -4.312407e+001  1.394854e+002 
3690625000  -4.352526e+001  1.327583e+002 
3693750000  -4.418511e+001  1.335323e+002 
3696875000  -4.386422e+001  1.292225e+002 
3700000000  -4.276494e+001  1.209059e+002 
3703125000  -4.332613e+001  1.128463e+002 
3706250000  -4.439774e+001  1.106510e+002 
3709375000  -4.382104e+001  1.102152e+002 
3712500000  -4.298193e+001  1.053906e+002 
3715625000  -4.153633e+001  9.512438e+001 
3718750000  -4.158523e+001  8.527917e+001 
3721875000  -4.167487e+001  7.845043e+001 
3725000000  -4.268044e+001  6.691331e+001 
3728125000  -4.263514e+001  6.648099e+001 
3731250000  -4.200926e+001  6.022641e+001 
3734375000  -4.184708e+001  5.064267e+001 
3737500000  -4.261799e+001  4.390596e+001 
3740625000  -4.307511e+001  3.754834e+001 
3743750000  -4.264188e+001  3.005233e+001 
3746875000  -4.330119e+001  2.506989e+001 
3750000000  -4.353194e+001  1.944336e+001 
3753125000  -4.391413e+001  1.814521e+001 
3756250000  -4.374446e+001  1.138780e+001 
3759375000  -4.345358e+001  6.985373e+000 
3762500000  -4.338390e+001  2.128072e+000 
3765625000  -4.403688e+001  -3.388916e+000 
3768750000  -4.327197e+001  -2.383988e+000 
3771875000  -4.200623e+001  -9.495221e+000 
3775000000  -4.210196e+001  -1.934755e+001 
3778125000  -4.274792e+001  -2.418547e+001 
3781250000  -4.247803e+001  -3.213654e+001 
3784375000  -4.239168e+001  -3.684813e+001 
3787500000  -4.246472e+001  -3.975209e+001 
3790625000  -4.286073e+001  -5.158460e+001 
3793750000  -4.243153e+001  -5.707073e+001 
3796875000  -4.181779e+001  -5.989725e+001 
3800000000  -4.067722e+001  -6.768828e+001 
3803125000  -4.162091e+001  -7.771259e+001 
3806250000  -4.222459e+001  -8.338176e+001 
3809375000  -4.199275e+001  -8.928489e+001 
3812500000  -4.177105e+001  -1.018532e+002 
3815625000  -4.303435e+001  -1.100886e+002 
3818750000  -4.465798e+001  -1.074921e+002 
3821875000  -4.399158e+001  -9.897129e+001 
3825000000  -4.129787e+001  -1.032482e+002 
3828125000  -4.069569e+001  -1.252695e+002 
3831250000  -4.123602e+001  -1.403497e+002 
3834375000  -4.383803e+001  -1.409679e+002 
3837500000  -4.371892e+001  -1.390335e+002 
3840625000  -4.226714e+001  -1.465855e+002 
3843750000  -4.142960e+001  -1.605813e+002 
3846875000  -4.362966e+001  -1.674827e+002 
3850000000  -4.399457e+001  -1.605694e+002 
3853125000  -4.346493e+001  -1.627914e+002 
3856250000  -4.288355e+001  -1.697861e+002 
3859375000  -4.233933e+001  1.794622e+002 
3862500000  -4.193814e+001  1.699907e+002 
3865625000  -4.276369e+001  1.626805e+002 
3868750000  -4.219647e+001  1.608150e+002 
3871875000  -4.192468e+001  1.539793e+002 
3875000000  -4.248789e+001  1.422427e+002 
3878125000  -4.335007e+001  1.378259e+002 
3881250000  -4.326642e+001  1.397340e+002 
3884375000  -4.253955e+001  1.271403e+002 
3887500000  -4.301220e+001  1.218493e+002 
3890625000  -4.371157e+001  1.170039e+002 
3893750000  -4.432915e+001  1.149998e+002 
3896875000  -4.417821e+001  1.132078e+002 
3900000000  -4.428045e+001  1.080019e+002 
3903125000  -4.388199e+001  1.044501e+002 
3906250000  -4.328721e+001  9.882941e+001 
3909375000  -4.259724e+001  8.809792e+001 
3912500000  -4.367705e+001  7.844031e+001 
3915625000  -4.457499e+001  7.824208e+001 
3918750000  -4.461261e+001  7.878743e+001 
3921875000  -4.387420e+001  7.346561e+001 
3925000000  -4.349848e+001  6.457860e+001 
3928125000  -4.254950e+001  5.834097e+001 
3931250000  -4.363858e+001  4.833513e+001 
3934375000  -4.408634e+001  4.853172e+001 
3937500000  -4.424742e+001  4.445768e+001 
3940625000  -4.480279e+001  4.262467e+001 
3943750000  -4.346957e+001  3.648433e+001 
3946875000  -4.290709e+001  2.940698e+001 
3950000000  -4.373660e+001  1.783810e+001 
3953125000  -4.435900e+001  2.327336e+001 
3956250000  -4.266023e+001  2.095699e+001 
3959375000  -4.222551e+001  1.380761e+001 
3962500000  -4.140622e+001  1.810435e+000 
3965625000  -4.173442e+001  -8.415023e+000 
3968750000  -4.251010e+001  -1.790650e+001 
3971875000  -4.237859e+001  -2.130899e+001 
3975000000  -4.208255e+001  -2.579308e+001 
3978125000  -4.217978e+001  -3.277417e+001 
3981250000  -4.193794e+001  -4.219810e+001 
3984375000  -4.248120e+001  -4.875183e+001 
3987500000  -4.298935e+001  -5.213977e+001 
3990625000  -4.295570e+001  -5.618664e+001 
3993750000  -4.284646e+001  -6.145927e+001 
3996875000  -4.308804e+001  -6.871365e+001 
4000000000  -4.379199e+001  -7.403664e+001 
4003125000  -4.378996e+001  -7.273423e+001 
4006250000  -4.196816e+001  -7.849092e+001 
4009375000  -4.108453e+001  -9.479311e+001 
4012500000  -4.283208e+001  -1.002424e+002 
4015625000  -4.390733e+001  -1.049016e+002 
4018750000  -4.364666e+001  -1.083527e+002 
4021875000  -4.314605e+001  -1.150152e+002 
4025000000  -4.281794e+001  -1.189321e+002 
4028125000  -4.340892e+001  -1.305894e+002 
4031250000  -4.419036e+001  -1.342581e+002 
4034375000  -4.421417e+001  -1.365249e+002 
4037500000  -4.384753e+001  -1.423901e+002 
4040625000  -4.394003e+001  -1.464308e+002 
4043750000  -4.437262e+001  -1.519915e+002 
4046875000  -4.453114e+001  -1.576308e+002 
4050000000  -4.421217e+001  -1.617404e+002 
4053125000  -4.525204e+001  -1.670878e+002 
4056250000  -4.587154e+001  -1.645715e+002 
4059375000  -4.393836e+001  -1.676035e+002 
4062500000  -4.370971e+001  -1.717993e+002 
4065625000  -4.346499e+001  -1.795066e+002 
4068750000  -4.329834e+001  1.701819e+002 
4071875000  -4.262162e+001  1.611517e+002 
4075000000  -4.341512e+001  1.520867e+002 
4078125000  -4.404169e+001  1.511899e+002 
4081250000  -4.356383e+001  1.454858e+002 
4084375000  -4.318997e+001  1.376234e+002 
4087500000  -4.378468e+001  1.294903e+002 
4090625000  -4.494217e+001  1.272833e+002 
4093750000  -4.482586e+001  1.217230e+002 
4096875000  -4.414361e+001  1.172075e+002 
4100000000  -4.575979e+001  1.118390e+002 
4103125000  -4.600120e+001  1.155089e+002 
4106250000  -4.526837e+001  1.137192e+002 
4109375000  -4.390864e+001  1.111283e+002 
4112500000  -4.400688e+001  9.893942e+001 
4115625000  -4.411034e+001  9.285888e+001 
4118750000  -4.404636e+001  8.951995e+001 
4121875000  -4.352563e+001  8.257088e+001 
4125000000  -4.453720e+001  7.431159e+001 
4128125000  -4.479605e+001  7.808019e+001 
4131250000  -4.401588e+001  8.297273e+001 
4134375000  -4.119194e+001  6.975964e+001 
4137500000  -4.195774e+001  4.934058e+001 
4140625000  -4.398175e+001  4.449113e+001 
4143750000  -4.513269e+001  4.555394e+001 
4146875000  -4.371662e+001  5.163849e+001 
4150000000  -4.294377e+001  3.874723e+001 
4153125000  -4.288086e+001  2.857633e+001 
4156250000  -4.420975e+001  2.535258e+001 
4159375000  -4.338120e+001  2.727992e+001 
4162500000  -4.240759e+001  2.701455e+001 
4165625000  -4.146715e+001  1.475940e+001 
4168750000  -4.106326e+001  6.659274e+000 
4171875000  -4.121669e+001  -6.539685e+000 
4175000000  -4.171900e+001  -1.313895e+001 
4178125000  -4.241271e+001  -1.774373e+001 
4181250000  -4.216593e+001  -2.641779e+001 
4184375000  -4.249606e+001  -3.048754e+001 
4187500000  -4.228965e+001  -3.732414e+001 
4190625000  -4.272592e+001  -4.512454e+001 
4193750000  -4.369931e+001  -5.102672e+001 
4196875000  -4.529241e+001  -5.025264e+001 
4200000000  -4.617974e+001  -5.040372e+001 
4203125000  -4.405708e+001  -3.912536e+001 
4206250000  -4.099311e+001  -4.786281e+001 
4209375000  -4.130319e+001  -7.522404e+001 
4212500000  -4.370863e+001  -8.002621e+001 
4215625000  -4.404793e+001  -7.054669e+001 
4218750000  -4.212108e+001  -7.404948e+001 
4221875000  -4.091782e+001  -8.199593e+001 
4225000000  -4.222502e+001  -9.599334e+001 
4228125000  -4.255816e+001  -9.341040e+001 
4231250000  -4.109432e+001  -1.061977e+002 
4234375000  -4.106329e+001  -1.128005e+002 
4237500000  -4.063481e+001  -1.197267e+002 
4240625000  -4.100290e+001  -1.320528e+002 
4243750000  -4.245598e+001  -1.394853e+002 
4246875000  -4.299618e+001  -1.402328e+002 
4250000000  -4.237966e+001  -1.389531e+002 
4253125000  -4.244835e+001  -1.441350e+002 
4256250000  -4.229617e+001  -1.494258e+002 
4259375000  -4.215205e+001  -1.541849e+002 
4262500000  -4.255724e+001  -1.590480e+002 
4265625000  -4.188427e+001  -1.617410e+002 
4268750000  -4.093102e+001  -1.702258e+002 
4271875000  -4.058682e+001  1.791970e+002 
4275000000  -4.063721e+001  1.717791e+002 
4278125000  -4.156376e+001  1.581786e+002 
4281250000  -4.262611e+001  1.589712e+002 
4284375000  -4.226737e+001  1.523570e+002 
4287500000  -4.318534e+001  1.494844e+002 
4290625000  -4.348346e+001  1.562099e+002 
4293750000  -4.133960e+001  1.527495e+002 
4296875000  -4.045934e+001  1.393085e+002 
4300000000  -4.169974e+001  1.261490e+002 
4303125000  -4.191195e+001  1.324718e+002 
4306250000  -4.071532e+001  1.286179e+002 
4309375000  -3.978719e+001  1.192434e+002 
4312500000  -3.948349e+001  1.080861e+002 
4315625000  -4.021927e+001  9.779277e+001 
4318750000  -4.069006e+001  9.413829e+001 
4321875000  -4.060063e+001  8.979117e+001 
4325000000  -4.006435e+001  8.522855e+001 
4328125000  -3.966656e+001  7.566682e+001 
4331250000  -3.996038e+001  6.335608e+001 
4334375000  -4.064960e+001  5.499300e+001 
4337500000  -4.177897e+001  5.513627e+001 
4340625000  -4.232831e+001  5.543886e+001 
4343750000  -4.117033e+001  4.898844e+001 
4346875000  -4.123082e+001  4.258050e+001 
4350000000  -4.086369e+001  3.148962e+001 
4353125000  -4.164184e+001  2.185887e+001 
4356250000  -4.397291e+001  2.646034e+001 
4359375000  -4.287782e+001  4.201310e+001 
4362500000  -3.918241e+001  3.161125e+001 
4365625000  -3.867333e+001  1.268804e+001 
4368750000  -4.044176e+001  1.649231e+000 
4371875000  -4.086732e+001  -2.598269e+000 
4375000000  -4.031752e+001  -7.351458e+000 
4378125000  -4.066930e+001  -1.581947e+001 
4381250000  -4.071030e+001  -2.464939e+001 
4384375000  -4.071996e+001  -3.173214e+001 
4387500000  -4.163049e+001  -3.704268e+001 
4390625000  -4.222285e+001  -3.968938e+001 
4393750000  -4.163080e+001  -4.046856e+001 
4396875000  -4.121565e+001  -4.654136e+001 
4400000000  -4.056410e+001  -5.588046e+001 
4403125000  -4.119173e+001  -6.495687e+001 
4406250000  -4.229411e+001  -6.894852e+001 
4409375000  -4.236639e+001  -7.392942e+001 
4412500000  -4.366454e+001  -7.764807e+001 
4415625000  -4.322358e+001  -7.466687e+001 
4418750000  -4.183050e+001  -7.720569e+001 
