!Agilent Technologies,E8363B,MY43030201,A.06.04.32
!Agilent E8363B: A.06.04.32
!Date: Tuesday, November 11, 2014 21:45:38
!Correction: S21(Response(S21)) 
!S1P File: Measurement: S21:
# Hz S  dB   R 50
3000000000  -4.368559e+001  -1.610916e+002 
3003125000  -4.505983e+001  -1.664214e+002 
3006250000  -4.540130e+001  -1.664682e+002 
3009375000  -4.586251e+001  -1.632531e+002 
3012500000  -4.464318e+001  -1.696567e+002 
3015625000  -4.505847e+001  -1.787310e+002 
3018750000  -4.509532e+001  -1.780512e+002 
3021875000  -4.408300e+001  -1.784597e+002 
3025000000  -4.252122e+001  1.782347e+002 
3028125000  -4.166823e+001  1.654507e+002 
3031250000  -4.099228e+001  1.525292e+002 
3034375000  -4.077810e+001  1.388504e+002 
3037500000  -4.158255e+001  1.274410e+002 
3040625000  -4.275636e+001  1.208886e+002 
3043750000  -4.330299e+001  1.136411e+002 
3046875000  -4.402471e+001  1.084044e+002 
3050000000  -4.501987e+001  1.014279e+002 
3053125000  -4.487836e+001  1.064282e+002 
3056250000  -4.474957e+001  1.102306e+002 
3059375000  -4.400399e+001  1.061793e+002 
3062500000  -4.280206e+001  1.015324e+002 
3065625000  -4.211023e+001  9.061992e+001 
3068750000  -4.182743e+001  8.163680e+001 
3071875000  -4.182225e+001  7.969941e+001 
3075000000  -4.118136e+001  7.150534e+001 
3078125000  -4.123631e+001  6.443340e+001 
3081250000  -4.119181e+001  5.807257e+001 
3084375000  -4.047021e+001  5.222628e+001 
3087500000  -4.056475e+001  4.381237e+001 
3090625000  -3.988968e+001  3.162127e+001 
3093750000  -4.100725e+001  2.206159e+001 
3096875000  -4.104428e+001  1.657360e+001 
3100000000  -4.116684e+001  1.323510e+001 
3103125000  -4.145989e+001  8.114152e+000 
3106250000  -4.113638e+001  2.486201e+000 
3109375000  -4.103411e+001  -2.046574e+000 
3112500000  -4.077801e+001  -9.748867e+000 
3115625000  -4.081171e+001  -1.401766e+001 
3118750000  -4.083464e+001  -2.048433e+001 
3121875000  -4.018484e+001  -3.239262e+001 
3125000000  -4.199265e+001  -3.687967e+001 
3128125000  -4.205103e+001  -3.005716e+001 
3131250000  -3.950399e+001  -3.965199e+001 
3134375000  -3.894927e+001  -5.633177e+001 
3137500000  -3.971074e+001  -6.981786e+001 
3140625000  -4.090368e+001  -7.454084e+001 
3143750000  -4.182327e+001  -7.807281e+001 
3146875000  -4.101940e+001  -7.694508e+001 
3150000000  -4.029401e+001  -8.323145e+001 
3153125000  -4.089103e+001  -9.116681e+001 
3156250000  -4.122577e+001  -8.917165e+001 
3159375000  -3.917611e+001  -9.063046e+001 
3162500000  -3.770960e+001  -1.078359e+002 
3165625000  -3.912965e+001  -1.225421e+002 
3168750000  -3.896637e+001  -1.239954e+002 
3171875000  -3.864360e+001  -1.319540e+002 
3175000000  -3.913274e+001  -1.434511e+002 
3178125000  -3.865219e+001  -1.451769e+002 
3181250000  -3.814260e+001  -1.542452e+002 
3184375000  -3.780380e+001  -1.653077e+002 
3187500000  -3.922752e+001  1.773114e+002 
3190625000  -4.084877e+001  1.708974e+002 
3193750000  -4.106076e+001  1.770530e+002 
3196875000  -4.119737e+001  1.759879e+002 
3200000000  -3.984396e+001  1.692436e+002 
3203125000  -3.970814e+001  1.618733e+002 
3206250000  -3.986012e+001  1.521434e+002 
3209375000  -3.951428e+001  1.431968e+002 
3212500000  -3.983401e+001  1.371451e+002 
3215625000  -3.976362e+001  1.341157e+002 
3218750000  -4.037540e+001  1.221115e+002 
3221875000  -4.057022e+001  1.140795e+002 
3225000000  -4.046403e+001  1.092116e+002 
3228125000  -4.115971e+001  1.014666e+002 
3231250000  -4.153814e+001  9.857244e+001 
3234375000  -4.099025e+001  9.519708e+001 
3237500000  -4.104643e+001  9.093719e+001 
3240625000  -4.037686e+001  8.271478e+001 
3243750000  -4.031984e+001  7.112472e+001 
3246875000  -4.045480e+001  6.305796e+001 
3250000000  -4.112855e+001  5.968722e+001 
3253125000  -4.101044e+001  5.498076e+001 
3256250000  -4.028117e+001  4.571397e+001 
3259375000  -4.116484e+001  3.191622e+001 
3262500000  -4.215564e+001  2.650119e+001 
3265625000  -4.247668e+001  2.903358e+001 
3268750000  -4.256721e+001  2.717576e+001 
3271875000  -4.155292e+001  2.106509e+001 
3275000000  -4.095929e+001  1.059400e+001 
3278125000  -4.161720e+001  4.940305e+000 
3281250000  -4.189887e+001  6.988339e-001 
3284375000  -4.109689e+001  -7.395481e+000 
3287500000  -4.150328e+001  -1.766936e+001 
3290625000  -4.148907e+001  -2.505754e+001 
3293750000  -4.139544e+001  -3.413297e+001 
3296875000  -4.284170e+001  -3.737605e+001 
3300000000  -4.211575e+001  -3.802236e+001 
3303125000  -4.093147e+001  -4.889660e+001 
3306250000  -4.100585e+001  -6.132930e+001 
3309375000  -4.072680e+001  -6.953194e+001 
3312500000  -4.123997e+001  -8.583439e+001 
3315625000  -4.246442e+001  -9.437077e+001 
3318750000  -4.379429e+001  -9.896218e+001 
3321875000  -4.510698e+001  -9.871317e+001 
3325000000  -4.518266e+001  -9.572066e+001 
3328125000  -4.365637e+001  -9.832730e+001 
3331250000  -4.245078e+001  -9.871010e+001 
3334375000  -4.029316e+001  -1.176976e+002 
3337500000  -4.089219e+001  -1.402258e+002 
3340625000  -4.258489e+001  -1.512516e+002 
3343750000  -4.479099e+001  -1.530283e+002 
3346875000  -4.396122e+001  -1.573329e+002 
3350000000  -4.351394e+001  -1.612442e+002 
3353125000  -4.364027e+001  -1.694788e+002 
3356250000  -4.350027e+001  1.783601e+002 
3359375000  -4.436380e+001  1.651552e+002 
3362500000  -4.544952e+001  1.592032e+002 
3365625000  -4.577831e+001  1.522755e+002 
3368750000  -4.628043e+001  1.484376e+002 
3371875000  -4.657446e+001  1.411092e+002 
3375000000  -4.856836e+001  1.341903e+002 
3378125000  -4.900784e+001  1.335936e+002 
3381250000  -5.038760e+001  1.448320e+002 
3384375000  -4.701708e+001  1.549061e+002 
3387500000  -4.437005e+001  1.309363e+002 
3390625000  -4.686266e+001  1.046489e+002 
3393750000  -4.793332e+001  1.050441e+002 
3396875000  -4.621693e+001  1.033961e+002 
3400000000  -4.642422e+001  8.476010e+001 
3403125000  -4.674918e+001  7.876176e+001 
3406250000  -4.702863e+001  7.463560e+001 
3409375000  -4.686005e+001  6.338080e+001 
3412500000  -4.761747e+001  5.455715e+001 
3415625000  -4.889819e+001  5.041200e+001 
3418750000  -4.886721e+001  4.549279e+001 
3421875000  -4.891400e+001  3.997808e+001 
3425000000  -4.739301e+001  3.612023e+001 
3428125000  -4.715698e+001  2.644276e+001 
3431250000  -4.690891e+001  1.328232e+001 
3434375000  -4.710099e+001  4.310433e+000 
3437500000  -4.716197e+001  -5.504092e+000 
3440625000  -4.833536e+001  -7.682226e+000 
3443750000  -4.633686e+001  -1.112289e+001 
3446875000  -4.572447e+001  -2.655933e+001 
3450000000  -4.531536e+001  -4.038060e+001 
3453125000  -4.541886e+001  -6.094245e+001 
3456250000  -4.695148e+001  -7.433376e+001 
3459375000  -4.818763e+001  -7.254924e+001 
3462500000  -4.796570e+001  -7.756779e+001 
3465625000  -4.733464e+001  -8.896203e+001 
3468750000  -4.771814e+001  -9.626467e+001 
3471875000  -4.698594e+001  -1.035849e+002 
3475000000  -4.704317e+001  -1.147895e+002 
3478125000  -4.760088e+001  -1.279133e+002 
3481250000  -4.883641e+001  -1.358938e+002 
3484375000  -4.874529e+001  -1.331234e+002 
3487500000  -4.788457e+001  -1.402254e+002 
3490625000  -4.737251e+001  -1.539092e+002 
3493750000  -4.741888e+001  -1.681182e+002 
3496875000  -4.855562e+001  -1.664456e+002 
3500000000  -4.899781e+001  -1.700549e+002 
3503125000  -4.713351e+001  -1.727861e+002 
3506250000  -4.520122e+001  1.708845e+002 
3509375000  -4.519818e+001  1.492349e+002 
3512500000  -4.630074e+001  1.365735e+002 
3515625000  -4.740100e+001  1.311515e+002 
3518750000  -4.787586e+001  1.317006e+002 
3521875000  -4.785850e+001  1.146278e+002 
3525000000  -4.907521e+001  1.153448e+002 
3528125000  -4.807921e+001  1.181637e+002 
3531250000  -4.669727e+001  1.050355e+002 
3534375000  -4.705177e+001  8.955227e+001 
3537500000  -4.823566e+001  8.032913e+001 
3540625000  -4.858295e+001  7.636177e+001 
3543750000  -4.970998e+001  7.949754e+001 
3546875000  -4.826165e+001  8.141906e+001 
3550000000  -4.634696e+001  7.240350e+001 
3553125000  -4.595089e+001  5.789167e+001 
3556250000  -4.754620e+001  4.926219e+001 
3559375000  -4.638487e+001  4.158175e+001 
3562500000  -4.672745e+001  3.278654e+001 
3565625000  -4.750442e+001  2.361719e+001 
3568750000  -4.756033e+001  2.317315e+001 
3571875000  -4.741213e+001  1.786687e+001 
3575000000  -4.748196e+001  9.836300e+000 
3578125000  -4.728603e+001  9.031258e+000 
3581250000  -4.765088e+001  6.959013e+000 
3584375000  -4.607646e+001  -6.191964e+000 
3587500000  -4.545185e+001  -1.377585e+001 
3590625000  -4.689120e+001  -2.391771e+001 
3593750000  -4.754199e+001  -2.490274e+001 
3596875000  -4.657891e+001  -2.053509e+001 
3600000000  -4.478815e+001  -3.327254e+001 
3603125000  -4.489433e+001  -4.827347e+001 
3606250000  -4.651511e+001  -5.087131e+001 
3609375000  -4.591439e+001  -5.417429e+001 
3612500000  -4.602623e+001  -6.262303e+001 
3615625000  -4.612034e+001  -6.878163e+001 
3618750000  -4.608950e+001  -6.966325e+001 
3621875000  -4.568624e+001  -7.669911e+001 
3625000000  -4.569155e+001  -8.244971e+001 
3628125000  -4.463468e+001  -8.871941e+001 
3631250000  -4.519722e+001  -9.894038e+001 
3634375000  -4.548661e+001  -9.684824e+001 
3637500000  -4.446954e+001  -1.005179e+002 
3640625000  -4.371571e+001  -1.055799e+002 
3643750000  -4.344276e+001  -1.184264e+002 
3646875000  -4.374198e+001  -1.285697e+002 
3650000000  -4.364749e+001  -1.340328e+002 
3653125000  -4.325962e+001  -1.413997e+002 
3656250000  -4.398875e+001  -1.463544e+002 
3659375000  -4.408277e+001  -1.517693e+002 
3662500000  -4.337033e+001  -1.595549e+002 
3665625000  -4.320793e+001  -1.636626e+002 
3668750000  -4.242694e+001  -1.670240e+002 
3671875000  -4.146248e+001  1.770451e+002 
3675000000  -4.197454e+001  1.702472e+002 
3678125000  -4.257578e+001  1.637509e+002 
3681250000  -4.235912e+001  1.588210e+002 
3684375000  -4.267232e+001  1.481339e+002 
3687500000  -4.286857e+001  1.404067e+002 
3690625000  -4.358025e+001  1.343462e+002 
3693750000  -4.409155e+001  1.328801e+002 
3696875000  -4.372228e+001  1.293350e+002 
3700000000  -4.343021e+001  1.232262e+002 
3703125000  -4.362312e+001  1.152532e+002 
3706250000  -4.456453e+001  1.124936e+002 
3709375000  -4.369071e+001  1.126459e+002 
3712500000  -4.266410e+001  1.062980e+002 
3715625000  -4.156679e+001  9.508854e+001 
3718750000  -4.194977e+001  8.581307e+001 
3721875000  -4.202405e+001  7.766042e+001 
3725000000  -4.241153e+001  6.912992e+001 
3728125000  -4.266117e+001  6.469166e+001 
3731250000  -4.202395e+001  5.917489e+001 
3734375000  -4.205782e+001  5.257352e+001 
3737500000  -4.283255e+001  4.358458e+001 
3740625000  -4.324746e+001  3.904210e+001 
3743750000  -4.288153e+001  3.143209e+001 
3746875000  -4.352414e+001  2.554951e+001 
3750000000  -4.388788e+001  1.930130e+001 
3753125000  -4.363151e+001  1.853909e+001 
3756250000  -4.381513e+001  1.461572e+001 
3759375000  -4.368925e+001  1.047910e+001 
3762500000  -4.352392e+001  4.683913e+000 
3765625000  -4.411941e+001  -1.599168e+000 
3768750000  -4.351074e+001  -2.473126e-002 
3771875000  -4.201346e+001  -1.005413e+001 
3775000000  -4.236179e+001  -1.917384e+001 
3778125000  -4.259221e+001  -2.386912e+001 
3781250000  -4.271497e+001  -3.024701e+001 
3784375000  -4.239938e+001  -3.709336e+001 
3787500000  -4.238902e+001  -3.934521e+001 
3790625000  -4.283356e+001  -5.125871e+001 
3793750000  -4.278893e+001  -5.403828e+001 
3796875000  -4.141500e+001  -5.912395e+001 
3800000000  -4.089885e+001  -6.592706e+001 
3803125000  -4.142754e+001  -7.767738e+001 
3806250000  -4.258790e+001  -8.480956e+001 
3809375000  -4.174953e+001  -8.827853e+001 
3812500000  -4.177184e+001  -9.973485e+001 
3815625000  -4.310543e+001  -1.100038e+002 
3818750000  -4.446566e+001  -1.078796e+002 
3821875000  -4.375221e+001  -9.710199e+001 
3825000000  -4.159267e+001  -1.058823e+002 
3828125000  -4.060469e+001  -1.270786e+002 
3831250000  -4.160999e+001  -1.406003e+002 
3834375000  -4.403075e+001  -1.412232e+002 
3837500000  -4.408675e+001  -1.377345e+002 
3840625000  -4.248653e+001  -1.452179e+002 
3843750000  -4.160329e+001  -1.571198e+002 
3846875000  -4.354053e+001  -1.683113e+002 
3850000000  -4.453948e+001  -1.610373e+002 
3853125000  -4.377820e+001  -1.640361e+002 
3856250000  -4.276916e+001  -1.698677e+002 
3859375000  -4.229347e+001  -1.791735e+002 
3862500000  -4.167475e+001  1.727214e+002 
3865625000  -4.260001e+001  1.644745e+002 
3868750000  -4.219651e+001  1.647216e+002 
3871875000  -4.191560e+001  1.536921e+002 
3875000000  -4.232769e+001  1.421238e+002 
3878125000  -4.307848e+001  1.420469e+002 
3881250000  -4.342218e+001  1.380472e+002 
3884375000  -4.257443e+001  1.268710e+002 
3887500000  -4.333596e+001  1.229396e+002 
3890625000  -4.379507e+001  1.208621e+002 
3893750000  -4.429360e+001  1.170622e+002 
3896875000  -4.437473e+001  1.130007e+002 
3900000000  -4.443393e+001  1.096283e+002 
3903125000  -4.355109e+001  1.018655e+002 
3906250000  -4.349047e+001  9.800334e+001 
3909375000  -4.268178e+001  8.987505e+001 
3912500000  -4.387456e+001  7.990617e+001 
3915625000  -4.485965e+001  7.919933e+001 
3918750000  -4.447958e+001  7.776690e+001 
3921875000  -4.372144e+001  7.492449e+001 
3925000000  -4.277153e+001  6.671224e+001 
3928125000  -4.290279e+001  5.935247e+001 
3931250000  -4.371262e+001  5.061277e+001 
3934375000  -4.384045e+001  4.621602e+001 
3937500000  -4.476409e+001  4.619754e+001 
3940625000  -4.462988e+001  4.438905e+001 
3943750000  -4.338271e+001  3.941139e+001 
3946875000  -4.287764e+001  2.734927e+001 
3950000000  -4.395861e+001  2.119292e+001 
3953125000  -4.440676e+001  2.209885e+001 
3956250000  -4.280252e+001  1.973391e+001 
3959375000  -4.172772e+001  1.307117e+001 
3962500000  -4.140398e+001  3.885849e+000 
3965625000  -4.186889e+001  -6.723479e+000 
3968750000  -4.293159e+001  -1.439505e+001 
3971875000  -4.245297e+001  -2.114578e+001 
3975000000  -4.165868e+001  -2.341436e+001 
3978125000  -4.235925e+001  -3.168710e+001 
3981250000  -4.188103e+001  -3.825378e+001 
3984375000  -4.206593e+001  -4.625729e+001 
3987500000  -4.301437e+001  -5.034801e+001 
3990625000  -4.294205e+001  -5.408487e+001 
3993750000  -4.283044e+001  -6.253602e+001 
3996875000  -4.278717e+001  -7.027750e+001 
4000000000  -4.322945e+001  -7.306215e+001 
4003125000  -4.404273e+001  -7.163421e+001 
4006250000  -4.195230e+001  -7.700442e+001 
4009375000  -4.128027e+001  -9.468065e+001 
4012500000  -4.275974e+001  -1.023632e+002 
4015625000  -4.421196e+001  -1.025750e+002 
4018750000  -4.360389e+001  -1.074495e+002 
4021875000  -4.290627e+001  -1.124540e+002 
4025000000  -4.323884e+001  -1.230752e+002 
4028125000  -4.292651e+001  -1.300753e+002 
4031250000  -4.379770e+001  -1.367077e+002 
4034375000  -4.410951e+001  -1.381294e+002 
4037500000  -4.435489e+001  -1.399562e+002 
4040625000  -4.413191e+001  -1.454092e+002 
4043750000  -4.417530e+001  -1.484890e+002 
4046875000  -4.411520e+001  -1.552421e+002 
4050000000  -4.444642e+001  -1.636666e+002 
4053125000  -4.509188e+001  -1.688127e+002 
4056250000  -4.583714e+001  -1.625995e+002 
4059375000  -4.404342e+001  -1.648803e+002 
4062500000  -4.315469e+001  -1.747255e+002 
4065625000  -4.368811e+001  -1.780092e+002 
4068750000  -4.286657e+001  1.727345e+002 
4071875000  -4.274147e+001  1.618601e+002 
4075000000  -4.342376e+001  1.559450e+002 
4078125000  -4.397714e+001  1.530599e+002 
4081250000  -4.352241e+001  1.452369e+002 
4084375000  -4.324725e+001  1.360555e+002 
4087500000  -4.385066e+001  1.296911e+002 
4090625000  -4.480728e+001  1.271230e+002 
4093750000  -4.464117e+001  1.244534e+002 
4096875000  -4.386017e+001  1.168224e+002 
4100000000  -4.485551e+001  1.106379e+002 
4103125000  -4.560435e+001  1.146971e+002 
4106250000  -4.485599e+001  1.156676e+002 
4109375000  -4.375243e+001  1.101697e+002 
4112500000  -4.448843e+001  1.011032e+002 
4115625000  -4.444799e+001  9.619051e+001 
4118750000  -4.396011e+001  9.180588e+001 
4121875000  -4.348286e+001  8.365161e+001 
4125000000  -4.493339e+001  7.678184e+001 
4128125000  -4.537332e+001  8.027659e+001 
4131250000  -4.374247e+001  8.156170e+001 
4134375000  -4.155755e+001  7.232854e+001 
4137500000  -4.210956e+001  5.059359e+001 
4140625000  -4.362667e+001  4.423656e+001 
4143750000  -4.465004e+001  5.075291e+001 
4146875000  -4.427642e+001  5.075848e+001 
4150000000  -4.278302e+001  3.871864e+001 
4153125000  -4.319358e+001  2.954769e+001 
4156250000  -4.420302e+001  2.629548e+001 
4159375000  -4.352736e+001  2.904659e+001 
4162500000  -4.283347e+001  2.674300e+001 
4165625000  -4.148211e+001  1.550409e+001 
4168750000  -4.099148e+001  5.220949e+000 
4171875000  -4.112672e+001  -7.784603e+000 
4175000000  -4.199694e+001  -1.447043e+001 
4178125000  -4.219908e+001  -1.823191e+001 
4181250000  -4.242443e+001  -2.187090e+001 
4184375000  -4.247227e+001  -2.976498e+001 
4187500000  -4.243829e+001  -3.691878e+001 
4190625000  -4.259631e+001  -4.770452e+001 
4193750000  -4.414301e+001  -5.070255e+001 
4196875000  -4.471042e+001  -5.424414e+001 
4200000000  -4.606934e+001  -4.710942e+001 
4203125000  -4.449864e+001  -3.922787e+001 
4206250000  -4.136941e+001  -4.901830e+001 
4209375000  -4.115697e+001  -7.240279e+001 
4212500000  -4.351215e+001  -7.938264e+001 
4215625000  -4.399757e+001  -7.185228e+001 
4218750000  -4.252525e+001  -7.215455e+001 
4221875000  -4.114791e+001  -8.409436e+001 
4225000000  -4.218629e+001  -9.721577e+001 
4228125000  -4.233332e+001  -9.796696e+001 
4231250000  -4.081358e+001  -1.007254e+002 
4234375000  -4.093489e+001  -1.147191e+002 
4237500000  -4.076381e+001  -1.204020e+002 
4240625000  -4.115734e+001  -1.293009e+002 
4243750000  -4.219890e+001  -1.418143e+002 
4246875000  -4.282624e+001  -1.398505e+002 
4250000000  -4.252198e+001  -1.406621e+002 
4253125000  -4.230724e+001  -1.433649e+002 
4256250000  -4.250205e+001  -1.498506e+002 
4259375000  -4.182815e+001  -1.535106e+002 
4262500000  -4.228022e+001  -1.593087e+002 
4265625000  -4.193370e+001  -1.610384e+002 
4268750000  -4.091769e+001  -1.690658e+002 
4271875000  -4.068034e+001  1.793446e+002 
4275000000  -4.009337e+001  1.716708e+002 
4278125000  -4.159953e+001  1.598923e+002 
4281250000  -4.281176e+001  1.553905e+002 
4284375000  -4.237443e+001  1.540769e+002 
4287500000  -4.377370e+001  1.511616e+002 
4290625000  -4.394769e+001  1.555815e+002 
4293750000  -4.136797e+001  1.563065e+002 
4296875000  -4.053249e+001  1.396313e+002 
4300000000  -4.164508e+001  1.308628e+002 
4303125000  -4.208979e+001  1.304955e+002 
4306250000  -4.090227e+001  1.297264e+002 
4309375000  -3.970118e+001  1.205855e+002 
4312500000  -3.943737e+001  1.086121e+002 
4315625000  -3.994150e+001  9.926972e+001 
4318750000  -4.067922e+001  9.321709e+001 
4321875000  -4.076134e+001  9.205831e+001 
4325000000  -3.995422e+001  8.628165e+001 
4328125000  -3.931617e+001  7.565014e+001 
4331250000  -3.974960e+001  6.562400e+001 
4334375000  -4.080263e+001  5.607305e+001 
4337500000  -4.177369e+001  5.596252e+001 
4340625000  -4.208516e+001  5.809407e+001 
4343750000  -4.118405e+001  5.309883e+001 
4346875000  -4.094275e+001  4.118613e+001 
4350000000  -4.112342e+001  3.290347e+001 
4353125000  -4.229710e+001  2.278809e+001 
4356250000  -4.425173e+001  3.016769e+001 
4359375000  -4.265102e+001  3.944117e+001 
4362500000  -3.929084e+001  2.922847e+001 
4365625000  -3.922928e+001  1.156993e+001 
4368750000  -3.999404e+001  3.768303e-001 
4371875000  -4.097411e+001  -2.969261e+000 
4375000000  -4.040613e+001  -5.763772e+000 
4378125000  -4.047958e+001  -1.513990e+001 
4381250000  -4.052673e+001  -2.135529e+001 
4384375000  -4.052974e+001  -3.007747e+001 
4387500000  -4.184783e+001  -3.697509e+001 
4390625000  -4.226752e+001  -3.812152e+001 
4393750000  -4.132504e+001  -3.991189e+001 
4396875000  -4.096080e+001  -4.629267e+001 
4400000000  -4.109084e+001  -5.573648e+001 
4403125000  -4.154296e+001  -6.622978e+001 
4406250000  -4.207071e+001  -6.925773e+001 
4409375000  -4.244208e+001  -7.357708e+001 
4412500000  -4.306801e+001  -7.539844e+001 
4415625000  -4.347519e+001  -7.153427e+001 
4418750000  -4.192085e+001  -7.630315e+001 
