!Agilent Technologies,E8363B,MY43030201,A.06.04.32
!Agilent E8363B: A.06.04.32
!Date: Tuesday, November 11, 2014 21:40:29
!Correction: S21(Response(S21)) 
!S1P File: Measurement: S21:
# Hz S  dB   R 50
3000000000  -4.349981e+001  -1.562980e+002 
3003125000  -4.515883e+001  -1.621840e+002 
3006250000  -4.544365e+001  -1.634753e+002 
3009375000  -4.598735e+001  -1.606334e+002 
3012500000  -4.497179e+001  -1.667413e+002 
3015625000  -4.471922e+001  -1.739722e+002 
3018750000  -4.534359e+001  -1.744573e+002 
3021875000  -4.374958e+001  -1.750436e+002 
3025000000  -4.232700e+001  -1.789489e+002 
3028125000  -4.167624e+001  1.702586e+002 
3031250000  -4.094238e+001  1.551553e+002 
3034375000  -4.060992e+001  1.417159e+002 
3037500000  -4.162225e+001  1.332571e+002 
3040625000  -4.279522e+001  1.239796e+002 
3043750000  -4.315510e+001  1.186435e+002 
3046875000  -4.399665e+001  1.097133e+002 
3050000000  -4.503692e+001  1.066348e+002 
3053125000  -4.469885e+001  1.122329e+002 
3056250000  -4.487415e+001  1.141025e+002 
3059375000  -4.389866e+001  1.092375e+002 
3062500000  -4.238387e+001  1.052738e+002 
3065625000  -4.208887e+001  9.439234e+001 
3068750000  -4.193736e+001  8.651363e+001 
3071875000  -4.197184e+001  8.287189e+001 
3075000000  -4.106770e+001  7.378255e+001 
3078125000  -4.108822e+001  6.834956e+001 
3081250000  -4.115642e+001  6.121125e+001 
3084375000  -4.034148e+001  5.528526e+001 
3087500000  -4.034387e+001  4.761569e+001 
3090625000  -3.985357e+001  3.454285e+001 
3093750000  -4.082034e+001  2.615334e+001 
3096875000  -4.132452e+001  1.969183e+001 
3100000000  -4.117328e+001  1.610223e+001 
3103125000  -4.140738e+001  1.187745e+001 
3106250000  -4.095816e+001  6.049048e+000 
3109375000  -4.091706e+001  8.838839e-002 
3112500000  -4.084841e+001  -6.814548e+000 
3115625000  -4.079982e+001  -1.266236e+001 
3118750000  -4.077119e+001  -1.621104e+001 
3121875000  -4.006500e+001  -2.888523e+001 
3125000000  -4.210173e+001  -3.303281e+001 
3128125000  -4.192611e+001  -2.866340e+001 
3131250000  -3.956410e+001  -3.589981e+001 
3134375000  -3.882519e+001  -5.342585e+001 
3137500000  -3.953936e+001  -6.658949e+001 
3140625000  -4.091309e+001  -6.941971e+001 
3143750000  -4.160271e+001  -7.410167e+001 
3146875000  -4.127084e+001  -7.298026e+001 
3150000000  -4.022926e+001  -7.892956e+001 
3153125000  -4.084580e+001  -8.812720e+001 
3156250000  -4.150290e+001  -8.456888e+001 
3159375000  -3.911167e+001  -8.893954e+001 
3162500000  -3.773850e+001  -1.044823e+002 
3165625000  -3.906598e+001  -1.184209e+002 
3168750000  -3.917034e+001  -1.207733e+002 
3171875000  -3.873518e+001  -1.284887e+002 
3175000000  -3.894399e+001  -1.391591e+002 
3178125000  -3.879954e+001  -1.415946e+002 
3181250000  -3.819508e+001  -1.511044e+002 
3184375000  -3.776468e+001  -1.621136e+002 
3187500000  -3.940397e+001  -1.779766e+002 
3190625000  -4.119509e+001  1.741050e+002 
3193750000  -4.125536e+001  1.795951e+002 
3196875000  -4.121633e+001  1.779020e+002 
3200000000  -3.995806e+001  1.722188e+002 
3203125000  -3.948192e+001  1.641164e+002 
3206250000  -4.008866e+001  1.562562e+002 
3209375000  -3.941652e+001  1.468372e+002 
3212500000  -3.999969e+001  1.399972e+002 
3215625000  -3.977213e+001  1.359811e+002 
3218750000  -4.016385e+001  1.254255e+002 
3221875000  -4.073372e+001  1.177681e+002 
3225000000  -4.057290e+001  1.114812e+002 
3228125000  -4.132051e+001  1.042662e+002 
3231250000  -4.170762e+001  1.000070e+002 
3234375000  -4.105041e+001  9.746223e+001 
3237500000  -4.109405e+001  9.372897e+001 
3240625000  -4.048596e+001  8.684875e+001 
3243750000  -4.040599e+001  7.640957e+001 
3246875000  -4.077340e+001  6.772787e+001 
3250000000  -4.108698e+001  6.302850e+001 
3253125000  -4.109721e+001  5.852045e+001 
3256250000  -4.059587e+001  4.775461e+001 
3259375000  -4.102627e+001  3.525707e+001 
3262500000  -4.228677e+001  2.828614e+001 
3265625000  -4.278352e+001  3.010635e+001 
3268750000  -4.262168e+001  3.058029e+001 
3271875000  -4.163237e+001  2.494962e+001 
3275000000  -4.123372e+001  1.328519e+001 
3278125000  -4.179964e+001  6.762082e+000 
3281250000  -4.185231e+001  4.266538e+000 
3284375000  -4.099339e+001  -5.603261e+000 
3287500000  -4.155702e+001  -1.141809e+001 
3290625000  -4.174847e+001  -2.096000e+001 
3293750000  -4.163795e+001  -3.032658e+001 
3296875000  -4.271825e+001  -3.462349e+001 
3300000000  -4.199047e+001  -3.651624e+001 
3303125000  -4.102578e+001  -4.653433e+001 
3306250000  -4.102841e+001  -5.621087e+001 
3309375000  -4.070806e+001  -6.759229e+001 
3312500000  -4.110543e+001  -8.289317e+001 
3315625000  -4.266330e+001  -9.043998e+001 
3318750000  -4.436035e+001  -9.796386e+001 
3321875000  -4.540459e+001  -9.711760e+001 
3325000000  -4.491709e+001  -9.158707e+001 
3328125000  -4.428230e+001  -9.565588e+001 
3331250000  -4.269449e+001  -9.718048e+001 
3334375000  -4.008949e+001  -1.132371e+002 
3337500000  -4.101082e+001  -1.376691e+002 
3340625000  -4.293618e+001  -1.473394e+002 
3343750000  -4.471806e+001  -1.490824e+002 
3346875000  -4.405290e+001  -1.534566e+002 
3350000000  -4.386359e+001  -1.585453e+002 
3353125000  -4.362718e+001  -1.675104e+002 
3356250000  -4.350569e+001  -1.764004e+002 
3359375000  -4.485010e+001  1.694360e+002 
3362500000  -4.550568e+001  1.604193e+002 
3365625000  -4.610393e+001  1.557308e+002 
3368750000  -4.655019e+001  1.477546e+002 
3371875000  -4.726338e+001  1.410432e+002 
3375000000  -4.879519e+001  1.375195e+002 
3378125000  -4.951463e+001  1.368676e+002 
3381250000  -5.073614e+001  1.420393e+002 
3384375000  -4.695825e+001  1.573664e+002 
3387500000  -4.516504e+001  1.315394e+002 
3390625000  -4.700870e+001  1.100197e+002 
3393750000  -4.769274e+001  1.069654e+002 
3396875000  -4.664064e+001  1.041811e+002 
3400000000  -4.623146e+001  8.950267e+001 
3403125000  -4.736934e+001  7.971529e+001 
3406250000  -4.772598e+001  7.411185e+001 
3409375000  -4.725328e+001  6.307275e+001 
3412500000  -4.808876e+001  5.558590e+001 
3415625000  -4.864347e+001  5.327186e+001 
3418750000  -4.902440e+001  4.758714e+001 
3421875000  -4.913209e+001  4.318944e+001 
3425000000  -4.777627e+001  3.899570e+001 
3428125000  -4.744876e+001  2.997303e+001 
3431250000  -4.672078e+001  1.866106e+001 
3434375000  -4.716914e+001  3.101943e+000 
3437500000  -4.780051e+001  -6.207420e-001 
3440625000  -4.756773e+001  -2.763789e+000 
3443750000  -4.601635e+001  -7.348016e+000 
3446875000  -4.550735e+001  -2.630704e+001 
3450000000  -4.543194e+001  -3.981640e+001 
3453125000  -4.583990e+001  -5.738810e+001 
3456250000  -4.699613e+001  -6.672291e+001 
3459375000  -4.812402e+001  -6.776541e+001 
3462500000  -4.790339e+001  -7.342381e+001 
3465625000  -4.664421e+001  -8.579023e+001 
3468750000  -4.764265e+001  -9.368755e+001 
3471875000  -4.695285e+001  -1.040783e+002 
3475000000  -4.724155e+001  -1.127202e+002 
3478125000  -4.741592e+001  -1.232862e+002 
3481250000  -4.919421e+001  -1.326661e+002 
3484375000  -4.814534e+001  -1.291954e+002 
3487500000  -4.810014e+001  -1.385600e+002 
3490625000  -4.735066e+001  -1.479925e+002 
3493750000  -4.760528e+001  -1.632807e+002 
3496875000  -4.817054e+001  -1.637777e+002 
3500000000  -4.822864e+001  -1.689547e+002 
3503125000  -4.733671e+001  -1.727930e+002 
3506250000  -4.618643e+001  1.756530e+002 
3509375000  -4.599319e+001  1.547281e+002 
3512500000  -4.584475e+001  1.401524e+002 
3515625000  -4.703891e+001  1.331777e+002 
3518750000  -4.752039e+001  1.355763e+002 
3521875000  -4.745276e+001  1.243010e+002 
3525000000  -4.864314e+001  1.188608e+002 
3528125000  -4.743526e+001  1.208683e+002 
3531250000  -4.720099e+001  1.085941e+002 
3534375000  -4.688177e+001  9.334834e+001 
3537500000  -4.790263e+001  8.209788e+001 
3540625000  -4.869939e+001  7.925037e+001 
3543750000  -4.966610e+001  8.336362e+001 
3546875000  -4.888533e+001  8.868805e+001 
3550000000  -4.635387e+001  7.588602e+001 
3553125000  -4.565235e+001  6.055981e+001 
3556250000  -4.738901e+001  5.154436e+001 
3559375000  -4.662897e+001  4.578866e+001 
3562500000  -4.615252e+001  3.202465e+001 
3565625000  -4.760244e+001  3.058049e+001 
3568750000  -4.735154e+001  3.064676e+001 
3571875000  -4.702394e+001  2.372233e+001 
3575000000  -4.689211e+001  1.554235e+001 
3578125000  -4.787235e+001  1.126911e+001 
3581250000  -4.776422e+001  9.281650e+000 
3584375000  -4.604803e+001  1.504422e+000 
3587500000  -4.586705e+001  -7.600416e+000 
3590625000  -4.683122e+001  -1.687903e+001 
3593750000  -4.748280e+001  -1.889155e+001 
3596875000  -4.661340e+001  -1.724576e+001 
3600000000  -4.471613e+001  -2.570604e+001 
3603125000  -4.525219e+001  -4.407165e+001 
3606250000  -4.589075e+001  -4.858550e+001 
3609375000  -4.618327e+001  -5.122412e+001 
3612500000  -4.630260e+001  -5.909831e+001 
3615625000  -4.580941e+001  -6.448133e+001 
3618750000  -4.634441e+001  -6.493508e+001 
3621875000  -4.551645e+001  -7.429741e+001 
3625000000  -4.547357e+001  -7.572398e+001 
3628125000  -4.508345e+001  -8.115314e+001 
3631250000  -4.484309e+001  -9.192851e+001 
3634375000  -4.568326e+001  -9.520394e+001 
3637500000  -4.458182e+001  -9.388132e+001 
3640625000  -4.371952e+001  -1.024384e+002 
3643750000  -4.338618e+001  -1.131039e+002 
3646875000  -4.379179e+001  -1.249546e+002 
3650000000  -4.400757e+001  -1.292280e+002 
3653125000  -4.309608e+001  -1.377329e+002 
3656250000  -4.436053e+001  -1.433608e+002 
3659375000  -4.382154e+001  -1.459028e+002 
3662500000  -4.322483e+001  -1.547839e+002 
3665625000  -4.325779e+001  -1.594701e+002 
3668750000  -4.232584e+001  -1.630379e+002 
3671875000  -4.163873e+001  -1.777004e+002 
3675000000  -4.217924e+001  1.742648e+002 
3678125000  -4.302396e+001  1.695889e+002 
3681250000  -4.249989e+001  1.625657e+002 
3684375000  -4.238184e+001  1.550781e+002 
3687500000  -4.291747e+001  1.455529e+002 
3690625000  -4.338395e+001  1.371485e+002 
3693750000  -4.449763e+001  1.353307e+002 
3696875000  -4.390051e+001  1.363081e+002 
3700000000  -4.308477e+001  1.258708e+002 
3703125000  -4.364301e+001  1.176956e+002 
3706250000  -4.456183e+001  1.180429e+002 
3709375000  -4.385592e+001  1.160076e+002 
3712500000  -4.301123e+001  1.085403e+002 
3715625000  -4.195620e+001  1.000002e+002 
3718750000  -4.169556e+001  9.145952e+001 
3721875000  -4.175441e+001  8.405939e+001 
3725000000  -4.246793e+001  7.303551e+001 
3728125000  -4.270578e+001  7.288175e+001 
3731250000  -4.199652e+001  6.434190e+001 
3734375000  -4.236407e+001  5.636871e+001 
3737500000  -4.270589e+001  4.901418e+001 
3740625000  -4.311462e+001  4.386659e+001 
3743750000  -4.317624e+001  3.604906e+001 
3746875000  -4.342836e+001  2.994893e+001 
3750000000  -4.355830e+001  2.492598e+001 
3753125000  -4.390618e+001  2.312471e+001 
3756250000  -4.388070e+001  2.032157e+001 
3759375000  -4.389371e+001  1.179940e+001 
3762500000  -4.345423e+001  1.021648e+001 
3765625000  -4.448673e+001  2.866841e+000 
3768750000  -4.357112e+001  5.950510e+000 
3771875000  -4.191946e+001  -3.957433e+000 
3775000000  -4.214014e+001  -1.473579e+001 
3778125000  -4.294479e+001  -1.905251e+001 
3781250000  -4.309589e+001  -2.311816e+001 
3784375000  -4.241972e+001  -3.069241e+001 
3787500000  -4.237854e+001  -3.698318e+001 
3790625000  -4.318465e+001  -4.414716e+001 
3793750000  -4.280913e+001  -4.809919e+001 
3796875000  -4.157545e+001  -5.583233e+001 
3800000000  -4.080389e+001  -6.115554e+001 
3803125000  -4.186515e+001  -7.215786e+001 
3806250000  -4.246192e+001  -7.484370e+001 
3809375000  -4.188610e+001  -8.198619e+001 
3812500000  -4.189942e+001  -9.284661e+001 
3815625000  -4.318941e+001  -1.047092e+002 
3818750000  -4.406809e+001  -1.014518e+002 
3821875000  -4.367508e+001  -9.239429e+001 
3825000000  -4.131449e+001  -9.923138e+001 
3828125000  -4.042112e+001  -1.207714e+002 
3831250000  -4.166770e+001  -1.346694e+002 
3834375000  -4.383390e+001  -1.356402e+002 
3837500000  -4.368560e+001  -1.318899e+002 
3840625000  -4.251351e+001  -1.412067e+002 
3843750000  -4.166955e+001  -1.534246e+002 
3846875000  -4.344530e+001  -1.612234e+002 
3850000000  -4.438458e+001  -1.551991e+002 
3853125000  -4.389938e+001  -1.567140e+002 
3856250000  -4.329805e+001  -1.645840e+002 
3859375000  -4.238943e+001  -1.736466e+002 
3862500000  -4.213903e+001  1.752518e+002 
3865625000  -4.294585e+001  1.691058e+002 
3868750000  -4.262398e+001  1.688780e+002 
3871875000  -4.205846e+001  1.593264e+002 
3875000000  -4.297949e+001  1.482459e+002 
3878125000  -4.376352e+001  1.461825e+002 
3881250000  -4.345481e+001  1.439828e+002 
3884375000  -4.261358e+001  1.313223e+002 
3887500000  -4.329144e+001  1.283321e+002 
3890625000  -4.361045e+001  1.222276e+002 
3893750000  -4.417101e+001  1.185727e+002 
3896875000  -4.449901e+001  1.172597e+002 
3900000000  -4.441748e+001  1.120266e+002 
3903125000  -4.350592e+001  1.085390e+002 
3906250000  -4.350976e+001  1.020667e+002 
3909375000  -4.291927e+001  9.372583e+001 
3912500000  -4.385381e+001  8.646194e+001 
3915625000  -4.471386e+001  8.702962e+001 
3918750000  -4.458825e+001  8.542358e+001 
3921875000  -4.415394e+001  7.570792e+001 
3925000000  -4.281234e+001  7.098590e+001 
3928125000  -4.308179e+001  6.101451e+001 
3931250000  -4.379827e+001  5.476630e+001 
3934375000  -4.401542e+001  5.556570e+001 
3937500000  -4.464055e+001  4.919850e+001 
3940625000  -4.511378e+001  4.964827e+001 
3943750000  -4.324170e+001  4.155582e+001 
3946875000  -4.257121e+001  3.381188e+001 
3950000000  -4.393595e+001  2.602451e+001 
3953125000  -4.492749e+001  2.851556e+001 
3956250000  -4.316704e+001  2.692721e+001 
3959375000  -4.193361e+001  1.806999e+001 
3962500000  -4.178166e+001  9.819908e+000 
3965625000  -4.198581e+001  -3.745169e+000 
3968750000  -4.244160e+001  -1.045933e+001 
3971875000  -4.267303e+001  -1.568930e+001 
3975000000  -4.252279e+001  -1.912736e+001 
3978125000  -4.232067e+001  -2.453541e+001 
3981250000  -4.201971e+001  -3.384019e+001 
3984375000  -4.229399e+001  -4.222032e+001 
3987500000  -4.306385e+001  -4.668832e+001 
3990625000  -4.330352e+001  -4.995811e+001 
3993750000  -4.345275e+001  -5.429993e+001 
3996875000  -4.332067e+001  -6.146169e+001 
4000000000  -4.393564e+001  -6.603625e+001 
4003125000  -4.406288e+001  -6.568454e+001 
4006250000  -4.202996e+001  -7.170984e+001 
4009375000  -4.163345e+001  -8.828766e+001 
4012500000  -4.315134e+001  -9.663933e+001 
4015625000  -4.382958e+001  -9.626879e+001 
4018750000  -4.341082e+001  -9.912152e+001 
4021875000  -4.317392e+001  -1.094498e+002 
4025000000  -4.327373e+001  -1.171209e+002 
4028125000  -4.341909e+001  -1.224049e+002 
4031250000  -4.460207e+001  -1.293366e+002 
4034375000  -4.415008e+001  -1.342136e+002 
4037500000  -4.426648e+001  -1.340630e+002 
4040625000  -4.456298e+001  -1.388537e+002 
4043750000  -4.474998e+001  -1.481917e+002 
4046875000  -4.480505e+001  -1.524140e+002 
4050000000  -4.448029e+001  -1.575180e+002 
4053125000  -4.553828e+001  -1.597389e+002 
4056250000  -4.600783e+001  -1.558993e+002 
4059375000  -4.396970e+001  -1.590607e+002 
4062500000  -4.384365e+001  -1.672357e+002 
4065625000  -4.359676e+001  -1.732711e+002 
4068750000  -4.336380e+001  1.781078e+002 
4071875000  -4.266449e+001  1.695115e+002 
4075000000  -4.397916e+001  1.600038e+002 
4078125000  -4.415065e+001  1.580840e+002 
4081250000  -4.363394e+001  1.521917e+002 
4084375000  -4.335154e+001  1.423488e+002 
4087500000  -4.445716e+001  1.351429e+002 
4090625000  -4.498744e+001  1.347535e+002 
4093750000  -4.503693e+001  1.288777e+002 
4096875000  -4.476262e+001  1.220766e+002 
4100000000  -4.503666e+001  1.137789e+002 
4103125000  -4.604113e+001  1.206238e+002 
4106250000  -4.547097e+001  1.196633e+002 
4109375000  -4.478892e+001  1.160299e+002 
4112500000  -4.460854e+001  1.050724e+002 
4115625000  -4.451022e+001  9.959637e+001 
4118750000  -4.415650e+001  9.559164e+001 
4121875000  -4.430014e+001  9.069976e+001 
4125000000  -4.487425e+001  8.441339e+001 
4128125000  -4.589072e+001  8.611402e+001 
4131250000  -4.363221e+001  9.070295e+001 
4134375000  -4.143653e+001  7.570798e+001 
4137500000  -4.227591e+001  5.611159e+001 
4140625000  -4.425783e+001  5.190561e+001 
4143750000  -4.531166e+001  5.532423e+001 
4146875000  -4.420211e+001  5.792490e+001 
4150000000  -4.276042e+001  4.829973e+001 
4153125000  -4.355044e+001  3.680582e+001 
4156250000  -4.412055e+001  3.136429e+001 
4159375000  -4.393316e+001  3.538747e+001 
4162500000  -4.264966e+001  3.221375e+001 
4165625000  -4.193518e+001  2.323605e+001 
4168750000  -4.117338e+001  1.191191e+001 
4171875000  -4.125729e+001  -4.951355e-001 
4175000000  -4.223044e+001  -9.363104e+000 
4178125000  -4.275114e+001  -1.131541e+001 
4181250000  -4.236296e+001  -1.619156e+001 
4184375000  -4.317173e+001  -2.255253e+001 
4187500000  -4.296846e+001  -2.913429e+001 
4190625000  -4.340980e+001  -3.945916e+001 
4193750000  -4.420762e+001  -4.341496e+001 
4196875000  -4.502071e+001  -4.741309e+001 
4200000000  -4.651115e+001  -4.013059e+001 
4203125000  -4.506604e+001  -3.429264e+001 
4206250000  -4.167348e+001  -4.098887e+001 
4209375000  -4.188603e+001  -6.893512e+001 
4212500000  -4.432153e+001  -7.105741e+001 
4215625000  -4.461054e+001  -6.512447e+001 
4218750000  -4.253963e+001  -6.554897e+001 
4221875000  -4.156069e+001  -8.034785e+001 
4225000000  -4.299260e+001  -9.061291e+001 
4228125000  -4.316031e+001  -9.014762e+001 
4231250000  -4.144936e+001  -9.288686e+001 
4234375000  -4.118303e+001  -1.089715e+002 
4237500000  -4.115101e+001  -1.124876e+002 
4240625000  -4.147426e+001  -1.227948e+002 
4243750000  -4.280619e+001  -1.326628e+002 
4246875000  -4.382000e+001  -1.313884e+002 
4250000000  -4.317875e+001  -1.324070e+002 
4253125000  -4.277963e+001  -1.345087e+002 
4256250000  -4.279604e+001  -1.411444e+002 
4259375000  -4.264902e+001  -1.457283e+002 
4262500000  -4.243027e+001  -1.523418e+002 
4265625000  -4.253388e+001  -1.546192e+002 
4268750000  -4.129397e+001  -1.630719e+002 
4271875000  -4.138795e+001  -1.712323e+002 
4275000000  -4.090704e+001  -1.785372e+002 
4278125000  -4.201505e+001  1.679761e+002 
4281250000  -4.275451e+001  1.630555e+002 
4284375000  -4.251067e+001  1.599763e+002 
4287500000  -4.381922e+001  1.567211e+002 
4290625000  -4.429925e+001  1.662626e+002 
4293750000  -4.203030e+001  1.631798e+002 
4296875000  -4.113268e+001  1.470807e+002 
4300000000  -4.182177e+001  1.341177e+002 
4303125000  -4.249117e+001  1.382491e+002 
4306250000  -4.124136e+001  1.362938e+002 
4309375000  -4.019030e+001  1.281227e+002 
4312500000  -4.027397e+001  1.143087e+002 
4315625000  -4.101965e+001  1.065511e+002 
4318750000  -4.113220e+001  9.955108e+001 
4321875000  -4.129205e+001  9.731052e+001 
4325000000  -4.060729e+001  9.616067e+001 
4328125000  -3.958119e+001  8.156011e+001 
4331250000  -4.022513e+001  7.060293e+001 
4334375000  -4.132176e+001  6.314696e+001 
4337500000  -4.219012e+001  6.378315e+001 
4340625000  -4.269728e+001  6.371213e+001 
4343750000  -4.170243e+001  5.772793e+001 
4346875000  -4.140559e+001  4.945570e+001 
4350000000  -4.105517e+001  4.098112e+001 
4353125000  -4.241566e+001  3.389820e+001 
4356250000  -4.431193e+001  3.595634e+001 
4359375000  -4.328208e+001  5.046542e+001 
4362500000  -3.970192e+001  3.782741e+001 
4365625000  -3.932953e+001  1.864090e+001 
4368750000  -4.057520e+001  8.272846e+000 
4371875000  -4.207942e+001  4.787539e+000 
4375000000  -4.115553e+001  8.822471e-001 
4378125000  -4.091882e+001  -5.362521e+000 
4381250000  -4.128479e+001  -1.775264e+001 
4384375000  -4.085204e+001  -2.309269e+001 
4387500000  -4.180516e+001  -2.951917e+001 
4390625000  -4.295306e+001  -3.337400e+001 
4393750000  -4.236018e+001  -3.162066e+001 
4396875000  -4.164235e+001  -3.629736e+001 
4400000000  -4.121026e+001  -4.682630e+001 
4403125000  -4.231677e+001  -5.608434e+001 
4406250000  -4.252109e+001  -6.164594e+001 
4409375000  -4.305230e+001  -6.549300e+001 
4412500000  -4.388768e+001  -6.801375e+001 
4415625000  -4.356397e+001  -6.528925e+001 
4418750000  -4.239738e+001  -6.381101e+001 
