!Agilent Technologies,E8363B,MY43030201,A.06.04.32
!Agilent E8363B: A.06.04.32
!Date: Tuesday, November 11, 2014 21:42:58
!Correction: S21(Response(S21)) 
!S1P File: Measurement: S21:
# Hz S  dB   R 50
3000000000  -4.358921e+001  -1.586305e+002 
3003125000  -4.531704e+001  -1.624529e+002 
3006250000  -4.511234e+001  -1.648643e+002 
3009375000  -4.620159e+001  -1.615377e+002 
3012500000  -4.490830e+001  -1.682861e+002 
3015625000  -4.487111e+001  -1.750016e+002 
3018750000  -4.542540e+001  -1.761700e+002 
3021875000  -4.384760e+001  -1.758811e+002 
3025000000  -4.254031e+001  1.792080e+002 
3028125000  -4.157222e+001  1.677973e+002 
3031250000  -4.092848e+001  1.538379e+002 
3034375000  -4.069836e+001  1.393027e+002 
3037500000  -4.151152e+001  1.305730e+002 
3040625000  -4.283509e+001  1.250834e+002 
3043750000  -4.329961e+001  1.157067e+002 
3046875000  -4.392501e+001  1.086761e+002 
3050000000  -4.515451e+001  1.051700e+002 
3053125000  -4.483961e+001  1.087979e+002 
3056250000  -4.450631e+001  1.111104e+002 
3059375000  -4.410087e+001  1.085265e+002 
3062500000  -4.266034e+001  1.026634e+002 
3065625000  -4.199091e+001  9.152709e+001 
3068750000  -4.183474e+001  8.237582e+001 
3071875000  -4.179015e+001  8.135630e+001 
3075000000  -4.116230e+001  7.244540e+001 
3078125000  -4.133244e+001  6.584392e+001 
3081250000  -4.134770e+001  5.883689e+001 
3084375000  -4.048775e+001  5.383908e+001 
3087500000  -4.040739e+001  4.603366e+001 
3090625000  -4.012859e+001  3.365344e+001 
3093750000  -4.105440e+001  2.451259e+001 
3096875000  -4.132405e+001  1.867118e+001 
3100000000  -4.118775e+001  1.522686e+001 
3103125000  -4.144381e+001  1.067142e+001 
3106250000  -4.094801e+001  3.341300e+000 
3109375000  -4.106616e+001  -1.683033e+000 
3112500000  -4.081137e+001  -9.719870e+000 
3115625000  -4.071925e+001  -1.366656e+001 
3118750000  -4.078716e+001  -1.833348e+001 
3121875000  -4.020129e+001  -3.013853e+001 
3125000000  -4.219322e+001  -3.385973e+001 
3128125000  -4.200334e+001  -2.949334e+001 
3131250000  -3.947422e+001  -3.638136e+001 
3134375000  -3.903151e+001  -5.430106e+001 
3137500000  -3.972878e+001  -6.702060e+001 
3140625000  -4.098192e+001  -7.263631e+001 
3143750000  -4.163194e+001  -7.498955e+001 
3146875000  -4.109849e+001  -7.497395e+001 
3150000000  -4.029641e+001  -8.050620e+001 
3153125000  -4.074062e+001  -8.910783e+001 
3156250000  -4.143369e+001  -8.775549e+001 
3159375000  -3.903454e+001  -8.903761e+001 
3162500000  -3.778278e+001  -1.057662e+002 
3165625000  -3.898410e+001  -1.205210e+002 
3168750000  -3.898314e+001  -1.217523e+002 
3171875000  -3.852087e+001  -1.307946e+002 
3175000000  -3.921458e+001  -1.403578e+002 
3178125000  -3.890001e+001  -1.422831e+002 
3181250000  -3.794981e+001  -1.517361e+002 
3184375000  -3.788729e+001  -1.639486e+002 
3187500000  -3.915866e+001  -1.797027e+002 
3190625000  -4.103545e+001  1.731436e+002 
3193750000  -4.125344e+001  1.766958e+002 
3196875000  -4.110300e+001  1.754698e+002 
3200000000  -3.996003e+001  1.712620e+002 
3203125000  -3.974253e+001  1.622696e+002 
3206250000  -3.999795e+001  1.552511e+002 
3209375000  -3.959428e+001  1.441146e+002 
3212500000  -3.997195e+001  1.375674e+002 
3215625000  -3.954001e+001  1.332487e+002 
3218750000  -4.055564e+001  1.220552e+002 
3221875000  -4.056863e+001  1.162537e+002 
3225000000  -4.046609e+001  1.107607e+002 
3228125000  -4.109900e+001  1.034269e+002 
3231250000  -4.155774e+001  1.003999e+002 
3234375000  -4.116062e+001  9.619201e+001 
3237500000  -4.110630e+001  9.251543e+001 
3240625000  -4.046325e+001  8.563312e+001 
3243750000  -4.057554e+001  7.371416e+001 
3246875000  -4.071006e+001  6.616893e+001 
3250000000  -4.132507e+001  6.141311e+001 
3253125000  -4.128848e+001  5.611940e+001 
3256250000  -4.058312e+001  4.669315e+001 
3259375000  -4.105003e+001  3.317963e+001 
3262500000  -4.253619e+001  2.802808e+001 
3265625000  -4.265609e+001  3.063190e+001 
3268750000  -4.241818e+001  2.754392e+001 
3271875000  -4.173981e+001  2.280331e+001 
3275000000  -4.102151e+001  1.185802e+001 
3278125000  -4.175993e+001  5.011681e+000 
3281250000  -4.166814e+001  1.552644e+000 
3284375000  -4.116852e+001  -6.277946e+000 
3287500000  -4.179377e+001  -1.315458e+001 
3290625000  -4.161294e+001  -2.374803e+001 
3293750000  -4.170084e+001  -3.112309e+001 
3296875000  -4.275728e+001  -3.592664e+001 
3300000000  -4.206110e+001  -3.920273e+001 
3303125000  -4.121028e+001  -4.829283e+001 
3306250000  -4.099873e+001  -5.894780e+001 
3309375000  -4.085581e+001  -6.930839e+001 
3312500000  -4.127880e+001  -8.483512e+001 
3315625000  -4.258317e+001  -9.254367e+001 
3318750000  -4.405434e+001  -1.001294e+002 
3321875000  -4.536162e+001  -9.748972e+001 
3325000000  -4.550798e+001  -9.555444e+001 
3328125000  -4.451477e+001  -9.457076e+001 
3331250000  -4.249770e+001  -9.712141e+001 
3334375000  -4.032037e+001  -1.152535e+002 
3337500000  -4.095039e+001  -1.386133e+002 
3340625000  -4.303627e+001  -1.497306e+002 
3343750000  -4.462898e+001  -1.526147e+002 
3346875000  -4.413366e+001  -1.548139e+002 
3350000000  -4.397895e+001  -1.601225e+002 
3353125000  -4.381234e+001  -1.696432e+002 
3356250000  -4.330048e+001  -1.789784e+002 
3359375000  -4.458527e+001  1.666338e+002 
3362500000  -4.512911e+001  1.597194e+002 
3365625000  -4.599417e+001  1.556833e+002 
3368750000  -4.663829e+001  1.468929e+002 
3371875000  -4.733857e+001  1.415431e+002 
3375000000  -4.867086e+001  1.345171e+002 
3378125000  -4.899470e+001  1.329969e+002 
3381250000  -5.146192e+001  1.444637e+002 
3384375000  -4.750752e+001  1.514624e+002 
3387500000  -4.455577e+001  1.327661e+002 
3390625000  -4.693474e+001  1.060574e+002 
3393750000  -4.788707e+001  1.088489e+002 
3396875000  -4.662394e+001  1.012776e+002 
3400000000  -4.674992e+001  8.531287e+001 
3403125000  -4.706852e+001  8.122501e+001 
3406250000  -4.737379e+001  7.403725e+001 
3409375000  -4.738859e+001  6.340918e+001 
3412500000  -4.777725e+001  5.532751e+001 
3415625000  -4.880354e+001  5.168346e+001 
3418750000  -4.885598e+001  4.305758e+001 
3421875000  -4.870896e+001  4.343861e+001 
3425000000  -4.787522e+001  3.506707e+001 
3428125000  -4.697861e+001  2.842953e+001 
3431250000  -4.690847e+001  1.511138e+001 
3434375000  -4.644895e+001  3.439889e+000 
3437500000  -4.776790e+001  -5.101615e+000 
3440625000  -4.790611e+001  -8.713683e+000 
3443750000  -4.667570e+001  -1.198023e+001 
3446875000  -4.624777e+001  -2.667475e+001 
3450000000  -4.545687e+001  -4.256395e+001 
3453125000  -4.615327e+001  -5.928214e+001 
3456250000  -4.733857e+001  -6.870515e+001 
3459375000  -4.806216e+001  -7.148822e+001 
3462500000  -4.797575e+001  -7.623550e+001 
3465625000  -4.720807e+001  -8.598494e+001 
3468750000  -4.742820e+001  -9.215535e+001 
3471875000  -4.677106e+001  -1.015985e+002 
3475000000  -4.707697e+001  -1.138772e+002 
3478125000  -4.777790e+001  -1.284718e+002 
3481250000  -4.877650e+001  -1.317930e+002 
3484375000  -4.895434e+001  -1.322679e+002 
3487500000  -4.740749e+001  -1.402910e+002 
3490625000  -4.735006e+001  -1.540007e+002 
3493750000  -4.768963e+001  -1.625361e+002 
3496875000  -4.784896e+001  -1.656405e+002 
3500000000  -4.825555e+001  -1.724070e+002 
3503125000  -4.734827e+001  -1.746733e+002 
3506250000  -4.543306e+001  1.751312e+002 
3509375000  -4.552737e+001  1.529135e+002 
3512500000  -4.604452e+001  1.388103e+002 
3515625000  -4.743818e+001  1.342348e+002 
3518750000  -4.796810e+001  1.333155e+002 
3521875000  -4.822857e+001  1.246413e+002 
3525000000  -4.824781e+001  1.191266e+002 
3528125000  -4.794917e+001  1.180188e+002 
3531250000  -4.661514e+001  1.060938e+002 
3534375000  -4.671975e+001  9.251711e+001 
3537500000  -4.796755e+001  8.264275e+001 
3540625000  -4.886898e+001  8.000710e+001 
3543750000  -4.924762e+001  8.546830e+001 
3546875000  -4.855500e+001  8.800111e+001 
3550000000  -4.656388e+001  7.617820e+001 
3553125000  -4.568541e+001  5.731152e+001 
3556250000  -4.726372e+001  4.881056e+001 
3559375000  -4.631193e+001  4.546017e+001 
3562500000  -4.650859e+001  3.474822e+001 
3565625000  -4.693650e+001  2.741004e+001 
3568750000  -4.792355e+001  2.753114e+001 
3571875000  -4.733432e+001  2.194396e+001 
3575000000  -4.725989e+001  1.336565e+001 
3578125000  -4.732998e+001  1.205192e+001 
3581250000  -4.798646e+001  8.991037e+000 
3584375000  -4.632862e+001  1.195098e-001 
3587500000  -4.574528e+001  -1.336290e+001 
3590625000  -4.692610e+001  -2.021383e+001 
3593750000  -4.807717e+001  -2.736309e+001 
3596875000  -4.621964e+001  -1.856317e+001 
3600000000  -4.486533e+001  -2.985365e+001 
3603125000  -4.515232e+001  -4.501573e+001 
3606250000  -4.571860e+001  -4.923664e+001 
3609375000  -4.623262e+001  -5.306958e+001 
3612500000  -4.614351e+001  -6.090754e+001 
3615625000  -4.628405e+001  -6.597795e+001 
3618750000  -4.564527e+001  -6.940904e+001 
3621875000  -4.564025e+001  -7.373438e+001 
3625000000  -4.590572e+001  -7.878289e+001 
3628125000  -4.511161e+001  -8.554333e+001 
3631250000  -4.480541e+001  -9.487460e+001 
3634375000  -4.576398e+001  -9.595081e+001 
3637500000  -4.463507e+001  -9.771347e+001 
3640625000  -4.395940e+001  -1.028866e+002 
3643750000  -4.325038e+001  -1.155879e+002 
3646875000  -4.369956e+001  -1.282944e+002 
3650000000  -4.389548e+001  -1.322055e+002 
3653125000  -4.325589e+001  -1.396351e+002 
3656250000  -4.394138e+001  -1.442735e+002 
3659375000  -4.407802e+001  -1.499270e+002 
3662500000  -4.336525e+001  -1.555511e+002 
3665625000  -4.333377e+001  -1.613349e+002 
3668750000  -4.197911e+001  -1.670584e+002 
3671875000  -4.139960e+001  -1.794781e+002 
3675000000  -4.211436e+001  1.706751e+002 
3678125000  -4.258973e+001  1.647250e+002 
3681250000  -4.271819e+001  1.601377e+002 
3684375000  -4.279256e+001  1.500522e+002 
3687500000  -4.307250e+001  1.436030e+002 
3690625000  -4.368390e+001  1.373876e+002 
3693750000  -4.449824e+001  1.361375e+002 
3696875000  -4.370174e+001  1.319249e+002 
3700000000  -4.304334e+001  1.228983e+002 
3703125000  -4.348585e+001  1.168967e+002 
3706250000  -4.438778e+001  1.155960e+002 
3709375000  -4.406580e+001  1.135709e+002 
3712500000  -4.344305e+001  1.095396e+002 
3715625000  -4.183022e+001  1.007620e+002 
3718750000  -4.176128e+001  9.110172e+001 
3721875000  -4.180956e+001  7.984566e+001 
3725000000  -4.239764e+001  7.435478e+001 
3728125000  -4.272628e+001  6.865240e+001 
3731250000  -4.207381e+001  6.346281e+001 
3734375000  -4.219469e+001  5.425678e+001 
3737500000  -4.290377e+001  4.679244e+001 
3740625000  -4.335683e+001  3.965109e+001 
3743750000  -4.264060e+001  3.415474e+001 
3746875000  -4.363335e+001  2.711564e+001 
3750000000  -4.362851e+001  2.361351e+001 
3753125000  -4.394530e+001  1.953804e+001 
3756250000  -4.369429e+001  1.851077e+001 
3759375000  -4.365350e+001  1.251070e+001 
3762500000  -4.331566e+001  5.983202e+000 
3765625000  -4.426169e+001  1.145516e+000 
3768750000  -4.361133e+001  3.614808e+000 
3771875000  -4.218775e+001  -5.234818e+000 
3775000000  -4.194199e+001  -1.648490e+001 
3778125000  -4.249847e+001  -2.365479e+001 
3781250000  -4.262298e+001  -2.927344e+001 
3784375000  -4.250660e+001  -3.187423e+001 
3787500000  -4.240783e+001  -3.883308e+001 
3790625000  -4.258332e+001  -4.706201e+001 
3793750000  -4.255181e+001  -5.190233e+001 
3796875000  -4.172504e+001  -5.461616e+001 
3800000000  -4.073251e+001  -6.177007e+001 
3803125000  -4.159556e+001  -7.673930e+001 
3806250000  -4.259259e+001  -7.893340e+001 
3809375000  -4.186159e+001  -8.605516e+001 
3812500000  -4.195916e+001  -9.755001e+001 
3815625000  -4.301063e+001  -1.070133e+002 
3818750000  -4.449440e+001  -1.062293e+002 
3821875000  -4.357566e+001  -9.232557e+001 
3825000000  -4.127496e+001  -1.005534e+002 
3828125000  -4.047854e+001  -1.242092e+002 
3831250000  -4.143332e+001  -1.389689e+002 
3834375000  -4.402444e+001  -1.390500e+002 
3837500000  -4.433463e+001  -1.344345e+002 
3840625000  -4.242920e+001  -1.415989e+002 
3843750000  -4.186769e+001  -1.554472e+002 
3846875000  -4.366578e+001  -1.627599e+002 
3850000000  -4.406807e+001  -1.599733e+002 
3853125000  -4.375831e+001  -1.603947e+002 
3856250000  -4.288118e+001  -1.659978e+002 
3859375000  -4.271445e+001  -1.761237e+002 
3862500000  -4.210954e+001  1.736238e+002 
3865625000  -4.259991e+001  1.671139e+002 
3868750000  -4.220216e+001  1.660500e+002 
3871875000  -4.176875e+001  1.558143e+002 
3875000000  -4.255252e+001  1.461020e+002 
3878125000  -4.347002e+001  1.412457e+002 
3881250000  -4.346759e+001  1.406773e+002 
3884375000  -4.287169e+001  1.312130e+002 
3887500000  -4.333961e+001  1.254295e+002 
3890625000  -4.368499e+001  1.196884e+002 
3893750000  -4.416592e+001  1.190998e+002 
3896875000  -4.444848e+001  1.150272e+002 
3900000000  -4.423051e+001  1.073103e+002 
3903125000  -4.429981e+001  1.054605e+002 
3906250000  -4.361356e+001  1.016101e+002 
3909375000  -4.288928e+001  9.152811e+001 
3912500000  -4.408969e+001  8.325740e+001 
3915625000  -4.438993e+001  8.467207e+001 
3918750000  -4.437815e+001  8.156358e+001 
3921875000  -4.402729e+001  7.727213e+001 
3925000000  -4.290008e+001  7.013703e+001 
3928125000  -4.296164e+001  6.089553e+001 
3931250000  -4.414756e+001  5.034626e+001 
3934375000  -4.458175e+001  5.201479e+001 
3937500000  -4.472717e+001  4.772965e+001 
3940625000  -4.466531e+001  4.690032e+001 
3943750000  -4.346354e+001  3.971741e+001 
3946875000  -4.240629e+001  3.163626e+001 
3950000000  -4.402301e+001  2.345635e+001 
3953125000  -4.489878e+001  2.365656e+001 
3956250000  -4.292295e+001  2.275488e+001 
3959375000  -4.186001e+001  1.977460e+001 
3962500000  -4.186073e+001  5.855546e+000 
3965625000  -4.213952e+001  -4.338993e+000 
3968750000  -4.233862e+001  -1.330944e+001 
3971875000  -4.260563e+001  -1.725587e+001 
3975000000  -4.220514e+001  -2.118769e+001 
3978125000  -4.213990e+001  -2.941804e+001 
3981250000  -4.184590e+001  -3.522363e+001 
3984375000  -4.256790e+001  -4.464219e+001 
3987500000  -4.333653e+001  -4.797622e+001 
3990625000  -4.306794e+001  -5.085490e+001 
3993750000  -4.305183e+001  -5.672897e+001 
3996875000  -4.301337e+001  -6.612717e+001 
4000000000  -4.413975e+001  -6.592260e+001 
4003125000  -4.436180e+001  -6.851939e+001 
4006250000  -4.186440e+001  -7.492814e+001 
4009375000  -4.143405e+001  -9.281618e+001 
4012500000  -4.310609e+001  -9.934069e+001 
4015625000  -4.416121e+001  -1.014615e+002 
4018750000  -4.417722e+001  -1.047823e+002 
4021875000  -4.321450e+001  -1.089531e+002 
4025000000  -4.313170e+001  -1.182904e+002 
4028125000  -4.322400e+001  -1.278095e+002 
4031250000  -4.423323e+001  -1.333722e+002 
4034375000  -4.425909e+001  -1.337028e+002 
4037500000  -4.428959e+001  -1.387197e+002 
4040625000  -4.427666e+001  -1.432566e+002 
4043750000  -4.484646e+001  -1.474691e+002 
4046875000  -4.433750e+001  -1.544978e+002 
4050000000  -4.408884e+001  -1.581058e+002 
4053125000  -4.533539e+001  -1.641549e+002 
4056250000  -4.594050e+001  -1.596466e+002 
4059375000  -4.386137e+001  -1.621668e+002 
4062500000  -4.362689e+001  -1.736805e+002 
4065625000  -4.396779e+001  -1.785951e+002 
4068750000  -4.329508e+001  1.727574e+002 
4071875000  -4.261988e+001  1.629866e+002 
4075000000  -4.392816e+001  1.594359e+002 
4078125000  -4.437391e+001  1.545292e+002 
4081250000  -4.359116e+001  1.491055e+002 
4084375000  -4.366713e+001  1.412123e+002 
4087500000  -4.383454e+001  1.332635e+002 
4090625000  -4.479134e+001  1.312859e+002 
4093750000  -4.478901e+001  1.282245e+002 
4096875000  -4.420380e+001  1.218811e+002 
4100000000  -4.532222e+001  1.126963e+002 
4103125000  -4.621272e+001  1.161088e+002 
4106250000  -4.577061e+001  1.170319e+002 
4109375000  -4.461269e+001  1.143380e+002 
4112500000  -4.385139e+001  1.061704e+002 
4115625000  -4.435543e+001  9.846117e+001 
4118750000  -4.452266e+001  9.463649e+001 
4121875000  -4.399245e+001  8.688582e+001 
4125000000  -4.473014e+001  7.907288e+001 
4128125000  -4.573919e+001  8.311820e+001 
4131250000  -4.372646e+001  8.724047e+001 
4134375000  -4.226276e+001  7.327553e+001 
4137500000  -4.259363e+001  5.161612e+001 
4140625000  -4.397716e+001  4.726521e+001 
4143750000  -4.490628e+001  5.165139e+001 
4146875000  -4.417494e+001  5.326897e+001 
4150000000  -4.336561e+001  4.158070e+001 
4153125000  -4.369343e+001  3.473980e+001 
4156250000  -4.408412e+001  3.298392e+001 
4159375000  -4.421917e+001  3.505944e+001 
4162500000  -4.271319e+001  3.055106e+001 
4165625000  -4.178621e+001  1.977356e+001 
4168750000  -4.127685e+001  1.028006e+001 
4171875000  -4.146101e+001  3.519197e-001 
4175000000  -4.234546e+001  -1.129546e+001 
4178125000  -4.278659e+001  -1.411968e+001 
4181250000  -4.233676e+001  -1.762308e+001 
4184375000  -4.289401e+001  -2.446936e+001 
4187500000  -4.291854e+001  -3.438899e+001 
4190625000  -4.311458e+001  -4.001993e+001 
4193750000  -4.401176e+001  -4.922680e+001 
4196875000  -4.452465e+001  -5.285368e+001 
4200000000  -4.606509e+001  -4.425932e+001 
4203125000  -4.458087e+001  -3.237045e+001 
4206250000  -4.132684e+001  -4.703764e+001 
4209375000  -4.174815e+001  -7.038086e+001 
4212500000  -4.468531e+001  -7.865151e+001 
4215625000  -4.440804e+001  -7.080280e+001 
4218750000  -4.318314e+001  -7.015085e+001 
4221875000  -4.136415e+001  -7.984461e+001 
4225000000  -4.251771e+001  -8.890665e+001 
4228125000  -4.283946e+001  -8.782536e+001 
4231250000  -4.120910e+001  -9.729368e+001 
4234375000  -4.143610e+001  -1.112071e+002 
4237500000  -4.115498e+001  -1.155056e+002 
4240625000  -4.122442e+001  -1.285235e+002 
4243750000  -4.274867e+001  -1.361831e+002 
4246875000  -4.339307e+001  -1.341751e+002 
4250000000  -4.322420e+001  -1.344523e+002 
4253125000  -4.305954e+001  -1.391155e+002 
4256250000  -4.294094e+001  -1.451942e+002 
4259375000  -4.243409e+001  -1.479128e+002 
4262500000  -4.306495e+001  -1.558251e+002 
4265625000  -4.245058e+001  -1.567278e+002 
4268750000  -4.132886e+001  -1.672898e+002 
4271875000  -4.130222e+001  -1.747987e+002 
4275000000  -4.118078e+001  1.785140e+002 
4278125000  -4.202103e+001  1.645256e+002 
4281250000  -4.304315e+001  1.597261e+002 
4284375000  -4.321101e+001  1.569020e+002 
4287500000  -4.412689e+001  1.580848e+002 
4290625000  -4.440734e+001  1.596229e+002 
4293750000  -4.188379e+001  1.589820e+002 
4296875000  -4.074274e+001  1.465167e+002 
4300000000  -4.176242e+001  1.343818e+002 
4303125000  -4.226606e+001  1.384652e+002 
4306250000  -4.112495e+001  1.338632e+002 
4309375000  -4.016381e+001  1.271325e+002 
4312500000  -4.015894e+001  1.119686e+002 
4315625000  -4.053780e+001  1.042432e+002 
4318750000  -4.126999e+001  9.835744e+001 
4321875000  -4.108499e+001  9.477423e+001 
4325000000  -4.068803e+001  9.264070e+001 
4328125000  -3.982561e+001  8.007963e+001 
4331250000  -4.017236e+001  7.082865e+001 
4334375000  -4.135265e+001  6.121899e+001 
4337500000  -4.208640e+001  5.892841e+001 
4340625000  -4.254095e+001  5.887264e+001 
4343750000  -4.131814e+001  5.721836e+001 
4346875000  -4.154934e+001  4.649591e+001 
4350000000  -4.156251e+001  3.791764e+001 
4353125000  -4.267402e+001  2.749421e+001 
4356250000  -4.422130e+001  3.332710e+001 
4359375000  -4.311201e+001  4.534593e+001 
4362500000  -3.986123e+001  3.620322e+001 
4365625000  -3.967429e+001  1.606439e+001 
4368750000  -4.047754e+001  7.075786e+000 
4371875000  -4.202310e+001  2.518898e+000 
4375000000  -4.136987e+001  -1.197621e+000 
4378125000  -4.086786e+001  -1.210347e+001 
4381250000  -4.129057e+001  -1.752654e+001 
4384375000  -4.127945e+001  -2.510380e+001 
4387500000  -4.234386e+001  -3.270930e+001 
4390625000  -4.320028e+001  -3.595478e+001 
4393750000  -4.238346e+001  -3.521246e+001 
4396875000  -4.176171e+001  -3.806759e+001 
4400000000  -4.141100e+001  -5.089225e+001 
4403125000  -4.204259e+001  -6.001678e+001 
4406250000  -4.270456e+001  -6.180334e+001 
4409375000  -4.327833e+001  -6.795396e+001 
4412500000  -4.417333e+001  -6.980252e+001 
4415625000  -4.385758e+001  -6.926640e+001 
4418750000  -4.193384e+001  -7.021042e+001 
