!Agilent Technologies,E8363B,MY43030201,A.06.04.32
!Agilent E8363B: A.06.04.32
!Date: Tuesday, November 11, 2014 21:51:46
!Correction: S21(Response(S21)) 
!S1P File: Measurement: S21:
# Hz S  dB   R 50
3000000000  -4.357564e+001  -1.624330e+002 
3003125000  -4.522242e+001  -1.678318e+002 
3006250000  -4.523666e+001  -1.685152e+002 
3009375000  -4.602994e+001  -1.658804e+002 
3012500000  -4.485076e+001  -1.722141e+002 
3015625000  -4.478174e+001  -1.779708e+002 
3018750000  -4.509644e+001  -1.784078e+002 
3021875000  -4.395972e+001  -1.793792e+002 
3025000000  -4.247783e+001  1.780327e+002 
3028125000  -4.156213e+001  1.626399e+002 
3031250000  -4.090454e+001  1.507123e+002 
3034375000  -4.075092e+001  1.362153e+002 
3037500000  -4.174864e+001  1.254548e+002 
3040625000  -4.311158e+001  1.190799e+002 
3043750000  -4.329431e+001  1.133204e+002 
3046875000  -4.449048e+001  1.043883e+002 
3050000000  -4.550468e+001  1.013865e+002 
3053125000  -4.501394e+001  1.040211e+002 
3056250000  -4.506609e+001  1.058115e+002 
3059375000  -4.401860e+001  1.048524e+002 
3062500000  -4.249763e+001  9.811328e+001 
3065625000  -4.218375e+001  8.847121e+001 
3068750000  -4.183218e+001  7.959079e+001 
3071875000  -4.197110e+001  7.687424e+001 
3075000000  -4.133959e+001  7.016716e+001 
3078125000  -4.119657e+001  6.283296e+001 
3081250000  -4.118503e+001  5.636975e+001 
3084375000  -4.057966e+001  5.016973e+001 
3087500000  -4.053422e+001  4.149602e+001 
3090625000  -3.993601e+001  3.009906e+001 
3093750000  -4.111248e+001  1.881783e+001 
3096875000  -4.116711e+001  1.552103e+001 
3100000000  -4.127630e+001  1.034427e+001 
3103125000  -4.136380e+001  5.416034e+000 
3106250000  -4.097950e+001  9.617285e-001 
3109375000  -4.104224e+001  -4.885370e+000 
3112500000  -4.084713e+001  -1.348235e+001 
3115625000  -4.076525e+001  -1.733636e+001 
3118750000  -4.068878e+001  -2.184835e+001 
3121875000  -4.026078e+001  -3.401309e+001 
3125000000  -4.202937e+001  -3.824803e+001 
3128125000  -4.198168e+001  -3.209552e+001 
3131250000  -3.948587e+001  -4.037302e+001 
3134375000  -3.883687e+001  -5.858765e+001 
3137500000  -3.964108e+001  -7.171693e+001 
3140625000  -4.099163e+001  -7.495470e+001 
3143750000  -4.167040e+001  -7.869744e+001 
3146875000  -4.091109e+001  -7.844429e+001 
3150000000  -4.056856e+001  -8.319413e+001 
3153125000  -4.087984e+001  -9.344989e+001 
3156250000  -4.147068e+001  -9.040042e+001 
3159375000  -3.929019e+001  -9.398347e+001 
3162500000  -3.759449e+001  -1.089389e+002 
3165625000  -3.900876e+001  -1.226995e+002 
3168750000  -3.895646e+001  -1.246217e+002 
3171875000  -3.854513e+001  -1.339246e+002 
3175000000  -3.901425e+001  -1.451877e+002 
3178125000  -3.874314e+001  -1.460313e+002 
3181250000  -3.821058e+001  -1.548787e+002 
3184375000  -3.783175e+001  -1.686910e+002 
3187500000  -3.905838e+001  1.755289e+002 
3190625000  -4.081598e+001  1.675899e+002 
3193750000  -4.108619e+001  1.735356e+002 
3196875000  -4.108921e+001  1.730327e+002 
3200000000  -3.972897e+001  1.673534e+002 
3203125000  -3.962280e+001  1.592084e+002 
3206250000  -3.989012e+001  1.503190e+002 
3209375000  -3.941680e+001  1.423956e+002 
3212500000  -3.989364e+001  1.336303e+002 
3215625000  -3.967546e+001  1.323123e+002 
3218750000  -4.045724e+001  1.199553e+002 
3221875000  -4.066579e+001  1.123525e+002 
3225000000  -4.058907e+001  1.074736e+002 
3228125000  -4.098274e+001  9.890069e+001 
3231250000  -4.149322e+001  9.648233e+001 
3234375000  -4.104428e+001  9.204733e+001 
3237500000  -4.100614e+001  8.724849e+001 
3240625000  -4.018135e+001  8.149255e+001 
3243750000  -4.029554e+001  7.061804e+001 
3246875000  -4.080526e+001  6.310415e+001 
3250000000  -4.093243e+001  5.783856e+001 
3253125000  -4.115876e+001  5.264847e+001 
3256250000  -4.032161e+001  4.288975e+001 
3259375000  -4.095575e+001  3.049973e+001 
3262500000  -4.251086e+001  2.538521e+001 
3265625000  -4.275987e+001  2.710457e+001 
3268750000  -4.249020e+001  2.435306e+001 
3271875000  -4.157509e+001  2.086930e+001 
3275000000  -4.121475e+001  8.224089e+000 
3278125000  -4.184018e+001  2.581922e+000 
3281250000  -4.160860e+001  -1.677418e+000 
3284375000  -4.113488e+001  -1.029699e+001 
3287500000  -4.136413e+001  -1.761716e+001 
3290625000  -4.164828e+001  -2.761828e+001 
3293750000  -4.148264e+001  -3.577431e+001 
3296875000  -4.256942e+001  -3.820409e+001 
3300000000  -4.194683e+001  -3.968671e+001 
3303125000  -4.090871e+001  -4.976220e+001 
3306250000  -4.079343e+001  -6.084119e+001 
3309375000  -4.052930e+001  -7.097794e+001 
3312500000  -4.105006e+001  -8.781594e+001 
3315625000  -4.265702e+001  -9.614400e+001 
3318750000  -4.391282e+001  -1.020191e+002 
3321875000  -4.518314e+001  -9.984839e+001 
3325000000  -4.525896e+001  -9.615314e+001 
3328125000  -4.415807e+001  -9.809641e+001 
3331250000  -4.243712e+001  -1.000145e+002 
3334375000  -3.976497e+001  -1.181422e+002 
3337500000  -4.076372e+001  -1.428000e+002 
3340625000  -4.288610e+001  -1.516131e+002 
3343750000  -4.444830e+001  -1.525294e+002 
3346875000  -4.415718e+001  -1.561555e+002 
3350000000  -4.351313e+001  -1.631701e+002 
3353125000  -4.355173e+001  -1.713752e+002 
3356250000  -4.316932e+001  1.777519e+002 
3359375000  -4.416953e+001  1.639406e+002 
3362500000  -4.506092e+001  1.573286e+002 
3365625000  -4.543671e+001  1.518726e+002 
3368750000  -4.623991e+001  1.444643e+002 
3371875000  -4.670928e+001  1.389837e+002 
3375000000  -4.853298e+001  1.323604e+002 
3378125000  -4.904710e+001  1.303031e+002 
3381250000  -5.056321e+001  1.422789e+002 
3384375000  -4.695238e+001  1.487156e+002 
3387500000  -4.470478e+001  1.237850e+002 
3390625000  -4.709575e+001  1.056546e+002 
3393750000  -4.786904e+001  1.028682e+002 
3396875000  -4.620553e+001  9.945189e+001 
3400000000  -4.616740e+001  8.482618e+001 
3403125000  -4.693446e+001  7.943868e+001 
3406250000  -4.737691e+001  7.093574e+001 
3409375000  -4.662888e+001  6.092478e+001 
3412500000  -4.810233e+001  5.294805e+001 
3415625000  -4.910350e+001  4.615173e+001 
3418750000  -4.856498e+001  4.154951e+001 
3421875000  -4.876553e+001  3.797501e+001 
3425000000  -4.800224e+001  3.616547e+001 
3428125000  -4.730761e+001  2.750768e+001 
3431250000  -4.677625e+001  1.401314e+001 
3434375000  -4.694413e+001  3.631868e+000 
3437500000  -4.785192e+001  -3.900319e+000 
3440625000  -4.814814e+001  -8.252229e+000 
3443750000  -4.682201e+001  -1.431781e+001 
3446875000  -4.610304e+001  -2.935757e+001 
3450000000  -4.510973e+001  -4.055137e+001 
3453125000  -4.543235e+001  -6.149540e+001 
3456250000  -4.722173e+001  -6.996470e+001 
3459375000  -4.776023e+001  -7.164088e+001 
3462500000  -4.820349e+001  -7.512580e+001 
3465625000  -4.715321e+001  -8.901876e+001 
3468750000  -4.788835e+001  -9.746474e+001 
3471875000  -4.685090e+001  -1.083969e+002 
3475000000  -4.680045e+001  -1.180664e+002 
3478125000  -4.753382e+001  -1.291951e+002 
3481250000  -4.916392e+001  -1.345035e+002 
3484375000  -4.831326e+001  -1.333890e+002 
3487500000  -4.775956e+001  -1.429910e+002 
3490625000  -4.726596e+001  -1.533601e+002 
3493750000  -4.773022e+001  -1.670513e+002 
3496875000  -4.832566e+001  -1.694829e+002 
3500000000  -4.825963e+001  -1.738585e+002 
3503125000  -4.725502e+001  -1.762168e+002 
3506250000  -4.556798e+001  1.698720e+002 
3509375000  -4.559026e+001  1.503273e+002 
3512500000  -4.635567e+001  1.367010e+002 
3515625000  -4.768344e+001  1.317394e+002 
3518750000  -4.787599e+001  1.291802e+002 
3521875000  -4.779836e+001  1.172803e+002 
3525000000  -4.869366e+001  1.108394e+002 
3528125000  -4.775877e+001  1.161308e+002 
3531250000  -4.672091e+001  1.032112e+002 
3534375000  -4.746460e+001  8.664703e+001 
3537500000  -4.778398e+001  7.960189e+001 
3540625000  -4.915591e+001  7.700095e+001 
3543750000  -4.916397e+001  7.736479e+001 
3546875000  -4.865445e+001  8.719492e+001 
3550000000  -4.671002e+001  7.181414e+001 
3553125000  -4.599968e+001  5.328416e+001 
3556250000  -4.734725e+001  4.471264e+001 
3559375000  -4.626012e+001  4.366262e+001 
3562500000  -4.674190e+001  2.880239e+001 
3565625000  -4.793116e+001  2.587585e+001 
3568750000  -4.781179e+001  2.772795e+001 
3571875000  -4.752083e+001  1.500467e+001 
3575000000  -4.699464e+001  1.222763e+001 
3578125000  -4.799995e+001  9.603922e+000 
3581250000  -4.798650e+001  -1.875678e+000 
3584375000  -4.604389e+001  -4.831007e+000 
3587500000  -4.576053e+001  -1.672053e+001 
3590625000  -4.683571e+001  -2.897178e+001 
3593750000  -4.777379e+001  -2.703786e+001 
3596875000  -4.669386e+001  -2.233052e+001 
3600000000  -4.468140e+001  -3.400408e+001 
3603125000  -4.519245e+001  -5.100748e+001 
3606250000  -4.582466e+001  -5.401434e+001 
3609375000  -4.641131e+001  -5.933825e+001 
3612500000  -4.630570e+001  -6.717976e+001 
3615625000  -4.641716e+001  -6.930691e+001 
3618750000  -4.645272e+001  -7.253852e+001 
3621875000  -4.545204e+001  -7.860824e+001 
3625000000  -4.561364e+001  -8.402750e+001 
3628125000  -4.483117e+001  -8.990024e+001 
3631250000  -4.510695e+001  -9.631464e+001 
3634375000  -4.566724e+001  -1.006859e+002 
3637500000  -4.433078e+001  -1.013518e+002 
3640625000  -4.380555e+001  -1.087737e+002 
3643750000  -4.323918e+001  -1.218877e+002 
3646875000  -4.377971e+001  -1.307099e+002 
3650000000  -4.355326e+001  -1.355438e+002 
3653125000  -4.313015e+001  -1.439045e+002 
3656250000  -4.462115e+001  -1.503806e+002 
3659375000  -4.362804e+001  -1.552143e+002 
3662500000  -4.321454e+001  -1.617078e+002 
3665625000  -4.361195e+001  -1.647094e+002 
3668750000  -4.186849e+001  -1.703829e+002 
3671875000  -4.134966e+001  1.752264e+002 
3675000000  -4.211755e+001  1.658660e+002 
3678125000  -4.271047e+001  1.625915e+002 
3681250000  -4.251827e+001  1.550382e+002 
3684375000  -4.266030e+001  1.475999e+002 
3687500000  -4.271700e+001  1.393900e+002 
3690625000  -4.363188e+001  1.325914e+002 
3693750000  -4.468673e+001  1.307844e+002 
3696875000  -4.360447e+001  1.297263e+002 
3700000000  -4.321619e+001  1.191318e+002 
3703125000  -4.346066e+001  1.104465e+002 
3706250000  -4.462165e+001  1.100162e+002 
3709375000  -4.382230e+001  1.103090e+002 
3712500000  -4.301540e+001  1.019029e+002 
3715625000  -4.154229e+001  9.389590e+001 
3718750000  -4.151863e+001  8.318536e+001 
3721875000  -4.160732e+001  7.580035e+001 
3725000000  -4.233373e+001  6.669608e+001 
3728125000  -4.249061e+001  6.396079e+001 
3731250000  -4.186794e+001  5.743415e+001 
3734375000  -4.196827e+001  4.884552e+001 
3737500000  -4.273361e+001  4.078171e+001 
3740625000  -4.285913e+001  3.596001e+001 
3743750000  -4.291685e+001  2.979740e+001 
3746875000  -4.312434e+001  1.990723e+001 
3750000000  -4.339756e+001  1.941473e+001 
3753125000  -4.367097e+001  1.497529e+001 
3756250000  -4.364489e+001  1.320833e+001 
3759375000  -4.378623e+001  8.239962e+000 
3762500000  -4.325191e+001  2.341286e+000 
3765625000  -4.437139e+001  -3.810041e+000 
3768750000  -4.330799e+001  -2.505328e+000 
3771875000  -4.199453e+001  -1.011585e+001 
3775000000  -4.191943e+001  -1.967441e+001 
3778125000  -4.283187e+001  -2.620595e+001 
3781250000  -4.255952e+001  -3.228114e+001 
3784375000  -4.225877e+001  -3.768010e+001 
3787500000  -4.223508e+001  -4.324370e+001 
3790625000  -4.277632e+001  -5.348468e+001 
3793750000  -4.242110e+001  -5.753579e+001 
3796875000  -4.159773e+001  -6.170671e+001 
3800000000  -4.074105e+001  -7.004353e+001 
3803125000  -4.155512e+001  -8.091926e+001 
3806250000  -4.260693e+001  -8.645757e+001 
3809375000  -4.208221e+001  -8.925491e+001 
3812500000  -4.167530e+001  -1.016923e+002 
3815625000  -4.308114e+001  -1.122515e+002 
3818750000  -4.439869e+001  -1.066889e+002 
3821875000  -4.355639e+001  -9.840995e+001 
3825000000  -4.168882e+001  -1.050943e+002 
3828125000  -4.030969e+001  -1.281428e+002 
3831250000  -4.179466e+001  -1.425074e+002 
3834375000  -4.372026e+001  -1.432926e+002 
3837500000  -4.406142e+001  -1.389510e+002 
3840625000  -4.256844e+001  -1.432039e+002 
3843750000  -4.187840e+001  -1.612908e+002 
3846875000  -4.334916e+001  -1.680936e+002 
3850000000  -4.442091e+001  -1.593084e+002 
3853125000  -4.340889e+001  -1.641822e+002 
3856250000  -4.314718e+001  -1.747057e+002 
3859375000  -4.214846e+001  1.787469e+002 
3862500000  -4.222576e+001  1.701703e+002 
3865625000  -4.268929e+001  1.635248e+002 
3868750000  -4.240753e+001  1.589283e+002 
3871875000  -4.173638e+001  1.518712e+002 
3875000000  -4.252113e+001  1.401421e+002 
3878125000  -4.313345e+001  1.379228e+002 
3881250000  -4.317335e+001  1.361286e+002 
3884375000  -4.262771e+001  1.263398e+002 
3887500000  -4.322349e+001  1.187171e+002 
3890625000  -4.354605e+001  1.162181e+002 
3893750000  -4.398425e+001  1.136814e+002 
3896875000  -4.420958e+001  1.093336e+002 
3900000000  -4.449893e+001  1.039726e+002 
3903125000  -4.358190e+001  1.012600e+002 
3906250000  -4.310442e+001  9.471429e+001 
3909375000  -4.252996e+001  8.727557e+001 
3912500000  -4.377719e+001  7.888033e+001 
3915625000  -4.495889e+001  7.773795e+001 
3918750000  -4.431701e+001  7.398678e+001 
3921875000  -4.364695e+001  7.252657e+001 
3925000000  -4.320903e+001  6.308818e+001 
3928125000  -4.261253e+001  5.533833e+001 
3931250000  -4.320865e+001  4.688304e+001 
3934375000  -4.378588e+001  4.540475e+001 
3937500000  -4.455795e+001  4.060799e+001 
3940625000  -4.459616e+001  4.062034e+001 
3943750000  -4.343602e+001  3.489119e+001 
3946875000  -4.287048e+001  2.689104e+001 
3950000000  -4.349254e+001  1.837376e+001 
3953125000  -4.439864e+001  1.679112e+001 
3956250000  -4.272900e+001  1.865806e+001 
3959375000  -4.189613e+001  1.131366e+001 
3962500000  -4.145867e+001  -6.038821e-001 
3965625000  -4.207106e+001  -9.638211e+000 
3968750000  -4.267007e+001  -1.898062e+001 
3971875000  -4.231799e+001  -2.325606e+001 
3975000000  -4.217631e+001  -2.729819e+001 
3978125000  -4.219674e+001  -3.527533e+001 
3981250000  -4.201133e+001  -4.156742e+001 
3984375000  -4.221497e+001  -5.184658e+001 
3987500000  -4.297573e+001  -5.262764e+001 
3990625000  -4.318206e+001  -5.770405e+001 
3993750000  -4.288726e+001  -6.547643e+001 
3996875000  -4.290874e+001  -7.136349e+001 
4000000000  -4.372062e+001  -7.420840e+001 
4003125000  -4.383611e+001  -7.401971e+001 
4006250000  -4.152641e+001  -7.888718e+001 
4009375000  -4.147290e+001  -9.660053e+001 
4012500000  -4.288236e+001  -1.052568e+002 
4015625000  -4.413453e+001  -1.062021e+002 
4018750000  -4.371821e+001  -1.096415e+002 
4021875000  -4.306843e+001  -1.168080e+002 
4025000000  -4.289553e+001  -1.229018e+002 
4028125000  -4.338282e+001  -1.320279e+002 
4031250000  -4.398773e+001  -1.378979e+002 
4034375000  -4.386942e+001  -1.412435e+002 
4037500000  -4.401426e+001  -1.429334e+002 
4040625000  -4.431196e+001  -1.470711e+002 
4043750000  -4.431343e+001  -1.517889e+002 
4046875000  -4.427127e+001  -1.564509e+002 
4050000000  -4.415916e+001  -1.677910e+002 
4053125000  -4.496018e+001  -1.692433e+002 
4056250000  -4.553394e+001  -1.651836e+002 
4059375000  -4.409147e+001  -1.692517e+002 
4062500000  -4.316530e+001  -1.778896e+002 
4065625000  -4.355685e+001  1.783032e+002 
4068750000  -4.284653e+001  1.702055e+002 
4071875000  -4.283215e+001  1.600374e+002 
4075000000  -4.343058e+001  1.530846e+002 
4078125000  -4.377300e+001  1.502825e+002 
4081250000  -4.383195e+001  1.433904e+002 
4084375000  -4.335173e+001  1.347106e+002 
4087500000  -4.412793e+001  1.282274e+002 
4090625000  -4.410607e+001  1.246805e+002 
4093750000  -4.410559e+001  1.213751e+002 
4096875000  -4.432396e+001  1.164505e+002 
4100000000  -4.542635e+001  1.092265e+002 
4103125000  -4.590078e+001  1.110860e+002 
4106250000  -4.520662e+001  1.138485e+002 
4109375000  -4.438950e+001  1.063131e+002 
4112500000  -4.411356e+001  9.932933e+001 
4115625000  -4.448541e+001  9.283129e+001 
4118750000  -4.394845e+001  8.593365e+001 
4121875000  -4.390356e+001  7.986948e+001 
4125000000  -4.479150e+001  7.491174e+001 
4128125000  -4.481138e+001  7.907355e+001 
4131250000  -4.357862e+001  8.100004e+001 
4134375000  -4.149136e+001  6.642210e+001 
4137500000  -4.182011e+001  4.656191e+001 
4140625000  -4.405004e+001  3.973032e+001 
4143750000  -4.450826e+001  4.569193e+001 
4146875000  -4.405244e+001  4.768094e+001 
4150000000  -4.243418e+001  3.802222e+001 
4153125000  -4.311705e+001  2.723711e+001 
4156250000  -4.427739e+001  2.335527e+001 
4159375000  -4.378471e+001  2.601422e+001 
4162500000  -4.258598e+001  2.469458e+001 
4165625000  -4.131192e+001  1.486417e+001 
4168750000  -4.113497e+001  3.771292e+000 
4171875000  -4.134113e+001  -8.765408e+000 
4175000000  -4.179229e+001  -1.737803e+001 
4178125000  -4.226670e+001  -1.965839e+001 
4181250000  -4.182634e+001  -2.749141e+001 
4184375000  -4.248352e+001  -3.310963e+001 
4187500000  -4.219976e+001  -3.941090e+001 
4190625000  -4.265167e+001  -4.889232e+001 
4193750000  -4.397614e+001  -5.443534e+001 
4196875000  -4.526912e+001  -5.532221e+001 
4200000000  -4.573272e+001  -5.132373e+001 
4203125000  -4.410052e+001  -4.154409e+001 
4206250000  -4.119284e+001  -5.118752e+001 
4209375000  -4.139011e+001  -7.333266e+001 
4212500000  -4.322632e+001  -8.029697e+001 
4215625000  -4.412891e+001  -7.688605e+001 
4218750000  -4.207178e+001  -7.635236e+001 
4221875000  -4.079942e+001  -8.780031e+001 
4225000000  -4.250923e+001  -9.815208e+001 
4228125000  -4.215877e+001  -9.828693e+001 
4231250000  -4.077534e+001  -1.069709e+002 
4234375000  -4.095193e+001  -1.156367e+002 
4237500000  -4.071643e+001  -1.207059e+002 
4240625000  -4.118655e+001  -1.317883e+002 
4243750000  -4.210001e+001  -1.416335e+002 
4246875000  -4.290459e+001  -1.393221e+002 
4250000000  -4.251587e+001  -1.437615e+002 
4253125000  -4.266736e+001  -1.454780e+002 
4256250000  -4.251474e+001  -1.497380e+002 
4259375000  -4.234284e+001  -1.583912e+002 
4262500000  -4.233801e+001  -1.623430e+002 
4265625000  -4.209206e+001  -1.639964e+002 
4268750000  -4.069701e+001  -1.724820e+002 
4271875000  -4.047430e+001  1.787827e+002 
4275000000  -3.992196e+001  1.712731e+002 
4278125000  -4.095695e+001  1.563222e+002 
4281250000  -4.217342e+001  1.515394e+002 
4284375000  -4.175924e+001  1.513331e+002 
4287500000  -4.383196e+001  1.455809e+002 
4290625000  -4.375220e+001  1.546425e+002 
4293750000  -4.129119e+001  1.534779e+002 
4296875000  -4.044382e+001  1.378412e+002 
4300000000  -4.151506e+001  1.278027e+002 
4303125000  -4.195527e+001  1.265971e+002 
4306250000  -4.061395e+001  1.265494e+002 
4309375000  -3.952710e+001  1.176176e+002 
4312500000  -3.951351e+001  1.051129e+002 
4315625000  -4.040633e+001  9.595772e+001 
4318750000  -4.089105e+001  9.175044e+001 
4321875000  -4.050903e+001  8.922014e+001 
4325000000  -4.014421e+001  8.344801e+001 
4328125000  -3.935595e+001  7.283694e+001 
4331250000  -3.984385e+001  6.215561e+001 
4334375000  -4.068569e+001  5.497044e+001 
4337500000  -4.186330e+001  5.175251e+001 
4340625000  -4.208891e+001  5.352253e+001 
4343750000  -4.081596e+001  5.206066e+001 
4346875000  -4.067060e+001  3.957561e+001 
4350000000  -4.104439e+001  2.876160e+001 
4353125000  -4.182895e+001  2.138986e+001 
4356250000  -4.350421e+001  2.517575e+001 
4359375000  -4.252977e+001  3.792662e+001 
4362500000  -3.898083e+001  2.726684e+001 
4365625000  -3.922792e+001  9.795660e+000 
4368750000  -4.044772e+001  -8.476187e-001 
4371875000  -4.135800e+001  -3.224400e+000 
4375000000  -4.084355e+001  -9.473922e+000 
4378125000  -4.048015e+001  -1.714951e+001 
4381250000  -4.067916e+001  -2.497448e+001 
4384375000  -4.047085e+001  -3.442206e+001 
4387500000  -4.130931e+001  -3.945612e+001 
4390625000  -4.195274e+001  -4.391022e+001 
4393750000  -4.176743e+001  -3.989616e+001 
4396875000  -4.109161e+001  -4.761045e+001 
4400000000  -4.055937e+001  -5.835837e+001 
4403125000  -4.161633e+001  -6.616955e+001 
4406250000  -4.231974e+001  -7.238683e+001 
4409375000  -4.249353e+001  -7.725665e+001 
4412500000  -4.346344e+001  -7.889071e+001 
4415625000  -4.320999e+001  -7.665793e+001 
4418750000  -4.177015e+001  -7.562575e+001 
