!Agilent Technologies,E8363B,MY43030201,A.06.04.32
!Agilent E8363B: A.06.04.32
!Date: Tuesday, November 11, 2014 21:40:41
!Correction: S21(Response(S21)) 
!S1P File: Measurement: S21:
# Hz S  dB   R 50
3000000000  -4.370238e+001  -1.568592e+002 
3003125000  -4.522467e+001  -1.629745e+002 
3006250000  -4.531448e+001  -1.633785e+002 
3009375000  -4.606259e+001  -1.599461e+002 
3012500000  -4.478925e+001  -1.669045e+002 
3015625000  -4.490725e+001  -1.748585e+002 
3018750000  -4.504579e+001  -1.749224e+002 
3021875000  -4.376339e+001  -1.748611e+002 
3025000000  -4.236476e+001  -1.783818e+002 
3028125000  -4.196777e+001  1.696151e+002 
3031250000  -4.107008e+001  1.557317e+002 
3034375000  -4.068281e+001  1.426633e+002 
3037500000  -4.172922e+001  1.311217e+002 
3040625000  -4.300848e+001  1.251107e+002 
3043750000  -4.327642e+001  1.171258e+002 
3046875000  -4.408242e+001  1.107546e+002 
3050000000  -4.513465e+001  1.075416e+002 
3053125000  -4.472363e+001  1.103321e+002 
3056250000  -4.442123e+001  1.116456e+002 
3059375000  -4.379646e+001  1.105160e+002 
3062500000  -4.241087e+001  1.057920e+002 
3065625000  -4.220533e+001  9.377311e+001 
3068750000  -4.170629e+001  8.543497e+001 
3071875000  -4.165235e+001  8.149129e+001 
3075000000  -4.112156e+001  7.494514e+001 
3078125000  -4.123464e+001  6.783575e+001 
3081250000  -4.123576e+001  6.067418e+001 
3084375000  -4.038971e+001  5.527525e+001 
3087500000  -4.044603e+001  4.831091e+001 
3090625000  -4.002187e+001  3.543663e+001 
3093750000  -4.093956e+001  2.625885e+001 
3096875000  -4.128419e+001  2.078070e+001 
3100000000  -4.126511e+001  1.583627e+001 
3103125000  -4.113952e+001  1.094186e+001 
3106250000  -4.110108e+001  4.992442e+000 
3109375000  -4.093079e+001  1.182680e+000 
3112500000  -4.088059e+001  -6.796895e+000 
3115625000  -4.075130e+001  -1.252840e+001 
3118750000  -4.074465e+001  -1.642668e+001 
3121875000  -4.017394e+001  -2.914093e+001 
3125000000  -4.191145e+001  -3.322978e+001 
3128125000  -4.205857e+001  -2.660895e+001 
3131250000  -3.948547e+001  -3.560285e+001 
3134375000  -3.894482e+001  -5.248690e+001 
3137500000  -3.974126e+001  -6.556246e+001 
3140625000  -4.084713e+001  -7.097103e+001 
3143750000  -4.151492e+001  -7.462675e+001 
3146875000  -4.131149e+001  -7.358100e+001 
3150000000  -4.052370e+001  -7.912204e+001 
3153125000  -4.051414e+001  -8.834717e+001 
3156250000  -4.145445e+001  -8.442780e+001 
3159375000  -3.924683e+001  -8.827172e+001 
3162500000  -3.781364e+001  -1.041296e+002 
3165625000  -3.918332e+001  -1.187919e+002 
3168750000  -3.904157e+001  -1.203710e+002 
3171875000  -3.866754e+001  -1.292506e+002 
3175000000  -3.918005e+001  -1.394203e+002 
3178125000  -3.869054e+001  -1.410781e+002 
3181250000  -3.805662e+001  -1.507508e+002 
3184375000  -3.789086e+001  -1.620782e+002 
3187500000  -3.928111e+001  -1.794384e+002 
3190625000  -4.089737e+001  1.737171e+002 
3193750000  -4.125977e+001  1.798085e+002 
3196875000  -4.119204e+001  1.770285e+002 
3200000000  -3.997729e+001  1.730018e+002 
3203125000  -3.963722e+001  1.645064e+002 
3206250000  -3.985108e+001  1.559049e+002 
3209375000  -3.953173e+001  1.475614e+002 
3212500000  -3.998597e+001  1.386209e+002 
3215625000  -3.968577e+001  1.363809e+002 
3218750000  -4.047012e+001  1.233707e+002 
3221875000  -4.074369e+001  1.166344e+002 
3225000000  -4.033856e+001  1.116501e+002 
3228125000  -4.130730e+001  1.046988e+002 
3231250000  -4.145613e+001  1.013065e+002 
3234375000  -4.107179e+001  9.776971e+001 
3237500000  -4.101607e+001  9.329247e+001 
3240625000  -4.042551e+001  8.639372e+001 
3243750000  -4.041964e+001  7.440842e+001 
3246875000  -4.063076e+001  6.771980e+001 
3250000000  -4.135564e+001  6.186239e+001 
3253125000  -4.139279e+001  5.784638e+001 
3256250000  -4.041304e+001  4.845773e+001 
3259375000  -4.102045e+001  3.523547e+001 
3262500000  -4.251840e+001  3.058932e+001 
3265625000  -4.253570e+001  3.181544e+001 
3268750000  -4.270275e+001  3.035161e+001 
3271875000  -4.150197e+001  2.546158e+001 
3275000000  -4.110612e+001  1.380253e+001 
3278125000  -4.163363e+001  6.257452e+000 
3281250000  -4.186750e+001  3.644419e+000 
3284375000  -4.123478e+001  -4.813945e+000 
3287500000  -4.165639e+001  -1.194664e+001 
3290625000  -4.159048e+001  -2.165664e+001 
3293750000  -4.171625e+001  -2.918793e+001 
3296875000  -4.267203e+001  -3.603079e+001 
3300000000  -4.202416e+001  -3.630409e+001 
3303125000  -4.097175e+001  -4.608511e+001 
3306250000  -4.108244e+001  -5.665876e+001 
3309375000  -4.086593e+001  -6.692682e+001 
3312500000  -4.116018e+001  -8.318824e+001 
3315625000  -4.240512e+001  -9.078796e+001 
3318750000  -4.379346e+001  -9.819736e+001 
3321875000  -4.557621e+001  -9.693051e+001 
3325000000  -4.507056e+001  -9.269316e+001 
3328125000  -4.417357e+001  -9.728743e+001 
3331250000  -4.239899e+001  -9.502879e+001 
3334375000  -4.030334e+001  -1.139159e+002 
3337500000  -4.085019e+001  -1.391078e+002 
3340625000  -4.313394e+001  -1.481812e+002 
3343750000  -4.468015e+001  -1.508900e+002 
3346875000  -4.421596e+001  -1.552066e+002 
3350000000  -4.388686e+001  -1.575609e+002 
3353125000  -4.369786e+001  -1.656700e+002 
3356250000  -4.346227e+001  -1.784949e+002 
3359375000  -4.440728e+001  1.695188e+002 
3362500000  -4.535133e+001  1.614982e+002 
3365625000  -4.587212e+001  1.560227e+002 
3368750000  -4.646657e+001  1.502502e+002 
3371875000  -4.722448e+001  1.412921e+002 
3375000000  -4.877684e+001  1.398773e+002 
3378125000  -4.932057e+001  1.361244e+002 
3381250000  -5.063772e+001  1.460139e+002 
3384375000  -4.731212e+001  1.584002e+002 
3387500000  -4.559235e+001  1.313570e+002 
3390625000  -4.677542e+001  1.088126e+002 
3393750000  -4.755566e+001  1.077609e+002 
3396875000  -4.696522e+001  1.016435e+002 
3400000000  -4.613584e+001  9.054363e+001 
3403125000  -4.643624e+001  8.343808e+001 
3406250000  -4.725056e+001  7.402698e+001 
3409375000  -4.770145e+001  6.392276e+001 
3412500000  -4.790686e+001  5.616761e+001 
3415625000  -4.852007e+001  4.897049e+001 
3418750000  -4.920501e+001  4.745929e+001 
3421875000  -4.863434e+001  4.307725e+001 
3425000000  -4.820282e+001  3.931448e+001 
3428125000  -4.750892e+001  2.899949e+001 
3431250000  -4.676587e+001  1.438992e+001 
3434375000  -4.722362e+001  5.476116e+000 
3437500000  -4.773503e+001  -2.100083e+000 
3440625000  -4.764740e+001  -6.373027e+000 
3443750000  -4.602881e+001  -9.040474e+000 
3446875000  -4.565081e+001  -2.249656e+001 
3450000000  -4.525980e+001  -4.063456e+001 
3453125000  -4.564065e+001  -5.560342e+001 
3456250000  -4.728113e+001  -6.631445e+001 
3459375000  -4.816092e+001  -6.581346e+001 
3462500000  -4.826501e+001  -7.627190e+001 
3465625000  -4.754599e+001  -8.525410e+001 
3468750000  -4.732987e+001  -9.282200e+001 
3471875000  -4.687700e+001  -9.913168e+001 
3475000000  -4.696663e+001  -1.130042e+002 
3478125000  -4.753048e+001  -1.258200e+002 
3481250000  -4.876119e+001  -1.312518e+002 
3484375000  -4.918786e+001  -1.329517e+002 
3487500000  -4.780892e+001  -1.372565e+002 
3490625000  -4.729633e+001  -1.520111e+002 
3493750000  -4.756564e+001  -1.652861e+002 
3496875000  -4.833369e+001  -1.637839e+002 
3500000000  -4.798898e+001  -1.678420e+002 
3503125000  -4.678638e+001  -1.685103e+002 
3506250000  -4.508313e+001  1.759009e+002 
3509375000  -4.550043e+001  1.549312e+002 
3512500000  -4.597757e+001  1.392574e+002 
3515625000  -4.721897e+001  1.371770e+002 
3518750000  -4.741509e+001  1.324954e+002 
3521875000  -4.791346e+001  1.222670e+002 
3525000000  -4.866165e+001  1.224411e+002 
3528125000  -4.775063e+001  1.208886e+002 
3531250000  -4.676511e+001  1.101673e+002 
3534375000  -4.701524e+001  9.097478e+001 
3537500000  -4.776361e+001  8.071321e+001 
3540625000  -4.867096e+001  7.844539e+001 
3543750000  -4.892867e+001  7.920842e+001 
3546875000  -4.808657e+001  8.659705e+001 
3550000000  -4.638195e+001  7.543426e+001 
3553125000  -4.596948e+001  5.915155e+001 
3556250000  -4.713634e+001  5.153437e+001 
3559375000  -4.658984e+001  4.584882e+001 
3562500000  -4.625278e+001  3.532058e+001 
3565625000  -4.736496e+001  3.040644e+001 
3568750000  -4.755060e+001  2.375623e+001 
3571875000  -4.709994e+001  2.479064e+001 
3575000000  -4.700806e+001  1.516039e+001 
3578125000  -4.730856e+001  1.069697e+001 
3581250000  -4.733355e+001  1.072626e+001 
3584375000  -4.618285e+001  4.391781e-001 
3587500000  -4.590120e+001  -9.827615e+000 
3590625000  -4.639674e+001  -1.963146e+001 
3593750000  -4.780050e+001  -2.170635e+001 
3596875000  -4.672527e+001  -1.662807e+001 
3600000000  -4.480478e+001  -2.846993e+001 
3603125000  -4.537892e+001  -4.420705e+001 
3606250000  -4.620499e+001  -4.865480e+001 
3609375000  -4.610429e+001  -5.325640e+001 
3612500000  -4.598976e+001  -6.034271e+001 
3615625000  -4.616383e+001  -6.468440e+001 
3618750000  -4.602033e+001  -6.311255e+001 
3621875000  -4.556139e+001  -7.291679e+001 
3625000000  -4.588417e+001  -7.657023e+001 
3628125000  -4.499695e+001  -8.431420e+001 
3631250000  -4.507227e+001  -9.149835e+001 
3634375000  -4.569075e+001  -9.211909e+001 
3637500000  -4.441238e+001  -9.523405e+001 
3640625000  -4.381505e+001  -1.017654e+002 
3643750000  -4.309937e+001  -1.128227e+002 
3646875000  -4.383936e+001  -1.244459e+002 
3650000000  -4.362794e+001  -1.286683e+002 
3653125000  -4.311074e+001  -1.359086e+002 
3656250000  -4.420279e+001  -1.424452e+002 
3659375000  -4.373388e+001  -1.462062e+002 
3662500000  -4.321223e+001  -1.553363e+002 
3665625000  -4.374601e+001  -1.595647e+002 
3668750000  -4.217931e+001  -1.631956e+002 
3671875000  -4.153063e+001  -1.780245e+002 
3675000000  -4.228021e+001  1.730417e+002 
3678125000  -4.244212e+001  1.678168e+002 
3681250000  -4.263101e+001  1.626780e+002 
3684375000  -4.258767e+001  1.530931e+002 
3687500000  -4.310195e+001  1.429685e+002 
3690625000  -4.376422e+001  1.387094e+002 
3693750000  -4.460427e+001  1.342822e+002 
3696875000  -4.395712e+001  1.355982e+002 
3700000000  -4.319062e+001  1.267211e+002 
3703125000  -4.356201e+001  1.187442e+002 
3706250000  -4.496205e+001  1.165902e+002 
3709375000  -4.412000e+001  1.158551e+002 
3712500000  -4.321411e+001  1.113350e+002 
3715625000  -4.167567e+001  9.992036e+001 
3718750000  -4.153599e+001  9.118772e+001 
3721875000  -4.191034e+001  8.268365e+001 
3725000000  -4.262655e+001  7.211730e+001 
3728125000  -4.271453e+001  7.147771e+001 
3731250000  -4.186704e+001  6.437017e+001 
3734375000  -4.224070e+001  5.810432e+001 
3737500000  -4.284848e+001  4.787755e+001 
3740625000  -4.330097e+001  4.177838e+001 
3743750000  -4.293880e+001  3.715979e+001 
3746875000  -4.360180e+001  2.779137e+001 
3750000000  -4.354494e+001  2.778136e+001 
3753125000  -4.376196e+001  2.324676e+001 
3756250000  -4.368904e+001  1.866984e+001 
3759375000  -4.408058e+001  1.396481e+001 
3762500000  -4.340294e+001  7.573370e+000 
3765625000  -4.409973e+001  2.545371e+000 
3768750000  -4.352579e+001  6.522028e+000 
3771875000  -4.212378e+001  -2.475275e+000 
3775000000  -4.198405e+001  -1.256542e+001 
3778125000  -4.269961e+001  -2.154127e+001 
3781250000  -4.272941e+001  -2.310389e+001 
3784375000  -4.262173e+001  -3.090471e+001 
3787500000  -4.223982e+001  -3.605068e+001 
3790625000  -4.269875e+001  -4.547491e+001 
3793750000  -4.271088e+001  -4.904422e+001 
3796875000  -4.172575e+001  -5.216335e+001 
3800000000  -4.094957e+001  -6.063544e+001 
3803125000  -4.186456e+001  -7.147100e+001 
3806250000  -4.236484e+001  -7.771964e+001 
3809375000  -4.187949e+001  -8.464458e+001 
3812500000  -4.150928e+001  -9.422401e+001 
3815625000  -4.290959e+001  -1.039254e+002 
3818750000  -4.437919e+001  -1.026770e+002 
3821875000  -4.327710e+001  -9.153265e+001 
3825000000  -4.165076e+001  -1.004891e+002 
3828125000  -4.053513e+001  -1.196444e+002 
3831250000  -4.171767e+001  -1.349028e+002 
3834375000  -4.389223e+001  -1.369200e+002 
3837500000  -4.414376e+001  -1.326498e+002 
3840625000  -4.247529e+001  -1.384899e+002 
3843750000  -4.174738e+001  -1.530305e+002 
3846875000  -4.363630e+001  -1.625560e+002 
3850000000  -4.410217e+001  -1.547912e+002 
3853125000  -4.379579e+001  -1.597516e+002 
3856250000  -4.288454e+001  -1.652577e+002 
3859375000  -4.211081e+001  -1.759875e+002 
3862500000  -4.192888e+001  1.752413e+002 
3865625000  -4.278149e+001  1.697607e+002 
3868750000  -4.235740e+001  1.680652e+002 
3871875000  -4.216032e+001  1.587973e+002 
3875000000  -4.265761e+001  1.462720e+002 
3878125000  -4.357618e+001  1.451136e+002 
3881250000  -4.343205e+001  1.435161e+002 
3884375000  -4.243682e+001  1.347416e+002 
3887500000  -4.329523e+001  1.288720e+002 
3890625000  -4.404301e+001  1.236466e+002 
3893750000  -4.411174e+001  1.222731e+002 
3896875000  -4.430410e+001  1.190436e+002 
3900000000  -4.503935e+001  1.149241e+002 
3903125000  -4.378294e+001  1.033544e+002 
3906250000  -4.392746e+001  1.020984e+002 
3909375000  -4.250780e+001  9.294541e+001 
3912500000  -4.393598e+001  8.328526e+001 
3915625000  -4.501653e+001  8.754684e+001 
3918750000  -4.419234e+001  8.277850e+001 
3921875000  -4.358966e+001  7.705965e+001 
3925000000  -4.348666e+001  7.008506e+001 
3928125000  -4.312043e+001  6.366811e+001 
3931250000  -4.372702e+001  5.547641e+001 
3934375000  -4.427677e+001  5.186205e+001 
3937500000  -4.462436e+001  5.097844e+001 
3940625000  -4.480779e+001  5.102383e+001 
3943750000  -4.304686e+001  4.280719e+001 
3946875000  -4.278682e+001  3.442480e+001 
3950000000  -4.397927e+001  2.774320e+001 
3953125000  -4.461379e+001  2.679324e+001 
3956250000  -4.312292e+001  2.591255e+001 
3959375000  -4.248417e+001  1.995950e+001 
3962500000  -4.172190e+001  8.047765e+000 
3965625000  -4.205669e+001  -2.084216e+000 
3968750000  -4.272523e+001  -8.255350e+000 
3971875000  -4.304639e+001  -1.547384e+001 
3975000000  -4.213294e+001  -1.870502e+001 
3978125000  -4.250278e+001  -2.588742e+001 
3981250000  -4.201155e+001  -3.380149e+001 
3984375000  -4.250900e+001  -4.126786e+001 
3987500000  -4.307707e+001  -4.608281e+001 
3990625000  -4.325121e+001  -5.023986e+001 
3993750000  -4.331406e+001  -5.612145e+001 
3996875000  -4.341506e+001  -6.229412e+001 
4000000000  -4.353085e+001  -6.800574e+001 
4003125000  -4.430227e+001  -6.571297e+001 
4006250000  -4.232321e+001  -7.257249e+001 
4009375000  -4.182452e+001  -8.794155e+001 
4012500000  -4.314408e+001  -9.601441e+001 
4015625000  -4.388487e+001  -9.950177e+001 
4018750000  -4.386583e+001  -1.016991e+002 
4021875000  -4.331866e+001  -1.087637e+002 
4025000000  -4.313923e+001  -1.162232e+002 
4028125000  -4.356459e+001  -1.241188e+002 
4031250000  -4.459523e+001  -1.303758e+002 
4034375000  -4.387271e+001  -1.318592e+002 
4037500000  -4.430690e+001  -1.351336e+002 
4040625000  -4.410110e+001  -1.420899e+002 
4043750000  -4.476303e+001  -1.459066e+002 
4046875000  -4.468727e+001  -1.503284e+002 
4050000000  -4.466834e+001  -1.554329e+002 
4053125000  -4.547492e+001  -1.631634e+002 
4056250000  -4.592746e+001  -1.599766e+002 
4059375000  -4.413367e+001  -1.573030e+002 
4062500000  -4.342041e+001  -1.697382e+002 
4065625000  -4.407887e+001  -1.753553e+002 
4068750000  -4.325429e+001  1.780209e+002 
4071875000  -4.309109e+001  1.669093e+002 
4075000000  -4.365975e+001  1.587945e+002 
4078125000  -4.437853e+001  1.574461e+002 
4081250000  -4.348790e+001  1.520237e+002 
4084375000  -4.355344e+001  1.411264e+002 
4087500000  -4.414778e+001  1.331291e+002 
4090625000  -4.509294e+001  1.326176e+002 
4093750000  -4.498205e+001  1.323081e+002 
4096875000  -4.472730e+001  1.227132e+002 
4100000000  -4.540500e+001  1.166673e+002 
4103125000  -4.637026e+001  1.196261e+002 
4106250000  -4.573919e+001  1.213522e+002 
4109375000  -4.433515e+001  1.145230e+002 
4112500000  -4.442375e+001  1.071453e+002 
4115625000  -4.449742e+001  1.022138e+002 
4118750000  -4.395417e+001  9.741471e+001 
4121875000  -4.419339e+001  9.040517e+001 
4125000000  -4.500779e+001  7.967138e+001 
4128125000  -4.565442e+001  8.452521e+001 
4131250000  -4.427778e+001  9.078448e+001 
4134375000  -4.205158e+001  7.757856e+001 
4137500000  -4.232728e+001  5.721226e+001 
4140625000  -4.440883e+001  4.933534e+001 
4143750000  -4.487653e+001  5.582370e+001 
4146875000  -4.405643e+001  5.654137e+001 
4150000000  -4.317909e+001  4.408287e+001 
4153125000  -4.375462e+001  3.501678e+001 
4156250000  -4.472639e+001  3.453529e+001 
4159375000  -4.443457e+001  3.409957e+001 
4162500000  -4.303095e+001  3.017991e+001 
4165625000  -4.203300e+001  2.151521e+001 
4168750000  -4.180458e+001  1.245807e+001 
4171875000  -4.113323e+001  8.307978e-001 
4175000000  -4.234728e+001  -1.033560e+001 
4178125000  -4.263004e+001  -1.144510e+001 
4181250000  -4.223111e+001  -1.690324e+001 
4184375000  -4.298708e+001  -2.391646e+001 
4187500000  -4.275069e+001  -3.021425e+001 
4190625000  -4.301608e+001  -4.118324e+001 
4193750000  -4.456040e+001  -4.240533e+001 
4196875000  -4.490755e+001  -4.933877e+001 
4200000000  -4.634962e+001  -4.039377e+001 
4203125000  -4.495339e+001  -3.185431e+001 
4206250000  -4.174585e+001  -4.428462e+001 
4209375000  -4.167123e+001  -6.870826e+001 
4212500000  -4.416431e+001  -7.367393e+001 
4215625000  -4.460884e+001  -6.726286e+001 
4218750000  -4.307630e+001  -6.744557e+001 
4221875000  -4.155561e+001  -7.707449e+001 
4225000000  -4.342760e+001  -8.899014e+001 
4228125000  -4.306411e+001  -8.395779e+001 
4231250000  -4.146253e+001  -9.666678e+001 
4234375000  -4.128355e+001  -1.099519e+002 
4237500000  -4.097918e+001  -1.142768e+002 
4240625000  -4.177113e+001  -1.208594e+002 
4243750000  -4.282182e+001  -1.320303e+002 
4246875000  -4.322374e+001  -1.326569e+002 
4250000000  -4.296625e+001  -1.333336e+002 
4253125000  -4.295526e+001  -1.355165e+002 
4256250000  -4.276618e+001  -1.416247e+002 
4259375000  -4.254930e+001  -1.462509e+002 
4262500000  -4.301068e+001  -1.519465e+002 
4265625000  -4.238182e+001  -1.555343e+002 
4268750000  -4.127268e+001  -1.607747e+002 
4271875000  -4.083513e+001  -1.718902e+002 
4275000000  -4.088680e+001  1.796605e+002 
4278125000  -4.211825e+001  1.668376e+002 
4281250000  -4.294169e+001  1.638756e+002 
4284375000  -4.301313e+001  1.566492e+002 
4287500000  -4.373711e+001  1.590307e+002 
4290625000  -4.417547e+001  1.629602e+002 
4293750000  -4.206310e+001  1.605030e+002 
4296875000  -4.077522e+001  1.461452e+002 
4300000000  -4.197887e+001  1.376334e+002 
4303125000  -4.238094e+001  1.379595e+002 
4306250000  -4.144985e+001  1.379622e+002 
4309375000  -4.012717e+001  1.269312e+002 
4312500000  -4.024518e+001  1.142969e+002 
4315625000  -4.041181e+001  1.087459e+002 
4318750000  -4.134746e+001  1.012684e+002 
4321875000  -4.132228e+001  9.940024e+001 
4325000000  -4.054249e+001  9.566376e+001 
4328125000  -3.995663e+001  8.450694e+001 
4331250000  -3.996672e+001  7.214927e+001 
4334375000  -4.109902e+001  6.246437e+001 
4337500000  -4.236858e+001  6.156077e+001 
4340625000  -4.274910e+001  6.485743e+001 
4343750000  -4.150591e+001  5.889470e+001 
4346875000  -4.158643e+001  4.837468e+001 
4350000000  -4.150194e+001  3.964750e+001 
4353125000  -4.220014e+001  3.279192e+001 
4356250000  -4.397600e+001  3.709644e+001 
4359375000  -4.301541e+001  5.005809e+001 
4362500000  -3.981749e+001  3.943243e+001 
4365625000  -3.934520e+001  1.867022e+001 
4368750000  -4.082566e+001  7.269749e+000 
4371875000  -4.167135e+001  7.683530e+000 
4375000000  -4.108430e+001  6.471697e-001 
4378125000  -4.109526e+001  -8.551434e+000 
4381250000  -4.138817e+001  -1.490462e+001 
4384375000  -4.144389e+001  -2.274948e+001 
4387500000  -4.259504e+001  -3.041292e+001 
4390625000  -4.262281e+001  -3.173700e+001 
4393750000  -4.199139e+001  -3.376956e+001 
4396875000  -4.181677e+001  -3.762351e+001 
4400000000  -4.157158e+001  -4.692184e+001 
4403125000  -4.199999e+001  -5.807519e+001 
4406250000  -4.296869e+001  -6.028416e+001 
4409375000  -4.339100e+001  -6.377761e+001 
4412500000  -4.433908e+001  -6.693880e+001 
4415625000  -4.378440e+001  -6.572453e+001 
4418750000  -4.232810e+001  -6.485117e+001 
