!Agilent Technologies,E8363B,MY43030201,A.06.04.32
!Agilent E8363B: A.06.04.32
!Date: Tuesday, November 11, 2014 21:40:30
!Correction: S21(Response(S21)) 
!S1P File: Measurement: S21:
# Hz S  dB   R 50
3000000000  -4.359206e+001  -1.565885e+002 
3003125000  -4.522061e+001  -1.614599e+002 
3006250000  -4.521830e+001  -1.649054e+002 
3009375000  -4.594263e+001  -1.614974e+002 
3012500000  -4.494759e+001  -1.685504e+002 
3015625000  -4.540162e+001  -1.725030e+002 
3018750000  -4.529990e+001  -1.730315e+002 
3021875000  -4.372622e+001  -1.729348e+002 
3025000000  -4.259809e+001  -1.793319e+002 
3028125000  -4.179926e+001  1.688501e+002 
3031250000  -4.070047e+001  1.555913e+002 
3034375000  -4.066149e+001  1.414097e+002 
3037500000  -4.169646e+001  1.324285e+002 
3040625000  -4.268469e+001  1.253070e+002 
3043750000  -4.321548e+001  1.179735e+002 
3046875000  -4.402108e+001  1.112699e+002 
3050000000  -4.474545e+001  1.066468e+002 
3053125000  -4.532377e+001  1.096936e+002 
3056250000  -4.464257e+001  1.134454e+002 
3059375000  -4.365691e+001  1.102992e+002 
3062500000  -4.238669e+001  1.028439e+002 
3065625000  -4.223474e+001  9.321959e+001 
3068750000  -4.174326e+001  8.667723e+001 
3071875000  -4.160110e+001  8.214897e+001 
3075000000  -4.101983e+001  7.525731e+001 
3078125000  -4.130185e+001  6.675262e+001 
3081250000  -4.122725e+001  6.064840e+001 
3084375000  -4.046721e+001  5.589980e+001 
3087500000  -4.052787e+001  4.785264e+001 
3090625000  -3.995399e+001  3.551525e+001 
3093750000  -4.091624e+001  2.485974e+001 
3096875000  -4.119352e+001  1.913084e+001 
3100000000  -4.100943e+001  1.524980e+001 
3103125000  -4.153486e+001  1.056990e+001 
3106250000  -4.090466e+001  5.648253e+000 
3109375000  -4.086259e+001  5.547876e-001 
3112500000  -4.090099e+001  -7.973582e+000 
3115625000  -4.080699e+001  -1.112630e+001 
3118750000  -4.080159e+001  -1.734019e+001 
3121875000  -4.019348e+001  -2.983156e+001 
3125000000  -4.174724e+001  -3.278600e+001 
3128125000  -4.199426e+001  -2.573666e+001 
3131250000  -3.955092e+001  -3.492049e+001 
3134375000  -3.892545e+001  -5.358655e+001 
3137500000  -3.950068e+001  -6.604223e+001 
3140625000  -4.077921e+001  -7.012687e+001 
3143750000  -4.159982e+001  -7.360620e+001 
3146875000  -4.099989e+001  -7.381921e+001 
3150000000  -4.046089e+001  -7.893465e+001 
3153125000  -4.067957e+001  -8.729886e+001 
3156250000  -4.143092e+001  -8.530617e+001 
3159375000  -3.918953e+001  -8.792938e+001 
3162500000  -3.774004e+001  -1.045142e+002 
3165625000  -3.917844e+001  -1.184851e+002 
3168750000  -3.911225e+001  -1.198460e+002 
3171875000  -3.849067e+001  -1.283925e+002 
3175000000  -3.909910e+001  -1.390742e+002 
3178125000  -3.861719e+001  -1.412562e+002 
3181250000  -3.805169e+001  -1.505806e+002 
3184375000  -3.780724e+001  -1.620653e+002 
3187500000  -3.924195e+001  -1.778826e+002 
3190625000  -4.104601e+001  1.748167e+002 
3193750000  -4.127383e+001  1.779032e+002 
3196875000  -4.111250e+001  1.795612e+002 
3200000000  -3.979282e+001  1.729762e+002 
3203125000  -3.955618e+001  1.646930e+002 
3206250000  -3.991103e+001  1.562222e+002 
3209375000  -3.936474e+001  1.475070e+002 
3212500000  -4.002980e+001  1.389242e+002 
3215625000  -3.978155e+001  1.377195e+002 
3218750000  -4.031371e+001  1.237230e+002 
3221875000  -4.064010e+001  1.167473e+002 
3225000000  -4.057261e+001  1.118665e+002 
3228125000  -4.112650e+001  1.056366e+002 
3231250000  -4.159721e+001  1.019909e+002 
3234375000  -4.123252e+001  9.755720e+001 
3237500000  -4.101012e+001  9.385011e+001 
3240625000  -4.050993e+001  8.731828e+001 
3243750000  -4.040567e+001  7.467046e+001 
3246875000  -4.067033e+001  6.724275e+001 
3250000000  -4.130477e+001  6.225773e+001 
3253125000  -4.117311e+001  5.769911e+001 
3256250000  -4.043152e+001  4.861831e+001 
3259375000  -4.093154e+001  3.627856e+001 
3262500000  -4.253215e+001  3.024782e+001 
3265625000  -4.261568e+001  3.157575e+001 
3268750000  -4.254385e+001  2.967914e+001 
3271875000  -4.157665e+001  2.442220e+001 
3275000000  -4.111792e+001  1.357949e+001 
3278125000  -4.154669e+001  6.669068e+000 
3281250000  -4.178658e+001  2.892330e+000 
3284375000  -4.122890e+001  -5.194864e+000 
3287500000  -4.171814e+001  -1.247255e+001 
3290625000  -4.168477e+001  -2.304073e+001 
3293750000  -4.146152e+001  -3.113640e+001 
3296875000  -4.284009e+001  -3.443640e+001 
3300000000  -4.186721e+001  -3.604928e+001 
3303125000  -4.116742e+001  -4.682443e+001 
3306250000  -4.085661e+001  -5.793322e+001 
3309375000  -4.081331e+001  -6.769938e+001 
3312500000  -4.111961e+001  -8.245613e+001 
3315625000  -4.254868e+001  -9.047386e+001 
3318750000  -4.380061e+001  -9.790025e+001 
3321875000  -4.517970e+001  -9.730363e+001 
3325000000  -4.540201e+001  -9.429779e+001 
3328125000  -4.419249e+001  -9.508430e+001 
3331250000  -4.251471e+001  -9.542239e+001 
3334375000  -4.018591e+001  -1.136613e+002 
3337500000  -4.092521e+001  -1.373820e+002 
3340625000  -4.285611e+001  -1.477168e+002 
3343750000  -4.471357e+001  -1.501984e+002 
3346875000  -4.388071e+001  -1.513406e+002 
3350000000  -4.385360e+001  -1.581721e+002 
3353125000  -4.371951e+001  -1.675416e+002 
3356250000  -4.344332e+001  -1.764774e+002 
3359375000  -4.471300e+001  1.680196e+002 
3362500000  -4.519682e+001  1.596788e+002 
3365625000  -4.580218e+001  1.538168e+002 
3368750000  -4.701712e+001  1.500393e+002 
3371875000  -4.735143e+001  1.425112e+002 
3375000000  -4.887305e+001  1.359383e+002 
3378125000  -4.879392e+001  1.373684e+002 
3381250000  -5.039730e+001  1.425548e+002 
3384375000  -4.704480e+001  1.530337e+002 
3387500000  -4.454163e+001  1.311586e+002 
3390625000  -4.694070e+001  1.098706e+002 
3393750000  -4.808296e+001  1.068997e+002 
3396875000  -4.649823e+001  1.013948e+002 
3400000000  -4.635169e+001  9.006970e+001 
3403125000  -4.699408e+001  8.270253e+001 
3406250000  -4.775212e+001  7.272380e+001 
3409375000  -4.738588e+001  6.381516e+001 
3412500000  -4.810522e+001  5.532563e+001 
3415625000  -4.917293e+001  5.207244e+001 
3418750000  -4.879910e+001  4.586610e+001 
3421875000  -4.929503e+001  4.761485e+001 
3425000000  -4.808346e+001  3.681007e+001 
3428125000  -4.705803e+001  2.710098e+001 
3431250000  -4.662091e+001  1.645425e+001 
3434375000  -4.684262e+001  5.238032e+000 
3437500000  -4.781108e+001  -4.892734e+000 
3440625000  -4.796260e+001  -4.710707e+000 
3443750000  -4.621946e+001  -1.023449e+001 
3446875000  -4.608861e+001  -2.519379e+001 
3450000000  -4.519702e+001  -4.065347e+001 
3453125000  -4.572683e+001  -5.662632e+001 
3456250000  -4.776596e+001  -7.011547e+001 
3459375000  -4.829735e+001  -6.953297e+001 
3462500000  -4.805986e+001  -7.104263e+001 
3465625000  -4.712956e+001  -8.358871e+001 
3468750000  -4.725945e+001  -9.483538e+001 
3471875000  -4.706285e+001  -9.960101e+001 
3475000000  -4.725776e+001  -1.110145e+002 
3478125000  -4.755598e+001  -1.264381e+002 
3481250000  -4.871972e+001  -1.313254e+002 
3484375000  -4.812399e+001  -1.294510e+002 
3487500000  -4.709502e+001  -1.367461e+002 
3490625000  -4.684804e+001  -1.511582e+002 
3493750000  -4.756842e+001  -1.652480e+002 
3496875000  -4.823005e+001  -1.654667e+002 
3500000000  -4.815377e+001  -1.683946e+002 
3503125000  -4.682894e+001  -1.707265e+002 
3506250000  -4.534178e+001  1.762467e+002 
3509375000  -4.558086e+001  1.569480e+002 
3512500000  -4.605120e+001  1.429703e+002 
3515625000  -4.691549e+001  1.345663e+002 
3518750000  -4.796371e+001  1.327702e+002 
3521875000  -4.776080e+001  1.214387e+002 
3525000000  -4.845174e+001  1.155832e+002 
3528125000  -4.712186e+001  1.210402e+002 
3531250000  -4.707884e+001  1.067428e+002 
3534375000  -4.675235e+001  8.996825e+001 
3537500000  -4.758647e+001  8.230383e+001 
3540625000  -4.917181e+001  7.708075e+001 
3543750000  -4.958045e+001  8.499540e+001 
3546875000  -4.816521e+001  8.787855e+001 
3550000000  -4.633158e+001  7.848105e+001 
3553125000  -4.599619e+001  5.745857e+001 
3556250000  -4.746513e+001  5.344200e+001 
3559375000  -4.643595e+001  4.877973e+001 
3562500000  -4.630602e+001  3.632786e+001 
3565625000  -4.797414e+001  3.032289e+001 
3568750000  -4.798378e+001  2.797033e+001 
3571875000  -4.692639e+001  2.054650e+001 
3575000000  -4.665960e+001  1.509635e+001 
3578125000  -4.748591e+001  1.357663e+001 
3581250000  -4.726361e+001  8.167625e+000 
3584375000  -4.629149e+001  1.958733e+000 
3587500000  -4.525616e+001  -1.044283e+001 
3590625000  -4.647151e+001  -2.135174e+001 
3593750000  -4.777814e+001  -2.091403e+001 
3596875000  -4.653324e+001  -1.851538e+001 
3600000000  -4.482529e+001  -2.823996e+001 
3603125000  -4.551577e+001  -4.512139e+001 
3606250000  -4.540018e+001  -5.188341e+001 
3609375000  -4.593837e+001  -5.317566e+001 
3612500000  -4.575401e+001  -5.879633e+001 
3615625000  -4.598669e+001  -6.421395e+001 
3618750000  -4.601169e+001  -6.517492e+001 
3621875000  -4.602400e+001  -7.002233e+001 
3625000000  -4.577843e+001  -7.539645e+001 
3628125000  -4.490232e+001  -8.234893e+001 
3631250000  -4.507875e+001  -9.287582e+001 
3634375000  -4.552322e+001  -9.262936e+001 
3637500000  -4.438452e+001  -9.479166e+001 
3640625000  -4.351719e+001  -1.022524e+002 
3643750000  -4.330302e+001  -1.124063e+002 
3646875000  -4.368817e+001  -1.256560e+002 
3650000000  -4.363934e+001  -1.279460e+002 
3653125000  -4.327171e+001  -1.367042e+002 
3656250000  -4.412951e+001  -1.441624e+002 
3659375000  -4.386631e+001  -1.464948e+002 
3662500000  -4.341311e+001  -1.566139e+002 
3665625000  -4.324296e+001  -1.576136e+002 
3668750000  -4.223626e+001  -1.633816e+002 
3671875000  -4.140536e+001  -1.775715e+002 
3675000000  -4.206974e+001  1.736962e+002 
3678125000  -4.269368e+001  1.672882e+002 
3681250000  -4.250064e+001  1.601041e+002 
3684375000  -4.270415e+001  1.536997e+002 
3687500000  -4.300238e+001  1.435895e+002 
3690625000  -4.334159e+001  1.390938e+002 
3693750000  -4.426038e+001  1.385552e+002 
3696875000  -4.376405e+001  1.330488e+002 
3700000000  -4.325767e+001  1.280514e+002 
3703125000  -4.390022e+001  1.193628e+002 
3706250000  -4.468768e+001  1.164247e+002 
3709375000  -4.400653e+001  1.176809e+002 
3712500000  -4.285498e+001  1.106714e+002 
3715625000  -4.171935e+001  1.018909e+002 
3718750000  -4.208193e+001  9.226173e+001 
3721875000  -4.204213e+001  8.161617e+001 
3725000000  -4.243750e+001  7.244131e+001 
3728125000  -4.244787e+001  7.017739e+001 
3731250000  -4.217271e+001  6.287304e+001 
3734375000  -4.211882e+001  5.652334e+001 
3737500000  -4.284886e+001  4.872589e+001 
3740625000  -4.339313e+001  4.285908e+001 
3743750000  -4.280521e+001  3.639437e+001 
3746875000  -4.353526e+001  2.840808e+001 
3750000000  -4.395140e+001  2.425171e+001 
3753125000  -4.382631e+001  2.493470e+001 
3756250000  -4.408132e+001  2.069329e+001 
3759375000  -4.360304e+001  1.216304e+001 
3762500000  -4.356221e+001  9.411767e+000 
3765625000  -4.444459e+001  1.063079e+000 
3768750000  -4.340791e+001  3.586691e+000 
3771875000  -4.204776e+001  -2.308951e+000 
3775000000  -4.205226e+001  -1.451502e+001 
3778125000  -4.301662e+001  -2.106167e+001 
3781250000  -4.287103e+001  -2.541282e+001 
3784375000  -4.239964e+001  -2.896059e+001 
3787500000  -4.242429e+001  -3.553333e+001 
3790625000  -4.259436e+001  -4.573923e+001 
3793750000  -4.270494e+001  -4.952465e+001 
3796875000  -4.134275e+001  -5.424998e+001 
3800000000  -4.072964e+001  -6.296305e+001 
3803125000  -4.166945e+001  -7.414943e+001 
3806250000  -4.244536e+001  -7.852290e+001 
3809375000  -4.188259e+001  -8.156496e+001 
3812500000  -4.160759e+001  -9.517271e+001 
3815625000  -4.312187e+001  -1.039042e+002 
3818750000  -4.456186e+001  -1.005031e+002 
3821875000  -4.328226e+001  -9.184622e+001 
3825000000  -4.137479e+001  -9.984385e+001 
3828125000  -4.048593e+001  -1.209367e+002 
3831250000  -4.131223e+001  -1.355246e+002 
3834375000  -4.402203e+001  -1.385474e+002 
3837500000  -4.368137e+001  -1.315499e+002 
3840625000  -4.243275e+001  -1.380458e+002 
3843750000  -4.182653e+001  -1.543408e+002 
3846875000  -4.358037e+001  -1.596293e+002 
3850000000  -4.415872e+001  -1.557226e+002 
3853125000  -4.386626e+001  -1.577403e+002 
3856250000  -4.295705e+001  -1.637794e+002 
3859375000  -4.266352e+001  -1.756720e+002 
3862500000  -4.215310e+001  1.769520e+002 
3865625000  -4.273185e+001  1.664001e+002 
3868750000  -4.237119e+001  1.683252e+002 
3871875000  -4.208850e+001  1.572031e+002 
3875000000  -4.267090e+001  1.469071e+002 
3878125000  -4.342556e+001  1.454389e+002 
3881250000  -4.343626e+001  1.448960e+002 
3884375000  -4.284354e+001  1.321987e+002 
3887500000  -4.350014e+001  1.274644e+002 
3890625000  -4.355215e+001  1.242341e+002 
3893750000  -4.421959e+001  1.209374e+002 
3896875000  -4.465193e+001  1.175696e+002 
3900000000  -4.498253e+001  1.126958e+002 
3903125000  -4.362023e+001  1.079406e+002 
3906250000  -4.331718e+001  1.016544e+002 
3909375000  -4.312351e+001  9.371262e+001 
3912500000  -4.359226e+001  8.740085e+001 
3915625000  -4.474778e+001  8.498083e+001 
3918750000  -4.512169e+001  8.413195e+001 
3921875000  -4.410935e+001  7.694501e+001 
3925000000  -4.338727e+001  7.027187e+001 
3928125000  -4.290376e+001  6.319352e+001 
3931250000  -4.374835e+001  5.645406e+001 
3934375000  -4.426998e+001  5.234314e+001 
3937500000  -4.472765e+001  5.083772e+001 
3940625000  -4.513480e+001  4.832985e+001 
3943750000  -4.311813e+001  4.304697e+001 
3946875000  -4.314450e+001  3.758073e+001 
3950000000  -4.420603e+001  2.480788e+001 
3953125000  -4.464770e+001  2.766081e+001 
3956250000  -4.310775e+001  2.574969e+001 
3959375000  -4.204084e+001  2.205408e+001 
3962500000  -4.183721e+001  9.877917e+000 
3965625000  -4.195364e+001  -2.268797e+000 
3968750000  -4.289358e+001  -1.222787e+001 
3971875000  -4.263461e+001  -1.526870e+001 
3975000000  -4.211030e+001  -1.888099e+001 
3978125000  -4.240178e+001  -2.663181e+001 
3981250000  -4.223706e+001  -3.426451e+001 
3984375000  -4.252875e+001  -4.272062e+001 
3987500000  -4.315954e+001  -4.651157e+001 
3990625000  -4.311357e+001  -4.864018e+001 
3993750000  -4.315575e+001  -5.509961e+001 
3996875000  -4.315323e+001  -6.083253e+001 
4000000000  -4.363554e+001  -6.645641e+001 
4003125000  -4.412014e+001  -6.660225e+001 
4006250000  -4.178682e+001  -7.272101e+001 
4009375000  -4.157697e+001  -9.077854e+001 
4012500000  -4.330859e+001  -9.793093e+001 
4015625000  -4.399583e+001  -9.824011e+001 
4018750000  -4.415576e+001  -1.006391e+002 
4021875000  -4.333067e+001  -1.068168e+002 
4025000000  -4.311969e+001  -1.152959e+002 
4028125000  -4.352924e+001  -1.241139e+002 
4031250000  -4.435434e+001  -1.297858e+002 
4034375000  -4.407059e+001  -1.321863e+002 
4037500000  -4.422262e+001  -1.345150e+002 
4040625000  -4.428973e+001  -1.416555e+002 
4043750000  -4.493802e+001  -1.470960e+002 
4046875000  -4.426611e+001  -1.499062e+002 
4050000000  -4.448416e+001  -1.575444e+002 
4053125000  -4.538294e+001  -1.634974e+002 
4056250000  -4.578831e+001  -1.595335e+002 
4059375000  -4.448444e+001  -1.574559e+002 
4062500000  -4.378749e+001  -1.668321e+002 
4065625000  -4.376123e+001  -1.731176e+002 
4068750000  -4.285907e+001  1.763709e+002 
4071875000  -4.292957e+001  1.691827e+002 
4075000000  -4.401250e+001  1.602782e+002 
4078125000  -4.395344e+001  1.591954e+002 
4081250000  -4.347670e+001  1.523412e+002 
4084375000  -4.380118e+001  1.437402e+002 
4087500000  -4.419820e+001  1.324984e+002 
4090625000  -4.519555e+001  1.331701e+002 
4093750000  -4.446422e+001  1.312621e+002 
4096875000  -4.451616e+001  1.234371e+002 
4100000000  -4.557677e+001  1.166672e+002 
4103125000  -4.635745e+001  1.188922e+002 
4106250000  -4.578051e+001  1.194425e+002 
4109375000  -4.488547e+001  1.157011e+002 
4112500000  -4.433383e+001  1.072497e+002 
4115625000  -4.448671e+001  1.023109e+002 
4118750000  -4.459291e+001  9.856223e+001 
4121875000  -4.406992e+001  9.131220e+001 
4125000000  -4.512700e+001  8.246457e+001 
4128125000  -4.537782e+001  8.525758e+001 
4131250000  -4.406557e+001  9.038750e+001 
4134375000  -4.198796e+001  7.629121e+001 
4137500000  -4.253619e+001  5.724324e+001 
4140625000  -4.426373e+001  5.120361e+001 
4143750000  -4.464104e+001  5.575988e+001 
4146875000  -4.430152e+001  5.379200e+001 
4150000000  -4.304582e+001  4.553294e+001 
4153125000  -4.358893e+001  3.629265e+001 
4156250000  -4.452500e+001  3.219973e+001 
4159375000  -4.439270e+001  3.613333e+001 
4162500000  -4.251571e+001  3.344691e+001 
4165625000  -4.177791e+001  2.412684e+001 
4168750000  -4.139623e+001  1.470803e+001 
4171875000  -4.182830e+001  -7.702535e-001 
4175000000  -4.214348e+001  -7.612858e+000 
4178125000  -4.266581e+001  -8.719887e+000 
4181250000  -4.263285e+001  -1.704510e+001 
4184375000  -4.293137e+001  -2.262016e+001 
4187500000  -4.271806e+001  -2.797860e+001 
4190625000  -4.316798e+001  -4.185079e+001 
4193750000  -4.424411e+001  -4.574358e+001 
4196875000  -4.522470e+001  -4.698083e+001 
4200000000  -4.654356e+001  -4.149995e+001 
4203125000  -4.491805e+001  -3.156901e+001 
4206250000  -4.136878e+001  -4.064814e+001 
4209375000  -4.167144e+001  -6.758897e+001 
4212500000  -4.411476e+001  -7.209627e+001 
4215625000  -4.408596e+001  -6.530515e+001 
4218750000  -4.294150e+001  -6.702281e+001 
4221875000  -4.094220e+001  -7.692506e+001 
4225000000  -4.311353e+001  -8.661931e+001 
4228125000  -4.282454e+001  -8.926035e+001 
4231250000  -4.156221e+001  -9.523013e+001 
4234375000  -4.157685e+001  -1.056823e+002 
4237500000  -4.118304e+001  -1.150073e+002 
4240625000  -4.158519e+001  -1.216088e+002 
4243750000  -4.303552e+001  -1.331461e+002 
4246875000  -4.322757e+001  -1.352134e+002 
4250000000  -4.344499e+001  -1.307691e+002 
4253125000  -4.334157e+001  -1.339158e+002 
4256250000  -4.305912e+001  -1.423073e+002 
4259375000  -4.261237e+001  -1.496185e+002 
4262500000  -4.266957e+001  -1.520484e+002 
4265625000  -4.218069e+001  -1.524853e+002 
4268750000  -4.146214e+001  -1.602298e+002 
4271875000  -4.109473e+001  -1.733729e+002 
4275000000  -4.074968e+001  1.765740e+002 
4278125000  -4.203063e+001  1.653379e+002 
4281250000  -4.298644e+001  1.643705e+002 
4284375000  -4.270889e+001  1.600415e+002 
4287500000  -4.373845e+001  1.588428e+002 
4290625000  -4.391860e+001  1.631817e+002 
4293750000  -4.214958e+001  1.625713e+002 
4296875000  -4.074058e+001  1.475014e+002 
4300000000  -4.150884e+001  1.383046e+002 
4303125000  -4.250171e+001  1.372682e+002 
4306250000  -4.124018e+001  1.360946e+002 
4309375000  -3.996654e+001  1.305246e+002 
4312500000  -3.997078e+001  1.152844e+002 
4315625000  -4.050293e+001  1.051691e+002 
4318750000  -4.125602e+001  1.009766e+002 
4321875000  -4.127497e+001  9.920864e+001 
4325000000  -4.051797e+001  9.414649e+001 
4328125000  -3.994315e+001  8.403238e+001 
4331250000  -4.017567e+001  7.174217e+001 
4334375000  -4.117953e+001  6.467841e+001 
4337500000  -4.235131e+001  6.042490e+001 
4340625000  -4.240503e+001  6.587758e+001 
4343750000  -4.128209e+001  5.956211e+001 
4346875000  -4.163680e+001  4.941835e+001 
4350000000  -4.180045e+001  3.957392e+001 
4353125000  -4.247194e+001  2.835712e+001 
4356250000  -4.419433e+001  3.755223e+001 
4359375000  -4.311778e+001  4.846227e+001 
4362500000  -4.051870e+001  3.725803e+001 
4365625000  -3.945289e+001  1.952600e+001 
4368750000  -4.080431e+001  7.366644e+000 
4371875000  -4.181995e+001  7.029167e+000 
4375000000  -4.101508e+001  4.205269e-002 
4378125000  -4.088851e+001  -3.299018e+000 
4381250000  -4.106985e+001  -1.381438e+001 
4384375000  -4.117589e+001  -1.930122e+001 
4387500000  -4.197073e+001  -3.033850e+001 
4390625000  -4.287265e+001  -3.284602e+001 
4393750000  -4.211050e+001  -3.361856e+001 
4396875000  -4.175484e+001  -3.548144e+001 
4400000000  -4.132472e+001  -4.674346e+001 
4403125000  -4.239039e+001  -5.786563e+001 
4406250000  -4.262391e+001  -5.996959e+001 
4409375000  -4.281854e+001  -6.661607e+001 
4412500000  -4.425966e+001  -6.696206e+001 
4415625000  -4.400166e+001  -6.440703e+001 
4418750000  -4.200571e+001  -6.516716e+001 
