!Agilent Technologies,E8363B,MY43030201,A.06.04.32
!Agilent E8363B: A.06.04.32
!Date: Tuesday, November 11, 2014 21:40:20
!Correction: S21(Response(S21)) 
!S1P File: Measurement: S21:
# Hz S  dB   R 50
3000000000  -4.356035e+001  -1.559382e+002 
3003125000  -4.523139e+001  -1.627344e+002 
3006250000  -4.513340e+001  -1.611071e+002 
3009375000  -4.592162e+001  -1.592606e+002 
3012500000  -4.511220e+001  -1.668597e+002 
3015625000  -4.516327e+001  -1.736614e+002 
3018750000  -4.526778e+001  -1.733196e+002 
3021875000  -4.380090e+001  -1.741044e+002 
3025000000  -4.240365e+001  -1.795362e+002 
3028125000  -4.173202e+001  1.693077e+002 
3031250000  -4.092955e+001  1.575873e+002 
3034375000  -4.078162e+001  1.405255e+002 
3037500000  -4.128405e+001  1.309731e+002 
3040625000  -4.293632e+001  1.258178e+002 
3043750000  -4.338144e+001  1.180795e+002 
3046875000  -4.395285e+001  1.110470e+002 
3050000000  -4.544734e+001  1.064050e+002 
3053125000  -4.470764e+001  1.112503e+002 
3056250000  -4.456679e+001  1.132662e+002 
3059375000  -4.376790e+001  1.100241e+002 
3062500000  -4.266902e+001  1.058370e+002 
3065625000  -4.210048e+001  9.512021e+001 
3068750000  -4.166407e+001  8.673564e+001 
3071875000  -4.170717e+001  8.507428e+001 
3075000000  -4.112048e+001  7.541146e+001 
3078125000  -4.136849e+001  6.845082e+001 
3081250000  -4.138597e+001  6.078669e+001 
3084375000  -4.031842e+001  5.553455e+001 
3087500000  -4.039035e+001  4.839187e+001 
3090625000  -3.993522e+001  3.503596e+001 
3093750000  -4.090043e+001  2.636469e+001 
3096875000  -4.128274e+001  1.976702e+001 
3100000000  -4.103987e+001  1.664069e+001 
3103125000  -4.148740e+001  1.156208e+001 
3106250000  -4.102793e+001  6.064974e+000 
3109375000  -4.086687e+001  1.232152e+000 
3112500000  -4.074542e+001  -6.393999e+000 
3115625000  -4.066158e+001  -1.134501e+001 
3118750000  -4.049980e+001  -1.611131e+001 
3121875000  -4.025158e+001  -2.838378e+001 
3125000000  -4.218004e+001  -3.325334e+001 
3128125000  -4.205084e+001  -2.704088e+001 
3131250000  -3.946227e+001  -3.488551e+001 
3134375000  -3.880315e+001  -5.281578e+001 
3137500000  -3.954650e+001  -6.591154e+001 
3140625000  -4.084436e+001  -7.106851e+001 
3143750000  -4.169610e+001  -7.551956e+001 
3146875000  -4.089541e+001  -7.295156e+001 
3150000000  -4.037529e+001  -7.709464e+001 
3153125000  -4.079455e+001  -8.757727e+001 
3156250000  -4.142412e+001  -8.487771e+001 
3159375000  -3.912516e+001  -8.714695e+001 
3162500000  -3.780795e+001  -1.042109e+002 
3165625000  -3.905880e+001  -1.185338e+002 
3168750000  -3.899031e+001  -1.195861e+002 
3171875000  -3.860749e+001  -1.296525e+002 
3175000000  -3.921503e+001  -1.389959e+002 
3178125000  -3.872224e+001  -1.412609e+002 
3181250000  -3.810061e+001  -1.504451e+002 
3184375000  -3.787140e+001  -1.623777e+002 
3187500000  -3.927881e+001  -1.784417e+002 
3190625000  -4.107626e+001  1.755474e+002 
3193750000  -4.128132e+001  1.782097e+002 
3196875000  -4.114279e+001  1.776304e+002 
3200000000  -3.993402e+001  1.730634e+002 
3203125000  -3.971264e+001  1.642310e+002 
3206250000  -3.971722e+001  1.550631e+002 
3209375000  -3.938829e+001  1.473968e+002 
3212500000  -3.987984e+001  1.399994e+002 
3215625000  -3.972748e+001  1.361998e+002 
3218750000  -4.045684e+001  1.242803e+002 
3221875000  -4.075048e+001  1.174360e+002 
3225000000  -4.043168e+001  1.125625e+002 
3228125000  -4.120211e+001  1.046169e+002 
3231250000  -4.149207e+001  1.019785e+002 
3234375000  -4.098836e+001  9.728143e+001 
3237500000  -4.099108e+001  9.561871e+001 
3240625000  -4.049671e+001  8.573726e+001 
3243750000  -4.033772e+001  7.458170e+001 
3246875000  -4.064152e+001  6.769267e+001 
3250000000  -4.137380e+001  6.252493e+001 
3253125000  -4.131482e+001  5.888399e+001 
3256250000  -4.054062e+001  4.911470e+001 
3259375000  -4.098329e+001  3.549038e+001 
3262500000  -4.243491e+001  3.037616e+001 
3265625000  -4.259850e+001  3.331816e+001 
3268750000  -4.243449e+001  3.072659e+001 
3271875000  -4.168945e+001  2.508602e+001 
3275000000  -4.125584e+001  1.534564e+001 
3278125000  -4.173092e+001  6.822585e+000 
3281250000  -4.179159e+001  2.542875e+000 
3284375000  -4.116811e+001  -4.027731e+000 
3287500000  -4.177400e+001  -1.293886e+001 
3290625000  -4.165486e+001  -2.253839e+001 
3293750000  -4.186379e+001  -2.994317e+001 
3296875000  -4.273675e+001  -3.367925e+001 
3300000000  -4.211904e+001  -3.711962e+001 
3303125000  -4.089700e+001  -4.653440e+001 
3306250000  -4.108295e+001  -5.743835e+001 
3309375000  -4.077306e+001  -6.712415e+001 
3312500000  -4.139047e+001  -8.245377e+001 
3315625000  -4.249928e+001  -9.149035e+001 
3318750000  -4.394046e+001  -9.728603e+001 
3321875000  -4.586684e+001  -9.996170e+001 
3325000000  -4.492304e+001  -9.281562e+001 
3328125000  -4.415519e+001  -9.408162e+001 
3331250000  -4.278704e+001  -9.707182e+001 
3334375000  -4.030911e+001  -1.148271e+002 
3337500000  -4.098860e+001  -1.371046e+002 
3340625000  -4.269856e+001  -1.470233e+002 
3343750000  -4.475801e+001  -1.517983e+002 
3346875000  -4.417022e+001  -1.518669e+002 
3350000000  -4.398686e+001  -1.584815e+002 
3353125000  -4.388866e+001  -1.682606e+002 
3356250000  -4.358452e+001  -1.771477e+002 
3359375000  -4.454092e+001  1.686146e+002 
3362500000  -4.543195e+001  1.622719e+002 
3365625000  -4.610527e+001  1.545749e+002 
3368750000  -4.658768e+001  1.500316e+002 
3371875000  -4.710218e+001  1.445955e+002 
3375000000  -4.872963e+001  1.369077e+002 
3378125000  -4.906687e+001  1.373852e+002 
3381250000  -5.053838e+001  1.474478e+002 
3384375000  -4.729970e+001  1.563160e+002 
3387500000  -4.480490e+001  1.334649e+002 
3390625000  -4.669768e+001  1.084049e+002 
3393750000  -4.800334e+001  1.076904e+002 
3396875000  -4.685723e+001  1.049825e+002 
3400000000  -4.625908e+001  8.856448e+001 
3403125000  -4.712058e+001  8.552151e+001 
3406250000  -4.769754e+001  7.409557e+001 
3409375000  -4.725330e+001  6.285577e+001 
3412500000  -4.772181e+001  5.533501e+001 
3415625000  -4.922513e+001  5.098367e+001 
3418750000  -4.842735e+001  4.701025e+001 
3421875000  -4.919881e+001  4.812730e+001 
3425000000  -4.779929e+001  3.625135e+001 
3428125000  -4.719838e+001  3.286025e+001 
3431250000  -4.689600e+001  1.976026e+001 
3434375000  -4.697910e+001  3.815966e+000 
3437500000  -4.765913e+001  -1.223375e+000 
3440625000  -4.806605e+001  -3.434158e+000 
3443750000  -4.692854e+001  -8.033223e+000 
3446875000  -4.559974e+001  -2.632079e+001 
3450000000  -4.523726e+001  -4.130674e+001 
3453125000  -4.574947e+001  -5.538316e+001 
3456250000  -4.681194e+001  -6.754778e+001 
3459375000  -4.805256e+001  -6.431991e+001 
3462500000  -4.747682e+001  -7.469136e+001 
3465625000  -4.765723e+001  -8.535060e+001 
3468750000  -4.772588e+001  -9.274405e+001 
3471875000  -4.670925e+001  -1.003405e+002 
3475000000  -4.682770e+001  -1.107118e+002 
3478125000  -4.771475e+001  -1.259383e+002 
3481250000  -4.866782e+001  -1.293500e+002 
3484375000  -4.853640e+001  -1.288174e+002 
3487500000  -4.735664e+001  -1.354608e+002 
3490625000  -4.758463e+001  -1.499050e+002 
3493750000  -4.732133e+001  -1.622340e+002 
3496875000  -4.779871e+001  -1.668037e+002 
3500000000  -4.828593e+001  -1.718543e+002 
3503125000  -4.653966e+001  -1.722941e+002 
3506250000  -4.565977e+001  1.768978e+002 
3509375000  -4.550475e+001  1.592207e+002 
3512500000  -4.623796e+001  1.396300e+002 
3515625000  -4.720648e+001  1.368570e+002 
3518750000  -4.792472e+001  1.361761e+002 
3521875000  -4.761475e+001  1.233239e+002 
3525000000  -4.857000e+001  1.148598e+002 
3528125000  -4.716135e+001  1.226029e+002 
3531250000  -4.637575e+001  1.080254e+002 
3534375000  -4.633008e+001  9.150156e+001 
3537500000  -4.794059e+001  8.254980e+001 
3540625000  -4.917528e+001  8.091229e+001 
3543750000  -4.904668e+001  8.678876e+001 
3546875000  -4.868562e+001  8.811192e+001 
3550000000  -4.625156e+001  7.726990e+001 
3553125000  -4.549278e+001  5.832942e+001 
3556250000  -4.757107e+001  5.110626e+001 
3559375000  -4.640215e+001  4.626812e+001 
3562500000  -4.648264e+001  3.506861e+001 
3565625000  -4.730705e+001  3.044445e+001 
3568750000  -4.777203e+001  2.771427e+001 
3571875000  -4.655147e+001  2.102870e+001 
3575000000  -4.728839e+001  1.681099e+001 
3578125000  -4.804147e+001  1.548790e+001 
3581250000  -4.766584e+001  9.132114e+000 
3584375000  -4.625657e+001  1.916581e+000 
3587500000  -4.614534e+001  -1.084993e+001 
3590625000  -4.627430e+001  -1.890463e+001 
3593750000  -4.806846e+001  -2.047205e+001 
3596875000  -4.650256e+001  -1.703313e+001 
3600000000  -4.503280e+001  -2.590896e+001 
3603125000  -4.531544e+001  -4.122268e+001 
3606250000  -4.603760e+001  -4.678857e+001 
3609375000  -4.567242e+001  -5.027675e+001 
3612500000  -4.603201e+001  -6.037785e+001 
3615625000  -4.619613e+001  -6.590955e+001 
3618750000  -4.589065e+001  -6.632501e+001 
3621875000  -4.562895e+001  -7.272635e+001 
3625000000  -4.568488e+001  -7.622169e+001 
3628125000  -4.503649e+001  -8.321996e+001 
3631250000  -4.509552e+001  -9.220260e+001 
3634375000  -4.549941e+001  -9.408829e+001 
3637500000  -4.436100e+001  -9.445523e+001 
3640625000  -4.363133e+001  -1.022300e+002 
3643750000  -4.317705e+001  -1.135496e+002 
3646875000  -4.365425e+001  -1.236658e+002 
3650000000  -4.386386e+001  -1.309427e+002 
3653125000  -4.368761e+001  -1.371914e+002 
3656250000  -4.389199e+001  -1.408352e+002 
3659375000  -4.395877e+001  -1.462146e+002 
3662500000  -4.354684e+001  -1.533536e+002 
3665625000  -4.331059e+001  -1.595135e+002 
3668750000  -4.196608e+001  -1.614923e+002 
3671875000  -4.154520e+001  -1.761817e+002 
3675000000  -4.180108e+001  1.725009e+002 
3678125000  -4.260757e+001  1.682762e+002 
3681250000  -4.233217e+001  1.620524e+002 
3684375000  -4.251545e+001  1.539999e+002 
3687500000  -4.303013e+001  1.445398e+002 
3690625000  -4.347602e+001  1.411239e+002 
3693750000  -4.472671e+001  1.379854e+002 
3696875000  -4.360562e+001  1.334664e+002 
3700000000  -4.328601e+001  1.261440e+002 
3703125000  -4.365524e+001  1.210943e+002 
3706250000  -4.488439e+001  1.162361e+002 
3709375000  -4.378008e+001  1.156003e+002 
3712500000  -4.303753e+001  1.100538e+002 
3715625000  -4.174099e+001  1.003186e+002 
3718750000  -4.151064e+001  9.072874e+001 
3721875000  -4.166191e+001  8.123975e+001 
3725000000  -4.249937e+001  7.393069e+001 
3728125000  -4.257721e+001  6.983488e+001 
3731250000  -4.191871e+001  6.523406e+001 
3734375000  -4.219976e+001  5.747413e+001 
3737500000  -4.324235e+001  4.910715e+001 
3740625000  -4.330025e+001  4.212409e+001 
3743750000  -4.308390e+001  3.568696e+001 
3746875000  -4.362378e+001  3.090930e+001 
3750000000  -4.390809e+001  2.822982e+001 
3753125000  -4.386957e+001  2.247300e+001 
3756250000  -4.368649e+001  2.265401e+001 
3759375000  -4.376159e+001  1.346645e+001 
3762500000  -4.313842e+001  9.808842e+000 
3765625000  -4.411750e+001  3.514526e+000 
3768750000  -4.377560e+001  5.200120e+000 
3771875000  -4.198386e+001  -3.364742e+000 
3775000000  -4.224635e+001  -1.363604e+001 
3778125000  -4.285663e+001  -1.963260e+001 
3781250000  -4.270025e+001  -2.503584e+001 
3784375000  -4.229691e+001  -3.033866e+001 
3787500000  -4.244024e+001  -3.510513e+001 
3790625000  -4.303983e+001  -4.662948e+001 
3793750000  -4.292529e+001  -4.787641e+001 
3796875000  -4.174732e+001  -5.335581e+001 
3800000000  -4.068287e+001  -6.124119e+001 
3803125000  -4.185086e+001  -7.181544e+001 
3806250000  -4.252259e+001  -7.632688e+001 
3809375000  -4.177503e+001  -8.217483e+001 
3812500000  -4.208464e+001  -9.395020e+001 
3815625000  -4.331449e+001  -1.045029e+002 
3818750000  -4.438604e+001  -1.036924e+002 
3821875000  -4.359927e+001  -9.342820e+001 
3825000000  -4.138168e+001  -9.859344e+001 
3828125000  -4.066838e+001  -1.187752e+002 
3831250000  -4.177676e+001  -1.336255e+002 
3834375000  -4.361712e+001  -1.344052e+002 
3837500000  -4.387187e+001  -1.334086e+002 
3840625000  -4.234023e+001  -1.375635e+002 
3843750000  -4.174115e+001  -1.545324e+002 
3846875000  -4.356559e+001  -1.605484e+002 
3850000000  -4.372557e+001  -1.543218e+002 
3853125000  -4.389803e+001  -1.565298e+002 
3856250000  -4.304831e+001  -1.634268e+002 
3859375000  -4.235143e+001  -1.729235e+002 
3862500000  -4.240435e+001  1.752241e+002 
3865625000  -4.273965e+001  1.690689e+002 
3868750000  -4.266592e+001  1.660886e+002 
3871875000  -4.198550e+001  1.585331e+002 
3875000000  -4.261013e+001  1.481787e+002 
3878125000  -4.350932e+001  1.463278e+002 
3881250000  -4.331982e+001  1.432532e+002 
3884375000  -4.252160e+001  1.337902e+002 
3887500000  -4.365422e+001  1.266212e+002 
3890625000  -4.361542e+001  1.221505e+002 
3893750000  -4.448704e+001  1.209774e+002 
3896875000  -4.448276e+001  1.183097e+002 
3900000000  -4.469386e+001  1.139236e+002 
3903125000  -4.414283e+001  1.070803e+002 
3906250000  -4.354036e+001  1.027623e+002 
3909375000  -4.262196e+001  9.795425e+001 
3912500000  -4.377336e+001  8.470261e+001 
3915625000  -4.447472e+001  8.342244e+001 
3918750000  -4.497949e+001  8.357879e+001 
3921875000  -4.407082e+001  7.938961e+001 
3925000000  -4.329860e+001  7.289567e+001 
3928125000  -4.270710e+001  6.171155e+001 
3931250000  -4.391449e+001  5.482766e+001 
3934375000  -4.442920e+001  5.468376e+001 
3937500000  -4.463411e+001  5.071265e+001 
3940625000  -4.479454e+001  4.958592e+001 
3943750000  -4.373359e+001  4.568031e+001 
3946875000  -4.280782e+001  3.423137e+001 
3950000000  -4.404189e+001  2.706514e+001 
3953125000  -4.455362e+001  2.465123e+001 
3956250000  -4.301948e+001  2.522396e+001 
3959375000  -4.194817e+001  2.240594e+001 
3962500000  -4.173734e+001  9.375998e+000 
3965625000  -4.240226e+001  -2.549204e+000 
3968750000  -4.289025e+001  -1.259853e+001 
3971875000  -4.254498e+001  -1.379494e+001 
3975000000  -4.252160e+001  -2.085424e+001 
3978125000  -4.271240e+001  -2.517479e+001 
3981250000  -4.210264e+001  -3.287003e+001 
3984375000  -4.248247e+001  -4.145746e+001 
3987500000  -4.346885e+001  -4.388408e+001 
3990625000  -4.315127e+001  -5.081633e+001 
3993750000  -4.329663e+001  -5.496944e+001 
3996875000  -4.297241e+001  -6.207312e+001 
4000000000  -4.403701e+001  -6.541806e+001 
4003125000  -4.409087e+001  -6.585618e+001 
4006250000  -4.237846e+001  -7.210958e+001 
4009375000  -4.172871e+001  -8.754248e+001 
4012500000  -4.325360e+001  -9.719645e+001 
4015625000  -4.419312e+001  -9.634586e+001 
4018750000  -4.374593e+001  -1.025904e+002 
4021875000  -4.309328e+001  -1.068975e+002 
4025000000  -4.336955e+001  -1.141923e+002 
4028125000  -4.343107e+001  -1.220450e+002 
4031250000  -4.406080e+001  -1.294827e+002 
4034375000  -4.405077e+001  -1.317245e+002 
4037500000  -4.408620e+001  -1.362211e+002 
4040625000  -4.426649e+001  -1.396629e+002 
4043750000  -4.501900e+001  -1.474810e+002 
4046875000  -4.467839e+001  -1.520366e+002 
4050000000  -4.458984e+001  -1.540396e+002 
4053125000  -4.572739e+001  -1.603472e+002 
4056250000  -4.552475e+001  -1.573899e+002 
4059375000  -4.411039e+001  -1.606781e+002 
4062500000  -4.358788e+001  -1.683142e+002 
4065625000  -4.423540e+001  -1.730947e+002 
4068750000  -4.298728e+001  1.768744e+002 
4071875000  -4.280841e+001  1.661900e+002 
4075000000  -4.393477e+001  1.618453e+002 
4078125000  -4.423788e+001  1.578031e+002 
4081250000  -4.385361e+001  1.516292e+002 
4084375000  -4.378857e+001  1.429217e+002 
4087500000  -4.450522e+001  1.339633e+002 
4090625000  -4.517472e+001  1.328230e+002 
4093750000  -4.508623e+001  1.338704e+002 
4096875000  -4.446646e+001  1.208387e+002 
4100000000  -4.541563e+001  1.173414e+002 
4103125000  -4.640390e+001  1.179121e+002 
4106250000  -4.548442e+001  1.222078e+002 
4109375000  -4.470404e+001  1.155867e+002 
4112500000  -4.455956e+001  1.102139e+002 
4115625000  -4.439961e+001  1.055455e+002 
4118750000  -4.442273e+001  9.753948e+001 
4121875000  -4.434679e+001  8.711241e+001 
4125000000  -4.509838e+001  8.363548e+001 
4128125000  -4.553370e+001  8.879056e+001 
4131250000  -4.428504e+001  8.891949e+001 
4134375000  -4.206467e+001  7.693661e+001 
4137500000  -4.218248e+001  5.578877e+001 
4140625000  -4.430591e+001  4.994121e+001 
4143750000  -4.498861e+001  5.141568e+001 
4146875000  -4.401273e+001  5.528292e+001 
4150000000  -4.327922e+001  4.658803e+001 
4153125000  -4.320556e+001  3.673006e+001 
4156250000  -4.423270e+001  3.271741e+001 
4159375000  -4.393085e+001  3.624928e+001 
4162500000  -4.288750e+001  3.367379e+001 
4165625000  -4.163861e+001  2.182500e+001 
4168750000  -4.114018e+001  1.241441e+001 
4171875000  -4.168596e+001  2.384388e+000 
4175000000  -4.211029e+001  -6.943037e+000 
4178125000  -4.242389e+001  -1.232444e+001 
4181250000  -4.251210e+001  -1.585610e+001 
4184375000  -4.274741e+001  -2.257202e+001 
4187500000  -4.295272e+001  -2.921716e+001 
4190625000  -4.304055e+001  -3.725647e+001 
4193750000  -4.471532e+001  -4.370016e+001 
4196875000  -4.553730e+001  -4.943115e+001 
4200000000  -4.635698e+001  -4.224390e+001 
4203125000  -4.519079e+001  -3.342999e+001 
4206250000  -4.158902e+001  -4.070734e+001 
4209375000  -4.181112e+001  -6.876635e+001 
4212500000  -4.416885e+001  -7.102127e+001 
4215625000  -4.450547e+001  -6.862597e+001 
4218750000  -4.281285e+001  -6.345964e+001 
4221875000  -4.131675e+001  -7.814815e+001 
4225000000  -4.307502e+001  -8.777470e+001 
4228125000  -4.277860e+001  -8.602215e+001 
4231250000  -4.180680e+001  -9.500128e+001 
4234375000  -4.149442e+001  -1.088195e+002 
4237500000  -4.133705e+001  -1.125494e+002 
4240625000  -4.160854e+001  -1.242118e+002 
4243750000  -4.311850e+001  -1.311602e+002 
4246875000  -4.407819e+001  -1.350687e+002 
4250000000  -4.343602e+001  -1.311499e+002 
4253125000  -4.315287e+001  -1.355447e+002 
4256250000  -4.331841e+001  -1.414204e+002 
4259375000  -4.299223e+001  -1.474709e+002 
4262500000  -4.294083e+001  -1.513255e+002 
4265625000  -4.264188e+001  -1.540072e+002 
4268750000  -4.147674e+001  -1.623543e+002 
4271875000  -4.133159e+001  -1.721682e+002 
4275000000  -4.053075e+001  1.787357e+002 
4278125000  -4.183548e+001  1.652818e+002 
4281250000  -4.278763e+001  1.659988e+002 
4284375000  -4.256314e+001  1.633753e+002 
4287500000  -4.414825e+001  1.576891e+002 
4290625000  -4.426170e+001  1.646789e+002 
4293750000  -4.189810e+001  1.648944e+002 
4296875000  -4.108238e+001  1.480357e+002 
4300000000  -4.175317e+001  1.397933e+002 
4303125000  -4.267882e+001  1.381662e+002 
4306250000  -4.112442e+001  1.390064e+002 
4309375000  -4.027967e+001  1.303183e+002 
4312500000  -4.012285e+001  1.150948e+002 
4315625000  -4.058443e+001  1.078305e+002 
4318750000  -4.119690e+001  1.022328e+002 
4321875000  -4.127084e+001  9.875938e+001 
4325000000  -4.065263e+001  9.380837e+001 
4328125000  -3.994119e+001  8.405125e+001 
4331250000  -4.055355e+001  7.182433e+001 
4334375000  -4.130453e+001  6.224800e+001 
4337500000  -4.228795e+001  6.052365e+001 
4340625000  -4.293961e+001  6.581242e+001 
4343750000  -4.146578e+001  5.892064e+001 
4346875000  -4.166958e+001  5.020098e+001 
4350000000  -4.173656e+001  4.036678e+001 
4353125000  -4.248222e+001  3.174273e+001 
4356250000  -4.464342e+001  3.648008e+001 
4359375000  -4.338948e+001  4.844897e+001 
4362500000  -4.004552e+001  3.803557e+001 
4365625000  -3.968996e+001  1.656140e+001 
4368750000  -4.065430e+001  1.032865e+001 
4371875000  -4.147712e+001  8.562174e+000 
4375000000  -4.159458e+001  1.060793e-001 
4378125000  -4.116001e+001  -7.290375e+000 
4381250000  -4.132123e+001  -1.357998e+001 
4384375000  -4.137951e+001  -2.169947e+001 
4387500000  -4.200112e+001  -2.720290e+001 
4390625000  -4.262922e+001  -3.027095e+001 
4393750000  -4.225267e+001  -3.146687e+001 
4396875000  -4.162817e+001  -3.627455e+001 
4400000000  -4.122972e+001  -4.400196e+001 
4403125000  -4.216155e+001  -5.573669e+001 
4406250000  -4.281082e+001  -5.987071e+001 
4409375000  -4.336002e+001  -6.331935e+001 
4412500000  -4.414857e+001  -6.733649e+001 
4415625000  -4.387788e+001  -6.485095e+001 
4418750000  -4.218544e+001  -6.455908e+001 
