!Agilent Technologies,E8363B,MY43030201,A.06.04.32
!Agilent E8363B: A.06.04.32
!Date: Tuesday, November 11, 2014 21:40:52
!Correction: S21(Response(S21)) 
!S1P File: Measurement: S21:
# Hz S  dB   R 50
3000000000  -4.353930e+001  -1.578888e+002 
3003125000  -4.502532e+001  -1.623126e+002 
3006250000  -4.546443e+001  -1.625429e+002 
3009375000  -4.608519e+001  -1.605326e+002 
3012500000  -4.511088e+001  -1.670330e+002 
3015625000  -4.497411e+001  -1.747876e+002 
3018750000  -4.539705e+001  -1.747719e+002 
3021875000  -4.384510e+001  -1.742629e+002 
3025000000  -4.269337e+001  -1.791441e+002 
3028125000  -4.161390e+001  1.694789e+002 
3031250000  -4.086286e+001  1.549963e+002 
3034375000  -4.069270e+001  1.402541e+002 
3037500000  -4.157649e+001  1.307448e+002 
3040625000  -4.279329e+001  1.239430e+002 
3043750000  -4.349876e+001  1.176673e+002 
3046875000  -4.414375e+001  1.097823e+002 
3050000000  -4.491135e+001  1.066051e+002 
3053125000  -4.507947e+001  1.114542e+002 
3056250000  -4.444843e+001  1.135973e+002 
3059375000  -4.390635e+001  1.116307e+002 
3062500000  -4.238085e+001  1.027662e+002 
3065625000  -4.210483e+001  9.502757e+001 
3068750000  -4.168105e+001  8.471489e+001 
3071875000  -4.157221e+001  8.327625e+001 
3075000000  -4.118301e+001  7.531150e+001 
3078125000  -4.120502e+001  6.897058e+001 
3081250000  -4.127124e+001  6.043742e+001 
3084375000  -4.047018e+001  5.539912e+001 
3087500000  -4.043039e+001  4.795289e+001 
3090625000  -3.997345e+001  3.515529e+001 
3093750000  -4.088383e+001  2.616081e+001 
3096875000  -4.104625e+001  2.026738e+001 
3100000000  -4.108994e+001  1.638266e+001 
3103125000  -4.141492e+001  1.212629e+001 
3106250000  -4.097506e+001  4.341558e+000 
3109375000  -4.090962e+001  -2.309074e-001 
3112500000  -4.079106e+001  -7.690567e+000 
3115625000  -4.091892e+001  -1.194603e+001 
3118750000  -4.081976e+001  -1.715121e+001 
3121875000  -4.014773e+001  -2.896983e+001 
3125000000  -4.206587e+001  -3.355428e+001 
3128125000  -4.185389e+001  -2.753244e+001 
3131250000  -3.946200e+001  -3.479007e+001 
3134375000  -3.873224e+001  -5.291154e+001 
3137500000  -3.933784e+001  -6.665363e+001 
3140625000  -4.104139e+001  -6.983363e+001 
3143750000  -4.149504e+001  -7.630170e+001 
3146875000  -4.113005e+001  -7.468497e+001 
3150000000  -4.041803e+001  -7.807841e+001 
3153125000  -4.091383e+001  -8.771744e+001 
3156250000  -4.133412e+001  -8.330469e+001 
3159375000  -3.888603e+001  -8.910634e+001 
3162500000  -3.772502e+001  -1.051281e+002 
3165625000  -3.896997e+001  -1.182518e+002 
3168750000  -3.895258e+001  -1.207148e+002 
3171875000  -3.853489e+001  -1.295155e+002 
3175000000  -3.914181e+001  -1.384135e+002 
3178125000  -3.875399e+001  -1.403807e+002 
3181250000  -3.814595e+001  -1.516265e+002 
3184375000  -3.779487e+001  -1.635785e+002 
3187500000  -3.919798e+001  -1.779035e+002 
3190625000  -4.100390e+001  1.750662e+002 
3193750000  -4.109297e+001  1.785892e+002 
3196875000  -4.120052e+001  1.790787e+002 
3200000000  -3.984375e+001  1.730977e+002 
3203125000  -3.953003e+001  1.635721e+002 
3206250000  -3.993100e+001  1.541085e+002 
3209375000  -3.952048e+001  1.465089e+002 
3212500000  -3.991837e+001  1.392262e+002 
3215625000  -3.967095e+001  1.364072e+002 
3218750000  -4.044949e+001  1.241528e+002 
3221875000  -4.066182e+001  1.172588e+002 
3225000000  -4.055975e+001  1.126401e+002 
3228125000  -4.111376e+001  1.043011e+002 
3231250000  -4.165274e+001  1.002108e+002 
3234375000  -4.102140e+001  9.780324e+001 
3237500000  -4.103663e+001  9.359821e+001 
3240625000  -4.047704e+001  8.714584e+001 
3243750000  -4.046865e+001  7.475389e+001 
3246875000  -4.077578e+001  6.818293e+001 
3250000000  -4.128160e+001  6.285351e+001 
3253125000  -4.114279e+001  5.870501e+001 
3256250000  -4.049312e+001  4.818805e+001 
3259375000  -4.093951e+001  3.471507e+001 
3262500000  -4.250981e+001  2.918591e+001 
3265625000  -4.265200e+001  3.184617e+001 
3268750000  -4.270618e+001  2.987340e+001 
3271875000  -4.178525e+001  2.488168e+001 
3275000000  -4.129153e+001  1.334621e+001 
3278125000  -4.187026e+001  7.768366e+000 
3281250000  -4.174168e+001  2.766747e+000 
3284375000  -4.118362e+001  -4.655709e+000 
3287500000  -4.164469e+001  -1.189265e+001 
3290625000  -4.148243e+001  -2.273247e+001 
3293750000  -4.152889e+001  -2.954736e+001 
3296875000  -4.262420e+001  -3.484659e+001 
3300000000  -4.212938e+001  -3.476621e+001 
3303125000  -4.114536e+001  -4.620213e+001 
3306250000  -4.114192e+001  -5.691338e+001 
3309375000  -4.098328e+001  -6.861217e+001 
3312500000  -4.135505e+001  -8.285789e+001 
3315625000  -4.246318e+001  -9.004532e+001 
3318750000  -4.390162e+001  -9.771608e+001 
3321875000  -4.507312e+001  -9.644994e+001 
3325000000  -4.509218e+001  -9.452493e+001 
3328125000  -4.396173e+001  -9.214429e+001 
3331250000  -4.266056e+001  -9.341233e+001 
3334375000  -4.030830e+001  -1.129407e+002 
3337500000  -4.084617e+001  -1.374640e+002 
3340625000  -4.289926e+001  -1.475985e+002 
3343750000  -4.462026e+001  -1.499286e+002 
3346875000  -4.447297e+001  -1.528707e+002 
3350000000  -4.388984e+001  -1.581992e+002 
3353125000  -4.385678e+001  -1.684904e+002 
3356250000  -4.351101e+001  1.798515e+002 
3359375000  -4.430781e+001  1.689217e+002 
3362500000  -4.524237e+001  1.618246e+002 
3365625000  -4.588103e+001  1.544867e+002 
3368750000  -4.655365e+001  1.473533e+002 
3371875000  -4.724428e+001  1.437518e+002 
3375000000  -4.890981e+001  1.361414e+002 
3378125000  -4.960276e+001  1.301779e+002 
3381250000  -5.082924e+001  1.422657e+002 
3384375000  -4.746201e+001  1.539834e+002 
3387500000  -4.453209e+001  1.332682e+002 
3390625000  -4.672281e+001  1.098116e+002 
3393750000  -4.779996e+001  1.103053e+002 
3396875000  -4.676876e+001  1.013033e+002 
3400000000  -4.673158e+001  9.179437e+001 
3403125000  -4.711755e+001  8.107494e+001 
3406250000  -4.765338e+001  7.161938e+001 
3409375000  -4.713213e+001  6.234404e+001 
3412500000  -4.762516e+001  5.450971e+001 
3415625000  -4.861630e+001  5.053952e+001 
3418750000  -4.881221e+001  4.362370e+001 
3421875000  -4.917310e+001  4.378317e+001 
3425000000  -4.772054e+001  3.878304e+001 
3428125000  -4.707438e+001  3.063160e+001 
3431250000  -4.726912e+001  1.772300e+001 
3434375000  -4.728356e+001  7.372110e+000 
3437500000  -4.780183e+001  -4.159318e-001 
3440625000  -4.776018e+001  -7.329628e+000 
3443750000  -4.623458e+001  -1.059939e+001 
3446875000  -4.572397e+001  -2.491958e+001 
3450000000  -4.551685e+001  -4.165268e+001 
3453125000  -4.563334e+001  -5.815321e+001 
3456250000  -4.692460e+001  -6.560174e+001 
3459375000  -4.803705e+001  -6.871500e+001 
3462500000  -4.769181e+001  -7.115883e+001 
3465625000  -4.751184e+001  -8.426711e+001 
3468750000  -4.736213e+001  -9.396675e+001 
3471875000  -4.717976e+001  -9.934372e+001 
3475000000  -4.710239e+001  -1.115528e+002 
3478125000  -4.736120e+001  -1.244832e+002 
3481250000  -4.861184e+001  -1.290247e+002 
3484375000  -4.846851e+001  -1.339529e+002 
3487500000  -4.789328e+001  -1.383195e+002 
3490625000  -4.717146e+001  -1.507833e+002 
3493750000  -4.791533e+001  -1.626617e+002 
3496875000  -4.796190e+001  -1.632038e+002 
3500000000  -4.861319e+001  -1.692891e+002 
3503125000  -4.677848e+001  -1.694430e+002 
3506250000  -4.539927e+001  1.754143e+002 
3509375000  -4.542605e+001  1.561038e+002 
3512500000  -4.606063e+001  1.415218e+002 
3515625000  -4.706756e+001  1.350961e+002 
3518750000  -4.784760e+001  1.323847e+002 
3521875000  -4.755293e+001  1.249892e+002 
3525000000  -4.895054e+001  1.200757e+002 
3528125000  -4.740162e+001  1.214050e+002 
3531250000  -4.673569e+001  1.104270e+002 
3534375000  -4.692892e+001  9.482831e+001 
3537500000  -4.775572e+001  8.496304e+001 
3540625000  -4.834263e+001  8.033711e+001 
3543750000  -4.907190e+001  8.467438e+001 
3546875000  -4.899697e+001  8.724161e+001 
3550000000  -4.639756e+001  7.662392e+001 
3553125000  -4.603605e+001  5.939708e+001 
3556250000  -4.711060e+001  5.106615e+001 
3559375000  -4.681709e+001  4.911751e+001 
3562500000  -4.653080e+001  3.498328e+001 
3565625000  -4.780895e+001  2.641797e+001 
3568750000  -4.790427e+001  2.895397e+001 
3571875000  -4.741055e+001  2.473298e+001 
3575000000  -4.735135e+001  1.661828e+001 
3578125000  -4.794192e+001  1.112178e+001 
3581250000  -4.756931e+001  1.172000e+001 
3584375000  -4.572541e+001  2.306166e-001 
3587500000  -4.522857e+001  -1.050085e+001 
3590625000  -4.672374e+001  -2.062635e+001 
3593750000  -4.794233e+001  -1.872988e+001 
3596875000  -4.636196e+001  -1.645329e+001 
3600000000  -4.475880e+001  -2.820323e+001 
3603125000  -4.515612e+001  -3.946275e+001 
3606250000  -4.606838e+001  -4.934307e+001 
3609375000  -4.583625e+001  -5.417947e+001 
3612500000  -4.616868e+001  -5.911484e+001 
3615625000  -4.585305e+001  -6.349890e+001 
3618750000  -4.594640e+001  -6.629005e+001 
3621875000  -4.539015e+001  -7.417509e+001 
3625000000  -4.565940e+001  -7.928526e+001 
3628125000  -4.451167e+001  -8.383145e+001 
3631250000  -4.491307e+001  -9.499601e+001 
3634375000  -4.559153e+001  -9.453629e+001 
3637500000  -4.458460e+001  -9.506261e+001 
3640625000  -4.367239e+001  -1.015773e+002 
3643750000  -4.308667e+001  -1.138274e+002 
3646875000  -4.382503e+001  -1.247918e+002 
3650000000  -4.396202e+001  -1.308025e+002 
3653125000  -4.338027e+001  -1.399939e+002 
3656250000  -4.415154e+001  -1.423937e+002 
3659375000  -4.384925e+001  -1.489069e+002 
3662500000  -4.323097e+001  -1.550414e+002 
3665625000  -4.343711e+001  -1.586737e+002 
3668750000  -4.226394e+001  -1.629422e+002 
3671875000  -4.156771e+001  -1.765218e+002 
3675000000  -4.208260e+001  1.734586e+002 
3678125000  -4.249203e+001  1.679456e+002 
3681250000  -4.237773e+001  1.601010e+002 
3684375000  -4.263701e+001  1.536335e+002 
3687500000  -4.301351e+001  1.449740e+002 
3690625000  -4.381158e+001  1.384444e+002 
3693750000  -4.436918e+001  1.384186e+002 
3696875000  -4.393437e+001  1.333129e+002 
3700000000  -4.308268e+001  1.278930e+002 
3703125000  -4.371035e+001  1.193031e+002 
3706250000  -4.469410e+001  1.177136e+002 
3709375000  -4.395338e+001  1.155788e+002 
3712500000  -4.310643e+001  1.096850e+002 
3715625000  -4.184249e+001  1.018368e+002 
3718750000  -4.175732e+001  9.132713e+001 
3721875000  -4.194094e+001  8.154031e+001 
3725000000  -4.238608e+001  7.405933e+001 
3728125000  -4.252166e+001  7.060763e+001 
3731250000  -4.195289e+001  6.373520e+001 
3734375000  -4.212753e+001  5.511562e+001 
3737500000  -4.267876e+001  4.823519e+001 
3740625000  -4.323837e+001  4.333138e+001 
3743750000  -4.275956e+001  3.461916e+001 
3746875000  -4.357868e+001  2.963403e+001 
3750000000  -4.372729e+001  2.421319e+001 
3753125000  -4.382005e+001  2.249689e+001 
3756250000  -4.398181e+001  1.960100e+001 
3759375000  -4.371367e+001  1.393702e+001 
3762500000  -4.308707e+001  8.469690e+000 
3765625000  -4.431458e+001  3.366205e+000 
3768750000  -4.370518e+001  5.334886e+000 
3771875000  -4.228558e+001  -1.451347e+000 
3775000000  -4.212115e+001  -1.618313e+001 
3778125000  -4.269286e+001  -2.117768e+001 
3781250000  -4.267442e+001  -2.546115e+001 
3784375000  -4.251461e+001  -3.159001e+001 
3787500000  -4.252761e+001  -3.418482e+001 
3790625000  -4.308549e+001  -4.502996e+001 
3793750000  -4.305149e+001  -4.933485e+001 
3796875000  -4.157964e+001  -5.589368e+001 
3800000000  -4.087321e+001  -6.168349e+001 
3803125000  -4.174695e+001  -7.212445e+001 
3806250000  -4.243214e+001  -7.772532e+001 
3809375000  -4.182682e+001  -8.339072e+001 
3812500000  -4.175806e+001  -9.543531e+001 
3815625000  -4.317817e+001  -1.040034e+002 
3818750000  -4.440142e+001  -1.021806e+002 
3821875000  -4.367265e+001  -9.222367e+001 
3825000000  -4.179148e+001  -9.869888e+001 
3828125000  -4.039295e+001  -1.212309e+002 
3831250000  -4.154417e+001  -1.368346e+002 
3834375000  -4.369726e+001  -1.369630e+002 
3837500000  -4.444398e+001  -1.343461e+002 
3840625000  -4.258422e+001  -1.399607e+002 
3843750000  -4.121646e+001  -1.541010e+002 
3846875000  -4.355834e+001  -1.592099e+002 
3850000000  -4.437003e+001  -1.537309e+002 
3853125000  -4.315421e+001  -1.574109e+002 
3856250000  -4.292384e+001  -1.656230e+002 
3859375000  -4.188868e+001  -1.744082e+002 
3862500000  -4.214881e+001  1.763694e+002 
3865625000  -4.262832e+001  1.661620e+002 
3868750000  -4.240594e+001  1.672953e+002 
3871875000  -4.195985e+001  1.586458e+002 
3875000000  -4.256480e+001  1.496723e+002 
3878125000  -4.322519e+001  1.440886e+002 
3881250000  -4.393884e+001  1.439836e+002 
3884375000  -4.271217e+001  1.327508e+002 
3887500000  -4.358595e+001  1.270258e+002 
3890625000  -4.406992e+001  1.219695e+002 
3893750000  -4.455478e+001  1.203251e+002 
3896875000  -4.450914e+001  1.187570e+002 
3900000000  -4.460677e+001  1.088535e+002 
3903125000  -4.354446e+001  1.064138e+002 
3906250000  -4.381255e+001  1.004545e+002 
3909375000  -4.309803e+001  9.516684e+001 
3912500000  -4.372187e+001  8.379538e+001 
3915625000  -4.479567e+001  8.368771e+001 
3918750000  -4.472311e+001  8.289204e+001 
3921875000  -4.389794e+001  7.851083e+001 
3925000000  -4.330033e+001  7.066501e+001 
3928125000  -4.290285e+001  6.090575e+001 
3931250000  -4.362275e+001  5.520809e+001 
3934375000  -4.393952e+001  5.249282e+001 
3937500000  -4.487361e+001  4.907584e+001 
3940625000  -4.479419e+001  5.121363e+001 
3943750000  -4.342797e+001  4.443089e+001 
3946875000  -4.286535e+001  3.328112e+001 
3950000000  -4.363683e+001  2.685838e+001 
3953125000  -4.468748e+001  2.298732e+001 
3956250000  -4.336355e+001  2.753740e+001 
3959375000  -4.246753e+001  1.968413e+001 
3962500000  -4.185750e+001  1.023633e+001 
3965625000  -4.215702e+001  -2.139398e+000 
3968750000  -4.244194e+001  -9.193896e+000 
3971875000  -4.292339e+001  -1.538376e+001 
3975000000  -4.200433e+001  -1.982502e+001 
3978125000  -4.221460e+001  -2.653716e+001 
3981250000  -4.183510e+001  -3.408096e+001 
3984375000  -4.272414e+001  -4.280889e+001 
3987500000  -4.285065e+001  -4.720792e+001 
3990625000  -4.303270e+001  -5.435246e+001 
3993750000  -4.330196e+001  -5.715825e+001 
3996875000  -4.310376e+001  -6.273103e+001 
4000000000  -4.387079e+001  -6.487553e+001 
4003125000  -4.383649e+001  -6.799889e+001 
4006250000  -4.220013e+001  -7.337943e+001 
4009375000  -4.156337e+001  -9.175503e+001 
4012500000  -4.287957e+001  -9.676564e+001 
4015625000  -4.406428e+001  -1.009332e+002 
4018750000  -4.419168e+001  -1.020242e+002 
4021875000  -4.257392e+001  -1.075767e+002 
4025000000  -4.292599e+001  -1.156012e+002 
4028125000  -4.361855e+001  -1.238206e+002 
4031250000  -4.425031e+001  -1.294575e+002 
4034375000  -4.414145e+001  -1.343241e+002 
4037500000  -4.427337e+001  -1.373225e+002 
4040625000  -4.448574e+001  -1.420331e+002 
4043750000  -4.444968e+001  -1.436721e+002 
4046875000  -4.424234e+001  -1.507921e+002 
4050000000  -4.439236e+001  -1.578345e+002 
4053125000  -4.542558e+001  -1.629805e+002 
4056250000  -4.662702e+001  -1.565925e+002 
4059375000  -4.438238e+001  -1.583915e+002 
4062500000  -4.381997e+001  -1.685450e+002 
4065625000  -4.360675e+001  -1.725446e+002 
4068750000  -4.394947e+001  1.783071e+002 
4071875000  -4.309267e+001  1.643129e+002 
4075000000  -4.375002e+001  1.594377e+002 
4078125000  -4.467298e+001  1.599333e+002 
4081250000  -4.373750e+001  1.500603e+002 
4084375000  -4.374125e+001  1.421872e+002 
4087500000  -4.421090e+001  1.340761e+002 
4090625000  -4.528049e+001  1.330393e+002 
4093750000  -4.477539e+001  1.311634e+002 
4096875000  -4.445215e+001  1.219951e+002 
4100000000  -4.557129e+001  1.167349e+002 
4103125000  -4.599392e+001  1.174946e+002 
4106250000  -4.561908e+001  1.208949e+002 
4109375000  -4.462381e+001  1.174604e+002 
4112500000  -4.394693e+001  1.057360e+002 
4115625000  -4.458591e+001  9.953431e+001 
4118750000  -4.431168e+001  9.564846e+001 
4121875000  -4.393032e+001  9.007966e+001 
4125000000  -4.478299e+001  8.287634e+001 
4128125000  -4.570283e+001  8.601931e+001 
4131250000  -4.439342e+001  8.784293e+001 
4134375000  -4.224191e+001  7.649800e+001 
4137500000  -4.265852e+001  5.314823e+001 
4140625000  -4.439100e+001  5.075769e+001 
4143750000  -4.529662e+001  5.592385e+001 
4146875000  -4.413785e+001  5.645330e+001 
4150000000  -4.282606e+001  4.706396e+001 
4153125000  -4.358493e+001  3.796185e+001 
4156250000  -4.395985e+001  3.441772e+001 
4159375000  -4.414821e+001  3.326777e+001 
4162500000  -4.249640e+001  3.048631e+001 
4165625000  -4.170552e+001  2.191685e+001 
4168750000  -4.139199e+001  1.211012e+001 
4171875000  -4.168929e+001  -5.816033e-001 
4175000000  -4.223712e+001  -9.563902e+000 
4178125000  -4.271031e+001  -1.091989e+001 
4181250000  -4.269501e+001  -1.742078e+001 
4184375000  -4.265014e+001  -2.337991e+001 
4187500000  -4.290851e+001  -3.033828e+001 
4190625000  -4.310986e+001  -3.975610e+001 
4193750000  -4.472081e+001  -4.610125e+001 
4196875000  -4.517770e+001  -4.834039e+001 
4200000000  -4.629557e+001  -4.434968e+001 
4203125000  -4.506567e+001  -3.082575e+001 
4206250000  -4.159563e+001  -4.226820e+001 
4209375000  -4.192019e+001  -6.684203e+001 
4212500000  -4.431647e+001  -7.250326e+001 
4215625000  -4.444044e+001  -6.497157e+001 
4218750000  -4.273178e+001  -6.586613e+001 
4221875000  -4.128266e+001  -7.872884e+001 
4225000000  -4.285754e+001  -8.715180e+001 
4228125000  -4.247762e+001  -8.651955e+001 
4231250000  -4.104332e+001  -9.782398e+001 
4234375000  -4.145302e+001  -1.088522e+002 
4237500000  -4.134842e+001  -1.132355e+002 
4240625000  -4.181708e+001  -1.250876e+002 
4243750000  -4.274765e+001  -1.331809e+002 
4246875000  -4.367752e+001  -1.325049e+002 
4250000000  -4.286359e+001  -1.310828e+002 
4253125000  -4.297719e+001  -1.382275e+002 
4256250000  -4.256992e+001  -1.440399e+002 
4259375000  -4.294220e+001  -1.451507e+002 
4262500000  -4.284381e+001  -1.535829e+002 
4265625000  -4.261797e+001  -1.537454e+002 
4268750000  -4.141456e+001  -1.639240e+002 
4271875000  -4.119149e+001  -1.746380e+002 
4275000000  -4.057761e+001  1.797135e+002 
4278125000  -4.211829e+001  1.653963e+002 
4281250000  -4.272692e+001  1.636842e+002 
4284375000  -4.260740e+001  1.613621e+002 
4287500000  -4.390483e+001  1.582926e+002 
4290625000  -4.366042e+001  1.650063e+002 
4293750000  -4.194775e+001  1.621221e+002 
4296875000  -4.092288e+001  1.466101e+002 
4300000000  -4.205450e+001  1.375520e+002 
4303125000  -4.264543e+001  1.380316e+002 
4306250000  -4.089333e+001  1.369853e+002 
4309375000  -4.031644e+001  1.284263e+002 
4312500000  -4.021004e+001  1.151849e+002 
4315625000  -4.059850e+001  1.082027e+002 
4318750000  -4.111573e+001  1.020390e+002 
4321875000  -4.094256e+001  9.796099e+001 
4325000000  -4.056407e+001  9.377288e+001 
4328125000  -3.974103e+001  8.404008e+001 
4331250000  -4.017133e+001  7.023656e+001 
4334375000  -4.113995e+001  6.287659e+001 
4337500000  -4.271880e+001  5.985100e+001 
4340625000  -4.229445e+001  6.296006e+001 
4343750000  -4.144682e+001  5.761173e+001 
4346875000  -4.145105e+001  5.111925e+001 
4350000000  -4.173697e+001  4.087361e+001 
4353125000  -4.231118e+001  2.998500e+001 
4356250000  -4.479142e+001  2.917438e+001 
4359375000  -4.266266e+001  4.834166e+001 
4362500000  -3.996857e+001  3.803746e+001 
4365625000  -3.975229e+001  1.824192e+001 
4368750000  -4.072433e+001  6.886168e+000 
4371875000  -4.166992e+001  5.906215e+000 
4375000000  -4.111561e+001  -3.029514e-001 
4378125000  -4.103736e+001  -7.299210e+000 
4381250000  -4.102488e+001  -1.474466e+001 
4384375000  -4.115237e+001  -2.155360e+001 
4387500000  -4.224411e+001  -3.199176e+001 
4390625000  -4.253958e+001  -3.220107e+001 
4393750000  -4.263760e+001  -3.296885e+001 
4396875000  -4.144244e+001  -3.559209e+001 
4400000000  -4.169144e+001  -4.503770e+001 
4403125000  -4.209495e+001  -5.653928e+001 
4406250000  -4.273309e+001  -6.130710e+001 
4409375000  -4.305442e+001  -6.573536e+001 
4412500000  -4.427792e+001  -6.845145e+001 
4415625000  -4.379368e+001  -6.652731e+001 
4418750000  -4.242251e+001  -6.329775e+001 
