!Agilent Technologies,E8363B,MY43030201,A.06.04.32
!Agilent E8363B: A.06.04.32
!Date: Tuesday, November 11, 2014 21:44:23
!Correction: S21(Response(S21)) 
!S1P File: Measurement: S21:
# Hz S  dB   R 50
3000000000  -4.361726e+001  -1.597686e+002 
3003125000  -4.518231e+001  -1.653752e+002 
3006250000  -4.513654e+001  -1.664544e+002 
3009375000  -4.614024e+001  -1.621187e+002 
3012500000  -4.493412e+001  -1.711317e+002 
3015625000  -4.488766e+001  -1.769692e+002 
3018750000  -4.530056e+001  -1.779682e+002 
3021875000  -4.379279e+001  -1.761676e+002 
3025000000  -4.242798e+001  1.789744e+002 
3028125000  -4.153763e+001  1.654780e+002 
3031250000  -4.089600e+001  1.534237e+002 
3034375000  -4.079283e+001  1.395105e+002 
3037500000  -4.182911e+001  1.276625e+002 
3040625000  -4.286636e+001  1.222107e+002 
3043750000  -4.337534e+001  1.147293e+002 
3046875000  -4.400194e+001  1.078016e+002 
3050000000  -4.512522e+001  1.044664e+002 
3053125000  -4.493721e+001  1.083868e+002 
3056250000  -4.483267e+001  1.107956e+002 
3059375000  -4.412186e+001  1.079700e+002 
3062500000  -4.262497e+001  1.004256e+002 
3065625000  -4.213318e+001  9.112357e+001 
3068750000  -4.199759e+001  8.279253e+001 
3071875000  -4.193985e+001  7.887847e+001 
3075000000  -4.105184e+001  7.148571e+001 
3078125000  -4.111171e+001  6.503964e+001 
3081250000  -4.130301e+001  5.760023e+001 
3084375000  -4.038393e+001  5.219111e+001 
3087500000  -4.072705e+001  4.585195e+001 
3090625000  -3.996947e+001  3.246383e+001 
3093750000  -4.104548e+001  2.278286e+001 
3096875000  -4.118873e+001  1.788234e+001 
3100000000  -4.110878e+001  1.306648e+001 
3103125000  -4.147366e+001  8.821455e+000 
3106250000  -4.097694e+001  2.861746e+000 
3109375000  -4.089182e+001  -3.672927e+000 
3112500000  -4.082210e+001  -1.015799e+001 
3115625000  -4.077299e+001  -1.394864e+001 
3118750000  -4.087302e+001  -1.925117e+001 
3121875000  -4.016182e+001  -3.191160e+001 
3125000000  -4.216498e+001  -3.481969e+001 
3128125000  -4.195953e+001  -3.085874e+001 
3131250000  -3.962189e+001  -3.749539e+001 
3134375000  -3.907175e+001  -5.555435e+001 
3137500000  -3.968391e+001  -6.867666e+001 
3140625000  -4.091586e+001  -7.339128e+001 
3143750000  -4.147095e+001  -7.722484e+001 
3146875000  -4.103698e+001  -7.583417e+001 
3150000000  -4.036542e+001  -8.134798e+001 
3153125000  -4.069497e+001  -9.109906e+001 
3156250000  -4.165295e+001  -8.811997e+001 
3159375000  -3.915819e+001  -9.037672e+001 
3162500000  -3.765168e+001  -1.077944e+002 
3165625000  -3.909932e+001  -1.216608e+002 
3168750000  -3.928466e+001  -1.233087e+002 
3171875000  -3.856425e+001  -1.319754e+002 
3175000000  -3.914416e+001  -1.417753e+002 
3178125000  -3.869110e+001  -1.449284e+002 
3181250000  -3.807190e+001  -1.542549e+002 
3184375000  -3.784918e+001  -1.659379e+002 
3187500000  -3.920230e+001  1.797997e+002 
3190625000  -4.094495e+001  1.714550e+002 
3193750000  -4.116639e+001  1.762568e+002 
3196875000  -4.134623e+001  1.758587e+002 
3200000000  -3.986990e+001  1.691187e+002 
3203125000  -3.979480e+001  1.618092e+002 
3206250000  -4.002255e+001  1.529059e+002 
3209375000  -3.966399e+001  1.436684e+002 
3212500000  -3.999391e+001  1.352560e+002 
3215625000  -3.980616e+001  1.329801e+002 
3218750000  -4.047833e+001  1.202682e+002 
3221875000  -4.065055e+001  1.139524e+002 
3225000000  -4.061475e+001  1.083029e+002 
3228125000  -4.129627e+001  1.011764e+002 
3231250000  -4.137080e+001  9.740819e+001 
3234375000  -4.111067e+001  9.437445e+001 
3237500000  -4.106160e+001  9.089206e+001 
3240625000  -4.030335e+001  8.404700e+001 
3243750000  -4.040109e+001  7.287669e+001 
3246875000  -4.081533e+001  6.340291e+001 
3250000000  -4.107373e+001  6.002074e+001 
3253125000  -4.132293e+001  5.533306e+001 
3256250000  -4.058565e+001  4.585230e+001 
3259375000  -4.096318e+001  3.182274e+001 
3262500000  -4.245711e+001  2.692461e+001 
3265625000  -4.269436e+001  2.734519e+001 
3268750000  -4.282826e+001  2.808725e+001 
3271875000  -4.166951e+001  2.122912e+001 
3275000000  -4.116254e+001  9.930513e+000 
3278125000  -4.185596e+001  4.800032e+000 
3281250000  -4.170808e+001  7.361447e-001 
3284375000  -4.118056e+001  -7.290363e+000 
3287500000  -4.157908e+001  -1.594245e+001 
3290625000  -4.181519e+001  -2.448084e+001 
3293750000  -4.160157e+001  -3.430789e+001 
3296875000  -4.261227e+001  -3.854739e+001 
3300000000  -4.233893e+001  -3.959708e+001 
3303125000  -4.087295e+001  -5.008183e+001 
3306250000  -4.089088e+001  -5.950918e+001 
3309375000  -4.064650e+001  -6.983547e+001 
3312500000  -4.108329e+001  -8.609707e+001 
3315625000  -4.243824e+001  -9.292384e+001 
3318750000  -4.408163e+001  -1.003362e+002 
3321875000  -4.570413e+001  -9.968831e+001 
3325000000  -4.530765e+001  -9.597263e+001 
3328125000  -4.429552e+001  -9.807284e+001 
3331250000  -4.249907e+001  -9.820635e+001 
3334375000  -4.010692e+001  -1.181200e+002 
3337500000  -4.090805e+001  -1.404738e+002 
3340625000  -4.285414e+001  -1.500944e+002 
3343750000  -4.456566e+001  -1.516664e+002 
3346875000  -4.405801e+001  -1.545143e+002 
3350000000  -4.381492e+001  -1.605479e+002 
3353125000  -4.344970e+001  -1.698723e+002 
3356250000  -4.342254e+001  1.781606e+002 
3359375000  -4.402364e+001  1.653704e+002 
3362500000  -4.502421e+001  1.602097e+002 
3365625000  -4.595528e+001  1.526439e+002 
3368750000  -4.644159e+001  1.470255e+002 
3371875000  -4.724260e+001  1.401309e+002 
3375000000  -4.846738e+001  1.351954e+002 
3378125000  -4.909530e+001  1.330749e+002 
3381250000  -5.029092e+001  1.484284e+002 
3384375000  -4.749137e+001  1.534322e+002 
3387500000  -4.471258e+001  1.295836e+002 
3390625000  -4.685192e+001  1.054262e+002 
3393750000  -4.777698e+001  1.036983e+002 
3396875000  -4.664886e+001  1.014441e+002 
3400000000  -4.639958e+001  8.459750e+001 
3403125000  -4.703784e+001  7.787002e+001 
3406250000  -4.748961e+001  7.031877e+001 
3409375000  -4.749605e+001  6.221100e+001 
3412500000  -4.803828e+001  5.410948e+001 
3415625000  -4.898989e+001  4.730842e+001 
3418750000  -4.889961e+001  4.308443e+001 
3421875000  -4.948223e+001  4.266386e+001 
3425000000  -4.795559e+001  3.688496e+001 
3428125000  -4.743201e+001  2.617121e+001 
3431250000  -4.678264e+001  1.257980e+001 
3434375000  -4.676500e+001  2.915712e+000 
3437500000  -4.755779e+001  -5.067252e+000 
3440625000  -4.793636e+001  -7.566587e+000 
3443750000  -4.625264e+001  -1.147233e+001 
3446875000  -4.558156e+001  -2.847631e+001 
3450000000  -4.515393e+001  -4.434942e+001 
3453125000  -4.596329e+001  -6.004946e+001 
3456250000  -4.728483e+001  -6.978320e+001 
3459375000  -4.826878e+001  -6.966273e+001 
3462500000  -4.831883e+001  -7.594947e+001 
3465625000  -4.676078e+001  -8.553746e+001 
3468750000  -4.766064e+001  -9.514042e+001 
3471875000  -4.695982e+001  -1.036756e+002 
3475000000  -4.706329e+001  -1.166820e+002 
3478125000  -4.759863e+001  -1.320769e+002 
3481250000  -4.862120e+001  -1.308787e+002 
3484375000  -4.862077e+001  -1.317419e+002 
3487500000  -4.742787e+001  -1.406477e+002 
3490625000  -4.674537e+001  -1.531034e+002 
3493750000  -4.791710e+001  -1.651380e+002 
3496875000  -4.804776e+001  -1.697500e+002 
3500000000  -4.803092e+001  -1.690829e+002 
3503125000  -4.667239e+001  -1.744948e+002 
3506250000  -4.542809e+001  1.720583e+002 
3509375000  -4.575078e+001  1.556497e+002 
3512500000  -4.598155e+001  1.377991e+002 
3515625000  -4.719933e+001  1.331413e+002 
3518750000  -4.738056e+001  1.300957e+002 
3521875000  -4.773045e+001  1.181777e+002 
3525000000  -4.941781e+001  1.167488e+002 
3528125000  -4.733662e+001  1.164194e+002 
3531250000  -4.611824e+001  1.061292e+002 
3534375000  -4.665967e+001  8.886926e+001 
3537500000  -4.748629e+001  8.130979e+001 
3540625000  -4.870137e+001  7.404702e+001 
3543750000  -4.929345e+001  8.455499e+001 
3546875000  -4.863774e+001  8.434270e+001 
3550000000  -4.646255e+001  7.442757e+001 
3553125000  -4.595900e+001  5.758307e+001 
3556250000  -4.788406e+001  5.103752e+001 
3559375000  -4.620255e+001  4.412175e+001 
3562500000  -4.631828e+001  3.172823e+001 
3565625000  -4.783319e+001  2.511871e+001 
3568750000  -4.788574e+001  2.974687e+001 
3571875000  -4.753865e+001  2.049854e+001 
3575000000  -4.670828e+001  1.227847e+001 
3578125000  -4.773419e+001  1.099493e+001 
3581250000  -4.764798e+001  3.694463e+000 
3584375000  -4.614727e+001  -7.469069e-001 
3587500000  -4.558582e+001  -1.289090e+001 
3590625000  -4.626929e+001  -2.285024e+001 
3593750000  -4.776355e+001  -2.283543e+001 
3596875000  -4.677543e+001  -1.807478e+001 
3600000000  -4.493308e+001  -3.351478e+001 
3603125000  -4.511398e+001  -4.692777e+001 
3606250000  -4.559006e+001  -5.209068e+001 
3609375000  -4.584789e+001  -5.334338e+001 
3612500000  -4.567728e+001  -6.412019e+001 
3615625000  -4.626529e+001  -6.722894e+001 
3618750000  -4.628912e+001  -6.940575e+001 
3621875000  -4.548247e+001  -7.661990e+001 
3625000000  -4.595763e+001  -8.173135e+001 
3628125000  -4.485970e+001  -8.500026e+001 
3631250000  -4.534319e+001  -9.351764e+001 
3634375000  -4.566013e+001  -9.789039e+001 
3637500000  -4.454427e+001  -9.582165e+001 
3640625000  -4.388589e+001  -1.065170e+002 
3643750000  -4.312730e+001  -1.177565e+002 
3646875000  -4.391586e+001  -1.276932e+002 
3650000000  -4.351243e+001  -1.331534e+002 
3653125000  -4.297141e+001  -1.391379e+002 
3656250000  -4.379865e+001  -1.473417e+002 
3659375000  -4.385725e+001  -1.510451e+002 
3662500000  -4.361457e+001  -1.595144e+002 
3665625000  -4.312793e+001  -1.617464e+002 
3668750000  -4.196155e+001  -1.671863e+002 
3671875000  -4.126897e+001  1.783122e+002 
3675000000  -4.246557e+001  1.685706e+002 
3678125000  -4.282646e+001  1.651758e+002 
3681250000  -4.261227e+001  1.592928e+002 
3684375000  -4.255121e+001  1.496405e+002 
3687500000  -4.315869e+001  1.403694e+002 
3690625000  -4.382612e+001  1.349906e+002 
3693750000  -4.454353e+001  1.340252e+002 
3696875000  -4.403216e+001  1.308047e+002 
3700000000  -4.318475e+001  1.246540e+002 
3703125000  -4.409899e+001  1.149054e+002 
3706250000  -4.458135e+001  1.120101e+002 
3709375000  -4.396476e+001  1.128302e+002 
3712500000  -4.336232e+001  1.091631e+002 
3715625000  -4.166402e+001  9.797485e+001 
3718750000  -4.143847e+001  8.805523e+001 
3721875000  -4.173156e+001  7.992854e+001 
3725000000  -4.246676e+001  7.057724e+001 
3728125000  -4.246880e+001  6.842047e+001 
3731250000  -4.208207e+001  6.124970e+001 
3734375000  -4.196383e+001  5.593704e+001 
3737500000  -4.298542e+001  4.396442e+001 
3740625000  -4.318035e+001  3.987041e+001 
3743750000  -4.305341e+001  3.310677e+001 
3746875000  -4.313389e+001  2.725904e+001 
3750000000  -4.377319e+001  2.272772e+001 
3753125000  -4.367566e+001  1.958088e+001 
3756250000  -4.396214e+001  1.582390e+001 
3759375000  -4.354789e+001  9.552629e+000 
3762500000  -4.385439e+001  6.120312e+000 
3765625000  -4.419102e+001  -1.070598e+000 
3768750000  -4.333795e+001  1.185602e+000 
3771875000  -4.204940e+001  -7.088398e+000 
3775000000  -4.208358e+001  -1.781955e+001 
3778125000  -4.284922e+001  -2.241608e+001 
3781250000  -4.260680e+001  -2.939323e+001 
3784375000  -4.240739e+001  -3.752185e+001 
3787500000  -4.250161e+001  -4.081025e+001 
3790625000  -4.287572e+001  -4.909854e+001 
3793750000  -4.270844e+001  -5.354173e+001 
3796875000  -4.163014e+001  -5.774237e+001 
3800000000  -4.110480e+001  -6.459475e+001 
3803125000  -4.180727e+001  -7.612934e+001 
3806250000  -4.250835e+001  -8.058823e+001 
3809375000  -4.187988e+001  -8.907552e+001 
3812500000  -4.150267e+001  -9.815978e+001 
3815625000  -4.337898e+001  -1.087870e+002 
3818750000  -4.439208e+001  -1.075210e+002 
3821875000  -4.360403e+001  -9.617932e+001 
3825000000  -4.142389e+001  -1.044587e+002 
3828125000  -4.054573e+001  -1.243382e+002 
3831250000  -4.143077e+001  -1.404193e+002 
3834375000  -4.364032e+001  -1.395501e+002 
3837500000  -4.418619e+001  -1.365486e+002 
3840625000  -4.240326e+001  -1.445450e+002 
3843750000  -4.190326e+001  -1.569660e+002 
3846875000  -4.351870e+001  -1.652752e+002 
3850000000  -4.418884e+001  -1.614133e+002 
3853125000  -4.346321e+001  -1.624502e+002 
3856250000  -4.288303e+001  -1.681308e+002 
3859375000  -4.211831e+001  -1.778977e+002 
3862500000  -4.225837e+001  1.717803e+002 
3865625000  -4.268993e+001  1.663609e+002 
3868750000  -4.237856e+001  1.648431e+002 
3871875000  -4.191254e+001  1.535331e+002 
3875000000  -4.255777e+001  1.438270e+002 
3878125000  -4.335900e+001  1.405129e+002 
3881250000  -4.332226e+001  1.399499e+002 
3884375000  -4.284449e+001  1.297438e+002 
3887500000  -4.313104e+001  1.214599e+002 
3890625000  -4.407267e+001  1.205087e+002 
3893750000  -4.410007e+001  1.148315e+002 
3896875000  -4.451642e+001  1.117375e+002 
3900000000  -4.474992e+001  1.067739e+002 
3903125000  -4.367426e+001  1.006369e+002 
3906250000  -4.353319e+001  9.894814e+001 
3909375000  -4.252461e+001  9.036372e+001 
3912500000  -4.395318e+001  8.107102e+001 
3915625000  -4.476388e+001  8.096124e+001 
3918750000  -4.421800e+001  7.859874e+001 
3921875000  -4.367473e+001  7.339610e+001 
3925000000  -4.320732e+001  6.723664e+001 
3928125000  -4.290048e+001  5.801564e+001 
3931250000  -4.390025e+001  5.168032e+001 
3934375000  -4.401461e+001  4.825012e+001 
3937500000  -4.462966e+001  4.811610e+001 
3940625000  -4.457145e+001  4.479777e+001 
3943750000  -4.352631e+001  4.119268e+001 
3946875000  -4.330006e+001  2.829662e+001 
3950000000  -4.402957e+001  2.259527e+001 
3953125000  -4.493586e+001  2.255228e+001 
3956250000  -4.310246e+001  1.874769e+001 
3959375000  -4.215627e+001  1.381366e+001 
3962500000  -4.137702e+001  1.916983e+000 
3965625000  -4.172940e+001  -5.740921e+000 
3968750000  -4.256299e+001  -1.484433e+001 
3971875000  -4.253046e+001  -2.051564e+001 
3975000000  -4.217869e+001  -2.413827e+001 
3978125000  -4.222667e+001  -3.170487e+001 
3981250000  -4.179937e+001  -3.781238e+001 
3984375000  -4.252951e+001  -4.617588e+001 
3987500000  -4.338126e+001  -5.118324e+001 
3990625000  -4.335023e+001  -5.338599e+001 
3993750000  -4.300179e+001  -6.020349e+001 
3996875000  -4.316596e+001  -6.762619e+001 
4000000000  -4.372769e+001  -7.002738e+001 
4003125000  -4.429345e+001  -7.224668e+001 
4006250000  -4.219557e+001  -7.728891e+001 
4009375000  -4.119724e+001  -9.419971e+001 
4012500000  -4.331199e+001  -1.015095e+002 
4015625000  -4.480595e+001  -1.039835e+002 
4018750000  -4.413758e+001  -1.068044e+002 
4021875000  -4.310947e+001  -1.127005e+002 
4025000000  -4.313120e+001  -1.197023e+002 
4028125000  -4.360811e+001  -1.264577e+002 
4031250000  -4.392477e+001  -1.354328e+002 
4034375000  -4.449639e+001  -1.363616e+002 
4037500000  -4.438730e+001  -1.389212e+002 
4040625000  -4.433756e+001  -1.468341e+002 
4043750000  -4.456180e+001  -1.486601e+002 
4046875000  -4.418830e+001  -1.562623e+002 
4050000000  -4.493577e+001  -1.642599e+002 
4053125000  -4.516068e+001  -1.655510e+002 
4056250000  -4.550798e+001  -1.622267e+002 
4059375000  -4.408226e+001  -1.619945e+002 
4062500000  -4.383908e+001  -1.726100e+002 
4065625000  -4.364155e+001  1.795745e+002 
4068750000  -4.306260e+001  1.724074e+002 
4071875000  -4.279551e+001  1.631132e+002 
4075000000  -4.396597e+001  1.563961e+002 
4078125000  -4.447869e+001  1.535001e+002 
4081250000  -4.371521e+001  1.482574e+002 
4084375000  -4.356366e+001  1.396532e+002 
4087500000  -4.447660e+001  1.300574e+002 
4090625000  -4.482093e+001  1.298331e+002 
4093750000  -4.503393e+001  1.284324e+002 
4096875000  -4.508031e+001  1.193662e+002 
4100000000  -4.540470e+001  1.140748e+002 
4103125000  -4.616085e+001  1.166626e+002 
4106250000  -4.537619e+001  1.173357e+002 
4109375000  -4.445967e+001  1.138942e+002 
4112500000  -4.434389e+001  1.021042e+002 
4115625000  -4.442253e+001  9.695731e+001 
4118750000  -4.394498e+001  9.350729e+001 
4121875000  -4.425212e+001  8.488830e+001 
4125000000  -4.481220e+001  7.598615e+001 
4128125000  -4.568700e+001  8.059776e+001 
4131250000  -4.429694e+001  8.325345e+001 
4134375000  -4.198838e+001  7.099358e+001 
4137500000  -4.245586e+001  5.251662e+001 
4140625000  -4.390304e+001  4.585885e+001 
4143750000  -4.523136e+001  5.237698e+001 
4146875000  -4.472639e+001  5.366834e+001 
4150000000  -4.318801e+001  4.197871e+001 
4153125000  -4.374974e+001  3.240454e+001 
4156250000  -4.381920e+001  2.720509e+001 
4159375000  -4.411906e+001  2.937250e+001 
4162500000  -4.269616e+001  2.833215e+001 
4165625000  -4.197430e+001  1.758400e+001 
4168750000  -4.159571e+001  7.048476e+000 
4171875000  -4.133075e+001  -3.725784e+000 
4175000000  -4.196606e+001  -1.110642e+001 
4178125000  -4.269269e+001  -1.445448e+001 
4181250000  -4.256685e+001  -2.175876e+001 
4184375000  -4.265303e+001  -2.565800e+001 
4187500000  -4.280233e+001  -3.489618e+001 
4190625000  -4.320087e+001  -4.383558e+001 
4193750000  -4.419328e+001  -4.961578e+001 
4196875000  -4.569614e+001  -5.232889e+001 
4200000000  -4.641937e+001  -4.434548e+001 
4203125000  -4.446253e+001  -3.435361e+001 
4206250000  -4.182337e+001  -4.666379e+001 
4209375000  -4.180068e+001  -7.071270e+001 
4212500000  -4.388923e+001  -7.989243e+001 
4215625000  -4.439349e+001  -7.307351e+001 
4218750000  -4.320105e+001  -7.036455e+001 
4221875000  -4.135385e+001  -8.132152e+001 
4225000000  -4.243739e+001  -9.206478e+001 
4228125000  -4.268662e+001  -8.992671e+001 
4231250000  -4.140478e+001  -1.014988e+002 
4234375000  -4.143968e+001  -1.111828e+002 
4237500000  -4.139204e+001  -1.173886e+002 
4240625000  -4.148488e+001  -1.293729e+002 
4243750000  -4.203044e+001  -1.353629e+002 
4246875000  -4.341885e+001  -1.350952e+002 
4250000000  -4.292606e+001  -1.397566e+002 
4253125000  -4.312966e+001  -1.412430e+002 
4256250000  -4.264238e+001  -1.475839e+002 
4259375000  -4.237774e+001  -1.512883e+002 
4262500000  -4.242230e+001  -1.577965e+002 
4265625000  -4.249314e+001  -1.586003e+002 
4268750000  -4.117750e+001  -1.679669e+002 
4271875000  -4.132520e+001  -1.765254e+002 
4275000000  -4.084851e+001  1.751381e+002 
4278125000  -4.191773e+001  1.618629e+002 
4281250000  -4.282927e+001  1.580531e+002 
4284375000  -4.235085e+001  1.583784e+002 
4287500000  -4.419191e+001  1.539127e+002 
4290625000  -4.417614e+001  1.576723e+002 
4293750000  -4.189564e+001  1.578289e+002 
4296875000  -4.062430e+001  1.408754e+002 
4300000000  -4.208907e+001  1.330554e+002 
4303125000  -4.203931e+001  1.325847e+002 
4306250000  -4.112885e+001  1.339654e+002 
4309375000  -4.039599e+001  1.228010e+002 
4312500000  -3.994201e+001  1.101806e+002 
4315625000  -4.066305e+001  1.016515e+002 
4318750000  -4.138740e+001  9.673221e+001 
4321875000  -4.092481e+001  9.407745e+001 
4325000000  -4.033824e+001  8.840272e+001 
4328125000  -3.989503e+001  7.687006e+001 
4331250000  -4.026286e+001  6.523572e+001 
4334375000  -4.117651e+001  5.915308e+001 
4337500000  -4.249126e+001  5.621641e+001 
4340625000  -4.257499e+001  5.824538e+001 
4343750000  -4.163163e+001  5.379051e+001 
4346875000  -4.135247e+001  4.271256e+001 
4350000000  -4.154128e+001  3.427343e+001 
4353125000  -4.294429e+001  2.592768e+001 
4356250000  -4.452217e+001  3.061481e+001 
4359375000  -4.290630e+001  4.363781e+001 
4362500000  -3.991749e+001  3.213324e+001 
4365625000  -3.944345e+001  1.469066e+001 
4368750000  -4.076131e+001  2.812298e+000 
4371875000  -4.153215e+001  -7.974663e-001 
4375000000  -4.100261e+001  -2.197860e+000 
4378125000  -4.078305e+001  -1.217013e+001 
4381250000  -4.147131e+001  -1.856894e+001 
4384375000  -4.110104e+001  -2.700642e+001 
4387500000  -4.245481e+001  -3.164606e+001 
4390625000  -4.285696e+001  -3.545366e+001 
4393750000  -4.215409e+001  -3.662377e+001 
4396875000  -4.176154e+001  -4.449253e+001 
4400000000  -4.115132e+001  -5.315269e+001 
4403125000  -4.236224e+001  -6.301683e+001 
4406250000  -4.280965e+001  -6.379709e+001 
4409375000  -4.342911e+001  -6.919874e+001 
4412500000  -4.448928e+001  -7.275507e+001 
4415625000  -4.372379e+001  -6.868960e+001 
4418750000  -4.238145e+001  -7.077438e+001 
