!Agilent Technologies,E8363B,MY43030201,A.06.04.32
!Agilent E8363B: A.06.04.32
!Date: Tuesday, November 11, 2014 21:53:06
!Correction: S21(Response(S21)) 
!S1P File: Measurement: S21:
# Hz S  dB   R 50
3000000000  -4.359544e+001  -1.629364e+002 
3003125000  -4.533938e+001  -1.682466e+002 
3006250000  -4.539165e+001  -1.696960e+002 
3009375000  -4.616329e+001  -1.664568e+002 
3012500000  -4.465153e+001  -1.736007e+002 
3015625000  -4.505854e+001  -1.785636e+002 
3018750000  -4.544619e+001  1.793707e+002 
3021875000  -4.411990e+001  -1.786038e+002 
3025000000  -4.265670e+001  1.759249e+002 
3028125000  -4.172326e+001  1.624731e+002 
3031250000  -4.102237e+001  1.496336e+002 
3034375000  -4.083048e+001  1.347008e+002 
3037500000  -4.169266e+001  1.246765e+002 
3040625000  -4.300345e+001  1.193388e+002 
3043750000  -4.345279e+001  1.136274e+002 
3046875000  -4.407967e+001  1.056339e+002 
3050000000  -4.522874e+001  1.019073e+002 
3053125000  -4.460359e+001  1.035491e+002 
3056250000  -4.480589e+001  1.057717e+002 
3059375000  -4.383814e+001  1.050531e+002 
3062500000  -4.264072e+001  9.808889e+001 
3065625000  -4.204628e+001  8.527592e+001 
3068750000  -4.169299e+001  7.979816e+001 
3071875000  -4.176591e+001  7.758563e+001 
3075000000  -4.128826e+001  6.835516e+001 
3078125000  -4.135431e+001  6.261663e+001 
3081250000  -4.139014e+001  5.530534e+001 
3084375000  -4.045024e+001  4.929822e+001 
3087500000  -4.049944e+001  4.262035e+001 
3090625000  -3.997843e+001  2.972384e+001 
3093750000  -4.103970e+001  1.992667e+001 
3096875000  -4.113810e+001  1.547618e+001 
3100000000  -4.116454e+001  9.436726e+000 
3103125000  -4.149855e+001  5.133187e+000 
3106250000  -4.125026e+001  -6.045691e-001 
3109375000  -4.083572e+001  -5.283818e+000 
3112500000  -4.086276e+001  -1.351691e+001 
3115625000  -4.083584e+001  -1.726051e+001 
3118750000  -4.078297e+001  -2.332859e+001 
3121875000  -4.024457e+001  -3.463000e+001 
3125000000  -4.206844e+001  -3.937775e+001 
3128125000  -4.213960e+001  -3.253617e+001 
3131250000  -3.950925e+001  -4.119980e+001 
3134375000  -3.884092e+001  -5.762374e+001 
3137500000  -3.941987e+001  -7.110455e+001 
3140625000  -4.099581e+001  -7.756735e+001 
3143750000  -4.153279e+001  -7.871024e+001 
3146875000  -4.107231e+001  -7.821803e+001 
3150000000  -4.032648e+001  -8.505347e+001 
3153125000  -4.077521e+001  -9.308186e+001 
3156250000  -4.139689e+001  -8.935104e+001 
3159375000  -3.919130e+001  -9.395343e+001 
3162500000  -3.757753e+001  -1.099296e+002 
3165625000  -3.881115e+001  -1.248444e+002 
3168750000  -3.904425e+001  -1.257352e+002 
3171875000  -3.860350e+001  -1.338752e+002 
3175000000  -3.913325e+001  -1.447164e+002 
3178125000  -3.866434e+001  -1.464537e+002 
3181250000  -3.804517e+001  -1.562013e+002 
3184375000  -3.776727e+001  -1.684442e+002 
3187500000  -3.919457e+001  1.762816e+002 
3190625000  -4.083596e+001  1.689134e+002 
3193750000  -4.108028e+001  1.732529e+002 
3196875000  -4.115240e+001  1.728980e+002 
3200000000  -3.984971e+001  1.674623e+002 
3203125000  -3.942669e+001  1.595720e+002 
3206250000  -3.977402e+001  1.507715e+002 
3209375000  -3.942993e+001  1.413469e+002 
3212500000  -3.978973e+001  1.334723e+002 
3215625000  -3.954136e+001  1.309277e+002 
3218750000  -4.028917e+001  1.186466e+002 
3221875000  -4.058096e+001  1.117486e+002 
3225000000  -4.036830e+001  1.069713e+002 
3228125000  -4.102179e+001  9.909565e+001 
3231250000  -4.136422e+001  9.503438e+001 
3234375000  -4.105144e+001  9.086996e+001 
3237500000  -4.091629e+001  8.809417e+001 
3240625000  -4.027614e+001  8.145872e+001 
3243750000  -4.025112e+001  6.843313e+001 
3246875000  -4.075802e+001  6.225903e+001 
3250000000  -4.103391e+001  5.781915e+001 
3253125000  -4.099885e+001  5.336876e+001 
3256250000  -4.049308e+001  4.160603e+001 
3259375000  -4.125015e+001  2.900700e+001 
3262500000  -4.230879e+001  2.482296e+001 
3265625000  -4.257355e+001  2.648273e+001 
3268750000  -4.261228e+001  2.593505e+001 
3271875000  -4.156277e+001  1.802525e+001 
3275000000  -4.109714e+001  8.216551e+000 
3278125000  -4.194016e+001  1.414422e+000 
3281250000  -4.184333e+001  -1.423579e+000 
3284375000  -4.107739e+001  -1.065270e+001 
3287500000  -4.141371e+001  -1.892179e+001 
3290625000  -4.168849e+001  -2.872273e+001 
3293750000  -4.146627e+001  -3.533368e+001 
3296875000  -4.252862e+001  -3.981951e+001 
3300000000  -4.193650e+001  -4.144579e+001 
3303125000  -4.108445e+001  -5.248610e+001 
3306250000  -4.088173e+001  -6.127461e+001 
3309375000  -4.061523e+001  -7.201094e+001 
3312500000  -4.122520e+001  -8.689408e+001 
3315625000  -4.243236e+001  -9.664890e+001 
3318750000  -4.388426e+001  -1.035546e+002 
3321875000  -4.547128e+001  -1.005718e+002 
3325000000  -4.464148e+001  -9.636214e+001 
3328125000  -4.433231e+001  -1.011557e+002 
3331250000  -4.243387e+001  -1.005101e+002 
3334375000  -4.017363e+001  -1.191386e+002 
3337500000  -4.069954e+001  -1.427780e+002 
3340625000  -4.272957e+001  -1.516766e+002 
3343750000  -4.462394e+001  -1.540565e+002 
3346875000  -4.402717e+001  -1.580572e+002 
3350000000  -4.350397e+001  -1.636605e+002 
3353125000  -4.384863e+001  -1.723203e+002 
3356250000  -4.303139e+001  1.775138e+002 
3359375000  -4.432667e+001  1.620014e+002 
3362500000  -4.517853e+001  1.571552e+002 
3365625000  -4.545250e+001  1.500978e+002 
3368750000  -4.607013e+001  1.448908e+002 
3371875000  -4.681427e+001  1.391199e+002 
3375000000  -4.857158e+001  1.331259e+002 
3378125000  -4.929703e+001  1.304789e+002 
3381250000  -5.058644e+001  1.464912e+002 
3384375000  -4.732084e+001  1.489534e+002 
3387500000  -4.486278e+001  1.269500e+002 
3390625000  -4.638832e+001  1.036891e+002 
3393750000  -4.830681e+001  1.022628e+002 
3396875000  -4.600784e+001  9.904034e+001 
3400000000  -4.607587e+001  8.002799e+001 
3403125000  -4.660168e+001  7.739187e+001 
3406250000  -4.745738e+001  7.167513e+001 
3409375000  -4.659995e+001  5.918251e+001 
3412500000  -4.792339e+001  5.157014e+001 
3415625000  -4.864569e+001  4.585001e+001 
3418750000  -4.867883e+001  4.699852e+001 
3421875000  -4.946413e+001  3.988227e+001 
3425000000  -4.753548e+001  3.399995e+001 
3428125000  -4.706999e+001  2.501487e+001 
3431250000  -4.714219e+001  1.464090e+001 
3434375000  -4.697282e+001  2.961646e+000 
3437500000  -4.765585e+001  -6.844032e+000 
3440625000  -4.796468e+001  -9.727078e+000 
3443750000  -4.637173e+001  -1.313300e+001 
3446875000  -4.572464e+001  -2.807220e+001 
3450000000  -4.551971e+001  -4.593956e+001 
3453125000  -4.569540e+001  -6.099409e+001 
3456250000  -4.776874e+001  -7.098595e+001 
3459375000  -4.814377e+001  -7.473669e+001 
3462500000  -4.783063e+001  -8.100399e+001 
3465625000  -4.756569e+001  -9.222006e+001 
3468750000  -4.753038e+001  -9.818118e+001 
3471875000  -4.701462e+001  -1.058307e+002 
3475000000  -4.707478e+001  -1.191539e+002 
3478125000  -4.758657e+001  -1.313131e+002 
3481250000  -4.872695e+001  -1.382288e+002 
3484375000  -4.881348e+001  -1.347962e+002 
3487500000  -4.756459e+001  -1.427553e+002 
3490625000  -4.717174e+001  -1.547769e+002 
3493750000  -4.822488e+001  -1.666636e+002 
3496875000  -4.835690e+001  -1.703199e+002 
3500000000  -4.828994e+001  -1.756375e+002 
3503125000  -4.677818e+001  -1.788283e+002 
3506250000  -4.589367e+001  1.712298e+002 
3509375000  -4.538089e+001  1.499525e+002 
3512500000  -4.642486e+001  1.344856e+002 
3515625000  -4.745522e+001  1.291052e+002 
3518750000  -4.831173e+001  1.281142e+002 
3521875000  -4.857590e+001  1.152313e+002 
3525000000  -4.920631e+001  1.115974e+002 
3528125000  -4.704870e+001  1.170826e+002 
3531250000  -4.662564e+001  1.037311e+002 
3534375000  -4.711975e+001  8.765867e+001 
3537500000  -4.845606e+001  7.703937e+001 
3540625000  -4.923629e+001  7.215163e+001 
3543750000  -4.967266e+001  7.808042e+001 
3546875000  -4.849422e+001  8.024419e+001 
3550000000  -4.638622e+001  7.198127e+001 
3553125000  -4.631351e+001  5.241015e+001 
3556250000  -4.752447e+001  4.677048e+001 
3559375000  -4.677451e+001  3.866508e+001 
3562500000  -4.634169e+001  2.905730e+001 
3565625000  -4.720732e+001  2.356912e+001 
3568750000  -4.783858e+001  1.638399e+001 
3571875000  -4.740540e+001  1.737512e+001 
3575000000  -4.687043e+001  1.132570e+001 
3578125000  -4.765007e+001  3.063145e+000 
3581250000  -4.737365e+001  -2.480831e-001 
3584375000  -4.607524e+001  -2.735234e+000 
3587500000  -4.565112e+001  -1.637056e+001 
3590625000  -4.624192e+001  -2.996727e+001 
3593750000  -4.744002e+001  -2.880552e+001 
3596875000  -4.672118e+001  -2.449530e+001 
3600000000  -4.477906e+001  -3.565590e+001 
3603125000  -4.499845e+001  -5.306347e+001 
3606250000  -4.596992e+001  -5.479192e+001 
3609375000  -4.583823e+001  -5.700084e+001 
3612500000  -4.617167e+001  -6.760794e+001 
3615625000  -4.604870e+001  -6.945559e+001 
3618750000  -4.593383e+001  -7.557727e+001 
3621875000  -4.549987e+001  -8.233569e+001 
3625000000  -4.611036e+001  -8.461195e+001 
3628125000  -4.445983e+001  -9.129881e+001 
3631250000  -4.466718e+001  -9.885636e+001 
3634375000  -4.556457e+001  -1.027206e+002 
3637500000  -4.441846e+001  -1.056152e+002 
3640625000  -4.362115e+001  -1.081421e+002 
3643750000  -4.318021e+001  -1.198604e+002 
3646875000  -4.387695e+001  -1.335452e+002 
3650000000  -4.394969e+001  -1.356068e+002 
3653125000  -4.351041e+001  -1.456797e+002 
3656250000  -4.413394e+001  -1.513190e+002 
3659375000  -4.401687e+001  -1.548481e+002 
3662500000  -4.325973e+001  -1.625253e+002 
3665625000  -4.344483e+001  -1.666847e+002 
3668750000  -4.187768e+001  -1.711199e+002 
3671875000  -4.113340e+001  1.751660e+002 
3675000000  -4.213110e+001  1.675838e+002 
3678125000  -4.242494e+001  1.613176e+002 
3681250000  -4.233221e+001  1.539962e+002 
3684375000  -4.262792e+001  1.450538e+002 
3687500000  -4.269984e+001  1.402408e+002 
3690625000  -4.346134e+001  1.320652e+002 
3693750000  -4.423013e+001  1.303874e+002 
3696875000  -4.405396e+001  1.278473e+002 
3700000000  -4.317004e+001  1.195216e+002 
3703125000  -4.355386e+001  1.112151e+002 
3706250000  -4.485654e+001  1.099118e+002 
3709375000  -4.388046e+001  1.110082e+002 
3712500000  -4.290257e+001  1.034743e+002 
3715625000  -4.182276e+001  9.382046e+001 
3718750000  -4.156973e+001  8.337671e+001 
3721875000  -4.192091e+001  7.365480e+001 
3725000000  -4.240897e+001  6.547100e+001 
3728125000  -4.256985e+001  6.321603e+001 
3731250000  -4.190925e+001  5.539690e+001 
3734375000  -4.168028e+001  4.802165e+001 
3737500000  -4.268282e+001  4.164729e+001 
3740625000  -4.260709e+001  3.488789e+001 
3743750000  -4.310346e+001  2.895642e+001 
3746875000  -4.343001e+001  2.162721e+001 
3750000000  -4.377119e+001  1.779834e+001 
3753125000  -4.327610e+001  1.522603e+001 
3756250000  -4.376437e+001  1.034671e+001 
3759375000  -4.370435e+001  5.940515e+000 
3762500000  -4.338468e+001  2.508599e+000 
3765625000  -4.412434e+001  -7.435019e+000 
3768750000  -4.327287e+001  -3.918514e+000 
3771875000  -4.211834e+001  -1.083087e+001 
3775000000  -4.209140e+001  -2.183264e+001 
3778125000  -4.268106e+001  -2.836535e+001 
3781250000  -4.232875e+001  -3.361106e+001 
3784375000  -4.231782e+001  -3.968344e+001 
3787500000  -4.204398e+001  -4.412738e+001 
3790625000  -4.276836e+001  -5.778227e+001 
3793750000  -4.266919e+001  -5.764173e+001 
3796875000  -4.137921e+001  -6.311356e+001 
3800000000  -4.056678e+001  -6.989623e+001 
3803125000  -4.169506e+001  -8.300088e+001 
3806250000  -4.217497e+001  -8.466203e+001 
3809375000  -4.200212e+001  -9.275546e+001 
3812500000  -4.181292e+001  -1.002407e+002 
3815625000  -4.302880e+001  -1.115332e+002 
3818750000  -4.417609e+001  -1.090667e+002 
3821875000  -4.372305e+001  -1.023660e+002 
3825000000  -4.161863e+001  -1.092913e+002 
3828125000  -4.049296e+001  -1.284854e+002 
3831250000  -4.143176e+001  -1.438803e+002 
3834375000  -4.389100e+001  -1.435147e+002 
3837500000  -4.385105e+001  -1.403618e+002 
3840625000  -4.246847e+001  -1.498192e+002 
3843750000  -4.140908e+001  -1.623587e+002 
3846875000  -4.359430e+001  -1.667438e+002 
3850000000  -4.428388e+001  -1.642556e+002 
3853125000  -4.360984e+001  -1.658884e+002 
3856250000  -4.301463e+001  -1.721635e+002 
3859375000  -4.217449e+001  1.764560e+002 
3862500000  -4.211869e+001  1.677309e+002 
3865625000  -4.271435e+001  1.594883e+002 
3868750000  -4.221428e+001  1.607993e+002 
3871875000  -4.176281e+001  1.490851e+002 
3875000000  -4.248547e+001  1.384849e+002 
3878125000  -4.315185e+001  1.371058e+002 
3881250000  -4.335008e+001  1.348350e+002 
3884375000  -4.251594e+001  1.232642e+002 
3887500000  -4.348455e+001  1.169998e+002 
3890625000  -4.397175e+001  1.152612e+002 
3893750000  -4.413416e+001  1.136388e+002 
3896875000  -4.427948e+001  1.080084e+002 
3900000000  -4.414130e+001  1.060665e+002 
3903125000  -4.417627e+001  9.989848e+001 
3906250000  -4.369950e+001  9.644767e+001 
3909375000  -4.269931e+001  8.405720e+001 
3912500000  -4.376069e+001  7.831715e+001 
3915625000  -4.482106e+001  7.692914e+001 
3918750000  -4.432183e+001  7.474879e+001 
3921875000  -4.386988e+001  7.064234e+001 
3925000000  -4.290844e+001  6.360971e+001 
3928125000  -4.318305e+001  5.501622e+001 
3931250000  -4.340759e+001  4.745052e+001 
3934375000  -4.380672e+001  4.438556e+001 
3937500000  -4.478421e+001  4.031676e+001 
3940625000  -4.441787e+001  3.910937e+001 
3943750000  -4.314977e+001  3.516428e+001 
3946875000  -4.278352e+001  2.685245e+001 
3950000000  -4.333506e+001  1.701402e+001 
3953125000  -4.389994e+001  1.743966e+001 
3956250000  -4.264048e+001  1.670416e+001 
3959375000  -4.182217e+001  1.123064e+001 
3962500000  -4.149571e+001  1.909698e-001 
3965625000  -4.175063e+001  -1.123506e+001 
3968750000  -4.227077e+001  -1.909223e+001 
3971875000  -4.269263e+001  -2.465090e+001 
3975000000  -4.175035e+001  -2.800358e+001 
3978125000  -4.205815e+001  -3.607310e+001 
3981250000  -4.151435e+001  -4.213311e+001 
3984375000  -4.219565e+001  -5.106013e+001 
3987500000  -4.285891e+001  -5.443615e+001 
3990625000  -4.291574e+001  -6.109752e+001 
3993750000  -4.278534e+001  -6.343939e+001 
3996875000  -4.279429e+001  -7.295968e+001 
4000000000  -4.364131e+001  -7.520075e+001 
4003125000  -4.384986e+001  -7.550506e+001 
4006250000  -4.184704e+001  -8.217883e+001 
4009375000  -4.101486e+001  -9.668832e+001 
4012500000  -4.255178e+001  -1.076051e+002 
4015625000  -4.391557e+001  -1.067453e+002 
4018750000  -4.362418e+001  -1.104424e+002 
4021875000  -4.258351e+001  -1.180122e+002 
4025000000  -4.310638e+001  -1.230158e+002 
4028125000  -4.323839e+001  -1.321089e+002 
4031250000  -4.386595e+001  -1.415997e+002 
4034375000  -4.402779e+001  -1.400641e+002 
4037500000  -4.390142e+001  -1.435340e+002 
4040625000  -4.406021e+001  -1.503972e+002 
4043750000  -4.446400e+001  -1.542339e+002 
4046875000  -4.415776e+001  -1.588145e+002 
4050000000  -4.442345e+001  -1.644165e+002 
4053125000  -4.508473e+001  -1.700650e+002 
4056250000  -4.568165e+001  -1.640788e+002 
4059375000  -4.362921e+001  -1.669988e+002 
4062500000  -4.294631e+001  -1.768552e+002 
4065625000  -4.304378e+001  1.785181e+002 
4068750000  -4.243138e+001  1.688178e+002 
4071875000  -4.266887e+001  1.581330e+002 
4075000000  -4.295510e+001  1.496062e+002 
4078125000  -4.376910e+001  1.479887e+002 
4081250000  -4.369592e+001  1.422873e+002 
4084375000  -4.316900e+001  1.342373e+002 
4087500000  -4.390155e+001  1.278038e+002 
4090625000  -4.435501e+001  1.263012e+002 
4093750000  -4.429178e+001  1.217044e+002 
4096875000  -4.394993e+001  1.148170e+002 
4100000000  -4.498341e+001  1.053595e+002 
4103125000  -4.567331e+001  1.074803e+002 
4106250000  -4.500871e+001  1.136546e+002 
4109375000  -4.450001e+001  1.089580e+002 
4112500000  -4.393254e+001  9.730894e+001 
4115625000  -4.390696e+001  9.197192e+001 
4118750000  -4.419651e+001  8.832304e+001 
4121875000  -4.313362e+001  7.722887e+001 
4125000000  -4.462730e+001  7.408275e+001 
4128125000  -4.496104e+001  7.857758e+001 
4131250000  -4.352790e+001  8.042692e+001 
4134375000  -4.157353e+001  6.673084e+001 
4137500000  -4.215527e+001  4.417482e+001 
4140625000  -4.396624e+001  3.966004e+001 
4143750000  -4.480999e+001  4.168911e+001 
4146875000  -4.379154e+001  4.526681e+001 
4150000000  -4.277962e+001  3.886578e+001 
4153125000  -4.303634e+001  2.789017e+001 
4156250000  -4.353663e+001  2.589011e+001 
4159375000  -4.358797e+001  2.349702e+001 
4162500000  -4.204438e+001  2.207482e+001 
4165625000  -4.165035e+001  1.258794e+001 
4168750000  -4.093010e+001  -5.829490e-001 
4171875000  -4.097579e+001  -1.172984e+001 
4175000000  -4.190204e+001  -1.715117e+001 
4178125000  -4.226836e+001  -2.235454e+001 
4181250000  -4.170882e+001  -2.744313e+001 
4184375000  -4.244934e+001  -3.177155e+001 
4187500000  -4.245113e+001  -4.037335e+001 
4190625000  -4.247456e+001  -5.099063e+001 
4193750000  -4.384743e+001  -5.439569e+001 
4196875000  -4.495900e+001  -5.734783e+001 
4200000000  -4.617117e+001  -5.101381e+001 
4203125000  -4.489649e+001  -4.360199e+001 
4206250000  -4.118432e+001  -5.143613e+001 
4209375000  -4.134076e+001  -7.418673e+001 
4212500000  -4.381437e+001  -8.264690e+001 
4215625000  -4.400317e+001  -7.327891e+001 
4218750000  -4.200175e+001  -7.633676e+001 
4221875000  -4.054270e+001  -8.878237e+001 
4225000000  -4.230766e+001  -9.941466e+001 
4228125000  -4.231928e+001  -9.769697e+001 
4231250000  -4.084336e+001  -1.068896e+002 
4234375000  -4.116137e+001  -1.180473e+002 
4237500000  -4.082038e+001  -1.237737e+002 
4240625000  -4.097169e+001  -1.326413e+002 
4243750000  -4.236084e+001  -1.441812e+002 
4246875000  -4.279873e+001  -1.436002e+002 
4250000000  -4.259272e+001  -1.435807e+002 
4253125000  -4.257927e+001  -1.470328e+002 
4256250000  -4.224205e+001  -1.545998e+002 
4259375000  -4.185300e+001  -1.592863e+002 
4262500000  -4.207780e+001  -1.616984e+002 
4265625000  -4.204363e+001  -1.656803e+002 
4268750000  -4.101209e+001  -1.743073e+002 
4271875000  -4.072751e+001  1.772466e+002 
4275000000  -4.008738e+001  1.671652e+002 
4278125000  -4.143246e+001  1.543281e+002 
4281250000  -4.240622e+001  1.497010e+002 
4284375000  -4.222605e+001  1.488357e+002 
4287500000  -4.425148e+001  1.435378e+002 
4290625000  -4.358590e+001  1.545990e+002 
4293750000  -4.157189e+001  1.513759e+002 
4296875000  -4.004713e+001  1.364627e+002 
4300000000  -4.128586e+001  1.271915e+002 
4303125000  -4.183730e+001  1.274392e+002 
4306250000  -4.055665e+001  1.262315e+002 
4309375000  -3.999974e+001  1.171465e+002 
4312500000  -3.984874e+001  1.049044e+002 
4315625000  -4.018155e+001  9.449232e+001 
4318750000  -4.074640e+001  8.990125e+001 
4321875000  -4.074068e+001  8.631419e+001 
4325000000  -3.990615e+001  8.416596e+001 
4328125000  -3.926892e+001  7.177452e+001 
4331250000  -3.972033e+001  6.030372e+001 
4334375000  -4.077632e+001  5.076072e+001 
4337500000  -4.166652e+001  4.969580e+001 
4340625000  -4.241090e+001  5.082340e+001 
4343750000  -4.103297e+001  4.790883e+001 
4346875000  -4.064680e+001  3.794672e+001 
4350000000  -4.113231e+001  3.090512e+001 
4353125000  -4.185157e+001  1.943072e+001 
4356250000  -4.430160e+001  2.474637e+001 
4359375000  -4.272301e+001  3.853016e+001 
4362500000  -3.941822e+001  2.640380e+001 
4365625000  -3.898371e+001  7.873668e+000 
4368750000  -3.995099e+001  -3.942855e+000 
4371875000  -4.086832e+001  -5.117682e+000 
4375000000  -4.059734e+001  -9.580854e+000 
4378125000  -4.036693e+001  -1.724437e+001 
4381250000  -4.041990e+001  -2.749933e+001 
4384375000  -4.052319e+001  -3.379054e+001 
4387500000  -4.138925e+001  -3.983044e+001 
4390625000  -4.213706e+001  -4.387712e+001 
4393750000  -4.145582e+001  -4.314798e+001 
4396875000  -4.094709e+001  -4.772049e+001 
4400000000  -4.073501e+001  -5.903583e+001 
4403125000  -4.133343e+001  -6.691099e+001 
4406250000  -4.227851e+001  -7.397597e+001 
4409375000  -4.254665e+001  -7.714191e+001 
4412500000  -4.336351e+001  -7.698166e+001 
4415625000  -4.345619e+001  -7.879941e+001 
4418750000  -4.204328e+001  -7.893141e+001 
