!Agilent Technologies,E8363B,MY43030201,A.06.04.32
!Agilent E8363B: A.06.04.32
!Date: Tuesday, November 11, 2014 21:44:37
!Correction: S21(Response(S21)) 
!S1P File: Measurement: S21:
# Hz S  dB   R 50
3000000000  -4.355734e+001  -1.600735e+002 
3003125000  -4.547404e+001  -1.675895e+002 
3006250000  -4.534018e+001  -1.671376e+002 
3009375000  -4.626991e+001  -1.628217e+002 
3012500000  -4.503719e+001  -1.701153e+002 
3015625000  -4.513658e+001  -1.773941e+002 
3018750000  -4.525494e+001  -1.767605e+002 
3021875000  -4.391296e+001  -1.781783e+002 
3025000000  -4.263620e+001  1.790880e+002 
3028125000  -4.179665e+001  1.658220e+002 
3031250000  -4.088762e+001  1.529985e+002 
3034375000  -4.089491e+001  1.393852e+002 
3037500000  -4.162463e+001  1.283997e+002 
3040625000  -4.287828e+001  1.190890e+002 
3043750000  -4.331968e+001  1.139506e+002 
3046875000  -4.415440e+001  1.081623e+002 
3050000000  -4.527731e+001  1.047403e+002 
3053125000  -4.488651e+001  1.060318e+002 
3056250000  -4.468477e+001  1.096674e+002 
3059375000  -4.390273e+001  1.081620e+002 
3062500000  -4.234702e+001  1.020784e+002 
3065625000  -4.200726e+001  8.953427e+001 
3068750000  -4.172882e+001  8.134273e+001 
3071875000  -4.190625e+001  7.993862e+001 
3075000000  -4.126311e+001  7.195801e+001 
3078125000  -4.108730e+001  6.463868e+001 
3081250000  -4.128168e+001  5.779288e+001 
3084375000  -4.046353e+001  5.207276e+001 
3087500000  -4.050037e+001  4.399466e+001 
3090625000  -3.998831e+001  3.197248e+001 
3093750000  -4.104536e+001  2.146844e+001 
3096875000  -4.137262e+001  1.705746e+001 
3100000000  -4.114218e+001  1.316425e+001 
3103125000  -4.147551e+001  8.460873e+000 
3106250000  -4.096971e+001  2.039515e+000 
3109375000  -4.086810e+001  -3.843046e+000 
3112500000  -4.087214e+001  -9.773148e+000 
3115625000  -4.096624e+001  -1.542904e+001 
3118750000  -4.070437e+001  -2.023836e+001 
3121875000  -4.034077e+001  -3.217805e+001 
3125000000  -4.212284e+001  -3.645522e+001 
3128125000  -4.223851e+001  -2.871062e+001 
3131250000  -3.944952e+001  -3.911712e+001 
3134375000  -3.897454e+001  -5.612582e+001 
3137500000  -3.964922e+001  -7.012099e+001 
3140625000  -4.092392e+001  -7.253986e+001 
3143750000  -4.157985e+001  -7.794711e+001 
3146875000  -4.112899e+001  -7.648806e+001 
3150000000  -4.039391e+001  -8.296429e+001 
3153125000  -4.068262e+001  -8.957660e+001 
3156250000  -4.147963e+001  -8.684888e+001 
3159375000  -3.928429e+001  -9.202219e+001 
3162500000  -3.773281e+001  -1.086111e+002 
3165625000  -3.907531e+001  -1.221453e+002 
3168750000  -3.906232e+001  -1.228042e+002 
3171875000  -3.846602e+001  -1.318456e+002 
3175000000  -3.908564e+001  -1.425669e+002 
3178125000  -3.877890e+001  -1.437957e+002 
3181250000  -3.819960e+001  -1.530396e+002 
3184375000  -3.789893e+001  -1.649946e+002 
3187500000  -3.906716e+001  1.779777e+002 
3190625000  -4.099152e+001  1.701963e+002 
3193750000  -4.121022e+001  1.750824e+002 
3196875000  -4.112557e+001  1.757315e+002 
3200000000  -4.002926e+001  1.699988e+002 
3203125000  -3.959996e+001  1.613703e+002 
3206250000  -3.980938e+001  1.521517e+002 
3209375000  -3.944352e+001  1.448408e+002 
3212500000  -4.001388e+001  1.363521e+002 
3215625000  -3.982938e+001  1.344377e+002 
3218750000  -4.038019e+001  1.219237e+002 
3221875000  -4.050105e+001  1.151111e+002 
3225000000  -4.037979e+001  1.099509e+002 
3228125000  -4.125574e+001  1.010232e+002 
3231250000  -4.136742e+001  9.837631e+001 
3234375000  -4.096189e+001  9.440550e+001 
3237500000  -4.083146e+001  9.028040e+001 
3240625000  -4.034784e+001  8.276100e+001 
3243750000  -4.052166e+001  7.216311e+001 
3246875000  -4.060814e+001  6.378327e+001 
3250000000  -4.133065e+001  5.872920e+001 
3253125000  -4.126781e+001  5.548790e+001 
3256250000  -4.054906e+001  4.583522e+001 
3259375000  -4.122180e+001  3.203140e+001 
3262500000  -4.251551e+001  2.775332e+001 
3265625000  -4.271125e+001  2.704763e+001 
3268750000  -4.257645e+001  2.703541e+001 
3271875000  -4.141028e+001  2.134455e+001 
3275000000  -4.110984e+001  1.176152e+001 
3278125000  -4.184840e+001  4.140082e+000 
3281250000  -4.190015e+001  -4.245240e-001 
3284375000  -4.125422e+001  -7.175312e+000 
3287500000  -4.153495e+001  -1.444156e+001 
3290625000  -4.181540e+001  -2.595189e+001 
3293750000  -4.161694e+001  -3.376195e+001 
3296875000  -4.272205e+001  -3.774524e+001 
3300000000  -4.217694e+001  -4.038124e+001 
3303125000  -4.095833e+001  -5.017669e+001 
3306250000  -4.098601e+001  -5.977744e+001 
3309375000  -4.054322e+001  -7.110757e+001 
3312500000  -4.130355e+001  -8.579884e+001 
3315625000  -4.233936e+001  -9.327617e+001 
3318750000  -4.384106e+001  -1.022293e+002 
3321875000  -4.539484e+001  -1.017849e+002 
3325000000  -4.511084e+001  -9.341154e+001 
3328125000  -4.406437e+001  -9.706915e+001 
3331250000  -4.270075e+001  -9.968073e+001 
3334375000  -4.015427e+001  -1.169473e+002 
3337500000  -4.098444e+001  -1.412164e+002 
3340625000  -4.267812e+001  -1.503292e+002 
3343750000  -4.477550e+001  -1.510622e+002 
3346875000  -4.402070e+001  -1.569576e+002 
3350000000  -4.361074e+001  -1.606976e+002 
3353125000  -4.379848e+001  -1.697427e+002 
3356250000  -4.344875e+001  -1.799002e+002 
3359375000  -4.427748e+001  1.645250e+002 
3362500000  -4.516237e+001  1.591787e+002 
3365625000  -4.605490e+001  1.519986e+002 
3368750000  -4.655711e+001  1.452289e+002 
3371875000  -4.709068e+001  1.387742e+002 
3375000000  -4.903982e+001  1.351379e+002 
3378125000  -4.949516e+001  1.299646e+002 
3381250000  -5.054185e+001  1.417973e+002 
3384375000  -4.736278e+001  1.534983e+002 
3387500000  -4.480355e+001  1.276553e+002 
3390625000  -4.701674e+001  1.089458e+002 
3393750000  -4.723461e+001  1.043862e+002 
3396875000  -4.633916e+001  1.009876e+002 
3400000000  -4.651644e+001  8.466669e+001 
3403125000  -4.730112e+001  7.997311e+001 
3406250000  -4.741284e+001  7.024624e+001 
3409375000  -4.714439e+001  5.994513e+001 
3412500000  -4.783409e+001  5.245940e+001 
3415625000  -4.841824e+001  4.991515e+001 
3418750000  -4.847845e+001  4.286460e+001 
3421875000  -4.878651e+001  4.158818e+001 
3425000000  -4.833985e+001  3.511188e+001 
3428125000  -4.759481e+001  2.695014e+001 
3431250000  -4.708089e+001  1.528677e+001 
3434375000  -4.714885e+001  2.273288e+000 
3437500000  -4.762944e+001  -4.832283e+000 
3440625000  -4.756668e+001  -6.452543e+000 
3443750000  -4.656953e+001  -1.103673e+001 
3446875000  -4.588764e+001  -3.011188e+001 
3450000000  -4.484833e+001  -4.330888e+001 
3453125000  -4.619374e+001  -6.106445e+001 
3456250000  -4.749913e+001  -7.051318e+001 
3459375000  -4.815691e+001  -7.316473e+001 
3462500000  -4.760518e+001  -7.736002e+001 
3465625000  -4.749176e+001  -9.033705e+001 
3468750000  -4.733063e+001  -9.515869e+001 
3471875000  -4.702996e+001  -1.034244e+002 
3475000000  -4.688782e+001  -1.134424e+002 
3478125000  -4.790928e+001  -1.252788e+002 
3481250000  -4.868397e+001  -1.321000e+002 
3484375000  -4.835313e+001  -1.349500e+002 
3487500000  -4.754963e+001  -1.406321e+002 
3490625000  -4.698673e+001  -1.528527e+002 
3493750000  -4.773791e+001  -1.677046e+002 
3496875000  -4.804035e+001  -1.699441e+002 
3500000000  -4.819195e+001  -1.722429e+002 
3503125000  -4.725513e+001  -1.763875e+002 
3506250000  -4.535389e+001  1.713501e+002 
3509375000  -4.534878e+001  1.523091e+002 
3512500000  -4.584058e+001  1.388541e+002 
3515625000  -4.711734e+001  1.346959e+002 
3518750000  -4.766797e+001  1.314192e+002 
3521875000  -4.785598e+001  1.218243e+002 
3525000000  -4.838286e+001  1.159570e+002 
3528125000  -4.720321e+001  1.197876e+002 
3531250000  -4.629225e+001  1.050135e+002 
3534375000  -4.634834e+001  9.015528e+001 
3537500000  -4.782861e+001  7.815044e+001 
3540625000  -4.883241e+001  7.510031e+001 
3543750000  -4.955566e+001  8.092999e+001 
3546875000  -4.825938e+001  8.366908e+001 
3550000000  -4.596148e+001  7.327176e+001 
3553125000  -4.626335e+001  5.400496e+001 
3556250000  -4.752141e+001  4.702523e+001 
3559375000  -4.645972e+001  4.435924e+001 
3562500000  -4.632763e+001  3.467913e+001 
3565625000  -4.741968e+001  2.389459e+001 
3568750000  -4.779631e+001  2.788856e+001 
3571875000  -4.703328e+001  2.055429e+001 
3575000000  -4.690229e+001  1.148103e+001 
3578125000  -4.779989e+001  8.143991e+000 
3581250000  -4.715263e+001  7.296444e+000 
3584375000  -4.590793e+001  -1.590376e+000 
3587500000  -4.561561e+001  -1.368459e+001 
3590625000  -4.625577e+001  -2.392277e+001 
3593750000  -4.793947e+001  -2.517966e+001 
3596875000  -4.674318e+001  -1.711372e+001 
3600000000  -4.522330e+001  -2.824771e+001 
3603125000  -4.493791e+001  -4.718074e+001 
3606250000  -4.639981e+001  -4.992864e+001 
3609375000  -4.611979e+001  -5.494594e+001 
3612500000  -4.624414e+001  -6.307238e+001 
3615625000  -4.574921e+001  -6.674871e+001 
3618750000  -4.633241e+001  -7.196284e+001 
3621875000  -4.547325e+001  -7.589658e+001 
3625000000  -4.550055e+001  -8.183324e+001 
3628125000  -4.474132e+001  -8.644147e+001 
3631250000  -4.495852e+001  -9.673474e+001 
3634375000  -4.544326e+001  -9.740561e+001 
3637500000  -4.436829e+001  -9.924860e+001 
3640625000  -4.367843e+001  -1.053567e+002 
3643750000  -4.291468e+001  -1.168634e+002 
3646875000  -4.400134e+001  -1.294400e+002 
3650000000  -4.365403e+001  -1.334090e+002 
3653125000  -4.325212e+001  -1.417519e+002 
3656250000  -4.429933e+001  -1.461569e+002 
3659375000  -4.394102e+001  -1.512681e+002 
3662500000  -4.337132e+001  -1.586037e+002 
3665625000  -4.331737e+001  -1.600146e+002 
3668750000  -4.186863e+001  -1.686951e+002 
3671875000  -4.168004e+001  1.795469e+002 
3675000000  -4.234759e+001  1.698956e+002 
3678125000  -4.288780e+001  1.632264e+002 
3681250000  -4.245168e+001  1.577940e+002 
3684375000  -4.294250e+001  1.498431e+002 
3687500000  -4.303092e+001  1.422309e+002 
3690625000  -4.336363e+001  1.353010e+002 
3693750000  -4.472297e+001  1.335106e+002 
3696875000  -4.381809e+001  1.314969e+002 
3700000000  -4.321667e+001  1.215775e+002 
3703125000  -4.347781e+001  1.159958e+002 
3706250000  -4.435383e+001  1.112457e+002 
3709375000  -4.404547e+001  1.122208e+002 
3712500000  -4.323571e+001  1.062096e+002 
3715625000  -4.195094e+001  9.852984e+001 
3718750000  -4.163151e+001  8.864775e+001 
3721875000  -4.182456e+001  7.894881e+001 
3725000000  -4.266865e+001  7.002200e+001 
3728125000  -4.249388e+001  6.767300e+001 
3731250000  -4.194322e+001  6.012227e+001 
3734375000  -4.198461e+001  5.319511e+001 
3737500000  -4.293779e+001  4.710225e+001 
3740625000  -4.343981e+001  3.870512e+001 
3743750000  -4.302839e+001  3.422245e+001 
3746875000  -4.360141e+001  2.370351e+001 
3750000000  -4.350187e+001  2.309364e+001 
3753125000  -4.369948e+001  1.843572e+001 
3756250000  -4.366434e+001  1.666411e+001 
3759375000  -4.367187e+001  1.014668e+001 
3762500000  -4.334375e+001  5.876558e+000 
3765625000  -4.433545e+001  -2.405304e-001 
3768750000  -4.354771e+001  2.347631e-001 
3771875000  -4.199379e+001  -6.199408e+000 
3775000000  -4.184467e+001  -1.816287e+001 
3778125000  -4.300373e+001  -2.382197e+001 
3781250000  -4.290503e+001  -2.807997e+001 
3784375000  -4.231746e+001  -3.455252e+001 
3787500000  -4.236781e+001  -3.995792e+001 
3790625000  -4.293000e+001  -4.934426e+001 
3793750000  -4.242140e+001  -5.474509e+001 
3796875000  -4.169039e+001  -5.814207e+001 
3800000000  -4.066899e+001  -6.500337e+001 
3803125000  -4.173794e+001  -7.771091e+001 
3806250000  -4.259802e+001  -8.315855e+001 
3809375000  -4.187572e+001  -8.869388e+001 
3812500000  -4.179930e+001  -9.821084e+001 
3815625000  -4.334695e+001  -1.088588e+002 
3818750000  -4.443930e+001  -1.063263e+002 
3821875000  -4.378532e+001  -9.735107e+001 
3825000000  -4.145528e+001  -1.010434e+002 
3828125000  -4.059891e+001  -1.246065e+002 
3831250000  -4.146445e+001  -1.386269e+002 
3834375000  -4.378112e+001  -1.383259e+002 
3837500000  -4.421682e+001  -1.342480e+002 
3840625000  -4.259417e+001  -1.421737e+002 
3843750000  -4.172712e+001  -1.604929e+002 
3846875000  -4.359722e+001  -1.663806e+002 
3850000000  -4.434383e+001  -1.599539e+002 
3853125000  -4.374004e+001  -1.615116e+002 
3856250000  -4.298023e+001  -1.684397e+002 
3859375000  -4.237629e+001  -1.782823e+002 
3862500000  -4.191383e+001  1.727807e+002 
3865625000  -4.264249e+001  1.651237e+002 
3868750000  -4.248161e+001  1.639689e+002 
3871875000  -4.221461e+001  1.542218e+002 
3875000000  -4.263206e+001  1.432615e+002 
3878125000  -4.337183e+001  1.411673e+002 
3881250000  -4.325467e+001  1.392964e+002 
3884375000  -4.274278e+001  1.301146e+002 
3887500000  -4.332005e+001  1.232622e+002 
3890625000  -4.381829e+001  1.214607e+002 
3893750000  -4.446236e+001  1.154484e+002 
3896875000  -4.493064e+001  1.133640e+002 
3900000000  -4.455986e+001  1.070625e+002 
3903125000  -4.360272e+001  1.051187e+002 
3906250000  -4.319947e+001  9.748114e+001 
3909375000  -4.302082e+001  8.928369e+001 
3912500000  -4.394625e+001  8.003275e+001 
3915625000  -4.522684e+001  7.958469e+001 
3918750000  -4.428244e+001  7.838740e+001 
3921875000  -4.406018e+001  7.478727e+001 
3925000000  -4.325773e+001  6.708470e+001 
3928125000  -4.313109e+001  5.675132e+001 
3931250000  -4.372240e+001  5.066357e+001 
3934375000  -4.424796e+001  4.849184e+001 
3937500000  -4.453471e+001  4.666999e+001 
3940625000  -4.476701e+001  4.540023e+001 
3943750000  -4.337236e+001  3.908308e+001 
3946875000  -4.273085e+001  3.090734e+001 
3950000000  -4.392067e+001  2.483498e+001 
3953125000  -4.454587e+001  2.268214e+001 
3956250000  -4.302199e+001  2.235748e+001 
3959375000  -4.169307e+001  1.504278e+001 
3962500000  -4.160032e+001  3.133608e+000 
3965625000  -4.218067e+001  -7.576833e+000 
3968750000  -4.277556e+001  -1.549160e+001 
3971875000  -4.253384e+001  -2.024484e+001 
3975000000  -4.196423e+001  -2.485832e+001 
3978125000  -4.230612e+001  -2.999757e+001 
3981250000  -4.227646e+001  -3.925394e+001 
3984375000  -4.223629e+001  -4.688075e+001 
3987500000  -4.299278e+001  -5.408376e+001 
3990625000  -4.315373e+001  -5.575315e+001 
3993750000  -4.311027e+001  -6.057388e+001 
3996875000  -4.288339e+001  -6.647051e+001 
4000000000  -4.361541e+001  -7.070234e+001 
4003125000  -4.407144e+001  -6.904585e+001 
4006250000  -4.207320e+001  -7.726633e+001 
4009375000  -4.153062e+001  -9.302064e+001 
4012500000  -4.300906e+001  -1.031586e+002 
4015625000  -4.434548e+001  -1.025578e+002 
4018750000  -4.410055e+001  -1.065267e+002 
4021875000  -4.330492e+001  -1.141685e+002 
4025000000  -4.319855e+001  -1.206201e+002 
4028125000  -4.376892e+001  -1.276222e+002 
4031250000  -4.433787e+001  -1.338911e+002 
4034375000  -4.424485e+001  -1.359484e+002 
4037500000  -4.459860e+001  -1.399042e+002 
4040625000  -4.445409e+001  -1.441044e+002 
4043750000  -4.436100e+001  -1.505365e+002 
4046875000  -4.479997e+001  -1.569308e+002 
4050000000  -4.450710e+001  -1.629198e+002 
4053125000  -4.564920e+001  -1.648737e+002 
4056250000  -4.593856e+001  -1.627456e+002 
4059375000  -4.389217e+001  -1.637869e+002 
4062500000  -4.329934e+001  -1.734540e+002 
4065625000  -4.371819e+001  -1.782502e+002 
4068750000  -4.348103e+001  1.722708e+002 
4071875000  -4.289812e+001  1.621605e+002 
4075000000  -4.431440e+001  1.577374e+002 
4078125000  -4.416524e+001  1.509718e+002 
4081250000  -4.375486e+001  1.454605e+002 
4084375000  -4.373050e+001  1.384742e+002 
4087500000  -4.415133e+001  1.298625e+002 
4090625000  -4.459600e+001  1.320419e+002 
4093750000  -4.541013e+001  1.258185e+002 
4096875000  -4.473347e+001  1.182823e+002 
4100000000  -4.592153e+001  1.114500e+002 
4103125000  -4.609639e+001  1.151060e+002 
4106250000  -4.528093e+001  1.153108e+002 
4109375000  -4.466808e+001  1.094355e+002 
4112500000  -4.491958e+001  1.008329e+002 
4115625000  -4.445302e+001  9.675948e+001 
4118750000  -4.427586e+001  9.188914e+001 
4121875000  -4.411735e+001  8.567878e+001 
4125000000  -4.479241e+001  7.646412e+001 
4128125000  -4.561827e+001  7.994687e+001 
4131250000  -4.428135e+001  8.339619e+001 
4134375000  -4.220864e+001  7.032272e+001 
4137500000  -4.228397e+001  5.298904e+001 
4140625000  -4.421804e+001  4.655116e+001 
4143750000  -4.523742e+001  4.927304e+001 
4146875000  -4.488208e+001  5.337518e+001 
4150000000  -4.313376e+001  4.362895e+001 
4153125000  -4.350525e+001  3.209228e+001 
4156250000  -4.418911e+001  2.837558e+001 
4159375000  -4.358760e+001  2.851527e+001 
4162500000  -4.298124e+001  2.806042e+001 
4165625000  -4.186635e+001  1.713961e+001 
4168750000  -4.148724e+001  6.386973e+000 
4171875000  -4.191887e+001  -4.627534e+000 
4175000000  -4.230865e+001  -1.221601e+001 
4178125000  -4.292611e+001  -1.665071e+001 
4181250000  -4.233042e+001  -1.909282e+001 
4184375000  -4.338494e+001  -2.757751e+001 
4187500000  -4.262901e+001  -3.478973e+001 
4190625000  -4.276014e+001  -4.400659e+001 
4193750000  -4.419607e+001  -5.117641e+001 
4196875000  -4.509678e+001  -5.265956e+001 
4200000000  -4.605149e+001  -4.439563e+001 
4203125000  -4.461327e+001  -3.561950e+001 
4206250000  -4.165719e+001  -4.438147e+001 
4209375000  -4.167047e+001  -7.308438e+001 
4212500000  -4.382229e+001  -7.780533e+001 
4215625000  -4.482223e+001  -6.983587e+001 
4218750000  -4.309018e+001  -7.158789e+001 
4221875000  -4.127488e+001  -8.057556e+001 
4225000000  -4.303418e+001  -9.199985e+001 
4228125000  -4.277182e+001  -9.349039e+001 
4231250000  -4.096090e+001  -1.041208e+002 
4234375000  -4.096500e+001  -1.104154e+002 
4237500000  -4.114897e+001  -1.171581e+002 
4240625000  -4.149819e+001  -1.307064e+002 
4243750000  -4.300187e+001  -1.355548e+002 
4246875000  -4.334232e+001  -1.351656e+002 
4250000000  -4.317575e+001  -1.385947e+002 
4253125000  -4.351469e+001  -1.398598e+002 
4256250000  -4.325436e+001  -1.477404e+002 
4259375000  -4.193150e+001  -1.537020e+002 
4262500000  -4.303992e+001  -1.579802e+002 
4265625000  -4.243636e+001  -1.569209e+002 
4268750000  -4.152657e+001  -1.656727e+002 
4271875000  -4.101337e+001  -1.782543e+002 
4275000000  -4.094418e+001  1.731896e+002 
4278125000  -4.192059e+001  1.614679e+002 
4281250000  -4.306882e+001  1.563700e+002 
4284375000  -4.288486e+001  1.569310e+002 
4287500000  -4.429816e+001  1.532501e+002 
4290625000  -4.383704e+001  1.575760e+002 
4293750000  -4.198198e+001  1.578433e+002 
4296875000  -4.098447e+001  1.414510e+002 
4300000000  -4.175787e+001  1.339920e+002 
4303125000  -4.241823e+001  1.339548e+002 
4306250000  -4.116724e+001  1.341784e+002 
4309375000  -4.014398e+001  1.240429e+002 
4312500000  -3.977502e+001  1.116169e+002 
4315625000  -4.061445e+001  9.994115e+001 
4318750000  -4.121325e+001  9.691317e+001 
4321875000  -4.103418e+001  9.368282e+001 
4325000000  -4.047894e+001  8.859749e+001 
4328125000  -3.986406e+001  7.906941e+001 
4331250000  -4.012918e+001  6.463377e+001 
4334375000  -4.149134e+001  5.893006e+001 
4337500000  -4.195518e+001  5.660320e+001 
4340625000  -4.263067e+001  5.918724e+001 
4343750000  -4.153745e+001  5.208428e+001 
4346875000  -4.150975e+001  4.491448e+001 
4350000000  -4.128360e+001  3.495228e+001 
4353125000  -4.239516e+001  2.616402e+001 
4356250000  -4.423049e+001  2.931177e+001 
4359375000  -4.289909e+001  4.495750e+001 
4362500000  -3.972898e+001  3.219771e+001 
4365625000  -3.959391e+001  1.228481e+001 
4368750000  -4.081011e+001  4.400858e+000 
4371875000  -4.146748e+001  -2.061158e-001 
4375000000  -4.100750e+001  -2.359837e+000 
4378125000  -4.090117e+001  -1.161532e+001 
4381250000  -4.108810e+001  -2.092043e+001 
4384375000  -4.104043e+001  -2.643613e+001 
4387500000  -4.180799e+001  -3.295401e+001 
4390625000  -4.245485e+001  -3.698257e+001 
4393750000  -4.219553e+001  -3.942714e+001 
4396875000  -4.156921e+001  -4.405670e+001 
4400000000  -4.109286e+001  -5.134307e+001 
4403125000  -4.208730e+001  -5.974050e+001 
4406250000  -4.230401e+001  -6.491906e+001 
4409375000  -4.318147e+001  -7.244229e+001 
4412500000  -4.420062e+001  -7.116116e+001 
4415625000  -4.379712e+001  -7.004788e+001 
4418750000  -4.207664e+001  -7.017029e+001 
