!Agilent Technologies,E8363B,MY43030201,A.06.04.32
!Agilent E8363B: A.06.04.32
!Date: Tuesday, November 11, 2014 21:41:32
!Correction: S21(Response(S21)) 
!S1P File: Measurement: S21:
# Hz S  dB   R 50
3000000000  -4.373520e+001  -1.581803e+002 
3003125000  -4.494734e+001  -1.639501e+002 
3006250000  -4.501127e+001  -1.635867e+002 
3009375000  -4.601371e+001  -1.598275e+002 
3012500000  -4.479144e+001  -1.691439e+002 
3015625000  -4.506445e+001  -1.739304e+002 
3018750000  -4.522380e+001  -1.758992e+002 
3021875000  -4.383606e+001  -1.748648e+002 
3025000000  -4.255454e+001  -1.780785e+002 
3028125000  -4.166462e+001  1.675070e+002 
3031250000  -4.073546e+001  1.560648e+002 
3034375000  -4.074400e+001  1.408938e+002 
3037500000  -4.167420e+001  1.297835e+002 
3040625000  -4.293518e+001  1.253881e+002 
3043750000  -4.314006e+001  1.169544e+002 
3046875000  -4.412833e+001  1.101017e+002 
3050000000  -4.539227e+001  1.047238e+002 
3053125000  -4.483693e+001  1.092872e+002 
3056250000  -4.461679e+001  1.123378e+002 
3059375000  -4.386359e+001  1.074870e+002 
3062500000  -4.257761e+001  1.036249e+002 
3065625000  -4.227395e+001  9.382583e+001 
3068750000  -4.164708e+001  8.438862e+001 
3071875000  -4.180505e+001  8.233320e+001 
3075000000  -4.119246e+001  7.520000e+001 
3078125000  -4.121701e+001  6.728071e+001 
3081250000  -4.105730e+001  6.029486e+001 
3084375000  -4.048376e+001  5.557550e+001 
3087500000  -4.057272e+001  4.717658e+001 
3090625000  -4.001794e+001  3.418565e+001 
3093750000  -4.111657e+001  2.469084e+001 
3096875000  -4.118042e+001  1.987520e+001 
3100000000  -4.110726e+001  1.451698e+001 
3103125000  -4.142969e+001  1.106342e+001 
3106250000  -4.085593e+001  5.438406e+000 
3109375000  -4.102280e+001  7.386573e-001 
3112500000  -4.087719e+001  -7.124980e+000 
3115625000  -4.067102e+001  -1.179570e+001 
3118750000  -4.077094e+001  -1.795763e+001 
3121875000  -4.032679e+001  -2.778607e+001 
3125000000  -4.220674e+001  -3.310523e+001 
3128125000  -4.197147e+001  -2.769822e+001 
3131250000  -3.928448e+001  -3.571366e+001 
3134375000  -3.882754e+001  -5.330383e+001 
3137500000  -3.962164e+001  -6.689368e+001 
3140625000  -4.102715e+001  -6.972938e+001 
3143750000  -4.145908e+001  -7.536221e+001 
3146875000  -4.116884e+001  -7.426682e+001 
3150000000  -4.040562e+001  -7.920507e+001 
3153125000  -4.074111e+001  -8.810364e+001 
3156250000  -4.129515e+001  -8.503821e+001 
3159375000  -3.913103e+001  -8.881713e+001 
3162500000  -3.779742e+001  -1.050932e+002 
3165625000  -3.907584e+001  -1.201068e+002 
3168750000  -3.902572e+001  -1.210967e+002 
3171875000  -3.862065e+001  -1.303180e+002 
3175000000  -3.914978e+001  -1.399797e+002 
3178125000  -3.862136e+001  -1.418195e+002 
3181250000  -3.820275e+001  -1.510983e+002 
3184375000  -3.785170e+001  -1.628429e+002 
3187500000  -3.926952e+001  -1.789278e+002 
3190625000  -4.087957e+001  1.734539e+002 
3193750000  -4.124995e+001  1.768171e+002 
3196875000  -4.107671e+001  1.780585e+002 
3200000000  -3.979766e+001  1.721891e+002 
3203125000  -3.963177e+001  1.628714e+002 
3206250000  -3.997690e+001  1.559288e+002 
3209375000  -3.950012e+001  1.468435e+002 
3212500000  -3.998197e+001  1.398523e+002 
3215625000  -3.952153e+001  1.362524e+002 
3218750000  -4.052388e+001  1.217532e+002 
3221875000  -4.056840e+001  1.163161e+002 
3225000000  -4.043791e+001  1.105670e+002 
3228125000  -4.124903e+001  1.043929e+002 
3231250000  -4.166723e+001  1.001487e+002 
3234375000  -4.114484e+001  9.768224e+001 
3237500000  -4.117168e+001  9.389804e+001 
3240625000  -4.047554e+001  8.555715e+001 
3243750000  -4.057080e+001  7.460449e+001 
3246875000  -4.073718e+001  6.631426e+001 
3250000000  -4.125567e+001  6.222488e+001 
3253125000  -4.118832e+001  5.829789e+001 
3256250000  -4.065169e+001  4.719333e+001 
3259375000  -4.115355e+001  3.551133e+001 
3262500000  -4.252187e+001  2.883664e+001 
3265625000  -4.285789e+001  2.978549e+001 
3268750000  -4.257574e+001  3.096415e+001 
3271875000  -4.173056e+001  2.427872e+001 
3275000000  -4.122906e+001  1.324560e+001 
3278125000  -4.182116e+001  5.478630e+000 
3281250000  -4.194411e+001  2.629810e+000 
3284375000  -4.100288e+001  -4.450848e+000 
3287500000  -4.158472e+001  -1.257786e+001 
3290625000  -4.164674e+001  -2.261249e+001 
3293750000  -4.161377e+001  -3.053976e+001 
3296875000  -4.259223e+001  -3.648643e+001 
3300000000  -4.209904e+001  -3.793265e+001 
3303125000  -4.103796e+001  -4.900620e+001 
3306250000  -4.085949e+001  -5.800221e+001 
3309375000  -4.072570e+001  -6.838081e+001 
3312500000  -4.130240e+001  -8.177803e+001 
3315625000  -4.258973e+001  -9.209332e+001 
3318750000  -4.409371e+001  -9.783976e+001 
3321875000  -4.524179e+001  -9.555872e+001 
3325000000  -4.497719e+001  -9.087818e+001 
3328125000  -4.426843e+001  -9.648348e+001 
3331250000  -4.246899e+001  -9.501020e+001 
3334375000  -4.019565e+001  -1.150496e+002 
3337500000  -4.106078e+001  -1.369986e+002 
3340625000  -4.290752e+001  -1.480433e+002 
3343750000  -4.445836e+001  -1.494409e+002 
3346875000  -4.447952e+001  -1.531015e+002 
3350000000  -4.376168e+001  -1.591157e+002 
3353125000  -4.365570e+001  -1.694683e+002 
3356250000  -4.336285e+001  -1.774283e+002 
3359375000  -4.467005e+001  1.660405e+002 
3362500000  -4.527361e+001  1.629211e+002 
3365625000  -4.560205e+001  1.552744e+002 
3368750000  -4.635291e+001  1.495555e+002 
3371875000  -4.723896e+001  1.418703e+002 
3375000000  -4.902974e+001  1.372227e+002 
3378125000  -4.967616e+001  1.368417e+002 
3381250000  -5.079886e+001  1.463592e+002 
3384375000  -4.784648e+001  1.503201e+002 
3387500000  -4.524851e+001  1.308602e+002 
3390625000  -4.656474e+001  1.100880e+002 
3393750000  -4.761303e+001  1.112401e+002 
3396875000  -4.621122e+001  1.022776e+002 
3400000000  -4.646945e+001  8.975152e+001 
3403125000  -4.741275e+001  8.173402e+001 
3406250000  -4.741955e+001  7.539202e+001 
3409375000  -4.743913e+001  6.112722e+001 
3412500000  -4.816739e+001  5.741708e+001 
3415625000  -4.882803e+001  4.897419e+001 
3418750000  -4.861357e+001  4.508166e+001 
3421875000  -4.917833e+001  4.397453e+001 
3425000000  -4.755136e+001  3.785727e+001 
3428125000  -4.716917e+001  2.946982e+001 
3431250000  -4.716267e+001  1.794344e+001 
3434375000  -4.690333e+001  5.072402e+000 
3437500000  -4.785944e+001  -4.492151e+000 
3440625000  -4.778809e+001  -8.185338e+000 
3443750000  -4.649314e+001  -9.925369e+000 
3446875000  -4.545408e+001  -2.496143e+001 
3450000000  -4.533966e+001  -4.162672e+001 
3453125000  -4.554998e+001  -5.822929e+001 
3456250000  -4.712964e+001  -6.741000e+001 
3459375000  -4.832388e+001  -7.057343e+001 
3462500000  -4.794745e+001  -7.088132e+001 
3465625000  -4.757245e+001  -8.774712e+001 
3468750000  -4.722078e+001  -9.227357e+001 
3471875000  -4.696951e+001  -1.044405e+002 
3475000000  -4.727876e+001  -1.114855e+002 
3478125000  -4.734709e+001  -1.273312e+002 
3481250000  -4.894370e+001  -1.286605e+002 
3484375000  -4.885856e+001  -1.320582e+002 
3487500000  -4.771598e+001  -1.399242e+002 
3490625000  -4.690277e+001  -1.497524e+002 
3493750000  -4.732603e+001  -1.618746e+002 
3496875000  -4.745456e+001  -1.667424e+002 
3500000000  -4.878444e+001  -1.688382e+002 
3503125000  -4.697880e+001  -1.743316e+002 
3506250000  -4.570321e+001  1.756809e+002 
3509375000  -4.555829e+001  1.552526e+002 
3512500000  -4.614960e+001  1.401207e+002 
3515625000  -4.689553e+001  1.335613e+002 
3518750000  -4.824302e+001  1.333386e+002 
3521875000  -4.749038e+001  1.207766e+002 
3525000000  -4.871324e+001  1.169231e+002 
3528125000  -4.733715e+001  1.218699e+002 
3531250000  -4.690963e+001  1.085045e+002 
3534375000  -4.652053e+001  9.182005e+001 
3537500000  -4.790686e+001  8.197334e+001 
3540625000  -4.875118e+001  8.192057e+001 
3543750000  -4.914952e+001  8.288522e+001 
3546875000  -4.871396e+001  8.903797e+001 
3550000000  -4.614960e+001  8.042548e+001 
3553125000  -4.620009e+001  5.899685e+001 
3556250000  -4.705040e+001  4.997867e+001 
3559375000  -4.659586e+001  4.681680e+001 
3562500000  -4.606821e+001  3.567215e+001 
3565625000  -4.741862e+001  2.698532e+001 
3568750000  -4.760692e+001  2.642024e+001 
3571875000  -4.741376e+001  1.909579e+001 
3575000000  -4.708326e+001  1.450689e+001 
3578125000  -4.767326e+001  1.295353e+001 
3581250000  -4.786686e+001  8.406710e+000 
3584375000  -4.619463e+001  -5.148544e-001 
3587500000  -4.567772e+001  -1.035890e+001 
3590625000  -4.618480e+001  -2.029741e+001 
3593750000  -4.785162e+001  -2.133464e+001 
3596875000  -4.664280e+001  -1.732312e+001 
3600000000  -4.480379e+001  -2.706827e+001 
3603125000  -4.489233e+001  -4.151972e+001 
3606250000  -4.592863e+001  -4.739273e+001 
3609375000  -4.602935e+001  -5.193829e+001 
3612500000  -4.628160e+001  -6.135762e+001 
3615625000  -4.579795e+001  -6.499671e+001 
3618750000  -4.646567e+001  -6.708665e+001 
3621875000  -4.534230e+001  -7.417638e+001 
3625000000  -4.589444e+001  -7.773547e+001 
3628125000  -4.456923e+001  -8.305813e+001 
3631250000  -4.511897e+001  -9.239005e+001 
3634375000  -4.549530e+001  -9.380946e+001 
3637500000  -4.465528e+001  -9.568605e+001 
3640625000  -4.361066e+001  -1.043859e+002 
3643750000  -4.347262e+001  -1.134027e+002 
3646875000  -4.401150e+001  -1.270196e+002 
3650000000  -4.381576e+001  -1.307446e+002 
3653125000  -4.339670e+001  -1.389127e+002 
3656250000  -4.390893e+001  -1.444741e+002 
3659375000  -4.377855e+001  -1.473141e+002 
3662500000  -4.350865e+001  -1.554044e+002 
3665625000  -4.335498e+001  -1.591157e+002 
3668750000  -4.217670e+001  -1.657450e+002 
3671875000  -4.174119e+001  -1.786493e+002 
3675000000  -4.232872e+001  1.712825e+002 
3678125000  -4.277468e+001  1.678024e+002 
3681250000  -4.266565e+001  1.616296e+002 
3684375000  -4.245960e+001  1.522259e+002 
3687500000  -4.326875e+001  1.432112e+002 
3690625000  -4.349191e+001  1.388168e+002 
3693750000  -4.461713e+001  1.387898e+002 
3696875000  -4.363300e+001  1.347025e+002 
3700000000  -4.328222e+001  1.274631e+002 
3703125000  -4.341726e+001  1.180796e+002 
3706250000  -4.474663e+001  1.153628e+002 
3709375000  -4.401823e+001  1.149825e+002 
3712500000  -4.255091e+001  1.097808e+002 
3715625000  -4.172040e+001  1.001601e+002 
3718750000  -4.174166e+001  9.109986e+001 
3721875000  -4.192903e+001  8.119733e+001 
3725000000  -4.254840e+001  7.415469e+001 
3728125000  -4.240145e+001  6.983347e+001 
3731250000  -4.225622e+001  6.517224e+001 
3734375000  -4.197649e+001  5.742099e+001 
3737500000  -4.273219e+001  4.827996e+001 
3740625000  -4.309415e+001  4.245117e+001 
3743750000  -4.308113e+001  3.518919e+001 
3746875000  -4.373270e+001  3.056032e+001 
3750000000  -4.364779e+001  2.524223e+001 
3753125000  -4.368241e+001  2.218221e+001 
3756250000  -4.395596e+001  1.899070e+001 
3759375000  -4.390109e+001  1.287014e+001 
3762500000  -4.379285e+001  1.002812e+001 
3765625000  -4.443416e+001  4.137061e+000 
3768750000  -4.363710e+001  2.554386e+000 
3771875000  -4.214838e+001  -4.901541e+000 
3775000000  -4.219322e+001  -1.573342e+001 
3778125000  -4.277936e+001  -2.042911e+001 
3781250000  -4.280902e+001  -2.426281e+001 
3784375000  -4.241252e+001  -3.226892e+001 
3787500000  -4.241587e+001  -3.570455e+001 
3790625000  -4.249462e+001  -4.756354e+001 
3793750000  -4.251062e+001  -5.060356e+001 
3796875000  -4.167862e+001  -5.622424e+001 
3800000000  -4.096854e+001  -6.238449e+001 
3803125000  -4.175739e+001  -7.384110e+001 
3806250000  -4.229431e+001  -7.874774e+001 
3809375000  -4.195219e+001  -8.438856e+001 
3812500000  -4.167259e+001  -9.431210e+001 
3815625000  -4.333848e+001  -1.039846e+002 
3818750000  -4.432392e+001  -1.023130e+002 
3821875000  -4.364057e+001  -9.602814e+001 
3825000000  -4.145325e+001  -9.928056e+001 
3828125000  -4.047342e+001  -1.195993e+002 
3831250000  -4.189056e+001  -1.367343e+002 
3834375000  -4.363855e+001  -1.355784e+002 
3837500000  -4.384319e+001  -1.324430e+002 
3840625000  -4.249496e+001  -1.368069e+002 
3843750000  -4.159593e+001  -1.562387e+002 
3846875000  -4.343533e+001  -1.634916e+002 
3850000000  -4.419048e+001  -1.540610e+002 
3853125000  -4.343347e+001  -1.576736e+002 
3856250000  -4.261082e+001  -1.655469e+002 
3859375000  -4.240905e+001  -1.744296e+002 
3862500000  -4.192380e+001  1.764373e+002 
3865625000  -4.283918e+001  1.678571e+002 
3868750000  -4.250784e+001  1.672499e+002 
3871875000  -4.210519e+001  1.579855e+002 
3875000000  -4.255907e+001  1.466841e+002 
3878125000  -4.351678e+001  1.419114e+002 
3881250000  -4.320396e+001  1.427281e+002 
3884375000  -4.270581e+001  1.324024e+002 
3887500000  -4.346185e+001  1.257769e+002 
3890625000  -4.407226e+001  1.211348e+002 
3893750000  -4.438174e+001  1.202084e+002 
3896875000  -4.453172e+001  1.147962e+002 
3900000000  -4.462954e+001  1.091689e+002 
3903125000  -4.394877e+001  1.060115e+002 
3906250000  -4.376538e+001  1.011294e+002 
3909375000  -4.278182e+001  9.395942e+001 
3912500000  -4.408162e+001  8.217877e+001 
3915625000  -4.499611e+001  8.287816e+001 
3918750000  -4.478658e+001  8.346868e+001 
3921875000  -4.370880e+001  7.929276e+001 
3925000000  -4.295584e+001  6.932729e+001 
3928125000  -4.290531e+001  5.998570e+001 
3931250000  -4.400505e+001  5.504110e+001 
3934375000  -4.431711e+001  5.100936e+001 
3937500000  -4.488071e+001  5.187732e+001 
3940625000  -4.482492e+001  4.710629e+001 
3943750000  -4.349399e+001  4.430389e+001 
3946875000  -4.299089e+001  3.476891e+001 
3950000000  -4.453536e+001  2.636812e+001 
3953125000  -4.442035e+001  2.435119e+001 
3956250000  -4.327316e+001  2.838812e+001 
3959375000  -4.215634e+001  1.725428e+001 
3962500000  -4.165578e+001  9.071664e+000 
3965625000  -4.206890e+001  -4.795845e+000 
3968750000  -4.303572e+001  -1.026812e+001 
3971875000  -4.282964e+001  -1.753156e+001 
3975000000  -4.207283e+001  -1.921997e+001 
3978125000  -4.237766e+001  -2.612745e+001 
3981250000  -4.237311e+001  -3.414817e+001 
3984375000  -4.267451e+001  -4.312370e+001 
3987500000  -4.292897e+001  -4.680064e+001 
3990625000  -4.335632e+001  -5.243365e+001 
3993750000  -4.308331e+001  -5.566504e+001 
3996875000  -4.294447e+001  -6.371283e+001 
4000000000  -4.353614e+001  -6.548955e+001 
4003125000  -4.409727e+001  -6.877677e+001 
4006250000  -4.231868e+001  -7.343187e+001 
4009375000  -4.134113e+001  -8.977631e+001 
4012500000  -4.301947e+001  -1.001270e+002 
4015625000  -4.444923e+001  -9.946506e+001 
4018750000  -4.423606e+001  -1.024551e+002 
4021875000  -4.318748e+001  -1.089822e+002 
4025000000  -4.369817e+001  -1.153903e+002 
4028125000  -4.341074e+001  -1.235447e+002 
4031250000  -4.376357e+001  -1.317823e+002 
4034375000  -4.428007e+001  -1.336808e+002 
4037500000  -4.390262e+001  -1.379424e+002 
4040625000  -4.411869e+001  -1.426518e+002 
4043750000  -4.493539e+001  -1.456702e+002 
4046875000  -4.427764e+001  -1.513048e+002 
4050000000  -4.430914e+001  -1.565122e+002 
4053125000  -4.507933e+001  -1.637710e+002 
4056250000  -4.575577e+001  -1.575771e+002 
4059375000  -4.439941e+001  -1.608637e+002 
4062500000  -4.340226e+001  -1.689513e+002 
4065625000  -4.362313e+001  -1.745359e+002 
4068750000  -4.306918e+001  1.767364e+002 
4071875000  -4.335534e+001  1.659996e+002 
4075000000  -4.404308e+001  1.601072e+002 
4078125000  -4.473736e+001  1.557465e+002 
4081250000  -4.379476e+001  1.517348e+002 
4084375000  -4.396701e+001  1.423862e+002 
4087500000  -4.450556e+001  1.352369e+002 
4090625000  -4.495210e+001  1.356934e+002 
4093750000  -4.460801e+001  1.314513e+002 
4096875000  -4.467487e+001  1.223082e+002 
4100000000  -4.556151e+001  1.156231e+002 
4103125000  -4.638356e+001  1.198187e+002 
4106250000  -4.522865e+001  1.191109e+002 
4109375000  -4.475567e+001  1.140650e+002 
4112500000  -4.469741e+001  1.069677e+002 
4115625000  -4.461901e+001  9.980600e+001 
4118750000  -4.405097e+001  9.829340e+001 
4121875000  -4.421917e+001  8.999235e+001 
4125000000  -4.510845e+001  8.396718e+001 
4128125000  -4.600220e+001  8.528272e+001 
4131250000  -4.427023e+001  8.675014e+001 
4134375000  -4.184764e+001  7.480735e+001 
4137500000  -4.262783e+001  5.539808e+001 
4140625000  -4.481966e+001  4.994866e+001 
4143750000  -4.508540e+001  5.233333e+001 
4146875000  -4.378279e+001  5.581142e+001 
4150000000  -4.317344e+001  4.581214e+001 
4153125000  -4.369853e+001  3.406250e+001 
4156250000  -4.435218e+001  2.967310e+001 
4159375000  -4.372590e+001  3.118609e+001 
4162500000  -4.299960e+001  3.020157e+001 
4165625000  -4.206712e+001  2.324929e+001 
4168750000  -4.142474e+001  1.151623e+001 
4171875000  -4.132108e+001  -3.086549e+000 
4175000000  -4.216724e+001  -1.040882e+001 
4178125000  -4.279789e+001  -1.251709e+001 
4181250000  -4.286452e+001  -1.886292e+001 
4184375000  -4.295651e+001  -2.494216e+001 
4187500000  -4.286051e+001  -2.922821e+001 
4190625000  -4.358492e+001  -3.775620e+001 
4193750000  -4.462820e+001  -4.607812e+001 
4196875000  -4.541920e+001  -4.810736e+001 
4200000000  -4.624714e+001  -4.466286e+001 
4203125000  -4.471125e+001  -3.159743e+001 
4206250000  -4.134432e+001  -4.372388e+001 
4209375000  -4.168719e+001  -6.640339e+001 
4212500000  -4.455635e+001  -7.306912e+001 
4215625000  -4.502120e+001  -6.833817e+001 
4218750000  -4.305368e+001  -6.848495e+001 
4221875000  -4.169482e+001  -7.617581e+001 
4225000000  -4.317446e+001  -8.872634e+001 
4228125000  -4.315168e+001  -8.727399e+001 
4231250000  -4.132749e+001  -9.770580e+001 
4234375000  -4.118925e+001  -1.068748e+002 
4237500000  -4.110576e+001  -1.121996e+002 
4240625000  -4.137870e+001  -1.245068e+002 
4243750000  -4.341599e+001  -1.309257e+002 
4246875000  -4.365611e+001  -1.320788e+002 
4250000000  -4.334474e+001  -1.321947e+002 
4253125000  -4.311412e+001  -1.365822e+002 
4256250000  -4.321463e+001  -1.413507e+002 
4259375000  -4.252246e+001  -1.463265e+002 
4262500000  -4.277521e+001  -1.531913e+002 
4265625000  -4.307878e+001  -1.535617e+002 
4268750000  -4.127993e+001  -1.621694e+002 
4271875000  -4.109781e+001  -1.725010e+002 
4275000000  -4.082654e+001  -1.798068e+002 
4278125000  -4.217740e+001  1.653066e+002 
4281250000  -4.261639e+001  1.621865e+002 
4284375000  -4.287630e+001  1.583657e+002 
4287500000  -4.380854e+001  1.563630e+002 
4290625000  -4.397559e+001  1.606660e+002 
4293750000  -4.223676e+001  1.634187e+002 
4296875000  -4.066450e+001  1.491950e+002 
4300000000  -4.201850e+001  1.362816e+002 
4303125000  -4.264743e+001  1.376596e+002 
4306250000  -4.129269e+001  1.358004e+002 
4309375000  -4.040046e+001  1.281118e+002 
4312500000  -4.009511e+001  1.167223e+002 
4315625000  -4.062730e+001  1.062914e+002 
4318750000  -4.146107e+001  1.005908e+002 
4321875000  -4.098148e+001  9.776920e+001 
4325000000  -4.043866e+001  9.482378e+001 
4328125000  -4.013148e+001  8.189830e+001 
4331250000  -4.013386e+001  7.017770e+001 
4334375000  -4.139998e+001  6.280434e+001 
4337500000  -4.259292e+001  5.952508e+001 
4340625000  -4.265475e+001  6.454671e+001 
4343750000  -4.167950e+001  6.014235e+001 
4346875000  -4.142314e+001  4.897688e+001 
4350000000  -4.175478e+001  3.914132e+001 
4353125000  -4.249139e+001  3.175287e+001 
4356250000  -4.463823e+001  3.138601e+001 
4359375000  -4.342860e+001  4.610369e+001 
4362500000  -3.972218e+001  3.517196e+001 
4365625000  -3.960045e+001  1.710430e+001 
4368750000  -4.086311e+001  6.438393e+000 
4371875000  -4.188832e+001  8.829026e+000 
4375000000  -4.132531e+001  -1.546668e+000 
4378125000  -4.119209e+001  -8.011077e+000 
4381250000  -4.128991e+001  -1.483361e+001 
4384375000  -4.139273e+001  -2.205345e+001 
4387500000  -4.233445e+001  -2.998578e+001 
4390625000  -4.260939e+001  -3.193927e+001 
4393750000  -4.252306e+001  -3.111606e+001 
4396875000  -4.160074e+001  -3.849496e+001 
4400000000  -4.149873e+001  -4.697499e+001 
4403125000  -4.218616e+001  -5.634958e+001 
4406250000  -4.285627e+001  -6.271857e+001 
4409375000  -4.318391e+001  -6.580710e+001 
4412500000  -4.425931e+001  -6.715676e+001 
4415625000  -4.388591e+001  -6.601276e+001 
4418750000  -4.271170e+001  -6.721572e+001 
