!Agilent Technologies,E8363B,MY43030201,A.06.04.32
!Agilent E8363B: A.06.04.32
!Date: Tuesday, November 11, 2014 21:47:43
!Correction: S21(Response(S21)) 
!S1P File: Measurement: S21:
# Hz S  dB   R 50
3000000000  -4.364273e+001  -1.612769e+002 
3003125000  -4.523264e+001  -1.666050e+002 
3006250000  -4.526210e+001  -1.689048e+002 
3009375000  -4.597861e+001  -1.637434e+002 
3012500000  -4.484157e+001  -1.711019e+002 
3015625000  -4.499318e+001  -1.793827e+002 
3018750000  -4.507450e+001  -1.780555e+002 
3021875000  -4.405507e+001  1.796235e+002 
3025000000  -4.238561e+001  1.763426e+002 
3028125000  -4.167069e+001  1.651769e+002 
3031250000  -4.088504e+001  1.516761e+002 
3034375000  -4.068036e+001  1.361355e+002 
3037500000  -4.173652e+001  1.267978e+002 
3040625000  -4.284037e+001  1.205529e+002 
3043750000  -4.316348e+001  1.126366e+002 
3046875000  -4.390891e+001  1.086442e+002 
3050000000  -4.547540e+001  9.903148e+001 
3053125000  -4.486363e+001  1.059373e+002 
3056250000  -4.469681e+001  1.101757e+002 
3059375000  -4.387061e+001  1.057920e+002 
3062500000  -4.265643e+001  1.006860e+002 
3065625000  -4.220882e+001  8.910236e+001 
3068750000  -4.184856e+001  7.987034e+001 
3071875000  -4.185398e+001  7.962156e+001 
3075000000  -4.128416e+001  7.133467e+001 
3078125000  -4.153055e+001  6.405439e+001 
3081250000  -4.116788e+001  5.512259e+001 
3084375000  -4.048089e+001  5.152356e+001 
3087500000  -4.059954e+001  4.248300e+001 
3090625000  -4.003270e+001  3.036154e+001 
3093750000  -4.101690e+001  2.153286e+001 
3096875000  -4.128024e+001  1.536860e+001 
3100000000  -4.125444e+001  1.192384e+001 
3103125000  -4.137096e+001  7.762084e+000 
3106250000  -4.106310e+001  1.582508e+000 
3109375000  -4.094595e+001  -3.408409e+000 
3112500000  -4.066516e+001  -1.114048e+001 
3115625000  -4.099819e+001  -1.591063e+001 
3118750000  -4.081584e+001  -2.132453e+001 
3121875000  -4.005550e+001  -3.307715e+001 
3125000000  -4.203218e+001  -3.827063e+001 
3128125000  -4.191822e+001  -3.190631e+001 
3131250000  -3.948813e+001  -3.970256e+001 
3134375000  -3.880119e+001  -5.790062e+001 
3137500000  -3.951345e+001  -7.087018e+001 
3140625000  -4.106433e+001  -7.509175e+001 
3143750000  -4.181434e+001  -7.911786e+001 
3146875000  -4.111071e+001  -7.855051e+001 
3150000000  -4.038404e+001  -8.265725e+001 
3153125000  -4.071452e+001  -9.265419e+001 
3156250000  -4.151889e+001  -9.136444e+001 
3159375000  -3.920317e+001  -9.308810e+001 
3162500000  -3.774534e+001  -1.099911e+002 
3165625000  -3.914015e+001  -1.235109e+002 
3168750000  -3.903822e+001  -1.245657e+002 
3171875000  -3.856842e+001  -1.328781e+002 
3175000000  -3.922109e+001  -1.439091e+002 
3178125000  -3.880969e+001  -1.465820e+002 
3181250000  -3.809492e+001  -1.551515e+002 
3184375000  -3.790147e+001  -1.663129e+002 
3187500000  -3.900127e+001  1.771090e+002 
3190625000  -4.096602e+001  1.699769e+002 
3193750000  -4.153726e+001  1.732149e+002 
3196875000  -4.122542e+001  1.732708e+002 
3200000000  -3.998818e+001  1.673511e+002 
3203125000  -3.969922e+001  1.605070e+002 
3206250000  -3.997709e+001  1.520570e+002 
3209375000  -3.941501e+001  1.423262e+002 
3212500000  -3.992145e+001  1.332312e+002 
3215625000  -3.960444e+001  1.322569e+002 
3218750000  -4.043855e+001  1.192763e+002 
3221875000  -4.072290e+001  1.121303e+002 
3225000000  -4.056937e+001  1.073240e+002 
3228125000  -4.103155e+001  9.995963e+001 
3231250000  -4.148217e+001  9.592667e+001 
3234375000  -4.095208e+001  9.357604e+001 
3237500000  -4.097865e+001  8.934101e+001 
3240625000  -4.034439e+001  8.296792e+001 
3243750000  -4.037858e+001  7.054830e+001 
3246875000  -4.072287e+001  6.329186e+001 
3250000000  -4.119583e+001  5.773433e+001 
3253125000  -4.110142e+001  5.296988e+001 
3256250000  -4.067662e+001  4.317186e+001 
3259375000  -4.095825e+001  3.096261e+001 
3262500000  -4.237391e+001  2.631404e+001 
3265625000  -4.259480e+001  2.639295e+001 
3268750000  -4.215356e+001  2.601297e+001 
3271875000  -4.158408e+001  1.965589e+001 
3275000000  -4.099001e+001  1.001586e+001 
3278125000  -4.166205e+001  2.676314e+000 
3281250000  -4.212299e+001  -1.544497e+000 
3284375000  -4.121177e+001  -9.887403e+000 
3287500000  -4.168641e+001  -1.629321e+001 
3290625000  -4.173478e+001  -2.738388e+001 
3293750000  -4.151257e+001  -3.390448e+001 
3296875000  -4.268761e+001  -3.804564e+001 
3300000000  -4.186730e+001  -4.094996e+001 
3303125000  -4.099172e+001  -4.930946e+001 
3306250000  -4.104043e+001  -6.034232e+001 
3309375000  -4.067916e+001  -7.121973e+001 
3312500000  -4.121304e+001  -8.735780e+001 
3315625000  -4.253085e+001  -9.317058e+001 
3318750000  -4.392492e+001  -1.014257e+002 
3321875000  -4.563607e+001  -1.005026e+002 
3325000000  -4.515882e+001  -9.569109e+001 
3328125000  -4.424086e+001  -9.907982e+001 
3331250000  -4.251337e+001  -9.986394e+001 
3334375000  -4.000266e+001  -1.174041e+002 
3337500000  -4.108280e+001  -1.412597e+002 
3340625000  -4.279575e+001  -1.531639e+002 
3343750000  -4.474881e+001  -1.540819e+002 
3346875000  -4.433408e+001  -1.579394e+002 
3350000000  -4.369644e+001  -1.639712e+002 
3353125000  -4.353395e+001  -1.701752e+002 
3356250000  -4.363607e+001  1.782954e+002 
3359375000  -4.427398e+001  1.649345e+002 
3362500000  -4.528276e+001  1.569535e+002 
3365625000  -4.581651e+001  1.512139e+002 
3368750000  -4.653973e+001  1.461637e+002 
3371875000  -4.737077e+001  1.393103e+002 
3375000000  -4.847965e+001  1.329305e+002 
3378125000  -4.975325e+001  1.341573e+002 
3381250000  -5.057252e+001  1.409773e+002 
3384375000  -4.757653e+001  1.493507e+002 
3387500000  -4.506453e+001  1.271564e+002 
3390625000  -4.771977e+001  1.053118e+002 
3393750000  -4.765027e+001  1.048820e+002 
3396875000  -4.642984e+001  9.824884e+001 
3400000000  -4.611679e+001  8.601881e+001 
3403125000  -4.731801e+001  8.011595e+001 
3406250000  -4.739032e+001  7.184092e+001 
3409375000  -4.735308e+001  5.827497e+001 
3412500000  -4.820142e+001  5.236660e+001 
3415625000  -4.909534e+001  4.884578e+001 
3418750000  -4.872733e+001  3.884542e+001 
3421875000  -4.928473e+001  3.772587e+001 
3425000000  -4.779303e+001  3.665120e+001 
3428125000  -4.735080e+001  2.725092e+001 
3431250000  -4.651017e+001  1.128627e+001 
3434375000  -4.676854e+001  2.174704e+000 
3437500000  -4.778028e+001  -5.732668e+000 
3440625000  -4.801980e+001  -1.063878e+001 
3443750000  -4.642875e+001  -1.582143e+001 
3446875000  -4.558243e+001  -2.816880e+001 
3450000000  -4.522884e+001  -4.608774e+001 
3453125000  -4.574421e+001  -6.045100e+001 
3456250000  -4.742304e+001  -6.897739e+001 
3459375000  -4.829752e+001  -7.070290e+001 
3462500000  -4.762120e+001  -7.789966e+001 
3465625000  -4.718398e+001  -8.924900e+001 
3468750000  -4.756522e+001  -9.680407e+001 
3471875000  -4.725202e+001  -1.035350e+002 
3475000000  -4.650389e+001  -1.186029e+002 
3478125000  -4.760654e+001  -1.314925e+002 
3481250000  -4.860589e+001  -1.336569e+002 
3484375000  -4.866427e+001  -1.363302e+002 
3487500000  -4.782603e+001  -1.430134e+002 
3490625000  -4.713885e+001  -1.567095e+002 
3493750000  -4.780748e+001  -1.659434e+002 
3496875000  -4.781391e+001  -1.693883e+002 
3500000000  -4.831851e+001  -1.742874e+002 
3503125000  -4.718935e+001  -1.761394e+002 
3506250000  -4.521455e+001  1.714112e+002 
3509375000  -4.619209e+001  1.514255e+002 
3512500000  -4.583606e+001  1.345904e+002 
3515625000  -4.727810e+001  1.274902e+002 
3518750000  -4.794191e+001  1.312340e+002 
3521875000  -4.761655e+001  1.207903e+002 
3525000000  -4.881338e+001  1.189580e+002 
3528125000  -4.751151e+001  1.159209e+002 
3531250000  -4.658662e+001  1.018775e+002 
3534375000  -4.662597e+001  8.844088e+001 
3537500000  -4.801311e+001  7.764571e+001 
3540625000  -4.892359e+001  7.352054e+001 
3543750000  -4.931770e+001  7.989400e+001 
3546875000  -4.862003e+001  8.067096e+001 
3550000000  -4.663651e+001  7.529676e+001 
3553125000  -4.572304e+001  5.368064e+001 
3556250000  -4.718485e+001  4.667913e+001 
3559375000  -4.644741e+001  4.285616e+001 
3562500000  -4.616270e+001  3.087609e+001 
3565625000  -4.773288e+001  2.607851e+001 
3568750000  -4.753489e+001  2.274339e+001 
3571875000  -4.723695e+001  1.963092e+001 
3575000000  -4.692331e+001  1.166948e+001 
3578125000  -4.763973e+001  6.211749e+000 
3581250000  -4.755737e+001  1.216405e+000 
3584375000  -4.619977e+001  -2.202211e+000 
3587500000  -4.619376e+001  -1.444240e+001 
3590625000  -4.618048e+001  -2.396235e+001 
3593750000  -4.762130e+001  -2.694375e+001 
3596875000  -4.648865e+001  -2.373876e+001 
3600000000  -4.463761e+001  -3.289048e+001 
3603125000  -4.524291e+001  -5.040408e+001 
3606250000  -4.579992e+001  -5.407376e+001 
3609375000  -4.592220e+001  -5.559933e+001 
3612500000  -4.561505e+001  -6.724902e+001 
3615625000  -4.609383e+001  -6.723786e+001 
3618750000  -4.618320e+001  -7.271469e+001 
3621875000  -4.510103e+001  -7.716882e+001 
3625000000  -4.541267e+001  -8.170119e+001 
3628125000  -4.466304e+001  -8.783658e+001 
3631250000  -4.510777e+001  -9.867051e+001 
3634375000  -4.536328e+001  -9.912756e+001 
3637500000  -4.450195e+001  -1.001635e+002 
3640625000  -4.382400e+001  -1.095402e+002 
3643750000  -4.321515e+001  -1.183404e+002 
3646875000  -4.360258e+001  -1.304401e+002 
3650000000  -4.382988e+001  -1.342558e+002 
3653125000  -4.323055e+001  -1.420151e+002 
3656250000  -4.390084e+001  -1.458271e+002 
3659375000  -4.386799e+001  -1.543011e+002 
3662500000  -4.346237e+001  -1.610100e+002 
3665625000  -4.336889e+001  -1.650768e+002 
3668750000  -4.188866e+001  -1.690916e+002 
3671875000  -4.130309e+001  1.778085e+002 
3675000000  -4.176593e+001  1.669942e+002 
3678125000  -4.256400e+001  1.633746e+002 
3681250000  -4.239599e+001  1.570919e+002 
3684375000  -4.293262e+001  1.485416e+002 
3687500000  -4.271821e+001  1.398285e+002 
3690625000  -4.351949e+001  1.338452e+002 
3693750000  -4.428564e+001  1.331385e+002 
3696875000  -4.369642e+001  1.298276e+002 
3700000000  -4.310897e+001  1.186530e+002 
3703125000  -4.358735e+001  1.146021e+002 
3706250000  -4.455585e+001  1.099529e+002 
3709375000  -4.394609e+001  1.121734e+002 
3712500000  -4.262999e+001  1.057989e+002 
3715625000  -4.162701e+001  9.492599e+001 
3718750000  -4.161086e+001  8.519687e+001 
3721875000  -4.196447e+001  7.584507e+001 
3725000000  -4.233725e+001  6.909364e+001 
3728125000  -4.215943e+001  6.557645e+001 
3731250000  -4.187323e+001  5.853462e+001 
3734375000  -4.166828e+001  5.221661e+001 
3737500000  -4.260018e+001  4.457223e+001 
3740625000  -4.303078e+001  3.629930e+001 
3743750000  -4.298701e+001  3.136590e+001 
3746875000  -4.373397e+001  2.200684e+001 
3750000000  -4.354870e+001  2.093875e+001 
3753125000  -4.378029e+001  1.536019e+001 
3756250000  -4.375712e+001  1.528099e+001 
3759375000  -4.328335e+001  8.815003e+000 
3762500000  -4.320083e+001  2.362076e+000 
3765625000  -4.397869e+001  -2.855543e+000 
3768750000  -4.377655e+001  -1.803094e+000 
3771875000  -4.180319e+001  -8.545556e+000 
3775000000  -4.224648e+001  -1.811624e+001 
3778125000  -4.275386e+001  -2.427692e+001 
3781250000  -4.289131e+001  -2.911980e+001 
3784375000  -4.252292e+001  -3.808728e+001 
3787500000  -4.246019e+001  -4.211860e+001 
3790625000  -4.320277e+001  -5.111732e+001 
3793750000  -4.290337e+001  -5.569674e+001 
3796875000  -4.155753e+001  -6.037008e+001 
3800000000  -4.078497e+001  -6.718999e+001 
3803125000  -4.183290e+001  -7.914359e+001 
3806250000  -4.240439e+001  -8.452251e+001 
3809375000  -4.217910e+001  -9.047981e+001 
3812500000  -4.178897e+001  -1.002611e+002 
3815625000  -4.336251e+001  -1.112580e+002 
3818750000  -4.417720e+001  -1.064397e+002 
3821875000  -4.348903e+001  -9.920405e+001 
3825000000  -4.151100e+001  -1.032432e+002 
3828125000  -4.034528e+001  -1.268739e+002 
3831250000  -4.132656e+001  -1.411074e+002 
3834375000  -4.379399e+001  -1.404021e+002 
3837500000  -4.364844e+001  -1.382417e+002 
3840625000  -4.241954e+001  -1.447949e+002 
3843750000  -4.158287e+001  -1.585152e+002 
3846875000  -4.338600e+001  -1.652442e+002 
3850000000  -4.416219e+001  -1.599432e+002 
3853125000  -4.340504e+001  -1.636104e+002 
3856250000  -4.294384e+001  -1.703723e+002 
3859375000  -4.199305e+001  1.799461e+002 
3862500000  -4.190004e+001  1.690607e+002 
3865625000  -4.259685e+001  1.637573e+002 
3868750000  -4.217849e+001  1.611269e+002 
3871875000  -4.187048e+001  1.525579e+002 
3875000000  -4.270185e+001  1.418850e+002 
3878125000  -4.367537e+001  1.392827e+002 
3881250000  -4.331633e+001  1.378205e+002 
3884375000  -4.239384e+001  1.274155e+002 
3887500000  -4.327304e+001  1.235980e+002 
3890625000  -4.397552e+001  1.177879e+002 
3893750000  -4.401152e+001  1.146129e+002 
3896875000  -4.399394e+001  1.110132e+002 
3900000000  -4.431285e+001  1.067044e+002 
3903125000  -4.424360e+001  1.030027e+002 
3906250000  -4.385826e+001  9.874875e+001 
3909375000  -4.267089e+001  8.896680e+001 
3912500000  -4.393105e+001  8.031689e+001 
3915625000  -4.452843e+001  7.689912e+001 
3918750000  -4.433127e+001  7.572752e+001 
3921875000  -4.381703e+001  7.209462e+001 
3925000000  -4.316664e+001  6.663501e+001 
3928125000  -4.293676e+001  5.785356e+001 
3931250000  -4.347100e+001  4.981992e+001 
3934375000  -4.376586e+001  4.556439e+001 
3937500000  -4.416937e+001  4.437937e+001 
3940625000  -4.444358e+001  4.280692e+001 
3943750000  -4.345705e+001  3.984393e+001 
3946875000  -4.315657e+001  2.812989e+001 
3950000000  -4.364556e+001  1.798639e+001 
3953125000  -4.469923e+001  2.307184e+001 
3956250000  -4.276140e+001  1.846242e+001 
3959375000  -4.176183e+001  1.407047e+001 
3962500000  -4.149278e+001  3.962819e+000 
3965625000  -4.179618e+001  -7.532317e+000 
3968750000  -4.295253e+001  -1.647497e+001 
3971875000  -4.231205e+001  -2.197785e+001 
3975000000  -4.191319e+001  -2.600720e+001 
3978125000  -4.181476e+001  -3.306689e+001 
3981250000  -4.170837e+001  -4.174413e+001 
3984375000  -4.273450e+001  -4.848161e+001 
3987500000  -4.297977e+001  -5.286440e+001 
3990625000  -4.331730e+001  -5.653218e+001 
3993750000  -4.277784e+001  -6.148267e+001 
3996875000  -4.306358e+001  -6.728783e+001 
4000000000  -4.368680e+001  -7.219576e+001 
4003125000  -4.345553e+001  -7.408195e+001 
4006250000  -4.213369e+001  -7.871452e+001 
4009375000  -4.111034e+001  -9.539070e+001 
4012500000  -4.315134e+001  -1.031281e+002 
4015625000  -4.405194e+001  -1.034915e+002 
4018750000  -4.385425e+001  -1.056339e+002 
4021875000  -4.288651e+001  -1.137883e+002 
4025000000  -4.332127e+001  -1.210091e+002 
4028125000  -4.351359e+001  -1.308405e+002 
4031250000  -4.398630e+001  -1.365524e+002 
4034375000  -4.401874e+001  -1.387923e+002 
4037500000  -4.427048e+001  -1.416075e+002 
4040625000  -4.443146e+001  -1.478103e+002 
4043750000  -4.452631e+001  -1.521299e+002 
4046875000  -4.433463e+001  -1.587539e+002 
4050000000  -4.413731e+001  -1.623851e+002 
4053125000  -4.575803e+001  -1.649041e+002 
4056250000  -4.578737e+001  -1.630540e+002 
4059375000  -4.378856e+001  -1.658251e+002 
4062500000  -4.382040e+001  -1.737517e+002 
4065625000  -4.400670e+001  -1.783591e+002 
4068750000  -4.328300e+001  1.694590e+002 
4071875000  -4.265986e+001  1.597378e+002 
4075000000  -4.443906e+001  1.562538e+002 
4078125000  -4.473043e+001  1.527782e+002 
4081250000  -4.366888e+001  1.445320e+002 
4084375000  -4.333590e+001  1.356579e+002 
4087500000  -4.398154e+001  1.278488e+002 
4090625000  -4.484817e+001  1.239086e+002 
4093750000  -4.456696e+001  1.263863e+002 
4096875000  -4.419799e+001  1.166675e+002 
4100000000  -4.542146e+001  1.124941e+002 
4103125000  -4.644893e+001  1.162839e+002 
4106250000  -4.525504e+001  1.137745e+002 
4109375000  -4.464787e+001  1.089857e+002 
4112500000  -4.413163e+001  1.004399e+002 
4115625000  -4.409705e+001  9.383839e+001 
4118750000  -4.451111e+001  9.056713e+001 
4121875000  -4.388243e+001  8.317142e+001 
4125000000  -4.479041e+001  7.739307e+001 
4128125000  -4.564557e+001  7.902074e+001 
4131250000  -4.384904e+001  8.226305e+001 
4134375000  -4.166015e+001  6.907668e+001 
4137500000  -4.266813e+001  5.084104e+001 
4140625000  -4.404908e+001  4.359881e+001 
4143750000  -4.491107e+001  4.679867e+001 
4146875000  -4.387304e+001  4.880416e+001 
4150000000  -4.311986e+001  3.975271e+001 
4153125000  -4.320329e+001  2.920215e+001 
4156250000  -4.382479e+001  2.653948e+001 
4159375000  -4.387059e+001  3.017114e+001 
4162500000  -4.231032e+001  2.555911e+001 
4165625000  -4.194501e+001  1.545533e+001 
4168750000  -4.135860e+001  5.641230e+000 
4171875000  -4.127625e+001  -6.978428e+000 
4175000000  -4.199617e+001  -1.406430e+001 
4178125000  -4.226023e+001  -1.761376e+001 
4181250000  -4.204923e+001  -2.353110e+001 
4184375000  -4.262160e+001  -3.072758e+001 
4187500000  -4.277767e+001  -3.584558e+001 
4190625000  -4.297760e+001  -4.375464e+001 
4193750000  -4.421485e+001  -5.378813e+001 
4196875000  -4.504194e+001  -5.316110e+001 
4200000000  -4.605430e+001  -4.777157e+001 
4203125000  -4.437080e+001  -3.875355e+001 
4206250000  -4.139407e+001  -4.669160e+001 
4209375000  -4.185718e+001  -7.656083e+001 
4212500000  -4.396790e+001  -7.933830e+001 
4215625000  -4.426303e+001  -7.481270e+001 
4218750000  -4.257552e+001  -7.400608e+001 
4221875000  -4.124995e+001  -8.568496e+001 
4225000000  -4.260369e+001  -9.710526e+001 
4228125000  -4.238520e+001  -9.472403e+001 
4231250000  -4.086465e+001  -1.061507e+002 
4234375000  -4.087700e+001  -1.145988e+002 
4237500000  -4.085041e+001  -1.215675e+002 
4240625000  -4.111958e+001  -1.297882e+002 
4243750000  -4.234464e+001  -1.397385e+002 
4246875000  -4.313317e+001  -1.385065e+002 
4250000000  -4.292982e+001  -1.388865e+002 
4253125000  -4.297102e+001  -1.427431e+002 
4256250000  -4.215619e+001  -1.469470e+002 
4259375000  -4.235343e+001  -1.518687e+002 
4262500000  -4.238351e+001  -1.591633e+002 
4265625000  -4.217830e+001  -1.617091e+002 
4268750000  -4.129994e+001  -1.679996e+002 
4271875000  -4.089375e+001  -1.790683e+002 
4275000000  -4.049728e+001  1.690184e+002 
4278125000  -4.162444e+001  1.566647e+002 
4281250000  -4.267197e+001  1.565702e+002 
4284375000  -4.264678e+001  1.540679e+002 
4287500000  -4.410221e+001  1.517095e+002 
4290625000  -4.340472e+001  1.572123e+002 
4293750000  -4.190168e+001  1.563711e+002 
4296875000  -4.064482e+001  1.410304e+002 
4300000000  -4.165071e+001  1.329781e+002 
4303125000  -4.202927e+001  1.322586e+002 
4306250000  -4.098920e+001  1.307672e+002 
4309375000  -3.960243e+001  1.214647e+002 
4312500000  -3.939260e+001  1.079075e+002 
4315625000  -4.019429e+001  9.795380e+001 
4318750000  -4.091641e+001  9.400039e+001 
4321875000  -4.073001e+001  8.995806e+001 
4325000000  -4.016055e+001  8.822287e+001 
4328125000  -3.955777e+001  7.669672e+001 
4331250000  -3.977466e+001  6.336028e+001 
4334375000  -4.097141e+001  5.400421e+001 
4337500000  -4.196071e+001  5.349654e+001 
4340625000  -4.210980e+001  5.532382e+001 
4343750000  -4.121382e+001  5.187956e+001 
4346875000  -4.124208e+001  4.124364e+001 
4350000000  -4.103898e+001  3.312005e+001 
4353125000  -4.166391e+001  2.522805e+001 
4356250000  -4.403202e+001  2.737800e+001 
4359375000  -4.299135e+001  4.071691e+001 
4362500000  -3.974737e+001  2.987525e+001 
4365625000  -3.879059e+001  1.051094e+001 
4368750000  -4.070065e+001  1.813149e+000 
4371875000  -4.097872e+001  -1.068513e+000 
4375000000  -4.107346e+001  -4.380991e+000 
4378125000  -4.083279e+001  -1.522875e+001 
4381250000  -4.067687e+001  -2.224824e+001 
4384375000  -4.098381e+001  -2.973930e+001 
4387500000  -4.165887e+001  -3.656546e+001 
4390625000  -4.235636e+001  -3.841059e+001 
4393750000  -4.210472e+001  -3.942987e+001 
4396875000  -4.120637e+001  -4.561418e+001 
4400000000  -4.099794e+001  -5.601130e+001 
4403125000  -4.159208e+001  -6.444016e+001 
4406250000  -4.220884e+001  -6.848466e+001 
4409375000  -4.269274e+001  -7.417993e+001 
4412500000  -4.358289e+001  -7.525680e+001 
4415625000  -4.314243e+001  -7.131827e+001 
4418750000  -4.218538e+001  -7.637656e+001 
