!Agilent Technologies,E8363B,MY43030201,A.06.04.32
!Agilent E8363B: A.06.04.32
!Date: Tuesday, November 11, 2014 21:40:16
!Correction: S21(Response(S21)) 
!S1P File: Measurement: S21:
# Hz S  dB   R 50
3000000000  -4.353080e+001  -1.576168e+002 
3003125000  -4.530212e+001  -1.627188e+002 
3006250000  -4.491668e+001  -1.632272e+002 
3009375000  -4.627773e+001  -1.591270e+002 
3012500000  -4.468480e+001  -1.667062e+002 
3015625000  -4.482978e+001  -1.735293e+002 
3018750000  -4.564075e+001  -1.736714e+002 
3021875000  -4.388569e+001  -1.744324e+002 
3025000000  -4.242461e+001  -1.773808e+002 
3028125000  -4.186238e+001  1.692098e+002 
3031250000  -4.109528e+001  1.569707e+002 
3034375000  -4.089024e+001  1.420444e+002 
3037500000  -4.129743e+001  1.303019e+002 
3040625000  -4.300027e+001  1.256237e+002 
3043750000  -4.316556e+001  1.171758e+002 
3046875000  -4.392575e+001  1.126410e+002 
3050000000  -4.546550e+001  1.076811e+002 
3053125000  -4.458242e+001  1.113838e+002 
3056250000  -4.441651e+001  1.138560e+002 
3059375000  -4.398148e+001  1.099425e+002 
3062500000  -4.243289e+001  1.047128e+002 
3065625000  -4.224353e+001  9.433993e+001 
3068750000  -4.177613e+001  8.571581e+001 
3071875000  -4.173235e+001  8.364996e+001 
3075000000  -4.116645e+001  7.536771e+001 
3078125000  -4.105532e+001  6.828352e+001 
3081250000  -4.114518e+001  6.154756e+001 
3084375000  -4.039268e+001  5.583079e+001 
3087500000  -4.043615e+001  4.822469e+001 
3090625000  -4.001069e+001  3.534470e+001 
3093750000  -4.077513e+001  2.527551e+001 
3096875000  -4.114576e+001  2.081593e+001 
3100000000  -4.103627e+001  1.669872e+001 
3103125000  -4.129865e+001  1.094303e+001 
3106250000  -4.084816e+001  5.303417e+000 
3109375000  -4.108836e+001  1.155285e+000 
3112500000  -4.085746e+001  -6.595164e+000 
3115625000  -4.081290e+001  -1.200130e+001 
3118750000  -4.070956e+001  -1.611867e+001 
3121875000  -4.007004e+001  -2.814553e+001 
3125000000  -4.203252e+001  -3.343200e+001 
3128125000  -4.212804e+001  -2.671581e+001 
3131250000  -3.959198e+001  -3.610948e+001 
3134375000  -3.882452e+001  -5.277374e+001 
3137500000  -3.965611e+001  -6.710144e+001 
3140625000  -4.080333e+001  -7.049296e+001 
3143750000  -4.144097e+001  -7.407807e+001 
3146875000  -4.096320e+001  -7.416440e+001 
3150000000  -4.016348e+001  -7.882690e+001 
3153125000  -4.104803e+001  -8.726530e+001 
3156250000  -4.160162e+001  -8.471547e+001 
3159375000  -3.925990e+001  -8.784516e+001 
3162500000  -3.773242e+001  -1.047282e+002 
3165625000  -3.894748e+001  -1.186460e+002 
3168750000  -3.898141e+001  -1.210725e+002 
3171875000  -3.859460e+001  -1.279496e+002 
3175000000  -3.915821e+001  -1.385709e+002 
3178125000  -3.862106e+001  -1.406765e+002 
3181250000  -3.809519e+001  -1.506145e+002 
3184375000  -3.778544e+001  -1.615768e+002 
3187500000  -3.917288e+001  -1.773052e+002 
3190625000  -4.084663e+001  1.742725e+002 
3193750000  -4.119559e+001  1.793190e+002 
3196875000  -4.125171e+001  1.777930e+002 
3200000000  -3.990950e+001  1.726189e+002 
3203125000  -3.972168e+001  1.648597e+002 
3206250000  -3.965574e+001  1.556822e+002 
3209375000  -3.951955e+001  1.476857e+002 
3212500000  -4.017789e+001  1.408162e+002 
3215625000  -3.974397e+001  1.374243e+002 
3218750000  -4.049602e+001  1.234647e+002 
3221875000  -4.068380e+001  1.186188e+002 
3225000000  -4.035403e+001  1.114875e+002 
3228125000  -4.133278e+001  1.045912e+002 
3231250000  -4.142354e+001  1.011069e+002 
3234375000  -4.096578e+001  9.776241e+001 
3237500000  -4.098894e+001  9.345105e+001 
3240625000  -4.039735e+001  8.723590e+001 
3243750000  -4.022208e+001  7.559018e+001 
3246875000  -4.054079e+001  6.725211e+001 
3250000000  -4.105171e+001  6.228696e+001 
3253125000  -4.151589e+001  5.899010e+001 
3256250000  -4.027973e+001  4.814527e+001 
3259375000  -4.097292e+001  3.479052e+001 
3262500000  -4.223581e+001  2.770421e+001 
3265625000  -4.254546e+001  3.194617e+001 
3268750000  -4.271006e+001  3.157512e+001 
3271875000  -4.157637e+001  2.472425e+001 
3275000000  -4.120332e+001  1.522983e+001 
3278125000  -4.176088e+001  6.160347e+000 
3281250000  -4.185430e+001  4.262432e+000 
3284375000  -4.113264e+001  -4.608329e+000 
3287500000  -4.163157e+001  -1.270789e+001 
3290625000  -4.142696e+001  -2.188722e+001 
3293750000  -4.167242e+001  -3.064205e+001 
3296875000  -4.263618e+001  -3.534766e+001 
3300000000  -4.203647e+001  -3.756203e+001 
3303125000  -4.113837e+001  -4.702229e+001 
3306250000  -4.097691e+001  -5.681160e+001 
3309375000  -4.076767e+001  -6.807838e+001 
3312500000  -4.114319e+001  -8.108307e+001 
3315625000  -4.250546e+001  -9.122431e+001 
3318750000  -4.411253e+001  -9.794622e+001 
3321875000  -4.560688e+001  -9.575934e+001 
3325000000  -4.502052e+001  -9.196369e+001 
3328125000  -4.457578e+001  -9.661348e+001 
3331250000  -4.270882e+001  -9.796909e+001 
3334375000  -4.014207e+001  -1.128865e+002 
3337500000  -4.118375e+001  -1.363282e+002 
3340625000  -4.285265e+001  -1.477738e+002 
3343750000  -4.460628e+001  -1.489446e+002 
3346875000  -4.437583e+001  -1.536567e+002 
3350000000  -4.382330e+001  -1.582810e+002 
3353125000  -4.386385e+001  -1.671476e+002 
3356250000  -4.364808e+001  -1.788360e+002 
3359375000  -4.422919e+001  1.679571e+002 
3362500000  -4.538256e+001  1.612817e+002 
3365625000  -4.559505e+001  1.542009e+002 
3368750000  -4.685242e+001  1.515554e+002 
3371875000  -4.712539e+001  1.443808e+002 
3375000000  -4.876609e+001  1.412469e+002 
3378125000  -4.951642e+001  1.349215e+002 
3381250000  -5.049979e+001  1.453686e+002 
3384375000  -4.753066e+001  1.576048e+002 
3387500000  -4.510792e+001  1.306500e+002 
3390625000  -4.712980e+001  1.078531e+002 
3393750000  -4.793781e+001  1.068072e+002 
3396875000  -4.653711e+001  1.036815e+002 
3400000000  -4.659210e+001  9.048016e+001 
3403125000  -4.674682e+001  8.313243e+001 
3406250000  -4.760890e+001  7.304296e+001 
3409375000  -4.727342e+001  6.560494e+001 
3412500000  -4.820176e+001  5.911945e+001 
3415625000  -4.894057e+001  5.401572e+001 
3418750000  -4.862896e+001  5.157001e+001 
3421875000  -4.965071e+001  4.229736e+001 
3425000000  -4.761502e+001  3.534142e+001 
3428125000  -4.759534e+001  3.264088e+001 
3431250000  -4.665517e+001  1.776836e+001 
3434375000  -4.685268e+001  6.071072e+000 
3437500000  -4.746513e+001  -4.104779e-001 
3440625000  -4.807206e+001  -3.313982e+000 
3443750000  -4.628531e+001  -1.223776e+001 
3446875000  -4.545870e+001  -2.578094e+001 
3450000000  -4.511459e+001  -3.872243e+001 
3453125000  -4.576817e+001  -5.676499e+001 
3456250000  -4.718196e+001  -6.562163e+001 
3459375000  -4.852632e+001  -6.778600e+001 
3462500000  -4.787982e+001  -7.241233e+001 
3465625000  -4.733598e+001  -8.263846e+001 
3468750000  -4.731010e+001  -9.120966e+001 
3471875000  -4.694771e+001  -1.018963e+002 
3475000000  -4.666365e+001  -1.121631e+002 
3478125000  -4.722376e+001  -1.264667e+002 
3481250000  -4.881231e+001  -1.262243e+002 
3484375000  -4.857572e+001  -1.286561e+002 
3487500000  -4.741820e+001  -1.368331e+002 
3490625000  -4.736102e+001  -1.520011e+002 
3493750000  -4.742555e+001  -1.621461e+002 
3496875000  -4.782067e+001  -1.635983e+002 
3500000000  -4.856301e+001  -1.633570e+002 
3503125000  -4.673972e+001  -1.661641e+002 
3506250000  -4.560060e+001  1.721653e+002 
3509375000  -4.574854e+001  1.532067e+002 
3512500000  -4.589789e+001  1.418408e+002 
3515625000  -4.755720e+001  1.336700e+002 
3518750000  -4.756575e+001  1.361513e+002 
3521875000  -4.763596e+001  1.206194e+002 
3525000000  -4.890089e+001  1.176254e+002 
3528125000  -4.759488e+001  1.195279e+002 
3531250000  -4.675206e+001  1.106666e+002 
3534375000  -4.688399e+001  9.424326e+001 
3537500000  -4.762036e+001  8.649223e+001 
3540625000  -4.874481e+001  8.229833e+001 
3543750000  -4.920804e+001  7.920285e+001 
3546875000  -4.877470e+001  8.915563e+001 
3550000000  -4.635865e+001  7.667619e+001 
3553125000  -4.619652e+001  5.995992e+001 
3556250000  -4.710698e+001  5.177318e+001 
3559375000  -4.646484e+001  4.755578e+001 
3562500000  -4.664994e+001  3.617006e+001 
3565625000  -4.742241e+001  2.768829e+001 
3568750000  -4.752526e+001  2.989724e+001 
3571875000  -4.706096e+001  2.331083e+001 
3575000000  -4.708560e+001  1.701058e+001 
3578125000  -4.796357e+001  1.321101e+001 
3581250000  -4.715113e+001  9.840038e+000 
3584375000  -4.586280e+001  5.702702e-001 
3587500000  -4.563406e+001  -1.006965e+001 
3590625000  -4.666573e+001  -2.041488e+001 
3593750000  -4.742839e+001  -2.297744e+001 
3596875000  -4.657572e+001  -1.354208e+001 
3600000000  -4.492505e+001  -2.828468e+001 
3603125000  -4.535762e+001  -4.406250e+001 
3606250000  -4.603499e+001  -5.112770e+001 
3609375000  -4.642919e+001  -5.113008e+001 
3612500000  -4.614784e+001  -5.804334e+001 
3615625000  -4.628531e+001  -6.561757e+001 
3618750000  -4.610050e+001  -6.442924e+001 
3621875000  -4.571206e+001  -7.126823e+001 
3625000000  -4.587694e+001  -7.611255e+001 
3628125000  -4.514665e+001  -8.342777e+001 
3631250000  -4.514753e+001  -9.395483e+001 
3634375000  -4.546637e+001  -9.455733e+001 
3637500000  -4.464785e+001  -9.455081e+001 
3640625000  -4.369814e+001  -9.949161e+001 
3643750000  -4.329201e+001  -1.142471e+002 
3646875000  -4.380054e+001  -1.239297e+002 
3650000000  -4.365210e+001  -1.273985e+002 
3653125000  -4.330289e+001  -1.361981e+002 
3656250000  -4.384522e+001  -1.451528e+002 
3659375000  -4.360302e+001  -1.472650e+002 
3662500000  -4.303192e+001  -1.531514e+002 
3665625000  -4.356633e+001  -1.593849e+002 
3668750000  -4.195690e+001  -1.637727e+002 
3671875000  -4.152533e+001  -1.780831e+002 
3675000000  -4.218159e+001  1.733654e+002 
3678125000  -4.247461e+001  1.666305e+002 
3681250000  -4.232985e+001  1.619978e+002 
3684375000  -4.272613e+001  1.534401e+002 
3687500000  -4.292937e+001  1.463179e+002 
3690625000  -4.351715e+001  1.393911e+002 
3693750000  -4.473333e+001  1.385694e+002 
3696875000  -4.390871e+001  1.359914e+002 
3700000000  -4.316903e+001  1.267138e+002 
3703125000  -4.364216e+001  1.202757e+002 
3706250000  -4.419756e+001  1.141901e+002 
3709375000  -4.364017e+001  1.180144e+002 
3712500000  -4.293334e+001  1.118623e+002 
3715625000  -4.142347e+001  1.008265e+002 
3718750000  -4.179864e+001  9.078848e+001 
3721875000  -4.187482e+001  8.201946e+001 
3725000000  -4.227960e+001  7.592379e+001 
3728125000  -4.269082e+001  7.176368e+001 
3731250000  -4.195589e+001  6.425616e+001 
3734375000  -4.203642e+001  5.726725e+001 
3737500000  -4.278074e+001  5.101857e+001 
3740625000  -4.330906e+001  4.232562e+001 
3743750000  -4.303920e+001  3.568465e+001 
3746875000  -4.362921e+001  2.915758e+001 
3750000000  -4.340562e+001  2.585312e+001 
3753125000  -4.373220e+001  2.364519e+001 
3756250000  -4.385736e+001  1.905833e+001 
3759375000  -4.356585e+001  1.334751e+001 
3762500000  -4.355647e+001  1.006234e+001 
3765625000  -4.446890e+001  2.041864e+000 
3768750000  -4.348703e+001  5.480552e+000 
3771875000  -4.227660e+001  -2.081454e+000 
3775000000  -4.215858e+001  -1.633966e+001 
3778125000  -4.252154e+001  -1.868684e+001 
3781250000  -4.273371e+001  -2.311220e+001 
3784375000  -4.247047e+001  -3.072197e+001 
3787500000  -4.258307e+001  -3.608480e+001 
3790625000  -4.303708e+001  -4.631368e+001 
3793750000  -4.266721e+001  -4.866747e+001 
3796875000  -4.184280e+001  -5.361856e+001 
3800000000  -4.084975e+001  -6.086052e+001 
3803125000  -4.179603e+001  -7.189833e+001 
3806250000  -4.241062e+001  -7.779611e+001 
3809375000  -4.176127e+001  -8.289095e+001 
3812500000  -4.199862e+001  -9.376504e+001 
3815625000  -4.305138e+001  -1.042423e+002 
3818750000  -4.437568e+001  -1.024235e+002 
3821875000  -4.377746e+001  -9.239141e+001 
3825000000  -4.176542e+001  -9.793941e+001 
3828125000  -4.042295e+001  -1.203828e+002 
3831250000  -4.160183e+001  -1.341662e+002 
3834375000  -4.401429e+001  -1.344320e+002 
3837500000  -4.408479e+001  -1.327077e+002 
3840625000  -4.258996e+001  -1.385004e+002 
3843750000  -4.198240e+001  -1.548237e+002 
3846875000  -4.373372e+001  -1.589904e+002 
3850000000  -4.375929e+001  -1.552959e+002 
3853125000  -4.372085e+001  -1.557347e+002 
3856250000  -4.286931e+001  -1.660915e+002 
3859375000  -4.247134e+001  -1.720671e+002 
3862500000  -4.198918e+001  1.765028e+002 
3865625000  -4.270419e+001  1.668137e+002 
3868750000  -4.234697e+001  1.662312e+002 
3871875000  -4.220669e+001  1.578029e+002 
3875000000  -4.282540e+001  1.471423e+002 
3878125000  -4.335378e+001  1.443528e+002 
3881250000  -4.339405e+001  1.450674e+002 
3884375000  -4.273469e+001  1.326452e+002 
3887500000  -4.350960e+001  1.288113e+002 
3890625000  -4.383511e+001  1.242327e+002 
3893750000  -4.439001e+001  1.198905e+002 
3896875000  -4.448372e+001  1.195665e+002 
3900000000  -4.453664e+001  1.155607e+002 
3903125000  -4.377579e+001  1.075793e+002 
3906250000  -4.382224e+001  1.016143e+002 
3909375000  -4.313706e+001  9.485948e+001 
3912500000  -4.342829e+001  8.393858e+001 
3915625000  -4.491867e+001  8.421268e+001 
3918750000  -4.491576e+001  8.148801e+001 
3921875000  -4.414836e+001  7.988795e+001 
3925000000  -4.325030e+001  7.418161e+001 
3928125000  -4.279880e+001  6.233164e+001 
3931250000  -4.395507e+001  5.632122e+001 
3934375000  -4.414931e+001  5.351221e+001 
3937500000  -4.461922e+001  4.801206e+001 
3940625000  -4.452271e+001  4.833422e+001 
3943750000  -4.338364e+001  4.395348e+001 
3946875000  -4.321882e+001  3.293641e+001 
3950000000  -4.407951e+001  2.771964e+001 
3953125000  -4.475021e+001  2.364168e+001 
3956250000  -4.305536e+001  2.876622e+001 
3959375000  -4.215289e+001  2.071252e+001 
3962500000  -4.192930e+001  1.062866e+001 
3965625000  -4.193318e+001  -7.820212e-001 
3968750000  -4.254409e+001  -1.020862e+001 
3971875000  -4.280159e+001  -1.330965e+001 
3975000000  -4.229868e+001  -1.809471e+001 
3978125000  -4.262891e+001  -2.707416e+001 
3981250000  -4.172200e+001  -3.345819e+001 
3984375000  -4.274526e+001  -3.906798e+001 
3987500000  -4.307332e+001  -4.492296e+001 
3990625000  -4.322441e+001  -4.884301e+001 
3993750000  -4.359916e+001  -5.503833e+001 
3996875000  -4.304204e+001  -6.119293e+001 
4000000000  -4.375139e+001  -6.599603e+001 
4003125000  -4.332950e+001  -6.795373e+001 
4006250000  -4.229011e+001  -7.288763e+001 
4009375000  -4.160297e+001  -9.018099e+001 
4012500000  -4.305895e+001  -9.771827e+001 
4015625000  -4.437863e+001  -9.926300e+001 
4018750000  -4.381677e+001  -9.950777e+001 
4021875000  -4.318313e+001  -1.098232e+002 
4025000000  -4.346169e+001  -1.170024e+002 
4028125000  -4.351780e+001  -1.246228e+002 
4031250000  -4.417169e+001  -1.309872e+002 
4034375000  -4.405442e+001  -1.310904e+002 
4037500000  -4.402592e+001  -1.340605e+002 
4040625000  -4.414793e+001  -1.402559e+002 
4043750000  -4.472189e+001  -1.436175e+002 
4046875000  -4.484281e+001  -1.478229e+002 
4050000000  -4.422543e+001  -1.574361e+002 
4053125000  -4.528652e+001  -1.607600e+002 
4056250000  -4.558235e+001  -1.586282e+002 
4059375000  -4.424576e+001  -1.597043e+002 
4062500000  -4.409548e+001  -1.719430e+002 
4065625000  -4.407775e+001  -1.742948e+002 
4068750000  -4.359100e+001  1.778587e+002 
4071875000  -4.305999e+001  1.668895e+002 
4075000000  -4.362404e+001  1.614190e+002 
4078125000  -4.408556e+001  1.578776e+002 
4081250000  -4.421380e+001  1.526857e+002 
4084375000  -4.357264e+001  1.440076e+002 
4087500000  -4.467685e+001  1.370241e+002 
4090625000  -4.528337e+001  1.339664e+002 
4093750000  -4.499009e+001  1.334312e+002 
4096875000  -4.455610e+001  1.246652e+002 
4100000000  -4.511517e+001  1.157313e+002 
4103125000  -4.597898e+001  1.170980e+002 
4106250000  -4.555877e+001  1.231395e+002 
4109375000  -4.487218e+001  1.161664e+002 
4112500000  -4.428191e+001  1.055164e+002 
4115625000  -4.444547e+001  1.021168e+002 
4118750000  -4.430716e+001  9.611858e+001 
4121875000  -4.418658e+001  8.902107e+001 
4125000000  -4.524262e+001  8.114872e+001 
4128125000  -4.531612e+001  8.404864e+001 
4131250000  -4.439174e+001  8.956773e+001 
4134375000  -4.175008e+001  7.874330e+001 
4137500000  -4.274126e+001  5.842054e+001 
4140625000  -4.486026e+001  4.985327e+001 
4143750000  -4.545669e+001  5.413696e+001 
4146875000  -4.419075e+001  5.594148e+001 
4150000000  -4.280437e+001  5.016206e+001 
4153125000  -4.354683e+001  3.664765e+001 
4156250000  -4.466372e+001  3.333092e+001 
4159375000  -4.432547e+001  3.505838e+001 
4162500000  -4.250079e+001  3.210806e+001 
4165625000  -4.195000e+001  2.016515e+001 
4168750000  -4.162481e+001  1.120744e+001 
4171875000  -4.180032e+001  2.472120e-001 
4175000000  -4.246182e+001  -7.781662e+000 
4178125000  -4.264007e+001  -1.287107e+001 
4181250000  -4.277705e+001  -1.720732e+001 
4184375000  -4.280941e+001  -2.321849e+001 
4187500000  -4.284298e+001  -3.093441e+001 
4190625000  -4.309296e+001  -4.172061e+001 
4193750000  -4.461238e+001  -4.690982e+001 
4196875000  -4.548184e+001  -4.623180e+001 
4200000000  -4.638078e+001  -4.169750e+001 
4203125000  -4.496843e+001  -2.974476e+001 
4206250000  -4.136434e+001  -4.081139e+001 
4209375000  -4.171426e+001  -6.469728e+001 
4212500000  -4.397905e+001  -7.127471e+001 
4215625000  -4.493650e+001  -6.876299e+001 
4218750000  -4.297998e+001  -6.497058e+001 
4221875000  -4.135037e+001  -7.618494e+001 
4225000000  -4.367130e+001  -8.957136e+001 
4228125000  -4.253709e+001  -8.706110e+001 
4231250000  -4.132777e+001  -9.767227e+001 
4234375000  -4.134912e+001  -1.092332e+002 
4237500000  -4.125784e+001  -1.123599e+002 
4240625000  -4.166041e+001  -1.246377e+002 
4243750000  -4.295485e+001  -1.348505e+002 
4246875000  -4.361719e+001  -1.315287e+002 
4250000000  -4.342242e+001  -1.338199e+002 
4253125000  -4.285296e+001  -1.344464e+002 
4256250000  -4.275563e+001  -1.428681e+002 
4259375000  -4.274647e+001  -1.482727e+002 
4262500000  -4.251630e+001  -1.531662e+002 
4265625000  -4.232308e+001  -1.549908e+002 
4268750000  -4.169598e+001  -1.623794e+002 
4271875000  -4.131814e+001  -1.720918e+002 
4275000000  -4.055432e+001  1.793904e+002 
4278125000  -4.188745e+001  1.629821e+002 
4281250000  -4.293992e+001  1.648392e+002 
4284375000  -4.239899e+001  1.592780e+002 
4287500000  -4.394278e+001  1.572970e+002 
4290625000  -4.432293e+001  1.658225e+002 
4293750000  -4.222731e+001  1.628889e+002 
4296875000  -4.052488e+001  1.482120e+002 
4300000000  -4.208473e+001  1.362421e+002 
4303125000  -4.205886e+001  1.376143e+002 
4306250000  -4.111994e+001  1.379473e+002 
4309375000  -4.001715e+001  1.298977e+002 
4312500000  -4.007369e+001  1.156069e+002 
4315625000  -4.075943e+001  1.069411e+002 
4318750000  -4.101200e+001  1.025463e+002 
4321875000  -4.126053e+001  9.937783e+001 
4325000000  -4.066903e+001  9.624483e+001 
4328125000  -4.018192e+001  8.501488e+001 
4331250000  -4.003981e+001  7.112640e+001 
4334375000  -4.129014e+001  6.112225e+001 
4337500000  -4.241290e+001  6.272654e+001 
4340625000  -4.288386e+001  6.316402e+001 
4343750000  -4.141754e+001  5.992992e+001 
4346875000  -4.170640e+001  4.740845e+001 
4350000000  -4.176502e+001  3.871334e+001 
4353125000  -4.238169e+001  3.317347e+001 
4356250000  -4.450796e+001  3.700152e+001 
4359375000  -4.291194e+001  5.020961e+001 
4362500000  -4.010744e+001  3.773992e+001 
4365625000  -3.979364e+001  1.860011e+001 
4368750000  -4.065814e+001  6.920212e+000 
4371875000  -4.155418e+001  5.560523e+000 
4375000000  -4.134811e+001  8.742779e-001 
4378125000  -4.115306e+001  -6.241861e+000 
4381250000  -4.133158e+001  -1.429527e+001 
4384375000  -4.129040e+001  -2.088415e+001 
4387500000  -4.224685e+001  -2.886383e+001 
4390625000  -4.265960e+001  -3.191136e+001 
4393750000  -4.210917e+001  -3.104545e+001 
4396875000  -4.181008e+001  -3.674263e+001 
4400000000  -4.115454e+001  -4.660230e+001 
4403125000  -4.222124e+001  -5.633028e+001 
4406250000  -4.289194e+001  -6.186329e+001 
4409375000  -4.307417e+001  -6.609482e+001 
4412500000  -4.413925e+001  -6.640073e+001 
4415625000  -4.375829e+001  -6.320315e+001 
4418750000  -4.204072e+001  -6.488629e+001 
