!Agilent Technologies,E8363B,MY43030201,A.06.04.32
!Agilent E8363B: A.06.04.32
!Date: Tuesday, November 11, 2014 21:46:31
!Correction: S21(Response(S21)) 
!S1P File: Measurement: S21:
# Hz S  dB   R 50
3000000000  -4.375969e+001  -1.609894e+002 
3003125000  -4.535934e+001  -1.660073e+002 
3006250000  -4.530304e+001  -1.681006e+002 
3009375000  -4.619547e+001  -1.647503e+002 
3012500000  -4.515395e+001  -1.706251e+002 
3015625000  -4.507380e+001  -1.794938e+002 
3018750000  -4.528809e+001  -1.793532e+002 
3021875000  -4.393660e+001  1.799585e+002 
3025000000  -4.274713e+001  1.771580e+002 
3028125000  -4.195248e+001  1.646620e+002 
3031250000  -4.088480e+001  1.521734e+002 
3034375000  -4.073512e+001  1.390316e+002 
3037500000  -4.168182e+001  1.269330e+002 
3040625000  -4.301669e+001  1.219390e+002 
3043750000  -4.323099e+001  1.120760e+002 
3046875000  -4.422784e+001  1.070214e+002 
3050000000  -4.511734e+001  1.027781e+002 
3053125000  -4.498869e+001  1.039742e+002 
3056250000  -4.471410e+001  1.080185e+002 
3059375000  -4.412938e+001  1.068233e+002 
3062500000  -4.235703e+001  1.005557e+002 
3065625000  -4.216437e+001  8.927850e+001 
3068750000  -4.168347e+001  7.929316e+001 
3071875000  -4.175872e+001  7.891745e+001 
3075000000  -4.134852e+001  7.070460e+001 
3078125000  -4.124838e+001  6.461587e+001 
3081250000  -4.128734e+001  5.786990e+001 
3084375000  -4.042008e+001  5.124589e+001 
3087500000  -4.052099e+001  4.310377e+001 
3090625000  -4.025137e+001  3.058215e+001 
3093750000  -4.112439e+001  2.243497e+001 
3096875000  -4.128825e+001  1.672892e+001 
3100000000  -4.125774e+001  1.238700e+001 
3103125000  -4.158085e+001  7.341354e+000 
3106250000  -4.096875e+001  -4.260472e-001 
3109375000  -4.096639e+001  -2.858723e+000 
3112500000  -4.097030e+001  -9.899594e+000 
3115625000  -4.094611e+001  -1.599163e+001 
3118750000  -4.079714e+001  -2.006399e+001 
3121875000  -4.025917e+001  -3.316022e+001 
3125000000  -4.196754e+001  -3.602718e+001 
3128125000  -4.208961e+001  -3.111149e+001 
3131250000  -3.943915e+001  -3.923361e+001 
3134375000  -3.900319e+001  -5.672140e+001 
3137500000  -3.956079e+001  -7.066087e+001 
3140625000  -4.085875e+001  -7.333427e+001 
3143750000  -4.157727e+001  -7.879241e+001 
3146875000  -4.115128e+001  -7.656438e+001 
3150000000  -4.040652e+001  -8.358755e+001 
3153125000  -4.056516e+001  -9.159689e+001 
3156250000  -4.152941e+001  -8.920962e+001 
3159375000  -3.922953e+001  -9.278428e+001 
3162500000  -3.753205e+001  -1.088497e+002 
3165625000  -3.893541e+001  -1.229066e+002 
3168750000  -3.895779e+001  -1.247840e+002 
3171875000  -3.851045e+001  -1.332267e+002 
3175000000  -3.916811e+001  -1.439772e+002 
3178125000  -3.879458e+001  -1.448749e+002 
3181250000  -3.796969e+001  -1.547627e+002 
3184375000  -3.794508e+001  -1.662639e+002 
3187500000  -3.900819e+001  1.771317e+002 
3190625000  -4.067366e+001  1.693472e+002 
3193750000  -4.117116e+001  1.766415e+002 
3196875000  -4.112234e+001  1.744741e+002 
3200000000  -3.991045e+001  1.690909e+002 
3203125000  -3.961597e+001  1.603103e+002 
3206250000  -3.977525e+001  1.512051e+002 
3209375000  -3.956842e+001  1.418753e+002 
3212500000  -3.987347e+001  1.365665e+002 
3215625000  -3.974971e+001  1.331730e+002 
3218750000  -4.013833e+001  1.199124e+002 
3221875000  -4.071824e+001  1.122861e+002 
3225000000  -4.049869e+001  1.086737e+002 
3228125000  -4.099116e+001  1.021176e+002 
3231250000  -4.128708e+001  9.671383e+001 
3234375000  -4.107344e+001  9.434438e+001 
3237500000  -4.089711e+001  9.012585e+001 
3240625000  -4.044982e+001  8.296982e+001 
3243750000  -4.042410e+001  7.033629e+001 
3246875000  -4.071255e+001  6.324576e+001 
3250000000  -4.106185e+001  5.873820e+001 
3253125000  -4.121604e+001  5.567078e+001 
3256250000  -4.036222e+001  4.480320e+001 
3259375000  -4.064322e+001  3.206390e+001 
3262500000  -4.239437e+001  2.604622e+001 
3265625000  -4.243130e+001  2.683214e+001 
3268750000  -4.241199e+001  2.681331e+001 
3271875000  -4.147818e+001  1.989732e+001 
3275000000  -4.093648e+001  9.110312e+000 
3278125000  -4.163054e+001  4.278077e+000 
3281250000  -4.191144e+001  -2.254964e-001 
3284375000  -4.090077e+001  -7.853292e+000 
3287500000  -4.154238e+001  -1.564088e+001 
3290625000  -4.159237e+001  -2.513982e+001 
3293750000  -4.151661e+001  -3.375112e+001 
3296875000  -4.273539e+001  -3.821484e+001 
3300000000  -4.209063e+001  -4.016268e+001 
3303125000  -4.075305e+001  -4.943578e+001 
3306250000  -4.100271e+001  -6.148584e+001 
3309375000  -4.057996e+001  -7.127408e+001 
3312500000  -4.091402e+001  -8.639244e+001 
3315625000  -4.217176e+001  -9.314148e+001 
3318750000  -4.390725e+001  -9.944408e+001 
3321875000  -4.507841e+001  -1.004551e+002 
3325000000  -4.486338e+001  -9.738112e+001 
3328125000  -4.426274e+001  -9.998997e+001 
3331250000  -4.240317e+001  -9.816726e+001 
3334375000  -4.030666e+001  -1.174830e+002 
3337500000  -4.080980e+001  -1.402978e+002 
3340625000  -4.265521e+001  -1.510190e+002 
3343750000  -4.452887e+001  -1.540905e+002 
3346875000  -4.391356e+001  -1.562107e+002 
3350000000  -4.370990e+001  -1.625048e+002 
3353125000  -4.373296e+001  -1.712559e+002 
3356250000  -4.346639e+001  1.777229e+002 
3359375000  -4.444189e+001  1.650965e+002 
3362500000  -4.511367e+001  1.571667e+002 
3365625000  -4.549957e+001  1.517428e+002 
3368750000  -4.647415e+001  1.478152e+002 
3371875000  -4.692113e+001  1.388932e+002 
3375000000  -4.878621e+001  1.340024e+002 
3378125000  -4.945167e+001  1.282371e+002 
3381250000  -5.033901e+001  1.399443e+002 
3384375000  -4.739460e+001  1.538114e+002 
3387500000  -4.478073e+001  1.266657e+002 
3390625000  -4.671770e+001  1.061463e+002 
3393750000  -4.772717e+001  1.057474e+002 
3396875000  -4.624169e+001  1.013411e+002 
3400000000  -4.610334e+001  8.718405e+001 
3403125000  -4.693771e+001  7.994540e+001 
3406250000  -4.740251e+001  7.064911e+001 
3409375000  -4.678600e+001  6.132605e+001 
3412500000  -4.796939e+001  5.416377e+001 
3415625000  -4.834237e+001  5.019823e+001 
3418750000  -4.845475e+001  4.563000e+001 
3421875000  -4.898455e+001  4.088142e+001 
3425000000  -4.733488e+001  3.787528e+001 
3428125000  -4.711367e+001  2.688147e+001 
3431250000  -4.670662e+001  1.713675e+001 
3434375000  -4.694265e+001  3.047565e+000 
3437500000  -4.783282e+001  -5.879488e+000 
3440625000  -4.790588e+001  -7.240057e+000 
3443750000  -4.635423e+001  -1.035887e+001 
3446875000  -4.553976e+001  -3.075594e+001 
3450000000  -4.508076e+001  -4.176796e+001 
3453125000  -4.549288e+001  -5.865829e+001 
3456250000  -4.752611e+001  -6.871685e+001 
3459375000  -4.776787e+001  -7.086488e+001 
3462500000  -4.794342e+001  -8.074029e+001 
3465625000  -4.717322e+001  -8.966239e+001 
3468750000  -4.741015e+001  -9.709278e+001 
3471875000  -4.722260e+001  -1.048790e+002 
3475000000  -4.702909e+001  -1.166355e+002 
3478125000  -4.783793e+001  -1.326119e+002 
3481250000  -4.879955e+001  -1.316778e+002 
3484375000  -4.837313e+001  -1.354333e+002 
3487500000  -4.783073e+001  -1.410033e+002 
3490625000  -4.703975e+001  -1.539405e+002 
3493750000  -4.794636e+001  -1.677933e+002 
3496875000  -4.788849e+001  -1.697809e+002 
3500000000  -4.834361e+001  -1.720538e+002 
3503125000  -4.719250e+001  -1.735202e+002 
3506250000  -4.509739e+001  1.703007e+002 
3509375000  -4.553996e+001  1.497874e+002 
3512500000  -4.622593e+001  1.382838e+002 
3515625000  -4.695346e+001  1.309713e+002 
3518750000  -4.768775e+001  1.328826e+002 
3521875000  -4.790427e+001  1.187229e+002 
3525000000  -4.928440e+001  1.129976e+002 
3528125000  -4.738231e+001  1.153772e+002 
3531250000  -4.640268e+001  1.039579e+002 
3534375000  -4.723124e+001  8.721684e+001 
3537500000  -4.794531e+001  8.057428e+001 
3540625000  -4.904835e+001  7.653207e+001 
3543750000  -4.938696e+001  7.953181e+001 
3546875000  -4.883220e+001  7.952463e+001 
3550000000  -4.618201e+001  7.435244e+001 
3553125000  -4.605792e+001  5.274142e+001 
3556250000  -4.708214e+001  4.479579e+001 
3559375000  -4.707441e+001  4.301150e+001 
3562500000  -4.679541e+001  3.276812e+001 
3565625000  -4.761289e+001  2.499227e+001 
3568750000  -4.804678e+001  2.140086e+001 
3571875000  -4.742478e+001  1.819267e+001 
3575000000  -4.735886e+001  1.165029e+001 
3578125000  -4.793302e+001  7.771791e+000 
3581250000  -4.758148e+001  5.382311e+000 
3584375000  -4.599998e+001  -4.152848e+000 
3587500000  -4.570465e+001  -1.391364e+001 
3590625000  -4.657285e+001  -2.371797e+001 
3593750000  -4.765113e+001  -2.652357e+001 
3596875000  -4.678067e+001  -1.918060e+001 
3600000000  -4.494802e+001  -3.297486e+001 
3603125000  -4.522589e+001  -4.570706e+001 
3606250000  -4.568368e+001  -5.528668e+001 
3609375000  -4.628707e+001  -5.811141e+001 
3612500000  -4.593267e+001  -6.445732e+001 
3615625000  -4.608482e+001  -6.821493e+001 
3618750000  -4.609210e+001  -7.010102e+001 
3621875000  -4.568159e+001  -7.723689e+001 
3625000000  -4.604006e+001  -8.235957e+001 
3628125000  -4.483642e+001  -8.933200e+001 
3631250000  -4.489558e+001  -9.692574e+001 
3634375000  -4.549288e+001  -9.686899e+001 
3637500000  -4.460971e+001  -1.004392e+002 
3640625000  -4.376828e+001  -1.066351e+002 
3643750000  -4.334132e+001  -1.179902e+002 
3646875000  -4.357341e+001  -1.290626e+002 
3650000000  -4.393490e+001  -1.353543e+002 
3653125000  -4.331052e+001  -1.424793e+002 
3656250000  -4.413546e+001  -1.491802e+002 
3659375000  -4.377593e+001  -1.508195e+002 
3662500000  -4.339864e+001  -1.620803e+002 
3665625000  -4.321087e+001  -1.654741e+002 
3668750000  -4.215796e+001  -1.698203e+002 
3671875000  -4.157758e+001  1.782478e+002 
3675000000  -4.210348e+001  1.667090e+002 
3678125000  -4.254946e+001  1.622113e+002 
3681250000  -4.234023e+001  1.576829e+002 
3684375000  -4.257059e+001  1.469010e+002 
3687500000  -4.265410e+001  1.388854e+002 
3690625000  -4.353194e+001  1.328511e+002 
3693750000  -4.415253e+001  1.335121e+002 
3696875000  -4.355079e+001  1.289305e+002 
3700000000  -4.287470e+001  1.207714e+002 
3703125000  -4.337778e+001  1.144818e+002 
3706250000  -4.444543e+001  1.098336e+002 
3709375000  -4.398191e+001  1.123617e+002 
3712500000  -4.290981e+001  1.035070e+002 
3715625000  -4.205030e+001  9.417148e+001 
3718750000  -4.163689e+001  8.496270e+001 
3721875000  -4.151429e+001  7.530401e+001 
3725000000  -4.238243e+001  6.890108e+001 
3728125000  -4.240963e+001  6.512936e+001 
3731250000  -4.222311e+001  5.962056e+001 
3734375000  -4.193443e+001  5.102262e+001 
3737500000  -4.254456e+001  4.135958e+001 
3740625000  -4.304540e+001  3.594933e+001 
3743750000  -4.260261e+001  3.241519e+001 
3746875000  -4.334413e+001  2.404693e+001 
3750000000  -4.352981e+001  2.045666e+001 
3753125000  -4.383387e+001  1.820571e+001 
3756250000  -4.372606e+001  1.232489e+001 
3759375000  -4.340493e+001  8.086540e+000 
3762500000  -4.336853e+001  5.512553e+000 
3765625000  -4.397412e+001  1.692843e-001 
3768750000  -4.375163e+001  -2.064329e+000 
3771875000  -4.223166e+001  -8.294177e+000 
3775000000  -4.209153e+001  -2.081374e+001 
3778125000  -4.257173e+001  -2.431323e+001 
3781250000  -4.263226e+001  -3.130337e+001 
3784375000  -4.231808e+001  -3.677412e+001 
3787500000  -4.236634e+001  -4.278174e+001 
3790625000  -4.305878e+001  -5.353894e+001 
3793750000  -4.281439e+001  -5.322018e+001 
3796875000  -4.154917e+001  -6.101107e+001 
3800000000  -4.065568e+001  -6.732938e+001 
3803125000  -4.176136e+001  -7.746014e+001 
3806250000  -4.254290e+001  -8.392859e+001 
3809375000  -4.189994e+001  -8.776630e+001 
3812500000  -4.195734e+001  -9.895892e+001 
3815625000  -4.302319e+001  -1.124793e+002 
3818750000  -4.464671e+001  -1.075803e+002 
3821875000  -4.362875e+001  -9.868123e+001 
3825000000  -4.146906e+001  -1.044690e+002 
3828125000  -4.057266e+001  -1.274332e+002 
3831250000  -4.152975e+001  -1.409985e+002 
3834375000  -4.363841e+001  -1.419543e+002 
3837500000  -4.389544e+001  -1.396614e+002 
3840625000  -4.237465e+001  -1.456519e+002 
3843750000  -4.155704e+001  -1.585451e+002 
3846875000  -4.308266e+001  -1.676044e+002 
3850000000  -4.438737e+001  -1.604511e+002 
3853125000  -4.355821e+001  -1.617135e+002 
3856250000  -4.265908e+001  -1.727981e+002 
3859375000  -4.177107e+001  1.794831e+002 
3862500000  -4.192679e+001  1.715262e+002 
3865625000  -4.283570e+001  1.623366e+002 
3868750000  -4.240468e+001  1.613001e+002 
3871875000  -4.189657e+001  1.521283e+002 
3875000000  -4.232937e+001  1.428900e+002 
3878125000  -4.323589e+001  1.400339e+002 
3881250000  -4.286382e+001  1.381708e+002 
3884375000  -4.279900e+001  1.256881e+002 
3887500000  -4.353265e+001  1.206085e+002 
3890625000  -4.388295e+001  1.170206e+002 
3893750000  -4.420248e+001  1.132188e+002 
3896875000  -4.438465e+001  1.128671e+002 
3900000000  -4.441632e+001  1.081968e+002 
3903125000  -4.364227e+001  1.030450e+002 
3906250000  -4.345329e+001  9.801267e+001 
3909375000  -4.273378e+001  8.631167e+001 
3912500000  -4.377769e+001  7.775484e+001 
3915625000  -4.475980e+001  7.909520e+001 
3918750000  -4.461155e+001  7.571169e+001 
3921875000  -4.390340e+001  7.010028e+001 
3925000000  -4.290171e+001  6.589802e+001 
3928125000  -4.281854e+001  5.640327e+001 
3931250000  -4.362807e+001  4.760004e+001 
3934375000  -4.371179e+001  4.577033e+001 
3937500000  -4.407858e+001  4.538348e+001 
3940625000  -4.433832e+001  4.553344e+001 
3943750000  -4.352576e+001  3.766495e+001 
3946875000  -4.302760e+001  2.878647e+001 
3950000000  -4.390755e+001  1.927391e+001 
3953125000  -4.450673e+001  1.853162e+001 
3956250000  -4.293448e+001  1.693982e+001 
3959375000  -4.172536e+001  1.400541e+001 
3962500000  -4.127009e+001  1.746102e-001 
3965625000  -4.184455e+001  -7.832501e+000 
3968750000  -4.238010e+001  -1.655804e+001 
3971875000  -4.262334e+001  -2.080394e+001 
3975000000  -4.196791e+001  -2.272220e+001 
3978125000  -4.218239e+001  -3.332800e+001 
3981250000  -4.185165e+001  -3.947438e+001 
3984375000  -4.260925e+001  -4.785425e+001 
3987500000  -4.297693e+001  -5.319458e+001 
3990625000  -4.283335e+001  -5.554836e+001 
3993750000  -4.275041e+001  -6.360603e+001 
3996875000  -4.298165e+001  -6.957355e+001 
4000000000  -4.364830e+001  -7.085664e+001 
4003125000  -4.391872e+001  -7.370899e+001 
4006250000  -4.209440e+001  -7.780860e+001 
4009375000  -4.130621e+001  -9.631907e+001 
4012500000  -4.240870e+001  -1.025151e+002 
4015625000  -4.405728e+001  -1.013771e+002 
4018750000  -4.352727e+001  -1.058541e+002 
4021875000  -4.307307e+001  -1.158139e+002 
4025000000  -4.298624e+001  -1.207848e+002 
4028125000  -4.355647e+001  -1.287568e+002 
4031250000  -4.397750e+001  -1.357410e+002 
4034375000  -4.431881e+001  -1.387802e+002 
4037500000  -4.370503e+001  -1.410480e+002 
4040625000  -4.438857e+001  -1.477366e+002 
4043750000  -4.412515e+001  -1.523181e+002 
4046875000  -4.467255e+001  -1.571018e+002 
4050000000  -4.400710e+001  -1.642217e+002 
4053125000  -4.554078e+001  -1.662560e+002 
4056250000  -4.591831e+001  -1.639812e+002 
4059375000  -4.380132e+001  -1.680409e+002 
4062500000  -4.347264e+001  -1.740428e+002 
4065625000  -4.409121e+001  1.795407e+002 
4068750000  -4.288209e+001  1.701852e+002 
4071875000  -4.246892e+001  1.612090e+002 
4075000000  -4.372682e+001  1.530180e+002 
4078125000  -4.426717e+001  1.511298e+002 
4081250000  -4.323478e+001  1.463008e+002 
4084375000  -4.324375e+001  1.371523e+002 
4087500000  -4.378504e+001  1.286049e+002 
4090625000  -4.516525e+001  1.260479e+002 
4093750000  -4.428144e+001  1.236949e+002 
4096875000  -4.410604e+001  1.152009e+002 
4100000000  -4.495199e+001  1.091411e+002 
4103125000  -4.575097e+001  1.127293e+002 
4106250000  -4.506374e+001  1.141687e+002 
4109375000  -4.394822e+001  1.105872e+002 
4112500000  -4.382796e+001  1.004468e+002 
4115625000  -4.392211e+001  9.741436e+001 
4118750000  -4.401710e+001  8.960127e+001 
4121875000  -4.375634e+001  8.233314e+001 
4125000000  -4.492912e+001  7.689999e+001 
4128125000  -4.520995e+001  7.674552e+001 
4131250000  -4.354232e+001  8.217091e+001 
4134375000  -4.134286e+001  6.900098e+001 
4137500000  -4.208344e+001  5.053194e+001 
4140625000  -4.425901e+001  4.301154e+001 
4143750000  -4.494635e+001  4.632239e+001 
4146875000  -4.388706e+001  4.933213e+001 
4150000000  -4.258723e+001  3.929567e+001 
4153125000  -4.320147e+001  2.977011e+001 
4156250000  -4.417648e+001  2.408023e+001 
4159375000  -4.346140e+001  2.626487e+001 
4162500000  -4.268252e+001  2.820935e+001 
4165625000  -4.141518e+001  1.592485e+001 
4168750000  -4.095869e+001  6.617211e+000 
4171875000  -4.099115e+001  -6.035370e+000 
4175000000  -4.157865e+001  -1.603105e+001 
4178125000  -4.231113e+001  -1.891650e+001 
4181250000  -4.202453e+001  -2.441877e+001 
4184375000  -4.242891e+001  -3.008558e+001 
4187500000  -4.266346e+001  -3.495800e+001 
4190625000  -4.257840e+001  -4.650337e+001 
4193750000  -4.384107e+001  -5.502825e+001 
4196875000  -4.490024e+001  -5.134496e+001 
4200000000  -4.562267e+001  -4.731853e+001 
4203125000  -4.452861e+001  -3.836718e+001 
4206250000  -4.107558e+001  -5.206158e+001 
4209375000  -4.106375e+001  -7.221230e+001 
4212500000  -4.372092e+001  -8.004145e+001 
4215625000  -4.408486e+001  -7.281627e+001 
4218750000  -4.263335e+001  -7.293391e+001 
4221875000  -4.130997e+001  -8.404310e+001 
4225000000  -4.235552e+001  -9.687346e+001 
4228125000  -4.230787e+001  -9.527253e+001 
4231250000  -4.097160e+001  -1.055110e+002 
4234375000  -4.063755e+001  -1.132509e+002 
4237500000  -4.110985e+001  -1.207274e+002 
4240625000  -4.094510e+001  -1.310955e+002 
4243750000  -4.221128e+001  -1.389411e+002 
4246875000  -4.304436e+001  -1.389536e+002 
4250000000  -4.262372e+001  -1.409576e+002 
4253125000  -4.258558e+001  -1.412704e+002 
4256250000  -4.264172e+001  -1.505418e+002 
4259375000  -4.199128e+001  -1.527590e+002 
4262500000  -4.232780e+001  -1.602378e+002 
4265625000  -4.193507e+001  -1.628847e+002 
4268750000  -4.118345e+001  -1.688124e+002 
4271875000  -4.056050e+001  1.788953e+002 
4275000000  -4.023748e+001  1.729707e+002 
4278125000  -4.132849e+001  1.584542e+002 
4281250000  -4.252742e+001  1.531168e+002 
4284375000  -4.259830e+001  1.522311e+002 
4287500000  -4.336939e+001  1.507762e+002 
4290625000  -4.385613e+001  1.541398e+002 
4293750000  -4.155749e+001  1.558529e+002 
4296875000  -4.003815e+001  1.406788e+002 
4300000000  -4.160428e+001  1.287883e+002 
4303125000  -4.230141e+001  1.305301e+002 
4306250000  -4.080215e+001  1.292639e+002 
4309375000  -3.983720e+001  1.202373e+002 
4312500000  -3.977485e+001  1.059602e+002 
4315625000  -4.007553e+001  9.908410e+001 
4318750000  -4.075684e+001  9.338627e+001 
4321875000  -4.058813e+001  9.064569e+001 
4325000000  -3.987879e+001  8.521162e+001 
4328125000  -3.925392e+001  7.649493e+001 
4331250000  -3.973219e+001  6.272222e+001 
4334375000  -4.064728e+001  5.499285e+001 
4337500000  -4.197972e+001  5.230687e+001 
4340625000  -4.237790e+001  5.562875e+001 
4343750000  -4.090251e+001  5.197338e+001 
4346875000  -4.079828e+001  4.226965e+001 
4350000000  -4.092387e+001  3.101467e+001 
4353125000  -4.208487e+001  2.407149e+001 
4356250000  -4.418155e+001  2.615190e+001 
4359375000  -4.250859e+001  3.785880e+001 
4362500000  -3.952225e+001  3.149992e+001 
4365625000  -3.910358e+001  1.455322e+001 
4368750000  -4.015317e+001  -2.627357e-001 
4371875000  -4.123934e+001  -2.231053e+000 
4375000000  -4.075642e+001  -5.394666e+000 
4378125000  -4.043662e+001  -1.420314e+001 
4381250000  -4.053259e+001  -2.363183e+001 
4384375000  -4.057744e+001  -3.085831e+001 
4387500000  -4.144448e+001  -3.770175e+001 
4390625000  -4.240453e+001  -4.057940e+001 
4393750000  -4.156341e+001  -3.967726e+001 
4396875000  -4.089135e+001  -4.591028e+001 
4400000000  -4.055811e+001  -5.552778e+001 
4403125000  -4.160423e+001  -6.552609e+001 
4406250000  -4.204900e+001  -7.142406e+001 
4409375000  -4.224799e+001  -7.516636e+001 
4412500000  -4.327407e+001  -7.832883e+001 
4415625000  -4.327199e+001  -7.447374e+001 
4418750000  -4.174213e+001  -7.554041e+001 
