!Agilent Technologies,E8363B,MY43030201,A.06.04.32
!Agilent E8363B: A.06.04.32
!Date: Tuesday, November 11, 2014 21:40:27
!Correction: S21(Response(S21)) 
!S1P File: Measurement: S21:
# Hz S  dB   R 50
3000000000  -4.365483e+001  -1.564318e+002 
3003125000  -4.540471e+001  -1.624278e+002 
3006250000  -4.515010e+001  -1.635429e+002 
3009375000  -4.595419e+001  -1.605351e+002 
3012500000  -4.489900e+001  -1.663891e+002 
3015625000  -4.486032e+001  -1.729005e+002 
3018750000  -4.543705e+001  -1.733676e+002 
3021875000  -4.379913e+001  -1.761724e+002 
3025000000  -4.235315e+001  -1.792589e+002 
3028125000  -4.159473e+001  1.692315e+002 
3031250000  -4.083152e+001  1.550162e+002 
3034375000  -4.069360e+001  1.424635e+002 
3037500000  -4.169297e+001  1.319513e+002 
3040625000  -4.283337e+001  1.258940e+002 
3043750000  -4.339641e+001  1.180974e+002 
3046875000  -4.382849e+001  1.113233e+002 
3050000000  -4.505881e+001  1.078130e+002 
3053125000  -4.509044e+001  1.108218e+002 
3056250000  -4.470638e+001  1.160854e+002 
3059375000  -4.397272e+001  1.079001e+002 
3062500000  -4.221916e+001  1.061864e+002 
3065625000  -4.217265e+001  9.257555e+001 
3068750000  -4.167003e+001  8.489712e+001 
3071875000  -4.165825e+001  8.281452e+001 
3075000000  -4.101635e+001  7.468236e+001 
3078125000  -4.120916e+001  6.836819e+001 
3081250000  -4.119794e+001  6.165246e+001 
3084375000  -4.039426e+001  5.643080e+001 
3087500000  -4.053484e+001  4.738346e+001 
3090625000  -3.987113e+001  3.480346e+001 
3093750000  -4.100932e+001  2.534075e+001 
3096875000  -4.129637e+001  2.028891e+001 
3100000000  -4.101630e+001  1.519792e+001 
3103125000  -4.142495e+001  1.119396e+001 
3106250000  -4.104039e+001  6.033866e+000 
3109375000  -4.088546e+001  7.700925e-001 
3112500000  -4.074990e+001  -7.319190e+000 
3115625000  -4.090181e+001  -1.137879e+001 
3118750000  -4.083542e+001  -1.686458e+001 
3121875000  -4.012190e+001  -2.904894e+001 
3125000000  -4.203764e+001  -3.328423e+001 
3128125000  -4.220831e+001  -2.768467e+001 
3131250000  -3.937563e+001  -3.538329e+001 
3134375000  -3.879396e+001  -5.215273e+001 
3137500000  -3.941423e+001  -6.641913e+001 
3140625000  -4.096146e+001  -7.061864e+001 
3143750000  -4.147647e+001  -7.541998e+001 
3146875000  -4.082765e+001  -7.381860e+001 
3150000000  -4.031318e+001  -7.983962e+001 
3153125000  -4.089685e+001  -8.883131e+001 
3156250000  -4.143791e+001  -8.368475e+001 
3159375000  -3.915429e+001  -8.764822e+001 
3162500000  -3.775012e+001  -1.049909e+002 
3165625000  -3.913568e+001  -1.193953e+002 
3168750000  -3.906863e+001  -1.193005e+002 
3171875000  -3.854017e+001  -1.284060e+002 
3175000000  -3.918937e+001  -1.387747e+002 
3178125000  -3.882202e+001  -1.416396e+002 
3181250000  -3.811402e+001  -1.502179e+002 
3184375000  -3.787139e+001  -1.636928e+002 
3187500000  -3.920560e+001  -1.779752e+002 
3190625000  -4.099111e+001  1.742060e+002 
3193750000  -4.121571e+001  1.784556e+002 
3196875000  -4.124784e+001  1.791925e+002 
3200000000  -3.978906e+001  1.719817e+002 
3203125000  -3.958218e+001  1.644329e+002 
3206250000  -3.975062e+001  1.571272e+002 
3209375000  -3.952145e+001  1.482828e+002 
3212500000  -4.011101e+001  1.396525e+002 
3215625000  -3.967099e+001  1.362410e+002 
3218750000  -4.024866e+001  1.247016e+002 
3221875000  -4.072639e+001  1.176101e+002 
3225000000  -4.036440e+001  1.131230e+002 
3228125000  -4.104922e+001  1.051313e+002 
3231250000  -4.162701e+001  1.009303e+002 
3234375000  -4.093563e+001  9.831215e+001 
3237500000  -4.116504e+001  9.457968e+001 
3240625000  -4.054249e+001  8.691350e+001 
3243750000  -4.028631e+001  7.370491e+001 
3246875000  -4.085852e+001  6.809001e+001 
3250000000  -4.128968e+001  6.232633e+001 
3253125000  -4.113217e+001  5.880109e+001 
3256250000  -4.055600e+001  4.919073e+001 
3259375000  -4.088744e+001  3.419296e+001 
3262500000  -4.232721e+001  3.153136e+001 
3265625000  -4.282383e+001  3.263746e+001 
3268750000  -4.247360e+001  2.999023e+001 
3271875000  -4.164189e+001  2.333317e+001 
3275000000  -4.119966e+001  1.336141e+001 
3278125000  -4.162998e+001  7.074045e+000 
3281250000  -4.193457e+001  4.086532e+000 
3284375000  -4.106747e+001  -5.164634e+000 
3287500000  -4.149651e+001  -1.259419e+001 
3290625000  -4.175801e+001  -2.320252e+001 
3293750000  -4.151157e+001  -3.072360e+001 
3296875000  -4.279528e+001  -3.374892e+001 
3300000000  -4.202677e+001  -3.559634e+001 
3303125000  -4.095464e+001  -4.603598e+001 
3306250000  -4.089096e+001  -5.643697e+001 
3309375000  -4.085692e+001  -6.911060e+001 
3312500000  -4.140733e+001  -8.194038e+001 
3315625000  -4.261191e+001  -9.032147e+001 
3318750000  -4.392551e+001  -9.775613e+001 
3321875000  -4.537104e+001  -9.801192e+001 
3325000000  -4.513713e+001  -9.139798e+001 
3328125000  -4.449980e+001  -9.496102e+001 
3331250000  -4.267773e+001  -9.404076e+001 
3334375000  -4.017052e+001  -1.134967e+002 
3337500000  -4.105829e+001  -1.385233e+002 
3340625000  -4.300557e+001  -1.467251e+002 
3343750000  -4.503923e+001  -1.509645e+002 
3346875000  -4.430497e+001  -1.504702e+002 
3350000000  -4.385644e+001  -1.601845e+002 
3353125000  -4.378028e+001  -1.670143e+002 
3356250000  -4.345928e+001  -1.765274e+002 
3359375000  -4.432154e+001  1.680036e+002 
3362500000  -4.507891e+001  1.612694e+002 
3365625000  -4.565442e+001  1.537597e+002 
3368750000  -4.677295e+001  1.491834e+002 
3371875000  -4.750596e+001  1.430987e+002 
3375000000  -4.838164e+001  1.322381e+002 
3378125000  -4.968245e+001  1.384500e+002 
3381250000  -5.102584e+001  1.503150e+002 
3384375000  -4.765734e+001  1.591824e+002 
3387500000  -4.524202e+001  1.313042e+002 
3390625000  -4.672580e+001  1.067373e+002 
3393750000  -4.777316e+001  1.083538e+002 
3396875000  -4.646191e+001  1.030230e+002 
3400000000  -4.640199e+001  9.224546e+001 
3403125000  -4.706466e+001  8.014674e+001 
3406250000  -4.760363e+001  7.384978e+001 
3409375000  -4.769678e+001  6.450574e+001 
3412500000  -4.829670e+001  5.681575e+001 
3415625000  -4.858678e+001  5.159472e+001 
3418750000  -4.894361e+001  4.503167e+001 
3421875000  -4.937033e+001  4.317437e+001 
3425000000  -4.750769e+001  3.572974e+001 
3428125000  -4.684266e+001  2.939188e+001 
3431250000  -4.650151e+001  1.771856e+001 
3434375000  -4.740523e+001  6.288053e+000 
3437500000  -4.734543e+001  -4.866675e-001 
3440625000  -4.819143e+001  -4.661352e+000 
3443750000  -4.644090e+001  -8.680744e+000 
3446875000  -4.584763e+001  -2.432737e+001 
3450000000  -4.544131e+001  -3.976722e+001 
3453125000  -4.542981e+001  -5.660521e+001 
3456250000  -4.745112e+001  -6.432191e+001 
3459375000  -4.766155e+001  -6.812529e+001 
3462500000  -4.746488e+001  -7.345805e+001 
3465625000  -4.717575e+001  -8.630041e+001 
3468750000  -4.815156e+001  -9.290426e+001 
3471875000  -4.688022e+001  -1.034632e+002 
3475000000  -4.719400e+001  -1.127080e+002 
3478125000  -4.760033e+001  -1.257312e+002 
3481250000  -4.912643e+001  -1.340023e+002 
3484375000  -4.869717e+001  -1.306401e+002 
3487500000  -4.765342e+001  -1.371320e+002 
3490625000  -4.724512e+001  -1.488919e+002 
3493750000  -4.753810e+001  -1.627088e+002 
3496875000  -4.781834e+001  -1.642321e+002 
3500000000  -4.822040e+001  -1.659042e+002 
3503125000  -4.705653e+001  -1.713230e+002 
3506250000  -4.531515e+001  1.762591e+002 
3509375000  -4.552584e+001  1.571137e+002 
3512500000  -4.601743e+001  1.407538e+002 
3515625000  -4.766674e+001  1.349621e+002 
3518750000  -4.769107e+001  1.362454e+002 
3521875000  -4.802026e+001  1.209005e+002 
3525000000  -4.859930e+001  1.181540e+002 
3528125000  -4.737004e+001  1.194073e+002 
3531250000  -4.655527e+001  1.105163e+002 
3534375000  -4.695204e+001  9.215602e+001 
3537500000  -4.813554e+001  8.412306e+001 
3540625000  -4.884913e+001  8.208812e+001 
3543750000  -5.009183e+001  8.233897e+001 
3546875000  -4.821892e+001  8.505418e+001 
3550000000  -4.600163e+001  7.923963e+001 
3553125000  -4.582579e+001  6.170770e+001 
3556250000  -4.767772e+001  5.142000e+001 
3559375000  -4.689694e+001  4.823418e+001 
3562500000  -4.643195e+001  3.795579e+001 
3565625000  -4.724732e+001  2.877953e+001 
3568750000  -4.806994e+001  3.481664e+001 
3571875000  -4.724564e+001  2.549694e+001 
3575000000  -4.717301e+001  1.650035e+001 
3578125000  -4.810010e+001  9.474066e+000 
3581250000  -4.765336e+001  6.330932e+000 
3584375000  -4.643678e+001  3.323945e+000 
3587500000  -4.568829e+001  -1.065068e+001 
3590625000  -4.638299e+001  -1.954897e+001 
3593750000  -4.781329e+001  -2.162041e+001 
3596875000  -4.650495e+001  -1.452254e+001 
3600000000  -4.444286e+001  -2.911230e+001 
3603125000  -4.557132e+001  -4.320051e+001 
3606250000  -4.584642e+001  -4.800636e+001 
3609375000  -4.650985e+001  -5.338752e+001 
3612500000  -4.599781e+001  -6.144433e+001 
3615625000  -4.600542e+001  -6.498827e+001 
3618750000  -4.656773e+001  -6.506311e+001 
3621875000  -4.534148e+001  -7.085664e+001 
3625000000  -4.586978e+001  -7.520586e+001 
3628125000  -4.467598e+001  -8.425492e+001 
3631250000  -4.517414e+001  -9.150029e+001 
3634375000  -4.551852e+001  -9.242542e+001 
3637500000  -4.432119e+001  -9.441235e+001 
3640625000  -4.329182e+001  -1.045074e+002 
3643750000  -4.304136e+001  -1.115361e+002 
3646875000  -4.387250e+001  -1.245725e+002 
3650000000  -4.408754e+001  -1.293633e+002 
3653125000  -4.327866e+001  -1.367113e+002 
3656250000  -4.394380e+001  -1.434338e+002 
3659375000  -4.400191e+001  -1.468953e+002 
3662500000  -4.336754e+001  -1.540497e+002 
3665625000  -4.341000e+001  -1.604735e+002 
3668750000  -4.175823e+001  -1.636526e+002 
3671875000  -4.165332e+001  -1.766553e+002 
3675000000  -4.219935e+001  1.742527e+002 
3678125000  -4.281591e+001  1.656013e+002 
3681250000  -4.254473e+001  1.627442e+002 
3684375000  -4.235122e+001  1.542919e+002 
3687500000  -4.304575e+001  1.443077e+002 
3690625000  -4.343831e+001  1.389096e+002 
3693750000  -4.438189e+001  1.377325e+002 
3696875000  -4.395063e+001  1.358820e+002 
3700000000  -4.350856e+001  1.255029e+002 
3703125000  -4.358036e+001  1.200363e+002 
3706250000  -4.478017e+001  1.153806e+002 
3709375000  -4.427258e+001  1.189770e+002 
3712500000  -4.275190e+001  1.104210e+002 
3715625000  -4.190554e+001  1.003034e+002 
3718750000  -4.170596e+001  9.114384e+001 
3721875000  -4.190121e+001  8.094154e+001 
3725000000  -4.265128e+001  7.300507e+001 
3728125000  -4.245105e+001  7.190897e+001 
3731250000  -4.205249e+001  6.574171e+001 
3734375000  -4.203318e+001  5.796651e+001 
3737500000  -4.316208e+001  4.684624e+001 
3740625000  -4.290790e+001  4.384895e+001 
3743750000  -4.289834e+001  3.417130e+001 
3746875000  -4.337276e+001  2.895149e+001 
3750000000  -4.373232e+001  2.952332e+001 
3753125000  -4.378093e+001  2.224364e+001 
3756250000  -4.371128e+001  1.846566e+001 
3759375000  -4.359177e+001  1.446098e+001 
3762500000  -4.362309e+001  9.085143e+000 
3765625000  -4.432525e+001  5.271246e+000 
3768750000  -4.343831e+001  5.003915e+000 
3771875000  -4.217085e+001  -2.338506e+000 
3775000000  -4.222356e+001  -1.389516e+001 
3778125000  -4.306476e+001  -1.920884e+001 
3781250000  -4.256332e+001  -2.385684e+001 
3784375000  -4.251419e+001  -2.902740e+001 
3787500000  -4.214083e+001  -3.626651e+001 
3790625000  -4.311562e+001  -4.392064e+001 
3793750000  -4.284757e+001  -4.816622e+001 
3796875000  -4.188932e+001  -5.494765e+001 
3800000000  -4.083383e+001  -5.992076e+001 
3803125000  -4.182202e+001  -7.337453e+001 
3806250000  -4.243156e+001  -7.830563e+001 
3809375000  -4.200363e+001  -8.330004e+001 
3812500000  -4.205977e+001  -9.429566e+001 
3815625000  -4.300563e+001  -1.032293e+002 
3818750000  -4.412001e+001  -1.038879e+002 
3821875000  -4.383867e+001  -9.256853e+001 
3825000000  -4.196013e+001  -9.921430e+001 
3828125000  -4.031800e+001  -1.198490e+002 
3831250000  -4.156307e+001  -1.363619e+002 
3834375000  -4.385753e+001  -1.353810e+002 
3837500000  -4.384169e+001  -1.334355e+002 
3840625000  -4.241079e+001  -1.388999e+002 
3843750000  -4.172242e+001  -1.549323e+002 
3846875000  -4.354294e+001  -1.600087e+002 
3850000000  -4.437101e+001  -1.559702e+002 
3853125000  -4.375664e+001  -1.599402e+002 
3856250000  -4.308521e+001  -1.643627e+002 
3859375000  -4.263104e+001  -1.756782e+002 
3862500000  -4.187247e+001  1.787735e+002 
3865625000  -4.248186e+001  1.692848e+002 
3868750000  -4.230850e+001  1.671345e+002 
3871875000  -4.216241e+001  1.567486e+002 
3875000000  -4.271750e+001  1.479121e+002 
3878125000  -4.329310e+001  1.439771e+002 
3881250000  -4.372683e+001  1.442458e+002 
3884375000  -4.271644e+001  1.310647e+002 
3887500000  -4.340121e+001  1.266476e+002 
3890625000  -4.413142e+001  1.246482e+002 
3893750000  -4.467085e+001  1.217751e+002 
3896875000  -4.447589e+001  1.157685e+002 
3900000000  -4.423514e+001  1.130520e+002 
3903125000  -4.406065e+001  1.089104e+002 
3906250000  -4.323865e+001  1.025571e+002 
3909375000  -4.287782e+001  9.480164e+001 
3912500000  -4.403564e+001  8.534982e+001 
3915625000  -4.488664e+001  8.398555e+001 
3918750000  -4.507939e+001  8.430535e+001 
3921875000  -4.385129e+001  7.926071e+001 
3925000000  -4.311051e+001  7.057958e+001 
3928125000  -4.332040e+001  6.410434e+001 
3931250000  -4.433683e+001  5.585110e+001 
3934375000  -4.424157e+001  5.390546e+001 
3937500000  -4.480237e+001  5.147977e+001 
3940625000  -4.478944e+001  4.875556e+001 
3943750000  -4.315924e+001  4.384190e+001 
3946875000  -4.305178e+001  3.478447e+001 
3950000000  -4.354581e+001  2.638139e+001 
3953125000  -4.469979e+001  3.007657e+001 
3956250000  -4.331313e+001  2.741807e+001 
3959375000  -4.193007e+001  2.129057e+001 
3962500000  -4.172809e+001  5.338606e+000 
3965625000  -4.204410e+001  -1.089860e+000 
3968750000  -4.270629e+001  -1.118111e+001 
3971875000  -4.305977e+001  -1.737955e+001 
3975000000  -4.229825e+001  -2.031224e+001 
3978125000  -4.228083e+001  -2.767918e+001 
3981250000  -4.198277e+001  -3.183924e+001 
3984375000  -4.231090e+001  -4.155525e+001 
3987500000  -4.317669e+001  -4.610802e+001 
3990625000  -4.343874e+001  -4.980570e+001 
3993750000  -4.316029e+001  -5.694114e+001 
3996875000  -4.322407e+001  -6.068532e+001 
4000000000  -4.381091e+001  -6.583218e+001 
4003125000  -4.392850e+001  -6.743423e+001 
4006250000  -4.230914e+001  -7.194652e+001 
4009375000  -4.129788e+001  -8.848837e+001 
4012500000  -4.307821e+001  -9.732026e+001 
4015625000  -4.409059e+001  -9.722803e+001 
4018750000  -4.384448e+001  -1.021888e+002 
4021875000  -4.308332e+001  -1.085391e+002 
4025000000  -4.294772e+001  -1.153993e+002 
4028125000  -4.347709e+001  -1.247714e+002 
4031250000  -4.388902e+001  -1.312059e+002 
4034375000  -4.453262e+001  -1.321513e+002 
4037500000  -4.380299e+001  -1.350927e+002 
4040625000  -4.446233e+001  -1.395662e+002 
4043750000  -4.494031e+001  -1.482431e+002 
4046875000  -4.450667e+001  -1.529027e+002 
4050000000  -4.451268e+001  -1.591922e+002 
4053125000  -4.514743e+001  -1.610017e+002 
4056250000  -4.579835e+001  -1.582822e+002 
4059375000  -4.421451e+001  -1.606848e+002 
4062500000  -4.377916e+001  -1.675231e+002 
4065625000  -4.349823e+001  -1.746045e+002 
4068750000  -4.309686e+001  1.758118e+002 
4071875000  -4.282615e+001  1.683357e+002 
4075000000  -4.382575e+001  1.591884e+002 
4078125000  -4.427397e+001  1.584345e+002 
4081250000  -4.377133e+001  1.516749e+002 
4084375000  -4.351716e+001  1.442198e+002 
4087500000  -4.410922e+001  1.341246e+002 
4090625000  -4.508310e+001  1.332267e+002 
4093750000  -4.492403e+001  1.307944e+002 
4096875000  -4.489898e+001  1.232767e+002 
4100000000  -4.563608e+001  1.192211e+002 
4103125000  -4.633059e+001  1.201547e+002 
4106250000  -4.538318e+001  1.224489e+002 
4109375000  -4.459202e+001  1.163935e+002 
4112500000  -4.401990e+001  1.070890e+002 
4115625000  -4.454694e+001  1.001778e+002 
4118750000  -4.398176e+001  9.746438e+001 
4121875000  -4.361233e+001  8.942953e+001 
4125000000  -4.498938e+001  8.627633e+001 
4128125000  -4.590932e+001  8.782731e+001 
4131250000  -4.405729e+001  8.919508e+001 
4134375000  -4.193877e+001  7.881451e+001 
4137500000  -4.214925e+001  5.626554e+001 
4140625000  -4.460278e+001  5.182766e+001 
4143750000  -4.495322e+001  5.541407e+001 
4146875000  -4.402170e+001  5.476597e+001 
4150000000  -4.330776e+001  4.528117e+001 
4153125000  -4.362987e+001  3.695684e+001 
4156250000  -4.478011e+001  3.390711e+001 
4159375000  -4.408729e+001  3.570969e+001 
4162500000  -4.249368e+001  3.330312e+001 
4165625000  -4.157838e+001  2.329110e+001 
4168750000  -4.161235e+001  1.360313e+001 
4171875000  -4.169200e+001  2.721737e+000 
4175000000  -4.214786e+001  -8.893494e+000 
4178125000  -4.273671e+001  -1.140833e+001 
4181250000  -4.197488e+001  -1.818521e+001 
4184375000  -4.306182e+001  -2.531920e+001 
4187500000  -4.282409e+001  -2.841806e+001 
4190625000  -4.302867e+001  -3.986016e+001 
4193750000  -4.423409e+001  -4.579345e+001 
4196875000  -4.555593e+001  -4.727026e+001 
4200000000  -4.632167e+001  -4.453144e+001 
4203125000  -4.486876e+001  -3.482427e+001 
4206250000  -4.172803e+001  -4.229459e+001 
4209375000  -4.190344e+001  -6.845534e+001 
4212500000  -4.453161e+001  -7.376713e+001 
4215625000  -4.487266e+001  -6.539420e+001 
4218750000  -4.319700e+001  -6.724193e+001 
4221875000  -4.149022e+001  -8.109301e+001 
4225000000  -4.253572e+001  -9.007016e+001 
4228125000  -4.276259e+001  -8.462013e+001 
4231250000  -4.158987e+001  -9.875392e+001 
4234375000  -4.158782e+001  -1.060467e+002 
4237500000  -4.144894e+001  -1.132999e+002 
4240625000  -4.128423e+001  -1.230534e+002 
4243750000  -4.268307e+001  -1.321993e+002 
4246875000  -4.332420e+001  -1.324442e+002 
4250000000  -4.306491e+001  -1.314076e+002 
4253125000  -4.283009e+001  -1.362580e+002 
4256250000  -4.297959e+001  -1.415376e+002 
4259375000  -4.282784e+001  -1.457294e+002 
4262500000  -4.287719e+001  -1.534782e+002 
4265625000  -4.263634e+001  -1.506593e+002 
4268750000  -4.132789e+001  -1.601136e+002 
4271875000  -4.137206e+001  -1.729539e+002 
4275000000  -4.104785e+001  1.784924e+002 
4278125000  -4.188334e+001  1.670923e+002 
4281250000  -4.306897e+001  1.651654e+002 
4284375000  -4.276233e+001  1.623165e+002 
4287500000  -4.410760e+001  1.590011e+002 
4290625000  -4.412720e+001  1.634373e+002 
4293750000  -4.153752e+001  1.603816e+002 
4296875000  -4.064008e+001  1.459263e+002 
4300000000  -4.186232e+001  1.378380e+002 
4303125000  -4.222280e+001  1.364106e+002 
4306250000  -4.130403e+001  1.385366e+002 
4309375000  -4.005714e+001  1.279923e+002 
4312500000  -4.033266e+001  1.162678e+002 
4315625000  -4.062430e+001  1.049818e+002 
4318750000  -4.119382e+001  1.009375e+002 
4321875000  -4.103658e+001  9.978434e+001 
4325000000  -4.074829e+001  9.572888e+001 
4328125000  -3.987874e+001  8.467987e+001 
4331250000  -4.013162e+001  7.170606e+001 
4334375000  -4.089434e+001  6.363777e+001 
4337500000  -4.294440e+001  6.430489e+001 
4340625000  -4.263808e+001  6.402844e+001 
4343750000  -4.141489e+001  5.847401e+001 
4346875000  -4.176877e+001  4.793262e+001 
4350000000  -4.138431e+001  4.067466e+001 
4353125000  -4.233224e+001  3.285836e+001 
4356250000  -4.410724e+001  3.668639e+001 
4359375000  -4.353326e+001  4.513374e+001 
4362500000  -3.999435e+001  3.779347e+001 
4365625000  -3.983444e+001  1.907805e+001 
4368750000  -4.063501e+001  7.752336e+000 
4371875000  -4.184105e+001  8.064587e+000 
4375000000  -4.104228e+001  2.650644e+000 
4378125000  -4.142030e+001  -6.990515e+000 
4381250000  -4.114003e+001  -1.467053e+001 
4384375000  -4.099051e+001  -2.246225e+001 
4387500000  -4.230073e+001  -2.816383e+001 
4390625000  -4.271737e+001  -3.171462e+001 
4393750000  -4.212499e+001  -3.043555e+001 
4396875000  -4.171951e+001  -3.781167e+001 
4400000000  -4.156398e+001  -5.019646e+001 
4403125000  -4.186339e+001  -5.726299e+001 
4406250000  -4.273076e+001  -5.897958e+001 
4409375000  -4.287118e+001  -6.393988e+001 
4412500000  -4.418505e+001  -7.242762e+001 
4415625000  -4.352235e+001  -6.672073e+001 
4418750000  -4.253700e+001  -6.565173e+001 
