!Agilent Technologies,E8363B,MY43030201,A.06.04.32
!Agilent E8363B: A.06.04.32
!Date: Tuesday, November 11, 2014 21:43:39
!Correction: S21(Response(S21)) 
!S1P File: Measurement: S21:
# Hz S  dB   R 50
3000000000  -4.364547e+001  -1.597415e+002 
3003125000  -4.512251e+001  -1.649214e+002 
3006250000  -4.532140e+001  -1.645134e+002 
3009375000  -4.636092e+001  -1.631394e+002 
3012500000  -4.487329e+001  -1.700065e+002 
3015625000  -4.517854e+001  -1.752590e+002 
3018750000  -4.518238e+001  -1.762607e+002 
3021875000  -4.394638e+001  -1.763716e+002 
3025000000  -4.248102e+001  1.777544e+002 
3028125000  -4.169155e+001  1.672896e+002 
3031250000  -4.095943e+001  1.538360e+002 
3034375000  -4.071469e+001  1.395480e+002 
3037500000  -4.147496e+001  1.283898e+002 
3040625000  -4.295881e+001  1.224622e+002 
3043750000  -4.326606e+001  1.154782e+002 
3046875000  -4.398762e+001  1.088961e+002 
3050000000  -4.505159e+001  1.035241e+002 
3053125000  -4.474205e+001  1.069210e+002 
3056250000  -4.489321e+001  1.117483e+002 
3059375000  -4.371320e+001  1.077441e+002 
3062500000  -4.226760e+001  1.009448e+002 
3065625000  -4.200109e+001  9.148561e+001 
3068750000  -4.185373e+001  8.295139e+001 
3071875000  -4.178049e+001  8.033649e+001 
3075000000  -4.115143e+001  7.310938e+001 
3078125000  -4.127541e+001  6.486835e+001 
3081250000  -4.121569e+001  5.864500e+001 
3084375000  -4.052199e+001  5.246053e+001 
3087500000  -4.068505e+001  4.519393e+001 
3090625000  -3.999488e+001  3.283211e+001 
3093750000  -4.102282e+001  2.316893e+001 
3096875000  -4.128371e+001  1.772548e+001 
3100000000  -4.103891e+001  1.385989e+001 
3103125000  -4.136663e+001  8.121105e+000 
3106250000  -4.115720e+001  2.909033e+000 
3109375000  -4.100775e+001  -1.320668e+000 
3112500000  -4.088156e+001  -8.753019e+000 
3115625000  -4.076265e+001  -1.385291e+001 
3118750000  -4.085697e+001  -1.974401e+001 
3121875000  -4.018902e+001  -3.051679e+001 
3125000000  -4.200293e+001  -3.508749e+001 
3128125000  -4.189269e+001  -2.984872e+001 
3131250000  -3.937725e+001  -3.844851e+001 
3134375000  -3.893984e+001  -5.407406e+001 
3137500000  -3.968902e+001  -6.865457e+001 
3140625000  -4.104802e+001  -7.352020e+001 
3143750000  -4.154530e+001  -7.536366e+001 
3146875000  -4.109606e+001  -7.549042e+001 
3150000000  -4.045412e+001  -8.176791e+001 
3153125000  -4.077781e+001  -8.977924e+001 
3156250000  -4.141729e+001  -8.696180e+001 
3159375000  -3.910469e+001  -9.049807e+001 
3162500000  -3.783644e+001  -1.068877e+002 
3165625000  -3.900723e+001  -1.207172e+002 
3168750000  -3.899308e+001  -1.221632e+002 
3171875000  -3.860286e+001  -1.315400e+002 
3175000000  -3.926523e+001  -1.415973e+002 
3178125000  -3.879090e+001  -1.440876e+002 
3181250000  -3.826716e+001  -1.525075e+002 
3184375000  -3.783249e+001  -1.647415e+002 
3187500000  -3.927036e+001  1.799401e+002 
3190625000  -4.105522e+001  1.714691e+002 
3193750000  -4.116365e+001  1.767827e+002 
3196875000  -4.096766e+001  1.754420e+002 
3200000000  -3.981017e+001  1.703076e+002 
3203125000  -3.973902e+001  1.619959e+002 
3206250000  -3.991740e+001  1.541187e+002 
3209375000  -3.942650e+001  1.449389e+002 
3212500000  -4.007739e+001  1.367172e+002 
3215625000  -3.977862e+001  1.352206e+002 
3218750000  -4.053043e+001  1.212027e+002 
3221875000  -4.060777e+001  1.153174e+002 
3225000000  -4.066297e+001  1.099253e+002 
3228125000  -4.107425e+001  1.024238e+002 
3231250000  -4.165885e+001  9.986195e+001 
3234375000  -4.104175e+001  9.492422e+001 
3237500000  -4.098667e+001  9.030292e+001 
3240625000  -4.039469e+001  8.459220e+001 
3243750000  -4.035593e+001  7.203883e+001 
3246875000  -4.064621e+001  6.545967e+001 
3250000000  -4.126018e+001  5.928404e+001 
3253125000  -4.129530e+001  5.521737e+001 
3256250000  -4.056799e+001  4.624911e+001 
3259375000  -4.098596e+001  3.278333e+001 
3262500000  -4.250450e+001  2.840333e+001 
3265625000  -4.255783e+001  2.998777e+001 
3268750000  -4.244311e+001  2.753784e+001 
3271875000  -4.184114e+001  2.131179e+001 
3275000000  -4.128049e+001  1.201305e+001 
3278125000  -4.173749e+001  3.487686e+000 
3281250000  -4.197279e+001  1.172240e-001 
3284375000  -4.110536e+001  -6.263917e+000 
3287500000  -4.153698e+001  -1.402019e+001 
3290625000  -4.166756e+001  -2.576089e+001 
3293750000  -4.171007e+001  -3.169321e+001 
3296875000  -4.277796e+001  -3.634734e+001 
3300000000  -4.200299e+001  -3.780741e+001 
3303125000  -4.103710e+001  -4.969548e+001 
3306250000  -4.113871e+001  -5.967184e+001 
3309375000  -4.069365e+001  -7.037903e+001 
3312500000  -4.135609e+001  -8.479488e+001 
3315625000  -4.250076e+001  -9.334296e+001 
3318750000  -4.413020e+001  -9.992033e+001 
3321875000  -4.517890e+001  -9.887192e+001 
3325000000  -4.480013e+001  -9.523350e+001 
3328125000  -4.434396e+001  -9.751698e+001 
3331250000  -4.263411e+001  -9.782426e+001 
3334375000  -4.036900e+001  -1.142388e+002 
3337500000  -4.095033e+001  -1.398066e+002 
3340625000  -4.291451e+001  -1.494829e+002 
3343750000  -4.472992e+001  -1.512596e+002 
3346875000  -4.403160e+001  -1.567624e+002 
3350000000  -4.376756e+001  -1.587643e+002 
3353125000  -4.402703e+001  -1.708281e+002 
3356250000  -4.348631e+001  1.790701e+002 
3359375000  -4.429490e+001  1.664943e+002 
3362500000  -4.517390e+001  1.597728e+002 
3365625000  -4.590891e+001  1.520236e+002 
3368750000  -4.623061e+001  1.494312e+002 
3371875000  -4.709582e+001  1.389195e+002 
3375000000  -4.914664e+001  1.347582e+002 
3378125000  -4.980993e+001  1.316087e+002 
3381250000  -5.089008e+001  1.448233e+002 
3384375000  -4.806757e+001  1.573474e+002 
3387500000  -4.418882e+001  1.312862e+002 
3390625000  -4.698164e+001  1.096247e+002 
3393750000  -4.788201e+001  1.054069e+002 
3396875000  -4.656809e+001  1.018880e+002 
3400000000  -4.634240e+001  8.772728e+001 
3403125000  -4.675995e+001  7.818105e+001 
3406250000  -4.753656e+001  7.177828e+001 
3409375000  -4.744512e+001  6.152357e+001 
3412500000  -4.817218e+001  5.397532e+001 
3415625000  -4.917719e+001  4.684959e+001 
3418750000  -4.863207e+001  4.216560e+001 
3421875000  -4.964969e+001  4.160788e+001 
3425000000  -4.741672e+001  3.646376e+001 
3428125000  -4.700594e+001  2.949786e+001 
3431250000  -4.675257e+001  1.492874e+001 
3434375000  -4.711851e+001  4.600074e+000 
3437500000  -4.767351e+001  -5.184188e+000 
3440625000  -4.794846e+001  -7.436770e+000 
3443750000  -4.641916e+001  -1.207827e+001 
3446875000  -4.559367e+001  -2.763820e+001 
3450000000  -4.525174e+001  -4.246810e+001 
3453125000  -4.586415e+001  -5.687216e+001 
3456250000  -4.736573e+001  -6.915018e+001 
3459375000  -4.824009e+001  -6.865154e+001 
3462500000  -4.774516e+001  -7.515453e+001 
3465625000  -4.757984e+001  -8.436452e+001 
3468750000  -4.736729e+001  -9.819179e+001 
3471875000  -4.707833e+001  -1.019107e+002 
3475000000  -4.718368e+001  -1.162813e+002 
3478125000  -4.746800e+001  -1.271131e+002 
3481250000  -4.900071e+001  -1.317164e+002 
3484375000  -4.880822e+001  -1.340842e+002 
3487500000  -4.730233e+001  -1.419140e+002 
3490625000  -4.730920e+001  -1.514210e+002 
3493750000  -4.782513e+001  -1.650033e+002 
3496875000  -4.839542e+001  -1.696229e+002 
3500000000  -4.862369e+001  -1.706910e+002 
3503125000  -4.638011e+001  -1.733167e+002 
3506250000  -4.570517e+001  1.744936e+002 
3509375000  -4.550426e+001  1.541868e+002 
3512500000  -4.615189e+001  1.404726e+002 
3515625000  -4.709543e+001  1.335096e+002 
3518750000  -4.777262e+001  1.319037e+002 
3521875000  -4.809594e+001  1.183720e+002 
3525000000  -4.875456e+001  1.177776e+002 
3528125000  -4.699593e+001  1.186852e+002 
3531250000  -4.620679e+001  1.067531e+002 
3534375000  -4.708522e+001  8.992284e+001 
3537500000  -4.763337e+001  8.063669e+001 
3540625000  -4.894833e+001  7.626325e+001 
3543750000  -4.953679e+001  8.118138e+001 
3546875000  -4.844889e+001  8.216533e+001 
3550000000  -4.627144e+001  7.578839e+001 
3553125000  -4.596051e+001  5.688500e+001 
3556250000  -4.748019e+001  4.785794e+001 
3559375000  -4.604076e+001  4.700160e+001 
3562500000  -4.654153e+001  3.337257e+001 
3565625000  -4.763222e+001  2.812868e+001 
3568750000  -4.777683e+001  2.622694e+001 
3571875000  -4.727420e+001  2.169500e+001 
3575000000  -4.686671e+001  1.380228e+001 
3578125000  -4.783311e+001  1.122861e+001 
3581250000  -4.746544e+001  4.342951e+000 
3584375000  -4.590152e+001  -3.373278e+000 
3587500000  -4.552678e+001  -1.276700e+001 
3590625000  -4.626764e+001  -2.652084e+001 
3593750000  -4.728631e+001  -2.319856e+001 
3596875000  -4.669069e+001  -2.016902e+001 
3600000000  -4.450755e+001  -3.018328e+001 
3603125000  -4.509674e+001  -4.775360e+001 
3606250000  -4.591816e+001  -5.017845e+001 
3609375000  -4.620708e+001  -5.350516e+001 
3612500000  -4.614646e+001  -6.104824e+001 
3615625000  -4.613306e+001  -6.826186e+001 
3618750000  -4.586366e+001  -6.994238e+001 
3621875000  -4.558015e+001  -7.478586e+001 
3625000000  -4.589333e+001  -8.019611e+001 
3628125000  -4.457178e+001  -8.433345e+001 
3631250000  -4.517239e+001  -9.810992e+001 
3634375000  -4.571609e+001  -9.632539e+001 
3637500000  -4.472054e+001  -9.711940e+001 
3640625000  -4.365884e+001  -1.045775e+002 
3643750000  -4.329173e+001  -1.160005e+002 
3646875000  -4.365390e+001  -1.275991e+002 
3650000000  -4.382716e+001  -1.303536e+002 
3653125000  -4.310000e+001  -1.418109e+002 
3656250000  -4.403624e+001  -1.454198e+002 
3659375000  -4.379342e+001  -1.503194e+002 
3662500000  -4.324818e+001  -1.561972e+002 
3665625000  -4.350764e+001  -1.641331e+002 
3668750000  -4.207225e+001  -1.658747e+002 
3671875000  -4.154507e+001  1.794836e+002 
3675000000  -4.219814e+001  1.703026e+002 
3678125000  -4.299061e+001  1.629107e+002 
3681250000  -4.233533e+001  1.589090e+002 
3684375000  -4.285462e+001  1.491401e+002 
3687500000  -4.322141e+001  1.401900e+002 
3690625000  -4.356966e+001  1.369853e+002 
3693750000  -4.430644e+001  1.365215e+002 
3696875000  -4.382567e+001  1.330233e+002 
3700000000  -4.329636e+001  1.224220e+002 
3703125000  -4.404189e+001  1.168999e+002 
3706250000  -4.446798e+001  1.141645e+002 
3709375000  -4.415333e+001  1.137303e+002 
3712500000  -4.302364e+001  1.093654e+002 
3715625000  -4.181863e+001  9.903702e+001 
3718750000  -4.184030e+001  8.713331e+001 
3721875000  -4.168449e+001  7.848631e+001 
3725000000  -4.275171e+001  7.137721e+001 
3728125000  -4.260749e+001  6.812355e+001 
3731250000  -4.194915e+001  6.170768e+001 
3734375000  -4.185010e+001  5.327780e+001 
3737500000  -4.278862e+001  4.530916e+001 
3740625000  -4.296855e+001  3.867674e+001 
3743750000  -4.274644e+001  3.322110e+001 
3746875000  -4.325994e+001  2.711132e+001 
3750000000  -4.350499e+001  2.502382e+001 
3753125000  -4.380190e+001  1.966287e+001 
3756250000  -4.373002e+001  1.638191e+001 
3759375000  -4.350618e+001  1.301099e+001 
3762500000  -4.376900e+001  7.237916e+000 
3765625000  -4.394301e+001  2.861323e+000 
3768750000  -4.340862e+001  1.565177e+000 
3771875000  -4.216253e+001  -7.381818e+000 
3775000000  -4.200169e+001  -1.642767e+001 
3778125000  -4.279372e+001  -2.288818e+001 
3781250000  -4.289411e+001  -2.517517e+001 
3784375000  -4.245688e+001  -3.522718e+001 
3787500000  -4.238649e+001  -3.829399e+001 
3790625000  -4.305082e+001  -4.754924e+001 
3793750000  -4.278367e+001  -5.193716e+001 
3796875000  -4.187185e+001  -5.641566e+001 
3800000000  -4.076688e+001  -6.494627e+001 
3803125000  -4.178436e+001  -7.485167e+001 
3806250000  -4.232899e+001  -7.918271e+001 
3809375000  -4.233278e+001  -8.671819e+001 
3812500000  -4.174371e+001  -9.711771e+001 
3815625000  -4.300996e+001  -1.093143e+002 
3818750000  -4.443980e+001  -1.065968e+002 
3821875000  -4.344358e+001  -9.492983e+001 
3825000000  -4.133266e+001  -1.036378e+002 
3828125000  -4.033148e+001  -1.226722e+002 
3831250000  -4.183661e+001  -1.388473e+002 
3834375000  -4.381700e+001  -1.390712e+002 
3837500000  -4.402678e+001  -1.355517e+002 
3840625000  -4.248802e+001  -1.427154e+002 
3843750000  -4.178015e+001  -1.602504e+002 
3846875000  -4.314693e+001  -1.641426e+002 
3850000000  -4.398434e+001  -1.594714e+002 
3853125000  -4.362561e+001  -1.582867e+002 
3856250000  -4.341963e+001  -1.697053e+002 
3859375000  -4.216040e+001  -1.751673e+002 
3862500000  -4.224425e+001  1.736440e+002 
3865625000  -4.289718e+001  1.667784e+002 
3868750000  -4.241233e+001  1.661644e+002 
3871875000  -4.189198e+001  1.554075e+002 
3875000000  -4.267029e+001  1.451554e+002 
3878125000  -4.315672e+001  1.421336e+002 
3881250000  -4.388327e+001  1.409151e+002 
3884375000  -4.249591e+001  1.299479e+002 
3887500000  -4.367201e+001  1.249367e+002 
3890625000  -4.369159e+001  1.196756e+002 
3893750000  -4.381081e+001  1.204726e+002 
3896875000  -4.428932e+001  1.171098e+002 
3900000000  -4.460075e+001  1.108020e+002 
3903125000  -4.371062e+001  1.028931e+002 
3906250000  -4.344717e+001  1.013919e+002 
3909375000  -4.277378e+001  9.391031e+001 
3912500000  -4.399665e+001  8.181927e+001 
3915625000  -4.464161e+001  7.862622e+001 
3918750000  -4.478059e+001  7.958528e+001 
3921875000  -4.420409e+001  7.750543e+001 
3925000000  -4.310915e+001  6.806370e+001 
3928125000  -4.286964e+001  5.866971e+001 
3931250000  -4.391484e+001  4.964394e+001 
3934375000  -4.445716e+001  4.854453e+001 
3937500000  -4.487102e+001  4.940926e+001 
3940625000  -4.443112e+001  4.891869e+001 
3943750000  -4.337928e+001  3.970187e+001 
3946875000  -4.298830e+001  3.139108e+001 
3950000000  -4.352763e+001  2.557711e+001 
3953125000  -4.454652e+001  2.313226e+001 
3956250000  -4.294215e+001  1.998922e+001 
3959375000  -4.199805e+001  1.707735e+001 
3962500000  -4.153417e+001  4.112414e+000 
3965625000  -4.198595e+001  -4.812707e+000 
3968750000  -4.267673e+001  -1.474232e+001 
3971875000  -4.262627e+001  -1.782691e+001 
3975000000  -4.206885e+001  -2.427711e+001 
3978125000  -4.261380e+001  -2.857365e+001 
3981250000  -4.210426e+001  -3.572031e+001 
3984375000  -4.231041e+001  -4.399892e+001 
3987500000  -4.344837e+001  -5.000931e+001 
3990625000  -4.280737e+001  -5.127029e+001 
3993750000  -4.310899e+001  -5.896346e+001 
3996875000  -4.314937e+001  -6.677983e+001 
4000000000  -4.389216e+001  -6.893874e+001 
4003125000  -4.425730e+001  -6.854640e+001 
4006250000  -4.226026e+001  -7.448736e+001 
4009375000  -4.153158e+001  -9.335603e+001 
4012500000  -4.272221e+001  -1.007426e+002 
4015625000  -4.423619e+001  -1.002082e+002 
4018750000  -4.402137e+001  -1.046206e+002 
4021875000  -4.307999e+001  -1.138324e+002 
4025000000  -4.342820e+001  -1.197498e+002 
4028125000  -4.379921e+001  -1.261787e+002 
4031250000  -4.386147e+001  -1.330269e+002 
4034375000  -4.431033e+001  -1.349508e+002 
4037500000  -4.434008e+001  -1.393670e+002 
4040625000  -4.414956e+001  -1.439178e+002 
4043750000  -4.429536e+001  -1.491746e+002 
4046875000  -4.481156e+001  -1.544887e+002 
4050000000  -4.413296e+001  -1.607870e+002 
4053125000  -4.535098e+001  -1.673149e+002 
4056250000  -4.616741e+001  -1.623738e+002 
4059375000  -4.435328e+001  -1.655922e+002 
4062500000  -4.329036e+001  -1.742099e+002 
4065625000  -4.364179e+001  -1.774587e+002 
4068750000  -4.336781e+001  1.728658e+002 
4071875000  -4.328119e+001  1.637296e+002 
4075000000  -4.398306e+001  1.550103e+002 
4078125000  -4.434680e+001  1.555645e+002 
4081250000  -4.400095e+001  1.482526e+002 
4084375000  -4.346243e+001  1.416052e+002 
4087500000  -4.414837e+001  1.339309e+002 
4090625000  -4.538811e+001  1.307333e+002 
4093750000  -4.466927e+001  1.289464e+002 
4096875000  -4.471903e+001  1.191827e+002 
4100000000  -4.596450e+001  1.086885e+002 
4103125000  -4.665222e+001  1.176550e+002 
4106250000  -4.537268e+001  1.165411e+002 
4109375000  -4.472352e+001  1.099098e+002 
4112500000  -4.411594e+001  1.028527e+002 
4115625000  -4.471804e+001  9.868458e+001 
4118750000  -4.427794e+001  9.245177e+001 
4121875000  -4.436952e+001  8.721280e+001 
4125000000  -4.469777e+001  8.081042e+001 
4128125000  -4.551308e+001  7.950428e+001 
4131250000  -4.435837e+001  8.412907e+001 
4134375000  -4.196276e+001  7.410870e+001 
4137500000  -4.261632e+001  5.417488e+001 
4140625000  -4.463946e+001  4.726114e+001 
4143750000  -4.505429e+001  4.963624e+001 
4146875000  -4.440515e+001  5.265363e+001 
4150000000  -4.324834e+001  4.276329e+001 
4153125000  -4.343939e+001  3.304234e+001 
4156250000  -4.430836e+001  3.012231e+001 
4159375000  -4.403008e+001  3.140955e+001 
4162500000  -4.286493e+001  2.904857e+001 
4165625000  -4.189294e+001  1.853304e+001 
4168750000  -4.134139e+001  1.005101e+001 
4171875000  -4.111151e+001  -2.852468e+000 
4175000000  -4.220143e+001  -1.049585e+001 
4178125000  -4.242583e+001  -1.415509e+001 
4181250000  -4.245050e+001  -1.916874e+001 
4184375000  -4.296931e+001  -2.609047e+001 
4187500000  -4.256521e+001  -3.488748e+001 
4190625000  -4.283609e+001  -4.382291e+001 
4193750000  -4.450060e+001  -4.879775e+001 
4196875000  -4.531407e+001  -5.199640e+001 
4200000000  -4.577316e+001  -4.480436e+001 
4203125000  -4.467830e+001  -3.128938e+001 
4206250000  -4.147123e+001  -4.634568e+001 
4209375000  -4.174338e+001  -6.847395e+001 
4212500000  -4.437492e+001  -7.593719e+001 
4215625000  -4.433888e+001  -6.908543e+001 
4218750000  -4.273908e+001  -7.048071e+001 
4221875000  -4.159060e+001  -8.016603e+001 
4225000000  -4.317955e+001  -9.532867e+001 
4228125000  -4.276865e+001  -9.228211e+001 
4231250000  -4.152172e+001  -9.958130e+001 
4234375000  -4.141321e+001  -1.100425e+002 
4237500000  -4.103058e+001  -1.169998e+002 
4240625000  -4.167515e+001  -1.272806e+002 
4243750000  -4.292872e+001  -1.361119e+002 
4246875000  -4.385102e+001  -1.357868e+002 
4250000000  -4.309311e+001  -1.368125e+002 
4253125000  -4.322625e+001  -1.398062e+002 
4256250000  -4.301600e+001  -1.447631e+002 
4259375000  -4.264439e+001  -1.519100e+002 
4262500000  -4.326054e+001  -1.553378e+002 
4265625000  -4.211954e+001  -1.574040e+002 
4268750000  -4.153755e+001  -1.696448e+002 
4271875000  -4.127655e+001  -1.765051e+002 
4275000000  -4.082078e+001  1.738647e+002 
4278125000  -4.168339e+001  1.611608e+002 
4281250000  -4.275149e+001  1.594308e+002 
4284375000  -4.249629e+001  1.580944e+002 
4287500000  -4.420131e+001  1.497477e+002 
4290625000  -4.376706e+001  1.596223e+002 
4293750000  -4.233457e+001  1.576039e+002 
4296875000  -4.100794e+001  1.437055e+002 
4300000000  -4.196324e+001  1.338565e+002 
4303125000  -4.271317e+001  1.365750e+002 
4306250000  -4.102984e+001  1.339393e+002 
4309375000  -4.033132e+001  1.243264e+002 
4312500000  -4.016870e+001  1.135838e+002 
4315625000  -4.062764e+001  1.026554e+002 
4318750000  -4.123793e+001  9.604343e+001 
4321875000  -4.115801e+001  9.590186e+001 
4325000000  -4.053029e+001  9.253732e+001 
4328125000  -3.970131e+001  8.142358e+001 
4331250000  -4.028408e+001  6.919233e+001 
4334375000  -4.119891e+001  5.931766e+001 
4337500000  -4.232058e+001  5.679375e+001 
4340625000  -4.273415e+001  6.047984e+001 
4343750000  -4.141550e+001  5.460878e+001 
4346875000  -4.146387e+001  4.568821e+001 
4350000000  -4.146770e+001  3.618636e+001 
4353125000  -4.223511e+001  2.626422e+001 
4356250000  -4.416229e+001  3.149391e+001 
4359375000  -4.341965e+001  4.382504e+001 
4362500000  -4.012188e+001  3.241124e+001 
4365625000  -3.948224e+001  1.581545e+001 
4368750000  -4.080926e+001  4.027485e+000 
4371875000  -4.180521e+001  2.448323e+000 
4375000000  -4.143398e+001  -3.260816e+000 
4378125000  -4.114063e+001  -1.107250e+001 
4381250000  -4.113468e+001  -1.882717e+001 
4384375000  -4.126003e+001  -2.569694e+001 
4387500000  -4.223826e+001  -3.333851e+001 
4390625000  -4.242571e+001  -3.494443e+001 
4393750000  -4.209377e+001  -3.596902e+001 
4396875000  -4.199723e+001  -4.183146e+001 
4400000000  -4.146575e+001  -5.070622e+001 
4403125000  -4.217164e+001  -6.207487e+001 
4406250000  -4.242095e+001  -6.590519e+001 
4409375000  -4.292168e+001  -7.335367e+001 
4412500000  -4.436517e+001  -7.311238e+001 
4415625000  -4.342411e+001  -7.052004e+001 
4418750000  -4.279396e+001  -7.007386e+001 
