!Agilent Technologies,E8363B,MY43030201,A.06.04.32
!Agilent E8363B: A.06.04.32
!Date: Tuesday, November 11, 2014 21:53:10
!Correction: S21(Response(S21)) 
!S1P File: Measurement: S21:
# Hz S  dB   R 50
3000000000  -4.379956e+001  -1.628701e+002 
3003125000  -4.512916e+001  -1.695585e+002 
3006250000  -4.566423e+001  -1.697884e+002 
3009375000  -4.616772e+001  -1.649911e+002 
3012500000  -4.497767e+001  -1.727567e+002 
3015625000  -4.498026e+001  -1.786152e+002 
3018750000  -4.551261e+001  -1.787648e+002 
3021875000  -4.388010e+001  1.782571e+002 
3025000000  -4.263466e+001  1.768523e+002 
3028125000  -4.190756e+001  1.630042e+002 
3031250000  -4.097303e+001  1.500104e+002 
3034375000  -4.069117e+001  1.355989e+002 
3037500000  -4.154914e+001  1.252853e+002 
3040625000  -4.298500e+001  1.201219e+002 
3043750000  -4.333574e+001  1.118064e+002 
3046875000  -4.408537e+001  1.058728e+002 
3050000000  -4.509735e+001  1.003936e+002 
3053125000  -4.483467e+001  1.036954e+002 
3056250000  -4.454361e+001  1.066790e+002 
3059375000  -4.395376e+001  1.033454e+002 
3062500000  -4.267568e+001  9.847265e+001 
3065625000  -4.216243e+001  8.642847e+001 
3068750000  -4.168954e+001  8.031326e+001 
3071875000  -4.184660e+001  7.693732e+001 
3075000000  -4.129237e+001  6.856014e+001 
3078125000  -4.127398e+001  6.213017e+001 
3081250000  -4.126547e+001  5.542073e+001 
3084375000  -4.036911e+001  4.962402e+001 
3087500000  -4.040002e+001  4.227597e+001 
3090625000  -3.997818e+001  2.918634e+001 
3093750000  -4.110538e+001  2.168475e+001 
3096875000  -4.126795e+001  1.465597e+001 
3100000000  -4.116286e+001  9.408289e+000 
3103125000  -4.133731e+001  4.966182e+000 
3106250000  -4.092717e+001  -3.164181e-001 
3109375000  -4.088143e+001  -4.395955e+000 
3112500000  -4.083456e+001  -1.310020e+001 
3115625000  -4.091122e+001  -1.747560e+001 
3118750000  -4.076131e+001  -2.316339e+001 
3121875000  -4.033596e+001  -3.416244e+001 
3125000000  -4.206364e+001  -3.898559e+001 
3128125000  -4.212586e+001  -3.259974e+001 
3131250000  -3.948148e+001  -4.120567e+001 
3134375000  -3.884229e+001  -5.830449e+001 
3137500000  -3.969486e+001  -7.249363e+001 
3140625000  -4.103795e+001  -7.632845e+001 
3143750000  -4.145201e+001  -7.954955e+001 
3146875000  -4.104287e+001  -7.869502e+001 
3150000000  -4.028931e+001  -8.541709e+001 
3153125000  -4.074691e+001  -9.358884e+001 
3156250000  -4.117385e+001  -8.925726e+001 
3159375000  -3.891436e+001  -9.478355e+001 
3162500000  -3.778482e+001  -1.102077e+002 
3165625000  -3.907878e+001  -1.253556e+002 
3168750000  -3.904342e+001  -1.262282e+002 
3171875000  -3.859752e+001  -1.349696e+002 
3175000000  -3.923283e+001  -1.445120e+002 
3178125000  -3.867510e+001  -1.475805e+002 
3181250000  -3.804957e+001  -1.556910e+002 
3184375000  -3.766995e+001  -1.684555e+002 
3187500000  -3.904274e+001  1.749200e+002 
3190625000  -4.078704e+001  1.699069e+002 
3193750000  -4.097610e+001  1.717354e+002 
3196875000  -4.123532e+001  1.710645e+002 
3200000000  -3.987816e+001  1.671317e+002 
3203125000  -3.957013e+001  1.583598e+002 
3206250000  -3.987307e+001  1.489473e+002 
3209375000  -3.946090e+001  1.404898e+002 
3212500000  -3.982005e+001  1.349714e+002 
3215625000  -3.972018e+001  1.312719e+002 
3218750000  -4.023898e+001  1.179854e+002 
3221875000  -4.072034e+001  1.113723e+002 
3225000000  -4.036757e+001  1.062611e+002 
3228125000  -4.096069e+001  9.709607e+001 
3231250000  -4.133342e+001  9.633650e+001 
3234375000  -4.104457e+001  9.149039e+001 
3237500000  -4.096110e+001  8.736484e+001 
3240625000  -4.022905e+001  8.049926e+001 
3243750000  -4.024754e+001  6.932723e+001 
3246875000  -4.043885e+001  6.234591e+001 
3250000000  -4.116223e+001  5.687006e+001 
3253125000  -4.131788e+001  5.215492e+001 
3256250000  -4.049225e+001  4.242485e+001 
3259375000  -4.101616e+001  2.921260e+001 
3262500000  -4.250514e+001  2.475486e+001 
3265625000  -4.270741e+001  2.498429e+001 
3268750000  -4.226022e+001  2.569245e+001 
3271875000  -4.165409e+001  1.877611e+001 
3275000000  -4.098405e+001  7.624421e+000 
3278125000  -4.156001e+001  1.259959e+000 
3281250000  -4.189513e+001  -2.673680e+000 
3284375000  -4.095663e+001  -9.511171e+000 
3287500000  -4.145162e+001  -1.663153e+001 
3290625000  -4.140621e+001  -2.760898e+001 
3293750000  -4.144208e+001  -3.599445e+001 
3296875000  -4.261760e+001  -3.978253e+001 
3300000000  -4.184032e+001  -4.166985e+001 
3303125000  -4.089211e+001  -5.157404e+001 
3306250000  -4.082557e+001  -6.267546e+001 
3309375000  -4.065314e+001  -7.261952e+001 
3312500000  -4.096545e+001  -8.705697e+001 
3315625000  -4.238993e+001  -9.582653e+001 
3318750000  -4.376239e+001  -1.017320e+002 
3321875000  -4.535797e+001  -1.022298e+002 
3325000000  -4.487362e+001  -9.652048e+001 
3328125000  -4.414897e+001  -9.846820e+001 
3331250000  -4.261130e+001  -9.856208e+001 
3334375000  -3.997318e+001  -1.195408e+002 
3337500000  -4.071176e+001  -1.433327e+002 
3340625000  -4.271030e+001  -1.530255e+002 
3343750000  -4.446366e+001  -1.538224e+002 
3346875000  -4.412404e+001  -1.581354e+002 
3350000000  -4.385550e+001  -1.630690e+002 
3353125000  -4.361859e+001  -1.727103e+002 
3356250000  -4.318959e+001  1.777530e+002 
3359375000  -4.442193e+001  1.651096e+002 
3362500000  -4.517831e+001  1.541831e+002 
3365625000  -4.547847e+001  1.520573e+002 
3368750000  -4.646263e+001  1.460929e+002 
3371875000  -4.694951e+001  1.412382e+002 
3375000000  -4.839985e+001  1.306871e+002 
3378125000  -4.929347e+001  1.303310e+002 
3381250000  -5.056431e+001  1.378359e+002 
3384375000  -4.714729e+001  1.500146e+002 
3387500000  -4.479578e+001  1.279351e+002 
3390625000  -4.637520e+001  1.033478e+002 
3393750000  -4.766167e+001  1.039065e+002 
3396875000  -4.638988e+001  9.810934e+001 
3400000000  -4.628613e+001  8.282620e+001 
3403125000  -4.671975e+001  7.856602e+001 
3406250000  -4.694322e+001  6.851529e+001 
3409375000  -4.713764e+001  5.750113e+001 
3412500000  -4.765657e+001  5.164941e+001 
3415625000  -4.886766e+001  4.989013e+001 
3418750000  -4.888538e+001  3.808432e+001 
3421875000  -4.920203e+001  3.933693e+001 
3425000000  -4.804795e+001  3.479714e+001 
3428125000  -4.719983e+001  2.728673e+001 
3431250000  -4.687657e+001  1.145583e+001 
3434375000  -4.723742e+001  2.389463e+000 
3437500000  -4.765055e+001  -6.319286e+000 
3440625000  -4.745078e+001  -1.380238e+001 
3443750000  -4.630582e+001  -1.522633e+001 
3446875000  -4.584927e+001  -2.978950e+001 
3450000000  -4.467988e+001  -4.330454e+001 
3453125000  -4.607488e+001  -6.267435e+001 
3456250000  -4.692932e+001  -7.197456e+001 
3459375000  -4.776799e+001  -7.267256e+001 
3462500000  -4.802719e+001  -7.634933e+001 
3465625000  -4.759337e+001  -8.908808e+001 
3468750000  -4.753957e+001  -9.736018e+001 
3471875000  -4.732619e+001  -1.047868e+002 
3475000000  -4.701976e+001  -1.167122e+002 
3478125000  -4.767570e+001  -1.315365e+002 
3481250000  -4.951259e+001  -1.364342e+002 
3484375000  -4.874727e+001  -1.335851e+002 
3487500000  -4.754438e+001  -1.446910e+002 
3490625000  -4.743652e+001  -1.540208e+002 
3493750000  -4.818386e+001  -1.687094e+002 
3496875000  -4.808485e+001  -1.712182e+002 
3500000000  -4.867440e+001  -1.731273e+002 
3503125000  -4.736846e+001  -1.786663e+002 
3506250000  -4.552555e+001  1.699843e+002 
3509375000  -4.597025e+001  1.506182e+002 
3512500000  -4.634026e+001  1.355461e+002 
3515625000  -4.748549e+001  1.278893e+002 
3518750000  -4.804327e+001  1.276765e+002 
3521875000  -4.851328e+001  1.171239e+002 
3525000000  -4.870764e+001  1.145900e+002 
3528125000  -4.755622e+001  1.190071e+002 
3531250000  -4.668143e+001  1.024127e+002 
3534375000  -4.738041e+001  8.757952e+001 
3537500000  -4.776582e+001  7.612208e+001 
3540625000  -4.889488e+001  7.482829e+001 
3543750000  -4.934218e+001  7.804185e+001 
3546875000  -4.816823e+001  8.381641e+001 
3550000000  -4.637784e+001  7.049117e+001 
3553125000  -4.572147e+001  5.224622e+001 
3556250000  -4.729477e+001  4.401693e+001 
3559375000  -4.665396e+001  3.891034e+001 
3562500000  -4.682729e+001  2.969307e+001 
3565625000  -4.725726e+001  2.303406e+001 
3568750000  -4.803101e+001  2.193831e+001 
3571875000  -4.704626e+001  1.579007e+001 
3575000000  -4.718644e+001  1.039395e+001 
3578125000  -4.833256e+001  4.986084e+000 
3581250000  -4.739518e+001  3.112940e+000 
3584375000  -4.612746e+001  -6.454992e+000 
3587500000  -4.557998e+001  -1.918568e+001 
3590625000  -4.605904e+001  -2.954506e+001 
3593750000  -4.763700e+001  -2.808564e+001 
3596875000  -4.683946e+001  -2.307711e+001 
3600000000  -4.488721e+001  -3.367926e+001 
3603125000  -4.513157e+001  -5.024998e+001 
3606250000  -4.606966e+001  -5.673611e+001 
3609375000  -4.588918e+001  -5.738708e+001 
3612500000  -4.588712e+001  -6.606182e+001 
3615625000  -4.624974e+001  -7.179242e+001 
3618750000  -4.653669e+001  -7.463692e+001 
3621875000  -4.541925e+001  -8.165480e+001 
3625000000  -4.581363e+001  -8.615025e+001 
3628125000  -4.474105e+001  -9.104247e+001 
3631250000  -4.536745e+001  -1.008083e+002 
3634375000  -4.567834e+001  -1.027989e+002 
3637500000  -4.433376e+001  -1.047610e+002 
3640625000  -4.351637e+001  -1.089322e+002 
3643750000  -4.293575e+001  -1.218312e+002 
3646875000  -4.399912e+001  -1.325291e+002 
3650000000  -4.375325e+001  -1.404724e+002 
3653125000  -4.338702e+001  -1.449289e+002 
3656250000  -4.424010e+001  -1.530189e+002 
3659375000  -4.390956e+001  -1.552333e+002 
3662500000  -4.351667e+001  -1.617582e+002 
3665625000  -4.357515e+001  -1.665418e+002 
3668750000  -4.185180e+001  -1.719257e+002 
3671875000  -4.148610e+001  1.748123e+002 
3675000000  -4.230973e+001  1.651995e+002 
3678125000  -4.265154e+001  1.605551e+002 
3681250000  -4.258243e+001  1.551410e+002 
3684375000  -4.258822e+001  1.465854e+002 
3687500000  -4.284636e+001  1.349803e+002 
3690625000  -4.374779e+001  1.314776e+002 
3693750000  -4.436983e+001  1.293762e+002 
3696875000  -4.350835e+001  1.266972e+002 
3700000000  -4.285723e+001  1.174386e+002 
3703125000  -4.377958e+001  1.121948e+002 
3706250000  -4.468113e+001  1.096517e+002 
3709375000  -4.322688e+001  1.089890e+002 
3712500000  -4.291334e+001  1.020926e+002 
3715625000  -4.173636e+001  9.278064e+001 
3718750000  -4.198133e+001  8.123431e+001 
3721875000  -4.165623e+001  7.488979e+001 
3725000000  -4.212129e+001  6.691782e+001 
3728125000  -4.246165e+001  6.352700e+001 
3731250000  -4.220059e+001  5.641314e+001 
3734375000  -4.207283e+001  5.134416e+001 
3737500000  -4.268391e+001  4.100721e+001 
3740625000  -4.269109e+001  3.570544e+001 
3743750000  -4.268850e+001  2.578093e+001 
3746875000  -4.340282e+001  2.133511e+001 
3750000000  -4.360291e+001  1.900613e+001 
3753125000  -4.375594e+001  1.488801e+001 
3756250000  -4.365760e+001  1.207218e+001 
3759375000  -4.348838e+001  5.465990e+000 
3762500000  -4.348977e+001  2.141189e+000 
3765625000  -4.425801e+001  -5.875212e+000 
3768750000  -4.328712e+001  -3.000205e+000 
3771875000  -4.194311e+001  -1.049350e+001 
3775000000  -4.199714e+001  -2.156536e+001 
3778125000  -4.271387e+001  -2.768718e+001 
3781250000  -4.262614e+001  -3.197691e+001 
3784375000  -4.262934e+001  -3.966006e+001 
3787500000  -4.230059e+001  -4.512367e+001 
3790625000  -4.277765e+001  -5.428912e+001 
3793750000  -4.258652e+001  -5.853569e+001 
3796875000  -4.203744e+001  -6.289212e+001 
3800000000  -4.039578e+001  -6.957335e+001 
3803125000  -4.150044e+001  -8.018556e+001 
3806250000  -4.235238e+001  -8.710229e+001 
3809375000  -4.181729e+001  -9.247858e+001 
3812500000  -4.179575e+001  -1.029353e+002 
3815625000  -4.320002e+001  -1.118954e+002 
3818750000  -4.423978e+001  -1.086575e+002 
3821875000  -4.348248e+001  -1.002149e+002 
3825000000  -4.103070e+001  -1.071684e+002 
3828125000  -4.020562e+001  -1.288472e+002 
3831250000  -4.153403e+001  -1.450973e+002 
3834375000  -4.363655e+001  -1.453878e+002 
3837500000  -4.371867e+001  -1.427071e+002 
3840625000  -4.244419e+001  -1.462488e+002 
3843750000  -4.149430e+001  -1.618052e+002 
3846875000  -4.342685e+001  -1.714454e+002 
3850000000  -4.400973e+001  -1.624536e+002 
3853125000  -4.331704e+001  -1.677740e+002 
3856250000  -4.299247e+001  -1.730762e+002 
3859375000  -4.202595e+001  1.775527e+002 
3862500000  -4.185794e+001  1.695666e+002 
3865625000  -4.257233e+001  1.602950e+002 
3868750000  -4.236510e+001  1.580410e+002 
3871875000  -4.164286e+001  1.488909e+002 
3875000000  -4.234883e+001  1.396565e+002 
3878125000  -4.341678e+001  1.395523e+002 
3881250000  -4.319141e+001  1.337698e+002 
3884375000  -4.255392e+001  1.242470e+002 
3887500000  -4.270654e+001  1.173665e+002 
3890625000  -4.392206e+001  1.140208e+002 
3893750000  -4.438593e+001  1.132827e+002 
3896875000  -4.392751e+001  1.098267e+002 
3900000000  -4.429726e+001  1.060111e+002 
3903125000  -4.364920e+001  9.812238e+001 
3906250000  -4.346402e+001  9.738032e+001 
3909375000  -4.267232e+001  8.474728e+001 
3912500000  -4.384776e+001  7.583920e+001 
3915625000  -4.453535e+001  7.850430e+001 
3918750000  -4.421497e+001  7.364622e+001 
3921875000  -4.393320e+001  7.035459e+001 
3925000000  -4.345874e+001  6.280502e+001 
3928125000  -4.289425e+001  5.521346e+001 
3931250000  -4.356807e+001  4.647922e+001 
3934375000  -4.402627e+001  4.416895e+001 
3937500000  -4.444315e+001  4.479184e+001 
3940625000  -4.488814e+001  4.055463e+001 
3943750000  -4.299302e+001  3.442215e+001 
3946875000  -4.269020e+001  2.711589e+001 
3950000000  -4.371284e+001  1.577664e+001 
3953125000  -4.437780e+001  1.866609e+001 
3956250000  -4.254932e+001  1.827592e+001 
3959375000  -4.196793e+001  1.009683e+001 
3962500000  -4.137346e+001  -3.482574e+000 
3965625000  -4.148470e+001  -1.092463e+001 
3968750000  -4.235287e+001  -1.906684e+001 
3971875000  -4.240446e+001  -2.409950e+001 
3975000000  -4.199647e+001  -2.838963e+001 
3978125000  -4.218319e+001  -3.562044e+001 
3981250000  -4.159782e+001  -4.283663e+001 
3984375000  -4.252296e+001  -5.241008e+001 
3987500000  -4.281687e+001  -5.644109e+001 
3990625000  -4.305289e+001  -5.879821e+001 
3993750000  -4.292636e+001  -6.781432e+001 
3996875000  -4.281441e+001  -7.385641e+001 
4000000000  -4.365309e+001  -7.740401e+001 
4003125000  -4.382395e+001  -7.543799e+001 
4006250000  -4.203317e+001  -8.237419e+001 
4009375000  -4.115548e+001  -9.830959e+001 
4012500000  -4.266348e+001  -1.069707e+002 
4015625000  -4.409304e+001  -1.080350e+002 
4018750000  -4.375863e+001  -1.127599e+002 
4021875000  -4.287727e+001  -1.205039e+002 
4025000000  -4.329760e+001  -1.255709e+002 
4028125000  -4.313149e+001  -1.289370e+002 
4031250000  -4.389217e+001  -1.380149e+002 
4034375000  -4.361286e+001  -1.448251e+002 
4037500000  -4.394820e+001  -1.466167e+002 
4040625000  -4.394815e+001  -1.499783e+002 
4043750000  -4.444780e+001  -1.551703e+002 
4046875000  -4.409312e+001  -1.601872e+002 
4050000000  -4.434407e+001  -1.665781e+002 
4053125000  -4.470134e+001  -1.678328e+002 
4056250000  -4.641965e+001  -1.681251e+002 
4059375000  -4.370890e+001  -1.681790e+002 
4062500000  -4.310347e+001  -1.768096e+002 
4065625000  -4.357735e+001  1.784449e+002 
4068750000  -4.295069e+001  1.664481e+002 
4071875000  -4.245890e+001  1.600055e+002 
4075000000  -4.296478e+001  1.520364e+002 
4078125000  -4.394489e+001  1.475230e+002 
4081250000  -4.319487e+001  1.414476e+002 
4084375000  -4.326604e+001  1.341290e+002 
4087500000  -4.358534e+001  1.266162e+002 
4090625000  -4.459029e+001  1.261160e+002 
4093750000  -4.471980e+001  1.232087e+002 
4096875000  -4.380130e+001  1.139294e+002 
4100000000  -4.455682e+001  1.082935e+002 
4103125000  -4.575607e+001  1.125385e+002 
4106250000  -4.518620e+001  1.122506e+002 
4109375000  -4.376108e+001  1.068811e+002 
4112500000  -4.381229e+001  9.675621e+001 
4115625000  -4.413777e+001  9.489854e+001 
4118750000  -4.381253e+001  8.597515e+001 
4121875000  -4.382077e+001  7.927493e+001 
4125000000  -4.468544e+001  7.427056e+001 
4128125000  -4.495759e+001  7.649721e+001 
4131250000  -4.329614e+001  8.000819e+001 
4134375000  -4.168256e+001  6.678125e+001 
4137500000  -4.192452e+001  4.591051e+001 
4140625000  -4.382746e+001  3.908828e+001 
4143750000  -4.446380e+001  4.500459e+001 
4146875000  -4.368935e+001  4.627108e+001 
4150000000  -4.271715e+001  3.429913e+001 
4153125000  -4.296390e+001  2.469680e+001 
4156250000  -4.378010e+001  2.228216e+001 
4159375000  -4.364155e+001  2.489142e+001 
4162500000  -4.219235e+001  2.451296e+001 
4165625000  -4.169733e+001  1.220044e+001 
4168750000  -4.095971e+001  1.605909e+000 
4171875000  -4.145070e+001  -6.735643e+000 
4175000000  -4.163006e+001  -2.014994e+001 
4178125000  -4.244316e+001  -2.073759e+001 
4181250000  -4.169521e+001  -2.569067e+001 
4184375000  -4.228325e+001  -3.368961e+001 
4187500000  -4.241993e+001  -3.782798e+001 
4190625000  -4.290580e+001  -4.862443e+001 
4193750000  -4.370362e+001  -5.622445e+001 
4196875000  -4.483239e+001  -5.624031e+001 
4200000000  -4.625666e+001  -5.037142e+001 
4203125000  -4.393544e+001  -3.944660e+001 
4206250000  -4.140400e+001  -5.427843e+001 
4209375000  -4.144165e+001  -7.809954e+001 
4212500000  -4.385750e+001  -8.253561e+001 
4215625000  -4.399043e+001  -7.765611e+001 
4218750000  -4.225551e+001  -7.625903e+001 
4221875000  -4.119278e+001  -9.094885e+001 
4225000000  -4.229540e+001  -9.944737e+001 
4228125000  -4.259747e+001  -9.811347e+001 
4231250000  -4.067285e+001  -1.054188e+002 
4234375000  -4.097930e+001  -1.166274e+002 
4237500000  -4.057751e+001  -1.239118e+002 
4240625000  -4.076008e+001  -1.351602e+002 
4243750000  -4.194085e+001  -1.426524e+002 
4246875000  -4.293154e+001  -1.427490e+002 
4250000000  -4.269940e+001  -1.428670e+002 
4253125000  -4.258317e+001  -1.458644e+002 
4256250000  -4.216766e+001  -1.506361e+002 
4259375000  -4.213761e+001  -1.591852e+002 
4262500000  -4.225149e+001  -1.625653e+002 
4265625000  -4.180054e+001  -1.644159e+002 
4268750000  -4.066805e+001  -1.730444e+002 
4271875000  -4.060720e+001  1.778111e+002 
4275000000  -4.011111e+001  1.662133e+002 
4278125000  -4.107848e+001  1.536186e+002 
4281250000  -4.248303e+001  1.513229e+002 
4284375000  -4.230886e+001  1.488112e+002 
4287500000  -4.400895e+001  1.476075e+002 
4290625000  -4.379425e+001  1.530769e+002 
4293750000  -4.143605e+001  1.511865e+002 
4296875000  -4.027956e+001  1.363887e+002 
4300000000  -4.120010e+001  1.271096e+002 
4303125000  -4.198576e+001  1.276165e+002 
4306250000  -4.067237e+001  1.264326e+002 
4309375000  -3.996408e+001  1.146386e+002 
4312500000  -3.955915e+001  1.052846e+002 
4315625000  -4.006624e+001  9.483015e+001 
4318750000  -4.068051e+001  9.166734e+001 
4321875000  -4.084465e+001  8.741737e+001 
4325000000  -4.008787e+001  8.474468e+001 
4328125000  -3.921896e+001  7.302572e+001 
4331250000  -3.966465e+001  6.128871e+001 
4334375000  -4.070830e+001  5.180221e+001 
4337500000  -4.176552e+001  5.275305e+001 
4340625000  -4.199564e+001  5.346186e+001 
4343750000  -4.097852e+001  4.966816e+001 
4346875000  -4.084895e+001  3.718916e+001 
4350000000  -4.107024e+001  2.815895e+001 
4353125000  -4.160413e+001  2.026572e+001 
4356250000  -4.372557e+001  2.363713e+001 
4359375000  -4.225519e+001  3.798484e+001 
4362500000  -3.904498e+001  2.718913e+001 
4365625000  -3.906493e+001  9.404417e+000 
4368750000  -3.984023e+001  -3.669655e+000 
4371875000  -4.101207e+001  -4.317273e+000 
4375000000  -4.010477e+001  -9.296585e+000 
4378125000  -4.031902e+001  -2.087559e+001 
4381250000  -4.039430e+001  -2.718117e+001 
4384375000  -4.038226e+001  -3.389651e+001 
4387500000  -4.149672e+001  -4.051818e+001 
4390625000  -4.218344e+001  -4.255288e+001 
4393750000  -4.185005e+001  -4.489116e+001 
4396875000  -4.104488e+001  -4.939426e+001 
4400000000  -4.072329e+001  -5.905957e+001 
4403125000  -4.130553e+001  -6.911635e+001 
4406250000  -4.205559e+001  -7.190521e+001 
4409375000  -4.249648e+001  -7.855750e+001 
4412500000  -4.326749e+001  -8.278701e+001 
4415625000  -4.283997e+001  -7.664183e+001 
4418750000  -4.179889e+001  -7.749999e+001 
