!Agilent Technologies,E8363B,MY43030201,A.06.04.32
!Agilent E8363B: A.06.04.32
!Date: Tuesday, November 11, 2014 21:43:12
!Correction: S21(Response(S21)) 
!S1P File: Measurement: S21:
# Hz S  dB   R 50
3000000000  -4.380762e+001  -1.599113e+002 
3003125000  -4.527069e+001  -1.638893e+002 
3006250000  -4.505916e+001  -1.660894e+002 
3009375000  -4.593193e+001  -1.639823e+002 
3012500000  -4.471277e+001  -1.699134e+002 
3015625000  -4.495375e+001  -1.757671e+002 
3018750000  -4.511398e+001  -1.752301e+002 
3021875000  -4.392385e+001  -1.767693e+002 
3025000000  -4.245102e+001  1.790410e+002 
3028125000  -4.175602e+001  1.659399e+002 
3031250000  -4.087954e+001  1.543969e+002 
3034375000  -4.069848e+001  1.403980e+002 
3037500000  -4.149866e+001  1.287015e+002 
3040625000  -4.285114e+001  1.222862e+002 
3043750000  -4.317947e+001  1.164944e+002 
3046875000  -4.408243e+001  1.090664e+002 
3050000000  -4.525908e+001  1.045066e+002 
3053125000  -4.496199e+001  1.069520e+002 
3056250000  -4.455605e+001  1.109530e+002 
3059375000  -4.435994e+001  1.081931e+002 
3062500000  -4.244409e+001  1.033432e+002 
3065625000  -4.203495e+001  9.045540e+001 
3068750000  -4.161744e+001  8.374858e+001 
3071875000  -4.177235e+001  8.116325e+001 
3075000000  -4.126041e+001  7.405343e+001 
3078125000  -4.117794e+001  6.568369e+001 
3081250000  -4.131689e+001  5.914703e+001 
3084375000  -4.048552e+001  5.274750e+001 
3087500000  -4.051054e+001  4.567194e+001 
3090625000  -3.991784e+001  3.330967e+001 
3093750000  -4.102065e+001  2.265929e+001 
3096875000  -4.117925e+001  1.780951e+001 
3100000000  -4.117509e+001  1.441344e+001 
3103125000  -4.156688e+001  1.041257e+001 
3106250000  -4.102505e+001  3.798502e+000 
3109375000  -4.099962e+001  -5.487254e-001 
3112500000  -4.072201e+001  -8.497671e+000 
3115625000  -4.089533e+001  -1.447541e+001 
3118750000  -4.076242e+001  -1.973358e+001 
3121875000  -4.019549e+001  -3.005006e+001 
3125000000  -4.212390e+001  -3.418002e+001 
3128125000  -4.194220e+001  -2.963867e+001 
3131250000  -3.961979e+001  -3.627750e+001 
3134375000  -3.916203e+001  -5.495378e+001 
3137500000  -3.947994e+001  -6.791117e+001 
3140625000  -4.071453e+001  -7.322978e+001 
3143750000  -4.178225e+001  -7.813849e+001 
3146875000  -4.100764e+001  -7.603884e+001 
3150000000  -4.043382e+001  -7.972947e+001 
3153125000  -4.099244e+001  -8.962265e+001 
3156250000  -4.142165e+001  -8.658909e+001 
3159375000  -3.943499e+001  -9.059341e+001 
3162500000  -3.775449e+001  -1.071608e+002 
3165625000  -3.900229e+001  -1.200743e+002 
3168750000  -3.893941e+001  -1.215154e+002 
3171875000  -3.853947e+001  -1.306347e+002 
3175000000  -3.920722e+001  -1.404547e+002 
3178125000  -3.871644e+001  -1.434675e+002 
3181250000  -3.814732e+001  -1.531590e+002 
3184375000  -3.804699e+001  -1.650448e+002 
3187500000  -3.942113e+001  1.797082e+002 
3190625000  -4.097574e+001  1.720777e+002 
3193750000  -4.123775e+001  1.765083e+002 
3196875000  -4.115339e+001  1.770308e+002 
3200000000  -3.997067e+001  1.696546e+002 
3203125000  -3.941418e+001  1.617068e+002 
3206250000  -3.986668e+001  1.535951e+002 
3209375000  -3.956430e+001  1.448481e+002 
3212500000  -4.015294e+001  1.369744e+002 
3215625000  -3.968918e+001  1.333718e+002 
3218750000  -4.026182e+001  1.220512e+002 
3221875000  -4.077499e+001  1.152545e+002 
3225000000  -4.065720e+001  1.091774e+002 
3228125000  -4.111752e+001  1.019639e+002 
3231250000  -4.152757e+001  9.924292e+001 
3234375000  -4.123334e+001  9.550043e+001 
3237500000  -4.109426e+001  9.125986e+001 
3240625000  -4.043815e+001  8.376717e+001 
3243750000  -4.032423e+001  7.295261e+001 
3246875000  -4.080768e+001  6.513972e+001 
3250000000  -4.136886e+001  6.097759e+001 
3253125000  -4.120514e+001  5.709960e+001 
3256250000  -4.051009e+001  4.519193e+001 
3259375000  -4.110149e+001  3.275324e+001 
3262500000  -4.244097e+001  2.846564e+001 
3265625000  -4.280154e+001  2.891512e+001 
3268750000  -4.261729e+001  2.833211e+001 
3271875000  -4.172781e+001  2.403970e+001 
3275000000  -4.133331e+001  1.068000e+001 
3278125000  -4.175398e+001  3.982408e+000 
3281250000  -4.214679e+001  1.291105e+000 
3284375000  -4.113993e+001  -8.005677e+000 
3287500000  -4.153545e+001  -1.440867e+001 
3290625000  -4.147222e+001  -2.479345e+001 
3293750000  -4.164033e+001  -3.058883e+001 
3296875000  -4.263348e+001  -3.859237e+001 
3300000000  -4.209623e+001  -3.726648e+001 
3303125000  -4.100447e+001  -4.740763e+001 
3306250000  -4.108621e+001  -5.853469e+001 
3309375000  -4.076707e+001  -6.918409e+001 
3312500000  -4.113033e+001  -8.429545e+001 
3315625000  -4.268109e+001  -9.135172e+001 
3318750000  -4.409921e+001  -1.000707e+002 
3321875000  -4.519960e+001  -9.811548e+001 
3325000000  -4.503762e+001  -9.458298e+001 
3328125000  -4.419756e+001  -9.637388e+001 
3331250000  -4.285857e+001  -9.679369e+001 
3334375000  -4.054240e+001  -1.153784e+002 
3337500000  -4.093525e+001  -1.400671e+002 
3340625000  -4.296097e+001  -1.480362e+002 
3343750000  -4.471256e+001  -1.507654e+002 
3346875000  -4.418587e+001  -1.542012e+002 
3350000000  -4.399812e+001  -1.589094e+002 
3353125000  -4.394342e+001  -1.705969e+002 
3356250000  -4.353279e+001  -1.798027e+002 
3359375000  -4.462040e+001  1.678230e+002 
3362500000  -4.544295e+001  1.590552e+002 
3365625000  -4.596385e+001  1.520859e+002 
3368750000  -4.642806e+001  1.476433e+002 
3371875000  -4.685498e+001  1.436199e+002 
3375000000  -4.869180e+001  1.349485e+002 
3378125000  -4.925280e+001  1.300819e+002 
3381250000  -5.059207e+001  1.421814e+002 
3384375000  -4.697533e+001  1.543463e+002 
3387500000  -4.461381e+001  1.306617e+002 
3390625000  -4.726225e+001  1.062736e+002 
3393750000  -4.769408e+001  1.063978e+002 
3396875000  -4.659677e+001  1.009873e+002 
3400000000  -4.617993e+001  8.657285e+001 
3403125000  -4.677598e+001  7.891792e+001 
3406250000  -4.756163e+001  7.392155e+001 
3409375000  -4.717632e+001  6.221654e+001 
3412500000  -4.775767e+001  5.472124e+001 
3415625000  -4.866055e+001  5.291448e+001 
3418750000  -4.879816e+001  4.772591e+001 
3421875000  -4.948499e+001  4.232289e+001 
3425000000  -4.828101e+001  3.777973e+001 
3428125000  -4.772552e+001  3.028671e+001 
3431250000  -4.700793e+001  1.238172e+001 
3434375000  -4.730771e+001  4.625038e+000 
3437500000  -4.794837e+001  -4.744977e+000 
3440625000  -4.796928e+001  -5.698052e+000 
3443750000  -4.649981e+001  -1.105044e+001 
3446875000  -4.579586e+001  -2.728858e+001 
3450000000  -4.530519e+001  -4.313838e+001 
3453125000  -4.609718e+001  -6.044258e+001 
3456250000  -4.719758e+001  -6.742825e+001 
3459375000  -4.806635e+001  -6.984003e+001 
3462500000  -4.802455e+001  -7.339423e+001 
3465625000  -4.725052e+001  -8.766688e+001 
3468750000  -4.736022e+001  -9.407961e+001 
3471875000  -4.677318e+001  -1.025743e+002 
3475000000  -4.696470e+001  -1.168773e+002 
3478125000  -4.734179e+001  -1.277397e+002 
3481250000  -4.921055e+001  -1.336762e+002 
3484375000  -4.866660e+001  -1.284064e+002 
3487500000  -4.751545e+001  -1.414964e+002 
3490625000  -4.726601e+001  -1.500225e+002 
3493750000  -4.815090e+001  -1.674078e+002 
3496875000  -4.808027e+001  -1.649563e+002 
3500000000  -4.860839e+001  -1.686722e+002 
3503125000  -4.706256e+001  -1.724041e+002 
3506250000  -4.518301e+001  1.716957e+002 
3509375000  -4.565609e+001  1.523944e+002 
3512500000  -4.613701e+001  1.404589e+002 
3515625000  -4.714279e+001  1.339912e+002 
3518750000  -4.788163e+001  1.291144e+002 
3521875000  -4.792487e+001  1.200864e+002 
3525000000  -4.848592e+001  1.162137e+002 
3528125000  -4.783323e+001  1.218122e+002 
3531250000  -4.637347e+001  1.079350e+002 
3534375000  -4.731615e+001  8.934922e+001 
3537500000  -4.773481e+001  8.204523e+001 
3540625000  -4.920323e+001  8.071295e+001 
3543750000  -4.929426e+001  8.214330e+001 
3546875000  -4.867326e+001  8.220493e+001 
3550000000  -4.580500e+001  7.686440e+001 
3553125000  -4.549244e+001  5.653947e+001 
3556250000  -4.745289e+001  4.984944e+001 
3559375000  -4.659029e+001  4.177162e+001 
3562500000  -4.640732e+001  3.402255e+001 
3565625000  -4.776313e+001  2.750979e+001 
3568750000  -4.761511e+001  2.601699e+001 
3571875000  -4.741551e+001  2.356627e+001 
3575000000  -4.710279e+001  1.334715e+001 
3578125000  -4.774086e+001  8.091599e+000 
3581250000  -4.746275e+001  4.363894e+000 
3584375000  -4.654239e+001  -1.666808e+000 
3587500000  -4.552232e+001  -1.457381e+001 
3590625000  -4.631165e+001  -1.870701e+001 
3593750000  -4.796701e+001  -2.320175e+001 
3596875000  -4.663372e+001  -1.580009e+001 
3600000000  -4.501440e+001  -2.937928e+001 
3603125000  -4.531381e+001  -4.722233e+001 
3606250000  -4.592736e+001  -4.961526e+001 
3609375000  -4.600151e+001  -5.458067e+001 
3612500000  -4.589669e+001  -6.052133e+001 
3615625000  -4.591139e+001  -6.606226e+001 
3618750000  -4.608721e+001  -6.874020e+001 
3621875000  -4.560477e+001  -7.611771e+001 
3625000000  -4.519799e+001  -7.819805e+001 
3628125000  -4.500275e+001  -8.787263e+001 
3631250000  -4.530955e+001  -9.514072e+001 
3634375000  -4.556073e+001  -9.813819e+001 
3637500000  -4.427800e+001  -9.739629e+001 
3640625000  -4.359459e+001  -1.057070e+002 
3643750000  -4.318423e+001  -1.153785e+002 
3646875000  -4.362404e+001  -1.258346e+002 
3650000000  -4.370935e+001  -1.328786e+002 
3653125000  -4.342218e+001  -1.400008e+002 
3656250000  -4.427764e+001  -1.460246e+002 
3659375000  -4.400515e+001  -1.486973e+002 
3662500000  -4.320427e+001  -1.572517e+002 
3665625000  -4.350229e+001  -1.620077e+002 
3668750000  -4.194412e+001  -1.658286e+002 
3671875000  -4.162280e+001  1.790580e+002 
3675000000  -4.234237e+001  1.708479e+002 
3678125000  -4.276003e+001  1.644053e+002 
3681250000  -4.248458e+001  1.595928e+002 
3684375000  -4.278871e+001  1.513267e+002 
3687500000  -4.303403e+001  1.432140e+002 
3690625000  -4.377020e+001  1.363852e+002 
3693750000  -4.447466e+001  1.355860e+002 
3696875000  -4.371854e+001  1.336253e+002 
3700000000  -4.314635e+001  1.241268e+002 
3703125000  -4.373883e+001  1.170702e+002 
3706250000  -4.429713e+001  1.151158e+002 
3709375000  -4.379778e+001  1.152030e+002 
3712500000  -4.303858e+001  1.077854e+002 
3715625000  -4.182386e+001  9.881297e+001 
3718750000  -4.167030e+001  8.939851e+001 
3721875000  -4.174554e+001  7.728555e+001 
3725000000  -4.208569e+001  7.440233e+001 
3728125000  -4.261778e+001  6.881854e+001 
3731250000  -4.196482e+001  6.119799e+001 
3734375000  -4.202907e+001  5.566009e+001 
3737500000  -4.263383e+001  4.517873e+001 
3740625000  -4.300164e+001  4.068411e+001 
3743750000  -4.291705e+001  3.302650e+001 
3746875000  -4.350851e+001  2.776005e+001 
3750000000  -4.402855e+001  2.202529e+001 
3753125000  -4.382424e+001  2.136967e+001 
3756250000  -4.374204e+001  1.561516e+001 
3759375000  -4.362849e+001  1.198834e+001 
3762500000  -4.337434e+001  8.250030e+000 
3765625000  -4.442185e+001  6.107626e-001 
3768750000  -4.391628e+001  1.959181e+000 
3771875000  -4.203481e+001  -5.271515e+000 
3775000000  -4.218988e+001  -1.803836e+001 
3778125000  -4.283016e+001  -2.194115e+001 
3781250000  -4.246259e+001  -2.902115e+001 
3784375000  -4.263485e+001  -3.349971e+001 
3787500000  -4.229954e+001  -3.981513e+001 
3790625000  -4.305713e+001  -4.865644e+001 
3793750000  -4.278289e+001  -5.291805e+001 
3796875000  -4.162404e+001  -5.309555e+001 
3800000000  -4.099852e+001  -6.421571e+001 
3803125000  -4.165480e+001  -7.543008e+001 
3806250000  -4.254435e+001  -8.039577e+001 
3809375000  -4.182820e+001  -8.541648e+001 
3812500000  -4.188535e+001  -9.621263e+001 
3815625000  -4.305830e+001  -1.073213e+002 
3818750000  -4.427551e+001  -1.040909e+002 
3821875000  -4.352497e+001  -9.600243e+001 
3825000000  -4.113628e+001  -1.034971e+002 
3828125000  -4.062104e+001  -1.252368e+002 
3831250000  -4.149902e+001  -1.396912e+002 
3834375000  -4.388139e+001  -1.374235e+002 
3837500000  -4.419987e+001  -1.335830e+002 
3840625000  -4.242050e+001  -1.412780e+002 
3843750000  -4.178442e+001  -1.543787e+002 
3846875000  -4.359375e+001  -1.636956e+002 
3850000000  -4.392972e+001  -1.565452e+002 
3853125000  -4.376567e+001  -1.595648e+002 
3856250000  -4.253040e+001  -1.688268e+002 
3859375000  -4.197542e+001  -1.742784e+002 
3862500000  -4.205230e+001  1.743484e+002 
3865625000  -4.275388e+001  1.673132e+002 
3868750000  -4.247934e+001  1.645899e+002 
3871875000  -4.176632e+001  1.559935e+002 
3875000000  -4.246115e+001  1.444802e+002 
3878125000  -4.340071e+001  1.434255e+002 
3881250000  -4.338382e+001  1.429496e+002 
3884375000  -4.261623e+001  1.288688e+002 
3887500000  -4.339615e+001  1.231151e+002 
3890625000  -4.387470e+001  1.196043e+002 
3893750000  -4.455732e+001  1.160058e+002 
3896875000  -4.409083e+001  1.161541e+002 
3900000000  -4.450411e+001  1.093223e+002 
3903125000  -4.350387e+001  1.040167e+002 
3906250000  -4.363089e+001  9.960337e+001 
3909375000  -4.274407e+001  9.093810e+001 
3912500000  -4.423091e+001  8.211650e+001 
3915625000  -4.482074e+001  8.128104e+001 
3918750000  -4.474781e+001  8.332764e+001 
3921875000  -4.410736e+001  7.448673e+001 
3925000000  -4.290049e+001  6.941010e+001 
3928125000  -4.285720e+001  6.062035e+001 
3931250000  -4.374608e+001  4.903057e+001 
3934375000  -4.406653e+001  5.110574e+001 
3937500000  -4.478951e+001  4.592001e+001 
3940625000  -4.473818e+001  4.542405e+001 
3943750000  -4.350017e+001  4.110637e+001 
3946875000  -4.267345e+001  3.093591e+001 
3950000000  -4.377964e+001  2.440630e+001 
3953125000  -4.458652e+001  2.237142e+001 
3956250000  -4.281552e+001  2.503710e+001 
3959375000  -4.186507e+001  1.985891e+001 
3962500000  -4.147477e+001  6.519866e+000 
3965625000  -4.184126e+001  -6.966672e+000 
3968750000  -4.315668e+001  -1.409277e+001 
3971875000  -4.287152e+001  -1.806790e+001 
3975000000  -4.209609e+001  -2.081265e+001 
3978125000  -4.230900e+001  -2.986532e+001 
3981250000  -4.196169e+001  -3.707283e+001 
3984375000  -4.270999e+001  -4.354312e+001 
3987500000  -4.319286e+001  -4.800616e+001 
3990625000  -4.321745e+001  -5.359916e+001 
3993750000  -4.321333e+001  -5.853654e+001 
3996875000  -4.328459e+001  -6.352048e+001 
4000000000  -4.366324e+001  -6.940209e+001 
4003125000  -4.388589e+001  -7.062975e+001 
4006250000  -4.233249e+001  -7.268276e+001 
4009375000  -4.135778e+001  -9.368675e+001 
4012500000  -4.324446e+001  -9.917795e+001 
4015625000  -4.423396e+001  -9.918819e+001 
4018750000  -4.389125e+001  -1.055084e+002 
4021875000  -4.324675e+001  -1.103550e+002 
4025000000  -4.341216e+001  -1.190439e+002 
4028125000  -4.306976e+001  -1.275614e+002 
4031250000  -4.409575e+001  -1.316062e+002 
4034375000  -4.411013e+001  -1.386380e+002 
4037500000  -4.425080e+001  -1.387800e+002 
4040625000  -4.411526e+001  -1.441282e+002 
4043750000  -4.473819e+001  -1.483216e+002 
4046875000  -4.435835e+001  -1.562645e+002 
4050000000  -4.457974e+001  -1.617462e+002 
4053125000  -4.537048e+001  -1.643484e+002 
4056250000  -4.580367e+001  -1.629510e+002 
4059375000  -4.417101e+001  -1.627318e+002 
4062500000  -4.361753e+001  -1.722988e+002 
4065625000  -4.366029e+001  -1.755714e+002 
4068750000  -4.305044e+001  1.736223e+002 
4071875000  -4.289749e+001  1.670259e+002 
4075000000  -4.416732e+001  1.567529e+002 
4078125000  -4.440257e+001  1.552271e+002 
4081250000  -4.343098e+001  1.482513e+002 
4084375000  -4.364308e+001  1.401151e+002 
4087500000  -4.413653e+001  1.323699e+002 
4090625000  -4.480210e+001  1.310927e+002 
4093750000  -4.495940e+001  1.265183e+002 
4096875000  -4.464986e+001  1.193255e+002 
4100000000  -4.552670e+001  1.145084e+002 
4103125000  -4.628646e+001  1.163587e+002 
4106250000  -4.578468e+001  1.162546e+002 
4109375000  -4.471455e+001  1.122444e+002 
4112500000  -4.439871e+001  1.028268e+002 
4115625000  -4.463725e+001  9.806803e+001 
4118750000  -4.382214e+001  9.450773e+001 
4121875000  -4.387450e+001  8.640962e+001 
4125000000  -4.540423e+001  7.987080e+001 
4128125000  -4.557473e+001  8.143277e+001 
4131250000  -4.410975e+001  8.670078e+001 
4134375000  -4.176580e+001  7.378004e+001 
4137500000  -4.250762e+001  4.918059e+001 
4140625000  -4.421736e+001  4.544056e+001 
4143750000  -4.537744e+001  5.084529e+001 
4146875000  -4.444962e+001  5.217586e+001 
4150000000  -4.285878e+001  4.497576e+001 
4153125000  -4.370495e+001  3.243319e+001 
4156250000  -4.469770e+001  3.068756e+001 
4159375000  -4.409459e+001  3.369405e+001 
4162500000  -4.247156e+001  3.017816e+001 
4165625000  -4.175583e+001  1.997524e+001 
4168750000  -4.166476e+001  9.011259e+000 
4171875000  -4.145661e+001  -4.064527e+000 
4175000000  -4.242563e+001  -1.183689e+001 
4178125000  -4.263919e+001  -1.328808e+001 
4181250000  -4.236919e+001  -2.199372e+001 
4184375000  -4.285247e+001  -2.704914e+001 
4187500000  -4.305711e+001  -3.316965e+001 
4190625000  -4.333804e+001  -4.223561e+001 
4193750000  -4.410908e+001  -4.776915e+001 
4196875000  -4.524312e+001  -5.285508e+001 
4200000000  -4.607889e+001  -4.317671e+001 
4203125000  -4.465910e+001  -3.992196e+001 
4206250000  -4.109143e+001  -4.467102e+001 
4209375000  -4.172105e+001  -7.055190e+001 
4212500000  -4.435021e+001  -7.569311e+001 
4215625000  -4.404047e+001  -7.045384e+001 
4218750000  -4.285996e+001  -7.038795e+001 
4221875000  -4.104421e+001  -8.260424e+001 
4225000000  -4.252912e+001  -9.062454e+001 
4228125000  -4.253170e+001  -9.081142e+001 
4231250000  -4.121545e+001  -9.957975e+001 
4234375000  -4.137299e+001  -1.096836e+002 
4237500000  -4.108732e+001  -1.164249e+002 
4240625000  -4.124970e+001  -1.254239e+002 
4243750000  -4.283057e+001  -1.368741e+002 
4246875000  -4.336814e+001  -1.356028e+002 
4250000000  -4.323770e+001  -1.354767e+002 
4253125000  -4.319895e+001  -1.375891e+002 
4256250000  -4.289567e+001  -1.441026e+002 
4259375000  -4.251718e+001  -1.526443e+002 
4262500000  -4.260286e+001  -1.569794e+002 
4265625000  -4.223457e+001  -1.577139e+002 
4268750000  -4.127649e+001  -1.624462e+002 
4271875000  -4.123647e+001  -1.769982e+002 
4275000000  -4.111666e+001  1.760504e+002 
4278125000  -4.163942e+001  1.606929e+002 
4281250000  -4.278441e+001  1.619845e+002 
4284375000  -4.282327e+001  1.549772e+002 
4287500000  -4.378246e+001  1.517093e+002 
4290625000  -4.407949e+001  1.619227e+002 
4293750000  -4.197332e+001  1.590726e+002 
4296875000  -4.114299e+001  1.478651e+002 
4300000000  -4.185152e+001  1.324492e+002 
4303125000  -4.232144e+001  1.348641e+002 
4306250000  -4.121833e+001  1.353703e+002 
4309375000  -4.037329e+001  1.256067e+002 
4312500000  -4.014638e+001  1.112549e+002 
4315625000  -4.076619e+001  1.043659e+002 
4318750000  -4.136324e+001  9.835387e+001 
4321875000  -4.107991e+001  9.593733e+001 
4325000000  -4.081203e+001  9.166097e+001 
4328125000  -3.984146e+001  8.141130e+001 
4331250000  -4.011378e+001  6.825697e+001 
4334375000  -4.115125e+001  5.862273e+001 
4337500000  -4.257099e+001  5.765335e+001 
4340625000  -4.241593e+001  6.083730e+001 
4343750000  -4.147411e+001  5.405098e+001 
4346875000  -4.136650e+001  4.641575e+001 
4350000000  -4.185644e+001  3.793567e+001 
4353125000  -4.219462e+001  2.721494e+001 
4356250000  -4.484105e+001  3.197353e+001 
4359375000  -4.302774e+001  4.484150e+001 
4362500000  -4.000734e+001  3.521792e+001 
4365625000  -3.972867e+001  1.475979e+001 
4368750000  -4.042035e+001  3.700497e+000 
4371875000  -4.194499e+001  2.756747e+000 
4375000000  -4.120071e+001  -2.568831e+000 
4378125000  -4.091430e+001  -1.028163e+001 
4381250000  -4.107880e+001  -1.961251e+001 
4384375000  -4.138982e+001  -2.557320e+001 
4387500000  -4.216420e+001  -3.330926e+001 
4390625000  -4.259119e+001  -3.380545e+001 
4393750000  -4.206231e+001  -3.728352e+001 
4396875000  -4.176906e+001  -3.942654e+001 
4400000000  -4.121578e+001  -5.207976e+001 
4403125000  -4.221674e+001  -6.038872e+001 
4406250000  -4.284122e+001  -6.392724e+001 
4409375000  -4.350638e+001  -6.868177e+001 
4412500000  -4.381306e+001  -7.109872e+001 
4415625000  -4.361433e+001  -6.786140e+001 
4418750000  -4.239732e+001  -6.892003e+001 
