!Agilent Technologies,E8363B,MY43030201,A.06.04.32
!Agilent E8363B: A.06.04.32
!Date: Tuesday, November 11, 2014 21:42:07
!Correction: S21(Response(S21)) 
!S1P File: Measurement: S21:
# Hz S  dB   R 50
3000000000  -4.367158e+001  -1.587467e+002 
3003125000  -4.521852e+001  -1.633824e+002 
3006250000  -4.538466e+001  -1.655714e+002 
3009375000  -4.598722e+001  -1.614120e+002 
3012500000  -4.498346e+001  -1.674871e+002 
3015625000  -4.515683e+001  -1.757552e+002 
3018750000  -4.537447e+001  -1.746748e+002 
3021875000  -4.389165e+001  -1.748046e+002 
3025000000  -4.273006e+001  -1.791722e+002 
3028125000  -4.174782e+001  1.691014e+002 
3031250000  -4.103786e+001  1.547913e+002 
3034375000  -4.072344e+001  1.415132e+002 
3037500000  -4.160692e+001  1.302216e+002 
3040625000  -4.289785e+001  1.239807e+002 
3043750000  -4.355951e+001  1.171250e+002 
3046875000  -4.424961e+001  1.115888e+002 
3050000000  -4.518194e+001  1.019750e+002 
3053125000  -4.494468e+001  1.102114e+002 
3056250000  -4.497776e+001  1.122153e+002 
3059375000  -4.380545e+001  1.099886e+002 
3062500000  -4.240282e+001  1.043042e+002 
3065625000  -4.216473e+001  9.233503e+001 
3068750000  -4.185183e+001  8.443346e+001 
3071875000  -4.192132e+001  8.240291e+001 
3075000000  -4.116643e+001  7.342232e+001 
3078125000  -4.129652e+001  6.834025e+001 
3081250000  -4.134108e+001  6.146840e+001 
3084375000  -4.041073e+001  5.454467e+001 
3087500000  -4.069066e+001  4.706073e+001 
3090625000  -3.981885e+001  3.397140e+001 
3093750000  -4.112843e+001  2.556682e+001 
3096875000  -4.131365e+001  2.033278e+001 
3100000000  -4.096073e+001  1.567299e+001 
3103125000  -4.147984e+001  1.144502e+001 
3106250000  -4.094811e+001  5.551917e+000 
3109375000  -4.095548e+001  8.171336e-002 
3112500000  -4.097919e+001  -7.776199e+000 
3115625000  -4.085815e+001  -1.194201e+001 
3118750000  -4.074284e+001  -1.688104e+001 
3121875000  -4.032367e+001  -2.881763e+001 
3125000000  -4.212436e+001  -3.361230e+001 
3128125000  -4.204249e+001  -2.786264e+001 
3131250000  -3.963881e+001  -3.576511e+001 
3134375000  -3.895011e+001  -5.369214e+001 
3137500000  -3.971154e+001  -6.605324e+001 
3140625000  -4.095338e+001  -7.122359e+001 
3143750000  -4.175574e+001  -7.495081e+001 
3146875000  -4.116164e+001  -7.339519e+001 
3150000000  -4.049164e+001  -7.856047e+001 
3153125000  -4.077446e+001  -8.974674e+001 
3156250000  -4.135074e+001  -8.377325e+001 
3159375000  -3.913309e+001  -8.792068e+001 
3162500000  -3.775008e+001  -1.053655e+002 
3165625000  -3.900779e+001  -1.201909e+002 
3168750000  -3.898099e+001  -1.197256e+002 
3171875000  -3.852386e+001  -1.295250e+002 
3175000000  -3.911813e+001  -1.401286e+002 
3178125000  -3.872719e+001  -1.422507e+002 
3181250000  -3.809748e+001  -1.511778e+002 
3184375000  -3.793514e+001  -1.628488e+002 
3187500000  -3.919142e+001  -1.782470e+002 
3190625000  -4.093830e+001  1.740035e+002 
3193750000  -4.122695e+001  1.788498e+002 
3196875000  -4.098901e+001  1.777111e+002 
3200000000  -3.988424e+001  1.720352e+002 
3203125000  -3.958920e+001  1.638016e+002 
3206250000  -3.993490e+001  1.565066e+002 
3209375000  -3.955878e+001  1.473631e+002 
3212500000  -3.987403e+001  1.383182e+002 
3215625000  -3.952536e+001  1.355927e+002 
3218750000  -4.022773e+001  1.242065e+002 
3221875000  -4.075751e+001  1.181323e+002 
3225000000  -4.040364e+001  1.120803e+002 
3228125000  -4.106931e+001  1.048192e+002 
3231250000  -4.159684e+001  1.015951e+002 
3234375000  -4.097631e+001  9.714143e+001 
3237500000  -4.111495e+001  9.437905e+001 
3240625000  -4.047987e+001  8.644022e+001 
3243750000  -4.054565e+001  7.528142e+001 
3246875000  -4.078029e+001  6.637556e+001 
3250000000  -4.106448e+001  6.274170e+001 
3253125000  -4.141573e+001  5.860464e+001 
3256250000  -4.033871e+001  4.779633e+001 
3259375000  -4.104132e+001  3.462477e+001 
3262500000  -4.255964e+001  3.013081e+001 
3265625000  -4.270472e+001  3.167374e+001 
3268750000  -4.221114e+001  3.128107e+001 
3271875000  -4.171257e+001  2.546273e+001 
3275000000  -4.119547e+001  1.386801e+001 
3278125000  -4.172366e+001  7.138023e+000 
3281250000  -4.190187e+001  1.479548e+000 
3284375000  -4.106549e+001  -5.021738e+000 
3287500000  -4.176571e+001  -1.374963e+001 
3290625000  -4.170148e+001  -2.331803e+001 
3293750000  -4.159552e+001  -3.176492e+001 
3296875000  -4.252440e+001  -3.576850e+001 
3300000000  -4.201019e+001  -3.807172e+001 
3303125000  -4.091334e+001  -4.553157e+001 
3306250000  -4.094112e+001  -5.686723e+001 
3309375000  -4.089618e+001  -6.781864e+001 
3312500000  -4.139645e+001  -8.301257e+001 
3315625000  -4.235132e+001  -9.032043e+001 
3318750000  -4.407750e+001  -9.791187e+001 
3321875000  -4.567313e+001  -9.572773e+001 
3325000000  -4.479967e+001  -9.060694e+001 
3328125000  -4.396650e+001  -9.817253e+001 
3331250000  -4.259194e+001  -9.676287e+001 
3334375000  -4.050791e+001  -1.134330e+002 
3337500000  -4.101334e+001  -1.383024e+002 
3340625000  -4.287280e+001  -1.476713e+002 
3343750000  -4.461342e+001  -1.507662e+002 
3346875000  -4.398769e+001  -1.534061e+002 
3350000000  -4.366606e+001  -1.575934e+002 
3353125000  -4.372306e+001  -1.691461e+002 
3356250000  -4.355370e+001  -1.783972e+002 
3359375000  -4.425621e+001  1.698774e+002 
3362500000  -4.525487e+001  1.598553e+002 
3365625000  -4.594843e+001  1.552194e+002 
3368750000  -4.655704e+001  1.483761e+002 
3371875000  -4.702168e+001  1.408335e+002 
3375000000  -4.830215e+001  1.393140e+002 
3378125000  -4.969114e+001  1.318548e+002 
3381250000  -5.029314e+001  1.430569e+002 
3384375000  -4.733659e+001  1.568299e+002 
3387500000  -4.519566e+001  1.307029e+002 
3390625000  -4.693604e+001  1.062184e+002 
3393750000  -4.731426e+001  1.078078e+002 
3396875000  -4.654643e+001  1.047150e+002 
3400000000  -4.634405e+001  8.757330e+001 
3403125000  -4.686158e+001  8.517445e+001 
3406250000  -4.738041e+001  7.387759e+001 
3409375000  -4.734725e+001  6.681054e+001 
3412500000  -4.824028e+001  5.667721e+001 
3415625000  -4.878793e+001  5.250362e+001 
3418750000  -4.831729e+001  4.756402e+001 
3421875000  -4.900061e+001  4.109978e+001 
3425000000  -4.790173e+001  3.787029e+001 
3428125000  -4.755383e+001  3.085129e+001 
3431250000  -4.696232e+001  1.812095e+001 
3434375000  -4.654981e+001  7.328227e+000 
3437500000  -4.777686e+001  -3.245551e+000 
3440625000  -4.759377e+001  -2.560501e+000 
3443750000  -4.639520e+001  -8.846556e+000 
3446875000  -4.590320e+001  -2.466466e+001 
3450000000  -4.533159e+001  -3.848190e+001 
3453125000  -4.572970e+001  -5.914439e+001 
3456250000  -4.721873e+001  -6.790849e+001 
3459375000  -4.790769e+001  -6.910223e+001 
3462500000  -4.794752e+001  -7.475307e+001 
3465625000  -4.736031e+001  -8.816684e+001 
3468750000  -4.750903e+001  -9.303111e+001 
3471875000  -4.675887e+001  -1.006306e+002 
3475000000  -4.717064e+001  -1.131557e+002 
3478125000  -4.834212e+001  -1.270269e+002 
3481250000  -4.947720e+001  -1.288408e+002 
3484375000  -4.840294e+001  -1.317932e+002 
3487500000  -4.757511e+001  -1.374565e+002 
3490625000  -4.705490e+001  -1.522545e+002 
3493750000  -4.771515e+001  -1.627986e+002 
3496875000  -4.794397e+001  -1.654145e+002 
3500000000  -4.858085e+001  -1.675480e+002 
3503125000  -4.698296e+001  -1.715181e+002 
3506250000  -4.554514e+001  1.732399e+002 
3509375000  -4.622223e+001  1.525997e+002 
3512500000  -4.585438e+001  1.424860e+002 
3515625000  -4.750507e+001  1.357699e+002 
3518750000  -4.809657e+001  1.331287e+002 
3521875000  -4.849791e+001  1.201397e+002 
3525000000  -4.896073e+001  1.164352e+002 
3528125000  -4.770608e+001  1.239843e+002 
3531250000  -4.688817e+001  1.043130e+002 
3534375000  -4.740117e+001  9.108252e+001 
3537500000  -4.729305e+001  8.162747e+001 
3540625000  -4.967664e+001  8.272266e+001 
3543750000  -4.953097e+001  7.840054e+001 
3546875000  -4.879064e+001  8.463654e+001 
3550000000  -4.699118e+001  8.120984e+001 
3553125000  -4.618079e+001  5.849363e+001 
3556250000  -4.724727e+001  5.050821e+001 
3559375000  -4.675470e+001  4.749513e+001 
3562500000  -4.660411e+001  3.462252e+001 
3565625000  -4.758924e+001  2.769291e+001 
3568750000  -4.789738e+001  2.686692e+001 
3571875000  -4.679228e+001  2.281165e+001 
3575000000  -4.679932e+001  1.591471e+001 
3578125000  -4.777014e+001  1.024052e+001 
3581250000  -4.754232e+001  7.921800e+000 
3584375000  -4.577370e+001  3.725779e-002 
3587500000  -4.602232e+001  -9.744641e+000 
3590625000  -4.635971e+001  -2.201961e+001 
3593750000  -4.743756e+001  -2.328039e+001 
3596875000  -4.676858e+001  -1.721524e+001 
3600000000  -4.517759e+001  -2.639435e+001 
3603125000  -4.484386e+001  -4.352810e+001 
3606250000  -4.604687e+001  -5.066003e+001 
3609375000  -4.637555e+001  -5.572262e+001 
3612500000  -4.590316e+001  -6.185539e+001 
3615625000  -4.625956e+001  -6.568480e+001 
3618750000  -4.607663e+001  -7.026723e+001 
3621875000  -4.565773e+001  -7.502354e+001 
3625000000  -4.553641e+001  -8.028928e+001 
3628125000  -4.483236e+001  -8.073514e+001 
3631250000  -4.495034e+001  -9.236503e+001 
3634375000  -4.528637e+001  -9.587579e+001 
3637500000  -4.450499e+001  -9.838158e+001 
3640625000  -4.366772e+001  -1.046199e+002 
3643750000  -4.323701e+001  -1.120196e+002 
3646875000  -4.395892e+001  -1.226873e+002 
3650000000  -4.396476e+001  -1.288432e+002 
3653125000  -4.307043e+001  -1.385703e+002 
3656250000  -4.391021e+001  -1.479740e+002 
3659375000  -4.390371e+001  -1.471352e+002 
3662500000  -4.335955e+001  -1.562655e+002 
3665625000  -4.335510e+001  -1.596613e+002 
3668750000  -4.170980e+001  -1.631386e+002 
3671875000  -4.165614e+001  -1.792420e+002 
3675000000  -4.234492e+001  1.726315e+002 
3678125000  -4.248805e+001  1.658443e+002 
3681250000  -4.239546e+001  1.593902e+002 
3684375000  -4.262149e+001  1.505450e+002 
3687500000  -4.302335e+001  1.423176e+002 
3690625000  -4.356393e+001  1.385269e+002 
3693750000  -4.441672e+001  1.363622e+002 
3696875000  -4.387417e+001  1.343601e+002 
3700000000  -4.328765e+001  1.243766e+002 
3703125000  -4.350977e+001  1.173092e+002 
3706250000  -4.460579e+001  1.160716e+002 
3709375000  -4.367753e+001  1.155493e+002 
3712500000  -4.306777e+001  1.101290e+002 
3715625000  -4.186872e+001  9.928365e+001 
3718750000  -4.189900e+001  9.102241e+001 
3721875000  -4.199153e+001  7.993266e+001 
3725000000  -4.262940e+001  7.450002e+001 
3728125000  -4.258182e+001  6.759965e+001 
3731250000  -4.200047e+001  6.140740e+001 
3734375000  -4.224326e+001  5.384529e+001 
3737500000  -4.267244e+001  4.714774e+001 
3740625000  -4.336764e+001  4.327253e+001 
3743750000  -4.291484e+001  3.632812e+001 
3746875000  -4.322454e+001  2.775495e+001 
3750000000  -4.413977e+001  2.487191e+001 
3753125000  -4.377570e+001  2.172766e+001 
3756250000  -4.382052e+001  1.964431e+001 
3759375000  -4.355680e+001  1.345714e+001 
3762500000  -4.355580e+001  6.165850e+000 
3765625000  -4.428745e+001  2.137810e+000 
3768750000  -4.368182e+001  6.355008e+000 
3771875000  -4.226267e+001  -2.622417e+000 
3775000000  -4.209363e+001  -1.574418e+001 
3778125000  -4.275238e+001  -2.094503e+001 
3781250000  -4.273375e+001  -2.321420e+001 
3784375000  -4.235322e+001  -3.197247e+001 
3787500000  -4.258176e+001  -3.545546e+001 
3790625000  -4.301084e+001  -4.498918e+001 
3793750000  -4.263626e+001  -4.951288e+001 
3796875000  -4.179848e+001  -5.424422e+001 
3800000000  -4.086658e+001  -6.270340e+001 
3803125000  -4.147014e+001  -7.684790e+001 
3806250000  -4.246666e+001  -8.055540e+001 
3809375000  -4.194635e+001  -8.475499e+001 
3812500000  -4.174098e+001  -9.645000e+001 
3815625000  -4.291550e+001  -1.065593e+002 
3818750000  -4.447925e+001  -1.048801e+002 
3821875000  -4.328477e+001  -9.423781e+001 
3825000000  -4.152723e+001  -1.002688e+002 
3828125000  -4.031908e+001  -1.213598e+002 
3831250000  -4.151733e+001  -1.361412e+002 
3834375000  -4.357128e+001  -1.360577e+002 
3837500000  -4.400469e+001  -1.367885e+002 
3840625000  -4.257036e+001  -1.403751e+002 
3843750000  -4.209065e+001  -1.551454e+002 
3846875000  -4.336858e+001  -1.629221e+002 
3850000000  -4.395560e+001  -1.555709e+002 
3853125000  -4.369970e+001  -1.600394e+002 
3856250000  -4.292400e+001  -1.664227e+002 
3859375000  -4.305917e+001  -1.729290e+002 
3862500000  -4.200148e+001  1.745782e+002 
3865625000  -4.293734e+001  1.674946e+002 
3868750000  -4.247085e+001  1.660679e+002 
3871875000  -4.197404e+001  1.569052e+002 
3875000000  -4.281375e+001  1.458610e+002 
3878125000  -4.314271e+001  1.449859e+002 
3881250000  -4.364226e+001  1.429196e+002 
3884375000  -4.279943e+001  1.307668e+002 
3887500000  -4.321718e+001  1.254594e+002 
3890625000  -4.392393e+001  1.218751e+002 
3893750000  -4.397136e+001  1.171213e+002 
3896875000  -4.451654e+001  1.193294e+002 
3900000000  -4.414193e+001  1.094853e+002 
3903125000  -4.401184e+001  1.076511e+002 
3906250000  -4.363787e+001  9.929627e+001 
3909375000  -4.278330e+001  9.286187e+001 
3912500000  -4.365730e+001  8.301278e+001 
3915625000  -4.497823e+001  8.351497e+001 
3918750000  -4.418655e+001  8.053835e+001 
3921875000  -4.368700e+001  7.992262e+001 
3925000000  -4.337741e+001  6.930671e+001 
3928125000  -4.297340e+001  6.013755e+001 
3931250000  -4.370831e+001  5.219223e+001 
3934375000  -4.395705e+001  5.072237e+001 
3937500000  -4.466710e+001  4.921899e+001 
3940625000  -4.477378e+001  4.883416e+001 
3943750000  -4.346339e+001  4.222231e+001 
3946875000  -4.287121e+001  3.590793e+001 
3950000000  -4.435718e+001  2.478528e+001 
3953125000  -4.463861e+001  2.865579e+001 
3956250000  -4.265434e+001  2.540160e+001 
3959375000  -4.214043e+001  2.114395e+001 
3962500000  -4.152281e+001  8.650416e+000 
3965625000  -4.178873e+001  -4.017383e+000 
3968750000  -4.239513e+001  -1.328834e+001 
3971875000  -4.252047e+001  -1.751996e+001 
3975000000  -4.203005e+001  -1.823687e+001 
3978125000  -4.198387e+001  -2.765459e+001 
3981250000  -4.226258e+001  -3.599305e+001 
3984375000  -4.204667e+001  -4.491209e+001 
3987500000  -4.302818e+001  -4.779424e+001 
3990625000  -4.288087e+001  -4.974723e+001 
3993750000  -4.314527e+001  -5.892403e+001 
3996875000  -4.306079e+001  -6.340210e+001 
4000000000  -4.352818e+001  -6.871694e+001 
4003125000  -4.374555e+001  -6.660902e+001 
4006250000  -4.190336e+001  -7.169954e+001 
4009375000  -4.124530e+001  -9.058253e+001 
4012500000  -4.289175e+001  -9.821968e+001 
4015625000  -4.337607e+001  -9.799609e+001 
4018750000  -4.388023e+001  -9.933649e+001 
4021875000  -4.292324e+001  -1.112792e+002 
4025000000  -4.335202e+001  -1.168813e+002 
4028125000  -4.329564e+001  -1.240972e+002 
4031250000  -4.390035e+001  -1.306639e+002 
4034375000  -4.412122e+001  -1.328439e+002 
4037500000  -4.381648e+001  -1.367007e+002 
4040625000  -4.430189e+001  -1.448403e+002 
4043750000  -4.453386e+001  -1.470700e+002 
4046875000  -4.449003e+001  -1.506622e+002 
4050000000  -4.430736e+001  -1.585656e+002 
4053125000  -4.533796e+001  -1.626645e+002 
4056250000  -4.574932e+001  -1.592549e+002 
4059375000  -4.388269e+001  -1.597728e+002 
4062500000  -4.345456e+001  -1.689763e+002 
4065625000  -4.341283e+001  -1.746560e+002 
4068750000  -4.280546e+001  1.787495e+002 
4071875000  -4.224117e+001  1.665484e+002 
4075000000  -4.356820e+001  1.584696e+002 
4078125000  -4.401669e+001  1.562252e+002 
4081250000  -4.353818e+001  1.519569e+002 
4084375000  -4.359925e+001  1.392646e+002 
4087500000  -4.389631e+001  1.343882e+002 
4090625000  -4.458996e+001  1.327330e+002 
4093750000  -4.433032e+001  1.290503e+002 
4096875000  -4.419207e+001  1.217347e+002 
4100000000  -4.502687e+001  1.175662e+002 
4103125000  -4.570429e+001  1.187584e+002 
4106250000  -4.569878e+001  1.189805e+002 
4109375000  -4.451413e+001  1.138627e+002 
4112500000  -4.406760e+001  1.050135e+002 
4115625000  -4.466549e+001  1.006907e+002 
4118750000  -4.418159e+001  9.450777e+001 
4121875000  -4.383540e+001  8.657629e+001 
4125000000  -4.491618e+001  8.098578e+001 
4128125000  -4.515409e+001  8.683424e+001 
4131250000  -4.410372e+001  8.501820e+001 
4134375000  -4.146623e+001  7.705991e+001 
4137500000  -4.219148e+001  5.156809e+001 
4140625000  -4.413058e+001  4.721363e+001 
4143750000  -4.451066e+001  5.445757e+001 
4146875000  -4.381249e+001  5.499003e+001 
4150000000  -4.294393e+001  4.357232e+001 
4153125000  -4.325079e+001  3.523364e+001 
4156250000  -4.383710e+001  2.940477e+001 
4159375000  -4.407579e+001  3.349945e+001 
4162500000  -4.230585e+001  3.122388e+001 
4165625000  -4.172273e+001  1.924918e+001 
4168750000  -4.098204e+001  1.135738e+001 
4171875000  -4.146141e+001  -2.497450e+000 
4175000000  -4.187738e+001  -8.505513e+000 
4178125000  -4.237037e+001  -1.262495e+001 
4181250000  -4.214263e+001  -1.799068e+001 
4184375000  -4.276852e+001  -2.547135e+001 
4187500000  -4.231849e+001  -3.281312e+001 
4190625000  -4.292233e+001  -4.361080e+001 
4193750000  -4.438189e+001  -4.794268e+001 
4196875000  -4.527597e+001  -4.846045e+001 
4200000000  -4.579950e+001  -4.092024e+001 
4203125000  -4.468346e+001  -3.840913e+001 
4206250000  -4.150429e+001  -4.391483e+001 
4209375000  -4.143423e+001  -7.058163e+001 
4212500000  -4.412975e+001  -7.604018e+001 
4215625000  -4.388746e+001  -6.708242e+001 
4218750000  -4.283228e+001  -6.894368e+001 
4221875000  -4.075697e+001  -7.881108e+001 
4225000000  -4.234366e+001  -9.014795e+001 
4228125000  -4.235573e+001  -9.077512e+001 
4231250000  -4.096167e+001  -9.622984e+001 
4234375000  -4.093420e+001  -1.103851e+002 
4237500000  -4.103922e+001  -1.160697e+002 
4240625000  -4.128542e+001  -1.230806e+002 
4243750000  -4.272148e+001  -1.352495e+002 
4246875000  -4.336262e+001  -1.360044e+002 
4250000000  -4.296906e+001  -1.347232e+002 
4253125000  -4.275841e+001  -1.366091e+002 
4256250000  -4.254116e+001  -1.447808e+002 
4259375000  -4.264563e+001  -1.487316e+002 
4262500000  -4.187786e+001  -1.523556e+002 
4265625000  -4.238815e+001  -1.567518e+002 
4268750000  -4.115762e+001  -1.610605e+002 
4271875000  -4.098303e+001  -1.741472e+002 
4275000000  -4.044584e+001  1.778709e+002 
4278125000  -4.181791e+001  1.628625e+002 
4281250000  -4.240990e+001  1.616820e+002 
4284375000  -4.237543e+001  1.561987e+002 
4287500000  -4.391718e+001  1.530074e+002 
4290625000  -4.366996e+001  1.608671e+002 
4293750000  -4.120916e+001  1.626138e+002 
4296875000  -4.041198e+001  1.439296e+002 
4300000000  -4.158414e+001  1.359732e+002 
4303125000  -4.237554e+001  1.350243e+002 
4306250000  -4.091575e+001  1.347875e+002 
4309375000  -3.983588e+001  1.250192e+002 
4312500000  -3.965036e+001  1.136476e+002 
4315625000  -4.027809e+001  1.048940e+002 
4318750000  -4.101680e+001  9.928963e+001 
4321875000  -4.076386e+001  9.528080e+001 
4325000000  -4.033379e+001  9.209902e+001 
4328125000  -3.959684e+001  8.068106e+001 
4331250000  -3.999328e+001  6.796004e+001 
4334375000  -4.088024e+001  6.203750e+001 
4337500000  -4.199098e+001  6.018045e+001 
4340625000  -4.207662e+001  6.150726e+001 
4343750000  -4.117422e+001  5.760498e+001 
4346875000  -4.074629e+001  4.640355e+001 
4350000000  -4.139985e+001  3.562898e+001 
4353125000  -4.163799e+001  2.560360e+001 
4356250000  -4.357067e+001  3.267682e+001 
4359375000  -4.271352e+001  4.635251e+001 
4362500000  -3.936444e+001  3.489061e+001 
4365625000  -3.928245e+001  1.824073e+001 
4368750000  -4.043005e+001  4.554338e+000 
4371875000  -4.150927e+001  2.462993e+000 
4375000000  -4.072828e+001  -8.142470e-001 
4378125000  -4.075954e+001  -9.264400e+000 
4381250000  -4.062586e+001  -1.824350e+001 
4384375000  -4.090197e+001  -2.542035e+001 
4387500000  -4.166951e+001  -3.315573e+001 
4390625000  -4.239098e+001  -3.363178e+001 
4393750000  -4.135691e+001  -3.519855e+001 
4396875000  -4.128543e+001  -3.987520e+001 
4400000000  -4.095122e+001  -5.064288e+001 
4403125000  -4.188136e+001  -5.944170e+001 
4406250000  -4.210254e+001  -6.218016e+001 
4409375000  -4.258955e+001  -6.817037e+001 
4412500000  -4.335532e+001  -7.241031e+001 
4415625000  -4.335354e+001  -6.768594e+001 
4418750000  -4.210854e+001  -6.881313e+001 
