!Agilent Technologies,E8363B,MY43030201,A.06.04.32
!Agilent E8363B: A.06.04.32
!Date: Tuesday, November 11, 2014 21:47:55
!Correction: S21(Response(S21)) 
!S1P File: Measurement: S21:
# Hz S  dB   R 50
3000000000  -4.361726e+001  -1.626129e+002 
3003125000  -4.513710e+001  -1.662566e+002 
3006250000  -4.534943e+001  -1.686575e+002 
3009375000  -4.610791e+001  -1.644774e+002 
3012500000  -4.486699e+001  -1.708570e+002 
3015625000  -4.519449e+001  1.798106e+002 
3018750000  -4.550037e+001  -1.788287e+002 
3021875000  -4.392559e+001  -1.772954e+002 
3025000000  -4.255709e+001  1.766765e+002 
3028125000  -4.176686e+001  1.650689e+002 
3031250000  -4.080858e+001  1.515553e+002 
3034375000  -4.087881e+001  1.373632e+002 
3037500000  -4.157551e+001  1.259832e+002 
3040625000  -4.273904e+001  1.197845e+002 
3043750000  -4.332288e+001  1.140365e+002 
3046875000  -4.428556e+001  1.057895e+002 
3050000000  -4.507278e+001  1.017334e+002 
3053125000  -4.472903e+001  1.045494e+002 
3056250000  -4.466251e+001  1.080544e+002 
3059375000  -4.409530e+001  1.041805e+002 
3062500000  -4.254273e+001  9.988985e+001 
3065625000  -4.250004e+001  8.755624e+001 
3068750000  -4.197519e+001  8.040352e+001 
3071875000  -4.189041e+001  7.791504e+001 
3075000000  -4.116912e+001  7.012466e+001 
3078125000  -4.130593e+001  6.419804e+001 
3081250000  -4.131445e+001  5.738903e+001 
3084375000  -4.036096e+001  5.069385e+001 
3087500000  -4.058007e+001  4.300928e+001 
3090625000  -3.985292e+001  3.016162e+001 
3093750000  -4.086624e+001  2.137085e+001 
3096875000  -4.102686e+001  1.542312e+001 
3100000000  -4.117443e+001  1.158795e+001 
3103125000  -4.151182e+001  6.886748e+000 
3106250000  -4.095769e+001  1.082231e+000 
3109375000  -4.081583e+001  -3.443758e+000 
3112500000  -4.076884e+001  -1.175893e+001 
3115625000  -4.099628e+001  -1.690139e+001 
3118750000  -4.067407e+001  -2.130146e+001 
3121875000  -4.025750e+001  -3.332055e+001 
3125000000  -4.208871e+001  -3.760680e+001 
3128125000  -4.207854e+001  -3.260098e+001 
3131250000  -3.957127e+001  -3.996691e+001 
3134375000  -3.892403e+001  -5.748425e+001 
3137500000  -3.959018e+001  -7.018026e+001 
3140625000  -4.078753e+001  -7.409219e+001 
3143750000  -4.154976e+001  -7.852361e+001 
3146875000  -4.107491e+001  -7.706567e+001 
3150000000  -4.044337e+001  -8.284414e+001 
3153125000  -4.072208e+001  -9.194450e+001 
3156250000  -4.157983e+001  -8.882143e+001 
3159375000  -3.906681e+001  -9.199947e+001 
3162500000  -3.771351e+001  -1.085410e+002 
3165625000  -3.910540e+001  -1.234787e+002 
3168750000  -3.891983e+001  -1.247910e+002 
3171875000  -3.866441e+001  -1.338589e+002 
3175000000  -3.916054e+001  -1.437794e+002 
3178125000  -3.875681e+001  -1.461952e+002 
3181250000  -3.808517e+001  -1.551269e+002 
3184375000  -3.782256e+001  -1.668649e+002 
3187500000  -3.927293e+001  1.754812e+002 
3190625000  -4.098792e+001  1.697813e+002 
3193750000  -4.115869e+001  1.745491e+002 
3196875000  -4.118726e+001  1.735020e+002 
3200000000  -3.982909e+001  1.689845e+002 
3203125000  -3.987572e+001  1.604107e+002 
3206250000  -3.989433e+001  1.512100e+002 
3209375000  -3.971608e+001  1.422259e+002 
3212500000  -4.005919e+001  1.354109e+002 
3215625000  -3.952979e+001  1.311511e+002 
3218750000  -4.037030e+001  1.180028e+002 
3221875000  -4.055373e+001  1.123362e+002 
3225000000  -4.026619e+001  1.078656e+002 
3228125000  -4.109301e+001  9.982191e+001 
3231250000  -4.153707e+001  9.769196e+001 
3234375000  -4.114553e+001  9.304097e+001 
3237500000  -4.083595e+001  8.871802e+001 
3240625000  -4.039912e+001  8.144653e+001 
3243750000  -4.019999e+001  7.081190e+001 
3246875000  -4.078806e+001  6.138836e+001 
3250000000  -4.138752e+001  5.780935e+001 
3253125000  -4.132218e+001  5.364625e+001 
3256250000  -4.057595e+001  4.390970e+001 
3259375000  -4.094083e+001  3.117711e+001 
3262500000  -4.236037e+001  2.710915e+001 
3265625000  -4.269680e+001  2.668189e+001 
3268750000  -4.244549e+001  2.654619e+001 
3271875000  -4.166523e+001  2.001944e+001 
3275000000  -4.115184e+001  9.324532e+000 
3278125000  -4.179044e+001  2.340674e+000 
3281250000  -4.201625e+001  -9.495852e-001 
3284375000  -4.105413e+001  -8.623549e+000 
3287500000  -4.134137e+001  -1.664310e+001 
3290625000  -4.167039e+001  -2.610197e+001 
3293750000  -4.178244e+001  -3.448849e+001 
3296875000  -4.266978e+001  -3.973325e+001 
3300000000  -4.208968e+001  -4.048332e+001 
3303125000  -4.099568e+001  -5.133945e+001 
3306250000  -4.095329e+001  -6.147309e+001 
3309375000  -4.076833e+001  -7.300191e+001 
3312500000  -4.128769e+001  -8.684267e+001 
3315625000  -4.245251e+001  -9.446783e+001 
3318750000  -4.391002e+001  -1.013242e+002 
3321875000  -4.532181e+001  -9.952071e+001 
3325000000  -4.488577e+001  -9.939368e+001 
3328125000  -4.411174e+001  -9.891079e+001 
3331250000  -4.259679e+001  -9.955363e+001 
3334375000  -4.034473e+001  -1.184277e+002 
3337500000  -4.102095e+001  -1.412462e+002 
3340625000  -4.260018e+001  -1.544014e+002 
3343750000  -4.485171e+001  -1.533999e+002 
3346875000  -4.402702e+001  -1.599997e+002 
3350000000  -4.380817e+001  -1.628843e+002 
3353125000  -4.371532e+001  -1.714847e+002 
3356250000  -4.328485e+001  1.774851e+002 
3359375000  -4.423224e+001  1.651075e+002 
3362500000  -4.502445e+001  1.573625e+002 
3365625000  -4.578907e+001  1.496561e+002 
3368750000  -4.654380e+001  1.457634e+002 
3371875000  -4.721569e+001  1.386363e+002 
3375000000  -4.859284e+001  1.315301e+002 
3378125000  -4.882101e+001  1.300239e+002 
3381250000  -5.168474e+001  1.346314e+002 
3384375000  -4.774497e+001  1.551086e+002 
3387500000  -4.492324e+001  1.278424e+002 
3390625000  -4.701567e+001  1.041235e+002 
3393750000  -4.786622e+001  1.038040e+002 
3396875000  -4.646618e+001  1.006583e+002 
3400000000  -4.630799e+001  8.665984e+001 
3403125000  -4.723282e+001  7.781528e+001 
3406250000  -4.794260e+001  7.282590e+001 
3409375000  -4.727238e+001  5.913279e+001 
3412500000  -4.745070e+001  5.124528e+001 
3415625000  -4.836340e+001  4.814983e+001 
3418750000  -4.904629e+001  4.207488e+001 
3421875000  -4.947237e+001  3.765252e+001 
3425000000  -4.816383e+001  3.465471e+001 
3428125000  -4.760112e+001  2.571781e+001 
3431250000  -4.716877e+001  1.354581e+001 
3434375000  -4.693373e+001  2.844287e+000 
3437500000  -4.775874e+001  -6.383019e+000 
3440625000  -4.805518e+001  -1.045812e+001 
3443750000  -4.642313e+001  -1.424278e+001 
3446875000  -4.584151e+001  -2.920181e+001 
3450000000  -4.546002e+001  -4.550605e+001 
3453125000  -4.563799e+001  -6.056973e+001 
3456250000  -4.729087e+001  -6.853542e+001 
3459375000  -4.826838e+001  -7.420705e+001 
3462500000  -4.775550e+001  -7.743267e+001 
3465625000  -4.733746e+001  -9.290758e+001 
3468750000  -4.769807e+001  -9.628600e+001 
3471875000  -4.705296e+001  -1.047108e+002 
3475000000  -4.721119e+001  -1.175411e+002 
3478125000  -4.723269e+001  -1.305300e+002 
3481250000  -4.868226e+001  -1.368256e+002 
3484375000  -4.837151e+001  -1.327797e+002 
3487500000  -4.724654e+001  -1.402045e+002 
3490625000  -4.695808e+001  -1.535546e+002 
3493750000  -4.771849e+001  -1.663049e+002 
3496875000  -4.823167e+001  -1.700995e+002 
3500000000  -4.841539e+001  -1.750997e+002 
3503125000  -4.716522e+001  -1.748745e+002 
3506250000  -4.551362e+001  1.709366e+002 
3509375000  -4.552949e+001  1.486492e+002 
3512500000  -4.648844e+001  1.362276e+002 
3515625000  -4.721605e+001  1.316292e+002 
3518750000  -4.734535e+001  1.300791e+002 
3521875000  -4.755006e+001  1.208712e+002 
3525000000  -4.877625e+001  1.140635e+002 
3528125000  -4.724676e+001  1.127215e+002 
3531250000  -4.689997e+001  1.042385e+002 
3534375000  -4.701582e+001  8.240261e+001 
3537500000  -4.835349e+001  8.112718e+001 
3540625000  -4.861626e+001  7.167632e+001 
3543750000  -4.934629e+001  7.833525e+001 
3546875000  -4.880504e+001  8.034978e+001 
3550000000  -4.651971e+001  7.494131e+001 
3553125000  -4.599484e+001  5.089514e+001 
3556250000  -4.667318e+001  4.683221e+001 
3559375000  -4.637673e+001  4.243679e+001 
3562500000  -4.597435e+001  2.970363e+001 
3565625000  -4.713842e+001  2.310032e+001 
3568750000  -4.835203e+001  2.355798e+001 
3571875000  -4.727451e+001  1.833281e+001 
3575000000  -4.671015e+001  1.041916e+001 
3578125000  -4.743468e+001  6.270808e+000 
3581250000  -4.708699e+001  2.595926e+000 
3584375000  -4.603844e+001  -5.005069e+000 
3587500000  -4.563371e+001  -1.789288e+001 
3590625000  -4.639585e+001  -2.507273e+001 
3593750000  -4.739569e+001  -2.484492e+001 
3596875000  -4.664809e+001  -2.069598e+001 
3600000000  -4.476030e+001  -3.320822e+001 
3603125000  -4.545545e+001  -4.741242e+001 
3606250000  -4.566835e+001  -5.453337e+001 
3609375000  -4.579327e+001  -5.839778e+001 
3612500000  -4.608961e+001  -6.467271e+001 
3615625000  -4.642037e+001  -6.759807e+001 
3618750000  -4.617413e+001  -7.378938e+001 
3621875000  -4.526432e+001  -8.004819e+001 
3625000000  -4.560545e+001  -8.183327e+001 
3628125000  -4.483573e+001  -8.794489e+001 
3631250000  -4.470306e+001  -9.939466e+001 
3634375000  -4.570593e+001  -9.917223e+001 
3637500000  -4.432213e+001  -1.009128e+002 
3640625000  -4.394072e+001  -1.087025e+002 
3643750000  -4.299285e+001  -1.207729e+002 
3646875000  -4.359109e+001  -1.291302e+002 
3650000000  -4.376055e+001  -1.348521e+002 
3653125000  -4.339280e+001  -1.421335e+002 
3656250000  -4.381635e+001  -1.488149e+002 
3659375000  -4.355964e+001  -1.529290e+002 
3662500000  -4.334754e+001  -1.596629e+002 
3665625000  -4.353046e+001  -1.621051e+002 
3668750000  -4.184993e+001  -1.697884e+002 
3671875000  -4.111055e+001  1.772777e+002 
3675000000  -4.233546e+001  1.665743e+002 
3678125000  -4.230064e+001  1.629695e+002 
3681250000  -4.229517e+001  1.549388e+002 
3684375000  -4.242740e+001  1.496496e+002 
3687500000  -4.306283e+001  1.383633e+002 
3690625000  -4.351969e+001  1.353944e+002 
3693750000  -4.463407e+001  1.338530e+002 
3696875000  -4.385672e+001  1.291174e+002 
3700000000  -4.316862e+001  1.214471e+002 
3703125000  -4.349517e+001  1.143888e+002 
3706250000  -4.480544e+001  1.097516e+002 
3709375000  -4.388457e+001  1.110166e+002 
3712500000  -4.282698e+001  1.052264e+002 
3715625000  -4.164532e+001  9.628739e+001 
3718750000  -4.166509e+001  8.632445e+001 
3721875000  -4.153491e+001  7.709857e+001 
3725000000  -4.250751e+001  6.996271e+001 
3728125000  -4.226163e+001  6.471438e+001 
3731250000  -4.188800e+001  5.872647e+001 
3734375000  -4.191588e+001  5.158445e+001 
3737500000  -4.279078e+001  4.379568e+001 
3740625000  -4.282923e+001  3.757263e+001 
3743750000  -4.255778e+001  3.051759e+001 
3746875000  -4.328359e+001  2.343620e+001 
3750000000  -4.367432e+001  2.046726e+001 
3753125000  -4.380278e+001  1.778008e+001 
3756250000  -4.392377e+001  1.324508e+001 
3759375000  -4.360243e+001  6.640271e+000 
3762500000  -4.371322e+001  4.595486e+000 
3765625000  -4.399727e+001  -3.381674e+000 
3768750000  -4.332452e+001  -2.463818e+000 
3771875000  -4.207320e+001  -9.026394e+000 
3775000000  -4.197559e+001  -2.040778e+001 
3778125000  -4.270319e+001  -2.588457e+001 
3781250000  -4.270190e+001  -2.958522e+001 
3784375000  -4.249926e+001  -3.624707e+001 
3787500000  -4.233920e+001  -4.012919e+001 
3790625000  -4.313015e+001  -5.102771e+001 
3793750000  -4.276143e+001  -5.468430e+001 
3796875000  -4.150992e+001  -6.211069e+001 
3800000000  -4.071130e+001  -6.623256e+001 
3803125000  -4.174607e+001  -7.829513e+001 
3806250000  -4.264019e+001  -8.334788e+001 
3809375000  -4.181660e+001  -8.949636e+001 
3812500000  -4.170776e+001  -9.923033e+001 
3815625000  -4.281323e+001  -1.110128e+002 
3818750000  -4.474348e+001  -1.072625e+002 
3821875000  -4.299377e+001  -1.011469e+002 
3825000000  -4.140464e+001  -1.038968e+002 
3828125000  -4.069960e+001  -1.259832e+002 
3831250000  -4.129236e+001  -1.409863e+002 
3834375000  -4.394253e+001  -1.443799e+002 
3837500000  -4.361512e+001  -1.388843e+002 
3840625000  -4.237893e+001  -1.460112e+002 
3843750000  -4.190702e+001  -1.587690e+002 
3846875000  -4.321101e+001  -1.675516e+002 
3850000000  -4.409882e+001  -1.600203e+002 
3853125000  -4.355118e+001  -1.630130e+002 
3856250000  -4.281030e+001  -1.724451e+002 
3859375000  -4.225301e+001  -1.783180e+002 
3862500000  -4.189749e+001  1.680675e+002 
3865625000  -4.244210e+001  1.645816e+002 
3868750000  -4.223794e+001  1.594829e+002 
3871875000  -4.181587e+001  1.510140e+002 
3875000000  -4.245391e+001  1.407182e+002 
3878125000  -4.344777e+001  1.363983e+002 
3881250000  -4.352700e+001  1.367281e+002 
3884375000  -4.270802e+001  1.286585e+002 
3887500000  -4.326400e+001  1.187700e+002 
3890625000  -4.380624e+001  1.168608e+002 
3893750000  -4.436201e+001  1.126354e+002 
3896875000  -4.423955e+001  1.122864e+002 
3900000000  -4.441687e+001  1.069661e+002 
3903125000  -4.350600e+001  1.015854e+002 
3906250000  -4.346958e+001  9.850964e+001 
3909375000  -4.273417e+001  8.904139e+001 
3912500000  -4.366002e+001  7.718920e+001 
3915625000  -4.486126e+001  7.967766e+001 
3918750000  -4.456708e+001  7.752545e+001 
3921875000  -4.408968e+001  7.235281e+001 
3925000000  -4.298334e+001  6.487359e+001 
3928125000  -4.330346e+001  5.808375e+001 
3931250000  -4.359415e+001  4.845381e+001 
3934375000  -4.387139e+001  4.680750e+001 
3937500000  -4.476627e+001  4.543772e+001 
3940625000  -4.465771e+001  4.433469e+001 
3943750000  -4.337983e+001  3.807493e+001 
3946875000  -4.269542e+001  2.928324e+001 
3950000000  -4.374501e+001  1.748700e+001 
3953125000  -4.452973e+001  2.251483e+001 
3956250000  -4.260783e+001  1.900551e+001 
3959375000  -4.190744e+001  1.191498e+001 
3962500000  -4.138289e+001  1.253460e+000 
3965625000  -4.204662e+001  -9.868646e+000 
3968750000  -4.242593e+001  -1.819819e+001 
3971875000  -4.259660e+001  -1.948797e+001 
3975000000  -4.197243e+001  -2.492338e+001 
3978125000  -4.223928e+001  -3.239532e+001 
3981250000  -4.181104e+001  -3.907100e+001 
3984375000  -4.264260e+001  -5.100300e+001 
3987500000  -4.293800e+001  -5.207308e+001 
3990625000  -4.295541e+001  -5.587347e+001 
3993750000  -4.276468e+001  -6.088161e+001 
3996875000  -4.300041e+001  -6.977998e+001 
4000000000  -4.401371e+001  -7.146820e+001 
4003125000  -4.360817e+001  -7.452746e+001 
4006250000  -4.219216e+001  -7.814867e+001 
4009375000  -4.141958e+001  -9.568124e+001 
4012500000  -4.257492e+001  -1.024778e+002 
4015625000  -4.390850e+001  -1.025299e+002 
4018750000  -4.355493e+001  -1.065580e+002 
4021875000  -4.311585e+001  -1.154632e+002 
4025000000  -4.299593e+001  -1.221955e+002 
4028125000  -4.342502e+001  -1.286122e+002 
4031250000  -4.397728e+001  -1.353161e+002 
4034375000  -4.392202e+001  -1.372837e+002 
4037500000  -4.392695e+001  -1.433487e+002 
4040625000  -4.400918e+001  -1.477286e+002 
4043750000  -4.437061e+001  -1.533276e+002 
4046875000  -4.434547e+001  -1.569258e+002 
4050000000  -4.465544e+001  -1.628573e+002 
4053125000  -4.510398e+001  -1.690965e+002 
4056250000  -4.590820e+001  -1.658177e+002 
4059375000  -4.396474e+001  -1.639395e+002 
4062500000  -4.370169e+001  -1.752055e+002 
4065625000  -4.353329e+001  1.796435e+002 
4068750000  -4.291158e+001  1.724084e+002 
4071875000  -4.292593e+001  1.607316e+002 
4075000000  -4.386251e+001  1.553894e+002 
4078125000  -4.451089e+001  1.488558e+002 
4081250000  -4.341454e+001  1.464037e+002 
4084375000  -4.333089e+001  1.390820e+002 
4087500000  -4.412591e+001  1.288220e+002 
4090625000  -4.490386e+001  1.272316e+002 
4093750000  -4.457627e+001  1.243353e+002 
4096875000  -4.427196e+001  1.161423e+002 
4100000000  -4.535227e+001  1.103661e+002 
4103125000  -4.598774e+001  1.128953e+002 
4106250000  -4.545287e+001  1.140724e+002 
4109375000  -4.381141e+001  1.087242e+002 
4112500000  -4.407701e+001  9.929449e+001 
4115625000  -4.397567e+001  9.660994e+001 
4118750000  -4.395238e+001  9.028593e+001 
4121875000  -4.411824e+001  8.455522e+001 
4125000000  -4.471160e+001  7.838535e+001 
4128125000  -4.511983e+001  7.985228e+001 
4131250000  -4.394981e+001  8.610406e+001 
4134375000  -4.168831e+001  7.061140e+001 
4137500000  -4.235493e+001  4.879289e+001 
4140625000  -4.420784e+001  4.264609e+001 
4143750000  -4.527336e+001  4.984362e+001 
4146875000  -4.423266e+001  4.816634e+001 
4150000000  -4.284494e+001  3.925077e+001 
4153125000  -4.332294e+001  3.009770e+001 
4156250000  -4.409345e+001  2.671909e+001 
4159375000  -4.362885e+001  2.955125e+001 
4162500000  -4.278321e+001  2.694977e+001 
4165625000  -4.159314e+001  1.226295e+001 
4168750000  -4.102105e+001  4.136781e+000 
4171875000  -4.099031e+001  -5.472134e+000 
4175000000  -4.166013e+001  -1.453504e+001 
4178125000  -4.242521e+001  -1.659501e+001 
4181250000  -4.216465e+001  -2.422873e+001 
4184375000  -4.255401e+001  -3.141954e+001 
4187500000  -4.285175e+001  -3.904140e+001 
4190625000  -4.257007e+001  -4.821889e+001 
4193750000  -4.414352e+001  -5.338298e+001 
4196875000  -4.487542e+001  -5.436390e+001 
4200000000  -4.632565e+001  -4.730386e+001 
4203125000  -4.449934e+001  -3.762798e+001 
4206250000  -4.121965e+001  -4.902789e+001 
4209375000  -4.127431e+001  -7.236433e+001 
4212500000  -4.381002e+001  -8.003999e+001 
4215625000  -4.446277e+001  -7.248167e+001 
4218750000  -4.244751e+001  -7.436055e+001 
4221875000  -4.097923e+001  -8.550768e+001 
4225000000  -4.261366e+001  -9.641455e+001 
4228125000  -4.255051e+001  -9.459550e+001 
4231250000  -4.074736e+001  -1.038955e+002 
4234375000  -4.114980e+001  -1.143416e+002 
4237500000  -4.063406e+001  -1.201696e+002 
4240625000  -4.136086e+001  -1.288676e+002 
4243750000  -4.252889e+001  -1.407705e+002 
4246875000  -4.299260e+001  -1.393504e+002 
4250000000  -4.293907e+001  -1.400592e+002 
4253125000  -4.295164e+001  -1.425462e+002 
4256250000  -4.254287e+001  -1.462257e+002 
4259375000  -4.230879e+001  -1.568800e+002 
4262500000  -4.264932e+001  -1.591311e+002 
4265625000  -4.242926e+001  -1.629986e+002 
4268750000  -4.109496e+001  -1.694058e+002 
4271875000  -4.092215e+001  -1.788181e+002 
4275000000  -4.021761e+001  1.722716e+002 
4278125000  -4.176256e+001  1.585965e+002 
4281250000  -4.268564e+001  1.584205e+002 
4284375000  -4.226102e+001  1.542331e+002 
4287500000  -4.377691e+001  1.472016e+002 
4290625000  -4.390756e+001  1.581514e+002 
4293750000  -4.163834e+001  1.555652e+002 
4296875000  -4.052565e+001  1.402727e+002 
4300000000  -4.134676e+001  1.297198e+002 
4303125000  -4.166356e+001  1.308443e+002 
4306250000  -4.078468e+001  1.298613e+002 
4309375000  -4.002792e+001  1.208327e+002 
4312500000  -3.961358e+001  1.083766e+002 
4315625000  -4.027340e+001  1.001087e+002 
4318750000  -4.086903e+001  9.412697e+001 
4321875000  -4.092387e+001  9.069167e+001 
4325000000  -4.049449e+001  8.709023e+001 
4328125000  -3.947293e+001  7.496889e+001 
4331250000  -4.002914e+001  6.240533e+001 
4334375000  -4.087123e+001  5.486232e+001 
4337500000  -4.199073e+001  5.284388e+001 
4340625000  -4.247398e+001  5.653824e+001 
4343750000  -4.098087e+001  5.100078e+001 
4346875000  -4.110977e+001  4.072078e+001 
4350000000  -4.111285e+001  3.022531e+001 
4353125000  -4.197733e+001  2.520941e+001 
4356250000  -4.394878e+001  2.931811e+001 
4359375000  -4.295570e+001  3.928278e+001 
4362500000  -3.972493e+001  3.310389e+001 
4365625000  -3.944284e+001  1.006221e+001 
4368750000  -4.066618e+001  -1.051873e+000 
4371875000  -4.121984e+001  -1.497869e+000 
4375000000  -4.062397e+001  -6.510695e+000 
4378125000  -4.078369e+001  -1.487938e+001 
4381250000  -4.069662e+001  -2.238369e+001 
4384375000  -4.035595e+001  -3.132813e+001 
4387500000  -4.151552e+001  -3.863517e+001 
4390625000  -4.231086e+001  -3.873628e+001 
4393750000  -4.195260e+001  -4.049416e+001 
4396875000  -4.132048e+001  -4.525777e+001 
4400000000  -4.091171e+001  -5.430170e+001 
4403125000  -4.172622e+001  -6.358168e+001 
4406250000  -4.229229e+001  -6.809179e+001 
4409375000  -4.242548e+001  -7.267661e+001 
4412500000  -4.375396e+001  -7.486713e+001 
4415625000  -4.334266e+001  -7.138961e+001 
4418750000  -4.183939e+001  -7.427927e+001 
