!Agilent Technologies,E8363B,MY43030201,A.06.04.32
!Agilent E8363B: A.06.04.32
!Date: Tuesday, November 11, 2014 21:46:50
!Correction: S21(Response(S21)) 
!S1P File: Measurement: S21:
# Hz S  dB   R 50
3000000000  -4.359818e+001  -1.617434e+002 
3003125000  -4.559220e+001  -1.662923e+002 
3006250000  -4.559484e+001  -1.675045e+002 
3009375000  -4.608047e+001  -1.647614e+002 
3012500000  -4.498912e+001  -1.716348e+002 
3015625000  -4.508433e+001  -1.783949e+002 
3018750000  -4.514501e+001  -1.785137e+002 
3021875000  -4.407592e+001  -1.788995e+002 
3025000000  -4.249834e+001  1.767245e+002 
3028125000  -4.193164e+001  1.652444e+002 
3031250000  -4.110813e+001  1.524819e+002 
3034375000  -4.077051e+001  1.379546e+002 
3037500000  -4.174381e+001  1.279482e+002 
3040625000  -4.306551e+001  1.202597e+002 
3043750000  -4.336076e+001  1.138903e+002 
3046875000  -4.428495e+001  1.055581e+002 
3050000000  -4.549145e+001  1.023219e+002 
3053125000  -4.467072e+001  1.065056e+002 
3056250000  -4.477895e+001  1.088702e+002 
3059375000  -4.392421e+001  1.062358e+002 
3062500000  -4.238173e+001  1.015796e+002 
3065625000  -4.215114e+001  9.024066e+001 
3068750000  -4.170688e+001  8.025685e+001 
3071875000  -4.201243e+001  7.913951e+001 
3075000000  -4.131208e+001  7.142820e+001 
3078125000  -4.131506e+001  6.346975e+001 
3081250000  -4.141489e+001  5.782088e+001 
3084375000  -4.032930e+001  5.123007e+001 
3087500000  -4.072095e+001  4.484953e+001 
3090625000  -3.998145e+001  3.074225e+001 
3093750000  -4.097469e+001  2.255630e+001 
3096875000  -4.131836e+001  1.618464e+001 
3100000000  -4.113558e+001  1.123725e+001 
3103125000  -4.127626e+001  7.066998e+000 
3106250000  -4.100109e+001  1.648365e+000 
3109375000  -4.101811e+001  -3.273977e+000 
3112500000  -4.081219e+001  -1.202990e+001 
3115625000  -4.086017e+001  -1.564652e+001 
3118750000  -4.077453e+001  -2.047191e+001 
3121875000  -4.027328e+001  -3.344102e+001 
3125000000  -4.219583e+001  -3.613813e+001 
3128125000  -4.193012e+001  -2.969499e+001 
3131250000  -3.938942e+001  -3.925434e+001 
3134375000  -3.884617e+001  -5.665649e+001 
3137500000  -3.942437e+001  -6.969534e+001 
3140625000  -4.091048e+001  -7.378214e+001 
3143750000  -4.166213e+001  -7.723119e+001 
3146875000  -4.091471e+001  -7.736172e+001 
3150000000  -4.034781e+001  -8.291856e+001 
3153125000  -4.080586e+001  -9.143514e+001 
3156250000  -4.136966e+001  -8.915305e+001 
3159375000  -3.917076e+001  -9.330212e+001 
3162500000  -3.758921e+001  -1.082455e+002 
3165625000  -3.908951e+001  -1.229992e+002 
3168750000  -3.881608e+001  -1.229292e+002 
3171875000  -3.848592e+001  -1.334217e+002 
3175000000  -3.915528e+001  -1.429194e+002 
3178125000  -3.879847e+001  -1.458537e+002 
3181250000  -3.807089e+001  -1.549007e+002 
3184375000  -3.784067e+001  -1.679135e+002 
3187500000  -3.927932e+001  1.775843e+002 
3190625000  -4.090252e+001  1.698529e+002 
3193750000  -4.105453e+001  1.756409e+002 
3196875000  -4.097635e+001  1.746536e+002 
3200000000  -3.988860e+001  1.690763e+002 
3203125000  -3.971468e+001  1.594063e+002 
3206250000  -3.968176e+001  1.521112e+002 
3209375000  -3.952477e+001  1.431395e+002 
3212500000  -3.995451e+001  1.357099e+002 
3215625000  -3.978805e+001  1.334394e+002 
3218750000  -4.042325e+001  1.209342e+002 
3221875000  -4.058809e+001  1.131239e+002 
3225000000  -4.051105e+001  1.089077e+002 
3228125000  -4.105451e+001  1.012063e+002 
3231250000  -4.146959e+001  9.811680e+001 
3234375000  -4.095425e+001  9.449364e+001 
3237500000  -4.114672e+001  9.046182e+001 
3240625000  -4.021743e+001  8.315458e+001 
3243750000  -4.041198e+001  7.079897e+001 
3246875000  -4.063848e+001  6.264183e+001 
3250000000  -4.119703e+001  5.815914e+001 
3253125000  -4.117698e+001  5.372282e+001 
3256250000  -4.016589e+001  4.379858e+001 
3259375000  -4.077704e+001  3.193624e+001 
3262500000  -4.246321e+001  2.704766e+001 
3265625000  -4.254655e+001  2.892421e+001 
3268750000  -4.266370e+001  2.751882e+001 
3271875000  -4.183278e+001  2.030188e+001 
3275000000  -4.113384e+001  9.863870e+000 
3278125000  -4.166570e+001  2.589110e+000 
3281250000  -4.177381e+001  -3.731460e-001 
3284375000  -4.103231e+001  -8.410420e+000 
3287500000  -4.170071e+001  -1.719888e+001 
3290625000  -4.139109e+001  -2.544482e+001 
3293750000  -4.152318e+001  -3.485633e+001 
3296875000  -4.280599e+001  -3.835986e+001 
3300000000  -4.202777e+001  -4.006237e+001 
3303125000  -4.068961e+001  -5.013758e+001 
3306250000  -4.060609e+001  -6.117143e+001 
3309375000  -4.059631e+001  -7.127554e+001 
3312500000  -4.091759e+001  -8.560559e+001 
3315625000  -4.234044e+001  -9.493542e+001 
3318750000  -4.396672e+001  -1.018304e+002 
3321875000  -4.493837e+001  -9.828050e+001 
3325000000  -4.593225e+001  -9.465836e+001 
3328125000  -4.404776e+001  -9.775635e+001 
3331250000  -4.251974e+001  -9.812897e+001 
3334375000  -4.012362e+001  -1.185361e+002 
3337500000  -4.077707e+001  -1.411230e+002 
3340625000  -4.263214e+001  -1.515128e+002 
3343750000  -4.463652e+001  -1.541513e+002 
3346875000  -4.390772e+001  -1.554488e+002 
3350000000  -4.366958e+001  -1.625954e+002 
3353125000  -4.363516e+001  -1.706899e+002 
3356250000  -4.348742e+001  1.770844e+002 
3359375000  -4.415530e+001  1.660890e+002 
3362500000  -4.517050e+001  1.568891e+002 
3365625000  -4.583964e+001  1.538986e+002 
3368750000  -4.690656e+001  1.436230e+002 
3371875000  -4.662618e+001  1.406107e+002 
3375000000  -4.930198e+001  1.336702e+002 
3378125000  -4.920453e+001  1.311441e+002 
3381250000  -5.100303e+001  1.398075e+002 
3384375000  -4.716082e+001  1.544176e+002 
3387500000  -4.444203e+001  1.255513e+002 
3390625000  -4.673920e+001  1.081130e+002 
3393750000  -4.755207e+001  1.022489e+002 
3396875000  -4.614035e+001  1.010460e+002 
3400000000  -4.620934e+001  8.931753e+001 
3403125000  -4.671707e+001  7.962811e+001 
3406250000  -4.769487e+001  7.166829e+001 
3409375000  -4.753458e+001  5.990253e+001 
3412500000  -4.794378e+001  5.354834e+001 
3415625000  -4.866454e+001  4.927590e+001 
3418750000  -4.860025e+001  4.271925e+001 
3421875000  -4.883918e+001  4.062603e+001 
3425000000  -4.782331e+001  3.786040e+001 
3428125000  -4.716006e+001  3.002595e+001 
3431250000  -4.676652e+001  1.600445e+001 
3434375000  -4.681586e+001  2.115394e+000 
3437500000  -4.737826e+001  -4.293080e+000 
3440625000  -4.767628e+001  -9.165869e+000 
3443750000  -4.649858e+001  -1.395256e+001 
3446875000  -4.564001e+001  -2.492408e+001 
3450000000  -4.511003e+001  -4.308739e+001 
3453125000  -4.575550e+001  -5.991118e+001 
3456250000  -4.753978e+001  -7.057224e+001 
3459375000  -4.806678e+001  -7.437783e+001 
3462500000  -4.755592e+001  -7.574667e+001 
3465625000  -4.733350e+001  -8.851027e+001 
3468750000  -4.748570e+001  -9.605921e+001 
3471875000  -4.718516e+001  -1.047231e+002 
3475000000  -4.719809e+001  -1.158955e+002 
3478125000  -4.757152e+001  -1.289993e+002 
3481250000  -4.928900e+001  -1.359394e+002 
3484375000  -4.864083e+001  -1.337160e+002 
3487500000  -4.758525e+001  -1.420916e+002 
3490625000  -4.700940e+001  -1.567678e+002 
3493750000  -4.760410e+001  -1.677530e+002 
3496875000  -4.799133e+001  -1.678722e+002 
3500000000  -4.821106e+001  -1.720802e+002 
3503125000  -4.737333e+001  -1.745574e+002 
3506250000  -4.550726e+001  1.709326e+002 
3509375000  -4.555096e+001  1.488983e+002 
3512500000  -4.644893e+001  1.379170e+002 
3515625000  -4.736138e+001  1.322952e+002 
3518750000  -4.754670e+001  1.297140e+002 
3521875000  -4.829498e+001  1.169490e+002 
3525000000  -4.884085e+001  1.125043e+002 
3528125000  -4.747502e+001  1.163327e+002 
3531250000  -4.701233e+001  1.053106e+002 
3534375000  -4.710123e+001  8.558277e+001 
3537500000  -4.785236e+001  7.898639e+001 
3540625000  -4.900889e+001  7.477316e+001 
3543750000  -4.929320e+001  7.700639e+001 
3546875000  -4.857949e+001  8.033295e+001 
3550000000  -4.599208e+001  7.565437e+001 
3553125000  -4.622242e+001  5.433206e+001 
3556250000  -4.720086e+001  4.576887e+001 
3559375000  -4.661280e+001  4.167559e+001 
3562500000  -4.672369e+001  3.241231e+001 
3565625000  -4.744191e+001  2.434709e+001 
3568750000  -4.793126e+001  2.246189e+001 
3571875000  -4.748366e+001  2.037530e+001 
3575000000  -4.677977e+001  7.783747e+000 
3578125000  -4.782914e+001  7.132816e+000 
3581250000  -4.738594e+001  1.001513e+000 
3584375000  -4.623938e+001  -4.091839e+000 
3587500000  -4.571003e+001  -1.661616e+001 
3590625000  -4.642777e+001  -2.425989e+001 
3593750000  -4.815687e+001  -2.948489e+001 
3596875000  -4.695432e+001  -2.111866e+001 
3600000000  -4.499068e+001  -3.287947e+001 
3603125000  -4.482594e+001  -4.713781e+001 
3606250000  -4.586949e+001  -5.164718e+001 
3609375000  -4.634144e+001  -5.651366e+001 
3612500000  -4.627882e+001  -6.482474e+001 
3615625000  -4.675745e+001  -6.819274e+001 
3618750000  -4.591348e+001  -7.173076e+001 
3621875000  -4.540507e+001  -7.897008e+001 
3625000000  -4.560007e+001  -8.044322e+001 
3628125000  -4.486073e+001  -8.528545e+001 
3631250000  -4.526866e+001  -9.476368e+001 
3634375000  -4.534822e+001  -1.007160e+002 
3637500000  -4.442650e+001  -9.927672e+001 
3640625000  -4.375120e+001  -1.071131e+002 
3643750000  -4.333694e+001  -1.201628e+002 
3646875000  -4.365641e+001  -1.297163e+002 
3650000000  -4.400605e+001  -1.347995e+002 
3653125000  -4.314918e+001  -1.429819e+002 
3656250000  -4.411996e+001  -1.467742e+002 
3659375000  -4.373278e+001  -1.515827e+002 
3662500000  -4.339958e+001  -1.595759e+002 
3665625000  -4.355059e+001  -1.667317e+002 
3668750000  -4.198298e+001  -1.680252e+002 
3671875000  -4.174031e+001  1.759585e+002 
3675000000  -4.226287e+001  1.665213e+002 
3678125000  -4.259170e+001  1.621662e+002 
3681250000  -4.242760e+001  1.558671e+002 
3684375000  -4.263852e+001  1.475984e+002 
3687500000  -4.274925e+001  1.382094e+002 
3690625000  -4.356921e+001  1.319686e+002 
3693750000  -4.447361e+001  1.312836e+002 
3696875000  -4.392168e+001  1.284550e+002 
3700000000  -4.272788e+001  1.220654e+002 
3703125000  -4.342355e+001  1.146317e+002 
3706250000  -4.446870e+001  1.112580e+002 
3709375000  -4.388242e+001  1.096304e+002 
3712500000  -4.325182e+001  1.048265e+002 
3715625000  -4.195323e+001  9.452615e+001 
3718750000  -4.176506e+001  8.423910e+001 
3721875000  -4.179586e+001  7.628506e+001 
3725000000  -4.237457e+001  6.792895e+001 
3728125000  -4.248631e+001  6.711469e+001 
3731250000  -4.216228e+001  5.942308e+001 
3734375000  -4.191990e+001  5.174507e+001 
3737500000  -4.269007e+001  4.380590e+001 
3740625000  -4.325124e+001  3.574213e+001 
3743750000  -4.263906e+001  3.110847e+001 
3746875000  -4.298654e+001  2.161857e+001 
3750000000  -4.378596e+001  2.135705e+001 
3753125000  -4.357529e+001  1.678396e+001 
3756250000  -4.363633e+001  1.739358e+001 
3759375000  -4.363384e+001  8.522444e+000 
3762500000  -4.333606e+001  4.171533e+000 
3765625000  -4.431215e+001  -1.619990e+000 
3768750000  -4.323495e+001  -1.001468e+000 
3771875000  -4.189537e+001  -9.939848e+000 
3775000000  -4.217263e+001  -1.958547e+001 
3778125000  -4.260644e+001  -2.595730e+001 
3781250000  -4.253746e+001  -3.000538e+001 
3784375000  -4.230579e+001  -3.504802e+001 
3787500000  -4.234891e+001  -4.155350e+001 
3790625000  -4.308791e+001  -5.320825e+001 
3793750000  -4.246685e+001  -5.533707e+001 
3796875000  -4.183074e+001  -5.936549e+001 
3800000000  -4.068918e+001  -6.699301e+001 
3803125000  -4.167419e+001  -8.034229e+001 
3806250000  -4.247539e+001  -8.346526e+001 
3809375000  -4.178012e+001  -8.890633e+001 
3812500000  -4.192283e+001  -9.983442e+001 
3815625000  -4.299649e+001  -1.112118e+002 
3818750000  -4.453815e+001  -1.087560e+002 
3821875000  -4.349948e+001  -1.001311e+002 
3825000000  -4.143115e+001  -1.045988e+002 
3828125000  -4.029164e+001  -1.267080e+002 
3831250000  -4.158205e+001  -1.409133e+002 
3834375000  -4.386325e+001  -1.413778e+002 
3837500000  -4.375909e+001  -1.385050e+002 
3840625000  -4.203882e+001  -1.464244e+002 
3843750000  -4.161003e+001  -1.602437e+002 
3846875000  -4.350137e+001  -1.686169e+002 
3850000000  -4.405320e+001  -1.598339e+002 
3853125000  -4.390969e+001  -1.612944e+002 
3856250000  -4.269679e+001  -1.702345e+002 
3859375000  -4.227845e+001  -1.781830e+002 
3862500000  -4.240496e+001  1.706585e+002 
3865625000  -4.234862e+001  1.617019e+002 
3868750000  -4.202537e+001  1.611739e+002 
3871875000  -4.213634e+001  1.534788e+002 
3875000000  -4.232258e+001  1.435589e+002 
3878125000  -4.321574e+001  1.392105e+002 
3881250000  -4.354930e+001  1.384979e+002 
3884375000  -4.255667e+001  1.277071e+002 
3887500000  -4.324135e+001  1.201555e+002 
3890625000  -4.354515e+001  1.195691e+002 
3893750000  -4.386386e+001  1.148250e+002 
3896875000  -4.408319e+001  1.089917e+002 
3900000000  -4.422845e+001  1.080090e+002 
3903125000  -4.420263e+001  1.016229e+002 
3906250000  -4.342183e+001  9.739271e+001 
3909375000  -4.264691e+001  8.787583e+001 
3912500000  -4.350327e+001  7.759441e+001 
3915625000  -4.474740e+001  8.098637e+001 
3918750000  -4.471135e+001  7.791649e+001 
3921875000  -4.381791e+001  7.380350e+001 
3925000000  -4.292331e+001  6.792947e+001 
3928125000  -4.282325e+001  5.678284e+001 
3931250000  -4.337092e+001  4.992234e+001 
3934375000  -4.382581e+001  4.912746e+001 
3937500000  -4.443745e+001  4.275449e+001 
3940625000  -4.459689e+001  4.602454e+001 
3943750000  -4.342108e+001  3.680815e+001 
3946875000  -4.261707e+001  2.764114e+001 
3950000000  -4.379599e+001  2.207908e+001 
3953125000  -4.423295e+001  1.935847e+001 
3956250000  -4.304378e+001  2.100379e+001 
3959375000  -4.201223e+001  1.298978e+001 
3962500000  -4.118380e+001  3.482264e+000 
3965625000  -4.184186e+001  -6.908185e+000 
3968750000  -4.269038e+001  -1.673356e+001 
3971875000  -4.253025e+001  -2.092431e+001 
3975000000  -4.226168e+001  -2.477995e+001 
3978125000  -4.236356e+001  -3.094057e+001 
3981250000  -4.178905e+001  -4.010718e+001 
3984375000  -4.230844e+001  -4.973016e+001 
3987500000  -4.273457e+001  -5.279465e+001 
3990625000  -4.301430e+001  -5.567408e+001 
3993750000  -4.299606e+001  -6.283754e+001 
3996875000  -4.283280e+001  -6.818043e+001 
4000000000  -4.353662e+001  -7.295416e+001 
4003125000  -4.365708e+001  -7.114867e+001 
4006250000  -4.205075e+001  -7.840609e+001 
4009375000  -4.114275e+001  -9.522853e+001 
4012500000  -4.256263e+001  -1.013399e+002 
4015625000  -4.391197e+001  -1.031469e+002 
4018750000  -4.417270e+001  -1.083642e+002 
4021875000  -4.293343e+001  -1.155581e+002 
4025000000  -4.277277e+001  -1.206163e+002 
4028125000  -4.323526e+001  -1.311951e+002 
4031250000  -4.409536e+001  -1.347953e+002 
4034375000  -4.375923e+001  -1.388394e+002 
4037500000  -4.431266e+001  -1.432894e+002 
4040625000  -4.410023e+001  -1.465535e+002 
4043750000  -4.485595e+001  -1.526777e+002 
4046875000  -4.404711e+001  -1.575649e+002 
4050000000  -4.408596e+001  -1.628904e+002 
4053125000  -4.491271e+001  -1.675298e+002 
4056250000  -4.541529e+001  -1.639820e+002 
4059375000  -4.397507e+001  -1.668510e+002 
4062500000  -4.328925e+001  -1.750701e+002 
4065625000  -4.366993e+001  1.796985e+002 
4068750000  -4.327700e+001  1.712868e+002 
4071875000  -4.231413e+001  1.598366e+002 
4075000000  -4.352290e+001  1.513590e+002 
4078125000  -4.406376e+001  1.513810e+002 
4081250000  -4.354393e+001  1.463013e+002 
4084375000  -4.347764e+001  1.385687e+002 
4087500000  -4.421140e+001  1.289163e+002 
4090625000  -4.477357e+001  1.264289e+002 
4093750000  -4.450654e+001  1.243392e+002 
4096875000  -4.386317e+001  1.161913e+002 
4100000000  -4.500101e+001  1.119045e+002 
4103125000  -4.562229e+001  1.130862e+002 
4106250000  -4.508577e+001  1.136269e+002 
4109375000  -4.422478e+001  1.087292e+002 
4112500000  -4.439567e+001  9.864533e+001 
4115625000  -4.450431e+001  9.538850e+001 
4118750000  -4.367353e+001  9.167979e+001 
4121875000  -4.375414e+001  8.374198e+001 
4125000000  -4.461824e+001  7.359557e+001 
4128125000  -4.515273e+001  8.006864e+001 
4131250000  -4.385886e+001  8.215956e+001 
4134375000  -4.167920e+001  7.008397e+001 
4137500000  -4.180696e+001  4.679954e+001 
4140625000  -4.408546e+001  4.192611e+001 
4143750000  -4.495592e+001  4.543114e+001 
4146875000  -4.381499e+001  4.916268e+001 
4150000000  -4.282570e+001  3.898398e+001 
4153125000  -4.323888e+001  3.083297e+001 
4156250000  -4.393332e+001  2.696137e+001 
4159375000  -4.373340e+001  2.875868e+001 
4162500000  -4.252017e+001  2.679111e+001 
4165625000  -4.113536e+001  1.584825e+001 
4168750000  -4.112933e+001  3.615704e+000 
4171875000  -4.108371e+001  -6.729629e+000 
4175000000  -4.183823e+001  -1.467331e+001 
4178125000  -4.215730e+001  -1.823735e+001 
4181250000  -4.214318e+001  -2.403257e+001 
4184375000  -4.243043e+001  -3.087336e+001 
4187500000  -4.223947e+001  -3.740297e+001 
4190625000  -4.272325e+001  -4.778057e+001 
4193750000  -4.414803e+001  -5.459915e+001 
4196875000  -4.507289e+001  -5.525803e+001 
4200000000  -4.661377e+001  -4.945552e+001 
4203125000  -4.402213e+001  -3.761647e+001 
4206250000  -4.108511e+001  -4.816278e+001 
4209375000  -4.129480e+001  -7.356530e+001 
4212500000  -4.372539e+001  -8.281677e+001 
4215625000  -4.372757e+001  -7.189443e+001 
4218750000  -4.210563e+001  -7.342108e+001 
4221875000  -4.054762e+001  -8.423642e+001 
4225000000  -4.215876e+001  -9.792801e+001 
4228125000  -4.227961e+001  -9.564861e+001 
4231250000  -4.064543e+001  -1.040371e+002 
4234375000  -4.062069e+001  -1.139160e+002 
4237500000  -4.101854e+001  -1.186546e+002 
4240625000  -4.137378e+001  -1.296947e+002 
4243750000  -4.232477e+001  -1.405336e+002 
4246875000  -4.339707e+001  -1.409814e+002 
4250000000  -4.254887e+001  -1.400479e+002 
4253125000  -4.239189e+001  -1.409669e+002 
4256250000  -4.234946e+001  -1.466855e+002 
4259375000  -4.244336e+001  -1.527538e+002 
4262500000  -4.230792e+001  -1.594195e+002 
4265625000  -4.166003e+001  -1.628563e+002 
4268750000  -4.054457e+001  -1.687965e+002 
4271875000  -4.079712e+001  1.790131e+002 
4275000000  -4.024049e+001  1.704917e+002 
4278125000  -4.133088e+001  1.579240e+002 
4281250000  -4.273980e+001  1.573247e+002 
4284375000  -4.199619e+001  1.519043e+002 
4287500000  -4.360772e+001  1.486989e+002 
4290625000  -4.360466e+001  1.535292e+002 
4293750000  -4.149704e+001  1.564403e+002 
4296875000  -4.028809e+001  1.412986e+002 
4300000000  -4.097883e+001  1.298851e+002 
4303125000  -4.220960e+001  1.300443e+002 
4306250000  -4.083270e+001  1.292461e+002 
4309375000  -3.984986e+001  1.213278e+002 
4312500000  -3.966781e+001  1.080090e+002 
4315625000  -4.031066e+001  9.947748e+001 
4318750000  -4.058352e+001  9.286598e+001 
4321875000  -4.085796e+001  9.210109e+001 
4325000000  -4.017746e+001  8.701158e+001 
4328125000  -3.937287e+001  7.612187e+001 
4331250000  -3.979135e+001  6.250846e+001 
4334375000  -4.052599e+001  5.504178e+001 
4337500000  -4.201331e+001  5.242506e+001 
4340625000  -4.240153e+001  5.555402e+001 
4343750000  -4.115664e+001  5.111752e+001 
4346875000  -4.075059e+001  4.337321e+001 
4350000000  -4.097562e+001  3.234165e+001 
4353125000  -4.193643e+001  2.037567e+001 
4356250000  -4.402843e+001  2.718181e+001 
4359375000  -4.294768e+001  3.873440e+001 
4362500000  -3.963785e+001  2.819728e+001 
4365625000  -3.901429e+001  9.380446e+000 
4368750000  -4.031433e+001  2.097878e+000 
4371875000  -4.104443e+001  -2.225251e+000 
4375000000  -4.030792e+001  -8.285617e+000 
4378125000  -4.060768e+001  -1.604116e+001 
4381250000  -4.050407e+001  -2.300961e+001 
4384375000  -4.068531e+001  -3.058114e+001 
4387500000  -4.145751e+001  -3.853360e+001 
4390625000  -4.197162e+001  -4.122308e+001 
4393750000  -4.178799e+001  -3.995142e+001 
4396875000  -4.088725e+001  -4.595057e+001 
4400000000  -4.102214e+001  -5.652920e+001 
4403125000  -4.146208e+001  -6.521817e+001 
4406250000  -4.203827e+001  -7.009966e+001 
4409375000  -4.250963e+001  -7.373620e+001 
4412500000  -4.350557e+001  -7.671247e+001 
4415625000  -4.333521e+001  -7.439038e+001 
4418750000  -4.169446e+001  -7.309483e+001 
