!Agilent Technologies,E8363B,MY43030201,A.06.04.32
!Agilent E8363B: A.06.04.32
!Date: Tuesday, November 11, 2014 21:41:22
!Correction: S21(Response(S21)) 
!S1P File: Measurement: S21:
# Hz S  dB   R 50
3000000000  -4.373014e+001  -1.577788e+002 
3003125000  -4.531593e+001  -1.628077e+002 
3006250000  -4.523703e+001  -1.640946e+002 
3009375000  -4.595498e+001  -1.625470e+002 
3012500000  -4.490940e+001  -1.683816e+002 
3015625000  -4.479129e+001  -1.752504e+002 
3018750000  -4.525373e+001  -1.766109e+002 
3021875000  -4.399218e+001  -1.749354e+002 
3025000000  -4.230005e+001  1.797659e+002 
3028125000  -4.164089e+001  1.675975e+002 
3031250000  -4.096377e+001  1.559132e+002 
3034375000  -4.062140e+001  1.416044e+002 
3037500000  -4.143127e+001  1.317277e+002 
3040625000  -4.275735e+001  1.243423e+002 
3043750000  -4.327118e+001  1.171896e+002 
3046875000  -4.430168e+001  1.076470e+002 
3050000000  -4.528246e+001  1.071865e+002 
3053125000  -4.468674e+001  1.115765e+002 
3056250000  -4.469009e+001  1.124263e+002 
3059375000  -4.379005e+001  1.097875e+002 
3062500000  -4.250939e+001  1.041587e+002 
3065625000  -4.202352e+001  9.287170e+001 
3068750000  -4.162446e+001  8.510954e+001 
3071875000  -4.170485e+001  8.315807e+001 
3075000000  -4.127681e+001  7.521543e+001 
3078125000  -4.145237e+001  6.773034e+001 
3081250000  -4.123526e+001  6.000672e+001 
3084375000  -4.022163e+001  5.467854e+001 
3087500000  -4.055315e+001  4.743059e+001 
3090625000  -4.004406e+001  3.510351e+001 
3093750000  -4.097850e+001  2.559415e+001 
3096875000  -4.124687e+001  2.118871e+001 
3100000000  -4.141202e+001  1.535021e+001 
3103125000  -4.133167e+001  1.053076e+001 
3106250000  -4.099578e+001  4.884382e+000 
3109375000  -4.086720e+001  4.911726e-001 
3112500000  -4.084521e+001  -6.810092e+000 
3115625000  -4.076616e+001  -1.325978e+001 
3118750000  -4.066201e+001  -1.745891e+001 
3121875000  -4.026495e+001  -2.938216e+001 
3125000000  -4.187488e+001  -3.381742e+001 
3128125000  -4.192978e+001  -2.787280e+001 
3131250000  -3.952340e+001  -3.464613e+001 
3134375000  -3.892150e+001  -5.346259e+001 
3137500000  -3.946304e+001  -6.664441e+001 
3140625000  -4.112012e+001  -7.069103e+001 
3143750000  -4.181223e+001  -7.432776e+001 
3146875000  -4.113095e+001  -7.411762e+001 
3150000000  -4.046226e+001  -7.900660e+001 
3153125000  -4.067182e+001  -8.743840e+001 
3156250000  -4.154212e+001  -8.437470e+001 
3159375000  -3.938519e+001  -8.924207e+001 
3162500000  -3.759697e+001  -1.056088e+002 
3165625000  -3.918903e+001  -1.190026e+002 
3168750000  -3.902810e+001  -1.211176e+002 
3171875000  -3.845601e+001  -1.295537e+002 
3175000000  -3.922816e+001  -1.400216e+002 
3178125000  -3.876951e+001  -1.417829e+002 
3181250000  -3.813449e+001  -1.505607e+002 
3184375000  -3.782499e+001  -1.627914e+002 
3187500000  -3.949609e+001  -1.790242e+002 
3190625000  -4.093285e+001  1.754295e+002 
3193750000  -4.124626e+001  1.790242e+002 
3196875000  -4.112285e+001  1.780970e+002 
3200000000  -4.006111e+001  1.725476e+002 
3203125000  -3.957054e+001  1.633507e+002 
3206250000  -3.997636e+001  1.554796e+002 
3209375000  -3.955594e+001  1.459456e+002 
3212500000  -3.998689e+001  1.399874e+002 
3215625000  -3.969918e+001  1.359358e+002 
3218750000  -4.049944e+001  1.245064e+002 
3221875000  -4.083860e+001  1.157878e+002 
3225000000  -4.048561e+001  1.116875e+002 
3228125000  -4.111653e+001  1.033287e+002 
3231250000  -4.138707e+001  1.005018e+002 
3234375000  -4.110068e+001  9.715681e+001 
3237500000  -4.102964e+001  9.417439e+001 
3240625000  -4.030289e+001  8.674578e+001 
3243750000  -4.032180e+001  7.452708e+001 
3246875000  -4.082191e+001  6.589262e+001 
3250000000  -4.108952e+001  6.201888e+001 
3253125000  -4.134478e+001  5.817075e+001 
3256250000  -4.050349e+001  4.760103e+001 
3259375000  -4.092859e+001  3.500112e+001 
3262500000  -4.253053e+001  2.908166e+001 
3265625000  -4.273811e+001  3.091483e+001 
3268750000  -4.260846e+001  3.075156e+001 
3271875000  -4.182508e+001  2.276089e+001 
3275000000  -4.103100e+001  1.407154e+001 
3278125000  -4.191427e+001  7.089742e+000 
3281250000  -4.181780e+001  2.952718e+000 
3284375000  -4.108318e+001  -5.792126e+000 
3287500000  -4.162402e+001  -1.235248e+001 
3290625000  -4.161189e+001  -2.308022e+001 
3293750000  -4.178469e+001  -3.064829e+001 
3296875000  -4.271655e+001  -3.580581e+001 
3300000000  -4.212980e+001  -3.713314e+001 
3303125000  -4.135819e+001  -4.741753e+001 
3306250000  -4.094242e+001  -5.666503e+001 
3309375000  -4.054849e+001  -6.804599e+001 
3312500000  -4.119407e+001  -8.305325e+001 
3315625000  -4.249602e+001  -9.105699e+001 
3318750000  -4.408915e+001  -9.729071e+001 
3321875000  -4.505077e+001  -9.742618e+001 
3325000000  -4.500647e+001  -9.423236e+001 
3328125000  -4.411914e+001  -9.379624e+001 
3331250000  -4.239606e+001  -9.609022e+001 
3334375000  -4.033174e+001  -1.134780e+002 
3337500000  -4.102642e+001  -1.391760e+002 
3340625000  -4.272705e+001  -1.487079e+002 
3343750000  -4.468829e+001  -1.497373e+002 
3346875000  -4.392245e+001  -1.525711e+002 
3350000000  -4.388095e+001  -1.588078e+002 
3353125000  -4.364761e+001  -1.682937e+002 
3356250000  -4.334175e+001  -1.798324e+002 
3359375000  -4.445617e+001  1.679716e+002 
3362500000  -4.507412e+001  1.622973e+002 
3365625000  -4.576099e+001  1.554954e+002 
3368750000  -4.649497e+001  1.497471e+002 
3371875000  -4.739451e+001  1.431310e+002 
3375000000  -4.891032e+001  1.361792e+002 
3378125000  -4.958551e+001  1.336743e+002 
3381250000  -5.052571e+001  1.462942e+002 
3384375000  -4.795569e+001  1.540150e+002 
3387500000  -4.519756e+001  1.308180e+002 
3390625000  -4.751731e+001  1.104622e+002 
3393750000  -4.751025e+001  1.076943e+002 
3396875000  -4.618632e+001  1.051689e+002 
3400000000  -4.602856e+001  8.891215e+001 
3403125000  -4.727806e+001  8.550116e+001 
3406250000  -4.796248e+001  7.481306e+001 
3409375000  -4.752861e+001  6.456982e+001 
3412500000  -4.823863e+001  5.804818e+001 
3415625000  -4.895285e+001  4.977858e+001 
3418750000  -4.843094e+001  4.494061e+001 
3421875000  -4.861472e+001  4.745951e+001 
3425000000  -4.793883e+001  3.816607e+001 
3428125000  -4.719706e+001  3.169638e+001 
3431250000  -4.654958e+001  1.745776e+001 
3434375000  -4.719327e+001  6.236114e+000 
3437500000  -4.775372e+001  -4.670918e-001 
3440625000  -4.766943e+001  -3.827392e+000 
3443750000  -4.669722e+001  -1.060674e+001 
3446875000  -4.568517e+001  -2.410631e+001 
3450000000  -4.532045e+001  -4.037285e+001 
3453125000  -4.562900e+001  -5.788291e+001 
3456250000  -4.738715e+001  -6.617247e+001 
3459375000  -4.827103e+001  -6.915844e+001 
3462500000  -4.747105e+001  -7.283540e+001 
3465625000  -4.745243e+001  -8.538223e+001 
3468750000  -4.748523e+001  -9.461965e+001 
3471875000  -4.725089e+001  -1.020432e+002 
3475000000  -4.693854e+001  -1.128723e+002 
3478125000  -4.774190e+001  -1.236788e+002 
3481250000  -4.854246e+001  -1.307058e+002 
3484375000  -4.821358e+001  -1.260113e+002 
3487500000  -4.805970e+001  -1.401776e+002 
3490625000  -4.714213e+001  -1.534173e+002 
3493750000  -4.774075e+001  -1.631850e+002 
3496875000  -4.780475e+001  -1.670222e+002 
3500000000  -4.869510e+001  -1.702554e+002 
3503125000  -4.715060e+001  -1.731592e+002 
3506250000  -4.526201e+001  1.747391e+002 
3509375000  -4.578515e+001  1.554538e+002 
3512500000  -4.633385e+001  1.396443e+002 
3515625000  -4.747212e+001  1.370312e+002 
3518750000  -4.799909e+001  1.327194e+002 
3521875000  -4.789882e+001  1.228128e+002 
3525000000  -4.861330e+001  1.205367e+002 
3528125000  -4.713019e+001  1.224493e+002 
3531250000  -4.666636e+001  1.104826e+002 
3534375000  -4.712004e+001  9.228697e+001 
3537500000  -4.775072e+001  8.218593e+001 
3540625000  -4.898199e+001  8.065195e+001 
3543750000  -4.947829e+001  8.570299e+001 
3546875000  -4.842926e+001  8.752608e+001 
3550000000  -4.646478e+001  7.785300e+001 
3553125000  -4.565768e+001  5.884417e+001 
3556250000  -4.750058e+001  5.208143e+001 
3559375000  -4.649090e+001  4.543427e+001 
3562500000  -4.617970e+001  3.399411e+001 
3565625000  -4.711794e+001  2.858920e+001 
3568750000  -4.801722e+001  2.935760e+001 
3571875000  -4.720704e+001  2.339388e+001 
3575000000  -4.675916e+001  1.781551e+001 
3578125000  -4.728698e+001  1.180291e+001 
3581250000  -4.760215e+001  9.642097e+000 
3584375000  -4.620581e+001  1.518151e+000 
3587500000  -4.562606e+001  -9.849502e+000 
3590625000  -4.638891e+001  -1.924366e+001 
3593750000  -4.746008e+001  -2.116194e+001 
3596875000  -4.646906e+001  -1.676257e+001 
3600000000  -4.479055e+001  -2.814605e+001 
3603125000  -4.475483e+001  -4.380628e+001 
3606250000  -4.623398e+001  -5.058471e+001 
3609375000  -4.588518e+001  -5.200372e+001 
3612500000  -4.610424e+001  -6.062510e+001 
3615625000  -4.604515e+001  -6.325867e+001 
3618750000  -4.626295e+001  -6.610771e+001 
3621875000  -4.599154e+001  -7.244660e+001 
3625000000  -4.568947e+001  -7.793072e+001 
3628125000  -4.477023e+001  -8.282397e+001 
3631250000  -4.482280e+001  -9.400620e+001 
3634375000  -4.555091e+001  -9.459224e+001 
3637500000  -4.463890e+001  -9.406362e+001 
3640625000  -4.386282e+001  -1.032227e+002 
3643750000  -4.322202e+001  -1.159168e+002 
3646875000  -4.401319e+001  -1.250438e+002 
3650000000  -4.397542e+001  -1.273350e+002 
3653125000  -4.330981e+001  -1.378974e+002 
3656250000  -4.388586e+001  -1.422394e+002 
3659375000  -4.356076e+001  -1.484050e+002 
3662500000  -4.324638e+001  -1.558410e+002 
3665625000  -4.366055e+001  -1.581845e+002 
3668750000  -4.206857e+001  -1.620358e+002 
3671875000  -4.164202e+001  -1.761860e+002 
3675000000  -4.221613e+001  1.719929e+002 
3678125000  -4.259420e+001  1.683952e+002 
3681250000  -4.236085e+001  1.612140e+002 
3684375000  -4.269772e+001  1.528731e+002 
3687500000  -4.317647e+001  1.444586e+002 
3690625000  -4.358368e+001  1.392498e+002 
3693750000  -4.453139e+001  1.365583e+002 
3696875000  -4.415931e+001  1.345088e+002 
3700000000  -4.302455e+001  1.273633e+002 
3703125000  -4.395209e+001  1.183798e+002 
3706250000  -4.517094e+001  1.173771e+002 
3709375000  -4.395949e+001  1.167443e+002 
3712500000  -4.308340e+001  1.100574e+002 
3715625000  -4.188469e+001  1.017202e+002 
3718750000  -4.179409e+001  8.891188e+001 
3721875000  -4.193798e+001  8.105734e+001 
3725000000  -4.227053e+001  7.315408e+001 
3728125000  -4.231044e+001  7.013150e+001 
3731250000  -4.182860e+001  6.517475e+001 
3734375000  -4.218958e+001  5.790036e+001 
3737500000  -4.269368e+001  4.812656e+001 
3740625000  -4.325013e+001  4.150925e+001 
3743750000  -4.301804e+001  3.660657e+001 
3746875000  -4.347116e+001  3.067827e+001 
3750000000  -4.384739e+001  2.687326e+001 
3753125000  -4.395887e+001  2.119037e+001 
3756250000  -4.381864e+001  1.912659e+001 
3759375000  -4.353679e+001  1.476098e+001 
3762500000  -4.369413e+001  9.100677e+000 
3765625000  -4.420356e+001  3.395388e+000 
3768750000  -4.361774e+001  5.043004e+000 
3771875000  -4.226295e+001  -1.320852e+000 
3775000000  -4.256310e+001  -1.583949e+001 
3778125000  -4.274734e+001  -2.093746e+001 
3781250000  -4.276352e+001  -2.340795e+001 
3784375000  -4.257091e+001  -3.065027e+001 
3787500000  -4.239545e+001  -3.674428e+001 
3790625000  -4.303759e+001  -4.658614e+001 
3793750000  -4.271757e+001  -4.751136e+001 
3796875000  -4.171052e+001  -5.513155e+001 
3800000000  -4.101475e+001  -6.146866e+001 
3803125000  -4.181654e+001  -7.214414e+001 
3806250000  -4.218799e+001  -7.900239e+001 
3809375000  -4.201876e+001  -8.377607e+001 
3812500000  -4.160654e+001  -9.434157e+001 
3815625000  -4.310390e+001  -1.048415e+002 
3818750000  -4.425264e+001  -1.035345e+002 
3821875000  -4.345747e+001  -9.512879e+001 
3825000000  -4.147450e+001  -9.970390e+001 
3828125000  -4.055893e+001  -1.190436e+002 
3831250000  -4.163325e+001  -1.346327e+002 
3834375000  -4.402286e+001  -1.365201e+002 
3837500000  -4.408778e+001  -1.333654e+002 
3840625000  -4.234860e+001  -1.391505e+002 
3843750000  -4.172272e+001  -1.549226e+002 
3846875000  -4.319673e+001  -1.610416e+002 
3850000000  -4.437666e+001  -1.559372e+002 
3853125000  -4.351027e+001  -1.573880e+002 
3856250000  -4.349917e+001  -1.660950e+002 
3859375000  -4.235590e+001  -1.761194e+002 
3862500000  -4.191455e+001  1.752139e+002 
3865625000  -4.305208e+001  1.694438e+002 
3868750000  -4.228728e+001  1.677663e+002 
3871875000  -4.173843e+001  1.592771e+002 
3875000000  -4.229789e+001  1.490379e+002 
3878125000  -4.331842e+001  1.448532e+002 
3881250000  -4.327343e+001  1.441171e+002 
3884375000  -4.263972e+001  1.323922e+002 
3887500000  -4.335329e+001  1.257984e+002 
3890625000  -4.403850e+001  1.215783e+002 
3893750000  -4.416702e+001  1.185357e+002 
3896875000  -4.457082e+001  1.180450e+002 
3900000000  -4.482992e+001  1.123892e+002 
3903125000  -4.368824e+001  1.077352e+002 
3906250000  -4.386657e+001  1.045845e+002 
3909375000  -4.252503e+001  9.426913e+001 
3912500000  -4.377282e+001  8.295042e+001 
3915625000  -4.496570e+001  8.295164e+001 
3918750000  -4.486592e+001  8.125346e+001 
3921875000  -4.377060e+001  7.680304e+001 
3925000000  -4.301298e+001  7.181886e+001 
3928125000  -4.323034e+001  5.878237e+001 
3931250000  -4.389362e+001  5.444866e+001 
3934375000  -4.414783e+001  5.112228e+001 
3937500000  -4.483885e+001  4.919959e+001 
3940625000  -4.473591e+001  5.086787e+001 
3943750000  -4.349020e+001  4.294426e+001 
3946875000  -4.304042e+001  3.336922e+001 
3950000000  -4.428752e+001  2.679679e+001 
3953125000  -4.461649e+001  2.740051e+001 
3956250000  -4.321351e+001  2.578027e+001 
3959375000  -4.203548e+001  1.929037e+001 
3962500000  -4.150137e+001  9.504945e+000 
3965625000  -4.195594e+001  -2.160656e+000 
3968750000  -4.285670e+001  -1.141326e+001 
3971875000  -4.262970e+001  -1.577600e+001 
3975000000  -4.251714e+001  -2.078555e+001 
3978125000  -4.278563e+001  -2.761510e+001 
3981250000  -4.222988e+001  -3.579995e+001 
3984375000  -4.236586e+001  -4.347649e+001 
3987500000  -4.281612e+001  -4.571181e+001 
3990625000  -4.326140e+001  -5.155411e+001 
3993750000  -4.350235e+001  -5.643927e+001 
3996875000  -4.307417e+001  -6.448018e+001 
4000000000  -4.382729e+001  -6.819148e+001 
4003125000  -4.394585e+001  -6.818171e+001 
4006250000  -4.215866e+001  -7.353806e+001 
4009375000  -4.145854e+001  -8.879372e+001 
4012500000  -4.303488e+001  -9.849306e+001 
4015625000  -4.445964e+001  -9.803129e+001 
4018750000  -4.417073e+001  -1.026608e+002 
4021875000  -4.284988e+001  -1.106205e+002 
4025000000  -4.331817e+001  -1.167887e+002 
4028125000  -4.384702e+001  -1.252060e+002 
4031250000  -4.421400e+001  -1.294371e+002 
4034375000  -4.414768e+001  -1.333294e+002 
4037500000  -4.382273e+001  -1.352355e+002 
4040625000  -4.434076e+001  -1.440578e+002 
4043750000  -4.450665e+001  -1.458109e+002 
4046875000  -4.479053e+001  -1.515355e+002 
4050000000  -4.525750e+001  -1.589083e+002 
4053125000  -4.519022e+001  -1.631917e+002 
4056250000  -4.573051e+001  -1.578395e+002 
4059375000  -4.426988e+001  -1.585354e+002 
4062500000  -4.356897e+001  -1.690502e+002 
4065625000  -4.398092e+001  -1.736091e+002 
4068750000  -4.282413e+001  1.774877e+002 
4071875000  -4.300311e+001  1.665506e+002 
4075000000  -4.410508e+001  1.581293e+002 
4078125000  -4.436805e+001  1.579531e+002 
4081250000  -4.376886e+001  1.497181e+002 
4084375000  -4.380888e+001  1.419626e+002 
4087500000  -4.422952e+001  1.355600e+002 
4090625000  -4.555445e+001  1.321104e+002 
4093750000  -4.499440e+001  1.312565e+002 
4096875000  -4.481045e+001  1.217608e+002 
4100000000  -4.547292e+001  1.170391e+002 
4103125000  -4.619269e+001  1.204481e+002 
4106250000  -4.577558e+001  1.205411e+002 
4109375000  -4.466268e+001  1.149069e+002 
4112500000  -4.489632e+001  1.054729e+002 
4115625000  -4.448166e+001  1.010630e+002 
4118750000  -4.421280e+001  9.702228e+001 
4121875000  -4.366839e+001  8.938200e+001 
4125000000  -4.550408e+001  8.116277e+001 
4128125000  -4.549760e+001  8.421729e+001 
4131250000  -4.435755e+001  8.922163e+001 
4134375000  -4.194965e+001  7.550455e+001 
4137500000  -4.246402e+001  5.601152e+001 
4140625000  -4.448881e+001  4.795346e+001 
4143750000  -4.525360e+001  5.457939e+001 
4146875000  -4.437228e+001  5.742174e+001 
4150000000  -4.309296e+001  4.574669e+001 
4153125000  -4.339769e+001  3.595307e+001 
4156250000  -4.410192e+001  3.258911e+001 
4159375000  -4.398167e+001  3.338432e+001 
4162500000  -4.304085e+001  3.294913e+001 
4165625000  -4.187091e+001  2.015334e+001 
4168750000  -4.150446e+001  9.553683e+000 
4171875000  -4.155973e+001  -2.480199e+000 
4175000000  -4.238395e+001  -9.542337e+000 
4178125000  -4.260070e+001  -1.085687e+001 
4181250000  -4.240729e+001  -1.847215e+001 
4184375000  -4.316350e+001  -2.334591e+001 
4187500000  -4.288369e+001  -2.846144e+001 
4190625000  -4.321075e+001  -3.924744e+001 
4193750000  -4.405450e+001  -4.716083e+001 
4196875000  -4.535582e+001  -4.892111e+001 
4200000000  -4.631760e+001  -3.961369e+001 
4203125000  -4.561675e+001  -3.458394e+001 
4206250000  -4.161059e+001  -4.185615e+001 
4209375000  -4.199250e+001  -6.815062e+001 
4212500000  -4.403118e+001  -7.358910e+001 
4215625000  -4.415797e+001  -6.690847e+001 
4218750000  -4.294927e+001  -6.850061e+001 
4221875000  -4.146675e+001  -7.944053e+001 
4225000000  -4.298912e+001  -8.771735e+001 
4228125000  -4.289910e+001  -8.684033e+001 
4231250000  -4.130074e+001  -9.772492e+001 
4234375000  -4.133459e+001  -1.052176e+002 
4237500000  -4.138836e+001  -1.132608e+002 
4240625000  -4.141736e+001  -1.228384e+002 
4243750000  -4.251325e+001  -1.327465e+002 
4246875000  -4.368436e+001  -1.333450e+002 
4250000000  -4.330579e+001  -1.337404e+002 
4253125000  -4.328360e+001  -1.368507e+002 
4256250000  -4.282308e+001  -1.423834e+002 
4259375000  -4.246578e+001  -1.497135e+002 
4262500000  -4.284779e+001  -1.523272e+002 
4265625000  -4.242616e+001  -1.513195e+002 
4268750000  -4.136174e+001  -1.623952e+002 
4271875000  -4.127836e+001  -1.728918e+002 
4275000000  -4.072030e+001  1.779539e+002 
4278125000  -4.192308e+001  1.658633e+002 
4281250000  -4.294359e+001  1.622205e+002 
4284375000  -4.241937e+001  1.615147e+002 
4287500000  -4.438027e+001  1.563141e+002 
4290625000  -4.392759e+001  1.619303e+002 
4293750000  -4.205265e+001  1.596848e+002 
4296875000  -4.070760e+001  1.484165e+002 
4300000000  -4.176159e+001  1.349266e+002 
4303125000  -4.267397e+001  1.375333e+002 
4306250000  -4.138988e+001  1.378235e+002 
4309375000  -4.034150e+001  1.281840e+002 
4312500000  -4.009717e+001  1.161110e+002 
4315625000  -4.057819e+001  1.061923e+002 
4318750000  -4.133570e+001  1.006128e+002 
4321875000  -4.170039e+001  9.736523e+001 
4325000000  -4.036797e+001  9.357365e+001 
4328125000  -3.994910e+001  8.259176e+001 
4331250000  -4.028906e+001  7.059682e+001 
4334375000  -4.127245e+001  6.173922e+001 
4337500000  -4.241106e+001  6.081557e+001 
4340625000  -4.258018e+001  6.199532e+001 
4343750000  -4.119355e+001  5.895226e+001 
4346875000  -4.163498e+001  4.988868e+001 
4350000000  -4.172114e+001  3.651666e+001 
4353125000  -4.250155e+001  3.009760e+001 
4356250000  -4.422834e+001  3.387486e+001 
4359375000  -4.380271e+001  4.785114e+001 
4362500000  -3.970145e+001  3.749310e+001 
4365625000  -3.950191e+001  1.742392e+001 
4368750000  -4.068737e+001  9.357985e+000 
4371875000  -4.179659e+001  6.011460e+000 
4375000000  -4.145466e+001  -1.621240e+000 
4378125000  -4.128180e+001  -4.700960e+000 
4381250000  -4.140379e+001  -1.632448e+001 
4384375000  -4.118631e+001  -2.305815e+001 
4387500000  -4.189859e+001  -2.884141e+001 
4390625000  -4.283065e+001  -3.177867e+001 
4393750000  -4.235571e+001  -2.905581e+001 
4396875000  -4.199692e+001  -3.694273e+001 
4400000000  -4.157657e+001  -4.639471e+001 
4403125000  -4.227065e+001  -5.862811e+001 
4406250000  -4.281745e+001  -6.014410e+001 
4409375000  -4.302206e+001  -6.682221e+001 
4412500000  -4.444129e+001  -6.723870e+001 
4415625000  -4.405595e+001  -6.488354e+001 
4418750000  -4.253155e+001  -6.804607e+001 
