!Agilent Technologies,E8363B,MY43030201,A.06.04.32
!Agilent E8363B: A.06.04.32
!Date: Tuesday, November 11, 2014 21:47:02
!Correction: S21(Response(S21)) 
!S1P File: Measurement: S21:
# Hz S  dB   R 50
3000000000  -4.374449e+001  -1.617425e+002 
3003125000  -4.516734e+001  -1.655289e+002 
3006250000  -4.528843e+001  -1.666574e+002 
3009375000  -4.583142e+001  -1.642805e+002 
3012500000  -4.486977e+001  -1.724002e+002 
3015625000  -4.530191e+001  -1.768993e+002 
3018750000  -4.522145e+001  -1.793183e+002 
3021875000  -4.390965e+001  -1.782595e+002 
3025000000  -4.245366e+001  1.761327e+002 
3028125000  -4.201075e+001  1.657836e+002 
3031250000  -4.098641e+001  1.523044e+002 
3034375000  -4.079118e+001  1.380352e+002 
3037500000  -4.153735e+001  1.274407e+002 
3040625000  -4.284045e+001  1.208531e+002 
3043750000  -4.355186e+001  1.129751e+002 
3046875000  -4.430167e+001  1.074352e+002 
3050000000  -4.536871e+001  1.020618e+002 
3053125000  -4.526396e+001  1.069430e+002 
3056250000  -4.489146e+001  1.107124e+002 
3059375000  -4.367337e+001  1.056905e+002 
3062500000  -4.253381e+001  1.014018e+002 
3065625000  -4.218503e+001  9.016164e+001 
3068750000  -4.177320e+001  8.029414e+001 
3071875000  -4.179226e+001  7.806277e+001 
3075000000  -4.107990e+001  6.910355e+001 
3078125000  -4.123888e+001  6.305709e+001 
3081250000  -4.139011e+001  5.614614e+001 
3084375000  -4.043732e+001  5.189246e+001 
3087500000  -4.069397e+001  4.296744e+001 
3090625000  -3.996783e+001  3.053902e+001 
3093750000  -4.110966e+001  2.040523e+001 
3096875000  -4.134114e+001  1.626815e+001 
3100000000  -4.109366e+001  1.155931e+001 
3103125000  -4.133644e+001  7.215380e+000 
3106250000  -4.099548e+001  1.142772e+000 
3109375000  -4.089908e+001  -3.450565e+000 
3112500000  -4.086862e+001  -1.114155e+001 
3115625000  -4.088514e+001  -1.653736e+001 
3118750000  -4.078632e+001  -2.126772e+001 
3121875000  -4.022358e+001  -3.242841e+001 
3125000000  -4.214042e+001  -3.713430e+001 
3128125000  -4.185465e+001  -3.135553e+001 
3131250000  -3.957853e+001  -3.915581e+001 
3134375000  -3.903181e+001  -5.629050e+001 
3137500000  -3.943519e+001  -7.181670e+001 
3140625000  -4.102224e+001  -7.446362e+001 
3143750000  -4.137221e+001  -7.905140e+001 
3146875000  -4.115664e+001  -7.679085e+001 
3150000000  -4.031336e+001  -8.152306e+001 
3153125000  -4.080326e+001  -9.221641e+001 
3156250000  -4.143472e+001  -8.896732e+001 
3159375000  -3.920450e+001  -9.230687e+001 
3162500000  -3.775288e+001  -1.082285e+002 
3165625000  -3.909404e+001  -1.226945e+002 
3168750000  -3.897982e+001  -1.237885e+002 
3171875000  -3.839253e+001  -1.331630e+002 
3175000000  -3.902455e+001  -1.426317e+002 
3178125000  -3.874615e+001  -1.457641e+002 
3181250000  -3.803989e+001  -1.545697e+002 
3184375000  -3.787510e+001  -1.662009e+002 
3187500000  -3.923780e+001  1.774738e+002 
3190625000  -4.087655e+001  1.699801e+002 
3193750000  -4.109955e+001  1.751815e+002 
3196875000  -4.115450e+001  1.747264e+002 
3200000000  -3.981150e+001  1.692278e+002 
3203125000  -3.979563e+001  1.604242e+002 
3206250000  -3.991299e+001  1.523619e+002 
3209375000  -3.948916e+001  1.432088e+002 
3212500000  -4.002708e+001  1.349572e+002 
3215625000  -3.984359e+001  1.335335e+002 
3218750000  -4.025445e+001  1.208881e+002 
3221875000  -4.057433e+001  1.130090e+002 
3225000000  -4.042062e+001  1.068750e+002 
3228125000  -4.134764e+001  9.956456e+001 
3231250000  -4.148371e+001  9.832430e+001 
3234375000  -4.096048e+001  9.437750e+001 
3237500000  -4.087325e+001  8.964375e+001 
3240625000  -4.018167e+001  8.210036e+001 
3243750000  -4.019701e+001  7.089337e+001 
3246875000  -4.062812e+001  6.336743e+001 
3250000000  -4.124197e+001  5.950326e+001 
3253125000  -4.111642e+001  5.383508e+001 
3256250000  -4.022362e+001  4.566404e+001 
3259375000  -4.084623e+001  3.048184e+001 
3262500000  -4.243122e+001  2.745348e+001 
3265625000  -4.238066e+001  2.771997e+001 
3268750000  -4.228915e+001  2.718448e+001 
3271875000  -4.142331e+001  2.115824e+001 
3275000000  -4.108990e+001  1.063053e+001 
3278125000  -4.185303e+001  3.617504e+000 
3281250000  -4.181864e+001  -4.648781e-002 
3284375000  -4.085601e+001  -8.621082e+000 
3287500000  -4.135545e+001  -1.575568e+001 
3290625000  -4.154938e+001  -2.627256e+001 
3293750000  -4.156603e+001  -3.412051e+001 
3296875000  -4.273974e+001  -3.744998e+001 
3300000000  -4.196298e+001  -3.924260e+001 
3303125000  -4.077317e+001  -4.906144e+001 
3306250000  -4.092815e+001  -6.158094e+001 
3309375000  -4.077336e+001  -7.157285e+001 
3312500000  -4.115559e+001  -8.629182e+001 
3315625000  -4.240577e+001  -9.478122e+001 
3318750000  -4.391380e+001  -1.023348e+002 
3321875000  -4.537318e+001  -1.001096e+002 
3325000000  -4.530441e+001  -9.713235e+001 
3328125000  -4.406934e+001  -9.830077e+001 
3331250000  -4.249147e+001  -9.998824e+001 
3334375000  -4.025475e+001  -1.180015e+002 
3337500000  -4.088435e+001  -1.414901e+002 
3340625000  -4.285799e+001  -1.503905e+002 
3343750000  -4.444497e+001  -1.520201e+002 
3346875000  -4.397375e+001  -1.565282e+002 
3350000000  -4.372015e+001  -1.610417e+002 
3353125000  -4.350852e+001  -1.716618e+002 
3356250000  -4.328947e+001  -1.797801e+002 
3359375000  -4.418715e+001  1.662092e+002 
3362500000  -4.497513e+001  1.567779e+002 
3365625000  -4.578181e+001  1.497513e+002 
3368750000  -4.652253e+001  1.449284e+002 
3371875000  -4.676914e+001  1.405478e+002 
3375000000  -4.861749e+001  1.328952e+002 
3378125000  -4.942102e+001  1.295103e+002 
3381250000  -5.043372e+001  1.413608e+002 
3384375000  -4.713094e+001  1.517072e+002 
3387500000  -4.463334e+001  1.294433e+002 
3390625000  -4.719561e+001  1.076187e+002 
3393750000  -4.765300e+001  1.067364e+002 
3396875000  -4.656715e+001  1.008721e+002 
3400000000  -4.643148e+001  8.614413e+001 
3403125000  -4.699252e+001  7.669454e+001 
3406250000  -4.692474e+001  7.276022e+001 
3409375000  -4.760118e+001  6.010374e+001 
3412500000  -4.762317e+001  5.428109e+001 
3415625000  -4.868927e+001  5.097324e+001 
3418750000  -4.866668e+001  4.504890e+001 
3421875000  -4.930623e+001  4.112527e+001 
3425000000  -4.754983e+001  3.477673e+001 
3428125000  -4.746314e+001  2.738023e+001 
3431250000  -4.666566e+001  1.582742e+001 
3434375000  -4.706089e+001  2.192280e+000 
3437500000  -4.791583e+001  -5.446741e+000 
3440625000  -4.800690e+001  -1.266894e+001 
3443750000  -4.637282e+001  -1.077510e+001 
3446875000  -4.577476e+001  -2.719225e+001 
3450000000  -4.525332e+001  -4.174713e+001 
3453125000  -4.611716e+001  -6.156982e+001 
3456250000  -4.724961e+001  -7.314932e+001 
3459375000  -4.799600e+001  -7.230930e+001 
3462500000  -4.796724e+001  -7.499590e+001 
3465625000  -4.740070e+001  -8.826176e+001 
3468750000  -4.782582e+001  -9.654873e+001 
3471875000  -4.724431e+001  -1.028979e+002 
3475000000  -4.688160e+001  -1.142803e+002 
3478125000  -4.748333e+001  -1.318734e+002 
3481250000  -4.889159e+001  -1.336236e+002 
3484375000  -4.853716e+001  -1.340308e+002 
3487500000  -4.749946e+001  -1.421056e+002 
3490625000  -4.710496e+001  -1.555623e+002 
3493750000  -4.768943e+001  -1.666763e+002 
3496875000  -4.860533e+001  -1.714698e+002 
3500000000  -4.892282e+001  -1.696288e+002 
3503125000  -4.730119e+001  -1.771101e+002 
3506250000  -4.543732e+001  1.725281e+002 
3509375000  -4.572092e+001  1.501722e+002 
3512500000  -4.641946e+001  1.358011e+002 
3515625000  -4.750497e+001  1.355398e+002 
3518750000  -4.794273e+001  1.271795e+002 
3521875000  -4.797508e+001  1.213062e+002 
3525000000  -4.876515e+001  1.138359e+002 
3528125000  -4.758945e+001  1.206934e+002 
3531250000  -4.601757e+001  1.034806e+002 
3534375000  -4.696400e+001  8.940628e+001 
3537500000  -4.770342e+001  7.767086e+001 
3540625000  -4.874017e+001  7.682004e+001 
3543750000  -4.917995e+001  7.747094e+001 
3546875000  -4.889674e+001  8.005694e+001 
3550000000  -4.606797e+001  7.499133e+001 
3553125000  -4.623533e+001  5.455698e+001 
3556250000  -4.716183e+001  4.515607e+001 
3559375000  -4.682235e+001  4.209451e+001 
3562500000  -4.634768e+001  3.188982e+001 
3565625000  -4.716887e+001  2.629539e+001 
3568750000  -4.786570e+001  2.395090e+001 
3571875000  -4.740398e+001  1.935585e+001 
3575000000  -4.715951e+001  1.368555e+001 
3578125000  -4.754228e+001  7.376942e+000 
3581250000  -4.726983e+001  2.292978e+000 
3584375000  -4.603888e+001  -4.994964e+000 
3587500000  -4.592402e+001  -1.461191e+001 
3590625000  -4.656184e+001  -2.808485e+001 
3593750000  -4.828204e+001  -2.154296e+001 
3596875000  -4.682706e+001  -2.199764e+001 
3600000000  -4.474630e+001  -3.026174e+001 
3603125000  -4.540365e+001  -4.879360e+001 
3606250000  -4.593592e+001  -5.602628e+001 
3609375000  -4.602108e+001  -5.615899e+001 
3612500000  -4.595811e+001  -6.429531e+001 
3615625000  -4.608611e+001  -7.139909e+001 
3618750000  -4.619525e+001  -7.318850e+001 
3621875000  -4.542262e+001  -7.537259e+001 
3625000000  -4.575201e+001  -8.084837e+001 
3628125000  -4.513195e+001  -8.867353e+001 
3631250000  -4.489437e+001  -1.007561e+002 
3634375000  -4.550458e+001  -9.944152e+001 
3637500000  -4.466874e+001  -1.006890e+002 
3640625000  -4.340749e+001  -1.070530e+002 
3643750000  -4.328942e+001  -1.173920e+002 
3646875000  -4.360507e+001  -1.281893e+002 
3650000000  -4.382644e+001  -1.335893e+002 
3653125000  -4.330958e+001  -1.434268e+002 
3656250000  -4.393015e+001  -1.488474e+002 
3659375000  -4.407762e+001  -1.533514e+002 
3662500000  -4.333647e+001  -1.604978e+002 
3665625000  -4.342900e+001  -1.642999e+002 
3668750000  -4.199540e+001  -1.681210e+002 
3671875000  -4.148530e+001  1.761831e+002 
3675000000  -4.221325e+001  1.670055e+002 
3678125000  -4.254456e+001  1.624476e+002 
3681250000  -4.242331e+001  1.547945e+002 
3684375000  -4.244257e+001  1.483223e+002 
3687500000  -4.301449e+001  1.409554e+002 
3690625000  -4.360981e+001  1.327758e+002 
3693750000  -4.445264e+001  1.313229e+002 
3696875000  -4.390211e+001  1.292198e+002 
3700000000  -4.297009e+001  1.206808e+002 
3703125000  -4.373980e+001  1.128953e+002 
3706250000  -4.473481e+001  1.084862e+002 
3709375000  -4.356747e+001  1.132946e+002 
3712500000  -4.328036e+001  1.049550e+002 
3715625000  -4.187416e+001  9.396092e+001 
3718750000  -4.148555e+001  8.520779e+001 
3721875000  -4.171322e+001  7.613445e+001 
3725000000  -4.232118e+001  6.967591e+001 
3728125000  -4.237313e+001  6.575288e+001 
3731250000  -4.204757e+001  6.092752e+001 
3734375000  -4.205907e+001  5.327769e+001 
3737500000  -4.279348e+001  4.323732e+001 
3740625000  -4.308308e+001  3.827691e+001 
3743750000  -4.286855e+001  3.033622e+001 
3746875000  -4.335484e+001  2.214372e+001 
3750000000  -4.376428e+001  1.998299e+001 
3753125000  -4.384171e+001  1.744897e+001 
3756250000  -4.368670e+001  1.334567e+001 
3759375000  -4.353290e+001  9.295592e+000 
3762500000  -4.325730e+001  5.024274e+000 
3765625000  -4.415132e+001  -1.626132e+000 
3768750000  -4.367646e+001  -2.631585e+000 
3771875000  -4.195019e+001  -8.956338e+000 
3775000000  -4.214605e+001  -2.132637e+001 
3778125000  -4.274326e+001  -2.555612e+001 
3781250000  -4.269032e+001  -2.955869e+001 
3784375000  -4.233262e+001  -3.679150e+001 
3787500000  -4.230886e+001  -4.125869e+001 
3790625000  -4.300909e+001  -5.245176e+001 
3793750000  -4.284476e+001  -5.393603e+001 
3796875000  -4.182830e+001  -5.846402e+001 
3800000000  -4.073574e+001  -6.758271e+001 
3803125000  -4.156545e+001  -7.961862e+001 
3806250000  -4.244534e+001  -8.199521e+001 
3809375000  -4.183687e+001  -8.840404e+001 
3812500000  -4.176966e+001  -9.965307e+001 
3815625000  -4.307002e+001  -1.116899e+002 
3818750000  -4.416122e+001  -1.097995e+002 
3821875000  -4.320639e+001  -1.002208e+002 
3825000000  -4.120590e+001  -1.059408e+002 
3828125000  -4.031514e+001  -1.248129e+002 
3831250000  -4.147931e+001  -1.406998e+002 
3834375000  -4.323792e+001  -1.416570e+002 
3837500000  -4.362136e+001  -1.387960e+002 
3840625000  -4.226168e+001  -1.465051e+002 
3843750000  -4.179980e+001  -1.587054e+002 
3846875000  -4.381988e+001  -1.678584e+002 
3850000000  -4.418805e+001  -1.616408e+002 
3853125000  -4.404102e+001  -1.609192e+002 
3856250000  -4.280761e+001  -1.716257e+002 
3859375000  -4.207972e+001  -1.796106e+002 
3862500000  -4.218320e+001  1.709631e+002 
3865625000  -4.316333e+001  1.645939e+002 
3868750000  -4.208678e+001  1.624317e+002 
3871875000  -4.162207e+001  1.520016e+002 
3875000000  -4.275736e+001  1.428700e+002 
3878125000  -4.315756e+001  1.374885e+002 
3881250000  -4.318929e+001  1.389333e+002 
3884375000  -4.282823e+001  1.256403e+002 
3887500000  -4.310141e+001  1.225583e+002 
3890625000  -4.370021e+001  1.164072e+002 
3893750000  -4.428041e+001  1.134001e+002 
3896875000  -4.430163e+001  1.122659e+002 
3900000000  -4.434079e+001  1.088112e+002 
3903125000  -4.352910e+001  1.010834e+002 
3906250000  -4.334322e+001  9.671971e+001 
3909375000  -4.281228e+001  8.916187e+001 
3912500000  -4.404406e+001  7.780833e+001 
3915625000  -4.488540e+001  7.659092e+001 
3918750000  -4.450180e+001  7.842834e+001 
3921875000  -4.389977e+001  7.453471e+001 
3925000000  -4.294730e+001  6.549326e+001 
3928125000  -4.272598e+001  5.730163e+001 
3931250000  -4.357943e+001  4.793279e+001 
3934375000  -4.420280e+001  4.635501e+001 
3937500000  -4.486098e+001  4.652343e+001 
3940625000  -4.458285e+001  4.472154e+001 
3943750000  -4.317426e+001  3.732830e+001 
3946875000  -4.283784e+001  2.931255e+001 
3950000000  -4.367529e+001  1.908192e+001 
3953125000  -4.446178e+001  2.257612e+001 
3956250000  -4.288472e+001  1.876270e+001 
3959375000  -4.211550e+001  1.249271e+001 
3962500000  -4.145063e+001  1.683451e+000 
3965625000  -4.142656e+001  -8.800232e+000 
3968750000  -4.255883e+001  -1.552094e+001 
3971875000  -4.255356e+001  -2.129749e+001 
3975000000  -4.203013e+001  -2.367973e+001 
3978125000  -4.196429e+001  -3.271929e+001 
3981250000  -4.175731e+001  -4.100023e+001 
3984375000  -4.218805e+001  -4.674857e+001 
3987500000  -4.294238e+001  -5.175876e+001 
3990625000  -4.295850e+001  -5.450651e+001 
3993750000  -4.304829e+001  -6.093320e+001 
3996875000  -4.304702e+001  -6.879234e+001 
4000000000  -4.389903e+001  -7.132436e+001 
4003125000  -4.379259e+001  -7.329037e+001 
4006250000  -4.221001e+001  -7.840945e+001 
4009375000  -4.125999e+001  -9.431689e+001 
4012500000  -4.262766e+001  -1.017992e+002 
4015625000  -4.397391e+001  -1.031318e+002 
4018750000  -4.372636e+001  -1.067295e+002 
4021875000  -4.291663e+001  -1.103082e+002 
4025000000  -4.292770e+001  -1.227843e+002 
4028125000  -4.337365e+001  -1.300188e+002 
4031250000  -4.409151e+001  -1.355661e+002 
4034375000  -4.412017e+001  -1.386166e+002 
4037500000  -4.387907e+001  -1.418921e+002 
4040625000  -4.411621e+001  -1.463656e+002 
4043750000  -4.442434e+001  -1.536029e+002 
4046875000  -4.415873e+001  -1.573880e+002 
4050000000  -4.416175e+001  -1.658542e+002 
4053125000  -4.484441e+001  -1.678707e+002 
4056250000  -4.557240e+001  -1.613995e+002 
4059375000  -4.395996e+001  -1.621786e+002 
4062500000  -4.357703e+001  -1.753768e+002 
4065625000  -4.398782e+001  -1.791385e+002 
4068750000  -4.318269e+001  1.713378e+002 
4071875000  -4.259228e+001  1.624535e+002 
4075000000  -4.327603e+001  1.524121e+002 
4078125000  -4.415667e+001  1.519016e+002 
4081250000  -4.326962e+001  1.428690e+002 
4084375000  -4.328953e+001  1.362888e+002 
4087500000  -4.344089e+001  1.283382e+002 
4090625000  -4.445230e+001  1.283880e+002 
4093750000  -4.452116e+001  1.234038e+002 
4096875000  -4.412106e+001  1.162318e+002 
4100000000  -4.521520e+001  1.106678e+002 
4103125000  -4.564180e+001  1.137729e+002 
4106250000  -4.529710e+001  1.150354e+002 
4109375000  -4.425718e+001  1.084131e+002 
4112500000  -4.385771e+001  9.873355e+001 
4115625000  -4.410123e+001  9.493056e+001 
4118750000  -4.374266e+001  8.973405e+001 
4121875000  -4.348982e+001  8.220206e+001 
4125000000  -4.452328e+001  7.902525e+001 
4128125000  -4.552711e+001  7.839447e+001 
4131250000  -4.358285e+001  8.290852e+001 
4134375000  -4.122710e+001  7.150854e+001 
4137500000  -4.202043e+001  4.953604e+001 
4140625000  -4.445960e+001  4.024216e+001 
4143750000  -4.425206e+001  4.687941e+001 
4146875000  -4.411184e+001  5.003308e+001 
4150000000  -4.270455e+001  3.610895e+001 
4153125000  -4.307549e+001  2.976824e+001 
4156250000  -4.389557e+001  2.738797e+001 
4159375000  -4.371248e+001  3.104110e+001 
4162500000  -4.262124e+001  2.826322e+001 
4165625000  -4.147378e+001  1.531726e+001 
4168750000  -4.118213e+001  3.741026e+000 
4171875000  -4.122020e+001  -6.196955e+000 
4175000000  -4.161977e+001  -1.589157e+001 
4178125000  -4.223128e+001  -1.733841e+001 
4181250000  -4.216189e+001  -2.544947e+001 
4184375000  -4.237967e+001  -3.071686e+001 
4187500000  -4.228662e+001  -3.752281e+001 
4190625000  -4.259335e+001  -4.825411e+001 
4193750000  -4.428946e+001  -5.255572e+001 
4196875000  -4.489100e+001  -5.273495e+001 
4200000000  -4.648023e+001  -4.785773e+001 
4203125000  -4.435144e+001  -4.167167e+001 
4206250000  -4.138546e+001  -4.630565e+001 
4209375000  -4.092366e+001  -7.487112e+001 
4212500000  -4.378381e+001  -7.790120e+001 
4215625000  -4.374895e+001  -7.373901e+001 
4218750000  -4.218241e+001  -7.245868e+001 
4221875000  -4.103930e+001  -8.459044e+001 
4225000000  -4.151372e+001  -9.331389e+001 
4228125000  -4.211779e+001  -9.267016e+001 
4231250000  -4.071842e+001  -1.010284e+002 
4234375000  -4.093163e+001  -1.146040e+002 
4237500000  -4.055658e+001  -1.217183e+002 
4240625000  -4.106362e+001  -1.300012e+002 
4243750000  -4.233386e+001  -1.390563e+002 
4246875000  -4.316907e+001  -1.383937e+002 
4250000000  -4.296665e+001  -1.415859e+002 
4253125000  -4.248956e+001  -1.429167e+002 
4256250000  -4.232145e+001  -1.511793e+002 
4259375000  -4.216670e+001  -1.552155e+002 
4262500000  -4.218922e+001  -1.602903e+002 
4265625000  -4.219154e+001  -1.614899e+002 
4268750000  -4.096532e+001  -1.700472e+002 
4271875000  -4.052067e+001  1.787534e+002 
4275000000  -4.010098e+001  1.712382e+002 
4278125000  -4.135507e+001  1.560024e+002 
4281250000  -4.207602e+001  1.547059e+002 
4284375000  -4.221819e+001  1.542347e+002 
4287500000  -4.354330e+001  1.481770e+002 
4290625000  -4.423967e+001  1.555874e+002 
4293750000  -4.178980e+001  1.568656e+002 
4296875000  -4.042056e+001  1.403820e+002 
4300000000  -4.154939e+001  1.325521e+002 
4303125000  -4.173201e+001  1.320037e+002 
4306250000  -4.102528e+001  1.288646e+002 
4309375000  -3.988298e+001  1.196453e+002 
4312500000  -3.947184e+001  1.072115e+002 
4315625000  -4.032277e+001  9.837646e+001 
4318750000  -4.081012e+001  9.486259e+001 
4321875000  -4.058922e+001  9.121294e+001 
4325000000  -3.996570e+001  8.802254e+001 
4328125000  -3.930864e+001  7.572567e+001 
4331250000  -3.980380e+001  6.194017e+001 
4334375000  -4.080708e+001  5.452381e+001 
4337500000  -4.202579e+001  5.461463e+001 
4340625000  -4.199917e+001  5.813033e+001 
4343750000  -4.105921e+001  5.043528e+001 
4346875000  -4.108197e+001  4.215274e+001 
4350000000  -4.107539e+001  3.269857e+001 
4353125000  -4.163179e+001  2.284201e+001 
4356250000  -4.408671e+001  2.779227e+001 
4359375000  -4.249129e+001  3.727324e+001 
4362500000  -3.913209e+001  2.888225e+001 
4365625000  -3.885433e+001  1.157257e+001 
4368750000  -4.021741e+001  8.003840e-001 
4371875000  -4.112919e+001  -9.840182e-002 
4375000000  -4.060591e+001  -5.494709e+000 
4378125000  -4.047770e+001  -1.726350e+001 
4381250000  -4.065371e+001  -2.232023e+001 
4384375000  -4.071956e+001  -3.382536e+001 
4387500000  -4.160963e+001  -3.745367e+001 
4390625000  -4.224118e+001  -3.973605e+001 
4393750000  -4.153614e+001  -4.329288e+001 
4396875000  -4.121265e+001  -4.687725e+001 
4400000000  -4.075555e+001  -5.788556e+001 
4403125000  -4.155914e+001  -6.359647e+001 
4406250000  -4.216316e+001  -7.058067e+001 
4409375000  -4.241744e+001  -7.448305e+001 
4412500000  -4.331754e+001  -7.567831e+001 
4415625000  -4.326914e+001  -7.216373e+001 
4418750000  -4.190030e+001  -7.674354e+001 
