!Agilent Technologies,E8363B,MY43030201,A.06.04.32
!Agilent E8363B: A.06.04.32
!Date: Tuesday, November 11, 2014 21:49:26
!Correction: S21(Response(S21)) 
!S1P File: Measurement: S21:
# Hz S  dB   R 50
3000000000  -4.346893e+001  -1.605004e+002 
3003125000  -4.524611e+001  -1.657222e+002 
3006250000  -4.518389e+001  -1.701646e+002 
3009375000  -4.605866e+001  -1.639281e+002 
3012500000  -4.499596e+001  -1.713785e+002 
3015625000  -4.521924e+001  1.797869e+002 
3018750000  -4.560624e+001  -1.781674e+002 
3021875000  -4.382150e+001  -1.783143e+002 
3025000000  -4.253406e+001  1.775896e+002 
3028125000  -4.173092e+001  1.649469e+002 
3031250000  -4.119300e+001  1.517861e+002 
3034375000  -4.080120e+001  1.371485e+002 
3037500000  -4.160320e+001  1.268315e+002 
3040625000  -4.307185e+001  1.194601e+002 
3043750000  -4.343681e+001  1.143383e+002 
3046875000  -4.408728e+001  1.079129e+002 
3050000000  -4.545818e+001  1.029911e+002 
3053125000  -4.465984e+001  1.054842e+002 
3056250000  -4.468016e+001  1.078075e+002 
3059375000  -4.369564e+001  1.045317e+002 
3062500000  -4.277865e+001  9.922274e+001 
3065625000  -4.202750e+001  8.895193e+001 
3068750000  -4.195580e+001  8.016450e+001 
3071875000  -4.143413e+001  7.788428e+001 
3075000000  -4.115755e+001  7.034405e+001 
3078125000  -4.118332e+001  6.500896e+001 
3081250000  -4.121189e+001  5.770921e+001 
3084375000  -4.061831e+001  5.071961e+001 
3087500000  -4.059477e+001  4.374987e+001 
3090625000  -3.996586e+001  3.097214e+001 
3093750000  -4.092734e+001  2.104380e+001 
3096875000  -4.126284e+001  1.656997e+001 
3100000000  -4.108277e+001  1.120762e+001 
3103125000  -4.135375e+001  6.957340e+000 
3106250000  -4.094983e+001  9.168136e-001 
3109375000  -4.095607e+001  -3.782070e+000 
3112500000  -4.085027e+001  -1.261321e+001 
3115625000  -4.103393e+001  -1.506848e+001 
3118750000  -4.083930e+001  -2.072486e+001 
3121875000  -4.023372e+001  -3.300199e+001 
3125000000  -4.208145e+001  -3.755167e+001 
3128125000  -4.196548e+001  -2.987304e+001 
3131250000  -3.943085e+001  -3.960914e+001 
3134375000  -3.900872e+001  -5.680062e+001 
3137500000  -3.950637e+001  -7.022402e+001 
3140625000  -4.068859e+001  -7.465723e+001 
3143750000  -4.166518e+001  -7.856610e+001 
3146875000  -4.117268e+001  -7.791719e+001 
3150000000  -4.039206e+001  -8.287743e+001 
3153125000  -4.074478e+001  -9.103596e+001 
3156250000  -4.149323e+001  -9.040566e+001 
3159375000  -3.902120e+001  -9.327550e+001 
3162500000  -3.755966e+001  -1.087216e+002 
3165625000  -3.903094e+001  -1.224631e+002 
3168750000  -3.898910e+001  -1.244593e+002 
3171875000  -3.849619e+001  -1.325556e+002 
3175000000  -3.919292e+001  -1.434959e+002 
3178125000  -3.874573e+001  -1.452986e+002 
3181250000  -3.805656e+001  -1.550233e+002 
3184375000  -3.769548e+001  -1.673443e+002 
3187500000  -3.927548e+001  1.761269e+002 
3190625000  -4.072992e+001  1.701763e+002 
3193750000  -4.124397e+001  1.746587e+002 
3196875000  -4.110023e+001  1.734533e+002 
3200000000  -3.985152e+001  1.679946e+002 
3203125000  -3.974486e+001  1.608226e+002 
3206250000  -3.977736e+001  1.510254e+002 
3209375000  -3.950569e+001  1.427209e+002 
3212500000  -4.006596e+001  1.357696e+002 
3215625000  -3.972298e+001  1.327126e+002 
3218750000  -4.022501e+001  1.192727e+002 
3221875000  -4.053914e+001  1.121753e+002 
3225000000  -4.038284e+001  1.073943e+002 
3228125000  -4.105465e+001  1.002527e+002 
3231250000  -4.137699e+001  9.740133e+001 
3234375000  -4.096938e+001  9.386260e+001 
3237500000  -4.089399e+001  8.908424e+001 
3240625000  -4.036813e+001  8.342226e+001 
3243750000  -4.028312e+001  7.065829e+001 
3246875000  -4.063292e+001  6.244824e+001 
3250000000  -4.093323e+001  5.802728e+001 
3253125000  -4.098540e+001  5.465160e+001 
3256250000  -4.050059e+001  4.456692e+001 
3259375000  -4.096783e+001  3.053710e+001 
3262500000  -4.238293e+001  2.682367e+001 
3265625000  -4.270085e+001  2.687633e+001 
3268750000  -4.246093e+001  2.643729e+001 
3271875000  -4.140007e+001  2.033941e+001 
3275000000  -4.087589e+001  9.426901e+000 
3278125000  -4.178352e+001  3.005787e+000 
3281250000  -4.197846e+001  -5.914935e-001 
3284375000  -4.101159e+001  -9.654295e+000 
3287500000  -4.154780e+001  -1.807547e+001 
3290625000  -4.145728e+001  -2.608081e+001 
3293750000  -4.157486e+001  -3.438267e+001 
3296875000  -4.256242e+001  -3.905199e+001 
3300000000  -4.201115e+001  -4.006499e+001 
3303125000  -4.095847e+001  -4.996035e+001 
3306250000  -4.094637e+001  -6.227459e+001 
3309375000  -4.064769e+001  -7.029716e+001 
3312500000  -4.108292e+001  -8.664240e+001 
3315625000  -4.233717e+001  -9.450374e+001 
3318750000  -4.355554e+001  -1.036559e+002 
3321875000  -4.504824e+001  -1.005021e+002 
3325000000  -4.470228e+001  -9.566211e+001 
3328125000  -4.434624e+001  -9.755102e+001 
3331250000  -4.257850e+001  -9.987687e+001 
3334375000  -4.011621e+001  -1.173439e+002 
3337500000  -4.094399e+001  -1.403212e+002 
3340625000  -4.294118e+001  -1.520381e+002 
3343750000  -4.433059e+001  -1.533696e+002 
3346875000  -4.396111e+001  -1.559315e+002 
3350000000  -4.350052e+001  -1.610314e+002 
3353125000  -4.350256e+001  -1.710700e+002 
3356250000  -4.323452e+001  1.787302e+002 
3359375000  -4.435876e+001  1.642349e+002 
3362500000  -4.519037e+001  1.571911e+002 
3365625000  -4.548540e+001  1.511819e+002 
3368750000  -4.589194e+001  1.470585e+002 
3371875000  -4.693264e+001  1.411909e+002 
3375000000  -4.885207e+001  1.289639e+002 
3378125000  -4.908173e+001  1.311290e+002 
3381250000  -5.017281e+001  1.403652e+002 
3384375000  -4.711766e+001  1.536333e+002 
3387500000  -4.487974e+001  1.288316e+002 
3390625000  -4.687043e+001  1.054306e+002 
3393750000  -4.758024e+001  1.048565e+002 
3396875000  -4.672802e+001  9.971976e+001 
3400000000  -4.622713e+001  8.711610e+001 
3403125000  -4.686894e+001  7.802145e+001 
3406250000  -4.721008e+001  7.156627e+001 
3409375000  -4.742218e+001  6.311851e+001 
3412500000  -4.799743e+001  5.202443e+001 
3415625000  -4.880859e+001  4.926052e+001 
3418750000  -4.853383e+001  4.449745e+001 
3421875000  -4.944510e+001  3.730271e+001 
3425000000  -4.756130e+001  3.560815e+001 
3428125000  -4.719541e+001  3.022991e+001 
3431250000  -4.675910e+001  1.817232e+001 
3434375000  -4.759671e+001  1.963272e+000 
3437500000  -4.736357e+001  -3.701525e+000 
3440625000  -4.782721e+001  -7.133457e+000 
3443750000  -4.640811e+001  -1.438681e+001 
3446875000  -4.556059e+001  -2.979158e+001 
3450000000  -4.520024e+001  -4.583618e+001 
3453125000  -4.591773e+001  -6.102106e+001 
3456250000  -4.737306e+001  -6.864308e+001 
3459375000  -4.827866e+001  -7.103445e+001 
3462500000  -4.769337e+001  -7.607571e+001 
3465625000  -4.729090e+001  -9.102497e+001 
3468750000  -4.746794e+001  -9.528428e+001 
3471875000  -4.683512e+001  -1.055302e+002 
3475000000  -4.701184e+001  -1.175371e+002 
3478125000  -4.768037e+001  -1.303377e+002 
3481250000  -4.964812e+001  -1.349741e+002 
3484375000  -4.862718e+001  -1.355148e+002 
3487500000  -4.791792e+001  -1.428532e+002 
3490625000  -4.718329e+001  -1.516029e+002 
3493750000  -4.778035e+001  -1.703378e+002 
3496875000  -4.820956e+001  -1.709328e+002 
3500000000  -4.861518e+001  -1.698799e+002 
3503125000  -4.739940e+001  -1.751743e+002 
3506250000  -4.531166e+001  1.673015e+002 
3509375000  -4.567075e+001  1.554546e+002 
3512500000  -4.571675e+001  1.328130e+002 
3515625000  -4.709480e+001  1.304474e+002 
3518750000  -4.793200e+001  1.321686e+002 
3521875000  -4.783289e+001  1.152530e+002 
3525000000  -4.857583e+001  1.105139e+002 
3528125000  -4.790802e+001  1.188652e+002 
3531250000  -4.634115e+001  1.024231e+002 
3534375000  -4.688600e+001  8.825788e+001 
3537500000  -4.812572e+001  7.747818e+001 
3540625000  -4.914958e+001  7.346971e+001 
3543750000  -5.005588e+001  8.118094e+001 
3546875000  -4.826122e+001  8.247812e+001 
3550000000  -4.645281e+001  7.620374e+001 
3553125000  -4.621978e+001  5.546299e+001 
3556250000  -4.766063e+001  4.881433e+001 
3559375000  -4.677085e+001  4.044320e+001 
3562500000  -4.639727e+001  3.223925e+001 
3565625000  -4.775325e+001  2.237026e+001 
3568750000  -4.782574e+001  2.345273e+001 
3571875000  -4.733716e+001  1.754149e+001 
3575000000  -4.686998e+001  9.866525e+000 
3578125000  -4.743016e+001  6.208557e+000 
3581250000  -4.684143e+001  3.505307e+000 
3584375000  -4.585721e+001  -1.860806e+000 
3587500000  -4.548917e+001  -1.668599e+001 
3590625000  -4.669576e+001  -2.737120e+001 
3593750000  -4.778725e+001  -2.536257e+001 
3596875000  -4.630576e+001  -2.109071e+001 
3600000000  -4.487439e+001  -3.357291e+001 
3603125000  -4.569327e+001  -4.999976e+001 
3606250000  -4.544273e+001  -5.225112e+001 
3609375000  -4.585576e+001  -5.558205e+001 
3612500000  -4.602185e+001  -6.491219e+001 
3615625000  -4.654670e+001  -6.866916e+001 
3618750000  -4.625171e+001  -7.397512e+001 
3621875000  -4.528022e+001  -7.862646e+001 
3625000000  -4.529527e+001  -8.281722e+001 
3628125000  -4.484636e+001  -8.973836e+001 
3631250000  -4.510490e+001  -9.850584e+001 
3634375000  -4.568845e+001  -9.823971e+001 
3637500000  -4.446642e+001  -9.835918e+001 
3640625000  -4.369882e+001  -1.086427e+002 
3643750000  -4.325172e+001  -1.220357e+002 
3646875000  -4.399659e+001  -1.299793e+002 
3650000000  -4.389605e+001  -1.361982e+002 
3653125000  -4.305132e+001  -1.431839e+002 
3656250000  -4.402752e+001  -1.480101e+002 
3659375000  -4.384600e+001  -1.527045e+002 
3662500000  -4.335316e+001  -1.619003e+002 
3665625000  -4.354420e+001  -1.635382e+002 
3668750000  -4.216821e+001  -1.696918e+002 
3671875000  -4.151803e+001  1.764395e+002 
3675000000  -4.204189e+001  1.670511e+002 
3678125000  -4.260611e+001  1.611327e+002 
3681250000  -4.221788e+001  1.555301e+002 
3684375000  -4.245500e+001  1.464740e+002 
3687500000  -4.311244e+001  1.375475e+002 
3690625000  -4.366509e+001  1.328247e+002 
3693750000  -4.411181e+001  1.325081e+002 
3696875000  -4.413901e+001  1.301028e+002 
3700000000  -4.326915e+001  1.214434e+002 
3703125000  -4.340609e+001  1.120031e+002 
3706250000  -4.462562e+001  1.122910e+002 
3709375000  -4.394377e+001  1.119977e+002 
3712500000  -4.302467e+001  1.050094e+002 
3715625000  -4.159523e+001  9.410840e+001 
3718750000  -4.197366e+001  8.370370e+001 
3721875000  -4.164764e+001  7.664716e+001 
3725000000  -4.198491e+001  6.856617e+001 
3728125000  -4.250767e+001  6.381751e+001 
3731250000  -4.194983e+001  5.729721e+001 
3734375000  -4.183321e+001  5.095490e+001 
3737500000  -4.289211e+001  4.116948e+001 
3740625000  -4.323657e+001  3.628940e+001 
3743750000  -4.269395e+001  2.903032e+001 
3746875000  -4.337312e+001  2.392725e+001 
3750000000  -4.339901e+001  1.881536e+001 
3753125000  -4.328941e+001  1.644785e+001 
3756250000  -4.378228e+001  1.304526e+001 
3759375000  -4.343144e+001  8.340109e+000 
3762500000  -4.331949e+001  1.719221e+000 
3765625000  -4.440157e+001  -3.155496e+000 
3768750000  -4.358056e+001  -4.051607e+000 
3771875000  -4.200200e+001  -9.136909e+000 
3775000000  -4.209329e+001  -2.114209e+001 
3778125000  -4.271777e+001  -2.703683e+001 
3781250000  -4.259100e+001  -3.021977e+001 
3784375000  -4.232199e+001  -3.612886e+001 
3787500000  -4.231686e+001  -4.213225e+001 
3790625000  -4.264904e+001  -5.166301e+001 
3793750000  -4.257253e+001  -5.679086e+001 
3796875000  -4.174859e+001  -6.057389e+001 
3800000000  -4.064830e+001  -6.718140e+001 
3803125000  -4.161042e+001  -7.737090e+001 
3806250000  -4.225002e+001  -8.257293e+001 
3809375000  -4.184299e+001  -8.998806e+001 
3812500000  -4.173763e+001  -1.001687e+002 
3815625000  -4.266331e+001  -1.101049e+002 
3818750000  -4.421608e+001  -1.116030e+002 
3821875000  -4.343735e+001  -9.926306e+001 
3825000000  -4.117022e+001  -1.046673e+002 
3828125000  -4.047219e+001  -1.263522e+002 
3831250000  -4.156257e+001  -1.420212e+002 
3834375000  -4.427386e+001  -1.422436e+002 
3837500000  -4.411317e+001  -1.404099e+002 
3840625000  -4.238087e+001  -1.431213e+002 
3843750000  -4.175679e+001  -1.590198e+002 
3846875000  -4.383743e+001  -1.646213e+002 
3850000000  -4.398063e+001  -1.607155e+002 
3853125000  -4.385144e+001  -1.656287e+002 
3856250000  -4.273144e+001  -1.705852e+002 
3859375000  -4.230564e+001  -1.792052e+002 
3862500000  -4.187302e+001  1.698531e+002 
3865625000  -4.257944e+001  1.634286e+002 
3868750000  -4.219994e+001  1.615471e+002 
3871875000  -4.198560e+001  1.507204e+002 
3875000000  -4.284860e+001  1.421983e+002 
3878125000  -4.330135e+001  1.386303e+002 
3881250000  -4.315837e+001  1.386249e+002 
3884375000  -4.277023e+001  1.271037e+002 
3887500000  -4.290223e+001  1.206380e+002 
3890625000  -4.350275e+001  1.171073e+002 
3893750000  -4.426950e+001  1.133513e+002 
3896875000  -4.395476e+001  1.104285e+002 
3900000000  -4.452450e+001  1.057074e+002 
3903125000  -4.397602e+001  1.001911e+002 
3906250000  -4.323861e+001  9.735829e+001 
3909375000  -4.240252e+001  8.832358e+001 
3912500000  -4.374323e+001  7.764288e+001 
3915625000  -4.489566e+001  7.624040e+001 
3918750000  -4.461115e+001  7.631331e+001 
3921875000  -4.371286e+001  7.063103e+001 
3925000000  -4.319817e+001  6.475317e+001 
3928125000  -4.281158e+001  5.734839e+001 
3931250000  -4.380197e+001  4.852299e+001 
3934375000  -4.376213e+001  4.503395e+001 
3937500000  -4.466661e+001  4.455792e+001 
3940625000  -4.463257e+001  4.304984e+001 
3943750000  -4.353057e+001  3.734951e+001 
3946875000  -4.285060e+001  2.874841e+001 
3950000000  -4.302876e+001  2.033542e+001 
3953125000  -4.399040e+001  2.389693e+001 
3956250000  -4.261950e+001  2.014347e+001 
3959375000  -4.162357e+001  1.230184e+001 
3962500000  -4.132318e+001  3.214959e+000 
3965625000  -4.184626e+001  -7.502670e+000 
3968750000  -4.248337e+001  -1.509152e+001 
3971875000  -4.244291e+001  -2.217153e+001 
3975000000  -4.196737e+001  -2.668509e+001 
3978125000  -4.212488e+001  -3.342658e+001 
3981250000  -4.168751e+001  -4.105568e+001 
3984375000  -4.266109e+001  -4.730505e+001 
3987500000  -4.308358e+001  -5.129648e+001 
3990625000  -4.282758e+001  -5.902924e+001 
3993750000  -4.284790e+001  -6.302541e+001 
3996875000  -4.308372e+001  -6.738868e+001 
4000000000  -4.370081e+001  -7.272421e+001 
4003125000  -4.408982e+001  -7.282656e+001 
4006250000  -4.204284e+001  -8.015994e+001 
4009375000  -4.145418e+001  -9.373450e+001 
4012500000  -4.298238e+001  -1.011802e+002 
4015625000  -4.440011e+001  -1.054851e+002 
4018750000  -4.386133e+001  -1.086539e+002 
4021875000  -4.305240e+001  -1.154408e+002 
4025000000  -4.319623e+001  -1.232578e+002 
4028125000  -4.327612e+001  -1.291997e+002 
4031250000  -4.375625e+001  -1.396383e+002 
4034375000  -4.395230e+001  -1.393889e+002 
4037500000  -4.385098e+001  -1.419233e+002 
4040625000  -4.417942e+001  -1.479267e+002 
4043750000  -4.437847e+001  -1.532814e+002 
4046875000  -4.438700e+001  -1.581844e+002 
4050000000  -4.410504e+001  -1.641085e+002 
4053125000  -4.476569e+001  -1.649418e+002 
4056250000  -4.564030e+001  -1.628653e+002 
4059375000  -4.384443e+001  -1.637383e+002 
4062500000  -4.322693e+001  -1.736241e+002 
4065625000  -4.391133e+001  -1.792997e+002 
4068750000  -4.292410e+001  1.708486e+002 
4071875000  -4.265753e+001  1.619411e+002 
4075000000  -4.338112e+001  1.531094e+002 
4078125000  -4.407459e+001  1.513173e+002 
4081250000  -4.354553e+001  1.438461e+002 
4084375000  -4.334502e+001  1.358763e+002 
4087500000  -4.410191e+001  1.271251e+002 
4090625000  -4.470228e+001  1.275519e+002 
4093750000  -4.438759e+001  1.232347e+002 
4096875000  -4.420874e+001  1.173253e+002 
4100000000  -4.535112e+001  1.087310e+002 
4103125000  -4.596706e+001  1.130955e+002 
4106250000  -4.483892e+001  1.148291e+002 
4109375000  -4.421869e+001  1.097645e+002 
4112500000  -4.400703e+001  1.014865e+002 
4115625000  -4.384204e+001  9.379303e+001 
4118750000  -4.397482e+001  8.790569e+001 
4121875000  -4.351237e+001  8.275385e+001 
4125000000  -4.438866e+001  7.314774e+001 
4128125000  -4.512803e+001  7.835176e+001 
4131250000  -4.372463e+001  7.928110e+001 
4134375000  -4.154916e+001  7.004664e+001 
4137500000  -4.182987e+001  4.783366e+001 
4140625000  -4.458548e+001  4.275673e+001 
4143750000  -4.483007e+001  4.705496e+001 
4146875000  -4.392458e+001  4.780630e+001 
4150000000  -4.240805e+001  3.687549e+001 
4153125000  -4.337124e+001  2.967449e+001 
4156250000  -4.464540e+001  2.606470e+001 
4159375000  -4.365230e+001  3.036278e+001 
4162500000  -4.260954e+001  2.620117e+001 
4165625000  -4.138105e+001  1.455212e+001 
4168750000  -4.109262e+001  5.441792e+000 
4171875000  -4.111700e+001  -6.079160e+000 
4175000000  -4.181424e+001  -1.436633e+001 
4178125000  -4.212442e+001  -1.871735e+001 
4181250000  -4.211465e+001  -2.341086e+001 
4184375000  -4.256855e+001  -2.874102e+001 
4187500000  -4.216188e+001  -3.823967e+001 
4190625000  -4.284948e+001  -4.763285e+001 
4193750000  -4.426104e+001  -5.212239e+001 
4196875000  -4.503378e+001  -5.645367e+001 
4200000000  -4.620439e+001  -5.036909e+001 
4203125000  -4.465432e+001  -3.808139e+001 
4206250000  -4.116635e+001  -4.978701e+001 
4209375000  -4.122651e+001  -7.496427e+001 
4212500000  -4.372161e+001  -7.836473e+001 
4215625000  -4.361723e+001  -7.149455e+001 
4218750000  -4.234478e+001  -7.638229e+001 
4221875000  -4.089038e+001  -8.259867e+001 
4225000000  -4.243253e+001  -9.757505e+001 
4228125000  -4.207777e+001  -9.460780e+001 
4231250000  -4.073760e+001  -1.051950e+002 
4234375000  -4.107700e+001  -1.164785e+002 
4237500000  -4.089243e+001  -1.197564e+002 
4240625000  -4.089288e+001  -1.314732e+002 
4243750000  -4.221161e+001  -1.404161e+002 
4246875000  -4.319026e+001  -1.419936e+002 
4250000000  -4.249903e+001  -1.393350e+002 
4253125000  -4.266193e+001  -1.416271e+002 
4256250000  -4.260339e+001  -1.492195e+002 
4259375000  -4.163776e+001  -1.567616e+002 
4262500000  -4.236994e+001  -1.620264e+002 
4265625000  -4.216592e+001  -1.626788e+002 
4268750000  -4.074224e+001  -1.712355e+002 
4271875000  -4.039412e+001  -1.796971e+002 
4275000000  -4.016186e+001  1.714214e+002 
4278125000  -4.114288e+001  1.571430e+002 
4281250000  -4.242090e+001  1.559171e+002 
4284375000  -4.211589e+001  1.521489e+002 
4287500000  -4.363517e+001  1.516994e+002 
4290625000  -4.353056e+001  1.539688e+002 
4293750000  -4.127156e+001  1.513082e+002 
4296875000  -4.002819e+001  1.380255e+002 
4300000000  -4.167488e+001  1.301063e+002 
4303125000  -4.207011e+001  1.307363e+002 
4306250000  -4.074835e+001  1.296240e+002 
4309375000  -3.973534e+001  1.199706e+002 
4312500000  -3.951852e+001  1.067537e+002 
4315625000  -4.013216e+001  9.824176e+001 
4318750000  -4.088374e+001  9.272247e+001 
4321875000  -4.091181e+001  9.138456e+001 
4325000000  -3.994624e+001  8.663099e+001 
4328125000  -3.929792e+001  7.467990e+001 
4331250000  -3.964338e+001  6.152769e+001 
4334375000  -4.093484e+001  5.509289e+001 
4337500000  -4.190187e+001  5.268306e+001 
4340625000  -4.226855e+001  5.560025e+001 
4343750000  -4.096542e+001  5.112363e+001 
4346875000  -4.082878e+001  3.992089e+001 
4350000000  -4.101778e+001  3.041346e+001 
4353125000  -4.180792e+001  2.124189e+001 
4356250000  -4.383667e+001  2.689125e+001 
4359375000  -4.290100e+001  4.050974e+001 
4362500000  -3.933205e+001  2.867425e+001 
4365625000  -3.905386e+001  1.086847e+001 
4368750000  -4.020918e+001  2.610303e-001 
4371875000  -4.130605e+001  -3.711611e+000 
4375000000  -4.088113e+001  -6.318845e+000 
4378125000  -4.033488e+001  -1.635224e+001 
4381250000  -4.044133e+001  -2.480089e+001 
4384375000  -4.078597e+001  -3.136997e+001 
4387500000  -4.157964e+001  -3.895273e+001 
4390625000  -4.199768e+001  -4.004178e+001 
4393750000  -4.189722e+001  -4.058655e+001 
4396875000  -4.116849e+001  -4.429122e+001 
4400000000  -4.073219e+001  -5.714196e+001 
4403125000  -4.136866e+001  -6.632244e+001 
4406250000  -4.192440e+001  -6.884516e+001 
4409375000  -4.227588e+001  -7.330992e+001 
4412500000  -4.329910e+001  -7.954228e+001 
4415625000  -4.275453e+001  -7.395122e+001 
4418750000  -4.159745e+001  -7.643456e+001 
