!Agilent Technologies,E8363B,MY43030201,A.06.04.32
!Agilent E8363B: A.06.04.32
!Date: Tuesday, November 11, 2014 21:52:51
!Correction: S21(Response(S21)) 
!S1P File: Measurement: S21:
# Hz S  dB   R 50
3000000000  -4.363756e+001  -1.629027e+002 
3003125000  -4.530568e+001  -1.672643e+002 
3006250000  -4.537161e+001  -1.691482e+002 
3009375000  -4.619838e+001  -1.652955e+002 
3012500000  -4.506435e+001  -1.724160e+002 
3015625000  -4.487105e+001  -1.787089e+002 
3018750000  -4.518588e+001  1.789963e+002 
3021875000  -4.360764e+001  1.794668e+002 
3025000000  -4.247580e+001  1.742688e+002 
3028125000  -4.174105e+001  1.623098e+002 
3031250000  -4.093361e+001  1.507396e+002 
3034375000  -4.074008e+001  1.356007e+002 
3037500000  -4.158166e+001  1.243307e+002 
3040625000  -4.291867e+001  1.176073e+002 
3043750000  -4.330838e+001  1.108066e+002 
3046875000  -4.443219e+001  1.047817e+002 
3050000000  -4.533123e+001  1.008269e+002 
3053125000  -4.472783e+001  1.037351e+002 
3056250000  -4.457628e+001  1.069995e+002 
3059375000  -4.368533e+001  1.032420e+002 
3062500000  -4.259900e+001  9.724615e+001 
3065625000  -4.233738e+001  8.739107e+001 
3068750000  -4.155222e+001  7.996210e+001 
3071875000  -4.204113e+001  7.742577e+001 
3075000000  -4.119913e+001  6.911643e+001 
3078125000  -4.122210e+001  6.227976e+001 
3081250000  -4.130909e+001  5.406012e+001 
3084375000  -4.044115e+001  4.990545e+001 
3087500000  -4.061676e+001  4.094498e+001 
3090625000  -4.006357e+001  2.943830e+001 
3093750000  -4.108050e+001  1.956077e+001 
3096875000  -4.126130e+001  1.415737e+001 
3100000000  -4.118707e+001  9.897910e+000 
3103125000  -4.132761e+001  4.265594e+000 
3106250000  -4.109632e+001  -3.704439e-002 
3109375000  -4.113140e+001  -4.283664e+000 
3112500000  -4.088151e+001  -1.454034e+001 
3115625000  -4.094839e+001  -1.693675e+001 
3118750000  -4.067713e+001  -2.284370e+001 
3121875000  -4.031556e+001  -3.527246e+001 
3125000000  -4.210309e+001  -3.940794e+001 
3128125000  -4.202661e+001  -3.235830e+001 
3131250000  -3.951375e+001  -4.119596e+001 
3134375000  -3.881567e+001  -5.872258e+001 
3137500000  -3.968628e+001  -7.147829e+001 
3140625000  -4.097972e+001  -7.601344e+001 
3143750000  -4.160503e+001  -7.917141e+001 
3146875000  -4.100530e+001  -7.843420e+001 
3150000000  -4.041624e+001  -8.487672e+001 
3153125000  -4.067830e+001  -9.314338e+001 
3156250000  -4.159361e+001  -9.080336e+001 
3159375000  -3.897255e+001  -9.419309e+001 
3162500000  -3.763210e+001  -1.111950e+002 
3165625000  -3.887444e+001  -1.233003e+002 
3168750000  -3.881652e+001  -1.257634e+002 
3171875000  -3.863290e+001  -1.345232e+002 
3175000000  -3.917106e+001  -1.451744e+002 
3178125000  -3.864126e+001  -1.477151e+002 
3181250000  -3.801311e+001  -1.561831e+002 
3184375000  -3.769321e+001  -1.690387e+002 
3187500000  -3.938604e+001  1.757746e+002 
3190625000  -4.080225e+001  1.687597e+002 
3193750000  -4.108145e+001  1.729027e+002 
3196875000  -4.119433e+001  1.728709e+002 
3200000000  -3.988996e+001  1.666378e+002 
3203125000  -3.954464e+001  1.584634e+002 
3206250000  -3.966299e+001  1.503350e+002 
3209375000  -3.942743e+001  1.406414e+002 
3212500000  -3.992333e+001  1.350099e+002 
3215625000  -3.959607e+001  1.318498e+002 
3218750000  -4.041932e+001  1.191894e+002 
3221875000  -4.070176e+001  1.100290e+002 
3225000000  -4.027503e+001  1.070899e+002 
3228125000  -4.122728e+001  9.736089e+001 
3231250000  -4.133695e+001  9.626559e+001 
3234375000  -4.081704e+001  9.158997e+001 
3237500000  -4.100465e+001  8.795180e+001 
3240625000  -4.051819e+001  8.112907e+001 
3243750000  -4.020510e+001  6.902467e+001 
3246875000  -4.067906e+001  6.195783e+001 
3250000000  -4.098281e+001  5.718017e+001 
3253125000  -4.128496e+001  5.258744e+001 
3256250000  -4.025774e+001  4.233946e+001 
3259375000  -4.092261e+001  2.975906e+001 
3262500000  -4.213287e+001  2.249766e+001 
3265625000  -4.255836e+001  2.616881e+001 
3268750000  -4.246657e+001  2.485016e+001 
3271875000  -4.151724e+001  2.039405e+001 
3275000000  -4.110218e+001  8.370378e+000 
3278125000  -4.165355e+001  2.729187e+000 
3281250000  -4.170719e+001  -2.194014e+000 
3284375000  -4.114960e+001  -1.082111e+001 
3287500000  -4.155878e+001  -1.732761e+001 
3290625000  -4.140273e+001  -2.735143e+001 
3293750000  -4.143082e+001  -3.425801e+001 
3296875000  -4.263964e+001  -3.894035e+001 
3300000000  -4.194374e+001  -4.145595e+001 
3303125000  -4.116596e+001  -5.184407e+001 
3306250000  -4.078514e+001  -6.233161e+001 
3309375000  -4.049218e+001  -7.255432e+001 
3312500000  -4.113386e+001  -8.726583e+001 
3315625000  -4.259113e+001  -9.581271e+001 
3318750000  -4.386657e+001  -1.042808e+002 
3321875000  -4.505306e+001  -9.948238e+001 
3325000000  -4.515290e+001  -9.624229e+001 
3328125000  -4.399454e+001  -9.597601e+001 
3331250000  -4.240486e+001  -1.010449e+002 
3334375000  -4.002299e+001  -1.184538e+002 
3337500000  -4.081897e+001  -1.430653e+002 
3340625000  -4.266884e+001  -1.533725e+002 
3343750000  -4.435193e+001  -1.559369e+002 
3346875000  -4.420567e+001  -1.580618e+002 
3350000000  -4.341014e+001  -1.623467e+002 
3353125000  -4.356760e+001  -1.709492e+002 
3356250000  -4.332291e+001  1.779101e+002 
3359375000  -4.436727e+001  1.643605e+002 
3362500000  -4.483069e+001  1.570675e+002 
3365625000  -4.556776e+001  1.507267e+002 
3368750000  -4.635506e+001  1.454846e+002 
3371875000  -4.681664e+001  1.378980e+002 
3375000000  -4.799495e+001  1.331392e+002 
3378125000  -4.929378e+001  1.318442e+002 
3381250000  -5.090573e+001  1.389334e+002 
3384375000  -4.735057e+001  1.489978e+002 
3387500000  -4.431092e+001  1.277997e+002 
3390625000  -4.641473e+001  1.041894e+002 
3393750000  -4.767595e+001  1.028862e+002 
3396875000  -4.643724e+001  9.892465e+001 
3400000000  -4.583841e+001  8.682448e+001 
3403125000  -4.690110e+001  7.567123e+001 
3406250000  -4.726376e+001  7.090525e+001 
3409375000  -4.658042e+001  5.896252e+001 
3412500000  -4.802044e+001  5.320383e+001 
3415625000  -4.862958e+001  4.970884e+001 
3418750000  -4.847361e+001  4.225561e+001 
3421875000  -4.851052e+001  3.635827e+001 
3425000000  -4.771485e+001  3.412987e+001 
3428125000  -4.702213e+001  2.640301e+001 
3431250000  -4.701312e+001  1.450632e+001 
3434375000  -4.715615e+001  -1.126001e+000 
3437500000  -4.758748e+001  -3.910653e+000 
3440625000  -4.760064e+001  -9.064199e+000 
3443750000  -4.622502e+001  -1.327836e+001 
3446875000  -4.568661e+001  -3.215881e+001 
3450000000  -4.501457e+001  -4.460423e+001 
3453125000  -4.593146e+001  -6.200595e+001 
3456250000  -4.734002e+001  -6.982375e+001 
3459375000  -4.783785e+001  -7.386366e+001 
3462500000  -4.853020e+001  -7.611677e+001 
3465625000  -4.694323e+001  -9.193018e+001 
3468750000  -4.750274e+001  -9.803648e+001 
3471875000  -4.684720e+001  -1.021528e+002 
3475000000  -4.710688e+001  -1.161273e+002 
3478125000  -4.763078e+001  -1.312601e+002 
3481250000  -4.905021e+001  -1.387112e+002 
3484375000  -4.861795e+001  -1.349678e+002 
3487500000  -4.775613e+001  -1.436888e+002 
3490625000  -4.702081e+001  -1.566519e+002 
3493750000  -4.768354e+001  -1.692710e+002 
3496875000  -4.843292e+001  -1.714004e+002 
3500000000  -4.859894e+001  -1.733317e+002 
3503125000  -4.750368e+001  -1.773215e+002 
3506250000  -4.584985e+001  1.689076e+002 
3509375000  -4.571681e+001  1.489873e+002 
3512500000  -4.636926e+001  1.365473e+002 
3515625000  -4.738676e+001  1.277017e+002 
3518750000  -4.816188e+001  1.283015e+002 
3521875000  -4.820171e+001  1.196842e+002 
3525000000  -4.903465e+001  1.115891e+002 
3528125000  -4.743056e+001  1.159171e+002 
3531250000  -4.648445e+001  9.953606e+001 
3534375000  -4.723932e+001  8.744798e+001 
3537500000  -4.778902e+001  7.747370e+001 
3540625000  -4.902552e+001  7.371969e+001 
3543750000  -4.941024e+001  7.676010e+001 
3546875000  -4.780352e+001  8.034083e+001 
3550000000  -4.639828e+001  7.298136e+001 
3553125000  -4.623328e+001  5.291182e+001 
3556250000  -4.748695e+001  4.583996e+001 
3559375000  -4.680493e+001  4.025607e+001 
3562500000  -4.657224e+001  3.317678e+001 
3565625000  -4.708717e+001  2.291103e+001 
3568750000  -4.781568e+001  2.223520e+001 
3571875000  -4.729305e+001  1.577321e+001 
3575000000  -4.683735e+001  1.001570e+001 
3578125000  -4.819122e+001  8.022340e+000 
3581250000  -4.767178e+001  7.019819e-001 
3584375000  -4.574328e+001  -8.673791e+000 
3587500000  -4.582261e+001  -1.764884e+001 
3590625000  -4.652726e+001  -2.611423e+001 
3593750000  -4.817710e+001  -2.773882e+001 
3596875000  -4.713900e+001  -2.425752e+001 
3600000000  -4.437647e+001  -3.393563e+001 
3603125000  -4.512481e+001  -4.788791e+001 
3606250000  -4.619967e+001  -5.827886e+001 
3609375000  -4.605133e+001  -5.488993e+001 
3612500000  -4.643322e+001  -6.511267e+001 
3615625000  -4.578168e+001  -7.256157e+001 
3618750000  -4.664542e+001  -7.312278e+001 
3621875000  -4.554332e+001  -7.758831e+001 
3625000000  -4.568270e+001  -8.622446e+001 
3628125000  -4.482444e+001  -9.145163e+001 
3631250000  -4.491633e+001  -1.004679e+002 
3634375000  -4.551597e+001  -1.012570e+002 
3637500000  -4.448972e+001  -1.004720e+002 
3640625000  -4.350582e+001  -1.061690e+002 
3643750000  -4.333514e+001  -1.190895e+002 
3646875000  -4.372640e+001  -1.310178e+002 
3650000000  -4.406073e+001  -1.362817e+002 
3653125000  -4.336404e+001  -1.446937e+002 
3656250000  -4.429745e+001  -1.486649e+002 
3659375000  -4.389919e+001  -1.546305e+002 
3662500000  -4.327454e+001  -1.629385e+002 
3665625000  -4.351636e+001  -1.667723e+002 
3668750000  -4.205022e+001  -1.715876e+002 
3671875000  -4.152642e+001  1.740792e+002 
3675000000  -4.223386e+001  1.642640e+002 
3678125000  -4.275147e+001  1.613453e+002 
3681250000  -4.242514e+001  1.540444e+002 
3684375000  -4.273459e+001  1.474500e+002 
3687500000  -4.305522e+001  1.375019e+002 
3690625000  -4.358084e+001  1.323717e+002 
3693750000  -4.430048e+001  1.297740e+002 
3696875000  -4.380963e+001  1.279298e+002 
3700000000  -4.306866e+001  1.176654e+002 
3703125000  -4.378531e+001  1.114605e+002 
3706250000  -4.476096e+001  1.085863e+002 
3709375000  -4.384671e+001  1.092190e+002 
3712500000  -4.342050e+001  1.042114e+002 
3715625000  -4.162513e+001  9.500619e+001 
3718750000  -4.173983e+001  8.426723e+001 
3721875000  -4.191371e+001  7.716473e+001 
3725000000  -4.257281e+001  6.636983e+001 
3728125000  -4.261291e+001  6.308830e+001 
3731250000  -4.184056e+001  5.655737e+001 
3734375000  -4.195578e+001  4.908688e+001 
3737500000  -4.285080e+001  4.067298e+001 
3740625000  -4.298512e+001  3.373603e+001 
3743750000  -4.273581e+001  2.864115e+001 
3746875000  -4.315358e+001  2.298693e+001 
3750000000  -4.345648e+001  1.805795e+001 
3753125000  -4.360067e+001  1.520635e+001 
3756250000  -4.363544e+001  1.022471e+001 
3759375000  -4.364236e+001  5.994307e+000 
3762500000  -4.341956e+001  8.527618e-001 
3765625000  -4.446309e+001  -5.873490e+000 
3768750000  -4.346787e+001  -4.060241e+000 
3771875000  -4.209785e+001  -1.015282e+001 
3775000000  -4.205348e+001  -2.180089e+001 
3778125000  -4.258016e+001  -2.784624e+001 
3781250000  -4.262592e+001  -3.458467e+001 
3784375000  -4.246594e+001  -3.813543e+001 
3787500000  -4.203218e+001  -4.316046e+001 
3790625000  -4.284855e+001  -5.150574e+001 
3793750000  -4.249452e+001  -5.830285e+001 
3796875000  -4.173964e+001  -6.320631e+001 
3800000000  -4.074609e+001  -6.996980e+001 
3803125000  -4.156245e+001  -8.301707e+001 
3806250000  -4.251678e+001  -8.822291e+001 
3809375000  -4.184861e+001  -9.187994e+001 
3812500000  -4.199084e+001  -1.025099e+002 
3815625000  -4.286539e+001  -1.135023e+002 
3818750000  -4.466489e+001  -1.110280e+002 
3821875000  -4.353378e+001  -1.011692e+002 
3825000000  -4.150269e+001  -1.058576e+002 
3828125000  -4.054716e+001  -1.266258e+002 
3831250000  -4.145052e+001  -1.407173e+002 
3834375000  -4.363665e+001  -1.437540e+002 
3837500000  -4.365523e+001  -1.405237e+002 
3840625000  -4.241222e+001  -1.471995e+002 
3843750000  -4.157385e+001  -1.641589e+002 
3846875000  -4.330986e+001  -1.713281e+002 
3850000000  -4.366289e+001  -1.620739e+002 
3853125000  -4.369205e+001  -1.662145e+002 
3856250000  -4.257454e+001  -1.727088e+002 
3859375000  -4.233623e+001  1.793457e+002 
3862500000  -4.199141e+001  1.676632e+002 
3865625000  -4.271627e+001  1.597650e+002 
3868750000  -4.260373e+001  1.581279e+002 
3871875000  -4.202208e+001  1.506647e+002 
3875000000  -4.251366e+001  1.391805e+002 
3878125000  -4.330589e+001  1.377241e+002 
3881250000  -4.289405e+001  1.336735e+002 
3884375000  -4.227456e+001  1.245412e+002 
3887500000  -4.315465e+001  1.190573e+002 
3890625000  -4.355709e+001  1.138039e+002 
3893750000  -4.427378e+001  1.152898e+002 
3896875000  -4.406701e+001  1.083794e+002 
3900000000  -4.430527e+001  1.053216e+002 
3903125000  -4.357924e+001  1.001696e+002 
3906250000  -4.341997e+001  9.357961e+001 
3909375000  -4.215639e+001  8.761334e+001 
3912500000  -4.360186e+001  7.742021e+001 
3915625000  -4.481433e+001  7.820248e+001 
3918750000  -4.458723e+001  7.357138e+001 
3921875000  -4.379432e+001  6.876904e+001 
3925000000  -4.299618e+001  6.457596e+001 
3928125000  -4.268140e+001  5.365554e+001 
3931250000  -4.365039e+001  4.621009e+001 
3934375000  -4.393527e+001  4.660173e+001 
3937500000  -4.450385e+001  4.020441e+001 
3940625000  -4.423456e+001  3.964977e+001 
3943750000  -4.308118e+001  3.453891e+001 
3946875000  -4.257199e+001  2.591057e+001 
3950000000  -4.371753e+001  1.831755e+001 
3953125000  -4.398130e+001  1.852153e+001 
3956250000  -4.279691e+001  1.756583e+001 
3959375000  -4.179193e+001  1.147151e+001 
3962500000  -4.105685e+001  1.785740e-001 
3965625000  -4.178264e+001  -1.018083e+001 
3968750000  -4.231785e+001  -1.909850e+001 
3971875000  -4.243476e+001  -2.460062e+001 
3975000000  -4.196605e+001  -2.727846e+001 
3978125000  -4.193831e+001  -3.350629e+001 
3981250000  -4.172295e+001  -4.107854e+001 
3984375000  -4.226045e+001  -5.133878e+001 
3987500000  -4.260391e+001  -5.681627e+001 
3990625000  -4.295084e+001  -5.831294e+001 
3993750000  -4.310482e+001  -6.558914e+001 
3996875000  -4.314772e+001  -7.295985e+001 
4000000000  -4.375447e+001  -7.378511e+001 
4003125000  -4.381421e+001  -7.303444e+001 
4006250000  -4.169836e+001  -8.145072e+001 
4009375000  -4.113091e+001  -9.833257e+001 
4012500000  -4.250885e+001  -1.058352e+002 
4015625000  -4.377560e+001  -1.056657e+002 
4018750000  -4.366521e+001  -1.095371e+002 
4021875000  -4.302458e+001  -1.211688e+002 
4025000000  -4.315277e+001  -1.250593e+002 
4028125000  -4.322128e+001  -1.317920e+002 
4031250000  -4.383691e+001  -1.403773e+002 
4034375000  -4.398122e+001  -1.397457e+002 
4037500000  -4.396547e+001  -1.469842e+002 
4040625000  -4.427773e+001  -1.520095e+002 
4043750000  -4.434465e+001  -1.517857e+002 
4046875000  -4.439484e+001  -1.615219e+002 
4050000000  -4.410835e+001  -1.666984e+002 
4053125000  -4.469279e+001  -1.684418e+002 
4056250000  -4.577501e+001  -1.649532e+002 
4059375000  -4.407191e+001  -1.688476e+002 
4062500000  -4.302089e+001  -1.757990e+002 
4065625000  -4.344399e+001  1.787539e+002 
4068750000  -4.293297e+001  1.698132e+002 
4071875000  -4.255292e+001  1.579415e+002 
4075000000  -4.356220e+001  1.529373e+002 
4078125000  -4.393624e+001  1.491484e+002 
4081250000  -4.331927e+001  1.419928e+002 
4084375000  -4.345029e+001  1.334972e+002 
4087500000  -4.405167e+001  1.269731e+002 
4090625000  -4.468679e+001  1.247428e+002 
4093750000  -4.437918e+001  1.214479e+002 
4096875000  -4.397581e+001  1.134705e+002 
4100000000  -4.538156e+001  1.090787e+002 
4103125000  -4.585712e+001  1.055119e+002 
4106250000  -4.525718e+001  1.155260e+002 
4109375000  -4.437541e+001  1.061490e+002 
4112500000  -4.384304e+001  9.769141e+001 
4115625000  -4.428783e+001  9.395173e+001 
4118750000  -4.372392e+001  8.549650e+001 
4121875000  -4.356330e+001  8.277024e+001 
4125000000  -4.437138e+001  7.273953e+001 
4128125000  -4.496378e+001  7.474091e+001 
4131250000  -4.343510e+001  7.801334e+001 
4134375000  -4.134433e+001  6.623929e+001 
4137500000  -4.192298e+001  4.651538e+001 
4140625000  -4.393557e+001  3.937822e+001 
4143750000  -4.501579e+001  4.499825e+001 
4146875000  -4.396931e+001  4.548573e+001 
4150000000  -4.280309e+001  3.652025e+001 
4153125000  -4.310295e+001  2.537440e+001 
4156250000  -4.395200e+001  2.247178e+001 
4159375000  -4.381775e+001  2.488822e+001 
4162500000  -4.244889e+001  2.150252e+001 
4165625000  -4.139477e+001  1.455453e+001 
4168750000  -4.089007e+001  3.715453e+000 
4171875000  -4.088547e+001  -1.079773e+001 
4175000000  -4.188523e+001  -1.806572e+001 
4178125000  -4.206088e+001  -2.329659e+001 
4181250000  -4.187876e+001  -2.817112e+001 
4184375000  -4.252152e+001  -3.506910e+001 
4187500000  -4.229724e+001  -3.912885e+001 
4190625000  -4.263654e+001  -5.015477e+001 
4193750000  -4.375512e+001  -5.547989e+001 
4196875000  -4.515976e+001  -5.992344e+001 
4200000000  -4.567208e+001  -4.954094e+001 
4203125000  -4.421455e+001  -4.151387e+001 
4206250000  -4.120852e+001  -5.089421e+001 
4209375000  -4.149323e+001  -7.485330e+001 
4212500000  -4.380217e+001  -8.147203e+001 
4215625000  -4.430474e+001  -7.392340e+001 
4218750000  -4.244743e+001  -7.617139e+001 
4221875000  -4.134437e+001  -8.757267e+001 
4225000000  -4.228693e+001  -9.919217e+001 
4228125000  -4.225109e+001  -9.480226e+001 
4231250000  -4.096420e+001  -1.047793e+002 
4234375000  -4.077109e+001  -1.168347e+002 
4237500000  -4.070869e+001  -1.223602e+002 
4240625000  -4.117427e+001  -1.324584e+002 
4243750000  -4.234562e+001  -1.421754e+002 
4246875000  -4.261689e+001  -1.416846e+002 
4250000000  -4.260832e+001  -1.430798e+002 
4253125000  -4.251112e+001  -1.470630e+002 
4256250000  -4.251440e+001  -1.518743e+002 
4259375000  -4.170423e+001  -1.574290e+002 
4262500000  -4.216877e+001  -1.654146e+002 
4265625000  -4.196545e+001  -1.665180e+002 
4268750000  -4.075490e+001  -1.731957e+002 
4271875000  -4.041677e+001  1.770206e+002 
4275000000  -4.001070e+001  1.682193e+002 
4278125000  -4.138451e+001  1.546451e+002 
4281250000  -4.227166e+001  1.506627e+002 
4284375000  -4.196717e+001  1.494754e+002 
4287500000  -4.380657e+001  1.472434e+002 
4290625000  -4.382893e+001  1.524474e+002 
4293750000  -4.171300e+001  1.537163e+002 
4296875000  -4.034504e+001  1.389398e+002 
4300000000  -4.132520e+001  1.261490e+002 
4303125000  -4.208251e+001  1.271351e+002 
4306250000  -4.097698e+001  1.273707e+002 
4309375000  -3.961100e+001  1.179771e+002 
4312500000  -3.993169e+001  1.057121e+002 
4315625000  -4.010098e+001  9.584810e+001 
4318750000  -4.064380e+001  8.910883e+001 
4321875000  -4.053401e+001  8.626878e+001 
4325000000  -3.989271e+001  8.345213e+001 
4328125000  -3.948038e+001  7.233404e+001 
4331250000  -3.982125e+001  6.081815e+001 
4334375000  -4.056915e+001  5.305783e+001 
4337500000  -4.212013e+001  5.059376e+001 
4340625000  -4.242572e+001  5.144521e+001 
4343750000  -4.095520e+001  4.790588e+001 
4346875000  -4.102577e+001  3.771166e+001 
4350000000  -4.112397e+001  2.777266e+001 
4353125000  -4.204933e+001  2.085276e+001 
4356250000  -4.348630e+001  2.356272e+001 
4359375000  -4.254605e+001  3.326199e+001 
4362500000  -3.931093e+001  2.597103e+001 
4365625000  -3.901528e+001  6.071912e+000 
4368750000  -4.013454e+001  -2.243679e+000 
4371875000  -4.115500e+001  -5.429125e+000 
4375000000  -4.033965e+001  -1.129943e+001 
4378125000  -4.037631e+001  -1.836939e+001 
4381250000  -4.077176e+001  -2.487502e+001 
4384375000  -4.044466e+001  -3.332586e+001 
4387500000  -4.118982e+001  -4.128206e+001 
4390625000  -4.229653e+001  -4.126117e+001 
4393750000  -4.135396e+001  -4.475853e+001 
4396875000  -4.118636e+001  -4.840998e+001 
4400000000  -4.051579e+001  -5.669183e+001 
4403125000  -4.142060e+001  -6.859583e+001 
4406250000  -4.227593e+001  -7.320456e+001 
4409375000  -4.222462e+001  -7.870927e+001 
4412500000  -4.349988e+001  -8.096281e+001 
4415625000  -4.300521e+001  -7.636440e+001 
4418750000  -4.177040e+001  -8.066475e+001 
