!Agilent Technologies,E8363B,MY43030201,A.06.04.32
!Agilent E8363B: A.06.04.32
!Date: Tuesday, November 11, 2014 21:52:19
!Correction: S21(Response(S21)) 
!S1P File: Measurement: S21:
# Hz S  dB   R 50
3000000000  -4.369208e+001  -1.629568e+002 
3003125000  -4.527884e+001  -1.682714e+002 
3006250000  -4.525834e+001  -1.697178e+002 
3009375000  -4.659864e+001  -1.639482e+002 
3012500000  -4.493077e+001  -1.708289e+002 
3015625000  -4.507273e+001  1.788525e+002 
3018750000  -4.553959e+001  1.791147e+002 
3021875000  -4.394635e+001  1.784718e+002 
3025000000  -4.271933e+001  1.748620e+002 
3028125000  -4.161581e+001  1.633841e+002 
3031250000  -4.088655e+001  1.499122e+002 
3034375000  -4.087661e+001  1.364442e+002 
3037500000  -4.171919e+001  1.251571e+002 
3040625000  -4.295200e+001  1.191897e+002 
3043750000  -4.341634e+001  1.119607e+002 
3046875000  -4.390171e+001  1.055361e+002 
3050000000  -4.525038e+001  1.002199e+002 
3053125000  -4.488187e+001  1.041028e+002 
3056250000  -4.518362e+001  1.064715e+002 
3059375000  -4.398677e+001  1.034600e+002 
3062500000  -4.255829e+001  9.740467e+001 
3065625000  -4.245066e+001  8.728683e+001 
3068750000  -4.186784e+001  8.074117e+001 
3071875000  -4.192683e+001  7.820657e+001 
3075000000  -4.115295e+001  6.872286e+001 
3078125000  -4.132359e+001  6.264118e+001 
3081250000  -4.147450e+001  5.626526e+001 
3084375000  -4.050201e+001  4.995153e+001 
3087500000  -4.073499e+001  4.154779e+001 
3090625000  -3.996407e+001  2.915239e+001 
3093750000  -4.118473e+001  1.926344e+001 
3096875000  -4.115838e+001  1.490244e+001 
3100000000  -4.128557e+001  1.053789e+001 
3103125000  -4.148876e+001  5.578441e+000 
3106250000  -4.100387e+001  3.548147e-001 
3109375000  -4.087259e+001  -4.530924e+000 
3112500000  -4.091830e+001  -1.336836e+001 
3115625000  -4.092904e+001  -1.754706e+001 
3118750000  -4.072239e+001  -2.321703e+001 
3121875000  -4.040264e+001  -3.500951e+001 
3125000000  -4.210006e+001  -3.662227e+001 
3128125000  -4.208736e+001  -3.276901e+001 
3131250000  -3.944678e+001  -4.070581e+001 
3134375000  -3.885789e+001  -5.825554e+001 
3137500000  -3.971263e+001  -7.158726e+001 
3140625000  -4.083392e+001  -7.510657e+001 
3143750000  -4.135733e+001  -7.985495e+001 
3146875000  -4.117324e+001  -7.855262e+001 
3150000000  -4.030041e+001  -8.351942e+001 
3153125000  -4.090841e+001  -9.340827e+001 
3156250000  -4.132259e+001  -9.096612e+001 
3159375000  -3.897895e+001  -9.444906e+001 
3162500000  -3.759676e+001  -1.099101e+002 
3165625000  -3.907935e+001  -1.240217e+002 
3168750000  -3.886721e+001  -1.260911e+002 
3171875000  -3.861378e+001  -1.340679e+002 
3175000000  -3.910818e+001  -1.441021e+002 
3178125000  -3.869233e+001  -1.455269e+002 
3181250000  -3.806147e+001  -1.565162e+002 
3184375000  -3.781407e+001  -1.682989e+002 
3187500000  -3.916960e+001  1.758444e+002 
3190625000  -4.083638e+001  1.688992e+002 
3193750000  -4.115284e+001  1.735133e+002 
3196875000  -4.096869e+001  1.723534e+002 
3200000000  -3.989188e+001  1.687105e+002 
3203125000  -3.958121e+001  1.589904e+002 
3206250000  -3.977956e+001  1.502714e+002 
3209375000  -3.953243e+001  1.406876e+002 
3212500000  -3.999859e+001  1.339893e+002 
3215625000  -3.958623e+001  1.308927e+002 
3218750000  -4.061859e+001  1.188531e+002 
3221875000  -4.057441e+001  1.121266e+002 
3225000000  -4.040200e+001  1.069536e+002 
3228125000  -4.110283e+001  9.969144e+001 
3231250000  -4.144070e+001  9.600620e+001 
3234375000  -4.095209e+001  9.232127e+001 
3237500000  -4.099668e+001  8.769154e+001 
3240625000  -4.028570e+001  8.129258e+001 
3243750000  -4.017553e+001  7.050391e+001 
3246875000  -4.043907e+001  6.115866e+001 
3250000000  -4.117100e+001  5.644146e+001 
3253125000  -4.110903e+001  5.280794e+001 
3256250000  -4.034708e+001  4.344601e+001 
3259375000  -4.088237e+001  3.001569e+001 
3262500000  -4.252010e+001  2.443260e+001 
3265625000  -4.249183e+001  2.673451e+001 
3268750000  -4.239063e+001  2.472585e+001 
3271875000  -4.151807e+001  1.919723e+001 
3275000000  -4.127375e+001  8.690624e+000 
3278125000  -4.150306e+001  2.913767e+000 
3281250000  -4.174837e+001  -2.371209e+000 
3284375000  -4.106451e+001  -1.024996e+001 
3287500000  -4.145596e+001  -1.701388e+001 
3290625000  -4.135707e+001  -2.703026e+001 
3293750000  -4.159324e+001  -3.478754e+001 
3296875000  -4.261852e+001  -3.896183e+001 
3300000000  -4.187350e+001  -4.169032e+001 
3303125000  -4.083440e+001  -5.143452e+001 
3306250000  -4.102132e+001  -6.146138e+001 
3309375000  -4.059358e+001  -7.314915e+001 
3312500000  -4.112112e+001  -8.845024e+001 
3315625000  -4.226081e+001  -9.627264e+001 
3318750000  -4.404374e+001  -1.005788e+002 
3321875000  -4.511394e+001  -9.974758e+001 
3325000000  -4.467293e+001  -9.612441e+001 
3328125000  -4.415758e+001  -9.893830e+001 
3331250000  -4.219366e+001  -1.014872e+002 
3334375000  -4.021978e+001  -1.191069e+002 
3337500000  -4.062018e+001  -1.407929e+002 
3340625000  -4.257971e+001  -1.524934e+002 
3343750000  -4.460045e+001  -1.522887e+002 
3346875000  -4.394030e+001  -1.600071e+002 
3350000000  -4.346304e+001  -1.635454e+002 
3353125000  -4.357463e+001  -1.711177e+002 
3356250000  -4.339516e+001  1.777037e+002 
3359375000  -4.420734e+001  1.640188e+002 
3362500000  -4.483099e+001  1.568755e+002 
3365625000  -4.542425e+001  1.527535e+002 
3368750000  -4.638237e+001  1.445765e+002 
3371875000  -4.700221e+001  1.407876e+002 
3375000000  -4.823265e+001  1.350455e+002 
3378125000  -4.933046e+001  1.331704e+002 
3381250000  -5.079040e+001  1.380380e+002 
3384375000  -4.679792e+001  1.494039e+002 
3387500000  -4.456688e+001  1.264246e+002 
3390625000  -4.633350e+001  1.050974e+002 
3393750000  -4.747893e+001  1.022599e+002 
3396875000  -4.644553e+001  9.646144e+001 
3400000000  -4.642089e+001  8.350124e+001 
3403125000  -4.685095e+001  7.632599e+001 
3406250000  -4.710957e+001  6.805762e+001 
3409375000  -4.710259e+001  5.771844e+001 
3412500000  -4.771216e+001  5.290258e+001 
3415625000  -4.881761e+001  5.053817e+001 
3418750000  -4.872267e+001  4.155819e+001 
3421875000  -4.901557e+001  4.021259e+001 
3425000000  -4.714676e+001  3.154880e+001 
3428125000  -4.720916e+001  2.619744e+001 
3431250000  -4.723728e+001  1.287514e+001 
3434375000  -4.689405e+001  2.923209e+000 
3437500000  -4.745948e+001  -7.751034e+000 
3440625000  -4.792192e+001  -1.302238e+001 
3443750000  -4.692411e+001  -1.367471e+001 
3446875000  -4.565343e+001  -2.796590e+001 
3450000000  -4.508015e+001  -4.707399e+001 
3453125000  -4.585003e+001  -5.935481e+001 
3456250000  -4.740678e+001  -6.925568e+001 
3459375000  -4.793702e+001  -7.358652e+001 
3462500000  -4.766429e+001  -7.957958e+001 
3465625000  -4.688083e+001  -8.885249e+001 
3468750000  -4.789253e+001  -9.410809e+001 
3471875000  -4.677911e+001  -1.044742e+002 
3475000000  -4.674633e+001  -1.187239e+002 
3478125000  -4.732917e+001  -1.276264e+002 
3481250000  -4.828142e+001  -1.334276e+002 
3484375000  -4.836845e+001  -1.323535e+002 
3487500000  -4.755736e+001  -1.444828e+002 
3490625000  -4.735473e+001  -1.527314e+002 
3493750000  -4.789791e+001  -1.694436e+002 
3496875000  -4.825799e+001  -1.706132e+002 
3500000000  -4.902825e+001  -1.730606e+002 
3503125000  -4.723433e+001  -1.771247e+002 
3506250000  -4.565545e+001  1.698164e+002 
3509375000  -4.566820e+001  1.516256e+002 
3512500000  -4.585584e+001  1.361815e+002 
3515625000  -4.746014e+001  1.292433e+002 
3518750000  -4.811106e+001  1.251144e+002 
3521875000  -4.780521e+001  1.147282e+002 
3525000000  -4.873054e+001  1.126370e+002 
3528125000  -4.722074e+001  1.149515e+002 
3531250000  -4.660831e+001  1.048945e+002 
3534375000  -4.697865e+001  8.716727e+001 
3537500000  -4.761125e+001  7.606455e+001 
3540625000  -4.903200e+001  7.244483e+001 
3543750000  -4.914310e+001  7.871298e+001 
3546875000  -4.865912e+001  7.961161e+001 
3550000000  -4.690372e+001  7.199223e+001 
3553125000  -4.620511e+001  4.973738e+001 
3556250000  -4.707540e+001  4.538417e+001 
3559375000  -4.670218e+001  3.969482e+001 
3562500000  -4.637856e+001  3.100716e+001 
3565625000  -4.788900e+001  2.460810e+001 
3568750000  -4.795949e+001  2.309801e+001 
3571875000  -4.727433e+001  1.539486e+001 
3575000000  -4.711384e+001  1.114685e+001 
3578125000  -4.758584e+001  5.159044e+000 
3581250000  -4.748671e+001  1.945205e+000 
3584375000  -4.618584e+001  -7.618771e+000 
3587500000  -4.565297e+001  -1.749619e+001 
3590625000  -4.647915e+001  -2.834876e+001 
3593750000  -4.822380e+001  -2.747726e+001 
3596875000  -4.646133e+001  -2.040510e+001 
3600000000  -4.501148e+001  -3.449564e+001 
3603125000  -4.505391e+001  -5.106602e+001 
3606250000  -4.603175e+001  -5.509273e+001 
3609375000  -4.619507e+001  -5.717961e+001 
3612500000  -4.583230e+001  -6.666542e+001 
3615625000  -4.614268e+001  -7.103254e+001 
3618750000  -4.639911e+001  -7.030524e+001 
3621875000  -4.574779e+001  -8.018615e+001 
3625000000  -4.538491e+001  -8.341665e+001 
3628125000  -4.485076e+001  -9.096229e+001 
3631250000  -4.527872e+001  -9.979649e+001 
3634375000  -4.576589e+001  -1.011866e+002 
3637500000  -4.447352e+001  -1.018611e+002 
3640625000  -4.355457e+001  -1.093748e+002 
3643750000  -4.313739e+001  -1.187900e+002 
3646875000  -4.385236e+001  -1.306670e+002 
3650000000  -4.366633e+001  -1.351220e+002 
3653125000  -4.321070e+001  -1.438894e+002 
3656250000  -4.404667e+001  -1.518969e+002 
3659375000  -4.383628e+001  -1.570033e+002 
3662500000  -4.325235e+001  -1.628441e+002 
3665625000  -4.321134e+001  -1.641077e+002 
3668750000  -4.166825e+001  -1.732646e+002 
3671875000  -4.140854e+001  1.755379e+002 
3675000000  -4.200448e+001  1.645033e+002 
3678125000  -4.269931e+001  1.621954e+002 
3681250000  -4.215313e+001  1.560135e+002 
3684375000  -4.250540e+001  1.464340e+002 
3687500000  -4.315951e+001  1.370878e+002 
3690625000  -4.361836e+001  1.302547e+002 
3693750000  -4.439463e+001  1.304492e+002 
3696875000  -4.399512e+001  1.278526e+002 
3700000000  -4.312852e+001  1.199046e+002 
3703125000  -4.360003e+001  1.127895e+002 
3706250000  -4.464467e+001  1.081623e+002 
3709375000  -4.390637e+001  1.109070e+002 
3712500000  -4.295630e+001  1.040531e+002 
3715625000  -4.185833e+001  9.328020e+001 
3718750000  -4.157913e+001  8.305034e+001 
3721875000  -4.167532e+001  7.545950e+001 
3725000000  -4.235831e+001  6.708581e+001 
3728125000  -4.230957e+001  6.378846e+001 
3731250000  -4.195250e+001  5.713319e+001 
3734375000  -4.180772e+001  4.970440e+001 
3737500000  -4.255148e+001  3.995869e+001 
3740625000  -4.313548e+001  3.386114e+001 
3743750000  -4.293099e+001  2.835582e+001 
3746875000  -4.342860e+001  2.205607e+001 
3750000000  -4.338639e+001  1.787963e+001 
3753125000  -4.387264e+001  1.458610e+001 
3756250000  -4.374437e+001  1.370507e+001 
3759375000  -4.329647e+001  6.336603e+000 
3762500000  -4.343803e+001  6.936133e-002 
3765625000  -4.410739e+001  -3.450463e+000 
3768750000  -4.355663e+001  -2.502778e+000 
3771875000  -4.234301e+001  -1.239043e+001 
3775000000  -4.219897e+001  -2.200722e+001 
3778125000  -4.260062e+001  -2.834522e+001 
3781250000  -4.238236e+001  -3.130910e+001 
3784375000  -4.222912e+001  -3.681694e+001 
3787500000  -4.253432e+001  -4.265897e+001 
3790625000  -4.265038e+001  -5.492181e+001 
3793750000  -4.280600e+001  -5.770859e+001 
3796875000  -4.155272e+001  -6.257303e+001 
3800000000  -4.071933e+001  -6.879208e+001 
3803125000  -4.192448e+001  -7.990495e+001 
3806250000  -4.262306e+001  -8.582137e+001 
3809375000  -4.162376e+001  -8.941627e+001 
3812500000  -4.179003e+001  -1.030567e+002 
3815625000  -4.307893e+001  -1.132286e+002 
3818750000  -4.417575e+001  -1.097709e+002 
3821875000  -4.336518e+001  -1.002187e+002 
3825000000  -4.145752e+001  -1.056527e+002 
3828125000  -4.046451e+001  -1.265430e+002 
3831250000  -4.139777e+001  -1.434090e+002 
3834375000  -4.389901e+001  -1.431698e+002 
3837500000  -4.367195e+001  -1.399585e+002 
3840625000  -4.249926e+001  -1.472321e+002 
3843750000  -4.150713e+001  -1.612012e+002 
3846875000  -4.344378e+001  -1.680041e+002 
3850000000  -4.398092e+001  -1.649053e+002 
3853125000  -4.325611e+001  -1.648207e+002 
3856250000  -4.243468e+001  -1.716211e+002 
3859375000  -4.227593e+001  1.784067e+002 
3862500000  -4.207409e+001  1.696713e+002 
3865625000  -4.264693e+001  1.593554e+002 
3868750000  -4.213508e+001  1.597871e+002 
3871875000  -4.135121e+001  1.491622e+002 
3875000000  -4.235699e+001  1.412511e+002 
3878125000  -4.296061e+001  1.379139e+002 
3881250000  -4.321211e+001  1.363928e+002 
3884375000  -4.254188e+001  1.259501e+002 
3887500000  -4.298832e+001  1.201917e+002 
3890625000  -4.375473e+001  1.148067e+002 
3893750000  -4.407613e+001  1.114572e+002 
3896875000  -4.439182e+001  1.101824e+002 
3900000000  -4.447524e+001  1.044613e+002 
3903125000  -4.373463e+001  9.652334e+001 
3906250000  -4.365590e+001  9.681736e+001 
3909375000  -4.266315e+001  8.527983e+001 
3912500000  -4.387677e+001  7.963560e+001 
3915625000  -4.452588e+001  7.648798e+001 
3918750000  -4.443979e+001  7.304911e+001 
3921875000  -4.368832e+001  7.074927e+001 
3925000000  -4.292223e+001  6.446635e+001 
3928125000  -4.265178e+001  5.586844e+001 
3931250000  -4.333612e+001  4.614952e+001 
3934375000  -4.385196e+001  4.488671e+001 
3937500000  -4.448558e+001  4.114304e+001 
3940625000  -4.438195e+001  4.206474e+001 
3943750000  -4.330100e+001  3.448078e+001 
3946875000  -4.272699e+001  2.633592e+001 
3950000000  -4.391611e+001  1.738899e+001 
3953125000  -4.432562e+001  1.776619e+001 
3956250000  -4.329974e+001  1.501037e+001 
3959375000  -4.176842e+001  9.938857e+000 
3962500000  -4.132433e+001  8.513677e-001 
3965625000  -4.168290e+001  -1.066129e+001 
3968750000  -4.234587e+001  -1.897162e+001 
3971875000  -4.235664e+001  -2.374115e+001 
3975000000  -4.198633e+001  -2.868457e+001 
3978125000  -4.192706e+001  -3.559658e+001 
3981250000  -4.163217e+001  -4.215051e+001 
3984375000  -4.232676e+001  -5.017524e+001 
3987500000  -4.283503e+001  -5.223100e+001 
3990625000  -4.303856e+001  -5.916503e+001 
3993750000  -4.273274e+001  -6.578505e+001 
3996875000  -4.243802e+001  -7.187852e+001 
4000000000  -4.371901e+001  -7.254527e+001 
4003125000  -4.404258e+001  -7.465446e+001 
4006250000  -4.184523e+001  -8.270988e+001 
4009375000  -4.126494e+001  -9.639485e+001 
4012500000  -4.286102e+001  -1.074684e+002 
4015625000  -4.393017e+001  -1.060139e+002 
4018750000  -4.364769e+001  -1.079250e+002 
4021875000  -4.292985e+001  -1.171839e+002 
4025000000  -4.307313e+001  -1.230605e+002 
4028125000  -4.330835e+001  -1.335282e+002 
4031250000  -4.403565e+001  -1.372520e+002 
4034375000  -4.433656e+001  -1.399101e+002 
4037500000  -4.383364e+001  -1.443131e+002 
4040625000  -4.455361e+001  -1.509154e+002 
4043750000  -4.423290e+001  -1.571363e+002 
4046875000  -4.397720e+001  -1.559907e+002 
4050000000  -4.420209e+001  -1.682230e+002 
4053125000  -4.518789e+001  -1.666862e+002 
4056250000  -4.534538e+001  -1.654378e+002 
4059375000  -4.380506e+001  -1.668673e+002 
4062500000  -4.342185e+001  -1.763107e+002 
4065625000  -4.360980e+001  1.790864e+002 
4068750000  -4.276152e+001  1.703049e+002 
4071875000  -4.265539e+001  1.592137e+002 
4075000000  -4.346322e+001  1.512710e+002 
4078125000  -4.400539e+001  1.494350e+002 
4081250000  -4.342540e+001  1.410676e+002 
4084375000  -4.331129e+001  1.364058e+002 
4087500000  -4.391175e+001  1.266910e+002 
4090625000  -4.487228e+001  1.269227e+002 
4093750000  -4.423913e+001  1.240110e+002 
4096875000  -4.462382e+001  1.141588e+002 
4100000000  -4.553291e+001  1.079421e+002 
4103125000  -4.577469e+001  1.091645e+002 
4106250000  -4.495370e+001  1.106871e+002 
4109375000  -4.423874e+001  1.075794e+002 
4112500000  -4.403901e+001  9.584059e+001 
4115625000  -4.394097e+001  9.098958e+001 
4118750000  -4.386017e+001  8.756683e+001 
4121875000  -4.341191e+001  8.169582e+001 
4125000000  -4.509499e+001  7.294668e+001 
4128125000  -4.511018e+001  7.653357e+001 
4131250000  -4.345506e+001  8.056367e+001 
4134375000  -4.170993e+001  6.765098e+001 
4137500000  -4.182636e+001  4.923794e+001 
4140625000  -4.435308e+001  3.863853e+001 
4143750000  -4.486386e+001  4.744950e+001 
4146875000  -4.397159e+001  4.719429e+001 
4150000000  -4.285868e+001  3.753750e+001 
4153125000  -4.309047e+001  2.744624e+001 
4156250000  -4.382521e+001  2.323659e+001 
4159375000  -4.340907e+001  2.675372e+001 
4162500000  -4.221846e+001  2.258377e+001 
4165625000  -4.122646e+001  1.479212e+001 
4168750000  -4.113414e+001  2.236393e+000 
4171875000  -4.095055e+001  -1.025509e+001 
4175000000  -4.202308e+001  -1.905277e+001 
4178125000  -4.217623e+001  -2.071389e+001 
4181250000  -4.203846e+001  -2.675218e+001 
4184375000  -4.281705e+001  -3.336129e+001 
4187500000  -4.231197e+001  -3.680294e+001 
4190625000  -4.287075e+001  -4.942335e+001 
4193750000  -4.367853e+001  -5.407975e+001 
4196875000  -4.523717e+001  -5.353105e+001 
4200000000  -4.609112e+001  -4.942226e+001 
4203125000  -4.413168e+001  -4.243877e+001 
4206250000  -4.119741e+001  -4.948805e+001 
4209375000  -4.124292e+001  -7.505753e+001 
4212500000  -4.368551e+001  -8.183315e+001 
4215625000  -4.389643e+001  -7.550723e+001 
4218750000  -4.251852e+001  -7.594646e+001 
4221875000  -4.077844e+001  -8.822823e+001 
4225000000  -4.237640e+001  -1.000789e+002 
4228125000  -4.232859e+001  -9.611470e+001 
4231250000  -4.101477e+001  -1.050145e+002 
4234375000  -4.059389e+001  -1.184772e+002 
4237500000  -4.062605e+001  -1.236732e+002 
4240625000  -4.071557e+001  -1.335349e+002 
4243750000  -4.213726e+001  -1.408032e+002 
4246875000  -4.272447e+001  -1.426460e+002 
4250000000  -4.269830e+001  -1.444087e+002 
4253125000  -4.225642e+001  -1.448047e+002 
4256250000  -4.201781e+001  -1.521448e+002 
4259375000  -4.214265e+001  -1.594655e+002 
4262500000  -4.230519e+001  -1.628065e+002 
4265625000  -4.235993e+001  -1.638236e+002 
4268750000  -4.085870e+001  -1.721178e+002 
4271875000  -4.073015e+001  1.778966e+002 
4275000000  -4.003178e+001  1.689663e+002 
4278125000  -4.132610e+001  1.521549e+002 
4281250000  -4.245237e+001  1.515565e+002 
4284375000  -4.235367e+001  1.496155e+002 
4287500000  -4.323413e+001  1.464877e+002 
4290625000  -4.332077e+001  1.541207e+002 
4293750000  -4.171374e+001  1.509892e+002 
4296875000  -4.011604e+001  1.387868e+002 
4300000000  -4.155195e+001  1.258417e+002 
4303125000  -4.232889e+001  1.278759e+002 
4306250000  -4.064180e+001  1.263106e+002 
4309375000  -3.993249e+001  1.184839e+002 
4312500000  -3.979515e+001  1.037363e+002 
4315625000  -3.997507e+001  9.550037e+001 
4318750000  -4.056040e+001  9.089867e+001 
4321875000  -4.076828e+001  8.897713e+001 
4325000000  -3.988523e+001  8.463322e+001 
4328125000  -3.938045e+001  7.239932e+001 
4331250000  -3.956484e+001  6.129699e+001 
4334375000  -4.075378e+001  5.156620e+001 
4337500000  -4.194834e+001  5.324630e+001 
4340625000  -4.196618e+001  5.284909e+001 
4343750000  -4.107250e+001  4.639636e+001 
4346875000  -4.074647e+001  3.902551e+001 
4350000000  -4.079779e+001  2.901782e+001 
4353125000  -4.209261e+001  1.988731e+001 
4356250000  -4.393141e+001  2.090596e+001 
4359375000  -4.259321e+001  3.697911e+001 
4362500000  -3.950754e+001  2.491858e+001 
4365625000  -3.898754e+001  7.951304e+000 
4368750000  -4.036110e+001  -4.046527e+000 
4371875000  -4.109329e+001  -5.337125e+000 
4375000000  -4.044961e+001  -1.088900e+001 
4378125000  -4.052119e+001  -1.654916e+001 
4381250000  -4.045572e+001  -2.477686e+001 
4384375000  -4.062317e+001  -3.425198e+001 
4387500000  -4.126927e+001  -4.050500e+001 
4390625000  -4.225516e+001  -4.313831e+001 
4393750000  -4.115063e+001  -4.290933e+001 
4396875000  -4.102440e+001  -4.706572e+001 
4400000000  -4.067697e+001  -5.648038e+001 
4403125000  -4.135998e+001  -6.803881e+001 
4406250000  -4.227674e+001  -7.239918e+001 
4409375000  -4.242867e+001  -7.904409e+001 
4412500000  -4.358975e+001  -7.795325e+001 
4415625000  -4.328269e+001  -7.634517e+001 
4418750000  -4.144365e+001  -7.694274e+001 
