!Agilent Technologies,E8363B,MY43030201,A.06.04.32
!Agilent E8363B: A.06.04.32
!Date: Tuesday, November 11, 2014 21:42:04
!Correction: S21(Response(S21)) 
!S1P File: Measurement: S21:
# Hz S  dB   R 50
3000000000  -4.363854e+001  -1.571260e+002 
3003125000  -4.538209e+001  -1.629533e+002 
3006250000  -4.561325e+001  -1.658312e+002 
3009375000  -4.595032e+001  -1.605190e+002 
3012500000  -4.477223e+001  -1.671028e+002 
3015625000  -4.503975e+001  -1.757699e+002 
3018750000  -4.529152e+001  -1.748601e+002 
3021875000  -4.390425e+001  -1.754387e+002 
3025000000  -4.260873e+001  -1.790984e+002 
3028125000  -4.176822e+001  1.685432e+002 
3031250000  -4.091771e+001  1.540582e+002 
3034375000  -4.083590e+001  1.401045e+002 
3037500000  -4.145906e+001  1.300667e+002 
3040625000  -4.286621e+001  1.241502e+002 
3043750000  -4.342528e+001  1.164573e+002 
3046875000  -4.405727e+001  1.096919e+002 
3050000000  -4.537087e+001  1.047631e+002 
3053125000  -4.476850e+001  1.105811e+002 
3056250000  -4.450935e+001  1.135140e+002 
3059375000  -4.378836e+001  1.085552e+002 
3062500000  -4.253323e+001  1.038975e+002 
3065625000  -4.226630e+001  9.315466e+001 
3068750000  -4.155641e+001  8.465946e+001 
3071875000  -4.195050e+001  8.236153e+001 
3075000000  -4.105341e+001  7.411973e+001 
3078125000  -4.129353e+001  6.670226e+001 
3081250000  -4.147733e+001  5.960462e+001 
3084375000  -4.032690e+001  5.400689e+001 
3087500000  -4.061514e+001  4.693565e+001 
3090625000  -4.012727e+001  3.489414e+001 
3093750000  -4.103903e+001  2.431276e+001 
3096875000  -4.134644e+001  1.861184e+001 
3100000000  -4.118639e+001  1.420116e+001 
3103125000  -4.132045e+001  1.062620e+001 
3106250000  -4.104102e+001  4.963109e+000 
3109375000  -4.105030e+001  -3.190424e-002 
3112500000  -4.086612e+001  -8.196556e+000 
3115625000  -4.084912e+001  -1.181831e+001 
3118750000  -4.074336e+001  -1.778890e+001 
3121875000  -4.020604e+001  -3.001439e+001 
3125000000  -4.208084e+001  -3.457467e+001 
3128125000  -4.176679e+001  -2.874363e+001 
3131250000  -3.964091e+001  -3.539668e+001 
3134375000  -3.893716e+001  -5.410858e+001 
3137500000  -3.948507e+001  -6.678681e+001 
3140625000  -4.086359e+001  -7.182409e+001 
3143750000  -4.168901e+001  -7.644917e+001 
3146875000  -4.111175e+001  -7.299406e+001 
3150000000  -4.053243e+001  -7.906246e+001 
3153125000  -4.068197e+001  -8.831979e+001 
3156250000  -4.159477e+001  -8.622472e+001 
3159375000  -3.912528e+001  -8.892675e+001 
3162500000  -3.777627e+001  -1.059470e+002 
3165625000  -3.913216e+001  -1.203097e+002 
3168750000  -3.905652e+001  -1.211929e+002 
3171875000  -3.865218e+001  -1.300041e+002 
3175000000  -3.922209e+001  -1.395748e+002 
3178125000  -3.870343e+001  -1.419425e+002 
3181250000  -3.810047e+001  -1.518881e+002 
3184375000  -3.791947e+001  -1.637123e+002 
3187500000  -3.917198e+001  -1.796315e+002 
3190625000  -4.100107e+001  1.732270e+002 
3193750000  -4.115748e+001  1.777292e+002 
3196875000  -4.117289e+001  1.775372e+002 
3200000000  -4.008485e+001  1.714547e+002 
3203125000  -3.964281e+001  1.626582e+002 
3206250000  -3.991987e+001  1.545087e+002 
3209375000  -3.949297e+001  1.454556e+002 
3212500000  -3.985989e+001  1.391089e+002 
3215625000  -3.980032e+001  1.342513e+002 
3218750000  -4.052976e+001  1.224133e+002 
3221875000  -4.080150e+001  1.162418e+002 
3225000000  -4.046822e+001  1.109862e+002 
3228125000  -4.132784e+001  1.037566e+002 
3231250000  -4.132476e+001  1.004717e+002 
3234375000  -4.123856e+001  9.721820e+001 
3237500000  -4.115429e+001  9.264664e+001 
3240625000  -4.047247e+001  8.606075e+001 
3243750000  -4.044080e+001  7.425193e+001 
3246875000  -4.106462e+001  6.693644e+001 
3250000000  -4.133225e+001  6.137865e+001 
3253125000  -4.125131e+001  5.702810e+001 
3256250000  -4.041172e+001  4.720923e+001 
3259375000  -4.114348e+001  3.429023e+001 
3262500000  -4.248398e+001  2.892161e+001 
3265625000  -4.270777e+001  3.086508e+001 
3268750000  -4.237838e+001  2.967696e+001 
3271875000  -4.161543e+001  2.283143e+001 
3275000000  -4.108787e+001  1.331294e+001 
3278125000  -4.200190e+001  6.675983e+000 
3281250000  -4.197284e+001  2.197048e+000 
3284375000  -4.114198e+001  -4.833124e+000 
3287500000  -4.152847e+001  -1.373633e+001 
3290625000  -4.152716e+001  -2.291889e+001 
3293750000  -4.152744e+001  -3.139006e+001 
3296875000  -4.289797e+001  -3.441834e+001 
3300000000  -4.226252e+001  -3.732015e+001 
3303125000  -4.116115e+001  -4.742755e+001 
3306250000  -4.109914e+001  -5.744918e+001 
3309375000  -4.074333e+001  -6.797551e+001 
3312500000  -4.121677e+001  -8.335661e+001 
3315625000  -4.254015e+001  -9.091869e+001 
3318750000  -4.399923e+001  -9.769374e+001 
3321875000  -4.504991e+001  -9.714134e+001 
3325000000  -4.509691e+001  -9.373701e+001 
3328125000  -4.474063e+001  -9.444906e+001 
3331250000  -4.223113e+001  -9.584903e+001 
3334375000  -4.052092e+001  -1.145898e+002 
3337500000  -4.117121e+001  -1.380652e+002 
3340625000  -4.281546e+001  -1.497534e+002 
3343750000  -4.486397e+001  -1.512028e+002 
3346875000  -4.421865e+001  -1.543223e+002 
3350000000  -4.386762e+001  -1.595737e+002 
3353125000  -4.356230e+001  -1.692610e+002 
3356250000  -4.326659e+001  -1.771259e+002 
3359375000  -4.429708e+001  1.686073e+002 
3362500000  -4.547225e+001  1.605773e+002 
3365625000  -4.598658e+001  1.546096e+002 
3368750000  -4.643152e+001  1.479051e+002 
3371875000  -4.736687e+001  1.407610e+002 
3375000000  -4.898928e+001  1.371662e+002 
3378125000  -4.934218e+001  1.342541e+002 
3381250000  -5.082103e+001  1.452929e+002 
3384375000  -4.764736e+001  1.552168e+002 
3387500000  -4.489818e+001  1.297526e+002 
3390625000  -4.736577e+001  1.089584e+002 
3393750000  -4.753568e+001  1.065005e+002 
3396875000  -4.670362e+001  1.015260e+002 
3400000000  -4.623151e+001  8.630100e+001 
3403125000  -4.682299e+001  8.306247e+001 
3406250000  -4.744928e+001  7.528493e+001 
3409375000  -4.721253e+001  6.226772e+001 
3412500000  -4.810992e+001  5.473525e+001 
3415625000  -4.871838e+001  5.012873e+001 
3418750000  -4.826472e+001  4.887616e+001 
3421875000  -4.925757e+001  4.521003e+001 
3425000000  -4.820307e+001  3.801659e+001 
3428125000  -4.761211e+001  2.997208e+001 
3431250000  -4.694933e+001  1.925478e+001 
3434375000  -4.698957e+001  3.791422e+000 
3437500000  -4.744046e+001  -5.145848e+000 
3440625000  -4.765276e+001  -5.868082e+000 
3443750000  -4.652549e+001  -9.940365e+000 
3446875000  -4.541716e+001  -2.571495e+001 
3450000000  -4.512618e+001  -4.016142e+001 
3453125000  -4.590348e+001  -5.816187e+001 
3456250000  -4.732867e+001  -6.848264e+001 
3459375000  -4.812298e+001  -6.810728e+001 
3462500000  -4.735787e+001  -7.504624e+001 
3465625000  -4.771221e+001  -8.637559e+001 
3468750000  -4.781968e+001  -9.352925e+001 
3471875000  -4.706823e+001  -1.003994e+002 
3475000000  -4.726322e+001  -1.132242e+002 
3478125000  -4.814384e+001  -1.268660e+002 
3481250000  -4.901072e+001  -1.330061e+002 
3484375000  -4.882188e+001  -1.326347e+002 
3487500000  -4.734290e+001  -1.373954e+002 
3490625000  -4.745264e+001  -1.501820e+002 
3493750000  -4.822496e+001  -1.645557e+002 
3496875000  -4.838988e+001  -1.665581e+002 
3500000000  -4.832925e+001  -1.697207e+002 
3503125000  -4.690713e+001  -1.754493e+002 
3506250000  -4.562000e+001  1.734629e+002 
3509375000  -4.586511e+001  1.575300e+002 
3512500000  -4.600231e+001  1.430998e+002 
3515625000  -4.698603e+001  1.342181e+002 
3518750000  -4.772881e+001  1.323556e+002 
3521875000  -4.802330e+001  1.193229e+002 
3525000000  -4.884305e+001  1.184582e+002 
3528125000  -4.757094e+001  1.190324e+002 
3531250000  -4.587136e+001  1.084664e+002 
3534375000  -4.704967e+001  9.216025e+001 
3537500000  -4.801004e+001  8.025716e+001 
3540625000  -4.860538e+001  8.098046e+001 
3543750000  -4.926213e+001  8.233081e+001 
3546875000  -4.823363e+001  8.378059e+001 
3550000000  -4.640885e+001  7.878906e+001 
3553125000  -4.582716e+001  5.906759e+001 
3556250000  -4.698827e+001  4.923685e+001 
3559375000  -4.661758e+001  4.678181e+001 
3562500000  -4.670245e+001  3.735249e+001 
3565625000  -4.753463e+001  2.883209e+001 
3568750000  -4.858199e+001  2.634006e+001 
3571875000  -4.745355e+001  2.117326e+001 
3575000000  -4.726362e+001  1.449803e+001 
3578125000  -4.745254e+001  8.639568e+000 
3581250000  -4.778851e+001  7.330207e+000 
3584375000  -4.597125e+001  -2.057363e+000 
3587500000  -4.570196e+001  -1.035275e+001 
3590625000  -4.613898e+001  -2.273743e+001 
3593750000  -4.792355e+001  -1.945263e+001 
3596875000  -4.678716e+001  -1.904564e+001 
3600000000  -4.478302e+001  -2.974708e+001 
3603125000  -4.524012e+001  -4.377466e+001 
3606250000  -4.640338e+001  -5.076443e+001 
3609375000  -4.574259e+001  -5.238095e+001 
3612500000  -4.607072e+001  -6.107381e+001 
3615625000  -4.606723e+001  -6.495135e+001 
3618750000  -4.621217e+001  -6.982829e+001 
3621875000  -4.565929e+001  -7.437727e+001 
3625000000  -4.581176e+001  -7.841370e+001 
3628125000  -4.476704e+001  -8.497260e+001 
3631250000  -4.496381e+001  -9.316289e+001 
3634375000  -4.569468e+001  -9.339795e+001 
3637500000  -4.457765e+001  -9.831274e+001 
3640625000  -4.371518e+001  -1.028370e+002 
3643750000  -4.328033e+001  -1.142661e+002 
3646875000  -4.374688e+001  -1.261005e+002 
3650000000  -4.370777e+001  -1.308812e+002 
3653125000  -4.344317e+001  -1.403260e+002 
3656250000  -4.372805e+001  -1.449620e+002 
3659375000  -4.369632e+001  -1.471726e+002 
3662500000  -4.338665e+001  -1.554158e+002 
3665625000  -4.371675e+001  -1.575759e+002 
3668750000  -4.220583e+001  -1.660946e+002 
3671875000  -4.156287e+001  -1.774779e+002 
3675000000  -4.214621e+001  1.717220e+002 
3678125000  -4.237727e+001  1.652402e+002 
3681250000  -4.253094e+001  1.609009e+002 
3684375000  -4.261464e+001  1.503837e+002 
3687500000  -4.301788e+001  1.418907e+002 
3690625000  -4.385832e+001  1.371755e+002 
3693750000  -4.479534e+001  1.358539e+002 
3696875000  -4.409238e+001  1.334820e+002 
3700000000  -4.321836e+001  1.255106e+002 
3703125000  -4.356279e+001  1.184984e+002 
3706250000  -4.500859e+001  1.122763e+002 
3709375000  -4.398141e+001  1.152293e+002 
3712500000  -4.334346e+001  1.073063e+002 
3715625000  -4.194486e+001  9.840257e+001 
3718750000  -4.155763e+001  8.968253e+001 
3721875000  -4.230291e+001  7.992855e+001 
3725000000  -4.244559e+001  7.296692e+001 
3728125000  -4.254141e+001  7.052912e+001 
3731250000  -4.238873e+001  6.102034e+001 
3734375000  -4.189410e+001  5.547326e+001 
3737500000  -4.269019e+001  4.708063e+001 
3740625000  -4.319395e+001  4.033203e+001 
3743750000  -4.326418e+001  3.533880e+001 
3746875000  -4.305815e+001  3.018030e+001 
3750000000  -4.364186e+001  2.513981e+001 
3753125000  -4.352876e+001  2.329350e+001 
3756250000  -4.382642e+001  1.764406e+001 
3759375000  -4.361525e+001  1.260879e+001 
3762500000  -4.373265e+001  8.405487e+000 
3765625000  -4.452443e+001  2.762690e+000 
3768750000  -4.371888e+001  2.803533e+000 
3771875000  -4.214648e+001  -3.444018e+000 
3775000000  -4.216053e+001  -1.502566e+001 
3778125000  -4.309233e+001  -2.135770e+001 
3781250000  -4.288773e+001  -2.539924e+001 
3784375000  -4.240008e+001  -3.068438e+001 
3787500000  -4.226406e+001  -3.666524e+001 
3790625000  -4.318061e+001  -4.751328e+001 
3793750000  -4.267561e+001  -4.770211e+001 
3796875000  -4.145995e+001  -5.528665e+001 
3800000000  -4.084013e+001  -6.263240e+001 
3803125000  -4.167349e+001  -7.429343e+001 
3806250000  -4.246262e+001  -7.808874e+001 
3809375000  -4.198328e+001  -8.416009e+001 
3812500000  -4.173336e+001  -9.522807e+001 
3815625000  -4.295407e+001  -1.067151e+002 
3818750000  -4.440476e+001  -1.054200e+002 
3821875000  -4.338438e+001  -9.311874e+001 
3825000000  -4.192112e+001  -1.016456e+002 
3828125000  -4.048743e+001  -1.192565e+002 
3831250000  -4.190325e+001  -1.369416e+002 
3834375000  -4.421781e+001  -1.388116e+002 
3837500000  -4.426403e+001  -1.343678e+002 
3840625000  -4.250787e+001  -1.388697e+002 
3843750000  -4.179633e+001  -1.542870e+002 
3846875000  -4.349631e+001  -1.635592e+002 
3850000000  -4.417981e+001  -1.565286e+002 
3853125000  -4.361487e+001  -1.593619e+002 
3856250000  -4.296036e+001  -1.673999e+002 
3859375000  -4.239061e+001  -1.753335e+002 
3862500000  -4.213207e+001  1.741582e+002 
3865625000  -4.293834e+001  1.674168e+002 
3868750000  -4.233679e+001  1.674184e+002 
3871875000  -4.199858e+001  1.562913e+002 
3875000000  -4.252955e+001  1.477616e+002 
3878125000  -4.345615e+001  1.444961e+002 
3881250000  -4.327124e+001  1.431931e+002 
3884375000  -4.275716e+001  1.320850e+002 
3887500000  -4.350268e+001  1.263268e+002 
3890625000  -4.386862e+001  1.217742e+002 
3893750000  -4.484263e+001  1.195212e+002 
3896875000  -4.481267e+001  1.176793e+002 
3900000000  -4.408329e+001  1.122863e+002 
3903125000  -4.378829e+001  1.047745e+002 
3906250000  -4.344561e+001  1.038848e+002 
3909375000  -4.328239e+001  9.025089e+001 
3912500000  -4.409109e+001  8.412447e+001 
3915625000  -4.515285e+001  8.248785e+001 
3918750000  -4.484454e+001  8.407310e+001 
3921875000  -4.408834e+001  7.715944e+001 
3925000000  -4.328182e+001  7.135876e+001 
3928125000  -4.318288e+001  6.029248e+001 
3931250000  -4.356966e+001  5.288374e+001 
3934375000  -4.402771e+001  4.970349e+001 
3937500000  -4.480795e+001  4.814419e+001 
3940625000  -4.473203e+001  4.820158e+001 
3943750000  -4.345782e+001  4.148798e+001 
3946875000  -4.303973e+001  3.345635e+001 
3950000000  -4.410826e+001  2.528060e+001 
3953125000  -4.482579e+001  2.463707e+001 
3956250000  -4.307264e+001  2.656134e+001 
3959375000  -4.182237e+001  1.843188e+001 
3962500000  -4.180703e+001  8.365977e+000 
3965625000  -4.218272e+001  -4.196943e+000 
3968750000  -4.253949e+001  -1.492476e+001 
3971875000  -4.247544e+001  -1.507423e+001 
3975000000  -4.207737e+001  -2.006798e+001 
3978125000  -4.232953e+001  -2.728926e+001 
3981250000  -4.207840e+001  -3.679708e+001 
3984375000  -4.256656e+001  -4.538491e+001 
3987500000  -4.338376e+001  -4.637596e+001 
3990625000  -4.368070e+001  -4.975972e+001 
3993750000  -4.333028e+001  -5.676991e+001 
3996875000  -4.359257e+001  -6.339687e+001 
4000000000  -4.361969e+001  -6.645073e+001 
4003125000  -4.381915e+001  -6.976685e+001 
4006250000  -4.237884e+001  -7.438345e+001 
4009375000  -4.130254e+001  -9.094918e+001 
4012500000  -4.284892e+001  -9.788001e+001 
4015625000  -4.426649e+001  -9.839874e+001 
4018750000  -4.411312e+001  -1.032353e+002 
4021875000  -4.342836e+001  -1.108247e+002 
4025000000  -4.322398e+001  -1.173997e+002 
4028125000  -4.366919e+001  -1.260304e+002 
4031250000  -4.451515e+001  -1.344520e+002 
4034375000  -4.423380e+001  -1.329471e+002 
4037500000  -4.410881e+001  -1.385167e+002 
4040625000  -4.436024e+001  -1.425812e+002 
4043750000  -4.478304e+001  -1.462443e+002 
4046875000  -4.423801e+001  -1.526436e+002 
4050000000  -4.483986e+001  -1.589745e+002 
4053125000  -4.568164e+001  -1.635740e+002 
4056250000  -4.587560e+001  -1.597696e+002 
4059375000  -4.375095e+001  -1.601594e+002 
4062500000  -4.366580e+001  -1.728211e+002 
4065625000  -4.374345e+001  -1.751914e+002 
4068750000  -4.343251e+001  1.777256e+002 
4071875000  -4.301542e+001  1.671988e+002 
4075000000  -4.389441e+001  1.597790e+002 
4078125000  -4.434425e+001  1.519391e+002 
4081250000  -4.392299e+001  1.488466e+002 
4084375000  -4.388278e+001  1.412458e+002 
4087500000  -4.459893e+001  1.350731e+002 
4090625000  -4.466770e+001  1.331005e+002 
4093750000  -4.495096e+001  1.314369e+002 
4096875000  -4.468027e+001  1.204776e+002 
4100000000  -4.551794e+001  1.147940e+002 
4103125000  -4.619629e+001  1.222908e+002 
4106250000  -4.605705e+001  1.193716e+002 
4109375000  -4.450525e+001  1.166402e+002 
4112500000  -4.453699e+001  1.027552e+002 
4115625000  -4.485449e+001  1.001536e+002 
4118750000  -4.415538e+001  9.569032e+001 
4121875000  -4.396776e+001  8.808341e+001 
4125000000  -4.516282e+001  7.980179e+001 
4128125000  -4.564919e+001  8.333808e+001 
4131250000  -4.442117e+001  8.809124e+001 
4134375000  -4.194315e+001  7.688182e+001 
4137500000  -4.247135e+001  5.386214e+001 
4140625000  -4.418185e+001  4.916537e+001 
4143750000  -4.488023e+001  5.488628e+001 
4146875000  -4.457387e+001  5.040399e+001 
4150000000  -4.312899e+001  4.505285e+001 
4153125000  -4.371145e+001  3.384566e+001 
4156250000  -4.395449e+001  3.208137e+001 
4159375000  -4.413428e+001  3.472428e+001 
4162500000  -4.275964e+001  2.822224e+001 
4165625000  -4.204431e+001  2.351895e+001 
4168750000  -4.153477e+001  1.115969e+001 
4171875000  -4.139743e+001  -2.056565e+000 
4175000000  -4.220242e+001  -8.880862e+000 
4178125000  -4.283399e+001  -1.406204e+001 
4181250000  -4.231602e+001  -1.850889e+001 
4184375000  -4.270366e+001  -2.504048e+001 
4187500000  -4.299130e+001  -3.277310e+001 
4190625000  -4.302298e+001  -4.102094e+001 
4193750000  -4.430907e+001  -4.818904e+001 
4196875000  -4.542622e+001  -4.951418e+001 
4200000000  -4.648562e+001  -4.361955e+001 
4203125000  -4.540701e+001  -3.190495e+001 
4206250000  -4.149197e+001  -4.407523e+001 
4209375000  -4.141907e+001  -6.652523e+001 
4212500000  -4.459955e+001  -7.377132e+001 
4215625000  -4.456265e+001  -6.473512e+001 
4218750000  -4.295221e+001  -6.829259e+001 
4221875000  -4.156802e+001  -7.762495e+001 
4225000000  -4.244818e+001  -9.042432e+001 
4228125000  -4.260931e+001  -8.960084e+001 
4231250000  -4.147961e+001  -9.843127e+001 
4234375000  -4.141267e+001  -1.076347e+002 
4237500000  -4.133122e+001  -1.186657e+002 
4240625000  -4.158630e+001  -1.245391e+002 
4243750000  -4.281166e+001  -1.356266e+002 
4246875000  -4.350451e+001  -1.353557e+002 
4250000000  -4.346386e+001  -1.341643e+002 
4253125000  -4.335435e+001  -1.365379e+002 
4256250000  -4.263502e+001  -1.452517e+002 
4259375000  -4.249156e+001  -1.498202e+002 
4262500000  -4.262260e+001  -1.574352e+002 
4265625000  -4.273337e+001  -1.536324e+002 
4268750000  -4.140031e+001  -1.640782e+002 
4271875000  -4.101685e+001  -1.766199e+002 
4275000000  -4.099000e+001  1.769635e+002 
4278125000  -4.184026e+001  1.635124e+002 
4281250000  -4.320630e+001  1.621451e+002 
4284375000  -4.252398e+001  1.559614e+002 
4287500000  -4.425837e+001  1.553351e+002 
4290625000  -4.461214e+001  1.613412e+002 
4293750000  -4.189797e+001  1.584348e+002 
4296875000  -4.068419e+001  1.475187e+002 
4300000000  -4.195457e+001  1.362425e+002 
4303125000  -4.200691e+001  1.345901e+002 
4306250000  -4.133086e+001  1.358990e+002 
4309375000  -4.022115e+001  1.251195e+002 
4312500000  -4.019151e+001  1.146688e+002 
4315625000  -4.072416e+001  1.044920e+002 
4318750000  -4.118675e+001  9.913082e+001 
4321875000  -4.112752e+001  9.644946e+001 
4325000000  -4.066052e+001  9.362331e+001 
4328125000  -4.011184e+001  8.274834e+001 
4331250000  -4.029792e+001  6.980569e+001 
4334375000  -4.105313e+001  6.199390e+001 
4337500000  -4.239684e+001  6.178215e+001 
4340625000  -4.277274e+001  6.110228e+001 
4343750000  -4.150249e+001  5.560046e+001 
4346875000  -4.150106e+001  4.783817e+001 
4350000000  -4.177394e+001  3.958879e+001 
4353125000  -4.277888e+001  2.956641e+001 
4356250000  -4.465332e+001  3.389904e+001 
4359375000  -4.281182e+001  4.451041e+001 
4362500000  -3.985979e+001  3.570118e+001 
4365625000  -3.944007e+001  1.710705e+001 
4368750000  -4.078085e+001  6.277666e+000 
4371875000  -4.172370e+001  4.551611e+000 
4375000000  -4.119566e+001  7.934892e-001 
4378125000  -4.102205e+001  -8.853465e+000 
4381250000  -4.153806e+001  -1.694605e+001 
4384375000  -4.148477e+001  -2.738347e+001 
4387500000  -4.258702e+001  -2.876391e+001 
4390625000  -4.273355e+001  -3.127264e+001 
4393750000  -4.213017e+001  -3.472508e+001 
4396875000  -4.184534e+001  -3.837465e+001 
4400000000  -4.167270e+001  -4.972370e+001 
4403125000  -4.197092e+001  -6.205025e+001 
4406250000  -4.282426e+001  -6.174167e+001 
4409375000  -4.296207e+001  -6.553050e+001 
4412500000  -4.382037e+001  -7.143811e+001 
4415625000  -4.350645e+001  -6.551516e+001 
4418750000  -4.257068e+001  -6.758023e+001 
