!Agilent Technologies,E8363B,MY43030201,A.06.04.32
!Agilent E8363B: A.06.04.32
!Date: Tuesday, November 11, 2014 21:49:28
!Correction: S21(Response(S21)) 
!S1P File: Measurement: S21:
# Hz S  dB   R 50
3000000000  -4.370006e+001  -1.608159e+002 
3003125000  -4.531372e+001  -1.669268e+002 
3006250000  -4.541376e+001  -1.677331e+002 
3009375000  -4.625060e+001  -1.650707e+002 
3012500000  -4.480693e+001  -1.684674e+002 
3015625000  -4.504327e+001  -1.795071e+002 
3018750000  -4.536644e+001  -1.788348e+002 
3021875000  -4.387877e+001  -1.784858e+002 
3025000000  -4.289508e+001  1.766961e+002 
3028125000  -4.183674e+001  1.651627e+002 
3031250000  -4.092559e+001  1.503936e+002 
3034375000  -4.081957e+001  1.370120e+002 
3037500000  -4.155608e+001  1.265442e+002 
3040625000  -4.285289e+001  1.205848e+002 
3043750000  -4.326326e+001  1.144847e+002 
3046875000  -4.403717e+001  1.056832e+002 
3050000000  -4.526417e+001  1.014855e+002 
3053125000  -4.486117e+001  1.060878e+002 
3056250000  -4.498476e+001  1.080621e+002 
3059375000  -4.413640e+001  1.055624e+002 
3062500000  -4.240019e+001  9.915179e+001 
3065625000  -4.217678e+001  8.937086e+001 
3068750000  -4.183207e+001  8.231613e+001 
3071875000  -4.191483e+001  7.763712e+001 
3075000000  -4.129305e+001  6.949738e+001 
3078125000  -4.133578e+001  6.366775e+001 
3081250000  -4.136774e+001  5.663408e+001 
3084375000  -4.044695e+001  5.040050e+001 
3087500000  -4.063277e+001  4.338670e+001 
3090625000  -3.999333e+001  3.117893e+001 
3093750000  -4.100423e+001  2.140481e+001 
3096875000  -4.130952e+001  1.666642e+001 
3100000000  -4.101744e+001  1.279559e+001 
3103125000  -4.139373e+001  8.377169e+000 
3106250000  -4.119006e+001  8.026606e-001 
3109375000  -4.086176e+001  -4.088543e+000 
3112500000  -4.082709e+001  -1.177672e+001 
3115625000  -4.079818e+001  -1.603074e+001 
3118750000  -4.084103e+001  -2.135200e+001 
3121875000  -4.020345e+001  -3.264246e+001 
3125000000  -4.215272e+001  -3.621132e+001 
3128125000  -4.202964e+001  -3.128018e+001 
3131250000  -3.956894e+001  -3.834394e+001 
3134375000  -3.885774e+001  -5.792659e+001 
3137500000  -3.937306e+001  -6.995407e+001 
3140625000  -4.116373e+001  -7.446287e+001 
3143750000  -4.159472e+001  -7.932421e+001 
3146875000  -4.101587e+001  -7.715543e+001 
3150000000  -4.029728e+001  -8.345715e+001 
3153125000  -4.070868e+001  -9.096192e+001 
3156250000  -4.147945e+001  -8.899424e+001 
3159375000  -3.906285e+001  -9.246340e+001 
3162500000  -3.771534e+001  -1.093092e+002 
3165625000  -3.897725e+001  -1.245128e+002 
3168750000  -3.893083e+001  -1.232435e+002 
3171875000  -3.856558e+001  -1.337211e+002 
3175000000  -3.903123e+001  -1.432407e+002 
3178125000  -3.856336e+001  -1.449997e+002 
3181250000  -3.805772e+001  -1.546728e+002 
3184375000  -3.789828e+001  -1.679106e+002 
3187500000  -3.922270e+001  1.768851e+002 
3190625000  -4.061213e+001  1.696729e+002 
3193750000  -4.094539e+001  1.755451e+002 
3196875000  -4.093980e+001  1.747313e+002 
3200000000  -3.994720e+001  1.692566e+002 
3203125000  -3.954459e+001  1.592329e+002 
3206250000  -3.984396e+001  1.522478e+002 
3209375000  -3.927075e+001  1.426989e+002 
3212500000  -3.987471e+001  1.351209e+002 
3215625000  -3.943744e+001  1.326751e+002 
3218750000  -4.040121e+001  1.191971e+002 
3221875000  -4.064008e+001  1.129552e+002 
3225000000  -4.022517e+001  1.088361e+002 
3228125000  -4.110864e+001  1.001507e+002 
3231250000  -4.133958e+001  9.755820e+001 
3234375000  -4.099391e+001  9.351709e+001 
3237500000  -4.099935e+001  9.004170e+001 
3240625000  -4.032045e+001  8.346213e+001 
3243750000  -4.024098e+001  7.189670e+001 
3246875000  -4.054794e+001  6.336658e+001 
3250000000  -4.117357e+001  5.940908e+001 
3253125000  -4.111156e+001  5.413553e+001 
3256250000  -4.031746e+001  4.358089e+001 
3259375000  -4.090847e+001  3.111558e+001 
3262500000  -4.233031e+001  2.556499e+001 
3265625000  -4.251236e+001  2.661455e+001 
3268750000  -4.233486e+001  2.611811e+001 
3271875000  -4.152796e+001  1.981919e+001 
3275000000  -4.118498e+001  1.058162e+001 
3278125000  -4.166393e+001  3.453061e+000 
3281250000  -4.188853e+001  5.773529e-002 
3284375000  -4.077939e+001  -9.787670e+000 
3287500000  -4.169817e+001  -1.489664e+001 
3290625000  -4.140187e+001  -2.785195e+001 
3293750000  -4.163779e+001  -3.582971e+001 
3296875000  -4.282692e+001  -3.792380e+001 
3300000000  -4.210238e+001  -4.162122e+001 
3303125000  -4.100383e+001  -5.015521e+001 
3306250000  -4.072099e+001  -6.103405e+001 
3309375000  -4.069884e+001  -7.097625e+001 
3312500000  -4.116022e+001  -8.621358e+001 
3315625000  -4.250653e+001  -9.381506e+001 
3318750000  -4.392044e+001  -1.012675e+002 
3321875000  -4.540818e+001  -9.839455e+001 
3325000000  -4.519057e+001  -9.680300e+001 
3328125000  -4.431237e+001  -1.003117e+002 
3331250000  -4.251574e+001  -9.701942e+001 
3334375000  -4.015954e+001  -1.182977e+002 
3337500000  -4.088060e+001  -1.416462e+002 
3340625000  -4.294141e+001  -1.527963e+002 
3343750000  -4.435888e+001  -1.521593e+002 
3346875000  -4.415320e+001  -1.547849e+002 
3350000000  -4.378420e+001  -1.612343e+002 
3353125000  -4.363272e+001  -1.724966e+002 
3356250000  -4.335519e+001  1.794001e+002 
3359375000  -4.418916e+001  1.648931e+002 
3362500000  -4.508531e+001  1.574181e+002 
3365625000  -4.547966e+001  1.521121e+002 
3368750000  -4.653906e+001  1.449635e+002 
3371875000  -4.704915e+001  1.387232e+002 
3375000000  -4.842844e+001  1.321190e+002 
3378125000  -4.918876e+001  1.305988e+002 
3381250000  -5.094116e+001  1.427512e+002 
3384375000  -4.729262e+001  1.489489e+002 
3387500000  -4.486915e+001  1.325703e+002 
3390625000  -4.627678e+001  1.060143e+002 
3393750000  -4.813731e+001  1.030949e+002 
3396875000  -4.652134e+001  1.011036e+002 
3400000000  -4.581696e+001  8.652755e+001 
3403125000  -4.665904e+001  7.624591e+001 
3406250000  -4.705400e+001  6.869298e+001 
3409375000  -4.690841e+001  6.268633e+001 
3412500000  -4.759633e+001  5.309349e+001 
3415625000  -4.849308e+001  4.986808e+001 
3418750000  -4.851027e+001  4.610361e+001 
3421875000  -4.855191e+001  4.135526e+001 
3425000000  -4.747257e+001  3.654138e+001 
3428125000  -4.725352e+001  2.663993e+001 
3431250000  -4.647398e+001  1.521819e+001 
3434375000  -4.715640e+001  1.845552e+000 
3437500000  -4.771218e+001  -4.487439e+000 
3440625000  -4.806419e+001  -9.748736e+000 
3443750000  -4.643444e+001  -1.441387e+001 
3446875000  -4.578810e+001  -2.720184e+001 
3450000000  -4.505685e+001  -4.240437e+001 
3453125000  -4.594829e+001  -6.090210e+001 
3456250000  -4.782086e+001  -6.959389e+001 
3459375000  -4.803211e+001  -7.418652e+001 
3462500000  -4.788270e+001  -7.667091e+001 
3465625000  -4.705528e+001  -8.953751e+001 
3468750000  -4.711997e+001  -9.316814e+001 
3471875000  -4.753610e+001  -1.045333e+002 
3475000000  -4.718530e+001  -1.131990e+002 
3478125000  -4.749692e+001  -1.284632e+002 
3481250000  -4.917023e+001  -1.341818e+002 
3484375000  -4.881149e+001  -1.346093e+002 
3487500000  -4.741101e+001  -1.406632e+002 
3490625000  -4.718948e+001  -1.522452e+002 
3493750000  -4.804892e+001  -1.663616e+002 
3496875000  -4.804238e+001  -1.706741e+002 
3500000000  -4.827289e+001  -1.711213e+002 
3503125000  -4.716474e+001  -1.744382e+002 
3506250000  -4.594735e+001  1.712732e+002 
3509375000  -4.579356e+001  1.491796e+002 
3512500000  -4.619845e+001  1.375148e+002 
3515625000  -4.725105e+001  1.322937e+002 
3518750000  -4.774444e+001  1.247818e+002 
3521875000  -4.791344e+001  1.194104e+002 
3525000000  -4.856327e+001  1.132781e+002 
3528125000  -4.728401e+001  1.176167e+002 
3531250000  -4.678830e+001  1.047773e+002 
3534375000  -4.701238e+001  9.047119e+001 
3537500000  -4.779632e+001  8.076079e+001 
3540625000  -4.873001e+001  7.440292e+001 
3543750000  -4.958500e+001  8.016071e+001 
3546875000  -4.879312e+001  8.162504e+001 
3550000000  -4.599825e+001  7.303297e+001 
3553125000  -4.630432e+001  5.250469e+001 
3556250000  -4.704812e+001  4.882018e+001 
3559375000  -4.646679e+001  3.845113e+001 
3562500000  -4.654765e+001  3.048879e+001 
3565625000  -4.741909e+001  2.363627e+001 
3568750000  -4.772078e+001  2.367322e+001 
3571875000  -4.735398e+001  2.056758e+001 
3575000000  -4.714816e+001  9.562956e+000 
3578125000  -4.763837e+001  7.022069e+000 
3581250000  -4.734280e+001  1.802162e+000 
3584375000  -4.564824e+001  -3.699261e+000 
3587500000  -4.529095e+001  -1.614099e+001 
3590625000  -4.660117e+001  -2.587814e+001 
3593750000  -4.738031e+001  -2.660609e+001 
3596875000  -4.716956e+001  -1.963116e+001 
3600000000  -4.456528e+001  -3.529053e+001 
3603125000  -4.486001e+001  -4.760568e+001 
3606250000  -4.613186e+001  -5.331002e+001 
3609375000  -4.595051e+001  -5.810369e+001 
3612500000  -4.608931e+001  -6.432004e+001 
3615625000  -4.612271e+001  -7.126008e+001 
3618750000  -4.596256e+001  -7.150873e+001 
3621875000  -4.571434e+001  -7.872068e+001 
3625000000  -4.548827e+001  -8.133909e+001 
3628125000  -4.469220e+001  -8.701446e+001 
3631250000  -4.486916e+001  -9.606927e+001 
3634375000  -4.556134e+001  -9.996811e+001 
3637500000  -4.462459e+001  -1.018834e+002 
3640625000  -4.361382e+001  -1.072465e+002 
3643750000  -4.301948e+001  -1.199382e+002 
3646875000  -4.359174e+001  -1.303194e+002 
3650000000  -4.341403e+001  -1.359738e+002 
3653125000  -4.303598e+001  -1.438636e+002 
3656250000  -4.393122e+001  -1.501744e+002 
3659375000  -4.391338e+001  -1.535737e+002 
3662500000  -4.320385e+001  -1.612994e+002 
3665625000  -4.334003e+001  -1.632792e+002 
3668750000  -4.184122e+001  -1.694603e+002 
3671875000  -4.150032e+001  1.769048e+002 
3675000000  -4.206696e+001  1.676881e+002 
3678125000  -4.249368e+001  1.616750e+002 
3681250000  -4.220326e+001  1.548952e+002 
3684375000  -4.255725e+001  1.477113e+002 
3687500000  -4.308953e+001  1.386110e+002 
3690625000  -4.334000e+001  1.322656e+002 
3693750000  -4.444167e+001  1.334533e+002 
3696875000  -4.383585e+001  1.282394e+002 
3700000000  -4.337676e+001  1.224521e+002 
3703125000  -4.376526e+001  1.132663e+002 
3706250000  -4.450027e+001  1.114899e+002 
3709375000  -4.426830e+001  1.119931e+002 
3712500000  -4.315781e+001  1.042843e+002 
3715625000  -4.146643e+001  9.387457e+001 
3718750000  -4.164519e+001  8.548942e+001 
3721875000  -4.166677e+001  7.574982e+001 
3725000000  -4.244017e+001  6.987550e+001 
3728125000  -4.238060e+001  6.595261e+001 
3731250000  -4.183884e+001  5.700058e+001 
3734375000  -4.208014e+001  5.029022e+001 
3737500000  -4.263061e+001  4.087280e+001 
3740625000  -4.299916e+001  3.632165e+001 
3743750000  -4.307655e+001  3.110896e+001 
3746875000  -4.331307e+001  2.374260e+001 
3750000000  -4.360987e+001  2.087906e+001 
3753125000  -4.365360e+001  1.615496e+001 
3756250000  -4.370092e+001  1.273071e+001 
3759375000  -4.378734e+001  8.435639e+000 
3762500000  -4.358852e+001  3.569922e+000 
3765625000  -4.406581e+001  -2.906843e+000 
3768750000  -4.334476e+001  -1.472584e+000 
3771875000  -4.172555e+001  -8.035904e+000 
3775000000  -4.210580e+001  -1.980531e+001 
3778125000  -4.272471e+001  -2.577387e+001 
3781250000  -4.273147e+001  -3.097638e+001 
3784375000  -4.201082e+001  -3.727259e+001 
3787500000  -4.223226e+001  -4.183853e+001 
3790625000  -4.275196e+001  -5.035172e+001 
3793750000  -4.266676e+001  -5.552472e+001 
3796875000  -4.160305e+001  -6.064067e+001 
3800000000  -4.063321e+001  -6.834200e+001 
3803125000  -4.191018e+001  -8.101444e+001 
3806250000  -4.260433e+001  -8.286236e+001 
3809375000  -4.174640e+001  -8.904520e+001 
3812500000  -4.172762e+001  -1.014999e+002 
3815625000  -4.287788e+001  -1.116949e+002 
3818750000  -4.414069e+001  -1.080036e+002 
3821875000  -4.362608e+001  -9.931745e+001 
3825000000  -4.145888e+001  -1.053528e+002 
3828125000  -4.044545e+001  -1.285204e+002 
3831250000  -4.178205e+001  -1.408731e+002 
3834375000  -4.355222e+001  -1.419391e+002 
3837500000  -4.375174e+001  -1.375430e+002 
3840625000  -4.248334e+001  -1.450254e+002 
3843750000  -4.198582e+001  -1.627464e+002 
3846875000  -4.349976e+001  -1.671237e+002 
3850000000  -4.394873e+001  -1.601302e+002 
3853125000  -4.355873e+001  -1.613306e+002 
3856250000  -4.319928e+001  -1.722863e+002 
3859375000  -4.215491e+001  -1.782541e+002 
3862500000  -4.201831e+001  1.692156e+002 
3865625000  -4.260424e+001  1.617201e+002 
3868750000  -4.201450e+001  1.613345e+002 
3871875000  -4.199025e+001  1.488341e+002 
3875000000  -4.217425e+001  1.396540e+002 
3878125000  -4.332072e+001  1.395889e+002 
3881250000  -4.300896e+001  1.391513e+002 
3884375000  -4.245964e+001  1.273979e+002 
3887500000  -4.311369e+001  1.205998e+002 
3890625000  -4.371997e+001  1.154881e+002 
3893750000  -4.422704e+001  1.140320e+002 
3896875000  -4.431673e+001  1.104302e+002 
3900000000  -4.473345e+001  1.049622e+002 
3903125000  -4.367780e+001  1.037782e+002 
3906250000  -4.300621e+001  9.515788e+001 
3909375000  -4.277458e+001  8.793901e+001 
3912500000  -4.386256e+001  7.670646e+001 
3915625000  -4.520255e+001  7.863329e+001 
3918750000  -4.467234e+001  7.660494e+001 
3921875000  -4.345737e+001  7.252985e+001 
3925000000  -4.299493e+001  6.550418e+001 
3928125000  -4.273472e+001  5.799646e+001 
3931250000  -4.358807e+001  4.749432e+001 
3934375000  -4.386451e+001  4.606930e+001 
3937500000  -4.437091e+001  4.319079e+001 
3940625000  -4.452587e+001  4.426266e+001 
3943750000  -4.304040e+001  3.891565e+001 
3946875000  -4.302969e+001  3.038214e+001 
3950000000  -4.353363e+001  2.071762e+001 
3953125000  -4.447542e+001  2.144148e+001 
3956250000  -4.294652e+001  2.038479e+001 
3959375000  -4.187302e+001  1.316022e+001 
3962500000  -4.149602e+001  5.649226e-001 
3965625000  -4.176294e+001  -9.570595e+000 
3968750000  -4.213195e+001  -1.505183e+001 
3971875000  -4.251279e+001  -2.279497e+001 
3975000000  -4.199760e+001  -2.522600e+001 
3978125000  -4.198914e+001  -3.274866e+001 
3981250000  -4.211128e+001  -4.237775e+001 
3984375000  -4.198385e+001  -4.728147e+001 
3987500000  -4.300447e+001  -5.285796e+001 
3990625000  -4.294044e+001  -5.606582e+001 
3993750000  -4.302155e+001  -6.293558e+001 
3996875000  -4.269922e+001  -6.915239e+001 
4000000000  -4.366456e+001  -7.155401e+001 
4003125000  -4.408614e+001  -7.191206e+001 
4006250000  -4.219891e+001  -7.716215e+001 
4009375000  -4.116989e+001  -9.587827e+001 
4012500000  -4.283567e+001  -1.033354e+002 
4015625000  -4.380702e+001  -1.038913e+002 
4018750000  -4.396500e+001  -1.074343e+002 
4021875000  -4.304612e+001  -1.148410e+002 
4025000000  -4.324005e+001  -1.228540e+002 
4028125000  -4.329443e+001  -1.298648e+002 
4031250000  -4.357779e+001  -1.367852e+002 
4034375000  -4.407626e+001  -1.419430e+002 
4037500000  -4.392711e+001  -1.438538e+002 
4040625000  -4.387337e+001  -1.474309e+002 
4043750000  -4.443343e+001  -1.512311e+002 
4046875000  -4.383545e+001  -1.567391e+002 
4050000000  -4.404719e+001  -1.627721e+002 
4053125000  -4.535878e+001  -1.684168e+002 
4056250000  -4.538903e+001  -1.643070e+002 
4059375000  -4.366479e+001  -1.655176e+002 
4062500000  -4.338464e+001  -1.731763e+002 
4065625000  -4.330228e+001  1.789438e+002 
4068750000  -4.308880e+001  1.693574e+002 
4071875000  -4.212786e+001  1.606664e+002 
4075000000  -4.340375e+001  1.516586e+002 
4078125000  -4.425806e+001  1.500902e+002 
4081250000  -4.327414e+001  1.442409e+002 
4084375000  -4.350117e+001  1.353308e+002 
4087500000  -4.396045e+001  1.284353e+002 
4090625000  -4.483031e+001  1.273701e+002 
4093750000  -4.429279e+001  1.236383e+002 
4096875000  -4.407839e+001  1.171527e+002 
4100000000  -4.536131e+001  1.112235e+002 
4103125000  -4.592773e+001  1.123263e+002 
4106250000  -4.523845e+001  1.120119e+002 
4109375000  -4.415372e+001  1.082470e+002 
4112500000  -4.394392e+001  9.742233e+001 
4115625000  -4.358936e+001  9.393374e+001 
4118750000  -4.412329e+001  8.943546e+001 
4121875000  -4.355398e+001  8.166178e+001 
4125000000  -4.439218e+001  7.500739e+001 
4128125000  -4.541963e+001  8.014451e+001 
4131250000  -4.353236e+001  8.109575e+001 
4134375000  -4.159629e+001  7.004992e+001 
4137500000  -4.188102e+001  4.978136e+001 
4140625000  -4.372618e+001  4.292966e+001 
4143750000  -4.470380e+001  4.738037e+001 
4146875000  -4.392776e+001  4.914161e+001 
4150000000  -4.227267e+001  3.912522e+001 
4153125000  -4.329569e+001  3.019441e+001 
4156250000  -4.370935e+001  2.454470e+001 
4159375000  -4.328298e+001  2.587741e+001 
4162500000  -4.269915e+001  2.696398e+001 
4165625000  -4.168394e+001  1.554271e+001 
4168750000  -4.112959e+001  4.830901e+000 
4171875000  -4.119680e+001  -7.295847e+000 
4175000000  -4.164456e+001  -1.417459e+001 
4178125000  -4.227691e+001  -1.667326e+001 
4181250000  -4.190879e+001  -2.424466e+001 
4184375000  -4.214676e+001  -3.165494e+001 
4187500000  -4.239266e+001  -3.779261e+001 
4190625000  -4.252641e+001  -4.647532e+001 
4193750000  -4.410140e+001  -5.251826e+001 
4196875000  -4.471040e+001  -5.590707e+001 
4200000000  -4.621733e+001  -4.956158e+001 
4203125000  -4.437524e+001  -3.974911e+001 
4206250000  -4.106968e+001  -4.869480e+001 
4209375000  -4.154824e+001  -7.282902e+001 
4212500000  -4.375314e+001  -7.911409e+001 
4215625000  -4.388631e+001  -7.281239e+001 
4218750000  -4.262300e+001  -7.299006e+001 
4221875000  -4.083139e+001  -8.529942e+001 
4225000000  -4.252086e+001  -9.533781e+001 
4228125000  -4.226756e+001  -9.249346e+001 
4231250000  -4.076373e+001  -1.063821e+002 
4234375000  -4.078926e+001  -1.156181e+002 
4237500000  -4.077025e+001  -1.225218e+002 
4240625000  -4.133924e+001  -1.314720e+002 
4243750000  -4.258703e+001  -1.379007e+002 
4246875000  -4.275609e+001  -1.393419e+002 
4250000000  -4.285662e+001  -1.401692e+002 
4253125000  -4.263223e+001  -1.452799e+002 
4256250000  -4.240535e+001  -1.510358e+002 
4259375000  -4.184082e+001  -1.566728e+002 
4262500000  -4.270119e+001  -1.623177e+002 
4265625000  -4.193272e+001  -1.628679e+002 
4268750000  -4.084106e+001  -1.708646e+002 
4271875000  -4.064729e+001  1.792873e+002 
4275000000  -4.043643e+001  1.707663e+002 
4278125000  -4.149213e+001  1.570430e+002 
4281250000  -4.216116e+001  1.567170e+002 
4284375000  -4.192187e+001  1.511649e+002 
4287500000  -4.356807e+001  1.466930e+002 
4290625000  -4.364260e+001  1.556414e+002 
4293750000  -4.122765e+001  1.543024e+002 
4296875000  -4.026237e+001  1.410501e+002 
4300000000  -4.129155e+001  1.311084e+002 
4303125000  -4.160106e+001  1.307282e+002 
4306250000  -4.083677e+001  1.280931e+002 
4309375000  -3.966417e+001  1.195355e+002 
4312500000  -3.943950e+001  1.071257e+002 
4315625000  -4.016736e+001  9.847033e+001 
4318750000  -4.106185e+001  9.321304e+001 
4321875000  -4.100265e+001  8.988859e+001 
4325000000  -3.994088e+001  8.623228e+001 
4328125000  -3.959292e+001  7.482628e+001 
4331250000  -3.981954e+001  6.215709e+001 
4334375000  -4.085201e+001  5.367863e+001 
4337500000  -4.208099e+001  5.297795e+001 
4340625000  -4.168871e+001  5.539929e+001 
4343750000  -4.114687e+001  4.991682e+001 
4346875000  -4.085100e+001  4.260726e+001 
4350000000  -4.091465e+001  2.966471e+001 
4353125000  -4.172691e+001  2.367350e+001 
4356250000  -4.443364e+001  2.837492e+001 
4359375000  -4.251764e+001  3.821561e+001 
4362500000  -3.957220e+001  2.959613e+001 
4365625000  -3.902497e+001  1.070819e+001 
4368750000  -4.036599e+001  -1.115761e-001 
4371875000  -4.088785e+001  -2.014554e+000 
4375000000  -4.043962e+001  -7.524524e+000 
4378125000  -4.050057e+001  -1.633792e+001 
4381250000  -4.051163e+001  -2.358132e+001 
4384375000  -4.033105e+001  -3.223893e+001 
4387500000  -4.148835e+001  -3.701151e+001 
4390625000  -4.223534e+001  -3.939608e+001 
4393750000  -4.155745e+001  -4.029050e+001 
4396875000  -4.149263e+001  -4.841838e+001 
4400000000  -4.080133e+001  -5.495210e+001 
4403125000  -4.182470e+001  -6.486209e+001 
4406250000  -4.200633e+001  -6.978465e+001 
4409375000  -4.226248e+001  -7.504455e+001 
4412500000  -4.326863e+001  -7.821027e+001 
4415625000  -4.297108e+001  -7.516921e+001 
4418750000  -4.167764e+001  -7.548117e+001 
