!Agilent Technologies,E8363B,MY43030201,A.06.04.32
!Agilent E8363B: A.06.04.32
!Date: Tuesday, November 11, 2014 21:41:55
!Correction: S21(Response(S21)) 
!S1P File: Measurement: S21:
# Hz S  dB   R 50
3000000000  -4.371554e+001  -1.583425e+002 
3003125000  -4.550665e+001  -1.645228e+002 
3006250000  -4.493056e+001  -1.653586e+002 
3009375000  -4.582990e+001  -1.630082e+002 
3012500000  -4.500692e+001  -1.674481e+002 
3015625000  -4.480946e+001  -1.748004e+002 
3018750000  -4.545850e+001  -1.753535e+002 
3021875000  -4.385516e+001  -1.770162e+002 
3025000000  -4.249908e+001  -1.793644e+002 
3028125000  -4.160655e+001  1.678901e+002 
3031250000  -4.090722e+001  1.548915e+002 
3034375000  -4.066698e+001  1.406334e+002 
3037500000  -4.159649e+001  1.297918e+002 
3040625000  -4.263795e+001  1.240604e+002 
3043750000  -4.346200e+001  1.154291e+002 
3046875000  -4.407138e+001  1.111647e+002 
3050000000  -4.524278e+001  1.044734e+002 
3053125000  -4.464798e+001  1.102102e+002 
3056250000  -4.503579e+001  1.104349e+002 
3059375000  -4.389711e+001  1.085725e+002 
3062500000  -4.249844e+001  1.041997e+002 
3065625000  -4.209879e+001  9.158429e+001 
3068750000  -4.187532e+001  8.312983e+001 
3071875000  -4.174552e+001  8.225863e+001 
3075000000  -4.106052e+001  7.411365e+001 
3078125000  -4.120084e+001  6.672437e+001 
3081250000  -4.129393e+001  6.021081e+001 
3084375000  -4.039704e+001  5.478082e+001 
3087500000  -4.060161e+001  4.726846e+001 
3090625000  -3.995052e+001  3.366714e+001 
3093750000  -4.111126e+001  2.534680e+001 
3096875000  -4.124921e+001  1.822587e+001 
3100000000  -4.125750e+001  1.525198e+001 
3103125000  -4.132140e+001  1.080566e+001 
3106250000  -4.104859e+001  4.602625e+000 
3109375000  -4.110623e+001  1.652966e-001 
3112500000  -4.082959e+001  -7.760744e+000 
3115625000  -4.071661e+001  -1.345515e+001 
3118750000  -4.080894e+001  -1.756515e+001 
3121875000  -3.997073e+001  -2.976988e+001 
3125000000  -4.206646e+001  -3.381328e+001 
3128125000  -4.212638e+001  -2.796965e+001 
3131250000  -3.947013e+001  -3.545560e+001 
3134375000  -3.879355e+001  -5.526406e+001 
3137500000  -3.966892e+001  -6.732407e+001 
3140625000  -4.100074e+001  -7.020036e+001 
3143750000  -4.170884e+001  -7.606497e+001 
3146875000  -4.119190e+001  -7.387876e+001 
3150000000  -4.035323e+001  -7.911708e+001 
3153125000  -4.073272e+001  -8.925575e+001 
3156250000  -4.158398e+001  -8.647372e+001 
3159375000  -3.929069e+001  -8.984167e+001 
3162500000  -3.779805e+001  -1.063898e+002 
3165625000  -3.897988e+001  -1.206421e+002 
3168750000  -3.920568e+001  -1.208442e+002 
3171875000  -3.870695e+001  -1.294929e+002 
3175000000  -3.931709e+001  -1.398612e+002 
3178125000  -3.880574e+001  -1.414277e+002 
3181250000  -3.819576e+001  -1.519817e+002 
3184375000  -3.793702e+001  -1.636686e+002 
3187500000  -3.910199e+001  -1.798082e+002 
3190625000  -4.088756e+001  1.739077e+002 
3193750000  -4.109486e+001  1.770022e+002 
3196875000  -4.114192e+001  1.777410e+002 
3200000000  -3.990411e+001  1.723373e+002 
3203125000  -3.962202e+001  1.633150e+002 
3206250000  -3.992089e+001  1.546593e+002 
3209375000  -3.949433e+001  1.471129e+002 
3212500000  -4.006465e+001  1.374789e+002 
3215625000  -3.977396e+001  1.352102e+002 
3218750000  -4.049611e+001  1.232156e+002 
3221875000  -4.075163e+001  1.171777e+002 
3225000000  -4.041582e+001  1.110432e+002 
3228125000  -4.126593e+001  1.035564e+002 
3231250000  -4.148489e+001  9.866766e+001 
3234375000  -4.112016e+001  9.809181e+001 
3237500000  -4.123772e+001  9.381850e+001 
3240625000  -4.038541e+001  8.481310e+001 
3243750000  -4.037193e+001  7.401030e+001 
3246875000  -4.087070e+001  6.587926e+001 
3250000000  -4.107664e+001  6.122041e+001 
3253125000  -4.120892e+001  5.758108e+001 
3256250000  -4.026402e+001  4.758090e+001 
3259375000  -4.102066e+001  3.387741e+001 
3262500000  -4.271988e+001  2.973409e+001 
3265625000  -4.260556e+001  3.106100e+001 
3268750000  -4.286953e+001  2.946098e+001 
3271875000  -4.165524e+001  2.278778e+001 
3275000000  -4.121847e+001  1.263796e+001 
3278125000  -4.200239e+001  5.815192e+000 
3281250000  -4.184819e+001  2.492406e+000 
3284375000  -4.105897e+001  -7.141308e+000 
3287500000  -4.144750e+001  -1.403175e+001 
3290625000  -4.169988e+001  -2.198508e+001 
3293750000  -4.186385e+001  -3.131532e+001 
3296875000  -4.275551e+001  -3.464011e+001 
3300000000  -4.212937e+001  -3.713573e+001 
3303125000  -4.116266e+001  -4.691693e+001 
3306250000  -4.092589e+001  -5.751268e+001 
3309375000  -4.067678e+001  -6.895842e+001 
3312500000  -4.134624e+001  -8.445689e+001 
3315625000  -4.246585e+001  -9.288232e+001 
3318750000  -4.420364e+001  -9.645512e+001 
3321875000  -4.529316e+001  -9.692883e+001 
3325000000  -4.504344e+001  -9.343174e+001 
3328125000  -4.435588e+001  -9.577870e+001 
3331250000  -4.254198e+001  -9.703703e+001 
3334375000  -4.030109e+001  -1.152923e+002 
3337500000  -4.119309e+001  -1.380015e+002 
3340625000  -4.299548e+001  -1.475891e+002 
3343750000  -4.459948e+001  -1.525479e+002 
3346875000  -4.420486e+001  -1.545890e+002 
3350000000  -4.384493e+001  -1.598837e+002 
3353125000  -4.374098e+001  -1.687682e+002 
3356250000  -4.348501e+001  1.794120e+002 
3359375000  -4.439939e+001  1.683344e+002 
3362500000  -4.546198e+001  1.584866e+002 
3365625000  -4.591657e+001  1.536043e+002 
3368750000  -4.672435e+001  1.477995e+002 
3371875000  -4.708947e+001  1.436037e+002 
3375000000  -4.917567e+001  1.343690e+002 
3378125000  -4.965734e+001  1.292079e+002 
3381250000  -5.086253e+001  1.446829e+002 
3384375000  -4.769994e+001  1.565441e+002 
3387500000  -4.507932e+001  1.304749e+002 
3390625000  -4.731793e+001  1.095546e+002 
3393750000  -4.824093e+001  1.079149e+002 
3396875000  -4.684402e+001  1.036753e+002 
3400000000  -4.652859e+001  8.874269e+001 
3403125000  -4.737618e+001  8.068576e+001 
3406250000  -4.740303e+001  7.388241e+001 
3409375000  -4.747696e+001  6.118607e+001 
3412500000  -4.826140e+001  5.580826e+001 
3415625000  -4.893893e+001  5.359088e+001 
3418750000  -4.855661e+001  4.701816e+001 
3421875000  -4.892964e+001  4.483132e+001 
3425000000  -4.825993e+001  3.804900e+001 
3428125000  -4.746722e+001  3.054523e+001 
3431250000  -4.670359e+001  1.665977e+001 
3434375000  -4.683234e+001  5.138191e+000 
3437500000  -4.749522e+001  -3.584782e+000 
3440625000  -4.796920e+001  -7.050393e+000 
3443750000  -4.588699e+001  -1.011755e+001 
3446875000  -4.561372e+001  -2.537708e+001 
3450000000  -4.549842e+001  -3.978864e+001 
3453125000  -4.563953e+001  -5.650483e+001 
3456250000  -4.719753e+001  -6.812037e+001 
3459375000  -4.769449e+001  -6.898589e+001 
3462500000  -4.803187e+001  -7.154321e+001 
3465625000  -4.724451e+001  -8.837786e+001 
3468750000  -4.739501e+001  -9.282848e+001 
3471875000  -4.748856e+001  -1.030987e+002 
3475000000  -4.638907e+001  -1.126165e+002 
3478125000  -4.722652e+001  -1.254647e+002 
3481250000  -4.881805e+001  -1.345926e+002 
3484375000  -4.848838e+001  -1.304281e+002 
3487500000  -4.771247e+001  -1.380735e+002 
3490625000  -4.685558e+001  -1.508301e+002 
3493750000  -4.781406e+001  -1.668297e+002 
3496875000  -4.798824e+001  -1.679609e+002 
3500000000  -4.832431e+001  -1.693653e+002 
3503125000  -4.707926e+001  -1.726545e+002 
3506250000  -4.544189e+001  1.757874e+002 
3509375000  -4.569418e+001  1.540155e+002 
3512500000  -4.578128e+001  1.428066e+002 
3515625000  -4.739044e+001  1.360025e+002 
3518750000  -4.774740e+001  1.316883e+002 
3521875000  -4.784281e+001  1.180005e+002 
3525000000  -4.842131e+001  1.155875e+002 
3528125000  -4.706176e+001  1.184251e+002 
3531250000  -4.653559e+001  1.095487e+002 
3534375000  -4.659436e+001  9.249595e+001 
3537500000  -4.791344e+001  8.016975e+001 
3540625000  -4.898176e+001  7.885773e+001 
3543750000  -4.911417e+001  8.422031e+001 
3546875000  -4.880372e+001  8.904576e+001 
3550000000  -4.608596e+001  7.830409e+001 
3553125000  -4.583097e+001  5.884249e+001 
3556250000  -4.746777e+001  4.941026e+001 
3559375000  -4.682910e+001  4.646994e+001 
3562500000  -4.659379e+001  3.620199e+001 
3565625000  -4.722964e+001  2.896759e+001 
3568750000  -4.755342e+001  2.558743e+001 
3571875000  -4.742272e+001  2.438812e+001 
3575000000  -4.765548e+001  1.578985e+001 
3578125000  -4.752298e+001  1.132270e+001 
3581250000  -4.793709e+001  8.047712e+000 
3584375000  -4.628732e+001  -7.051381e-002 
3587500000  -4.554471e+001  -1.125379e+001 
3590625000  -4.634126e+001  -1.938444e+001 
3593750000  -4.808868e+001  -2.411567e+001 
3596875000  -4.644367e+001  -1.671459e+001 
3600000000  -4.510325e+001  -2.537304e+001 
3603125000  -4.542238e+001  -4.310693e+001 
3606250000  -4.581646e+001  -4.990888e+001 
3609375000  -4.622668e+001  -5.371305e+001 
3612500000  -4.601060e+001  -5.819779e+001 
3615625000  -4.594421e+001  -6.822324e+001 
3618750000  -4.627216e+001  -6.940400e+001 
3621875000  -4.589220e+001  -7.333037e+001 
3625000000  -4.557581e+001  -8.189688e+001 
3628125000  -4.491949e+001  -8.420175e+001 
3631250000  -4.494238e+001  -9.422833e+001 
3634375000  -4.604718e+001  -9.665229e+001 
3637500000  -4.446808e+001  -9.598044e+001 
3640625000  -4.409171e+001  -1.028243e+002 
3643750000  -4.336808e+001  -1.138158e+002 
3646875000  -4.396554e+001  -1.247002e+002 
3650000000  -4.392886e+001  -1.315420e+002 
3653125000  -4.356388e+001  -1.379975e+002 
3656250000  -4.437453e+001  -1.431629e+002 
3659375000  -4.402470e+001  -1.507439e+002 
3662500000  -4.324786e+001  -1.559323e+002 
3665625000  -4.338857e+001  -1.590136e+002 
3668750000  -4.219137e+001  -1.636752e+002 
3671875000  -4.149663e+001  -1.775924e+002 
3675000000  -4.212436e+001  1.736516e+002 
3678125000  -4.271108e+001  1.684616e+002 
3681250000  -4.240330e+001  1.606485e+002 
3684375000  -4.240858e+001  1.527489e+002 
3687500000  -4.311503e+001  1.439984e+002 
3690625000  -4.377143e+001  1.362805e+002 
3693750000  -4.451162e+001  1.372021e+002 
3696875000  -4.402315e+001  1.335028e+002 
3700000000  -4.306852e+001  1.242376e+002 
3703125000  -4.395557e+001  1.162341e+002 
3706250000  -4.446696e+001  1.151207e+002 
3709375000  -4.411153e+001  1.145889e+002 
3712500000  -4.301529e+001  1.084962e+002 
3715625000  -4.177079e+001  9.892317e+001 
3718750000  -4.174595e+001  9.151100e+001 
3721875000  -4.173606e+001  8.064657e+001 
3725000000  -4.265436e+001  7.169305e+001 
3728125000  -4.248932e+001  7.024956e+001 
3731250000  -4.199199e+001  6.536577e+001 
3734375000  -4.214268e+001  5.453079e+001 
3737500000  -4.261863e+001  4.736458e+001 
3740625000  -4.328775e+001  4.089830e+001 
3743750000  -4.295174e+001  3.585963e+001 
3746875000  -4.335638e+001  2.795182e+001 
3750000000  -4.376272e+001  2.611393e+001 
3753125000  -4.374034e+001  2.296480e+001 
3756250000  -4.384896e+001  1.648579e+001 
3759375000  -4.384682e+001  1.276035e+001 
3762500000  -4.357569e+001  8.755398e+000 
3765625000  -4.408527e+001  3.277097e+000 
3768750000  -4.338094e+001  2.646566e+000 
3771875000  -4.215815e+001  -1.343404e+000 
3775000000  -4.258749e+001  -1.494366e+001 
3778125000  -4.258682e+001  -2.155586e+001 
3781250000  -4.287932e+001  -2.523021e+001 
3784375000  -4.244980e+001  -3.088670e+001 
3787500000  -4.233348e+001  -3.731387e+001 
3790625000  -4.298345e+001  -4.688690e+001 
3793750000  -4.268060e+001  -4.824627e+001 
3796875000  -4.197071e+001  -5.698079e+001 
3800000000  -4.085273e+001  -6.255623e+001 
3803125000  -4.176542e+001  -7.409061e+001 
3806250000  -4.272825e+001  -7.913563e+001 
3809375000  -4.205146e+001  -8.299660e+001 
3812500000  -4.216507e+001  -9.442595e+001 
3815625000  -4.292409e+001  -1.062013e+002 
3818750000  -4.430732e+001  -1.014612e+002 
3821875000  -4.361247e+001  -9.334766e+001 
3825000000  -4.155616e+001  -1.003839e+002 
3828125000  -4.062774e+001  -1.225359e+002 
3831250000  -4.146898e+001  -1.375028e+002 
3834375000  -4.399582e+001  -1.377475e+002 
3837500000  -4.409931e+001  -1.310663e+002 
3840625000  -4.288238e+001  -1.395363e+002 
3843750000  -4.188240e+001  -1.541361e+002 
3846875000  -4.375597e+001  -1.604832e+002 
3850000000  -4.451614e+001  -1.532904e+002 
3853125000  -4.339864e+001  -1.584169e+002 
3856250000  -4.265042e+001  -1.668417e+002 
3859375000  -4.235706e+001  -1.756001e+002 
3862500000  -4.211534e+001  1.736058e+002 
3865625000  -4.277835e+001  1.684766e+002 
3868750000  -4.248600e+001  1.668820e+002 
3871875000  -4.200678e+001  1.566905e+002 
3875000000  -4.256306e+001  1.439931e+002 
3878125000  -4.376320e+001  1.446511e+002 
3881250000  -4.350225e+001  1.430679e+002 
3884375000  -4.291881e+001  1.314662e+002 
3887500000  -4.341372e+001  1.279712e+002 
3890625000  -4.383935e+001  1.209761e+002 
3893750000  -4.452404e+001  1.203386e+002 
3896875000  -4.459298e+001  1.164530e+002 
3900000000  -4.445421e+001  1.137663e+002 
3903125000  -4.397147e+001  1.085038e+002 
3906250000  -4.393320e+001  1.051606e+002 
3909375000  -4.272130e+001  9.146778e+001 
3912500000  -4.407347e+001  8.293811e+001 
3915625000  -4.499368e+001  8.147945e+001 
3918750000  -4.450389e+001  8.021826e+001 
3921875000  -4.403946e+001  7.630006e+001 
3925000000  -4.330278e+001  6.847765e+001 
3928125000  -4.332876e+001  6.115549e+001 
3931250000  -4.399445e+001  5.542100e+001 
3934375000  -4.419715e+001  5.138872e+001 
3937500000  -4.476890e+001  4.827530e+001 
3940625000  -4.439956e+001  4.856165e+001 
3943750000  -4.357282e+001  4.266179e+001 
3946875000  -4.287775e+001  3.421949e+001 
3950000000  -4.393970e+001  2.462822e+001 
3953125000  -4.496949e+001  2.825047e+001 
3956250000  -4.317395e+001  2.471893e+001 
3959375000  -4.201637e+001  1.758127e+001 
3962500000  -4.162165e+001  7.193833e+000 
3965625000  -4.252889e+001  -3.235559e+000 
3968750000  -4.286228e+001  -1.179220e+001 
3971875000  -4.256567e+001  -1.565950e+001 
3975000000  -4.208024e+001  -2.408547e+001 
3978125000  -4.213786e+001  -2.996566e+001 
3981250000  -4.213308e+001  -3.677583e+001 
3984375000  -4.251060e+001  -4.422983e+001 
3987500000  -4.300008e+001  -4.862636e+001 
3990625000  -4.318432e+001  -5.228980e+001 
3993750000  -4.330188e+001  -5.757310e+001 
3996875000  -4.310304e+001  -6.447672e+001 
4000000000  -4.398729e+001  -6.819864e+001 
4003125000  -4.418129e+001  -6.613456e+001 
4006250000  -4.215133e+001  -7.095624e+001 
4009375000  -4.150598e+001  -9.236890e+001 
4012500000  -4.337701e+001  -9.878548e+001 
4015625000  -4.404430e+001  -9.643492e+001 
4018750000  -4.416076e+001  -1.007040e+002 
4021875000  -4.311578e+001  -1.087844e+002 
4025000000  -4.316647e+001  -1.174637e+002 
4028125000  -4.353709e+001  -1.259448e+002 
4031250000  -4.434756e+001  -1.330478e+002 
4034375000  -4.401041e+001  -1.317083e+002 
4037500000  -4.428762e+001  -1.375880e+002 
4040625000  -4.444371e+001  -1.427505e+002 
4043750000  -4.466080e+001  -1.468961e+002 
4046875000  -4.460575e+001  -1.501651e+002 
4050000000  -4.459979e+001  -1.592132e+002 
4053125000  -4.529678e+001  -1.635950e+002 
4056250000  -4.592600e+001  -1.638109e+002 
4059375000  -4.436469e+001  -1.599559e+002 
4062500000  -4.389660e+001  -1.692159e+002 
4065625000  -4.396474e+001  -1.756537e+002 
4068750000  -4.329141e+001  1.764853e+002 
4071875000  -4.327267e+001  1.661325e+002 
4075000000  -4.396988e+001  1.580601e+002 
4078125000  -4.426705e+001  1.560867e+002 
4081250000  -4.417008e+001  1.470311e+002 
4084375000  -4.380747e+001  1.416176e+002 
4087500000  -4.426014e+001  1.318101e+002 
4090625000  -4.511287e+001  1.325455e+002 
4093750000  -4.487212e+001  1.279774e+002 
4096875000  -4.449929e+001  1.230994e+002 
4100000000  -4.582073e+001  1.150973e+002 
4103125000  -4.645327e+001  1.190817e+002 
4106250000  -4.546370e+001  1.216678e+002 
4109375000  -4.439815e+001  1.159695e+002 
4112500000  -4.434477e+001  1.049090e+002 
4115625000  -4.457389e+001  9.925240e+001 
4118750000  -4.430704e+001  9.347184e+001 
4121875000  -4.404077e+001  8.545263e+001 
4125000000  -4.560592e+001  8.138450e+001 
4128125000  -4.561824e+001  8.619346e+001 
4131250000  -4.392635e+001  8.883551e+001 
4134375000  -4.186346e+001  7.489291e+001 
4137500000  -4.241586e+001  5.282184e+001 
4140625000  -4.424631e+001  4.645203e+001 
4143750000  -4.506020e+001  5.309237e+001 
4146875000  -4.398832e+001  5.479122e+001 
4150000000  -4.323517e+001  4.421914e+001 
4153125000  -4.353651e+001  3.568875e+001 
4156250000  -4.441823e+001  3.118316e+001 
4159375000  -4.429107e+001  3.545516e+001 
4162500000  -4.301052e+001  3.498447e+001 
4165625000  -4.167259e+001  2.174318e+001 
4168750000  -4.177641e+001  1.111899e+001 
4171875000  -4.142110e+001  -1.287682e+000 
4175000000  -4.216154e+001  -9.689998e+000 
4178125000  -4.275209e+001  -1.410044e+001 
4181250000  -4.248909e+001  -1.813360e+001 
4184375000  -4.279275e+001  -2.329006e+001 
4187500000  -4.273774e+001  -2.956412e+001 
4190625000  -4.302678e+001  -4.332640e+001 
4193750000  -4.451715e+001  -4.423380e+001 
4196875000  -4.543613e+001  -5.095418e+001 
4200000000  -4.618890e+001  -4.154789e+001 
4203125000  -4.467694e+001  -3.344156e+001 
4206250000  -4.194532e+001  -4.537930e+001 
4209375000  -4.169477e+001  -6.780196e+001 
4212500000  -4.401773e+001  -7.522744e+001 
4215625000  -4.475585e+001  -6.920473e+001 
4218750000  -4.253696e+001  -6.793053e+001 
4221875000  -4.132739e+001  -7.943494e+001 
4225000000  -4.329144e+001  -8.902578e+001 
4228125000  -4.321540e+001  -8.987295e+001 
4231250000  -4.131087e+001  -9.545065e+001 
4234375000  -4.182248e+001  -1.093679e+002 
4237500000  -4.125075e+001  -1.139232e+002 
4240625000  -4.151107e+001  -1.258535e+002 
4243750000  -4.304096e+001  -1.366430e+002 
4246875000  -4.335060e+001  -1.309975e+002 
4250000000  -4.311914e+001  -1.335017e+002 
4253125000  -4.312232e+001  -1.359943e+002 
4256250000  -4.314203e+001  -1.421443e+002 
4259375000  -4.280948e+001  -1.482923e+002 
4262500000  -4.245803e+001  -1.541069e+002 
4265625000  -4.260934e+001  -1.560227e+002 
4268750000  -4.139073e+001  -1.626780e+002 
4271875000  -4.098475e+001  -1.749086e+002 
4275000000  -4.073378e+001  1.776711e+002 
4278125000  -4.217736e+001  1.640141e+002 
4281250000  -4.325596e+001  1.632844e+002 
4284375000  -4.275594e+001  1.616404e+002 
4287500000  -4.414895e+001  1.553218e+002 
4290625000  -4.416174e+001  1.609060e+002 
4293750000  -4.212668e+001  1.597730e+002 
4296875000  -4.068992e+001  1.452461e+002 
4300000000  -4.164904e+001  1.362503e+002 
4303125000  -4.262761e+001  1.379668e+002 
4306250000  -4.113676e+001  1.360242e+002 
4309375000  -4.042198e+001  1.276523e+002 
4312500000  -4.033681e+001  1.154454e+002 
4315625000  -4.041770e+001  1.059687e+002 
4318750000  -4.119033e+001  9.856071e+001 
4321875000  -4.146573e+001  9.661918e+001 
4325000000  -4.051418e+001  9.276135e+001 
4328125000  -4.008215e+001  8.271871e+001 
4331250000  -4.020950e+001  6.948900e+001 
4334375000  -4.129760e+001  6.181586e+001 
4337500000  -4.212068e+001  6.208742e+001 
4340625000  -4.253106e+001  6.293203e+001 
4343750000  -4.131036e+001  5.965173e+001 
4346875000  -4.165625e+001  4.708495e+001 
4350000000  -4.181805e+001  3.874067e+001 
4353125000  -4.212908e+001  2.992318e+001 
4356250000  -4.453997e+001  3.144382e+001 
4359375000  -4.326857e+001  4.569874e+001 
4362500000  -3.983416e+001  3.621403e+001 
4365625000  -3.953070e+001  1.775844e+001 
4368750000  -4.099275e+001  8.654313e+000 
4371875000  -4.196704e+001  4.691012e+000 
4375000000  -4.080087e+001  -5.294901e-001 
4378125000  -4.075991e+001  -9.606942e+000 
4381250000  -4.074534e+001  -1.745247e+001 
4384375000  -4.133160e+001  -2.489965e+001 
4387500000  -4.212004e+001  -3.083061e+001 
4390625000  -4.265458e+001  -3.387682e+001 
4393750000  -4.215245e+001  -3.417712e+001 
4396875000  -4.163600e+001  -3.763610e+001 
4400000000  -4.146558e+001  -4.649375e+001 
4403125000  -4.231878e+001  -5.790135e+001 
4406250000  -4.292677e+001  -6.475063e+001 
4409375000  -4.319387e+001  -6.790319e+001 
4412500000  -4.412217e+001  -7.097353e+001 
4415625000  -4.352254e+001  -6.607378e+001 
4418750000  -4.220153e+001  -6.666803e+001 
