!Agilent Technologies,E8363B,MY43030201,A.06.04.32
!Agilent E8363B: A.06.04.32
!Date: Tuesday, November 11, 2014 21:42:35
!Correction: S21(Response(S21)) 
!S1P File: Measurement: S21:
# Hz S  dB   R 50
3000000000  -4.382823e+001  -1.591522e+002 
3003125000  -4.508978e+001  -1.626454e+002 
3006250000  -4.516947e+001  -1.651236e+002 
3009375000  -4.609570e+001  -1.606019e+002 
3012500000  -4.497853e+001  -1.688032e+002 
3015625000  -4.493008e+001  -1.768106e+002 
3018750000  -4.559244e+001  -1.758728e+002 
3021875000  -4.402644e+001  -1.781832e+002 
3025000000  -4.269285e+001  1.799857e+002 
3028125000  -4.168284e+001  1.672904e+002 
3031250000  -4.105972e+001  1.536233e+002 
3034375000  -4.080396e+001  1.409144e+002 
3037500000  -4.159335e+001  1.309379e+002 
3040625000  -4.271215e+001  1.238406e+002 
3043750000  -4.321126e+001  1.159649e+002 
3046875000  -4.393986e+001  1.102453e+002 
3050000000  -4.513796e+001  1.029619e+002 
3053125000  -4.461949e+001  1.112257e+002 
3056250000  -4.468727e+001  1.110520e+002 
3059375000  -4.376872e+001  1.084040e+002 
3062500000  -4.234821e+001  1.028422e+002 
3065625000  -4.201053e+001  9.151714e+001 
3068750000  -4.182315e+001  8.296800e+001 
3071875000  -4.190327e+001  8.122781e+001 
3075000000  -4.101883e+001  7.380432e+001 
3078125000  -4.124251e+001  6.592006e+001 
3081250000  -4.119194e+001  5.897554e+001 
3084375000  -4.039555e+001  5.441317e+001 
3087500000  -4.063924e+001  4.620810e+001 
3090625000  -3.998633e+001  3.423538e+001 
3093750000  -4.098370e+001  2.486393e+001 
3096875000  -4.114112e+001  1.781874e+001 
3100000000  -4.115981e+001  1.533056e+001 
3103125000  -4.128328e+001  1.073983e+001 
3106250000  -4.094347e+001  2.645411e+000 
3109375000  -4.092159e+001  6.356760e-002 
3112500000  -4.081482e+001  -8.858167e+000 
3115625000  -4.083836e+001  -1.209027e+001 
3118750000  -4.069941e+001  -1.851206e+001 
3121875000  -4.032402e+001  -3.075544e+001 
3125000000  -4.213132e+001  -3.283026e+001 
3128125000  -4.204011e+001  -2.928407e+001 
3131250000  -3.957989e+001  -3.657514e+001 
3134375000  -3.903409e+001  -5.368277e+001 
3137500000  -3.956983e+001  -6.777639e+001 
3140625000  -4.082613e+001  -7.149604e+001 
3143750000  -4.161222e+001  -7.633671e+001 
3146875000  -4.101484e+001  -7.362621e+001 
3150000000  -4.052530e+001  -8.010292e+001 
3153125000  -4.086222e+001  -8.956058e+001 
3156250000  -4.126220e+001  -8.677000e+001 
3159375000  -3.899218e+001  -8.979636e+001 
3162500000  -3.774934e+001  -1.057564e+002 
3165625000  -3.905390e+001  -1.202641e+002 
3168750000  -3.918256e+001  -1.223551e+002 
3171875000  -3.862934e+001  -1.298514e+002 
3175000000  -3.922571e+001  -1.401552e+002 
3178125000  -3.876599e+001  -1.423221e+002 
3181250000  -3.814796e+001  -1.510135e+002 
3184375000  -3.791562e+001  -1.642355e+002 
3187500000  -3.934348e+001  -1.794422e+002 
3190625000  -4.099430e+001  1.724726e+002 
3193750000  -4.122096e+001  1.780775e+002 
3196875000  -4.119548e+001  1.761775e+002 
3200000000  -4.017651e+001  1.718016e+002 
3203125000  -3.984710e+001  1.625734e+002 
3206250000  -4.001613e+001  1.541144e+002 
3209375000  -3.954450e+001  1.450488e+002 
3212500000  -4.000532e+001  1.390199e+002 
3215625000  -3.964190e+001  1.350173e+002 
3218750000  -4.029038e+001  1.227250e+002 
3221875000  -4.073232e+001  1.150978e+002 
3225000000  -4.066442e+001  1.120508e+002 
3228125000  -4.118373e+001  1.035355e+002 
3231250000  -4.144356e+001  1.009582e+002 
3234375000  -4.113966e+001  9.623962e+001 
3237500000  -4.100258e+001  9.196827e+001 
3240625000  -4.043859e+001  8.618155e+001 
3243750000  -4.055249e+001  7.271316e+001 
3246875000  -4.063169e+001  6.687268e+001 
3250000000  -4.109139e+001  6.149778e+001 
3253125000  -4.148195e+001  5.622596e+001 
3256250000  -4.057835e+001  4.714552e+001 
3259375000  -4.100832e+001  3.340689e+001 
3262500000  -4.249601e+001  2.836153e+001 
3265625000  -4.271912e+001  3.156151e+001 
3268750000  -4.271341e+001  3.008755e+001 
3271875000  -4.163179e+001  2.294367e+001 
3275000000  -4.112970e+001  1.395487e+001 
3278125000  -4.160247e+001  5.506445e+000 
3281250000  -4.181831e+001  1.972805e+000 
3284375000  -4.118849e+001  -6.117260e+000 
3287500000  -4.180133e+001  -1.376893e+001 
3290625000  -4.187983e+001  -2.401736e+001 
3293750000  -4.182012e+001  -3.166431e+001 
3296875000  -4.282356e+001  -3.550700e+001 
3300000000  -4.188214e+001  -3.724742e+001 
3303125000  -4.099057e+001  -4.660386e+001 
3306250000  -4.112018e+001  -5.854900e+001 
3309375000  -4.047490e+001  -6.886404e+001 
3312500000  -4.114342e+001  -8.453838e+001 
3315625000  -4.254385e+001  -9.169839e+001 
3318750000  -4.387745e+001  -9.861554e+001 
3321875000  -4.497761e+001  -9.749647e+001 
3325000000  -4.519572e+001  -9.586274e+001 
3328125000  -4.434814e+001  -9.508031e+001 
3331250000  -4.272663e+001  -9.690032e+001 
3334375000  -4.044172e+001  -1.143600e+002 
3337500000  -4.099964e+001  -1.388857e+002 
3340625000  -4.296862e+001  -1.495453e+002 
3343750000  -4.460397e+001  -1.503836e+002 
3346875000  -4.419402e+001  -1.543385e+002 
3350000000  -4.413023e+001  -1.597727e+002 
3353125000  -4.368996e+001  -1.686702e+002 
3356250000  -4.345069e+001  -1.773048e+002 
3359375000  -4.430467e+001  1.670625e+002 
3362500000  -4.540589e+001  1.595494e+002 
3365625000  -4.569159e+001  1.530513e+002 
3368750000  -4.643904e+001  1.487602e+002 
3371875000  -4.695163e+001  1.429193e+002 
3375000000  -4.902045e+001  1.368204e+002 
3378125000  -4.912576e+001  1.340191e+002 
3381250000  -5.147223e+001  1.381298e+002 
3384375000  -4.725772e+001  1.506077e+002 
3387500000  -4.503486e+001  1.313122e+002 
3390625000  -4.681464e+001  1.077206e+002 
3393750000  -4.777406e+001  1.046614e+002 
3396875000  -4.628226e+001  1.010511e+002 
3400000000  -4.669715e+001  8.744558e+001 
3403125000  -4.700099e+001  8.040722e+001 
3406250000  -4.753632e+001  7.308992e+001 
3409375000  -4.753533e+001  6.137685e+001 
3412500000  -4.814932e+001  5.486050e+001 
3415625000  -4.904317e+001  5.343483e+001 
3418750000  -4.892021e+001  4.296481e+001 
3421875000  -4.937456e+001  4.473269e+001 
3425000000  -4.736789e+001  3.848730e+001 
3428125000  -4.694278e+001  2.953047e+001 
3431250000  -4.680162e+001  1.581335e+001 
3434375000  -4.717573e+001  4.583448e+000 
3437500000  -4.741282e+001  -1.686720e+000 
3440625000  -4.829097e+001  -7.878942e+000 
3443750000  -4.651663e+001  -1.176287e+001 
3446875000  -4.567145e+001  -2.568227e+001 
3450000000  -4.570901e+001  -4.119674e+001 
3453125000  -4.589344e+001  -5.863402e+001 
3456250000  -4.752281e+001  -6.795049e+001 
3459375000  -4.832308e+001  -6.792363e+001 
3462500000  -4.787628e+001  -7.347769e+001 
3465625000  -4.702216e+001  -8.732130e+001 
3468750000  -4.771433e+001  -9.165690e+001 
3471875000  -4.750437e+001  -1.015795e+002 
3475000000  -4.675842e+001  -1.110765e+002 
3478125000  -4.742704e+001  -1.275824e+002 
3481250000  -4.882971e+001  -1.333352e+002 
3484375000  -4.870064e+001  -1.322781e+002 
3487500000  -4.751258e+001  -1.404586e+002 
3490625000  -4.739573e+001  -1.506090e+002 
3493750000  -4.740234e+001  -1.623344e+002 
3496875000  -4.777590e+001  -1.692988e+002 
3500000000  -4.837816e+001  -1.687909e+002 
3503125000  -4.723514e+001  -1.732165e+002 
3506250000  -4.541134e+001  1.744352e+002 
3509375000  -4.474022e+001  1.550709e+002 
3512500000  -4.604696e+001  1.403364e+002 
3515625000  -4.705128e+001  1.364528e+002 
3518750000  -4.805843e+001  1.327291e+002 
3521875000  -4.768688e+001  1.185757e+002 
3525000000  -4.895235e+001  1.135697e+002 
3528125000  -4.770090e+001  1.203924e+002 
3531250000  -4.661942e+001  1.091657e+002 
3534375000  -4.718505e+001  8.919585e+001 
3537500000  -4.748697e+001  8.278226e+001 
3540625000  -4.885297e+001  7.597937e+001 
3543750000  -4.947385e+001  8.230577e+001 
3546875000  -4.822110e+001  8.444789e+001 
3550000000  -4.665920e+001  7.829145e+001 
3553125000  -4.614118e+001  5.615520e+001 
3556250000  -4.736073e+001  4.977364e+001 
3559375000  -4.668443e+001  4.434382e+001 
3562500000  -4.636067e+001  3.350004e+001 
3565625000  -4.708204e+001  2.593943e+001 
3568750000  -4.808625e+001  2.784694e+001 
3571875000  -4.751533e+001  2.308334e+001 
3575000000  -4.717845e+001  1.243578e+001 
3578125000  -4.733158e+001  1.319627e+001 
3581250000  -4.807635e+001  1.001684e+001 
3584375000  -4.571848e+001  7.749683e-001 
3587500000  -4.612850e+001  -1.141092e+001 
3590625000  -4.630098e+001  -2.178082e+001 
3593750000  -4.775648e+001  -2.089183e+001 
3596875000  -4.660419e+001  -1.645938e+001 
3600000000  -4.483262e+001  -3.351119e+001 
3603125000  -4.487014e+001  -4.682376e+001 
3606250000  -4.589340e+001  -4.926371e+001 
3609375000  -4.610446e+001  -5.295770e+001 
3612500000  -4.594908e+001  -6.125937e+001 
3615625000  -4.632661e+001  -6.295215e+001 
3618750000  -4.617889e+001  -6.672198e+001 
3621875000  -4.548735e+001  -7.627442e+001 
3625000000  -4.564783e+001  -7.819920e+001 
3628125000  -4.500124e+001  -8.442355e+001 
3631250000  -4.524223e+001  -9.499638e+001 
3634375000  -4.566440e+001  -9.506252e+001 
3637500000  -4.468007e+001  -9.573596e+001 
3640625000  -4.368544e+001  -1.046020e+002 
3643750000  -4.313115e+001  -1.165513e+002 
3646875000  -4.352459e+001  -1.258055e+002 
3650000000  -4.382397e+001  -1.318295e+002 
3653125000  -4.317220e+001  -1.389656e+002 
3656250000  -4.426725e+001  -1.464800e+002 
3659375000  -4.377175e+001  -1.480664e+002 
3662500000  -4.346070e+001  -1.572915e+002 
3665625000  -4.349850e+001  -1.622952e+002 
3668750000  -4.195284e+001  -1.638451e+002 
3671875000  -4.133202e+001  -1.793515e+002 
3675000000  -4.217036e+001  1.706975e+002 
3678125000  -4.208178e+001  1.665730e+002 
3681250000  -4.233506e+001  1.589058e+002 
3684375000  -4.272555e+001  1.530963e+002 
3687500000  -4.291695e+001  1.431598e+002 
3690625000  -4.364114e+001  1.372590e+002 
3693750000  -4.433028e+001  1.366486e+002 
3696875000  -4.407891e+001  1.332915e+002 
3700000000  -4.286297e+001  1.241296e+002 
3703125000  -4.401805e+001  1.167735e+002 
3706250000  -4.479653e+001  1.133484e+002 
3709375000  -4.434575e+001  1.149758e+002 
3712500000  -4.311480e+001  1.085338e+002 
3715625000  -4.194184e+001  9.920527e+001 
3718750000  -4.175059e+001  9.075170e+001 
3721875000  -4.198513e+001  8.113539e+001 
3725000000  -4.228645e+001  7.172180e+001 
3728125000  -4.267509e+001  6.978320e+001 
3731250000  -4.220808e+001  6.233680e+001 
3734375000  -4.224209e+001  5.695401e+001 
3737500000  -4.267403e+001  4.770103e+001 
3740625000  -4.323785e+001  3.942097e+001 
3743750000  -4.304544e+001  3.586018e+001 
3746875000  -4.340771e+001  2.891085e+001 
3750000000  -4.380398e+001  2.428960e+001 
3753125000  -4.404736e+001  2.163344e+001 
3756250000  -4.370077e+001  1.843047e+001 
3759375000  -4.366826e+001  1.160076e+001 
3762500000  -4.339645e+001  7.902449e+000 
3765625000  -4.420236e+001  2.514610e+000 
3768750000  -4.341797e+001  2.206444e+000 
3771875000  -4.222208e+001  -2.388122e+000 
3775000000  -4.221203e+001  -1.706165e+001 
3778125000  -4.285577e+001  -2.246506e+001 
3781250000  -4.284002e+001  -2.646759e+001 
3784375000  -4.245424e+001  -3.318612e+001 
3787500000  -4.235796e+001  -3.803633e+001 
3790625000  -4.277394e+001  -4.825319e+001 
3793750000  -4.260274e+001  -4.987537e+001 
3796875000  -4.171671e+001  -5.435506e+001 
3800000000  -4.087307e+001  -6.229346e+001 
3803125000  -4.185117e+001  -7.419679e+001 
3806250000  -4.273038e+001  -7.943112e+001 
3809375000  -4.189246e+001  -8.519763e+001 
3812500000  -4.208412e+001  -9.587698e+001 
3815625000  -4.267366e+001  -1.055481e+002 
3818750000  -4.421247e+001  -1.047247e+002 
3821875000  -4.376967e+001  -9.407892e+001 
3825000000  -4.180207e+001  -1.026044e+002 
3828125000  -4.035430e+001  -1.192345e+002 
3831250000  -4.146434e+001  -1.368609e+002 
3834375000  -4.407430e+001  -1.375365e+002 
3837500000  -4.418550e+001  -1.339641e+002 
3840625000  -4.267758e+001  -1.412953e+002 
3843750000  -4.197179e+001  -1.538932e+002 
3846875000  -4.337681e+001  -1.627075e+002 
3850000000  -4.409182e+001  -1.541534e+002 
3853125000  -4.344065e+001  -1.599934e+002 
3856250000  -4.317847e+001  -1.659545e+002 
3859375000  -4.212285e+001  -1.781846e+002 
3862500000  -4.201439e+001  1.753677e+002 
3865625000  -4.261691e+001  1.661924e+002 
3868750000  -4.228125e+001  1.655660e+002 
3871875000  -4.176567e+001  1.548786e+002 
3875000000  -4.249231e+001  1.471469e+002 
3878125000  -4.322099e+001  1.460434e+002 
3881250000  -4.336377e+001  1.405965e+002 
3884375000  -4.264304e+001  1.314097e+002 
3887500000  -4.349620e+001  1.254927e+002 
3890625000  -4.393291e+001  1.200181e+002 
3893750000  -4.435030e+001  1.165819e+002 
3896875000  -4.435155e+001  1.163463e+002 
3900000000  -4.451712e+001  1.112563e+002 
3903125000  -4.360592e+001  1.047993e+002 
3906250000  -4.344574e+001  1.029013e+002 
3909375000  -4.317506e+001  9.286740e+001 
3912500000  -4.390915e+001  8.488219e+001 
3915625000  -4.541894e+001  8.383634e+001 
3918750000  -4.475257e+001  8.096154e+001 
3921875000  -4.375196e+001  7.879089e+001 
3925000000  -4.345269e+001  6.714031e+001 
3928125000  -4.276981e+001  6.094713e+001 
3931250000  -4.378716e+001  5.409605e+001 
3934375000  -4.399939e+001  5.331585e+001 
3937500000  -4.476136e+001  4.989869e+001 
3940625000  -4.468383e+001  4.726792e+001 
3943750000  -4.380608e+001  4.069239e+001 
3946875000  -4.322546e+001  3.339343e+001 
3950000000  -4.389785e+001  2.546724e+001 
3953125000  -4.492669e+001  2.384302e+001 
3956250000  -4.283899e+001  2.796668e+001 
3959375000  -4.212075e+001  1.714087e+001 
3962500000  -4.173634e+001  6.560102e+000 
3965625000  -4.217996e+001  -4.465446e+000 
3968750000  -4.269125e+001  -1.434393e+001 
3971875000  -4.287067e+001  -1.440006e+001 
3975000000  -4.205451e+001  -2.142434e+001 
3978125000  -4.204694e+001  -2.743945e+001 
3981250000  -4.198240e+001  -3.626790e+001 
3984375000  -4.275100e+001  -4.313710e+001 
3987500000  -4.328623e+001  -4.887069e+001 
3990625000  -4.297678e+001  -5.001971e+001 
3993750000  -4.309650e+001  -5.837696e+001 
3996875000  -4.296747e+001  -6.689459e+001 
4000000000  -4.392415e+001  -6.977393e+001 
4003125000  -4.436321e+001  -6.803889e+001 
4006250000  -4.217877e+001  -7.494977e+001 
4009375000  -4.177543e+001  -9.358957e+001 
4012500000  -4.337655e+001  -9.740894e+001 
4015625000  -4.439528e+001  -9.680229e+001 
4018750000  -4.374437e+001  -1.037569e+002 
4021875000  -4.326509e+001  -1.110768e+002 
4025000000  -4.331565e+001  -1.164325e+002 
4028125000  -4.330017e+001  -1.234779e+002 
4031250000  -4.453500e+001  -1.344307e+002 
4034375000  -4.419566e+001  -1.320188e+002 
4037500000  -4.384048e+001  -1.381991e+002 
4040625000  -4.436008e+001  -1.457404e+002 
4043750000  -4.441160e+001  -1.490387e+002 
4046875000  -4.474483e+001  -1.543727e+002 
4050000000  -4.474366e+001  -1.600018e+002 
4053125000  -4.519070e+001  -1.622473e+002 
4056250000  -4.624717e+001  -1.615627e+002 
4059375000  -4.393318e+001  -1.600821e+002 
4062500000  -4.384978e+001  -1.695598e+002 
4065625000  -4.357772e+001  -1.746154e+002 
4068750000  -4.308708e+001  1.723977e+002 
4071875000  -4.308910e+001  1.656765e+002 
4075000000  -4.422769e+001  1.596335e+002 
4078125000  -4.419105e+001  1.552580e+002 
4081250000  -4.412250e+001  1.500693e+002 
4084375000  -4.357104e+001  1.412157e+002 
4087500000  -4.402154e+001  1.328841e+002 
4090625000  -4.504110e+001  1.327357e+002 
4093750000  -4.465847e+001  1.287080e+002 
4096875000  -4.466227e+001  1.197096e+002 
4100000000  -4.599006e+001  1.166347e+002 
4103125000  -4.631566e+001  1.185825e+002 
4106250000  -4.608788e+001  1.206021e+002 
4109375000  -4.459452e+001  1.130717e+002 
4112500000  -4.446417e+001  1.043781e+002 
4115625000  -4.466085e+001  1.014868e+002 
4118750000  -4.392548e+001  9.233028e+001 
4121875000  -4.389419e+001  8.628831e+001 
4125000000  -4.484968e+001  8.314965e+001 
4128125000  -4.539696e+001  8.405818e+001 
4131250000  -4.397689e+001  8.835833e+001 
4134375000  -4.165185e+001  7.421201e+001 
4137500000  -4.243953e+001  5.496760e+001 
4140625000  -4.466292e+001  4.591068e+001 
4143750000  -4.521991e+001  5.039844e+001 
4146875000  -4.464317e+001  5.690887e+001 
4150000000  -4.323105e+001  4.496630e+001 
4153125000  -4.356586e+001  3.541705e+001 
4156250000  -4.429200e+001  3.170596e+001 
4159375000  -4.439906e+001  3.254165e+001 
4162500000  -4.265448e+001  3.131091e+001 
4165625000  -4.204496e+001  2.138079e+001 
4168750000  -4.156124e+001  1.265188e+001 
4171875000  -4.174881e+001  -2.372036e+000 
4175000000  -4.238857e+001  -1.050270e+001 
4178125000  -4.311035e+001  -1.399467e+001 
4181250000  -4.243172e+001  -1.968879e+001 
4184375000  -4.306229e+001  -2.417490e+001 
4187500000  -4.300805e+001  -3.376116e+001 
4190625000  -4.299644e+001  -4.260850e+001 
4193750000  -4.413414e+001  -4.674007e+001 
4196875000  -4.548270e+001  -4.987812e+001 
4200000000  -4.611606e+001  -4.253218e+001 
4203125000  -4.491140e+001  -3.255371e+001 
4206250000  -4.144501e+001  -4.438797e+001 
4209375000  -4.190844e+001  -6.886321e+001 
4212500000  -4.441889e+001  -7.547439e+001 
4215625000  -4.452256e+001  -6.735904e+001 
4218750000  -4.260873e+001  -6.807636e+001 
4221875000  -4.131022e+001  -8.156006e+001 
4225000000  -4.303514e+001  -8.625378e+001 
4228125000  -4.268235e+001  -9.077932e+001 
4231250000  -4.152520e+001  -9.776981e+001 
4234375000  -4.128077e+001  -1.100773e+002 
4237500000  -4.122186e+001  -1.154384e+002 
4240625000  -4.175324e+001  -1.237076e+002 
4243750000  -4.291645e+001  -1.333055e+002 
4246875000  -4.312094e+001  -1.321008e+002 
4250000000  -4.352097e+001  -1.352258e+002 
4253125000  -4.282813e+001  -1.389218e+002 
4256250000  -4.316582e+001  -1.440986e+002 
4259375000  -4.269035e+001  -1.478957e+002 
4262500000  -4.284472e+001  -1.553380e+002 
4265625000  -4.255747e+001  -1.569557e+002 
4268750000  -4.131712e+001  -1.645573e+002 
4271875000  -4.135081e+001  -1.747473e+002 
4275000000  -4.055144e+001  1.751951e+002 
4278125000  -4.176291e+001  1.629524e+002 
4281250000  -4.299352e+001  1.636317e+002 
4284375000  -4.212906e+001  1.589921e+002 
4287500000  -4.425078e+001  1.561783e+002 
4290625000  -4.440890e+001  1.615537e+002 
4293750000  -4.210233e+001  1.597050e+002 
4296875000  -4.050337e+001  1.426609e+002 
4300000000  -4.210433e+001  1.329998e+002 
4303125000  -4.265751e+001  1.363496e+002 
4306250000  -4.104028e+001  1.373744e+002 
4309375000  -4.022454e+001  1.266085e+002 
4312500000  -4.007725e+001  1.144820e+002 
4315625000  -4.052676e+001  1.044838e+002 
4318750000  -4.111172e+001  9.940103e+001 
4321875000  -4.109688e+001  9.643188e+001 
4325000000  -4.052733e+001  9.355040e+001 
4328125000  -3.994547e+001  8.199831e+001 
4331250000  -4.009992e+001  6.882024e+001 
4334375000  -4.136882e+001  6.311658e+001 
4337500000  -4.254987e+001  6.022663e+001 
4340625000  -4.235206e+001  6.085810e+001 
4343750000  -4.135075e+001  5.775153e+001 
4346875000  -4.126374e+001  4.703248e+001 
4350000000  -4.155716e+001  3.809829e+001 
4353125000  -4.235913e+001  2.894434e+001 
4356250000  -4.422474e+001  3.250304e+001 
4359375000  -4.297445e+001  4.979434e+001 
4362500000  -3.984455e+001  3.545256e+001 
4365625000  -3.955254e+001  1.646000e+001 
4368750000  -4.066265e+001  5.483754e+000 
4371875000  -4.154297e+001  5.493304e+000 
4375000000  -4.127356e+001  1.970513e+000 
4378125000  -4.120348e+001  -7.881461e+000 
4381250000  -4.123271e+001  -1.600243e+001 
4384375000  -4.116384e+001  -2.357195e+001 
4387500000  -4.251709e+001  -3.174568e+001 
4390625000  -4.285545e+001  -3.162040e+001 
4393750000  -4.209819e+001  -3.463125e+001 
4396875000  -4.164791e+001  -4.055951e+001 
4400000000  -4.120300e+001  -4.692697e+001 
4403125000  -4.220207e+001  -5.707840e+001 
4406250000  -4.272400e+001  -6.308879e+001 
4409375000  -4.300188e+001  -6.646531e+001 
4412500000  -4.401611e+001  -7.229319e+001 
4415625000  -4.387716e+001  -6.681960e+001 
4418750000  -4.226352e+001  -6.966318e+001 
