!Agilent Technologies,E8363B,MY43030201,A.06.04.32
!Agilent E8363B: A.06.04.32
!Date: Tuesday, November 11, 2014 21:40:15
!Correction: S21(Response(S21)) 
!S1P File: Measurement: S21:
# Hz S  dB   R 50
3000000000  -4.360664e+001  -1.569247e+002 
3003125000  -4.494962e+001  -1.628578e+002 
3006250000  -4.519965e+001  -1.629992e+002 
3009375000  -4.616590e+001  -1.615569e+002 
3012500000  -4.491362e+001  -1.657612e+002 
3015625000  -4.481688e+001  -1.738485e+002 
3018750000  -4.522252e+001  -1.772189e+002 
3021875000  -4.406570e+001  -1.737379e+002 
3025000000  -4.228360e+001  -1.776985e+002 
3028125000  -4.164364e+001  1.702074e+002 
3031250000  -4.068859e+001  1.576103e+002 
3034375000  -4.081181e+001  1.429565e+002 
3037500000  -4.159202e+001  1.318154e+002 
3040625000  -4.290604e+001  1.238181e+002 
3043750000  -4.315681e+001  1.176730e+002 
3046875000  -4.400882e+001  1.105220e+002 
3050000000  -4.501157e+001  1.054821e+002 
3053125000  -4.485392e+001  1.101016e+002 
3056250000  -4.468999e+001  1.126771e+002 
3059375000  -4.383236e+001  1.103126e+002 
3062500000  -4.243086e+001  1.042243e+002 
3065625000  -4.208372e+001  9.427068e+001 
3068750000  -4.206444e+001  8.703185e+001 
3071875000  -4.185638e+001  8.419684e+001 
3075000000  -4.105787e+001  7.559788e+001 
3078125000  -4.117368e+001  6.869817e+001 
3081250000  -4.130533e+001  6.063138e+001 
3084375000  -4.040278e+001  5.614915e+001 
3087500000  -4.058224e+001  4.774828e+001 
3090625000  -3.985474e+001  3.541465e+001 
3093750000  -4.091565e+001  2.535943e+001 
3096875000  -4.107882e+001  2.119320e+001 
3100000000  -4.107412e+001  1.610246e+001 
3103125000  -4.124612e+001  1.006805e+001 
3106250000  -4.112372e+001  4.745919e+000 
3109375000  -4.103071e+001  5.905676e-001 
3112500000  -4.065197e+001  -5.728535e+000 
3115625000  -4.058325e+001  -1.141051e+001 
3118750000  -4.083277e+001  -1.569813e+001 
3121875000  -4.014129e+001  -2.912701e+001 
3125000000  -4.205379e+001  -3.252327e+001 
3128125000  -4.188888e+001  -2.670056e+001 
3131250000  -3.956507e+001  -3.496825e+001 
3134375000  -3.886890e+001  -5.316917e+001 
3137500000  -3.939147e+001  -6.541177e+001 
3140625000  -4.089082e+001  -6.926959e+001 
3143750000  -4.153374e+001  -7.454478e+001 
3146875000  -4.121662e+001  -7.300392e+001 
3150000000  -4.036193e+001  -7.840047e+001 
3153125000  -4.073089e+001  -8.808777e+001 
3156250000  -4.146640e+001  -8.583230e+001 
3159375000  -3.921879e+001  -8.766936e+001 
3162500000  -3.773718e+001  -1.037054e+002 
3165625000  -3.887320e+001  -1.186476e+002 
3168750000  -3.911352e+001  -1.204779e+002 
3171875000  -3.867389e+001  -1.282994e+002 
3175000000  -3.912821e+001  -1.393353e+002 
3178125000  -3.880765e+001  -1.414765e+002 
3181250000  -3.818937e+001  -1.507061e+002 
3184375000  -3.784798e+001  -1.630045e+002 
3187500000  -3.923699e+001  -1.770879e+002 
3190625000  -4.087043e+001  1.760047e+002 
3193750000  -4.117980e+001  1.795667e+002 
3196875000  -4.103536e+001  1.792880e+002 
3200000000  -3.983790e+001  1.723883e+002 
3203125000  -3.964580e+001  1.650497e+002 
3206250000  -3.985030e+001  1.560556e+002 
3209375000  -3.953154e+001  1.465058e+002 
3212500000  -3.987322e+001  1.392541e+002 
3215625000  -3.974151e+001  1.377932e+002 
3218750000  -4.040399e+001  1.246400e+002 
3221875000  -4.064053e+001  1.182427e+002 
3225000000  -4.052954e+001  1.119996e+002 
3228125000  -4.119445e+001  1.053640e+002 
3231250000  -4.158001e+001  1.003427e+002 
3234375000  -4.105196e+001  9.839330e+001 
3237500000  -4.091597e+001  9.392806e+001 
3240625000  -4.054338e+001  8.751662e+001 
3243750000  -4.013160e+001  7.581500e+001 
3246875000  -4.071547e+001  6.721622e+001 
3250000000  -4.126138e+001  6.259274e+001 
3253125000  -4.128427e+001  5.839303e+001 
3256250000  -4.057726e+001  4.763256e+001 
3259375000  -4.115865e+001  3.382592e+001 
3262500000  -4.252556e+001  3.160434e+001 
3265625000  -4.259493e+001  3.251101e+001 
3268750000  -4.254495e+001  3.210350e+001 
3271875000  -4.184799e+001  2.419814e+001 
3275000000  -4.126429e+001  1.413654e+001 
3278125000  -4.184493e+001  8.019967e+000 
3281250000  -4.167467e+001  4.638286e+000 
3284375000  -4.126210e+001  -4.593635e+000 
3287500000  -4.175900e+001  -1.166415e+001 
3290625000  -4.157842e+001  -2.132433e+001 
3293750000  -4.146831e+001  -2.968077e+001 
3296875000  -4.259885e+001  -3.512229e+001 
3300000000  -4.205103e+001  -3.683862e+001 
3303125000  -4.109790e+001  -4.662778e+001 
3306250000  -4.075676e+001  -5.614055e+001 
3309375000  -4.084229e+001  -6.809482e+001 
3312500000  -4.137563e+001  -8.232764e+001 
3315625000  -4.252514e+001  -9.010788e+001 
3318750000  -4.394601e+001  -9.805968e+001 
3321875000  -4.568091e+001  -9.416693e+001 
3325000000  -4.561962e+001  -8.972546e+001 
3328125000  -4.421162e+001  -9.319255e+001 
3331250000  -4.261986e+001  -9.627239e+001 
3334375000  -4.016017e+001  -1.144202e+002 
3337500000  -4.117203e+001  -1.382500e+002 
3340625000  -4.289149e+001  -1.465820e+002 
3343750000  -4.475002e+001  -1.486637e+002 
3346875000  -4.459042e+001  -1.535019e+002 
3350000000  -4.381532e+001  -1.574499e+002 
3353125000  -4.387484e+001  -1.655658e+002 
3356250000  -4.315857e+001  -1.764885e+002 
3359375000  -4.456747e+001  1.684245e+002 
3362500000  -4.555076e+001  1.604610e+002 
3365625000  -4.614491e+001  1.546674e+002 
3368750000  -4.644181e+001  1.511019e+002 
3371875000  -4.727524e+001  1.427082e+002 
3375000000  -4.904889e+001  1.370609e+002 
3378125000  -4.987268e+001  1.349026e+002 
3381250000  -5.070449e+001  1.471788e+002 
3384375000  -4.761073e+001  1.548623e+002 
3387500000  -4.471074e+001  1.321063e+002 
3390625000  -4.644467e+001  1.089566e+002 
3393750000  -4.736812e+001  1.071853e+002 
3396875000  -4.622844e+001  1.032743e+002 
3400000000  -4.618446e+001  8.865298e+001 
3403125000  -4.687677e+001  8.260306e+001 
3406250000  -4.769712e+001  7.587387e+001 
3409375000  -4.730964e+001  6.327315e+001 
3412500000  -4.777192e+001  5.624464e+001 
3415625000  -4.872257e+001  5.303756e+001 
3418750000  -4.872512e+001  4.993648e+001 
3421875000  -4.876415e+001  4.213863e+001 
3425000000  -4.805314e+001  3.610107e+001 
3428125000  -4.739114e+001  3.094010e+001 
3431250000  -4.730626e+001  1.971535e+001 
3434375000  -4.699590e+001  8.615571e+000 
3437500000  -4.753377e+001  -2.253565e+000 
3440625000  -4.784869e+001  -5.040548e+000 
3443750000  -4.614586e+001  -8.044769e+000 
3446875000  -4.589196e+001  -2.386999e+001 
3450000000  -4.504283e+001  -4.076778e+001 
3453125000  -4.572050e+001  -5.464290e+001 
3456250000  -4.724025e+001  -6.624719e+001 
3459375000  -4.820790e+001  -6.742772e+001 
3462500000  -4.784137e+001  -7.690408e+001 
3465625000  -4.778880e+001  -8.564728e+001 
3468750000  -4.726577e+001  -9.078983e+001 
3471875000  -4.671769e+001  -1.013611e+002 
3475000000  -4.690159e+001  -1.165904e+002 
3478125000  -4.793333e+001  -1.248269e+002 
3481250000  -4.890152e+001  -1.301655e+002 
3484375000  -4.855919e+001  -1.303579e+002 
3487500000  -4.736937e+001  -1.387655e+002 
3490625000  -4.713005e+001  -1.489754e+002 
3493750000  -4.754420e+001  -1.616376e+002 
3496875000  -4.778294e+001  -1.658461e+002 
3500000000  -4.789235e+001  -1.706366e+002 
3503125000  -4.779480e+001  -1.718061e+002 
3506250000  -4.505642e+001  1.734446e+002 
3509375000  -4.543392e+001  1.538822e+002 
3512500000  -4.617514e+001  1.391029e+002 
3515625000  -4.751424e+001  1.359629e+002 
3518750000  -4.779579e+001  1.356426e+002 
3521875000  -4.762045e+001  1.229479e+002 
3525000000  -4.872931e+001  1.161077e+002 
3528125000  -4.764142e+001  1.199834e+002 
3531250000  -4.645325e+001  1.077779e+002 
3534375000  -4.657328e+001  9.466439e+001 
3537500000  -4.762460e+001  8.485681e+001 
3540625000  -4.900596e+001  7.937857e+001 
3543750000  -4.951146e+001  8.321659e+001 
3546875000  -4.848071e+001  8.905055e+001 
3550000000  -4.622561e+001  7.953624e+001 
3553125000  -4.608054e+001  5.963415e+001 
3556250000  -4.675606e+001  5.248117e+001 
3559375000  -4.628672e+001  4.527081e+001 
3562500000  -4.648962e+001  3.695989e+001 
3565625000  -4.727344e+001  2.851065e+001 
3568750000  -4.742484e+001  2.811648e+001 
3571875000  -4.730355e+001  2.624771e+001 
3575000000  -4.683528e+001  1.470809e+001 
3578125000  -4.802803e+001  1.108639e+001 
3581250000  -4.780284e+001  6.030496e+000 
3584375000  -4.569152e+001  2.987139e+000 
3587500000  -4.533422e+001  -9.193144e+000 
3590625000  -4.636025e+001  -2.034222e+001 
3593750000  -4.744949e+001  -1.733242e+001 
3596875000  -4.619592e+001  -1.633248e+001 
3600000000  -4.462029e+001  -2.673563e+001 
3603125000  -4.504655e+001  -4.384070e+001 
3606250000  -4.618017e+001  -4.732076e+001 
3609375000  -4.602050e+001  -5.035443e+001 
3612500000  -4.588326e+001  -5.991964e+001 
3615625000  -4.651151e+001  -6.362235e+001 
3618750000  -4.651305e+001  -6.575963e+001 
3621875000  -4.560289e+001  -7.193237e+001 
3625000000  -4.536975e+001  -7.623811e+001 
3628125000  -4.481609e+001  -8.144489e+001 
3631250000  -4.517405e+001  -9.334456e+001 
3634375000  -4.600743e+001  -9.374405e+001 
3637500000  -4.430641e+001  -9.667980e+001 
3640625000  -4.408736e+001  -1.025251e+002 
3643750000  -4.348592e+001  -1.128681e+002 
3646875000  -4.391665e+001  -1.229483e+002 
3650000000  -4.366695e+001  -1.297131e+002 
3653125000  -4.316456e+001  -1.361409e+002 
3656250000  -4.411630e+001  -1.435059e+002 
3659375000  -4.387187e+001  -1.474151e+002 
3662500000  -4.340302e+001  -1.542739e+002 
3665625000  -4.329174e+001  -1.591569e+002 
3668750000  -4.189224e+001  -1.621626e+002 
3671875000  -4.170375e+001  -1.758669e+002 
3675000000  -4.222636e+001  1.733295e+002 
3678125000  -4.268755e+001  1.664570e+002 
3681250000  -4.245143e+001  1.625824e+002 
3684375000  -4.259628e+001  1.539160e+002 
3687500000  -4.286375e+001  1.456957e+002 
3690625000  -4.339995e+001  1.393998e+002 
3693750000  -4.443291e+001  1.354499e+002 
3696875000  -4.340107e+001  1.354727e+002 
3700000000  -4.299202e+001  1.280481e+002 
3703125000  -4.342961e+001  1.195188e+002 
3706250000  -4.448339e+001  1.170426e+002 
3709375000  -4.386042e+001  1.180910e+002 
3712500000  -4.312782e+001  1.103496e+002 
3715625000  -4.183326e+001  1.006101e+002 
3718750000  -4.183839e+001  9.267537e+001 
3721875000  -4.195129e+001  8.172849e+001 
3725000000  -4.259649e+001  7.512402e+001 
3728125000  -4.263129e+001  7.019726e+001 
3731250000  -4.192462e+001  6.528935e+001 
3734375000  -4.223433e+001  5.672775e+001 
3737500000  -4.277313e+001  4.928849e+001 
3740625000  -4.294439e+001  4.221722e+001 
3743750000  -4.274380e+001  3.768946e+001 
3746875000  -4.358989e+001  2.976829e+001 
3750000000  -4.367793e+001  2.742003e+001 
3753125000  -4.398492e+001  2.326674e+001 
3756250000  -4.386402e+001  2.102703e+001 
3759375000  -4.385836e+001  1.419297e+001 
3762500000  -4.347466e+001  8.179912e+000 
3765625000  -4.416335e+001  4.637805e+000 
3768750000  -4.354851e+001  6.174107e+000 
3771875000  -4.245569e+001  -2.178967e+000 
3775000000  -4.231310e+001  -1.192963e+001 
3778125000  -4.266824e+001  -1.893233e+001 
3781250000  -4.286702e+001  -2.404155e+001 
3784375000  -4.261824e+001  -2.939292e+001 
3787500000  -4.213881e+001  -3.409052e+001 
3790625000  -4.301410e+001  -4.384828e+001 
3793750000  -4.272886e+001  -5.162772e+001 
3796875000  -4.169221e+001  -5.361351e+001 
3800000000  -4.101288e+001  -6.097907e+001 
3803125000  -4.161184e+001  -7.138583e+001 
3806250000  -4.273578e+001  -7.734906e+001 
3809375000  -4.196798e+001  -8.008303e+001 
3812500000  -4.153233e+001  -9.440678e+001 
3815625000  -4.280951e+001  -1.064072e+002 
3818750000  -4.465720e+001  -1.022921e+002 
3821875000  -4.377647e+001  -9.170316e+001 
3825000000  -4.160307e+001  -9.919469e+001 
3828125000  -4.026682e+001  -1.217554e+002 
3831250000  -4.159070e+001  -1.339183e+002 
3834375000  -4.360388e+001  -1.348371e+002 
3837500000  -4.401487e+001  -1.330634e+002 
3840625000  -4.236000e+001  -1.388678e+002 
3843750000  -4.190466e+001  -1.557457e+002 
3846875000  -4.334632e+001  -1.621068e+002 
3850000000  -4.368800e+001  -1.536227e+002 
3853125000  -4.409708e+001  -1.586208e+002 
3856250000  -4.310216e+001  -1.678627e+002 
3859375000  -4.224364e+001  -1.761686e+002 
3862500000  -4.223722e+001  1.760087e+002 
3865625000  -4.270874e+001  1.679825e+002 
3868750000  -4.249211e+001  1.664738e+002 
3871875000  -4.213776e+001  1.570648e+002 
3875000000  -4.272671e+001  1.497975e+002 
3878125000  -4.337584e+001  1.462823e+002 
3881250000  -4.353333e+001  1.450258e+002 
3884375000  -4.270740e+001  1.329986e+002 
3887500000  -4.328938e+001  1.286424e+002 
3890625000  -4.419870e+001  1.238371e+002 
3893750000  -4.455468e+001  1.204749e+002 
3896875000  -4.458378e+001  1.189508e+002 
3900000000  -4.470077e+001  1.111005e+002 
3903125000  -4.357471e+001  1.071635e+002 
3906250000  -4.336858e+001  1.010399e+002 
3909375000  -4.273588e+001  9.628793e+001 
3912500000  -4.359629e+001  8.512540e+001 
3915625000  -4.468696e+001  8.271362e+001 
3918750000  -4.496696e+001  8.303340e+001 
3921875000  -4.408445e+001  7.699995e+001 
3925000000  -4.289131e+001  7.230341e+001 
3928125000  -4.294824e+001  6.203198e+001 
3931250000  -4.389583e+001  5.335742e+001 
3934375000  -4.437214e+001  5.452587e+001 
3937500000  -4.440162e+001  4.960138e+001 
3940625000  -4.488648e+001  4.872594e+001 
3943750000  -4.333484e+001  4.451969e+001 
3946875000  -4.324245e+001  3.639310e+001 
3950000000  -4.398847e+001  2.701808e+001 
3953125000  -4.484267e+001  2.450001e+001 
3956250000  -4.343119e+001  2.552501e+001 
3959375000  -4.250746e+001  1.960851e+001 
3962500000  -4.193783e+001  9.724135e+000 
3965625000  -4.203057e+001  -1.171681e+000 
3968750000  -4.311296e+001  -1.314173e+001 
3971875000  -4.266168e+001  -1.585946e+001 
3975000000  -4.210596e+001  -1.903189e+001 
3978125000  -4.243961e+001  -2.534188e+001 
3981250000  -4.202100e+001  -3.455236e+001 
3984375000  -4.269161e+001  -4.138149e+001 
3987500000  -4.325242e+001  -4.580373e+001 
3990625000  -4.381533e+001  -5.200299e+001 
3993750000  -4.334036e+001  -5.674263e+001 
3996875000  -4.311381e+001  -6.111546e+001 
4000000000  -4.413661e+001  -6.650227e+001 
4003125000  -4.425666e+001  -6.705495e+001 
4006250000  -4.201943e+001  -7.269877e+001 
4009375000  -4.136088e+001  -9.072623e+001 
4012500000  -4.337074e+001  -9.437355e+001 
4015625000  -4.422092e+001  -9.709257e+001 
4018750000  -4.392685e+001  -1.004227e+002 
4021875000  -4.352967e+001  -1.084421e+002 
4025000000  -4.355910e+001  -1.150132e+002 
4028125000  -4.343867e+001  -1.232148e+002 
4031250000  -4.420259e+001  -1.290187e+002 
4034375000  -4.428708e+001  -1.296894e+002 
4037500000  -4.444501e+001  -1.365477e+002 
4040625000  -4.470393e+001  -1.426724e+002 
4043750000  -4.451984e+001  -1.475493e+002 
4046875000  -4.483186e+001  -1.510941e+002 
4050000000  -4.453880e+001  -1.566098e+002 
4053125000  -4.529289e+001  -1.631756e+002 
4056250000  -4.616188e+001  -1.582898e+002 
4059375000  -4.449739e+001  -1.579668e+002 
4062500000  -4.406116e+001  -1.683804e+002 
4065625000  -4.356961e+001  -1.738422e+002 
4068750000  -4.349274e+001  1.751732e+002 
4071875000  -4.316352e+001  1.677179e+002 
4075000000  -4.382178e+001  1.602645e+002 
4078125000  -4.416815e+001  1.590784e+002 
4081250000  -4.374260e+001  1.528524e+002 
4084375000  -4.383617e+001  1.430900e+002 
4087500000  -4.401546e+001  1.357448e+002 
4090625000  -4.513952e+001  1.363732e+002 
4093750000  -4.519542e+001  1.295673e+002 
4096875000  -4.499952e+001  1.238040e+002 
4100000000  -4.552111e+001  1.191576e+002 
4103125000  -4.625760e+001  1.191835e+002 
4106250000  -4.596617e+001  1.203594e+002 
4109375000  -4.447851e+001  1.170674e+002 
4112500000  -4.427876e+001  1.072490e+002 
4115625000  -4.478547e+001  1.023708e+002 
4118750000  -4.455453e+001  9.487096e+001 
4121875000  -4.456871e+001  9.080933e+001 
4125000000  -4.462243e+001  8.223887e+001 
4128125000  -4.529488e+001  8.469591e+001 
4131250000  -4.429389e+001  8.864959e+001 
4134375000  -4.201078e+001  7.659308e+001 
4137500000  -4.238589e+001  5.445087e+001 
4140625000  -4.458441e+001  5.117416e+001 
4143750000  -4.505756e+001  5.342277e+001 
4146875000  -4.401462e+001  5.798878e+001 
4150000000  -4.323685e+001  4.510789e+001 
4153125000  -4.315067e+001  3.347697e+001 
4156250000  -4.448673e+001  3.337624e+001 
4159375000  -4.398278e+001  3.667936e+001 
4162500000  -4.304787e+001  3.201380e+001 
4165625000  -4.215142e+001  2.206278e+001 
4168750000  -4.170966e+001  1.190017e+001 
4171875000  -4.193545e+001  1.017405e+000 
4175000000  -4.191900e+001  -6.924130e+000 
4178125000  -4.266145e+001  -1.208693e+001 
4181250000  -4.256673e+001  -1.692797e+001 
4184375000  -4.290364e+001  -2.219437e+001 
4187500000  -4.279870e+001  -2.766606e+001 
4190625000  -4.289983e+001  -3.867960e+001 
4193750000  -4.428209e+001  -4.512286e+001 
4196875000  -4.534622e+001  -4.788713e+001 
4200000000  -4.647726e+001  -3.994748e+001 
4203125000  -4.469884e+001  -3.326619e+001 
4206250000  -4.159288e+001  -4.129362e+001 
4209375000  -4.198798e+001  -6.484491e+001 
4212500000  -4.409355e+001  -7.255556e+001 
4215625000  -4.495239e+001  -6.632845e+001 
4218750000  -4.332788e+001  -6.556679e+001 
4221875000  -4.141653e+001  -7.342631e+001 
4225000000  -4.293310e+001  -8.965904e+001 
4228125000  -4.276536e+001  -8.739207e+001 
4231250000  -4.176687e+001  -9.768027e+001 
4234375000  -4.098742e+001  -1.068969e+002 
4237500000  -4.136473e+001  -1.132057e+002 
4240625000  -4.168271e+001  -1.216196e+002 
4243750000  -4.260940e+001  -1.323846e+002 
4246875000  -4.358928e+001  -1.324344e+002 
4250000000  -4.327921e+001  -1.286143e+002 
4253125000  -4.304530e+001  -1.345920e+002 
4256250000  -4.319211e+001  -1.421537e+002 
4259375000  -4.285432e+001  -1.455017e+002 
4262500000  -4.304006e+001  -1.522650e+002 
4265625000  -4.240857e+001  -1.529381e+002 
4268750000  -4.153447e+001  -1.648549e+002 
4271875000  -4.096834e+001  -1.734034e+002 
4275000000  -4.100649e+001  -1.785393e+002 
4278125000  -4.180091e+001  1.672907e+002 
4281250000  -4.314262e+001  1.664293e+002 
4284375000  -4.248970e+001  1.610673e+002 
4287500000  -4.453883e+001  1.570448e+002 
4290625000  -4.386536e+001  1.645457e+002 
4293750000  -4.205074e+001  1.610486e+002 
4296875000  -4.099656e+001  1.459179e+002 
4300000000  -4.191860e+001  1.383998e+002 
4303125000  -4.282111e+001  1.390250e+002 
4306250000  -4.111322e+001  1.377555e+002 
4309375000  -4.044313e+001  1.287793e+002 
4312500000  -4.002316e+001  1.180331e+002 
4315625000  -4.045827e+001  1.071078e+002 
4318750000  -4.136063e+001  1.015287e+002 
4321875000  -4.130429e+001  9.906296e+001 
4325000000  -4.065001e+001  9.466902e+001 
4328125000  -3.982473e+001  8.431224e+001 
4331250000  -4.036735e+001  7.235217e+001 
4334375000  -4.099881e+001  6.360958e+001 
4337500000  -4.224603e+001  6.267878e+001 
4340625000  -4.257470e+001  6.471120e+001 
4343750000  -4.134556e+001  6.003049e+001 
4346875000  -4.158621e+001  5.146054e+001 
4350000000  -4.143209e+001  4.016817e+001 
4353125000  -4.213517e+001  3.162713e+001 
4356250000  -4.471824e+001  3.491071e+001 
4359375000  -4.304617e+001  4.689791e+001 
4362500000  -4.026760e+001  3.840992e+001 
4365625000  -3.955314e+001  1.990773e+001 
4368750000  -4.092511e+001  8.268386e+000 
4371875000  -4.193825e+001  8.181900e+000 
4375000000  -4.134277e+001  3.270828e+000 
4378125000  -4.126555e+001  -8.725285e+000 
4381250000  -4.141960e+001  -1.287853e+001 
4384375000  -4.159453e+001  -2.128654e+001 
4387500000  -4.200695e+001  -2.798871e+001 
4390625000  -4.271927e+001  -3.048298e+001 
4393750000  -4.242075e+001  -2.986612e+001 
4396875000  -4.204148e+001  -3.517897e+001 
4400000000  -4.132815e+001  -4.580042e+001 
4403125000  -4.285613e+001  -5.648089e+001 
4406250000  -4.304271e+001  -6.039525e+001 
4409375000  -4.318793e+001  -6.595875e+001 
4412500000  -4.389742e+001  -6.957748e+001 
4415625000  -4.394941e+001  -6.077413e+001 
4418750000  -4.264006e+001  -6.310816e+001 
