!Agilent Technologies,E8363B,MY43030201,A.06.04.32
!Agilent E8363B: A.06.04.32
!Date: Tuesday, November 11, 2014 21:41:24
!Correction: S21(Response(S21)) 
!S1P File: Measurement: S21:
# Hz S  dB   R 50
3000000000  -4.363491e+001  -1.578900e+002 
3003125000  -4.524398e+001  -1.624589e+002 
3006250000  -4.515860e+001  -1.632037e+002 
3009375000  -4.574380e+001  -1.625561e+002 
3012500000  -4.471036e+001  -1.645793e+002 
3015625000  -4.527827e+001  -1.740685e+002 
3018750000  -4.521204e+001  -1.746008e+002 
3021875000  -4.367320e+001  -1.748741e+002 
3025000000  -4.272002e+001  -1.781826e+002 
3028125000  -4.158762e+001  1.679992e+002 
3031250000  -4.111465e+001  1.568106e+002 
3034375000  -4.058743e+001  1.405264e+002 
3037500000  -4.144388e+001  1.304529e+002 
3040625000  -4.285590e+001  1.244820e+002 
3043750000  -4.336631e+001  1.170925e+002 
3046875000  -4.413501e+001  1.104714e+002 
3050000000  -4.514585e+001  1.051549e+002 
3053125000  -4.465977e+001  1.113898e+002 
3056250000  -4.467699e+001  1.127776e+002 
3059375000  -4.398021e+001  1.090997e+002 
3062500000  -4.236765e+001  1.035379e+002 
3065625000  -4.210999e+001  9.290822e+001 
3068750000  -4.165430e+001  8.434110e+001 
3071875000  -4.173433e+001  8.218339e+001 
3075000000  -4.116039e+001  7.516318e+001 
3078125000  -4.112315e+001  6.732619e+001 
3081250000  -4.129683e+001  6.061319e+001 
3084375000  -4.044171e+001  5.492921e+001 
3087500000  -4.054410e+001  4.858578e+001 
3090625000  -4.007584e+001  3.485377e+001 
3093750000  -4.100959e+001  2.571984e+001 
3096875000  -4.103125e+001  2.011466e+001 
3100000000  -4.124948e+001  1.607106e+001 
3103125000  -4.144352e+001  1.197016e+001 
3106250000  -4.096467e+001  5.470840e+000 
3109375000  -4.095155e+001  3.848176e-002 
3112500000  -4.089828e+001  -7.485940e+000 
3115625000  -4.069249e+001  -1.257784e+001 
3118750000  -4.072183e+001  -1.752137e+001 
3121875000  -4.024646e+001  -2.854819e+001 
3125000000  -4.224640e+001  -3.235224e+001 
3128125000  -4.192780e+001  -2.710238e+001 
3131250000  -3.955927e+001  -3.653495e+001 
3134375000  -3.875006e+001  -5.435206e+001 
3137500000  -3.943054e+001  -6.633376e+001 
3140625000  -4.086024e+001  -7.173341e+001 
3143750000  -4.157092e+001  -7.472233e+001 
3146875000  -4.118406e+001  -7.375343e+001 
3150000000  -4.027178e+001  -7.992955e+001 
3153125000  -4.084746e+001  -8.713624e+001 
3156250000  -4.171750e+001  -8.490434e+001 
3159375000  -3.933012e+001  -8.818219e+001 
3162500000  -3.764397e+001  -1.053656e+002 
3165625000  -3.905667e+001  -1.192807e+002 
3168750000  -3.910442e+001  -1.205251e+002 
3171875000  -3.847727e+001  -1.301805e+002 
3175000000  -3.923362e+001  -1.396417e+002 
3178125000  -3.880161e+001  -1.415676e+002 
3181250000  -3.814845e+001  -1.511346e+002 
3184375000  -3.785212e+001  -1.620932e+002 
3187500000  -3.925681e+001  -1.789497e+002 
3190625000  -4.083727e+001  1.755493e+002 
3193750000  -4.144770e+001  1.775978e+002 
3196875000  -4.116173e+001  1.773416e+002 
3200000000  -3.988364e+001  1.725814e+002 
3203125000  -3.977620e+001  1.641100e+002 
3206250000  -3.982871e+001  1.558307e+002 
3209375000  -3.947618e+001  1.460534e+002 
3212500000  -4.019646e+001  1.390480e+002 
3215625000  -3.981688e+001  1.359492e+002 
3218750000  -4.048101e+001  1.230918e+002 
3221875000  -4.085828e+001  1.162619e+002 
3225000000  -4.051988e+001  1.116153e+002 
3228125000  -4.123445e+001  1.037368e+002 
3231250000  -4.137094e+001  1.012962e+002 
3234375000  -4.102842e+001  9.689510e+001 
3237500000  -4.114808e+001  9.429566e+001 
3240625000  -4.051880e+001  8.553998e+001 
3243750000  -4.040353e+001  7.429403e+001 
3246875000  -4.092510e+001  6.688836e+001 
3250000000  -4.132066e+001  6.197525e+001 
3253125000  -4.115719e+001  5.857837e+001 
3256250000  -4.056444e+001  4.703218e+001 
3259375000  -4.094419e+001  3.428745e+001 
3262500000  -4.266412e+001  3.154929e+001 
3265625000  -4.264284e+001  3.175277e+001 
3268750000  -4.259374e+001  3.039088e+001 
3271875000  -4.162887e+001  2.318048e+001 
3275000000  -4.099106e+001  1.383626e+001 
3278125000  -4.191367e+001  6.680037e+000 
3281250000  -4.181293e+001  3.562065e+000 
3284375000  -4.115024e+001  -5.019951e+000 
3287500000  -4.193455e+001  -1.209490e+001 
3290625000  -4.160276e+001  -2.398585e+001 
3293750000  -4.178316e+001  -3.062042e+001 
3296875000  -4.281855e+001  -3.410321e+001 
3300000000  -4.226904e+001  -3.726460e+001 
3303125000  -4.131585e+001  -4.713873e+001 
3306250000  -4.121066e+001  -5.763543e+001 
3309375000  -4.083735e+001  -6.833092e+001 
3312500000  -4.140044e+001  -8.317818e+001 
3315625000  -4.253083e+001  -9.185630e+001 
3318750000  -4.419893e+001  -9.784230e+001 
3321875000  -4.532046e+001  -9.599220e+001 
3325000000  -4.533716e+001  -9.187952e+001 
3328125000  -4.411124e+001  -9.327715e+001 
3331250000  -4.242710e+001  -9.724792e+001 
3334375000  -4.041854e+001  -1.143516e+002 
3337500000  -4.095357e+001  -1.385394e+002 
3340625000  -4.293153e+001  -1.469175e+002 
3343750000  -4.458538e+001  -1.508773e+002 
3346875000  -4.429018e+001  -1.538685e+002 
3350000000  -4.389949e+001  -1.582945e+002 
3353125000  -4.396481e+001  -1.670639e+002 
3356250000  -4.325605e+001  -1.778342e+002 
3359375000  -4.434798e+001  1.671642e+002 
3362500000  -4.514002e+001  1.617589e+002 
3365625000  -4.571463e+001  1.550518e+002 
3368750000  -4.645142e+001  1.486553e+002 
3371875000  -4.734150e+001  1.417093e+002 
3375000000  -4.853408e+001  1.338621e+002 
3378125000  -4.930148e+001  1.326453e+002 
3381250000  -5.051836e+001  1.443214e+002 
3384375000  -4.774663e+001  1.552128e+002 
3387500000  -4.517070e+001  1.273117e+002 
3390625000  -4.688750e+001  1.100771e+002 
3393750000  -4.803926e+001  1.072626e+002 
3396875000  -4.648658e+001  1.021499e+002 
3400000000  -4.655164e+001  8.885439e+001 
3403125000  -4.698800e+001  8.198725e+001 
3406250000  -4.739274e+001  7.206785e+001 
3409375000  -4.708443e+001  6.296202e+001 
3412500000  -4.750586e+001  5.707956e+001 
3415625000  -4.880232e+001  5.092606e+001 
3418750000  -4.868196e+001  4.516227e+001 
3421875000  -4.916680e+001  4.160745e+001 
3425000000  -4.830240e+001  3.959666e+001 
3428125000  -4.726053e+001  3.120335e+001 
3431250000  -4.712226e+001  1.478354e+001 
3434375000  -4.712008e+001  5.900885e+000 
3437500000  -4.789889e+001  -4.382805e+000 
3440625000  -4.785036e+001  -5.549027e+000 
3443750000  -4.672155e+001  -9.245096e+000 
3446875000  -4.561761e+001  -2.408907e+001 
3450000000  -4.538928e+001  -4.161019e+001 
3453125000  -4.554069e+001  -5.947626e+001 
3456250000  -4.740141e+001  -6.654129e+001 
3459375000  -4.799314e+001  -6.621729e+001 
3462500000  -4.772875e+001  -7.286352e+001 
3465625000  -4.713680e+001  -8.618089e+001 
3468750000  -4.772625e+001  -9.026265e+001 
3471875000  -4.708344e+001  -1.003048e+002 
3475000000  -4.731575e+001  -1.117269e+002 
3478125000  -4.759544e+001  -1.273171e+002 
3481250000  -4.854255e+001  -1.306582e+002 
3484375000  -4.847857e+001  -1.285516e+002 
3487500000  -4.763037e+001  -1.385055e+002 
3490625000  -4.710285e+001  -1.504010e+002 
3493750000  -4.766402e+001  -1.657908e+002 
3496875000  -4.811069e+001  -1.677780e+002 
3500000000  -4.846062e+001  -1.709219e+002 
3503125000  -4.729900e+001  -1.680697e+002 
3506250000  -4.521812e+001  1.754121e+002 
3509375000  -4.562749e+001  1.562189e+002 
3512500000  -4.643682e+001  1.407881e+002 
3515625000  -4.739198e+001  1.359772e+002 
3518750000  -4.746025e+001  1.334776e+002 
3521875000  -4.794690e+001  1.187796e+002 
3525000000  -4.828241e+001  1.149407e+002 
3528125000  -4.793111e+001  1.182479e+002 
3531250000  -4.657390e+001  1.095660e+002 
3534375000  -4.667705e+001  9.210544e+001 
3537500000  -4.807705e+001  8.062405e+001 
3540625000  -4.843233e+001  7.971082e+001 
3543750000  -5.010076e+001  8.060527e+001 
3546875000  -4.880496e+001  8.901285e+001 
3550000000  -4.620220e+001  8.011616e+001 
3553125000  -4.604369e+001  5.732531e+001 
3556250000  -4.780201e+001  5.184925e+001 
3559375000  -4.621287e+001  4.580901e+001 
3562500000  -4.659238e+001  3.679488e+001 
3565625000  -4.733882e+001  2.847987e+001 
3568750000  -4.794572e+001  2.738667e+001 
3571875000  -4.738192e+001  2.480221e+001 
3575000000  -4.696755e+001  1.968801e+001 
3578125000  -4.772081e+001  1.223241e+001 
3581250000  -4.777045e+001  6.071026e+000 
3584375000  -4.575520e+001  -5.225914e-001 
3587500000  -4.586647e+001  -1.343650e+001 
3590625000  -4.609143e+001  -1.952189e+001 
3593750000  -4.763166e+001  -2.157362e+001 
3596875000  -4.685939e+001  -1.690578e+001 
3600000000  -4.478997e+001  -2.981659e+001 
3603125000  -4.526939e+001  -4.683350e+001 
3606250000  -4.570078e+001  -4.944554e+001 
3609375000  -4.626812e+001  -5.300019e+001 
3612500000  -4.613874e+001  -5.778858e+001 
3615625000  -4.583824e+001  -6.520230e+001 
3618750000  -4.629870e+001  -6.850369e+001 
3621875000  -4.576824e+001  -7.202654e+001 
3625000000  -4.565748e+001  -7.859011e+001 
3628125000  -4.484888e+001  -8.444328e+001 
3631250000  -4.526667e+001  -9.366003e+001 
3634375000  -4.565887e+001  -9.583289e+001 
3637500000  -4.422593e+001  -9.663885e+001 
3640625000  -4.371404e+001  -1.018494e+002 
3643750000  -4.347016e+001  -1.147449e+002 
3646875000  -4.411962e+001  -1.249270e+002 
3650000000  -4.383031e+001  -1.294967e+002 
3653125000  -4.331305e+001  -1.382204e+002 
3656250000  -4.439017e+001  -1.458682e+002 
3659375000  -4.417742e+001  -1.496432e+002 
3662500000  -4.324271e+001  -1.562043e+002 
3665625000  -4.350010e+001  -1.598755e+002 
3668750000  -4.200884e+001  -1.643511e+002 
3671875000  -4.165875e+001  -1.780462e+002 
3675000000  -4.216430e+001  1.731099e+002 
3678125000  -4.256828e+001  1.671260e+002 
3681250000  -4.229628e+001  1.617327e+002 
3684375000  -4.258553e+001  1.518706e+002 
3687500000  -4.293174e+001  1.449270e+002 
3690625000  -4.369616e+001  1.370790e+002 
3693750000  -4.414220e+001  1.383775e+002 
3696875000  -4.380189e+001  1.351183e+002 
3700000000  -4.287900e+001  1.264607e+002 
3703125000  -4.353811e+001  1.209304e+002 
3706250000  -4.480458e+001  1.168187e+002 
3709375000  -4.386174e+001  1.161008e+002 
3712500000  -4.321135e+001  1.095867e+002 
3715625000  -4.171861e+001  1.009460e+002 
3718750000  -4.171323e+001  9.094253e+001 
3721875000  -4.207790e+001  8.084651e+001 
3725000000  -4.251953e+001  7.452520e+001 
3728125000  -4.266869e+001  7.128151e+001 
3731250000  -4.233683e+001  6.583357e+001 
3734375000  -4.216712e+001  5.749026e+001 
3737500000  -4.261290e+001  4.875107e+001 
3740625000  -4.314711e+001  4.101006e+001 
3743750000  -4.277485e+001  3.551493e+001 
3746875000  -4.313296e+001  2.773773e+001 
3750000000  -4.387891e+001  2.698551e+001 
3753125000  -4.400292e+001  2.381455e+001 
3756250000  -4.407755e+001  1.875265e+001 
3759375000  -4.363610e+001  1.470753e+001 
3762500000  -4.336312e+001  1.041610e+001 
3765625000  -4.411618e+001  1.254772e+000 
3768750000  -4.366092e+001  4.989331e+000 
3771875000  -4.198020e+001  -1.662338e+000 
3775000000  -4.230172e+001  -1.537489e+001 
3778125000  -4.252956e+001  -1.925242e+001 
3781250000  -4.284948e+001  -2.530140e+001 
3784375000  -4.258530e+001  -3.130326e+001 
3787500000  -4.235445e+001  -3.569903e+001 
3790625000  -4.310509e+001  -4.676863e+001 
3793750000  -4.242052e+001  -4.678860e+001 
3796875000  -4.172944e+001  -5.419889e+001 
3800000000  -4.057938e+001  -6.214267e+001 
3803125000  -4.195536e+001  -7.180595e+001 
3806250000  -4.283121e+001  -7.959872e+001 
3809375000  -4.170047e+001  -8.383355e+001 
3812500000  -4.168129e+001  -9.451041e+001 
3815625000  -4.298474e+001  -1.049755e+002 
3818750000  -4.448472e+001  -1.021870e+002 
3821875000  -4.354632e+001  -9.511384e+001 
3825000000  -4.143812e+001  -9.855618e+001 
3828125000  -4.050150e+001  -1.226295e+002 
3831250000  -4.125868e+001  -1.348366e+002 
3834375000  -4.376044e+001  -1.356114e+002 
3837500000  -4.375438e+001  -1.329028e+002 
3840625000  -4.263091e+001  -1.422379e+002 
3843750000  -4.170859e+001  -1.531969e+002 
3846875000  -4.359340e+001  -1.619702e+002 
3850000000  -4.434473e+001  -1.555320e+002 
3853125000  -4.352607e+001  -1.588824e+002 
3856250000  -4.297840e+001  -1.652737e+002 
3859375000  -4.255628e+001  -1.756620e+002 
3862500000  -4.235213e+001  1.760421e+002 
3865625000  -4.286902e+001  1.656333e+002 
3868750000  -4.236656e+001  1.656262e+002 
3871875000  -4.170322e+001  1.567864e+002 
3875000000  -4.224738e+001  1.475541e+002 
3878125000  -4.348858e+001  1.452139e+002 
3881250000  -4.344244e+001  1.425530e+002 
3884375000  -4.281322e+001  1.334312e+002 
3887500000  -4.346479e+001  1.271276e+002 
3890625000  -4.372229e+001  1.242990e+002 
3893750000  -4.432243e+001  1.211557e+002 
3896875000  -4.428539e+001  1.162005e+002 
3900000000  -4.469013e+001  1.072783e+002 
3903125000  -4.419493e+001  1.065916e+002 
3906250000  -4.354902e+001  1.033824e+002 
3909375000  -4.263655e+001  9.503877e+001 
3912500000  -4.403897e+001  8.442436e+001 
3915625000  -4.485228e+001  8.573684e+001 
3918750000  -4.462588e+001  8.229660e+001 
3921875000  -4.391740e+001  7.688874e+001 
3925000000  -4.321735e+001  7.123699e+001 
3928125000  -4.298851e+001  6.123837e+001 
3931250000  -4.401618e+001  5.185787e+001 
3934375000  -4.413807e+001  5.161074e+001 
3937500000  -4.481538e+001  5.015419e+001 
3940625000  -4.447845e+001  4.878341e+001 
3943750000  -4.360614e+001  4.249218e+001 
3946875000  -4.294831e+001  3.258298e+001 
3950000000  -4.420833e+001  2.459195e+001 
3953125000  -4.495620e+001  2.857389e+001 
3956250000  -4.326376e+001  2.557378e+001 
3959375000  -4.208192e+001  2.161086e+001 
3962500000  -4.160308e+001  9.227567e+000 
3965625000  -4.201854e+001  -1.836643e+000 
3968750000  -4.257595e+001  -6.870456e+000 
3971875000  -4.255965e+001  -1.572866e+001 
3975000000  -4.237185e+001  -1.905786e+001 
3978125000  -4.251407e+001  -2.732972e+001 
3981250000  -4.186887e+001  -3.542493e+001 
3984375000  -4.230387e+001  -4.267724e+001 
3987500000  -4.310744e+001  -4.777192e+001 
3990625000  -4.335582e+001  -5.055849e+001 
3993750000  -4.292144e+001  -5.625190e+001 
3996875000  -4.315715e+001  -6.351868e+001 
4000000000  -4.392785e+001  -6.803898e+001 
4003125000  -4.406974e+001  -6.520747e+001 
4006250000  -4.213099e+001  -7.230602e+001 
4009375000  -4.129103e+001  -9.237244e+001 
4012500000  -4.318554e+001  -9.764875e+001 
4015625000  -4.437002e+001  -9.811407e+001 
4018750000  -4.383308e+001  -1.000632e+002 
4021875000  -4.317323e+001  -1.106327e+002 
4025000000  -4.335740e+001  -1.165793e+002 
4028125000  -4.377652e+001  -1.217113e+002 
4031250000  -4.398733e+001  -1.288814e+002 
4034375000  -4.445464e+001  -1.315242e+002 
4037500000  -4.408407e+001  -1.363250e+002 
4040625000  -4.446579e+001  -1.437734e+002 
4043750000  -4.459601e+001  -1.462660e+002 
4046875000  -4.455088e+001  -1.508604e+002 
4050000000  -4.482376e+001  -1.589035e+002 
4053125000  -4.534725e+001  -1.561634e+002 
4056250000  -4.564199e+001  -1.591552e+002 
4059375000  -4.443982e+001  -1.589776e+002 
4062500000  -4.341938e+001  -1.711672e+002 
4065625000  -4.413854e+001  -1.761284e+002 
4068750000  -4.353146e+001  1.766156e+002 
4071875000  -4.306678e+001  1.692140e+002 
4075000000  -4.383989e+001  1.612891e+002 
4078125000  -4.455220e+001  1.561452e+002 
4081250000  -4.399627e+001  1.503642e+002 
4084375000  -4.384717e+001  1.416908e+002 
4087500000  -4.427346e+001  1.346412e+002 
4090625000  -4.526491e+001  1.351334e+002 
4093750000  -4.450948e+001  1.300365e+002 
4096875000  -4.448308e+001  1.221742e+002 
4100000000  -4.569224e+001  1.154251e+002 
4103125000  -4.632474e+001  1.163350e+002 
4106250000  -4.580813e+001  1.198046e+002 
4109375000  -4.504830e+001  1.174747e+002 
4112500000  -4.439339e+001  1.067545e+002 
4115625000  -4.481414e+001  1.016083e+002 
4118750000  -4.414469e+001  9.675579e+001 
4121875000  -4.419502e+001  9.036572e+001 
4125000000  -4.484489e+001  8.006389e+001 
4128125000  -4.545890e+001  8.331022e+001 
4131250000  -4.452293e+001  8.707701e+001 
4134375000  -4.210134e+001  7.567638e+001 
4137500000  -4.231736e+001  5.645974e+001 
4140625000  -4.431864e+001  4.724146e+001 
4143750000  -4.529205e+001  5.287881e+001 
4146875000  -4.400684e+001  5.736594e+001 
4150000000  -4.310100e+001  4.419916e+001 
4153125000  -4.357655e+001  3.371428e+001 
4156250000  -4.401504e+001  3.182467e+001 
4159375000  -4.399290e+001  3.425660e+001 
4162500000  -4.290838e+001  3.514519e+001 
4165625000  -4.209325e+001  2.135331e+001 
4168750000  -4.144436e+001  1.012693e+001 
4171875000  -4.168958e+001  -7.618906e-001 
4175000000  -4.238063e+001  -1.108873e+001 
4178125000  -4.294141e+001  -1.315799e+001 
4181250000  -4.260318e+001  -1.800006e+001 
4184375000  -4.296639e+001  -2.293135e+001 
4187500000  -4.233861e+001  -2.900004e+001 
4190625000  -4.318625e+001  -3.913977e+001 
4193750000  -4.419458e+001  -4.673658e+001 
4196875000  -4.567899e+001  -4.826833e+001 
4200000000  -4.633015e+001  -4.496786e+001 
4203125000  -4.505657e+001  -3.751201e+001 
4206250000  -4.167624e+001  -4.489165e+001 
4209375000  -4.208846e+001  -6.478358e+001 
4212500000  -4.452727e+001  -7.622056e+001 
4215625000  -4.463185e+001  -6.886037e+001 
4218750000  -4.270479e+001  -6.675097e+001 
4221875000  -4.161442e+001  -7.575158e+001 
4225000000  -4.293899e+001  -8.849271e+001 
4228125000  -4.325975e+001  -8.980489e+001 
4231250000  -4.151045e+001  -9.674151e+001 
4234375000  -4.143186e+001  -1.084195e+002 
4237500000  -4.168312e+001  -1.154309e+002 
4240625000  -4.162348e+001  -1.249722e+002 
4243750000  -4.254998e+001  -1.340491e+002 
4246875000  -4.344659e+001  -1.346737e+002 
4250000000  -4.284082e+001  -1.341178e+002 
4253125000  -4.325341e+001  -1.395956e+002 
4256250000  -4.294273e+001  -1.430402e+002 
4259375000  -4.272401e+001  -1.472075e+002 
4262500000  -4.297811e+001  -1.549035e+002 
4265625000  -4.247622e+001  -1.544470e+002 
4268750000  -4.128971e+001  -1.612251e+002 
4271875000  -4.110847e+001  -1.731969e+002 
4275000000  -4.092928e+001  1.796118e+002 
4278125000  -4.206036e+001  1.655213e+002 
4281250000  -4.295536e+001  1.619083e+002 
4284375000  -4.288650e+001  1.594191e+002 
4287500000  -4.395524e+001  1.571104e+002 
4290625000  -4.459978e+001  1.617405e+002 
4293750000  -4.201352e+001  1.638479e+002 
4296875000  -4.120411e+001  1.480997e+002 
4300000000  -4.178126e+001  1.362773e+002 
4303125000  -4.282664e+001  1.340904e+002 
4306250000  -4.139829e+001  1.360049e+002 
4309375000  -4.034496e+001  1.263852e+002 
4312500000  -3.992132e+001  1.168741e+002 
4315625000  -4.041653e+001  1.044602e+002 
4318750000  -4.121745e+001  1.005831e+002 
4321875000  -4.158544e+001  9.759669e+001 
4325000000  -4.055294e+001  9.449996e+001 
4328125000  -4.000616e+001  8.369285e+001 
4331250000  -4.008659e+001  7.001747e+001 
4334375000  -4.121428e+001  6.176910e+001 
4337500000  -4.259668e+001  5.891161e+001 
4340625000  -4.251477e+001  6.210103e+001 
4343750000  -4.195123e+001  5.850051e+001 
4346875000  -4.119788e+001  4.843213e+001 
4350000000  -4.164813e+001  3.762701e+001 
4353125000  -4.254953e+001  2.971276e+001 
4356250000  -4.483414e+001  3.244807e+001 
4359375000  -4.322835e+001  4.745208e+001 
4362500000  -4.012436e+001  3.502039e+001 
4365625000  -3.982904e+001  1.854764e+001 
4368750000  -4.083868e+001  1.084755e+001 
4371875000  -4.160516e+001  3.363101e+000 
4375000000  -4.086423e+001  -2.256038e-001 
4378125000  -4.131411e+001  -2.709451e+000 
4381250000  -4.133874e+001  -1.552199e+001 
4384375000  -4.139808e+001  -2.179212e+001 
4387500000  -4.180808e+001  -3.139528e+001 
4390625000  -4.259682e+001  -3.245611e+001 
4393750000  -4.224608e+001  -3.258527e+001 
4396875000  -4.179636e+001  -3.768233e+001 
4400000000  -4.117462e+001  -4.948662e+001 
4403125000  -4.209593e+001  -5.872410e+001 
4406250000  -4.264003e+001  -6.129753e+001 
4409375000  -4.306777e+001  -6.738451e+001 
4412500000  -4.413209e+001  -6.942937e+001 
4415625000  -4.355901e+001  -6.693990e+001 
4418750000  -4.252998e+001  -6.515981e+001 
