!Agilent Technologies,E8363B,MY43030201,A.06.04.32
!Agilent E8363B: A.06.04.32
!Date: Tuesday, November 11, 2014 21:43:33
!Correction: S21(Response(S21)) 
!S1P File: Measurement: S21:
# Hz S  dB   R 50
3000000000  -4.353649e+001  -1.589992e+002 
3003125000  -4.530118e+001  -1.639979e+002 
3006250000  -4.534846e+001  -1.648020e+002 
3009375000  -4.571093e+001  -1.613373e+002 
3012500000  -4.531149e+001  -1.688485e+002 
3015625000  -4.503347e+001  -1.780533e+002 
3018750000  -4.517461e+001  -1.775262e+002 
3021875000  -4.403904e+001  -1.767752e+002 
3025000000  -4.259793e+001  1.791225e+002 
3028125000  -4.181099e+001  1.676885e+002 
3031250000  -4.102047e+001  1.531592e+002 
3034375000  -4.060124e+001  1.406054e+002 
3037500000  -4.159466e+001  1.298618e+002 
3040625000  -4.299746e+001  1.242851e+002 
3043750000  -4.310262e+001  1.156968e+002 
3046875000  -4.396466e+001  1.095489e+002 
3050000000  -4.514238e+001  1.045114e+002 
3053125000  -4.473891e+001  1.081190e+002 
3056250000  -4.467505e+001  1.104033e+002 
3059375000  -4.380788e+001  1.064364e+002 
3062500000  -4.235894e+001  1.023071e+002 
3065625000  -4.204112e+001  8.863228e+001 
3068750000  -4.192671e+001  8.331934e+001 
3071875000  -4.154070e+001  8.137209e+001 
3075000000  -4.147041e+001  7.329851e+001 
3078125000  -4.136436e+001  6.596339e+001 
3081250000  -4.135652e+001  5.799503e+001 
3084375000  -4.036373e+001  5.335448e+001 
3087500000  -4.037536e+001  4.488246e+001 
3090625000  -3.993894e+001  3.225914e+001 
3093750000  -4.107510e+001  2.336048e+001 
3096875000  -4.122225e+001  1.835036e+001 
3100000000  -4.110582e+001  1.373847e+001 
3103125000  -4.137820e+001  9.190051e+000 
3106250000  -4.108812e+001  3.224648e+000 
3109375000  -4.090515e+001  -2.036281e+000 
3112500000  -4.090030e+001  -8.768016e+000 
3115625000  -4.079869e+001  -1.395643e+001 
3118750000  -4.075767e+001  -1.913012e+001 
3121875000  -4.007524e+001  -3.095725e+001 
3125000000  -4.217890e+001  -3.460559e+001 
3128125000  -4.220093e+001  -2.864629e+001 
3131250000  -3.947206e+001  -3.845771e+001 
3134375000  -3.876668e+001  -5.474023e+001 
3137500000  -3.944645e+001  -6.862740e+001 
3140625000  -4.093918e+001  -7.294543e+001 
3143750000  -4.154634e+001  -7.685229e+001 
3146875000  -4.103561e+001  -7.513858e+001 
3150000000  -4.041844e+001  -8.121201e+001 
3153125000  -4.079340e+001  -8.994797e+001 
3156250000  -4.151154e+001  -8.719772e+001 
3159375000  -3.911564e+001  -9.104396e+001 
3162500000  -3.778793e+001  -1.073781e+002 
3165625000  -3.916799e+001  -1.203743e+002 
3168750000  -3.926541e+001  -1.227941e+002 
3171875000  -3.865705e+001  -1.315938e+002 
3175000000  -3.918112e+001  -1.414600e+002 
3178125000  -3.876046e+001  -1.433909e+002 
3181250000  -3.806450e+001  -1.534599e+002 
3184375000  -3.793845e+001  -1.641746e+002 
3187500000  -3.935344e+001  1.796276e+002 
3190625000  -4.085573e+001  1.711524e+002 
3193750000  -4.127572e+001  1.765945e+002 
3196875000  -4.109283e+001  1.771542e+002 
3200000000  -3.998235e+001  1.694632e+002 
3203125000  -3.968384e+001  1.622494e+002 
3206250000  -3.989175e+001  1.533717e+002 
3209375000  -3.951245e+001  1.440506e+002 
3212500000  -3.998875e+001  1.364071e+002 
3215625000  -3.980521e+001  1.341398e+002 
3218750000  -4.039161e+001  1.217251e+002 
3221875000  -4.069115e+001  1.142913e+002 
3225000000  -4.047897e+001  1.098122e+002 
3228125000  -4.123296e+001  1.022933e+002 
3231250000  -4.137901e+001  9.827062e+001 
3234375000  -4.104485e+001  9.596867e+001 
3237500000  -4.096149e+001  9.072388e+001 
3240625000  -4.032169e+001  8.377596e+001 
3243750000  -4.053254e+001  7.311858e+001 
3246875000  -4.076861e+001  6.453438e+001 
3250000000  -4.110791e+001  6.044854e+001 
3253125000  -4.124261e+001  5.659364e+001 
3256250000  -4.076635e+001  4.428196e+001 
3259375000  -4.084718e+001  3.223944e+001 
3262500000  -4.235654e+001  2.861931e+001 
3265625000  -4.281152e+001  2.901023e+001 
3268750000  -4.262101e+001  2.823702e+001 
3271875000  -4.168966e+001  2.207974e+001 
3275000000  -4.130003e+001  1.117550e+001 
3278125000  -4.186578e+001  4.249190e+000 
3281250000  -4.193538e+001  6.855780e-001 
3284375000  -4.107899e+001  -6.790149e+000 
3287500000  -4.172231e+001  -1.398012e+001 
3290625000  -4.159830e+001  -2.612227e+001 
3293750000  -4.165058e+001  -3.364375e+001 
3296875000  -4.297243e+001  -3.589031e+001 
3300000000  -4.230386e+001  -3.860780e+001 
3303125000  -4.132224e+001  -4.998141e+001 
3306250000  -4.105106e+001  -5.910089e+001 
3309375000  -4.063191e+001  -7.009307e+001 
3312500000  -4.112758e+001  -8.450526e+001 
3315625000  -4.248102e+001  -9.234453e+001 
3318750000  -4.414055e+001  -1.010354e+002 
3321875000  -4.566003e+001  -9.801182e+001 
3325000000  -4.494483e+001  -9.471975e+001 
3328125000  -4.389435e+001  -9.652834e+001 
3331250000  -4.264433e+001  -9.604161e+001 
3334375000  -4.014502e+001  -1.172585e+002 
3337500000  -4.107312e+001  -1.391088e+002 
3340625000  -4.292605e+001  -1.506801e+002 
3343750000  -4.458032e+001  -1.522223e+002 
3346875000  -4.410699e+001  -1.554624e+002 
3350000000  -4.364227e+001  -1.595110e+002 
3353125000  -4.364733e+001  -1.691104e+002 
3356250000  -4.343476e+001  -1.787868e+002 
3359375000  -4.436314e+001  1.643279e+002 
3362500000  -4.492737e+001  1.592118e+002 
3365625000  -4.584337e+001  1.512404e+002 
3368750000  -4.674130e+001  1.460888e+002 
3371875000  -4.703006e+001  1.406877e+002 
3375000000  -4.873063e+001  1.338953e+002 
3378125000  -5.030827e+001  1.333767e+002 
3381250000  -5.123141e+001  1.432283e+002 
3384375000  -4.747628e+001  1.511415e+002 
3387500000  -4.498652e+001  1.299398e+002 
3390625000  -4.722670e+001  1.063340e+002 
3393750000  -4.817580e+001  1.022721e+002 
3396875000  -4.637598e+001  1.014818e+002 
3400000000  -4.647950e+001  8.728135e+001 
3403125000  -4.710635e+001  7.788229e+001 
3406250000  -4.775723e+001  7.163464e+001 
3409375000  -4.750479e+001  6.139779e+001 
3412500000  -4.823670e+001  5.366091e+001 
3415625000  -4.839591e+001  5.173043e+001 
3418750000  -4.884216e+001  4.639869e+001 
3421875000  -4.953452e+001  4.176091e+001 
3425000000  -4.753382e+001  3.685551e+001 
3428125000  -4.704999e+001  2.991687e+001 
3431250000  -4.677942e+001  1.495943e+001 
3434375000  -4.642646e+001  2.937149e+000 
3437500000  -4.761252e+001  -5.936583e+000 
3440625000  -4.796033e+001  -5.680274e+000 
3443750000  -4.646934e+001  -1.027846e+001 
3446875000  -4.572775e+001  -2.747168e+001 
3450000000  -4.530168e+001  -4.319292e+001 
3453125000  -4.559786e+001  -6.128608e+001 
3456250000  -4.714014e+001  -6.701853e+001 
3459375000  -4.834259e+001  -7.185982e+001 
3462500000  -4.773651e+001  -7.188957e+001 
3465625000  -4.748287e+001  -8.587644e+001 
3468750000  -4.780663e+001  -9.731435e+001 
3471875000  -4.712875e+001  -1.016454e+002 
3475000000  -4.712999e+001  -1.160068e+002 
3478125000  -4.791365e+001  -1.298650e+002 
3481250000  -4.893814e+001  -1.343808e+002 
3484375000  -4.779942e+001  -1.317136e+002 
3487500000  -4.708540e+001  -1.408998e+002 
3490625000  -4.711885e+001  -1.502326e+002 
3493750000  -4.793290e+001  -1.652982e+002 
3496875000  -4.853405e+001  -1.678721e+002 
3500000000  -4.834431e+001  -1.707359e+002 
3503125000  -4.686034e+001  -1.738492e+002 
3506250000  -4.527252e+001  1.720340e+002 
3509375000  -4.607003e+001  1.531072e+002 
3512500000  -4.598328e+001  1.375441e+002 
3515625000  -4.719285e+001  1.321450e+002 
3518750000  -4.776236e+001  1.284334e+002 
3521875000  -4.803093e+001  1.189011e+002 
3525000000  -4.827185e+001  1.155039e+002 
3528125000  -4.742452e+001  1.210556e+002 
3531250000  -4.651397e+001  1.073394e+002 
3534375000  -4.694149e+001  9.120673e+001 
3537500000  -4.760501e+001  8.292351e+001 
3540625000  -4.892370e+001  7.322631e+001 
3543750000  -5.007205e+001  7.849992e+001 
3546875000  -4.825018e+001  8.552574e+001 
3550000000  -4.647784e+001  7.845869e+001 
3553125000  -4.589527e+001  5.694875e+001 
3556250000  -4.691299e+001  4.943922e+001 
3559375000  -4.624946e+001  4.299596e+001 
3562500000  -4.662157e+001  3.515945e+001 
3565625000  -4.737115e+001  2.622499e+001 
3568750000  -4.771999e+001  2.846531e+001 
3571875000  -4.763604e+001  2.079597e+001 
3575000000  -4.672230e+001  1.269015e+001 
3578125000  -4.737012e+001  7.556849e+000 
3581250000  -4.734243e+001  6.675583e+000 
3584375000  -4.615672e+001  -9.980830e-002 
3587500000  -4.592879e+001  -1.378559e+001 
3590625000  -4.665286e+001  -2.608724e+001 
3593750000  -4.775306e+001  -2.248515e+001 
3596875000  -4.624290e+001  -1.940447e+001 
3600000000  -4.467214e+001  -3.083009e+001 
3603125000  -4.502143e+001  -4.700830e+001 
3606250000  -4.601305e+001  -4.985458e+001 
3609375000  -4.597395e+001  -5.305147e+001 
3612500000  -4.562722e+001  -6.382966e+001 
3615625000  -4.638917e+001  -6.515496e+001 
3618750000  -4.633503e+001  -6.846147e+001 
3621875000  -4.556083e+001  -7.589268e+001 
3625000000  -4.557240e+001  -7.801694e+001 
3628125000  -4.491738e+001  -8.492389e+001 
3631250000  -4.498164e+001  -9.649656e+001 
3634375000  -4.529800e+001  -9.686544e+001 
3637500000  -4.452356e+001  -9.849732e+001 
3640625000  -4.347513e+001  -1.041971e+002 
3643750000  -4.327625e+001  -1.159584e+002 
3646875000  -4.356048e+001  -1.292149e+002 
3650000000  -4.384034e+001  -1.316966e+002 
3653125000  -4.322180e+001  -1.399837e+002 
3656250000  -4.428739e+001  -1.479206e+002 
3659375000  -4.403191e+001  -1.503834e+002 
3662500000  -4.354716e+001  -1.572556e+002 
3665625000  -4.375308e+001  -1.601586e+002 
3668750000  -4.199846e+001  -1.655244e+002 
3671875000  -4.158910e+001  1.795768e+002 
3675000000  -4.211287e+001  1.713546e+002 
3678125000  -4.251140e+001  1.648060e+002 
3681250000  -4.237853e+001  1.580715e+002 
3684375000  -4.249937e+001  1.505701e+002 
3687500000  -4.286246e+001  1.432257e+002 
3690625000  -4.345558e+001  1.363271e+002 
3693750000  -4.445575e+001  1.358369e+002 
3696875000  -4.384187e+001  1.335405e+002 
3700000000  -4.322019e+001  1.236537e+002 
3703125000  -4.397331e+001  1.160993e+002 
3706250000  -4.470744e+001  1.151775e+002 
3709375000  -4.395057e+001  1.161007e+002 
3712500000  -4.292564e+001  1.088177e+002 
3715625000  -4.166800e+001  9.727132e+001 
3718750000  -4.148934e+001  8.892731e+001 
3721875000  -4.191825e+001  7.923075e+001 
3725000000  -4.274998e+001  7.277767e+001 
3728125000  -4.252829e+001  6.770366e+001 
3731250000  -4.166076e+001  6.167900e+001 
3734375000  -4.213392e+001  5.391053e+001 
3737500000  -4.267936e+001  4.524017e+001 
3740625000  -4.321015e+001  3.897628e+001 
3743750000  -4.308134e+001  3.226994e+001 
3746875000  -4.370488e+001  2.651665e+001 
3750000000  -4.352432e+001  2.482079e+001 
3753125000  -4.390276e+001  2.083191e+001 
3756250000  -4.364846e+001  1.532593e+001 
3759375000  -4.347825e+001  1.085606e+001 
3762500000  -4.363213e+001  6.865420e+000 
3765625000  -4.393877e+001  1.945669e+000 
3768750000  -4.333811e+001  3.427694e+000 
3771875000  -4.254140e+001  -6.626561e+000 
3775000000  -4.225299e+001  -1.616973e+001 
3778125000  -4.294930e+001  -2.158203e+001 
3781250000  -4.261463e+001  -2.626589e+001 
3784375000  -4.238910e+001  -3.376492e+001 
3787500000  -4.261726e+001  -3.813760e+001 
3790625000  -4.290467e+001  -4.810514e+001 
3793750000  -4.273775e+001  -5.129627e+001 
3796875000  -4.164977e+001  -5.626967e+001 
3800000000  -4.080602e+001  -6.350513e+001 
3803125000  -4.202182e+001  -7.541687e+001 
3806250000  -4.253735e+001  -8.024723e+001 
3809375000  -4.184731e+001  -8.631227e+001 
3812500000  -4.178713e+001  -9.823137e+001 
3815625000  -4.305392e+001  -1.080462e+002 
3818750000  -4.450384e+001  -1.058772e+002 
3821875000  -4.364617e+001  -9.635399e+001 
3825000000  -4.141172e+001  -1.027949e+002 
3828125000  -4.034520e+001  -1.228520e+002 
3831250000  -4.179933e+001  -1.383447e+002 
3834375000  -4.352506e+001  -1.417992e+002 
3837500000  -4.424806e+001  -1.347006e+002 
3840625000  -4.222446e+001  -1.418021e+002 
3843750000  -4.168258e+001  -1.569757e+002 
3846875000  -4.335217e+001  -1.641266e+002 
3850000000  -4.414042e+001  -1.569304e+002 
3853125000  -4.369820e+001  -1.602069e+002 
3856250000  -4.258559e+001  -1.703525e+002 
3859375000  -4.216040e+001  -1.786622e+002 
3862500000  -4.177412e+001  1.725829e+002 
3865625000  -4.292195e+001  1.661461e+002 
3868750000  -4.207108e+001  1.647816e+002 
3871875000  -4.158503e+001  1.558393e+002 
3875000000  -4.240947e+001  1.447786e+002 
3878125000  -4.338610e+001  1.416748e+002 
3881250000  -4.307540e+001  1.384042e+002 
3884375000  -4.258892e+001  1.298825e+002 
3887500000  -4.301600e+001  1.246935e+002 
3890625000  -4.372518e+001  1.190120e+002 
3893750000  -4.456137e+001  1.164818e+002 
3896875000  -4.416678e+001  1.143994e+002 
3900000000  -4.418505e+001  1.077798e+002 
3903125000  -4.370214e+001  1.038064e+002 
3906250000  -4.343758e+001  1.014969e+002 
3909375000  -4.265100e+001  9.186099e+001 
3912500000  -4.379475e+001  8.309010e+001 
3915625000  -4.448751e+001  8.262755e+001 
3918750000  -4.469742e+001  8.079202e+001 
3921875000  -4.417867e+001  7.620623e+001 
3925000000  -4.319703e+001  6.728239e+001 
3928125000  -4.300652e+001  5.848087e+001 
3931250000  -4.359144e+001  5.234860e+001 
3934375000  -4.397524e+001  4.766478e+001 
3937500000  -4.500653e+001  4.829693e+001 
3940625000  -4.452532e+001  4.885328e+001 
3943750000  -4.331644e+001  4.145854e+001 
3946875000  -4.308755e+001  3.159416e+001 
3950000000  -4.361286e+001  2.041462e+001 
3953125000  -4.431554e+001  2.377260e+001 
3956250000  -4.313460e+001  2.264825e+001 
3959375000  -4.185353e+001  1.877476e+001 
3962500000  -4.170694e+001  6.504976e+000 
3965625000  -4.207526e+001  -5.265467e+000 
3968750000  -4.251227e+001  -1.147055e+001 
3971875000  -4.242874e+001  -1.764073e+001 
3975000000  -4.195716e+001  -2.380801e+001 
3978125000  -4.219920e+001  -3.021600e+001 
3981250000  -4.192001e+001  -3.755828e+001 
3984375000  -4.249157e+001  -4.384381e+001 
3987500000  -4.316817e+001  -4.844384e+001 
3990625000  -4.315688e+001  -5.430434e+001 
3993750000  -4.310894e+001  -5.851773e+001 
3996875000  -4.294554e+001  -6.842167e+001 
4000000000  -4.408435e+001  -6.998613e+001 
4003125000  -4.400401e+001  -6.997019e+001 
4006250000  -4.261335e+001  -7.429264e+001 
4009375000  -4.133817e+001  -9.072448e+001 
4012500000  -4.308826e+001  -9.891718e+001 
4015625000  -4.394942e+001  -1.027940e+002 
4018750000  -4.395480e+001  -1.044049e+002 
4021875000  -4.331997e+001  -1.120601e+002 
4025000000  -4.313441e+001  -1.183546e+002 
4028125000  -4.338715e+001  -1.280798e+002 
4031250000  -4.412094e+001  -1.316646e+002 
4034375000  -4.404749e+001  -1.360983e+002 
4037500000  -4.442754e+001  -1.379157e+002 
4040625000  -4.432037e+001  -1.431923e+002 
4043750000  -4.460545e+001  -1.493589e+002 
4046875000  -4.420193e+001  -1.537642e+002 
4050000000  -4.459849e+001  -1.617039e+002 
4053125000  -4.524324e+001  -1.682133e+002 
4056250000  -4.559570e+001  -1.591854e+002 
4059375000  -4.431388e+001  -1.658122e+002 
4062500000  -4.382233e+001  -1.729755e+002 
4065625000  -4.398284e+001  -1.787707e+002 
4068750000  -4.345992e+001  1.730546e+002 
4071875000  -4.282338e+001  1.630006e+002 
4075000000  -4.391073e+001  1.545491e+002 
4078125000  -4.457507e+001  1.563571e+002 
4081250000  -4.359152e+001  1.484294e+002 
4084375000  -4.353651e+001  1.403887e+002 
4087500000  -4.430186e+001  1.326744e+002 
4090625000  -4.487691e+001  1.320577e+002 
4093750000  -4.447980e+001  1.294214e+002 
4096875000  -4.434343e+001  1.227486e+002 
4100000000  -4.580119e+001  1.140244e+002 
4103125000  -4.615108e+001  1.116523e+002 
4106250000  -4.596835e+001  1.174553e+002 
4109375000  -4.429213e+001  1.122611e+002 
4112500000  -4.423040e+001  1.040498e+002 
4115625000  -4.419234e+001  9.600894e+001 
4118750000  -4.400684e+001  9.602342e+001 
4121875000  -4.372659e+001  8.725919e+001 
4125000000  -4.480405e+001  7.763992e+001 
4128125000  -4.583210e+001  8.066639e+001 
4131250000  -4.458361e+001  8.411269e+001 
4134375000  -4.181221e+001  7.375654e+001 
4137500000  -4.263001e+001  5.238865e+001 
4140625000  -4.429055e+001  4.338953e+001 
4143750000  -4.483405e+001  5.218846e+001 
4146875000  -4.417342e+001  5.352726e+001 
4150000000  -4.315390e+001  4.535783e+001 
4153125000  -4.369448e+001  3.352607e+001 
4156250000  -4.423595e+001  2.907435e+001 
4159375000  -4.415490e+001  3.076595e+001 
4162500000  -4.254050e+001  2.776366e+001 
4165625000  -4.217047e+001  1.941668e+001 
4168750000  -4.166690e+001  7.634200e+000 
4171875000  -4.171383e+001  -3.842144e+000 
4175000000  -4.215442e+001  -1.085258e+001 
4178125000  -4.267601e+001  -1.556204e+001 
4181250000  -4.217186e+001  -1.990811e+001 
4184375000  -4.308591e+001  -2.627562e+001 
4187500000  -4.285091e+001  -3.420552e+001 
4190625000  -4.323787e+001  -4.436595e+001 
4193750000  -4.398000e+001  -4.767627e+001 
4196875000  -4.490159e+001  -5.109750e+001 
4200000000  -4.660181e+001  -4.178281e+001 
4203125000  -4.465562e+001  -3.694697e+001 
4206250000  -4.164162e+001  -4.458559e+001 
4209375000  -4.163122e+001  -7.017561e+001 
4212500000  -4.420669e+001  -7.606888e+001 
4215625000  -4.496178e+001  -6.726006e+001 
4218750000  -4.300317e+001  -6.880190e+001 
4221875000  -4.147350e+001  -8.283033e+001 
4225000000  -4.278674e+001  -9.177553e+001 
4228125000  -4.280935e+001  -9.302221e+001 
4231250000  -4.112265e+001  -9.951172e+001 
4234375000  -4.117002e+001  -1.111356e+002 
4237500000  -4.103128e+001  -1.146885e+002 
4240625000  -4.153592e+001  -1.270434e+002 
4243750000  -4.282601e+001  -1.359554e+002 
4246875000  -4.349957e+001  -1.361782e+002 
4250000000  -4.285689e+001  -1.359484e+002 
4253125000  -4.327608e+001  -1.364912e+002 
4256250000  -4.255669e+001  -1.466817e+002 
4259375000  -4.240061e+001  -1.493190e+002 
4262500000  -4.310817e+001  -1.544040e+002 
4265625000  -4.289687e+001  -1.582518e+002 
4268750000  -4.145179e+001  -1.649889e+002 
4271875000  -4.126074e+001  -1.722115e+002 
4275000000  -4.062627e+001  1.756509e+002 
4278125000  -4.176751e+001  1.625058e+002 
4281250000  -4.273635e+001  1.609691e+002 
4284375000  -4.252611e+001  1.545059e+002 
4287500000  -4.392703e+001  1.539296e+002 
4290625000  -4.421948e+001  1.576357e+002 
4293750000  -4.195365e+001  1.604722e+002 
4296875000  -4.084377e+001  1.445114e+002 
4300000000  -4.188660e+001  1.312631e+002 
4303125000  -4.228116e+001  1.325509e+002 
4306250000  -4.117025e+001  1.342629e+002 
4309375000  -4.014619e+001  1.235226e+002 
4312500000  -4.028264e+001  1.124170e+002 
4315625000  -4.047874e+001  1.008338e+002 
4318750000  -4.122039e+001  9.736931e+001 
4321875000  -4.133842e+001  9.385349e+001 
4325000000  -4.055721e+001  9.143909e+001 
4328125000  -3.990243e+001  7.832236e+001 
4331250000  -4.014822e+001  6.746681e+001 
4334375000  -4.127872e+001  5.899053e+001 
4337500000  -4.245902e+001  5.771048e+001 
4340625000  -4.250188e+001  6.047874e+001 
4343750000  -4.159029e+001  5.495215e+001 
4346875000  -4.130694e+001  4.540699e+001 
4350000000  -4.168185e+001  3.594014e+001 
4353125000  -4.232821e+001  2.490416e+001 
4356250000  -4.437580e+001  3.258131e+001 
4359375000  -4.312183e+001  4.353548e+001 
4362500000  -3.974556e+001  3.549632e+001 
4365625000  -3.941273e+001  1.468082e+001 
4368750000  -4.045518e+001  5.262146e+000 
4371875000  -4.198910e+001  6.344575e-001 
4375000000  -4.076221e+001  -3.355595e+000 
4378125000  -4.118574e+001  -8.797514e+000 
4381250000  -4.129725e+001  -1.977740e+001 
4384375000  -4.135118e+001  -2.643051e+001 
4387500000  -4.195503e+001  -3.444299e+001 
4390625000  -4.262118e+001  -3.566298e+001 
4393750000  -4.211074e+001  -3.739981e+001 
4396875000  -4.168985e+001  -3.926991e+001 
4400000000  -4.122633e+001  -5.181969e+001 
4403125000  -4.204398e+001  -6.117638e+001 
4406250000  -4.253857e+001  -6.590668e+001 
4409375000  -4.305592e+001  -7.167515e+001 
4412500000  -4.417550e+001  -7.062902e+001 
4415625000  -4.379947e+001  -6.860809e+001 
4418750000  -4.250529e+001  -6.806132e+001 
