!Agilent Technologies,E8363B,MY43030201,A.06.04.32
!Agilent E8363B: A.06.04.32
!Date: Tuesday, November 11, 2014 21:42:27
!Correction: S21(Response(S21)) 
!S1P File: Measurement: S21:
# Hz S  dB   R 50
3000000000  -4.368982e+001  -1.579815e+002 
3003125000  -4.515095e+001  -1.632836e+002 
3006250000  -4.531536e+001  -1.664107e+002 
3009375000  -4.599583e+001  -1.623446e+002 
3012500000  -4.492669e+001  -1.669309e+002 
3015625000  -4.502956e+001  -1.743975e+002 
3018750000  -4.544479e+001  -1.766961e+002 
3021875000  -4.390661e+001  -1.762796e+002 
3025000000  -4.241488e+001  -1.789081e+002 
3028125000  -4.164680e+001  1.688465e+002 
3031250000  -4.086279e+001  1.536698e+002 
3034375000  -4.077913e+001  1.403914e+002 
3037500000  -4.170971e+001  1.302679e+002 
3040625000  -4.282935e+001  1.235669e+002 
3043750000  -4.320233e+001  1.170796e+002 
3046875000  -4.407363e+001  1.111349e+002 
3050000000  -4.515103e+001  1.054474e+002 
3053125000  -4.465768e+001  1.092111e+002 
3056250000  -4.475491e+001  1.126027e+002 
3059375000  -4.371990e+001  1.083534e+002 
3062500000  -4.240731e+001  1.028350e+002 
3065625000  -4.195311e+001  9.175096e+001 
3068750000  -4.171129e+001  8.452875e+001 
3071875000  -4.199699e+001  8.103332e+001 
3075000000  -4.108168e+001  7.334702e+001 
3078125000  -4.150203e+001  6.648014e+001 
3081250000  -4.122978e+001  6.067876e+001 
3084375000  -4.054853e+001  5.437107e+001 
3087500000  -4.061370e+001  4.624849e+001 
3090625000  -3.993575e+001  3.471855e+001 
3093750000  -4.102179e+001  2.486500e+001 
3096875000  -4.115016e+001  1.906413e+001 
3100000000  -4.123546e+001  1.435100e+001 
3103125000  -4.148647e+001  1.048018e+001 
3106250000  -4.109314e+001  5.119200e+000 
3109375000  -4.095127e+001  -5.050398e-001 
3112500000  -4.097336e+001  -8.889016e+000 
3115625000  -4.077464e+001  -1.187193e+001 
3118750000  -4.084392e+001  -1.739738e+001 
3121875000  -4.016050e+001  -2.957933e+001 
3125000000  -4.204387e+001  -3.500852e+001 
3128125000  -4.203825e+001  -2.917092e+001 
3131250000  -3.957631e+001  -3.652329e+001 
3134375000  -3.894076e+001  -5.521548e+001 
3137500000  -3.955817e+001  -6.712601e+001 
3140625000  -4.101258e+001  -7.119429e+001 
3143750000  -4.151117e+001  -7.463107e+001 
3146875000  -4.127948e+001  -7.447691e+001 
3150000000  -4.030159e+001  -8.102511e+001 
3153125000  -4.077036e+001  -8.861260e+001 
3156250000  -4.134564e+001  -8.526338e+001 
3159375000  -3.926160e+001  -8.964535e+001 
3162500000  -3.775311e+001  -1.053152e+002 
3165625000  -3.908766e+001  -1.208621e+002 
3168750000  -3.890723e+001  -1.212635e+002 
3171875000  -3.870353e+001  -1.298694e+002 
3175000000  -3.914258e+001  -1.399077e+002 
3178125000  -3.873383e+001  -1.424842e+002 
3181250000  -3.819939e+001  -1.517354e+002 
3184375000  -3.783523e+001  -1.639468e+002 
3187500000  -3.931062e+001  -1.786718e+002 
3190625000  -4.116860e+001  1.742536e+002 
3193750000  -4.130440e+001  1.764943e+002 
3196875000  -4.114602e+001  1.763940e+002 
3200000000  -4.004861e+001  1.718679e+002 
3203125000  -3.964288e+001  1.644935e+002 
3206250000  -3.994780e+001  1.551995e+002 
3209375000  -3.957288e+001  1.463948e+002 
3212500000  -3.987815e+001  1.376896e+002 
3215625000  -3.967494e+001  1.360202e+002 
3218750000  -4.047378e+001  1.227153e+002 
3221875000  -4.068899e+001  1.158682e+002 
3225000000  -4.066036e+001  1.098384e+002 
3228125000  -4.115498e+001  1.028345e+002 
3231250000  -4.152913e+001  9.911628e+001 
3234375000  -4.118176e+001  9.616154e+001 
3237500000  -4.109607e+001  9.177357e+001 
3240625000  -4.038281e+001  8.531827e+001 
3243750000  -4.052851e+001  7.388317e+001 
3246875000  -4.089839e+001  6.568937e+001 
3250000000  -4.107330e+001  6.141558e+001 
3253125000  -4.134475e+001  5.640230e+001 
3256250000  -4.035755e+001  4.748214e+001 
3259375000  -4.111901e+001  3.294722e+001 
3262500000  -4.252832e+001  2.943074e+001 
3265625000  -4.252777e+001  2.903098e+001 
3268750000  -4.267100e+001  3.017678e+001 
3271875000  -4.168069e+001  2.379589e+001 
3275000000  -4.127947e+001  1.318540e+001 
3278125000  -4.174076e+001  5.219472e+000 
3281250000  -4.188787e+001  2.327900e+000 
3284375000  -4.110051e+001  -5.011952e+000 
3287500000  -4.158375e+001  -1.304860e+001 
3290625000  -4.158731e+001  -2.359939e+001 
3293750000  -4.158560e+001  -3.085775e+001 
3296875000  -4.268529e+001  -3.477139e+001 
3300000000  -4.212170e+001  -3.877225e+001 
3303125000  -4.103134e+001  -4.745364e+001 
3306250000  -4.096535e+001  -5.867594e+001 
3309375000  -4.082917e+001  -6.886642e+001 
3312500000  -4.126529e+001  -8.315289e+001 
3315625000  -4.253196e+001  -9.315913e+001 
3318750000  -4.404449e+001  -9.839556e+001 
3321875000  -4.538314e+001  -9.810343e+001 
3325000000  -4.544069e+001  -9.173220e+001 
3328125000  -4.417056e+001  -9.670243e+001 
3331250000  -4.275716e+001  -9.727048e+001 
3334375000  -4.023359e+001  -1.160819e+002 
3337500000  -4.085653e+001  -1.389270e+002 
3340625000  -4.294903e+001  -1.488959e+002 
3343750000  -4.461360e+001  -1.499549e+002 
3346875000  -4.403016e+001  -1.539408e+002 
3350000000  -4.393290e+001  -1.594247e+002 
3353125000  -4.361770e+001  -1.704823e+002 
3356250000  -4.340436e+001  -1.794513e+002 
3359375000  -4.414646e+001  1.673539e+002 
3362500000  -4.549790e+001  1.599871e+002 
3365625000  -4.579821e+001  1.557123e+002 
3368750000  -4.685562e+001  1.490280e+002 
3371875000  -4.695838e+001  1.430081e+002 
3375000000  -4.880368e+001  1.342154e+002 
3378125000  -4.961955e+001  1.329465e+002 
3381250000  -5.072693e+001  1.445690e+002 
3384375000  -4.721045e+001  1.522501e+002 
3387500000  -4.527219e+001  1.332069e+002 
3390625000  -4.695744e+001  1.076992e+002 
3393750000  -4.750741e+001  1.080666e+002 
3396875000  -4.715239e+001  1.003136e+002 
3400000000  -4.624614e+001  8.980660e+001 
3403125000  -4.728165e+001  8.117120e+001 
3406250000  -4.771679e+001  7.270386e+001 
3409375000  -4.751458e+001  6.203799e+001 
3412500000  -4.791056e+001  5.374702e+001 
3415625000  -4.905047e+001  5.126595e+001 
3418750000  -4.829036e+001  4.566314e+001 
3421875000  -4.926828e+001  4.040815e+001 
3425000000  -4.781652e+001  3.709799e+001 
3428125000  -4.742454e+001  3.031908e+001 
3431250000  -4.665118e+001  1.467262e+001 
3434375000  -4.708619e+001  5.108157e+000 
3437500000  -4.776198e+001  -1.414799e+000 
3440625000  -4.858705e+001  -7.133308e+000 
3443750000  -4.647744e+001  -1.065263e+001 
3446875000  -4.585524e+001  -2.338358e+001 
3450000000  -4.514619e+001  -4.286060e+001 
3453125000  -4.588496e+001  -5.899354e+001 
3456250000  -4.730758e+001  -6.804087e+001 
3459375000  -4.849190e+001  -6.872681e+001 
3462500000  -4.776805e+001  -7.095786e+001 
3465625000  -4.731092e+001  -8.734809e+001 
3468750000  -4.757757e+001  -9.369870e+001 
3471875000  -4.698207e+001  -9.975861e+001 
3475000000  -4.714805e+001  -1.132279e+002 
3478125000  -4.769753e+001  -1.271482e+002 
3481250000  -4.835472e+001  -1.329781e+002 
3484375000  -4.852041e+001  -1.334032e+002 
3487500000  -4.774258e+001  -1.397370e+002 
3490625000  -4.701273e+001  -1.502947e+002 
3493750000  -4.825625e+001  -1.634635e+002 
3496875000  -4.778415e+001  -1.640748e+002 
3500000000  -4.818982e+001  -1.671054e+002 
3503125000  -4.736413e+001  -1.728478e+002 
3506250000  -4.552353e+001  1.764274e+002 
3509375000  -4.566028e+001  1.543277e+002 
3512500000  -4.565739e+001  1.377591e+002 
3515625000  -4.734208e+001  1.354733e+002 
3518750000  -4.769234e+001  1.334643e+002 
3521875000  -4.790305e+001  1.204854e+002 
3525000000  -4.898967e+001  1.173952e+002 
3528125000  -4.773687e+001  1.197908e+002 
3531250000  -4.647083e+001  1.061436e+002 
3534375000  -4.698257e+001  8.849845e+001 
3537500000  -4.757211e+001  8.080938e+001 
3540625000  -4.876357e+001  8.173337e+001 
3543750000  -4.983456e+001  7.962139e+001 
3546875000  -4.852045e+001  8.877690e+001 
3550000000  -4.670176e+001  7.835825e+001 
3553125000  -4.587182e+001  5.878034e+001 
3556250000  -4.708797e+001  5.176482e+001 
3559375000  -4.645043e+001  4.544782e+001 
3562500000  -4.626988e+001  3.478312e+001 
3565625000  -4.754880e+001  2.497441e+001 
3568750000  -4.785559e+001  2.957630e+001 
3571875000  -4.785860e+001  2.114554e+001 
3575000000  -4.692345e+001  1.455834e+001 
3578125000  -4.761949e+001  1.100657e+001 
3581250000  -4.739312e+001  5.142622e+000 
3584375000  -4.581206e+001  -1.577816e+000 
3587500000  -4.585273e+001  -9.321348e+000 
3590625000  -4.645776e+001  -1.931153e+001 
3593750000  -4.783567e+001  -2.207032e+001 
3596875000  -4.655686e+001  -1.968725e+001 
3600000000  -4.457332e+001  -2.635181e+001 
3603125000  -4.537193e+001  -4.321475e+001 
3606250000  -4.610395e+001  -5.139230e+001 
3609375000  -4.598307e+001  -5.158406e+001 
3612500000  -4.618301e+001  -5.976793e+001 
3615625000  -4.621178e+001  -6.501766e+001 
3618750000  -4.632470e+001  -6.702990e+001 
3621875000  -4.563711e+001  -7.261356e+001 
3625000000  -4.585493e+001  -7.598823e+001 
3628125000  -4.535943e+001  -8.570277e+001 
3631250000  -4.504401e+001  -9.491417e+001 
3634375000  -4.578345e+001  -9.565644e+001 
3637500000  -4.445598e+001  -9.591326e+001 
3640625000  -4.324147e+001  -1.045610e+002 
3643750000  -4.319201e+001  -1.169299e+002 
3646875000  -4.375755e+001  -1.252607e+002 
3650000000  -4.406675e+001  -1.301522e+002 
3653125000  -4.322083e+001  -1.383290e+002 
3656250000  -4.401757e+001  -1.450711e+002 
3659375000  -4.365171e+001  -1.493379e+002 
3662500000  -4.300667e+001  -1.554579e+002 
3665625000  -4.334576e+001  -1.590158e+002 
3668750000  -4.180187e+001  -1.622380e+002 
3671875000  -4.161470e+001  -1.788426e+002 
3675000000  -4.231322e+001  1.706138e+002 
3678125000  -4.264423e+001  1.665016e+002 
3681250000  -4.225380e+001  1.596803e+002 
3684375000  -4.283195e+001  1.513642e+002 
3687500000  -4.289959e+001  1.448130e+002 
3690625000  -4.371193e+001  1.389770e+002 
3693750000  -4.428127e+001  1.360186e+002 
3696875000  -4.402180e+001  1.329580e+002 
3700000000  -4.327874e+001  1.263553e+002 
3703125000  -4.363537e+001  1.185083e+002 
3706250000  -4.478072e+001  1.161859e+002 
3709375000  -4.410511e+001  1.150685e+002 
3712500000  -4.309901e+001  1.069360e+002 
3715625000  -4.175386e+001  9.779475e+001 
3718750000  -4.194600e+001  8.996394e+001 
3721875000  -4.188364e+001  8.076543e+001 
3725000000  -4.261581e+001  7.229901e+001 
3728125000  -4.272396e+001  7.056577e+001 
3731250000  -4.221055e+001  6.370524e+001 
3734375000  -4.200060e+001  5.346695e+001 
3737500000  -4.257965e+001  4.811386e+001 
3740625000  -4.325380e+001  4.145617e+001 
3743750000  -4.306525e+001  3.376902e+001 
3746875000  -4.363279e+001  2.760206e+001 
3750000000  -4.372629e+001  2.543215e+001 
3753125000  -4.384811e+001  2.311706e+001 
3756250000  -4.371291e+001  1.834760e+001 
3759375000  -4.387182e+001  1.134414e+001 
3762500000  -4.377502e+001  7.113523e+000 
3765625000  -4.415030e+001  3.259511e+000 
3768750000  -4.370620e+001  5.730779e+000 
3771875000  -4.215607e+001  -1.978028e+000 
3775000000  -4.213290e+001  -1.351431e+001 
3778125000  -4.252911e+001  -2.155651e+001 
3781250000  -4.279991e+001  -2.632994e+001 
3784375000  -4.257234e+001  -3.282771e+001 
3787500000  -4.238165e+001  -3.819070e+001 
3790625000  -4.299038e+001  -4.628162e+001 
3793750000  -4.255966e+001  -5.367249e+001 
3796875000  -4.163409e+001  -5.422776e+001 
3800000000  -4.092753e+001  -6.301386e+001 
3803125000  -4.152831e+001  -7.462743e+001 
3806250000  -4.252506e+001  -7.815456e+001 
3809375000  -4.216545e+001  -8.250704e+001 
3812500000  -4.156580e+001  -9.613485e+001 
3815625000  -4.338968e+001  -1.062729e+002 
3818750000  -4.431263e+001  -1.052178e+002 
3821875000  -4.366690e+001  -9.522357e+001 
3825000000  -4.149940e+001  -1.004093e+002 
3828125000  -4.086615e+001  -1.216615e+002 
3831250000  -4.180827e+001  -1.350023e+002 
3834375000  -4.402910e+001  -1.375239e+002 
3837500000  -4.374424e+001  -1.349287e+002 
3840625000  -4.241762e+001  -1.391619e+002 
3843750000  -4.185594e+001  -1.554691e+002 
3846875000  -4.338670e+001  -1.638640e+002 
3850000000  -4.416142e+001  -1.568413e+002 
3853125000  -4.372594e+001  -1.596532e+002 
3856250000  -4.329138e+001  -1.668347e+002 
3859375000  -4.208581e+001  -1.773924e+002 
3862500000  -4.246084e+001  1.715268e+002 
3865625000  -4.267767e+001  1.674634e+002 
3868750000  -4.273355e+001  1.667746e+002 
3871875000  -4.199259e+001  1.562224e+002 
3875000000  -4.284901e+001  1.465775e+002 
3878125000  -4.309120e+001  1.459370e+002 
3881250000  -4.299876e+001  1.425913e+002 
3884375000  -4.256870e+001  1.320160e+002 
3887500000  -4.345267e+001  1.247442e+002 
3890625000  -4.377449e+001  1.236841e+002 
3893750000  -4.418914e+001  1.193759e+002 
3896875000  -4.432658e+001  1.166907e+002 
3900000000  -4.431284e+001  1.112785e+002 
3903125000  -4.388332e+001  1.061598e+002 
3906250000  -4.377464e+001  1.017403e+002 
3909375000  -4.297225e+001  9.355582e+001 
3912500000  -4.383032e+001  8.270644e+001 
3915625000  -4.500521e+001  8.453081e+001 
3918750000  -4.498129e+001  8.177178e+001 
3921875000  -4.386674e+001  7.774915e+001 
3925000000  -4.309853e+001  6.689655e+001 
3928125000  -4.336383e+001  6.023726e+001 
3931250000  -4.383285e+001  5.214355e+001 
3934375000  -4.368956e+001  5.043474e+001 
3937500000  -4.492503e+001  4.925485e+001 
3940625000  -4.483160e+001  5.005756e+001 
3943750000  -4.287550e+001  4.163189e+001 
3946875000  -4.327934e+001  3.259750e+001 
3950000000  -4.393716e+001  2.492123e+001 
3953125000  -4.511330e+001  2.984812e+001 
3956250000  -4.304371e+001  2.370355e+001 
3959375000  -4.244783e+001  2.130496e+001 
3962500000  -4.186479e+001  8.296896e+000 
3965625000  -4.179309e+001  -3.538297e+000 
3968750000  -4.285749e+001  -1.111685e+001 
3971875000  -4.281556e+001  -1.752733e+001 
3975000000  -4.200318e+001  -2.092710e+001 
3978125000  -4.218942e+001  -2.663277e+001 
3981250000  -4.218182e+001  -3.582917e+001 
3984375000  -4.246856e+001  -4.525844e+001 
3987500000  -4.288363e+001  -4.507312e+001 
3990625000  -4.307116e+001  -5.206268e+001 
3993750000  -4.305382e+001  -5.765191e+001 
3996875000  -4.324898e+001  -6.359083e+001 
4000000000  -4.392992e+001  -6.740176e+001 
4003125000  -4.405772e+001  -6.800700e+001 
4006250000  -4.234006e+001  -7.246377e+001 
4009375000  -4.139343e+001  -9.198796e+001 
4012500000  -4.281716e+001  -1.004101e+002 
4015625000  -4.386618e+001  -9.975776e+001 
4018750000  -4.422190e+001  -1.052028e+002 
4021875000  -4.309177e+001  -1.106489e+002 
4025000000  -4.337186e+001  -1.156560e+002 
4028125000  -4.340826e+001  -1.261385e+002 
4031250000  -4.419291e+001  -1.326992e+002 
4034375000  -4.379794e+001  -1.316211e+002 
4037500000  -4.436671e+001  -1.369549e+002 
4040625000  -4.433915e+001  -1.432928e+002 
4043750000  -4.428960e+001  -1.444646e+002 
4046875000  -4.451857e+001  -1.514075e+002 
4050000000  -4.439581e+001  -1.605367e+002 
4053125000  -4.519251e+001  -1.639602e+002 
4056250000  -4.584665e+001  -1.593323e+002 
4059375000  -4.404187e+001  -1.612519e+002 
4062500000  -4.355903e+001  -1.693244e+002 
4065625000  -4.387679e+001  -1.771602e+002 
4068750000  -4.304774e+001  1.746600e+002 
4071875000  -4.318757e+001  1.645314e+002 
4075000000  -4.368538e+001  1.573665e+002 
4078125000  -4.427028e+001  1.551297e+002 
4081250000  -4.392866e+001  1.505573e+002 
4084375000  -4.387645e+001  1.384769e+002 
4087500000  -4.419157e+001  1.335484e+002 
4090625000  -4.486160e+001  1.334692e+002 
4093750000  -4.475853e+001  1.305228e+002 
4096875000  -4.426508e+001  1.214806e+002 
4100000000  -4.545198e+001  1.127970e+002 
4103125000  -4.660384e+001  1.153842e+002 
4106250000  -4.573523e+001  1.209801e+002 
4109375000  -4.448593e+001  1.162838e+002 
4112500000  -4.453564e+001  1.052707e+002 
4115625000  -4.445140e+001  1.022781e+002 
4118750000  -4.428746e+001  9.490366e+001 
4121875000  -4.421826e+001  8.855914e+001 
4125000000  -4.474286e+001  8.004702e+001 
4128125000  -4.599150e+001  8.723000e+001 
4131250000  -4.431641e+001  8.949744e+001 
4134375000  -4.211851e+001  7.281052e+001 
4137500000  -4.224310e+001  5.481732e+001 
4140625000  -4.466380e+001  4.670757e+001 
4143750000  -4.527407e+001  5.185222e+001 
4146875000  -4.426289e+001  5.402532e+001 
4150000000  -4.319517e+001  4.355221e+001 
4153125000  -4.333125e+001  3.575617e+001 
4156250000  -4.490316e+001  3.069419e+001 
4159375000  -4.413708e+001  3.603760e+001 
4162500000  -4.262249e+001  3.228691e+001 
4165625000  -4.169454e+001  1.926654e+001 
4168750000  -4.167793e+001  1.083965e+001 
4171875000  -4.121941e+001  -2.131088e+000 
4175000000  -4.276414e+001  -9.501046e+000 
4178125000  -4.270097e+001  -1.132050e+001 
4181250000  -4.210976e+001  -1.945877e+001 
4184375000  -4.311364e+001  -2.341118e+001 
4187500000  -4.266371e+001  -3.161526e+001 
4190625000  -4.284016e+001  -4.201387e+001 
4193750000  -4.453436e+001  -4.595269e+001 
4196875000  -4.513297e+001  -4.848660e+001 
4200000000  -4.637915e+001  -4.132954e+001 
4203125000  -4.531121e+001  -3.676909e+001 
4206250000  -4.190123e+001  -4.522213e+001 
4209375000  -4.181659e+001  -6.846638e+001 
4212500000  -4.405503e+001  -7.651810e+001 
4215625000  -4.467977e+001  -6.927269e+001 
4218750000  -4.290651e+001  -6.887381e+001 
4221875000  -4.092744e+001  -7.717622e+001 
4225000000  -4.239365e+001  -9.401386e+001 
4228125000  -4.294780e+001  -8.878361e+001 
4231250000  -4.136301e+001  -9.586777e+001 
4234375000  -4.162708e+001  -1.069011e+002 
4237500000  -4.127155e+001  -1.143151e+002 
4240625000  -4.135804e+001  -1.265276e+002 
4243750000  -4.299033e+001  -1.334814e+002 
4246875000  -4.374936e+001  -1.340923e+002 
4250000000  -4.335886e+001  -1.336547e+002 
4253125000  -4.296557e+001  -1.376694e+002 
4256250000  -4.330818e+001  -1.448102e+002 
4259375000  -4.257704e+001  -1.498893e+002 
4262500000  -4.296342e+001  -1.579181e+002 
4265625000  -4.260715e+001  -1.536044e+002 
4268750000  -4.158973e+001  -1.631463e+002 
4271875000  -4.119712e+001  -1.759989e+002 
4275000000  -4.054588e+001  1.785218e+002 
4278125000  -4.179940e+001  1.646044e+002 
4281250000  -4.295959e+001  1.633104e+002 
4284375000  -4.235907e+001  1.587193e+002 
4287500000  -4.435915e+001  1.553449e+002 
4290625000  -4.419185e+001  1.643024e+002 
4293750000  -4.201299e+001  1.613448e+002 
4296875000  -4.090461e+001  1.449012e+002 
4300000000  -4.162489e+001  1.352329e+002 
4303125000  -4.236491e+001  1.349674e+002 
4306250000  -4.129028e+001  1.353287e+002 
4309375000  -4.012637e+001  1.257756e+002 
4312500000  -4.004840e+001  1.139687e+002 
4315625000  -4.048796e+001  1.040718e+002 
4318750000  -4.136273e+001  9.938742e+001 
4321875000  -4.125742e+001  9.824569e+001 
4325000000  -4.067937e+001  9.329162e+001 
4328125000  -3.952561e+001  8.085118e+001 
4331250000  -4.002958e+001  7.087550e+001 
4334375000  -4.104839e+001  6.117046e+001 
4337500000  -4.240129e+001  6.016935e+001 
4340625000  -4.269876e+001  6.362339e+001 
4343750000  -4.163488e+001  5.735712e+001 
4346875000  -4.153563e+001  4.623444e+001 
4350000000  -4.173988e+001  4.051508e+001 
4353125000  -4.207481e+001  3.061675e+001 
4356250000  -4.412815e+001  2.982776e+001 
4359375000  -4.322006e+001  4.494158e+001 
4362500000  -3.966519e+001  3.525142e+001 
4365625000  -3.970207e+001  1.765800e+001 
4368750000  -4.114720e+001  9.511836e+000 
4371875000  -4.185790e+001  5.630767e+000 
4375000000  -4.136135e+001  1.027772e-001 
4378125000  -4.082040e+001  -8.578556e+000 
4381250000  -4.158717e+001  -1.475373e+001 
4384375000  -4.116382e+001  -2.503526e+001 
4387500000  -4.211368e+001  -3.130971e+001 
4390625000  -4.301594e+001  -3.316734e+001 
4393750000  -4.242266e+001  -3.300990e+001 
4396875000  -4.194638e+001  -3.928017e+001 
4400000000  -4.134997e+001  -4.957398e+001 
4403125000  -4.234365e+001  -5.890320e+001 
4406250000  -4.259002e+001  -6.354930e+001 
4409375000  -4.304280e+001  -6.946464e+001 
4412500000  -4.451183e+001  -6.729935e+001 
4415625000  -4.381052e+001  -6.644768e+001 
4418750000  -4.241811e+001  -6.762212e+001 
