!Agilent Technologies,E8363B,MY43030201,A.06.04.32
!Agilent E8363B: A.06.04.32
!Date: Tuesday, November 11, 2014 21:52:09
!Correction: S21(Response(S21)) 
!S1P File: Measurement: S21:
# Hz S  dB   R 50
3000000000  -4.365340e+001  -1.626338e+002 
3003125000  -4.530103e+001  -1.694182e+002 
3006250000  -4.562289e+001  -1.695096e+002 
3009375000  -4.611508e+001  -1.658721e+002 
3012500000  -4.491413e+001  -1.716464e+002 
3015625000  -4.526376e+001  -1.793993e+002 
3018750000  -4.521320e+001  -1.794381e+002 
3021875000  -4.354742e+001  1.799408e+002 
3025000000  -4.251641e+001  1.761735e+002 
3028125000  -4.154539e+001  1.625471e+002 
3031250000  -4.106052e+001  1.500422e+002 
3034375000  -4.084531e+001  1.356354e+002 
3037500000  -4.182058e+001  1.256436e+002 
3040625000  -4.289130e+001  1.195356e+002 
3043750000  -4.347025e+001  1.126389e+002 
3046875000  -4.414963e+001  1.058918e+002 
3050000000  -4.527268e+001  1.018206e+002 
3053125000  -4.478807e+001  1.040234e+002 
3056250000  -4.466716e+001  1.075745e+002 
3059375000  -4.389129e+001  1.030344e+002 
3062500000  -4.260301e+001  1.004511e+002 
3065625000  -4.224434e+001  8.880715e+001 
3068750000  -4.188713e+001  7.973185e+001 
3071875000  -4.198330e+001  7.674537e+001 
3075000000  -4.130130e+001  6.959743e+001 
3078125000  -4.143961e+001  6.161428e+001 
3081250000  -4.138726e+001  5.446328e+001 
3084375000  -4.049142e+001  4.995350e+001 
3087500000  -4.051944e+001  4.118353e+001 
3090625000  -3.982216e+001  2.961201e+001 
3093750000  -4.097607e+001  1.982620e+001 
3096875000  -4.134200e+001  1.397287e+001 
3100000000  -4.119698e+001  1.007608e+001 
3103125000  -4.141240e+001  5.315337e+000 
3106250000  -4.109688e+001  -9.716978e-001 
3109375000  -4.101874e+001  -4.133702e+000 
3112500000  -4.084271e+001  -1.180766e+001 
3115625000  -4.084122e+001  -1.702629e+001 
3118750000  -4.078961e+001  -2.283006e+001 
3121875000  -4.038763e+001  -3.487791e+001 
3125000000  -4.223888e+001  -3.871575e+001 
3128125000  -4.193021e+001  -3.350688e+001 
3131250000  -3.947815e+001  -4.036510e+001 
3134375000  -3.899830e+001  -5.750654e+001 
3137500000  -3.945537e+001  -7.094225e+001 
3140625000  -4.089082e+001  -7.661385e+001 
3143750000  -4.149736e+001  -7.929728e+001 
3146875000  -4.109852e+001  -7.870057e+001 
3150000000  -4.009626e+001  -8.340964e+001 
3153125000  -4.078500e+001  -9.255851e+001 
3156250000  -4.134139e+001  -8.872813e+001 
3159375000  -3.924155e+001  -9.340429e+001 
3162500000  -3.787090e+001  -1.093744e+002 
3165625000  -3.880522e+001  -1.240858e+002 
3168750000  -3.888985e+001  -1.247748e+002 
3171875000  -3.861804e+001  -1.344255e+002 
3175000000  -3.923405e+001  -1.432432e+002 
3178125000  -3.869846e+001  -1.474355e+002 
3181250000  -3.801770e+001  -1.564743e+002 
3184375000  -3.782214e+001  -1.671999e+002 
3187500000  -3.899259e+001  1.752446e+002 
3190625000  -4.113052e+001  1.686009e+002 
3193750000  -4.120970e+001  1.735066e+002 
3196875000  -4.113562e+001  1.733772e+002 
3200000000  -3.981123e+001  1.668411e+002 
3203125000  -3.962910e+001  1.575527e+002 
3206250000  -3.987260e+001  1.506988e+002 
3209375000  -3.946994e+001  1.415930e+002 
3212500000  -3.993177e+001  1.337392e+002 
3215625000  -3.975782e+001  1.314163e+002 
3218750000  -4.002781e+001  1.190299e+002 
3221875000  -4.063688e+001  1.122665e+002 
3225000000  -4.021239e+001  1.069908e+002 
3228125000  -4.119838e+001  9.971585e+001 
3231250000  -4.124521e+001  9.634811e+001 
3234375000  -4.095483e+001  9.292239e+001 
3237500000  -4.099265e+001  8.851771e+001 
3240625000  -4.036846e+001  8.230781e+001 
3243750000  -4.027436e+001  7.007068e+001 
3246875000  -4.070236e+001  6.320901e+001 
3250000000  -4.106375e+001  5.758055e+001 
3253125000  -4.124837e+001  5.292287e+001 
3256250000  -4.037607e+001  4.355627e+001 
3259375000  -4.087072e+001  3.135876e+001 
3262500000  -4.257833e+001  2.505089e+001 
3265625000  -4.241655e+001  2.578292e+001 
3268750000  -4.236152e+001  2.510805e+001 
3271875000  -4.178860e+001  2.011973e+001 
3275000000  -4.100805e+001  8.935719e+000 
3278125000  -4.167924e+001  1.718187e+000 
3281250000  -4.168676e+001  -1.324873e+000 
3284375000  -4.120085e+001  -8.950098e+000 
3287500000  -4.165333e+001  -1.766079e+001 
3290625000  -4.136382e+001  -2.872639e+001 
3293750000  -4.158199e+001  -3.546037e+001 
3296875000  -4.251986e+001  -3.911636e+001 
3300000000  -4.192907e+001  -4.178985e+001 
3303125000  -4.084695e+001  -5.109159e+001 
3306250000  -4.087239e+001  -6.082639e+001 
3309375000  -4.071393e+001  -7.180439e+001 
3312500000  -4.125792e+001  -8.683216e+001 
3315625000  -4.237838e+001  -9.552318e+001 
3318750000  -4.369648e+001  -1.014091e+002 
3321875000  -4.543512e+001  -1.002237e+002 
3325000000  -4.481317e+001  -9.837660e+001 
3328125000  -4.400421e+001  -9.814491e+001 
3331250000  -4.236802e+001  -9.958314e+001 
3334375000  -3.989058e+001  -1.183245e+002 
3337500000  -4.088142e+001  -1.427890e+002 
3340625000  -4.278188e+001  -1.519603e+002 
3343750000  -4.460681e+001  -1.544306e+002 
3346875000  -4.406221e+001  -1.573757e+002 
3350000000  -4.355950e+001  -1.624130e+002 
3353125000  -4.351160e+001  -1.720421e+002 
3356250000  -4.343862e+001  1.787557e+002 
3359375000  -4.457883e+001  1.639899e+002 
3362500000  -4.481545e+001  1.559837e+002 
3365625000  -4.542674e+001  1.516453e+002 
3368750000  -4.649159e+001  1.457753e+002 
3371875000  -4.709809e+001  1.395456e+002 
3375000000  -4.820583e+001  1.333394e+002 
3378125000  -4.912657e+001  1.324776e+002 
3381250000  -5.027148e+001  1.436925e+002 
3384375000  -4.707514e+001  1.528450e+002 
3387500000  -4.505689e+001  1.270097e+002 
3390625000  -4.671498e+001  1.061261e+002 
3393750000  -4.748809e+001  1.050341e+002 
3396875000  -4.610571e+001  1.005381e+002 
3400000000  -4.612659e+001  8.359002e+001 
3403125000  -4.657463e+001  8.099485e+001 
3406250000  -4.716093e+001  7.010022e+001 
3409375000  -4.710796e+001  5.784457e+001 
3412500000  -4.746071e+001  5.271014e+001 
3415625000  -4.890891e+001  4.697085e+001 
3418750000  -4.909249e+001  4.145330e+001 
3421875000  -4.877859e+001  4.438752e+001 
3425000000  -4.792422e+001  3.507721e+001 
3428125000  -4.690414e+001  3.153629e+001 
3431250000  -4.673704e+001  1.380436e+001 
3434375000  -4.699482e+001  2.632461e-001 
3437500000  -4.760601e+001  -7.452055e+000 
3440625000  -4.778984e+001  -1.028224e+001 
3443750000  -4.628075e+001  -1.509128e+001 
3446875000  -4.577015e+001  -2.912266e+001 
3450000000  -4.529265e+001  -4.503340e+001 
3453125000  -4.611739e+001  -6.354361e+001 
3456250000  -4.688208e+001  -7.212318e+001 
3459375000  -4.825751e+001  -7.278943e+001 
3462500000  -4.809003e+001  -7.759779e+001 
3465625000  -4.721571e+001  -8.918679e+001 
3468750000  -4.771290e+001  -9.684486e+001 
3471875000  -4.714066e+001  -1.036214e+002 
3475000000  -4.687121e+001  -1.180953e+002 
3478125000  -4.771903e+001  -1.313190e+002 
3481250000  -4.922350e+001  -1.382760e+002 
3484375000  -4.854247e+001  -1.320352e+002 
3487500000  -4.744141e+001  -1.430578e+002 
3490625000  -4.716650e+001  -1.520312e+002 
3493750000  -4.808007e+001  -1.693121e+002 
3496875000  -4.874088e+001  -1.695189e+002 
3500000000  -4.899425e+001  -1.727239e+002 
3503125000  -4.693719e+001  -1.787709e+002 
3506250000  -4.500473e+001  1.712097e+002 
3509375000  -4.587437e+001  1.503463e+002 
3512500000  -4.616588e+001  1.381742e+002 
3515625000  -4.720711e+001  1.295903e+002 
3518750000  -4.763223e+001  1.302032e+002 
3521875000  -4.762160e+001  1.152807e+002 
3525000000  -4.854961e+001  1.141700e+002 
3528125000  -4.798721e+001  1.111307e+002 
3531250000  -4.692094e+001  1.024539e+002 
3534375000  -4.661874e+001  8.904453e+001 
3537500000  -4.779050e+001  7.818552e+001 
3540625000  -4.926827e+001  7.644518e+001 
3543750000  -4.936503e+001  7.504858e+001 
3546875000  -4.804235e+001  8.252407e+001 
3550000000  -4.656760e+001  7.178353e+001 
3553125000  -4.673741e+001  5.105294e+001 
3556250000  -4.731097e+001  4.484925e+001 
3559375000  -4.675856e+001  4.350849e+001 
3562500000  -4.664601e+001  3.070459e+001 
3565625000  -4.755473e+001  2.328700e+001 
3568750000  -4.761486e+001  2.037529e+001 
3571875000  -4.697529e+001  1.651253e+001 
3575000000  -4.707565e+001  1.195345e+001 
3578125000  -4.764445e+001  7.008905e+000 
3581250000  -4.738616e+001  1.116472e+000 
3584375000  -4.567289e+001  -4.637461e+000 
3587500000  -4.590770e+001  -1.551521e+001 
3590625000  -4.651413e+001  -2.662236e+001 
3593750000  -4.788100e+001  -2.772687e+001 
3596875000  -4.686697e+001  -2.562203e+001 
3600000000  -4.465328e+001  -3.428104e+001 
3603125000  -4.502258e+001  -5.116019e+001 
3606250000  -4.602345e+001  -5.697643e+001 
3609375000  -4.596062e+001  -6.092456e+001 
3612500000  -4.562565e+001  -6.866030e+001 
3615625000  -4.609948e+001  -7.017022e+001 
3618750000  -4.617824e+001  -7.522330e+001 
3621875000  -4.511065e+001  -7.891122e+001 
3625000000  -4.580105e+001  -8.264087e+001 
3628125000  -4.485409e+001  -8.811125e+001 
3631250000  -4.541188e+001  -9.743848e+001 
3634375000  -4.596325e+001  -1.023213e+002 
3637500000  -4.436829e+001  -1.033412e+002 
3640625000  -4.338570e+001  -1.088613e+002 
3643750000  -4.303682e+001  -1.209160e+002 
3646875000  -4.403005e+001  -1.306570e+002 
3650000000  -4.373454e+001  -1.342690e+002 
3653125000  -4.329735e+001  -1.444455e+002 
3656250000  -4.443845e+001  -1.507460e+002 
3659375000  -4.385162e+001  -1.557815e+002 
3662500000  -4.344657e+001  -1.620128e+002 
3665625000  -4.343852e+001  -1.641600e+002 
3668750000  -4.201733e+001  -1.701192e+002 
3671875000  -4.126362e+001  1.752106e+002 
3675000000  -4.217323e+001  1.659242e+002 
3678125000  -4.260798e+001  1.596365e+002 
3681250000  -4.208155e+001  1.544663e+002 
3684375000  -4.254527e+001  1.474249e+002 
3687500000  -4.267086e+001  1.372323e+002 
3690625000  -4.343097e+001  1.306899e+002 
3693750000  -4.439465e+001  1.327915e+002 
3696875000  -4.397361e+001  1.250871e+002 
3700000000  -4.315091e+001  1.201657e+002 
3703125000  -4.386707e+001  1.130802e+002 
3706250000  -4.446548e+001  1.093650e+002 
3709375000  -4.382232e+001  1.103032e+002 
3712500000  -4.294522e+001  1.016950e+002 
3715625000  -4.166816e+001  9.247748e+001 
3718750000  -4.160240e+001  8.414747e+001 
3721875000  -4.174989e+001  7.380483e+001 
3725000000  -4.264186e+001  6.650654e+001 
3728125000  -4.270739e+001  6.354055e+001 
3731250000  -4.226304e+001  5.625783e+001 
3734375000  -4.163244e+001  5.009006e+001 
3737500000  -4.247992e+001  4.118476e+001 
3740625000  -4.286743e+001  3.459228e+001 
3743750000  -4.284292e+001  2.975830e+001 
3746875000  -4.321500e+001  2.375611e+001 
3750000000  -4.362913e+001  1.896598e+001 
3753125000  -4.334810e+001  1.452734e+001 
3756250000  -4.377951e+001  1.089102e+001 
3759375000  -4.362199e+001  5.454931e+000 
3762500000  -4.358883e+001  2.691436e+000 
3765625000  -4.421990e+001  -5.635510e+000 
3768750000  -4.351550e+001  -1.788966e+000 
3771875000  -4.213325e+001  -1.046672e+001 
3775000000  -4.194015e+001  -2.337074e+001 
3778125000  -4.256189e+001  -2.865890e+001 
3781250000  -4.269603e+001  -3.142887e+001 
3784375000  -4.191685e+001  -3.805287e+001 
3787500000  -4.259167e+001  -4.266998e+001 
3790625000  -4.262667e+001  -5.385067e+001 
3793750000  -4.257212e+001  -5.667636e+001 
3796875000  -4.151261e+001  -6.282705e+001 
3800000000  -4.069272e+001  -7.009540e+001 
3803125000  -4.145228e+001  -7.980769e+001 
3806250000  -4.239340e+001  -8.643900e+001 
3809375000  -4.184361e+001  -9.060469e+001 
3812500000  -4.162797e+001  -1.015298e+002 
3815625000  -4.301633e+001  -1.110559e+002 
3818750000  -4.421719e+001  -1.100399e+002 
3821875000  -4.330288e+001  -1.015727e+002 
3825000000  -4.121671e+001  -1.061598e+002 
3828125000  -4.013899e+001  -1.261337e+002 
3831250000  -4.138294e+001  -1.417697e+002 
3834375000  -4.359529e+001  -1.449138e+002 
3837500000  -4.395633e+001  -1.425385e+002 
3840625000  -4.245511e+001  -1.466271e+002 
3843750000  -4.176235e+001  -1.616094e+002 
3846875000  -4.360798e+001  -1.692948e+002 
3850000000  -4.389708e+001  -1.634186e+002 
3853125000  -4.329287e+001  -1.618955e+002 
3856250000  -4.303814e+001  -1.718848e+002 
3859375000  -4.242106e+001  1.783621e+002 
3862500000  -4.199380e+001  1.676248e+002 
3865625000  -4.251954e+001  1.604635e+002 
3868750000  -4.232124e+001  1.598725e+002 
3871875000  -4.195236e+001  1.500167e+002 
3875000000  -4.238076e+001  1.397610e+002 
3878125000  -4.315250e+001  1.400377e+002 
3881250000  -4.338162e+001  1.360810e+002 
3884375000  -4.253787e+001  1.259750e+002 
3887500000  -4.313509e+001  1.191777e+002 
3890625000  -4.394170e+001  1.149714e+002 
3893750000  -4.427678e+001  1.121882e+002 
3896875000  -4.413493e+001  1.094666e+002 
3900000000  -4.442243e+001  1.021712e+002 
3903125000  -4.410210e+001  1.004670e+002 
3906250000  -4.350735e+001  9.502006e+001 
3909375000  -4.276104e+001  8.608144e+001 
3912500000  -4.355658e+001  7.681305e+001 
3915625000  -4.484019e+001  7.583028e+001 
3918750000  -4.423017e+001  7.914819e+001 
3921875000  -4.354222e+001  7.013763e+001 
3925000000  -4.316692e+001  6.356640e+001 
3928125000  -4.277770e+001  5.546764e+001 
3931250000  -4.345534e+001  4.768362e+001 
3934375000  -4.394670e+001  4.457970e+001 
3937500000  -4.462289e+001  4.021009e+001 
3940625000  -4.453012e+001  4.096343e+001 
3943750000  -4.316970e+001  3.604037e+001 
3946875000  -4.272444e+001  2.727302e+001 
3950000000  -4.373532e+001  2.116937e+001 
3953125000  -4.440596e+001  2.078502e+001 
3956250000  -4.247585e+001  1.847451e+001 
3959375000  -4.184825e+001  1.241834e+001 
3962500000  -4.147371e+001  -2.269349e-001 
3965625000  -4.176645e+001  -1.291891e+001 
3968750000  -4.289653e+001  -1.826743e+001 
3971875000  -4.222895e+001  -2.509232e+001 
3975000000  -4.192431e+001  -2.777834e+001 
3978125000  -4.214922e+001  -3.495372e+001 
3981250000  -4.196013e+001  -4.173205e+001 
3984375000  -4.272852e+001  -5.147657e+001 
3987500000  -4.320410e+001  -5.708512e+001 
3990625000  -4.339473e+001  -5.909599e+001 
3993750000  -4.299200e+001  -6.316767e+001 
3996875000  -4.316131e+001  -7.136169e+001 
4000000000  -4.369256e+001  -7.229582e+001 
4003125000  -4.356166e+001  -7.275666e+001 
4006250000  -4.188711e+001  -8.066370e+001 
4009375000  -4.108179e+001  -9.713505e+001 
4012500000  -4.292886e+001  -1.036244e+002 
4015625000  -4.390891e+001  -1.057092e+002 
4018750000  -4.363101e+001  -1.109152e+002 
4021875000  -4.299088e+001  -1.176992e+002 
4025000000  -4.317475e+001  -1.219257e+002 
4028125000  -4.323441e+001  -1.318086e+002 
4031250000  -4.423846e+001  -1.363155e+002 
4034375000  -4.423911e+001  -1.404317e+002 
4037500000  -4.386543e+001  -1.428131e+002 
4040625000  -4.423388e+001  -1.494936e+002 
4043750000  -4.481013e+001  -1.511430e+002 
4046875000  -4.409412e+001  -1.573758e+002 
4050000000  -4.375770e+001  -1.650836e+002 
4053125000  -4.470685e+001  -1.694112e+002 
4056250000  -4.552531e+001  -1.672623e+002 
4059375000  -4.426711e+001  -1.684853e+002 
4062500000  -4.383054e+001  -1.751226e+002 
4065625000  -4.356061e+001  1.783324e+002 
4068750000  -4.258615e+001  1.665176e+002 
4071875000  -4.271535e+001  1.605150e+002 
4075000000  -4.350059e+001  1.524568e+002 
4078125000  -4.420095e+001  1.494760e+002 
4081250000  -4.333558e+001  1.440450e+002 
4084375000  -4.335720e+001  1.352798e+002 
4087500000  -4.373069e+001  1.244065e+002 
4090625000  -4.446669e+001  1.247606e+002 
4093750000  -4.423711e+001  1.214747e+002 
4096875000  -4.446210e+001  1.160766e+002 
4100000000  -4.485693e+001  1.066560e+002 
4103125000  -4.585810e+001  1.126058e+002 
4106250000  -4.506849e+001  1.122219e+002 
4109375000  -4.407203e+001  1.073843e+002 
4112500000  -4.393056e+001  9.854540e+001 
4115625000  -4.416827e+001  9.256174e+001 
4118750000  -4.411266e+001  8.946396e+001 
4121875000  -4.346713e+001  8.023676e+001 
4125000000  -4.463600e+001  7.449055e+001 
4128125000  -4.487739e+001  7.835629e+001 
4131250000  -4.348335e+001  8.135249e+001 
4134375000  -4.151632e+001  6.702918e+001 
4137500000  -4.200172e+001  4.775414e+001 
4140625000  -4.405281e+001  4.119992e+001 
4143750000  -4.520914e+001  4.368570e+001 
4146875000  -4.364843e+001  4.883268e+001 
4150000000  -4.268182e+001  3.575093e+001 
4153125000  -4.323352e+001  2.823906e+001 
4156250000  -4.376844e+001  2.305518e+001 
4159375000  -4.353437e+001  2.512092e+001 
4162500000  -4.256968e+001  2.409826e+001 
4165625000  -4.126900e+001  1.548007e+001 
4168750000  -4.117420e+001  3.784361e+000 
4171875000  -4.095005e+001  -9.419977e+000 
4175000000  -4.185401e+001  -1.703555e+001 
4178125000  -4.244124e+001  -2.043855e+001 
4181250000  -4.217345e+001  -2.806193e+001 
4184375000  -4.222276e+001  -3.163803e+001 
4187500000  -4.231202e+001  -3.870488e+001 
4190625000  -4.267741e+001  -4.999792e+001 
4193750000  -4.362035e+001  -5.567420e+001 
4196875000  -4.495018e+001  -5.703519e+001 
4200000000  -4.591417e+001  -4.953549e+001 
4203125000  -4.445288e+001  -3.974558e+001 
4206250000  -4.104042e+001  -5.048627e+001 
4209375000  -4.161388e+001  -7.641730e+001 
4212500000  -4.357605e+001  -7.800409e+001 
4215625000  -4.400558e+001  -7.507330e+001 
4218750000  -4.260671e+001  -7.576619e+001 
4221875000  -4.089680e+001  -8.643942e+001 
4225000000  -4.211586e+001  -9.756017e+001 
4228125000  -4.254608e+001  -9.566653e+001 
4231250000  -4.056520e+001  -1.058938e+002 
4234375000  -4.047897e+001  -1.179199e+002 
4237500000  -4.081723e+001  -1.240619e+002 
4240625000  -4.131031e+001  -1.318854e+002 
4243750000  -4.230246e+001  -1.437146e+002 
4246875000  -4.250801e+001  -1.415459e+002 
4250000000  -4.256013e+001  -1.414340e+002 
4253125000  -4.245153e+001  -1.468053e+002 
4256250000  -4.205687e+001  -1.535570e+002 
4259375000  -4.190744e+001  -1.603158e+002 
4262500000  -4.213120e+001  -1.627439e+002 
4265625000  -4.216647e+001  -1.639859e+002 
4268750000  -4.097091e+001  -1.712652e+002 
4271875000  -4.088090e+001  1.766458e+002 
4275000000  -3.986874e+001  1.679109e+002 
4278125000  -4.188835e+001  1.554577e+002 
4281250000  -4.209219e+001  1.527833e+002 
4284375000  -4.209792e+001  1.496517e+002 
4287500000  -4.409660e+001  1.466403e+002 
4290625000  -4.380021e+001  1.543711e+002 
4293750000  -4.104618e+001  1.517027e+002 
4296875000  -4.058712e+001  1.365054e+002 
4300000000  -4.100557e+001  1.283570e+002 
4303125000  -4.188715e+001  1.297341e+002 
4306250000  -4.054902e+001  1.269141e+002 
4309375000  -3.959936e+001  1.169653e+002 
4312500000  -3.954595e+001  1.059729e+002 
4315625000  -4.019199e+001  9.657721e+001 
4318750000  -4.043958e+001  9.192758e+001 
4321875000  -4.072269e+001  8.838761e+001 
4325000000  -3.994505e+001  8.312903e+001 
4328125000  -3.964204e+001  7.329547e+001 
4331250000  -3.966070e+001  6.146159e+001 
4334375000  -4.093614e+001  5.423196e+001 
4337500000  -4.187374e+001  5.181831e+001 
4340625000  -4.188256e+001  5.079911e+001 
4343750000  -4.103719e+001  4.889120e+001 
4346875000  -4.105194e+001  4.027819e+001 
4350000000  -4.084002e+001  2.919245e+001 
4353125000  -4.184489e+001  1.999498e+001 
4356250000  -4.378824e+001  2.365036e+001 
4359375000  -4.241678e+001  3.869640e+001 
4362500000  -3.922742e+001  2.674937e+001 
4365625000  -3.878143e+001  8.158179e+000 
4368750000  -4.024290e+001  -1.433997e+000 
4371875000  -4.093466e+001  -2.974139e+000 
4375000000  -4.051288e+001  -9.173341e+000 
4378125000  -4.032350e+001  -1.741482e+001 
4381250000  -4.060239e+001  -2.595278e+001 
4384375000  -4.058577e+001  -3.309529e+001 
4387500000  -4.133533e+001  -3.897108e+001 
4390625000  -4.206089e+001  -4.356457e+001 
4393750000  -4.170324e+001  -4.290065e+001 
4396875000  -4.114655e+001  -4.811341e+001 
4400000000  -4.065738e+001  -5.715035e+001 
4403125000  -4.127293e+001  -6.776756e+001 
4406250000  -4.232172e+001  -7.363765e+001 
4409375000  -4.233145e+001  -7.711588e+001 
4412500000  -4.349866e+001  -7.917126e+001 
4415625000  -4.316152e+001  -7.704763e+001 
4418750000  -4.173428e+001  -7.749154e+001 
