!Agilent Technologies,E8363B,MY43030201,A.06.04.32
!Agilent E8363B: A.06.04.32
!Date: Tuesday, November 11, 2014 21:42:09
!Correction: S21(Response(S21)) 
!S1P File: Measurement: S21:
# Hz S  dB   R 50
3000000000  -4.373944e+001  -1.582194e+002 
3003125000  -4.527813e+001  -1.632702e+002 
3006250000  -4.535832e+001  -1.632931e+002 
3009375000  -4.599001e+001  -1.615391e+002 
3012500000  -4.453680e+001  -1.681493e+002 
3015625000  -4.472760e+001  -1.752173e+002 
3018750000  -4.560305e+001  -1.769197e+002 
3021875000  -4.368530e+001  -1.730047e+002 
3025000000  -4.256195e+001  1.795598e+002 
3028125000  -4.185666e+001  1.667074e+002 
3031250000  -4.081087e+001  1.545457e+002 
3034375000  -4.085756e+001  1.407416e+002 
3037500000  -4.139266e+001  1.300458e+002 
3040625000  -4.273124e+001  1.240645e+002 
3043750000  -4.341106e+001  1.171578e+002 
3046875000  -4.394572e+001  1.105823e+002 
3050000000  -4.530581e+001  1.049380e+002 
3053125000  -4.493929e+001  1.101326e+002 
3056250000  -4.465297e+001  1.125643e+002 
3059375000  -4.393623e+001  1.067628e+002 
3062500000  -4.270081e+001  1.027357e+002 
3065625000  -4.195053e+001  9.270531e+001 
3068750000  -4.184618e+001  8.499223e+001 
3071875000  -4.177050e+001  8.173800e+001 
3075000000  -4.120481e+001  7.443903e+001 
3078125000  -4.125126e+001  6.621930e+001 
3081250000  -4.121763e+001  6.005961e+001 
3084375000  -4.032551e+001  5.543876e+001 
3087500000  -4.067123e+001  4.707789e+001 
3090625000  -3.989300e+001  3.397490e+001 
3093750000  -4.114224e+001  2.456334e+001 
3096875000  -4.147565e+001  1.871099e+001 
3100000000  -4.121319e+001  1.532495e+001 
3103125000  -4.168425e+001  1.171189e+001 
3106250000  -4.102637e+001  4.481552e+000 
3109375000  -4.109627e+001  1.485147e-001 
3112500000  -4.089013e+001  -8.703857e+000 
3115625000  -4.092626e+001  -1.116367e+001 
3118750000  -4.093615e+001  -1.791048e+001 
3121875000  -4.025857e+001  -2.928884e+001 
3125000000  -4.215876e+001  -3.465744e+001 
3128125000  -4.194770e+001  -2.783836e+001 
3131250000  -3.956756e+001  -3.561307e+001 
3134375000  -3.899654e+001  -5.366548e+001 
3137500000  -3.941508e+001  -6.700910e+001 
3140625000  -4.095098e+001  -7.167754e+001 
3143750000  -4.161733e+001  -7.761808e+001 
3146875000  -4.113194e+001  -7.403246e+001 
3150000000  -4.048029e+001  -7.852988e+001 
3153125000  -4.062757e+001  -8.775317e+001 
3156250000  -4.136747e+001  -8.690148e+001 
3159375000  -3.917848e+001  -8.973322e+001 
3162500000  -3.779414e+001  -1.050820e+002 
3165625000  -3.898373e+001  -1.187371e+002 
3168750000  -3.916004e+001  -1.212413e+002 
3171875000  -3.861411e+001  -1.297366e+002 
3175000000  -3.924753e+001  -1.395414e+002 
3178125000  -3.885487e+001  -1.422184e+002 
3181250000  -3.808101e+001  -1.505173e+002 
3184375000  -3.812671e+001  -1.638314e+002 
3187500000  -3.935330e+001  -1.787876e+002 
3190625000  -4.097598e+001  1.738728e+002 
3193750000  -4.108760e+001  1.773239e+002 
3196875000  -4.115838e+001  1.767366e+002 
3200000000  -4.003000e+001  1.717619e+002 
3203125000  -3.972038e+001  1.642548e+002 
3206250000  -3.992683e+001  1.557097e+002 
3209375000  -3.957336e+001  1.457419e+002 
3212500000  -4.013270e+001  1.381222e+002 
3215625000  -3.966348e+001  1.366892e+002 
3218750000  -4.037313e+001  1.238462e+002 
3221875000  -4.068606e+001  1.149054e+002 
3225000000  -4.047894e+001  1.111852e+002 
3228125000  -4.106808e+001  1.034154e+002 
3231250000  -4.158719e+001  1.007687e+002 
3234375000  -4.113788e+001  9.686853e+001 
3237500000  -4.108465e+001  9.296284e+001 
3240625000  -4.047108e+001  8.592804e+001 
3243750000  -4.047417e+001  7.401997e+001 
3246875000  -4.083748e+001  6.662555e+001 
3250000000  -4.138800e+001  6.187150e+001 
3253125000  -4.107925e+001  5.688181e+001 
3256250000  -4.042177e+001  4.776488e+001 
3259375000  -4.108276e+001  3.360419e+001 
3262500000  -4.263376e+001  2.954989e+001 
3265625000  -4.262786e+001  3.160197e+001 
3268750000  -4.240316e+001  2.939865e+001 
3271875000  -4.159589e+001  2.216670e+001 
3275000000  -4.117405e+001  1.088886e+001 
3278125000  -4.184897e+001  7.269535e+000 
3281250000  -4.198026e+001  1.891225e+000 
3284375000  -4.117496e+001  -5.891124e+000 
3287500000  -4.136415e+001  -1.210382e+001 
3290625000  -4.178494e+001  -2.229014e+001 
3293750000  -4.154334e+001  -3.178497e+001 
3296875000  -4.291005e+001  -3.654516e+001 
3300000000  -4.196461e+001  -3.738540e+001 
3303125000  -4.106127e+001  -4.827716e+001 
3306250000  -4.094703e+001  -5.746022e+001 
3309375000  -4.074256e+001  -6.986180e+001 
3312500000  -4.125201e+001  -8.321268e+001 
3315625000  -4.249747e+001  -9.118047e+001 
3318750000  -4.404490e+001  -9.584821e+001 
3321875000  -4.540093e+001  -9.858611e+001 
3325000000  -4.512717e+001  -9.309426e+001 
3328125000  -4.425957e+001  -9.563558e+001 
3331250000  -4.266587e+001  -9.605795e+001 
3334375000  -4.026508e+001  -1.137155e+002 
3337500000  -4.099716e+001  -1.379633e+002 
3340625000  -4.314578e+001  -1.491195e+002 
3343750000  -4.489038e+001  -1.532277e+002 
3346875000  -4.400467e+001  -1.543747e+002 
3350000000  -4.377375e+001  -1.602364e+002 
3353125000  -4.368278e+001  -1.687722e+002 
3356250000  -4.368670e+001  -1.782751e+002 
3359375000  -4.467561e+001  1.670195e+002 
3362500000  -4.518943e+001  1.608898e+002 
3365625000  -4.605457e+001  1.545597e+002 
3368750000  -4.663971e+001  1.499936e+002 
3371875000  -4.713116e+001  1.439192e+002 
3375000000  -4.836991e+001  1.349712e+002 
3378125000  -4.966997e+001  1.374889e+002 
3381250000  -5.068537e+001  1.460581e+002 
3384375000  -4.775748e+001  1.541896e+002 
3387500000  -4.516198e+001  1.279453e+002 
3390625000  -4.667806e+001  1.043072e+002 
3393750000  -4.793910e+001  1.076579e+002 
3396875000  -4.654190e+001  1.028823e+002 
3400000000  -4.628965e+001  8.997561e+001 
3403125000  -4.710979e+001  8.155554e+001 
3406250000  -4.786419e+001  7.291550e+001 
3409375000  -4.717797e+001  6.388247e+001 
3412500000  -4.768811e+001  5.460994e+001 
3415625000  -4.896852e+001  5.170793e+001 
3418750000  -4.857003e+001  4.796578e+001 
3421875000  -4.922143e+001  4.388216e+001 
3425000000  -4.810100e+001  3.688196e+001 
3428125000  -4.741319e+001  2.992105e+001 
3431250000  -4.715880e+001  1.936904e+001 
3434375000  -4.660497e+001  5.455981e+000 
3437500000  -4.726985e+001  -3.335771e+000 
3440625000  -4.842504e+001  -6.144370e+000 
3443750000  -4.636179e+001  -9.964345e+000 
3446875000  -4.600857e+001  -2.456794e+001 
3450000000  -4.522161e+001  -4.140611e+001 
3453125000  -4.599872e+001  -5.778275e+001 
3456250000  -4.753581e+001  -6.905894e+001 
3459375000  -4.793773e+001  -7.003865e+001 
3462500000  -4.790621e+001  -7.908582e+001 
3465625000  -4.699806e+001  -8.677864e+001 
3468750000  -4.765795e+001  -9.535205e+001 
3471875000  -4.691851e+001  -9.896207e+001 
3475000000  -4.744162e+001  -1.099120e+002 
3478125000  -4.787029e+001  -1.272566e+002 
3481250000  -4.900557e+001  -1.320899e+002 
3484375000  -4.814987e+001  -1.292228e+002 
3487500000  -4.719238e+001  -1.380273e+002 
3490625000  -4.720455e+001  -1.504750e+002 
3493750000  -4.796979e+001  -1.637104e+002 
3496875000  -4.814436e+001  -1.670517e+002 
3500000000  -4.846991e+001  -1.696470e+002 
3503125000  -4.677172e+001  -1.721524e+002 
3506250000  -4.530091e+001  1.738643e+002 
3509375000  -4.563375e+001  1.555822e+002 
3512500000  -4.584632e+001  1.387336e+002 
3515625000  -4.720665e+001  1.329774e+002 
3518750000  -4.726559e+001  1.300309e+002 
3521875000  -4.790055e+001  1.221547e+002 
3525000000  -4.884804e+001  1.151472e+002 
3528125000  -4.765261e+001  1.197007e+002 
3531250000  -4.668351e+001  1.076585e+002 
3534375000  -4.731926e+001  9.219726e+001 
3537500000  -4.797355e+001  8.204335e+001 
3540625000  -4.898570e+001  7.697837e+001 
3543750000  -5.004818e+001  8.277708e+001 
3546875000  -4.866043e+001  8.276041e+001 
3550000000  -4.631627e+001  7.775521e+001 
3553125000  -4.618028e+001  5.831378e+001 
3556250000  -4.727790e+001  4.792919e+001 
3559375000  -4.615628e+001  4.701612e+001 
3562500000  -4.672907e+001  3.574002e+001 
3565625000  -4.698767e+001  2.734600e+001 
3568750000  -4.730507e+001  2.878773e+001 
3571875000  -4.731086e+001  2.283196e+001 
3575000000  -4.690563e+001  1.168176e+001 
3578125000  -4.745776e+001  9.829988e+000 
3581250000  -4.795145e+001  7.866792e+000 
3584375000  -4.647926e+001  1.878336e+000 
3587500000  -4.587977e+001  -1.377194e+001 
3590625000  -4.656385e+001  -2.380124e+001 
3593750000  -4.809595e+001  -2.516351e+001 
3596875000  -4.687015e+001  -1.713673e+001 
3600000000  -4.480168e+001  -2.824228e+001 
3603125000  -4.503283e+001  -4.874712e+001 
3606250000  -4.602186e+001  -4.848918e+001 
3609375000  -4.647708e+001  -5.188385e+001 
3612500000  -4.591752e+001  -5.927773e+001 
3615625000  -4.638023e+001  -6.472808e+001 
3618750000  -4.630795e+001  -6.750275e+001 
3621875000  -4.561337e+001  -7.492847e+001 
3625000000  -4.541824e+001  -7.959666e+001 
3628125000  -4.476167e+001  -8.362411e+001 
3631250000  -4.519495e+001  -9.224316e+001 
3634375000  -4.525148e+001  -9.718140e+001 
3637500000  -4.434537e+001  -9.646452e+001 
3640625000  -4.377900e+001  -1.034605e+002 
3643750000  -4.329600e+001  -1.155192e+002 
3646875000  -4.386101e+001  -1.244398e+002 
3650000000  -4.375681e+001  -1.298671e+002 
3653125000  -4.333910e+001  -1.382751e+002 
3656250000  -4.432722e+001  -1.452619e+002 
3659375000  -4.367393e+001  -1.489855e+002 
3662500000  -4.339000e+001  -1.565316e+002 
3665625000  -4.347507e+001  -1.603545e+002 
3668750000  -4.248861e+001  -1.656159e+002 
3671875000  -4.158094e+001  -1.771795e+002 
3675000000  -4.209902e+001  1.736291e+002 
3678125000  -4.242339e+001  1.678607e+002 
3681250000  -4.230037e+001  1.591698e+002 
3684375000  -4.253612e+001  1.533475e+002 
3687500000  -4.261211e+001  1.430348e+002 
3690625000  -4.379718e+001  1.362344e+002 
3693750000  -4.482902e+001  1.365411e+002 
3696875000  -4.404283e+001  1.328039e+002 
3700000000  -4.290254e+001  1.263175e+002 
3703125000  -4.377051e+001  1.179496e+002 
3706250000  -4.483113e+001  1.139460e+002 
3709375000  -4.382639e+001  1.134430e+002 
3712500000  -4.293429e+001  1.071524e+002 
3715625000  -4.172459e+001  9.862439e+001 
3718750000  -4.204317e+001  8.980889e+001 
3721875000  -4.187780e+001  8.235023e+001 
3725000000  -4.265202e+001  7.319194e+001 
3728125000  -4.255635e+001  7.025193e+001 
3731250000  -4.202427e+001  6.474019e+001 
3734375000  -4.229978e+001  5.662975e+001 
3737500000  -4.305441e+001  4.638693e+001 
3740625000  -4.343154e+001  4.117311e+001 
3743750000  -4.293172e+001  3.432003e+001 
3746875000  -4.340852e+001  2.919929e+001 
3750000000  -4.380924e+001  2.564276e+001 
3753125000  -4.394019e+001  2.418697e+001 
3756250000  -4.406639e+001  1.759361e+001 
3759375000  -4.365867e+001  1.257488e+001 
3762500000  -4.328828e+001  8.792678e+000 
3765625000  -4.402694e+001  2.415525e+000 
3768750000  -4.359735e+001  4.890787e+000 
3771875000  -4.203164e+001  -4.472175e+000 
3775000000  -4.230053e+001  -1.485053e+001 
3778125000  -4.257879e+001  -2.030572e+001 
3781250000  -4.281463e+001  -2.472811e+001 
3784375000  -4.273663e+001  -3.228009e+001 
3787500000  -4.249495e+001  -3.751816e+001 
3790625000  -4.322901e+001  -4.395897e+001 
3793750000  -4.269251e+001  -4.891085e+001 
3796875000  -4.188641e+001  -5.473127e+001 
3800000000  -4.064874e+001  -6.368766e+001 
3803125000  -4.166978e+001  -7.340942e+001 
3806250000  -4.245612e+001  -7.843864e+001 
3809375000  -4.191798e+001  -8.588496e+001 
3812500000  -4.187505e+001  -9.505569e+001 
3815625000  -4.270798e+001  -1.069587e+002 
3818750000  -4.434263e+001  -1.056738e+002 
3821875000  -4.391731e+001  -9.736359e+001 
3825000000  -4.170843e+001  -1.008422e+002 
3828125000  -4.063214e+001  -1.204544e+002 
3831250000  -4.168431e+001  -1.356560e+002 
3834375000  -4.369658e+001  -1.369108e+002 
3837500000  -4.397211e+001  -1.350829e+002 
3840625000  -4.248050e+001  -1.414232e+002 
3843750000  -4.184388e+001  -1.558420e+002 
3846875000  -4.318632e+001  -1.634858e+002 
3850000000  -4.417232e+001  -1.564812e+002 
3853125000  -4.389473e+001  -1.605486e+002 
3856250000  -4.289997e+001  -1.684592e+002 
3859375000  -4.231310e+001  -1.766548e+002 
3862500000  -4.231816e+001  1.746081e+002 
3865625000  -4.268961e+001  1.678059e+002 
3868750000  -4.244538e+001  1.675331e+002 
3871875000  -4.187302e+001  1.554494e+002 
3875000000  -4.297088e+001  1.440566e+002 
3878125000  -4.355573e+001  1.452697e+002 
3881250000  -4.319907e+001  1.419416e+002 
3884375000  -4.252623e+001  1.321828e+002 
3887500000  -4.375463e+001  1.261468e+002 
3890625000  -4.371772e+001  1.228612e+002 
3893750000  -4.455677e+001  1.184366e+002 
3896875000  -4.419399e+001  1.202126e+002 
3900000000  -4.414280e+001  1.100238e+002 
3903125000  -4.390026e+001  1.057082e+002 
3906250000  -4.323784e+001  1.028289e+002 
3909375000  -4.276344e+001  9.274261e+001 
3912500000  -4.413065e+001  8.350491e+001 
3915625000  -4.463905e+001  8.392847e+001 
3918750000  -4.482283e+001  8.332639e+001 
3921875000  -4.401773e+001  7.747861e+001 
3925000000  -4.324699e+001  6.916234e+001 
3928125000  -4.277794e+001  6.291090e+001 
3931250000  -4.398746e+001  5.432792e+001 
3934375000  -4.406319e+001  4.994082e+001 
3937500000  -4.504223e+001  4.979526e+001 
3940625000  -4.460426e+001  4.855666e+001 
3943750000  -4.366521e+001  3.980487e+001 
3946875000  -4.297844e+001  3.133426e+001 
3950000000  -4.348327e+001  2.582088e+001 
3953125000  -4.455724e+001  2.760836e+001 
3956250000  -4.331781e+001  2.411640e+001 
3959375000  -4.190093e+001  1.716970e+001 
3962500000  -4.152859e+001  6.252551e+000 
3965625000  -4.250011e+001  -3.271698e+000 
3968750000  -4.282015e+001  -1.075787e+001 
3971875000  -4.255317e+001  -1.402725e+001 
3975000000  -4.215596e+001  -2.075340e+001 
3978125000  -4.224594e+001  -2.747704e+001 
3981250000  -4.212304e+001  -3.502999e+001 
3984375000  -4.269883e+001  -4.323837e+001 
3987500000  -4.279091e+001  -4.758836e+001 
3990625000  -4.299639e+001  -5.235089e+001 
3993750000  -4.344899e+001  -5.861720e+001 
3996875000  -4.316273e+001  -6.446667e+001 
4000000000  -4.357901e+001  -6.748695e+001 
4003125000  -4.410964e+001  -7.000284e+001 
4006250000  -4.210497e+001  -7.531320e+001 
4009375000  -4.138976e+001  -9.032937e+001 
4012500000  -4.329782e+001  -9.843252e+001 
4015625000  -4.434827e+001  -9.940442e+001 
4018750000  -4.373123e+001  -1.048219e+002 
4021875000  -4.323730e+001  -1.105232e+002 
4025000000  -4.333295e+001  -1.172646e+002 
4028125000  -4.357551e+001  -1.258638e+002 
4031250000  -4.429630e+001  -1.327003e+002 
4034375000  -4.428804e+001  -1.355097e+002 
4037500000  -4.445191e+001  -1.377312e+002 
4040625000  -4.473842e+001  -1.423994e+002 
4043750000  -4.494789e+001  -1.454232e+002 
4046875000  -4.458306e+001  -1.519059e+002 
4050000000  -4.461780e+001  -1.605000e+002 
4053125000  -4.559671e+001  -1.650225e+002 
4056250000  -4.564892e+001  -1.599530e+002 
4059375000  -4.441277e+001  -1.613542e+002 
4062500000  -4.361788e+001  -1.703678e+002 
4065625000  -4.398473e+001  -1.747029e+002 
4068750000  -4.351440e+001  1.745202e+002 
4071875000  -4.351558e+001  1.645689e+002 
4075000000  -4.369059e+001  1.557301e+002 
4078125000  -4.430685e+001  1.572526e+002 
4081250000  -4.349545e+001  1.488193e+002 
4084375000  -4.357478e+001  1.421224e+002 
4087500000  -4.430360e+001  1.344156e+002 
4090625000  -4.525289e+001  1.323965e+002 
4093750000  -4.510727e+001  1.286395e+002 
4096875000  -4.452588e+001  1.212406e+002 
4100000000  -4.544742e+001  1.142175e+002 
4103125000  -4.587738e+001  1.190226e+002 
4106250000  -4.569202e+001  1.196445e+002 
4109375000  -4.498944e+001  1.135884e+002 
4112500000  -4.472238e+001  1.040481e+002 
4115625000  -4.454384e+001  9.979740e+001 
4118750000  -4.430544e+001  9.469430e+001 
4121875000  -4.404314e+001  8.709093e+001 
4125000000  -4.506384e+001  8.209180e+001 
4128125000  -4.578198e+001  8.346833e+001 
4131250000  -4.441615e+001  8.653416e+001 
4134375000  -4.219627e+001  7.549426e+001 
4137500000  -4.237652e+001  5.507594e+001 
4140625000  -4.439409e+001  4.581301e+001 
4143750000  -4.498446e+001  4.982924e+001 
4146875000  -4.416203e+001  5.388501e+001 
4150000000  -4.307945e+001  4.508817e+001 
4153125000  -4.358784e+001  3.533260e+001 
4156250000  -4.446025e+001  3.063649e+001 
4159375000  -4.406161e+001  3.365443e+001 
4162500000  -4.299184e+001  3.201826e+001 
4165625000  -4.203977e+001  2.014904e+001 
4168750000  -4.156682e+001  1.240213e+001 
4171875000  -4.153724e+001  7.253615e-001 
4175000000  -4.225874e+001  -8.928433e+000 
4178125000  -4.296418e+001  -1.257637e+001 
4181250000  -4.278444e+001  -1.910092e+001 
4184375000  -4.283330e+001  -2.482280e+001 
4187500000  -4.279062e+001  -3.303326e+001 
4190625000  -4.292639e+001  -4.327258e+001 
4193750000  -4.445872e+001  -4.601223e+001 
4196875000  -4.562023e+001  -5.010747e+001 
4200000000  -4.621066e+001  -4.419758e+001 
4203125000  -4.426284e+001  -2.998026e+001 
4206250000  -4.128089e+001  -4.509761e+001 
4209375000  -4.183543e+001  -6.850427e+001 
4212500000  -4.412967e+001  -7.260218e+001 
4215625000  -4.492444e+001  -7.126073e+001 
4218750000  -4.279181e+001  -6.669409e+001 
4221875000  -4.151128e+001  -7.929375e+001 
4225000000  -4.282494e+001  -9.503088e+001 
4228125000  -4.263735e+001  -8.671710e+001 
4231250000  -4.181068e+001  -9.993539e+001 
4234375000  -4.184877e+001  -1.091171e+002 
4237500000  -4.166104e+001  -1.162793e+002 
4240625000  -4.162111e+001  -1.245672e+002 
4243750000  -4.291974e+001  -1.328582e+002 
4246875000  -4.346646e+001  -1.341852e+002 
4250000000  -4.313503e+001  -1.336826e+002 
4253125000  -4.345366e+001  -1.350897e+002 
4256250000  -4.242058e+001  -1.452677e+002 
4259375000  -4.266138e+001  -1.493964e+002 
4262500000  -4.270975e+001  -1.549556e+002 
4265625000  -4.271921e+001  -1.544224e+002 
4268750000  -4.129403e+001  -1.618210e+002 
4271875000  -4.127331e+001  -1.748840e+002 
4275000000  -4.083708e+001  1.788745e+002 
4278125000  -4.168829e+001  1.637074e+002 
4281250000  -4.285708e+001  1.614217e+002 
4284375000  -4.285610e+001  1.572055e+002 
4287500000  -4.408543e+001  1.552251e+002 
4290625000  -4.418705e+001  1.631358e+002 
4293750000  -4.223494e+001  1.620603e+002 
4296875000  -4.079745e+001  1.479082e+002 
4300000000  -4.193416e+001  1.371017e+002 
4303125000  -4.220810e+001  1.370703e+002 
4306250000  -4.125957e+001  1.375639e+002 
4309375000  -3.982551e+001  1.268381e+002 
4312500000  -4.020061e+001  1.142636e+002 
4315625000  -4.080733e+001  1.041248e+002 
4318750000  -4.124221e+001  9.866449e+001 
4321875000  -4.131975e+001  9.639352e+001 
4325000000  -4.033442e+001  9.379564e+001 
4328125000  -3.968671e+001  8.300228e+001 
4331250000  -4.039770e+001  6.881717e+001 
4334375000  -4.137873e+001  6.277654e+001 
4337500000  -4.237910e+001  6.112015e+001 
4340625000  -4.288865e+001  6.256535e+001 
4343750000  -4.196112e+001  5.745807e+001 
4346875000  -4.139416e+001  4.555220e+001 
4350000000  -4.175474e+001  3.839207e+001 
4353125000  -4.241829e+001  3.083681e+001 
4356250000  -4.450096e+001  3.414037e+001 
4359375000  -4.304623e+001  4.829988e+001 
4362500000  -3.994748e+001  3.698932e+001 
4365625000  -3.958867e+001  1.867601e+001 
4368750000  -4.091648e+001  7.333792e+000 
4371875000  -4.180053e+001  7.433372e+000 
4375000000  -4.109684e+001  -2.352157e-001 
4378125000  -4.100592e+001  -9.146664e+000 
4381250000  -4.131593e+001  -1.681949e+001 
4384375000  -4.105396e+001  -2.391094e+001 
4387500000  -4.214834e+001  -3.042029e+001 
4390625000  -4.292423e+001  -3.404871e+001 
4393750000  -4.219368e+001  -3.551623e+001 
4396875000  -4.186024e+001  -3.659435e+001 
4400000000  -4.117725e+001  -4.903563e+001 
4403125000  -4.207994e+001  -5.943681e+001 
4406250000  -4.271391e+001  -6.350991e+001 
4409375000  -4.309804e+001  -6.560754e+001 
4412500000  -4.453793e+001  -6.868427e+001 
4415625000  -4.399709e+001  -6.596974e+001 
4418750000  -4.243671e+001  -6.661411e+001 
