!Agilent Technologies,E8363B,MY43030201,A.06.04.32
!Agilent E8363B: A.06.04.32
!Date: Tuesday, November 11, 2014 21:51:43
!Correction: S21(Response(S21)) 
!S1P File: Measurement: S21:
# Hz S  dB   R 50
3000000000  -4.374783e+001  -1.614985e+002 
3003125000  -4.541797e+001  -1.666462e+002 
3006250000  -4.534927e+001  -1.686002e+002 
3009375000  -4.618859e+001  -1.644505e+002 
3012500000  -4.510699e+001  -1.728441e+002 
3015625000  -4.520942e+001  -1.788886e+002 
3018750000  -4.545083e+001  1.796767e+002 
3021875000  -4.383021e+001  -1.788990e+002 
3025000000  -4.270225e+001  1.763094e+002 
3028125000  -4.170101e+001  1.624551e+002 
3031250000  -4.093313e+001  1.503137e+002 
3034375000  -4.076475e+001  1.372145e+002 
3037500000  -4.178664e+001  1.264927e+002 
3040625000  -4.295651e+001  1.191282e+002 
3043750000  -4.329505e+001  1.116896e+002 
3046875000  -4.413219e+001  1.060155e+002 
3050000000  -4.508031e+001  1.023971e+002 
3053125000  -4.465821e+001  1.038655e+002 
3056250000  -4.468079e+001  1.071247e+002 
3059375000  -4.421540e+001  1.048163e+002 
3062500000  -4.246928e+001  9.838661e+001 
3065625000  -4.235138e+001  8.896407e+001 
3068750000  -4.195236e+001  7.913173e+001 
3071875000  -4.177911e+001  7.746252e+001 
3075000000  -4.117165e+001  6.995821e+001 
3078125000  -4.120534e+001  6.347927e+001 
3081250000  -4.152237e+001  5.573712e+001 
3084375000  -4.043917e+001  4.957175e+001 
3087500000  -4.072393e+001  4.245773e+001 
3090625000  -3.994426e+001  2.971090e+001 
3093750000  -4.099076e+001  1.976640e+001 
3096875000  -4.116002e+001  1.558936e+001 
3100000000  -4.113721e+001  1.007035e+001 
3103125000  -4.133672e+001  5.313902e+000 
3106250000  -4.108879e+001  1.274748e-001 
3109375000  -4.103303e+001  -4.473073e+000 
3112500000  -4.106047e+001  -1.184921e+001 
3115625000  -4.081605e+001  -1.654466e+001 
3118750000  -4.076391e+001  -2.234435e+001 
3121875000  -4.017426e+001  -3.429608e+001 
3125000000  -4.224319e+001  -3.692509e+001 
3128125000  -4.174648e+001  -3.226706e+001 
3131250000  -3.937754e+001  -3.937466e+001 
3134375000  -3.877487e+001  -5.713266e+001 
3137500000  -3.959768e+001  -7.081536e+001 
3140625000  -4.102142e+001  -7.504370e+001 
3143750000  -4.147420e+001  -7.891456e+001 
3146875000  -4.109490e+001  -7.678682e+001 
3150000000  -4.031042e+001  -8.371807e+001 
3153125000  -4.067057e+001  -9.257301e+001 
3156250000  -4.154516e+001  -8.904829e+001 
3159375000  -3.913919e+001  -9.428835e+001 
3162500000  -3.767001e+001  -1.096026e+002 
3165625000  -3.889170e+001  -1.234358e+002 
3168750000  -3.895184e+001  -1.253526e+002 
3171875000  -3.852699e+001  -1.334827e+002 
3175000000  -3.911037e+001  -1.446699e+002 
3178125000  -3.865652e+001  -1.459744e+002 
3181250000  -3.802610e+001  -1.559557e+002 
3184375000  -3.785938e+001  -1.672956e+002 
3187500000  -3.923034e+001  1.759501e+002 
3190625000  -4.067349e+001  1.713776e+002 
3193750000  -4.120470e+001  1.736403e+002 
3196875000  -4.116152e+001  1.731567e+002 
3200000000  -3.972092e+001  1.675723e+002 
3203125000  -3.946798e+001  1.601650e+002 
3206250000  -3.989051e+001  1.512515e+002 
3209375000  -3.957731e+001  1.419393e+002 
3212500000  -4.000971e+001  1.340461e+002 
3215625000  -3.969135e+001  1.331188e+002 
3218750000  -4.034974e+001  1.201446e+002 
3221875000  -4.034694e+001  1.124761e+002 
3225000000  -4.044030e+001  1.073338e+002 
3228125000  -4.090672e+001  9.786611e+001 
3231250000  -4.154081e+001  9.651517e+001 
3234375000  -4.110880e+001  9.308393e+001 
3237500000  -4.106702e+001  8.834005e+001 
3240625000  -4.037923e+001  8.148306e+001 
3243750000  -4.029041e+001  6.969025e+001 
3246875000  -4.067801e+001  6.394542e+001 
3250000000  -4.092025e+001  5.780835e+001 
3253125000  -4.126520e+001  5.386834e+001 
3256250000  -4.032039e+001  4.358813e+001 
3259375000  -4.104267e+001  3.064086e+001 
3262500000  -4.224821e+001  2.565299e+001 
3265625000  -4.270789e+001  2.623614e+001 
3268750000  -4.258090e+001  2.546520e+001 
3271875000  -4.157697e+001  1.977015e+001 
3275000000  -4.107745e+001  9.115954e+000 
3278125000  -4.192150e+001  2.943024e+000 
3281250000  -4.184364e+001  -1.000587e+000 
3284375000  -4.099265e+001  -8.450742e+000 
3287500000  -4.155501e+001  -1.712677e+001 
3290625000  -4.143410e+001  -2.679767e+001 
3293750000  -4.169970e+001  -3.462553e+001 
3296875000  -4.271416e+001  -3.920535e+001 
3300000000  -4.202361e+001  -4.144582e+001 
3303125000  -4.091355e+001  -5.080738e+001 
3306250000  -4.089955e+001  -6.114003e+001 
3309375000  -4.059842e+001  -7.209653e+001 
3312500000  -4.126830e+001  -8.779256e+001 
3315625000  -4.249274e+001  -9.646676e+001 
3318750000  -4.388318e+001  -1.012459e+002 
3321875000  -4.522491e+001  -1.010537e+002 
3325000000  -4.544603e+001  -9.591968e+001 
3328125000  -4.414589e+001  -1.004445e+002 
3331250000  -4.259011e+001  -1.008276e+002 
3334375000  -3.989308e+001  -1.181889e+002 
3337500000  -4.070840e+001  -1.425451e+002 
3340625000  -4.261264e+001  -1.545052e+002 
3343750000  -4.449659e+001  -1.538085e+002 
3346875000  -4.385402e+001  -1.560948e+002 
3350000000  -4.369709e+001  -1.625985e+002 
3353125000  -4.386907e+001  -1.726629e+002 
3356250000  -4.313688e+001  1.775471e+002 
3359375000  -4.420622e+001  1.622249e+002 
3362500000  -4.477573e+001  1.570847e+002 
3365625000  -4.590488e+001  1.513502e+002 
3368750000  -4.633939e+001  1.455844e+002 
3371875000  -4.717684e+001  1.385014e+002 
3375000000  -4.836327e+001  1.339737e+002 
3378125000  -4.886789e+001  1.313916e+002 
3381250000  -5.004343e+001  1.441822e+002 
3384375000  -4.756688e+001  1.531433e+002 
3387500000  -4.452655e+001  1.272580e+002 
3390625000  -4.707773e+001  1.085326e+002 
3393750000  -4.753516e+001  1.011132e+002 
3396875000  -4.617569e+001  1.002465e+002 
3400000000  -4.601128e+001  8.765520e+001 
3403125000  -4.676224e+001  7.779025e+001 
3406250000  -4.751892e+001  7.158824e+001 
3409375000  -4.704464e+001  5.772463e+001 
3412500000  -4.788747e+001  5.264042e+001 
3415625000  -4.862079e+001  4.907632e+001 
3418750000  -4.892371e+001  4.391611e+001 
3421875000  -4.944767e+001  3.987590e+001 
3425000000  -4.775979e+001  3.387595e+001 
3428125000  -4.752066e+001  2.711621e+001 
3431250000  -4.681796e+001  1.221809e+001 
3434375000  -4.676410e+001  1.599104e+000 
3437500000  -4.779974e+001  -7.606989e+000 
3440625000  -4.758034e+001  -1.011821e+001 
3443750000  -4.643277e+001  -1.494817e+001 
3446875000  -4.608220e+001  -2.909809e+001 
3450000000  -4.504606e+001  -4.295591e+001 
3453125000  -4.567154e+001  -6.088651e+001 
3456250000  -4.730756e+001  -7.206100e+001 
3459375000  -4.787346e+001  -7.225547e+001 
3462500000  -4.813254e+001  -7.566436e+001 
3465625000  -4.733625e+001  -9.127785e+001 
3468750000  -4.768863e+001  -9.629432e+001 
3471875000  -4.742085e+001  -1.028450e+002 
3475000000  -4.701135e+001  -1.187104e+002 
3478125000  -4.769663e+001  -1.311286e+002 
3481250000  -4.924561e+001  -1.375334e+002 
3484375000  -4.881069e+001  -1.342652e+002 
3487500000  -4.734309e+001  -1.428098e+002 
3490625000  -4.691958e+001  -1.564491e+002 
3493750000  -4.833147e+001  -1.708829e+002 
3496875000  -4.806025e+001  -1.729354e+002 
3500000000  -4.831869e+001  -1.757034e+002 
3503125000  -4.707279e+001  -1.762686e+002 
3506250000  -4.571287e+001  1.710729e+002 
3509375000  -4.562827e+001  1.501246e+002 
3512500000  -4.657592e+001  1.343170e+002 
3515625000  -4.753402e+001  1.310092e+002 
3518750000  -4.804026e+001  1.281079e+002 
3521875000  -4.786972e+001  1.158834e+002 
3525000000  -4.905135e+001  1.156309e+002 
3528125000  -4.819231e+001  1.194659e+002 
3531250000  -4.678981e+001  1.028077e+002 
3534375000  -4.661280e+001  8.652811e+001 
3537500000  -4.765269e+001  7.802188e+001 
3540625000  -4.918037e+001  7.619878e+001 
3543750000  -4.892878e+001  8.182397e+001 
3546875000  -4.853114e+001  8.422684e+001 
3550000000  -4.654869e+001  7.422247e+001 
3553125000  -4.598020e+001  5.539778e+001 
3556250000  -4.755830e+001  4.427354e+001 
3559375000  -4.674204e+001  4.255706e+001 
3562500000  -4.656962e+001  3.306360e+001 
3565625000  -4.729541e+001  2.421899e+001 
3568750000  -4.840124e+001  1.690880e+001 
3571875000  -4.728454e+001  1.684645e+001 
3575000000  -4.704755e+001  8.057951e+000 
3578125000  -4.778532e+001  3.793688e+000 
3581250000  -4.722564e+001  1.630184e-001 
3584375000  -4.677070e+001  -3.925899e+000 
3587500000  -4.584972e+001  -1.788071e+001 
3590625000  -4.660938e+001  -2.677316e+001 
3593750000  -4.816081e+001  -2.654922e+001 
3596875000  -4.699152e+001  -2.452582e+001 
3600000000  -4.449498e+001  -3.628942e+001 
3603125000  -4.526974e+001  -4.987449e+001 
3606250000  -4.621979e+001  -5.576077e+001 
3609375000  -4.584290e+001  -5.940847e+001 
3612500000  -4.594957e+001  -6.631512e+001 
3615625000  -4.638127e+001  -6.993402e+001 
3618750000  -4.649027e+001  -7.294929e+001 
3621875000  -4.556067e+001  -8.010555e+001 
3625000000  -4.614413e+001  -8.252158e+001 
3628125000  -4.482596e+001  -9.061003e+001 
3631250000  -4.514093e+001  -9.936353e+001 
3634375000  -4.572812e+001  -9.940388e+001 
3637500000  -4.457809e+001  -1.029678e+002 
3640625000  -4.376229e+001  -1.069831e+002 
3643750000  -4.303391e+001  -1.183278e+002 
3646875000  -4.394091e+001  -1.327756e+002 
3650000000  -4.386680e+001  -1.353609e+002 
3653125000  -4.318551e+001  -1.446933e+002 
3656250000  -4.403101e+001  -1.493015e+002 
3659375000  -4.373733e+001  -1.553948e+002 
3662500000  -4.311160e+001  -1.625396e+002 
3665625000  -4.340478e+001  -1.673262e+002 
3668750000  -4.183897e+001  -1.691268e+002 
3671875000  -4.185844e+001  1.757525e+002 
3675000000  -4.227272e+001  1.656359e+002 
3678125000  -4.261105e+001  1.605473e+002 
3681250000  -4.248835e+001  1.554842e+002 
3684375000  -4.254810e+001  1.467864e+002 
3687500000  -4.288410e+001  1.382841e+002 
3690625000  -4.357034e+001  1.328890e+002 
3693750000  -4.456881e+001  1.322835e+002 
3696875000  -4.362502e+001  1.273432e+002 
3700000000  -4.291552e+001  1.198110e+002 
3703125000  -4.366584e+001  1.138181e+002 
3706250000  -4.442863e+001  1.091479e+002 
3709375000  -4.410136e+001  1.080401e+002 
3712500000  -4.299113e+001  1.025928e+002 
3715625000  -4.171901e+001  9.432105e+001 
3718750000  -4.172870e+001  8.344104e+001 
3721875000  -4.149895e+001  7.469738e+001 
3725000000  -4.235271e+001  6.623743e+001 
3728125000  -4.258360e+001  6.384053e+001 
3731250000  -4.191561e+001  5.683320e+001 
3734375000  -4.186731e+001  4.996998e+001 
3737500000  -4.268490e+001  4.076701e+001 
3740625000  -4.273186e+001  3.555527e+001 
3743750000  -4.287482e+001  2.987256e+001 
3746875000  -4.308638e+001  2.137307e+001 
3750000000  -4.380378e+001  1.896013e+001 
3753125000  -4.385201e+001  1.657062e+001 
3756250000  -4.398197e+001  1.274807e+001 
3759375000  -4.356889e+001  5.929420e+000 
3762500000  -4.332645e+001  1.751573e+000 
3765625000  -4.414223e+001  -7.257083e+000 
3768750000  -4.326555e+001  -1.324864e-001 
3771875000  -4.184303e+001  -1.166897e+001 
3775000000  -4.207092e+001  -2.319938e+001 
3778125000  -4.270834e+001  -2.777352e+001 
3781250000  -4.259372e+001  -3.254286e+001 
3784375000  -4.208300e+001  -3.711118e+001 
3787500000  -4.256649e+001  -4.439570e+001 
3790625000  -4.268335e+001  -5.211029e+001 
3793750000  -4.257921e+001  -5.603125e+001 
3796875000  -4.149497e+001  -6.206012e+001 
3800000000  -4.076466e+001  -6.917643e+001 
3803125000  -4.150257e+001  -8.123775e+001 
3806250000  -4.255694e+001  -8.665314e+001 
3809375000  -4.157205e+001  -9.040505e+001 
3812500000  -4.201740e+001  -1.033500e+002 
3815625000  -4.320746e+001  -1.127979e+002 
3818750000  -4.445290e+001  -1.078327e+002 
3821875000  -4.354959e+001  -1.001956e+002 
3825000000  -4.123608e+001  -1.047996e+002 
3828125000  -4.082016e+001  -1.286898e+002 
3831250000  -4.130962e+001  -1.427836e+002 
3834375000  -4.335445e+001  -1.413809e+002 
3837500000  -4.400374e+001  -1.406713e+002 
3840625000  -4.252900e+001  -1.456463e+002 
3843750000  -4.193830e+001  -1.595039e+002 
3846875000  -4.333752e+001  -1.687167e+002 
3850000000  -4.399915e+001  -1.624250e+002 
3853125000  -4.388571e+001  -1.655497e+002 
3856250000  -4.306537e+001  -1.717312e+002 
3859375000  -4.199154e+001  -1.798221e+002 
3862500000  -4.205358e+001  1.673407e+002 
3865625000  -4.259824e+001  1.605204e+002 
3868750000  -4.209617e+001  1.581778e+002 
3871875000  -4.173663e+001  1.525872e+002 
3875000000  -4.230881e+001  1.401964e+002 
3878125000  -4.330352e+001  1.385917e+002 
3881250000  -4.320695e+001  1.380068e+002 
3884375000  -4.252993e+001  1.243920e+002 
3887500000  -4.307161e+001  1.197806e+002 
3890625000  -4.404694e+001  1.148340e+002 
3893750000  -4.408090e+001  1.105630e+002 
3896875000  -4.403951e+001  1.103847e+002 
3900000000  -4.446491e+001  1.051938e+002 
3903125000  -4.372832e+001  9.904342e+001 
3906250000  -4.319341e+001  9.428133e+001 
3909375000  -4.258680e+001  8.377986e+001 
3912500000  -4.422686e+001  7.773544e+001 
3915625000  -4.507681e+001  7.677688e+001 
3918750000  -4.478979e+001  7.540665e+001 
3921875000  -4.357671e+001  7.176610e+001 
3925000000  -4.282056e+001  6.479396e+001 
3928125000  -4.269801e+001  5.619225e+001 
3931250000  -4.347192e+001  4.716913e+001 
3934375000  -4.384216e+001  4.636885e+001 
3937500000  -4.429750e+001  4.376667e+001 
3940625000  -4.460690e+001  4.343420e+001 
3943750000  -4.306768e+001  3.479465e+001 
3946875000  -4.280808e+001  2.658277e+001 
3950000000  -4.383759e+001  2.013633e+001 
3953125000  -4.427274e+001  2.113823e+001 
3956250000  -4.268941e+001  1.783001e+001 
3959375000  -4.208112e+001  1.239035e+001 
3962500000  -4.116478e+001  8.765843e-001 
3965625000  -4.195914e+001  -1.195583e+001 
3968750000  -4.284600e+001  -1.941319e+001 
3971875000  -4.230532e+001  -2.513865e+001 
3975000000  -4.205543e+001  -2.624858e+001 
3978125000  -4.230170e+001  -3.373178e+001 
3981250000  -4.189648e+001  -4.095216e+001 
3984375000  -4.246348e+001  -4.893077e+001 
3987500000  -4.319936e+001  -5.358919e+001 
3990625000  -4.312817e+001  -5.718997e+001 
3993750000  -4.313601e+001  -6.304181e+001 
3996875000  -4.288596e+001  -6.999187e+001 
4000000000  -4.364122e+001  -7.639552e+001 
4003125000  -4.387633e+001  -7.507056e+001 
4006250000  -4.199229e+001  -8.129080e+001 
4009375000  -4.131769e+001  -9.525334e+001 
4012500000  -4.285229e+001  -1.049240e+002 
4015625000  -4.384385e+001  -1.058671e+002 
4018750000  -4.417196e+001  -1.084041e+002 
4021875000  -4.263283e+001  -1.171714e+002 
4025000000  -4.291056e+001  -1.240499e+002 
4028125000  -4.345851e+001  -1.305436e+002 
4031250000  -4.401455e+001  -1.380124e+002 
4034375000  -4.416719e+001  -1.397876e+002 
4037500000  -4.410052e+001  -1.438640e+002 
4040625000  -4.395152e+001  -1.519406e+002 
4043750000  -4.427292e+001  -1.524870e+002 
4046875000  -4.426083e+001  -1.579666e+002 
4050000000  -4.412370e+001  -1.636335e+002 
4053125000  -4.505393e+001  -1.677966e+002 
4056250000  -4.556773e+001  -1.694594e+002 
4059375000  -4.371065e+001  -1.636434e+002 
4062500000  -4.339074e+001  -1.766829e+002 
4065625000  -4.353015e+001  1.782704e+002 
4068750000  -4.297042e+001  1.664696e+002 
4071875000  -4.252035e+001  1.590694e+002 
4075000000  -4.371927e+001  1.527287e+002 
4078125000  -4.412932e+001  1.491359e+002 
4081250000  -4.330264e+001  1.426872e+002 
4084375000  -4.288932e+001  1.360469e+002 
4087500000  -4.397956e+001  1.268883e+002 
4090625000  -4.439823e+001  1.251889e+002 
4093750000  -4.441089e+001  1.216513e+002 
4096875000  -4.409050e+001  1.160446e+002 
4100000000  -4.490186e+001  1.088028e+002 
4103125000  -4.554441e+001  1.092277e+002 
4106250000  -4.485751e+001  1.123620e+002 
4109375000  -4.420966e+001  1.057302e+002 
4112500000  -4.367245e+001  9.682390e+001 
4115625000  -4.402822e+001  9.252291e+001 
4118750000  -4.400941e+001  8.788956e+001 
4121875000  -4.386145e+001  8.122876e+001 
4125000000  -4.454812e+001  7.667437e+001 
4128125000  -4.520523e+001  7.762198e+001 
4131250000  -4.363850e+001  8.102729e+001 
4134375000  -4.090239e+001  6.621365e+001 
4137500000  -4.195499e+001  4.675206e+001 
4140625000  -4.402507e+001  3.941097e+001 
4143750000  -4.462669e+001  4.727852e+001 
4146875000  -4.407206e+001  4.675563e+001 
4150000000  -4.265300e+001  3.782439e+001 
4153125000  -4.293179e+001  2.698120e+001 
4156250000  -4.413614e+001  2.560983e+001 
4159375000  -4.376087e+001  2.747287e+001 
4162500000  -4.216900e+001  2.224791e+001 
4165625000  -4.164003e+001  1.152234e+001 
4168750000  -4.123873e+001  3.383610e+000 
4171875000  -4.102983e+001  -7.013541e+000 
4175000000  -4.185975e+001  -1.498165e+001 
4178125000  -4.234665e+001  -2.099239e+001 
4181250000  -4.218062e+001  -2.463162e+001 
4184375000  -4.258413e+001  -3.060307e+001 
4187500000  -4.212600e+001  -3.910221e+001 
4190625000  -4.257493e+001  -5.089640e+001 
4193750000  -4.346839e+001  -5.365048e+001 
4196875000  -4.460716e+001  -5.236199e+001 
4200000000  -4.583400e+001  -5.013754e+001 
4203125000  -4.428299e+001  -4.252538e+001 
4206250000  -4.111258e+001  -5.045611e+001 
4209375000  -4.142778e+001  -7.677518e+001 
4212500000  -4.383424e+001  -8.088419e+001 
4215625000  -4.411891e+001  -7.464878e+001 
4218750000  -4.248460e+001  -7.628342e+001 
4221875000  -4.124726e+001  -8.689507e+001 
4225000000  -4.263653e+001  -9.607373e+001 
4228125000  -4.249208e+001  -9.585755e+001 
4231250000  -4.099258e+001  -1.052739e+002 
4234375000  -4.107977e+001  -1.175344e+002 
4237500000  -4.058530e+001  -1.233518e+002 
4240625000  -4.094395e+001  -1.339855e+002 
4243750000  -4.227525e+001  -1.427889e+002 
4246875000  -4.270702e+001  -1.388326e+002 
4250000000  -4.272553e+001  -1.428346e+002 
4253125000  -4.233031e+001  -1.465185e+002 
4256250000  -4.228268e+001  -1.515782e+002 
4259375000  -4.193591e+001  -1.570208e+002 
4262500000  -4.218680e+001  -1.612947e+002 
4265625000  -4.221629e+001  -1.664420e+002 
4268750000  -4.125964e+001  -1.726068e+002 
4271875000  -4.078097e+001  1.766537e+002 
4275000000  -4.067130e+001  1.680399e+002 
4278125000  -4.096678e+001  1.570260e+002 
4281250000  -4.254833e+001  1.559830e+002 
4284375000  -4.217956e+001  1.509336e+002 
4287500000  -4.380606e+001  1.477248e+002 
4290625000  -4.346829e+001  1.544655e+002 
4293750000  -4.169360e+001  1.534449e+002 
4296875000  -4.040087e+001  1.369152e+002 
4300000000  -4.105894e+001  1.272704e+002 
4303125000  -4.188337e+001  1.277955e+002 
4306250000  -4.060399e+001  1.283911e+002 
4309375000  -3.980751e+001  1.168779e+002 
4312500000  -3.965636e+001  1.058627e+002 
4315625000  -3.998124e+001  9.511477e+001 
4318750000  -4.072231e+001  9.021516e+001 
4321875000  -4.076733e+001  8.941109e+001 
4325000000  -4.005202e+001  8.534767e+001 
4328125000  -3.931843e+001  7.374051e+001 
4331250000  -3.979266e+001  6.169091e+001 
4334375000  -4.071151e+001  5.303191e+001 
4337500000  -4.191611e+001  5.184447e+001 
4340625000  -4.193898e+001  5.387310e+001 
4343750000  -4.078914e+001  4.814206e+001 
4346875000  -4.087340e+001  3.789759e+001 
4350000000  -4.064735e+001  3.009155e+001 
4353125000  -4.154405e+001  2.079084e+001 
4356250000  -4.402401e+001  2.341952e+001 
4359375000  -4.282530e+001  3.803370e+001 
4362500000  -3.938681e+001  2.646270e+001 
4365625000  -3.891149e+001  9.347062e+000 
4368750000  -4.010859e+001  -1.837019e+000 
4371875000  -4.092575e+001  -3.516299e+000 
4375000000  -4.034614e+001  -9.314002e+000 
4378125000  -4.051791e+001  -1.863838e+001 
4381250000  -4.074443e+001  -2.566599e+001 
4384375000  -4.055777e+001  -3.305011e+001 
4387500000  -4.144764e+001  -3.857196e+001 
4390625000  -4.195109e+001  -4.260569e+001 
4393750000  -4.166675e+001  -4.184791e+001 
4396875000  -4.097718e+001  -4.881866e+001 
4400000000  -4.072488e+001  -5.717760e+001 
4403125000  -4.148796e+001  -6.726126e+001 
4406250000  -4.214939e+001  -7.155927e+001 
4409375000  -4.231174e+001  -7.789176e+001 
4412500000  -4.346621e+001  -7.784045e+001 
4415625000  -4.282159e+001  -7.471796e+001 
4418750000  -4.184970e+001  -7.485633e+001 
