!Agilent Technologies,E8363B,MY43030201,A.06.04.32
!Agilent E8363B: A.06.04.32
!Date: Tuesday, November 11, 2014 21:45:22
!Correction: S21(Response(S21)) 
!S1P File: Measurement: S21:
# Hz S  dB   R 50
3000000000  -4.359992e+001  -1.612059e+002 
3003125000  -4.569914e+001  -1.664398e+002 
3006250000  -4.528207e+001  -1.666368e+002 
3009375000  -4.627801e+001  -1.655036e+002 
3012500000  -4.486201e+001  -1.711569e+002 
3015625000  -4.513772e+001  -1.783864e+002 
3018750000  -4.549466e+001  -1.784956e+002 
3021875000  -4.370161e+001  -1.778791e+002 
3025000000  -4.264908e+001  1.768611e+002 
3028125000  -4.161908e+001  1.652361e+002 
3031250000  -4.098303e+001  1.523577e+002 
3034375000  -4.076151e+001  1.381490e+002 
3037500000  -4.189249e+001  1.265166e+002 
3040625000  -4.309462e+001  1.209514e+002 
3043750000  -4.325964e+001  1.136579e+002 
3046875000  -4.431783e+001  1.088686e+002 
3050000000  -4.524825e+001  1.029243e+002 
3053125000  -4.468542e+001  1.080005e+002 
3056250000  -4.475393e+001  1.122228e+002 
3059375000  -4.368050e+001  1.068115e+002 
3062500000  -4.260638e+001  1.003962e+002 
3065625000  -4.231171e+001  8.946814e+001 
3068750000  -4.174126e+001  8.226131e+001 
3071875000  -4.184957e+001  7.894975e+001 
3075000000  -4.130024e+001  7.195821e+001 
3078125000  -4.129512e+001  6.451595e+001 
3081250000  -4.146388e+001  5.729506e+001 
3084375000  -4.052024e+001  5.152845e+001 
3087500000  -4.059683e+001  4.394177e+001 
3090625000  -4.017236e+001  3.112022e+001 
3093750000  -4.088099e+001  2.081579e+001 
3096875000  -4.134686e+001  1.596263e+001 
3100000000  -4.107283e+001  1.322010e+001 
3103125000  -4.151031e+001  7.272257e+000 
3106250000  -4.098198e+001  1.377127e+000 
3109375000  -4.096679e+001  -2.517083e+000 
3112500000  -4.102529e+001  -1.126117e+001 
3115625000  -4.075609e+001  -1.589100e+001 
3118750000  -4.085828e+001  -2.024313e+001 
3121875000  -4.022718e+001  -3.329147e+001 
3125000000  -4.212568e+001  -3.768974e+001 
3128125000  -4.206304e+001  -3.108408e+001 
3131250000  -3.944748e+001  -3.857300e+001 
3134375000  -3.887284e+001  -5.720660e+001 
3137500000  -3.968375e+001  -6.974505e+001 
3140625000  -4.093623e+001  -7.342127e+001 
3143750000  -4.169270e+001  -7.753701e+001 
3146875000  -4.110196e+001  -7.646544e+001 
3150000000  -4.039375e+001  -8.205879e+001 
3153125000  -4.095013e+001  -9.168358e+001 
3156250000  -4.139573e+001  -8.833273e+001 
3159375000  -3.931228e+001  -9.103811e+001 
3162500000  -3.790778e+001  -1.080099e+002 
3165625000  -3.907833e+001  -1.226427e+002 
3168750000  -3.903016e+001  -1.235351e+002 
3171875000  -3.872100e+001  -1.320567e+002 
3175000000  -3.919733e+001  -1.422655e+002 
3178125000  -3.875528e+001  -1.443924e+002 
3181250000  -3.815925e+001  -1.540426e+002 
3184375000  -3.791603e+001  -1.663850e+002 
3187500000  -3.938979e+001  1.785587e+002 
3190625000  -4.109230e+001  1.709999e+002 
3193750000  -4.141579e+001  1.752283e+002 
3196875000  -4.121320e+001  1.733855e+002 
3200000000  -3.990557e+001  1.685581e+002 
3203125000  -3.960451e+001  1.607187e+002 
3206250000  -3.997030e+001  1.523087e+002 
3209375000  -3.939040e+001  1.435991e+002 
3212500000  -4.004312e+001  1.363660e+002 
3215625000  -3.959630e+001  1.324775e+002 
3218750000  -4.024342e+001  1.203754e+002 
3221875000  -4.039786e+001  1.132926e+002 
3225000000  -4.066399e+001  1.083018e+002 
3228125000  -4.118606e+001  9.958457e+001 
3231250000  -4.154100e+001  9.844076e+001 
3234375000  -4.120798e+001  9.375137e+001 
3237500000  -4.105409e+001  9.087778e+001 
3240625000  -4.018097e+001  8.359304e+001 
3243750000  -4.039710e+001  7.312083e+001 
3246875000  -4.070720e+001  6.378736e+001 
3250000000  -4.114875e+001  5.999086e+001 
3253125000  -4.129357e+001  5.515308e+001 
3256250000  -4.054576e+001  4.606693e+001 
3259375000  -4.074282e+001  3.093366e+001 
3262500000  -4.252984e+001  2.712936e+001 
3265625000  -4.243480e+001  2.764575e+001 
3268750000  -4.246557e+001  2.700589e+001 
3271875000  -4.162806e+001  2.154054e+001 
3275000000  -4.130181e+001  1.074690e+001 
3278125000  -4.166305e+001  2.938873e+000 
3281250000  -4.178254e+001  1.190122e+000 
3284375000  -4.114943e+001  -7.544098e+000 
3287500000  -4.160493e+001  -1.612243e+001 
3290625000  -4.150854e+001  -2.672547e+001 
3293750000  -4.160481e+001  -3.314163e+001 
3296875000  -4.286898e+001  -3.710108e+001 
3300000000  -4.210611e+001  -3.920805e+001 
3303125000  -4.098335e+001  -4.900585e+001 
3306250000  -4.105747e+001  -6.069056e+001 
3309375000  -4.072120e+001  -6.987326e+001 
3312500000  -4.129198e+001  -8.603158e+001 
3315625000  -4.232465e+001  -9.375156e+001 
3318750000  -4.395048e+001  -1.020436e+002 
3321875000  -4.529233e+001  -1.009906e+002 
3325000000  -4.499386e+001  -9.572925e+001 
3328125000  -4.439148e+001  -9.905074e+001 
3331250000  -4.214172e+001  -9.689165e+001 
3334375000  -4.012872e+001  -1.160995e+002 
3337500000  -4.117527e+001  -1.415596e+002 
3340625000  -4.291221e+001  -1.519146e+002 
3343750000  -4.478651e+001  -1.527490e+002 
3346875000  -4.416359e+001  -1.555625e+002 
3350000000  -4.347958e+001  -1.598863e+002 
3353125000  -4.371411e+001  -1.711669e+002 
3356250000  -4.364313e+001  1.790075e+002 
3359375000  -4.415481e+001  1.630199e+002 
3362500000  -4.513655e+001  1.583923e+002 
3365625000  -4.548430e+001  1.518908e+002 
3368750000  -4.627294e+001  1.455262e+002 
3371875000  -4.726098e+001  1.407658e+002 
3375000000  -4.839792e+001  1.326498e+002 
3378125000  -4.922848e+001  1.328417e+002 
3381250000  -5.031981e+001  1.405833e+002 
3384375000  -4.741109e+001  1.513702e+002 
3387500000  -4.496507e+001  1.280629e+002 
3390625000  -4.689355e+001  1.051150e+002 
3393750000  -4.792878e+001  1.093130e+002 
3396875000  -4.634231e+001  1.020120e+002 
3400000000  -4.642673e+001  8.581383e+001 
3403125000  -4.715189e+001  7.953166e+001 
3406250000  -4.787090e+001  7.080307e+001 
3409375000  -4.734689e+001  6.193213e+001 
3412500000  -4.778003e+001  5.171687e+001 
3415625000  -4.928591e+001  4.486817e+001 
3418750000  -4.867544e+001  4.411166e+001 
3421875000  -4.888391e+001  3.949795e+001 
3425000000  -4.751365e+001  3.493256e+001 
3428125000  -4.705553e+001  2.596323e+001 
3431250000  -4.678630e+001  1.613952e+001 
3434375000  -4.695573e+001  3.984195e+000 
3437500000  -4.743556e+001  -4.165945e+000 
3440625000  -4.770162e+001  -9.918431e+000 
3443750000  -4.636858e+001  -1.293355e+001 
3446875000  -4.584278e+001  -2.631741e+001 
3450000000  -4.529634e+001  -4.351072e+001 
3453125000  -4.600874e+001  -6.102150e+001 
3456250000  -4.736600e+001  -6.960631e+001 
3459375000  -4.790246e+001  -6.882883e+001 
3462500000  -4.757896e+001  -7.552359e+001 
3465625000  -4.712816e+001  -9.160787e+001 
3468750000  -4.743484e+001  -9.795676e+001 
3471875000  -4.674516e+001  -1.024308e+002 
3475000000  -4.717072e+001  -1.153698e+002 
3478125000  -4.776992e+001  -1.308360e+002 
3481250000  -4.901413e+001  -1.352025e+002 
3484375000  -4.888891e+001  -1.375518e+002 
3487500000  -4.731246e+001  -1.433547e+002 
3490625000  -4.712042e+001  -1.540765e+002 
3493750000  -4.764777e+001  -1.673158e+002 
3496875000  -4.839237e+001  -1.679928e+002 
3500000000  -4.849234e+001  -1.716167e+002 
3503125000  -4.709789e+001  -1.751729e+002 
3506250000  -4.551724e+001  1.714361e+002 
3509375000  -4.539141e+001  1.535938e+002 
3512500000  -4.610140e+001  1.374108e+002 
3515625000  -4.705117e+001  1.315504e+002 
3518750000  -4.794081e+001  1.282761e+002 
3521875000  -4.748787e+001  1.168141e+002 
3525000000  -4.858982e+001  1.124457e+002 
3528125000  -4.785361e+001  1.197053e+002 
3531250000  -4.624564e+001  1.028915e+002 
3534375000  -4.651659e+001  8.682335e+001 
3537500000  -4.775727e+001  8.130146e+001 
3540625000  -4.888195e+001  7.675332e+001 
3543750000  -4.942984e+001  7.494480e+001 
3546875000  -4.828614e+001  8.378977e+001 
3550000000  -4.625007e+001  7.457535e+001 
3553125000  -4.583296e+001  5.508460e+001 
3556250000  -4.751055e+001  4.510256e+001 
3559375000  -4.650541e+001  4.441951e+001 
3562500000  -4.619153e+001  3.136699e+001 
3565625000  -4.712520e+001  2.427837e+001 
3568750000  -4.806660e+001  2.212759e+001 
3571875000  -4.730122e+001  1.876121e+001 
3575000000  -4.732717e+001  1.071576e+001 
3578125000  -4.757872e+001  6.947811e+000 
3581250000  -4.749896e+001  3.610881e+000 
3584375000  -4.619474e+001  -1.646277e+000 
3587500000  -4.573379e+001  -1.668232e+001 
3590625000  -4.677036e+001  -2.212569e+001 
3593750000  -4.800549e+001  -2.665371e+001 
3596875000  -4.650242e+001  -2.076970e+001 
3600000000  -4.459717e+001  -3.209808e+001 
3603125000  -4.519841e+001  -4.688339e+001 
3606250000  -4.607851e+001  -5.209125e+001 
3609375000  -4.601302e+001  -5.363267e+001 
3612500000  -4.593086e+001  -6.633124e+001 
3615625000  -4.600063e+001  -6.687070e+001 
3618750000  -4.592461e+001  -6.991612e+001 
3621875000  -4.541507e+001  -7.525839e+001 
3625000000  -4.560582e+001  -8.303944e+001 
3628125000  -4.498657e+001  -8.818304e+001 
3631250000  -4.489934e+001  -9.762526e+001 
3634375000  -4.555895e+001  -9.867491e+001 
3637500000  -4.454496e+001  -1.009473e+002 
3640625000  -4.353401e+001  -1.072307e+002 
3643750000  -4.342200e+001  -1.171932e+002 
3646875000  -4.381839e+001  -1.296318e+002 
3650000000  -4.367409e+001  -1.319564e+002 
3653125000  -4.320250e+001  -1.406172e+002 
3656250000  -4.403504e+001  -1.484671e+002 
3659375000  -4.390826e+001  -1.524244e+002 
3662500000  -4.322311e+001  -1.597916e+002 
3665625000  -4.320859e+001  -1.619622e+002 
3668750000  -4.206779e+001  -1.669714e+002 
3671875000  -4.156388e+001  1.782034e+002 
3675000000  -4.240368e+001  1.678633e+002 
3678125000  -4.268192e+001  1.641914e+002 
3681250000  -4.241145e+001  1.580587e+002 
3684375000  -4.262988e+001  1.491465e+002 
3687500000  -4.291920e+001  1.403483e+002 
3690625000  -4.350568e+001  1.354584e+002 
3693750000  -4.435569e+001  1.335707e+002 
3696875000  -4.399959e+001  1.318191e+002 
3700000000  -4.305338e+001  1.213418e+002 
3703125000  -4.373751e+001  1.161426e+002 
3706250000  -4.444772e+001  1.113115e+002 
3709375000  -4.391947e+001  1.126083e+002 
3712500000  -4.309644e+001  1.060167e+002 
3715625000  -4.154159e+001  9.596473e+001 
3718750000  -4.174059e+001  8.777335e+001 
3721875000  -4.182289e+001  7.687833e+001 
3725000000  -4.246001e+001  6.981315e+001 
3728125000  -4.244296e+001  6.745039e+001 
3731250000  -4.180094e+001  5.876486e+001 
3734375000  -4.189997e+001  5.037520e+001 
3737500000  -4.301727e+001  4.312532e+001 
3740625000  -4.328785e+001  3.708664e+001 
3743750000  -4.307417e+001  3.451334e+001 
3746875000  -4.316107e+001  2.691631e+001 
3750000000  -4.355056e+001  2.251943e+001 
3753125000  -4.370049e+001  1.690494e+001 
3756250000  -4.375560e+001  1.461213e+001 
3759375000  -4.367837e+001  9.283147e+000 
3762500000  -4.345913e+001  3.989371e+000 
3765625000  -4.425957e+001  -2.267580e-001 
3768750000  -4.324619e+001  -7.409748e-001 
3771875000  -4.221596e+001  -8.907987e+000 
3775000000  -4.204649e+001  -1.861128e+001 
3778125000  -4.265457e+001  -2.480573e+001 
3781250000  -4.284720e+001  -2.943953e+001 
3784375000  -4.265146e+001  -3.667432e+001 
3787500000  -4.231052e+001  -3.955095e+001 
3790625000  -4.302894e+001  -5.048375e+001 
3793750000  -4.243727e+001  -5.350841e+001 
3796875000  -4.174458e+001  -5.895011e+001 
3800000000  -4.076840e+001  -6.530680e+001 
3803125000  -4.144349e+001  -7.740948e+001 
3806250000  -4.237267e+001  -8.367865e+001 
3809375000  -4.187509e+001  -8.799310e+001 
3812500000  -4.167560e+001  -9.894852e+001 
3815625000  -4.312598e+001  -1.109316e+002 
3818750000  -4.407597e+001  -1.050891e+002 
3821875000  -4.342386e+001  -9.666780e+001 
3825000000  -4.122733e+001  -1.031794e+002 
3828125000  -4.061160e+001  -1.232399e+002 
3831250000  -4.147954e+001  -1.409272e+002 
3834375000  -4.364328e+001  -1.414976e+002 
3837500000  -4.394511e+001  -1.388678e+002 
3840625000  -4.211192e+001  -1.435442e+002 
3843750000  -4.168034e+001  -1.559274e+002 
3846875000  -4.352323e+001  -1.659278e+002 
3850000000  -4.439510e+001  -1.605813e+002 
3853125000  -4.327643e+001  -1.625912e+002 
3856250000  -4.268788e+001  -1.680374e+002 
3859375000  -4.193527e+001  -1.785080e+002 
3862500000  -4.219096e+001  1.707260e+002 
3865625000  -4.264687e+001  1.646927e+002 
3868750000  -4.224508e+001  1.617642e+002 
3871875000  -4.204374e+001  1.518408e+002 
3875000000  -4.263512e+001  1.431391e+002 
3878125000  -4.347311e+001  1.403929e+002 
3881250000  -4.319704e+001  1.376791e+002 
3884375000  -4.279817e+001  1.275960e+002 
3887500000  -4.310511e+001  1.241196e+002 
3890625000  -4.421101e+001  1.183786e+002 
3893750000  -4.403725e+001  1.157961e+002 
3896875000  -4.446544e+001  1.135381e+002 
3900000000  -4.455399e+001  1.088606e+002 
3903125000  -4.370504e+001  1.009396e+002 
3906250000  -4.356496e+001  9.843154e+001 
3909375000  -4.281684e+001  9.130186e+001 
3912500000  -4.359374e+001  8.175647e+001 
3915625000  -4.429929e+001  8.239263e+001 
3918750000  -4.462785e+001  7.604489e+001 
3921875000  -4.406082e+001  7.656483e+001 
3925000000  -4.295192e+001  6.571922e+001 
3928125000  -4.276255e+001  5.842950e+001 
3931250000  -4.365326e+001  4.929232e+001 
3934375000  -4.392383e+001  4.745034e+001 
3937500000  -4.453923e+001  4.485356e+001 
3940625000  -4.447929e+001  4.441835e+001 
3943750000  -4.312264e+001  4.027190e+001 
3946875000  -4.282185e+001  2.852862e+001 
3950000000  -4.371293e+001  2.099722e+001 
3953125000  -4.478410e+001  2.008982e+001 
3956250000  -4.303515e+001  2.124384e+001 
3959375000  -4.196740e+001  1.479758e+001 
3962500000  -4.148211e+001  2.972597e+000 
3965625000  -4.181315e+001  -6.554630e+000 
3968750000  -4.250686e+001  -1.674295e+001 
3971875000  -4.268823e+001  -1.936903e+001 
3975000000  -4.213400e+001  -2.362057e+001 
3978125000  -4.219308e+001  -3.092139e+001 
3981250000  -4.187300e+001  -3.902624e+001 
3984375000  -4.244015e+001  -4.658292e+001 
3987500000  -4.281583e+001  -5.117902e+001 
3990625000  -4.308743e+001  -5.659552e+001 
3993750000  -4.299093e+001  -6.199764e+001 
3996875000  -4.313259e+001  -6.831553e+001 
4000000000  -4.367054e+001  -6.879281e+001 
4003125000  -4.398854e+001  -7.161920e+001 
4006250000  -4.184807e+001  -7.625642e+001 
4009375000  -4.131746e+001  -9.345022e+001 
4012500000  -4.282994e+001  -1.018905e+002 
4015625000  -4.407935e+001  -1.034470e+002 
4018750000  -4.349512e+001  -1.067893e+002 
4021875000  -4.297948e+001  -1.153117e+002 
4025000000  -4.305561e+001  -1.200801e+002 
4028125000  -4.323355e+001  -1.292509e+002 
4031250000  -4.408997e+001  -1.366825e+002 
4034375000  -4.435307e+001  -1.392317e+002 
4037500000  -4.443801e+001  -1.410930e+002 
4040625000  -4.420118e+001  -1.469300e+002 
4043750000  -4.449290e+001  -1.502606e+002 
4046875000  -4.424845e+001  -1.534978e+002 
4050000000  -4.425241e+001  -1.624684e+002 
4053125000  -4.513363e+001  -1.660690e+002 
4056250000  -4.574966e+001  -1.614073e+002 
4059375000  -4.377969e+001  -1.621295e+002 
4062500000  -4.383322e+001  -1.704518e+002 
4065625000  -4.389865e+001  1.789897e+002 
4068750000  -4.277930e+001  1.711309e+002 
4071875000  -4.247760e+001  1.621184e+002 
4075000000  -4.340952e+001  1.536114e+002 
4078125000  -4.394729e+001  1.516004e+002 
4081250000  -4.382173e+001  1.450626e+002 
4084375000  -4.318122e+001  1.381864e+002 
4087500000  -4.378383e+001  1.299701e+002 
4090625000  -4.475298e+001  1.277896e+002 
4093750000  -4.434161e+001  1.266793e+002 
4096875000  -4.435335e+001  1.180842e+002 
4100000000  -4.532622e+001  1.126338e+002 
4103125000  -4.670723e+001  1.164428e+002 
4106250000  -4.533823e+001  1.129309e+002 
4109375000  -4.440011e+001  1.095775e+002 
4112500000  -4.426537e+001  1.014736e+002 
4115625000  -4.417160e+001  9.773636e+001 
4118750000  -4.405528e+001  9.075770e+001 
4121875000  -4.349960e+001  8.507433e+001 
4125000000  -4.523786e+001  7.633594e+001 
4128125000  -4.537094e+001  8.203954e+001 
4131250000  -4.394457e+001  8.250158e+001 
4134375000  -4.152367e+001  7.166042e+001 
4137500000  -4.189313e+001  4.835425e+001 
4140625000  -4.415137e+001  4.366109e+001 
4143750000  -4.474900e+001  4.847728e+001 
4146875000  -4.387967e+001  4.889330e+001 
4150000000  -4.282751e+001  4.193896e+001 
4153125000  -4.313881e+001  2.924224e+001 
4156250000  -4.454893e+001  2.577730e+001 
4159375000  -4.379272e+001  2.844973e+001 
4162500000  -4.222267e+001  2.843068e+001 
4165625000  -4.139771e+001  1.562548e+001 
4168750000  -4.125504e+001  7.982705e+000 
4171875000  -4.132628e+001  -5.934121e+000 
4175000000  -4.183231e+001  -1.361260e+001 
4178125000  -4.243608e+001  -1.663347e+001 
4181250000  -4.208459e+001  -2.058925e+001 
4184375000  -4.267101e+001  -3.079128e+001 
4187500000  -4.259384e+001  -3.597292e+001 
4190625000  -4.268957e+001  -4.613533e+001 
4193750000  -4.380662e+001  -4.888879e+001 
4196875000  -4.497176e+001  -5.522899e+001 
4200000000  -4.627035e+001  -4.328937e+001 
4203125000  -4.412645e+001  -3.586244e+001 
4206250000  -4.121284e+001  -4.786409e+001 
4209375000  -4.131360e+001  -7.079446e+001 
4212500000  -4.385920e+001  -7.905604e+001 
4215625000  -4.423444e+001  -7.325410e+001 
4218750000  -4.243479e+001  -6.907831e+001 
4221875000  -4.158904e+001  -8.168639e+001 
4225000000  -4.255170e+001  -9.590501e+001 
4228125000  -4.224796e+001  -9.207957e+001 
4231250000  -4.070579e+001  -1.012787e+002 
4234375000  -4.106109e+001  -1.125667e+002 
4237500000  -4.039888e+001  -1.179147e+002 
4240625000  -4.158994e+001  -1.297588e+002 
4243750000  -4.255546e+001  -1.387795e+002 
4246875000  -4.293341e+001  -1.408193e+002 
4250000000  -4.300068e+001  -1.386954e+002 
4253125000  -4.279110e+001  -1.416491e+002 
4256250000  -4.237045e+001  -1.490483e+002 
4259375000  -4.209325e+001  -1.518895e+002 
4262500000  -4.244757e+001  -1.577913e+002 
4265625000  -4.201889e+001  -1.585936e+002 
4268750000  -4.127433e+001  -1.689715e+002 
4271875000  -4.100130e+001  -1.787503e+002 
4275000000  -4.069925e+001  1.732388e+002 
4278125000  -4.152752e+001  1.595139e+002 
4281250000  -4.280935e+001  1.571694e+002 
4284375000  -4.213647e+001  1.553534e+002 
4287500000  -4.398354e+001  1.508579e+002 
4290625000  -4.403724e+001  1.583136e+002 
4293750000  -4.180951e+001  1.572224e+002 
4296875000  -4.029762e+001  1.411918e+002 
4300000000  -4.136911e+001  1.303226e+002 
4303125000  -4.216162e+001  1.305053e+002 
4306250000  -4.057619e+001  1.327749e+002 
4309375000  -3.990257e+001  1.212673e+002 
4312500000  -3.968528e+001  1.091468e+002 
4315625000  -4.013577e+001  1.000694e+002 
4318750000  -4.116434e+001  9.459234e+001 
4321875000  -4.090712e+001  9.337257e+001 
4325000000  -4.017989e+001  8.940410e+001 
4328125000  -3.945253e+001  7.644313e+001 
4331250000  -3.994796e+001  6.451128e+001 
4334375000  -4.094364e+001  5.701751e+001 
4337500000  -4.188789e+001  5.445314e+001 
4340625000  -4.211011e+001  5.729297e+001 
4343750000  -4.071902e+001  5.246041e+001 
4346875000  -4.079367e+001  4.035127e+001 
4350000000  -4.127329e+001  3.439104e+001 
4353125000  -4.196420e+001  2.617212e+001 
4356250000  -4.418882e+001  2.976649e+001 
4359375000  -4.313050e+001  4.240870e+001 
4362500000  -3.951250e+001  3.025991e+001 
4365625000  -3.914188e+001  1.067841e+001 
4368750000  -4.045903e+001  9.152040e-001 
4371875000  -4.125537e+001  2.165812e+000 
4375000000  -4.071151e+001  -4.574484e+000 
4378125000  -4.092777e+001  -1.205413e+001 
4381250000  -4.061953e+001  -2.280408e+001 
4384375000  -4.066130e+001  -2.834910e+001 
4387500000  -4.172795e+001  -3.512416e+001 
4390625000  -4.236553e+001  -3.811328e+001 
4393750000  -4.181044e+001  -3.847630e+001 
4396875000  -4.108615e+001  -4.262611e+001 
4400000000  -4.127666e+001  -5.465310e+001 
4403125000  -4.155434e+001  -6.214386e+001 
4406250000  -4.237093e+001  -6.747318e+001 
4409375000  -4.270782e+001  -7.137486e+001 
4412500000  -4.370164e+001  -7.435287e+001 
4415625000  -4.366278e+001  -7.303487e+001 
4418750000  -4.200432e+001  -7.384842e+001 
