!Agilent Technologies,E8363B,MY43030201,A.06.04.32
!Agilent E8363B: A.06.04.32
!Date: Tuesday, November 11, 2014 21:52:29
!Correction: S21(Response(S21)) 
!S1P File: Measurement: S21:
# Hz S  dB   R 50
3000000000  -4.380606e+001  -1.630423e+002 
3003125000  -4.575376e+001  -1.680969e+002 
3006250000  -4.572824e+001  -1.689550e+002 
3009375000  -4.603311e+001  -1.661496e+002 
3012500000  -4.492998e+001  -1.725860e+002 
3015625000  -4.487440e+001  -1.784767e+002 
3018750000  -4.567604e+001  1.783281e+002 
3021875000  -4.402769e+001  1.788631e+002 
3025000000  -4.259709e+001  1.743041e+002 
3028125000  -4.165932e+001  1.629122e+002 
3031250000  -4.094856e+001  1.507942e+002 
3034375000  -4.089604e+001  1.355315e+002 
3037500000  -4.149961e+001  1.250237e+002 
3040625000  -4.279604e+001  1.177270e+002 
3043750000  -4.354049e+001  1.122974e+002 
3046875000  -4.401477e+001  1.044173e+002 
3050000000  -4.563721e+001  9.857521e+001 
3053125000  -4.482571e+001  1.041069e+002 
3056250000  -4.468193e+001  1.077246e+002 
3059375000  -4.416218e+001  1.038307e+002 
3062500000  -4.273659e+001  9.781077e+001 
3065625000  -4.199955e+001  8.847626e+001 
3068750000  -4.180047e+001  7.987917e+001 
3071875000  -4.185538e+001  7.824123e+001 
3075000000  -4.126818e+001  6.950443e+001 
3078125000  -4.152515e+001  6.256130e+001 
3081250000  -4.130519e+001  5.512886e+001 
3084375000  -4.038702e+001  4.930550e+001 
3087500000  -4.072071e+001  4.239835e+001 
3090625000  -4.004844e+001  2.857512e+001 
3093750000  -4.104861e+001  1.940942e+001 
3096875000  -4.119054e+001  1.351666e+001 
3100000000  -4.115219e+001  1.045152e+001 
3103125000  -4.130970e+001  5.220788e+000 
3106250000  -4.098703e+001  -4.642265e-001 
3109375000  -4.095196e+001  -5.492595e+000 
3112500000  -4.090167e+001  -1.331363e+001 
3115625000  -4.076510e+001  -1.709681e+001 
3118750000  -4.085608e+001  -2.226454e+001 
3121875000  -4.012217e+001  -3.484046e+001 
3125000000  -4.218626e+001  -3.848119e+001 
3128125000  -4.221353e+001  -3.202563e+001 
3131250000  -3.938460e+001  -4.005189e+001 
3134375000  -3.864753e+001  -6.028448e+001 
3137500000  -3.965734e+001  -7.198289e+001 
3140625000  -4.095147e+001  -7.646709e+001 
3143750000  -4.160285e+001  -8.011337e+001 
3146875000  -4.104436e+001  -7.837219e+001 
3150000000  -4.058802e+001  -8.377212e+001 
3153125000  -4.069331e+001  -9.281566e+001 
3156250000  -4.155247e+001  -9.079768e+001 
3159375000  -3.914692e+001  -9.445494e+001 
3162500000  -3.769543e+001  -1.107497e+002 
3165625000  -3.897807e+001  -1.235743e+002 
3168750000  -3.884021e+001  -1.268262e+002 
3171875000  -3.862200e+001  -1.346737e+002 
3175000000  -3.908316e+001  -1.440860e+002 
3178125000  -3.877171e+001  -1.465397e+002 
3181250000  -3.807059e+001  -1.559339e+002 
3184375000  -3.789760e+001  -1.678463e+002 
3187500000  -3.931170e+001  1.762753e+002 
3190625000  -4.088666e+001  1.704369e+002 
3193750000  -4.102795e+001  1.733891e+002 
3196875000  -4.092305e+001  1.727077e+002 
3200000000  -3.988381e+001  1.682764e+002 
3203125000  -3.977129e+001  1.593274e+002 
3206250000  -3.961472e+001  1.504975e+002 
3209375000  -3.941998e+001  1.425846e+002 
3212500000  -3.999342e+001  1.342917e+002 
3215625000  -3.964782e+001  1.319913e+002 
3218750000  -4.034572e+001  1.195842e+002 
3221875000  -4.050477e+001  1.125835e+002 
3225000000  -4.038646e+001  1.065466e+002 
3228125000  -4.104149e+001  9.984907e+001 
3231250000  -4.133829e+001  9.676368e+001 
3234375000  -4.079876e+001  9.247301e+001 
3237500000  -4.118750e+001  8.802932e+001 
3240625000  -4.036815e+001  8.073467e+001 
3243750000  -4.051993e+001  6.873328e+001 
3246875000  -4.059108e+001  6.082989e+001 
3250000000  -4.095915e+001  5.708209e+001 
3253125000  -4.142807e+001  5.236484e+001 
3256250000  -4.037999e+001  4.175626e+001 
3259375000  -4.095042e+001  2.931318e+001 
3262500000  -4.236212e+001  2.627654e+001 
3265625000  -4.256464e+001  2.540078e+001 
3268750000  -4.241227e+001  2.388011e+001 
3271875000  -4.169583e+001  1.881384e+001 
3275000000  -4.107799e+001  8.164656e+000 
3278125000  -4.166934e+001  1.961573e+000 
3281250000  -4.179058e+001  -2.294071e+000 
3284375000  -4.096331e+001  -1.060518e+001 
3287500000  -4.144719e+001  -1.783977e+001 
3290625000  -4.158552e+001  -2.760979e+001 
3293750000  -4.135784e+001  -3.359768e+001 
3296875000  -4.276487e+001  -4.104064e+001 
3300000000  -4.218102e+001  -4.169040e+001 
3303125000  -4.094482e+001  -5.127565e+001 
3306250000  -4.092073e+001  -6.121072e+001 
3309375000  -4.060529e+001  -7.361346e+001 
3312500000  -4.110357e+001  -8.658965e+001 
3315625000  -4.226094e+001  -9.567850e+001 
3318750000  -4.360987e+001  -1.012193e+002 
3321875000  -4.537117e+001  -9.932247e+001 
3325000000  -4.484144e+001  -9.589976e+001 
3328125000  -4.415190e+001  -9.694230e+001 
3331250000  -4.222504e+001  -9.932262e+001 
3334375000  -4.020408e+001  -1.202060e+002 
3337500000  -4.082878e+001  -1.414833e+002 
3340625000  -4.262073e+001  -1.531970e+002 
3343750000  -4.461669e+001  -1.540216e+002 
3346875000  -4.396423e+001  -1.564647e+002 
3350000000  -4.380918e+001  -1.627706e+002 
3353125000  -4.346241e+001  -1.716750e+002 
3356250000  -4.314940e+001  1.775957e+002 
3359375000  -4.422796e+001  1.661155e+002 
3362500000  -4.498520e+001  1.569442e+002 
3365625000  -4.576774e+001  1.485116e+002 
3368750000  -4.671515e+001  1.433272e+002 
3371875000  -4.705264e+001  1.391903e+002 
3375000000  -4.811010e+001  1.332516e+002 
3378125000  -4.990966e+001  1.338757e+002 
3381250000  -5.029777e+001  1.410224e+002 
3384375000  -4.697152e+001  1.518491e+002 
3387500000  -4.493716e+001  1.265281e+002 
3390625000  -4.645467e+001  1.069561e+002 
3393750000  -4.772077e+001  1.044413e+002 
3396875000  -4.630299e+001  9.974973e+001 
3400000000  -4.600535e+001  8.651316e+001 
3403125000  -4.670652e+001  7.593773e+001 
3406250000  -4.732819e+001  7.180437e+001 
3409375000  -4.672880e+001  5.977937e+001 
3412500000  -4.816069e+001  5.028356e+001 
3415625000  -4.813552e+001  4.432684e+001 
3418750000  -4.806163e+001  4.441690e+001 
3421875000  -4.904490e+001  3.689180e+001 
3425000000  -4.750020e+001  3.413641e+001 
3428125000  -4.695652e+001  2.769329e+001 
3431250000  -4.690636e+001  1.298560e+001 
3434375000  -4.711124e+001  -3.731320e-001 
3437500000  -4.725114e+001  -5.651119e+000 
3440625000  -4.769036e+001  -9.524790e+000 
3443750000  -4.627707e+001  -1.846310e+001 
3446875000  -4.587502e+001  -3.008823e+001 
3450000000  -4.509629e+001  -4.519210e+001 
3453125000  -4.582886e+001  -6.344243e+001 
3456250000  -4.709503e+001  -6.832512e+001 
3459375000  -4.831805e+001  -7.497248e+001 
3462500000  -4.749581e+001  -7.723045e+001 
3465625000  -4.695046e+001  -8.855264e+001 
3468750000  -4.726931e+001  -9.710459e+001 
3471875000  -4.725084e+001  -1.066890e+002 
3475000000  -4.729952e+001  -1.177952e+002 
3478125000  -4.781875e+001  -1.295559e+002 
3481250000  -4.922886e+001  -1.382086e+002 
3484375000  -4.880789e+001  -1.361319e+002 
3487500000  -4.758277e+001  -1.432251e+002 
3490625000  -4.741790e+001  -1.560104e+002 
3493750000  -4.824945e+001  -1.696781e+002 
3496875000  -4.828325e+001  -1.677715e+002 
3500000000  -4.792596e+001  -1.732052e+002 
3503125000  -4.703567e+001  -1.775637e+002 
3506250000  -4.560788e+001  1.701849e+002 
3509375000  -4.548011e+001  1.508503e+002 
3512500000  -4.622832e+001  1.375178e+002 
3515625000  -4.735328e+001  1.301960e+002 
3518750000  -4.791677e+001  1.274028e+002 
3521875000  -4.792906e+001  1.172172e+002 
3525000000  -4.871755e+001  1.108459e+002 
3528125000  -4.768482e+001  1.148344e+002 
3531250000  -4.660456e+001  1.001846e+002 
3534375000  -4.691048e+001  8.509779e+001 
3537500000  -4.745826e+001  7.708188e+001 
3540625000  -4.899975e+001  7.394764e+001 
3543750000  -4.973156e+001  8.116138e+001 
3546875000  -4.871753e+001  8.138076e+001 
3550000000  -4.651316e+001  6.986581e+001 
3553125000  -4.611071e+001  5.306255e+001 
3556250000  -4.701768e+001  4.715424e+001 
3559375000  -4.657576e+001  3.893389e+001 
3562500000  -4.692811e+001  2.815244e+001 
3565625000  -4.762011e+001  2.000436e+001 
3568750000  -4.785586e+001  2.106124e+001 
3571875000  -4.729973e+001  1.924303e+001 
3575000000  -4.710366e+001  9.338881e+000 
3578125000  -4.770290e+001  7.586504e+000 
3581250000  -4.754901e+001  2.610937e+000 
3584375000  -4.634418e+001  -2.405722e+000 
3587500000  -4.533219e+001  -2.028189e+001 
3590625000  -4.662740e+001  -2.645906e+001 
3593750000  -4.810832e+001  -2.849657e+001 
3596875000  -4.707391e+001  -2.575837e+001 
3600000000  -4.461772e+001  -3.613863e+001 
3603125000  -4.508812e+001  -4.905400e+001 
3606250000  -4.563466e+001  -5.329570e+001 
3609375000  -4.623174e+001  -5.943384e+001 
3612500000  -4.594106e+001  -6.850519e+001 
3615625000  -4.632283e+001  -6.871684e+001 
3618750000  -4.653370e+001  -7.300884e+001 
3621875000  -4.564439e+001  -8.006725e+001 
3625000000  -4.584202e+001  -8.482122e+001 
3628125000  -4.481808e+001  -9.162389e+001 
3631250000  -4.511659e+001  -1.016692e+002 
3634375000  -4.571177e+001  -9.924578e+001 
3637500000  -4.439641e+001  -1.037238e+002 
3640625000  -4.392832e+001  -1.083627e+002 
3643750000  -4.317691e+001  -1.203562e+002 
3646875000  -4.358345e+001  -1.306446e+002 
3650000000  -4.410944e+001  -1.336185e+002 
3653125000  -4.340673e+001  -1.438543e+002 
3656250000  -4.389627e+001  -1.512350e+002 
3659375000  -4.373420e+001  -1.534979e+002 
3662500000  -4.342683e+001  -1.617998e+002 
3665625000  -4.345413e+001  -1.648017e+002 
3668750000  -4.185005e+001  -1.703020e+002 
3671875000  -4.148876e+001  1.754578e+002 
3675000000  -4.210378e+001  1.661413e+002 
3678125000  -4.289095e+001  1.607468e+002 
3681250000  -4.213913e+001  1.542764e+002 
3684375000  -4.299028e+001  1.460155e+002 
3687500000  -4.296715e+001  1.369835e+002 
3690625000  -4.339946e+001  1.313792e+002 
3693750000  -4.461736e+001  1.292701e+002 
3696875000  -4.375782e+001  1.262546e+002 
3700000000  -4.286791e+001  1.198549e+002 
3703125000  -4.350395e+001  1.118851e+002 
3706250000  -4.467016e+001  1.104607e+002 
3709375000  -4.400853e+001  1.096523e+002 
3712500000  -4.307698e+001  1.024088e+002 
3715625000  -4.152902e+001  9.244975e+001 
3718750000  -4.186974e+001  8.499890e+001 
3721875000  -4.172989e+001  7.581347e+001 
3725000000  -4.233612e+001  6.626884e+001 
3728125000  -4.254616e+001  6.264650e+001 
3731250000  -4.193521e+001  5.643319e+001 
3734375000  -4.217687e+001  4.884200e+001 
3737500000  -4.274248e+001  3.920690e+001 
3740625000  -4.306038e+001  3.621008e+001 
3743750000  -4.265230e+001  2.799206e+001 
3746875000  -4.301686e+001  2.140089e+001 
3750000000  -4.343308e+001  1.972328e+001 
3753125000  -4.370021e+001  1.460647e+001 
3756250000  -4.358514e+001  1.227361e+001 
3759375000  -4.377414e+001  4.359293e+000 
3762500000  -4.306875e+001  1.976994e+000 
3765625000  -4.434189e+001  -6.718605e+000 
3768750000  -4.343356e+001  -4.731541e+000 
3771875000  -4.201379e+001  -1.137353e+001 
3775000000  -4.206270e+001  -2.081790e+001 
3778125000  -4.235524e+001  -2.673095e+001 
3781250000  -4.251833e+001  -3.386132e+001 
3784375000  -4.231255e+001  -4.022668e+001 
3787500000  -4.238416e+001  -4.416444e+001 
3790625000  -4.281560e+001  -5.406758e+001 
3793750000  -4.281658e+001  -5.815709e+001 
3796875000  -4.144746e+001  -6.247516e+001 
3800000000  -4.072057e+001  -6.946846e+001 
3803125000  -4.145721e+001  -8.024163e+001 
3806250000  -4.256508e+001  -8.792472e+001 
3809375000  -4.171459e+001  -8.912222e+001 
3812500000  -4.158928e+001  -1.016770e+002 
3815625000  -4.294226e+001  -1.132300e+002 
3818750000  -4.438916e+001  -1.094055e+002 
3821875000  -4.374969e+001  -1.013827e+002 
3825000000  -4.111654e+001  -1.061808e+002 
3828125000  -4.023628e+001  -1.282306e+002 
3831250000  -4.154113e+001  -1.456465e+002 
3834375000  -4.370528e+001  -1.455004e+002 
3837500000  -4.405302e+001  -1.392598e+002 
3840625000  -4.212934e+001  -1.460934e+002 
3843750000  -4.180389e+001  -1.625150e+002 
3846875000  -4.349360e+001  -1.676608e+002 
3850000000  -4.416932e+001  -1.613566e+002 
3853125000  -4.371553e+001  -1.639904e+002 
3856250000  -4.288100e+001  -1.735732e+002 
3859375000  -4.238729e+001  1.794487e+002 
3862500000  -4.247123e+001  1.673635e+002 
3865625000  -4.248256e+001  1.614216e+002 
3868750000  -4.215042e+001  1.597455e+002 
3871875000  -4.170913e+001  1.482008e+002 
3875000000  -4.264820e+001  1.383539e+002 
3878125000  -4.342421e+001  1.365447e+002 
3881250000  -4.329194e+001  1.354196e+002 
3884375000  -4.257388e+001  1.259229e+002 
3887500000  -4.329970e+001  1.194205e+002 
3890625000  -4.377170e+001  1.153246e+002 
3893750000  -4.398485e+001  1.128493e+002 
3896875000  -4.417427e+001  1.110951e+002 
3900000000  -4.435839e+001  1.053251e+002 
3903125000  -4.354540e+001  9.615908e+001 
3906250000  -4.361379e+001  9.373174e+001 
3909375000  -4.252603e+001  8.819721e+001 
3912500000  -4.343298e+001  7.526879e+001 
3915625000  -4.462223e+001  7.691018e+001 
3918750000  -4.470494e+001  7.594529e+001 
3921875000  -4.432170e+001  7.277022e+001 
3925000000  -4.317836e+001  6.231589e+001 
3928125000  -4.264790e+001  5.583154e+001 
3931250000  -4.368928e+001  5.002868e+001 
3934375000  -4.379335e+001  4.420150e+001 
3937500000  -4.476600e+001  4.423960e+001 
3940625000  -4.485629e+001  4.188282e+001 
3943750000  -4.313631e+001  3.423468e+001 
3946875000  -4.278629e+001  2.514338e+001 
3950000000  -4.379094e+001  2.020949e+001 
3953125000  -4.417469e+001  1.988892e+001 
3956250000  -4.267146e+001  1.777885e+001 
3959375000  -4.160745e+001  9.350303e+000 
3962500000  -4.184670e+001  1.257975e+000 
3965625000  -4.190282e+001  -1.182591e+001 
3968750000  -4.231878e+001  -1.826088e+001 
3971875000  -4.244161e+001  -2.459415e+001 
3975000000  -4.215144e+001  -2.855444e+001 
3978125000  -4.220520e+001  -3.427884e+001 
3981250000  -4.151958e+001  -4.116853e+001 
3984375000  -4.227402e+001  -5.046078e+001 
3987500000  -4.301292e+001  -5.506384e+001 
3990625000  -4.309081e+001  -5.810197e+001 
3993750000  -4.272506e+001  -6.390811e+001 
3996875000  -4.296603e+001  -7.201401e+001 
4000000000  -4.356569e+001  -7.611985e+001 
4003125000  -4.369764e+001  -7.499136e+001 
4006250000  -4.186738e+001  -8.296348e+001 
4009375000  -4.134310e+001  -9.648402e+001 
4012500000  -4.288206e+001  -1.044382e+002 
4015625000  -4.381779e+001  -1.075092e+002 
4018750000  -4.376102e+001  -1.086324e+002 
4021875000  -4.305710e+001  -1.168796e+002 
4025000000  -4.310271e+001  -1.235136e+002 
4028125000  -4.319605e+001  -1.323302e+002 
4031250000  -4.396119e+001  -1.389409e+002 
4034375000  -4.401398e+001  -1.409138e+002 
4037500000  -4.414017e+001  -1.454677e+002 
4040625000  -4.410373e+001  -1.477789e+002 
4043750000  -4.432318e+001  -1.530798e+002 
4046875000  -4.403453e+001  -1.595366e+002 
4050000000  -4.426752e+001  -1.658339e+002 
4053125000  -4.503768e+001  -1.686037e+002 
4056250000  -4.502269e+001  -1.677349e+002 
4059375000  -4.389448e+001  -1.692991e+002 
4062500000  -4.356827e+001  -1.775436e+002 
4065625000  -4.348712e+001  1.768620e+002 
4068750000  -4.316785e+001  1.677598e+002 
4071875000  -4.239588e+001  1.584723e+002 
4075000000  -4.347574e+001  1.515255e+002 
4078125000  -4.409987e+001  1.500228e+002 
4081250000  -4.307169e+001  1.415510e+002 
4084375000  -4.318168e+001  1.328956e+002 
4087500000  -4.365558e+001  1.256410e+002 
4090625000  -4.460622e+001  1.253851e+002 
4093750000  -4.439841e+001  1.214012e+002 
4096875000  -4.408284e+001  1.164290e+002 
4100000000  -4.523264e+001  1.049280e+002 
4103125000  -4.584261e+001  1.116454e+002 
4106250000  -4.525106e+001  1.119522e+002 
4109375000  -4.420241e+001  1.074498e+002 
4112500000  -4.343645e+001  9.575502e+001 
4115625000  -4.392408e+001  9.436047e+001 
4118750000  -4.406971e+001  8.483631e+001 
4121875000  -4.365803e+001  7.954874e+001 
4125000000  -4.472706e+001  7.394297e+001 
4128125000  -4.482020e+001  7.865385e+001 
4131250000  -4.408305e+001  7.879264e+001 
4134375000  -4.138471e+001  6.860320e+001 
4137500000  -4.221935e+001  4.802248e+001 
4140625000  -4.398346e+001  4.098755e+001 
4143750000  -4.500383e+001  4.434992e+001 
4146875000  -4.363729e+001  4.603114e+001 
4150000000  -4.297912e+001  3.642536e+001 
4153125000  -4.308271e+001  2.779613e+001 
4156250000  -4.376959e+001  2.106453e+001 
4159375000  -4.326252e+001  2.581976e+001 
4162500000  -4.278112e+001  2.298808e+001 
4165625000  -4.149586e+001  1.300746e+001 
4168750000  -4.119495e+001  1.934549e+000 
4171875000  -4.129112e+001  -1.021226e+001 
4175000000  -4.199612e+001  -1.781246e+001 
4178125000  -4.218884e+001  -1.988791e+001 
4181250000  -4.205513e+001  -2.780285e+001 
4184375000  -4.239344e+001  -3.338901e+001 
4187500000  -4.219117e+001  -3.968492e+001 
4190625000  -4.284824e+001  -4.918423e+001 
4193750000  -4.443225e+001  -5.567403e+001 
4196875000  -4.511432e+001  -5.852998e+001 
4200000000  -4.586795e+001  -5.101582e+001 
4203125000  -4.455088e+001  -4.087307e+001 
4206250000  -4.104507e+001  -5.382703e+001 
4209375000  -4.154395e+001  -7.515809e+001 
4212500000  -4.380806e+001  -8.072959e+001 
4215625000  -4.385957e+001  -7.338347e+001 
4218750000  -4.265533e+001  -7.506252e+001 
4221875000  -4.095444e+001  -8.781738e+001 
4225000000  -4.209070e+001  -9.630704e+001 
4228125000  -4.203995e+001  -9.801299e+001 
4231250000  -4.097343e+001  -1.058185e+002 
4234375000  -4.066356e+001  -1.173783e+002 
4237500000  -4.079483e+001  -1.225280e+002 
4240625000  -4.113825e+001  -1.338076e+002 
4243750000  -4.254836e+001  -1.426968e+002 
4246875000  -4.290323e+001  -1.424316e+002 
4250000000  -4.255272e+001  -1.450117e+002 
4253125000  -4.256684e+001  -1.485454e+002 
4256250000  -4.229919e+001  -1.506805e+002 
4259375000  -4.198083e+001  -1.568911e+002 
4262500000  -4.203990e+001  -1.627906e+002 
4265625000  -4.182067e+001  -1.625284e+002 
4268750000  -4.037495e+001  -1.712077e+002 
4271875000  -4.080849e+001  1.770935e+002 
4275000000  -4.019257e+001  1.678571e+002 
4278125000  -4.103230e+001  1.524733e+002 
4281250000  -4.247416e+001  1.523348e+002 
4284375000  -4.191102e+001  1.492414e+002 
4287500000  -4.352372e+001  1.451632e+002 
4290625000  -4.349419e+001  1.527039e+002 
4293750000  -4.148187e+001  1.504634e+002 
4296875000  -4.021301e+001  1.354427e+002 
4300000000  -4.161113e+001  1.262598e+002 
4303125000  -4.191301e+001  1.286108e+002 
4306250000  -4.068824e+001  1.256516e+002 
4309375000  -3.998332e+001  1.177231e+002 
4312500000  -3.981384e+001  1.048235e+002 
4315625000  -4.007887e+001  9.459714e+001 
4318750000  -4.095569e+001  9.041336e+001 
4321875000  -4.088211e+001  8.825159e+001 
4325000000  -4.003445e+001  8.477107e+001 
4328125000  -3.943286e+001  7.400802e+001 
4331250000  -3.971341e+001  6.256622e+001 
4334375000  -4.074235e+001  5.186030e+001 
4337500000  -4.201244e+001  5.181575e+001 
4340625000  -4.208167e+001  5.185170e+001 
4343750000  -4.157290e+001  4.764817e+001 
4346875000  -4.076514e+001  3.803716e+001 
4350000000  -4.077531e+001  2.856341e+001 
4353125000  -4.179140e+001  2.069554e+001 
4356250000  -4.351336e+001  2.241582e+001 
4359375000  -4.264530e+001  3.523639e+001 
4362500000  -3.934803e+001  2.867319e+001 
4365625000  -3.912742e+001  8.093313e+000 
4368750000  -4.030558e+001  -4.042789e+000 
4371875000  -4.096868e+001  -4.934107e+000 
4375000000  -4.032059e+001  -9.804993e+000 
4378125000  -4.022571e+001  -1.733210e+001 
4381250000  -4.030465e+001  -2.554838e+001 
4384375000  -4.067133e+001  -3.077501e+001 
4387500000  -4.136222e+001  -4.262986e+001 
4390625000  -4.210951e+001  -4.363889e+001 
4393750000  -4.134542e+001  -4.187365e+001 
4396875000  -4.120705e+001  -4.821237e+001 
4400000000  -4.063202e+001  -5.861713e+001 
4403125000  -4.161752e+001  -6.894862e+001 
4406250000  -4.182597e+001  -7.241762e+001 
4409375000  -4.215271e+001  -7.674065e+001 
4412500000  -4.312057e+001  -8.106674e+001 
4415625000  -4.305104e+001  -7.595094e+001 
4418750000  -4.142299e+001  -7.927836e+001 
