!Agilent Technologies,E8363B,MY43030201,A.06.04.32
!Agilent E8363B: A.06.04.32
!Date: Tuesday, November 11, 2014 21:53:16
!Correction: S21(Response(S21)) 
!S1P File: Measurement: S21:
# Hz S  dB   R 50
3000000000  -4.364635e+001  -1.636284e+002 
3003125000  -4.535808e+001  -1.671804e+002 
3006250000  -4.534137e+001  -1.705027e+002 
3009375000  -4.607080e+001  -1.660106e+002 
3012500000  -4.513112e+001  -1.734308e+002 
3015625000  -4.498109e+001  1.787148e+002 
3018750000  -4.550076e+001  -1.795221e+002 
3021875000  -4.404367e+001  1.790564e+002 
3025000000  -4.242165e+001  1.750864e+002 
3028125000  -4.182013e+001  1.629198e+002 
3031250000  -4.105196e+001  1.489258e+002 
3034375000  -4.076005e+001  1.358033e+002 
3037500000  -4.162041e+001  1.245745e+002 
3040625000  -4.304791e+001  1.176622e+002 
3043750000  -4.333319e+001  1.121641e+002 
3046875000  -4.401650e+001  1.032668e+002 
3050000000  -4.532154e+001  9.905755e+001 
3053125000  -4.494850e+001  1.054455e+002 
3056250000  -4.485188e+001  1.069238e+002 
3059375000  -4.407281e+001  1.046744e+002 
3062500000  -4.264354e+001  9.895747e+001 
3065625000  -4.206062e+001  8.615234e+001 
3068750000  -4.184694e+001  7.975536e+001 
3071875000  -4.173589e+001  7.766154e+001 
3075000000  -4.114857e+001  6.806183e+001 
3078125000  -4.133578e+001  6.178543e+001 
3081250000  -4.138250e+001  5.554744e+001 
3084375000  -4.040469e+001  4.889735e+001 
3087500000  -4.052966e+001  4.228572e+001 
3090625000  -3.999328e+001  2.867739e+001 
3093750000  -4.090948e+001  1.914325e+001 
3096875000  -4.145238e+001  1.301370e+001 
3100000000  -4.124447e+001  1.029354e+001 
3103125000  -4.136588e+001  4.763547e+000 
3106250000  -4.106504e+001  -2.543827e-001 
3109375000  -4.096405e+001  -5.497211e+000 
3112500000  -4.075776e+001  -1.342839e+001 
3115625000  -4.093009e+001  -1.720039e+001 
3118750000  -4.079424e+001  -2.288054e+001 
3121875000  -4.029896e+001  -3.434609e+001 
3125000000  -4.224110e+001  -3.818148e+001 
3128125000  -4.204808e+001  -3.250135e+001 
3131250000  -3.939343e+001  -4.037535e+001 
3134375000  -3.888179e+001  -5.837403e+001 
3137500000  -3.977769e+001  -7.253404e+001 
3140625000  -4.103761e+001  -7.579745e+001 
3143750000  -4.156391e+001  -8.044528e+001 
3146875000  -4.098526e+001  -7.999072e+001 
3150000000  -4.032279e+001  -8.409715e+001 
3153125000  -4.051929e+001  -9.374594e+001 
3156250000  -4.135396e+001  -9.085502e+001 
3159375000  -3.907951e+001  -9.362175e+001 
3162500000  -3.777625e+001  -1.100097e+002 
3165625000  -3.902670e+001  -1.242046e+002 
3168750000  -3.902913e+001  -1.269190e+002 
3171875000  -3.866295e+001  -1.351756e+002 
3175000000  -3.909110e+001  -1.439169e+002 
3178125000  -3.868314e+001  -1.476464e+002 
3181250000  -3.793293e+001  -1.565357e+002 
3184375000  -3.779464e+001  -1.678430e+002 
3187500000  -3.900354e+001  1.756779e+002 
3190625000  -4.069720e+001  1.677119e+002 
3193750000  -4.123177e+001  1.732745e+002 
3196875000  -4.115777e+001  1.731913e+002 
3200000000  -3.983506e+001  1.662709e+002 
3203125000  -3.967354e+001  1.579746e+002 
3206250000  -3.964477e+001  1.508180e+002 
3209375000  -3.943713e+001  1.414151e+002 
3212500000  -4.002541e+001  1.343466e+002 
3215625000  -3.950491e+001  1.306093e+002 
3218750000  -4.015767e+001  1.191790e+002 
3221875000  -4.056070e+001  1.121911e+002 
3225000000  -4.034811e+001  1.055697e+002 
3228125000  -4.083312e+001  9.965421e+001 
3231250000  -4.140586e+001  9.498826e+001 
3234375000  -4.110905e+001  9.248337e+001 
3237500000  -4.095193e+001  8.760152e+001 
3240625000  -4.033187e+001  8.142929e+001 
3243750000  -4.019246e+001  7.043185e+001 
3246875000  -4.066143e+001  6.245716e+001 
3250000000  -4.114409e+001  5.709273e+001 
3253125000  -4.105941e+001  5.176722e+001 
3256250000  -4.040276e+001  4.280521e+001 
3259375000  -4.092515e+001  2.981034e+001 
3262500000  -4.241018e+001  2.437227e+001 
3265625000  -4.265749e+001  2.482622e+001 
3268750000  -4.266948e+001  2.461042e+001 
3271875000  -4.152286e+001  1.838064e+001 
3275000000  -4.093233e+001  8.576398e+000 
3278125000  -4.171403e+001  1.804959e+000 
3281250000  -4.167910e+001  -1.951209e+000 
3284375000  -4.091898e+001  -1.091831e+001 
3287500000  -4.145408e+001  -1.836914e+001 
3290625000  -4.147069e+001  -2.668286e+001 
3293750000  -4.164811e+001  -3.510350e+001 
3296875000  -4.266174e+001  -4.020786e+001 
3300000000  -4.200252e+001  -4.240132e+001 
3303125000  -4.094031e+001  -5.180069e+001 
3306250000  -4.066935e+001  -6.060045e+001 
3309375000  -4.065955e+001  -7.181011e+001 
3312500000  -4.104282e+001  -8.811070e+001 
3315625000  -4.251873e+001  -9.493694e+001 
3318750000  -4.385205e+001  -1.027792e+002 
3321875000  -4.500788e+001  -1.024460e+002 
3325000000  -4.511883e+001  -9.596008e+001 
3328125000  -4.407618e+001  -9.952620e+001 
3331250000  -4.261737e+001  -1.000554e+002 
3334375000  -4.023738e+001  -1.195860e+002 
3337500000  -4.059024e+001  -1.405051e+002 
3340625000  -4.260594e+001  -1.530765e+002 
3343750000  -4.462558e+001  -1.540002e+002 
3346875000  -4.386303e+001  -1.560317e+002 
3350000000  -4.372897e+001  -1.642279e+002 
3353125000  -4.342616e+001  -1.728216e+002 
3356250000  -4.321809e+001  1.762195e+002 
3359375000  -4.419991e+001  1.639396e+002 
3362500000  -4.530903e+001  1.568052e+002 
3365625000  -4.575853e+001  1.506752e+002 
3368750000  -4.637616e+001  1.428203e+002 
3371875000  -4.688837e+001  1.381593e+002 
3375000000  -4.822762e+001  1.330273e+002 
3378125000  -4.923301e+001  1.297757e+002 
3381250000  -5.030671e+001  1.397146e+002 
3384375000  -4.688044e+001  1.520003e+002 
3387500000  -4.464230e+001  1.252855e+002 
3390625000  -4.653410e+001  1.040012e+002 
3393750000  -4.745415e+001  1.056923e+002 
3396875000  -4.591049e+001  9.925901e+001 
3400000000  -4.587198e+001  8.215744e+001 
3403125000  -4.702850e+001  7.920581e+001 
3406250000  -4.769912e+001  6.970927e+001 
3409375000  -4.732817e+001  5.830040e+001 
3412500000  -4.759432e+001  5.125828e+001 
3415625000  -4.904096e+001  5.039261e+001 
3418750000  -4.902827e+001  4.194019e+001 
3421875000  -4.962600e+001  3.462546e+001 
3425000000  -4.776205e+001  3.415894e+001 
3428125000  -4.673691e+001  2.719361e+001 
3431250000  -4.717366e+001  1.445712e+001 
3434375000  -4.714168e+001  -1.031102e+000 
3437500000  -4.763127e+001  -6.672469e+000 
3440625000  -4.788699e+001  -1.048053e+001 
3443750000  -4.670108e+001  -1.331277e+001 
3446875000  -4.533217e+001  -2.837263e+001 
3450000000  -4.528056e+001  -4.481718e+001 
3453125000  -4.596929e+001  -6.252584e+001 
3456250000  -4.755336e+001  -6.851392e+001 
3459375000  -4.816885e+001  -7.199488e+001 
3462500000  -4.818187e+001  -7.805023e+001 
3465625000  -4.790022e+001  -8.890123e+001 
3468750000  -4.774158e+001  -9.727304e+001 
3471875000  -4.683964e+001  -1.061392e+002 
3475000000  -4.710884e+001  -1.152447e+002 
3478125000  -4.737209e+001  -1.298861e+002 
3481250000  -4.879855e+001  -1.332154e+002 
3484375000  -4.878880e+001  -1.350683e+002 
3487500000  -4.754987e+001  -1.445594e+002 
3490625000  -4.710784e+001  -1.534846e+002 
3493750000  -4.787543e+001  -1.679843e+002 
3496875000  -4.810694e+001  -1.709756e+002 
3500000000  -4.872068e+001  -1.736388e+002 
3503125000  -4.719335e+001  -1.735404e+002 
3506250000  -4.590202e+001  1.684361e+002 
3509375000  -4.583234e+001  1.485748e+002 
3512500000  -4.595169e+001  1.344322e+002 
3515625000  -4.768349e+001  1.307585e+002 
3518750000  -4.815131e+001  1.301848e+002 
3521875000  -4.799372e+001  1.168677e+002 
3525000000  -4.878619e+001  1.128363e+002 
3528125000  -4.712738e+001  1.151203e+002 
3531250000  -4.657090e+001  1.019161e+002 
3534375000  -4.704401e+001  8.551217e+001 
3537500000  -4.787001e+001  7.933179e+001 
3540625000  -4.898527e+001  7.493862e+001 
3543750000  -4.894632e+001  7.692258e+001 
3546875000  -4.844015e+001  8.119036e+001 
3550000000  -4.676379e+001  7.218622e+001 
3553125000  -4.585133e+001  5.324988e+001 
3556250000  -4.758292e+001  4.476110e+001 
3559375000  -4.676701e+001  3.910910e+001 
3562500000  -4.626016e+001  2.920454e+001 
3565625000  -4.703465e+001  2.380466e+001 
3568750000  -4.737209e+001  1.942533e+001 
3571875000  -4.699021e+001  1.680435e+001 
3575000000  -4.714531e+001  8.679541e+000 
3578125000  -4.779388e+001  4.290516e+000 
3581250000  -4.752458e+001  2.830652e+000 
3584375000  -4.579883e+001  -4.572256e+000 
3587500000  -4.569480e+001  -1.776748e+001 
3590625000  -4.632836e+001  -2.887988e+001 
3593750000  -4.813740e+001  -2.870962e+001 
3596875000  -4.670236e+001  -2.241249e+001 
3600000000  -4.438741e+001  -3.451245e+001 
3603125000  -4.504070e+001  -5.154999e+001 
3606250000  -4.601294e+001  -5.666814e+001 
3609375000  -4.589528e+001  -5.969602e+001 
3612500000  -4.580238e+001  -6.859692e+001 
3615625000  -4.625146e+001  -7.223418e+001 
3618750000  -4.616133e+001  -7.245451e+001 
3621875000  -4.528254e+001  -7.938766e+001 
3625000000  -4.596170e+001  -8.491515e+001 
3628125000  -4.511060e+001  -9.076350e+001 
3631250000  -4.490826e+001  -9.932539e+001 
3634375000  -4.557293e+001  -9.946112e+001 
3637500000  -4.449140e+001  -1.033117e+002 
3640625000  -4.360120e+001  -1.086351e+002 
3643750000  -4.312667e+001  -1.214232e+002 
3646875000  -4.375872e+001  -1.331615e+002 
3650000000  -4.359062e+001  -1.369424e+002 
3653125000  -4.328677e+001  -1.428431e+002 
3656250000  -4.382740e+001  -1.533193e+002 
3659375000  -4.361584e+001  -1.544788e+002 
3662500000  -4.330571e+001  -1.621673e+002 
3665625000  -4.333585e+001  -1.675376e+002 
3668750000  -4.191701e+001  -1.709252e+002 
3671875000  -4.139103e+001  1.739456e+002 
3675000000  -4.227587e+001  1.660610e+002 
3678125000  -4.288722e+001  1.603609e+002 
3681250000  -4.233442e+001  1.550059e+002 
3684375000  -4.272141e+001  1.445847e+002 
3687500000  -4.289087e+001  1.363065e+002 
3690625000  -4.344365e+001  1.316139e+002 
3693750000  -4.448654e+001  1.307195e+002 
3696875000  -4.405791e+001  1.269961e+002 
3700000000  -4.307547e+001  1.202587e+002 
3703125000  -4.340608e+001  1.129873e+002 
3706250000  -4.476094e+001  1.085092e+002 
3709375000  -4.366595e+001  1.091012e+002 
3712500000  -4.291210e+001  1.033443e+002 
3715625000  -4.179234e+001  9.361861e+001 
3718750000  -4.133367e+001  8.251847e+001 
3721875000  -4.171647e+001  7.440884e+001 
3725000000  -4.247147e+001  6.587169e+001 
3728125000  -4.246235e+001  6.319723e+001 
3731250000  -4.193795e+001  5.447047e+001 
3734375000  -4.202696e+001  4.829084e+001 
3737500000  -4.265569e+001  3.991862e+001 
3740625000  -4.277612e+001  3.450997e+001 
3743750000  -4.281815e+001  2.777382e+001 
3746875000  -4.321459e+001  2.107203e+001 
3750000000  -4.388812e+001  1.939509e+001 
3753125000  -4.391624e+001  1.444048e+001 
3756250000  -4.346894e+001  1.104944e+001 
3759375000  -4.363931e+001  5.441618e+000 
3762500000  -4.343174e+001  2.882381e-001 
3765625000  -4.398410e+001  -3.331979e+000 
3768750000  -4.351131e+001  -4.232610e+000 
3771875000  -4.168902e+001  -1.206814e+001 
3775000000  -4.210102e+001  -2.122815e+001 
3778125000  -4.260073e+001  -2.973211e+001 
3781250000  -4.248235e+001  -3.325331e+001 
3784375000  -4.234018e+001  -3.814723e+001 
3787500000  -4.241055e+001  -4.379646e+001 
3790625000  -4.278233e+001  -5.565458e+001 
3793750000  -4.272926e+001  -5.687519e+001 
3796875000  -4.155080e+001  -6.284545e+001 
3800000000  -4.052328e+001  -6.973465e+001 
3803125000  -4.170574e+001  -8.224799e+001 
3806250000  -4.231407e+001  -8.735400e+001 
3809375000  -4.193993e+001  -9.251478e+001 
3812500000  -4.168064e+001  -1.029497e+002 
3815625000  -4.320107e+001  -1.153656e+002 
3818750000  -4.401270e+001  -1.109133e+002 
3821875000  -4.346445e+001  -1.004524e+002 
3825000000  -4.127860e+001  -1.074945e+002 
3828125000  -4.041188e+001  -1.275166e+002 
3831250000  -4.151450e+001  -1.422800e+002 
3834375000  -4.376942e+001  -1.437627e+002 
3837500000  -4.366088e+001  -1.438808e+002 
3840625000  -4.240345e+001  -1.449906e+002 
3843750000  -4.167121e+001  -1.633335e+002 
3846875000  -4.347252e+001  -1.684928e+002 
3850000000  -4.394081e+001  -1.633018e+002 
3853125000  -4.363905e+001  -1.640431e+002 
3856250000  -4.306110e+001  -1.726355e+002 
3859375000  -4.196055e+001  1.753549e+002 
3862500000  -4.177710e+001  1.663563e+002 
3865625000  -4.255563e+001  1.620123e+002 
3868750000  -4.236853e+001  1.592607e+002 
3871875000  -4.144566e+001  1.483400e+002 
3875000000  -4.276317e+001  1.391605e+002 
3878125000  -4.341873e+001  1.386910e+002 
3881250000  -4.302336e+001  1.371833e+002 
3884375000  -4.237514e+001  1.284509e+002 
3887500000  -4.316773e+001  1.179708e+002 
3890625000  -4.331821e+001  1.145127e+002 
3893750000  -4.402869e+001  1.125843e+002 
3896875000  -4.449643e+001  1.093382e+002 
3900000000  -4.419393e+001  1.042479e+002 
3903125000  -4.372582e+001  9.905428e+001 
3906250000  -4.339629e+001  9.318909e+001 
3909375000  -4.247020e+001  8.729321e+001 
3912500000  -4.361956e+001  7.470139e+001 
3915625000  -4.470916e+001  7.647193e+001 
3918750000  -4.432130e+001  7.537214e+001 
3921875000  -4.351611e+001  7.059184e+001 
3925000000  -4.266169e+001  6.373196e+001 
3928125000  -4.312143e+001  5.455250e+001 
3931250000  -4.384829e+001  4.583551e+001 
3934375000  -4.355616e+001  4.443485e+001 
3937500000  -4.439382e+001  4.313750e+001 
3940625000  -4.442130e+001  4.109341e+001 
3943750000  -4.315257e+001  3.371860e+001 
3946875000  -4.269353e+001  2.557733e+001 
3950000000  -4.373934e+001  1.848910e+001 
3953125000  -4.463890e+001  2.026303e+001 
3956250000  -4.255736e+001  1.757621e+001 
3959375000  -4.151713e+001  1.163670e+001 
3962500000  -4.142268e+001  -3.426222e-001 
3965625000  -4.154778e+001  -1.103872e+001 
3968750000  -4.238238e+001  -1.985676e+001 
3971875000  -4.225491e+001  -2.691882e+001 
3975000000  -4.194126e+001  -2.631856e+001 
3978125000  -4.218863e+001  -3.627959e+001 
3981250000  -4.202829e+001  -4.255838e+001 
3984375000  -4.209182e+001  -5.215923e+001 
3987500000  -4.295338e+001  -5.576292e+001 
3990625000  -4.297595e+001  -5.939955e+001 
3993750000  -4.309740e+001  -6.454812e+001 
3996875000  -4.277955e+001  -7.225275e+001 
4000000000  -4.342809e+001  -7.349773e+001 
4003125000  -4.359612e+001  -7.644807e+001 
4006250000  -4.169718e+001  -8.087505e+001 
4009375000  -4.101678e+001  -9.930627e+001 
4012500000  -4.288533e+001  -1.044405e+002 
4015625000  -4.404951e+001  -1.066181e+002 
4018750000  -4.371305e+001  -1.112386e+002 
4021875000  -4.315648e+001  -1.185020e+002 
4025000000  -4.316243e+001  -1.234337e+002 
4028125000  -4.339093e+001  -1.313302e+002 
4031250000  -4.394070e+001  -1.406507e+002 
4034375000  -4.367012e+001  -1.414928e+002 
4037500000  -4.429051e+001  -1.461293e+002 
4040625000  -4.427380e+001  -1.510454e+002 
4043750000  -4.418933e+001  -1.568519e+002 
4046875000  -4.425274e+001  -1.595665e+002 
4050000000  -4.389734e+001  -1.673589e+002 
4053125000  -4.473110e+001  -1.709093e+002 
4056250000  -4.544507e+001  -1.637444e+002 
4059375000  -4.426240e+001  -1.671684e+002 
4062500000  -4.334585e+001  -1.777326e+002 
4065625000  -4.345641e+001  1.783084e+002 
4068750000  -4.297244e+001  1.703030e+002 
4071875000  -4.246014e+001  1.582027e+002 
4075000000  -4.324607e+001  1.518820e+002 
4078125000  -4.377793e+001  1.490356e+002 
4081250000  -4.331704e+001  1.455433e+002 
4084375000  -4.340304e+001  1.343360e+002 
4087500000  -4.371972e+001  1.259413e+002 
4090625000  -4.473865e+001  1.214963e+002 
4093750000  -4.416774e+001  1.217194e+002 
4096875000  -4.402858e+001  1.125293e+002 
4100000000  -4.502051e+001  1.066092e+002 
4103125000  -4.582693e+001  1.108646e+002 
4106250000  -4.477427e+001  1.111016e+002 
4109375000  -4.412801e+001  1.072476e+002 
4112500000  -4.393502e+001  9.471847e+001 
4115625000  -4.426175e+001  9.531760e+001 
4118750000  -4.407164e+001  8.872581e+001 
4121875000  -4.364078e+001  8.108799e+001 
4125000000  -4.478259e+001  7.139590e+001 
4128125000  -4.503500e+001  7.733111e+001 
4131250000  -4.367530e+001  7.962914e+001 
4134375000  -4.131125e+001  6.875943e+001 
4137500000  -4.202345e+001  4.583961e+001 
4140625000  -4.415165e+001  3.905328e+001 
4143750000  -4.492784e+001  4.416799e+001 
4146875000  -4.370126e+001  4.157051e+001 
4150000000  -4.275376e+001  3.543907e+001 
4153125000  -4.272341e+001  2.505478e+001 
4156250000  -4.401497e+001  2.336765e+001 
4159375000  -4.369958e+001  2.348871e+001 
4162500000  -4.219946e+001  2.369866e+001 
4165625000  -4.149674e+001  1.094723e+001 
4168750000  -4.076351e+001  2.003759e+000 
4171875000  -4.091535e+001  -9.622035e+000 
4175000000  -4.158959e+001  -1.722826e+001 
4178125000  -4.217968e+001  -1.727699e+001 
4181250000  -4.175107e+001  -2.771514e+001 
4184375000  -4.248429e+001  -3.224982e+001 
4187500000  -4.238152e+001  -4.016279e+001 
4190625000  -4.262129e+001  -5.012247e+001 
4193750000  -4.431789e+001  -5.583949e+001 
4196875000  -4.482677e+001  -5.958897e+001 
4200000000  -4.587638e+001  -5.205633e+001 
4203125000  -4.414621e+001  -4.134262e+001 
4206250000  -4.141685e+001  -5.186923e+001 
4209375000  -4.155486e+001  -7.543420e+001 
4212500000  -4.348034e+001  -8.220917e+001 
4215625000  -4.388765e+001  -7.744054e+001 
4218750000  -4.223171e+001  -7.580613e+001 
4221875000  -4.097204e+001  -8.581073e+001 
4225000000  -4.253637e+001  -9.857407e+001 
4228125000  -4.237140e+001  -9.880128e+001 
4231250000  -4.105132e+001  -1.069268e+002 
4234375000  -4.077771e+001  -1.175857e+002 
4237500000  -4.086998e+001  -1.241109e+002 
4240625000  -4.105069e+001  -1.343275e+002 
4243750000  -4.234884e+001  -1.438260e+002 
4246875000  -4.308135e+001  -1.424604e+002 
4250000000  -4.246423e+001  -1.421326e+002 
4253125000  -4.231632e+001  -1.475056e+002 
4256250000  -4.233528e+001  -1.502327e+002 
4259375000  -4.186841e+001  -1.601386e+002 
4262500000  -4.216527e+001  -1.668650e+002 
4265625000  -4.204438e+001  -1.632257e+002 
4268750000  -4.064021e+001  -1.738559e+002 
4271875000  -4.080621e+001  1.767870e+002 
4275000000  -4.043370e+001  1.674590e+002 
4278125000  -4.135184e+001  1.550072e+002 
4281250000  -4.236529e+001  1.520813e+002 
4284375000  -4.239901e+001  1.514210e+002 
4287500000  -4.332471e+001  1.471877e+002 
4290625000  -4.346695e+001  1.545906e+002 
4293750000  -4.153373e+001  1.518297e+002 
4296875000  -4.000667e+001  1.362480e+002 
4300000000  -4.142690e+001  1.265509e+002 
4303125000  -4.195782e+001  1.241776e+002 
4306250000  -4.050946e+001  1.238575e+002 
4309375000  -4.002978e+001  1.169333e+002 
4312500000  -3.945919e+001  1.045890e+002 
4315625000  -4.011394e+001  9.461510e+001 
4318750000  -4.062111e+001  9.095425e+001 
4321875000  -4.075390e+001  8.719073e+001 
4325000000  -3.989749e+001  8.393543e+001 
4328125000  -3.961150e+001  7.388091e+001 
4331250000  -3.955200e+001  5.945415e+001 
4334375000  -4.077082e+001  5.221388e+001 
4337500000  -4.201089e+001  4.914787e+001 
4340625000  -4.200100e+001  5.272651e+001 
4343750000  -4.100852e+001  4.795319e+001 
4346875000  -4.110377e+001  3.847758e+001 
4350000000  -4.087190e+001  3.074063e+001 
4353125000  -4.174359e+001  1.718056e+001 
4356250000  -4.356289e+001  2.466823e+001 
4359375000  -4.290982e+001  3.587636e+001 
4362500000  -3.937010e+001  2.433237e+001 
4365625000  -3.895679e+001  6.990654e+000 
4368750000  -3.995955e+001  -4.496562e+000 
4371875000  -4.092983e+001  -4.059680e+000 
4375000000  -4.068761e+001  -1.056174e+001 
4378125000  -4.027084e+001  -1.887446e+001 
4381250000  -4.030932e+001  -2.902208e+001 
4384375000  -4.068495e+001  -3.382632e+001 
4387500000  -4.138514e+001  -4.062406e+001 
4390625000  -4.201711e+001  -4.120485e+001 
4393750000  -4.155153e+001  -4.630298e+001 
4396875000  -4.104057e+001  -4.983596e+001 
4400000000  -4.037513e+001  -5.944340e+001 
4403125000  -4.185391e+001  -6.888442e+001 
4406250000  -4.187640e+001  -7.487773e+001 
4409375000  -4.244075e+001  -7.658144e+001 
4412500000  -4.289208e+001  -8.362364e+001 
4415625000  -4.323981e+001  -7.818948e+001 
4418750000  -4.154307e+001  -7.734765e+001 
