!Agilent Technologies,E8363B,MY43030201,A.06.04.32
!Agilent E8363B: A.06.04.32
!Date: Tuesday, November 11, 2014 21:41:19
!Correction: S21(Response(S21)) 
!S1P File: Measurement: S21:
# Hz S  dB   R 50
3000000000  -4.360980e+001  -1.566413e+002 
3003125000  -4.554155e+001  -1.627099e+002 
3006250000  -4.510653e+001  -1.626681e+002 
3009375000  -4.590926e+001  -1.598136e+002 
3012500000  -4.474745e+001  -1.677360e+002 
3015625000  -4.478837e+001  -1.746461e+002 
3018750000  -4.541903e+001  -1.749820e+002 
3021875000  -4.366101e+001  -1.757470e+002 
3025000000  -4.263224e+001  -1.796791e+002 
3028125000  -4.158959e+001  1.685587e+002 
3031250000  -4.089874e+001  1.562392e+002 
3034375000  -4.074363e+001  1.425442e+002 
3037500000  -4.159275e+001  1.303505e+002 
3040625000  -4.284205e+001  1.238895e+002 
3043750000  -4.325542e+001  1.170273e+002 
3046875000  -4.429799e+001  1.104546e+002 
3050000000  -4.512643e+001  1.079497e+002 
3053125000  -4.480558e+001  1.085047e+002 
3056250000  -4.484597e+001  1.118019e+002 
3059375000  -4.420830e+001  1.091260e+002 
3062500000  -4.231808e+001  1.035669e+002 
3065625000  -4.229330e+001  9.264686e+001 
3068750000  -4.170916e+001  8.599209e+001 
3071875000  -4.191917e+001  8.253545e+001 
3075000000  -4.116103e+001  7.509335e+001 
3078125000  -4.114983e+001  6.667070e+001 
3081250000  -4.130772e+001  6.131808e+001 
3084375000  -4.047298e+001  5.567035e+001 
3087500000  -4.049772e+001  4.764625e+001 
3090625000  -3.983493e+001  3.533592e+001 
3093750000  -4.117321e+001  2.540705e+001 
3096875000  -4.121142e+001  1.921862e+001 
3100000000  -4.107553e+001  1.576863e+001 
3103125000  -4.136915e+001  1.137390e+001 
3106250000  -4.103767e+001  4.803071e+000 
3109375000  -4.099567e+001  8.917740e-002 
3112500000  -4.097932e+001  -8.417583e+000 
3115625000  -4.090655e+001  -1.261450e+001 
3118750000  -4.082610e+001  -1.762111e+001 
3121875000  -4.032243e+001  -2.917961e+001 
3125000000  -4.230389e+001  -3.185688e+001 
3128125000  -4.209824e+001  -2.708234e+001 
3131250000  -3.943067e+001  -3.563269e+001 
3134375000  -3.878028e+001  -5.403662e+001 
3137500000  -3.956730e+001  -6.665049e+001 
3140625000  -4.113850e+001  -7.197787e+001 
3143750000  -4.169975e+001  -7.450166e+001 
3146875000  -4.105285e+001  -7.426342e+001 
3150000000  -4.046059e+001  -7.857130e+001 
3153125000  -4.101865e+001  -8.914566e+001 
3156250000  -4.132472e+001  -8.556052e+001 
3159375000  -3.932872e+001  -8.841570e+001 
3162500000  -3.770584e+001  -1.048706e+002 
3165625000  -3.914496e+001  -1.189185e+002 
3168750000  -3.905955e+001  -1.205032e+002 
3171875000  -3.870531e+001  -1.301743e+002 
3175000000  -3.909378e+001  -1.384167e+002 
3178125000  -3.888217e+001  -1.411444e+002 
3181250000  -3.806533e+001  -1.501362e+002 
3184375000  -3.804993e+001  -1.631562e+002 
3187500000  -3.907622e+001  -1.790211e+002 
3190625000  -4.104058e+001  1.740351e+002 
3193750000  -4.107929e+001  1.795668e+002 
3196875000  -4.109683e+001  1.785498e+002 
3200000000  -3.995711e+001  1.732281e+002 
3203125000  -3.959352e+001  1.637192e+002 
3206250000  -4.000145e+001  1.553291e+002 
3209375000  -3.948589e+001  1.459960e+002 
3212500000  -3.990167e+001  1.392165e+002 
3215625000  -3.977528e+001  1.365390e+002 
3218750000  -4.040325e+001  1.238387e+002 
3221875000  -4.054779e+001  1.177402e+002 
3225000000  -4.047652e+001  1.116687e+002 
3228125000  -4.127464e+001  1.054836e+002 
3231250000  -4.126639e+001  1.004296e+002 
3234375000  -4.112123e+001  9.743208e+001 
3237500000  -4.093256e+001  9.422522e+001 
3240625000  -4.032707e+001  8.545462e+001 
3243750000  -4.026222e+001  7.513750e+001 
3246875000  -4.078519e+001  6.710524e+001 
3250000000  -4.121717e+001  6.206462e+001 
3253125000  -4.137103e+001  5.729942e+001 
3256250000  -4.056712e+001  4.724606e+001 
3259375000  -4.107196e+001  3.526675e+001 
3262500000  -4.241206e+001  3.045463e+001 
3265625000  -4.252820e+001  3.193000e+001 
3268750000  -4.263047e+001  3.001778e+001 
3271875000  -4.169127e+001  2.528428e+001 
3275000000  -4.122412e+001  1.361743e+001 
3278125000  -4.159114e+001  6.122981e+000 
3281250000  -4.199165e+001  2.351335e+000 
3284375000  -4.113361e+001  -5.327890e+000 
3287500000  -4.158060e+001  -1.347639e+001 
3290625000  -4.169536e+001  -2.352292e+001 
3293750000  -4.146450e+001  -3.020858e+001 
3296875000  -4.276735e+001  -3.496745e+001 
3300000000  -4.196148e+001  -3.692417e+001 
3303125000  -4.103400e+001  -4.699659e+001 
3306250000  -4.087979e+001  -5.781837e+001 
3309375000  -4.073694e+001  -6.776804e+001 
3312500000  -4.122069e+001  -8.256268e+001 
3315625000  -4.249030e+001  -9.194105e+001 
3318750000  -4.391955e+001  -1.003648e+002 
3321875000  -4.524335e+001  -9.589931e+001 
3325000000  -4.559877e+001  -9.187446e+001 
3328125000  -4.402650e+001  -9.528673e+001 
3331250000  -4.247721e+001  -9.575118e+001 
3334375000  -4.033228e+001  -1.141631e+002 
3337500000  -4.088686e+001  -1.373210e+002 
3340625000  -4.274819e+001  -1.477706e+002 
3343750000  -4.470723e+001  -1.492084e+002 
3346875000  -4.418604e+001  -1.537881e+002 
3350000000  -4.361847e+001  -1.579945e+002 
3353125000  -4.372556e+001  -1.656015e+002 
3356250000  -4.350135e+001  -1.779227e+002 
3359375000  -4.447371e+001  1.672199e+002 
3362500000  -4.513973e+001  1.609516e+002 
3365625000  -4.602832e+001  1.550379e+002 
3368750000  -4.640605e+001  1.507920e+002 
3371875000  -4.694629e+001  1.427863e+002 
3375000000  -4.883990e+001  1.386781e+002 
3378125000  -4.912775e+001  1.368057e+002 
3381250000  -5.101394e+001  1.471441e+002 
3384375000  -4.767570e+001  1.541276e+002 
3387500000  -4.508794e+001  1.308998e+002 
3390625000  -4.694317e+001  1.083107e+002 
3393750000  -4.838452e+001  1.077351e+002 
3396875000  -4.689160e+001  1.039024e+002 
3400000000  -4.605820e+001  9.098373e+001 
3403125000  -4.726535e+001  8.213110e+001 
3406250000  -4.749794e+001  7.417642e+001 
3409375000  -4.736450e+001  6.583735e+001 
3412500000  -4.790611e+001  5.708013e+001 
3415625000  -4.899670e+001  5.436751e+001 
3418750000  -4.833873e+001  4.369007e+001 
3421875000  -4.885669e+001  4.323579e+001 
3425000000  -4.775984e+001  4.079111e+001 
3428125000  -4.706809e+001  3.363171e+001 
3431250000  -4.664474e+001  1.801706e+001 
3434375000  -4.684450e+001  7.328681e+000 
3437500000  -4.775160e+001  -3.471921e+000 
3440625000  -4.781832e+001  -7.260041e+000 
3443750000  -4.640922e+001  -8.759427e+000 
3446875000  -4.576019e+001  -2.662339e+001 
3450000000  -4.542575e+001  -3.988107e+001 
3453125000  -4.586262e+001  -5.772017e+001 
3456250000  -4.677699e+001  -7.045473e+001 
3459375000  -4.840350e+001  -6.752889e+001 
3462500000  -4.792048e+001  -7.527783e+001 
3465625000  -4.740084e+001  -8.593720e+001 
3468750000  -4.699087e+001  -9.370663e+001 
3471875000  -4.681511e+001  -9.963115e+001 
3475000000  -4.695464e+001  -1.134948e+002 
3478125000  -4.723307e+001  -1.272155e+002 
3481250000  -4.916369e+001  -1.302023e+002 
3484375000  -4.858641e+001  -1.322575e+002 
3487500000  -4.749778e+001  -1.405072e+002 
3490625000  -4.692908e+001  -1.511225e+002 
3493750000  -4.812449e+001  -1.622775e+002 
3496875000  -4.818172e+001  -1.642652e+002 
3500000000  -4.786731e+001  -1.696606e+002 
3503125000  -4.742916e+001  -1.699554e+002 
3506250000  -4.530311e+001  1.765885e+002 
3509375000  -4.528376e+001  1.553125e+002 
3512500000  -4.621900e+001  1.404968e+002 
3515625000  -4.701820e+001  1.371454e+002 
3518750000  -4.789102e+001  1.359190e+002 
3521875000  -4.810555e+001  1.257478e+002 
3525000000  -4.852893e+001  1.198102e+002 
3528125000  -4.774429e+001  1.215265e+002 
3531250000  -4.634770e+001  1.083759e+002 
3534375000  -4.680377e+001  9.272524e+001 
3537500000  -4.776856e+001  8.594405e+001 
3540625000  -4.877957e+001  7.931073e+001 
3543750000  -4.995923e+001  8.294077e+001 
3546875000  -4.863392e+001  8.412154e+001 
3550000000  -4.618331e+001  7.684377e+001 
3553125000  -4.617093e+001  5.718469e+001 
3556250000  -4.696726e+001  4.875726e+001 
3559375000  -4.659332e+001  4.714278e+001 
3562500000  -4.665459e+001  3.643912e+001 
3565625000  -4.728304e+001  3.072388e+001 
3568750000  -4.807957e+001  2.674576e+001 
3571875000  -4.732227e+001  2.072209e+001 
3575000000  -4.740378e+001  1.366984e+001 
3578125000  -4.753194e+001  9.622700e+000 
3581250000  -4.753915e+001  8.773193e+000 
3584375000  -4.585594e+001  2.743988e-001 
3587500000  -4.596026e+001  -1.089306e+001 
3590625000  -4.670741e+001  -2.073676e+001 
3593750000  -4.745210e+001  -2.107524e+001 
3596875000  -4.639714e+001  -1.561640e+001 
3600000000  -4.467290e+001  -2.836226e+001 
3603125000  -4.510452e+001  -4.198360e+001 
3606250000  -4.597545e+001  -4.838874e+001 
3609375000  -4.592194e+001  -5.237241e+001 
3612500000  -4.619022e+001  -5.773573e+001 
3615625000  -4.576649e+001  -6.417123e+001 
3618750000  -4.594391e+001  -6.876226e+001 
3621875000  -4.551619e+001  -7.404922e+001 
3625000000  -4.576866e+001  -7.746777e+001 
3628125000  -4.474397e+001  -8.535790e+001 
3631250000  -4.491194e+001  -9.186978e+001 
3634375000  -4.552319e+001  -9.368526e+001 
3637500000  -4.432893e+001  -9.719708e+001 
3640625000  -4.351008e+001  -1.020548e+002 
3643750000  -4.339397e+001  -1.154452e+002 
3646875000  -4.407180e+001  -1.255122e+002 
3650000000  -4.362511e+001  -1.305459e+002 
3653125000  -4.328194e+001  -1.364232e+002 
3656250000  -4.431897e+001  -1.428024e+002 
3659375000  -4.375274e+001  -1.463277e+002 
3662500000  -4.333736e+001  -1.550739e+002 
3665625000  -4.361679e+001  -1.589247e+002 
3668750000  -4.189042e+001  -1.634447e+002 
3671875000  -4.169971e+001  -1.771994e+002 
3675000000  -4.238023e+001  1.703480e+002 
3678125000  -4.264738e+001  1.665125e+002 
3681250000  -4.242066e+001  1.609864e+002 
3684375000  -4.295431e+001  1.531570e+002 
3687500000  -4.266700e+001  1.446029e+002 
3690625000  -4.357121e+001  1.399762e+002 
3693750000  -4.438913e+001  1.375336e+002 
3696875000  -4.364390e+001  1.330689e+002 
3700000000  -4.294928e+001  1.263572e+002 
3703125000  -4.369742e+001  1.196487e+002 
3706250000  -4.462230e+001  1.164305e+002 
3709375000  -4.365211e+001  1.172440e+002 
3712500000  -4.327035e+001  1.094709e+002 
3715625000  -4.186088e+001  1.004364e+002 
3718750000  -4.159541e+001  8.930918e+001 
3721875000  -4.173664e+001  8.255426e+001 
3725000000  -4.251157e+001  7.378379e+001 
3728125000  -4.265247e+001  7.133699e+001 
3731250000  -4.202175e+001  6.511491e+001 
3734375000  -4.217438e+001  5.512350e+001 
3737500000  -4.301851e+001  4.779868e+001 
3740625000  -4.327534e+001  4.311244e+001 
3743750000  -4.310396e+001  3.504744e+001 
3746875000  -4.367775e+001  2.810592e+001 
3750000000  -4.337382e+001  2.634902e+001 
3753125000  -4.397133e+001  2.410750e+001 
3756250000  -4.397594e+001  1.863038e+001 
3759375000  -4.373631e+001  1.467760e+001 
3762500000  -4.352766e+001  9.219130e+000 
3765625000  -4.422116e+001  4.208895e+000 
3768750000  -4.365136e+001  6.590534e+000 
3771875000  -4.213050e+001  -3.591968e+000 
3775000000  -4.229002e+001  -1.372371e+001 
3778125000  -4.263438e+001  -1.927710e+001 
3781250000  -4.307294e+001  -2.729073e+001 
3784375000  -4.245779e+001  -3.072052e+001 
3787500000  -4.241996e+001  -3.477775e+001 
3790625000  -4.307954e+001  -4.553582e+001 
3793750000  -4.271852e+001  -5.070844e+001 
3796875000  -4.197722e+001  -5.572502e+001 
3800000000  -4.107061e+001  -6.002764e+001 
3803125000  -4.177450e+001  -7.218053e+001 
3806250000  -4.238640e+001  -7.654351e+001 
3809375000  -4.209305e+001  -8.315778e+001 
3812500000  -4.192104e+001  -9.654497e+001 
3815625000  -4.309904e+001  -1.056048e+002 
3818750000  -4.471865e+001  -1.048816e+002 
3821875000  -4.334247e+001  -9.372215e+001 
3825000000  -4.172470e+001  -9.772857e+001 
3828125000  -4.059158e+001  -1.201157e+002 
3831250000  -4.166433e+001  -1.358241e+002 
3834375000  -4.381971e+001  -1.353029e+002 
3837500000  -4.409215e+001  -1.325627e+002 
3840625000  -4.249410e+001  -1.410957e+002 
3843750000  -4.169437e+001  -1.547898e+002 
3846875000  -4.317113e+001  -1.596681e+002 
3850000000  -4.393187e+001  -1.548779e+002 
3853125000  -4.328668e+001  -1.555738e+002 
3856250000  -4.317488e+001  -1.620051e+002 
3859375000  -4.229292e+001  -1.752492e+002 
3862500000  -4.196349e+001  1.748745e+002 
3865625000  -4.247606e+001  1.691145e+002 
3868750000  -4.248138e+001  1.654084e+002 
3871875000  -4.229366e+001  1.559892e+002 
3875000000  -4.238350e+001  1.463349e+002 
3878125000  -4.357335e+001  1.439967e+002 
3881250000  -4.330383e+001  1.429711e+002 
3884375000  -4.267128e+001  1.322151e+002 
3887500000  -4.336306e+001  1.277291e+002 
3890625000  -4.411929e+001  1.209729e+002 
3893750000  -4.420338e+001  1.205628e+002 
3896875000  -4.453027e+001  1.195274e+002 
3900000000  -4.469082e+001  1.129683e+002 
3903125000  -4.363583e+001  1.067284e+002 
3906250000  -4.349863e+001  1.049324e+002 
3909375000  -4.292419e+001  9.608896e+001 
3912500000  -4.384755e+001  8.603828e+001 
3915625000  -4.472239e+001  8.408089e+001 
3918750000  -4.473905e+001  8.264948e+001 
3921875000  -4.413472e+001  7.653073e+001 
3925000000  -4.340180e+001  6.978957e+001 
3928125000  -4.328165e+001  6.184774e+001 
3931250000  -4.381653e+001  5.421896e+001 
3934375000  -4.419138e+001  5.192464e+001 
3937500000  -4.479844e+001  4.838643e+001 
3940625000  -4.483830e+001  4.979517e+001 
3943750000  -4.342065e+001  4.340889e+001 
3946875000  -4.296360e+001  3.284573e+001 
3950000000  -4.392754e+001  2.274971e+001 
3953125000  -4.479241e+001  2.702503e+001 
3956250000  -4.275573e+001  2.557916e+001 
3959375000  -4.217714e+001  1.980068e+001 
3962500000  -4.153378e+001  7.643191e+000 
3965625000  -4.221504e+001  -1.328088e+000 
3968750000  -4.242902e+001  -9.727758e+000 
3971875000  -4.291335e+001  -1.570710e+001 
3975000000  -4.198994e+001  -1.767986e+001 
3978125000  -4.237142e+001  -2.825084e+001 
3981250000  -4.190330e+001  -3.331807e+001 
3984375000  -4.267007e+001  -4.199834e+001 
3987500000  -4.299757e+001  -4.738054e+001 
3990625000  -4.312445e+001  -4.976226e+001 
3993750000  -4.321626e+001  -5.597498e+001 
3996875000  -4.311662e+001  -6.312940e+001 
4000000000  -4.353273e+001  -6.707353e+001 
4003125000  -4.401981e+001  -6.842815e+001 
4006250000  -4.234428e+001  -7.227040e+001 
4009375000  -4.138809e+001  -8.968250e+001 
4012500000  -4.304215e+001  -9.763056e+001 
4015625000  -4.413567e+001  -1.002360e+002 
4018750000  -4.438465e+001  -1.039389e+002 
4021875000  -4.325798e+001  -1.088222e+002 
4025000000  -4.355099e+001  -1.162400e+002 
4028125000  -4.369257e+001  -1.235320e+002 
4031250000  -4.456256e+001  -1.299743e+002 
4034375000  -4.428148e+001  -1.346303e+002 
4037500000  -4.405263e+001  -1.348277e+002 
4040625000  -4.421024e+001  -1.433723e+002 
4043750000  -4.466512e+001  -1.446458e+002 
4046875000  -4.433141e+001  -1.525428e+002 
4050000000  -4.431219e+001  -1.609191e+002 
4053125000  -4.570427e+001  -1.595926e+002 
4056250000  -4.600631e+001  -1.572676e+002 
4059375000  -4.400731e+001  -1.591624e+002 
4062500000  -4.391568e+001  -1.691600e+002 
4065625000  -4.366928e+001  -1.741253e+002 
4068750000  -4.321139e+001  1.776603e+002 
4071875000  -4.309375e+001  1.652162e+002 
4075000000  -4.370560e+001  1.601870e+002 
4078125000  -4.462443e+001  1.588400e+002 
4081250000  -4.389897e+001  1.512737e+002 
4084375000  -4.359185e+001  1.416216e+002 
4087500000  -4.440672e+001  1.331713e+002 
4090625000  -4.471042e+001  1.347165e+002 
4093750000  -4.454064e+001  1.312142e+002 
4096875000  -4.429909e+001  1.195666e+002 
4100000000  -4.526315e+001  1.182329e+002 
4103125000  -4.623234e+001  1.187085e+002 
4106250000  -4.561895e+001  1.201555e+002 
4109375000  -4.475355e+001  1.158121e+002 
4112500000  -4.411769e+001  1.081507e+002 
4115625000  -4.490356e+001  1.016581e+002 
4118750000  -4.417204e+001  9.427538e+001 
4121875000  -4.467199e+001  8.981243e+001 
4125000000  -4.505187e+001  8.091690e+001 
4128125000  -4.578043e+001  8.626125e+001 
4131250000  -4.474331e+001  8.838493e+001 
4134375000  -4.168709e+001  7.684279e+001 
4137500000  -4.253082e+001  5.479705e+001 
4140625000  -4.450737e+001  5.090417e+001 
4143750000  -4.500574e+001  5.232857e+001 
4146875000  -4.422892e+001  5.328241e+001 
4150000000  -4.291338e+001  4.648782e+001 
4153125000  -4.352937e+001  3.592118e+001 
4156250000  -4.450952e+001  3.380076e+001 
4159375000  -4.399400e+001  3.398978e+001 
4162500000  -4.293099e+001  3.199279e+001 
4165625000  -4.175200e+001  2.109821e+001 
4168750000  -4.148026e+001  1.167203e+001 
4171875000  -4.151088e+001  -2.595784e+000 
4175000000  -4.248388e+001  -9.535092e+000 
4178125000  -4.278108e+001  -1.297477e+001 
4181250000  -4.251715e+001  -1.645654e+001 
4184375000  -4.320782e+001  -2.525924e+001 
4187500000  -4.249446e+001  -3.050943e+001 
4190625000  -4.304939e+001  -4.122163e+001 
4193750000  -4.464717e+001  -4.572228e+001 
4196875000  -4.501534e+001  -4.756704e+001 
4200000000  -4.601674e+001  -4.009235e+001 
4203125000  -4.448998e+001  -3.210570e+001 
4206250000  -4.140742e+001  -4.323731e+001 
4209375000  -4.186451e+001  -6.632309e+001 
4212500000  -4.397781e+001  -7.342930e+001 
4215625000  -4.450379e+001  -7.031026e+001 
4218750000  -4.326522e+001  -6.896084e+001 
4221875000  -4.156256e+001  -7.822427e+001 
4225000000  -4.278277e+001  -8.747565e+001 
4228125000  -4.285918e+001  -8.761975e+001 
4231250000  -4.131613e+001  -9.809179e+001 
4234375000  -4.149429e+001  -1.086100e+002 
4237500000  -4.137414e+001  -1.129421e+002 
4240625000  -4.163670e+001  -1.238028e+002 
4243750000  -4.314920e+001  -1.307351e+002 
4246875000  -4.382469e+001  -1.339873e+002 
4250000000  -4.330372e+001  -1.329689e+002 
4253125000  -4.348581e+001  -1.340808e+002 
4256250000  -4.320005e+001  -1.414272e+002 
4259375000  -4.257181e+001  -1.482970e+002 
4262500000  -4.269355e+001  -1.531218e+002 
4265625000  -4.248462e+001  -1.553441e+002 
4268750000  -4.150052e+001  -1.646043e+002 
4271875000  -4.119474e+001  -1.735372e+002 
4275000000  -4.063357e+001  1.770642e+002 
4278125000  -4.169267e+001  1.651951e+002 
4281250000  -4.322639e+001  1.669452e+002 
4284375000  -4.253907e+001  1.623776e+002 
4287500000  -4.390800e+001  1.591701e+002 
4290625000  -4.394273e+001  1.636387e+002 
4293750000  -4.207385e+001  1.617888e+002 
4296875000  -4.066344e+001  1.475199e+002 
4300000000  -4.164377e+001  1.379379e+002 
4303125000  -4.258546e+001  1.386168e+002 
4306250000  -4.137129e+001  1.385399e+002 
4309375000  -4.006347e+001  1.299966e+002 
4312500000  -4.007102e+001  1.142524e+002 
4315625000  -4.040395e+001  1.050332e+002 
4318750000  -4.138877e+001  1.010108e+002 
4321875000  -4.126418e+001  9.677512e+001 
4325000000  -4.059338e+001  9.494995e+001 
4328125000  -3.979885e+001  8.419049e+001 
4331250000  -4.013659e+001  7.171947e+001 
4334375000  -4.132474e+001  6.213643e+001 
4337500000  -4.242283e+001  5.845367e+001 
4340625000  -4.256574e+001  6.269406e+001 
4343750000  -4.155294e+001  5.825476e+001 
4346875000  -4.167779e+001  4.820893e+001 
4350000000  -4.166049e+001  4.016783e+001 
4353125000  -4.238886e+001  2.820027e+001 
4356250000  -4.437723e+001  3.488111e+001 
4359375000  -4.340419e+001  4.803159e+001 
4362500000  -4.000778e+001  3.706301e+001 
4365625000  -3.965003e+001  1.578149e+001 
4368750000  -4.073262e+001  7.297690e+000 
4371875000  -4.169867e+001  6.442014e+000 
4375000000  -4.112610e+001  3.195072e+000 
4378125000  -4.097300e+001  -6.745249e+000 
4381250000  -4.107637e+001  -1.477419e+001 
4384375000  -4.133154e+001  -2.225335e+001 
4387500000  -4.179390e+001  -2.948198e+001 
4390625000  -4.250222e+001  -3.287551e+001 
4393750000  -4.235754e+001  -3.179681e+001 
4396875000  -4.150104e+001  -3.723765e+001 
4400000000  -4.119174e+001  -4.314500e+001 
4403125000  -4.214693e+001  -5.902007e+001 
4406250000  -4.279168e+001  -6.217321e+001 
4409375000  -4.327229e+001  -6.663168e+001 
4412500000  -4.421374e+001  -7.189552e+001 
4415625000  -4.368377e+001  -6.346205e+001 
4418750000  -4.271145e+001  -6.695652e+001 
