!Agilent Technologies,E8363B,MY43030201,A.06.04.32
!Agilent E8363B: A.06.04.32
!Date: Tuesday, November 11, 2014 21:50:05
!Correction: S21(Response(S21)) 
!S1P File: Measurement: S21:
# Hz S  dB   R 50
3000000000  -4.364665e+001  -1.615596e+002 
3003125000  -4.527320e+001  -1.665333e+002 
3006250000  -4.546214e+001  -1.686115e+002 
3009375000  -4.623980e+001  -1.648009e+002 
3012500000  -4.494383e+001  -1.712534e+002 
3015625000  -4.500448e+001  -1.799481e+002 
3018750000  -4.548600e+001  -1.784355e+002 
3021875000  -4.408290e+001  -1.789059e+002 
3025000000  -4.256015e+001  1.776234e+002 
3028125000  -4.175253e+001  1.630167e+002 
3031250000  -4.085692e+001  1.500435e+002 
3034375000  -4.086233e+001  1.378200e+002 
3037500000  -4.160947e+001  1.259696e+002 
3040625000  -4.268033e+001  1.209478e+002 
3043750000  -4.349831e+001  1.132351e+002 
3046875000  -4.387628e+001  1.032902e+002 
3050000000  -4.523359e+001  1.023844e+002 
3053125000  -4.465328e+001  1.059944e+002 
3056250000  -4.475597e+001  1.071310e+002 
3059375000  -4.386689e+001  1.057059e+002 
3062500000  -4.264644e+001  9.776455e+001 
3065625000  -4.210800e+001  8.841351e+001 
3068750000  -4.178741e+001  8.176533e+001 
3071875000  -4.183809e+001  7.990754e+001 
3075000000  -4.121872e+001  6.937954e+001 
3078125000  -4.110661e+001  6.273252e+001 
3081250000  -4.139002e+001  5.725105e+001 
3084375000  -4.053848e+001  5.057920e+001 
3087500000  -4.050158e+001  4.252991e+001 
3090625000  -3.990434e+001  2.883644e+001 
3093750000  -4.085731e+001  2.163874e+001 
3096875000  -4.114394e+001  1.528851e+001 
3100000000  -4.109428e+001  1.104205e+001 
3103125000  -4.158865e+001  5.908770e+000 
3106250000  -4.115568e+001  9.874507e-001 
3109375000  -4.102099e+001  -4.185680e+000 
3112500000  -4.075063e+001  -1.089089e+001 
3115625000  -4.085074e+001  -1.668128e+001 
3118750000  -4.063262e+001  -2.225575e+001 
3121875000  -4.008290e+001  -3.495333e+001 
3125000000  -4.203516e+001  -3.710978e+001 
3128125000  -4.203233e+001  -3.141189e+001 
3131250000  -3.945198e+001  -3.982099e+001 
3134375000  -3.902796e+001  -5.810164e+001 
3137500000  -3.971688e+001  -7.087646e+001 
3140625000  -4.086698e+001  -7.495348e+001 
3143750000  -4.149341e+001  -7.842016e+001 
3146875000  -4.095604e+001  -7.727874e+001 
3150000000  -4.046650e+001  -8.271713e+001 
3153125000  -4.070936e+001  -9.250805e+001 
3156250000  -4.128044e+001  -8.807848e+001 
3159375000  -3.918872e+001  -9.332351e+001 
3162500000  -3.759828e+001  -1.097588e+002 
3165625000  -3.903238e+001  -1.225796e+002 
3168750000  -3.894273e+001  -1.248831e+002 
3171875000  -3.854362e+001  -1.333589e+002 
3175000000  -3.922165e+001  -1.433829e+002 
3178125000  -3.867530e+001  -1.460393e+002 
3181250000  -3.794665e+001  -1.552412e+002 
3184375000  -3.782784e+001  -1.667316e+002 
3187500000  -3.910278e+001  1.755243e+002 
3190625000  -4.079140e+001  1.705499e+002 
3193750000  -4.150380e+001  1.745490e+002 
3196875000  -4.099043e+001  1.739923e+002 
3200000000  -3.984343e+001  1.680867e+002 
3203125000  -3.963598e+001  1.595358e+002 
3206250000  -3.985791e+001  1.503947e+002 
3209375000  -3.936060e+001  1.421682e+002 
3212500000  -3.983695e+001  1.357513e+002 
3215625000  -3.956898e+001  1.318020e+002 
3218750000  -4.025168e+001  1.206172e+002 
3221875000  -4.058088e+001  1.135850e+002 
3225000000  -4.028030e+001  1.068464e+002 
3228125000  -4.099498e+001  1.004385e+002 
3231250000  -4.125042e+001  9.671880e+001 
3234375000  -4.105062e+001  9.369575e+001 
3237500000  -4.105405e+001  8.915516e+001 
3240625000  -4.031339e+001  8.137997e+001 
3243750000  -4.031538e+001  6.936655e+001 
3246875000  -4.066430e+001  6.363480e+001 
3250000000  -4.133009e+001  5.778609e+001 
3253125000  -4.100623e+001  5.313284e+001 
3256250000  -4.032484e+001  4.330112e+001 
3259375000  -4.093976e+001  3.101352e+001 
3262500000  -4.221409e+001  2.659633e+001 
3265625000  -4.282988e+001  2.651096e+001 
3268750000  -4.256403e+001  2.817189e+001 
3271875000  -4.154142e+001  2.008603e+001 
3275000000  -4.110356e+001  9.636192e+000 
3278125000  -4.154530e+001  2.191838e+000 
3281250000  -4.183402e+001  -3.741426e-001 
3284375000  -4.085153e+001  -9.827745e+000 
3287500000  -4.162191e+001  -1.589293e+001 
3290625000  -4.157294e+001  -2.717141e+001 
3293750000  -4.159517e+001  -3.324524e+001 
3296875000  -4.266148e+001  -3.814634e+001 
3300000000  -4.191337e+001  -3.990947e+001 
3303125000  -4.093971e+001  -5.064557e+001 
3306250000  -4.104827e+001  -6.116328e+001 
3309375000  -4.072885e+001  -7.134917e+001 
3312500000  -4.117677e+001  -8.611890e+001 
3315625000  -4.233299e+001  -9.553687e+001 
3318750000  -4.399671e+001  -1.012171e+002 
3321875000  -4.502694e+001  -9.961228e+001 
3325000000  -4.466257e+001  -9.433710e+001 
3328125000  -4.429422e+001  -9.809458e+001 
3331250000  -4.238655e+001  -9.980445e+001 
3334375000  -4.011886e+001  -1.165580e+002 
3337500000  -4.090552e+001  -1.405574e+002 
3340625000  -4.272171e+001  -1.516480e+002 
3343750000  -4.452889e+001  -1.520878e+002 
3346875000  -4.392854e+001  -1.561420e+002 
3350000000  -4.359415e+001  -1.622264e+002 
3353125000  -4.363420e+001  -1.718875e+002 
3356250000  -4.299419e+001  1.779483e+002 
3359375000  -4.399771e+001  1.652414e+002 
3362500000  -4.494301e+001  1.580274e+002 
3365625000  -4.539263e+001  1.524230e+002 
3368750000  -4.640984e+001  1.475333e+002 
3371875000  -4.681717e+001  1.385349e+002 
3375000000  -4.836243e+001  1.334017e+002 
3378125000  -4.882176e+001  1.294339e+002 
3381250000  -5.062455e+001  1.456301e+002 
3384375000  -4.709315e+001  1.503867e+002 
3387500000  -4.461231e+001  1.277227e+002 
3390625000  -4.656850e+001  1.045668e+002 
3393750000  -4.757243e+001  1.048706e+002 
3396875000  -4.673912e+001  1.014358e+002 
3400000000  -4.599102e+001  8.635501e+001 
3403125000  -4.674917e+001  7.738557e+001 
3406250000  -4.721379e+001  6.960788e+001 
3409375000  -4.726768e+001  6.091781e+001 
3412500000  -4.770791e+001  5.375930e+001 
3415625000  -4.847057e+001  4.997141e+001 
3418750000  -4.866727e+001  4.449192e+001 
3421875000  -4.926290e+001  4.146416e+001 
3425000000  -4.808492e+001  3.567766e+001 
3428125000  -4.743573e+001  2.418649e+001 
3431250000  -4.720433e+001  1.379408e+001 
3434375000  -4.683201e+001  1.845354e+000 
3437500000  -4.779306e+001  -7.255526e+000 
3440625000  -4.824912e+001  -8.554294e+000 
3443750000  -4.672562e+001  -1.371888e+001 
3446875000  -4.588356e+001  -2.770539e+001 
3450000000  -4.524630e+001  -4.284761e+001 
3453125000  -4.603509e+001  -6.178813e+001 
3456250000  -4.711047e+001  -6.964677e+001 
3459375000  -4.828932e+001  -7.164443e+001 
3462500000  -4.784452e+001  -7.675668e+001 
3465625000  -4.725444e+001  -9.363159e+001 
3468750000  -4.753659e+001  -9.490734e+001 
3471875000  -4.716366e+001  -1.051453e+002 
3475000000  -4.692715e+001  -1.159192e+002 
3478125000  -4.764570e+001  -1.307616e+002 
3481250000  -4.876164e+001  -1.353288e+002 
3484375000  -4.853632e+001  -1.359491e+002 
3487500000  -4.743336e+001  -1.454180e+002 
3490625000  -4.697149e+001  -1.539772e+002 
3493750000  -4.810555e+001  -1.692524e+002 
3496875000  -4.810463e+001  -1.705146e+002 
3500000000  -4.862086e+001  -1.722084e+002 
3503125000  -4.761323e+001  -1.746872e+002 
3506250000  -4.526837e+001  1.707883e+002 
3509375000  -4.581959e+001  1.529456e+002 
3512500000  -4.625966e+001  1.367042e+002 
3515625000  -4.754294e+001  1.302743e+002 
3518750000  -4.834560e+001  1.276830e+002 
3521875000  -4.788008e+001  1.210651e+002 
3525000000  -4.935756e+001  1.139133e+002 
3528125000  -4.785324e+001  1.160210e+002 
3531250000  -4.679063e+001  1.047419e+002 
3534375000  -4.695613e+001  9.043151e+001 
3537500000  -4.792098e+001  7.805480e+001 
3540625000  -4.877462e+001  7.435658e+001 
3543750000  -4.927670e+001  7.854736e+001 
3546875000  -4.840582e+001  8.439891e+001 
3550000000  -4.658382e+001  7.541011e+001 
3553125000  -4.576764e+001  5.332188e+001 
3556250000  -4.737712e+001  4.630167e+001 
3559375000  -4.645004e+001  4.085990e+001 
3562500000  -4.671275e+001  3.184988e+001 
3565625000  -4.785473e+001  2.181542e+001 
3568750000  -4.771738e+001  2.365038e+001 
3571875000  -4.693324e+001  1.850883e+001 
3575000000  -4.689094e+001  1.061483e+001 
3578125000  -4.777184e+001  4.931318e+000 
3581250000  -4.774527e+001  1.038565e+000 
3584375000  -4.617878e+001  -5.114884e+000 
3587500000  -4.541832e+001  -1.782187e+001 
3590625000  -4.630973e+001  -2.793994e+001 
3593750000  -4.783809e+001  -2.656784e+001 
3596875000  -4.664432e+001  -2.429264e+001 
3600000000  -4.499933e+001  -3.339108e+001 
3603125000  -4.503833e+001  -4.851406e+001 
3606250000  -4.580742e+001  -5.534185e+001 
3609375000  -4.593059e+001  -5.832477e+001 
3612500000  -4.635380e+001  -6.473491e+001 
3615625000  -4.602261e+001  -7.014182e+001 
3618750000  -4.634589e+001  -7.307677e+001 
3621875000  -4.542212e+001  -7.987046e+001 
3625000000  -4.595596e+001  -8.291764e+001 
3628125000  -4.472257e+001  -8.966135e+001 
3631250000  -4.489886e+001  -9.937411e+001 
3634375000  -4.544465e+001  -9.929273e+001 
3637500000  -4.462594e+001  -9.822719e+001 
3640625000  -4.361692e+001  -1.073467e+002 
3643750000  -4.322782e+001  -1.181610e+002 
3646875000  -4.372372e+001  -1.304025e+002 
3650000000  -4.373505e+001  -1.331915e+002 
3653125000  -4.318305e+001  -1.440744e+002 
3656250000  -4.412214e+001  -1.491393e+002 
3659375000  -4.405821e+001  -1.520158e+002 
3662500000  -4.339341e+001  -1.615054e+002 
3665625000  -4.320267e+001  -1.637563e+002 
3668750000  -4.217152e+001  -1.678475e+002 
3671875000  -4.142469e+001  1.756658e+002 
3675000000  -4.216325e+001  1.677310e+002 
3678125000  -4.263107e+001  1.641691e+002 
3681250000  -4.254253e+001  1.546485e+002 
3684375000  -4.229827e+001  1.474346e+002 
3687500000  -4.278058e+001  1.374523e+002 
3690625000  -4.335520e+001  1.333426e+002 
3693750000  -4.447848e+001  1.310764e+002 
3696875000  -4.359204e+001  1.273636e+002 
3700000000  -4.324086e+001  1.204019e+002 
3703125000  -4.360581e+001  1.130677e+002 
3706250000  -4.469028e+001  1.097191e+002 
3709375000  -4.391353e+001  1.098591e+002 
3712500000  -4.285958e+001  1.024515e+002 
3715625000  -4.165603e+001  9.449510e+001 
3718750000  -4.176074e+001  8.577168e+001 
3721875000  -4.187573e+001  7.622894e+001 
3725000000  -4.245242e+001  6.903226e+001 
3728125000  -4.258981e+001  6.375597e+001 
3731250000  -4.200206e+001  5.792619e+001 
3734375000  -4.193060e+001  5.084297e+001 
3737500000  -4.254787e+001  4.348329e+001 
3740625000  -4.280735e+001  3.592063e+001 
3743750000  -4.267508e+001  2.962066e+001 
3746875000  -4.321680e+001  2.265134e+001 
3750000000  -4.350472e+001  1.889358e+001 
3753125000  -4.350611e+001  1.473956e+001 
3756250000  -4.369693e+001  1.394490e+001 
3759375000  -4.336668e+001  7.134739e+000 
3762500000  -4.320446e+001  1.661343e-002 
3765625000  -4.413874e+001  -2.637112e+000 
3768750000  -4.339596e+001  -1.946285e+000 
3771875000  -4.196725e+001  -9.843254e+000 
3775000000  -4.202128e+001  -2.090504e+001 
3778125000  -4.251444e+001  -2.634579e+001 
3781250000  -4.264625e+001  -3.134879e+001 
3784375000  -4.206584e+001  -3.705752e+001 
3787500000  -4.233982e+001  -4.295134e+001 
3790625000  -4.287102e+001  -5.366062e+001 
3793750000  -4.275476e+001  -5.520430e+001 
3796875000  -4.170162e+001  -6.088763e+001 
3800000000  -4.060766e+001  -6.896151e+001 
3803125000  -4.165584e+001  -7.896414e+001 
3806250000  -4.243460e+001  -8.501941e+001 
3809375000  -4.161851e+001  -9.081593e+001 
3812500000  -4.149280e+001  -1.001741e+002 
3815625000  -4.293802e+001  -1.117407e+002 
3818750000  -4.408170e+001  -1.094034e+002 
3821875000  -4.341987e+001  -9.932090e+001 
3825000000  -4.142937e+001  -1.057479e+002 
3828125000  -4.027017e+001  -1.281199e+002 
3831250000  -4.175211e+001  -1.418141e+002 
3834375000  -4.365634e+001  -1.432366e+002 
3837500000  -4.372667e+001  -1.385372e+002 
3840625000  -4.245986e+001  -1.458884e+002 
3843750000  -4.189687e+001  -1.602905e+002 
3846875000  -4.312388e+001  -1.688816e+002 
3850000000  -4.419168e+001  -1.615042e+002 
3853125000  -4.337065e+001  -1.644772e+002 
3856250000  -4.299567e+001  -1.747225e+002 
3859375000  -4.236924e+001  1.793615e+002 
3862500000  -4.220190e+001  1.687793e+002 
3865625000  -4.258932e+001  1.604913e+002 
3868750000  -4.196716e+001  1.625111e+002 
3871875000  -4.166694e+001  1.518924e+002 
3875000000  -4.225483e+001  1.403144e+002 
3878125000  -4.343309e+001  1.392825e+002 
3881250000  -4.327205e+001  1.395086e+002 
3884375000  -4.236158e+001  1.262150e+002 
3887500000  -4.311019e+001  1.213647e+002 
3890625000  -4.406368e+001  1.165533e+002 
3893750000  -4.434302e+001  1.134335e+002 
3896875000  -4.490436e+001  1.111185e+002 
3900000000  -4.430267e+001  1.060697e+002 
3903125000  -4.380288e+001  9.818172e+001 
3906250000  -4.307683e+001  9.754559e+001 
3909375000  -4.285532e+001  8.839335e+001 
3912500000  -4.416768e+001  7.896569e+001 
3915625000  -4.474961e+001  7.624623e+001 
3918750000  -4.423935e+001  7.830629e+001 
3921875000  -4.370126e+001  7.324564e+001 
3925000000  -4.290989e+001  6.403134e+001 
3928125000  -4.261172e+001  5.555405e+001 
3931250000  -4.345211e+001  4.990275e+001 
3934375000  -4.368048e+001  4.405534e+001 
3937500000  -4.424501e+001  4.365063e+001 
3940625000  -4.503080e+001  4.223561e+001 
3943750000  -4.315062e+001  3.714006e+001 
3946875000  -4.259890e+001  2.757964e+001 
3950000000  -4.317288e+001  1.976190e+001 
3953125000  -4.478908e+001  2.047400e+001 
3956250000  -4.280577e+001  1.932791e+001 
3959375000  -4.203973e+001  1.175863e+001 
3962500000  -4.148746e+001  3.871341e+000 
3965625000  -4.163248e+001  -1.214381e+001 
3968750000  -4.266414e+001  -1.768421e+001 
3971875000  -4.232832e+001  -2.283279e+001 
3975000000  -4.204425e+001  -2.629420e+001 
3978125000  -4.235979e+001  -3.392411e+001 
3981250000  -4.186173e+001  -4.222476e+001 
3984375000  -4.224747e+001  -4.934789e+001 
3987500000  -4.297585e+001  -5.393036e+001 
3990625000  -4.285147e+001  -5.601746e+001 
3993750000  -4.293841e+001  -6.233214e+001 
3996875000  -4.302434e+001  -7.240054e+001 
4000000000  -4.370423e+001  -7.109840e+001 
4003125000  -4.354411e+001  -7.494902e+001 
4006250000  -4.180309e+001  -7.821928e+001 
4009375000  -4.102636e+001  -9.799532e+001 
4012500000  -4.295713e+001  -1.028445e+002 
4015625000  -4.381256e+001  -1.054683e+002 
4018750000  -4.385575e+001  -1.101048e+002 
4021875000  -4.282307e+001  -1.150562e+002 
4025000000  -4.326727e+001  -1.211649e+002 
4028125000  -4.323788e+001  -1.316180e+002 
4031250000  -4.377954e+001  -1.360538e+002 
4034375000  -4.383694e+001  -1.405274e+002 
4037500000  -4.407351e+001  -1.416496e+002 
4040625000  -4.391339e+001  -1.485786e+002 
4043750000  -4.433453e+001  -1.524404e+002 
4046875000  -4.444933e+001  -1.590367e+002 
4050000000  -4.432833e+001  -1.653584e+002 
4053125000  -4.461595e+001  -1.697432e+002 
4056250000  -4.589719e+001  -1.662150e+002 
4059375000  -4.414314e+001  -1.626037e+002 
4062500000  -4.331743e+001  -1.756324e+002 
4065625000  -4.360380e+001  1.793199e+002 
4068750000  -4.278759e+001  1.715164e+002 
4071875000  -4.279895e+001  1.599859e+002 
4075000000  -4.303290e+001  1.541129e+002 
4078125000  -4.393417e+001  1.492346e+002 
4081250000  -4.326283e+001  1.452440e+002 
4084375000  -4.359397e+001  1.351609e+002 
4087500000  -4.374152e+001  1.275811e+002 
4090625000  -4.462180e+001  1.258495e+002 
4093750000  -4.406393e+001  1.243224e+002 
4096875000  -4.399255e+001  1.125251e+002 
4100000000  -4.483849e+001  1.096672e+002 
4103125000  -4.599394e+001  1.103065e+002 
4106250000  -4.539336e+001  1.145738e+002 
4109375000  -4.384013e+001  1.081414e+002 
4112500000  -4.420103e+001  9.829185e+001 
4115625000  -4.404734e+001  9.408303e+001 
4118750000  -4.356058e+001  9.161662e+001 
4121875000  -4.386381e+001  8.115321e+001 
4125000000  -4.435489e+001  7.586497e+001 
4128125000  -4.522520e+001  7.372431e+001 
4131250000  -4.370131e+001  8.215780e+001 
4134375000  -4.165372e+001  7.063012e+001 
4137500000  -4.212782e+001  4.737168e+001 
4140625000  -4.392726e+001  4.080912e+001 
4143750000  -4.436582e+001  4.845317e+001 
4146875000  -4.403833e+001  4.684605e+001 
4150000000  -4.259653e+001  3.813211e+001 
4153125000  -4.314660e+001  2.921912e+001 
4156250000  -4.399248e+001  2.672965e+001 
4159375000  -4.339135e+001  2.716594e+001 
4162500000  -4.201139e+001  2.440727e+001 
4165625000  -4.104604e+001  1.437823e+001 
4168750000  -4.078076e+001  5.616296e+000 
4171875000  -4.102517e+001  -9.287281e+000 
4175000000  -4.195776e+001  -1.690887e+001 
4178125000  -4.211607e+001  -1.765190e+001 
4181250000  -4.199407e+001  -2.460598e+001 
4184375000  -4.245846e+001  -3.128482e+001 
4187500000  -4.254242e+001  -3.866845e+001 
4190625000  -4.266542e+001  -4.827871e+001 
4193750000  -4.344743e+001  -5.368968e+001 
4196875000  -4.474650e+001  -5.507925e+001 
4200000000  -4.553360e+001  -4.710649e+001 
4203125000  -4.430353e+001  -3.883847e+001 
4206250000  -4.101807e+001  -5.122350e+001 
4209375000  -4.157430e+001  -7.306085e+001 
4212500000  -4.394711e+001  -8.387941e+001 
4215625000  -4.420918e+001  -7.603473e+001 
4218750000  -4.226650e+001  -7.662197e+001 
4221875000  -4.109039e+001  -8.298275e+001 
4225000000  -4.206963e+001  -9.514635e+001 
4228125000  -4.197149e+001  -9.424294e+001 
4231250000  -4.088735e+001  -1.057701e+002 
4234375000  -4.069096e+001  -1.145333e+002 
4237500000  -4.089255e+001  -1.224113e+002 
4240625000  -4.119291e+001  -1.321788e+002 
4243750000  -4.214795e+001  -1.407836e+002 
4246875000  -4.287916e+001  -1.405312e+002 
4250000000  -4.267147e+001  -1.412368e+002 
4253125000  -4.221022e+001  -1.425736e+002 
4256250000  -4.262805e+001  -1.495099e+002 
4259375000  -4.172012e+001  -1.566243e+002 
4262500000  -4.219193e+001  -1.614673e+002 
4265625000  -4.151385e+001  -1.646151e+002 
4268750000  -4.077977e+001  -1.724826e+002 
4271875000  -4.080324e+001  1.772087e+002 
4275000000  -4.030405e+001  1.702794e+002 
4278125000  -4.119341e+001  1.551864e+002 
4281250000  -4.255925e+001  1.550241e+002 
4284375000  -4.216901e+001  1.495002e+002 
4287500000  -4.365294e+001  1.471698e+002 
4290625000  -4.394015e+001  1.549523e+002 
4293750000  -4.119262e+001  1.535495e+002 
4296875000  -4.030095e+001  1.404326e+002 
4300000000  -4.111072e+001  1.288993e+002 
4303125000  -4.189351e+001  1.276286e+002 
4306250000  -4.075132e+001  1.279327e+002 
4309375000  -3.962787e+001  1.172906e+002 
4312500000  -3.954500e+001  1.058180e+002 
4315625000  -4.035065e+001  9.602068e+001 
4318750000  -4.068061e+001  9.170463e+001 
4321875000  -4.076075e+001  8.902616e+001 
4325000000  -3.975596e+001  8.530138e+001 
4328125000  -3.953326e+001  7.398333e+001 
4331250000  -3.969447e+001  6.216671e+001 
4334375000  -4.081688e+001  5.385645e+001 
4337500000  -4.158543e+001  5.149592e+001 
4340625000  -4.219113e+001  5.427150e+001 
4343750000  -4.074911e+001  5.023522e+001 
4346875000  -4.081601e+001  4.115023e+001 
4350000000  -4.135380e+001  2.823956e+001 
4353125000  -4.194204e+001  2.032223e+001 
4356250000  -4.365102e+001  2.543612e+001 
4359375000  -4.283990e+001  4.177509e+001 
4362500000  -3.943353e+001  2.760118e+001 
4365625000  -3.909158e+001  1.209323e+001 
4368750000  -3.994907e+001  -1.123297e+000 
4371875000  -4.089727e+001  -3.540863e+000 
4375000000  -4.040208e+001  -8.041076e+000 
4378125000  -4.036348e+001  -1.408119e+001 
4381250000  -4.062870e+001  -2.584241e+001 
4384375000  -4.050298e+001  -3.182080e+001 
4387500000  -4.133469e+001  -3.882003e+001 
4390625000  -4.213708e+001  -4.176214e+001 
4393750000  -4.147998e+001  -4.049896e+001 
4396875000  -4.108180e+001  -4.701213e+001 
4400000000  -4.082055e+001  -5.745153e+001 
4403125000  -4.154977e+001  -6.708833e+001 
4406250000  -4.225224e+001  -7.195918e+001 
4409375000  -4.237347e+001  -7.529472e+001 
4412500000  -4.364111e+001  -7.743423e+001 
4415625000  -4.300873e+001  -7.524239e+001 
4418750000  -4.188709e+001  -7.705171e+001 
