!Agilent Technologies,E8363B,MY43030201,A.06.04.32
!Agilent E8363B: A.06.04.32
!Date: Tuesday, November 11, 2014 21:49:57
!Correction: S21(Response(S21)) 
!S1P File: Measurement: S21:
# Hz S  dB   R 50
3000000000  -4.368476e+001  -1.620950e+002 
3003125000  -4.540284e+001  -1.679085e+002 
3006250000  -4.528853e+001  -1.673231e+002 
3009375000  -4.577859e+001  -1.642044e+002 
3012500000  -4.484216e+001  -1.723687e+002 
3015625000  -4.487164e+001  -1.780353e+002 
3018750000  -4.551604e+001  -1.799798e+002 
3021875000  -4.411046e+001  -1.791611e+002 
3025000000  -4.264859e+001  1.756477e+002 
3028125000  -4.181075e+001  1.645792e+002 
3031250000  -4.085530e+001  1.507520e+002 
3034375000  -4.072897e+001  1.365520e+002 
3037500000  -4.169436e+001  1.265813e+002 
3040625000  -4.271995e+001  1.198559e+002 
3043750000  -4.330832e+001  1.151385e+002 
3046875000  -4.399289e+001  1.046098e+002 
3050000000  -4.515304e+001  1.017446e+002 
3053125000  -4.484269e+001  1.050292e+002 
3056250000  -4.479940e+001  1.085579e+002 
3059375000  -4.406771e+001  1.035447e+002 
3062500000  -4.261547e+001  9.948136e+001 
3065625000  -4.212255e+001  8.798486e+001 
3068750000  -4.178511e+001  7.958495e+001 
3071875000  -4.185470e+001  7.885930e+001 
3075000000  -4.109758e+001  6.913095e+001 
3078125000  -4.145179e+001  6.364331e+001 
3081250000  -4.137454e+001  5.637073e+001 
3084375000  -4.032853e+001  5.075342e+001 
3087500000  -4.050540e+001  4.283205e+001 
3090625000  -4.017258e+001  3.009576e+001 
3093750000  -4.097446e+001  2.092064e+001 
3096875000  -4.113808e+001  1.566185e+001 
3100000000  -4.120718e+001  1.151317e+001 
3103125000  -4.142929e+001  6.455567e+000 
3106250000  -4.107859e+001  1.106354e+000 
3109375000  -4.100167e+001  -4.831899e+000 
3112500000  -4.087362e+001  -1.159643e+001 
3115625000  -4.073491e+001  -1.710606e+001 
3118750000  -4.054587e+001  -2.196915e+001 
3121875000  -4.023019e+001  -3.231392e+001 
3125000000  -4.203022e+001  -3.676299e+001 
3128125000  -4.199547e+001  -3.163930e+001 
3131250000  -3.950822e+001  -3.967886e+001 
3134375000  -3.863727e+001  -5.777864e+001 
3137500000  -3.979863e+001  -7.112728e+001 
3140625000  -4.082806e+001  -7.614513e+001 
3143750000  -4.172816e+001  -7.919397e+001 
3146875000  -4.109867e+001  -7.807077e+001 
3150000000  -4.024500e+001  -8.365737e+001 
3153125000  -4.070938e+001  -9.182522e+001 
3156250000  -4.144614e+001  -8.912347e+001 
3159375000  -3.904976e+001  -9.225199e+001 
3162500000  -3.765741e+001  -1.089864e+002 
3165625000  -3.912423e+001  -1.221689e+002 
3168750000  -3.917805e+001  -1.238035e+002 
3171875000  -3.854609e+001  -1.345380e+002 
3175000000  -3.912157e+001  -1.417981e+002 
3178125000  -3.865117e+001  -1.457857e+002 
3181250000  -3.807857e+001  -1.553772e+002 
3184375000  -3.776603e+001  -1.672727e+002 
3187500000  -3.900328e+001  1.757115e+002 
3190625000  -4.084926e+001  1.695103e+002 
3193750000  -4.111256e+001  1.740436e+002 
3196875000  -4.119764e+001  1.734612e+002 
3200000000  -3.983623e+001  1.674595e+002 
3203125000  -3.967027e+001  1.586707e+002 
3206250000  -3.988123e+001  1.512352e+002 
3209375000  -3.948321e+001  1.426709e+002 
3212500000  -3.996686e+001  1.341935e+002 
3215625000  -3.953856e+001  1.326312e+002 
3218750000  -4.025001e+001  1.199764e+002 
3221875000  -4.053214e+001  1.134479e+002 
3225000000  -4.047916e+001  1.080352e+002 
3228125000  -4.113165e+001  9.931443e+001 
3231250000  -4.146453e+001  9.775720e+001 
3234375000  -4.090113e+001  9.328088e+001 
3237500000  -4.090571e+001  8.927441e+001 
3240625000  -4.023816e+001  8.294160e+001 
3243750000  -4.030595e+001  7.086369e+001 
3246875000  -4.060800e+001  6.262495e+001 
3250000000  -4.119680e+001  5.796797e+001 
3253125000  -4.102967e+001  5.469262e+001 
3256250000  -4.036091e+001  4.548721e+001 
3259375000  -4.078703e+001  3.188765e+001 
3262500000  -4.246455e+001  2.566494e+001 
3265625000  -4.250192e+001  2.727856e+001 
3268750000  -4.225158e+001  2.583657e+001 
3271875000  -4.159684e+001  1.974440e+001 
3275000000  -4.113280e+001  9.809458e+000 
3278125000  -4.177776e+001  2.626154e+000 
3281250000  -4.183409e+001  -9.093773e-001 
3284375000  -4.096349e+001  -7.671196e+000 
3287500000  -4.168480e+001  -1.627087e+001 
3290625000  -4.156026e+001  -2.611035e+001 
3293750000  -4.154901e+001  -3.382038e+001 
3296875000  -4.265310e+001  -3.734454e+001 
3300000000  -4.197591e+001  -4.124993e+001 
3303125000  -4.091940e+001  -5.154309e+001 
3306250000  -4.088787e+001  -6.093137e+001 
3309375000  -4.054358e+001  -7.082771e+001 
3312500000  -4.120936e+001  -8.520351e+001 
3315625000  -4.252926e+001  -9.441576e+001 
3318750000  -4.360104e+001  -9.997772e+001 
3321875000  -4.516351e+001  -1.003454e+002 
3325000000  -4.517704e+001  -9.784962e+001 
3328125000  -4.409280e+001  -9.782280e+001 
3331250000  -4.251693e+001  -9.725699e+001 
3334375000  -3.980344e+001  -1.182446e+002 
3337500000  -4.062028e+001  -1.415172e+002 
3340625000  -4.284355e+001  -1.519013e+002 
3343750000  -4.430343e+001  -1.530592e+002 
3346875000  -4.372525e+001  -1.564463e+002 
3350000000  -4.377693e+001  -1.606420e+002 
3353125000  -4.358179e+001  -1.723648e+002 
3356250000  -4.354282e+001  1.788227e+002 
3359375000  -4.436921e+001  1.646153e+002 
3362500000  -4.526538e+001  1.571218e+002 
3365625000  -4.554309e+001  1.508319e+002 
3368750000  -4.615384e+001  1.466029e+002 
3371875000  -4.683760e+001  1.386203e+002 
3375000000  -4.889212e+001  1.349710e+002 
3378125000  -4.946767e+001  1.324170e+002 
3381250000  -5.031917e+001  1.391952e+002 
3384375000  -4.710113e+001  1.486742e+002 
3387500000  -4.495225e+001  1.271324e+002 
3390625000  -4.626651e+001  1.091599e+002 
3393750000  -4.757154e+001  1.035976e+002 
3396875000  -4.580569e+001  1.004755e+002 
3400000000  -4.637353e+001  8.666508e+001 
3403125000  -4.709021e+001  7.913469e+001 
3406250000  -4.775896e+001  7.153159e+001 
3409375000  -4.768319e+001  5.933275e+001 
3412500000  -4.797251e+001  5.270045e+001 
3415625000  -4.800441e+001  4.610558e+001 
3418750000  -4.847280e+001  4.628120e+001 
3421875000  -4.936272e+001  4.065237e+001 
3425000000  -4.721186e+001  3.398255e+001 
3428125000  -4.707895e+001  2.508633e+001 
3431250000  -4.622060e+001  1.689998e+001 
3434375000  -4.705851e+001  4.850057e+000 
3437500000  -4.774999e+001  -8.535596e+000 
3440625000  -4.796280e+001  -9.906517e+000 
3443750000  -4.621771e+001  -1.232363e+001 
3446875000  -4.539141e+001  -2.757516e+001 
3450000000  -4.503956e+001  -4.252275e+001 
3453125000  -4.552787e+001  -6.024032e+001 
3456250000  -4.707634e+001  -7.097932e+001 
3459375000  -4.786949e+001  -7.424728e+001 
3462500000  -4.784201e+001  -7.865613e+001 
3465625000  -4.774878e+001  -9.135110e+001 
3468750000  -4.766388e+001  -9.577586e+001 
3471875000  -4.694839e+001  -1.053894e+002 
3475000000  -4.687029e+001  -1.141058e+002 
3478125000  -4.762383e+001  -1.322570e+002 
3481250000  -4.903367e+001  -1.355358e+002 
3484375000  -4.889289e+001  -1.363589e+002 
3487500000  -4.778984e+001  -1.398954e+002 
3490625000  -4.721829e+001  -1.551507e+002 
3493750000  -4.780075e+001  -1.680061e+002 
3496875000  -4.809757e+001  -1.702210e+002 
3500000000  -4.853519e+001  -1.737247e+002 
3503125000  -4.694585e+001  -1.777858e+002 
3506250000  -4.547070e+001  1.694510e+002 
3509375000  -4.544827e+001  1.483859e+002 
3512500000  -4.618289e+001  1.363854e+002 
3515625000  -4.745003e+001  1.315203e+002 
3518750000  -4.796418e+001  1.321149e+002 
3521875000  -4.764315e+001  1.178795e+002 
3525000000  -4.882800e+001  1.173175e+002 
3528125000  -4.727806e+001  1.177264e+002 
3531250000  -4.639476e+001  1.034807e+002 
3534375000  -4.663806e+001  8.590682e+001 
3537500000  -4.772248e+001  7.738155e+001 
3540625000  -4.885771e+001  7.587781e+001 
3543750000  -4.962241e+001  7.820062e+001 
3546875000  -4.884922e+001  8.044698e+001 
3550000000  -4.647814e+001  7.381472e+001 
3553125000  -4.600084e+001  5.383430e+001 
3556250000  -4.751021e+001  4.788101e+001 
3559375000  -4.640172e+001  4.115094e+001 
3562500000  -4.673460e+001  3.395654e+001 
3565625000  -4.763043e+001  2.141162e+001 
3568750000  -4.821492e+001  2.161396e+001 
3571875000  -4.755018e+001  1.770921e+001 
3575000000  -4.695528e+001  9.230058e+000 
3578125000  -4.729093e+001  5.383938e+000 
3581250000  -4.766965e+001  1.283905e+000 
3584375000  -4.571773e+001  -6.465199e+000 
3587500000  -4.561728e+001  -1.449735e+001 
3590625000  -4.642389e+001  -2.391138e+001 
3593750000  -4.792857e+001  -2.338957e+001 
3596875000  -4.623269e+001  -2.362197e+001 
3600000000  -4.490099e+001  -3.441796e+001 
3603125000  -4.530912e+001  -4.829533e+001 
3606250000  -4.602161e+001  -5.437533e+001 
3609375000  -4.576057e+001  -5.803188e+001 
3612500000  -4.640364e+001  -6.493189e+001 
3615625000  -4.632841e+001  -6.925136e+001 
3618750000  -4.595131e+001  -7.169949e+001 
3621875000  -4.579621e+001  -7.851933e+001 
3625000000  -4.558084e+001  -8.142120e+001 
3628125000  -4.499123e+001  -9.065797e+001 
3631250000  -4.475180e+001  -9.807576e+001 
3634375000  -4.543605e+001  -9.901962e+001 
3637500000  -4.457705e+001  -1.012168e+002 
3640625000  -4.383221e+001  -1.079067e+002 
3643750000  -4.310312e+001  -1.206800e+002 
3646875000  -4.365154e+001  -1.304429e+002 
3650000000  -4.377618e+001  -1.356783e+002 
3653125000  -4.325421e+001  -1.438025e+002 
3656250000  -4.423489e+001  -1.510302e+002 
3659375000  -4.376608e+001  -1.545831e+002 
3662500000  -4.340363e+001  -1.613933e+002 
3665625000  -4.319870e+001  -1.640628e+002 
3668750000  -4.220018e+001  -1.696037e+002 
3671875000  -4.133895e+001  1.763129e+002 
3675000000  -4.192672e+001  1.689987e+002 
3678125000  -4.220230e+001  1.627486e+002 
3681250000  -4.208107e+001  1.559965e+002 
3684375000  -4.257102e+001  1.471212e+002 
3687500000  -4.298647e+001  1.378387e+002 
3690625000  -4.345213e+001  1.303433e+002 
3693750000  -4.445264e+001  1.331353e+002 
3696875000  -4.382101e+001  1.282754e+002 
3700000000  -4.296605e+001  1.212085e+002 
3703125000  -4.325612e+001  1.121629e+002 
3706250000  -4.446900e+001  1.116537e+002 
3709375000  -4.413969e+001  1.098705e+002 
3712500000  -4.307077e+001  1.038388e+002 
3715625000  -4.161163e+001  9.465686e+001 
3718750000  -4.191856e+001  8.415623e+001 
3721875000  -4.166749e+001  7.792967e+001 
3725000000  -4.230431e+001  6.791916e+001 
3728125000  -4.212402e+001  6.549512e+001 
3731250000  -4.183792e+001  5.625792e+001 
3734375000  -4.180085e+001  5.190576e+001 
3737500000  -4.258358e+001  4.183076e+001 
3740625000  -4.292500e+001  3.794007e+001 
3743750000  -4.278373e+001  2.799874e+001 
3746875000  -4.317712e+001  2.236032e+001 
3750000000  -4.363184e+001  2.043756e+001 
3753125000  -4.364196e+001  1.630215e+001 
3756250000  -4.363590e+001  1.439994e+001 
3759375000  -4.340601e+001  7.978217e+000 
3762500000  -4.331406e+001  4.513844e+000 
3765625000  -4.403393e+001  -1.139468e+000 
3768750000  -4.369819e+001  9.300948e-001 
3771875000  -4.214223e+001  -7.864980e+000 
3775000000  -4.213348e+001  -1.946828e+001 
3778125000  -4.275793e+001  -2.662776e+001 
3781250000  -4.252054e+001  -3.158215e+001 
3784375000  -4.218066e+001  -3.794021e+001 
3787500000  -4.219261e+001  -4.199282e+001 
3790625000  -4.283635e+001  -5.464763e+001 
3793750000  -4.245626e+001  -5.644136e+001 
3796875000  -4.161421e+001  -6.195219e+001 
3800000000  -4.082468e+001  -6.878219e+001 
3803125000  -4.149394e+001  -7.905943e+001 
3806250000  -4.224672e+001  -8.512144e+001 
3809375000  -4.170821e+001  -9.028931e+001 
3812500000  -4.152234e+001  -1.023465e+002 
3815625000  -4.310966e+001  -1.104645e+002 
3818750000  -4.456601e+001  -1.086236e+002 
3821875000  -4.354931e+001  -9.944272e+001 
3825000000  -4.140838e+001  -1.041237e+002 
3828125000  -4.014013e+001  -1.272149e+002 
3831250000  -4.177392e+001  -1.432595e+002 
3834375000  -4.381981e+001  -1.416527e+002 
3837500000  -4.394265e+001  -1.404907e+002 
3840625000  -4.244712e+001  -1.461902e+002 
3843750000  -4.175304e+001  -1.597876e+002 
3846875000  -4.366627e+001  -1.718983e+002 
3850000000  -4.406638e+001  -1.598684e+002 
3853125000  -4.302781e+001  -1.615118e+002 
3856250000  -4.276257e+001  -1.740983e+002 
3859375000  -4.215039e+001  1.787057e+002 
3862500000  -4.188038e+001  1.695402e+002 
3865625000  -4.243507e+001  1.615721e+002 
3868750000  -4.243217e+001  1.617729e+002 
3871875000  -4.160017e+001  1.514801e+002 
3875000000  -4.212305e+001  1.406786e+002 
3878125000  -4.329934e+001  1.396348e+002 
3881250000  -4.308475e+001  1.371611e+002 
3884375000  -4.245971e+001  1.288439e+002 
3887500000  -4.297157e+001  1.207436e+002 
3890625000  -4.363505e+001  1.179724e+002 
3893750000  -4.417157e+001  1.160610e+002 
3896875000  -4.418738e+001  1.115847e+002 
3900000000  -4.439663e+001  1.055245e+002 
3903125000  -4.381298e+001  1.010953e+002 
3906250000  -4.323606e+001  9.811367e+001 
3909375000  -4.274359e+001  8.708825e+001 
3912500000  -4.381139e+001  7.744212e+001 
3915625000  -4.486643e+001  7.938322e+001 
3918750000  -4.441808e+001  7.757902e+001 
3921875000  -4.354956e+001  7.305237e+001 
3925000000  -4.308024e+001  6.497553e+001 
3928125000  -4.284591e+001  5.610479e+001 
3931250000  -4.343199e+001  4.841415e+001 
3934375000  -4.381552e+001  4.643921e+001 
3937500000  -4.412183e+001  4.064681e+001 
3940625000  -4.450025e+001  4.468926e+001 
3943750000  -4.341367e+001  3.770489e+001 
3946875000  -4.257635e+001  2.886355e+001 
3950000000  -4.381019e+001  1.796730e+001 
3953125000  -4.434604e+001  1.966812e+001 
3956250000  -4.247846e+001  2.004694e+001 
3959375000  -4.174705e+001  1.302394e+001 
3962500000  -4.175893e+001  7.967856e-001 
3965625000  -4.199872e+001  -9.320349e+000 
3968750000  -4.222668e+001  -1.800346e+001 
3971875000  -4.253096e+001  -2.198293e+001 
3975000000  -4.185058e+001  -2.686043e+001 
3978125000  -4.223827e+001  -3.369397e+001 
3981250000  -4.170890e+001  -4.088859e+001 
3984375000  -4.210735e+001  -5.030859e+001 
3987500000  -4.278772e+001  -5.162175e+001 
3990625000  -4.278423e+001  -5.576727e+001 
3993750000  -4.298163e+001  -6.424580e+001 
3996875000  -4.308118e+001  -6.830148e+001 
4000000000  -4.367784e+001  -7.325649e+001 
4003125000  -4.396099e+001  -7.196355e+001 
4006250000  -4.213104e+001  -8.025115e+001 
4009375000  -4.107668e+001  -9.469354e+001 
4012500000  -4.253644e+001  -1.051595e+002 
4015625000  -4.391212e+001  -1.051989e+002 
4018750000  -4.371509e+001  -1.091923e+002 
4021875000  -4.288082e+001  -1.164863e+002 
4025000000  -4.329750e+001  -1.215655e+002 
4028125000  -4.345160e+001  -1.299248e+002 
4031250000  -4.377278e+001  -1.355946e+002 
4034375000  -4.383845e+001  -1.404491e+002 
4037500000  -4.381709e+001  -1.422715e+002 
4040625000  -4.393890e+001  -1.457632e+002 
4043750000  -4.446346e+001  -1.534168e+002 
4046875000  -4.424113e+001  -1.578357e+002 
4050000000  -4.453811e+001  -1.647150e+002 
4053125000  -4.479636e+001  -1.682563e+002 
4056250000  -4.554160e+001  -1.670255e+002 
4059375000  -4.395965e+001  -1.654765e+002 
4062500000  -4.354659e+001  -1.740226e+002 
4065625000  -4.344709e+001  1.787210e+002 
4068750000  -4.294927e+001  1.700311e+002 
4071875000  -4.270499e+001  1.610773e+002 
4075000000  -4.357714e+001  1.552817e+002 
4078125000  -4.358635e+001  1.534712e+002 
4081250000  -4.366232e+001  1.441107e+002 
4084375000  -4.327555e+001  1.360379e+002 
4087500000  -4.360212e+001  1.274836e+002 
4090625000  -4.422961e+001  1.268346e+002 
4093750000  -4.399220e+001  1.238208e+002 
4096875000  -4.382073e+001  1.147094e+002 
4100000000  -4.540250e+001  1.106064e+002 
4103125000  -4.564733e+001  1.113467e+002 
4106250000  -4.530550e+001  1.128246e+002 
4109375000  -4.400925e+001  1.087534e+002 
4112500000  -4.416867e+001  9.873590e+001 
4115625000  -4.416877e+001  9.493942e+001 
4118750000  -4.343898e+001  8.850803e+001 
4121875000  -4.372913e+001  8.022378e+001 
4125000000  -4.474419e+001  7.470184e+001 
4128125000  -4.522443e+001  7.544927e+001 
4131250000  -4.385407e+001  7.936091e+001 
4134375000  -4.149051e+001  6.835033e+001 
4137500000  -4.200241e+001  4.770920e+001 
4140625000  -4.454119e+001  3.942980e+001 
4143750000  -4.478614e+001  4.521010e+001 
4146875000  -4.416441e+001  5.068601e+001 
4150000000  -4.266409e+001  3.895902e+001 
4153125000  -4.332512e+001  2.734481e+001 
4156250000  -4.375160e+001  2.420170e+001 
4159375000  -4.383442e+001  3.001033e+001 
4162500000  -4.256273e+001  2.655364e+001 
4165625000  -4.120540e+001  1.456558e+001 
4168750000  -4.126088e+001  5.041115e+000 
4171875000  -4.092688e+001  -7.970524e+000 
4175000000  -4.168982e+001  -1.729909e+001 
4178125000  -4.229972e+001  -1.800943e+001 
4181250000  -4.185904e+001  -2.642081e+001 
4184375000  -4.246888e+001  -3.037447e+001 
4187500000  -4.248958e+001  -3.946387e+001 
4190625000  -4.252683e+001  -4.665289e+001 
4193750000  -4.382569e+001  -5.290533e+001 
4196875000  -4.544567e+001  -5.442403e+001 
4200000000  -4.580279e+001  -4.921490e+001 
4203125000  -4.474669e+001  -3.987562e+001 
4206250000  -4.069850e+001  -4.955314e+001 
4209375000  -4.118385e+001  -7.628973e+001 
4212500000  -4.391747e+001  -8.128582e+001 
4215625000  -4.363500e+001  -7.440488e+001 
4218750000  -4.255168e+001  -7.318192e+001 
4221875000  -4.107427e+001  -8.426285e+001 
4225000000  -4.277647e+001  -9.696135e+001 
4228125000  -4.247677e+001  -9.759942e+001 
4231250000  -4.074985e+001  -1.037289e+002 
4234375000  -4.106883e+001  -1.182358e+002 
4237500000  -4.073740e+001  -1.212786e+002 
4240625000  -4.082884e+001  -1.336960e+002 
4243750000  -4.238581e+001  -1.414618e+002 
4246875000  -4.267064e+001  -1.427344e+002 
4250000000  -4.230058e+001  -1.407282e+002 
4253125000  -4.282368e+001  -1.439689e+002 
4256250000  -4.253851e+001  -1.520321e+002 
4259375000  -4.211747e+001  -1.559911e+002 
4262500000  -4.205679e+001  -1.624909e+002 
4265625000  -4.184297e+001  -1.638210e+002 
4268750000  -4.097239e+001  -1.728832e+002 
4271875000  -4.101032e+001  -1.783801e+002 
4275000000  -3.991993e+001  1.702453e+002 
4278125000  -4.129839e+001  1.553974e+002 
4281250000  -4.221309e+001  1.542624e+002 
4284375000  -4.233260e+001  1.492908e+002 
4287500000  -4.318456e+001  1.479344e+002 
4290625000  -4.375605e+001  1.550619e+002 
4293750000  -4.105988e+001  1.554385e+002 
4296875000  -4.020470e+001  1.381458e+002 
4300000000  -4.154299e+001  1.299954e+002 
4303125000  -4.163792e+001  1.276745e+002 
4306250000  -4.050080e+001  1.279690e+002 
4309375000  -4.008519e+001  1.184886e+002 
4312500000  -4.007520e+001  1.059870e+002 
4315625000  -4.011794e+001  9.862740e+001 
4318750000  -4.064211e+001  9.215312e+001 
4321875000  -4.070347e+001  8.975402e+001 
4325000000  -3.973485e+001  8.762154e+001 
4328125000  -3.939405e+001  7.399422e+001 
4331250000  -3.993466e+001  6.199529e+001 
4334375000  -4.047926e+001  5.372596e+001 
4337500000  -4.196688e+001  5.316929e+001 
4340625000  -4.194548e+001  5.456603e+001 
4343750000  -4.105885e+001  4.955486e+001 
4346875000  -4.057402e+001  4.068798e+001 
4350000000  -4.075346e+001  3.091179e+001 
4353125000  -4.193232e+001  2.195085e+001 
4356250000  -4.436689e+001  2.337860e+001 
4359375000  -4.268236e+001  3.961967e+001 
4362500000  -3.924622e+001  2.806799e+001 
4365625000  -3.885173e+001  9.481032e+000 
4368750000  -4.013435e+001  -8.026430e-001 
4371875000  -4.118313e+001  -2.513041e+000 
4375000000  -4.053527e+001  -8.527996e+000 
4378125000  -4.044949e+001  -1.855609e+001 
4381250000  -4.038076e+001  -2.308389e+001 
4384375000  -4.048134e+001  -3.086262e+001 
4387500000  -4.138518e+001  -3.871329e+001 
4390625000  -4.167953e+001  -4.191196e+001 
4393750000  -4.168480e+001  -4.033410e+001 
4396875000  -4.070716e+001  -4.646607e+001 
4400000000  -4.078893e+001  -5.617142e+001 
4403125000  -4.136961e+001  -6.633358e+001 
4406250000  -4.205785e+001  -6.995367e+001 
4409375000  -4.228633e+001  -7.393227e+001 
4412500000  -4.353827e+001  -7.935824e+001 
4415625000  -4.313153e+001  -7.419431e+001 
4418750000  -4.170410e+001  -7.702135e+001 
