!Agilent Technologies,E8363B,MY43030201,A.06.04.32
!Agilent E8363B: A.06.04.32
!Date: Tuesday, November 11, 2014 21:46:25
!Correction: S21(Response(S21)) 
!S1P File: Measurement: S21:
# Hz S  dB   R 50
3000000000  -4.372441e+001  -1.620560e+002 
3003125000  -4.526855e+001  -1.665392e+002 
3006250000  -4.538696e+001  -1.679777e+002 
3009375000  -4.610421e+001  -1.642180e+002 
3012500000  -4.479095e+001  -1.709661e+002 
3015625000  -4.513048e+001  -1.791822e+002 
3018750000  -4.546001e+001  -1.767271e+002 
3021875000  -4.396067e+001  -1.791849e+002 
3025000000  -4.264221e+001  1.775628e+002 
3028125000  -4.195441e+001  1.638411e+002 
3031250000  -4.103226e+001  1.516339e+002 
3034375000  -4.088853e+001  1.383092e+002 
3037500000  -4.159143e+001  1.278658e+002 
3040625000  -4.285725e+001  1.214302e+002 
3043750000  -4.320555e+001  1.145137e+002 
3046875000  -4.421136e+001  1.042885e+002 
3050000000  -4.534188e+001  1.019221e+002 
3053125000  -4.452610e+001  1.064461e+002 
3056250000  -4.471917e+001  1.079528e+002 
3059375000  -4.369782e+001  1.063567e+002 
3062500000  -4.280256e+001  1.005738e+002 
3065625000  -4.203134e+001  8.877901e+001 
3068750000  -4.189450e+001  8.177824e+001 
3071875000  -4.182145e+001  7.893576e+001 
3075000000  -4.113945e+001  7.124070e+001 
3078125000  -4.124314e+001  6.442342e+001 
3081250000  -4.136689e+001  5.693489e+001 
3084375000  -4.031363e+001  5.035712e+001 
3087500000  -4.050227e+001  4.248840e+001 
3090625000  -4.001575e+001  3.147585e+001 
3093750000  -4.099358e+001  2.219627e+001 
3096875000  -4.128669e+001  1.587592e+001 
3100000000  -4.100944e+001  1.189565e+001 
3103125000  -4.152470e+001  7.531343e+000 
3106250000  -4.086758e+001  7.028382e-001 
3109375000  -4.094230e+001  -2.821880e+000 
3112500000  -4.082697e+001  -1.178425e+001 
3115625000  -4.081837e+001  -1.581949e+001 
3118750000  -4.053930e+001  -2.030536e+001 
3121875000  -4.016935e+001  -3.279324e+001 
3125000000  -4.212753e+001  -3.533727e+001 
3128125000  -4.209524e+001  -2.956348e+001 
3131250000  -3.955977e+001  -3.840916e+001 
3134375000  -3.883294e+001  -5.619921e+001 
3137500000  -3.950826e+001  -7.052825e+001 
3140625000  -4.089706e+001  -7.545946e+001 
3143750000  -4.171889e+001  -7.811649e+001 
3146875000  -4.110264e+001  -7.726518e+001 
3150000000  -4.044399e+001  -8.285564e+001 
3153125000  -4.076736e+001  -9.228323e+001 
3156250000  -4.145545e+001  -8.846980e+001 
3159375000  -3.895433e+001  -9.202327e+001 
3162500000  -3.763134e+001  -1.089997e+002 
3165625000  -3.904456e+001  -1.226722e+002 
3168750000  -3.893342e+001  -1.241725e+002 
3171875000  -3.846256e+001  -1.330136e+002 
3175000000  -3.915509e+001  -1.425058e+002 
3178125000  -3.877425e+001  -1.451573e+002 
3181250000  -3.817389e+001  -1.550380e+002 
3184375000  -3.784643e+001  -1.660257e+002 
3187500000  -3.923295e+001  1.769112e+002 
3190625000  -4.070214e+001  1.724450e+002 
3193750000  -4.118059e+001  1.733992e+002 
3196875000  -4.111470e+001  1.743813e+002 
3200000000  -3.991793e+001  1.689871e+002 
3203125000  -3.951632e+001  1.595832e+002 
3206250000  -3.985519e+001  1.520395e+002 
3209375000  -3.943563e+001  1.435406e+002 
3212500000  -3.984464e+001  1.354364e+002 
3215625000  -3.955639e+001  1.319805e+002 
3218750000  -4.054244e+001  1.204953e+002 
3221875000  -4.057083e+001  1.139810e+002 
3225000000  -4.043099e+001  1.080565e+002 
3228125000  -4.106983e+001  1.007771e+002 
3231250000  -4.143164e+001  9.574620e+001 
3234375000  -4.101996e+001  9.437450e+001 
3237500000  -4.097969e+001  8.956504e+001 
3240625000  -4.035505e+001  8.325488e+001 
3243750000  -4.034520e+001  7.127440e+001 
3246875000  -4.055690e+001  6.193834e+001 
3250000000  -4.122081e+001  5.786204e+001 
3253125000  -4.126640e+001  5.359959e+001 
3256250000  -4.063876e+001  4.422985e+001 
3259375000  -4.098692e+001  3.198645e+001 
3262500000  -4.248285e+001  2.538386e+001 
3265625000  -4.259037e+001  2.668639e+001 
3268750000  -4.216874e+001  2.594350e+001 
3271875000  -4.154301e+001  2.038020e+001 
3275000000  -4.107640e+001  1.005622e+001 
3278125000  -4.184080e+001  3.474420e+000 
3281250000  -4.179051e+001  -5.148606e-001 
3284375000  -4.107887e+001  -8.997675e+000 
3287500000  -4.148151e+001  -1.597291e+001 
3290625000  -4.147503e+001  -2.748592e+001 
3293750000  -4.174794e+001  -3.359663e+001 
3296875000  -4.251545e+001  -3.911719e+001 
3300000000  -4.198063e+001  -4.163883e+001 
3303125000  -4.101216e+001  -5.070230e+001 
3306250000  -4.081915e+001  -6.016415e+001 
3309375000  -4.060297e+001  -7.092603e+001 
3312500000  -4.105643e+001  -8.590579e+001 
3315625000  -4.229202e+001  -9.442196e+001 
3318750000  -4.373814e+001  -1.019800e+002 
3321875000  -4.536570e+001  -1.003921e+002 
3325000000  -4.518636e+001  -9.810471e+001 
3328125000  -4.425504e+001  -9.970496e+001 
3331250000  -4.252781e+001  -9.904006e+001 
3334375000  -4.017194e+001  -1.173557e+002 
3337500000  -4.090836e+001  -1.411419e+002 
3340625000  -4.265153e+001  -1.494321e+002 
3343750000  -4.463904e+001  -1.539296e+002 
3346875000  -4.410674e+001  -1.577687e+002 
3350000000  -4.380061e+001  -1.617374e+002 
3353125000  -4.383697e+001  -1.716355e+002 
3356250000  -4.325361e+001  1.786522e+002 
3359375000  -4.439810e+001  1.647986e+002 
3362500000  -4.513570e+001  1.588372e+002 
3365625000  -4.586598e+001  1.506251e+002 
3368750000  -4.629718e+001  1.473105e+002 
3371875000  -4.665033e+001  1.391887e+002 
3375000000  -4.830364e+001  1.338181e+002 
3378125000  -4.959548e+001  1.330940e+002 
3381250000  -5.046864e+001  1.431324e+002 
3384375000  -4.723422e+001  1.533541e+002 
3387500000  -4.462998e+001  1.297507e+002 
3390625000  -4.679126e+001  1.054476e+002 
3393750000  -4.798015e+001  1.009543e+002 
3396875000  -4.605990e+001  1.023166e+002 
3400000000  -4.631570e+001  8.477473e+001 
3403125000  -4.709290e+001  7.719297e+001 
3406250000  -4.749397e+001  7.243758e+001 
3409375000  -4.715600e+001  5.768490e+001 
3412500000  -4.795101e+001  5.402180e+001 
3415625000  -4.859399e+001  4.451242e+001 
3418750000  -4.870654e+001  4.326605e+001 
3421875000  -4.875837e+001  4.193380e+001 
3425000000  -4.742517e+001  3.448412e+001 
3428125000  -4.746497e+001  2.647188e+001 
3431250000  -4.688458e+001  1.556563e+001 
3434375000  -4.713850e+001  3.703073e+000 
3437500000  -4.769880e+001  -8.225666e+000 
3440625000  -4.793330e+001  -1.008993e+001 
3443750000  -4.623910e+001  -1.234328e+001 
3446875000  -4.582664e+001  -2.532836e+001 
3450000000  -4.498400e+001  -4.371571e+001 
3453125000  -4.589404e+001  -6.084367e+001 
3456250000  -4.697427e+001  -7.038402e+001 
3459375000  -4.814305e+001  -7.003413e+001 
3462500000  -4.788614e+001  -7.780743e+001 
3465625000  -4.693054e+001  -8.935203e+001 
3468750000  -4.708849e+001  -9.528810e+001 
3471875000  -4.693497e+001  -1.026770e+002 
3475000000  -4.700781e+001  -1.141607e+002 
3478125000  -4.724516e+001  -1.316559e+002 
3481250000  -4.876968e+001  -1.355695e+002 
3484375000  -4.836138e+001  -1.358085e+002 
3487500000  -4.757859e+001  -1.419011e+002 
3490625000  -4.732848e+001  -1.542371e+002 
3493750000  -4.783920e+001  -1.690628e+002 
3496875000  -4.820028e+001  -1.698871e+002 
3500000000  -4.789367e+001  -1.715402e+002 
3503125000  -4.698608e+001  -1.756900e+002 
3506250000  -4.552175e+001  1.704582e+002 
3509375000  -4.576048e+001  1.513306e+002 
3512500000  -4.616861e+001  1.371499e+002 
3515625000  -4.753534e+001  1.310451e+002 
3518750000  -4.794640e+001  1.309191e+002 
3521875000  -4.838913e+001  1.180171e+002 
3525000000  -4.858425e+001  1.170308e+002 
3528125000  -4.750933e+001  1.154745e+002 
3531250000  -4.677571e+001  1.050307e+002 
3534375000  -4.700407e+001  8.633588e+001 
3537500000  -4.817640e+001  7.855377e+001 
3540625000  -4.891760e+001  7.399419e+001 
3543750000  -4.939465e+001  7.838893e+001 
3546875000  -4.861862e+001  8.336662e+001 
3550000000  -4.655894e+001  7.586983e+001 
3553125000  -4.604491e+001  5.269571e+001 
3556250000  -4.758572e+001  4.526674e+001 
3559375000  -4.676338e+001  3.981658e+001 
3562500000  -4.661588e+001  3.274900e+001 
3565625000  -4.700924e+001  2.339207e+001 
3568750000  -4.777381e+001  2.240892e+001 
3571875000  -4.740154e+001  1.938308e+001 
3575000000  -4.707787e+001  1.125233e+001 
3578125000  -4.818763e+001  7.197347e+000 
3581250000  -4.705844e+001  2.689828e+000 
3584375000  -4.612570e+001  -2.804987e+000 
3587500000  -4.537143e+001  -1.778348e+001 
3590625000  -4.657630e+001  -2.545030e+001 
3593750000  -4.822841e+001  -2.413165e+001 
3596875000  -4.665606e+001  -2.561909e+001 
3600000000  -4.504443e+001  -3.201023e+001 
3603125000  -4.538357e+001  -4.624125e+001 
3606250000  -4.589344e+001  -5.507889e+001 
3609375000  -4.615573e+001  -5.642926e+001 
3612500000  -4.619605e+001  -6.498856e+001 
3615625000  -4.622711e+001  -7.012458e+001 
3618750000  -4.647238e+001  -7.218259e+001 
3621875000  -4.536670e+001  -7.808567e+001 
3625000000  -4.544553e+001  -8.285085e+001 
3628125000  -4.457081e+001  -8.831080e+001 
3631250000  -4.516318e+001  -1.004151e+002 
3634375000  -4.544442e+001  -9.822608e+001 
3637500000  -4.458745e+001  -1.016716e+002 
3640625000  -4.399774e+001  -1.055526e+002 
3643750000  -4.318922e+001  -1.197778e+002 
3646875000  -4.399627e+001  -1.301790e+002 
3650000000  -4.376766e+001  -1.321063e+002 
3653125000  -4.316408e+001  -1.429889e+002 
3656250000  -4.412658e+001  -1.492762e+002 
3659375000  -4.401175e+001  -1.528047e+002 
3662500000  -4.288079e+001  -1.590943e+002 
3665625000  -4.349298e+001  -1.620158e+002 
3668750000  -4.180391e+001  -1.677621e+002 
3671875000  -4.143267e+001  1.781287e+002 
3675000000  -4.212224e+001  1.671656e+002 
3678125000  -4.216052e+001  1.620935e+002 
3681250000  -4.217204e+001  1.561092e+002 
3684375000  -4.243087e+001  1.486933e+002 
3687500000  -4.294918e+001  1.385213e+002 
3690625000  -4.345000e+001  1.337041e+002 
3693750000  -4.428730e+001  1.324183e+002 
3696875000  -4.393475e+001  1.287893e+002 
3700000000  -4.296568e+001  1.205711e+002 
3703125000  -4.360809e+001  1.139487e+002 
3706250000  -4.454155e+001  1.138891e+002 
3709375000  -4.351221e+001  1.102942e+002 
3712500000  -4.258561e+001  1.045921e+002 
3715625000  -4.161138e+001  9.524849e+001 
3718750000  -4.165866e+001  8.686350e+001 
3721875000  -4.145253e+001  7.598847e+001 
3725000000  -4.235612e+001  6.891472e+001 
3728125000  -4.217212e+001  6.612213e+001 
3731250000  -4.199212e+001  5.864793e+001 
3734375000  -4.198054e+001  5.023843e+001 
3737500000  -4.267105e+001  4.206096e+001 
3740625000  -4.297021e+001  3.642488e+001 
3743750000  -4.300781e+001  2.863250e+001 
3746875000  -4.331725e+001  2.325153e+001 
3750000000  -4.357377e+001  1.981897e+001 
3753125000  -4.394667e+001  1.702781e+001 
3756250000  -4.356776e+001  1.496890e+001 
3759375000  -4.373694e+001  9.278319e+000 
3762500000  -4.351537e+001  1.283654e+000 
3765625000  -4.407084e+001  -1.484455e+000 
3768750000  -4.371763e+001  -2.110248e+000 
3771875000  -4.220176e+001  -9.947282e+000 
3775000000  -4.197440e+001  -1.751805e+001 
3778125000  -4.279588e+001  -2.405600e+001 
3781250000  -4.253564e+001  -2.986968e+001 
3784375000  -4.249727e+001  -3.623122e+001 
3787500000  -4.200621e+001  -4.182888e+001 
3790625000  -4.258846e+001  -5.244903e+001 
3793750000  -4.257561e+001  -5.435085e+001 
3796875000  -4.157901e+001  -6.029962e+001 
3800000000  -4.070048e+001  -6.723130e+001 
3803125000  -4.164046e+001  -7.859592e+001 
3806250000  -4.246429e+001  -8.297554e+001 
3809375000  -4.159974e+001  -8.827385e+001 
3812500000  -4.191247e+001  -9.871516e+001 
3815625000  -4.302479e+001  -1.088351e+002 
3818750000  -4.483362e+001  -1.082202e+002 
3821875000  -4.326278e+001  -1.002569e+002 
3825000000  -4.175103e+001  -1.039701e+002 
3828125000  -4.054918e+001  -1.262315e+002 
3831250000  -4.135999e+001  -1.421562e+002 
3834375000  -4.387840e+001  -1.411889e+002 
3837500000  -4.386903e+001  -1.379217e+002 
3840625000  -4.250250e+001  -1.460113e+002 
3843750000  -4.182629e+001  -1.592446e+002 
3846875000  -4.361942e+001  -1.684718e+002 
3850000000  -4.359653e+001  -1.583326e+002 
3853125000  -4.357975e+001  -1.640166e+002 
3856250000  -4.299656e+001  -1.711336e+002 
3859375000  -4.246426e+001  -1.791662e+002 
3862500000  -4.198505e+001  1.707528e+002 
3865625000  -4.269691e+001  1.641882e+002 
3868750000  -4.242732e+001  1.616418e+002 
3871875000  -4.185292e+001  1.511913e+002 
3875000000  -4.283167e+001  1.405919e+002 
3878125000  -4.287759e+001  1.403460e+002 
3881250000  -4.306679e+001  1.371689e+002 
3884375000  -4.278818e+001  1.280392e+002 
3887500000  -4.307102e+001  1.213026e+002 
3890625000  -4.363442e+001  1.182170e+002 
3893750000  -4.388671e+001  1.146977e+002 
3896875000  -4.399529e+001  1.100909e+002 
3900000000  -4.480224e+001  1.076508e+002 
3903125000  -4.389022e+001  9.883011e+001 
3906250000  -4.294721e+001  9.822903e+001 
3909375000  -4.252991e+001  8.544990e+001 
3912500000  -4.393050e+001  7.868854e+001 
3915625000  -4.480046e+001  7.808009e+001 
3918750000  -4.449275e+001  7.964352e+001 
3921875000  -4.363336e+001  7.277444e+001 
3925000000  -4.290924e+001  6.764093e+001 
3928125000  -4.302237e+001  5.514575e+001 
3931250000  -4.395752e+001  5.033042e+001 
3934375000  -4.406767e+001  4.675113e+001 
3937500000  -4.485580e+001  4.527817e+001 
3940625000  -4.452525e+001  4.315892e+001 
3943750000  -4.346553e+001  3.696849e+001 
3946875000  -4.264050e+001  2.804560e+001 
3950000000  -4.373315e+001  2.289207e+001 
3953125000  -4.410655e+001  2.289742e+001 
3956250000  -4.302636e+001  2.054741e+001 
3959375000  -4.181432e+001  1.413444e+001 
3962500000  -4.119370e+001  4.371672e+000 
3965625000  -4.190976e+001  -1.017484e+001 
3968750000  -4.240337e+001  -1.582508e+001 
3971875000  -4.239166e+001  -1.911296e+001 
3975000000  -4.194131e+001  -2.567097e+001 
3978125000  -4.230766e+001  -3.240960e+001 
3981250000  -4.198817e+001  -3.952155e+001 
3984375000  -4.232462e+001  -4.842193e+001 
3987500000  -4.293758e+001  -4.986019e+001 
3990625000  -4.275501e+001  -5.573573e+001 
3993750000  -4.295381e+001  -6.104287e+001 
3996875000  -4.306000e+001  -6.831741e+001 
4000000000  -4.349598e+001  -7.436697e+001 
4003125000  -4.361893e+001  -7.166941e+001 
4006250000  -4.187621e+001  -7.922192e+001 
4009375000  -4.150432e+001  -9.595312e+001 
4012500000  -4.259290e+001  -1.029825e+002 
4015625000  -4.384105e+001  -1.058770e+002 
4018750000  -4.398978e+001  -1.062385e+002 
4021875000  -4.320280e+001  -1.149286e+002 
4025000000  -4.285191e+001  -1.218321e+002 
4028125000  -4.367759e+001  -1.309921e+002 
4031250000  -4.414504e+001  -1.352390e+002 
4034375000  -4.426919e+001  -1.374805e+002 
4037500000  -4.372776e+001  -1.409809e+002 
4040625000  -4.400679e+001  -1.474624e+002 
4043750000  -4.439465e+001  -1.510233e+002 
4046875000  -4.433598e+001  -1.577508e+002 
4050000000  -4.384394e+001  -1.629548e+002 
4053125000  -4.549768e+001  -1.671670e+002 
4056250000  -4.581103e+001  -1.636305e+002 
4059375000  -4.354189e+001  -1.643347e+002 
4062500000  -4.331841e+001  -1.729731e+002 
4065625000  -4.319564e+001  -1.773568e+002 
4068750000  -4.345368e+001  1.736588e+002 
4071875000  -4.250071e+001  1.633405e+002 
4075000000  -4.351951e+001  1.540059e+002 
4078125000  -4.377804e+001  1.507566e+002 
4081250000  -4.360688e+001  1.479817e+002 
4084375000  -4.300460e+001  1.357626e+002 
4087500000  -4.378402e+001  1.296755e+002 
4090625000  -4.479220e+001  1.248803e+002 
4093750000  -4.436884e+001  1.264628e+002 
4096875000  -4.407798e+001  1.191954e+002 
4100000000  -4.481557e+001  1.077606e+002 
4103125000  -4.565531e+001  1.119407e+002 
4106250000  -4.518703e+001  1.138883e+002 
4109375000  -4.418856e+001  1.110907e+002 
4112500000  -4.390514e+001  9.856834e+001 
4115625000  -4.412115e+001  9.527316e+001 
4118750000  -4.380077e+001  9.074728e+001 
4121875000  -4.359330e+001  8.284407e+001 
4125000000  -4.484249e+001  7.482915e+001 
4128125000  -4.501971e+001  8.040278e+001 
4131250000  -4.350418e+001  8.060595e+001 
4134375000  -4.146165e+001  7.276357e+001 
4137500000  -4.182512e+001  4.748874e+001 
4140625000  -4.417327e+001  4.082421e+001 
4143750000  -4.464376e+001  4.826726e+001 
4146875000  -4.395695e+001  4.845482e+001 
4150000000  -4.262809e+001  4.261427e+001 
4153125000  -4.305776e+001  3.050101e+001 
4156250000  -4.401351e+001  2.567385e+001 
4159375000  -4.376320e+001  2.917766e+001 
4162500000  -4.227056e+001  2.620098e+001 
4165625000  -4.149499e+001  1.442709e+001 
4168750000  -4.132872e+001  4.174109e+000 
4171875000  -4.075212e+001  -6.327276e+000 
4175000000  -4.192760e+001  -1.451110e+001 
4178125000  -4.210042e+001  -1.862038e+001 
4181250000  -4.205788e+001  -2.522327e+001 
4184375000  -4.254980e+001  -3.105028e+001 
4187500000  -4.240267e+001  -3.815293e+001 
4190625000  -4.262542e+001  -4.657651e+001 
4193750000  -4.390232e+001  -5.060196e+001 
4196875000  -4.485390e+001  -5.343692e+001 
4200000000  -4.573502e+001  -5.125121e+001 
4203125000  -4.447483e+001  -3.715720e+001 
4206250000  -4.114409e+001  -4.847202e+001 
4209375000  -4.184420e+001  -7.018440e+001 
4212500000  -4.396620e+001  -7.926313e+001 
4215625000  -4.397968e+001  -7.210111e+001 
4218750000  -4.237315e+001  -7.452855e+001 
4221875000  -4.098124e+001  -8.205076e+001 
4225000000  -4.211337e+001  -9.598071e+001 
4228125000  -4.219502e+001  -9.384769e+001 
4231250000  -4.067444e+001  -1.031464e+002 
4234375000  -4.104757e+001  -1.166948e+002 
4237500000  -4.080066e+001  -1.208856e+002 
4240625000  -4.103285e+001  -1.299424e+002 
4243750000  -4.262059e+001  -1.390987e+002 
4246875000  -4.292812e+001  -1.395977e+002 
4250000000  -4.278718e+001  -1.404305e+002 
4253125000  -4.250508e+001  -1.442196e+002 
4256250000  -4.240536e+001  -1.513752e+002 
4259375000  -4.218567e+001  -1.534371e+002 
4262500000  -4.235851e+001  -1.599800e+002 
4265625000  -4.188999e+001  -1.623641e+002 
4268750000  -4.115057e+001  -1.700536e+002 
4271875000  -4.074526e+001  -1.799889e+002 
4275000000  -4.047108e+001  1.711755e+002 
4278125000  -4.133641e+001  1.572786e+002 
4281250000  -4.232115e+001  1.548833e+002 
4284375000  -4.216476e+001  1.537110e+002 
4287500000  -4.365737e+001  1.492823e+002 
4290625000  -4.368232e+001  1.552195e+002 
4293750000  -4.105160e+001  1.534952e+002 
4296875000  -4.039481e+001  1.398985e+002 
4300000000  -4.170657e+001  1.320237e+002 
4303125000  -4.212473e+001  1.303444e+002 
4306250000  -4.053983e+001  1.300527e+002 
4309375000  -3.955349e+001  1.186024e+002 
4312500000  -3.966210e+001  1.075038e+002 
4315625000  -3.994264e+001  9.846672e+001 
4318750000  -4.087460e+001  9.482675e+001 
4321875000  -4.077726e+001  9.129555e+001 
4325000000  -3.995765e+001  8.497200e+001 
4328125000  -3.926102e+001  7.590289e+001 
4331250000  -3.968280e+001  6.433206e+001 
4334375000  -4.087202e+001  5.494386e+001 
4337500000  -4.174212e+001  5.364936e+001 
4340625000  -4.197884e+001  5.810825e+001 
4343750000  -4.097812e+001  5.102679e+001 
4346875000  -4.094726e+001  4.223584e+001 
4350000000  -4.062382e+001  3.213994e+001 
4353125000  -4.197828e+001  2.199016e+001 
4356250000  -4.358976e+001  2.629409e+001 
4359375000  -4.235875e+001  4.059396e+001 
4362500000  -3.944371e+001  2.888545e+001 
4365625000  -3.898672e+001  1.217511e+001 
4368750000  -4.034677e+001  -1.028467e-001 
4371875000  -4.140697e+001  -9.428951e-001 
4375000000  -4.062883e+001  -6.907981e+000 
4378125000  -4.026094e+001  -1.517413e+001 
4381250000  -4.045300e+001  -2.319241e+001 
4384375000  -4.053346e+001  -3.059724e+001 
4387500000  -4.149857e+001  -3.703867e+001 
4390625000  -4.216943e+001  -3.953525e+001 
4393750000  -4.173977e+001  -4.169177e+001 
4396875000  -4.119597e+001  -4.734146e+001 
4400000000  -4.077581e+001  -5.590837e+001 
4403125000  -4.155478e+001  -6.522906e+001 
4406250000  -4.191209e+001  -7.099217e+001 
4409375000  -4.212640e+001  -7.564800e+001 
4412500000  -4.368888e+001  -7.647157e+001 
4415625000  -4.301115e+001  -7.162851e+001 
4418750000  -4.200962e+001  -7.778262e+001 
