!Agilent Technologies,E8363B,MY43030201,A.06.04.32
!Agilent E8363B: A.06.04.32
!Date: Tuesday, November 11, 2014 21:51:00
!Correction: S21(Response(S21)) 
!S1P File: Measurement: S21:
# Hz S  dB   R 50
3000000000  -4.374197e+001  -1.622665e+002 
3003125000  -4.531672e+001  -1.669140e+002 
3006250000  -4.503352e+001  -1.676658e+002 
3009375000  -4.618082e+001  -1.656711e+002 
3012500000  -4.454176e+001  -1.708922e+002 
3015625000  -4.529987e+001  1.784461e+002 
3018750000  -4.535062e+001  1.793609e+002 
3021875000  -4.417407e+001  -1.792627e+002 
3025000000  -4.248402e+001  1.762929e+002 
3028125000  -4.181572e+001  1.626522e+002 
3031250000  -4.110186e+001  1.509672e+002 
3034375000  -4.070305e+001  1.367554e+002 
3037500000  -4.178520e+001  1.257149e+002 
3040625000  -4.300071e+001  1.190827e+002 
3043750000  -4.334511e+001  1.114110e+002 
3046875000  -4.401636e+001  1.058385e+002 
3050000000  -4.527402e+001  1.012392e+002 
3053125000  -4.476199e+001  1.046028e+002 
3056250000  -4.439560e+001  1.084831e+002 
3059375000  -4.390135e+001  1.055947e+002 
3062500000  -4.239522e+001  1.001544e+002 
3065625000  -4.212645e+001  8.682300e+001 
3068750000  -4.192051e+001  8.064568e+001 
3071875000  -4.181479e+001  7.696338e+001 
3075000000  -4.111279e+001  7.079198e+001 
3078125000  -4.134233e+001  6.352648e+001 
3081250000  -4.130349e+001  5.469741e+001 
3084375000  -4.040840e+001  4.974120e+001 
3087500000  -4.052351e+001  4.272945e+001 
3090625000  -4.013538e+001  3.049849e+001 
3093750000  -4.097353e+001  2.057647e+001 
3096875000  -4.122912e+001  1.542068e+001 
3100000000  -4.122281e+001  1.231614e+001 
3103125000  -4.130494e+001  6.725384e+000 
3106250000  -4.118734e+001  1.257357e+000 
3109375000  -4.107085e+001  -3.792590e+000 
3112500000  -4.080679e+001  -1.238397e+001 
3115625000  -4.083199e+001  -1.608245e+001 
3118750000  -4.091784e+001  -2.201610e+001 
3121875000  -4.003455e+001  -3.342355e+001 
3125000000  -4.202546e+001  -3.725622e+001 
3128125000  -4.204535e+001  -3.200392e+001 
3131250000  -3.950259e+001  -4.150618e+001 
3134375000  -3.890737e+001  -5.795174e+001 
3137500000  -3.951827e+001  -7.192690e+001 
3140625000  -4.094096e+001  -7.539457e+001 
3143750000  -4.160943e+001  -7.895067e+001 
3146875000  -4.117557e+001  -7.708242e+001 
3150000000  -4.040242e+001  -8.362024e+001 
3153125000  -4.076256e+001  -9.340861e+001 
3156250000  -4.138346e+001  -8.864001e+001 
3159375000  -3.920698e+001  -9.327128e+001 
3162500000  -3.766367e+001  -1.090267e+002 
3165625000  -3.907758e+001  -1.224900e+002 
3168750000  -3.891066e+001  -1.241801e+002 
3171875000  -3.850958e+001  -1.337128e+002 
3175000000  -3.924823e+001  -1.435577e+002 
3178125000  -3.874193e+001  -1.463953e+002 
3181250000  -3.791006e+001  -1.548714e+002 
3184375000  -3.785052e+001  -1.674446e+002 
3187500000  -3.917702e+001  1.767103e+002 
3190625000  -4.073292e+001  1.716922e+002 
3193750000  -4.098410e+001  1.746119e+002 
3196875000  -4.112819e+001  1.732587e+002 
3200000000  -3.987493e+001  1.672076e+002 
3203125000  -3.981160e+001  1.596132e+002 
3206250000  -3.983499e+001  1.500852e+002 
3209375000  -3.950811e+001  1.422987e+002 
3212500000  -3.995904e+001  1.339853e+002 
3215625000  -3.983253e+001  1.325028e+002 
3218750000  -4.034980e+001  1.200976e+002 
3221875000  -4.062536e+001  1.129975e+002 
3225000000  -4.033357e+001  1.075715e+002 
3228125000  -4.106864e+001  9.999181e+001 
3231250000  -4.138934e+001  9.627953e+001 
3234375000  -4.078945e+001  9.271719e+001 
3237500000  -4.085380e+001  8.971863e+001 
3240625000  -4.027048e+001  8.259734e+001 
3243750000  -4.019625e+001  6.995856e+001 
3246875000  -4.067162e+001  6.161100e+001 
3250000000  -4.106997e+001  5.828672e+001 
3253125000  -4.112623e+001  5.249699e+001 
3256250000  -4.046535e+001  4.363226e+001 
3259375000  -4.100005e+001  3.079745e+001 
3262500000  -4.245396e+001  2.660916e+001 
3265625000  -4.262677e+001  2.722969e+001 
3268750000  -4.261913e+001  2.456283e+001 
3271875000  -4.157005e+001  1.908257e+001 
3275000000  -4.084807e+001  8.191548e+000 
3278125000  -4.165219e+001  2.191466e+000 
3281250000  -4.179278e+001  -7.612450e-001 
3284375000  -4.095495e+001  -8.622070e+000 
3287500000  -4.152869e+001  -1.707644e+001 
3290625000  -4.138363e+001  -2.794806e+001 
3293750000  -4.158610e+001  -3.697882e+001 
3296875000  -4.259135e+001  -4.053149e+001 
3300000000  -4.211346e+001  -4.210597e+001 
3303125000  -4.101425e+001  -5.091202e+001 
3306250000  -4.104159e+001  -6.181842e+001 
3309375000  -4.063684e+001  -7.234142e+001 
3312500000  -4.114481e+001  -8.606998e+001 
3315625000  -4.234545e+001  -9.414951e+001 
3318750000  -4.398403e+001  -1.029413e+002 
3321875000  -4.524806e+001  -1.009713e+002 
3325000000  -4.497261e+001  -9.641962e+001 
3328125000  -4.451407e+001  -9.995134e+001 
3331250000  -4.218553e+001  -1.001025e+002 
3334375000  -3.983849e+001  -1.169186e+002 
3337500000  -4.086176e+001  -1.412990e+002 
3340625000  -4.277245e+001  -1.511138e+002 
3343750000  -4.453959e+001  -1.537091e+002 
3346875000  -4.405305e+001  -1.574228e+002 
3350000000  -4.362490e+001  -1.620387e+002 
3353125000  -4.359928e+001  -1.717576e+002 
3356250000  -4.310509e+001  1.784750e+002 
3359375000  -4.450490e+001  1.659017e+002 
3362500000  -4.496226e+001  1.571280e+002 
3365625000  -4.572508e+001  1.503126e+002 
3368750000  -4.636133e+001  1.463209e+002 
3371875000  -4.711144e+001  1.398557e+002 
3375000000  -4.831711e+001  1.323344e+002 
3378125000  -4.906364e+001  1.340206e+002 
3381250000  -5.056445e+001  1.404146e+002 
3384375000  -4.744149e+001  1.516331e+002 
3387500000  -4.498795e+001  1.261977e+002 
3390625000  -4.666050e+001  1.097761e+002 
3393750000  -4.797620e+001  1.048668e+002 
3396875000  -4.617471e+001  1.014197e+002 
3400000000  -4.629877e+001  8.506074e+001 
3403125000  -4.679698e+001  7.964773e+001 
3406250000  -4.712253e+001  7.237659e+001 
3409375000  -4.741383e+001  6.011835e+001 
3412500000  -4.767612e+001  5.196703e+001 
3415625000  -4.873463e+001  4.948254e+001 
3418750000  -4.873373e+001  4.398100e+001 
3421875000  -4.881592e+001  4.046920e+001 
3425000000  -4.769454e+001  3.230875e+001 
3428125000  -4.763069e+001  2.612096e+001 
3431250000  -4.714517e+001  1.605491e+001 
3434375000  -4.706059e+001  2.134626e+000 
3437500000  -4.731892e+001  -5.644988e+000 
3440625000  -4.773045e+001  -8.684971e+000 
3443750000  -4.606984e+001  -1.372403e+001 
3446875000  -4.573330e+001  -2.815851e+001 
3450000000  -4.508964e+001  -4.523895e+001 
3453125000  -4.586590e+001  -6.187527e+001 
3456250000  -4.699496e+001  -6.882133e+001 
3459375000  -4.821655e+001  -7.294902e+001 
3462500000  -4.844488e+001  -7.535501e+001 
3465625000  -4.713029e+001  -8.926191e+001 
3468750000  -4.716734e+001  -9.538803e+001 
3471875000  -4.724710e+001  -1.056943e+002 
3475000000  -4.672612e+001  -1.174214e+002 
3478125000  -4.717640e+001  -1.286282e+002 
3481250000  -4.897833e+001  -1.342502e+002 
3484375000  -4.869844e+001  -1.342241e+002 
3487500000  -4.737085e+001  -1.433601e+002 
3490625000  -4.767815e+001  -1.542966e+002 
3493750000  -4.790387e+001  -1.658304e+002 
3496875000  -4.808596e+001  -1.719108e+002 
3500000000  -4.835458e+001  -1.728310e+002 
3503125000  -4.724187e+001  -1.756458e+002 
3506250000  -4.546927e+001  1.695999e+002 
3509375000  -4.585616e+001  1.512200e+002 
3512500000  -4.662556e+001  1.365532e+002 
3515625000  -4.741811e+001  1.284479e+002 
3518750000  -4.848785e+001  1.279961e+002 
3521875000  -4.797970e+001  1.179419e+002 
3525000000  -4.913042e+001  1.138669e+002 
3528125000  -4.831013e+001  1.135157e+002 
3531250000  -4.713629e+001  1.057610e+002 
3534375000  -4.722511e+001  8.694979e+001 
3537500000  -4.776969e+001  7.779847e+001 
3540625000  -4.910338e+001  6.997698e+001 
3543750000  -4.945866e+001  7.922476e+001 
3546875000  -4.930958e+001  8.108997e+001 
3550000000  -4.638103e+001  7.244331e+001 
3553125000  -4.551744e+001  5.457313e+001 
3556250000  -4.716843e+001  4.287468e+001 
3559375000  -4.671646e+001  4.057685e+001 
3562500000  -4.706639e+001  3.271844e+001 
3565625000  -4.739218e+001  2.387404e+001 
3568750000  -4.793989e+001  2.497929e+001 
3571875000  -4.734465e+001  1.777337e+001 
3575000000  -4.735797e+001  8.798778e+000 
3578125000  -4.761838e+001  6.811871e+000 
3581250000  -4.729682e+001  3.598562e+000 
3584375000  -4.585649e+001  -7.380286e+000 
3587500000  -4.577463e+001  -1.934506e+001 
3590625000  -4.619167e+001  -2.480400e+001 
3593750000  -4.760504e+001  -2.721328e+001 
3596875000  -4.639262e+001  -1.877961e+001 
3600000000  -4.448222e+001  -3.441875e+001 
3603125000  -4.522032e+001  -5.094252e+001 
3606250000  -4.576386e+001  -5.463373e+001 
3609375000  -4.611231e+001  -6.033777e+001 
3612500000  -4.602821e+001  -6.543602e+001 
3615625000  -4.586508e+001  -7.030986e+001 
3618750000  -4.596674e+001  -7.204908e+001 
3621875000  -4.521928e+001  -8.020428e+001 
3625000000  -4.552588e+001  -8.473397e+001 
3628125000  -4.487980e+001  -8.991306e+001 
3631250000  -4.502670e+001  -9.842867e+001 
3634375000  -4.559837e+001  -1.000740e+002 
3637500000  -4.450532e+001  -1.007868e+002 
3640625000  -4.380962e+001  -1.089504e+002 
3643750000  -4.319987e+001  -1.204516e+002 
3646875000  -4.366893e+001  -1.303394e+002 
3650000000  -4.384362e+001  -1.354940e+002 
3653125000  -4.348979e+001  -1.452258e+002 
3656250000  -4.396332e+001  -1.496231e+002 
3659375000  -4.387124e+001  -1.538625e+002 
3662500000  -4.330663e+001  -1.602919e+002 
3665625000  -4.330921e+001  -1.671149e+002 
3668750000  -4.190681e+001  -1.704585e+002 
3671875000  -4.124154e+001  1.765231e+002 
3675000000  -4.210928e+001  1.668385e+002 
3678125000  -4.254812e+001  1.619575e+002 
3681250000  -4.231468e+001  1.545470e+002 
3684375000  -4.265791e+001  1.477721e+002 
3687500000  -4.303897e+001  1.380077e+002 
3690625000  -4.333086e+001  1.321727e+002 
3693750000  -4.433290e+001  1.313315e+002 
3696875000  -4.402037e+001  1.255670e+002 
3700000000  -4.282738e+001  1.200282e+002 
3703125000  -4.379117e+001  1.142402e+002 
3706250000  -4.451436e+001  1.094315e+002 
3709375000  -4.370892e+001  1.107566e+002 
3712500000  -4.295200e+001  1.038453e+002 
3715625000  -4.176460e+001  9.437360e+001 
3718750000  -4.191336e+001  8.470273e+001 
3721875000  -4.179219e+001  7.620138e+001 
3725000000  -4.228931e+001  6.646757e+001 
3728125000  -4.241830e+001  6.394946e+001 
3731250000  -4.185708e+001  5.767669e+001 
3734375000  -4.181174e+001  5.097844e+001 
3737500000  -4.289091e+001  3.921472e+001 
3740625000  -4.272064e+001  3.630593e+001 
3743750000  -4.262053e+001  2.947974e+001 
3746875000  -4.340446e+001  2.271621e+001 
3750000000  -4.349920e+001  1.917345e+001 
3753125000  -4.391124e+001  1.523324e+001 
3756250000  -4.368102e+001  1.180115e+001 
3759375000  -4.365245e+001  7.141297e+000 
3762500000  -4.351126e+001  2.449254e+000 
3765625000  -4.417984e+001  -2.443455e+000 
3768750000  -4.313808e+001  -5.313766e-001 
3771875000  -4.188084e+001  -1.058948e+001 
3775000000  -4.231280e+001  -2.171827e+001 
3778125000  -4.257519e+001  -2.753546e+001 
3781250000  -4.257570e+001  -3.230122e+001 
3784375000  -4.278430e+001  -3.778915e+001 
3787500000  -4.226704e+001  -4.242172e+001 
3790625000  -4.290147e+001  -5.343405e+001 
3793750000  -4.264431e+001  -5.657287e+001 
3796875000  -4.138778e+001  -6.146220e+001 
3800000000  -4.073668e+001  -6.934714e+001 
3803125000  -4.140158e+001  -8.041027e+001 
3806250000  -4.198111e+001  -8.481340e+001 
3809375000  -4.169180e+001  -9.056228e+001 
3812500000  -4.169880e+001  -1.015230e+002 
3815625000  -4.291096e+001  -1.110999e+002 
3818750000  -4.445470e+001  -1.109265e+002 
3821875000  -4.368930e+001  -1.015870e+002 
3825000000  -4.127509e+001  -1.070564e+002 
3828125000  -4.035381e+001  -1.267910e+002 
3831250000  -4.132854e+001  -1.425643e+002 
3834375000  -4.357983e+001  -1.390073e+002 
3837500000  -4.379829e+001  -1.407405e+002 
3840625000  -4.271679e+001  -1.458800e+002 
3843750000  -4.145993e+001  -1.623440e+002 
3846875000  -4.321511e+001  -1.688645e+002 
3850000000  -4.390797e+001  -1.609696e+002 
3853125000  -4.359740e+001  -1.670869e+002 
3856250000  -4.281921e+001  -1.738311e+002 
3859375000  -4.211127e+001  1.798828e+002 
3862500000  -4.195224e+001  1.681946e+002 
3865625000  -4.250607e+001  1.616917e+002 
3868750000  -4.223373e+001  1.610507e+002 
3871875000  -4.150002e+001  1.520760e+002 
3875000000  -4.235696e+001  1.417533e+002 
3878125000  -4.305081e+001  1.383752e+002 
3881250000  -4.314645e+001  1.364160e+002 
3884375000  -4.249842e+001  1.259425e+002 
3887500000  -4.315814e+001  1.193235e+002 
3890625000  -4.372974e+001  1.178169e+002 
3893750000  -4.403344e+001  1.144463e+002 
3896875000  -4.437218e+001  1.093105e+002 
3900000000  -4.437672e+001  1.050879e+002 
3903125000  -4.363312e+001  1.004091e+002 
3906250000  -4.383674e+001  9.894164e+001 
3909375000  -4.241480e+001  8.717472e+001 
3912500000  -4.404425e+001  7.809068e+001 
3915625000  -4.492886e+001  7.719225e+001 
3918750000  -4.441161e+001  7.500191e+001 
3921875000  -4.389913e+001  7.027644e+001 
3925000000  -4.296617e+001  6.395160e+001 
3928125000  -4.285757e+001  5.364577e+001 
3931250000  -4.350570e+001  4.705991e+001 
3934375000  -4.407201e+001  4.439563e+001 
3937500000  -4.464577e+001  4.347648e+001 
3940625000  -4.450635e+001  4.439021e+001 
3943750000  -4.354436e+001  3.662335e+001 
3946875000  -4.272414e+001  2.700720e+001 
3950000000  -4.367731e+001  1.998658e+001 
3953125000  -4.440255e+001  2.177970e+001 
3956250000  -4.304166e+001  1.919772e+001 
3959375000  -4.163563e+001  1.228677e+001 
3962500000  -4.148940e+001  1.688251e+000 
3965625000  -4.140443e+001  -9.706265e+000 
3968750000  -4.237404e+001  -1.758796e+001 
3971875000  -4.265748e+001  -2.287763e+001 
3975000000  -4.189503e+001  -2.612231e+001 
3978125000  -4.221517e+001  -3.370552e+001 
3981250000  -4.181998e+001  -4.027699e+001 
3984375000  -4.227610e+001  -5.141883e+001 
3987500000  -4.301344e+001  -5.504963e+001 
3990625000  -4.291947e+001  -5.726711e+001 
3993750000  -4.333823e+001  -6.589486e+001 
3996875000  -4.272295e+001  -7.135073e+001 
4000000000  -4.374189e+001  -7.357656e+001 
4003125000  -4.364268e+001  -7.651723e+001 
4006250000  -4.173677e+001  -8.057491e+001 
4009375000  -4.115878e+001  -9.632330e+001 
4012500000  -4.274387e+001  -1.057712e+002 
4015625000  -4.398273e+001  -1.072697e+002 
4018750000  -4.384616e+001  -1.092931e+002 
4021875000  -4.280709e+001  -1.168038e+002 
4025000000  -4.292670e+001  -1.216674e+002 
4028125000  -4.317931e+001  -1.294512e+002 
4031250000  -4.375263e+001  -1.382999e+002 
4034375000  -4.382940e+001  -1.397727e+002 
4037500000  -4.434432e+001  -1.435601e+002 
4040625000  -4.426934e+001  -1.492786e+002 
4043750000  -4.457630e+001  -1.526139e+002 
4046875000  -4.432204e+001  -1.579641e+002 
4050000000  -4.424982e+001  -1.661314e+002 
4053125000  -4.547795e+001  -1.666188e+002 
4056250000  -4.553502e+001  -1.670240e+002 
4059375000  -4.365780e+001  -1.648195e+002 
4062500000  -4.306089e+001  -1.780278e+002 
4065625000  -4.358862e+001  -1.792838e+002 
4068750000  -4.291273e+001  1.686372e+002 
4071875000  -4.217866e+001  1.580771e+002 
4075000000  -4.347556e+001  1.516917e+002 
4078125000  -4.407936e+001  1.506479e+002 
4081250000  -4.310525e+001  1.426952e+002 
4084375000  -4.342388e+001  1.350573e+002 
4087500000  -4.345317e+001  1.251156e+002 
4090625000  -4.466649e+001  1.262420e+002 
4093750000  -4.444212e+001  1.231201e+002 
4096875000  -4.400605e+001  1.152846e+002 
4100000000  -4.493384e+001  1.073555e+002 
4103125000  -4.584115e+001  1.105396e+002 
4106250000  -4.506488e+001  1.131509e+002 
4109375000  -4.414128e+001  1.070744e+002 
4112500000  -4.375675e+001  9.672141e+001 
4115625000  -4.396884e+001  9.369157e+001 
4118750000  -4.382564e+001  8.876060e+001 
4121875000  -4.357960e+001  8.167948e+001 
4125000000  -4.496339e+001  7.350673e+001 
4128125000  -4.480581e+001  7.587885e+001 
4131250000  -4.394737e+001  8.239477e+001 
4134375000  -4.147337e+001  6.953741e+001 
4137500000  -4.198158e+001  4.785403e+001 
4140625000  -4.381788e+001  4.241657e+001 
4143750000  -4.480041e+001  4.368704e+001 
4146875000  -4.358003e+001  4.849535e+001 
4150000000  -4.255807e+001  3.686582e+001 
4153125000  -4.300990e+001  2.729266e+001 
4156250000  -4.401028e+001  2.418613e+001 
4159375000  -4.374625e+001  2.599304e+001 
4162500000  -4.238940e+001  2.648163e+001 
4165625000  -4.102029e+001  1.451696e+001 
4168750000  -4.099453e+001  4.982925e+000 
4171875000  -4.125735e+001  -7.754087e+000 
4175000000  -4.197683e+001  -1.397217e+001 
4178125000  -4.226802e+001  -2.067872e+001 
4181250000  -4.199564e+001  -2.419097e+001 
4184375000  -4.262352e+001  -3.340799e+001 
4187500000  -4.229787e+001  -3.806712e+001 
4190625000  -4.284932e+001  -4.841146e+001 
4193750000  -4.385915e+001  -5.296204e+001 
4196875000  -4.497569e+001  -5.737915e+001 
4200000000  -4.586842e+001  -4.678231e+001 
4203125000  -4.396376e+001  -4.232715e+001 
4206250000  -4.091349e+001  -5.131536e+001 
4209375000  -4.158799e+001  -7.606782e+001 
4212500000  -4.336911e+001  -8.168813e+001 
4215625000  -4.387466e+001  -7.692371e+001 
4218750000  -4.249905e+001  -7.685717e+001 
4221875000  -4.091590e+001  -8.642899e+001 
4225000000  -4.217723e+001  -9.699577e+001 
4228125000  -4.231774e+001  -9.599414e+001 
4231250000  -4.102677e+001  -1.053365e+002 
4234375000  -4.058271e+001  -1.133251e+002 
4237500000  -4.082674e+001  -1.212247e+002 
4240625000  -4.086859e+001  -1.313940e+002 
4243750000  -4.232511e+001  -1.410284e+002 
4246875000  -4.299118e+001  -1.402119e+002 
4250000000  -4.263009e+001  -1.410114e+002 
4253125000  -4.234977e+001  -1.431250e+002 
4256250000  -4.239455e+001  -1.515081e+002 
4259375000  -4.193169e+001  -1.564766e+002 
4262500000  -4.228220e+001  -1.629291e+002 
4265625000  -4.203272e+001  -1.630807e+002 
4268750000  -4.073500e+001  -1.708058e+002 
4271875000  -4.044974e+001  1.773936e+002 
4275000000  -4.050654e+001  1.697242e+002 
4278125000  -4.116253e+001  1.565239e+002 
4281250000  -4.262138e+001  1.560643e+002 
4284375000  -4.164899e+001  1.492300e+002 
4287500000  -4.361461e+001  1.485544e+002 
4290625000  -4.379467e+001  1.554172e+002 
4293750000  -4.135862e+001  1.525059e+002 
4296875000  -3.991608e+001  1.377004e+002 
4300000000  -4.127074e+001  1.273354e+002 
4303125000  -4.189071e+001  1.296791e+002 
4306250000  -4.078970e+001  1.269972e+002 
4309375000  -3.952398e+001  1.179790e+002 
4312500000  -3.960076e+001  1.054974e+002 
4315625000  -4.020399e+001  9.803896e+001 
4318750000  -4.089961e+001  9.010319e+001 
4321875000  -4.092686e+001  8.996199e+001 
4325000000  -4.034449e+001  8.508492e+001 
4328125000  -3.918058e+001  7.235820e+001 
4331250000  -3.961561e+001  6.048096e+001 
4334375000  -4.071130e+001  5.431858e+001 
4337500000  -4.179138e+001  5.051682e+001 
4340625000  -4.229763e+001  5.362914e+001 
4343750000  -4.109486e+001  4.978484e+001 
4346875000  -4.109513e+001  3.888118e+001 
4350000000  -4.103186e+001  2.925213e+001 
4353125000  -4.168460e+001  2.214022e+001 
4356250000  -4.350607e+001  2.628162e+001 
4359375000  -4.263156e+001  3.774769e+001 
4362500000  -3.933097e+001  2.767695e+001 
4365625000  -3.880801e+001  9.396476e+000 
4368750000  -3.997824e+001  -9.804917e-001 
4371875000  -4.135398e+001  -4.556788e+000 
4375000000  -4.039861e+001  -8.020918e+000 
4378125000  -4.055789e+001  -1.706114e+001 
4381250000  -4.083514e+001  -2.332282e+001 
4384375000  -4.066956e+001  -3.484556e+001 
4387500000  -4.137156e+001  -4.042747e+001 
4390625000  -4.203546e+001  -4.327185e+001 
4393750000  -4.156964e+001  -4.242064e+001 
4396875000  -4.115649e+001  -4.692902e+001 
4400000000  -4.078192e+001  -5.748594e+001 
4403125000  -4.115876e+001  -6.630179e+001 
4406250000  -4.186781e+001  -7.251591e+001 
4409375000  -4.256877e+001  -7.611253e+001 
4412500000  -4.337671e+001  -7.778748e+001 
4415625000  -4.288966e+001  -7.870155e+001 
4418750000  -4.182663e+001  -7.601939e+001 
