!Agilent Technologies,E8363B,MY43030201,A.06.04.32
!Agilent E8363B: A.06.04.32
!Date: Tuesday, November 11, 2014 21:53:18
!Correction: S21(Response(S21)) 
!S1P File: Measurement: S21:
# Hz S  dB   R 50
3000000000  -4.373849e+001  -1.635282e+002 
3003125000  -4.494912e+001  -1.686721e+002 
3006250000  -4.527462e+001  -1.697933e+002 
3009375000  -4.634004e+001  -1.660338e+002 
3012500000  -4.509446e+001  -1.721360e+002 
3015625000  -4.498158e+001  1.783162e+002 
3018750000  -4.516935e+001  1.795983e+002 
3021875000  -4.370893e+001  1.784851e+002 
3025000000  -4.260550e+001  1.749579e+002 
3028125000  -4.188408e+001  1.622841e+002 
3031250000  -4.092926e+001  1.497071e+002 
3034375000  -4.056646e+001  1.351754e+002 
3037500000  -4.155974e+001  1.239303e+002 
3040625000  -4.279681e+001  1.189707e+002 
3043750000  -4.313264e+001  1.110230e+002 
3046875000  -4.424595e+001  1.065497e+002 
3050000000  -4.539262e+001  1.012055e+002 
3053125000  -4.468348e+001  1.037009e+002 
3056250000  -4.478331e+001  1.071379e+002 
3059375000  -4.399109e+001  1.017038e+002 
3062500000  -4.246736e+001  9.849570e+001 
3065625000  -4.227161e+001  8.684459e+001 
3068750000  -4.188512e+001  7.726562e+001 
3071875000  -4.184130e+001  7.686124e+001 
3075000000  -4.126395e+001  6.819299e+001 
3078125000  -4.134736e+001  6.025937e+001 
3081250000  -4.133867e+001  5.573002e+001 
3084375000  -4.057473e+001  4.917709e+001 
3087500000  -4.063287e+001  4.104193e+001 
3090625000  -4.018709e+001  2.818312e+001 
3093750000  -4.104483e+001  1.992907e+001 
3096875000  -4.133451e+001  1.336626e+001 
3100000000  -4.108997e+001  1.029399e+001 
3103125000  -4.150843e+001  5.628157e+000 
3106250000  -4.095781e+001  8.316828e-002 
3109375000  -4.101081e+001  -5.109033e+000 
3112500000  -4.107354e+001  -1.274096e+001 
3115625000  -4.070009e+001  -1.704712e+001 
3118750000  -4.070989e+001  -2.276936e+001 
3121875000  -4.020830e+001  -3.439500e+001 
3125000000  -4.207747e+001  -3.732285e+001 
3128125000  -4.191019e+001  -3.315913e+001 
3131250000  -3.951777e+001  -4.102306e+001 
3134375000  -3.875928e+001  -5.800943e+001 
3137500000  -3.948586e+001  -7.135591e+001 
3140625000  -4.086439e+001  -7.616401e+001 
3143750000  -4.150777e+001  -7.920392e+001 
3146875000  -4.093332e+001  -8.030045e+001 
3150000000  -4.041889e+001  -8.401467e+001 
3153125000  -4.086695e+001  -9.329136e+001 
3156250000  -4.135036e+001  -9.090962e+001 
3159375000  -3.913264e+001  -9.264811e+001 
3162500000  -3.766142e+001  -1.111057e+002 
3165625000  -3.885621e+001  -1.247449e+002 
3168750000  -3.904511e+001  -1.245981e+002 
3171875000  -3.862114e+001  -1.339863e+002 
3175000000  -3.919498e+001  -1.451052e+002 
3178125000  -3.871077e+001  -1.466678e+002 
3181250000  -3.814867e+001  -1.569496e+002 
3184375000  -3.775919e+001  -1.696713e+002 
3187500000  -3.930608e+001  1.773338e+002 
3190625000  -4.085596e+001  1.696440e+002 
3193750000  -4.124154e+001  1.736665e+002 
3196875000  -4.103206e+001  1.719556e+002 
3200000000  -3.992633e+001  1.678307e+002 
3203125000  -3.943732e+001  1.579937e+002 
3206250000  -3.967011e+001  1.499251e+002 
3209375000  -3.949822e+001  1.407701e+002 
3212500000  -3.981960e+001  1.330218e+002 
3215625000  -3.964666e+001  1.307772e+002 
3218750000  -4.026648e+001  1.188480e+002 
3221875000  -4.041700e+001  1.108027e+002 
3225000000  -4.038683e+001  1.062523e+002 
3228125000  -4.104091e+001  9.851756e+001 
3231250000  -4.129231e+001  9.577434e+001 
3234375000  -4.096651e+001  9.115927e+001 
3237500000  -4.087543e+001  8.798559e+001 
3240625000  -4.047515e+001  8.080885e+001 
3243750000  -4.024714e+001  6.956476e+001 
3246875000  -4.068660e+001  6.300253e+001 
3250000000  -4.120338e+001  5.759877e+001 
3253125000  -4.096400e+001  5.182153e+001 
3256250000  -4.037031e+001  4.213221e+001 
3259375000  -4.111617e+001  3.057199e+001 
3262500000  -4.235025e+001  2.372602e+001 
3265625000  -4.248810e+001  2.615611e+001 
3268750000  -4.254810e+001  2.524310e+001 
3271875000  -4.150997e+001  1.892331e+001 
3275000000  -4.095499e+001  7.429056e+000 
3278125000  -4.168537e+001  1.839336e+000 
3281250000  -4.174432e+001  -3.147397e+000 
3284375000  -4.077555e+001  -1.007351e+001 
3287500000  -4.164137e+001  -1.699310e+001 
3290625000  -4.135331e+001  -2.726326e+001 
3293750000  -4.163963e+001  -3.684985e+001 
3296875000  -4.268034e+001  -4.106057e+001 
3300000000  -4.206100e+001  -4.135860e+001 
3303125000  -4.082194e+001  -5.268800e+001 
3306250000  -4.070861e+001  -6.219548e+001 
3309375000  -4.044692e+001  -7.284799e+001 
3312500000  -4.099906e+001  -8.905416e+001 
3315625000  -4.253433e+001  -9.639723e+001 
3318750000  -4.395655e+001  -1.039077e+002 
3321875000  -4.542924e+001  -9.934589e+001 
3325000000  -4.484592e+001  -9.706417e+001 
3328125000  -4.430181e+001  -9.712125e+001 
3331250000  -4.250185e+001  -9.957330e+001 
3334375000  -4.001438e+001  -1.191098e+002 
3337500000  -4.079773e+001  -1.419267e+002 
3340625000  -4.265721e+001  -1.516072e+002 
3343750000  -4.442128e+001  -1.548026e+002 
3346875000  -4.360195e+001  -1.572158e+002 
3350000000  -4.322200e+001  -1.634528e+002 
3353125000  -4.358318e+001  -1.736953e+002 
3356250000  -4.336608e+001  1.757694e+002 
3359375000  -4.403358e+001  1.637757e+002 
3362500000  -4.514692e+001  1.575813e+002 
3365625000  -4.591482e+001  1.516384e+002 
3368750000  -4.651996e+001  1.455080e+002 
3371875000  -4.678594e+001  1.405102e+002 
3375000000  -4.864412e+001  1.309257e+002 
3378125000  -4.928374e+001  1.290853e+002 
3381250000  -5.032689e+001  1.424613e+002 
3384375000  -4.761455e+001  1.491346e+002 
3387500000  -4.528187e+001  1.259703e+002 
3390625000  -4.675797e+001  1.096467e+002 
3393750000  -4.751739e+001  1.010015e+002 
3396875000  -4.599174e+001  1.010702e+002 
3400000000  -4.594637e+001  8.646986e+001 
3403125000  -4.670258e+001  7.951273e+001 
3406250000  -4.749531e+001  6.934393e+001 
3409375000  -4.734970e+001  5.797364e+001 
3412500000  -4.792327e+001  5.190228e+001 
3415625000  -4.851398e+001  4.929365e+001 
3418750000  -4.887917e+001  4.356113e+001 
3421875000  -4.859375e+001  3.590493e+001 
3425000000  -4.775138e+001  3.362321e+001 
3428125000  -4.705829e+001  2.544927e+001 
3431250000  -4.676397e+001  1.090531e+001 
3434375000  -4.709785e+001  3.305931e-001 
3437500000  -4.755468e+001  -6.075539e+000 
3440625000  -4.786056e+001  -8.730079e+000 
3443750000  -4.652023e+001  -1.157760e+001 
3446875000  -4.560657e+001  -2.849607e+001 
3450000000  -4.513009e+001  -4.232530e+001 
3453125000  -4.564989e+001  -6.354888e+001 
3456250000  -4.733956e+001  -7.338405e+001 
3459375000  -4.778921e+001  -7.217971e+001 
3462500000  -4.825910e+001  -8.134954e+001 
3465625000  -4.697785e+001  -9.093839e+001 
3468750000  -4.742139e+001  -9.575494e+001 
3471875000  -4.704132e+001  -1.049961e+002 
3475000000  -4.690912e+001  -1.180968e+002 
3478125000  -4.756173e+001  -1.297037e+002 
3481250000  -4.957217e+001  -1.355580e+002 
3484375000  -4.888952e+001  -1.353714e+002 
3487500000  -4.796235e+001  -1.431064e+002 
3490625000  -4.734502e+001  -1.529876e+002 
3493750000  -4.851310e+001  -1.657665e+002 
3496875000  -4.875084e+001  -1.709227e+002 
3500000000  -4.849817e+001  -1.749116e+002 
3503125000  -4.752623e+001  -1.789610e+002 
3506250000  -4.545498e+001  1.665336e+002 
3509375000  -4.577092e+001  1.490461e+002 
3512500000  -4.629050e+001  1.359236e+002 
3515625000  -4.752155e+001  1.278718e+002 
3518750000  -4.798710e+001  1.274305e+002 
3521875000  -4.864500e+001  1.189503e+002 
3525000000  -4.900328e+001  1.130079e+002 
3528125000  -4.760150e+001  1.125267e+002 
3531250000  -4.623250e+001  1.043270e+002 
3534375000  -4.654030e+001  8.695276e+001 
3537500000  -4.753494e+001  7.719003e+001 
3540625000  -4.925522e+001  7.204003e+001 
3543750000  -4.925857e+001  7.683710e+001 
3546875000  -4.874000e+001  8.275861e+001 
3550000000  -4.659142e+001  7.016122e+001 
3553125000  -4.601521e+001  5.162815e+001 
3556250000  -4.717229e+001  4.959045e+001 
3559375000  -4.628809e+001  3.826811e+001 
3562500000  -4.645834e+001  3.063483e+001 
3565625000  -4.722510e+001  2.279173e+001 
3568750000  -4.757227e+001  1.827187e+001 
3571875000  -4.694655e+001  1.589711e+001 
3575000000  -4.675756e+001  1.011263e+001 
3578125000  -4.755096e+001  4.012142e+000 
3581250000  -4.776764e+001  3.252972e+000 
3584375000  -4.612585e+001  -5.549323e+000 
3587500000  -4.590659e+001  -1.753448e+001 
3590625000  -4.616615e+001  -3.203766e+001 
3593750000  -4.765234e+001  -2.798388e+001 
3596875000  -4.681769e+001  -2.417597e+001 
3600000000  -4.464350e+001  -3.356615e+001 
3603125000  -4.528988e+001  -5.141335e+001 
3606250000  -4.596556e+001  -5.683648e+001 
3609375000  -4.563611e+001  -5.962153e+001 
3612500000  -4.623260e+001  -6.770433e+001 
3615625000  -4.619507e+001  -7.059841e+001 
3618750000  -4.634176e+001  -7.236428e+001 
3621875000  -4.530098e+001  -7.932043e+001 
3625000000  -4.517370e+001  -8.402498e+001 
3628125000  -4.458996e+001  -9.033378e+001 
3631250000  -4.468114e+001  -9.838792e+001 
3634375000  -4.552072e+001  -1.007159e+002 
3637500000  -4.448510e+001  -1.030484e+002 
3640625000  -4.353418e+001  -1.103591e+002 
3643750000  -4.343254e+001  -1.233978e+002 
3646875000  -4.370514e+001  -1.326192e+002 
3650000000  -4.383811e+001  -1.373647e+002 
3653125000  -4.302777e+001  -1.465861e+002 
3656250000  -4.396283e+001  -1.513131e+002 
3659375000  -4.398859e+001  -1.554056e+002 
3662500000  -4.350862e+001  -1.614023e+002 
3665625000  -4.344311e+001  -1.675667e+002 
3668750000  -4.204514e+001  -1.712950e+002 
3671875000  -4.154988e+001  1.754357e+002 
3675000000  -4.215294e+001  1.658532e+002 
3678125000  -4.249144e+001  1.589868e+002 
3681250000  -4.249400e+001  1.541018e+002 
3684375000  -4.247217e+001  1.469657e+002 
3687500000  -4.305453e+001  1.379077e+002 
3690625000  -4.359260e+001  1.318669e+002 
3693750000  -4.435131e+001  1.295738e+002 
3696875000  -4.387374e+001  1.262021e+002 
3700000000  -4.313516e+001  1.182986e+002 
3703125000  -4.367942e+001  1.105721e+002 
3706250000  -4.472029e+001  1.062924e+002 
3709375000  -4.376093e+001  1.102451e+002 
3712500000  -4.309406e+001  1.033646e+002 
3715625000  -4.131253e+001  9.422642e+001 
3718750000  -4.177536e+001  8.501499e+001 
3721875000  -4.179794e+001  7.450314e+001 
3725000000  -4.211559e+001  6.756129e+001 
3728125000  -4.235103e+001  6.393843e+001 
3731250000  -4.181773e+001  5.565212e+001 
3734375000  -4.198151e+001  5.174234e+001 
3737500000  -4.272950e+001  4.170098e+001 
3740625000  -4.266790e+001  3.283623e+001 
3743750000  -4.272569e+001  2.890270e+001 
3746875000  -4.333562e+001  2.231550e+001 
3750000000  -4.351820e+001  1.825984e+001 
3753125000  -4.353637e+001  1.552379e+001 
3756250000  -4.363968e+001  1.130112e+001 
3759375000  -4.354226e+001  5.329678e+000 
3762500000  -4.358021e+001  3.902265e-001 
3765625000  -4.455170e+001  -4.653439e+000 
3768750000  -4.331800e+001  -3.890162e+000 
3771875000  -4.200531e+001  -1.065728e+001 
3775000000  -4.211488e+001  -2.344126e+001 
3778125000  -4.263847e+001  -2.862912e+001 
3781250000  -4.271745e+001  -3.255342e+001 
3784375000  -4.247393e+001  -3.972449e+001 
3787500000  -4.219326e+001  -4.339740e+001 
3790625000  -4.293681e+001  -5.582928e+001 
3793750000  -4.270610e+001  -5.849584e+001 
3796875000  -4.164745e+001  -6.321478e+001 
3800000000  -4.064788e+001  -6.885150e+001 
3803125000  -4.159893e+001  -8.231947e+001 
3806250000  -4.267665e+001  -8.696590e+001 
3809375000  -4.163388e+001  -9.209525e+001 
3812500000  -4.199631e+001  -1.017356e+002 
3815625000  -4.287246e+001  -1.153798e+002 
3818750000  -4.438222e+001  -1.117726e+002 
3821875000  -4.341466e+001  -1.008369e+002 
3825000000  -4.123078e+001  -1.089212e+002 
3828125000  -4.020816e+001  -1.286748e+002 
3831250000  -4.154447e+001  -1.443411e+002 
3834375000  -4.346055e+001  -1.427550e+002 
3837500000  -4.375365e+001  -1.405829e+002 
3840625000  -4.221989e+001  -1.475845e+002 
3843750000  -4.150942e+001  -1.625037e+002 
3846875000  -4.331191e+001  -1.682542e+002 
3850000000  -4.383795e+001  -1.642104e+002 
3853125000  -4.393626e+001  -1.652382e+002 
3856250000  -4.289145e+001  -1.751142e+002 
3859375000  -4.208811e+001  1.767105e+002 
3862500000  -4.216188e+001  1.673126e+002 
3865625000  -4.271618e+001  1.597630e+002 
3868750000  -4.238764e+001  1.594645e+002 
3871875000  -4.163840e+001  1.486238e+002 
3875000000  -4.235426e+001  1.379466e+002 
3878125000  -4.346032e+001  1.390288e+002 
3881250000  -4.301246e+001  1.352286e+002 
3884375000  -4.233754e+001  1.266471e+002 
3887500000  -4.325658e+001  1.194131e+002 
3890625000  -4.381372e+001  1.164104e+002 
3893750000  -4.428795e+001  1.142255e+002 
3896875000  -4.397321e+001  1.101930e+002 
3900000000  -4.430756e+001  1.035496e+002 
3903125000  -4.395273e+001  9.969408e+001 
3906250000  -4.382673e+001  9.397850e+001 
3909375000  -4.231463e+001  8.680418e+001 
3912500000  -4.349182e+001  7.381766e+001 
3915625000  -4.498432e+001  7.588899e+001 
3918750000  -4.465215e+001  7.448856e+001 
3921875000  -4.361361e+001  7.020597e+001 
3925000000  -4.262782e+001  6.102196e+001 
3928125000  -4.293480e+001  5.492903e+001 
3931250000  -4.360051e+001  4.871193e+001 
3934375000  -4.398651e+001  4.398391e+001 
3937500000  -4.447106e+001  4.302731e+001 
3940625000  -4.450784e+001  3.877126e+001 
3943750000  -4.364063e+001  3.837790e+001 
3946875000  -4.229620e+001  2.626840e+001 
3950000000  -4.363244e+001  1.540600e+001 
3953125000  -4.414465e+001  1.791343e+001 
3956250000  -4.269694e+001  1.932126e+001 
3959375000  -4.160073e+001  1.086234e+001 
3962500000  -4.180629e+001  -1.572375e-001 
3965625000  -4.163425e+001  -1.128975e+001 
3968750000  -4.226527e+001  -2.097773e+001 
3971875000  -4.237600e+001  -2.482939e+001 
3975000000  -4.194626e+001  -2.795949e+001 
3978125000  -4.222158e+001  -3.450882e+001 
3981250000  -4.150238e+001  -4.342507e+001 
3984375000  -4.217825e+001  -5.213465e+001 
3987500000  -4.293685e+001  -5.633502e+001 
3990625000  -4.316255e+001  -5.879463e+001 
3993750000  -4.282652e+001  -6.675546e+001 
3996875000  -4.292411e+001  -7.386830e+001 
4000000000  -4.368449e+001  -7.309866e+001 
4003125000  -4.391964e+001  -7.522833e+001 
4006250000  -4.142505e+001  -8.315765e+001 
4009375000  -4.122036e+001  -9.711006e+001 
4012500000  -4.286771e+001  -1.061176e+002 
4015625000  -4.406782e+001  -1.083774e+002 
4018750000  -4.360406e+001  -1.108468e+002 
4021875000  -4.292572e+001  -1.195420e+002 
4025000000  -4.287870e+001  -1.248161e+002 
4028125000  -4.333560e+001  -1.320030e+002 
4031250000  -4.375257e+001  -1.393907e+002 
4034375000  -4.421576e+001  -1.422996e+002 
4037500000  -4.413006e+001  -1.446425e+002 
4040625000  -4.392896e+001  -1.516091e+002 
4043750000  -4.462998e+001  -1.549261e+002 
4046875000  -4.376787e+001  -1.587161e+002 
4050000000  -4.422085e+001  -1.693916e+002 
4053125000  -4.533504e+001  -1.711930e+002 
4056250000  -4.597423e+001  -1.684903e+002 
4059375000  -4.366494e+001  -1.694032e+002 
4062500000  -4.326353e+001  -1.741812e+002 
4065625000  -4.374072e+001  -1.798724e+002 
4068750000  -4.295312e+001  1.695150e+002 
4071875000  -4.301267e+001  1.571554e+002 
4075000000  -4.328554e+001  1.506094e+002 
4078125000  -4.415942e+001  1.504155e+002 
4081250000  -4.340620e+001  1.414124e+002 
4084375000  -4.337643e+001  1.335376e+002 
4087500000  -4.422399e+001  1.253525e+002 
4090625000  -4.480665e+001  1.260358e+002 
4093750000  -4.407483e+001  1.223461e+002 
4096875000  -4.414848e+001  1.124009e+002 
4100000000  -4.531765e+001  1.065965e+002 
4103125000  -4.566362e+001  1.106948e+002 
4106250000  -4.476497e+001  1.114648e+002 
4109375000  -4.401617e+001  1.067483e+002 
4112500000  -4.361854e+001  9.817700e+001 
4115625000  -4.449638e+001  9.180191e+001 
4118750000  -4.399314e+001  8.622412e+001 
4121875000  -4.376712e+001  8.346703e+001 
4125000000  -4.427348e+001  7.348590e+001 
4128125000  -4.521571e+001  7.941306e+001 
4131250000  -4.366101e+001  7.816640e+001 
4134375000  -4.136786e+001  6.577318e+001 
4137500000  -4.220210e+001  4.657566e+001 
4140625000  -4.426758e+001  4.075912e+001 
4143750000  -4.499619e+001  4.245753e+001 
4146875000  -4.362867e+001  4.841275e+001 
4150000000  -4.287107e+001  3.607820e+001 
4153125000  -4.294059e+001  2.753066e+001 
4156250000  -4.402645e+001  2.476326e+001 
4159375000  -4.360912e+001  2.568808e+001 
4162500000  -4.242710e+001  2.115868e+001 
4165625000  -4.135809e+001  1.232174e+001 
4168750000  -4.108640e+001  -9.220747e-001 
4171875000  -4.082518e+001  -1.039773e+001 
4175000000  -4.201671e+001  -1.838213e+001 
4178125000  -4.237846e+001  -2.066094e+001 
4181250000  -4.199271e+001  -2.669499e+001 
4184375000  -4.240759e+001  -3.358988e+001 
4187500000  -4.235312e+001  -3.949949e+001 
4190625000  -4.233279e+001  -5.100195e+001 
4193750000  -4.401966e+001  -5.666954e+001 
4196875000  -4.480733e+001  -5.867257e+001 
4200000000  -4.595832e+001  -4.849680e+001 
4203125000  -4.412121e+001  -4.239533e+001 
4206250000  -4.112457e+001  -5.307191e+001 
4209375000  -4.136273e+001  -7.860104e+001 
4212500000  -4.356602e+001  -7.929856e+001 
4215625000  -4.404490e+001  -7.508910e+001 
4218750000  -4.243706e+001  -7.902588e+001 
4221875000  -4.057778e+001  -8.852189e+001 
4225000000  -4.197367e+001  -9.667974e+001 
4228125000  -4.201845e+001  -9.764341e+001 
4231250000  -4.080866e+001  -1.080003e+002 
4234375000  -4.057310e+001  -1.169716e+002 
4237500000  -4.065887e+001  -1.216274e+002 
4240625000  -4.100499e+001  -1.325154e+002 
4243750000  -4.244105e+001  -1.431984e+002 
4246875000  -4.335658e+001  -1.436913e+002 
4250000000  -4.272109e+001  -1.417870e+002 
4253125000  -4.223176e+001  -1.443778e+002 
4256250000  -4.186228e+001  -1.537543e+002 
4259375000  -4.227002e+001  -1.603290e+002 
4262500000  -4.216353e+001  -1.651331e+002 
4265625000  -4.228673e+001  -1.653062e+002 
4268750000  -4.074065e+001  -1.747459e+002 
4271875000  -4.041557e+001  1.770274e+002 
4275000000  -4.044580e+001  1.704388e+002 
4278125000  -4.138551e+001  1.517884e+002 
4281250000  -4.260615e+001  1.500627e+002 
4284375000  -4.225394e+001  1.496617e+002 
4287500000  -4.362981e+001  1.491337e+002 
4290625000  -4.361421e+001  1.529308e+002 
4293750000  -4.170942e+001  1.517194e+002 
4296875000  -4.033908e+001  1.378558e+002 
4300000000  -4.160323e+001  1.282505e+002 
4303125000  -4.182774e+001  1.247609e+002 
4306250000  -4.037335e+001  1.255574e+002 
4309375000  -3.992532e+001  1.162563e+002 
4312500000  -3.958101e+001  1.044598e+002 
4315625000  -4.022237e+001  9.471910e+001 
4318750000  -4.063653e+001  9.038990e+001 
4321875000  -4.041210e+001  8.722885e+001 
4325000000  -4.032341e+001  8.302779e+001 
4328125000  -3.930528e+001  7.251180e+001 
4331250000  -3.991357e+001  6.019149e+001 
4334375000  -4.048534e+001  5.189259e+001 
4337500000  -4.187739e+001  5.014368e+001 
4340625000  -4.204613e+001  5.320085e+001 
4343750000  -4.108312e+001  4.642787e+001 
4346875000  -4.096844e+001  3.680085e+001 
4350000000  -4.089535e+001  3.056166e+001 
4353125000  -4.197526e+001  1.946074e+001 
4356250000  -4.347640e+001  2.356705e+001 
4359375000  -4.210127e+001  3.484843e+001 
4362500000  -3.940907e+001  2.616049e+001 
4365625000  -3.914007e+001  8.691412e+000 
4368750000  -3.996575e+001  -3.364203e+000 
4371875000  -4.079118e+001  -4.562246e+000 
4375000000  -4.063406e+001  -1.197427e+001 
4378125000  -4.026136e+001  -1.596768e+001 
4381250000  -4.033175e+001  -2.687294e+001 
4384375000  -4.044354e+001  -3.373100e+001 
4387500000  -4.114570e+001  -4.306788e+001 
4390625000  -4.187271e+001  -4.403532e+001 
4393750000  -4.155128e+001  -4.391422e+001 
4396875000  -4.097311e+001  -4.902452e+001 
4400000000  -4.054779e+001  -5.846954e+001 
4403125000  -4.138558e+001  -6.890956e+001 
4406250000  -4.215764e+001  -7.237908e+001 
4409375000  -4.208699e+001  -7.932557e+001 
4412500000  -4.368640e+001  -8.432864e+001 
4415625000  -4.291707e+001  -7.834560e+001 
4418750000  -4.156228e+001  -7.985407e+001 
