!Agilent Technologies,E8363B,MY43030201,A.06.04.32
!Agilent E8363B: A.06.04.32
!Date: Tuesday, November 11, 2014 21:45:41
!Correction: S21(Response(S21)) 
!S1P File: Measurement: S21:
# Hz S  dB   R 50
3000000000  -4.361431e+001  -1.597296e+002 
3003125000  -4.537544e+001  -1.661483e+002 
3006250000  -4.531951e+001  -1.678941e+002 
3009375000  -4.661627e+001  -1.627799e+002 
3012500000  -4.499946e+001  -1.700364e+002 
3015625000  -4.480576e+001  -1.782073e+002 
3018750000  -4.511673e+001  -1.769178e+002 
3021875000  -4.394619e+001  -1.783544e+002 
3025000000  -4.265203e+001  1.770573e+002 
3028125000  -4.172654e+001  1.637744e+002 
3031250000  -4.091746e+001  1.522353e+002 
3034375000  -4.096257e+001  1.382881e+002 
3037500000  -4.156323e+001  1.265396e+002 
3040625000  -4.290154e+001  1.195493e+002 
3043750000  -4.350934e+001  1.151612e+002 
3046875000  -4.413055e+001  1.066088e+002 
3050000000  -4.521782e+001  1.031865e+002 
3053125000  -4.463938e+001  1.058578e+002 
3056250000  -4.471109e+001  1.081211e+002 
3059375000  -4.405108e+001  1.058427e+002 
3062500000  -4.232128e+001  1.008538e+002 
3065625000  -4.224396e+001  8.979205e+001 
3068750000  -4.182099e+001  8.246242e+001 
3071875000  -4.186442e+001  7.816446e+001 
3075000000  -4.112710e+001  7.232452e+001 
3078125000  -4.130592e+001  6.393792e+001 
3081250000  -4.140185e+001  5.800238e+001 
3084375000  -4.041368e+001  5.192377e+001 
3087500000  -4.063713e+001  4.479876e+001 
3090625000  -3.993366e+001  3.155808e+001 
3093750000  -4.106705e+001  2.079780e+001 
3096875000  -4.132508e+001  1.622755e+001 
3100000000  -4.110974e+001  1.270902e+001 
3103125000  -4.135560e+001  6.214343e+000 
3106250000  -4.106378e+001  3.033301e+000 
3109375000  -4.107293e+001  -2.699308e+000 
3112500000  -4.080539e+001  -1.190936e+001 
3115625000  -4.090774e+001  -1.439851e+001 
3118750000  -4.071806e+001  -2.041349e+001 
3121875000  -4.014986e+001  -3.243256e+001 
3125000000  -4.214958e+001  -3.728599e+001 
3128125000  -4.219746e+001  -3.055855e+001 
3131250000  -3.940283e+001  -3.767373e+001 
3134375000  -3.883197e+001  -5.571922e+001 
3137500000  -3.950473e+001  -6.962154e+001 
3140625000  -4.083028e+001  -7.458632e+001 
3143750000  -4.150561e+001  -7.703468e+001 
3146875000  -4.099868e+001  -7.755381e+001 
3150000000  -4.019562e+001  -8.155547e+001 
3153125000  -4.064259e+001  -9.134076e+001 
3156250000  -4.141779e+001  -8.894865e+001 
3159375000  -3.915958e+001  -9.152586e+001 
3162500000  -3.776139e+001  -1.079062e+002 
3165625000  -3.903544e+001  -1.216900e+002 
3168750000  -3.898947e+001  -1.224403e+002 
3171875000  -3.859463e+001  -1.327946e+002 
3175000000  -3.905403e+001  -1.417557e+002 
3178125000  -3.875975e+001  -1.448301e+002 
3181250000  -3.819671e+001  -1.545201e+002 
3184375000  -3.794091e+001  -1.662316e+002 
3187500000  -3.919387e+001  1.776633e+002 
3190625000  -4.086055e+001  1.702323e+002 
3193750000  -4.112090e+001  1.745361e+002 
3196875000  -4.095145e+001  1.733831e+002 
3200000000  -3.988547e+001  1.686391e+002 
3203125000  -3.969981e+001  1.619962e+002 
3206250000  -3.988975e+001  1.531587e+002 
3209375000  -3.935447e+001  1.440321e+002 
3212500000  -3.997305e+001  1.362200e+002 
3215625000  -3.955958e+001  1.324990e+002 
3218750000  -4.021922e+001  1.211233e+002 
3221875000  -4.046712e+001  1.131690e+002 
3225000000  -4.053321e+001  1.080765e+002 
3228125000  -4.119786e+001  1.011582e+002 
3231250000  -4.148950e+001  9.777747e+001 
3234375000  -4.076369e+001  9.495830e+001 
3237500000  -4.108412e+001  9.037836e+001 
3240625000  -4.034959e+001  8.374669e+001 
3243750000  -4.039347e+001  7.131567e+001 
3246875000  -4.056279e+001  6.251427e+001 
3250000000  -4.128152e+001  5.867514e+001 
3253125000  -4.137897e+001  5.531016e+001 
3256250000  -4.038213e+001  4.405472e+001 
3259375000  -4.104105e+001  3.150622e+001 
3262500000  -4.231812e+001  2.731936e+001 
3265625000  -4.259085e+001  2.877328e+001 
3268750000  -4.254199e+001  2.672552e+001 
3271875000  -4.157085e+001  2.017082e+001 
3275000000  -4.101358e+001  1.117849e+001 
3278125000  -4.165633e+001  3.859496e+000 
3281250000  -4.181352e+001  -5.760461e-001 
3284375000  -4.077363e+001  -7.933678e+000 
3287500000  -4.171328e+001  -1.500805e+001 
3290625000  -4.168191e+001  -2.621565e+001 
3293750000  -4.159617e+001  -3.395760e+001 
3296875000  -4.261382e+001  -3.751256e+001 
3300000000  -4.216044e+001  -3.964004e+001 
3303125000  -4.090468e+001  -4.974583e+001 
3306250000  -4.088113e+001  -6.013174e+001 
3309375000  -4.053253e+001  -7.026569e+001 
3312500000  -4.124497e+001  -8.602917e+001 
3315625000  -4.231269e+001  -9.336584e+001 
3318750000  -4.376022e+001  -1.009930e+002 
3321875000  -4.506435e+001  -9.715820e+001 
3325000000  -4.509164e+001  -9.555071e+001 
3328125000  -4.416028e+001  -9.993259e+001 
3331250000  -4.249205e+001  -9.694381e+001 
3334375000  -4.028801e+001  -1.172248e+002 
3337500000  -4.101544e+001  -1.401341e+002 
3340625000  -4.245685e+001  -1.509168e+002 
3343750000  -4.443182e+001  -1.517898e+002 
3346875000  -4.403083e+001  -1.543023e+002 
3350000000  -4.383794e+001  -1.599544e+002 
3353125000  -4.358108e+001  -1.714379e+002 
3356250000  -4.348009e+001  1.791238e+002 
3359375000  -4.446877e+001  1.661714e+002 
3362500000  -4.502217e+001  1.570407e+002 
3365625000  -4.563617e+001  1.513462e+002 
3368750000  -4.638095e+001  1.452986e+002 
3371875000  -4.699942e+001  1.395908e+002 
3375000000  -4.899221e+001  1.328148e+002 
3378125000  -4.925620e+001  1.319877e+002 
3381250000  -5.090304e+001  1.422975e+002 
3384375000  -4.745538e+001  1.511669e+002 
3387500000  -4.479339e+001  1.322550e+002 
3390625000  -4.695959e+001  1.054100e+002 
3393750000  -4.740666e+001  1.052394e+002 
3396875000  -4.620463e+001  1.014599e+002 
3400000000  -4.622730e+001  8.714303e+001 
3403125000  -4.710450e+001  8.053147e+001 
3406250000  -4.739693e+001  6.823315e+001 
3409375000  -4.722163e+001  6.341409e+001 
3412500000  -4.798186e+001  5.451233e+001 
3415625000  -4.871731e+001  4.819104e+001 
3418750000  -4.899913e+001  4.477319e+001 
3421875000  -4.914027e+001  4.200094e+001 
3425000000  -4.771529e+001  3.649425e+001 
3428125000  -4.733978e+001  2.892440e+001 
3431250000  -4.703195e+001  1.681133e+001 
3434375000  -4.683524e+001  5.125903e+000 
3437500000  -4.733092e+001  -6.518291e+000 
3440625000  -4.769355e+001  -6.006637e+000 
3443750000  -4.664457e+001  -1.461504e+001 
3446875000  -4.579138e+001  -2.767303e+001 
3450000000  -4.518728e+001  -4.248477e+001 
3453125000  -4.597388e+001  -5.830337e+001 
3456250000  -4.754257e+001  -6.642236e+001 
3459375000  -4.854082e+001  -7.083361e+001 
3462500000  -4.788116e+001  -7.600759e+001 
3465625000  -4.764105e+001  -8.755463e+001 
3468750000  -4.776801e+001  -9.356519e+001 
3471875000  -4.714434e+001  -1.037264e+002 
3475000000  -4.657694e+001  -1.145738e+002 
3478125000  -4.793874e+001  -1.319090e+002 
3481250000  -4.911041e+001  -1.353866e+002 
3484375000  -4.884867e+001  -1.355785e+002 
3487500000  -4.736554e+001  -1.404541e+002 
3490625000  -4.695132e+001  -1.496347e+002 
3493750000  -4.781486e+001  -1.640757e+002 
3496875000  -4.770494e+001  -1.670608e+002 
3500000000  -4.876463e+001  -1.715956e+002 
3503125000  -4.725467e+001  -1.771529e+002 
3506250000  -4.558981e+001  1.733939e+002 
3509375000  -4.552461e+001  1.524336e+002 
3512500000  -4.563974e+001  1.388504e+002 
3515625000  -4.780029e+001  1.336790e+002 
3518750000  -4.825045e+001  1.334100e+002 
3521875000  -4.774700e+001  1.173011e+002 
3525000000  -4.847469e+001  1.163754e+002 
3528125000  -4.786176e+001  1.148915e+002 
3531250000  -4.626876e+001  1.030164e+002 
3534375000  -4.730158e+001  8.418269e+001 
3537500000  -4.782495e+001  8.045907e+001 
3540625000  -4.918670e+001  7.641685e+001 
3543750000  -4.972920e+001  7.992693e+001 
3546875000  -4.846148e+001  8.202126e+001 
3550000000  -4.646429e+001  7.673724e+001 
3553125000  -4.630847e+001  5.232488e+001 
3556250000  -4.734032e+001  4.899829e+001 
3559375000  -4.692443e+001  4.091721e+001 
3562500000  -4.677787e+001  2.967769e+001 
3565625000  -4.765383e+001  2.356312e+001 
3568750000  -4.830903e+001  2.508466e+001 
3571875000  -4.739109e+001  1.906260e+001 
3575000000  -4.739073e+001  6.219556e+000 
3578125000  -4.755734e+001  9.084208e+000 
3581250000  -4.772846e+001  2.044932e+000 
3584375000  -4.585489e+001  -3.363974e+000 
3587500000  -4.569597e+001  -1.465488e+001 
3590625000  -4.619489e+001  -2.502157e+001 
3593750000  -4.806226e+001  -2.550547e+001 
3596875000  -4.679423e+001  -1.850328e+001 
3600000000  -4.500552e+001  -3.150768e+001 
3603125000  -4.538965e+001  -4.849150e+001 
3606250000  -4.649951e+001  -5.229597e+001 
3609375000  -4.604042e+001  -5.644093e+001 
3612500000  -4.616081e+001  -6.218585e+001 
3615625000  -4.614173e+001  -6.930374e+001 
3618750000  -4.618740e+001  -7.136131e+001 
3621875000  -4.583187e+001  -7.685931e+001 
3625000000  -4.568063e+001  -8.159251e+001 
3628125000  -4.489865e+001  -8.811063e+001 
3631250000  -4.500223e+001  -9.671841e+001 
3634375000  -4.571391e+001  -9.823071e+001 
3637500000  -4.440963e+001  -9.915428e+001 
3640625000  -4.402653e+001  -1.058759e+002 
3643750000  -4.301068e+001  -1.172769e+002 
3646875000  -4.390176e+001  -1.288422e+002 
3650000000  -4.378757e+001  -1.339399e+002 
3653125000  -4.345951e+001  -1.415326e+002 
3656250000  -4.381940e+001  -1.471878e+002 
3659375000  -4.367453e+001  -1.529076e+002 
3662500000  -4.351767e+001  -1.592363e+002 
3665625000  -4.317149e+001  -1.643534e+002 
3668750000  -4.204870e+001  -1.686999e+002 
3671875000  -4.159111e+001  1.764189e+002 
3675000000  -4.244642e+001  1.689837e+002 
3678125000  -4.247635e+001  1.633461e+002 
3681250000  -4.238984e+001  1.554179e+002 
3684375000  -4.250389e+001  1.481374e+002 
3687500000  -4.292558e+001  1.393920e+002 
3690625000  -4.351400e+001  1.318799e+002 
3693750000  -4.434304e+001  1.321498e+002 
3696875000  -4.416465e+001  1.306985e+002 
3700000000  -4.293493e+001  1.221611e+002 
3703125000  -4.359127e+001  1.145958e+002 
3706250000  -4.466981e+001  1.114567e+002 
3709375000  -4.376345e+001  1.127421e+002 
3712500000  -4.280279e+001  1.036331e+002 
3715625000  -4.145638e+001  9.592418e+001 
3718750000  -4.166710e+001  8.567603e+001 
3721875000  -4.159039e+001  7.760690e+001 
3725000000  -4.225666e+001  6.852940e+001 
3728125000  -4.248243e+001  6.609138e+001 
3731250000  -4.189793e+001  5.897786e+001 
3734375000  -4.195017e+001  5.160870e+001 
3737500000  -4.270167e+001  4.061096e+001 
3740625000  -4.301563e+001  3.576783e+001 
3743750000  -4.284185e+001  3.219828e+001 
3746875000  -4.355208e+001  2.546829e+001 
3750000000  -4.346860e+001  2.044944e+001 
3753125000  -4.363008e+001  1.795872e+001 
3756250000  -4.379447e+001  1.535736e+001 
3759375000  -4.349889e+001  6.089183e+000 
3762500000  -4.347131e+001  4.736111e+000 
3765625000  -4.425081e+001  -2.509453e+000 
3768750000  -4.361309e+001  -1.190393e+000 
3771875000  -4.213257e+001  -6.435244e+000 
3775000000  -4.208570e+001  -1.977374e+001 
3778125000  -4.261081e+001  -2.480719e+001 
3781250000  -4.270487e+001  -2.890128e+001 
3784375000  -4.227348e+001  -3.647018e+001 
3787500000  -4.242552e+001  -3.827354e+001 
3790625000  -4.282162e+001  -4.938380e+001 
3793750000  -4.258962e+001  -5.471773e+001 
3796875000  -4.173338e+001  -5.833040e+001 
3800000000  -4.074214e+001  -6.628622e+001 
3803125000  -4.171867e+001  -7.570229e+001 
3806250000  -4.240423e+001  -8.303263e+001 
3809375000  -4.185668e+001  -8.836241e+001 
3812500000  -4.199013e+001  -9.972329e+001 
3815625000  -4.332043e+001  -1.106298e+002 
3818750000  -4.439410e+001  -1.087376e+002 
3821875000  -4.351410e+001  -9.787769e+001 
3825000000  -4.144675e+001  -1.036695e+002 
3828125000  -4.041131e+001  -1.250261e+002 
3831250000  -4.146727e+001  -1.412605e+002 
3834375000  -4.360474e+001  -1.386940e+002 
3837500000  -4.371676e+001  -1.412344e+002 
3840625000  -4.232466e+001  -1.439290e+002 
3843750000  -4.189790e+001  -1.603390e+002 
3846875000  -4.377503e+001  -1.646803e+002 
3850000000  -4.392962e+001  -1.577639e+002 
3853125000  -4.358249e+001  -1.603280e+002 
3856250000  -4.276545e+001  -1.687254e+002 
3859375000  -4.216966e+001  -1.797963e+002 
3862500000  -4.229777e+001  1.694178e+002 
3865625000  -4.251144e+001  1.642006e+002 
3868750000  -4.232408e+001  1.627980e+002 
3871875000  -4.177953e+001  1.516284e+002 
3875000000  -4.244547e+001  1.423703e+002 
3878125000  -4.338395e+001  1.398459e+002 
3881250000  -4.334666e+001  1.364007e+002 
3884375000  -4.268157e+001  1.284753e+002 
3887500000  -4.332788e+001  1.212393e+002 
3890625000  -4.376480e+001  1.168979e+002 
3893750000  -4.417276e+001  1.144963e+002 
3896875000  -4.408017e+001  1.105795e+002 
3900000000  -4.441001e+001  1.082724e+002 
3903125000  -4.397412e+001  1.022344e+002 
3906250000  -4.326069e+001  9.755535e+001 
3909375000  -4.273166e+001  8.893493e+001 
3912500000  -4.366784e+001  7.919884e+001 
3915625000  -4.466990e+001  8.017860e+001 
3918750000  -4.455891e+001  7.742515e+001 
3921875000  -4.358934e+001  7.282510e+001 
3925000000  -4.299255e+001  6.793925e+001 
3928125000  -4.283392e+001  5.487271e+001 
3931250000  -4.360709e+001  5.177360e+001 
3934375000  -4.387130e+001  4.814188e+001 
3937500000  -4.439016e+001  4.727419e+001 
3940625000  -4.494751e+001  4.418396e+001 
3943750000  -4.324108e+001  3.777011e+001 
3946875000  -4.284242e+001  2.924187e+001 
3950000000  -4.339402e+001  2.045872e+001 
3953125000  -4.413492e+001  2.063663e+001 
3956250000  -4.293130e+001  2.076391e+001 
3959375000  -4.186885e+001  1.272409e+001 
3962500000  -4.137915e+001  3.439838e+000 
3965625000  -4.171911e+001  -7.396100e+000 
3968750000  -4.225417e+001  -1.756718e+001 
3971875000  -4.241854e+001  -2.179468e+001 
3975000000  -4.177459e+001  -2.527761e+001 
3978125000  -4.189574e+001  -3.062336e+001 
3981250000  -4.180129e+001  -3.807826e+001 
3984375000  -4.246062e+001  -4.687303e+001 
3987500000  -4.296507e+001  -5.268634e+001 
3990625000  -4.304969e+001  -5.489664e+001 
3993750000  -4.307206e+001  -6.309747e+001 
3996875000  -4.276723e+001  -6.654902e+001 
4000000000  -4.376765e+001  -7.462499e+001 
4003125000  -4.374786e+001  -7.338786e+001 
4006250000  -4.206580e+001  -7.972514e+001 
4009375000  -4.124413e+001  -9.327313e+001 
4012500000  -4.283889e+001  -1.003125e+002 
4015625000  -4.382367e+001  -1.026294e+002 
4018750000  -4.390530e+001  -1.073032e+002 
4021875000  -4.325235e+001  -1.145628e+002 
4025000000  -4.312573e+001  -1.205082e+002 
4028125000  -4.317244e+001  -1.286346e+002 
4031250000  -4.385428e+001  -1.360801e+002 
4034375000  -4.396452e+001  -1.376895e+002 
4037500000  -4.421365e+001  -1.399066e+002 
4040625000  -4.417970e+001  -1.461607e+002 
4043750000  -4.429120e+001  -1.496534e+002 
4046875000  -4.473376e+001  -1.560999e+002 
4050000000  -4.417794e+001  -1.631586e+002 
4053125000  -4.502017e+001  -1.663830e+002 
4056250000  -4.568751e+001  -1.632488e+002 
4059375000  -4.412024e+001  -1.645290e+002 
4062500000  -4.312864e+001  -1.733585e+002 
4065625000  -4.342804e+001  1.798898e+002 
4068750000  -4.270383e+001  1.723006e+002 
4071875000  -4.252478e+001  1.629395e+002 
4075000000  -4.361154e+001  1.566397e+002 
4078125000  -4.402630e+001  1.515058e+002 
4081250000  -4.318897e+001  1.479833e+002 
4084375000  -4.297322e+001  1.355100e+002 
4087500000  -4.404208e+001  1.293260e+002 
4090625000  -4.468604e+001  1.271974e+002 
4093750000  -4.454544e+001  1.267925e+002 
4096875000  -4.384128e+001  1.185855e+002 
4100000000  -4.549869e+001  1.120983e+002 
4103125000  -4.600904e+001  1.135581e+002 
4106250000  -4.484556e+001  1.152617e+002 
4109375000  -4.397982e+001  1.071814e+002 
4112500000  -4.412459e+001  1.008180e+002 
4115625000  -4.388352e+001  9.431076e+001 
4118750000  -4.420007e+001  8.863799e+001 
4121875000  -4.333971e+001  8.193523e+001 
4125000000  -4.492306e+001  7.548279e+001 
4128125000  -4.520743e+001  7.764327e+001 
4131250000  -4.374345e+001  8.317230e+001 
4134375000  -4.139998e+001  6.930616e+001 
4137500000  -4.203895e+001  4.882933e+001 
4140625000  -4.417323e+001  4.278759e+001 
4143750000  -4.473917e+001  4.840472e+001 
4146875000  -4.399363e+001  4.839792e+001 
4150000000  -4.301635e+001  4.117446e+001 
4153125000  -4.315810e+001  3.023909e+001 
4156250000  -4.421566e+001  2.702033e+001 
4159375000  -4.380764e+001  3.097354e+001 
4162500000  -4.231217e+001  2.593816e+001 
4165625000  -4.144730e+001  1.658760e+001 
4168750000  -4.119682e+001  6.082185e+000 
4171875000  -4.118880e+001  -4.606087e+000 
4175000000  -4.229217e+001  -1.445417e+001 
4178125000  -4.195434e+001  -1.662720e+001 
4181250000  -4.232712e+001  -2.230824e+001 
4184375000  -4.269100e+001  -2.998336e+001 
4187500000  -4.245429e+001  -3.510390e+001 
4190625000  -4.240899e+001  -4.727870e+001 
4193750000  -4.423873e+001  -5.195472e+001 
4196875000  -4.515984e+001  -5.537480e+001 
4200000000  -4.571526e+001  -4.953768e+001 
4203125000  -4.374649e+001  -3.806736e+001 
4206250000  -4.106824e+001  -4.769672e+001 
4209375000  -4.146468e+001  -7.506478e+001 
4212500000  -4.368016e+001  -8.093724e+001 
4215625000  -4.410509e+001  -7.291407e+001 
4218750000  -4.241674e+001  -7.368505e+001 
4221875000  -4.095042e+001  -8.560976e+001 
4225000000  -4.277918e+001  -9.659728e+001 
4228125000  -4.221208e+001  -9.417167e+001 
4231250000  -4.090100e+001  -1.018699e+002 
4234375000  -4.084344e+001  -1.160506e+002 
4237500000  -4.065963e+001  -1.193430e+002 
4240625000  -4.098937e+001  -1.315132e+002 
4243750000  -4.213036e+001  -1.405802e+002 
4246875000  -4.284209e+001  -1.376942e+002 
4250000000  -4.258226e+001  -1.394598e+002 
4253125000  -4.258118e+001  -1.422607e+002 
4256250000  -4.239082e+001  -1.495180e+002 
4259375000  -4.215193e+001  -1.527984e+002 
4262500000  -4.253735e+001  -1.595926e+002 
4265625000  -4.184759e+001  -1.599619e+002 
4268750000  -4.117552e+001  -1.692674e+002 
4271875000  -4.031246e+001  1.776866e+002 
4275000000  -4.005762e+001  1.713777e+002 
4278125000  -4.101976e+001  1.553856e+002 
4281250000  -4.248153e+001  1.551214e+002 
4284375000  -4.227128e+001  1.523242e+002 
4287500000  -4.348911e+001  1.518157e+002 
4290625000  -4.349259e+001  1.574897e+002 
4293750000  -4.169643e+001  1.585520e+002 
4296875000  -4.071970e+001  1.430205e+002 
4300000000  -4.122111e+001  1.314639e+002 
4303125000  -4.177642e+001  1.308499e+002 
4306250000  -4.068823e+001  1.310740e+002 
4309375000  -4.001925e+001  1.222871e+002 
4312500000  -3.958288e+001  1.079495e+002 
4315625000  -4.003382e+001  9.881584e+001 
4318750000  -4.069268e+001  9.516222e+001 
4321875000  -4.059689e+001  9.155171e+001 
4325000000  -4.005141e+001  8.546317e+001 
4328125000  -3.909320e+001  7.698871e+001 
4331250000  -3.953560e+001  6.471606e+001 
4334375000  -4.086365e+001  5.526516e+001 
4337500000  -4.187091e+001  5.390452e+001 
4340625000  -4.201400e+001  5.610637e+001 
4343750000  -4.107661e+001  5.187139e+001 
4346875000  -4.057921e+001  4.163867e+001 
4350000000  -4.074932e+001  3.274492e+001 
4353125000  -4.187603e+001  2.349386e+001 
4356250000  -4.374595e+001  2.787957e+001 
4359375000  -4.231892e+001  3.765913e+001 
4362500000  -3.923673e+001  2.888490e+001 
4365625000  -3.890337e+001  1.273779e+001 
4368750000  -4.040847e+001  1.516447e+000 
4371875000  -4.092514e+001  -1.122546e+000 
4375000000  -4.055356e+001  -5.502993e+000 
4378125000  -4.036631e+001  -1.375857e+001 
4381250000  -4.062228e+001  -2.105316e+001 
4384375000  -4.068538e+001  -2.988022e+001 
4387500000  -4.155848e+001  -3.810386e+001 
4390625000  -4.196200e+001  -3.916862e+001 
4393750000  -4.170982e+001  -3.828539e+001 
4396875000  -4.122280e+001  -4.413160e+001 
4400000000  -4.066827e+001  -5.474473e+001 
4403125000  -4.163795e+001  -6.462129e+001 
4406250000  -4.246561e+001  -6.905126e+001 
4409375000  -4.267174e+001  -7.029147e+001 
4412500000  -4.352777e+001  -7.610346e+001 
4415625000  -4.280112e+001  -7.444878e+001 
4418750000  -4.174500e+001  -7.386626e+001 
