!Agilent Technologies,E8363B,MY43030201,A.06.04.32
!Agilent E8363B: A.06.04.32
!Date: Tuesday, November 11, 2014 21:44:50
!Correction: S21(Response(S21)) 
!S1P File: Measurement: S21:
# Hz S  dB   R 50
3000000000  -4.344172e+001  -1.602337e+002 
3003125000  -4.521220e+001  -1.645672e+002 
3006250000  -4.519391e+001  -1.667277e+002 
3009375000  -4.610491e+001  -1.642607e+002 
3012500000  -4.460659e+001  -1.720547e+002 
3015625000  -4.491237e+001  -1.762245e+002 
3018750000  -4.532751e+001  -1.778555e+002 
3021875000  -4.380943e+001  -1.783001e+002 
3025000000  -4.235246e+001  1.795853e+002 
3028125000  -4.166135e+001  1.638356e+002 
3031250000  -4.090158e+001  1.522668e+002 
3034375000  -4.065767e+001  1.379076e+002 
3037500000  -4.172118e+001  1.273139e+002 
3040625000  -4.284444e+001  1.212594e+002 
3043750000  -4.331392e+001  1.157723e+002 
3046875000  -4.413581e+001  1.078933e+002 
3050000000  -4.568706e+001  1.018771e+002 
3053125000  -4.477743e+001  1.062062e+002 
3056250000  -4.449754e+001  1.089507e+002 
3059375000  -4.394427e+001  1.071435e+002 
3062500000  -4.251467e+001  1.001501e+002 
3065625000  -4.209692e+001  8.928678e+001 
3068750000  -4.180660e+001  8.143620e+001 
3071875000  -4.179697e+001  7.945902e+001 
3075000000  -4.119698e+001  7.306688e+001 
3078125000  -4.145324e+001  6.490007e+001 
3081250000  -4.133861e+001  5.664432e+001 
3084375000  -4.045897e+001  5.111081e+001 
3087500000  -4.056889e+001  4.398225e+001 
3090625000  -4.002448e+001  3.095025e+001 
3093750000  -4.088329e+001  2.169919e+001 
3096875000  -4.141716e+001  1.666633e+001 
3100000000  -4.112981e+001  1.228871e+001 
3103125000  -4.125399e+001  7.604685e+000 
3106250000  -4.123370e+001  2.112360e+000 
3109375000  -4.105311e+001  -2.409343e+000 
3112500000  -4.095209e+001  -1.024499e+001 
3115625000  -4.080291e+001  -1.578668e+001 
3118750000  -4.091161e+001  -2.006733e+001 
3121875000  -4.005193e+001  -3.275317e+001 
3125000000  -4.229020e+001  -3.633662e+001 
3128125000  -4.200519e+001  -3.106334e+001 
3131250000  -3.957856e+001  -3.928019e+001 
3134375000  -3.890506e+001  -5.724230e+001 
3137500000  -3.957478e+001  -6.857163e+001 
3140625000  -4.090881e+001  -7.401412e+001 
3143750000  -4.160989e+001  -7.729560e+001 
3146875000  -4.104930e+001  -7.609078e+001 
3150000000  -4.046201e+001  -8.146853e+001 
3153125000  -4.073258e+001  -9.201396e+001 
3156250000  -4.145463e+001  -8.921992e+001 
3159375000  -3.910436e+001  -9.030250e+001 
3162500000  -3.768932e+001  -1.075931e+002 
3165625000  -3.907131e+001  -1.206170e+002 
3168750000  -3.910075e+001  -1.239489e+002 
3171875000  -3.862043e+001  -1.321360e+002 
3175000000  -3.910073e+001  -1.410424e+002 
3178125000  -3.867531e+001  -1.445127e+002 
3181250000  -3.813688e+001  -1.537106e+002 
3184375000  -3.774802e+001  -1.659260e+002 
3187500000  -3.919410e+001  1.778420e+002 
3190625000  -4.086884e+001  1.710502e+002 
3193750000  -4.106289e+001  1.759378e+002 
3196875000  -4.114114e+001  1.747856e+002 
3200000000  -3.990183e+001  1.700997e+002 
3203125000  -3.965144e+001  1.597677e+002 
3206250000  -3.978291e+001  1.529716e+002 
3209375000  -3.947293e+001  1.436867e+002 
3212500000  -4.012369e+001  1.363808e+002 
3215625000  -3.968552e+001  1.326745e+002 
3218750000  -4.041166e+001  1.202394e+002 
3221875000  -4.064708e+001  1.128600e+002 
3225000000  -4.066310e+001  1.082313e+002 
3228125000  -4.121104e+001  1.008458e+002 
3231250000  -4.131048e+001  9.774048e+001 
3234375000  -4.132457e+001  9.498718e+001 
3237500000  -4.098387e+001  9.183551e+001 
3240625000  -4.031389e+001  8.327762e+001 
3243750000  -4.034914e+001  7.267057e+001 
3246875000  -4.062658e+001  6.368395e+001 
3250000000  -4.107786e+001  5.882962e+001 
3253125000  -4.133116e+001  5.460970e+001 
3256250000  -4.046124e+001  4.581574e+001 
3259375000  -4.100998e+001  3.218605e+001 
3262500000  -4.270193e+001  2.635543e+001 
3265625000  -4.255464e+001  2.796497e+001 
3268750000  -4.256569e+001  2.659033e+001 
3271875000  -4.168227e+001  2.034043e+001 
3275000000  -4.120740e+001  1.020403e+001 
3278125000  -4.178674e+001  3.723229e+000 
3281250000  -4.186959e+001  2.135451e-001 
3284375000  -4.100562e+001  -7.661366e+000 
3287500000  -4.172188e+001  -1.540561e+001 
3290625000  -4.164405e+001  -2.454675e+001 
3293750000  -4.163839e+001  -3.476165e+001 
3296875000  -4.277235e+001  -3.922780e+001 
3300000000  -4.222313e+001  -3.925502e+001 
3303125000  -4.115968e+001  -4.895477e+001 
3306250000  -4.092258e+001  -5.952465e+001 
3309375000  -4.064611e+001  -7.137991e+001 
3312500000  -4.105845e+001  -8.578837e+001 
3315625000  -4.249371e+001  -9.358930e+001 
3318750000  -4.405761e+001  -1.001798e+002 
3321875000  -4.534076e+001  -9.776595e+001 
3325000000  -4.478888e+001  -9.474548e+001 
3328125000  -4.435851e+001  -9.816586e+001 
3331250000  -4.234100e+001  -9.657693e+001 
3334375000  -4.018465e+001  -1.174276e+002 
3337500000  -4.102367e+001  -1.414143e+002 
3340625000  -4.282907e+001  -1.523578e+002 
3343750000  -4.460131e+001  -1.536246e+002 
3346875000  -4.417294e+001  -1.562690e+002 
3350000000  -4.356651e+001  -1.617054e+002 
3353125000  -4.355373e+001  -1.696949e+002 
3356250000  -4.346558e+001  1.786737e+002 
3359375000  -4.408752e+001  1.631702e+002 
3362500000  -4.515940e+001  1.582760e+002 
3365625000  -4.575389e+001  1.525529e+002 
3368750000  -4.669161e+001  1.472996e+002 
3371875000  -4.729823e+001  1.392943e+002 
3375000000  -4.852126e+001  1.332650e+002 
3378125000  -4.896029e+001  1.333237e+002 
3381250000  -5.078159e+001  1.396926e+002 
3384375000  -4.742329e+001  1.491414e+002 
3387500000  -4.481226e+001  1.306886e+002 
3390625000  -4.698839e+001  1.055709e+002 
3393750000  -4.770227e+001  1.063058e+002 
3396875000  -4.642607e+001  1.012907e+002 
3400000000  -4.618151e+001  8.612571e+001 
3403125000  -4.715334e+001  7.711945e+001 
3406250000  -4.808843e+001  6.987655e+001 
3409375000  -4.784870e+001  6.300233e+001 
3412500000  -4.775664e+001  5.177673e+001 
3415625000  -4.870604e+001  5.002726e+001 
3418750000  -4.850601e+001  4.079923e+001 
3421875000  -4.914692e+001  4.254306e+001 
3425000000  -4.757825e+001  3.559574e+001 
3428125000  -4.732894e+001  2.863032e+001 
3431250000  -4.661877e+001  1.422216e+001 
3434375000  -4.675794e+001  4.416595e+000 
3437500000  -4.771868e+001  -7.135904e+000 
3440625000  -4.800338e+001  -1.147314e+001 
3443750000  -4.630128e+001  -1.412308e+001 
3446875000  -4.573696e+001  -2.656656e+001 
3450000000  -4.490583e+001  -4.275514e+001 
3453125000  -4.573552e+001  -5.958828e+001 
3456250000  -4.746653e+001  -6.956025e+001 
3459375000  -4.809179e+001  -7.083480e+001 
3462500000  -4.779251e+001  -7.783267e+001 
3465625000  -4.761240e+001  -8.969637e+001 
3468750000  -4.755392e+001  -9.631554e+001 
3471875000  -4.711609e+001  -1.056676e+002 
3475000000  -4.710801e+001  -1.140971e+002 
3478125000  -4.743842e+001  -1.306048e+002 
3481250000  -4.857776e+001  -1.364378e+002 
3484375000  -4.891706e+001  -1.307840e+002 
3487500000  -4.752051e+001  -1.435462e+002 
3490625000  -4.680384e+001  -1.521815e+002 
3493750000  -4.774315e+001  -1.654983e+002 
3496875000  -4.813046e+001  -1.668510e+002 
3500000000  -4.849313e+001  -1.729973e+002 
3503125000  -4.715111e+001  -1.736627e+002 
3506250000  -4.524212e+001  1.702519e+002 
3509375000  -4.590198e+001  1.521596e+002 
3512500000  -4.638026e+001  1.372224e+002 
3515625000  -4.720834e+001  1.316057e+002 
3518750000  -4.809064e+001  1.318394e+002 
3521875000  -4.780426e+001  1.202952e+002 
3525000000  -4.913158e+001  1.157457e+002 
3528125000  -4.811928e+001  1.159424e+002 
3531250000  -4.648829e+001  1.064171e+002 
3534375000  -4.665022e+001  8.945250e+001 
3537500000  -4.782612e+001  8.222842e+001 
3540625000  -4.932376e+001  7.467570e+001 
3543750000  -4.897184e+001  7.945116e+001 
3546875000  -4.850878e+001  8.284526e+001 
3550000000  -4.646916e+001  7.684096e+001 
3553125000  -4.596851e+001  5.400955e+001 
3556250000  -4.748894e+001  5.180043e+001 
3559375000  -4.631826e+001  4.508992e+001 
3562500000  -4.619675e+001  3.223164e+001 
3565625000  -4.744329e+001  2.677843e+001 
3568750000  -4.778435e+001  2.441287e+001 
3571875000  -4.734764e+001  2.283621e+001 
3575000000  -4.714959e+001  1.262409e+001 
3578125000  -4.781954e+001  8.714490e+000 
3581250000  -4.724081e+001  5.208605e+000 
3584375000  -4.596761e+001  -2.888503e+000 
3587500000  -4.544585e+001  -1.390691e+001 
3590625000  -4.646730e+001  -2.365634e+001 
3593750000  -4.754021e+001  -2.573244e+001 
3596875000  -4.672350e+001  -2.199207e+001 
3600000000  -4.497974e+001  -3.327285e+001 
3603125000  -4.541680e+001  -4.821167e+001 
3606250000  -4.576302e+001  -5.138315e+001 
3609375000  -4.567888e+001  -5.562495e+001 
3612500000  -4.630384e+001  -6.325901e+001 
3615625000  -4.603359e+001  -6.671703e+001 
3618750000  -4.602422e+001  -6.815489e+001 
3621875000  -4.558831e+001  -7.695310e+001 
3625000000  -4.567230e+001  -8.048244e+001 
3628125000  -4.489555e+001  -8.772662e+001 
3631250000  -4.483239e+001  -9.718552e+001 
3634375000  -4.528666e+001  -9.826423e+001 
3637500000  -4.426605e+001  -9.625371e+001 
3640625000  -4.371576e+001  -1.060085e+002 
3643750000  -4.334200e+001  -1.177878e+002 
3646875000  -4.361843e+001  -1.279851e+002 
3650000000  -4.381208e+001  -1.328121e+002 
3653125000  -4.330032e+001  -1.391699e+002 
3656250000  -4.419078e+001  -1.475374e+002 
3659375000  -4.393892e+001  -1.514796e+002 
3662500000  -4.348951e+001  -1.591212e+002 
3665625000  -4.329034e+001  -1.664056e+002 
3668750000  -4.210379e+001  -1.666015e+002 
3671875000  -4.173209e+001  1.782154e+002 
3675000000  -4.212423e+001  1.700066e+002 
3678125000  -4.260860e+001  1.642472e+002 
3681250000  -4.239083e+001  1.564420e+002 
3684375000  -4.257311e+001  1.508798e+002 
3687500000  -4.300396e+001  1.412519e+002 
3690625000  -4.347134e+001  1.351671e+002 
3693750000  -4.457964e+001  1.341765e+002 
3696875000  -4.370575e+001  1.292569e+002 
3700000000  -4.312115e+001  1.219816e+002 
3703125000  -4.385986e+001  1.160781e+002 
3706250000  -4.423808e+001  1.136868e+002 
3709375000  -4.385915e+001  1.119055e+002 
3712500000  -4.288736e+001  1.086881e+002 
3715625000  -4.179852e+001  9.606163e+001 
3718750000  -4.194220e+001  8.768735e+001 
3721875000  -4.184764e+001  7.634935e+001 
3725000000  -4.242473e+001  6.924462e+001 
3728125000  -4.250111e+001  6.753377e+001 
3731250000  -4.188143e+001  6.012667e+001 
3734375000  -4.213246e+001  5.377597e+001 
3737500000  -4.271598e+001  4.472139e+001 
3740625000  -4.277361e+001  3.782367e+001 
3743750000  -4.305436e+001  3.283480e+001 
3746875000  -4.341607e+001  2.546530e+001 
3750000000  -4.367523e+001  2.172245e+001 
3753125000  -4.371341e+001  1.953826e+001 
3756250000  -4.408566e+001  1.573120e+001 
3759375000  -4.353543e+001  9.601383e+000 
3762500000  -4.368821e+001  5.371272e+000 
3765625000  -4.406850e+001  -1.559222e-001 
3768750000  -4.322741e+001  1.716729e-001 
3771875000  -4.206467e+001  -8.384645e+000 
3775000000  -4.203717e+001  -1.989832e+001 
3778125000  -4.289191e+001  -2.430624e+001 
3781250000  -4.271542e+001  -3.107811e+001 
3784375000  -4.263556e+001  -3.566695e+001 
3787500000  -4.248711e+001  -3.885206e+001 
3790625000  -4.322973e+001  -4.893430e+001 
3793750000  -4.258166e+001  -5.184112e+001 
3796875000  -4.162979e+001  -5.962616e+001 
3800000000  -4.087149e+001  -6.470200e+001 
3803125000  -4.171494e+001  -7.731280e+001 
3806250000  -4.253567e+001  -8.401008e+001 
3809375000  -4.194377e+001  -8.608312e+001 
3812500000  -4.171270e+001  -9.673334e+001 
3815625000  -4.341702e+001  -1.101034e+002 
3818750000  -4.424578e+001  -1.075023e+002 
3821875000  -4.333068e+001  -9.611684e+001 
3825000000  -4.166726e+001  -1.030791e+002 
3828125000  -4.061051e+001  -1.236103e+002 
3831250000  -4.186354e+001  -1.408066e+002 
3834375000  -4.408651e+001  -1.377430e+002 
3837500000  -4.378247e+001  -1.366631e+002 
3840625000  -4.287348e+001  -1.434797e+002 
3843750000  -4.157951e+001  -1.589075e+002 
3846875000  -4.383512e+001  -1.680250e+002 
3850000000  -4.436904e+001  -1.593733e+002 
3853125000  -4.345135e+001  -1.609771e+002 
3856250000  -4.267154e+001  -1.694499e+002 
3859375000  -4.219924e+001  -1.776851e+002 
3862500000  -4.196246e+001  1.714918e+002 
3865625000  -4.288281e+001  1.655158e+002 
3868750000  -4.250401e+001  1.641474e+002 
3871875000  -4.199565e+001  1.538481e+002 
3875000000  -4.241220e+001  1.422136e+002 
3878125000  -4.356889e+001  1.428020e+002 
3881250000  -4.351522e+001  1.402959e+002 
3884375000  -4.280669e+001  1.308412e+002 
3887500000  -4.336617e+001  1.227710e+002 
3890625000  -4.373623e+001  1.176146e+002 
3893750000  -4.438285e+001  1.181452e+002 
3896875000  -4.409439e+001  1.144477e+002 
3900000000  -4.440312e+001  1.077628e+002 
3903125000  -4.386617e+001  1.040577e+002 
3906250000  -4.370788e+001  9.680023e+001 
3909375000  -4.252759e+001  8.802135e+001 
3912500000  -4.393299e+001  8.169814e+001 
3915625000  -4.495435e+001  7.982204e+001 
3918750000  -4.492460e+001  7.744936e+001 
3921875000  -4.397254e+001  7.608872e+001 
3925000000  -4.298075e+001  6.744547e+001 
3928125000  -4.299439e+001  5.764280e+001 
3931250000  -4.417664e+001  4.803867e+001 
3934375000  -4.412908e+001  4.863289e+001 
3937500000  -4.465429e+001  4.639425e+001 
3940625000  -4.465298e+001  4.344792e+001 
3943750000  -4.303067e+001  3.857475e+001 
3946875000  -4.303833e+001  3.170852e+001 
3950000000  -4.401973e+001  1.988462e+001 
3953125000  -4.490523e+001  2.364157e+001 
3956250000  -4.255670e+001  2.254015e+001 
3959375000  -4.202143e+001  1.673866e+001 
3962500000  -4.139706e+001  4.916680e+000 
3965625000  -4.224338e+001  -8.249262e+000 
3968750000  -4.273693e+001  -1.559248e+001 
3971875000  -4.287445e+001  -2.020779e+001 
3975000000  -4.170255e+001  -2.507042e+001 
3978125000  -4.215410e+001  -3.135996e+001 
3981250000  -4.212862e+001  -3.658686e+001 
3984375000  -4.236347e+001  -4.823201e+001 
3987500000  -4.310424e+001  -5.164645e+001 
3990625000  -4.323314e+001  -5.513276e+001 
3993750000  -4.316886e+001  -6.191878e+001 
3996875000  -4.327547e+001  -6.815505e+001 
4000000000  -4.389714e+001  -7.079459e+001 
4003125000  -4.373151e+001  -7.386469e+001 
4006250000  -4.198444e+001  -7.827619e+001 
4009375000  -4.118756e+001  -9.435487e+001 
4012500000  -4.311976e+001  -1.013120e+002 
4015625000  -4.409539e+001  -1.036286e+002 
4018750000  -4.393779e+001  -1.094191e+002 
4021875000  -4.293307e+001  -1.145582e+002 
4025000000  -4.338574e+001  -1.203126e+002 
4028125000  -4.334036e+001  -1.312931e+002 
4031250000  -4.380973e+001  -1.336747e+002 
4034375000  -4.417544e+001  -1.353917e+002 
4037500000  -4.413073e+001  -1.399892e+002 
4040625000  -4.422367e+001  -1.466520e+002 
4043750000  -4.464473e+001  -1.508701e+002 
4046875000  -4.463079e+001  -1.555836e+002 
4050000000  -4.429364e+001  -1.637004e+002 
4053125000  -4.563311e+001  -1.632666e+002 
4056250000  -4.614505e+001  -1.600780e+002 
4059375000  -4.366107e+001  -1.630779e+002 
4062500000  -4.350589e+001  -1.739372e+002 
4065625000  -4.377234e+001  1.796538e+002 
4068750000  -4.337490e+001  1.721394e+002 
4071875000  -4.279773e+001  1.637298e+002 
4075000000  -4.397928e+001  1.566358e+002 
4078125000  -4.426762e+001  1.547044e+002 
4081250000  -4.365230e+001  1.454456e+002 
4084375000  -4.362928e+001  1.381396e+002 
4087500000  -4.444332e+001  1.298363e+002 
4090625000  -4.467436e+001  1.310262e+002 
4093750000  -4.484831e+001  1.283355e+002 
4096875000  -4.468322e+001  1.185974e+002 
4100000000  -4.569332e+001  1.114503e+002 
4103125000  -4.612316e+001  1.159006e+002 
4106250000  -4.569322e+001  1.184171e+002 
4109375000  -4.471406e+001  1.097997e+002 
4112500000  -4.401966e+001  1.008061e+002 
4115625000  -4.456341e+001  9.892578e+001 
4118750000  -4.428185e+001  8.877354e+001 
4121875000  -4.384068e+001  8.251981e+001 
4125000000  -4.483333e+001  7.485148e+001 
4128125000  -4.530607e+001  8.202004e+001 
4131250000  -4.415001e+001  8.279012e+001 
4134375000  -4.149096e+001  7.428359e+001 
4137500000  -4.244834e+001  5.289560e+001 
4140625000  -4.435266e+001  4.549809e+001 
4143750000  -4.543367e+001  5.086732e+001 
4146875000  -4.391499e+001  5.063196e+001 
4150000000  -4.317460e+001  3.902362e+001 
4153125000  -4.351254e+001  3.292470e+001 
4156250000  -4.417057e+001  2.759788e+001 
4159375000  -4.415032e+001  3.018338e+001 
4162500000  -4.237947e+001  2.895342e+001 
4165625000  -4.215992e+001  1.645321e+001 
4168750000  -4.131322e+001  7.791398e+000 
4171875000  -4.148671e+001  -3.627264e+000 
4175000000  -4.213065e+001  -1.518850e+001 
4178125000  -4.288146e+001  -1.647078e+001 
4181250000  -4.251322e+001  -2.322245e+001 
4184375000  -4.290050e+001  -2.969898e+001 
4187500000  -4.254303e+001  -3.490973e+001 
4190625000  -4.290002e+001  -4.332352e+001 
4193750000  -4.439713e+001  -5.019086e+001 
4196875000  -4.493200e+001  -5.626286e+001 
4200000000  -4.607942e+001  -4.800001e+001 
4203125000  -4.462764e+001  -3.633527e+001 
4206250000  -4.171508e+001  -4.621069e+001 
4209375000  -4.159035e+001  -7.116733e+001 
4212500000  -4.438593e+001  -7.862313e+001 
4215625000  -4.515647e+001  -7.222344e+001 
4218750000  -4.271161e+001  -7.165142e+001 
4221875000  -4.166171e+001  -8.267680e+001 
4225000000  -4.290553e+001  -9.475413e+001 
4228125000  -4.271244e+001  -9.101031e+001 
4231250000  -4.169344e+001  -1.028233e+002 
4234375000  -4.135326e+001  -1.137485e+002 
4237500000  -4.147173e+001  -1.201326e+002 
4240625000  -4.144735e+001  -1.272877e+002 
4243750000  -4.293232e+001  -1.370702e+002 
4246875000  -4.383055e+001  -1.376661e+002 
4250000000  -4.290644e+001  -1.388102e+002 
4253125000  -4.272608e+001  -1.425585e+002 
4256250000  -4.277918e+001  -1.448190e+002 
4259375000  -4.229551e+001  -1.539005e+002 
4262500000  -4.267009e+001  -1.584912e+002 
4265625000  -4.243330e+001  -1.594241e+002 
4268750000  -4.128786e+001  -1.658395e+002 
4271875000  -4.109061e+001  -1.790776e+002 
4275000000  -4.083588e+001  1.740740e+002 
4278125000  -4.196838e+001  1.625206e+002 
4281250000  -4.278876e+001  1.602315e+002 
4284375000  -4.228375e+001  1.543266e+002 
4287500000  -4.383881e+001  1.511729e+002 
4290625000  -4.408315e+001  1.593101e+002 
4293750000  -4.184470e+001  1.597073e+002 
4296875000  -4.104309e+001  1.409906e+002 
4300000000  -4.170399e+001  1.341800e+002 
4303125000  -4.222829e+001  1.341324e+002 
4306250000  -4.104472e+001  1.333928e+002 
4309375000  -4.038476e+001  1.238931e+002 
4312500000  -4.006010e+001  1.097037e+002 
4315625000  -4.060619e+001  1.016736e+002 
4318750000  -4.099529e+001  9.597109e+001 
4321875000  -4.127686e+001  9.375645e+001 
4325000000  -4.047910e+001  9.040602e+001 
4328125000  -3.995837e+001  7.926452e+001 
4331250000  -4.016080e+001  6.679929e+001 
4334375000  -4.135308e+001  5.675231e+001 
4337500000  -4.229078e+001  5.506264e+001 
4340625000  -4.264119e+001  5.980517e+001 
4343750000  -4.163269e+001  5.348802e+001 
4346875000  -4.119100e+001  4.346510e+001 
4350000000  -4.181404e+001  3.316939e+001 
4353125000  -4.221716e+001  2.579675e+001 
4356250000  -4.444724e+001  3.047404e+001 
4359375000  -4.299193e+001  4.076591e+001 
4362500000  -3.966487e+001  3.242419e+001 
4365625000  -3.946538e+001  1.274386e+001 
4368750000  -4.114010e+001  3.692640e+000 
4371875000  -4.125826e+001  -1.784315e-001 
4375000000  -4.112736e+001  -2.535414e+000 
4378125000  -4.100700e+001  -1.200585e+001 
4381250000  -4.130027e+001  -2.112048e+001 
4384375000  -4.110495e+001  -2.448155e+001 
4387500000  -4.204071e+001  -3.435132e+001 
4390625000  -4.300261e+001  -3.379431e+001 
4393750000  -4.207172e+001  -3.732361e+001 
4396875000  -4.156430e+001  -4.367475e+001 
4400000000  -4.117219e+001  -5.161172e+001 
4403125000  -4.180041e+001  -6.244816e+001 
4406250000  -4.293863e+001  -6.541197e+001 
4409375000  -4.321984e+001  -7.166518e+001 
4412500000  -4.411731e+001  -7.376583e+001 
4415625000  -4.371155e+001  -6.715408e+001 
4418750000  -4.270562e+001  -7.194617e+001 
