!Agilent Technologies,E8363B,MY43030201,A.06.04.32
!Agilent E8363B: A.06.04.32
!Date: Tuesday, November 11, 2014 21:50:07
!Correction: S21(Response(S21)) 
!S1P File: Measurement: S21:
# Hz S  dB   R 50
3000000000  -4.351590e+001  -1.616589e+002 
3003125000  -4.538708e+001  -1.659216e+002 
3006250000  -4.534573e+001  -1.681250e+002 
3009375000  -4.615347e+001  -1.634253e+002 
3012500000  -4.487088e+001  -1.725407e+002 
3015625000  -4.504590e+001  -1.777136e+002 
3018750000  -4.535196e+001  -1.781416e+002 
3021875000  -4.398508e+001  -1.776118e+002 
3025000000  -4.267189e+001  1.770770e+002 
3028125000  -4.178670e+001  1.638954e+002 
3031250000  -4.073675e+001  1.510198e+002 
3034375000  -4.078203e+001  1.374018e+002 
3037500000  -4.174051e+001  1.260460e+002 
3040625000  -4.288075e+001  1.203811e+002 
3043750000  -4.329587e+001  1.125879e+002 
3046875000  -4.417968e+001  1.058789e+002 
3050000000  -4.502062e+001  1.021105e+002 
3053125000  -4.476063e+001  1.047514e+002 
3056250000  -4.495670e+001  1.078889e+002 
3059375000  -4.387122e+001  1.048302e+002 
3062500000  -4.258988e+001  9.979372e+001 
3065625000  -4.204167e+001  8.740955e+001 
3068750000  -4.163834e+001  8.028992e+001 
3071875000  -4.181859e+001  7.757372e+001 
3075000000  -4.137675e+001  6.970026e+001 
3078125000  -4.125221e+001  6.213636e+001 
3081250000  -4.140407e+001  5.585362e+001 
3084375000  -4.041808e+001  5.110989e+001 
3087500000  -4.067524e+001  4.299634e+001 
3090625000  -3.992284e+001  3.058847e+001 
3093750000  -4.124952e+001  2.239221e+001 
3096875000  -4.119443e+001  1.546735e+001 
3100000000  -4.109600e+001  1.207124e+001 
3103125000  -4.136508e+001  7.628885e+000 
3106250000  -4.102362e+001  -3.182140e-001 
3109375000  -4.103125e+001  -4.807532e+000 
3112500000  -4.088457e+001  -1.222574e+001 
3115625000  -4.070374e+001  -1.640573e+001 
3118750000  -4.076964e+001  -2.127765e+001 
3121875000  -4.033413e+001  -3.427397e+001 
3125000000  -4.214451e+001  -3.691177e+001 
3128125000  -4.207010e+001  -3.210032e+001 
3131250000  -3.939503e+001  -4.075310e+001 
3134375000  -3.894223e+001  -5.771635e+001 
3137500000  -3.940934e+001  -6.980104e+001 
3140625000  -4.090554e+001  -7.470832e+001 
3143750000  -4.167318e+001  -8.006847e+001 
3146875000  -4.112024e+001  -7.806924e+001 
3150000000  -4.031561e+001  -8.340390e+001 
3153125000  -4.068181e+001  -9.200412e+001 
3156250000  -4.155325e+001  -8.970208e+001 
3159375000  -3.895526e+001  -9.343824e+001 
3162500000  -3.785104e+001  -1.098288e+002 
3165625000  -3.892750e+001  -1.222580e+002 
3168750000  -3.887112e+001  -1.243436e+002 
3171875000  -3.863397e+001  -1.338544e+002 
3175000000  -3.904356e+001  -1.443494e+002 
3178125000  -3.858983e+001  -1.469727e+002 
3181250000  -3.809204e+001  -1.555867e+002 
3184375000  -3.776717e+001  -1.675043e+002 
3187500000  -3.914501e+001  1.775917e+002 
3190625000  -4.085377e+001  1.694963e+002 
3193750000  -4.119501e+001  1.741213e+002 
3196875000  -4.115389e+001  1.733962e+002 
3200000000  -3.990762e+001  1.673351e+002 
3203125000  -3.959547e+001  1.587970e+002 
3206250000  -3.980399e+001  1.519656e+002 
3209375000  -3.952598e+001  1.435725e+002 
3212500000  -4.002929e+001  1.354825e+002 
3215625000  -3.954813e+001  1.332921e+002 
3218750000  -4.035699e+001  1.200243e+002 
3221875000  -4.065988e+001  1.128982e+002 
3225000000  -4.036413e+001  1.082067e+002 
3228125000  -4.106715e+001  9.937492e+001 
3231250000  -4.141612e+001  9.686575e+001 
3234375000  -4.096716e+001  9.363823e+001 
3237500000  -4.076501e+001  9.017429e+001 
3240625000  -4.033476e+001  8.208298e+001 
3243750000  -4.016867e+001  7.132884e+001 
3246875000  -4.069756e+001  6.246353e+001 
3250000000  -4.116288e+001  5.740831e+001 
3253125000  -4.092155e+001  5.249915e+001 
3256250000  -4.018989e+001  4.268871e+001 
3259375000  -4.074992e+001  2.971494e+001 
3262500000  -4.235954e+001  2.449990e+001 
3265625000  -4.260980e+001  2.751724e+001 
3268750000  -4.248470e+001  2.742073e+001 
3271875000  -4.145596e+001  2.022415e+001 
3275000000  -4.099409e+001  9.313936e+000 
3278125000  -4.152932e+001  4.230562e+000 
3281250000  -4.178095e+001  -1.104778e+000 
3284375000  -4.105973e+001  -9.472868e+000 
3287500000  -4.163438e+001  -1.778935e+001 
3290625000  -4.134908e+001  -2.640433e+001 
3293750000  -4.126456e+001  -3.488742e+001 
3296875000  -4.260538e+001  -3.832215e+001 
3300000000  -4.191544e+001  -4.097449e+001 
3303125000  -4.090267e+001  -5.113058e+001 
3306250000  -4.087003e+001  -6.115483e+001 
3309375000  -4.062495e+001  -7.163336e+001 
3312500000  -4.097378e+001  -8.522849e+001 
3315625000  -4.236719e+001  -9.434560e+001 
3318750000  -4.384374e+001  -9.987617e+001 
3321875000  -4.518862e+001  -9.945913e+001 
3325000000  -4.534740e+001  -9.446364e+001 
3328125000  -4.406692e+001  -9.971694e+001 
3331250000  -4.231432e+001  -9.944915e+001 
3334375000  -4.027911e+001  -1.178444e+002 
3337500000  -4.089827e+001  -1.425466e+002 
3340625000  -4.271193e+001  -1.524351e+002 
3343750000  -4.437650e+001  -1.536165e+002 
3346875000  -4.405155e+001  -1.564014e+002 
3350000000  -4.359450e+001  -1.619652e+002 
3353125000  -4.381142e+001  -1.706652e+002 
3356250000  -4.330266e+001  -1.794070e+002 
3359375000  -4.410899e+001  1.652310e+002 
3362500000  -4.504408e+001  1.581171e+002 
3365625000  -4.537924e+001  1.508814e+002 
3368750000  -4.653070e+001  1.447299e+002 
3371875000  -4.664172e+001  1.420017e+002 
3375000000  -4.822972e+001  1.320454e+002 
3378125000  -4.872240e+001  1.323019e+002 
3381250000  -5.105548e+001  1.392039e+002 
3384375000  -4.707119e+001  1.487705e+002 
3387500000  -4.498399e+001  1.266652e+002 
3390625000  -4.661651e+001  1.038218e+002 
3393750000  -4.742226e+001  1.028755e+002 
3396875000  -4.668811e+001  1.001060e+002 
3400000000  -4.592243e+001  8.621695e+001 
3403125000  -4.699069e+001  7.712557e+001 
3406250000  -4.723196e+001  7.166409e+001 
3409375000  -4.733916e+001  6.053463e+001 
3412500000  -4.799770e+001  5.163225e+001 
3415625000  -4.850477e+001  4.821928e+001 
3418750000  -4.846959e+001  4.229884e+001 
3421875000  -4.939367e+001  3.866648e+001 
3425000000  -4.778378e+001  3.451495e+001 
3428125000  -4.704874e+001  2.573078e+001 
3431250000  -4.667623e+001  1.461311e+001 
3434375000  -4.683862e+001  2.080528e+000 
3437500000  -4.766101e+001  -5.954124e+000 
3440625000  -4.783677e+001  -1.013283e+001 
3443750000  -4.627060e+001  -1.387109e+001 
3446875000  -4.575608e+001  -2.878200e+001 
3450000000  -4.498321e+001  -4.416422e+001 
3453125000  -4.575212e+001  -6.113808e+001 
3456250000  -4.747214e+001  -6.897752e+001 
3459375000  -4.830539e+001  -7.273900e+001 
3462500000  -4.820237e+001  -7.815903e+001 
3465625000  -4.729403e+001  -8.865712e+001 
3468750000  -4.805722e+001  -9.461951e+001 
3471875000  -4.698272e+001  -1.015659e+002 
3475000000  -4.694958e+001  -1.170608e+002 
3478125000  -4.779298e+001  -1.297707e+002 
3481250000  -4.901321e+001  -1.317499e+002 
3484375000  -4.859124e+001  -1.365920e+002 
3487500000  -4.757130e+001  -1.427594e+002 
3490625000  -4.787718e+001  -1.529881e+002 
3493750000  -4.775247e+001  -1.707753e+002 
3496875000  -4.817671e+001  -1.676187e+002 
3500000000  -4.841290e+001  -1.734701e+002 
3503125000  -4.724566e+001  -1.751413e+002 
3506250000  -4.578556e+001  1.711272e+002 
3509375000  -4.553023e+001  1.477578e+002 
3512500000  -4.598692e+001  1.355685e+002 
3515625000  -4.746362e+001  1.299593e+002 
3518750000  -4.809414e+001  1.276114e+002 
3521875000  -4.817217e+001  1.186002e+002 
3525000000  -4.856477e+001  1.144547e+002 
3528125000  -4.712168e+001  1.180891e+002 
3531250000  -4.658723e+001  1.018615e+002 
3534375000  -4.704903e+001  8.597601e+001 
3537500000  -4.784572e+001  7.766351e+001 
3540625000  -4.896445e+001  7.630415e+001 
3543750000  -4.943838e+001  7.420978e+001 
3546875000  -4.889534e+001  7.982130e+001 
3550000000  -4.659074e+001  7.304297e+001 
3553125000  -4.593982e+001  5.461710e+001 
3556250000  -4.727726e+001  4.576225e+001 
3559375000  -4.656153e+001  4.170708e+001 
3562500000  -4.665559e+001  2.927445e+001 
3565625000  -4.752235e+001  2.166501e+001 
3568750000  -4.797713e+001  2.167503e+001 
3571875000  -4.727129e+001  1.680742e+001 
3575000000  -4.695261e+001  8.396925e+000 
3578125000  -4.770901e+001  8.200054e+000 
3581250000  -4.775996e+001  6.113523e-001 
3584375000  -4.599367e+001  -2.090831e+000 
3587500000  -4.607798e+001  -1.470738e+001 
3590625000  -4.632300e+001  -2.773518e+001 
3593750000  -4.823421e+001  -2.760657e+001 
3596875000  -4.646050e+001  -2.351360e+001 
3600000000  -4.521369e+001  -3.417015e+001 
3603125000  -4.502581e+001  -4.883709e+001 
3606250000  -4.608191e+001  -5.617236e+001 
3609375000  -4.628959e+001  -5.811181e+001 
3612500000  -4.612462e+001  -6.400229e+001 
3615625000  -4.594678e+001  -6.992094e+001 
3618750000  -4.594172e+001  -7.270991e+001 
3621875000  -4.563161e+001  -7.726907e+001 
3625000000  -4.574324e+001  -8.425376e+001 
3628125000  -4.495449e+001  -8.914676e+001 
3631250000  -4.484771e+001  -9.964899e+001 
3634375000  -4.560894e+001  -1.000426e+002 
3637500000  -4.422868e+001  -1.031641e+002 
3640625000  -4.348758e+001  -1.083033e+002 
3643750000  -4.324087e+001  -1.198234e+002 
3646875000  -4.348914e+001  -1.303660e+002 
3650000000  -4.368865e+001  -1.346672e+002 
3653125000  -4.328943e+001  -1.422459e+002 
3656250000  -4.409089e+001  -1.518369e+002 
3659375000  -4.374643e+001  -1.524648e+002 
3662500000  -4.331305e+001  -1.607267e+002 
3665625000  -4.331425e+001  -1.635834e+002 
3668750000  -4.207819e+001  -1.701511e+002 
3671875000  -4.158167e+001  1.757709e+002 
3675000000  -4.235805e+001  1.655865e+002 
3678125000  -4.290240e+001  1.616875e+002 
3681250000  -4.234900e+001  1.546393e+002 
3684375000  -4.301932e+001  1.475553e+002 
3687500000  -4.312574e+001  1.386290e+002 
3690625000  -4.347914e+001  1.319391e+002 
3693750000  -4.465049e+001  1.314796e+002 
3696875000  -4.410551e+001  1.292967e+002 
3700000000  -4.289715e+001  1.205653e+002 
3703125000  -4.353146e+001  1.114166e+002 
3706250000  -4.435808e+001  1.095801e+002 
3709375000  -4.367148e+001  1.098544e+002 
3712500000  -4.294308e+001  1.048187e+002 
3715625000  -4.166700e+001  9.497554e+001 
3718750000  -4.181396e+001  8.536465e+001 
3721875000  -4.171523e+001  7.699189e+001 
3725000000  -4.236955e+001  6.819946e+001 
3728125000  -4.263989e+001  6.458392e+001 
3731250000  -4.197475e+001  5.876467e+001 
3734375000  -4.185255e+001  5.008649e+001 
3737500000  -4.243833e+001  4.458232e+001 
3740625000  -4.274031e+001  3.556290e+001 
3743750000  -4.236845e+001  2.937134e+001 
3746875000  -4.336087e+001  2.573578e+001 
3750000000  -4.342335e+001  1.885441e+001 
3753125000  -4.353903e+001  1.633276e+001 
3756250000  -4.362429e+001  1.273720e+001 
3759375000  -4.335074e+001  7.237162e+000 
3762500000  -4.330929e+001  2.700132e+000 
3765625000  -4.384029e+001  -3.067315e+000 
3768750000  -4.333075e+001  -2.065325e+000 
3771875000  -4.217195e+001  -9.670311e+000 
3775000000  -4.229534e+001  -2.159333e+001 
3778125000  -4.274687e+001  -2.740695e+001 
3781250000  -4.262611e+001  -3.219257e+001 
3784375000  -4.229980e+001  -3.666333e+001 
3787500000  -4.269028e+001  -4.222597e+001 
3790625000  -4.260917e+001  -5.344625e+001 
3793750000  -4.305387e+001  -5.694002e+001 
3796875000  -4.179552e+001  -6.148881e+001 
3800000000  -4.054030e+001  -6.865602e+001 
3803125000  -4.197641e+001  -7.956421e+001 
3806250000  -4.254930e+001  -8.606030e+001 
3809375000  -4.149715e+001  -8.963724e+001 
3812500000  -4.178621e+001  -1.014589e+002 
3815625000  -4.289206e+001  -1.124652e+002 
3818750000  -4.414735e+001  -1.106024e+002 
3821875000  -4.361932e+001  -9.971844e+001 
3825000000  -4.134805e+001  -1.045441e+002 
3828125000  -4.036238e+001  -1.257813e+002 
3831250000  -4.128196e+001  -1.426465e+002 
3834375000  -4.370531e+001  -1.416433e+002 
3837500000  -4.401625e+001  -1.389126e+002 
3840625000  -4.227898e+001  -1.452939e+002 
3843750000  -4.147412e+001  -1.608465e+002 
3846875000  -4.364192e+001  -1.671786e+002 
3850000000  -4.393101e+001  -1.628208e+002 
3853125000  -4.376494e+001  -1.641449e+002 
3856250000  -4.345376e+001  -1.715159e+002 
3859375000  -4.204620e+001  1.785073e+002 
3862500000  -4.208782e+001  1.683629e+002 
3865625000  -4.277298e+001  1.631871e+002 
3868750000  -4.212060e+001  1.613514e+002 
3871875000  -4.171360e+001  1.510844e+002 
3875000000  -4.218414e+001  1.413521e+002 
3878125000  -4.347622e+001  1.399366e+002 
3881250000  -4.350352e+001  1.375445e+002 
3884375000  -4.256585e+001  1.253000e+002 
3887500000  -4.324174e+001  1.202087e+002 
3890625000  -4.366359e+001  1.200845e+002 
3893750000  -4.426195e+001  1.132783e+002 
3896875000  -4.441512e+001  1.107979e+002 
3900000000  -4.460229e+001  1.046321e+002 
3903125000  -4.366242e+001  9.921261e+001 
3906250000  -4.324468e+001  9.663478e+001 
3909375000  -4.258940e+001  9.124067e+001 
3912500000  -4.332271e+001  7.773619e+001 
3915625000  -4.504785e+001  7.572346e+001 
3918750000  -4.473316e+001  7.688866e+001 
3921875000  -4.379687e+001  7.195490e+001 
3925000000  -4.289540e+001  6.534634e+001 
3928125000  -4.254885e+001  5.487561e+001 
3931250000  -4.396980e+001  4.716028e+001 
3934375000  -4.397149e+001  4.802951e+001 
3937500000  -4.472282e+001  4.439893e+001 
3940625000  -4.420387e+001  3.961991e+001 
3943750000  -4.357545e+001  3.834317e+001 
3946875000  -4.274349e+001  2.883098e+001 
3950000000  -4.384703e+001  2.154729e+001 
3953125000  -4.467126e+001  1.920268e+001 
3956250000  -4.258352e+001  2.047395e+001 
3959375000  -4.177965e+001  1.266923e+001 
3962500000  -4.125542e+001  2.280867e+000 
3965625000  -4.174840e+001  -1.019966e+001 
3968750000  -4.220124e+001  -1.683057e+001 
3971875000  -4.235009e+001  -2.473433e+001 
3975000000  -4.211748e+001  -2.672379e+001 
3978125000  -4.224214e+001  -3.415003e+001 
3981250000  -4.191317e+001  -4.207061e+001 
3984375000  -4.236671e+001  -4.967662e+001 
3987500000  -4.322932e+001  -5.210645e+001 
3990625000  -4.312597e+001  -5.619452e+001 
3993750000  -4.271605e+001  -6.300339e+001 
3996875000  -4.286048e+001  -6.952283e+001 
4000000000  -4.394365e+001  -7.461649e+001 
4003125000  -4.401225e+001  -7.297987e+001 
4006250000  -4.201657e+001  -7.897289e+001 
4009375000  -4.147093e+001  -9.687743e+001 
4012500000  -4.281129e+001  -1.058585e+002 
4015625000  -4.382959e+001  -1.069151e+002 
4018750000  -4.361633e+001  -1.083634e+002 
4021875000  -4.300215e+001  -1.171720e+002 
4025000000  -4.279152e+001  -1.220000e+002 
4028125000  -4.343032e+001  -1.329564e+002 
4031250000  -4.396661e+001  -1.365135e+002 
4034375000  -4.380003e+001  -1.392221e+002 
4037500000  -4.411813e+001  -1.435141e+002 
4040625000  -4.412984e+001  -1.490847e+002 
4043750000  -4.443042e+001  -1.512195e+002 
4046875000  -4.428582e+001  -1.578700e+002 
4050000000  -4.422514e+001  -1.664202e+002 
4053125000  -4.534756e+001  -1.678613e+002 
4056250000  -4.555980e+001  -1.634212e+002 
4059375000  -4.380557e+001  -1.665841e+002 
4062500000  -4.345234e+001  -1.742126e+002 
4065625000  -4.370047e+001  1.798244e+002 
4068750000  -4.320573e+001  1.694555e+002 
4071875000  -4.237400e+001  1.583771e+002 
4075000000  -4.383228e+001  1.537582e+002 
4078125000  -4.419019e+001  1.500710e+002 
4081250000  -4.333987e+001  1.449580e+002 
4084375000  -4.328067e+001  1.341535e+002 
4087500000  -4.396044e+001  1.261211e+002 
4090625000  -4.464333e+001  1.266973e+002 
4093750000  -4.440754e+001  1.246415e+002 
4096875000  -4.444821e+001  1.142405e+002 
4100000000  -4.511870e+001  1.088163e+002 
4103125000  -4.570646e+001  1.121223e+002 
4106250000  -4.535964e+001  1.147865e+002 
4109375000  -4.418963e+001  1.086102e+002 
4112500000  -4.395449e+001  9.938512e+001 
4115625000  -4.432374e+001  9.173215e+001 
4118750000  -4.374286e+001  8.668815e+001 
4121875000  -4.354136e+001  8.167817e+001 
4125000000  -4.461728e+001  7.598152e+001 
4128125000  -4.517894e+001  7.908733e+001 
4131250000  -4.349296e+001  7.947133e+001 
4134375000  -4.170459e+001  6.993810e+001 
4137500000  -4.170972e+001  4.850090e+001 
4140625000  -4.403624e+001  4.463945e+001 
4143750000  -4.428883e+001  4.754401e+001 
4146875000  -4.356240e+001  4.852803e+001 
4150000000  -4.244307e+001  3.814422e+001 
4153125000  -4.352094e+001  2.853679e+001 
4156250000  -4.409115e+001  2.664150e+001 
4159375000  -4.389883e+001  2.651834e+001 
4162500000  -4.209576e+001  2.354140e+001 
4165625000  -4.171555e+001  1.569255e+001 
4168750000  -4.120868e+001  5.031166e+000 
4171875000  -4.091548e+001  -6.001158e+000 
4175000000  -4.174708e+001  -1.663175e+001 
4178125000  -4.230341e+001  -2.023160e+001 
4181250000  -4.201119e+001  -2.478654e+001 
4184375000  -4.221304e+001  -3.200820e+001 
4187500000  -4.240677e+001  -3.950809e+001 
4190625000  -4.271299e+001  -4.746922e+001 
4193750000  -4.417998e+001  -5.138559e+001 
4196875000  -4.477900e+001  -5.479712e+001 
4200000000  -4.615738e+001  -4.916639e+001 
4203125000  -4.467216e+001  -3.965318e+001 
4206250000  -4.117480e+001  -4.999582e+001 
4209375000  -4.107548e+001  -7.304226e+001 
4212500000  -4.367703e+001  -8.310826e+001 
4215625000  -4.399213e+001  -7.531383e+001 
4218750000  -4.243171e+001  -7.590211e+001 
4221875000  -4.089196e+001  -8.533718e+001 
4225000000  -4.208817e+001  -9.735915e+001 
4228125000  -4.224353e+001  -9.689277e+001 
4231250000  -4.097465e+001  -1.036536e+002 
4234375000  -4.071907e+001  -1.173528e+002 
4237500000  -4.068489e+001  -1.214689e+002 
4240625000  -4.102761e+001  -1.314214e+002 
4243750000  -4.199686e+001  -1.398127e+002 
4246875000  -4.320302e+001  -1.419521e+002 
4250000000  -4.275876e+001  -1.410519e+002 
4253125000  -4.257176e+001  -1.458241e+002 
4256250000  -4.266321e+001  -1.513222e+002 
4259375000  -4.208673e+001  -1.538986e+002 
4262500000  -4.235359e+001  -1.620723e+002 
4265625000  -4.195113e+001  -1.647827e+002 
4268750000  -4.105860e+001  -1.690264e+002 
4271875000  -4.053461e+001  1.795258e+002 
4275000000  -4.017107e+001  1.661895e+002 
4278125000  -4.133612e+001  1.584310e+002 
4281250000  -4.232384e+001  1.531460e+002 
4284375000  -4.195573e+001  1.486194e+002 
4287500000  -4.378265e+001  1.495208e+002 
4290625000  -4.353561e+001  1.525335e+002 
4293750000  -4.148860e+001  1.533517e+002 
4296875000  -4.052174e+001  1.383839e+002 
4300000000  -4.100765e+001  1.298390e+002 
4303125000  -4.185609e+001  1.294633e+002 
4306250000  -4.080952e+001  1.271808e+002 
4309375000  -4.016367e+001  1.196508e+002 
4312500000  -3.978979e+001  1.046420e+002 
4315625000  -4.016167e+001  9.726682e+001 
4318750000  -4.066011e+001  9.123389e+001 
4321875000  -4.042883e+001  8.856419e+001 
4325000000  -3.999601e+001  8.752676e+001 
4328125000  -3.946199e+001  7.500983e+001 
4331250000  -3.957032e+001  6.186398e+001 
4334375000  -4.065083e+001  5.474384e+001 
4337500000  -4.203822e+001  5.377424e+001 
4340625000  -4.223468e+001  5.475512e+001 
4343750000  -4.096737e+001  5.030399e+001 
4346875000  -4.106182e+001  3.970379e+001 
4350000000  -4.089892e+001  2.930017e+001 
4353125000  -4.179652e+001  2.111934e+001 
4356250000  -4.409724e+001  2.809495e+001 
4359375000  -4.257586e+001  3.999569e+001 
4362500000  -3.955758e+001  2.969872e+001 
4365625000  -3.914215e+001  8.686718e+000 
4368750000  -4.055085e+001  -1.886078e+000 
4371875000  -4.088853e+001  -4.123116e+000 
4375000000  -4.011118e+001  -8.739826e+000 
4378125000  -4.043372e+001  -1.478098e+001 
4381250000  -4.060033e+001  -2.585007e+001 
4384375000  -4.060115e+001  -3.254553e+001 
4387500000  -4.133506e+001  -3.847683e+001 
4390625000  -4.240407e+001  -4.266793e+001 
4393750000  -4.150018e+001  -4.015318e+001 
4396875000  -4.097548e+001  -4.866966e+001 
4400000000  -4.054865e+001  -5.615302e+001 
4403125000  -4.127683e+001  -6.530765e+001 
4406250000  -4.216131e+001  -7.019084e+001 
4409375000  -4.276311e+001  -7.601530e+001 
4412500000  -4.343103e+001  -7.873703e+001 
4415625000  -4.295463e+001  -7.682622e+001 
4418750000  -4.151239e+001  -7.541772e+001 
