!Agilent Technologies,E8363B,MY43030201,A.06.04.32
!Agilent E8363B: A.06.04.32
!Date: Tuesday, November 11, 2014 21:51:12
!Correction: S21(Response(S21)) 
!S1P File: Measurement: S21:
# Hz S  dB   R 50
3000000000  -4.367216e+001  -1.626009e+002 
3003125000  -4.542229e+001  -1.675046e+002 
3006250000  -4.538942e+001  -1.688844e+002 
3009375000  -4.596667e+001  -1.645604e+002 
3012500000  -4.489717e+001  -1.719243e+002 
3015625000  -4.478744e+001  -1.779089e+002 
3018750000  -4.541540e+001  -1.790797e+002 
3021875000  -4.388717e+001  -1.790074e+002 
3025000000  -4.287646e+001  1.758427e+002 
3028125000  -4.163562e+001  1.648948e+002 
3031250000  -4.098573e+001  1.510831e+002 
3034375000  -4.085798e+001  1.368987e+002 
3037500000  -4.157463e+001  1.252882e+002 
3040625000  -4.300940e+001  1.204181e+002 
3043750000  -4.342132e+001  1.126694e+002 
3046875000  -4.400168e+001  1.062028e+002 
3050000000  -4.531548e+001  1.017541e+002 
3053125000  -4.475035e+001  1.048293e+002 
3056250000  -4.495961e+001  1.084538e+002 
3059375000  -4.396224e+001  1.042692e+002 
3062500000  -4.248407e+001  9.759222e+001 
3065625000  -4.214100e+001  8.903119e+001 
3068750000  -4.198566e+001  8.018844e+001 
3071875000  -4.196344e+001  7.822305e+001 
3075000000  -4.118491e+001  6.953886e+001 
3078125000  -4.112422e+001  6.230301e+001 
3081250000  -4.141580e+001  5.401514e+001 
3084375000  -4.049425e+001  5.021761e+001 
3087500000  -4.058257e+001  4.257907e+001 
3090625000  -3.996202e+001  2.990444e+001 
3093750000  -4.101591e+001  2.016463e+001 
3096875000  -4.136966e+001  1.562463e+001 
3100000000  -4.114127e+001  1.163088e+001 
3103125000  -4.134139e+001  5.967914e+000 
3106250000  -4.097520e+001  4.704814e-001 
3109375000  -4.118309e+001  -5.591217e+000 
3112500000  -4.080802e+001  -1.201581e+001 
3115625000  -4.093850e+001  -1.600730e+001 
3118750000  -4.066364e+001  -2.231541e+001 
3121875000  -4.032149e+001  -3.465022e+001 
3125000000  -4.232103e+001  -3.825735e+001 
3128125000  -4.191319e+001  -3.225119e+001 
3131250000  -3.936681e+001  -4.017744e+001 
3134375000  -3.890461e+001  -5.825621e+001 
3137500000  -3.966539e+001  -7.129423e+001 
3140625000  -4.112102e+001  -7.472204e+001 
3143750000  -4.164265e+001  -8.001212e+001 
3146875000  -4.114956e+001  -7.834358e+001 
3150000000  -4.044413e+001  -8.337369e+001 
3153125000  -4.053205e+001  -9.275933e+001 
3156250000  -4.144172e+001  -9.027209e+001 
3159375000  -3.902304e+001  -9.347205e+001 
3162500000  -3.763318e+001  -1.103653e+002 
3165625000  -3.877706e+001  -1.248151e+002 
3168750000  -3.896021e+001  -1.251853e+002 
3171875000  -3.854413e+001  -1.345581e+002 
3175000000  -3.911328e+001  -1.439947e+002 
3178125000  -3.868208e+001  -1.462700e+002 
3181250000  -3.809984e+001  -1.552554e+002 
3184375000  -3.783179e+001  -1.679471e+002 
3187500000  -3.918488e+001  1.768046e+002 
3190625000  -4.121822e+001  1.699016e+002 
3193750000  -4.115572e+001  1.730304e+002 
3196875000  -4.112744e+001  1.734641e+002 
3200000000  -3.986567e+001  1.682504e+002 
3203125000  -3.972366e+001  1.580498e+002 
3206250000  -3.983568e+001  1.501983e+002 
3209375000  -3.941034e+001  1.420853e+002 
3212500000  -3.992103e+001  1.347498e+002 
3215625000  -3.959901e+001  1.316938e+002 
3218750000  -4.030432e+001  1.192046e+002 
3221875000  -4.057860e+001  1.118579e+002 
3225000000  -4.020934e+001  1.080160e+002 
3228125000  -4.103944e+001  9.946032e+001 
3231250000  -4.155037e+001  9.573779e+001 
3234375000  -4.109291e+001  9.260438e+001 
3237500000  -4.085644e+001  9.012420e+001 
3240625000  -4.016538e+001  8.176152e+001 
3243750000  -4.042221e+001  7.103209e+001 
3246875000  -4.072440e+001  6.222615e+001 
3250000000  -4.106649e+001  5.739804e+001 
3253125000  -4.122519e+001  5.309229e+001 
3256250000  -4.021669e+001  4.354708e+001 
3259375000  -4.099599e+001  3.060531e+001 
3262500000  -4.234274e+001  2.388771e+001 
3265625000  -4.266792e+001  2.893147e+001 
3268750000  -4.240510e+001  2.575754e+001 
3271875000  -4.166454e+001  2.041690e+001 
3275000000  -4.102113e+001  9.942401e+000 
3278125000  -4.191128e+001  2.114545e+000 
3281250000  -4.154726e+001  -2.226244e+000 
3284375000  -4.092000e+001  -9.403200e+000 
3287500000  -4.141432e+001  -1.805743e+001 
3290625000  -4.148820e+001  -2.650554e+001 
3293750000  -4.150882e+001  -3.486726e+001 
3296875000  -4.277182e+001  -3.816211e+001 
3300000000  -4.209748e+001  -4.255903e+001 
3303125000  -4.093663e+001  -4.998040e+001 
3306250000  -4.076610e+001  -6.002932e+001 
3309375000  -4.061827e+001  -7.123232e+001 
3312500000  -4.107746e+001  -8.811247e+001 
3315625000  -4.252627e+001  -9.433990e+001 
3318750000  -4.414518e+001  -9.922668e+001 
3321875000  -4.544370e+001  -9.948364e+001 
3325000000  -4.517986e+001  -9.788922e+001 
3328125000  -4.396873e+001  -9.976481e+001 
3331250000  -4.204867e+001  -9.893906e+001 
3334375000  -4.014216e+001  -1.169638e+002 
3337500000  -4.058258e+001  -1.421465e+002 
3340625000  -4.293504e+001  -1.521873e+002 
3343750000  -4.444189e+001  -1.529943e+002 
3346875000  -4.411198e+001  -1.575583e+002 
3350000000  -4.358094e+001  -1.624703e+002 
3353125000  -4.403432e+001  -1.715001e+002 
3356250000  -4.322681e+001  1.773916e+002 
3359375000  -4.408279e+001  1.650097e+002 
3362500000  -4.520772e+001  1.575597e+002 
3365625000  -4.555011e+001  1.518916e+002 
3368750000  -4.636947e+001  1.444686e+002 
3371875000  -4.727696e+001  1.400455e+002 
3375000000  -4.842974e+001  1.337658e+002 
3378125000  -4.876582e+001  1.311280e+002 
3381250000  -5.090137e+001  1.394773e+002 
3384375000  -4.700027e+001  1.525563e+002 
3387500000  -4.440214e+001  1.249931e+002 
3390625000  -4.689356e+001  1.050838e+002 
3393750000  -4.750666e+001  1.057802e+002 
3396875000  -4.594047e+001  1.006910e+002 
3400000000  -4.580291e+001  8.694161e+001 
3403125000  -4.706578e+001  8.217253e+001 
3406250000  -4.764094e+001  6.974680e+001 
3409375000  -4.703438e+001  6.194379e+001 
3412500000  -4.816637e+001  5.085641e+001 
3415625000  -4.912915e+001  4.834272e+001 
3418750000  -4.804143e+001  4.513899e+001 
3421875000  -4.923145e+001  3.896159e+001 
3425000000  -4.760447e+001  3.654256e+001 
3428125000  -4.755837e+001  2.795031e+001 
3431250000  -4.706627e+001  1.561616e+001 
3434375000  -4.707296e+001  -4.366350e-001 
3437500000  -4.782207e+001  -4.496214e+000 
3440625000  -4.804309e+001  -1.291372e+001 
3443750000  -4.625543e+001  -1.191742e+001 
3446875000  -4.559192e+001  -2.796179e+001 
3450000000  -4.542394e+001  -4.217475e+001 
3453125000  -4.560087e+001  -6.066818e+001 
3456250000  -4.717974e+001  -7.149476e+001 
3459375000  -4.811728e+001  -7.151794e+001 
3462500000  -4.816768e+001  -7.556918e+001 
3465625000  -4.695172e+001  -9.092270e+001 
3468750000  -4.725645e+001  -9.854250e+001 
3471875000  -4.740748e+001  -1.048823e+002 
3475000000  -4.678328e+001  -1.184075e+002 
3478125000  -4.746267e+001  -1.297382e+002 
3481250000  -4.884604e+001  -1.346667e+002 
3484375000  -4.883583e+001  -1.350151e+002 
3487500000  -4.770371e+001  -1.406623e+002 
3490625000  -4.749835e+001  -1.539126e+002 
3493750000  -4.795407e+001  -1.669081e+002 
3496875000  -4.830337e+001  -1.707653e+002 
3500000000  -4.842261e+001  -1.736918e+002 
3503125000  -4.778574e+001  -1.783399e+002 
3506250000  -4.554620e+001  1.715985e+002 
3509375000  -4.608549e+001  1.511945e+002 
3512500000  -4.681937e+001  1.380919e+002 
3515625000  -4.736438e+001  1.298887e+002 
3518750000  -4.760731e+001  1.297875e+002 
3521875000  -4.788565e+001  1.122805e+002 
3525000000  -4.894880e+001  1.122991e+002 
3528125000  -4.728633e+001  1.143588e+002 
3531250000  -4.656882e+001  1.057814e+002 
3534375000  -4.668440e+001  8.680943e+001 
3537500000  -4.785326e+001  7.828835e+001 
3540625000  -4.933324e+001  7.505184e+001 
3543750000  -4.949222e+001  7.831147e+001 
3546875000  -4.811396e+001  8.129874e+001 
3550000000  -4.675137e+001  7.224858e+001 
3553125000  -4.629249e+001  5.376886e+001 
3556250000  -4.727261e+001  4.402765e+001 
3559375000  -4.651920e+001  4.265765e+001 
3562500000  -4.684454e+001  3.017158e+001 
3565625000  -4.689374e+001  2.593599e+001 
3568750000  -4.755400e+001  2.349200e+001 
3571875000  -4.715745e+001  1.756763e+001 
3575000000  -4.691164e+001  6.685220e+000 
3578125000  -4.777488e+001  7.265960e+000 
3581250000  -4.774327e+001  2.541266e+000 
3584375000  -4.620134e+001  -3.930913e+000 
3587500000  -4.591782e+001  -1.730519e+001 
3590625000  -4.653438e+001  -2.612495e+001 
3593750000  -4.787202e+001  -2.611082e+001 
3596875000  -4.707373e+001  -2.003801e+001 
3600000000  -4.470625e+001  -3.453032e+001 
3603125000  -4.531534e+001  -4.891026e+001 
3606250000  -4.615340e+001  -5.477068e+001 
3609375000  -4.613536e+001  -5.959189e+001 
3612500000  -4.624071e+001  -6.622149e+001 
3615625000  -4.617381e+001  -6.820562e+001 
3618750000  -4.610186e+001  -7.400984e+001 
3621875000  -4.509123e+001  -7.955033e+001 
3625000000  -4.583480e+001  -8.614857e+001 
3628125000  -4.497585e+001  -8.889009e+001 
3631250000  -4.505449e+001  -1.009322e+002 
3634375000  -4.579927e+001  -9.877589e+001 
3637500000  -4.432215e+001  -1.014990e+002 
3640625000  -4.376267e+001  -1.093578e+002 
3643750000  -4.312795e+001  -1.216756e+002 
3646875000  -4.397210e+001  -1.300875e+002 
3650000000  -4.369911e+001  -1.363590e+002 
3653125000  -4.328735e+001  -1.426612e+002 
3656250000  -4.399618e+001  -1.503929e+002 
3659375000  -4.403207e+001  -1.538714e+002 
3662500000  -4.334467e+001  -1.626956e+002 
3665625000  -4.339091e+001  -1.658397e+002 
3668750000  -4.220030e+001  -1.698664e+002 
3671875000  -4.117908e+001  1.764247e+002 
3675000000  -4.211770e+001  1.651031e+002 
3678125000  -4.254884e+001  1.605673e+002 
3681250000  -4.249404e+001  1.543629e+002 
3684375000  -4.247057e+001  1.481187e+002 
3687500000  -4.288615e+001  1.372183e+002 
3690625000  -4.349050e+001  1.319592e+002 
3693750000  -4.433496e+001  1.319958e+002 
3696875000  -4.390928e+001  1.282641e+002 
3700000000  -4.276266e+001  1.195943e+002 
3703125000  -4.336018e+001  1.126302e+002 
3706250000  -4.448515e+001  1.093914e+002 
3709375000  -4.386177e+001  1.121217e+002 
3712500000  -4.323124e+001  1.040260e+002 
3715625000  -4.162434e+001  9.491543e+001 
3718750000  -4.187909e+001  8.582180e+001 
3721875000  -4.180828e+001  7.564161e+001 
3725000000  -4.227508e+001  6.797366e+001 
3728125000  -4.246396e+001  6.486240e+001 
3731250000  -4.201291e+001  5.606741e+001 
3734375000  -4.185569e+001  5.117937e+001 
3737500000  -4.258547e+001  4.082264e+001 
3740625000  -4.319013e+001  3.526290e+001 
3743750000  -4.265168e+001  2.819042e+001 
3746875000  -4.326602e+001  2.233066e+001 
3750000000  -4.343172e+001  1.946624e+001 
3753125000  -4.358627e+001  1.573129e+001 
3756250000  -4.377966e+001  1.347944e+001 
3759375000  -4.378697e+001  7.162679e+000 
3762500000  -4.371745e+001  1.634546e+000 
3765625000  -4.398975e+001  -6.434234e+000 
3768750000  -4.336379e+001  -2.947229e+000 
3771875000  -4.193655e+001  -9.435680e+000 
3775000000  -4.210982e+001  -2.208874e+001 
3778125000  -4.291736e+001  -2.841863e+001 
3781250000  -4.257454e+001  -3.403128e+001 
3784375000  -4.221580e+001  -3.926133e+001 
3787500000  -4.240038e+001  -4.323372e+001 
3790625000  -4.277039e+001  -5.380757e+001 
3793750000  -4.265500e+001  -5.639745e+001 
3796875000  -4.174062e+001  -6.128994e+001 
3800000000  -4.054325e+001  -6.802822e+001 
3803125000  -4.140272e+001  -7.844681e+001 
3806250000  -4.253539e+001  -8.406355e+001 
3809375000  -4.184421e+001  -9.096802e+001 
3812500000  -4.204721e+001  -1.019280e+002 
3815625000  -4.330350e+001  -1.119234e+002 
3818750000  -4.408627e+001  -1.063812e+002 
3821875000  -4.359797e+001  -1.012425e+002 
3825000000  -4.134235e+001  -1.041410e+002 
3828125000  -4.043484e+001  -1.277405e+002 
3831250000  -4.143245e+001  -1.429045e+002 
3834375000  -4.378650e+001  -1.425888e+002 
3837500000  -4.363128e+001  -1.407878e+002 
3840625000  -4.237322e+001  -1.452183e+002 
3843750000  -4.162588e+001  -1.602573e+002 
3846875000  -4.339321e+001  -1.696652e+002 
3850000000  -4.453364e+001  -1.638461e+002 
3853125000  -4.360474e+001  -1.634582e+002 
3856250000  -4.250721e+001  -1.716624e+002 
3859375000  -4.191970e+001  1.799868e+002 
3862500000  -4.200385e+001  1.687386e+002 
3865625000  -4.287776e+001  1.608649e+002 
3868750000  -4.257835e+001  1.596292e+002 
3871875000  -4.208291e+001  1.525079e+002 
3875000000  -4.209116e+001  1.411157e+002 
3878125000  -4.311689e+001  1.394892e+002 
3881250000  -4.303659e+001  1.365304e+002 
3884375000  -4.222519e+001  1.258284e+002 
3887500000  -4.317686e+001  1.209038e+002 
3890625000  -4.354433e+001  1.136071e+002 
3893750000  -4.384463e+001  1.124724e+002 
3896875000  -4.431514e+001  1.104832e+002 
3900000000  -4.428235e+001  1.042799e+002 
3903125000  -4.382029e+001  9.837156e+001 
3906250000  -4.326879e+001  9.758875e+001 
3909375000  -4.241115e+001  8.671088e+001 
3912500000  -4.352874e+001  7.569750e+001 
3915625000  -4.514942e+001  7.821610e+001 
3918750000  -4.455784e+001  7.748443e+001 
3921875000  -4.381016e+001  7.390221e+001 
3925000000  -4.291705e+001  6.702545e+001 
3928125000  -4.270204e+001  5.648512e+001 
3931250000  -4.364493e+001  4.568719e+001 
3934375000  -4.378446e+001  4.783395e+001 
3937500000  -4.456581e+001  4.213197e+001 
3940625000  -4.464614e+001  4.245857e+001 
3943750000  -4.306226e+001  3.652987e+001 
3946875000  -4.267546e+001  2.663871e+001 
3950000000  -4.389981e+001  2.065070e+001 
3953125000  -4.424953e+001  1.839991e+001 
3956250000  -4.273955e+001  1.823155e+001 
3959375000  -4.179855e+001  1.041909e+001 
3962500000  -4.158088e+001  1.217203e+000 
3965625000  -4.189854e+001  -1.010274e+001 
3968750000  -4.269931e+001  -1.780965e+001 
3971875000  -4.236790e+001  -2.448038e+001 
3975000000  -4.190520e+001  -2.747477e+001 
3978125000  -4.205858e+001  -3.201435e+001 
3981250000  -4.180035e+001  -4.039189e+001 
3984375000  -4.215644e+001  -5.271462e+001 
3987500000  -4.299159e+001  -5.251006e+001 
3990625000  -4.277291e+001  -5.683475e+001 
3993750000  -4.307452e+001  -6.524445e+001 
3996875000  -4.278290e+001  -7.069594e+001 
4000000000  -4.351711e+001  -7.447086e+001 
4003125000  -4.384686e+001  -7.295488e+001 
4006250000  -4.174681e+001  -7.838301e+001 
4009375000  -4.141619e+001  -9.645447e+001 
4012500000  -4.254602e+001  -1.044688e+002 
4015625000  -4.417779e+001  -1.067234e+002 
4018750000  -4.391754e+001  -1.074202e+002 
4021875000  -4.312967e+001  -1.172220e+002 
4025000000  -4.289069e+001  -1.235343e+002 
4028125000  -4.334229e+001  -1.292868e+002 
4031250000  -4.427280e+001  -1.374993e+002 
4034375000  -4.390308e+001  -1.421719e+002 
4037500000  -4.407226e+001  -1.430588e+002 
4040625000  -4.405213e+001  -1.480960e+002 
4043750000  -4.462357e+001  -1.515255e+002 
4046875000  -4.384887e+001  -1.574859e+002 
4050000000  -4.411015e+001  -1.654668e+002 
4053125000  -4.513297e+001  -1.682157e+002 
4056250000  -4.582462e+001  -1.649645e+002 
4059375000  -4.366630e+001  -1.675642e+002 
4062500000  -4.328587e+001  1.799846e+002 
4065625000  -4.334087e+001  1.775891e+002 
4068750000  -4.310995e+001  1.704963e+002 
4071875000  -4.254026e+001  1.599723e+002 
4075000000  -4.329630e+001  1.542756e+002 
4078125000  -4.439197e+001  1.506385e+002 
4081250000  -4.336110e+001  1.456512e+002 
4084375000  -4.291498e+001  1.348265e+002 
4087500000  -4.356901e+001  1.282151e+002 
4090625000  -4.477010e+001  1.250268e+002 
4093750000  -4.416773e+001  1.228619e+002 
4096875000  -4.417712e+001  1.152718e+002 
4100000000  -4.521209e+001  1.095194e+002 
4103125000  -4.592675e+001  1.134577e+002 
4106250000  -4.508743e+001  1.132155e+002 
4109375000  -4.408920e+001  1.075419e+002 
4112500000  -4.398743e+001  9.972861e+001 
4115625000  -4.405508e+001  9.299909e+001 
4118750000  -4.393267e+001  8.874198e+001 
4121875000  -4.361821e+001  7.976707e+001 
4125000000  -4.458091e+001  7.359079e+001 
4128125000  -4.502250e+001  7.634565e+001 
4131250000  -4.375468e+001  7.981228e+001 
4134375000  -4.168935e+001  6.761433e+001 
4137500000  -4.219321e+001  4.687151e+001 
4140625000  -4.425334e+001  4.185113e+001 
4143750000  -4.517928e+001  4.628936e+001 
4146875000  -4.385700e+001  4.675701e+001 
4150000000  -4.268830e+001  3.687142e+001 
4153125000  -4.330325e+001  2.604460e+001 
4156250000  -4.433001e+001  2.208622e+001 
4159375000  -4.377235e+001  2.633566e+001 
4162500000  -4.246671e+001  2.476034e+001 
4165625000  -4.139153e+001  1.569895e+001 
4168750000  -4.088118e+001  4.133676e+000 
4171875000  -4.125308e+001  -8.348237e+000 
4175000000  -4.143012e+001  -1.649414e+001 
4178125000  -4.230083e+001  -2.107991e+001 
4181250000  -4.197646e+001  -2.374142e+001 
4184375000  -4.247541e+001  -3.305721e+001 
4187500000  -4.217979e+001  -4.039837e+001 
4190625000  -4.261387e+001  -4.865991e+001 
4193750000  -4.414202e+001  -5.621757e+001 
4196875000  -4.459007e+001  -5.383623e+001 
4200000000  -4.574210e+001  -5.196265e+001 
4203125000  -4.445220e+001  -4.023727e+001 
4206250000  -4.145586e+001  -5.121103e+001 
4209375000  -4.181058e+001  -7.470369e+001 
4212500000  -4.408705e+001  -8.126056e+001 
4215625000  -4.388348e+001  -7.431912e+001 
4218750000  -4.201880e+001  -7.356986e+001 
4221875000  -4.063013e+001  -8.662292e+001 
4225000000  -4.185135e+001  -9.937761e+001 
4228125000  -4.260246e+001  -9.720508e+001 
4231250000  -4.077496e+001  -1.056409e+002 
4234375000  -4.073446e+001  -1.163945e+002 
4237500000  -4.059434e+001  -1.219059e+002 
4240625000  -4.060649e+001  -1.324436e+002 
4243750000  -4.234508e+001  -1.425933e+002 
4246875000  -4.320063e+001  -1.418720e+002 
4250000000  -4.290944e+001  -1.397259e+002 
4253125000  -4.256185e+001  -1.422641e+002 
4256250000  -4.242366e+001  -1.507942e+002 
4259375000  -4.227276e+001  -1.586713e+002 
4262500000  -4.232471e+001  -1.606657e+002 
4265625000  -4.167484e+001  -1.637295e+002 
4268750000  -4.089513e+001  -1.720781e+002 
4271875000  -4.061445e+001  1.792361e+002 
4275000000  -4.057699e+001  1.681602e+002 
4278125000  -4.100294e+001  1.552953e+002 
4281250000  -4.234301e+001  1.539933e+002 
4284375000  -4.211911e+001  1.501912e+002 
4287500000  -4.358733e+001  1.470198e+002 
4290625000  -4.376107e+001  1.530893e+002 
4293750000  -4.139802e+001  1.549023e+002 
4296875000  -4.069032e+001  1.382923e+002 
4300000000  -4.136837e+001  1.283152e+002 
4303125000  -4.196915e+001  1.282748e+002 
4306250000  -4.081306e+001  1.280745e+002 
4309375000  -3.962996e+001  1.189530e+002 
4312500000  -3.946718e+001  1.049566e+002 
4315625000  -4.016205e+001  9.586658e+001 
4318750000  -4.068434e+001  9.165188e+001 
4321875000  -4.053530e+001  8.956397e+001 
4325000000  -4.009304e+001  8.555558e+001 
4328125000  -3.909637e+001  7.409439e+001 
4331250000  -3.964777e+001  6.190104e+001 
4334375000  -4.076980e+001  5.269388e+001 
4337500000  -4.231282e+001  5.238435e+001 
4340625000  -4.226003e+001  5.509090e+001 
4343750000  -4.110517e+001  4.856475e+001 
4346875000  -4.090892e+001  4.027755e+001 
4350000000  -4.100181e+001  3.054102e+001 
4353125000  -4.184365e+001  2.155487e+001 
4356250000  -4.405878e+001  2.616541e+001 
4359375000  -4.281036e+001  3.768528e+001 
4362500000  -3.918246e+001  2.997488e+001 
4365625000  -3.871990e+001  9.099169e+000 
4368750000  -4.010551e+001  -1.471828e+000 
4371875000  -4.109467e+001  -4.455452e+000 
4375000000  -4.042014e+001  -6.143658e+000 
4378125000  -4.015683e+001  -1.556733e+001 
4381250000  -4.034522e+001  -2.440799e+001 
4384375000  -4.059452e+001  -3.223584e+001 
4387500000  -4.160792e+001  -4.105247e+001 
4390625000  -4.192611e+001  -4.204490e+001 
4393750000  -4.180141e+001  -4.267628e+001 
4396875000  -4.128026e+001  -4.859375e+001 
4400000000  -4.070978e+001  -5.807927e+001 
4403125000  -4.133180e+001  -6.670479e+001 
4406250000  -4.180613e+001  -7.152401e+001 
4409375000  -4.250604e+001  -7.548389e+001 
4412500000  -4.359449e+001  -7.693310e+001 
4415625000  -4.325830e+001  -7.502692e+001 
4418750000  -4.160355e+001  -7.507606e+001 
