!Agilent Technologies,E8363B,MY43030201,A.06.04.32
!Agilent E8363B: A.06.04.32
!Date: Tuesday, November 11, 2014 21:45:24
!Correction: S21(Response(S21)) 
!S1P File: Measurement: S21:
# Hz S  dB   R 50
3000000000  -4.374223e+001  -1.612305e+002 
3003125000  -4.531772e+001  -1.653857e+002 
3006250000  -4.517668e+001  -1.662323e+002 
3009375000  -4.610069e+001  -1.659436e+002 
3012500000  -4.494807e+001  -1.725695e+002 
3015625000  -4.523692e+001  -1.779465e+002 
3018750000  -4.549434e+001  -1.760653e+002 
3021875000  -4.378792e+001  -1.780158e+002 
3025000000  -4.257774e+001  1.755860e+002 
3028125000  -4.164403e+001  1.663430e+002 
3031250000  -4.095348e+001  1.525081e+002 
3034375000  -4.084359e+001  1.379710e+002 
3037500000  -4.146357e+001  1.264035e+002 
3040625000  -4.287150e+001  1.198013e+002 
3043750000  -4.314230e+001  1.121013e+002 
3046875000  -4.418865e+001  1.076109e+002 
3050000000  -4.512531e+001  1.017304e+002 
3053125000  -4.509143e+001  1.079234e+002 
3056250000  -4.482238e+001  1.098557e+002 
3059375000  -4.382431e+001  1.048096e+002 
3062500000  -4.241485e+001  1.002846e+002 
3065625000  -4.209813e+001  8.908766e+001 
3068750000  -4.194098e+001  8.190415e+001 
3071875000  -4.172520e+001  7.957159e+001 
3075000000  -4.119451e+001  7.073985e+001 
3078125000  -4.125810e+001  6.482643e+001 
3081250000  -4.130392e+001  5.654291e+001 
3084375000  -4.047909e+001  5.276011e+001 
3087500000  -4.043226e+001  4.504549e+001 
3090625000  -3.997977e+001  3.055836e+001 
3093750000  -4.103963e+001  2.162999e+001 
3096875000  -4.122359e+001  1.710377e+001 
3100000000  -4.115651e+001  1.243236e+001 
3103125000  -4.141341e+001  7.190689e+000 
3106250000  -4.096788e+001  1.860709e+000 
3109375000  -4.108158e+001  -2.885472e+000 
3112500000  -4.089046e+001  -1.054969e+001 
3115625000  -4.080894e+001  -1.460486e+001 
3118750000  -4.073596e+001  -2.040052e+001 
3121875000  -4.012293e+001  -3.313673e+001 
3125000000  -4.229850e+001  -3.501751e+001 
3128125000  -4.192979e+001  -3.171083e+001 
3131250000  -3.964801e+001  -3.935793e+001 
3134375000  -3.885551e+001  -5.570276e+001 
3137500000  -3.966205e+001  -6.945051e+001 
3140625000  -4.097383e+001  -7.384222e+001 
3143750000  -4.155062e+001  -7.760789e+001 
3146875000  -4.128690e+001  -7.661758e+001 
3150000000  -4.029606e+001  -8.244315e+001 
3153125000  -4.081242e+001  -9.217960e+001 
3156250000  -4.157026e+001  -8.771844e+001 
3159375000  -3.903330e+001  -9.262990e+001 
3162500000  -3.793900e+001  -1.081065e+002 
3165625000  -3.908996e+001  -1.219364e+002 
3168750000  -3.896392e+001  -1.234391e+002 
3171875000  -3.871584e+001  -1.320321e+002 
3175000000  -3.909642e+001  -1.429023e+002 
3178125000  -3.883475e+001  -1.452925e+002 
3181250000  -3.808514e+001  -1.538589e+002 
3184375000  -3.800839e+001  -1.655799e+002 
3187500000  -3.919783e+001  1.782840e+002 
3190625000  -4.106931e+001  1.715370e+002 
3193750000  -4.116099e+001  1.755677e+002 
3196875000  -4.106511e+001  1.749014e+002 
3200000000  -3.979267e+001  1.689756e+002 
3203125000  -3.968737e+001  1.605187e+002 
3206250000  -3.992825e+001  1.522755e+002 
3209375000  -3.947690e+001  1.428348e+002 
3212500000  -4.002865e+001  1.350405e+002 
3215625000  -3.949597e+001  1.339893e+002 
3218750000  -4.022521e+001  1.201389e+002 
3221875000  -4.073899e+001  1.130157e+002 
3225000000  -4.052142e+001  1.081285e+002 
3228125000  -4.106280e+001  1.001156e+002 
3231250000  -4.141559e+001  9.859882e+001 
3234375000  -4.113418e+001  9.454861e+001 
3237500000  -4.109137e+001  8.934532e+001 
3240625000  -4.030812e+001  8.371239e+001 
3243750000  -4.033361e+001  7.057674e+001 
3246875000  -4.066571e+001  6.303289e+001 
3250000000  -4.098216e+001  5.814461e+001 
3253125000  -4.142970e+001  5.426898e+001 
3256250000  -4.075193e+001  4.594046e+001 
3259375000  -4.105891e+001  3.168200e+001 
3262500000  -4.251079e+001  2.753867e+001 
3265625000  -4.271990e+001  2.826863e+001 
3268750000  -4.250841e+001  2.827822e+001 
3271875000  -4.156321e+001  2.104644e+001 
3275000000  -4.103094e+001  1.030384e+001 
3278125000  -4.156730e+001  5.016326e+000 
3281250000  -4.189557e+001  -1.760602e+000 
3284375000  -4.102443e+001  -8.174783e+000 
3287500000  -4.167233e+001  -1.485714e+001 
3290625000  -4.179718e+001  -2.541863e+001 
3293750000  -4.154393e+001  -3.422911e+001 
3296875000  -4.287329e+001  -3.839842e+001 
3300000000  -4.199345e+001  -4.090112e+001 
3303125000  -4.093139e+001  -5.024628e+001 
3306250000  -4.117371e+001  -5.996740e+001 
3309375000  -4.068183e+001  -7.149880e+001 
3312500000  -4.106385e+001  -8.618354e+001 
3315625000  -4.258833e+001  -9.525650e+001 
3318750000  -4.385207e+001  -1.012974e+002 
3321875000  -4.535283e+001  -9.884414e+001 
3325000000  -4.514676e+001  -9.401600e+001 
3328125000  -4.401039e+001  -9.755139e+001 
3331250000  -4.252556e+001  -9.956618e+001 
3334375000  -4.016657e+001  -1.196054e+002 
3337500000  -4.072311e+001  -1.400669e+002 
3340625000  -4.298332e+001  -1.516372e+002 
3343750000  -4.461957e+001  -1.539106e+002 
3346875000  -4.416143e+001  -1.548257e+002 
3350000000  -4.370559e+001  -1.604310e+002 
3353125000  -4.368225e+001  -1.718976e+002 
3356250000  -4.344170e+001  1.778838e+002 
3359375000  -4.456346e+001  1.662429e+002 
3362500000  -4.517088e+001  1.578718e+002 
3365625000  -4.558511e+001  1.514299e+002 
3368750000  -4.655181e+001  1.455614e+002 
3371875000  -4.730462e+001  1.401414e+002 
3375000000  -4.873086e+001  1.347018e+002 
3378125000  -4.952496e+001  1.303678e+002 
3381250000  -5.059493e+001  1.451397e+002 
3384375000  -4.722026e+001  1.518862e+002 
3387500000  -4.480367e+001  1.271751e+002 
3390625000  -4.663623e+001  1.094017e+002 
3393750000  -4.778809e+001  1.053548e+002 
3396875000  -4.664437e+001  9.756853e+001 
3400000000  -4.616499e+001  8.684528e+001 
3403125000  -4.712736e+001  7.927419e+001 
3406250000  -4.738754e+001  6.868962e+001 
3409375000  -4.715185e+001  6.170988e+001 
3412500000  -4.771212e+001  5.224547e+001 
3415625000  -4.885675e+001  4.713471e+001 
3418750000  -4.853666e+001  4.415112e+001 
3421875000  -4.919326e+001  4.187373e+001 
3425000000  -4.768283e+001  3.484322e+001 
3428125000  -4.718176e+001  2.712596e+001 
3431250000  -4.721791e+001  1.236985e+001 
3434375000  -4.702464e+001  2.981572e+000 
3437500000  -4.755511e+001  -6.656679e+000 
3440625000  -4.779449e+001  -6.699262e+000 
3443750000  -4.679787e+001  -1.165477e+001 
3446875000  -4.563905e+001  -2.967475e+001 
3450000000  -4.503937e+001  -4.468675e+001 
3453125000  -4.576759e+001  -5.994905e+001 
3456250000  -4.702944e+001  -7.186218e+001 
3459375000  -4.848242e+001  -7.422665e+001 
3462500000  -4.759068e+001  -7.718252e+001 
3465625000  -4.746749e+001  -8.792256e+001 
3468750000  -4.813971e+001  -9.800401e+001 
3471875000  -4.702641e+001  -1.047271e+002 
3475000000  -4.702590e+001  -1.190043e+002 
3478125000  -4.715348e+001  -1.305312e+002 
3481250000  -4.946988e+001  -1.354344e+002 
3484375000  -4.890004e+001  -1.327039e+002 
3487500000  -4.776535e+001  -1.419621e+002 
3490625000  -4.718516e+001  -1.564075e+002 
3493750000  -4.757529e+001  -1.687530e+002 
3496875000  -4.830231e+001  -1.715831e+002 
3500000000  -4.861230e+001  -1.723192e+002 
3503125000  -4.671568e+001  -1.769818e+002 
3506250000  -4.526322e+001  1.719931e+002 
3509375000  -4.574615e+001  1.512281e+002 
3512500000  -4.608594e+001  1.385592e+002 
3515625000  -4.725751e+001  1.294852e+002 
3518750000  -4.791453e+001  1.294900e+002 
3521875000  -4.791182e+001  1.165822e+002 
3525000000  -4.936505e+001  1.155848e+002 
3528125000  -4.752269e+001  1.179925e+002 
3531250000  -4.650850e+001  1.038287e+002 
3534375000  -4.687899e+001  9.010945e+001 
3537500000  -4.738412e+001  7.843538e+001 
3540625000  -4.878878e+001  7.724697e+001 
3543750000  -4.913096e+001  7.740388e+001 
3546875000  -4.849255e+001  8.489269e+001 
3550000000  -4.683930e+001  7.321820e+001 
3553125000  -4.568073e+001  5.445170e+001 
3556250000  -4.731062e+001  4.561620e+001 
3559375000  -4.619452e+001  4.346636e+001 
3562500000  -4.650053e+001  3.018880e+001 
3565625000  -4.736037e+001  2.543414e+001 
3568750000  -4.756477e+001  2.322635e+001 
3571875000  -4.708357e+001  1.757136e+001 
3575000000  -4.716965e+001  1.215840e+001 
3578125000  -4.774304e+001  9.745193e+000 
3581250000  -4.741619e+001  3.443882e+000 
3584375000  -4.581171e+001  -4.357264e+000 
3587500000  -4.576991e+001  -1.471342e+001 
3590625000  -4.634584e+001  -2.529844e+001 
3593750000  -4.792200e+001  -2.501624e+001 
3596875000  -4.639915e+001  -2.092039e+001 
3600000000  -4.481079e+001  -3.275245e+001 
3603125000  -4.509050e+001  -4.839812e+001 
3606250000  -4.598915e+001  -5.290253e+001 
3609375000  -4.621540e+001  -5.421359e+001 
3612500000  -4.607507e+001  -6.556257e+001 
3615625000  -4.616278e+001  -6.760077e+001 
3618750000  -4.619997e+001  -7.033941e+001 
3621875000  -4.544132e+001  -8.076146e+001 
3625000000  -4.583713e+001  -8.076292e+001 
3628125000  -4.502361e+001  -8.840730e+001 
3631250000  -4.503969e+001  -9.718427e+001 
3634375000  -4.555283e+001  -9.838708e+001 
3637500000  -4.417478e+001  -1.002654e+002 
3640625000  -4.374409e+001  -1.048443e+002 
3643750000  -4.293351e+001  -1.178819e+002 
3646875000  -4.356585e+001  -1.269828e+002 
3650000000  -4.372646e+001  -1.340434e+002 
3653125000  -4.321799e+001  -1.414846e+002 
3656250000  -4.397406e+001  -1.469675e+002 
3659375000  -4.392304e+001  -1.519152e+002 
3662500000  -4.341228e+001  -1.601289e+002 
3665625000  -4.310214e+001  -1.632900e+002 
3668750000  -4.176012e+001  -1.689613e+002 
3671875000  -4.144515e+001  1.789913e+002 
3675000000  -4.212523e+001  1.675418e+002 
3678125000  -4.264190e+001  1.628209e+002 
3681250000  -4.228748e+001  1.572825e+002 
3684375000  -4.271370e+001  1.478082e+002 
3687500000  -4.306564e+001  1.411566e+002 
3690625000  -4.344802e+001  1.350455e+002 
3693750000  -4.467626e+001  1.334160e+002 
3696875000  -4.375057e+001  1.305882e+002 
3700000000  -4.318866e+001  1.233881e+002 
3703125000  -4.371040e+001  1.135253e+002 
3706250000  -4.440999e+001  1.115841e+002 
3709375000  -4.382457e+001  1.135498e+002 
3712500000  -4.297326e+001  1.035935e+002 
3715625000  -4.168264e+001  9.662957e+001 
3718750000  -4.158188e+001  8.783163e+001 
3721875000  -4.171393e+001  7.767606e+001 
3725000000  -4.257210e+001  6.983227e+001 
3728125000  -4.240480e+001  6.882225e+001 
3731250000  -4.207536e+001  5.749800e+001 
3734375000  -4.186991e+001  5.353109e+001 
3737500000  -4.273934e+001  4.469496e+001 
3740625000  -4.303975e+001  3.604945e+001 
3743750000  -4.293178e+001  3.344722e+001 
3746875000  -4.362280e+001  2.447494e+001 
3750000000  -4.377473e+001  2.103820e+001 
3753125000  -4.405761e+001  1.914508e+001 
3756250000  -4.363030e+001  1.499227e+001 
3759375000  -4.369871e+001  1.088412e+001 
3762500000  -4.391965e+001  3.502384e+000 
3765625000  -4.393280e+001  -1.075814e+000 
3768750000  -4.352946e+001  -8.977011e-001 
3771875000  -4.202234e+001  -6.282301e+000 
3775000000  -4.213176e+001  -2.071657e+001 
3778125000  -4.265670e+001  -2.324534e+001 
3781250000  -4.241162e+001  -3.046484e+001 
3784375000  -4.243573e+001  -3.664702e+001 
3787500000  -4.243840e+001  -3.943600e+001 
3790625000  -4.280592e+001  -5.129169e+001 
3793750000  -4.256669e+001  -5.189426e+001 
3796875000  -4.194731e+001  -5.833381e+001 
3800000000  -4.100072e+001  -6.788170e+001 
3803125000  -4.175588e+001  -7.826074e+001 
3806250000  -4.238704e+001  -8.179031e+001 
3809375000  -4.189244e+001  -8.823705e+001 
3812500000  -4.175582e+001  -9.989228e+001 
3815625000  -4.320082e+001  -1.090828e+002 
3818750000  -4.438083e+001  -1.054469e+002 
3821875000  -4.374487e+001  -9.752140e+001 
3825000000  -4.159928e+001  -1.054796e+002 
3828125000  -4.045867e+001  -1.246863e+002 
3831250000  -4.173583e+001  -1.391332e+002 
3834375000  -4.363617e+001  -1.414996e+002 
3837500000  -4.397055e+001  -1.366993e+002 
3840625000  -4.245780e+001  -1.449356e+002 
3843750000  -4.183564e+001  -1.591380e+002 
3846875000  -4.364423e+001  -1.644352e+002 
3850000000  -4.408002e+001  -1.601671e+002 
3853125000  -4.320248e+001  -1.601873e+002 
3856250000  -4.302074e+001  -1.706560e+002 
3859375000  -4.207778e+001  -1.768744e+002 
3862500000  -4.187987e+001  1.705166e+002 
3865625000  -4.275692e+001  1.631126e+002 
3868750000  -4.205311e+001  1.633752e+002 
3871875000  -4.169849e+001  1.522059e+002 
3875000000  -4.222736e+001  1.418772e+002 
3878125000  -4.337474e+001  1.386160e+002 
3881250000  -4.335698e+001  1.378561e+002 
3884375000  -4.278907e+001  1.281548e+002 
3887500000  -4.325874e+001  1.218205e+002 
3890625000  -4.398242e+001  1.187953e+002 
3893750000  -4.433416e+001  1.162606e+002 
3896875000  -4.443958e+001  1.127636e+002 
3900000000  -4.438001e+001  1.062127e+002 
3903125000  -4.365898e+001  1.035978e+002 
3906250000  -4.319149e+001  9.892091e+001 
3909375000  -4.294493e+001  9.018078e+001 
3912500000  -4.430005e+001  8.072961e+001 
3915625000  -4.441891e+001  8.107156e+001 
3918750000  -4.499435e+001  8.007788e+001 
3921875000  -4.435616e+001  7.415324e+001 
3925000000  -4.305418e+001  6.746412e+001 
3928125000  -4.289220e+001  5.652264e+001 
3931250000  -4.347521e+001  4.972146e+001 
3934375000  -4.411206e+001  4.812167e+001 
3937500000  -4.479017e+001  4.612142e+001 
3940625000  -4.497393e+001  4.452012e+001 
3943750000  -4.355122e+001  3.729605e+001 
3946875000  -4.245197e+001  3.088898e+001 
3950000000  -4.406641e+001  2.230207e+001 
3953125000  -4.422613e+001  1.951163e+001 
3956250000  -4.289790e+001  1.946275e+001 
3959375000  -4.166020e+001  1.589460e+001 
3962500000  -4.160063e+001  2.534467e+000 
3965625000  -4.182336e+001  -8.156435e+000 
3968750000  -4.273135e+001  -1.363130e+001 
3971875000  -4.254635e+001  -2.109629e+001 
3975000000  -4.227240e+001  -2.527222e+001 
3978125000  -4.218540e+001  -3.230273e+001 
3981250000  -4.186072e+001  -3.847141e+001 
3984375000  -4.232833e+001  -4.668938e+001 
3987500000  -4.321059e+001  -5.300080e+001 
3990625000  -4.319304e+001  -5.500795e+001 
3993750000  -4.307005e+001  -6.198951e+001 
3996875000  -4.274771e+001  -6.907353e+001 
4000000000  -4.415605e+001  -7.016148e+001 
4003125000  -4.372333e+001  -7.292227e+001 
4006250000  -4.227232e+001  -7.877526e+001 
4009375000  -4.150148e+001  -9.226476e+001 
4012500000  -4.305330e+001  -1.011199e+002 
4015625000  -4.407930e+001  -1.044193e+002 
4018750000  -4.394113e+001  -1.069415e+002 
4021875000  -4.311241e+001  -1.146839e+002 
4025000000  -4.342481e+001  -1.217664e+002 
4028125000  -4.325210e+001  -1.270484e+002 
4031250000  -4.391616e+001  -1.343725e+002 
4034375000  -4.429782e+001  -1.385292e+002 
4037500000  -4.443606e+001  -1.399740e+002 
4040625000  -4.452038e+001  -1.461508e+002 
4043750000  -4.439497e+001  -1.514745e+002 
4046875000  -4.438244e+001  -1.575341e+002 
4050000000  -4.438240e+001  -1.622784e+002 
4053125000  -4.560066e+001  -1.646351e+002 
4056250000  -4.573351e+001  -1.661362e+002 
4059375000  -4.389459e+001  -1.653922e+002 
4062500000  -4.353260e+001  -1.716811e+002 
4065625000  -4.351812e+001  -1.778528e+002 
4068750000  -4.317970e+001  1.726494e+002 
4071875000  -4.288956e+001  1.619843e+002 
4075000000  -4.360899e+001  1.538255e+002 
4078125000  -4.421962e+001  1.519652e+002 
4081250000  -4.362116e+001  1.455267e+002 
4084375000  -4.343495e+001  1.394177e+002 
4087500000  -4.440405e+001  1.293027e+002 
4090625000  -4.467081e+001  1.302722e+002 
4093750000  -4.451359e+001  1.266169e+002 
4096875000  -4.429635e+001  1.192903e+002 
4100000000  -4.521655e+001  1.111175e+002 
4103125000  -4.578531e+001  1.183083e+002 
4106250000  -4.511968e+001  1.146631e+002 
4109375000  -4.413610e+001  1.098071e+002 
4112500000  -4.433485e+001  1.018461e+002 
4115625000  -4.403004e+001  9.593713e+001 
4118750000  -4.413110e+001  9.364075e+001 
4121875000  -4.347761e+001  8.348334e+001 
4125000000  -4.480807e+001  7.528313e+001 
4128125000  -4.512724e+001  8.095015e+001 
4131250000  -4.340892e+001  8.314661e+001 
4134375000  -4.201497e+001  7.113715e+001 
4137500000  -4.213973e+001  4.986374e+001 
4140625000  -4.447355e+001  4.482966e+001 
4143750000  -4.492059e+001  4.953975e+001 
4146875000  -4.393034e+001  4.855718e+001 
4150000000  -4.270123e+001  4.178309e+001 
4153125000  -4.326804e+001  2.971395e+001 
4156250000  -4.387441e+001  2.828902e+001 
4159375000  -4.382295e+001  2.797661e+001 
4162500000  -4.264811e+001  2.992456e+001 
4165625000  -4.156313e+001  1.697438e+001 
4168750000  -4.151243e+001  6.950946e+000 
4171875000  -4.115166e+001  -4.376657e+000 
4175000000  -4.174491e+001  -1.342502e+001 
4178125000  -4.267438e+001  -1.712744e+001 
4181250000  -4.195910e+001  -2.394530e+001 
4184375000  -4.245766e+001  -3.001242e+001 
4187500000  -4.250904e+001  -3.443277e+001 
4190625000  -4.268634e+001  -4.526606e+001 
4193750000  -4.397292e+001  -4.960043e+001 
4196875000  -4.489896e+001  -5.268831e+001 
4200000000  -4.609986e+001  -4.434750e+001 
4203125000  -4.426674e+001  -3.599077e+001 
4206250000  -4.107498e+001  -4.763084e+001 
4209375000  -4.165644e+001  -7.075026e+001 
4212500000  -4.363252e+001  -7.653464e+001 
4215625000  -4.408659e+001  -7.254171e+001 
4218750000  -4.283114e+001  -7.304917e+001 
4221875000  -4.117758e+001  -8.154370e+001 
4225000000  -4.239764e+001  -9.364528e+001 
4228125000  -4.263777e+001  -9.471520e+001 
4231250000  -4.098389e+001  -9.967335e+001 
4234375000  -4.083548e+001  -1.134546e+002 
4237500000  -4.082460e+001  -1.185184e+002 
4240625000  -4.083840e+001  -1.299797e+002 
4243750000  -4.246492e+001  -1.368982e+002 
4246875000  -4.330347e+001  -1.359775e+002 
4250000000  -4.294934e+001  -1.384267e+002 
4253125000  -4.250123e+001  -1.422757e+002 
4256250000  -4.205265e+001  -1.467185e+002 
4259375000  -4.216157e+001  -1.554616e+002 
4262500000  -4.237939e+001  -1.585845e+002 
4265625000  -4.193077e+001  -1.603769e+002 
4268750000  -4.096798e+001  -1.705075e+002 
4271875000  -4.082321e+001  -1.776359e+002 
4275000000  -4.024199e+001  1.723186e+002 
4278125000  -4.118788e+001  1.613062e+002 
4281250000  -4.228540e+001  1.581013e+002 
4284375000  -4.216583e+001  1.546689e+002 
4287500000  -4.417355e+001  1.499568e+002 
4290625000  -4.371633e+001  1.573271e+002 
4293750000  -4.136927e+001  1.567020e+002 
4296875000  -4.055985e+001  1.395787e+002 
4300000000  -4.165331e+001  1.297672e+002 
4303125000  -4.216667e+001  1.316019e+002 
4306250000  -4.100924e+001  1.302053e+002 
4309375000  -3.983815e+001  1.212599e+002 
4312500000  -3.944779e+001  1.091455e+002 
4315625000  -4.030311e+001  1.012582e+002 
4318750000  -4.087135e+001  9.376049e+001 
4321875000  -4.080272e+001  9.273306e+001 
4325000000  -4.018803e+001  8.897018e+001 
4328125000  -3.945570e+001  7.731831e+001 
4331250000  -3.981690e+001  6.529476e+001 
4334375000  -4.097313e+001  5.662366e+001 
4337500000  -4.202120e+001  5.654118e+001 
4340625000  -4.222323e+001  5.736504e+001 
4343750000  -4.163020e+001  5.481438e+001 
4346875000  -4.121379e+001  4.277483e+001 
4350000000  -4.123158e+001  3.228798e+001 
4353125000  -4.231898e+001  2.643072e+001 
4356250000  -4.416054e+001  2.882997e+001 
4359375000  -4.271857e+001  3.925536e+001 
4362500000  -3.993843e+001  3.285290e+001 
4365625000  -3.916945e+001  1.351256e+001 
4368750000  -4.035134e+001  1.621658e+000 
4371875000  -4.118569e+001  -8.596882e-001 
4375000000  -4.068785e+001  -4.340740e+000 
4378125000  -4.033739e+001  -1.435190e+001 
4381250000  -4.070560e+001  -2.219427e+001 
4384375000  -4.061451e+001  -2.893361e+001 
4387500000  -4.178662e+001  -3.645021e+001 
4390625000  -4.221337e+001  -3.637021e+001 
4393750000  -4.148159e+001  -3.815142e+001 
4396875000  -4.116327e+001  -4.501762e+001 
4400000000  -4.104476e+001  -5.540969e+001 
4403125000  -4.184288e+001  -5.990824e+001 
4406250000  -4.217830e+001  -6.740002e+001 
4409375000  -4.276190e+001  -7.455136e+001 
4412500000  -4.365895e+001  -7.400746e+001 
4415625000  -4.315701e+001  -7.240422e+001 
4418750000  -4.172752e+001  -7.267960e+001 
