!Agilent Technologies,E8363B,MY43030201,A.06.04.32
!Agilent E8363B: A.06.04.32
!Date: Tuesday, November 11, 2014 21:49:39
!Correction: S21(Response(S21)) 
!S1P File: Measurement: S21:
# Hz S  dB   R 50
3000000000  -4.372624e+001  -1.625541e+002 
3003125000  -4.521855e+001  -1.664452e+002 
3006250000  -4.530647e+001  -1.682099e+002 
3009375000  -4.619022e+001  -1.650933e+002 
3012500000  -4.492086e+001  -1.717532e+002 
3015625000  -4.483194e+001  -1.781944e+002 
3018750000  -4.535697e+001  -1.784692e+002 
3021875000  -4.381411e+001  -1.782447e+002 
3025000000  -4.261552e+001  1.767197e+002 
3028125000  -4.176732e+001  1.630275e+002 
3031250000  -4.118335e+001  1.511759e+002 
3034375000  -4.073983e+001  1.364166e+002 
3037500000  -4.163627e+001  1.265798e+002 
3040625000  -4.294183e+001  1.197571e+002 
3043750000  -4.354352e+001  1.133939e+002 
3046875000  -4.399112e+001  1.061055e+002 
3050000000  -4.509143e+001  1.013578e+002 
3053125000  -4.470587e+001  1.057388e+002 
3056250000  -4.472645e+001  1.091450e+002 
3059375000  -4.398439e+001  1.041724e+002 
3062500000  -4.270372e+001  9.961455e+001 
3065625000  -4.202745e+001  8.962148e+001 
3068750000  -4.170966e+001  8.076246e+001 
3071875000  -4.181614e+001  7.888826e+001 
3075000000  -4.121641e+001  7.076785e+001 
3078125000  -4.129325e+001  6.316313e+001 
3081250000  -4.135527e+001  5.663229e+001 
3084375000  -4.064429e+001  5.001584e+001 
3087500000  -4.037250e+001  4.347202e+001 
3090625000  -4.009005e+001  3.129092e+001 
3093750000  -4.115591e+001  2.113359e+001 
3096875000  -4.128222e+001  1.524259e+001 
3100000000  -4.128225e+001  1.205690e+001 
3103125000  -4.143420e+001  6.633196e+000 
3106250000  -4.100046e+001  7.139665e-001 
3109375000  -4.105084e+001  -3.126986e+000 
3112500000  -4.076572e+001  -1.158664e+001 
3115625000  -4.085201e+001  -1.514721e+001 
3118750000  -4.078198e+001  -2.256868e+001 
3121875000  -4.037924e+001  -3.326506e+001 
3125000000  -4.206622e+001  -3.742637e+001 
3128125000  -4.204668e+001  -3.173318e+001 
3131250000  -3.954369e+001  -3.892616e+001 
3134375000  -3.884399e+001  -5.646984e+001 
3137500000  -3.945842e+001  -6.946409e+001 
3140625000  -4.063341e+001  -7.513511e+001 
3143750000  -4.166672e+001  -7.791983e+001 
3146875000  -4.102899e+001  -7.750898e+001 
3150000000  -4.040608e+001  -8.280859e+001 
3153125000  -4.074651e+001  -9.212237e+001 
3156250000  -4.122457e+001  -8.875843e+001 
3159375000  -3.908308e+001  -9.232945e+001 
3162500000  -3.778749e+001  -1.085040e+002 
3165625000  -3.904825e+001  -1.228285e+002 
3168750000  -3.902739e+001  -1.241408e+002 
3171875000  -3.852114e+001  -1.332077e+002 
3175000000  -3.902476e+001  -1.438647e+002 
3178125000  -3.861872e+001  -1.451433e+002 
3181250000  -3.813900e+001  -1.546746e+002 
3184375000  -3.790660e+001  -1.669595e+002 
3187500000  -3.908316e+001  1.769196e+002 
3190625000  -4.092979e+001  1.702766e+002 
3193750000  -4.133524e+001  1.739162e+002 
3196875000  -4.089775e+001  1.732091e+002 
3200000000  -3.973486e+001  1.684125e+002 
3203125000  -3.948093e+001  1.598554e+002 
3206250000  -3.992543e+001  1.527038e+002 
3209375000  -3.952525e+001  1.422732e+002 
3212500000  -3.995635e+001  1.347396e+002 
3215625000  -3.963873e+001  1.328801e+002 
3218750000  -4.031635e+001  1.210888e+002 
3221875000  -4.066125e+001  1.132897e+002 
3225000000  -4.060467e+001  1.075970e+002 
3228125000  -4.115780e+001  9.967554e+001 
3231250000  -4.137380e+001  9.655238e+001 
3234375000  -4.101104e+001  9.386468e+001 
3237500000  -4.095186e+001  8.976553e+001 
3240625000  -4.046911e+001  8.235582e+001 
3243750000  -4.028004e+001  7.117869e+001 
3246875000  -4.059764e+001  6.334317e+001 
3250000000  -4.101955e+001  5.811543e+001 
3253125000  -4.119000e+001  5.348635e+001 
3256250000  -4.014914e+001  4.472902e+001 
3259375000  -4.087691e+001  2.953268e+001 
3262500000  -4.225016e+001  2.594649e+001 
3265625000  -4.252875e+001  2.728902e+001 
3268750000  -4.259430e+001  2.692373e+001 
3271875000  -4.174833e+001  2.040543e+001 
3275000000  -4.113222e+001  8.945231e+000 
3278125000  -4.177124e+001  2.719979e+000 
3281250000  -4.177406e+001  -5.227704e-001 
3284375000  -4.094402e+001  -9.791673e+000 
3287500000  -4.125051e+001  -1.725408e+001 
3290625000  -4.143186e+001  -2.553667e+001 
3293750000  -4.132011e+001  -3.441711e+001 
3296875000  -4.262048e+001  -3.942335e+001 
3300000000  -4.207065e+001  -3.987018e+001 
3303125000  -4.086483e+001  -5.142105e+001 
3306250000  -4.072931e+001  -6.089336e+001 
3309375000  -4.080864e+001  -7.128394e+001 
3312500000  -4.124506e+001  -8.607479e+001 
3315625000  -4.225315e+001  -9.432482e+001 
3318750000  -4.380596e+001  -1.003072e+002 
3321875000  -4.509010e+001  -9.873461e+001 
3325000000  -4.518863e+001  -9.268105e+001 
3328125000  -4.400439e+001  -9.877637e+001 
3331250000  -4.227070e+001  -9.809518e+001 
3334375000  -4.018943e+001  -1.182059e+002 
3337500000  -4.058332e+001  -1.407424e+002 
3340625000  -4.266689e+001  -1.497560e+002 
3343750000  -4.460353e+001  -1.523330e+002 
3346875000  -4.381952e+001  -1.559918e+002 
3350000000  -4.346424e+001  -1.624364e+002 
3353125000  -4.341460e+001  -1.700882e+002 
3356250000  -4.336403e+001  1.787012e+002 
3359375000  -4.416725e+001  1.660153e+002 
3362500000  -4.515683e+001  1.558616e+002 
3365625000  -4.539800e+001  1.512193e+002 
3368750000  -4.659244e+001  1.440706e+002 
3371875000  -4.706409e+001  1.393007e+002 
3375000000  -4.851967e+001  1.321295e+002 
3378125000  -4.965998e+001  1.309981e+002 
3381250000  -5.095586e+001  1.374183e+002 
3384375000  -4.748474e+001  1.518960e+002 
3387500000  -4.466938e+001  1.261532e+002 
3390625000  -4.681186e+001  1.053111e+002 
3393750000  -4.799526e+001  1.051749e+002 
3396875000  -4.626307e+001  1.002500e+002 
3400000000  -4.647308e+001  8.374335e+001 
3403125000  -4.693504e+001  8.028780e+001 
3406250000  -4.749136e+001  7.032253e+001 
3409375000  -4.725316e+001  6.135009e+001 
3412500000  -4.797946e+001  5.280628e+001 
3415625000  -4.864660e+001  4.740307e+001 
3418750000  -4.887723e+001  4.470778e+001 
3421875000  -4.961343e+001  4.148567e+001 
3425000000  -4.811375e+001  3.496489e+001 
3428125000  -4.724672e+001  2.774354e+001 
3431250000  -4.670448e+001  1.633066e+001 
3434375000  -4.671650e+001  1.751140e+000 
3437500000  -4.776889e+001  -6.018763e+000 
3440625000  -4.783265e+001  -8.742218e+000 
3443750000  -4.638566e+001  -1.599998e+001 
3446875000  -4.588905e+001  -2.785348e+001 
3450000000  -4.543889e+001  -4.424702e+001 
3453125000  -4.541916e+001  -6.023072e+001 
3456250000  -4.735245e+001  -7.046323e+001 
3459375000  -4.823411e+001  -7.422103e+001 
3462500000  -4.778355e+001  -7.486948e+001 
3465625000  -4.740047e+001  -8.951534e+001 
3468750000  -4.737184e+001  -9.676939e+001 
3471875000  -4.690704e+001  -1.023023e+002 
3475000000  -4.719643e+001  -1.137379e+002 
3478125000  -4.749523e+001  -1.343299e+002 
3481250000  -4.942724e+001  -1.374239e+002 
3484375000  -4.863405e+001  -1.316405e+002 
3487500000  -4.768053e+001  -1.404825e+002 
3490625000  -4.693173e+001  -1.525629e+002 
3493750000  -4.773301e+001  -1.688547e+002 
3496875000  -4.841490e+001  -1.691052e+002 
3500000000  -4.852028e+001  -1.722539e+002 
3503125000  -4.716546e+001  -1.789392e+002 
3506250000  -4.517030e+001  1.703794e+002 
3509375000  -4.598119e+001  1.501100e+002 
3512500000  -4.630579e+001  1.374718e+002 
3515625000  -4.729843e+001  1.297053e+002 
3518750000  -4.814498e+001  1.259620e+002 
3521875000  -4.769930e+001  1.200731e+002 
3525000000  -4.839263e+001  1.155934e+002 
3528125000  -4.763921e+001  1.161589e+002 
3531250000  -4.680527e+001  1.051938e+002 
3534375000  -4.717633e+001  8.715555e+001 
3537500000  -4.782480e+001  7.755061e+001 
3540625000  -4.904725e+001  7.514771e+001 
3543750000  -4.960971e+001  7.765723e+001 
3546875000  -4.875826e+001  8.207306e+001 
3550000000  -4.658403e+001  7.132163e+001 
3553125000  -4.570832e+001  5.424665e+001 
3556250000  -4.711827e+001  4.737556e+001 
3559375000  -4.675068e+001  4.284255e+001 
3562500000  -4.685166e+001  3.000104e+001 
3565625000  -4.717475e+001  2.472459e+001 
3568750000  -4.804818e+001  2.425578e+001 
3571875000  -4.729662e+001  1.819877e+001 
3575000000  -4.748953e+001  7.528111e+000 
3578125000  -4.763229e+001  9.245870e+000 
3581250000  -4.718400e+001  2.595895e+000 
3584375000  -4.619746e+001  -3.073989e+000 
3587500000  -4.586419e+001  -1.447083e+001 
3590625000  -4.649978e+001  -2.653873e+001 
3593750000  -4.804449e+001  -2.540540e+001 
3596875000  -4.684582e+001  -2.020495e+001 
3600000000  -4.485328e+001  -3.084587e+001 
3603125000  -4.494085e+001  -4.764403e+001 
3606250000  -4.632771e+001  -5.577570e+001 
3609375000  -4.584950e+001  -5.903616e+001 
3612500000  -4.608945e+001  -6.634330e+001 
3615625000  -4.614920e+001  -7.071182e+001 
3618750000  -4.624224e+001  -7.012280e+001 
3621875000  -4.578132e+001  -7.610558e+001 
3625000000  -4.600078e+001  -8.175671e+001 
3628125000  -4.475499e+001  -8.923026e+001 
3631250000  -4.507758e+001  -9.730898e+001 
3634375000  -4.574774e+001  -1.016771e+002 
3637500000  -4.462206e+001  -1.037204e+002 
3640625000  -4.401945e+001  -1.075912e+002 
3643750000  -4.317181e+001  -1.190106e+002 
3646875000  -4.354627e+001  -1.302720e+002 
3650000000  -4.357751e+001  -1.351936e+002 
3653125000  -4.338312e+001  -1.426191e+002 
3656250000  -4.411016e+001  -1.479981e+002 
3659375000  -4.395180e+001  -1.548007e+002 
3662500000  -4.366775e+001  -1.606690e+002 
3665625000  -4.349116e+001  -1.665281e+002 
3668750000  -4.208337e+001  -1.669294e+002 
3671875000  -4.118081e+001  1.778172e+002 
3675000000  -4.212272e+001  1.657352e+002 
3678125000  -4.284968e+001  1.615443e+002 
3681250000  -4.224253e+001  1.547256e+002 
3684375000  -4.257566e+001  1.493013e+002 
3687500000  -4.277484e+001  1.379509e+002 
3690625000  -4.339091e+001  1.346602e+002 
3693750000  -4.456292e+001  1.292707e+002 
3696875000  -4.361993e+001  1.296696e+002 
3700000000  -4.275171e+001  1.205486e+002 
3703125000  -4.376057e+001  1.124719e+002 
3706250000  -4.438887e+001  1.103840e+002 
3709375000  -4.405374e+001  1.107270e+002 
3712500000  -4.268277e+001  1.026212e+002 
3715625000  -4.180855e+001  9.560278e+001 
3718750000  -4.195166e+001  8.406253e+001 
3721875000  -4.155706e+001  7.512273e+001 
3725000000  -4.243825e+001  6.945711e+001 
3728125000  -4.255754e+001  6.647079e+001 
3731250000  -4.193779e+001  5.885189e+001 
3734375000  -4.210225e+001  5.038578e+001 
3737500000  -4.259259e+001  4.357589e+001 
3740625000  -4.304541e+001  3.470243e+001 
3743750000  -4.250272e+001  3.089614e+001 
3746875000  -4.320391e+001  2.172023e+001 
3750000000  -4.375313e+001  1.971020e+001 
3753125000  -4.353819e+001  1.599909e+001 
3756250000  -4.367383e+001  1.288390e+001 
3759375000  -4.364067e+001  9.750523e+000 
3762500000  -4.346759e+001  1.878162e+000 
3765625000  -4.420251e+001  -2.873369e+000 
3768750000  -4.341389e+001  -3.426148e+000 
3771875000  -4.196574e+001  -8.625064e+000 
3775000000  -4.219186e+001  -2.126345e+001 
3778125000  -4.255113e+001  -2.718177e+001 
3781250000  -4.258811e+001  -3.098668e+001 
3784375000  -4.231627e+001  -3.753054e+001 
3787500000  -4.254409e+001  -4.201830e+001 
3790625000  -4.286009e+001  -5.414774e+001 
3793750000  -4.264923e+001  -5.614342e+001 
3796875000  -4.162878e+001  -5.892094e+001 
3800000000  -4.071214e+001  -6.790873e+001 
3803125000  -4.190128e+001  -8.080056e+001 
3806250000  -4.260298e+001  -8.559853e+001 
3809375000  -4.177992e+001  -9.063380e+001 
3812500000  -4.162001e+001  -1.012465e+002 
3815625000  -4.303431e+001  -1.113703e+002 
3818750000  -4.419535e+001  -1.088383e+002 
3821875000  -4.349379e+001  -9.833940e+001 
3825000000  -4.149077e+001  -1.065484e+002 
3828125000  -4.041900e+001  -1.291043e+002 
3831250000  -4.144517e+001  -1.421481e+002 
3834375000  -4.393085e+001  -1.406826e+002 
3837500000  -4.383572e+001  -1.372279e+002 
3840625000  -4.209710e+001  -1.456733e+002 
3843750000  -4.180536e+001  -1.622710e+002 
3846875000  -4.348739e+001  -1.675035e+002 
3850000000  -4.409387e+001  -1.591566e+002 
3853125000  -4.347029e+001  -1.634354e+002 
3856250000  -4.309873e+001  -1.708991e+002 
3859375000  -4.227017e+001  -1.796099e+002 
3862500000  -4.211332e+001  1.692252e+002 
3865625000  -4.241809e+001  1.608134e+002 
3868750000  -4.179454e+001  1.636190e+002 
3871875000  -4.191726e+001  1.505930e+002 
3875000000  -4.254175e+001  1.410251e+002 
3878125000  -4.317382e+001  1.398116e+002 
3881250000  -4.305059e+001  1.368755e+002 
3884375000  -4.254343e+001  1.261268e+002 
3887500000  -4.319325e+001  1.231639e+002 
3890625000  -4.390772e+001  1.158012e+002 
3893750000  -4.409202e+001  1.129778e+002 
3896875000  -4.445456e+001  1.111510e+002 
3900000000  -4.439317e+001  1.047801e+002 
3903125000  -4.346859e+001  1.009389e+002 
3906250000  -4.306359e+001  9.739548e+001 
3909375000  -4.276912e+001  8.847224e+001 
3912500000  -4.397446e+001  7.806810e+001 
3915625000  -4.472622e+001  7.888597e+001 
3918750000  -4.474881e+001  7.861350e+001 
3921875000  -4.365999e+001  7.399258e+001 
3925000000  -4.323844e+001  6.512105e+001 
3928125000  -4.287729e+001  5.693355e+001 
3931250000  -4.351907e+001  4.719550e+001 
3934375000  -4.410436e+001  4.649302e+001 
3937500000  -4.441631e+001  4.197169e+001 
3940625000  -4.464407e+001  4.526668e+001 
3943750000  -4.350851e+001  3.674834e+001 
3946875000  -4.276697e+001  2.774612e+001 
3950000000  -4.343823e+001  1.897370e+001 
3953125000  -4.405812e+001  1.908838e+001 
3956250000  -4.239474e+001  1.937383e+001 
3959375000  -4.160654e+001  1.284531e+001 
3962500000  -4.160975e+001  2.066176e+000 
3965625000  -4.155447e+001  -1.106998e+001 
3968750000  -4.223125e+001  -1.865991e+001 
3971875000  -4.248487e+001  -2.384708e+001 
3975000000  -4.189724e+001  -2.550508e+001 
3978125000  -4.207015e+001  -3.266438e+001 
3981250000  -4.181445e+001  -3.928969e+001 
3984375000  -4.255674e+001  -4.820807e+001 
3987500000  -4.286764e+001  -5.444889e+001 
3990625000  -4.300048e+001  -5.760838e+001 
3993750000  -4.305011e+001  -6.169501e+001 
3996875000  -4.294627e+001  -7.077872e+001 
4000000000  -4.357339e+001  -7.203600e+001 
4003125000  -4.401061e+001  -7.594642e+001 
4006250000  -4.223544e+001  -7.971304e+001 
4009375000  -4.123080e+001  -9.803469e+001 
4012500000  -4.272865e+001  -1.033308e+002 
4015625000  -4.420026e+001  -1.051905e+002 
4018750000  -4.379217e+001  -1.081045e+002 
4021875000  -4.273344e+001  -1.157145e+002 
4025000000  -4.303741e+001  -1.248221e+002 
4028125000  -4.321492e+001  -1.325695e+002 
4031250000  -4.388887e+001  -1.353504e+002 
4034375000  -4.431057e+001  -1.404390e+002 
4037500000  -4.371212e+001  -1.416002e+002 
4040625000  -4.385341e+001  -1.482467e+002 
4043750000  -4.423517e+001  -1.541927e+002 
4046875000  -4.455761e+001  -1.558615e+002 
4050000000  -4.416856e+001  -1.625759e+002 
4053125000  -4.514503e+001  -1.682828e+002 
4056250000  -4.583868e+001  -1.657318e+002 
4059375000  -4.394451e+001  -1.684594e+002 
4062500000  -4.378072e+001  -1.758391e+002 
4065625000  -4.334328e+001  -1.796175e+002 
4068750000  -4.276169e+001  1.710743e+002 
4071875000  -4.267441e+001  1.627947e+002 
4075000000  -4.355217e+001  1.564283e+002 
4078125000  -4.415593e+001  1.515157e+002 
4081250000  -4.356834e+001  1.432229e+002 
4084375000  -4.367311e+001  1.347929e+002 
4087500000  -4.402359e+001  1.285013e+002 
4090625000  -4.475008e+001  1.262526e+002 
4093750000  -4.428601e+001  1.266326e+002 
4096875000  -4.395427e+001  1.163081e+002 
4100000000  -4.498384e+001  1.099094e+002 
4103125000  -4.536480e+001  1.128760e+002 
4106250000  -4.525921e+001  1.137178e+002 
4109375000  -4.414160e+001  1.090805e+002 
4112500000  -4.393188e+001  9.960291e+001 
4115625000  -4.424149e+001  9.162709e+001 
4118750000  -4.390423e+001  8.790221e+001 
4121875000  -4.381819e+001  8.162992e+001 
4125000000  -4.485616e+001  7.175255e+001 
4128125000  -4.524909e+001  7.855848e+001 
4131250000  -4.349727e+001  8.019881e+001 
4134375000  -4.162905e+001  6.970983e+001 
4137500000  -4.202004e+001  4.898943e+001 
4140625000  -4.390122e+001  4.274342e+001 
4143750000  -4.482291e+001  4.795719e+001 
4146875000  -4.376044e+001  4.595157e+001 
4150000000  -4.239253e+001  3.665446e+001 
4153125000  -4.311291e+001  3.007588e+001 
4156250000  -4.391573e+001  2.538097e+001 
4159375000  -4.371931e+001  2.768632e+001 
4162500000  -4.219769e+001  2.551717e+001 
4165625000  -4.155458e+001  1.390713e+001 
4168750000  -4.115044e+001  4.254908e+000 
4171875000  -4.112719e+001  -5.963125e+000 
4175000000  -4.176193e+001  -1.631526e+001 
4178125000  -4.236852e+001  -1.827737e+001 
4181250000  -4.170363e+001  -2.456127e+001 
4184375000  -4.246586e+001  -3.163022e+001 
4187500000  -4.213963e+001  -3.851724e+001 
4190625000  -4.254485e+001  -4.908036e+001 
4193750000  -4.394609e+001  -5.021183e+001 
4196875000  -4.477484e+001  -5.291399e+001 
4200000000  -4.565381e+001  -4.868935e+001 
4203125000  -4.430738e+001  -3.724472e+001 
4206250000  -4.113958e+001  -4.948654e+001 
4209375000  -4.136208e+001  -7.532312e+001 
4212500000  -4.373127e+001  -8.043121e+001 
4215625000  -4.404035e+001  -7.371985e+001 
4218750000  -4.235180e+001  -7.524889e+001 
4221875000  -4.137222e+001  -8.696899e+001 
4225000000  -4.192447e+001  -9.765335e+001 
4228125000  -4.216619e+001  -9.658860e+001 
4231250000  -4.107814e+001  -1.055928e+002 
4234375000  -4.067666e+001  -1.184888e+002 
4237500000  -4.074449e+001  -1.215756e+002 
4240625000  -4.112295e+001  -1.306948e+002 
4243750000  -4.213101e+001  -1.387551e+002 
4246875000  -4.291057e+001  -1.413617e+002 
4250000000  -4.260318e+001  -1.411041e+002 
4253125000  -4.280881e+001  -1.459884e+002 
4256250000  -4.242201e+001  -1.485958e+002 
4259375000  -4.231440e+001  -1.548024e+002 
4262500000  -4.226497e+001  -1.591269e+002 
4265625000  -4.214404e+001  -1.629202e+002 
4268750000  -4.053046e+001  -1.706151e+002 
4271875000  -4.063501e+001  1.777168e+002 
4275000000  -4.039577e+001  1.685188e+002 
4278125000  -4.140943e+001  1.574763e+002 
4281250000  -4.219621e+001  1.567825e+002 
4284375000  -4.215899e+001  1.504957e+002 
4287500000  -4.391251e+001  1.492964e+002 
4290625000  -4.365675e+001  1.548306e+002 
4293750000  -4.179165e+001  1.548133e+002 
4296875000  -4.029378e+001  1.392410e+002 
4300000000  -4.162803e+001  1.261428e+002 
4303125000  -4.177230e+001  1.296552e+002 
4306250000  -4.072165e+001  1.287462e+002 
4309375000  -3.968205e+001  1.187275e+002 
4312500000  -3.997881e+001  1.063767e+002 
4315625000  -4.004938e+001  9.812318e+001 
4318750000  -4.050119e+001  9.199838e+001 
4321875000  -4.073535e+001  9.078511e+001 
4325000000  -4.004750e+001  8.589652e+001 
4328125000  -3.934253e+001  7.442274e+001 
4331250000  -3.965140e+001  6.204589e+001 
4334375000  -4.064832e+001  5.492239e+001 
4337500000  -4.190606e+001  5.553846e+001 
4340625000  -4.187709e+001  5.427014e+001 
4343750000  -4.091822e+001  4.833778e+001 
4346875000  -4.086970e+001  4.248645e+001 
4350000000  -4.105027e+001  3.160872e+001 
4353125000  -4.169529e+001  2.146637e+001 
4356250000  -4.427458e+001  2.546647e+001 
4359375000  -4.287120e+001  3.971420e+001 
4362500000  -3.954768e+001  2.911106e+001 
4365625000  -3.891024e+001  8.791727e+000 
4368750000  -4.001634e+001  -1.556189e+000 
4371875000  -4.113360e+001  -4.672041e+000 
4375000000  -4.064747e+001  -6.403133e+000 
4378125000  -4.014909e+001  -1.517667e+001 
4381250000  -4.049844e+001  -2.152954e+001 
4384375000  -4.033781e+001  -3.061959e+001 
4387500000  -4.150457e+001  -3.831391e+001 
4390625000  -4.201677e+001  -4.116777e+001 
4393750000  -4.142617e+001  -4.149191e+001 
4396875000  -4.100528e+001  -4.876213e+001 
4400000000  -4.037154e+001  -5.550953e+001 
4403125000  -4.162765e+001  -6.642329e+001 
4406250000  -4.219744e+001  -7.269229e+001 
4409375000  -4.265732e+001  -7.514797e+001 
4412500000  -4.337740e+001  -7.889637e+001 
4415625000  -4.301010e+001  -7.510866e+001 
4418750000  -4.198744e+001  -7.391191e+001 
