!Agilent Technologies,E8363B,MY43030201,A.06.04.32
!Agilent E8363B: A.06.04.32
!Date: Tuesday, November 11, 2014 21:51:04
!Correction: S21(Response(S21)) 
!S1P File: Measurement: S21:
# Hz S  dB   R 50
3000000000  -4.367670e+001  -1.608446e+002 
3003125000  -4.520145e+001  -1.680927e+002 
3006250000  -4.535797e+001  -1.686548e+002 
3009375000  -4.595163e+001  -1.639576e+002 
3012500000  -4.488598e+001  -1.726479e+002 
3015625000  -4.486343e+001  -1.789464e+002 
3018750000  -4.526876e+001  1.795742e+002 
3021875000  -4.390810e+001  -1.789981e+002 
3025000000  -4.255188e+001  1.759455e+002 
3028125000  -4.150171e+001  1.646095e+002 
3031250000  -4.103608e+001  1.518945e+002 
3034375000  -4.067030e+001  1.363053e+002 
3037500000  -4.158289e+001  1.259761e+002 
3040625000  -4.300018e+001  1.201974e+002 
3043750000  -4.328240e+001  1.125590e+002 
3046875000  -4.434061e+001  1.043728e+002 
3050000000  -4.513773e+001  1.007670e+002 
3053125000  -4.482119e+001  1.044055e+002 
3056250000  -4.457024e+001  1.063669e+002 
3059375000  -4.398652e+001  1.043398e+002 
3062500000  -4.262188e+001  9.981146e+001 
3065625000  -4.198178e+001  8.727857e+001 
3068750000  -4.163561e+001  8.055917e+001 
3071875000  -4.166613e+001  7.821893e+001 
3075000000  -4.122702e+001  6.883850e+001 
3078125000  -4.145771e+001  6.303751e+001 
3081250000  -4.135043e+001  5.678608e+001 
3084375000  -4.046032e+001  5.010001e+001 
3087500000  -4.061043e+001  4.294333e+001 
3090625000  -4.000614e+001  2.925570e+001 
3093750000  -4.111727e+001  1.996861e+001 
3096875000  -4.112437e+001  1.398122e+001 
3100000000  -4.112698e+001  1.141362e+001 
3103125000  -4.146716e+001  6.063898e+000 
3106250000  -4.097570e+001  1.872887e+000 
3109375000  -4.096545e+001  -4.257677e+000 
3112500000  -4.084789e+001  -1.166111e+001 
3115625000  -4.079686e+001  -1.655626e+001 
3118750000  -4.062314e+001  -2.203115e+001 
3121875000  -4.024501e+001  -3.371310e+001 
3125000000  -4.216833e+001  -3.755915e+001 
3128125000  -4.216294e+001  -3.209516e+001 
3131250000  -3.956345e+001  -3.985662e+001 
3134375000  -3.881446e+001  -5.709755e+001 
3137500000  -3.955470e+001  -7.121243e+001 
3140625000  -4.086315e+001  -7.437376e+001 
3143750000  -4.183780e+001  -7.857825e+001 
3146875000  -4.091108e+001  -7.798701e+001 
3150000000  -4.021063e+001  -8.369643e+001 
3153125000  -4.062835e+001  -9.234013e+001 
3156250000  -4.143945e+001  -8.954897e+001 
3159375000  -3.907687e+001  -9.331694e+001 
3162500000  -3.774378e+001  -1.092570e+002 
3165625000  -3.881343e+001  -1.239505e+002 
3168750000  -3.904694e+001  -1.255804e+002 
3171875000  -3.874699e+001  -1.348648e+002 
3175000000  -3.902366e+001  -1.444161e+002 
3178125000  -3.861803e+001  -1.462560e+002 
3181250000  -3.804239e+001  -1.567397e+002 
3184375000  -3.772781e+001  -1.679007e+002 
3187500000  -3.913971e+001  1.766338e+002 
3190625000  -4.070591e+001  1.699346e+002 
3193750000  -4.097237e+001  1.735200e+002 
3196875000  -4.107687e+001  1.730284e+002 
3200000000  -3.984313e+001  1.685838e+002 
3203125000  -3.972412e+001  1.581484e+002 
3206250000  -3.987975e+001  1.509758e+002 
3209375000  -3.944976e+001  1.422928e+002 
3212500000  -4.000863e+001  1.359466e+002 
3215625000  -3.972652e+001  1.333241e+002 
3218750000  -4.016023e+001  1.198572e+002 
3221875000  -4.062655e+001  1.117761e+002 
3225000000  -4.029716e+001  1.070733e+002 
3228125000  -4.110703e+001  9.843949e+001 
3231250000  -4.142019e+001  9.649506e+001 
3234375000  -4.103543e+001  9.256505e+001 
3237500000  -4.112292e+001  8.802243e+001 
3240625000  -4.042748e+001  8.293603e+001 
3243750000  -4.025611e+001  7.061230e+001 
3246875000  -4.062728e+001  6.233751e+001 
3250000000  -4.095742e+001  5.634762e+001 
3253125000  -4.113437e+001  5.354754e+001 
3256250000  -4.066578e+001  4.356814e+001 
3259375000  -4.097600e+001  2.939964e+001 
3262500000  -4.245064e+001  2.680299e+001 
3265625000  -4.268262e+001  2.785382e+001 
3268750000  -4.253363e+001  2.631850e+001 
3271875000  -4.158877e+001  1.887859e+001 
3275000000  -4.106813e+001  8.752069e+000 
3278125000  -4.164684e+001  2.427045e+000 
3281250000  -4.179331e+001  -2.166000e+000 
3284375000  -4.094895e+001  -9.207432e+000 
3287500000  -4.144835e+001  -1.649578e+001 
3290625000  -4.152175e+001  -2.603390e+001 
3293750000  -4.151390e+001  -3.485688e+001 
3296875000  -4.270997e+001  -4.008995e+001 
3300000000  -4.208153e+001  -4.177854e+001 
3303125000  -4.106196e+001  -5.083902e+001 
3306250000  -4.077015e+001  -6.059054e+001 
3309375000  -4.061371e+001  -7.212235e+001 
3312500000  -4.114992e+001  -8.749989e+001 
3315625000  -4.238467e+001  -9.628397e+001 
3318750000  -4.386707e+001  -1.016469e+002 
3321875000  -4.514798e+001  -9.965827e+001 
3325000000  -4.439244e+001  -9.505772e+001 
3328125000  -4.451603e+001  -9.878275e+001 
3331250000  -4.245382e+001  -1.009739e+002 
3334375000  -4.006702e+001  -1.174514e+002 
3337500000  -4.088230e+001  -1.417820e+002 
3340625000  -4.275087e+001  -1.508108e+002 
3343750000  -4.433503e+001  -1.527502e+002 
3346875000  -4.389369e+001  -1.569861e+002 
3350000000  -4.349720e+001  -1.607840e+002 
3353125000  -4.353613e+001  -1.699462e+002 
3356250000  -4.302479e+001  1.791157e+002 
3359375000  -4.454341e+001  1.650164e+002 
3362500000  -4.463445e+001  1.584014e+002 
3365625000  -4.533783e+001  1.521844e+002 
3368750000  -4.608035e+001  1.457200e+002 
3371875000  -4.667586e+001  1.397839e+002 
3375000000  -4.849565e+001  1.320871e+002 
3378125000  -4.885065e+001  1.327231e+002 
3381250000  -5.084502e+001  1.426105e+002 
3384375000  -4.672117e+001  1.514224e+002 
3387500000  -4.516327e+001  1.272294e+002 
3390625000  -4.674595e+001  1.060569e+002 
3393750000  -4.743968e+001  1.035903e+002 
3396875000  -4.592547e+001  9.860873e+001 
3400000000  -4.635989e+001  8.418223e+001 
3403125000  -4.669876e+001  8.028282e+001 
3406250000  -4.691443e+001  6.594193e+001 
3409375000  -4.708159e+001  5.821360e+001 
3412500000  -4.802511e+001  5.409673e+001 
3415625000  -4.852252e+001  4.668560e+001 
3418750000  -4.875813e+001  4.423854e+001 
3421875000  -4.889174e+001  3.828359e+001 
3425000000  -4.783008e+001  3.665778e+001 
3428125000  -4.727113e+001  2.868881e+001 
3431250000  -4.699196e+001  1.476036e+001 
3434375000  -4.689806e+001  4.537853e+000 
3437500000  -4.710604e+001  -6.185201e+000 
3440625000  -4.794328e+001  -9.076157e+000 
3443750000  -4.657139e+001  -1.363992e+001 
3446875000  -4.577066e+001  -2.636230e+001 
3450000000  -4.501584e+001  -4.368144e+001 
3453125000  -4.599070e+001  -6.186901e+001 
3456250000  -4.701675e+001  -6.893705e+001 
3459375000  -4.794255e+001  -7.219315e+001 
3462500000  -4.819884e+001  -7.845950e+001 
3465625000  -4.749450e+001  -9.056510e+001 
3468750000  -4.768657e+001  -9.313815e+001 
3471875000  -4.767903e+001  -1.030915e+002 
3475000000  -4.714447e+001  -1.187032e+002 
3478125000  -4.760221e+001  -1.298734e+002 
3481250000  -4.922277e+001  -1.371808e+002 
3484375000  -4.864753e+001  -1.363548e+002 
3487500000  -4.757530e+001  -1.462086e+002 
3490625000  -4.721113e+001  -1.546076e+002 
3493750000  -4.762759e+001  -1.679409e+002 
3496875000  -4.802060e+001  -1.716992e+002 
3500000000  -4.814276e+001  -1.738536e+002 
3503125000  -4.762693e+001  -1.749254e+002 
3506250000  -4.590388e+001  1.700183e+002 
3509375000  -4.562136e+001  1.543851e+002 
3512500000  -4.622639e+001  1.389903e+002 
3515625000  -4.729763e+001  1.332259e+002 
3518750000  -4.791230e+001  1.278246e+002 
3521875000  -4.812284e+001  1.139585e+002 
3525000000  -4.880162e+001  1.149947e+002 
3528125000  -4.730533e+001  1.155823e+002 
3531250000  -4.641147e+001  1.029224e+002 
3534375000  -4.675762e+001  8.682648e+001 
3537500000  -4.736160e+001  8.051382e+001 
3540625000  -4.934304e+001  7.315710e+001 
3543750000  -4.974733e+001  8.010300e+001 
3546875000  -4.867174e+001  8.642646e+001 
3550000000  -4.699229e+001  7.452033e+001 
3553125000  -4.605469e+001  5.487764e+001 
3556250000  -4.730412e+001  4.758985e+001 
3559375000  -4.646615e+001  4.094212e+001 
3562500000  -4.612249e+001  3.443213e+001 
3565625000  -4.726548e+001  2.414448e+001 
3568750000  -4.784130e+001  2.224813e+001 
3571875000  -4.711782e+001  1.864147e+001 
3575000000  -4.682326e+001  1.122104e+001 
3578125000  -4.757312e+001  5.782118e+000 
3581250000  -4.770605e+001  5.254262e-001 
3584375000  -4.563924e+001  -4.258131e+000 
3587500000  -4.551984e+001  -1.508304e+001 
3590625000  -4.674556e+001  -2.709450e+001 
3593750000  -4.754078e+001  -2.613840e+001 
3596875000  -4.662883e+001  -2.324298e+001 
3600000000  -4.512581e+001  -3.246625e+001 
3603125000  -4.504223e+001  -4.865520e+001 
3606250000  -4.595304e+001  -5.404328e+001 
3609375000  -4.598821e+001  -6.043669e+001 
3612500000  -4.592122e+001  -6.782706e+001 
3615625000  -4.562225e+001  -6.984367e+001 
3618750000  -4.596091e+001  -7.108009e+001 
3621875000  -4.592123e+001  -7.720308e+001 
3625000000  -4.552752e+001  -8.452740e+001 
3628125000  -4.459830e+001  -8.930146e+001 
3631250000  -4.488771e+001  -9.930499e+001 
3634375000  -4.579643e+001  -1.001668e+002 
3637500000  -4.468606e+001  -1.006205e+002 
3640625000  -4.336569e+001  -1.096298e+002 
3643750000  -4.331898e+001  -1.221669e+002 
3646875000  -4.388420e+001  -1.296811e+002 
3650000000  -4.382491e+001  -1.364108e+002 
3653125000  -4.311139e+001  -1.443478e+002 
3656250000  -4.391666e+001  -1.515451e+002 
3659375000  -4.374158e+001  -1.524353e+002 
3662500000  -4.330203e+001  -1.609973e+002 
3665625000  -4.318230e+001  -1.654730e+002 
3668750000  -4.189068e+001  -1.695773e+002 
3671875000  -4.125558e+001  1.762196e+002 
3675000000  -4.229042e+001  1.633873e+002 
3678125000  -4.288499e+001  1.604573e+002 
3681250000  -4.266801e+001  1.551550e+002 
3684375000  -4.262996e+001  1.458987e+002 
3687500000  -4.299577e+001  1.386531e+002 
3690625000  -4.350538e+001  1.327346e+002 
3693750000  -4.439560e+001  1.308494e+002 
3696875000  -4.391044e+001  1.297427e+002 
3700000000  -4.307835e+001  1.197557e+002 
3703125000  -4.334920e+001  1.121260e+002 
3706250000  -4.468592e+001  1.103251e+002 
3709375000  -4.403558e+001  1.087962e+002 
3712500000  -4.312418e+001  1.022549e+002 
3715625000  -4.181139e+001  9.495197e+001 
3718750000  -4.180149e+001  8.486459e+001 
3721875000  -4.190227e+001  7.301242e+001 
3725000000  -4.237700e+001  6.753255e+001 
3728125000  -4.245945e+001  6.431652e+001 
3731250000  -4.181486e+001  5.800387e+001 
3734375000  -4.180703e+001  5.209760e+001 
3737500000  -4.256162e+001  4.021688e+001 
3740625000  -4.272183e+001  3.580949e+001 
3743750000  -4.229913e+001  3.031129e+001 
3746875000  -4.360534e+001  2.167731e+001 
3750000000  -4.364968e+001  1.867784e+001 
3753125000  -4.354569e+001  1.426191e+001 
3756250000  -4.338276e+001  1.323210e+001 
3759375000  -4.350732e+001  9.229418e+000 
3762500000  -4.341875e+001  1.596866e+000 
3765625000  -4.444773e+001  -5.552550e+000 
3768750000  -4.350735e+001  -2.698654e+000 
3771875000  -4.201177e+001  -9.827794e+000 
3775000000  -4.223925e+001  -1.982774e+001 
3778125000  -4.271048e+001  -2.786667e+001 
3781250000  -4.272959e+001  -3.078214e+001 
3784375000  -4.207244e+001  -3.796841e+001 
3787500000  -4.242380e+001  -4.183058e+001 
3790625000  -4.268109e+001  -5.371102e+001 
3793750000  -4.280957e+001  -5.696727e+001 
3796875000  -4.139637e+001  -6.073133e+001 
3800000000  -4.074088e+001  -6.985675e+001 
3803125000  -4.156054e+001  -8.108393e+001 
3806250000  -4.238619e+001  -8.686549e+001 
3809375000  -4.168037e+001  -8.899866e+001 
3812500000  -4.157119e+001  -1.029750e+002 
3815625000  -4.286947e+001  -1.124432e+002 
3818750000  -4.410412e+001  -1.087770e+002 
3821875000  -4.331500e+001  -1.004417e+002 
3825000000  -4.118665e+001  -1.035985e+002 
3828125000  -4.049938e+001  -1.273295e+002 
3831250000  -4.146798e+001  -1.411012e+002 
3834375000  -4.408294e+001  -1.423760e+002 
3837500000  -4.353984e+001  -1.398762e+002 
3840625000  -4.229360e+001  -1.450119e+002 
3843750000  -4.166114e+001  -1.598174e+002 
3846875000  -4.349594e+001  -1.711848e+002 
3850000000  -4.408687e+001  -1.612727e+002 
3853125000  -4.322015e+001  -1.625023e+002 
3856250000  -4.301694e+001  -1.732800e+002 
3859375000  -4.187901e+001  1.768327e+002 
3862500000  -4.177429e+001  1.671756e+002 
3865625000  -4.237443e+001  1.601562e+002 
3868750000  -4.233205e+001  1.603436e+002 
3871875000  -4.172205e+001  1.513229e+002 
3875000000  -4.213202e+001  1.396803e+002 
3878125000  -4.336767e+001  1.372349e+002 
3881250000  -4.333974e+001  1.377663e+002 
3884375000  -4.250179e+001  1.253190e+002 
3887500000  -4.312410e+001  1.181143e+002 
3890625000  -4.369621e+001  1.192238e+002 
3893750000  -4.425091e+001  1.133954e+002 
3896875000  -4.447146e+001  1.116214e+002 
3900000000  -4.410862e+001  1.061724e+002 
3903125000  -4.399160e+001  1.031304e+002 
3906250000  -4.354408e+001  9.632068e+001 
3909375000  -4.250811e+001  8.922544e+001 
3912500000  -4.361047e+001  7.873554e+001 
3915625000  -4.484309e+001  7.755841e+001 
3918750000  -4.444139e+001  7.650221e+001 
3921875000  -4.336549e+001  7.145086e+001 
3925000000  -4.314204e+001  6.495899e+001 
3928125000  -4.279159e+001  5.535918e+001 
3931250000  -4.365589e+001  4.798821e+001 
3934375000  -4.384534e+001  4.632496e+001 
3937500000  -4.468922e+001  4.421959e+001 
3940625000  -4.420906e+001  4.225912e+001 
3943750000  -4.290120e+001  3.578974e+001 
3946875000  -4.285194e+001  2.713643e+001 
3950000000  -4.339054e+001  1.879915e+001 
3953125000  -4.403904e+001  1.814042e+001 
3956250000  -4.253938e+001  1.741348e+001 
3959375000  -4.159940e+001  1.171712e+001 
3962500000  -4.147802e+001  1.550569e+000 
3965625000  -4.185806e+001  -1.098094e+001 
3968750000  -4.230436e+001  -1.795381e+001 
3971875000  -4.247316e+001  -2.421702e+001 
3975000000  -4.200902e+001  -2.470949e+001 
3978125000  -4.196836e+001  -3.467384e+001 
3981250000  -4.170638e+001  -4.103477e+001 
3984375000  -4.226234e+001  -4.927844e+001 
3987500000  -4.311305e+001  -5.419592e+001 
3990625000  -4.305005e+001  -5.975776e+001 
3993750000  -4.299860e+001  -6.489161e+001 
3996875000  -4.296165e+001  -6.940298e+001 
4000000000  -4.394299e+001  -7.385262e+001 
4003125000  -4.356325e+001  -7.437499e+001 
4006250000  -4.196868e+001  -7.762100e+001 
4009375000  -4.110408e+001  -9.617451e+001 
4012500000  -4.251476e+001  -1.044291e+002 
4015625000  -4.381942e+001  -1.082977e+002 
4018750000  -4.382255e+001  -1.058928e+002 
4021875000  -4.308923e+001  -1.171580e+002 
4025000000  -4.275949e+001  -1.237869e+002 
4028125000  -4.349348e+001  -1.308824e+002 
4031250000  -4.341609e+001  -1.358901e+002 
4034375000  -4.343670e+001  -1.406764e+002 
4037500000  -4.383639e+001  -1.424467e+002 
4040625000  -4.395673e+001  -1.488043e+002 
4043750000  -4.461733e+001  -1.543356e+002 
4046875000  -4.396460e+001  -1.590070e+002 
4050000000  -4.426754e+001  -1.648847e+002 
4053125000  -4.563493e+001  -1.686347e+002 
4056250000  -4.535548e+001  -1.656357e+002 
4059375000  -4.345066e+001  -1.653128e+002 
4062500000  -4.363955e+001  -1.757478e+002 
4065625000  -4.377128e+001  1.795245e+002 
4068750000  -4.302258e+001  1.684966e+002 
4071875000  -4.233429e+001  1.608288e+002 
4075000000  -4.351611e+001  1.516088e+002 
4078125000  -4.423156e+001  1.487081e+002 
4081250000  -4.316330e+001  1.445960e+002 
4084375000  -4.302269e+001  1.354289e+002 
4087500000  -4.348679e+001  1.281560e+002 
4090625000  -4.457960e+001  1.261802e+002 
4093750000  -4.421048e+001  1.250113e+002 
4096875000  -4.418694e+001  1.149579e+002 
4100000000  -4.531398e+001  1.083916e+002 
4103125000  -4.587769e+001  1.121759e+002 
4106250000  -4.527075e+001  1.131202e+002 
4109375000  -4.443355e+001  1.054149e+002 
4112500000  -4.414737e+001  1.022923e+002 
4115625000  -4.458248e+001  9.453058e+001 
4118750000  -4.371418e+001  8.967717e+001 
4121875000  -4.406854e+001  7.976023e+001 
4125000000  -4.462713e+001  7.214324e+001 
4128125000  -4.482151e+001  7.253291e+001 
4131250000  -4.332954e+001  8.135910e+001 
4134375000  -4.163568e+001  7.002524e+001 
4137500000  -4.215565e+001  4.654559e+001 
4140625000  -4.436385e+001  4.162382e+001 
4143750000  -4.505001e+001  4.479647e+001 
4146875000  -4.395319e+001  4.810421e+001 
4150000000  -4.307098e+001  3.568677e+001 
4153125000  -4.267785e+001  2.862566e+001 
4156250000  -4.375673e+001  2.543370e+001 
4159375000  -4.344036e+001  2.831000e+001 
4162500000  -4.242929e+001  2.709927e+001 
4165625000  -4.139064e+001  1.392255e+001 
4168750000  -4.119979e+001  5.624629e+000 
4171875000  -4.075258e+001  -8.661455e+000 
4175000000  -4.173229e+001  -1.715019e+001 
4178125000  -4.229096e+001  -2.162833e+001 
4181250000  -4.173114e+001  -2.582855e+001 
4184375000  -4.256623e+001  -3.116735e+001 
4187500000  -4.223395e+001  -4.074148e+001 
4190625000  -4.245852e+001  -4.870015e+001 
4193750000  -4.392413e+001  -5.517239e+001 
4196875000  -4.509536e+001  -5.756308e+001 
4200000000  -4.585238e+001  -4.832850e+001 
4203125000  -4.371231e+001  -3.955299e+001 
4206250000  -4.105867e+001  -5.012039e+001 
4209375000  -4.128962e+001  -7.469740e+001 
4212500000  -4.401633e+001  -8.068395e+001 
4215625000  -4.385198e+001  -7.459213e+001 
4218750000  -4.226500e+001  -7.420538e+001 
4221875000  -4.104073e+001  -8.439732e+001 
4225000000  -4.222831e+001  -9.917955e+001 
4228125000  -4.188785e+001  -9.602400e+001 
4231250000  -4.083231e+001  -1.061164e+002 
4234375000  -4.057962e+001  -1.160494e+002 
4237500000  -4.069253e+001  -1.214648e+002 
4240625000  -4.082937e+001  -1.318690e+002 
4243750000  -4.255928e+001  -1.408329e+002 
4246875000  -4.294942e+001  -1.423140e+002 
4250000000  -4.294987e+001  -1.435753e+002 
4253125000  -4.249360e+001  -1.455272e+002 
4256250000  -4.247473e+001  -1.515914e+002 
4259375000  -4.181424e+001  -1.571322e+002 
4262500000  -4.191099e+001  -1.609649e+002 
4265625000  -4.198740e+001  -1.627252e+002 
4268750000  -4.082997e+001  -1.727594e+002 
4271875000  -4.057559e+001  1.792110e+002 
4275000000  -4.014603e+001  1.685376e+002 
4278125000  -4.141608e+001  1.553765e+002 
4281250000  -4.214767e+001  1.525954e+002 
4284375000  -4.201363e+001  1.500718e+002 
4287500000  -4.340611e+001  1.486548e+002 
4290625000  -4.329142e+001  1.533584e+002 
4293750000  -4.149586e+001  1.532128e+002 
4296875000  -4.047927e+001  1.397368e+002 
4300000000  -4.150952e+001  1.291032e+002 
4303125000  -4.188755e+001  1.279195e+002 
4306250000  -4.083672e+001  1.280548e+002 
4309375000  -3.969949e+001  1.188901e+002 
4312500000  -3.978269e+001  1.066959e+002 
4315625000  -4.017717e+001  9.767714e+001 
4318750000  -4.068088e+001  9.154935e+001 
4321875000  -4.048891e+001  8.949554e+001 
4325000000  -3.997791e+001  8.491971e+001 
4328125000  -3.961589e+001  7.415833e+001 
4331250000  -3.981646e+001  6.273762e+001 
4334375000  -4.080697e+001  5.371645e+001 
4337500000  -4.208838e+001  5.097842e+001 
4340625000  -4.199878e+001  5.371372e+001 
4343750000  -4.094122e+001  5.164410e+001 
4346875000  -4.093534e+001  3.912548e+001 
4350000000  -4.092975e+001  2.997894e+001 
4353125000  -4.178047e+001  2.022889e+001 
4356250000  -4.363488e+001  2.064052e+001 
4359375000  -4.295652e+001  3.685861e+001 
4362500000  -3.916036e+001  2.871998e+001 
4365625000  -3.887521e+001  1.083482e+001 
4368750000  -4.001244e+001  -1.592110e+000 
4371875000  -4.107014e+001  -2.890296e+000 
4375000000  -4.047128e+001  -8.168035e+000 
4378125000  -4.052955e+001  -1.682245e+001 
4381250000  -4.038178e+001  -2.618606e+001 
4384375000  -4.043164e+001  -3.247866e+001 
4387500000  -4.143858e+001  -3.907544e+001 
4390625000  -4.218328e+001  -4.076118e+001 
4393750000  -4.164993e+001  -4.238283e+001 
4396875000  -4.083560e+001  -4.826933e+001 
4400000000  -4.035447e+001  -5.685890e+001 
4403125000  -4.133105e+001  -6.889252e+001 
4406250000  -4.175946e+001  -7.194328e+001 
4409375000  -4.258514e+001  -7.744282e+001 
4412500000  -4.327085e+001  -7.805683e+001 
4415625000  -4.303336e+001  -7.522667e+001 
4418750000  -4.155756e+001  -7.634013e+001 
