!Agilent Technologies,E8363B,MY43030201,A.06.04.32
!Agilent E8363B: A.06.04.32
!Date: Tuesday, November 11, 2014 21:40:40
!Correction: S21(Response(S21)) 
!S1P File: Measurement: S21:
# Hz S  dB   R 50
3000000000  -4.373603e+001  -1.576275e+002 
3003125000  -4.552272e+001  -1.612470e+002 
3006250000  -4.532933e+001  -1.647396e+002 
3009375000  -4.600306e+001  -1.612179e+002 
3012500000  -4.490005e+001  -1.658088e+002 
3015625000  -4.499339e+001  -1.747615e+002 
3018750000  -4.510595e+001  -1.747028e+002 
3021875000  -4.420724e+001  -1.737330e+002 
3025000000  -4.245809e+001  -1.776988e+002 
3028125000  -4.175480e+001  1.682954e+002 
3031250000  -4.101319e+001  1.558415e+002 
3034375000  -4.086143e+001  1.425854e+002 
3037500000  -4.151377e+001  1.310127e+002 
3040625000  -4.270197e+001  1.249055e+002 
3043750000  -4.332450e+001  1.181126e+002 
3046875000  -4.394676e+001  1.109271e+002 
3050000000  -4.504274e+001  1.064759e+002 
3053125000  -4.489043e+001  1.096779e+002 
3056250000  -4.480132e+001  1.118518e+002 
3059375000  -4.388018e+001  1.099370e+002 
3062500000  -4.235932e+001  1.048189e+002 
3065625000  -4.208938e+001  9.400891e+001 
3068750000  -4.171085e+001  8.562739e+001 
3071875000  -4.148155e+001  8.323811e+001 
3075000000  -4.119949e+001  7.483646e+001 
3078125000  -4.107351e+001  6.696775e+001 
3081250000  -4.130025e+001  6.126109e+001 
3084375000  -4.035938e+001  5.487464e+001 
3087500000  -4.048775e+001  4.782486e+001 
3090625000  -3.989663e+001  3.533476e+001 
3093750000  -4.087171e+001  2.546942e+001 
3096875000  -4.111963e+001  1.978133e+001 
3100000000  -4.121663e+001  1.597643e+001 
3103125000  -4.141413e+001  1.072450e+001 
3106250000  -4.111316e+001  5.778728e+000 
3109375000  -4.087252e+001  7.165518e-001 
3112500000  -4.091519e+001  -7.699935e+000 
3115625000  -4.079383e+001  -1.163446e+001 
3118750000  -4.075895e+001  -1.620946e+001 
3121875000  -4.017676e+001  -2.923624e+001 
3125000000  -4.225918e+001  -3.376579e+001 
3128125000  -4.196140e+001  -2.745896e+001 
3131250000  -3.939338e+001  -3.398262e+001 
3134375000  -3.884050e+001  -5.354754e+001 
3137500000  -3.959012e+001  -6.560722e+001 
3140625000  -4.104316e+001  -6.951651e+001 
3143750000  -4.169966e+001  -7.487632e+001 
3146875000  -4.095541e+001  -7.302253e+001 
3150000000  -4.038437e+001  -7.819495e+001 
3153125000  -4.066898e+001  -8.818392e+001 
3156250000  -4.135283e+001  -8.463544e+001 
3159375000  -3.916053e+001  -8.734178e+001 
3162500000  -3.783677e+001  -1.051745e+002 
3165625000  -3.889247e+001  -1.182394e+002 
3168750000  -3.894680e+001  -1.194081e+002 
3171875000  -3.855998e+001  -1.302882e+002 
3175000000  -3.921176e+001  -1.395276e+002 
3178125000  -3.878212e+001  -1.416641e+002 
3181250000  -3.807994e+001  -1.505442e+002 
3184375000  -3.778006e+001  -1.630695e+002 
3187500000  -3.933657e+001  -1.781094e+002 
3190625000  -4.080883e+001  1.741706e+002 
3193750000  -4.115705e+001  1.790117e+002 
3196875000  -4.134707e+001  1.781095e+002 
3200000000  -3.985022e+001  1.735121e+002 
3203125000  -3.982489e+001  1.647679e+002 
3206250000  -4.004246e+001  1.555135e+002 
3209375000  -3.953659e+001  1.473258e+002 
3212500000  -3.999726e+001  1.388463e+002 
3215625000  -3.968480e+001  1.367243e+002 
3218750000  -4.061621e+001  1.235461e+002 
3221875000  -4.044513e+001  1.179176e+002 
3225000000  -4.046677e+001  1.129834e+002 
3228125000  -4.123344e+001  1.034436e+002 
3231250000  -4.127098e+001  1.009498e+002 
3234375000  -4.109520e+001  9.874042e+001 
3237500000  -4.094291e+001  9.347997e+001 
3240625000  -4.040806e+001  8.752439e+001 
3243750000  -4.049904e+001  7.484858e+001 
3246875000  -4.067457e+001  6.766156e+001 
3250000000  -4.113712e+001  6.077140e+001 
3253125000  -4.126605e+001  5.868412e+001 
3256250000  -4.029980e+001  4.856097e+001 
3259375000  -4.103774e+001  3.514956e+001 
3262500000  -4.251958e+001  3.069855e+001 
3265625000  -4.268319e+001  3.045431e+001 
3268750000  -4.253067e+001  3.202111e+001 
3271875000  -4.179025e+001  2.465464e+001 
3275000000  -4.128455e+001  1.482594e+001 
3278125000  -4.180473e+001  5.862383e+000 
3281250000  -4.194990e+001  2.879388e+000 
3284375000  -4.111935e+001  -4.518679e+000 
3287500000  -4.166475e+001  -1.184726e+001 
3290625000  -4.167389e+001  -2.187995e+001 
3293750000  -4.162087e+001  -3.217388e+001 
3296875000  -4.273413e+001  -3.338290e+001 
3300000000  -4.204558e+001  -3.737729e+001 
3303125000  -4.107106e+001  -4.584905e+001 
3306250000  -4.108157e+001  -5.613633e+001 
3309375000  -4.082722e+001  -6.800121e+001 
3312500000  -4.138638e+001  -8.299907e+001 
3315625000  -4.266206e+001  -9.171262e+001 
3318750000  -4.419160e+001  -9.828388e+001 
3321875000  -4.505505e+001  -9.517517e+001 
3325000000  -4.501759e+001  -9.244127e+001 
3328125000  -4.395807e+001  -9.279199e+001 
3331250000  -4.266928e+001  -9.524112e+001 
3334375000  -4.024442e+001  -1.141178e+002 
3337500000  -4.107788e+001  -1.368858e+002 
3340625000  -4.289140e+001  -1.467687e+002 
3343750000  -4.456441e+001  -1.481716e+002 
3346875000  -4.440003e+001  -1.539343e+002 
3350000000  -4.390073e+001  -1.579327e+002 
3353125000  -4.380506e+001  -1.676962e+002 
3356250000  -4.342488e+001  -1.762634e+002 
3359375000  -4.480092e+001  1.672565e+002 
3362500000  -4.522036e+001  1.607987e+002 
3365625000  -4.605555e+001  1.558929e+002 
3368750000  -4.664145e+001  1.483717e+002 
3371875000  -4.688052e+001  1.417638e+002 
3375000000  -4.858815e+001  1.349368e+002 
3378125000  -4.951785e+001  1.380033e+002 
3381250000  -5.147715e+001  1.448065e+002 
3384375000  -4.816664e+001  1.582961e+002 
3387500000  -4.473646e+001  1.318595e+002 
3390625000  -4.681982e+001  1.114790e+002 
3393750000  -4.784424e+001  1.066012e+002 
3396875000  -4.662508e+001  1.048662e+002 
3400000000  -4.640934e+001  8.958762e+001 
3403125000  -4.684746e+001  8.196603e+001 
3406250000  -4.771213e+001  7.211860e+001 
3409375000  -4.717770e+001  6.140123e+001 
3412500000  -4.783765e+001  5.551188e+001 
3415625000  -4.856728e+001  5.314005e+001 
3418750000  -4.848172e+001  4.825140e+001 
3421875000  -4.934902e+001  4.226890e+001 
3425000000  -4.748337e+001  4.149656e+001 
3428125000  -4.729089e+001  3.077227e+001 
3431250000  -4.720406e+001  1.566928e+001 
3434375000  -4.710854e+001  2.707566e+000 
3437500000  -4.762006e+001  -2.268861e+000 
3440625000  -4.808941e+001  -5.466724e+000 
3443750000  -4.670115e+001  -9.323765e+000 
3446875000  -4.561240e+001  -2.340238e+001 
3450000000  -4.518031e+001  -4.123041e+001 
3453125000  -4.556850e+001  -5.621685e+001 
3456250000  -4.762146e+001  -6.730730e+001 
3459375000  -4.838209e+001  -6.734795e+001 
3462500000  -4.752551e+001  -7.445193e+001 
3465625000  -4.742768e+001  -8.704084e+001 
3468750000  -4.724770e+001  -9.458192e+001 
3471875000  -4.710502e+001  -1.000278e+002 
3475000000  -4.702443e+001  -1.113171e+002 
3478125000  -4.728938e+001  -1.247107e+002 
3481250000  -4.870676e+001  -1.320734e+002 
3484375000  -4.829083e+001  -1.260371e+002 
3487500000  -4.761737e+001  -1.384973e+002 
3490625000  -4.733372e+001  -1.492273e+002 
3493750000  -4.753209e+001  -1.641402e+002 
3496875000  -4.815090e+001  -1.659510e+002 
3500000000  -4.856254e+001  -1.666553e+002 
3503125000  -4.699776e+001  -1.716331e+002 
3506250000  -4.536794e+001  1.742937e+002 
3509375000  -4.566155e+001  1.570988e+002 
3512500000  -4.604762e+001  1.391502e+002 
3515625000  -4.717875e+001  1.364501e+002 
3518750000  -4.731028e+001  1.334520e+002 
3521875000  -4.783596e+001  1.233632e+002 
3525000000  -4.899208e+001  1.179478e+002 
3528125000  -4.761576e+001  1.183833e+002 
3531250000  -4.646516e+001  1.088116e+002 
3534375000  -4.698501e+001  9.072975e+001 
3537500000  -4.771867e+001  8.301042e+001 
3540625000  -4.929383e+001  7.779936e+001 
3543750000  -4.922488e+001  8.340614e+001 
3546875000  -4.901991e+001  8.695277e+001 
3550000000  -4.689225e+001  7.900352e+001 
3553125000  -4.584065e+001  5.664132e+001 
3556250000  -4.749293e+001  5.456881e+001 
3559375000  -4.660948e+001  4.802245e+001 
3562500000  -4.665630e+001  3.844069e+001 
3565625000  -4.739417e+001  2.834725e+001 
3568750000  -4.789798e+001  2.592518e+001 
3571875000  -4.746296e+001  2.555721e+001 
3575000000  -4.690649e+001  1.474409e+001 
3578125000  -4.817770e+001  1.463184e+001 
3581250000  -4.747561e+001  6.368824e+000 
3584375000  -4.617717e+001  -1.278346e+000 
3587500000  -4.548938e+001  -9.871790e+000 
3590625000  -4.640689e+001  -2.216723e+001 
3593750000  -4.719645e+001  -2.162115e+001 
3596875000  -4.664393e+001  -1.638411e+001 
3600000000  -4.453925e+001  -2.939008e+001 
3603125000  -4.507278e+001  -4.180492e+001 
3606250000  -4.605606e+001  -4.801743e+001 
3609375000  -4.619026e+001  -5.274409e+001 
3612500000  -4.595070e+001  -5.828203e+001 
3615625000  -4.627308e+001  -6.212667e+001 
3618750000  -4.595094e+001  -6.542772e+001 
3621875000  -4.526442e+001  -7.278657e+001 
3625000000  -4.563667e+001  -8.037695e+001 
3628125000  -4.517983e+001  -8.157254e+001 
3631250000  -4.494633e+001  -9.327423e+001 
3634375000  -4.510455e+001  -9.412222e+001 
3637500000  -4.472970e+001  -9.551328e+001 
3640625000  -4.358395e+001  -1.012908e+002 
3643750000  -4.311756e+001  -1.138989e+002 
3646875000  -4.394260e+001  -1.253480e+002 
3650000000  -4.393259e+001  -1.289580e+002 
3653125000  -4.323204e+001  -1.376800e+002 
3656250000  -4.417372e+001  -1.428617e+002 
3659375000  -4.379965e+001  -1.487727e+002 
3662500000  -4.344984e+001  -1.539135e+002 
3665625000  -4.353039e+001  -1.608887e+002 
3668750000  -4.177985e+001  -1.625353e+002 
3671875000  -4.142128e+001  -1.765225e+002 
3675000000  -4.227670e+001  1.716584e+002 
3678125000  -4.275440e+001  1.674384e+002 
3681250000  -4.252149e+001  1.616663e+002 
3684375000  -4.259048e+001  1.527884e+002 
3687500000  -4.288557e+001  1.440051e+002 
3690625000  -4.358591e+001  1.375051e+002 
3693750000  -4.454808e+001  1.370378e+002 
3696875000  -4.372246e+001  1.356539e+002 
3700000000  -4.320179e+001  1.266789e+002 
3703125000  -4.378608e+001  1.193528e+002 
3706250000  -4.464707e+001  1.174049e+002 
3709375000  -4.380138e+001  1.159994e+002 
3712500000  -4.300078e+001  1.116502e+002 
3715625000  -4.178570e+001  1.003360e+002 
3718750000  -4.169126e+001  9.237434e+001 
3721875000  -4.206610e+001  8.198672e+001 
3725000000  -4.240775e+001  7.503545e+001 
3728125000  -4.231242e+001  7.183287e+001 
3731250000  -4.180200e+001  6.383289e+001 
3734375000  -4.203423e+001  5.486644e+001 
3737500000  -4.289333e+001  5.071287e+001 
3740625000  -4.306491e+001  4.256273e+001 
3743750000  -4.297661e+001  3.335986e+001 
3746875000  -4.315516e+001  3.120810e+001 
3750000000  -4.391454e+001  2.705627e+001 
3753125000  -4.380131e+001  2.341471e+001 
3756250000  -4.393245e+001  1.932764e+001 
3759375000  -4.373126e+001  1.265877e+001 
3762500000  -4.306838e+001  8.654321e+000 
3765625000  -4.426757e+001  3.096319e+000 
3768750000  -4.368937e+001  5.962504e+000 
3771875000  -4.251337e+001  -2.111078e+000 
3775000000  -4.241555e+001  -1.231934e+001 
3778125000  -4.309003e+001  -1.865486e+001 
3781250000  -4.270082e+001  -2.499173e+001 
3784375000  -4.259392e+001  -3.098502e+001 
3787500000  -4.228523e+001  -3.537078e+001 
3790625000  -4.301875e+001  -4.378020e+001 
3793750000  -4.253963e+001  -4.970570e+001 
3796875000  -4.164588e+001  -5.410270e+001 
3800000000  -4.113167e+001  -6.061107e+001 
3803125000  -4.189041e+001  -7.151974e+001 
3806250000  -4.253808e+001  -7.736473e+001 
3809375000  -4.194817e+001  -8.342578e+001 
3812500000  -4.181089e+001  -9.386336e+001 
3815625000  -4.320842e+001  -1.077624e+002 
3818750000  -4.455615e+001  -1.040362e+002 
3821875000  -4.355109e+001  -9.022932e+001 
3825000000  -4.166630e+001  -9.892988e+001 
3828125000  -4.037671e+001  -1.183853e+002 
3831250000  -4.156907e+001  -1.352855e+002 
3834375000  -4.426168e+001  -1.347320e+002 
3837500000  -4.402487e+001  -1.320079e+002 
3840625000  -4.241193e+001  -1.381864e+002 
3843750000  -4.171369e+001  -1.527343e+002 
3846875000  -4.384159e+001  -1.615266e+002 
3850000000  -4.457018e+001  -1.537240e+002 
3853125000  -4.345768e+001  -1.572778e+002 
3856250000  -4.298463e+001  -1.640414e+002 
3859375000  -4.236172e+001  -1.741841e+002 
3862500000  -4.209642e+001  1.750457e+002 
3865625000  -4.280837e+001  1.682947e+002 
3868750000  -4.261795e+001  1.668656e+002 
3871875000  -4.191745e+001  1.599078e+002 
3875000000  -4.281360e+001  1.489592e+002 
3878125000  -4.332969e+001  1.463103e+002 
3881250000  -4.329105e+001  1.436635e+002 
3884375000  -4.276527e+001  1.336773e+002 
3887500000  -4.321929e+001  1.281788e+002 
3890625000  -4.404626e+001  1.245071e+002 
3893750000  -4.441479e+001  1.221266e+002 
3896875000  -4.418242e+001  1.191866e+002 
3900000000  -4.461521e+001  1.109923e+002 
3903125000  -4.368754e+001  1.074009e+002 
3906250000  -4.356860e+001  1.030301e+002 
3909375000  -4.258812e+001  9.485432e+001 
3912500000  -4.389441e+001  8.377464e+001 
3915625000  -4.523889e+001  8.523406e+001 
3918750000  -4.478271e+001  8.494234e+001 
3921875000  -4.417923e+001  7.919131e+001 
3925000000  -4.318290e+001  7.086469e+001 
3928125000  -4.340751e+001  6.218945e+001 
3931250000  -4.397180e+001  5.806744e+001 
3934375000  -4.414683e+001  5.174553e+001 
3937500000  -4.482352e+001  5.081641e+001 
3940625000  -4.459729e+001  5.022556e+001 
3943750000  -4.332490e+001  4.334767e+001 
3946875000  -4.282588e+001  3.592777e+001 
3950000000  -4.371032e+001  2.574803e+001 
3953125000  -4.449231e+001  2.669272e+001 
3956250000  -4.295963e+001  2.776959e+001 
3959375000  -4.158289e+001  2.078865e+001 
3962500000  -4.168213e+001  8.094814e+000 
3965625000  -4.164808e+001  -1.577900e+000 
3968750000  -4.261418e+001  -1.036232e+001 
3971875000  -4.247243e+001  -1.456853e+001 
3975000000  -4.229564e+001  -1.909714e+001 
3978125000  -4.227955e+001  -2.477763e+001 
3981250000  -4.212632e+001  -3.380757e+001 
3984375000  -4.290255e+001  -4.362858e+001 
3987500000  -4.319452e+001  -4.443202e+001 
3990625000  -4.306542e+001  -5.042202e+001 
3993750000  -4.291998e+001  -5.710298e+001 
3996875000  -4.283470e+001  -6.138293e+001 
4000000000  -4.369052e+001  -6.734065e+001 
4003125000  -4.386606e+001  -6.630431e+001 
4006250000  -4.227629e+001  -7.219759e+001 
4009375000  -4.173323e+001  -8.950661e+001 
4012500000  -4.324261e+001  -9.692423e+001 
4015625000  -4.437323e+001  -9.698397e+001 
4018750000  -4.415165e+001  -9.955172e+001 
4021875000  -4.346051e+001  -1.086063e+002 
4025000000  -4.344893e+001  -1.145411e+002 
4028125000  -4.357896e+001  -1.244758e+002 
4031250000  -4.430397e+001  -1.295671e+002 
4034375000  -4.411699e+001  -1.351024e+002 
4037500000  -4.431984e+001  -1.356798e+002 
4040625000  -4.448433e+001  -1.418045e+002 
4043750000  -4.500467e+001  -1.481913e+002 
4046875000  -4.467586e+001  -1.515728e+002 
4050000000  -4.423756e+001  -1.583963e+002 
4053125000  -4.561284e+001  -1.610197e+002 
4056250000  -4.579431e+001  -1.577690e+002 
4059375000  -4.405539e+001  -1.567433e+002 
4062500000  -4.353003e+001  -1.681902e+002 
4065625000  -4.383485e+001  -1.770116e+002 
4068750000  -4.335677e+001  1.755257e+002 
4071875000  -4.330241e+001  1.664110e+002 
4075000000  -4.412967e+001  1.583471e+002 
4078125000  -4.406908e+001  1.572708e+002 
4081250000  -4.327296e+001  1.507978e+002 
4084375000  -4.409193e+001  1.426330e+002 
4087500000  -4.423699e+001  1.340821e+002 
4090625000  -4.482925e+001  1.335608e+002 
4093750000  -4.501647e+001  1.305177e+002 
4096875000  -4.450654e+001  1.230145e+002 
4100000000  -4.558754e+001  1.156404e+002 
4103125000  -4.640818e+001  1.243202e+002 
4106250000  -4.535717e+001  1.225441e+002 
4109375000  -4.454328e+001  1.173814e+002 
4112500000  -4.478696e+001  1.079938e+002 
4115625000  -4.458364e+001  1.011781e+002 
4118750000  -4.396415e+001  9.697479e+001 
4121875000  -4.390183e+001  8.968805e+001 
4125000000  -4.482516e+001  7.937356e+001 
4128125000  -4.571478e+001  8.340240e+001 
4131250000  -4.424431e+001  9.131068e+001 
4134375000  -4.191367e+001  7.667482e+001 
4137500000  -4.285512e+001  5.332933e+001 
4140625000  -4.477092e+001  4.959455e+001 
4143750000  -4.526238e+001  5.355359e+001 
4146875000  -4.416167e+001  5.368218e+001 
4150000000  -4.338685e+001  4.612740e+001 
4153125000  -4.349540e+001  3.660857e+001 
4156250000  -4.401472e+001  3.215850e+001 
4159375000  -4.423724e+001  3.553925e+001 
4162500000  -4.253645e+001  3.233041e+001 
4165625000  -4.166376e+001  2.122955e+001 
4168750000  -4.158785e+001  1.335383e+001 
4171875000  -4.176671e+001  -3.043119e-001 
4175000000  -4.224932e+001  -6.552047e+000 
4178125000  -4.269245e+001  -1.248592e+001 
4181250000  -4.252149e+001  -1.907715e+001 
4184375000  -4.304173e+001  -2.372852e+001 
4187500000  -4.291647e+001  -2.920727e+001 
4190625000  -4.299586e+001  -3.856422e+001 
4193750000  -4.385827e+001  -4.698916e+001 
4196875000  -4.583287e+001  -4.879483e+001 
4200000000  -4.600676e+001  -4.080348e+001 
4203125000  -4.486515e+001  -3.383747e+001 
4206250000  -4.158768e+001  -4.223777e+001 
4209375000  -4.162754e+001  -6.673965e+001 
4212500000  -4.384345e+001  -7.317543e+001 
4215625000  -4.464247e+001  -7.069202e+001 
4218750000  -4.265353e+001  -6.460443e+001 
4221875000  -4.159617e+001  -7.612572e+001 
4225000000  -4.265145e+001  -8.939290e+001 
4228125000  -4.270087e+001  -8.692480e+001 
4231250000  -4.140461e+001  -9.629678e+001 
4234375000  -4.180786e+001  -1.068326e+002 
4237500000  -4.133536e+001  -1.112792e+002 
4240625000  -4.154573e+001  -1.216623e+002 
4243750000  -4.277597e+001  -1.324362e+002 
4246875000  -4.343761e+001  -1.333219e+002 
4250000000  -4.324619e+001  -1.310250e+002 
4253125000  -4.295446e+001  -1.349278e+002 
4256250000  -4.280863e+001  -1.412614e+002 
4259375000  -4.264105e+001  -1.481527e+002 
4262500000  -4.293298e+001  -1.532597e+002 
4265625000  -4.230645e+001  -1.533419e+002 
4268750000  -4.130924e+001  -1.615326e+002 
4271875000  -4.121680e+001  -1.723573e+002 
4275000000  -4.058540e+001  1.765628e+002 
4278125000  -4.177254e+001  1.660310e+002 
4281250000  -4.315626e+001  1.639221e+002 
4284375000  -4.269261e+001  1.602112e+002 
4287500000  -4.409158e+001  1.568182e+002 
4290625000  -4.383862e+001  1.628216e+002 
4293750000  -4.207029e+001  1.628486e+002 
4296875000  -4.060813e+001  1.487528e+002 
4300000000  -4.187237e+001  1.367971e+002 
4303125000  -4.252765e+001  1.391046e+002 
4306250000  -4.137557e+001  1.362444e+002 
4309375000  -4.030593e+001  1.273467e+002 
4312500000  -3.981950e+001  1.158613e+002 
4315625000  -4.065794e+001  1.062330e+002 
4318750000  -4.122432e+001  1.034577e+002 
4321875000  -4.104845e+001  1.007884e+002 
4325000000  -4.046021e+001  9.601094e+001 
4328125000  -4.004529e+001  8.361315e+001 
4331250000  -3.992364e+001  7.045476e+001 
4334375000  -4.157999e+001  6.430640e+001 
4337500000  -4.220019e+001  6.123101e+001 
4340625000  -4.251258e+001  6.375095e+001 
4343750000  -4.167646e+001  5.799079e+001 
4346875000  -4.158606e+001  5.054396e+001 
4350000000  -4.150462e+001  3.776933e+001 
4353125000  -4.258015e+001  2.997119e+001 
4356250000  -4.382578e+001  3.578972e+001 
4359375000  -4.324171e+001  4.492913e+001 
4362500000  -3.999329e+001  3.891574e+001 
4365625000  -3.984616e+001  1.576339e+001 
4368750000  -4.068287e+001  1.005704e+001 
4371875000  -4.157681e+001  5.567854e+000 
4375000000  -4.140251e+001  -3.669007e-001 
4378125000  -4.095525e+001  -6.773314e+000 
4381250000  -4.141505e+001  -1.543024e+001 
4384375000  -4.130368e+001  -2.288967e+001 
4387500000  -4.209180e+001  -3.050274e+001 
4390625000  -4.270999e+001  -3.040385e+001 
4393750000  -4.226712e+001  -3.090988e+001 
4396875000  -4.172657e+001  -3.954370e+001 
4400000000  -4.118271e+001  -4.688079e+001 
4403125000  -4.224340e+001  -5.787041e+001 
4406250000  -4.255698e+001  -6.080353e+001 
4409375000  -4.293855e+001  -6.743706e+001 
4412500000  -4.440098e+001  -6.850473e+001 
4415625000  -4.354951e+001  -6.438483e+001 
4418750000  -4.222113e+001  -6.632066e+001 
