!Agilent Technologies,E8363B,MY43030201,A.06.04.32
!Agilent E8363B: A.06.04.32
!Date: Tuesday, November 11, 2014 21:44:10
!Correction: S21(Response(S21)) 
!S1P File: Measurement: S21:
# Hz S  dB   R 50
3000000000  -4.369092e+001  -1.602167e+002 
3003125000  -4.523363e+001  -1.648980e+002 
3006250000  -4.508216e+001  -1.661765e+002 
3009375000  -4.622731e+001  -1.623770e+002 
3012500000  -4.481143e+001  -1.691113e+002 
3015625000  -4.500169e+001  -1.771774e+002 
3018750000  -4.536162e+001  -1.768528e+002 
3021875000  -4.371491e+001  -1.794940e+002 
3025000000  -4.250834e+001  1.792593e+002 
3028125000  -4.171469e+001  1.665889e+002 
3031250000  -4.089761e+001  1.535819e+002 
3034375000  -4.068961e+001  1.396051e+002 
3037500000  -4.171111e+001  1.278905e+002 
3040625000  -4.276376e+001  1.215848e+002 
3043750000  -4.315826e+001  1.154142e+002 
3046875000  -4.407541e+001  1.075879e+002 
3050000000  -4.525860e+001  1.040224e+002 
3053125000  -4.504457e+001  1.062517e+002 
3056250000  -4.474105e+001  1.103021e+002 
3059375000  -4.396855e+001  1.073601e+002 
3062500000  -4.264931e+001  1.035246e+002 
3065625000  -4.238379e+001  9.053313e+001 
3068750000  -4.186487e+001  8.194096e+001 
3071875000  -4.172085e+001  7.948081e+001 
3075000000  -4.111252e+001  7.189688e+001 
3078125000  -4.125732e+001  6.412724e+001 
3081250000  -4.126842e+001  5.656242e+001 
3084375000  -4.050359e+001  5.290598e+001 
3087500000  -4.053745e+001  4.456647e+001 
3090625000  -3.990708e+001  3.172919e+001 
3093750000  -4.082322e+001  2.323255e+001 
3096875000  -4.110292e+001  1.745838e+001 
3100000000  -4.109210e+001  1.341344e+001 
3103125000  -4.148482e+001  8.425966e+000 
3106250000  -4.112379e+001  2.912896e+000 
3109375000  -4.118394e+001  -1.798921e+000 
3112500000  -4.080318e+001  -9.831491e+000 
3115625000  -4.090040e+001  -1.367054e+001 
3118750000  -4.081302e+001  -2.036092e+001 
3121875000  -4.021449e+001  -3.183514e+001 
3125000000  -4.199020e+001  -3.589981e+001 
3128125000  -4.208578e+001  -3.094864e+001 
3131250000  -3.945404e+001  -3.856704e+001 
3134375000  -3.880575e+001  -5.534585e+001 
3137500000  -3.950467e+001  -6.854067e+001 
3140625000  -4.079671e+001  -7.195493e+001 
3143750000  -4.158774e+001  -7.663224e+001 
3146875000  -4.101804e+001  -7.600439e+001 
3150000000  -4.043742e+001  -8.049957e+001 
3153125000  -4.082728e+001  -8.959726e+001 
3156250000  -4.150212e+001  -8.693939e+001 
3159375000  -3.916431e+001  -9.173327e+001 
3162500000  -3.789702e+001  -1.068484e+002 
3165625000  -3.896421e+001  -1.221294e+002 
3168750000  -3.904465e+001  -1.227430e+002 
3171875000  -3.870111e+001  -1.315831e+002 
3175000000  -3.913408e+001  -1.411925e+002 
3178125000  -3.862782e+001  -1.425853e+002 
3181250000  -3.819401e+001  -1.532711e+002 
3184375000  -3.788047e+001  -1.656987e+002 
3187500000  -3.911018e+001  1.783856e+002 
3190625000  -4.096731e+001  1.721788e+002 
3193750000  -4.114631e+001  1.753198e+002 
3196875000  -4.127672e+001  1.760159e+002 
3200000000  -3.999057e+001  1.700985e+002 
3203125000  -3.964087e+001  1.611461e+002 
3206250000  -3.982816e+001  1.524230e+002 
3209375000  -3.945826e+001  1.439478e+002 
3212500000  -4.005531e+001  1.362196e+002 
3215625000  -3.959351e+001  1.336169e+002 
3218750000  -4.053030e+001  1.212927e+002 
3221875000  -4.062910e+001  1.138367e+002 
3225000000  -4.040696e+001  1.089582e+002 
3228125000  -4.117831e+001  1.021432e+002 
3231250000  -4.158653e+001  9.884817e+001 
3234375000  -4.111311e+001  9.467387e+001 
3237500000  -4.110806e+001  9.178302e+001 
3240625000  -4.042366e+001  8.375581e+001 
3243750000  -4.040498e+001  7.269466e+001 
3246875000  -4.085592e+001  6.436926e+001 
3250000000  -4.113076e+001  5.915343e+001 
3253125000  -4.123294e+001  5.625352e+001 
3256250000  -4.039257e+001  4.615158e+001 
3259375000  -4.101313e+001  3.208362e+001 
3262500000  -4.257012e+001  2.830206e+001 
3265625000  -4.265734e+001  2.784760e+001 
3268750000  -4.254138e+001  2.813070e+001 
3271875000  -4.197707e+001  2.299490e+001 
3275000000  -4.101890e+001  1.132985e+001 
3278125000  -4.174035e+001  4.324244e+000 
3281250000  -4.195396e+001  -2.270353e-001 
3284375000  -4.123760e+001  -6.812897e+000 
3287500000  -4.155028e+001  -1.493736e+001 
3290625000  -4.171083e+001  -2.520519e+001 
3293750000  -4.156999e+001  -3.404533e+001 
3296875000  -4.270034e+001  -3.653151e+001 
3300000000  -4.208258e+001  -4.114640e+001 
3303125000  -4.112862e+001  -4.773740e+001 
3306250000  -4.103050e+001  -5.860665e+001 
3309375000  -4.076350e+001  -7.045676e+001 
3312500000  -4.140662e+001  -8.636002e+001 
3315625000  -4.235976e+001  -9.160346e+001 
3318750000  -4.411303e+001  -9.880083e+001 
3321875000  -4.493156e+001  -9.812267e+001 
3325000000  -4.498924e+001  -9.393467e+001 
3328125000  -4.382194e+001  -9.709597e+001 
3331250000  -4.251382e+001  -9.808453e+001 
3334375000  -4.047525e+001  -1.168199e+002 
3337500000  -4.124197e+001  -1.394205e+002 
3340625000  -4.285284e+001  -1.516552e+002 
3343750000  -4.469727e+001  -1.515282e+002 
3346875000  -4.396220e+001  -1.536639e+002 
3350000000  -4.360306e+001  -1.599930e+002 
3353125000  -4.388575e+001  -1.711704e+002 
3356250000  -4.348628e+001  -1.797104e+002 
3359375000  -4.428044e+001  1.650991e+002 
3362500000  -4.534846e+001  1.587917e+002 
3365625000  -4.564333e+001  1.532015e+002 
3368750000  -4.692625e+001  1.489321e+002 
3371875000  -4.686274e+001  1.421266e+002 
3375000000  -4.869992e+001  1.334631e+002 
3378125000  -4.944576e+001  1.325950e+002 
3381250000  -5.037695e+001  1.435507e+002 
3384375000  -4.766086e+001  1.529162e+002 
3387500000  -4.460271e+001  1.284838e+002 
3390625000  -4.739110e+001  1.072508e+002 
3393750000  -4.821058e+001  1.084902e+002 
3396875000  -4.641980e+001  1.040648e+002 
3400000000  -4.622280e+001  8.580897e+001 
3403125000  -4.684843e+001  7.770322e+001 
3406250000  -4.733743e+001  7.122902e+001 
3409375000  -4.693527e+001  5.943855e+001 
3412500000  -4.774712e+001  5.144338e+001 
3415625000  -4.928834e+001  4.831648e+001 
3418750000  -4.863330e+001  4.352887e+001 
3421875000  -4.899155e+001  4.180504e+001 
3425000000  -4.764354e+001  3.794498e+001 
3428125000  -4.721962e+001  2.598348e+001 
3431250000  -4.681124e+001  1.612627e+001 
3434375000  -4.714292e+001  4.340205e+000 
3437500000  -4.725946e+001  -4.019338e+000 
3440625000  -4.751186e+001  -7.175729e+000 
3443750000  -4.641781e+001  -1.345331e+001 
3446875000  -4.566701e+001  -2.665812e+001 
3450000000  -4.513362e+001  -4.361085e+001 
3453125000  -4.577558e+001  -6.173217e+001 
3456250000  -4.714767e+001  -6.814417e+001 
3459375000  -4.838985e+001  -7.247227e+001 
3462500000  -4.750379e+001  -7.503886e+001 
3465625000  -4.708031e+001  -8.840768e+001 
3468750000  -4.771130e+001  -9.709606e+001 
3471875000  -4.699392e+001  -1.043343e+002 
3475000000  -4.697657e+001  -1.147728e+002 
3478125000  -4.736799e+001  -1.271457e+002 
3481250000  -4.873734e+001  -1.377238e+002 
3484375000  -4.805119e+001  -1.353535e+002 
3487500000  -4.730385e+001  -1.427551e+002 
3490625000  -4.692659e+001  -1.522763e+002 
3493750000  -4.785820e+001  -1.665682e+002 
3496875000  -4.788281e+001  -1.689530e+002 
3500000000  -4.817019e+001  -1.720706e+002 
3503125000  -4.706334e+001  -1.728694e+002 
3506250000  -4.534688e+001  1.717238e+002 
3509375000  -4.573441e+001  1.529120e+002 
3512500000  -4.602025e+001  1.379432e+002 
3515625000  -4.732073e+001  1.321708e+002 
3518750000  -4.780845e+001  1.326608e+002 
3521875000  -4.802287e+001  1.165481e+002 
3525000000  -4.856733e+001  1.151382e+002 
3528125000  -4.767468e+001  1.210151e+002 
3531250000  -4.658536e+001  1.063606e+002 
3534375000  -4.673655e+001  9.081565e+001 
3537500000  -4.801817e+001  8.233550e+001 
3540625000  -4.854163e+001  7.463909e+001 
3543750000  -4.954639e+001  8.384888e+001 
3546875000  -4.871507e+001  8.658784e+001 
3550000000  -4.631869e+001  7.871582e+001 
3553125000  -4.616767e+001  5.516813e+001 
3556250000  -4.742469e+001  4.694061e+001 
3559375000  -4.644373e+001  4.508025e+001 
3562500000  -4.626146e+001  3.486268e+001 
3565625000  -4.754218e+001  2.460743e+001 
3568750000  -4.771012e+001  2.825251e+001 
3571875000  -4.728043e+001  2.074123e+001 
3575000000  -4.645082e+001  1.321234e+001 
3578125000  -4.771758e+001  8.198185e+000 
3581250000  -4.722942e+001  5.150555e+000 
3584375000  -4.641417e+001  -1.140649e+000 
3587500000  -4.590158e+001  -1.263266e+001 
3590625000  -4.637862e+001  -2.317299e+001 
3593750000  -4.783240e+001  -2.225483e+001 
3596875000  -4.648609e+001  -2.002421e+001 
3600000000  -4.509399e+001  -3.105288e+001 
3603125000  -4.492217e+001  -4.724387e+001 
3606250000  -4.595763e+001  -5.071907e+001 
3609375000  -4.612956e+001  -5.801734e+001 
3612500000  -4.599426e+001  -5.828752e+001 
3615625000  -4.603024e+001  -6.870861e+001 
3618750000  -4.658420e+001  -6.946165e+001 
3621875000  -4.553012e+001  -7.845191e+001 
3625000000  -4.537683e+001  -8.103794e+001 
3628125000  -4.479773e+001  -8.533688e+001 
3631250000  -4.533988e+001  -9.732172e+001 
3634375000  -4.569908e+001  -9.548418e+001 
3637500000  -4.426435e+001  -9.882317e+001 
3640625000  -4.378241e+001  -1.040934e+002 
3643750000  -4.311280e+001  -1.170772e+002 
3646875000  -4.331454e+001  -1.273815e+002 
3650000000  -4.349203e+001  -1.332832e+002 
3653125000  -4.330617e+001  -1.422363e+002 
3656250000  -4.400075e+001  -1.460576e+002 
3659375000  -4.380044e+001  -1.522043e+002 
3662500000  -4.345852e+001  -1.583702e+002 
3665625000  -4.356824e+001  -1.593964e+002 
3668750000  -4.211532e+001  -1.647100e+002 
3671875000  -4.160061e+001  1.782794e+002 
3675000000  -4.248041e+001  1.699755e+002 
3678125000  -4.249858e+001  1.646757e+002 
3681250000  -4.262313e+001  1.586604e+002 
3684375000  -4.249288e+001  1.499205e+002 
3687500000  -4.312078e+001  1.415191e+002 
3690625000  -4.353102e+001  1.348820e+002 
3693750000  -4.463302e+001  1.333777e+002 
3696875000  -4.360895e+001  1.315761e+002 
3700000000  -4.289161e+001  1.229762e+002 
3703125000  -4.378114e+001  1.157780e+002 
3706250000  -4.475321e+001  1.121784e+002 
3709375000  -4.391359e+001  1.143650e+002 
3712500000  -4.315771e+001  1.076646e+002 
3715625000  -4.179572e+001  9.785400e+001 
3718750000  -4.164101e+001  8.798491e+001 
3721875000  -4.181963e+001  7.897757e+001 
3725000000  -4.235633e+001  7.064401e+001 
3728125000  -4.242756e+001  6.894177e+001 
3731250000  -4.170393e+001  6.000119e+001 
3734375000  -4.203329e+001  5.313570e+001 
3737500000  -4.299980e+001  4.595689e+001 
3740625000  -4.311055e+001  3.877685e+001 
3743750000  -4.304569e+001  3.271020e+001 
3746875000  -4.350173e+001  2.709197e+001 
3750000000  -4.377802e+001  2.252637e+001 
3753125000  -4.360262e+001  2.049266e+001 
3756250000  -4.389587e+001  1.508166e+001 
3759375000  -4.363555e+001  1.027124e+001 
3762500000  -4.333488e+001  5.587586e+000 
3765625000  -4.403798e+001  -2.707827e-001 
3768750000  -4.363990e+001  2.024194e-001 
3771875000  -4.206114e+001  -6.994771e+000 
3775000000  -4.228595e+001  -1.803017e+001 
3778125000  -4.288741e+001  -2.181733e+001 
3781250000  -4.283264e+001  -2.861785e+001 
3784375000  -4.249944e+001  -3.531002e+001 
3787500000  -4.234041e+001  -3.826684e+001 
3790625000  -4.300973e+001  -4.922792e+001 
3793750000  -4.256663e+001  -5.115170e+001 
3796875000  -4.164873e+001  -5.730197e+001 
3800000000  -4.086983e+001  -6.616305e+001 
3803125000  -4.169225e+001  -7.718905e+001 
3806250000  -4.239551e+001  -8.053880e+001 
3809375000  -4.179414e+001  -8.452525e+001 
3812500000  -4.177209e+001  -9.769771e+001 
3815625000  -4.295579e+001  -1.083772e+002 
3818750000  -4.477209e+001  -1.056935e+002 
3821875000  -4.362247e+001  -9.829655e+001 
3825000000  -4.126394e+001  -1.009717e+002 
3828125000  -4.053485e+001  -1.236289e+002 
3831250000  -4.151418e+001  -1.394655e+002 
3834375000  -4.380390e+001  -1.388114e+002 
3837500000  -4.371850e+001  -1.371100e+002 
3840625000  -4.224555e+001  -1.405691e+002 
3843750000  -4.169067e+001  -1.565669e+002 
3846875000  -4.349007e+001  -1.644097e+002 
3850000000  -4.390506e+001  -1.590287e+002 
3853125000  -4.394669e+001  -1.617863e+002 
3856250000  -4.280037e+001  -1.703377e+002 
3859375000  -4.242105e+001  -1.772907e+002 
3862500000  -4.229294e+001  1.717578e+002 
3865625000  -4.290246e+001  1.660202e+002 
3868750000  -4.219408e+001  1.629830e+002 
3871875000  -4.171722e+001  1.533542e+002 
3875000000  -4.263142e+001  1.440384e+002 
3878125000  -4.348781e+001  1.411365e+002 
3881250000  -4.324501e+001  1.397136e+002 
3884375000  -4.288115e+001  1.303925e+002 
3887500000  -4.323989e+001  1.210098e+002 
3890625000  -4.394893e+001  1.208327e+002 
3893750000  -4.446637e+001  1.155146e+002 
3896875000  -4.428638e+001  1.146018e+002 
3900000000  -4.429872e+001  1.069677e+002 
3903125000  -4.358905e+001  1.055342e+002 
3906250000  -4.366261e+001  1.005927e+002 
3909375000  -4.255133e+001  8.990138e+001 
3912500000  -4.411903e+001  7.828460e+001 
3915625000  -4.461193e+001  8.139305e+001 
3918750000  -4.485764e+001  8.008025e+001 
3921875000  -4.410385e+001  7.295744e+001 
3925000000  -4.330456e+001  6.772392e+001 
3928125000  -4.297850e+001  5.979662e+001 
3931250000  -4.380946e+001  5.182697e+001 
3934375000  -4.392311e+001  4.902123e+001 
3937500000  -4.477166e+001  4.854631e+001 
3940625000  -4.482749e+001  4.541832e+001 
3943750000  -4.329565e+001  3.966429e+001 
3946875000  -4.282309e+001  2.892180e+001 
3950000000  -4.407334e+001  2.264811e+001 
3953125000  -4.486458e+001  2.586445e+001 
3956250000  -4.308889e+001  2.087345e+001 
3959375000  -4.204828e+001  1.501565e+001 
3962500000  -4.154831e+001  5.865828e+000 
3965625000  -4.174143e+001  -5.280798e+000 
3968750000  -4.331364e+001  -1.568158e+001 
3971875000  -4.275161e+001  -1.827362e+001 
3975000000  -4.276442e+001  -2.367204e+001 
3978125000  -4.227129e+001  -3.028193e+001 
3981250000  -4.192980e+001  -3.660133e+001 
3984375000  -4.248425e+001  -4.644593e+001 
3987500000  -4.310820e+001  -5.074967e+001 
3990625000  -4.320465e+001  -5.562410e+001 
3993750000  -4.296318e+001  -6.150730e+001 
3996875000  -4.322359e+001  -6.719562e+001 
4000000000  -4.418321e+001  -6.948200e+001 
4003125000  -4.381085e+001  -7.227112e+001 
4006250000  -4.202372e+001  -7.912187e+001 
4009375000  -4.139524e+001  -9.352846e+001 
4012500000  -4.324335e+001  -1.009822e+002 
4015625000  -4.418050e+001  -1.023285e+002 
4018750000  -4.409253e+001  -1.049139e+002 
4021875000  -4.320367e+001  -1.116576e+002 
4025000000  -4.330156e+001  -1.174716e+002 
4028125000  -4.358940e+001  -1.270597e+002 
4031250000  -4.437535e+001  -1.335509e+002 
4034375000  -4.425691e+001  -1.360079e+002 
4037500000  -4.410749e+001  -1.401511e+002 
4040625000  -4.460501e+001  -1.473821e+002 
4043750000  -4.463703e+001  -1.506677e+002 
4046875000  -4.491761e+001  -1.596900e+002 
4050000000  -4.436515e+001  -1.661318e+002 
4053125000  -4.537459e+001  -1.625799e+002 
4056250000  -4.584100e+001  -1.643783e+002 
4059375000  -4.399989e+001  -1.646305e+002 
4062500000  -4.366470e+001  -1.703815e+002 
4065625000  -4.397199e+001  -1.796373e+002 
4068750000  -4.323237e+001  1.737013e+002 
4071875000  -4.307429e+001  1.636420e+002 
4075000000  -4.390496e+001  1.563805e+002 
4078125000  -4.435210e+001  1.518821e+002 
4081250000  -4.399833e+001  1.489468e+002 
4084375000  -4.338160e+001  1.387724e+002 
4087500000  -4.415025e+001  1.321750e+002 
4090625000  -4.491508e+001  1.300616e+002 
4093750000  -4.460117e+001  1.255632e+002 
4096875000  -4.441157e+001  1.186952e+002 
4100000000  -4.560449e+001  1.098904e+002 
4103125000  -4.600857e+001  1.147371e+002 
4106250000  -4.532021e+001  1.165882e+002 
4109375000  -4.468826e+001  1.109807e+002 
4112500000  -4.457206e+001  1.019525e+002 
4115625000  -4.435122e+001  9.835362e+001 
4118750000  -4.428851e+001  9.274023e+001 
4121875000  -4.437206e+001  8.612107e+001 
4125000000  -4.466867e+001  7.666046e+001 
4128125000  -4.550285e+001  7.820359e+001 
4131250000  -4.375879e+001  8.609522e+001 
4134375000  -4.181078e+001  7.418105e+001 
4137500000  -4.253756e+001  5.154283e+001 
4140625000  -4.477118e+001  4.596679e+001 
4143750000  -4.536766e+001  5.137887e+001 
4146875000  -4.435022e+001  5.391430e+001 
4150000000  -4.313878e+001  4.054841e+001 
4153125000  -4.399430e+001  3.185015e+001 
4156250000  -4.435745e+001  2.907367e+001 
4159375000  -4.400555e+001  3.072050e+001 
4162500000  -4.267480e+001  2.949463e+001 
4165625000  -4.207980e+001  2.054206e+001 
4168750000  -4.180139e+001  1.026182e+001 
4171875000  -4.137115e+001  -2.708983e+000 
4175000000  -4.238213e+001  -1.168490e+001 
4178125000  -4.226800e+001  -1.503045e+001 
4181250000  -4.215959e+001  -1.740493e+001 
4184375000  -4.288955e+001  -2.686299e+001 
4187500000  -4.254035e+001  -3.340235e+001 
4190625000  -4.294874e+001  -4.360123e+001 
4193750000  -4.452621e+001  -5.114701e+001 
4196875000  -4.549525e+001  -5.060077e+001 
4200000000  -4.612719e+001  -4.424588e+001 
4203125000  -4.453537e+001  -3.591063e+001 
4206250000  -4.116266e+001  -4.656062e+001 
4209375000  -4.190265e+001  -6.982634e+001 
4212500000  -4.421170e+001  -7.456763e+001 
4215625000  -4.439434e+001  -7.461092e+001 
4218750000  -4.291516e+001  -7.085530e+001 
4221875000  -4.194658e+001  -8.065672e+001 
4225000000  -4.266269e+001  -9.016050e+001 
4228125000  -4.223508e+001  -9.204885e+001 
4231250000  -4.121445e+001  -1.007971e+002 
4234375000  -4.104539e+001  -1.100119e+002 
4237500000  -4.143358e+001  -1.177873e+002 
4240625000  -4.131448e+001  -1.276516e+002 
4243750000  -4.262138e+001  -1.354684e+002 
4246875000  -4.353662e+001  -1.368729e+002 
4250000000  -4.274837e+001  -1.360873e+002 
4253125000  -4.320749e+001  -1.381225e+002 
4256250000  -4.314585e+001  -1.475168e+002 
4259375000  -4.219296e+001  -1.494556e+002 
4262500000  -4.301276e+001  -1.580952e+002 
4265625000  -4.244825e+001  -1.612402e+002 
4268750000  -4.109291e+001  -1.643228e+002 
4271875000  -4.147661e+001  -1.771476e+002 
4275000000  -4.095705e+001  1.760960e+002 
4278125000  -4.193401e+001  1.608198e+002 
4281250000  -4.287957e+001  1.592711e+002 
4284375000  -4.258503e+001  1.574875e+002 
4287500000  -4.418499e+001  1.539082e+002 
4290625000  -4.367075e+001  1.614068e+002 
4293750000  -4.225053e+001  1.595028e+002 
4296875000  -4.074091e+001  1.431359e+002 
4300000000  -4.217947e+001  1.330057e+002 
4303125000  -4.223685e+001  1.340395e+002 
4306250000  -4.102213e+001  1.315489e+002 
4309375000  -4.037374e+001  1.224841e+002 
4312500000  -4.007442e+001  1.103369e+002 
4315625000  -4.064792e+001  1.012172e+002 
4318750000  -4.120745e+001  9.848698e+001 
4321875000  -4.139188e+001  9.425587e+001 
4325000000  -4.067398e+001  9.028083e+001 
4328125000  -3.999516e+001  8.112407e+001 
4331250000  -3.994639e+001  6.884512e+001 
4334375000  -4.127370e+001  5.764529e+001 
4337500000  -4.235320e+001  5.830446e+001 
4340625000  -4.295789e+001  6.193595e+001 
4343750000  -4.161239e+001  5.468604e+001 
4346875000  -4.159767e+001  4.424242e+001 
4350000000  -4.175854e+001  3.442289e+001 
4353125000  -4.258237e+001  2.836877e+001 
4356250000  -4.430917e+001  2.845567e+001 
4359375000  -4.312278e+001  4.198225e+001 
4362500000  -3.982582e+001  3.332700e+001 
4365625000  -3.937673e+001  1.404297e+001 
4368750000  -4.107924e+001  3.357139e+000 
4371875000  -4.179549e+001  3.378209e-001 
4375000000  -4.133146e+001  -2.578133e+000 
4378125000  -4.116664e+001  -1.188212e+001 
4381250000  -4.101320e+001  -1.861122e+001 
4384375000  -4.095146e+001  -2.642929e+001 
4387500000  -4.195153e+001  -3.444930e+001 
4390625000  -4.255328e+001  -3.523042e+001 
4393750000  -4.247851e+001  -3.505189e+001 
4396875000  -4.165651e+001  -3.932057e+001 
4400000000  -4.158105e+001  -5.212478e+001 
4403125000  -4.205730e+001  -6.240926e+001 
4406250000  -4.270713e+001  -6.396229e+001 
4409375000  -4.317348e+001  -7.273063e+001 
4412500000  -4.410910e+001  -7.249497e+001 
4415625000  -4.400885e+001  -7.065580e+001 
4418750000  -4.240245e+001  -7.047095e+001 
