!Agilent Technologies,E8363B,MY43030201,A.06.04.32
!Agilent E8363B: A.06.04.32
!Date: Tuesday, November 11, 2014 21:40:59
!Correction: S21(Response(S21)) 
!S1P File: Measurement: S21:
# Hz S  dB   R 50
3000000000  -4.356799e+001  -1.560896e+002 
3003125000  -4.504978e+001  -1.632456e+002 
3006250000  -4.517072e+001  -1.620382e+002 
3009375000  -4.585504e+001  -1.604856e+002 
3012500000  -4.485859e+001  -1.676056e+002 
3015625000  -4.512149e+001  -1.745870e+002 
3018750000  -4.546506e+001  -1.747899e+002 
3021875000  -4.391233e+001  -1.746841e+002 
3025000000  -4.257239e+001  -1.779620e+002 
3028125000  -4.170684e+001  1.700374e+002 
3031250000  -4.088490e+001  1.551996e+002 
3034375000  -4.078471e+001  1.426651e+002 
3037500000  -4.157879e+001  1.309855e+002 
3040625000  -4.299566e+001  1.257497e+002 
3043750000  -4.306598e+001  1.172823e+002 
3046875000  -4.418269e+001  1.112775e+002 
3050000000  -4.494487e+001  1.047495e+002 
3053125000  -4.465618e+001  1.111955e+002 
3056250000  -4.474629e+001  1.119131e+002 
3059375000  -4.403791e+001  1.094127e+002 
3062500000  -4.226389e+001  1.044329e+002 
3065625000  -4.235373e+001  9.198775e+001 
3068750000  -4.161321e+001  8.480724e+001 
3071875000  -4.176035e+001  8.377923e+001 
3075000000  -4.113293e+001  7.462947e+001 
3078125000  -4.129113e+001  6.756944e+001 
3081250000  -4.115487e+001  6.188837e+001 
3084375000  -4.052040e+001  5.550421e+001 
3087500000  -4.046899e+001  4.641309e+001 
3090625000  -4.002961e+001  3.459712e+001 
3093750000  -4.099483e+001  2.549454e+001 
3096875000  -4.131669e+001  2.056172e+001 
3100000000  -4.110461e+001  1.594830e+001 
3103125000  -4.133712e+001  1.085535e+001 
3106250000  -4.118201e+001  5.287164e+000 
3109375000  -4.100000e+001  -7.541475e-002 
3112500000  -4.075368e+001  -6.524345e+000 
3115625000  -4.078888e+001  -1.153576e+001 
3118750000  -4.086627e+001  -1.713533e+001 
3121875000  -4.015104e+001  -2.836622e+001 
3125000000  -4.206115e+001  -3.343439e+001 
3128125000  -4.189718e+001  -2.827958e+001 
3131250000  -3.952351e+001  -3.441919e+001 
3134375000  -3.865930e+001  -5.270036e+001 
3137500000  -3.963722e+001  -6.606097e+001 
3140625000  -4.097813e+001  -7.113427e+001 
3143750000  -4.152442e+001  -7.542174e+001 
3146875000  -4.104451e+001  -7.401150e+001 
3150000000  -4.027781e+001  -7.937096e+001 
3153125000  -4.088887e+001  -8.821404e+001 
3156250000  -4.141585e+001  -8.438936e+001 
3159375000  -3.914271e+001  -8.840456e+001 
3162500000  -3.780571e+001  -1.052790e+002 
3165625000  -3.908448e+001  -1.199959e+002 
3168750000  -3.921269e+001  -1.206263e+002 
3171875000  -3.859230e+001  -1.293447e+002 
3175000000  -3.926389e+001  -1.393438e+002 
3178125000  -3.864206e+001  -1.410635e+002 
3181250000  -3.805934e+001  -1.509323e+002 
3184375000  -3.803351e+001  -1.632213e+002 
3187500000  -3.919594e+001  -1.773751e+002 
3190625000  -4.098351e+001  1.756868e+002 
3193750000  -4.138766e+001  1.792637e+002 
3196875000  -4.113642e+001  1.788622e+002 
3200000000  -3.982988e+001  1.723790e+002 
3203125000  -3.968602e+001  1.650421e+002 
3206250000  -3.977536e+001  1.561703e+002 
3209375000  -3.949270e+001  1.471310e+002 
3212500000  -4.007780e+001  1.383021e+002 
3215625000  -3.974901e+001  1.361571e+002 
3218750000  -4.038397e+001  1.244942e+002 
3221875000  -4.065737e+001  1.174834e+002 
3225000000  -4.041184e+001  1.109890e+002 
3228125000  -4.128298e+001  1.040555e+002 
3231250000  -4.147103e+001  1.019752e+002 
3234375000  -4.120052e+001  9.735674e+001 
3237500000  -4.120193e+001  9.352187e+001 
3240625000  -4.036706e+001  8.731870e+001 
3243750000  -4.047749e+001  7.499635e+001 
3246875000  -4.085741e+001  6.626128e+001 
3250000000  -4.110249e+001  6.262216e+001 
3253125000  -4.141281e+001  5.860505e+001 
3256250000  -4.070055e+001  4.869387e+001 
3259375000  -4.101994e+001  3.612770e+001 
3262500000  -4.251336e+001  3.055576e+001 
3265625000  -4.265202e+001  3.200452e+001 
3268750000  -4.264346e+001  3.073003e+001 
3271875000  -4.171292e+001  2.531058e+001 
3275000000  -4.113172e+001  1.356445e+001 
3278125000  -4.182816e+001  6.145512e+000 
3281250000  -4.182538e+001  2.754431e+000 
3284375000  -4.113232e+001  -5.006049e+000 
3287500000  -4.173979e+001  -1.390583e+001 
3290625000  -4.164584e+001  -2.229239e+001 
3293750000  -4.162531e+001  -3.040660e+001 
3296875000  -4.276046e+001  -3.502277e+001 
3300000000  -4.224812e+001  -3.800512e+001 
3303125000  -4.102711e+001  -4.584955e+001 
3306250000  -4.100235e+001  -5.702461e+001 
3309375000  -4.084150e+001  -6.651944e+001 
3312500000  -4.132506e+001  -8.391321e+001 
3315625000  -4.232299e+001  -9.146830e+001 
3318750000  -4.422329e+001  -9.557944e+001 
3321875000  -4.585234e+001  -9.708070e+001 
3325000000  -4.512999e+001  -9.231020e+001 
3328125000  -4.423729e+001  -9.750396e+001 
3331250000  -4.255293e+001  -9.401936e+001 
3334375000  -4.024260e+001  -1.143714e+002 
3337500000  -4.092714e+001  -1.371592e+002 
3340625000  -4.286667e+001  -1.471139e+002 
3343750000  -4.463739e+001  -1.496330e+002 
3346875000  -4.408573e+001  -1.527457e+002 
3350000000  -4.387095e+001  -1.588842e+002 
3353125000  -4.367435e+001  -1.672744e+002 
3356250000  -4.340221e+001  -1.777425e+002 
3359375000  -4.449128e+001  1.704422e+002 
3362500000  -4.531572e+001  1.600310e+002 
3365625000  -4.611434e+001  1.559775e+002 
3368750000  -4.656412e+001  1.482379e+002 
3371875000  -4.723153e+001  1.426596e+002 
3375000000  -4.886109e+001  1.357235e+002 
3378125000  -4.990633e+001  1.380727e+002 
3381250000  -5.105773e+001  1.432147e+002 
3384375000  -4.733284e+001  1.567915e+002 
3387500000  -4.496500e+001  1.302773e+002 
3390625000  -4.702600e+001  1.095444e+002 
3393750000  -4.799726e+001  1.092488e+002 
3396875000  -4.646481e+001  1.027325e+002 
3400000000  -4.658174e+001  9.183273e+001 
3403125000  -4.699228e+001  8.200121e+001 
3406250000  -4.778545e+001  7.429082e+001 
3409375000  -4.744524e+001  6.340046e+001 
3412500000  -4.810186e+001  5.573112e+001 
3415625000  -4.897376e+001  5.486941e+001 
3418750000  -4.853851e+001  4.690021e+001 
3421875000  -4.927496e+001  4.389257e+001 
3425000000  -4.793824e+001  3.817347e+001 
3428125000  -4.737534e+001  3.346632e+001 
3431250000  -4.726904e+001  1.780949e+001 
3434375000  -4.733234e+001  2.132787e-001 
3437500000  -4.746530e+001  4.440396e-001 
3440625000  -4.776993e+001  -7.072171e+000 
3443750000  -4.614567e+001  -1.041378e+001 
3446875000  -4.594172e+001  -2.307810e+001 
3450000000  -4.537999e+001  -3.922933e+001 
3453125000  -4.555102e+001  -5.822166e+001 
3456250000  -4.726550e+001  -6.747376e+001 
3459375000  -4.813039e+001  -7.017453e+001 
3462500000  -4.754758e+001  -7.396689e+001 
3465625000  -4.737929e+001  -8.713022e+001 
3468750000  -4.726350e+001  -9.348124e+001 
3471875000  -4.694492e+001  -9.983442e+001 
3475000000  -4.684550e+001  -1.139976e+002 
3478125000  -4.756517e+001  -1.263858e+002 
3481250000  -4.895523e+001  -1.310600e+002 
3484375000  -4.861927e+001  -1.301124e+002 
3487500000  -4.759808e+001  -1.378660e+002 
3490625000  -4.727932e+001  -1.507994e+002 
3493750000  -4.813371e+001  -1.635249e+002 
3496875000  -4.774406e+001  -1.675848e+002 
3500000000  -4.832627e+001  -1.679924e+002 
3503125000  -4.686400e+001  -1.700729e+002 
3506250000  -4.586655e+001  1.745714e+002 
3509375000  -4.572626e+001  1.576619e+002 
3512500000  -4.600495e+001  1.388650e+002 
3515625000  -4.727886e+001  1.336427e+002 
3518750000  -4.725116e+001  1.327742e+002 
3521875000  -4.756299e+001  1.215865e+002 
3525000000  -4.924208e+001  1.193613e+002 
3528125000  -4.739937e+001  1.215821e+002 
3531250000  -4.683276e+001  1.081323e+002 
3534375000  -4.680695e+001  9.240602e+001 
3537500000  -4.848667e+001  8.357919e+001 
3540625000  -4.912002e+001  8.458096e+001 
3543750000  -4.941280e+001  8.806085e+001 
3546875000  -4.869281e+001  8.652240e+001 
3550000000  -4.612161e+001  7.872492e+001 
3553125000  -4.596595e+001  5.803571e+001 
3556250000  -4.771934e+001  5.142056e+001 
3559375000  -4.688175e+001  4.919290e+001 
3562500000  -4.690189e+001  3.361366e+001 
3565625000  -4.743753e+001  2.880039e+001 
3568750000  -4.810916e+001  3.016560e+001 
3571875000  -4.702303e+001  2.382052e+001 
3575000000  -4.638414e+001  1.427371e+001 
3578125000  -4.791807e+001  1.269561e+001 
3581250000  -4.742858e+001  9.271124e+000 
3584375000  -4.638105e+001  1.371929e-001 
3587500000  -4.561749e+001  -9.355377e+000 
3590625000  -4.619659e+001  -1.911768e+001 
3593750000  -4.811116e+001  -2.300056e+001 
3596875000  -4.667690e+001  -1.740899e+001 
3600000000  -4.459441e+001  -2.942448e+001 
3603125000  -4.486451e+001  -4.265845e+001 
3606250000  -4.572154e+001  -4.996152e+001 
3609375000  -4.622430e+001  -5.158887e+001 
3612500000  -4.601890e+001  -5.964975e+001 
3615625000  -4.601562e+001  -6.381334e+001 
3618750000  -4.626752e+001  -6.869892e+001 
3621875000  -4.526860e+001  -7.197520e+001 
3625000000  -4.584335e+001  -7.768920e+001 
3628125000  -4.484207e+001  -8.366838e+001 
3631250000  -4.492638e+001  -9.195810e+001 
3634375000  -4.565268e+001  -9.524624e+001 
3637500000  -4.495054e+001  -9.394091e+001 
3640625000  -4.388284e+001  -1.027765e+002 
3643750000  -4.341696e+001  -1.122260e+002 
3646875000  -4.377875e+001  -1.270114e+002 
3650000000  -4.383405e+001  -1.282597e+002 
3653125000  -4.296061e+001  -1.373991e+002 
3656250000  -4.395889e+001  -1.457219e+002 
3659375000  -4.394342e+001  -1.474419e+002 
3662500000  -4.315742e+001  -1.543907e+002 
3665625000  -4.332074e+001  -1.576868e+002 
3668750000  -4.223175e+001  -1.650054e+002 
3671875000  -4.188903e+001  -1.754710e+002 
3675000000  -4.233768e+001  1.724506e+002 
3678125000  -4.248624e+001  1.679862e+002 
3681250000  -4.242770e+001  1.611360e+002 
3684375000  -4.237813e+001  1.530958e+002 
3687500000  -4.284571e+001  1.452383e+002 
3690625000  -4.347314e+001  1.380112e+002 
3693750000  -4.463616e+001  1.381108e+002 
3696875000  -4.400050e+001  1.344122e+002 
3700000000  -4.318087e+001  1.273785e+002 
3703125000  -4.398903e+001  1.183735e+002 
3706250000  -4.508475e+001  1.153714e+002 
3709375000  -4.395403e+001  1.170426e+002 
3712500000  -4.321049e+001  1.101906e+002 
3715625000  -4.168982e+001  1.002291e+002 
3718750000  -4.183139e+001  9.131451e+001 
3721875000  -4.181780e+001  8.259285e+001 
3725000000  -4.218095e+001  7.371902e+001 
3728125000  -4.246732e+001  7.071978e+001 
3731250000  -4.206023e+001  6.458282e+001 
3734375000  -4.204155e+001  5.696802e+001 
3737500000  -4.255896e+001  4.800934e+001 
3740625000  -4.350941e+001  4.066216e+001 
3743750000  -4.296601e+001  3.579263e+001 
3746875000  -4.359321e+001  3.196682e+001 
3750000000  -4.353630e+001  2.731377e+001 
3753125000  -4.402406e+001  2.253277e+001 
3756250000  -4.364424e+001  1.943588e+001 
3759375000  -4.373401e+001  1.265534e+001 
3762500000  -4.318380e+001  1.067620e+001 
3765625000  -4.420207e+001  4.853396e+000 
3768750000  -4.359529e+001  3.476250e+000 
3771875000  -4.203835e+001  -2.172707e+000 
3775000000  -4.238813e+001  -1.386737e+001 
3778125000  -4.266034e+001  -1.818121e+001 
3781250000  -4.284368e+001  -2.546619e+001 
3784375000  -4.251712e+001  -3.205147e+001 
3787500000  -4.268783e+001  -3.628358e+001 
3790625000  -4.290353e+001  -4.655193e+001 
3793750000  -4.254053e+001  -4.797847e+001 
3796875000  -4.155590e+001  -5.265735e+001 
3800000000  -4.064909e+001  -6.299216e+001 
3803125000  -4.159788e+001  -7.297934e+001 
3806250000  -4.243525e+001  -7.819247e+001 
3809375000  -4.188024e+001  -8.242936e+001 
3812500000  -4.184026e+001  -9.399055e+001 
3815625000  -4.328273e+001  -1.043811e+002 
3818750000  -4.442793e+001  -1.023585e+002 
3821875000  -4.363300e+001  -9.282912e+001 
3825000000  -4.139648e+001  -9.999761e+001 
3828125000  -4.028211e+001  -1.206924e+002 
3831250000  -4.187357e+001  -1.358861e+002 
3834375000  -4.401958e+001  -1.374601e+002 
3837500000  -4.396962e+001  -1.334351e+002 
3840625000  -4.261561e+001  -1.404622e+002 
3843750000  -4.186971e+001  -1.552323e+002 
3846875000  -4.346523e+001  -1.583382e+002 
3850000000  -4.414818e+001  -1.532913e+002 
3853125000  -4.322935e+001  -1.562406e+002 
3856250000  -4.324868e+001  -1.650316e+002 
3859375000  -4.240150e+001  -1.713665e+002 
3862500000  -4.214812e+001  1.757232e+002 
3865625000  -4.271519e+001  1.698001e+002 
3868750000  -4.237935e+001  1.677692e+002 
3871875000  -4.195530e+001  1.573922e+002 
3875000000  -4.256885e+001  1.470089e+002 
3878125000  -4.360894e+001  1.467168e+002 
3881250000  -4.365296e+001  1.434526e+002 
3884375000  -4.243054e+001  1.311539e+002 
3887500000  -4.359734e+001  1.258796e+002 
3890625000  -4.385782e+001  1.208867e+002 
3893750000  -4.450891e+001  1.212124e+002 
3896875000  -4.422035e+001  1.188680e+002 
3900000000  -4.429670e+001  1.116679e+002 
3903125000  -4.365765e+001  1.071511e+002 
3906250000  -4.318255e+001  1.033006e+002 
3909375000  -4.313216e+001  9.453581e+001 
3912500000  -4.389650e+001  8.418533e+001 
3915625000  -4.474071e+001  8.410929e+001 
3918750000  -4.477820e+001  8.274690e+001 
3921875000  -4.431767e+001  7.770743e+001 
3925000000  -4.298658e+001  7.258773e+001 
3928125000  -4.304089e+001  6.304638e+001 
3931250000  -4.380089e+001  5.490632e+001 
3934375000  -4.429054e+001  5.297012e+001 
3937500000  -4.453321e+001  5.216271e+001 
3940625000  -4.487066e+001  4.830821e+001 
3943750000  -4.332854e+001  4.402367e+001 
3946875000  -4.286808e+001  3.430492e+001 
3950000000  -4.437722e+001  2.552684e+001 
3953125000  -4.467994e+001  2.508738e+001 
3956250000  -4.332256e+001  2.770057e+001 
3959375000  -4.215667e+001  1.799699e+001 
3962500000  -4.164643e+001  9.592372e+000 
3965625000  -4.213138e+001  -1.967128e+000 
3968750000  -4.249107e+001  -1.156765e+001 
3971875000  -4.251826e+001  -1.336603e+001 
3975000000  -4.234675e+001  -1.938856e+001 
3978125000  -4.240789e+001  -2.761623e+001 
3981250000  -4.217393e+001  -3.401710e+001 
3984375000  -4.260024e+001  -3.999383e+001 
3987500000  -4.306160e+001  -4.585469e+001 
3990625000  -4.330361e+001  -5.196210e+001 
3993750000  -4.279022e+001  -5.497475e+001 
3996875000  -4.327909e+001  -6.522011e+001 
4000000000  -4.419326e+001  -6.550377e+001 
4003125000  -4.401936e+001  -6.569108e+001 
4006250000  -4.227654e+001  -7.247170e+001 
4009375000  -4.162411e+001  -8.981577e+001 
4012500000  -4.321178e+001  -9.871597e+001 
4015625000  -4.442102e+001  -9.380515e+001 
4018750000  -4.408532e+001  -9.968961e+001 
4021875000  -4.294421e+001  -1.099867e+002 
4025000000  -4.335800e+001  -1.134005e+002 
4028125000  -4.345464e+001  -1.236777e+002 
4031250000  -4.422688e+001  -1.296927e+002 
4034375000  -4.445398e+001  -1.329726e+002 
4037500000  -4.436678e+001  -1.353732e+002 
4040625000  -4.439449e+001  -1.392488e+002 
4043750000  -4.492661e+001  -1.443708e+002 
4046875000  -4.439547e+001  -1.517088e+002 
4050000000  -4.444829e+001  -1.618418e+002 
4053125000  -4.555206e+001  -1.588313e+002 
4056250000  -4.548723e+001  -1.571201e+002 
4059375000  -4.419312e+001  -1.598287e+002 
4062500000  -4.359449e+001  -1.690456e+002 
4065625000  -4.373225e+001  -1.738369e+002 
4068750000  -4.340746e+001  1.776441e+002 
4071875000  -4.306042e+001  1.652720e+002 
4075000000  -4.354494e+001  1.585557e+002 
4078125000  -4.403336e+001  1.588853e+002 
4081250000  -4.381856e+001  1.517089e+002 
4084375000  -4.362740e+001  1.448292e+002 
4087500000  -4.407615e+001  1.355922e+002 
4090625000  -4.532098e+001  1.345192e+002 
4093750000  -4.479494e+001  1.307921e+002 
4096875000  -4.438916e+001  1.241938e+002 
4100000000  -4.570234e+001  1.165638e+002 
4103125000  -4.671041e+001  1.180038e+002 
4106250000  -4.511989e+001  1.218817e+002 
4109375000  -4.467410e+001  1.163532e+002 
4112500000  -4.426058e+001  1.053784e+002 
4115625000  -4.461627e+001  1.008778e+002 
4118750000  -4.455727e+001  9.749215e+001 
4121875000  -4.406562e+001  8.839429e+001 
4125000000  -4.508469e+001  8.165277e+001 
4128125000  -4.535928e+001  8.446523e+001 
4131250000  -4.399113e+001  8.960725e+001 
4134375000  -4.177492e+001  7.530804e+001 
4137500000  -4.256180e+001  5.611384e+001 
4140625000  -4.454431e+001  4.739002e+001 
4143750000  -4.545014e+001  5.354757e+001 
4146875000  -4.408245e+001  5.503744e+001 
4150000000  -4.320424e+001  4.737206e+001 
4153125000  -4.353049e+001  3.416582e+001 
4156250000  -4.443136e+001  3.170027e+001 
4159375000  -4.401655e+001  3.589946e+001 
4162500000  -4.291651e+001  3.373788e+001 
4165625000  -4.207252e+001  2.212877e+001 
4168750000  -4.178854e+001  1.147537e+001 
4171875000  -4.162194e+001  9.872329e-001 
4175000000  -4.208080e+001  -8.420895e+000 
4178125000  -4.291035e+001  -1.136456e+001 
4181250000  -4.214835e+001  -1.872175e+001 
4184375000  -4.279178e+001  -2.381050e+001 
4187500000  -4.265851e+001  -3.198472e+001 
4190625000  -4.335967e+001  -4.068821e+001 
4193750000  -4.423693e+001  -4.711036e+001 
4196875000  -4.524159e+001  -4.834453e+001 
4200000000  -4.599504e+001  -4.301051e+001 
4203125000  -4.455604e+001  -3.014501e+001 
4206250000  -4.160622e+001  -4.067019e+001 
4209375000  -4.163322e+001  -6.514577e+001 
4212500000  -4.413372e+001  -7.174113e+001 
4215625000  -4.454845e+001  -6.907397e+001 
4218750000  -4.264538e+001  -6.610349e+001 
4221875000  -4.184866e+001  -7.738257e+001 
4225000000  -4.265267e+001  -8.825051e+001 
4228125000  -4.317474e+001  -8.697865e+001 
4231250000  -4.160330e+001  -9.783359e+001 
4234375000  -4.153297e+001  -1.054179e+002 
4237500000  -4.152621e+001  -1.128803e+002 
4240625000  -4.135598e+001  -1.245661e+002 
4243750000  -4.247310e+001  -1.337877e+002 
4246875000  -4.349775e+001  -1.313211e+002 
4250000000  -4.370335e+001  -1.319263e+002 
4253125000  -4.303441e+001  -1.361074e+002 
4256250000  -4.294839e+001  -1.407159e+002 
4259375000  -4.259087e+001  -1.472515e+002 
4262500000  -4.298712e+001  -1.518725e+002 
4265625000  -4.221641e+001  -1.539810e+002 
4268750000  -4.143779e+001  -1.608546e+002 
4271875000  -4.118750e+001  -1.733060e+002 
4275000000  -4.078546e+001  -1.797942e+002 
4278125000  -4.187225e+001  1.663949e+002 
4281250000  -4.277621e+001  1.655255e+002 
4284375000  -4.310854e+001  1.592866e+002 
4287500000  -4.376322e+001  1.570617e+002 
4290625000  -4.433650e+001  1.624125e+002 
4293750000  -4.187523e+001  1.615471e+002 
4296875000  -4.112241e+001  1.470209e+002 
4300000000  -4.184818e+001  1.364261e+002 
4303125000  -4.243663e+001  1.360157e+002 
4306250000  -4.128559e+001  1.377746e+002 
4309375000  -4.001837e+001  1.274134e+002 
4312500000  -4.029421e+001  1.161393e+002 
4315625000  -4.083511e+001  1.050729e+002 
4318750000  -4.108619e+001  1.009256e+002 
4321875000  -4.108686e+001  9.900535e+001 
4325000000  -4.080619e+001  9.594251e+001 
4328125000  -3.965467e+001  8.445458e+001 
4331250000  -4.032156e+001  7.173709e+001 
4334375000  -4.117832e+001  6.431841e+001 
4337500000  -4.236131e+001  6.319907e+001 
4340625000  -4.267704e+001  6.428017e+001 
4343750000  -4.164563e+001  5.851495e+001 
4346875000  -4.145219e+001  4.743406e+001 
4350000000  -4.143750e+001  3.872247e+001 
4353125000  -4.236583e+001  3.102401e+001 
4356250000  -4.384192e+001  3.302705e+001 
4359375000  -4.358829e+001  5.147844e+001 
4362500000  -3.976152e+001  3.660586e+001 
4365625000  -3.943696e+001  1.969637e+001 
4368750000  -4.091150e+001  8.360211e+000 
4371875000  -4.177643e+001  7.380195e+000 
4375000000  -4.101424e+001  1.579115e+000 
4378125000  -4.079313e+001  -6.658352e+000 
4381250000  -4.134411e+001  -1.584944e+001 
4384375000  -4.119772e+001  -2.056717e+001 
4387500000  -4.197281e+001  -3.142878e+001 
4390625000  -4.264067e+001  -2.986923e+001 
4393750000  -4.212959e+001  -3.192250e+001 
4396875000  -4.167094e+001  -3.709905e+001 
4400000000  -4.132180e+001  -4.719646e+001 
4403125000  -4.225675e+001  -5.863873e+001 
4406250000  -4.276387e+001  -5.976384e+001 
4409375000  -4.316190e+001  -6.668449e+001 
4412500000  -4.420058e+001  -6.726769e+001 
4415625000  -4.377575e+001  -6.523888e+001 
4418750000  -4.240420e+001  -6.540285e+001 
