!Agilent Technologies,E8363B,MY43030201,A.06.04.32
!Agilent E8363B: A.06.04.32
!Date: Tuesday, November 11, 2014 21:50:21
!Correction: S21(Response(S21)) 
!S1P File: Measurement: S21:
# Hz S  dB   R 50
3000000000  -4.386882e+001  -1.616053e+002 
3003125000  -4.533010e+001  -1.675110e+002 
3006250000  -4.505564e+001  -1.693022e+002 
3009375000  -4.614950e+001  -1.655011e+002 
3012500000  -4.471641e+001  -1.734887e+002 
3015625000  -4.517366e+001  -1.784055e+002 
3018750000  -4.546125e+001  -1.786513e+002 
3021875000  -4.397255e+001  -1.789402e+002 
3025000000  -4.263743e+001  1.756820e+002 
3028125000  -4.169509e+001  1.642791e+002 
3031250000  -4.096572e+001  1.517414e+002 
3034375000  -4.086018e+001  1.366141e+002 
3037500000  -4.162969e+001  1.264064e+002 
3040625000  -4.298296e+001  1.193249e+002 
3043750000  -4.325024e+001  1.109666e+002 
3046875000  -4.418327e+001  1.063511e+002 
3050000000  -4.538406e+001  1.021296e+002 
3053125000  -4.493904e+001  1.050585e+002 
3056250000  -4.463929e+001  1.097195e+002 
3059375000  -4.414308e+001  1.056030e+002 
3062500000  -4.261690e+001  9.897231e+001 
3065625000  -4.229310e+001  8.730315e+001 
3068750000  -4.193351e+001  7.954501e+001 
3071875000  -4.180789e+001  7.925874e+001 
3075000000  -4.118980e+001  6.977619e+001 
3078125000  -4.141171e+001  6.283466e+001 
3081250000  -4.139041e+001  5.566974e+001 
3084375000  -4.037383e+001  5.028694e+001 
3087500000  -4.046099e+001  4.267756e+001 
3090625000  -4.001887e+001  2.886382e+001 
3093750000  -4.120408e+001  2.133468e+001 
3096875000  -4.125508e+001  1.574807e+001 
3100000000  -4.122287e+001  1.150457e+001 
3103125000  -4.133548e+001  6.770852e+000 
3106250000  -4.084676e+001  5.423250e-001 
3109375000  -4.091792e+001  -4.600943e+000 
3112500000  -4.090303e+001  -1.245016e+001 
3115625000  -4.087325e+001  -1.783804e+001 
3118750000  -4.076684e+001  -2.185662e+001 
3121875000  -4.012548e+001  -3.470616e+001 
3125000000  -4.217487e+001  -3.650862e+001 
3128125000  -4.202362e+001  -3.216435e+001 
3131250000  -3.956341e+001  -4.024918e+001 
3134375000  -3.888517e+001  -5.748489e+001 
3137500000  -3.961605e+001  -6.993900e+001 
3140625000  -4.091236e+001  -7.570271e+001 
3143750000  -4.145963e+001  -7.937260e+001 
3146875000  -4.092012e+001  -7.862618e+001 
3150000000  -4.045243e+001  -8.361931e+001 
3153125000  -4.075019e+001  -9.164281e+001 
3156250000  -4.139559e+001  -8.942860e+001 
3159375000  -3.908091e+001  -9.199424e+001 
3162500000  -3.787716e+001  -1.100442e+002 
3165625000  -3.893858e+001  -1.229192e+002 
3168750000  -3.887924e+001  -1.251531e+002 
3171875000  -3.855712e+001  -1.330480e+002 
3175000000  -3.917444e+001  -1.433515e+002 
3178125000  -3.879602e+001  -1.460875e+002 
3181250000  -3.805147e+001  -1.553230e+002 
3184375000  -3.775924e+001  -1.668861e+002 
3187500000  -3.912687e+001  1.764410e+002 
3190625000  -4.076799e+001  1.701972e+002 
3193750000  -4.108776e+001  1.730961e+002 
3196875000  -4.105120e+001  1.731752e+002 
3200000000  -3.987266e+001  1.690013e+002 
3203125000  -3.965285e+001  1.597696e+002 
3206250000  -3.971943e+001  1.510470e+002 
3209375000  -3.953533e+001  1.435745e+002 
3212500000  -3.993858e+001  1.356343e+002 
3215625000  -3.958902e+001  1.334326e+002 
3218750000  -4.021383e+001  1.190168e+002 
3221875000  -4.065187e+001  1.129357e+002 
3225000000  -4.046175e+001  1.067399e+002 
3228125000  -4.102735e+001  9.970387e+001 
3231250000  -4.141673e+001  9.735800e+001 
3234375000  -4.103379e+001  9.229370e+001 
3237500000  -4.094772e+001  8.738044e+001 
3240625000  -4.029192e+001  8.264885e+001 
3243750000  -4.027820e+001  7.040565e+001 
3246875000  -4.078414e+001  6.159277e+001 
3250000000  -4.121289e+001  5.787586e+001 
3253125000  -4.129519e+001  5.501907e+001 
3256250000  -4.037994e+001  4.284582e+001 
3259375000  -4.111926e+001  3.055860e+001 
3262500000  -4.245136e+001  2.628286e+001 
3265625000  -4.239072e+001  2.746041e+001 
3268750000  -4.228727e+001  2.543283e+001 
3271875000  -4.143244e+001  2.039266e+001 
3275000000  -4.105962e+001  8.642523e+000 
3278125000  -4.162562e+001  2.291931e+000 
3281250000  -4.184045e+001  -1.717681e+000 
3284375000  -4.094194e+001  -1.012079e+001 
3287500000  -4.140356e+001  -1.637978e+001 
3290625000  -4.143579e+001  -2.717174e+001 
3293750000  -4.145430e+001  -3.572311e+001 
3296875000  -4.250627e+001  -3.898509e+001 
3300000000  -4.182494e+001  -4.086049e+001 
3303125000  -4.102134e+001  -5.048511e+001 
3306250000  -4.088241e+001  -6.049691e+001 
3309375000  -4.067815e+001  -7.129880e+001 
3312500000  -4.132355e+001  -8.903886e+001 
3315625000  -4.250438e+001  -9.440717e+001 
3318750000  -4.389568e+001  -1.001255e+002 
3321875000  -4.490610e+001  -9.972079e+001 
3325000000  -4.500454e+001  -9.780325e+001 
3328125000  -4.383645e+001  -9.981670e+001 
3331250000  -4.250310e+001  -9.816655e+001 
3334375000  -4.007154e+001  -1.169595e+002 
3337500000  -4.073961e+001  -1.419539e+002 
3340625000  -4.269426e+001  -1.513719e+002 
3343750000  -4.445361e+001  -1.526185e+002 
3346875000  -4.390629e+001  -1.569858e+002 
3350000000  -4.387383e+001  -1.621437e+002 
3353125000  -4.350847e+001  -1.721570e+002 
3356250000  -4.305505e+001  1.780139e+002 
3359375000  -4.428473e+001  1.637590e+002 
3362500000  -4.511662e+001  1.562340e+002 
3365625000  -4.573064e+001  1.500665e+002 
3368750000  -4.661753e+001  1.445620e+002 
3371875000  -4.673526e+001  1.403494e+002 
3375000000  -4.798879e+001  1.341358e+002 
3378125000  -4.942503e+001  1.310749e+002 
3381250000  -5.027863e+001  1.413432e+002 
3384375000  -4.773084e+001  1.516997e+002 
3387500000  -4.477129e+001  1.257860e+002 
3390625000  -4.694312e+001  1.053310e+002 
3393750000  -4.795465e+001  1.056985e+002 
3396875000  -4.622061e+001  1.005287e+002 
3400000000  -4.609505e+001  8.454613e+001 
3403125000  -4.661408e+001  7.768290e+001 
3406250000  -4.736662e+001  6.879729e+001 
3409375000  -4.739061e+001  6.221498e+001 
3412500000  -4.805832e+001  5.404770e+001 
3415625000  -4.813155e+001  4.886927e+001 
3418750000  -4.862912e+001  4.520637e+001 
3421875000  -4.929876e+001  3.503360e+001 
3425000000  -4.805805e+001  3.810476e+001 
3428125000  -4.753574e+001  2.798390e+001 
3431250000  -4.642524e+001  1.436866e+001 
3434375000  -4.703815e+001  2.173399e+000 
3437500000  -4.775135e+001  -7.659459e+000 
3440625000  -4.756741e+001  -9.844029e+000 
3443750000  -4.644976e+001  -1.173585e+001 
3446875000  -4.542493e+001  -2.930495e+001 
3450000000  -4.506610e+001  -4.243899e+001 
3453125000  -4.565433e+001  -6.059759e+001 
3456250000  -4.694120e+001  -6.976099e+001 
3459375000  -4.799704e+001  -7.380886e+001 
3462500000  -4.815431e+001  -7.658163e+001 
3465625000  -4.710278e+001  -8.713506e+001 
3468750000  -4.763120e+001  -9.830785e+001 
3471875000  -4.694558e+001  -1.046033e+002 
3475000000  -4.714386e+001  -1.160877e+002 
3478125000  -4.788461e+001  -1.325470e+002 
3481250000  -4.930083e+001  -1.348931e+002 
3484375000  -4.830910e+001  -1.367466e+002 
3487500000  -4.773249e+001  -1.427147e+002 
3490625000  -4.730860e+001  -1.528064e+002 
3493750000  -4.801652e+001  -1.677633e+002 
3496875000  -4.788933e+001  -1.694751e+002 
3500000000  -4.855973e+001  -1.770046e+002 
3503125000  -4.723284e+001  -1.746470e+002 
3506250000  -4.583353e+001  1.688942e+002 
3509375000  -4.563785e+001  1.504336e+002 
3512500000  -4.638138e+001  1.346035e+002 
3515625000  -4.763097e+001  1.328199e+002 
3518750000  -4.797552e+001  1.302735e+002 
3521875000  -4.815200e+001  1.199895e+002 
3525000000  -4.909425e+001  1.105035e+002 
3528125000  -4.771363e+001  1.169431e+002 
3531250000  -4.638122e+001  1.035582e+002 
3534375000  -4.700029e+001  8.767382e+001 
3537500000  -4.747285e+001  7.587863e+001 
3540625000  -4.916161e+001  7.307551e+001 
3543750000  -4.944784e+001  7.660133e+001 
3546875000  -4.893876e+001  7.983524e+001 
3550000000  -4.636128e+001  7.163932e+001 
3553125000  -4.646332e+001  5.347961e+001 
3556250000  -4.712256e+001  4.861809e+001 
3559375000  -4.647956e+001  4.157383e+001 
3562500000  -4.667685e+001  3.050595e+001 
3565625000  -4.754930e+001  2.010607e+001 
3568750000  -4.796127e+001  2.083667e+001 
3571875000  -4.789851e+001  1.926134e+001 
3575000000  -4.712172e+001  9.815341e+000 
3578125000  -4.766734e+001  5.633162e+000 
3581250000  -4.764324e+001  1.948926e+000 
3584375000  -4.581003e+001  -1.948897e+000 
3587500000  -4.542937e+001  -1.883397e+001 
3590625000  -4.685461e+001  -2.729465e+001 
3593750000  -4.759985e+001  -2.628170e+001 
3596875000  -4.657980e+001  -2.284600e+001 
3600000000  -4.485883e+001  -3.492467e+001 
3603125000  -4.509277e+001  -4.924880e+001 
3606250000  -4.606230e+001  -5.298198e+001 
3609375000  -4.595643e+001  -5.886421e+001 
3612500000  -4.620626e+001  -6.745015e+001 
3615625000  -4.633060e+001  -7.188823e+001 
3618750000  -4.608693e+001  -7.414725e+001 
3621875000  -4.566675e+001  -8.032072e+001 
3625000000  -4.558463e+001  -8.406001e+001 
3628125000  -4.465255e+001  -9.051315e+001 
3631250000  -4.483473e+001  -9.747604e+001 
3634375000  -4.588245e+001  -1.009729e+002 
3637500000  -4.435493e+001  -1.023486e+002 
3640625000  -4.377065e+001  -1.092421e+002 
3643750000  -4.319071e+001  -1.196904e+002 
3646875000  -4.361721e+001  -1.303267e+002 
3650000000  -4.360895e+001  -1.347851e+002 
3653125000  -4.327642e+001  -1.434296e+002 
3656250000  -4.388504e+001  -1.495508e+002 
3659375000  -4.349438e+001  -1.544877e+002 
3662500000  -4.325325e+001  -1.607858e+002 
3665625000  -4.344971e+001  -1.643558e+002 
3668750000  -4.206057e+001  -1.698263e+002 
3671875000  -4.148299e+001  1.762606e+002 
3675000000  -4.221917e+001  1.668165e+002 
3678125000  -4.255456e+001  1.608404e+002 
3681250000  -4.214665e+001  1.537598e+002 
3684375000  -4.279787e+001  1.474487e+002 
3687500000  -4.307184e+001  1.379042e+002 
3690625000  -4.356099e+001  1.322165e+002 
3693750000  -4.460003e+001  1.297308e+002 
3696875000  -4.358611e+001  1.284758e+002 
3700000000  -4.288737e+001  1.192423e+002 
3703125000  -4.361957e+001  1.129311e+002 
3706250000  -4.456791e+001  1.091348e+002 
3709375000  -4.375961e+001  1.104046e+002 
3712500000  -4.292688e+001  1.036491e+002 
3715625000  -4.155459e+001  9.331264e+001 
3718750000  -4.146928e+001  8.516856e+001 
3721875000  -4.167251e+001  7.462809e+001 
3725000000  -4.221298e+001  6.722574e+001 
3728125000  -4.238637e+001  6.326581e+001 
3731250000  -4.199675e+001  5.601127e+001 
3734375000  -4.214429e+001  5.120436e+001 
3737500000  -4.278518e+001  4.249624e+001 
3740625000  -4.277784e+001  3.445975e+001 
3743750000  -4.266079e+001  2.814646e+001 
3746875000  -4.343151e+001  2.545489e+001 
3750000000  -4.370230e+001  1.890169e+001 
3753125000  -4.381846e+001  1.772622e+001 
3756250000  -4.377175e+001  1.219744e+001 
3759375000  -4.342501e+001  5.730573e+000 
3762500000  -4.326738e+001  2.604030e+000 
3765625000  -4.432746e+001  -3.561679e+000 
3768750000  -4.306801e+001  -2.597852e+000 
3771875000  -4.206302e+001  -9.327066e+000 
3775000000  -4.194025e+001  -2.162407e+001 
3778125000  -4.276405e+001  -2.884105e+001 
3781250000  -4.253198e+001  -3.210738e+001 
3784375000  -4.224889e+001  -3.729857e+001 
3787500000  -4.210232e+001  -4.312881e+001 
3790625000  -4.287459e+001  -5.392530e+001 
3793750000  -4.274792e+001  -5.782741e+001 
3796875000  -4.164481e+001  -6.150768e+001 
3800000000  -4.071154e+001  -6.812006e+001 
3803125000  -4.155445e+001  -8.041418e+001 
3806250000  -4.217142e+001  -8.540561e+001 
3809375000  -4.182283e+001  -8.920602e+001 
3812500000  -4.171533e+001  -1.015568e+002 
3815625000  -4.304609e+001  -1.113825e+002 
3818750000  -4.422605e+001  -1.087716e+002 
3821875000  -4.368071e+001  -9.930471e+001 
3825000000  -4.125053e+001  -1.045583e+002 
3828125000  -4.022297e+001  -1.287996e+002 
3831250000  -4.149013e+001  -1.434453e+002 
3834375000  -4.392173e+001  -1.436372e+002 
3837500000  -4.397712e+001  -1.432155e+002 
3840625000  -4.215593e+001  -1.463109e+002 
3843750000  -4.149993e+001  -1.600777e+002 
3846875000  -4.338599e+001  -1.664749e+002 
3850000000  -4.392406e+001  -1.588975e+002 
3853125000  -4.324493e+001  -1.627926e+002 
3856250000  -4.304081e+001  -1.715191e+002 
3859375000  -4.196742e+001  1.783153e+002 
3862500000  -4.185514e+001  1.699276e+002 
3865625000  -4.267631e+001  1.636563e+002 
3868750000  -4.230045e+001  1.607509e+002 
3871875000  -4.154233e+001  1.529896e+002 
3875000000  -4.248156e+001  1.414323e+002 
3878125000  -4.296327e+001  1.395343e+002 
3881250000  -4.307109e+001  1.345271e+002 
3884375000  -4.256757e+001  1.266663e+002 
3887500000  -4.286934e+001  1.190128e+002 
3890625000  -4.391079e+001  1.170733e+002 
3893750000  -4.383758e+001  1.108050e+002 
3896875000  -4.416588e+001  1.123159e+002 
3900000000  -4.411781e+001  1.051689e+002 
3903125000  -4.357469e+001  9.878913e+001 
3906250000  -4.308070e+001  9.473634e+001 
3909375000  -4.242337e+001  8.615693e+001 
3912500000  -4.363572e+001  7.852435e+001 
3915625000  -4.469798e+001  7.816776e+001 
3918750000  -4.464923e+001  7.510136e+001 
3921875000  -4.371497e+001  7.006559e+001 
3925000000  -4.266307e+001  6.329321e+001 
3928125000  -4.266451e+001  5.569788e+001 
3931250000  -4.354420e+001  4.663003e+001 
3934375000  -4.391791e+001  4.512338e+001 
3937500000  -4.429657e+001  4.278923e+001 
3940625000  -4.412568e+001  4.116798e+001 
3943750000  -4.331548e+001  3.964750e+001 
3946875000  -4.279108e+001  3.038135e+001 
3950000000  -4.381440e+001  1.866625e+001 
3953125000  -4.456364e+001  2.151767e+001 
3956250000  -4.244019e+001  1.978323e+001 
3959375000  -4.190765e+001  1.036882e+001 
3962500000  -4.162251e+001  2.932929e+000 
3965625000  -4.148521e+001  -8.609051e+000 
3968750000  -4.268148e+001  -1.859589e+001 
3971875000  -4.254850e+001  -2.109769e+001 
3975000000  -4.188454e+001  -2.557616e+001 
3978125000  -4.208674e+001  -3.360849e+001 
3981250000  -4.169136e+001  -4.188244e+001 
3984375000  -4.232386e+001  -4.886396e+001 
3987500000  -4.297113e+001  -5.267303e+001 
3990625000  -4.272227e+001  -5.632230e+001 
3993750000  -4.265705e+001  -6.503074e+001 
3996875000  -4.310217e+001  -7.066347e+001 
4000000000  -4.362453e+001  -7.375271e+001 
4003125000  -4.343609e+001  -7.460100e+001 
4006250000  -4.189210e+001  -8.068049e+001 
4009375000  -4.108451e+001  -9.655161e+001 
4012500000  -4.266645e+001  -1.039532e+002 
4015625000  -4.389600e+001  -1.045178e+002 
4018750000  -4.369819e+001  -1.082696e+002 
4021875000  -4.293544e+001  -1.159927e+002 
4025000000  -4.266317e+001  -1.238687e+002 
4028125000  -4.337037e+001  -1.303999e+002 
4031250000  -4.377522e+001  -1.376469e+002 
4034375000  -4.416738e+001  -1.409162e+002 
4037500000  -4.371792e+001  -1.428113e+002 
4040625000  -4.413122e+001  -1.481160e+002 
4043750000  -4.474610e+001  -1.554180e+002 
4046875000  -4.433255e+001  -1.568520e+002 
4050000000  -4.438471e+001  -1.647883e+002 
4053125000  -4.514087e+001  -1.670838e+002 
4056250000  -4.512457e+001  -1.644818e+002 
4059375000  -4.407212e+001  -1.677255e+002 
4062500000  -4.322583e+001  -1.777847e+002 
4065625000  -4.392607e+001  -1.797991e+002 
4068750000  -4.288090e+001  1.689541e+002 
4071875000  -4.229280e+001  1.601958e+002 
4075000000  -4.345821e+001  1.537403e+002 
4078125000  -4.379766e+001  1.516427e+002 
4081250000  -4.357102e+001  1.434677e+002 
4084375000  -4.327962e+001  1.334976e+002 
4087500000  -4.414235e+001  1.270250e+002 
4090625000  -4.420424e+001  1.261648e+002 
4093750000  -4.463611e+001  1.228335e+002 
4096875000  -4.395818e+001  1.155985e+002 
4100000000  -4.516626e+001  1.092381e+002 
4103125000  -4.587237e+001  1.106034e+002 
4106250000  -4.471771e+001  1.148497e+002 
4109375000  -4.399176e+001  1.074254e+002 
4112500000  -4.374461e+001  1.000958e+002 
4115625000  -4.407541e+001  9.602831e+001 
4118750000  -4.382333e+001  9.196419e+001 
4121875000  -4.342303e+001  8.185120e+001 
4125000000  -4.467522e+001  7.247279e+001 
4128125000  -4.488928e+001  7.782853e+001 
4131250000  -4.365410e+001  8.053646e+001 
4134375000  -4.151651e+001  6.642953e+001 
4137500000  -4.219175e+001  4.457407e+001 
4140625000  -4.427982e+001  4.125660e+001 
4143750000  -4.468285e+001  4.772881e+001 
4146875000  -4.379729e+001  4.719821e+001 
4150000000  -4.267373e+001  3.698626e+001 
4153125000  -4.306492e+001  2.862254e+001 
4156250000  -4.389376e+001  2.566257e+001 
4159375000  -4.356278e+001  2.858640e+001 
4162500000  -4.223824e+001  2.197106e+001 
4165625000  -4.127206e+001  1.424069e+001 
4168750000  -4.118977e+001  3.732591e+000 
4171875000  -4.125129e+001  -7.950754e+000 
4175000000  -4.173881e+001  -1.736309e+001 
4178125000  -4.227788e+001  -1.914909e+001 
4181250000  -4.213398e+001  -2.517544e+001 
4184375000  -4.224778e+001  -3.049857e+001 
4187500000  -4.225410e+001  -3.480548e+001 
4190625000  -4.275719e+001  -4.708974e+001 
4193750000  -4.394727e+001  -5.437037e+001 
4196875000  -4.487031e+001  -5.638569e+001 
4200000000  -4.588296e+001  -5.137572e+001 
4203125000  -4.408191e+001  -3.853158e+001 
4206250000  -4.099914e+001  -4.971680e+001 
4209375000  -4.116805e+001  -7.675291e+001 
4212500000  -4.392921e+001  -8.389130e+001 
4215625000  -4.381201e+001  -7.408251e+001 
4218750000  -4.234801e+001  -7.344848e+001 
4221875000  -4.083151e+001  -8.630986e+001 
4225000000  -4.238049e+001  -9.662856e+001 
4228125000  -4.187238e+001  -9.625253e+001 
4231250000  -4.086035e+001  -1.050593e+002 
4234375000  -4.092026e+001  -1.162166e+002 
4237500000  -4.082945e+001  -1.207050e+002 
4240625000  -4.152740e+001  -1.329096e+002 
4243750000  -4.223125e+001  -1.425738e+002 
4246875000  -4.318285e+001  -1.395585e+002 
4250000000  -4.256849e+001  -1.396450e+002 
4253125000  -4.243061e+001  -1.436453e+002 
4256250000  -4.225399e+001  -1.501379e+002 
4259375000  -4.187028e+001  -1.559191e+002 
4262500000  -4.247951e+001  -1.598921e+002 
4265625000  -4.178654e+001  -1.612178e+002 
4268750000  -4.075923e+001  -1.742442e+002 
4271875000  -4.079292e+001  1.769226e+002 
4275000000  -4.028259e+001  1.680932e+002 
4278125000  -4.124545e+001  1.576605e+002 
4281250000  -4.240198e+001  1.548462e+002 
4284375000  -4.233900e+001  1.519804e+002 
4287500000  -4.360134e+001  1.506526e+002 
4290625000  -4.367944e+001  1.551104e+002 
4293750000  -4.154093e+001  1.547358e+002 
4296875000  -4.034810e+001  1.385181e+002 
4300000000  -4.134732e+001  1.287696e+002 
4303125000  -4.181572e+001  1.298919e+002 
4306250000  -4.096153e+001  1.280457e+002 
4309375000  -3.955270e+001  1.196740e+002 
4312500000  -3.929752e+001  1.074288e+002 
4315625000  -4.017345e+001  9.585031e+001 
4318750000  -4.086625e+001  9.203745e+001 
4321875000  -4.075072e+001  9.033906e+001 
4325000000  -3.993687e+001  8.409533e+001 
4328125000  -3.919197e+001  7.403484e+001 
4331250000  -3.997298e+001  6.299238e+001 
4334375000  -4.083264e+001  5.426953e+001 
4337500000  -4.177118e+001  5.288334e+001 
4340625000  -4.225745e+001  5.423049e+001 
4343750000  -4.115173e+001  5.003457e+001 
4346875000  -4.084101e+001  4.071908e+001 
4350000000  -4.087397e+001  3.067739e+001 
4353125000  -4.163650e+001  2.304977e+001 
4356250000  -4.387539e+001  2.459196e+001 
4359375000  -4.297297e+001  3.709680e+001 
4362500000  -3.927180e+001  2.840567e+001 
4365625000  -3.884636e+001  1.028318e+001 
4368750000  -4.027053e+001  -1.331222e+000 
4371875000  -4.133535e+001  -1.984123e+000 
4375000000  -4.067632e+001  -7.012856e+000 
4378125000  -4.033666e+001  -1.452852e+001 
4381250000  -4.059283e+001  -2.282190e+001 
4384375000  -4.078925e+001  -3.233906e+001 
4387500000  -4.164222e+001  -4.010157e+001 
4390625000  -4.186617e+001  -4.059146e+001 
4393750000  -4.167340e+001  -4.121932e+001 
4396875000  -4.117303e+001  -4.692886e+001 
4400000000  -4.101559e+001  -5.879443e+001 
4403125000  -4.114321e+001  -6.728210e+001 
4406250000  -4.214115e+001  -7.063352e+001 
4409375000  -4.264090e+001  -7.605446e+001 
4412500000  -4.337641e+001  -7.983372e+001 
4415625000  -4.293293e+001  -7.647122e+001 
4418750000  -4.179101e+001  -7.567743e+001 
