!Agilent Technologies,E8363B,MY43030201,A.06.04.32
!Agilent E8363B: A.06.04.32
!Date: Tuesday, November 11, 2014 21:41:58
!Correction: S21(Response(S21)) 
!S1P File: Measurement: S21:
# Hz S  dB   R 50
3000000000  -4.350206e+001  -1.572867e+002 
3003125000  -4.523193e+001  -1.627450e+002 
3006250000  -4.541899e+001  -1.632550e+002 
3009375000  -4.591952e+001  -1.612332e+002 
3012500000  -4.489302e+001  -1.680963e+002 
3015625000  -4.475859e+001  -1.738593e+002 
3018750000  -4.533867e+001  -1.757876e+002 
3021875000  -4.383564e+001  -1.747396e+002 
3025000000  -4.255201e+001  -1.799585e+002 
3028125000  -4.162006e+001  1.669702e+002 
3031250000  -4.086244e+001  1.551079e+002 
3034375000  -4.082225e+001  1.405036e+002 
3037500000  -4.151251e+001  1.306162e+002 
3040625000  -4.289905e+001  1.231972e+002 
3043750000  -4.320514e+001  1.166737e+002 
3046875000  -4.393078e+001  1.090555e+002 
3050000000  -4.534518e+001  1.045885e+002 
3053125000  -4.489216e+001  1.119364e+002 
3056250000  -4.455472e+001  1.123760e+002 
3059375000  -4.398855e+001  1.092346e+002 
3062500000  -4.262125e+001  1.034493e+002 
3065625000  -4.233405e+001  9.198369e+001 
3068750000  -4.164247e+001  8.440622e+001 
3071875000  -4.191096e+001  8.158470e+001 
3075000000  -4.130872e+001  7.410204e+001 
3078125000  -4.125098e+001  6.723981e+001 
3081250000  -4.139048e+001  6.023956e+001 
3084375000  -4.037178e+001  5.497563e+001 
3087500000  -4.050443e+001  4.712845e+001 
3090625000  -4.002794e+001  3.387533e+001 
3093750000  -4.109330e+001  2.490458e+001 
3096875000  -4.112591e+001  1.897213e+001 
3100000000  -4.130513e+001  1.554316e+001 
3103125000  -4.148872e+001  9.770354e+000 
3106250000  -4.104499e+001  5.958129e+000 
3109375000  -4.107972e+001  -1.532953e-001 
3112500000  -4.091723e+001  -8.914854e+000 
3115625000  -4.088585e+001  -1.210324e+001 
3118750000  -4.090591e+001  -1.764942e+001 
3121875000  -4.036990e+001  -2.970123e+001 
3125000000  -4.214034e+001  -3.288449e+001 
3128125000  -4.195130e+001  -2.816327e+001 
3131250000  -3.952684e+001  -3.682198e+001 
3134375000  -3.880624e+001  -5.500790e+001 
3137500000  -3.953437e+001  -6.784184e+001 
3140625000  -4.089342e+001  -7.159923e+001 
3143750000  -4.142182e+001  -7.485893e+001 
3146875000  -4.109198e+001  -7.453954e+001 
3150000000  -4.035137e+001  -7.892527e+001 
3153125000  -4.090174e+001  -8.879291e+001 
3156250000  -4.155502e+001  -8.634863e+001 
3159375000  -3.926490e+001  -8.865823e+001 
3162500000  -3.774282e+001  -1.052847e+002 
3165625000  -3.897145e+001  -1.189648e+002 
3168750000  -3.912844e+001  -1.221726e+002 
3171875000  -3.877002e+001  -1.298149e+002 
3175000000  -3.928784e+001  -1.405024e+002 
3178125000  -3.878839e+001  -1.420709e+002 
3181250000  -3.817304e+001  -1.516957e+002 
3184375000  -3.785615e+001  -1.630947e+002 
3187500000  -3.924275e+001  -1.788108e+002 
3190625000  -4.105789e+001  1.751090e+002 
3193750000  -4.134661e+001  1.785840e+002 
3196875000  -4.118025e+001  1.782238e+002 
3200000000  -3.986577e+001  1.723078e+002 
3203125000  -3.963264e+001  1.631260e+002 
3206250000  -4.003585e+001  1.554408e+002 
3209375000  -3.957295e+001  1.473338e+002 
3212500000  -4.000161e+001  1.384412e+002 
3215625000  -3.974482e+001  1.360516e+002 
3218750000  -4.029271e+001  1.236033e+002 
3221875000  -4.089228e+001  1.160531e+002 
3225000000  -4.062026e+001  1.115821e+002 
3228125000  -4.117895e+001  1.040561e+002 
3231250000  -4.155957e+001  1.010908e+002 
3234375000  -4.114696e+001  9.839050e+001 
3237500000  -4.107950e+001  9.237065e+001 
3240625000  -4.042645e+001  8.542239e+001 
3243750000  -4.045377e+001  7.433168e+001 
3246875000  -4.075275e+001  6.706671e+001 
3250000000  -4.106121e+001  6.246817e+001 
3253125000  -4.122046e+001  5.729978e+001 
3256250000  -4.066541e+001  4.748194e+001 
3259375000  -4.112470e+001  3.451515e+001 
3262500000  -4.268278e+001  3.108328e+001 
3265625000  -4.270141e+001  3.177360e+001 
3268750000  -4.265654e+001  2.997736e+001 
3271875000  -4.171611e+001  2.291150e+001 
3275000000  -4.133437e+001  1.287060e+001 
3278125000  -4.182638e+001  6.765509e+000 
3281250000  -4.191981e+001  2.746094e+000 
3284375000  -4.117930e+001  -6.195463e+000 
3287500000  -4.151269e+001  -1.202156e+001 
3290625000  -4.170408e+001  -2.349244e+001 
3293750000  -4.150678e+001  -3.154176e+001 
3296875000  -4.275249e+001  -3.364915e+001 
3300000000  -4.200764e+001  -3.866010e+001 
3303125000  -4.106918e+001  -4.580416e+001 
3306250000  -4.118088e+001  -5.644106e+001 
3309375000  -4.076303e+001  -6.836335e+001 
3312500000  -4.115777e+001  -8.328499e+001 
3315625000  -4.256814e+001  -9.084149e+001 
3318750000  -4.374356e+001  -9.991489e+001 
3321875000  -4.553141e+001  -9.817764e+001 
3325000000  -4.568874e+001  -9.277730e+001 
3328125000  -4.372939e+001  -9.437758e+001 
3331250000  -4.247933e+001  -9.694614e+001 
3334375000  -4.022051e+001  -1.140336e+002 
3337500000  -4.096723e+001  -1.371957e+002 
3340625000  -4.268964e+001  -1.492706e+002 
3343750000  -4.496788e+001  -1.511588e+002 
3346875000  -4.401775e+001  -1.524977e+002 
3350000000  -4.403930e+001  -1.585048e+002 
3353125000  -4.378481e+001  -1.695318e+002 
3356250000  -4.321870e+001  -1.788868e+002 
3359375000  -4.453871e+001  1.672558e+002 
3362500000  -4.512113e+001  1.596137e+002 
3365625000  -4.582662e+001  1.537626e+002 
3368750000  -4.645490e+001  1.485519e+002 
3371875000  -4.726911e+001  1.396653e+002 
3375000000  -4.893869e+001  1.348781e+002 
3378125000  -4.971777e+001  1.365925e+002 
3381250000  -5.049763e+001  1.447754e+002 
3384375000  -4.779457e+001  1.538466e+002 
3387500000  -4.529831e+001  1.298381e+002 
3390625000  -4.692204e+001  1.074825e+002 
3393750000  -4.748578e+001  1.056421e+002 
3396875000  -4.627839e+001  1.024534e+002 
3400000000  -4.646521e+001  8.817383e+001 
3403125000  -4.655603e+001  8.184982e+001 
3406250000  -4.768781e+001  7.332657e+001 
3409375000  -4.704256e+001  6.384675e+001 
3412500000  -4.833815e+001  5.303858e+001 
3415625000  -4.887488e+001  5.195059e+001 
3418750000  -4.873171e+001  4.454008e+001 
3421875000  -4.908356e+001  4.505846e+001 
3425000000  -4.744846e+001  3.855703e+001 
3428125000  -4.760657e+001  3.025924e+001 
3431250000  -4.704140e+001  1.566146e+001 
3434375000  -4.738199e+001  4.114999e+000 
3437500000  -4.771725e+001  -4.263413e+000 
3440625000  -4.720583e+001  -8.117167e+000 
3443750000  -4.649467e+001  -1.172159e+001 
3446875000  -4.556411e+001  -2.415541e+001 
3450000000  -4.546229e+001  -3.947158e+001 
3453125000  -4.581975e+001  -5.814521e+001 
3456250000  -4.721012e+001  -6.758484e+001 
3459375000  -4.778915e+001  -6.829336e+001 
3462500000  -4.782135e+001  -7.319185e+001 
3465625000  -4.711095e+001  -8.437483e+001 
3468750000  -4.738413e+001  -9.329563e+001 
3471875000  -4.709107e+001  -1.019452e+002 
3475000000  -4.707515e+001  -1.133450e+002 
3478125000  -4.715911e+001  -1.271861e+002 
3481250000  -4.876237e+001  -1.328538e+002 
3484375000  -4.860750e+001  -1.285496e+002 
3487500000  -4.745462e+001  -1.408799e+002 
3490625000  -4.699324e+001  -1.499686e+002 
3493750000  -4.772609e+001  -1.638889e+002 
3496875000  -4.787377e+001  -1.674134e+002 
3500000000  -4.835358e+001  -1.698467e+002 
3503125000  -4.724077e+001  -1.708685e+002 
3506250000  -4.550067e+001  1.736181e+002 
3509375000  -4.525109e+001  1.562050e+002 
3512500000  -4.619655e+001  1.387270e+002 
3515625000  -4.722579e+001  1.352048e+002 
3518750000  -4.785105e+001  1.319722e+002 
3521875000  -4.805299e+001  1.226788e+002 
3525000000  -4.874444e+001  1.168132e+002 
3528125000  -4.679276e+001  1.215941e+002 
3531250000  -4.704802e+001  1.067687e+002 
3534375000  -4.694571e+001  9.121893e+001 
3537500000  -4.783159e+001  8.352525e+001 
3540625000  -4.846756e+001  7.565466e+001 
3543750000  -4.917966e+001  8.078448e+001 
3546875000  -4.806850e+001  8.578530e+001 
3550000000  -4.675269e+001  7.818957e+001 
3553125000  -4.623526e+001  5.746399e+001 
3556250000  -4.766341e+001  5.252524e+001 
3559375000  -4.674231e+001  4.574214e+001 
3562500000  -4.666540e+001  3.886990e+001 
3565625000  -4.709002e+001  2.865088e+001 
3568750000  -4.762432e+001  2.799386e+001 
3571875000  -4.739990e+001  2.239642e+001 
3575000000  -4.724769e+001  1.692212e+001 
3578125000  -4.771358e+001  9.359179e+000 
3581250000  -4.733581e+001  7.095494e+000 
3584375000  -4.593069e+001  1.900887e+000 
3587500000  -4.599062e+001  -1.011814e+001 
3590625000  -4.694465e+001  -2.019130e+001 
3593750000  -4.790852e+001  -2.191014e+001 
3596875000  -4.670151e+001  -1.659221e+001 
3600000000  -4.495060e+001  -2.722850e+001 
3603125000  -4.518618e+001  -4.488042e+001 
3606250000  -4.610648e+001  -4.804447e+001 
3609375000  -4.656508e+001  -5.167948e+001 
3612500000  -4.622501e+001  -6.016924e+001 
3615625000  -4.606544e+001  -6.619949e+001 
3618750000  -4.631268e+001  -6.870911e+001 
3621875000  -4.564838e+001  -7.267612e+001 
3625000000  -4.550257e+001  -7.718402e+001 
3628125000  -4.475874e+001  -8.436660e+001 
3631250000  -4.530596e+001  -9.402314e+001 
3634375000  -4.611707e+001  -9.609735e+001 
3637500000  -4.442432e+001  -9.433125e+001 
3640625000  -4.371620e+001  -1.025191e+002 
3643750000  -4.316416e+001  -1.132793e+002 
3646875000  -4.377517e+001  -1.252018e+002 
3650000000  -4.368405e+001  -1.305123e+002 
3653125000  -4.359534e+001  -1.384718e+002 
3656250000  -4.431418e+001  -1.419533e+002 
3659375000  -4.366342e+001  -1.479500e+002 
3662500000  -4.354867e+001  -1.567745e+002 
3665625000  -4.330431e+001  -1.618184e+002 
3668750000  -4.206837e+001  -1.632877e+002 
3671875000  -4.140965e+001  -1.790140e+002 
3675000000  -4.226193e+001  1.714658e+002 
3678125000  -4.306404e+001  1.657689e+002 
3681250000  -4.234911e+001  1.606075e+002 
3684375000  -4.279595e+001  1.523034e+002 
3687500000  -4.279209e+001  1.441991e+002 
3690625000  -4.367971e+001  1.375561e+002 
3693750000  -4.450963e+001  1.382688e+002 
3696875000  -4.377992e+001  1.343566e+002 
3700000000  -4.313073e+001  1.250072e+002 
3703125000  -4.339289e+001  1.153688e+002 
3706250000  -4.454202e+001  1.134884e+002 
3709375000  -4.398158e+001  1.138545e+002 
3712500000  -4.309276e+001  1.110985e+002 
3715625000  -4.175961e+001  9.972333e+001 
3718750000  -4.188114e+001  9.152131e+001 
3721875000  -4.181696e+001  8.049413e+001 
3725000000  -4.253142e+001  7.230434e+001 
3728125000  -4.268480e+001  7.153863e+001 
3731250000  -4.215171e+001  6.523783e+001 
3734375000  -4.181203e+001  5.591695e+001 
3737500000  -4.276187e+001  4.580359e+001 
3740625000  -4.359404e+001  4.080855e+001 
3743750000  -4.300516e+001  3.466164e+001 
3746875000  -4.345001e+001  2.709118e+001 
3750000000  -4.385743e+001  2.483007e+001 
3753125000  -4.400701e+001  2.181494e+001 
3756250000  -4.395262e+001  1.833770e+001 
3759375000  -4.382310e+001  1.188841e+001 
3762500000  -4.355894e+001  7.783786e+000 
3765625000  -4.406356e+001  2.885166e+000 
3768750000  -4.371187e+001  2.154216e+000 
3771875000  -4.249841e+001  -4.510430e+000 
3775000000  -4.232817e+001  -1.565607e+001 
3778125000  -4.282266e+001  -2.125784e+001 
3781250000  -4.288090e+001  -2.661922e+001 
3784375000  -4.266436e+001  -3.235967e+001 
3787500000  -4.253328e+001  -3.489290e+001 
3790625000  -4.288097e+001  -4.793053e+001 
3793750000  -4.252660e+001  -5.135450e+001 
3796875000  -4.175869e+001  -5.512383e+001 
3800000000  -4.081926e+001  -6.347315e+001 
3803125000  -4.179075e+001  -7.398808e+001 
3806250000  -4.252412e+001  -7.721920e+001 
3809375000  -4.189283e+001  -8.572617e+001 
3812500000  -4.190483e+001  -9.604350e+001 
3815625000  -4.296906e+001  -1.067658e+002 
3818750000  -4.439719e+001  -1.044420e+002 
3821875000  -4.361249e+001  -9.384692e+001 
3825000000  -4.176550e+001  -1.007650e+002 
3828125000  -4.014545e+001  -1.211171e+002 
3831250000  -4.164402e+001  -1.364623e+002 
3834375000  -4.362729e+001  -1.362088e+002 
3837500000  -4.428985e+001  -1.312972e+002 
3840625000  -4.277391e+001  -1.393821e+002 
3843750000  -4.177261e+001  -1.562967e+002 
3846875000  -4.343757e+001  -1.629807e+002 
3850000000  -4.429955e+001  -1.552847e+002 
3853125000  -4.374968e+001  -1.581133e+002 
3856250000  -4.321950e+001  -1.675760e+002 
3859375000  -4.247948e+001  -1.729333e+002 
3862500000  -4.206086e+001  1.741772e+002 
3865625000  -4.284869e+001  1.671264e+002 
3868750000  -4.228791e+001  1.655623e+002 
3871875000  -4.169135e+001  1.592163e+002 
3875000000  -4.247297e+001  1.464066e+002 
3878125000  -4.318748e+001  1.452003e+002 
3881250000  -4.374189e+001  1.427437e+002 
3884375000  -4.228006e+001  1.329220e+002 
3887500000  -4.311860e+001  1.265150e+002 
3890625000  -4.422802e+001  1.242663e+002 
3893750000  -4.392036e+001  1.179899e+002 
3896875000  -4.416788e+001  1.145073e+002 
3900000000  -4.480214e+001  1.108642e+002 
3903125000  -4.342180e+001  1.054861e+002 
3906250000  -4.343392e+001  1.011919e+002 
3909375000  -4.298864e+001  9.330481e+001 
3912500000  -4.389167e+001  8.122845e+001 
3915625000  -4.530355e+001  8.333757e+001 
3918750000  -4.479524e+001  8.022530e+001 
3921875000  -4.375508e+001  7.601523e+001 
3925000000  -4.338792e+001  7.054949e+001 
3928125000  -4.309639e+001  6.060299e+001 
3931250000  -4.386637e+001  5.332893e+001 
3934375000  -4.400044e+001  5.478738e+001 
3937500000  -4.487589e+001  5.129622e+001 
3940625000  -4.479509e+001  4.827003e+001 
3943750000  -4.302319e+001  4.220088e+001 
3946875000  -4.297166e+001  3.148682e+001 
3950000000  -4.363665e+001  2.395972e+001 
3953125000  -4.467609e+001  2.528126e+001 
3956250000  -4.304626e+001  2.237988e+001 
3959375000  -4.210858e+001  1.964567e+001 
3962500000  -4.158244e+001  5.881805e+000 
3965625000  -4.184076e+001  -3.224898e+000 
3968750000  -4.294633e+001  -1.142702e+001 
3971875000  -4.275497e+001  -1.685365e+001 
3975000000  -4.239349e+001  -2.006425e+001 
3978125000  -4.222933e+001  -2.953081e+001 
3981250000  -4.205663e+001  -3.525480e+001 
3984375000  -4.236507e+001  -4.380814e+001 
3987500000  -4.319511e+001  -4.724170e+001 
3990625000  -4.349360e+001  -5.223409e+001 
3993750000  -4.329856e+001  -6.006675e+001 
3996875000  -4.337048e+001  -6.267999e+001 
4000000000  -4.376380e+001  -6.814347e+001 
4003125000  -4.392961e+001  -6.878353e+001 
4006250000  -4.224789e+001  -7.399292e+001 
4009375000  -4.120813e+001  -8.998580e+001 
4012500000  -4.324969e+001  -9.861650e+001 
4015625000  -4.398806e+001  -9.854479e+001 
4018750000  -4.423893e+001  -1.046083e+002 
4021875000  -4.355095e+001  -1.099714e+002 
4025000000  -4.313957e+001  -1.162567e+002 
4028125000  -4.350783e+001  -1.263867e+002 
4031250000  -4.398594e+001  -1.320625e+002 
4034375000  -4.397794e+001  -1.335678e+002 
4037500000  -4.412779e+001  -1.371124e+002 
4040625000  -4.418500e+001  -1.439130e+002 
4043750000  -4.445688e+001  -1.483233e+002 
4046875000  -4.440923e+001  -1.516391e+002 
4050000000  -4.422062e+001  -1.610752e+002 
4053125000  -4.530870e+001  -1.583808e+002 
4056250000  -4.613461e+001  -1.580060e+002 
4059375000  -4.451463e+001  -1.599254e+002 
4062500000  -4.325342e+001  -1.694553e+002 
4065625000  -4.400568e+001  -1.742042e+002 
4068750000  -4.369141e+001  1.761128e+002 
4071875000  -4.302067e+001  1.662848e+002 
4075000000  -4.383446e+001  1.578866e+002 
4078125000  -4.449493e+001  1.571051e+002 
4081250000  -4.373491e+001  1.503109e+002 
4084375000  -4.328358e+001  1.414511e+002 
4087500000  -4.416650e+001  1.341407e+002 
4090625000  -4.482943e+001  1.327706e+002 
4093750000  -4.521655e+001  1.283310e+002 
4096875000  -4.454189e+001  1.218839e+002 
4100000000  -4.554474e+001  1.139191e+002 
4103125000  -4.614661e+001  1.174570e+002 
4106250000  -4.549240e+001  1.190557e+002 
4109375000  -4.468277e+001  1.145784e+002 
4112500000  -4.430323e+001  1.057739e+002 
4115625000  -4.438508e+001  1.013044e+002 
4118750000  -4.396058e+001  9.507312e+001 
4121875000  -4.437128e+001  8.782909e+001 
4125000000  -4.505476e+001  7.959875e+001 
4128125000  -4.549864e+001  8.447359e+001 
4131250000  -4.392091e+001  8.574931e+001 
4134375000  -4.166059e+001  7.513172e+001 
4137500000  -4.224412e+001  5.417210e+001 
4140625000  -4.412553e+001  4.613569e+001 
4143750000  -4.493009e+001  4.894661e+001 
4146875000  -4.386129e+001  5.450050e+001 
4150000000  -4.285448e+001  4.397319e+001 
4153125000  -4.342738e+001  3.727149e+001 
4156250000  -4.440268e+001  2.974457e+001 
4159375000  -4.382682e+001  3.255133e+001 
4162500000  -4.279469e+001  3.274286e+001 
4165625000  -4.126841e+001  2.099697e+001 
4168750000  -4.170597e+001  9.723212e+000 
4171875000  -4.119542e+001  -1.794966e+000 
4175000000  -4.211462e+001  -9.891159e+000 
4178125000  -4.256301e+001  -1.105442e+001 
4181250000  -4.210339e+001  -1.683714e+001 
4184375000  -4.317005e+001  -2.492165e+001 
4187500000  -4.287452e+001  -3.213683e+001 
4190625000  -4.297511e+001  -4.121179e+001 
4193750000  -4.413847e+001  -4.707414e+001 
4196875000  -4.547625e+001  -5.085649e+001 
4200000000  -4.663511e+001  -4.296476e+001 
4203125000  -4.504822e+001  -3.660036e+001 
4206250000  -4.139440e+001  -4.166200e+001 
4209375000  -4.161121e+001  -6.766202e+001 
4212500000  -4.408681e+001  -7.515110e+001 
4215625000  -4.470627e+001  -6.698080e+001 
4218750000  -4.348872e+001  -6.996966e+001 
4221875000  -4.159880e+001  -7.857812e+001 
4225000000  -4.238065e+001  -8.919899e+001 
4228125000  -4.267335e+001  -8.866752e+001 
4231250000  -4.129404e+001  -9.835859e+001 
4234375000  -4.141228e+001  -1.084585e+002 
4237500000  -4.145935e+001  -1.141634e+002 
4240625000  -4.159712e+001  -1.243539e+002 
4243750000  -4.299793e+001  -1.343179e+002 
4246875000  -4.384245e+001  -1.361530e+002 
4250000000  -4.342840e+001  -1.331914e+002 
4253125000  -4.301065e+001  -1.356868e+002 
4256250000  -4.277419e+001  -1.431770e+002 
4259375000  -4.247127e+001  -1.479653e+002 
4262500000  -4.278261e+001  -1.552715e+002 
4265625000  -4.245283e+001  -1.561333e+002 
4268750000  -4.131926e+001  -1.653829e+002 
4271875000  -4.135040e+001  -1.742650e+002 
4275000000  -4.089140e+001  1.778154e+002 
4278125000  -4.177317e+001  1.633873e+002 
4281250000  -4.300290e+001  1.630979e+002 
4284375000  -4.258359e+001  1.577191e+002 
4287500000  -4.365929e+001  1.571146e+002 
4290625000  -4.440889e+001  1.618230e+002 
4293750000  -4.198299e+001  1.620958e+002 
4296875000  -4.064437e+001  1.482201e+002 
4300000000  -4.205611e+001  1.355441e+002 
4303125000  -4.237294e+001  1.399238e+002 
4306250000  -4.105946e+001  1.364431e+002 
4309375000  -4.019427e+001  1.279878e+002 
4312500000  -4.018195e+001  1.167399e+002 
4315625000  -4.069617e+001  1.049310e+002 
4318750000  -4.109125e+001  1.007818e+002 
4321875000  -4.113362e+001  9.652119e+001 
4325000000  -4.047431e+001  9.359882e+001 
4328125000  -3.982648e+001  8.176271e+001 
4331250000  -3.997731e+001  6.968268e+001 
4334375000  -4.097418e+001  6.148997e+001 
4337500000  -4.214612e+001  5.990921e+001 
4340625000  -4.287542e+001  6.193512e+001 
4343750000  -4.155656e+001  5.745996e+001 
4346875000  -4.130173e+001  4.991869e+001 
4350000000  -4.171701e+001  3.812278e+001 
4353125000  -4.240880e+001  3.024512e+001 
4356250000  -4.463392e+001  3.250227e+001 
4359375000  -4.309183e+001  4.466977e+001 
4362500000  -3.985116e+001  3.700941e+001 
4365625000  -4.005252e+001  1.777253e+001 
4368750000  -4.093553e+001  6.472649e+000 
4371875000  -4.188048e+001  1.811231e+000 
4375000000  -4.107165e+001  4.825892e-002 
4378125000  -4.123918e+001  -9.792181e+000 
4381250000  -4.162418e+001  -1.527412e+001 
4384375000  -4.104669e+001  -2.398060e+001 
4387500000  -4.214535e+001  -3.047443e+001 
4390625000  -4.295379e+001  -3.393025e+001 
4393750000  -4.219549e+001  -3.268119e+001 
4396875000  -4.158554e+001  -3.841402e+001 
4400000000  -4.128030e+001  -4.767085e+001 
4403125000  -4.239965e+001  -6.114125e+001 
4406250000  -4.250655e+001  -6.195404e+001 
4409375000  -4.339040e+001  -6.787557e+001 
4412500000  -4.408238e+001  -7.041306e+001 
4415625000  -4.344527e+001  -6.615354e+001 
4418750000  -4.255584e+001  -6.679794e+001 
