!Agilent Technologies,E8363B,MY43030201,A.06.04.32
!Agilent E8363B: A.06.04.32
!Date: Tuesday, November 11, 2014 21:41:01
!Correction: S21(Response(S21)) 
!S1P File: Measurement: S21:
# Hz S  dB   R 50
3000000000  -4.361054e+001  -1.570184e+002 
3003125000  -4.528187e+001  -1.622489e+002 
3006250000  -4.507464e+001  -1.652611e+002 
3009375000  -4.613203e+001  -1.621597e+002 
3012500000  -4.483752e+001  -1.660483e+002 
3015625000  -4.487421e+001  -1.749463e+002 
3018750000  -4.530543e+001  -1.747105e+002 
3021875000  -4.377947e+001  -1.748838e+002 
3025000000  -4.248864e+001  -1.785822e+002 
3028125000  -4.158232e+001  1.687869e+002 
3031250000  -4.109242e+001  1.553878e+002 
3034375000  -4.093394e+001  1.426521e+002 
3037500000  -4.154573e+001  1.311955e+002 
3040625000  -4.305501e+001  1.246823e+002 
3043750000  -4.329364e+001  1.177271e+002 
3046875000  -4.436941e+001  1.110280e+002 
3050000000  -4.509394e+001  1.059323e+002 
3053125000  -4.479023e+001  1.081620e+002 
3056250000  -4.479074e+001  1.136253e+002 
3059375000  -4.399267e+001  1.080842e+002 
3062500000  -4.242879e+001  1.050399e+002 
3065625000  -4.201960e+001  9.287935e+001 
3068750000  -4.176715e+001  8.430423e+001 
3071875000  -4.168352e+001  8.165617e+001 
3075000000  -4.116459e+001  7.385776e+001 
3078125000  -4.112804e+001  6.724702e+001 
3081250000  -4.134660e+001  6.172758e+001 
3084375000  -4.046522e+001  5.627242e+001 
3087500000  -4.065949e+001  4.802074e+001 
3090625000  -4.002833e+001  3.410197e+001 
3093750000  -4.094508e+001  2.565362e+001 
3096875000  -4.116315e+001  2.018315e+001 
3100000000  -4.111179e+001  1.638477e+001 
3103125000  -4.134446e+001  1.058645e+001 
3106250000  -4.104177e+001  5.608366e+000 
3109375000  -4.090302e+001  7.564085e-001 
3112500000  -4.069562e+001  -6.813520e+000 
3115625000  -4.090189e+001  -1.203209e+001 
3118750000  -4.081107e+001  -1.660034e+001 
3121875000  -4.003278e+001  -2.954810e+001 
3125000000  -4.208874e+001  -3.268976e+001 
3128125000  -4.191438e+001  -2.763388e+001 
3131250000  -3.956531e+001  -3.413869e+001 
3134375000  -3.904497e+001  -5.298719e+001 
3137500000  -3.971093e+001  -6.563354e+001 
3140625000  -4.081580e+001  -7.079056e+001 
3143750000  -4.156332e+001  -7.584238e+001 
3146875000  -4.133149e+001  -7.332485e+001 
3150000000  -4.032207e+001  -8.036003e+001 
3153125000  -4.067677e+001  -8.773350e+001 
3156250000  -4.160738e+001  -8.354841e+001 
3159375000  -3.920588e+001  -8.870925e+001 
3162500000  -3.771921e+001  -1.051761e+002 
3165625000  -3.908746e+001  -1.183387e+002 
3168750000  -3.893539e+001  -1.201869e+002 
3171875000  -3.863580e+001  -1.293863e+002 
3175000000  -3.924193e+001  -1.389128e+002 
3178125000  -3.888655e+001  -1.410446e+002 
3181250000  -3.816124e+001  -1.504716e+002 
3184375000  -3.781415e+001  -1.639440e+002 
3187500000  -3.920878e+001  -1.782775e+002 
3190625000  -4.089304e+001  1.743941e+002 
3193750000  -4.119817e+001  1.781970e+002 
3196875000  -4.110439e+001  1.788341e+002 
3200000000  -3.988190e+001  1.731157e+002 
3203125000  -3.976285e+001  1.640087e+002 
3206250000  -3.988177e+001  1.560946e+002 
3209375000  -3.947204e+001  1.460497e+002 
3212500000  -3.996069e+001  1.392059e+002 
3215625000  -3.967419e+001  1.381938e+002 
3218750000  -4.034993e+001  1.252172e+002 
3221875000  -4.065471e+001  1.189992e+002 
3225000000  -4.052082e+001  1.128411e+002 
3228125000  -4.107713e+001  1.031043e+002 
3231250000  -4.127186e+001  1.023985e+002 
3234375000  -4.111948e+001  9.812225e+001 
3237500000  -4.109193e+001  9.336113e+001 
3240625000  -4.048806e+001  8.654298e+001 
3243750000  -4.020044e+001  7.556358e+001 
3246875000  -4.084621e+001  6.644185e+001 
3250000000  -4.121618e+001  6.244879e+001 
3253125000  -4.138895e+001  5.846221e+001 
3256250000  -4.055346e+001  4.814503e+001 
3259375000  -4.125032e+001  3.562904e+001 
3262500000  -4.241040e+001  3.094396e+001 
3265625000  -4.272702e+001  3.001662e+001 
3268750000  -4.265467e+001  3.047170e+001 
3271875000  -4.173618e+001  2.488496e+001 
3275000000  -4.112835e+001  1.462921e+001 
3278125000  -4.178872e+001  7.467408e+000 
3281250000  -4.193174e+001  3.125423e+000 
3284375000  -4.104473e+001  -4.048906e+000 
3287500000  -4.160670e+001  -1.250533e+001 
3290625000  -4.173578e+001  -2.263280e+001 
3293750000  -4.180158e+001  -2.996979e+001 
3296875000  -4.308335e+001  -3.562888e+001 
3300000000  -4.230709e+001  -3.648647e+001 
3303125000  -4.104169e+001  -4.602840e+001 
3306250000  -4.093969e+001  -5.731669e+001 
3309375000  -4.079077e+001  -6.805797e+001 
3312500000  -4.107947e+001  -8.232938e+001 
3315625000  -4.239534e+001  -9.048695e+001 
3318750000  -4.411817e+001  -9.780196e+001 
3321875000  -4.516980e+001  -9.751016e+001 
3325000000  -4.545694e+001  -9.180753e+001 
3328125000  -4.430712e+001  -9.739384e+001 
3331250000  -4.246758e+001  -9.578004e+001 
3334375000  -4.013483e+001  -1.149539e+002 
3337500000  -4.094489e+001  -1.373540e+002 
3340625000  -4.280952e+001  -1.469105e+002 
3343750000  -4.479412e+001  -1.478391e+002 
3346875000  -4.429834e+001  -1.512674e+002 
3350000000  -4.380995e+001  -1.577171e+002 
3353125000  -4.392609e+001  -1.675008e+002 
3356250000  -4.360785e+001  -1.776283e+002 
3359375000  -4.443749e+001  1.705755e+002 
3362500000  -4.535913e+001  1.600437e+002 
3365625000  -4.594145e+001  1.560083e+002 
3368750000  -4.643078e+001  1.477074e+002 
3371875000  -4.692883e+001  1.418610e+002 
3375000000  -4.865493e+001  1.366792e+002 
3378125000  -4.917966e+001  1.345459e+002 
3381250000  -5.070897e+001  1.470391e+002 
3384375000  -4.707218e+001  1.558789e+002 
3387500000  -4.505975e+001  1.298503e+002 
3390625000  -4.717775e+001  1.092644e+002 
3393750000  -4.798505e+001  1.100046e+002 
3396875000  -4.628636e+001  1.059577e+002 
3400000000  -4.624521e+001  8.817995e+001 
3403125000  -4.692524e+001  8.331231e+001 
3406250000  -4.788153e+001  7.215989e+001 
3409375000  -4.682694e+001  6.299747e+001 
3412500000  -4.778123e+001  5.477605e+001 
3415625000  -4.856126e+001  5.066158e+001 
3418750000  -4.870926e+001  4.806237e+001 
3421875000  -4.916084e+001  4.511993e+001 
3425000000  -4.748838e+001  3.998780e+001 
3428125000  -4.734475e+001  3.112572e+001 
3431250000  -4.723202e+001  1.762694e+001 
3434375000  -4.712387e+001  6.241671e+000 
3437500000  -4.751130e+001  6.170882e+000 
3440625000  -4.815887e+001  -5.122373e+000 
3443750000  -4.641447e+001  -1.124890e+001 
3446875000  -4.589499e+001  -2.502319e+001 
3450000000  -4.504397e+001  -3.777832e+001 
3453125000  -4.570526e+001  -5.951729e+001 
3456250000  -4.772575e+001  -6.918439e+001 
3459375000  -4.821278e+001  -7.034586e+001 
3462500000  -4.726968e+001  -7.567011e+001 
3465625000  -4.756723e+001  -8.772871e+001 
3468750000  -4.752248e+001  -9.301872e+001 
3471875000  -4.749625e+001  -1.002926e+002 
3475000000  -4.705921e+001  -1.116014e+002 
3478125000  -4.731835e+001  -1.262087e+002 
3481250000  -4.912191e+001  -1.310892e+002 
3484375000  -4.851477e+001  -1.323766e+002 
3487500000  -4.695112e+001  -1.386876e+002 
3490625000  -4.697934e+001  -1.504698e+002 
3493750000  -4.802517e+001  -1.627076e+002 
3496875000  -4.801718e+001  -1.629111e+002 
3500000000  -4.827783e+001  -1.668223e+002 
3503125000  -4.711897e+001  -1.705815e+002 
3506250000  -4.585226e+001  1.749929e+002 
3509375000  -4.564853e+001  1.576320e+002 
3512500000  -4.622086e+001  1.429275e+002 
3515625000  -4.708132e+001  1.346068e+002 
3518750000  -4.788520e+001  1.327630e+002 
3521875000  -4.776890e+001  1.231939e+002 
3525000000  -4.920855e+001  1.168284e+002 
3528125000  -4.734523e+001  1.201215e+002 
3531250000  -4.616523e+001  1.102696e+002 
3534375000  -4.679370e+001  9.563983e+001 
3537500000  -4.787994e+001  8.395238e+001 
3540625000  -4.911582e+001  8.017777e+001 
3543750000  -4.891870e+001  8.389789e+001 
3546875000  -4.830782e+001  8.686282e+001 
3550000000  -4.673156e+001  7.773476e+001 
3553125000  -4.614347e+001  6.129829e+001 
3556250000  -4.703558e+001  5.211800e+001 
3559375000  -4.650018e+001  4.714282e+001 
3562500000  -4.621917e+001  3.800727e+001 
3565625000  -4.769527e+001  2.554924e+001 
3568750000  -4.737254e+001  2.784821e+001 
3571875000  -4.727380e+001  2.061596e+001 
3575000000  -4.716011e+001  1.635293e+001 
3578125000  -4.744144e+001  1.163216e+001 
3581250000  -4.754367e+001  1.036140e+001 
3584375000  -4.610933e+001  1.594842e+000 
3587500000  -4.547887e+001  -1.154712e+001 
3590625000  -4.633712e+001  -1.946499e+001 
3593750000  -4.747588e+001  -2.010196e+001 
3596875000  -4.658759e+001  -1.441268e+001 
3600000000  -4.493491e+001  -2.600055e+001 
3603125000  -4.523349e+001  -4.103530e+001 
3606250000  -4.599936e+001  -4.809650e+001 
3609375000  -4.605107e+001  -5.255577e+001 
3612500000  -4.625127e+001  -5.771521e+001 
3615625000  -4.585996e+001  -6.304873e+001 
3618750000  -4.617324e+001  -6.811073e+001 
3621875000  -4.572571e+001  -7.212586e+001 
3625000000  -4.568871e+001  -7.720398e+001 
3628125000  -4.465436e+001  -8.238957e+001 
3631250000  -4.497746e+001  -9.381678e+001 
3634375000  -4.551911e+001  -9.168565e+001 
3637500000  -4.457422e+001  -9.649883e+001 
3640625000  -4.378791e+001  -1.015579e+002 
3643750000  -4.311425e+001  -1.147655e+002 
3646875000  -4.405127e+001  -1.228513e+002 
3650000000  -4.397403e+001  -1.319529e+002 
3653125000  -4.335000e+001  -1.379781e+002 
3656250000  -4.379955e+001  -1.446490e+002 
3659375000  -4.371366e+001  -1.471019e+002 
3662500000  -4.337632e+001  -1.559592e+002 
3665625000  -4.340829e+001  -1.596127e+002 
3668750000  -4.187345e+001  -1.637091e+002 
3671875000  -4.120313e+001  -1.760572e+002 
3675000000  -4.223613e+001  1.719094e+002 
3678125000  -4.234865e+001  1.664157e+002 
3681250000  -4.230791e+001  1.615811e+002 
3684375000  -4.260267e+001  1.514136e+002 
3687500000  -4.330613e+001  1.427773e+002 
3690625000  -4.363857e+001  1.385011e+002 
3693750000  -4.464006e+001  1.362461e+002 
3696875000  -4.371820e+001  1.340916e+002 
3700000000  -4.292877e+001  1.270803e+002 
3703125000  -4.389499e+001  1.189716e+002 
3706250000  -4.483984e+001  1.164566e+002 
3709375000  -4.375144e+001  1.166808e+002 
3712500000  -4.332173e+001  1.104080e+002 
3715625000  -4.225431e+001  1.015948e+002 
3718750000  -4.171238e+001  9.053262e+001 
3721875000  -4.190243e+001  8.285006e+001 
3725000000  -4.223084e+001  7.532835e+001 
3728125000  -4.259609e+001  7.196372e+001 
3731250000  -4.202285e+001  6.500330e+001 
3734375000  -4.210809e+001  5.687036e+001 
3737500000  -4.299964e+001  4.955648e+001 
3740625000  -4.364342e+001  4.167566e+001 
3743750000  -4.290169e+001  3.629533e+001 
3746875000  -4.339586e+001  2.958831e+001 
3750000000  -4.369298e+001  2.702328e+001 
3753125000  -4.372155e+001  2.193335e+001 
3756250000  -4.387215e+001  1.997469e+001 
3759375000  -4.388371e+001  1.458104e+001 
3762500000  -4.362121e+001  9.048171e+000 
3765625000  -4.418997e+001  2.883502e+000 
3768750000  -4.389767e+001  4.107997e+000 
3771875000  -4.228200e+001  -2.577363e+000 
3775000000  -4.224542e+001  -1.338918e+001 
3778125000  -4.255693e+001  -2.021023e+001 
3781250000  -4.269323e+001  -2.392254e+001 
3784375000  -4.272672e+001  -3.178817e+001 
3787500000  -4.249822e+001  -3.646828e+001 
3790625000  -4.257880e+001  -4.614877e+001 
3793750000  -4.278254e+001  -4.880007e+001 
3796875000  -4.167907e+001  -5.343608e+001 
3800000000  -4.091127e+001  -6.098448e+001 
3803125000  -4.170981e+001  -7.366561e+001 
3806250000  -4.250646e+001  -8.021595e+001 
3809375000  -4.197439e+001  -8.249700e+001 
3812500000  -4.188639e+001  -9.529409e+001 
3815625000  -4.284439e+001  -1.060552e+002 
3818750000  -4.438419e+001  -1.037810e+002 
3821875000  -4.360707e+001  -9.240428e+001 
3825000000  -4.144266e+001  -9.874644e+001 
3828125000  -4.058369e+001  -1.194748e+002 
3831250000  -4.154605e+001  -1.336255e+002 
3834375000  -4.383019e+001  -1.355594e+002 
3837500000  -4.426794e+001  -1.346868e+002 
3840625000  -4.256127e+001  -1.388590e+002 
3843750000  -4.175517e+001  -1.537181e+002 
3846875000  -4.371564e+001  -1.606180e+002 
3850000000  -4.404691e+001  -1.527956e+002 
3853125000  -4.353392e+001  -1.565770e+002 
3856250000  -4.293565e+001  -1.652854e+002 
3859375000  -4.229149e+001  -1.745766e+002 
3862500000  -4.246412e+001  1.743225e+002 
3865625000  -4.268442e+001  1.673188e+002 
3868750000  -4.225816e+001  1.672066e+002 
3871875000  -4.182965e+001  1.568488e+002 
3875000000  -4.256019e+001  1.476081e+002 
3878125000  -4.336107e+001  1.451182e+002 
3881250000  -4.346218e+001  1.426015e+002 
3884375000  -4.265784e+001  1.335126e+002 
3887500000  -4.344471e+001  1.276381e+002 
3890625000  -4.398151e+001  1.256904e+002 
3893750000  -4.412225e+001  1.189618e+002 
3896875000  -4.438266e+001  1.183357e+002 
3900000000  -4.442428e+001  1.090967e+002 
3903125000  -4.393301e+001  1.066179e+002 
3906250000  -4.344899e+001  1.031957e+002 
3909375000  -4.312685e+001  9.307853e+001 
3912500000  -4.404045e+001  8.393816e+001 
3915625000  -4.516083e+001  8.454518e+001 
3918750000  -4.454839e+001  8.115162e+001 
3921875000  -4.407322e+001  7.920457e+001 
3925000000  -4.296763e+001  7.117554e+001 
3928125000  -4.319551e+001  6.321759e+001 
3931250000  -4.415388e+001  5.259768e+001 
3934375000  -4.418533e+001  5.262043e+001 
3937500000  -4.475882e+001  5.016934e+001 
3940625000  -4.487713e+001  4.728432e+001 
3943750000  -4.362354e+001  4.262151e+001 
3946875000  -4.300739e+001  3.391831e+001 
3950000000  -4.404381e+001  2.718994e+001 
3953125000  -4.462337e+001  2.631701e+001 
3956250000  -4.313349e+001  2.833046e+001 
3959375000  -4.194040e+001  2.015963e+001 
3962500000  -4.149046e+001  9.610472e+000 
3965625000  -4.199310e+001  -2.715260e+000 
3968750000  -4.280858e+001  -9.302201e+000 
3971875000  -4.283499e+001  -1.459262e+001 
3975000000  -4.235122e+001  -1.922320e+001 
3978125000  -4.229395e+001  -2.753337e+001 
3981250000  -4.250787e+001  -3.486139e+001 
3984375000  -4.268459e+001  -4.005375e+001 
3987500000  -4.338773e+001  -4.667657e+001 
3990625000  -4.340726e+001  -5.075591e+001 
3993750000  -4.343001e+001  -5.822811e+001 
3996875000  -4.331356e+001  -6.076503e+001 
4000000000  -4.365506e+001  -6.731453e+001 
4003125000  -4.396986e+001  -6.824477e+001 
4006250000  -4.220227e+001  -7.199933e+001 
4009375000  -4.177867e+001  -8.936221e+001 
4012500000  -4.335298e+001  -9.637980e+001 
4015625000  -4.439056e+001  -9.734071e+001 
4018750000  -4.411668e+001  -1.013276e+002 
4021875000  -4.350191e+001  -1.105172e+002 
4025000000  -4.316711e+001  -1.156616e+002 
4028125000  -4.345459e+001  -1.254861e+002 
4031250000  -4.409702e+001  -1.285375e+002 
4034375000  -4.431138e+001  -1.340561e+002 
4037500000  -4.407417e+001  -1.382601e+002 
4040625000  -4.416229e+001  -1.397103e+002 
4043750000  -4.437344e+001  -1.445705e+002 
4046875000  -4.496941e+001  -1.493941e+002 
4050000000  -4.391454e+001  -1.611519e+002 
4053125000  -4.548708e+001  -1.616666e+002 
4056250000  -4.566297e+001  -1.561630e+002 
4059375000  -4.411554e+001  -1.590103e+002 
4062500000  -4.359104e+001  -1.708228e+002 
4065625000  -4.359086e+001  -1.749357e+002 
4068750000  -4.342321e+001  1.770377e+002 
4071875000  -4.302890e+001  1.678535e+002 
4075000000  -4.370875e+001  1.588790e+002 
4078125000  -4.425720e+001  1.561897e+002 
4081250000  -4.376790e+001  1.502893e+002 
4084375000  -4.381342e+001  1.434110e+002 
4087500000  -4.474031e+001  1.344100e+002 
4090625000  -4.500829e+001  1.296874e+002 
4093750000  -4.467308e+001  1.331994e+002 
4096875000  -4.491571e+001  1.228573e+002 
4100000000  -4.548601e+001  1.171148e+002 
4103125000  -4.595766e+001  1.195941e+002 
4106250000  -4.550386e+001  1.205486e+002 
4109375000  -4.448150e+001  1.185209e+002 
4112500000  -4.413182e+001  1.048699e+002 
4115625000  -4.452912e+001  1.029867e+002 
4118750000  -4.426965e+001  9.576186e+001 
4121875000  -4.388615e+001  8.916444e+001 
4125000000  -4.510722e+001  7.889114e+001 
4128125000  -4.529922e+001  8.563367e+001 
4131250000  -4.398195e+001  8.730999e+001 
4134375000  -4.172991e+001  7.729594e+001 
4137500000  -4.270659e+001  5.445043e+001 
4140625000  -4.451262e+001  5.028587e+001 
4143750000  -4.503484e+001  5.272379e+001 
4146875000  -4.418202e+001  5.503362e+001 
4150000000  -4.303724e+001  4.523455e+001 
4153125000  -4.396554e+001  3.639499e+001 
4156250000  -4.435049e+001  3.250851e+001 
4159375000  -4.468775e+001  3.542141e+001 
4162500000  -4.269728e+001  3.279378e+001 
4165625000  -4.157612e+001  2.319837e+001 
4168750000  -4.138594e+001  1.150708e+001 
4171875000  -4.168908e+001  -9.712433e-001 
4175000000  -4.245446e+001  -6.083658e+000 
4178125000  -4.275008e+001  -9.898537e+000 
4181250000  -4.246278e+001  -1.670735e+001 
4184375000  -4.310368e+001  -2.471374e+001 
4187500000  -4.285678e+001  -3.066754e+001 
4190625000  -4.298859e+001  -3.813419e+001 
4193750000  -4.421580e+001  -4.647915e+001 
4196875000  -4.557332e+001  -4.708511e+001 
4200000000  -4.724708e+001  -4.439601e+001 
4203125000  -4.427232e+001  -3.049787e+001 
4206250000  -4.136540e+001  -4.151400e+001 
4209375000  -4.131126e+001  -6.703062e+001 
4212500000  -4.417342e+001  -7.452576e+001 
4215625000  -4.486111e+001  -6.642261e+001 
4218750000  -4.281980e+001  -6.437359e+001 
4221875000  -4.188477e+001  -7.342715e+001 
4225000000  -4.257284e+001  -9.008310e+001 
4228125000  -4.251694e+001  -8.671223e+001 
4231250000  -4.122369e+001  -9.445151e+001 
4234375000  -4.148769e+001  -1.059718e+002 
4237500000  -4.119860e+001  -1.152680e+002 
4240625000  -4.170192e+001  -1.222620e+002 
4243750000  -4.263623e+001  -1.318014e+002 
4246875000  -4.352944e+001  -1.335690e+002 
4250000000  -4.292688e+001  -1.331572e+002 
4253125000  -4.290844e+001  -1.325226e+002 
4256250000  -4.264061e+001  -1.440762e+002 
4259375000  -4.245745e+001  -1.470437e+002 
4262500000  -4.267722e+001  -1.528346e+002 
4265625000  -4.262624e+001  -1.535829e+002 
4268750000  -4.127546e+001  -1.633266e+002 
4271875000  -4.136036e+001  -1.726463e+002 
4275000000  -4.072913e+001  -1.781720e+002 
4278125000  -4.173810e+001  1.642081e+002 
4281250000  -4.293645e+001  1.620747e+002 
4284375000  -4.274611e+001  1.570685e+002 
4287500000  -4.397224e+001  1.522001e+002 
4290625000  -4.417627e+001  1.655411e+002 
4293750000  -4.172029e+001  1.607581e+002 
4296875000  -4.078069e+001  1.471398e+002 
4300000000  -4.145239e+001  1.374653e+002 
4303125000  -4.274265e+001  1.367031e+002 
4306250000  -4.124855e+001  1.383334e+002 
4309375000  -4.019715e+001  1.282924e+002 
4312500000  -3.998021e+001  1.148390e+002 
4315625000  -4.105965e+001  1.073226e+002 
4318750000  -4.102682e+001  1.012874e+002 
4321875000  -4.146092e+001  9.821412e+001 
4325000000  -4.066467e+001  9.293684e+001 
4328125000  -3.972735e+001  8.197766e+001 
4331250000  -4.011284e+001  7.246539e+001 
4334375000  -4.134109e+001  6.514453e+001 
4337500000  -4.238898e+001  6.029896e+001 
4340625000  -4.289991e+001  6.225657e+001 
4343750000  -4.157594e+001  5.782769e+001 
4346875000  -4.118872e+001  5.034499e+001 
4350000000  -4.153941e+001  4.131111e+001 
4353125000  -4.226013e+001  3.047634e+001 
4356250000  -4.427599e+001  3.220641e+001 
4359375000  -4.302232e+001  4.830683e+001 
4362500000  -4.006144e+001  3.694258e+001 
4365625000  -3.954887e+001  1.731684e+001 
4368750000  -4.073200e+001  7.336990e+000 
4371875000  -4.178218e+001  6.428054e+000 
4375000000  -4.113865e+001  1.326984e+000 
4378125000  -4.151626e+001  -6.296546e+000 
4381250000  -4.130279e+001  -1.540208e+001 
4384375000  -4.104815e+001  -2.404971e+001 
4387500000  -4.222141e+001  -2.589759e+001 
4390625000  -4.271312e+001  -3.179081e+001 
4393750000  -4.245333e+001  -3.335923e+001 
4396875000  -4.139742e+001  -3.949120e+001 
4400000000  -4.136571e+001  -4.815315e+001 
4403125000  -4.233028e+001  -5.714813e+001 
4406250000  -4.277269e+001  -6.203752e+001 
4409375000  -4.326489e+001  -6.684817e+001 
4412500000  -4.373066e+001  -6.747122e+001 
4415625000  -4.347696e+001  -6.415011e+001 
4418750000  -4.236708e+001  -6.598361e+001 
