!Agilent Technologies,E8363B,MY43030201,A.06.04.32
!Agilent E8363B: A.06.04.32
!Date: Tuesday, November 11, 2014 21:52:58
!Correction: S21(Response(S21)) 
!S1P File: Measurement: S21:
# Hz S  dB   R 50
3000000000  -4.375588e+001  -1.631727e+002 
3003125000  -4.547797e+001  -1.678819e+002 
3006250000  -4.512181e+001  -1.695663e+002 
3009375000  -4.624520e+001  -1.669363e+002 
3012500000  -4.475933e+001  -1.728829e+002 
3015625000  -4.503153e+001  -1.797513e+002 
3018750000  -4.535399e+001  1.794164e+002 
3021875000  -4.395920e+001  1.793350e+002 
3025000000  -4.261588e+001  1.746038e+002 
3028125000  -4.146727e+001  1.628211e+002 
3031250000  -4.096957e+001  1.492540e+002 
3034375000  -4.099902e+001  1.356352e+002 
3037500000  -4.162785e+001  1.251806e+002 
3040625000  -4.282609e+001  1.193485e+002 
3043750000  -4.334106e+001  1.105079e+002 
3046875000  -4.409159e+001  1.027976e+002 
3050000000  -4.500739e+001  1.020277e+002 
3053125000  -4.463497e+001  1.043409e+002 
3056250000  -4.471444e+001  1.071363e+002 
3059375000  -4.392479e+001  1.031780e+002 
3062500000  -4.254441e+001  1.001185e+002 
3065625000  -4.204668e+001  8.565780e+001 
3068750000  -4.209442e+001  7.892759e+001 
3071875000  -4.194798e+001  7.730593e+001 
3075000000  -4.132386e+001  6.923070e+001 
3078125000  -4.122925e+001  6.104303e+001 
3081250000  -4.129426e+001  5.524110e+001 
3084375000  -4.042279e+001  4.891986e+001 
3087500000  -4.081333e+001  4.165080e+001 
3090625000  -4.015626e+001  2.846295e+001 
3093750000  -4.082852e+001  2.055666e+001 
3096875000  -4.133430e+001  1.540596e+001 
3100000000  -4.116453e+001  9.438264e+000 
3103125000  -4.136813e+001  6.020634e+000 
3106250000  -4.097587e+001  -1.026251e-001 
3109375000  -4.094541e+001  -5.998714e+000 
3112500000  -4.083703e+001  -1.320127e+001 
3115625000  -4.072859e+001  -1.849628e+001 
3118750000  -4.059671e+001  -2.307084e+001 
3121875000  -4.027721e+001  -3.497009e+001 
3125000000  -4.220630e+001  -3.773219e+001 
3128125000  -4.199377e+001  -3.277331e+001 
3131250000  -3.932257e+001  -4.164774e+001 
3134375000  -3.895068e+001  -5.803152e+001 
3137500000  -3.957581e+001  -7.148007e+001 
3140625000  -4.111111e+001  -7.654485e+001 
3143750000  -4.170045e+001  -7.979046e+001 
3146875000  -4.103427e+001  -7.888055e+001 
3150000000  -4.054108e+001  -8.498481e+001 
3153125000  -4.066478e+001  -9.287654e+001 
3156250000  -4.142748e+001  -8.938223e+001 
3159375000  -3.917017e+001  -9.373802e+001 
3162500000  -3.787864e+001  -1.102059e+002 
3165625000  -3.914945e+001  -1.248251e+002 
3168750000  -3.893562e+001  -1.261277e+002 
3171875000  -3.861607e+001  -1.346258e+002 
3175000000  -3.920248e+001  -1.441937e+002 
3178125000  -3.850891e+001  -1.471769e+002 
3181250000  -3.812521e+001  -1.571924e+002 
3184375000  -3.788804e+001  -1.688641e+002 
3187500000  -3.911058e+001  1.763824e+002 
3190625000  -4.090397e+001  1.690447e+002 
3193750000  -4.123099e+001  1.731996e+002 
3196875000  -4.108190e+001  1.713272e+002 
3200000000  -3.974459e+001  1.668249e+002 
3203125000  -3.960508e+001  1.583385e+002 
3206250000  -3.982473e+001  1.503251e+002 
3209375000  -3.943087e+001  1.408837e+002 
3212500000  -4.005225e+001  1.342766e+002 
3215625000  -3.945781e+001  1.316808e+002 
3218750000  -4.037498e+001  1.181359e+002 
3221875000  -4.052369e+001  1.118356e+002 
3225000000  -4.053883e+001  1.066889e+002 
3228125000  -4.100727e+001  9.756832e+001 
3231250000  -4.119576e+001  9.588404e+001 
3234375000  -4.114370e+001  9.219168e+001 
3237500000  -4.089289e+001  8.736643e+001 
3240625000  -4.032542e+001  8.248550e+001 
3243750000  -4.028638e+001  7.042222e+001 
3246875000  -4.081083e+001  6.166082e+001 
3250000000  -4.105153e+001  5.646535e+001 
3253125000  -4.097015e+001  5.285107e+001 
3256250000  -4.026690e+001  4.175716e+001 
3259375000  -4.087807e+001  2.824596e+001 
3262500000  -4.230997e+001  2.546968e+001 
3265625000  -4.271546e+001  2.614728e+001 
3268750000  -4.243747e+001  2.505368e+001 
3271875000  -4.161320e+001  1.994314e+001 
3275000000  -4.112506e+001  8.944718e+000 
3278125000  -4.178381e+001  9.719636e-001 
3281250000  -4.201492e+001  -3.203027e+000 
3284375000  -4.081023e+001  -1.085619e+001 
3287500000  -4.148055e+001  -1.698521e+001 
3290625000  -4.136333e+001  -2.843257e+001 
3293750000  -4.146025e+001  -3.481418e+001 
3296875000  -4.269266e+001  -3.966877e+001 
3300000000  -4.177632e+001  -4.151686e+001 
3303125000  -4.090392e+001  -5.219381e+001 
3306250000  -4.108589e+001  -6.098993e+001 
3309375000  -4.053710e+001  -7.209899e+001 
3312500000  -4.119611e+001  -8.794247e+001 
3315625000  -4.234947e+001  -9.475901e+001 
3318750000  -4.401914e+001  -1.013438e+002 
3321875000  -4.523805e+001  -1.013841e+002 
3325000000  -4.496605e+001  -9.662830e+001 
3328125000  -4.389481e+001  -1.005087e+002 
3331250000  -4.257342e+001  -9.961863e+001 
3334375000  -4.007723e+001  -1.190906e+002 
3337500000  -4.088082e+001  -1.419015e+002 
3340625000  -4.257119e+001  -1.516004e+002 
3343750000  -4.471386e+001  -1.542348e+002 
3346875000  -4.388526e+001  -1.566461e+002 
3350000000  -4.357939e+001  -1.634781e+002 
3353125000  -4.333287e+001  -1.724685e+002 
3356250000  -4.317636e+001  1.767226e+002 
3359375000  -4.424725e+001  1.637914e+002 
3362500000  -4.485207e+001  1.563079e+002 
3365625000  -4.559685e+001  1.518115e+002 
3368750000  -4.641904e+001  1.457526e+002 
3371875000  -4.679621e+001  1.350976e+002 
3375000000  -4.863330e+001  1.286072e+002 
3378125000  -4.885456e+001  1.309709e+002 
3381250000  -5.022573e+001  1.393497e+002 
3384375000  -4.798453e+001  1.522470e+002 
3387500000  -4.492543e+001  1.284107e+002 
3390625000  -4.699159e+001  1.021774e+002 
3393750000  -4.753741e+001  1.026913e+002 
3396875000  -4.615491e+001  9.797249e+001 
3400000000  -4.597617e+001  8.145167e+001 
3403125000  -4.697507e+001  8.012253e+001 
3406250000  -4.702235e+001  6.940572e+001 
3409375000  -4.753914e+001  6.032450e+001 
3412500000  -4.800409e+001  4.857248e+001 
3415625000  -4.850014e+001  5.069570e+001 
3418750000  -4.800764e+001  4.053033e+001 
3421875000  -4.905772e+001  3.811944e+001 
3425000000  -4.762604e+001  3.745913e+001 
3428125000  -4.698538e+001  2.817074e+001 
3431250000  -4.684631e+001  1.480769e+001 
3434375000  -4.717061e+001  9.312011e-001 
3437500000  -4.745206e+001  -6.294952e+000 
3440625000  -4.800181e+001  -8.394940e+000 
3443750000  -4.605855e+001  -1.638453e+001 
3446875000  -4.589741e+001  -3.162275e+001 
3450000000  -4.519390e+001  -4.563150e+001 
3453125000  -4.564030e+001  -6.105855e+001 
3456250000  -4.689934e+001  -7.072992e+001 
3459375000  -4.816046e+001  -7.303682e+001 
3462500000  -4.738581e+001  -7.768034e+001 
3465625000  -4.710390e+001  -8.978098e+001 
3468750000  -4.744376e+001  -9.505190e+001 
3471875000  -4.706861e+001  -1.066924e+002 
3475000000  -4.723678e+001  -1.162715e+002 
3478125000  -4.749965e+001  -1.331441e+002 
3481250000  -4.949446e+001  -1.363985e+002 
3484375000  -4.858185e+001  -1.352154e+002 
3487500000  -4.786368e+001  -1.445021e+002 
3490625000  -4.719058e+001  -1.538809e+002 
3493750000  -4.796941e+001  -1.687576e+002 
3496875000  -4.862979e+001  -1.728898e+002 
3500000000  -4.916082e+001  -1.735257e+002 
3503125000  -4.779371e+001  -1.728535e+002 
3506250000  -4.544812e+001  1.703469e+002 
3509375000  -4.588221e+001  1.485634e+002 
3512500000  -4.631706e+001  1.360592e+002 
3515625000  -4.766793e+001  1.316467e+002 
3518750000  -4.771288e+001  1.294440e+002 
3521875000  -4.796617e+001  1.140924e+002 
3525000000  -4.875652e+001  1.134563e+002 
3528125000  -4.742320e+001  1.156278e+002 
3531250000  -4.681701e+001  1.036433e+002 
3534375000  -4.705767e+001  8.485123e+001 
3537500000  -4.780376e+001  7.784972e+001 
3540625000  -4.873384e+001  7.361932e+001 
3543750000  -4.999813e+001  7.941570e+001 
3546875000  -4.882623e+001  8.160207e+001 
3550000000  -4.611035e+001  7.027840e+001 
3553125000  -4.579257e+001  5.679747e+001 
3556250000  -4.725673e+001  4.278610e+001 
3559375000  -4.662256e+001  4.092893e+001 
3562500000  -4.626077e+001  3.074105e+001 
3565625000  -4.709056e+001  2.256157e+001 
3568750000  -4.799382e+001  2.322985e+001 
3571875000  -4.733481e+001  1.940483e+001 
3575000000  -4.723829e+001  1.099587e+001 
3578125000  -4.801726e+001  4.885993e+000 
3581250000  -4.761451e+001  1.552279e+000 
3584375000  -4.620314e+001  -1.069009e+001 
3587500000  -4.618411e+001  -1.747101e+001 
3590625000  -4.654616e+001  -2.883465e+001 
3593750000  -4.742208e+001  -2.704719e+001 
3596875000  -4.684027e+001  -2.265018e+001 
3600000000  -4.464511e+001  -3.413668e+001 
3603125000  -4.535458e+001  -5.089727e+001 
3606250000  -4.593759e+001  -5.572140e+001 
3609375000  -4.627711e+001  -6.210491e+001 
3612500000  -4.593509e+001  -6.832224e+001 
3615625000  -4.635952e+001  -7.031107e+001 
3618750000  -4.636115e+001  -7.158363e+001 
3621875000  -4.570390e+001  -8.014515e+001 
3625000000  -4.590055e+001  -8.505422e+001 
3628125000  -4.467673e+001  -9.161311e+001 
3631250000  -4.494680e+001  -1.008864e+002 
3634375000  -4.575112e+001  -1.012986e+002 
3637500000  -4.427678e+001  -1.038827e+002 
3640625000  -4.390124e+001  -1.095054e+002 
3643750000  -4.349837e+001  -1.212510e+002 
3646875000  -4.401502e+001  -1.317232e+002 
3650000000  -4.363591e+001  -1.357966e+002 
3653125000  -4.310767e+001  -1.442757e+002 
3656250000  -4.389696e+001  -1.506590e+002 
3659375000  -4.404364e+001  -1.536648e+002 
3662500000  -4.317581e+001  -1.614255e+002 
3665625000  -4.303898e+001  -1.676171e+002 
3668750000  -4.205254e+001  -1.702636e+002 
3671875000  -4.130021e+001  1.749924e+002 
3675000000  -4.220527e+001  1.661798e+002 
3678125000  -4.289091e+001  1.612930e+002 
3681250000  -4.239738e+001  1.540976e+002 
3684375000  -4.272672e+001  1.464806e+002 
3687500000  -4.311888e+001  1.348915e+002 
3690625000  -4.335417e+001  1.312972e+002 
3693750000  -4.457649e+001  1.320727e+002 
3696875000  -4.340875e+001  1.275303e+002 
3700000000  -4.303975e+001  1.177641e+002 
3703125000  -4.331374e+001  1.100978e+002 
3706250000  -4.457925e+001  1.084325e+002 
3709375000  -4.411896e+001  1.094585e+002 
3712500000  -4.280870e+001  1.012442e+002 
3715625000  -4.151644e+001  9.384898e+001 
3718750000  -4.185110e+001  8.264714e+001 
3721875000  -4.184118e+001  7.436085e+001 
3725000000  -4.242693e+001  6.770210e+001 
3728125000  -4.245339e+001  6.265029e+001 
3731250000  -4.184150e+001  5.597548e+001 
3734375000  -4.218743e+001  4.714748e+001 
3737500000  -4.305291e+001  4.026571e+001 
3740625000  -4.300728e+001  3.435972e+001 
3743750000  -4.242937e+001  2.695961e+001 
3746875000  -4.317842e+001  2.121612e+001 
3750000000  -4.356442e+001  1.702205e+001 
3753125000  -4.353467e+001  1.551808e+001 
3756250000  -4.375879e+001  1.197773e+001 
3759375000  -4.331308e+001  4.114877e+000 
3762500000  -4.315655e+001  4.017002e-001 
3765625000  -4.420030e+001  -4.591405e+000 
3768750000  -4.349302e+001  -6.416811e-001 
3771875000  -4.210487e+001  -1.308381e+001 
3775000000  -4.218484e+001  -2.280733e+001 
3778125000  -4.249429e+001  -2.699518e+001 
3781250000  -4.251892e+001  -3.170897e+001 
3784375000  -4.241578e+001  -3.930173e+001 
3787500000  -4.197520e+001  -4.614991e+001 
3790625000  -4.299413e+001  -5.283755e+001 
3793750000  -4.262786e+001  -5.744556e+001 
3796875000  -4.161999e+001  -6.411490e+001 
3800000000  -4.085978e+001  -7.056889e+001 
3803125000  -4.168698e+001  -8.250040e+001 
3806250000  -4.225196e+001  -8.670422e+001 
3809375000  -4.178639e+001  -9.279394e+001 
3812500000  -4.183559e+001  -1.023843e+002 
3815625000  -4.316064e+001  -1.141430e+002 
3818750000  -4.436427e+001  -1.094149e+002 
3821875000  -4.383188e+001  -9.979916e+001 
3825000000  -4.151817e+001  -1.063068e+002 
3828125000  -4.032917e+001  -1.275504e+002 
3831250000  -4.158154e+001  -1.444480e+002 
3834375000  -4.377306e+001  -1.468986e+002 
3837500000  -4.378879e+001  -1.411658e+002 
3840625000  -4.182553e+001  -1.464088e+002 
3843750000  -4.184818e+001  -1.615297e+002 
3846875000  -4.354525e+001  -1.712447e+002 
3850000000  -4.416508e+001  -1.647926e+002 
3853125000  -4.346927e+001  -1.664348e+002 
3856250000  -4.296097e+001  -1.710523e+002 
3859375000  -4.211733e+001  1.765545e+002 
3862500000  -4.173486e+001  1.676131e+002 
3865625000  -4.262848e+001  1.617804e+002 
3868750000  -4.210822e+001  1.595614e+002 
3871875000  -4.166516e+001  1.491743e+002 
3875000000  -4.246178e+001  1.389208e+002 
3878125000  -4.340013e+001  1.381525e+002 
3881250000  -4.294721e+001  1.355721e+002 
3884375000  -4.270407e+001  1.266694e+002 
3887500000  -4.302151e+001  1.191803e+002 
3890625000  -4.369040e+001  1.163215e+002 
3893750000  -4.423105e+001  1.093660e+002 
3896875000  -4.450271e+001  1.101250e+002 
3900000000  -4.468981e+001  1.044555e+002 
3903125000  -4.438060e+001  9.952642e+001 
3906250000  -4.319524e+001  9.392200e+001 
3909375000  -4.271731e+001  8.661585e+001 
3912500000  -4.349512e+001  7.668288e+001 
3915625000  -4.472944e+001  7.579900e+001 
3918750000  -4.403554e+001  7.531461e+001 
3921875000  -4.374830e+001  7.059075e+001 
3925000000  -4.297257e+001  6.422378e+001 
3928125000  -4.268481e+001  5.427157e+001 
3931250000  -4.375452e+001  4.776649e+001 
3934375000  -4.379388e+001  4.546027e+001 
3937500000  -4.481787e+001  4.347958e+001 
3940625000  -4.435421e+001  4.207937e+001 
3943750000  -4.323676e+001  3.734366e+001 
3946875000  -4.268111e+001  2.805614e+001 
3950000000  -4.357510e+001  1.830900e+001 
3953125000  -4.447765e+001  1.920641e+001 
3956250000  -4.259101e+001  1.695072e+001 
3959375000  -4.192419e+001  1.074994e+001 
3962500000  -4.147491e+001  -1.027823e+000 
3965625000  -4.152458e+001  -1.074761e+001 
3968750000  -4.249748e+001  -1.785085e+001 
3971875000  -4.223876e+001  -2.327227e+001 
3975000000  -4.203936e+001  -2.872502e+001 
3978125000  -4.203884e+001  -3.648388e+001 
3981250000  -4.175548e+001  -4.298080e+001 
3984375000  -4.207153e+001  -5.141829e+001 
3987500000  -4.319046e+001  -5.692807e+001 
3990625000  -4.325523e+001  -5.810868e+001 
3993750000  -4.296325e+001  -6.410827e+001 
3996875000  -4.321056e+001  -7.296454e+001 
4000000000  -4.343068e+001  -7.652734e+001 
4003125000  -4.417602e+001  -7.717821e+001 
4006250000  -4.202960e+001  -8.163622e+001 
4009375000  -4.137809e+001  -9.728915e+001 
4012500000  -4.262856e+001  -1.039812e+002 
4015625000  -4.396130e+001  -1.082335e+002 
4018750000  -4.378937e+001  -1.094073e+002 
4021875000  -4.275667e+001  -1.168308e+002 
4025000000  -4.282610e+001  -1.257251e+002 
4028125000  -4.310515e+001  -1.322639e+002 
4031250000  -4.389560e+001  -1.374608e+002 
4034375000  -4.412701e+001  -1.414210e+002 
4037500000  -4.400932e+001  -1.440945e+002 
4040625000  -4.401339e+001  -1.527437e+002 
4043750000  -4.484827e+001  -1.538014e+002 
4046875000  -4.430483e+001  -1.570968e+002 
4050000000  -4.428388e+001  -1.669207e+002 
4053125000  -4.530232e+001  -1.668119e+002 
4056250000  -4.552826e+001  -1.664228e+002 
4059375000  -4.372518e+001  -1.688535e+002 
4062500000  -4.310674e+001  -1.760414e+002 
4065625000  -4.372577e+001  1.779194e+002 
4068750000  -4.286407e+001  1.685311e+002 
4071875000  -4.245911e+001  1.593630e+002 
4075000000  -4.377125e+001  1.532308e+002 
4078125000  -4.394811e+001  1.484485e+002 
4081250000  -4.353454e+001  1.424471e+002 
4084375000  -4.349543e+001  1.365154e+002 
4087500000  -4.417607e+001  1.261563e+002 
4090625000  -4.442610e+001  1.225872e+002 
4093750000  -4.475694e+001  1.228594e+002 
4096875000  -4.418465e+001  1.142467e+002 
4100000000  -4.537123e+001  1.087173e+002 
4103125000  -4.592685e+001  1.110609e+002 
4106250000  -4.502184e+001  1.117239e+002 
4109375000  -4.391275e+001  1.061343e+002 
4112500000  -4.344381e+001  9.804620e+001 
4115625000  -4.405677e+001  8.992647e+001 
4118750000  -4.388947e+001  8.376082e+001 
4121875000  -4.348665e+001  8.005906e+001 
4125000000  -4.441087e+001  7.501450e+001 
4128125000  -4.503324e+001  7.592177e+001 
4131250000  -4.396541e+001  7.875080e+001 
4134375000  -4.186950e+001  6.639793e+001 
4137500000  -4.242458e+001  4.790126e+001 
4140625000  -4.415807e+001  4.194747e+001 
4143750000  -4.491355e+001  4.207920e+001 
4146875000  -4.371556e+001  4.689114e+001 
4150000000  -4.246885e+001  3.433746e+001 
4153125000  -4.287990e+001  2.656473e+001 
4156250000  -4.388544e+001  2.313762e+001 
4159375000  -4.352250e+001  2.456526e+001 
4162500000  -4.218296e+001  2.321780e+001 
4165625000  -4.130533e+001  1.288044e+001 
4168750000  -4.108392e+001  1.425896e+000 
4171875000  -4.100832e+001  -9.990815e+000 
4175000000  -4.198466e+001  -1.626130e+001 
4178125000  -4.226861e+001  -2.113934e+001 
4181250000  -4.205846e+001  -2.783888e+001 
4184375000  -4.238960e+001  -3.351914e+001 
4187500000  -4.227612e+001  -3.990292e+001 
4190625000  -4.272154e+001  -4.884986e+001 
4193750000  -4.394552e+001  -5.875633e+001 
4196875000  -4.464053e+001  -5.902528e+001 
4200000000  -4.608209e+001  -5.137422e+001 
4203125000  -4.421783e+001  -4.096368e+001 
4206250000  -4.098283e+001  -5.041426e+001 
4209375000  -4.146046e+001  -7.698653e+001 
4212500000  -4.344592e+001  -8.226826e+001 
4215625000  -4.409298e+001  -7.577219e+001 
4218750000  -4.278100e+001  -7.535530e+001 
4221875000  -4.128292e+001  -8.790194e+001 
4225000000  -4.245569e+001  -1.000127e+002 
4228125000  -4.203127e+001  -9.670671e+001 
4231250000  -4.094545e+001  -1.088606e+002 
4234375000  -4.118965e+001  -1.189691e+002 
4237500000  -4.073365e+001  -1.237379e+002 
4240625000  -4.079899e+001  -1.349329e+002 
4243750000  -4.238424e+001  -1.421363e+002 
4246875000  -4.270638e+001  -1.421325e+002 
4250000000  -4.232998e+001  -1.418286e+002 
4253125000  -4.255086e+001  -1.447682e+002 
4256250000  -4.228085e+001  -1.509384e+002 
4259375000  -4.198357e+001  -1.552751e+002 
4262500000  -4.207278e+001  -1.621488e+002 
4265625000  -4.200285e+001  -1.638827e+002 
4268750000  -4.078850e+001  -1.719528e+002 
4271875000  -4.076258e+001  1.754175e+002 
4275000000  -4.019414e+001  1.651968e+002 
4278125000  -4.144003e+001  1.526809e+002 
4281250000  -4.222892e+001  1.534843e+002 
4284375000  -4.204377e+001  1.494194e+002 
4287500000  -4.388490e+001  1.458765e+002 
4290625000  -4.343792e+001  1.530672e+002 
4293750000  -4.140776e+001  1.515702e+002 
4296875000  -4.001216e+001  1.341967e+002 
4300000000  -4.141428e+001  1.255807e+002 
4303125000  -4.155018e+001  1.275275e+002 
4306250000  -4.054409e+001  1.276260e+002 
4309375000  -3.965949e+001  1.140678e+002 
4312500000  -3.986354e+001  1.045374e+002 
4315625000  -4.008343e+001  9.558003e+001 
4318750000  -4.067654e+001  9.053315e+001 
4321875000  -4.049102e+001  8.782367e+001 
4325000000  -3.998599e+001  8.306902e+001 
4328125000  -3.940540e+001  7.252187e+001 
4331250000  -3.966935e+001  6.149555e+001 
4334375000  -4.086639e+001  5.330957e+001 
4337500000  -4.187959e+001  5.009269e+001 
4340625000  -4.227344e+001  5.235027e+001 
4343750000  -4.088366e+001  4.851830e+001 
4346875000  -4.094941e+001  3.844304e+001 
4350000000  -4.090746e+001  2.882870e+001 
4353125000  -4.137880e+001  1.967048e+001 
4356250000  -4.405534e+001  2.366999e+001 
4359375000  -4.307134e+001  3.376844e+001 
4362500000  -3.942115e+001  2.618433e+001 
4365625000  -3.896316e+001  5.672230e+000 
4368750000  -4.041951e+001  -5.171343e+000 
4371875000  -4.093223e+001  -5.384193e+000 
4375000000  -4.017111e+001  -1.214755e+001 
4378125000  -4.031986e+001  -1.770353e+001 
4381250000  -4.069799e+001  -2.784286e+001 
4384375000  -4.028607e+001  -3.512750e+001 
4387500000  -4.146369e+001  -4.218036e+001 
4390625000  -4.196690e+001  -4.312392e+001 
4393750000  -4.179140e+001  -4.251782e+001 
4396875000  -4.082680e+001  -4.798816e+001 
4400000000  -4.047034e+001  -5.936525e+001 
4403125000  -4.141811e+001  -7.152313e+001 
4406250000  -4.172619e+001  -7.318777e+001 
4409375000  -4.262871e+001  -7.834501e+001 
4412500000  -4.353196e+001  -7.911147e+001 
4415625000  -4.291667e+001  -7.804321e+001 
4418750000  -4.183465e+001  -8.021809e+001 
