!Agilent Technologies,E8363B,MY43030201,A.06.04.32
!Agilent E8363B: A.06.04.32
!Date: Tuesday, November 11, 2014 21:44:58
!Correction: S21(Response(S21)) 
!S1P File: Measurement: S21:
# Hz S  dB   R 50
3000000000  -4.368889e+001  -1.607810e+002 
3003125000  -4.541011e+001  -1.665953e+002 
3006250000  -4.527990e+001  -1.661413e+002 
3009375000  -4.615008e+001  -1.626863e+002 
3012500000  -4.475641e+001  -1.684094e+002 
3015625000  -4.480699e+001  -1.766226e+002 
3018750000  -4.533730e+001  -1.782071e+002 
3021875000  -4.382005e+001  -1.795620e+002 
3025000000  -4.244211e+001  1.770500e+002 
3028125000  -4.157360e+001  1.651893e+002 
3031250000  -4.089502e+001  1.529757e+002 
3034375000  -4.082687e+001  1.373517e+002 
3037500000  -4.154298e+001  1.276991e+002 
3040625000  -4.315775e+001  1.214709e+002 
3043750000  -4.320421e+001  1.150075e+002 
3046875000  -4.419490e+001  1.072381e+002 
3050000000  -4.491310e+001  1.031037e+002 
3053125000  -4.489449e+001  1.064893e+002 
3056250000  -4.435751e+001  1.102018e+002 
3059375000  -4.394114e+001  1.073491e+002 
3062500000  -4.253479e+001  1.011919e+002 
3065625000  -4.195916e+001  9.002770e+001 
3068750000  -4.187703e+001  8.219567e+001 
3071875000  -4.187980e+001  7.963103e+001 
3075000000  -4.114641e+001  7.131013e+001 
3078125000  -4.128506e+001  6.369871e+001 
3081250000  -4.120807e+001  5.680968e+001 
3084375000  -4.040009e+001  5.170546e+001 
3087500000  -4.066909e+001  4.479539e+001 
3090625000  -4.000861e+001  2.976435e+001 
3093750000  -4.099812e+001  2.226426e+001 
3096875000  -4.120735e+001  1.610386e+001 
3100000000  -4.128254e+001  1.234131e+001 
3103125000  -4.129300e+001  7.474058e+000 
3106250000  -4.104029e+001  1.944708e+000 
3109375000  -4.108106e+001  -2.949195e+000 
3112500000  -4.097298e+001  -1.084369e+001 
3115625000  -4.086994e+001  -1.408530e+001 
3118750000  -4.073407e+001  -1.943729e+001 
3121875000  -4.018742e+001  -3.167657e+001 
3125000000  -4.214503e+001  -3.531501e+001 
3128125000  -4.215224e+001  -3.070422e+001 
3131250000  -3.940396e+001  -3.949166e+001 
3134375000  -3.898941e+001  -5.749653e+001 
3137500000  -3.955966e+001  -6.847091e+001 
3140625000  -4.085750e+001  -7.420546e+001 
3143750000  -4.153111e+001  -7.841394e+001 
3146875000  -4.114392e+001  -7.543660e+001 
3150000000  -4.031794e+001  -8.157436e+001 
3153125000  -4.071334e+001  -9.211765e+001 
3156250000  -4.157163e+001  -8.740039e+001 
3159375000  -3.924310e+001  -9.248692e+001 
3162500000  -3.770515e+001  -1.079402e+002 
3165625000  -3.906909e+001  -1.222152e+002 
3168750000  -3.908371e+001  -1.238655e+002 
3171875000  -3.855644e+001  -1.322006e+002 
3175000000  -3.910215e+001  -1.432377e+002 
3178125000  -3.877944e+001  -1.457488e+002 
3181250000  -3.814127e+001  -1.551126e+002 
3184375000  -3.784422e+001  -1.656853e+002 
3187500000  -3.934995e+001  1.777500e+002 
3190625000  -4.085708e+001  1.710040e+002 
3193750000  -4.118652e+001  1.750876e+002 
3196875000  -4.114741e+001  1.747502e+002 
3200000000  -3.990499e+001  1.691644e+002 
3203125000  -3.971280e+001  1.609543e+002 
3206250000  -3.979903e+001  1.529902e+002 
3209375000  -3.946399e+001  1.424571e+002 
3212500000  -4.010492e+001  1.357731e+002 
3215625000  -3.973051e+001  1.326993e+002 
3218750000  -4.052197e+001  1.215531e+002 
3221875000  -4.074637e+001  1.137971e+002 
3225000000  -4.042818e+001  1.088243e+002 
3228125000  -4.113760e+001  1.005515e+002 
3231250000  -4.154195e+001  9.720197e+001 
3234375000  -4.113009e+001  9.308691e+001 
3237500000  -4.105681e+001  8.931831e+001 
3240625000  -4.042199e+001  8.378773e+001 
3243750000  -4.038430e+001  7.197336e+001 
3246875000  -4.073064e+001  6.353636e+001 
3250000000  -4.112248e+001  5.974587e+001 
3253125000  -4.125068e+001  5.319350e+001 
3256250000  -4.058572e+001  4.501588e+001 
3259375000  -4.101459e+001  3.155997e+001 
3262500000  -4.241589e+001  2.687557e+001 
3265625000  -4.270778e+001  2.763275e+001 
3268750000  -4.252726e+001  2.573998e+001 
3271875000  -4.146553e+001  2.056651e+001 
3275000000  -4.098356e+001  1.108911e+001 
3278125000  -4.181982e+001  3.276767e+000 
3281250000  -4.208986e+001  -2.215843e-001 
3284375000  -4.125032e+001  -8.629246e+000 
3287500000  -4.163377e+001  -1.689090e+001 
3290625000  -4.148862e+001  -2.626080e+001 
3293750000  -4.176471e+001  -3.379045e+001 
3296875000  -4.266762e+001  -3.749199e+001 
3300000000  -4.189937e+001  -3.981074e+001 
3303125000  -4.088884e+001  -4.979492e+001 
3306250000  -4.095846e+001  -6.044625e+001 
3309375000  -4.060552e+001  -7.062603e+001 
3312500000  -4.128013e+001  -8.742178e+001 
3315625000  -4.237163e+001  -9.492836e+001 
3318750000  -4.393600e+001  -1.014001e+002 
3321875000  -4.532087e+001  -9.661875e+001 
3325000000  -4.500160e+001  -9.253156e+001 
3328125000  -4.435438e+001  -9.910538e+001 
3331250000  -4.231897e+001  -9.881285e+001 
3334375000  -4.040261e+001  -1.180027e+002 
3337500000  -4.105074e+001  -1.397014e+002 
3340625000  -4.299409e+001  -1.506506e+002 
3343750000  -4.456824e+001  -1.541608e+002 
3346875000  -4.412164e+001  -1.564664e+002 
3350000000  -4.362046e+001  -1.623221e+002 
3353125000  -4.351466e+001  -1.712730e+002 
3356250000  -4.351567e+001  1.787469e+002 
3359375000  -4.409158e+001  1.642179e+002 
3362500000  -4.542126e+001  1.575461e+002 
3365625000  -4.586888e+001  1.522608e+002 
3368750000  -4.680570e+001  1.459741e+002 
3371875000  -4.713964e+001  1.379450e+002 
3375000000  -4.858182e+001  1.329459e+002 
3378125000  -4.996078e+001  1.347055e+002 
3381250000  -5.047953e+001  1.411997e+002 
3384375000  -4.723230e+001  1.513740e+002 
3387500000  -4.482030e+001  1.275171e+002 
3390625000  -4.697485e+001  1.086712e+002 
3393750000  -4.773014e+001  1.072709e+002 
3396875000  -4.634520e+001  1.000291e+002 
3400000000  -4.647159e+001  8.698612e+001 
3403125000  -4.689706e+001  7.847747e+001 
3406250000  -4.757633e+001  7.134200e+001 
3409375000  -4.725634e+001  6.256497e+001 
3412500000  -4.813149e+001  5.440623e+001 
3415625000  -4.848950e+001  4.869790e+001 
3418750000  -4.911043e+001  4.336185e+001 
3421875000  -4.886023e+001  3.978591e+001 
3425000000  -4.780116e+001  3.457204e+001 
3428125000  -4.705336e+001  2.806848e+001 
3431250000  -4.668257e+001  1.570227e+001 
3434375000  -4.684847e+001  3.264048e+000 
3437500000  -4.779326e+001  -3.957141e+000 
3440625000  -4.789238e+001  -7.583329e+000 
3443750000  -4.629187e+001  -1.166188e+001 
3446875000  -4.538725e+001  -2.851036e+001 
3450000000  -4.486557e+001  -4.448596e+001 
3453125000  -4.547615e+001  -6.249628e+001 
3456250000  -4.719007e+001  -7.131944e+001 
3459375000  -4.830735e+001  -7.431293e+001 
3462500000  -4.782103e+001  -7.790213e+001 
3465625000  -4.757404e+001  -8.862431e+001 
3468750000  -4.735729e+001  -9.545110e+001 
3471875000  -4.732332e+001  -1.036087e+002 
3475000000  -4.692721e+001  -1.142182e+002 
3478125000  -4.727438e+001  -1.304936e+002 
3481250000  -4.915732e+001  -1.375300e+002 
3484375000  -4.821430e+001  -1.336095e+002 
3487500000  -4.723041e+001  -1.407229e+002 
3490625000  -4.670448e+001  -1.519234e+002 
3493750000  -4.788712e+001  -1.666074e+002 
3496875000  -4.850214e+001  -1.697716e+002 
3500000000  -4.825712e+001  -1.702286e+002 
3503125000  -4.758206e+001  -1.756188e+002 
3506250000  -4.559986e+001  1.726366e+002 
3509375000  -4.548327e+001  1.521663e+002 
3512500000  -4.602510e+001  1.371590e+002 
3515625000  -4.743259e+001  1.356087e+002 
3518750000  -4.773050e+001  1.296242e+002 
3521875000  -4.815525e+001  1.184097e+002 
3525000000  -4.878851e+001  1.174553e+002 
3528125000  -4.812048e+001  1.181462e+002 
3531250000  -4.670995e+001  1.054419e+002 
3534375000  -4.674496e+001  8.863760e+001 
3537500000  -4.786888e+001  8.082047e+001 
3540625000  -4.888321e+001  7.510352e+001 
3543750000  -4.902203e+001  7.986674e+001 
3546875000  -4.799065e+001  8.307483e+001 
3550000000  -4.615609e+001  7.263549e+001 
3553125000  -4.588232e+001  5.152117e+001 
3556250000  -4.717523e+001  4.758916e+001 
3559375000  -4.646242e+001  4.239001e+001 
3562500000  -4.627301e+001  3.038856e+001 
3565625000  -4.716087e+001  2.314132e+001 
3568750000  -4.769586e+001  2.400702e+001 
3571875000  -4.692117e+001  2.125137e+001 
3575000000  -4.728113e+001  1.014662e+001 
3578125000  -4.784805e+001  8.016100e+000 
3581250000  -4.786805e+001  3.636888e+000 
3584375000  -4.552729e+001  -4.145403e-001 
3587500000  -4.534716e+001  -1.439398e+001 
3590625000  -4.641277e+001  -2.542697e+001 
3593750000  -4.773689e+001  -2.370947e+001 
3596875000  -4.657077e+001  -1.866062e+001 
3600000000  -4.464029e+001  -2.884518e+001 
3603125000  -4.512525e+001  -5.049010e+001 
3606250000  -4.592058e+001  -5.296154e+001 
3609375000  -4.615371e+001  -5.599775e+001 
3612500000  -4.610889e+001  -6.378948e+001 
3615625000  -4.617868e+001  -6.758870e+001 
3618750000  -4.644956e+001  -6.947678e+001 
3621875000  -4.603115e+001  -7.665286e+001 
3625000000  -4.592522e+001  -8.181231e+001 
3628125000  -4.477134e+001  -8.736488e+001 
3631250000  -4.477556e+001  -9.583886e+001 
3634375000  -4.547035e+001  -9.659303e+001 
3637500000  -4.452879e+001  -9.899756e+001 
3640625000  -4.377354e+001  -1.058609e+002 
3643750000  -4.337664e+001  -1.171816e+002 
3646875000  -4.389405e+001  -1.271445e+002 
3650000000  -4.359706e+001  -1.316076e+002 
3653125000  -4.329123e+001  -1.409947e+002 
3656250000  -4.412137e+001  -1.468837e+002 
3659375000  -4.391031e+001  -1.522735e+002 
3662500000  -4.339806e+001  -1.596989e+002 
3665625000  -4.297551e+001  -1.632193e+002 
3668750000  -4.215415e+001  -1.669096e+002 
3671875000  -4.149020e+001  1.777721e+002 
3675000000  -4.232360e+001  1.703106e+002 
3678125000  -4.262925e+001  1.648542e+002 
3681250000  -4.255867e+001  1.573544e+002 
3684375000  -4.237743e+001  1.484868e+002 
3687500000  -4.287766e+001  1.387301e+002 
3690625000  -4.348537e+001  1.365224e+002 
3693750000  -4.422150e+001  1.342654e+002 
3696875000  -4.406741e+001  1.309786e+002 
3700000000  -4.305791e+001  1.231252e+002 
3703125000  -4.357151e+001  1.151964e+002 
3706250000  -4.462062e+001  1.137971e+002 
3709375000  -4.409763e+001  1.132832e+002 
3712500000  -4.283213e+001  1.037635e+002 
3715625000  -4.167220e+001  9.712045e+001 
3718750000  -4.190958e+001  8.654541e+001 
3721875000  -4.156506e+001  7.747792e+001 
3725000000  -4.252772e+001  7.221545e+001 
3728125000  -4.239453e+001  6.827476e+001 
3731250000  -4.199852e+001  6.016215e+001 
3734375000  -4.206672e+001  5.430785e+001 
3737500000  -4.284671e+001  4.284206e+001 
3740625000  -4.294608e+001  3.747476e+001 
3743750000  -4.307084e+001  3.284791e+001 
3746875000  -4.344476e+001  2.642854e+001 
3750000000  -4.342933e+001  2.389938e+001 
3753125000  -4.392036e+001  1.817866e+001 
3756250000  -4.388269e+001  1.476684e+001 
3759375000  -4.351163e+001  8.930080e+000 
3762500000  -4.329184e+001  4.933667e+000 
3765625000  -4.406660e+001  -1.256816e+000 
3768750000  -4.331428e+001  7.454785e-001 
3771875000  -4.189452e+001  -5.601904e+000 
3775000000  -4.227993e+001  -1.893752e+001 
3778125000  -4.265902e+001  -2.333594e+001 
3781250000  -4.248343e+001  -2.797967e+001 
3784375000  -4.228706e+001  -3.366222e+001 
3787500000  -4.207695e+001  -4.087336e+001 
3790625000  -4.288170e+001  -4.975283e+001 
3793750000  -4.251022e+001  -5.100211e+001 
3796875000  -4.190959e+001  -5.951959e+001 
3800000000  -4.069915e+001  -6.417775e+001 
3803125000  -4.156112e+001  -7.796716e+001 
3806250000  -4.241189e+001  -8.248072e+001 
3809375000  -4.210296e+001  -8.587651e+001 
3812500000  -4.190813e+001  -9.590044e+001 
3815625000  -4.259002e+001  -1.085626e+002 
3818750000  -4.430851e+001  -1.056539e+002 
3821875000  -4.342624e+001  -9.751636e+001 
3825000000  -4.136952e+001  -1.039963e+002 
3828125000  -4.030308e+001  -1.235171e+002 
3831250000  -4.153382e+001  -1.408887e+002 
3834375000  -4.389965e+001  -1.396616e+002 
3837500000  -4.401816e+001  -1.386516e+002 
3840625000  -4.278621e+001  -1.427744e+002 
3843750000  -4.172631e+001  -1.567220e+002 
3846875000  -4.363448e+001  -1.650098e+002 
3850000000  -4.437615e+001  -1.562760e+002 
3853125000  -4.305487e+001  -1.623454e+002 
3856250000  -4.285233e+001  -1.698045e+002 
3859375000  -4.248756e+001  1.794721e+002 
3862500000  -4.230024e+001  1.708340e+002 
3865625000  -4.254271e+001  1.646915e+002 
3868750000  -4.207299e+001  1.640553e+002 
3871875000  -4.185792e+001  1.531108e+002 
3875000000  -4.239249e+001  1.421264e+002 
3878125000  -4.351426e+001  1.408932e+002 
3881250000  -4.338271e+001  1.398512e+002 
3884375000  -4.272372e+001  1.291340e+002 
3887500000  -4.369456e+001  1.211050e+002 
3890625000  -4.381473e+001  1.188106e+002 
3893750000  -4.454393e+001  1.165068e+002 
3896875000  -4.462567e+001  1.129930e+002 
3900000000  -4.474290e+001  1.068938e+002 
3903125000  -4.398063e+001  1.014387e+002 
3906250000  -4.321988e+001  9.882579e+001 
3909375000  -4.298760e+001  9.161098e+001 
3912500000  -4.421329e+001  8.016564e+001 
3915625000  -4.480285e+001  7.789129e+001 
3918750000  -4.430832e+001  7.888913e+001 
3921875000  -4.406427e+001  7.267253e+001 
3925000000  -4.306871e+001  6.497736e+001 
3928125000  -4.264795e+001  5.755381e+001 
3931250000  -4.389787e+001  4.856419e+001 
3934375000  -4.424550e+001  4.884521e+001 
3937500000  -4.441687e+001  4.355941e+001 
3940625000  -4.471579e+001  4.319676e+001 
3943750000  -4.355383e+001  3.666858e+001 
3946875000  -4.271916e+001  3.036939e+001 
3950000000  -4.378619e+001  2.107001e+001 
3953125000  -4.442648e+001  2.301442e+001 
3956250000  -4.311774e+001  2.279906e+001 
3959375000  -4.214626e+001  1.470185e+001 
3962500000  -4.156146e+001  3.702084e+000 
3965625000  -4.184394e+001  -7.804899e+000 
3968750000  -4.226715e+001  -1.531909e+001 
3971875000  -4.252433e+001  -1.844460e+001 
3975000000  -4.216726e+001  -2.188283e+001 
3978125000  -4.224860e+001  -2.983007e+001 
3981250000  -4.193448e+001  -3.919156e+001 
3984375000  -4.226972e+001  -4.750471e+001 
3987500000  -4.344049e+001  -4.947792e+001 
3990625000  -4.321803e+001  -5.399471e+001 
3993750000  -4.290960e+001  -6.241380e+001 
3996875000  -4.306870e+001  -6.723030e+001 
4000000000  -4.400166e+001  -7.041543e+001 
4003125000  -4.377755e+001  -7.286531e+001 
4006250000  -4.198165e+001  -7.935336e+001 
4009375000  -4.171950e+001  -9.586647e+001 
4012500000  -4.303502e+001  -1.008155e+002 
4015625000  -4.435005e+001  -1.034770e+002 
4018750000  -4.343703e+001  -1.070055e+002 
4021875000  -4.363823e+001  -1.134484e+002 
4025000000  -4.331699e+001  -1.201037e+002 
4028125000  -4.358887e+001  -1.259593e+002 
4031250000  -4.419305e+001  -1.345180e+002 
4034375000  -4.459793e+001  -1.366466e+002 
4037500000  -4.391888e+001  -1.391411e+002 
4040625000  -4.398168e+001  -1.448068e+002 
4043750000  -4.484907e+001  -1.488109e+002 
4046875000  -4.451688e+001  -1.557733e+002 
4050000000  -4.406494e+001  -1.633716e+002 
4053125000  -4.564518e+001  -1.652297e+002 
4056250000  -4.586062e+001  -1.646840e+002 
4059375000  -4.421157e+001  -1.637793e+002 
4062500000  -4.354638e+001  -1.727325e+002 
4065625000  -4.359298e+001  -1.783843e+002 
4068750000  -4.337098e+001  1.732881e+002 
4071875000  -4.261038e+001  1.606635e+002 
4075000000  -4.404905e+001  1.552075e+002 
4078125000  -4.420256e+001  1.525777e+002 
4081250000  -4.417459e+001  1.465277e+002 
4084375000  -4.318595e+001  1.372644e+002 
4087500000  -4.413552e+001  1.267341e+002 
4090625000  -4.480931e+001  1.274441e+002 
4093750000  -4.499819e+001  1.276187e+002 
4096875000  -4.456697e+001  1.204833e+002 
4100000000  -4.535767e+001  1.106431e+002 
4103125000  -4.601690e+001  1.138610e+002 
4106250000  -4.541801e+001  1.154348e+002 
4109375000  -4.420234e+001  1.069398e+002 
4112500000  -4.429475e+001  1.004539e+002 
4115625000  -4.447684e+001  9.844939e+001 
4118750000  -4.405431e+001  9.200893e+001 
4121875000  -4.419273e+001  8.461662e+001 
4125000000  -4.483074e+001  7.471424e+001 
4128125000  -4.574345e+001  8.285986e+001 
4131250000  -4.400234e+001  8.527429e+001 
4134375000  -4.220193e+001  7.237603e+001 
4137500000  -4.261826e+001  5.010884e+001 
4140625000  -4.463182e+001  4.182639e+001 
4143750000  -4.537674e+001  4.631448e+001 
4146875000  -4.467872e+001  4.903248e+001 
4150000000  -4.295676e+001  4.284096e+001 
4153125000  -4.380008e+001  3.334478e+001 
4156250000  -4.453721e+001  2.755014e+001 
4159375000  -4.420233e+001  3.046261e+001 
4162500000  -4.242978e+001  2.597549e+001 
4165625000  -4.166606e+001  1.907543e+001 
4168750000  -4.151317e+001  7.405988e+000 
4171875000  -4.131906e+001  -4.907682e+000 
4175000000  -4.203295e+001  -1.224508e+001 
4178125000  -4.286657e+001  -1.629758e+001 
4181250000  -4.231332e+001  -2.129446e+001 
4184375000  -4.296578e+001  -2.955515e+001 
4187500000  -4.258710e+001  -3.608794e+001 
4190625000  -4.299870e+001  -4.563892e+001 
4193750000  -4.433925e+001  -5.065974e+001 
4196875000  -4.504137e+001  -5.181018e+001 
4200000000  -4.640685e+001  -4.499191e+001 
4203125000  -4.454956e+001  -3.800718e+001 
4206250000  -4.149346e+001  -4.634940e+001 
4209375000  -4.139284e+001  -7.344238e+001 
4212500000  -4.401765e+001  -7.738719e+001 
4215625000  -4.475787e+001  -7.366564e+001 
4218750000  -4.294648e+001  -7.068111e+001 
4221875000  -4.125981e+001  -7.768591e+001 
4225000000  -4.309166e+001  -9.232633e+001 
4228125000  -4.272089e+001  -9.449373e+001 
4231250000  -4.137907e+001  -1.026298e+002 
4234375000  -4.158317e+001  -1.125394e+002 
4237500000  -4.124728e+001  -1.199656e+002 
4240625000  -4.127023e+001  -1.284479e+002 
4243750000  -4.275765e+001  -1.352853e+002 
4246875000  -4.343392e+001  -1.373348e+002 
4250000000  -4.307529e+001  -1.391932e+002 
4253125000  -4.328426e+001  -1.437608e+002 
4256250000  -4.235235e+001  -1.472791e+002 
4259375000  -4.235777e+001  -1.530061e+002 
4262500000  -4.224443e+001  -1.590829e+002 
4265625000  -4.245365e+001  -1.602261e+002 
4268750000  -4.161596e+001  -1.663994e+002 
4271875000  -4.098241e+001  -1.779789e+002 
4275000000  -4.101722e+001  1.725179e+002 
4278125000  -4.167185e+001  1.616392e+002 
4281250000  -4.271947e+001  1.571038e+002 
4284375000  -4.253564e+001  1.557753e+002 
4287500000  -4.408487e+001  1.520404e+002 
4290625000  -4.350804e+001  1.586069e+002 
4293750000  -4.202327e+001  1.568766e+002 
4296875000  -4.057833e+001  1.399751e+002 
4300000000  -4.180365e+001  1.283251e+002 
4303125000  -4.258986e+001  1.308285e+002 
4306250000  -4.107453e+001  1.305460e+002 
4309375000  -4.020555e+001  1.218378e+002 
4312500000  -4.034983e+001  1.133540e+002 
4315625000  -4.051731e+001  1.019392e+002 
4318750000  -4.106710e+001  9.527287e+001 
4321875000  -4.139547e+001  9.216775e+001 
4325000000  -4.069687e+001  8.888754e+001 
4328125000  -3.989199e+001  7.848778e+001 
4331250000  -4.025877e+001  6.531630e+001 
4334375000  -4.127409e+001  5.589909e+001 
4337500000  -4.207713e+001  5.685827e+001 
4340625000  -4.239563e+001  5.631293e+001 
4343750000  -4.131912e+001  5.257047e+001 
4346875000  -4.143840e+001  4.341199e+001 
4350000000  -4.165014e+001  3.326881e+001 
4353125000  -4.239061e+001  2.503177e+001 
4356250000  -4.432545e+001  2.946263e+001 
4359375000  -4.271528e+001  4.101614e+001 
4362500000  -3.973165e+001  3.266428e+001 
4365625000  -3.955162e+001  1.239725e+001 
4368750000  -4.083654e+001  3.865704e+000 
4371875000  -4.168479e+001  1.415146e+000 
4375000000  -4.106184e+001  -5.288115e+000 
4378125000  -4.080381e+001  -1.434064e+001 
4381250000  -4.133281e+001  -2.038241e+001 
4384375000  -4.119136e+001  -2.802886e+001 
4387500000  -4.213492e+001  -3.553504e+001 
4390625000  -4.278701e+001  -3.849333e+001 
4393750000  -4.248596e+001  -3.886129e+001 
4396875000  -4.154502e+001  -4.285764e+001 
4400000000  -4.120695e+001  -5.251797e+001 
4403125000  -4.220465e+001  -6.177613e+001 
4406250000  -4.240849e+001  -6.625474e+001 
4409375000  -4.307488e+001  -7.177435e+001 
4412500000  -4.422901e+001  -7.467580e+001 
4415625000  -4.359163e+001  -7.190878e+001 
4418750000  -4.238866e+001  -7.379630e+001 
