!Agilent Technologies,E8363B,MY43030201,A.06.04.32
!Agilent E8363B: A.06.04.32
!Date: Tuesday, November 11, 2014 21:43:58
!Correction: S21(Response(S21)) 
!S1P File: Measurement: S21:
# Hz S  dB   R 50
3000000000  -4.355624e+001  -1.607885e+002 
3003125000  -4.521365e+001  -1.625768e+002 
3006250000  -4.537752e+001  -1.659076e+002 
3009375000  -4.605020e+001  -1.623022e+002 
3012500000  -4.466521e+001  -1.692546e+002 
3015625000  -4.523548e+001  -1.763678e+002 
3018750000  -4.524934e+001  -1.778590e+002 
3021875000  -4.406755e+001  -1.770522e+002 
3025000000  -4.254223e+001  1.788348e+002 
3028125000  -4.158805e+001  1.657866e+002 
3031250000  -4.076449e+001  1.534780e+002 
3034375000  -4.079980e+001  1.398480e+002 
3037500000  -4.162035e+001  1.285134e+002 
3040625000  -4.306235e+001  1.240747e+002 
3043750000  -4.320294e+001  1.156268e+002 
3046875000  -4.396501e+001  1.074770e+002 
3050000000  -4.510563e+001  1.041206e+002 
3053125000  -4.469373e+001  1.094597e+002 
3056250000  -4.451359e+001  1.098601e+002 
3059375000  -4.400520e+001  1.066019e+002 
3062500000  -4.259631e+001  1.021688e+002 
3065625000  -4.217302e+001  9.174409e+001 
3068750000  -4.197023e+001  8.388665e+001 
3071875000  -4.189824e+001  7.991603e+001 
3075000000  -4.122474e+001  7.231409e+001 
3078125000  -4.138910e+001  6.426100e+001 
3081250000  -4.138868e+001  5.759878e+001 
3084375000  -4.050485e+001  5.214971e+001 
3087500000  -4.059092e+001  4.468126e+001 
3090625000  -3.986480e+001  3.167948e+001 
3093750000  -4.099916e+001  2.266708e+001 
3096875000  -4.129415e+001  1.709817e+001 
3100000000  -4.101419e+001  1.355186e+001 
3103125000  -4.151702e+001  9.690696e+000 
3106250000  -4.101745e+001  4.128677e+000 
3109375000  -4.089487e+001  -1.598667e+000 
3112500000  -4.087453e+001  -9.589019e+000 
3115625000  -4.097626e+001  -1.475727e+001 
3118750000  -4.075943e+001  -1.997909e+001 
3121875000  -4.027018e+001  -3.079959e+001 
3125000000  -4.188351e+001  -3.577639e+001 
3128125000  -4.203181e+001  -2.992914e+001 
3131250000  -3.935998e+001  -3.762668e+001 
3134375000  -3.894864e+001  -5.445881e+001 
3137500000  -3.950061e+001  -6.833763e+001 
3140625000  -4.106242e+001  -7.084547e+001 
3143750000  -4.165366e+001  -7.645494e+001 
3146875000  -4.103668e+001  -7.674578e+001 
3150000000  -4.050979e+001  -8.190222e+001 
3153125000  -4.061948e+001  -8.989709e+001 
3156250000  -4.143797e+001  -8.770868e+001 
3159375000  -3.912298e+001  -9.047711e+001 
3162500000  -3.777439e+001  -1.073933e+002 
3165625000  -3.912107e+001  -1.214052e+002 
3168750000  -3.907480e+001  -1.223684e+002 
3171875000  -3.865916e+001  -1.314146e+002 
3175000000  -3.914054e+001  -1.414859e+002 
3178125000  -3.879356e+001  -1.436981e+002 
3181250000  -3.819736e+001  -1.525835e+002 
3184375000  -3.799268e+001  -1.645667e+002 
3187500000  -3.921675e+001  1.787207e+002 
3190625000  -4.064861e+001  1.721839e+002 
3193750000  -4.106083e+001  1.746433e+002 
3196875000  -4.121502e+001  1.750650e+002 
3200000000  -3.987965e+001  1.696997e+002 
3203125000  -3.965692e+001  1.613701e+002 
3206250000  -3.982695e+001  1.524256e+002 
3209375000  -3.953142e+001  1.447907e+002 
3212500000  -3.994898e+001  1.365378e+002 
3215625000  -3.988243e+001  1.332376e+002 
3218750000  -4.035907e+001  1.216706e+002 
3221875000  -4.085848e+001  1.141537e+002 
3225000000  -4.036568e+001  1.095469e+002 
3228125000  -4.099402e+001  1.016586e+002 
3231250000  -4.140610e+001  9.964634e+001 
3234375000  -4.104719e+001  9.541514e+001 
3237500000  -4.103577e+001  9.155285e+001 
3240625000  -4.030752e+001  8.424295e+001 
3243750000  -4.048346e+001  7.237228e+001 
3246875000  -4.077437e+001  6.480672e+001 
3250000000  -4.131387e+001  6.041665e+001 
3253125000  -4.134222e+001  5.479686e+001 
3256250000  -4.045589e+001  4.630099e+001 
3259375000  -4.108986e+001  3.256211e+001 
3262500000  -4.244732e+001  2.696769e+001 
3265625000  -4.274005e+001  3.013382e+001 
3268750000  -4.252771e+001  2.715225e+001 
3271875000  -4.172074e+001  2.256246e+001 
3275000000  -4.104836e+001  1.093031e+001 
3278125000  -4.167383e+001  5.084846e+000 
3281250000  -4.185655e+001  1.099068e+000 
3284375000  -4.117432e+001  -7.291851e+000 
3287500000  -4.171449e+001  -1.524998e+001 
3290625000  -4.162561e+001  -2.635249e+001 
3293750000  -4.170176e+001  -3.339879e+001 
3296875000  -4.264794e+001  -3.771301e+001 
3300000000  -4.209379e+001  -3.965766e+001 
3303125000  -4.108825e+001  -5.003328e+001 
3306250000  -4.094782e+001  -5.889955e+001 
3309375000  -4.070560e+001  -7.048051e+001 
3312500000  -4.127619e+001  -8.562234e+001 
3315625000  -4.249576e+001  -9.307433e+001 
3318750000  -4.411427e+001  -9.853691e+001 
3321875000  -4.564787e+001  -9.954353e+001 
3325000000  -4.506534e+001  -9.255625e+001 
3328125000  -4.427788e+001  -9.633166e+001 
3331250000  -4.263789e+001  -9.750858e+001 
3334375000  -4.019469e+001  -1.165712e+002 
3337500000  -4.110974e+001  -1.414696e+002 
3340625000  -4.291658e+001  -1.499783e+002 
3343750000  -4.449690e+001  -1.529848e+002 
3346875000  -4.449215e+001  -1.556682e+002 
3350000000  -4.379529e+001  -1.619706e+002 
3353125000  -4.402553e+001  -1.693064e+002 
3356250000  -4.330733e+001  1.792091e+002 
3359375000  -4.435802e+001  1.654336e+002 
3362500000  -4.523938e+001  1.597293e+002 
3365625000  -4.587455e+001  1.523438e+002 
3368750000  -4.643750e+001  1.467408e+002 
3371875000  -4.689809e+001  1.399061e+002 
3375000000  -4.901574e+001  1.347749e+002 
3378125000  -4.912857e+001  1.324999e+002 
3381250000  -5.037543e+001  1.450676e+002 
3384375000  -4.771509e+001  1.537306e+002 
3387500000  -4.489884e+001  1.305410e+002 
3390625000  -4.653761e+001  1.080511e+002 
3393750000  -4.768633e+001  1.059810e+002 
3396875000  -4.644734e+001  1.014444e+002 
3400000000  -4.637239e+001  8.708870e+001 
3403125000  -4.663491e+001  7.988220e+001 
3406250000  -4.792954e+001  7.248837e+001 
3409375000  -4.727169e+001  6.163828e+001 
3412500000  -4.794836e+001  5.189230e+001 
3415625000  -4.881352e+001  4.729670e+001 
3418750000  -4.885201e+001  4.162041e+001 
3421875000  -4.881928e+001  4.005558e+001 
3425000000  -4.798394e+001  3.482244e+001 
3428125000  -4.715332e+001  2.767702e+001 
3431250000  -4.696965e+001  1.264881e+001 
3434375000  -4.721958e+001  5.559830e+000 
3437500000  -4.817266e+001  -5.226104e+000 
3440625000  -4.803816e+001  -9.313412e+000 
3443750000  -4.671863e+001  -1.181231e+001 
3446875000  -4.604496e+001  -2.772285e+001 
3450000000  -4.516719e+001  -4.263521e+001 
3453125000  -4.595444e+001  -5.960794e+001 
3456250000  -4.731350e+001  -6.824501e+001 
3459375000  -4.784921e+001  -6.874683e+001 
3462500000  -4.768170e+001  -7.626936e+001 
3465625000  -4.753091e+001  -9.070998e+001 
3468750000  -4.742619e+001  -9.460577e+001 
3471875000  -4.690351e+001  -1.027884e+002 
3475000000  -4.701038e+001  -1.157319e+002 
3478125000  -4.765174e+001  -1.304996e+002 
3481250000  -4.871080e+001  -1.334951e+002 
3484375000  -4.886330e+001  -1.360568e+002 
3487500000  -4.774145e+001  -1.403251e+002 
3490625000  -4.707825e+001  -1.520811e+002 
3493750000  -4.778313e+001  -1.670699e+002 
3496875000  -4.788463e+001  -1.683980e+002 
3500000000  -4.833245e+001  -1.721552e+002 
3503125000  -4.735434e+001  -1.746818e+002 
3506250000  -4.548346e+001  1.717426e+002 
3509375000  -4.563226e+001  1.533032e+002 
3512500000  -4.614093e+001  1.384134e+002 
3515625000  -4.753833e+001  1.326431e+002 
3518750000  -4.800850e+001  1.319329e+002 
3521875000  -4.775457e+001  1.159683e+002 
3525000000  -4.827560e+001  1.165177e+002 
3528125000  -4.724310e+001  1.210345e+002 
3531250000  -4.638682e+001  1.079443e+002 
3534375000  -4.692680e+001  8.950583e+001 
3537500000  -4.729933e+001  8.266863e+001 
3540625000  -4.881800e+001  7.634164e+001 
3543750000  -4.957071e+001  8.190572e+001 
3546875000  -4.920151e+001  8.021832e+001 
3550000000  -4.609630e+001  7.610619e+001 
3553125000  -4.587032e+001  5.648794e+001 
3556250000  -4.754492e+001  4.944306e+001 
3559375000  -4.675629e+001  4.844319e+001 
3562500000  -4.640377e+001  3.359809e+001 
3565625000  -4.681584e+001  2.495103e+001 
3568750000  -4.793336e+001  2.624730e+001 
3571875000  -4.734194e+001  2.138231e+001 
3575000000  -4.653886e+001  1.308443e+001 
3578125000  -4.785128e+001  7.433233e+000 
3581250000  -4.766201e+001  4.502843e+000 
3584375000  -4.589146e+001  -2.078607e+000 
3587500000  -4.547333e+001  -1.416688e+001 
3590625000  -4.665009e+001  -2.303527e+001 
3593750000  -4.757176e+001  -2.507574e+001 
3596875000  -4.631917e+001  -2.079231e+001 
3600000000  -4.471184e+001  -2.939335e+001 
3603125000  -4.543146e+001  -4.545043e+001 
3606250000  -4.617221e+001  -5.574517e+001 
3609375000  -4.582605e+001  -5.538198e+001 
3612500000  -4.654420e+001  -6.385330e+001 
3615625000  -4.597470e+001  -6.735937e+001 
3618750000  -4.628683e+001  -7.338968e+001 
3621875000  -4.536076e+001  -7.706760e+001 
3625000000  -4.557500e+001  -7.977016e+001 
3628125000  -4.491820e+001  -8.711349e+001 
3631250000  -4.518068e+001  -9.352251e+001 
3634375000  -4.562529e+001  -9.797584e+001 
3637500000  -4.477562e+001  -9.788485e+001 
3640625000  -4.364508e+001  -1.051076e+002 
3643750000  -4.303020e+001  -1.185005e+002 
3646875000  -4.367782e+001  -1.261141e+002 
3650000000  -4.387910e+001  -1.319082e+002 
3653125000  -4.330169e+001  -1.412197e+002 
3656250000  -4.410177e+001  -1.456813e+002 
3659375000  -4.382930e+001  -1.500517e+002 
3662500000  -4.318745e+001  -1.587177e+002 
3665625000  -4.325611e+001  -1.636625e+002 
3668750000  -4.195993e+001  -1.658415e+002 
3671875000  -4.164497e+001  1.785656e+002 
3675000000  -4.191941e+001  1.680511e+002 
3678125000  -4.283990e+001  1.623738e+002 
3681250000  -4.240280e+001  1.590986e+002 
3684375000  -4.271611e+001  1.488461e+002 
3687500000  -4.282097e+001  1.429459e+002 
3690625000  -4.344957e+001  1.347284e+002 
3693750000  -4.432390e+001  1.348875e+002 
3696875000  -4.352878e+001  1.320494e+002 
3700000000  -4.304609e+001  1.243890e+002 
3703125000  -4.398074e+001  1.167600e+002 
3706250000  -4.463857e+001  1.138083e+002 
3709375000  -4.380444e+001  1.103687e+002 
3712500000  -4.300602e+001  1.088149e+002 
3715625000  -4.156979e+001  9.853232e+001 
3718750000  -4.163961e+001  8.814957e+001 
3721875000  -4.203892e+001  7.739668e+001 
3725000000  -4.219165e+001  7.125023e+001 
3728125000  -4.245708e+001  6.811520e+001 
3731250000  -4.197934e+001  6.247298e+001 
3734375000  -4.210102e+001  5.285891e+001 
3737500000  -4.284878e+001  4.355429e+001 
3740625000  -4.348930e+001  4.027285e+001 
3743750000  -4.303767e+001  3.508846e+001 
3746875000  -4.357053e+001  2.669523e+001 
3750000000  -4.376623e+001  2.225972e+001 
3753125000  -4.370142e+001  1.987038e+001 
3756250000  -4.357459e+001  1.717891e+001 
3759375000  -4.380038e+001  1.177207e+001 
3762500000  -4.350710e+001  6.691897e+000 
3765625000  -4.433414e+001  1.316750e+000 
3768750000  -4.339766e+001  2.901851e+000 
3771875000  -4.213144e+001  -5.041768e+000 
3775000000  -4.224824e+001  -1.515246e+001 
3778125000  -4.266537e+001  -2.403751e+001 
3781250000  -4.273246e+001  -2.811537e+001 
3784375000  -4.240015e+001  -3.413204e+001 
3787500000  -4.237255e+001  -3.877586e+001 
3790625000  -4.279695e+001  -5.078029e+001 
3793750000  -4.288145e+001  -5.192464e+001 
3796875000  -4.180413e+001  -5.743699e+001 
3800000000  -4.093447e+001  -6.416283e+001 
3803125000  -4.166419e+001  -7.558589e+001 
3806250000  -4.226683e+001  -8.147374e+001 
3809375000  -4.184007e+001  -8.669775e+001 
3812500000  -4.154565e+001  -9.729691e+001 
3815625000  -4.276428e+001  -1.080087e+002 
3818750000  -4.452712e+001  -1.079069e+002 
3821875000  -4.372126e+001  -9.694224e+001 
3825000000  -4.176040e+001  -1.019598e+002 
3828125000  -4.084785e+001  -1.227709e+002 
3831250000  -4.137703e+001  -1.376157e+002 
3834375000  -4.419759e+001  -1.378025e+002 
3837500000  -4.391470e+001  -1.362932e+002 
3840625000  -4.239440e+001  -1.411985e+002 
3843750000  -4.188317e+001  -1.551203e+002 
3846875000  -4.355833e+001  -1.654621e+002 
3850000000  -4.396439e+001  -1.610379e+002 
3853125000  -4.384687e+001  -1.595658e+002 
3856250000  -4.289098e+001  -1.683361e+002 
3859375000  -4.214932e+001  -1.774868e+002 
3862500000  -4.254145e+001  1.713609e+002 
3865625000  -4.278566e+001  1.654149e+002 
3868750000  -4.250605e+001  1.655163e+002 
3871875000  -4.204025e+001  1.554238e+002 
3875000000  -4.258603e+001  1.431979e+002 
3878125000  -4.361853e+001  1.415031e+002 
3881250000  -4.364552e+001  1.404678e+002 
3884375000  -4.278257e+001  1.289288e+002 
3887500000  -4.365349e+001  1.214214e+002 
3890625000  -4.380070e+001  1.174142e+002 
3893750000  -4.409143e+001  1.173160e+002 
3896875000  -4.438136e+001  1.135254e+002 
3900000000  -4.417656e+001  1.070774e+002 
3903125000  -4.401410e+001  1.037996e+002 
3906250000  -4.346850e+001  9.840411e+001 
3909375000  -4.275255e+001  8.920028e+001 
3912500000  -4.376877e+001  8.147237e+001 
3915625000  -4.469363e+001  7.983889e+001 
3918750000  -4.470512e+001  7.690782e+001 
3921875000  -4.383128e+001  7.575277e+001 
3925000000  -4.314810e+001  6.675790e+001 
3928125000  -4.337359e+001  5.935942e+001 
3931250000  -4.378799e+001  5.075566e+001 
3934375000  -4.399678e+001  4.944952e+001 
3937500000  -4.485797e+001  4.600748e+001 
3940625000  -4.461491e+001  4.621998e+001 
3943750000  -4.377893e+001  3.957723e+001 
3946875000  -4.288210e+001  3.064346e+001 
3950000000  -4.368333e+001  2.211796e+001 
3953125000  -4.466821e+001  2.388539e+001 
3956250000  -4.294063e+001  2.269509e+001 
3959375000  -4.197663e+001  1.451623e+001 
3962500000  -4.190286e+001  5.589388e+000 
3965625000  -4.223337e+001  -6.104335e+000 
3968750000  -4.265269e+001  -1.403024e+001 
3971875000  -4.275792e+001  -1.947939e+001 
3975000000  -4.212951e+001  -2.424114e+001 
3978125000  -4.243243e+001  -2.955761e+001 
3981250000  -4.208548e+001  -3.867971e+001 
3984375000  -4.261985e+001  -4.396302e+001 
3987500000  -4.319005e+001  -4.972271e+001 
3990625000  -4.316453e+001  -5.542158e+001 
3993750000  -4.290221e+001  -5.924617e+001 
3996875000  -4.296410e+001  -6.710640e+001 
4000000000  -4.374582e+001  -6.871130e+001 
4003125000  -4.373453e+001  -7.189726e+001 
4006250000  -4.210677e+001  -7.641611e+001 
4009375000  -4.176373e+001  -9.335485e+001 
4012500000  -4.285517e+001  -9.956397e+001 
4015625000  -4.366728e+001  -1.014123e+002 
4018750000  -4.403992e+001  -1.034978e+002 
4021875000  -4.318829e+001  -1.123939e+002 
4025000000  -4.317789e+001  -1.198756e+002 
4028125000  -4.355247e+001  -1.282382e+002 
4031250000  -4.415698e+001  -1.338612e+002 
4034375000  -4.392278e+001  -1.366119e+002 
4037500000  -4.426425e+001  -1.392796e+002 
4040625000  -4.402899e+001  -1.470175e+002 
4043750000  -4.421743e+001  -1.513026e+002 
4046875000  -4.447060e+001  -1.533376e+002 
4050000000  -4.454171e+001  -1.595178e+002 
4053125000  -4.515847e+001  -1.655406e+002 
4056250000  -4.600453e+001  -1.662436e+002 
4059375000  -4.364765e+001  -1.619285e+002 
4062500000  -4.322800e+001  -1.714436e+002 
4065625000  -4.421780e+001  -1.786162e+002 
4068750000  -4.322192e+001  1.723835e+002 
4071875000  -4.290514e+001  1.632513e+002 
4075000000  -4.410636e+001  1.579328e+002 
4078125000  -4.443976e+001  1.537293e+002 
4081250000  -4.400541e+001  1.480816e+002 
4084375000  -4.350313e+001  1.386338e+002 
4087500000  -4.441415e+001  1.314842e+002 
4090625000  -4.511143e+001  1.286330e+002 
4093750000  -4.479145e+001  1.300325e+002 
4096875000  -4.426329e+001  1.187900e+002 
4100000000  -4.544230e+001  1.108837e+002 
4103125000  -4.580407e+001  1.168825e+002 
4106250000  -4.536452e+001  1.170210e+002 
4109375000  -4.444140e+001  1.124299e+002 
4112500000  -4.454479e+001  1.059458e+002 
4115625000  -4.446441e+001  9.862904e+001 
4118750000  -4.476983e+001  9.500626e+001 
4121875000  -4.404575e+001  8.676656e+001 
4125000000  -4.508587e+001  7.833710e+001 
4128125000  -4.528664e+001  8.010796e+001 
4131250000  -4.440861e+001  8.457758e+001 
4134375000  -4.214613e+001  7.410543e+001 
4137500000  -4.199367e+001  5.273590e+001 
4140625000  -4.440876e+001  4.590651e+001 
4143750000  -4.499655e+001  4.921804e+001 
4146875000  -4.401743e+001  5.267832e+001 
4150000000  -4.283359e+001  4.221449e+001 
4153125000  -4.349104e+001  3.362356e+001 
4156250000  -4.471608e+001  3.004706e+001 
4159375000  -4.396407e+001  3.032976e+001 
4162500000  -4.272677e+001  2.777966e+001 
4165625000  -4.193663e+001  1.858852e+001 
4168750000  -4.161899e+001  8.877013e+000 
4171875000  -4.136516e+001  -1.421583e+000 
4175000000  -4.233818e+001  -1.196438e+001 
4178125000  -4.256342e+001  -1.592560e+001 
4181250000  -4.210090e+001  -2.078316e+001 
4184375000  -4.275760e+001  -2.750118e+001 
4187500000  -4.251645e+001  -3.361962e+001 
4190625000  -4.289090e+001  -4.371289e+001 
4193750000  -4.431908e+001  -5.085804e+001 
4196875000  -4.509740e+001  -5.185783e+001 
4200000000  -4.642951e+001  -4.468057e+001 
4203125000  -4.488287e+001  -3.920786e+001 
4206250000  -4.143678e+001  -4.597276e+001 
4209375000  -4.177841e+001  -7.222459e+001 
4212500000  -4.381560e+001  -7.803291e+001 
4215625000  -4.440378e+001  -7.050920e+001 
4218750000  -4.261837e+001  -7.198011e+001 
4221875000  -4.130110e+001  -8.110764e+001 
4225000000  -4.254331e+001  -9.138562e+001 
4228125000  -4.292944e+001  -9.004445e+001 
4231250000  -4.143645e+001  -9.827917e+001 
4234375000  -4.146539e+001  -1.119083e+002 
4237500000  -4.117862e+001  -1.133135e+002 
4240625000  -4.164095e+001  -1.251940e+002 
4243750000  -4.263304e+001  -1.375588e+002 
4246875000  -4.357032e+001  -1.369378e+002 
4250000000  -4.315467e+001  -1.375742e+002 
4253125000  -4.289561e+001  -1.355236e+002 
4256250000  -4.296815e+001  -1.462205e+002 
4259375000  -4.250806e+001  -1.510727e+002 
4262500000  -4.297078e+001  -1.552491e+002 
4265625000  -4.232722e+001  -1.599747e+002 
4268750000  -4.151202e+001  -1.666481e+002 
4271875000  -4.106644e+001  -1.784143e+002 
4275000000  -4.057129e+001  1.753194e+002 
4278125000  -4.152575e+001  1.629510e+002 
4281250000  -4.263317e+001  1.598130e+002 
4284375000  -4.295530e+001  1.541078e+002 
4287500000  -4.420865e+001  1.502577e+002 
4290625000  -4.390392e+001  1.587652e+002 
4293750000  -4.197351e+001  1.589862e+002 
4296875000  -4.072480e+001  1.428151e+002 
4300000000  -4.186741e+001  1.337216e+002 
4303125000  -4.229016e+001  1.362231e+002 
4306250000  -4.110527e+001  1.313482e+002 
4309375000  -4.048690e+001  1.243475e+002 
4312500000  -4.025537e+001  1.121474e+002 
4315625000  -4.050059e+001  1.025651e+002 
4318750000  -4.151091e+001  9.710044e+001 
4321875000  -4.144593e+001  9.556022e+001 
4325000000  -4.075558e+001  9.096162e+001 
4328125000  -3.997063e+001  7.907343e+001 
4331250000  -4.026574e+001  6.804111e+001 
4334375000  -4.097464e+001  5.918039e+001 
4337500000  -4.221169e+001  5.776197e+001 
4340625000  -4.247068e+001  6.099337e+001 
4343750000  -4.177689e+001  5.581348e+001 
4346875000  -4.144924e+001  4.380647e+001 
4350000000  -4.136356e+001  3.518113e+001 
4353125000  -4.218457e+001  2.679384e+001 
4356250000  -4.380711e+001  3.084665e+001 
4359375000  -4.292394e+001  4.593734e+001 
4362500000  -4.003109e+001  3.120553e+001 
4365625000  -3.965636e+001  1.418306e+001 
4368750000  -4.088413e+001  4.197702e+000 
4371875000  -4.160131e+001  -9.751260e-001 
4375000000  -4.109269e+001  -2.932528e+000 
4378125000  -4.114168e+001  -1.058941e+001 
4381250000  -4.113174e+001  -2.080179e+001 
4384375000  -4.113662e+001  -2.626263e+001 
4387500000  -4.256115e+001  -3.301669e+001 
4390625000  -4.266434e+001  -3.589663e+001 
4393750000  -4.260334e+001  -3.389142e+001 
4396875000  -4.175487e+001  -4.329704e+001 
4400000000  -4.137074e+001  -5.043019e+001 
4403125000  -4.226413e+001  -5.868357e+001 
4406250000  -4.278915e+001  -6.433599e+001 
4409375000  -4.330417e+001  -6.995596e+001 
4412500000  -4.455263e+001  -7.109267e+001 
4415625000  -4.365128e+001  -6.996709e+001 
4418750000  -4.261343e+001  -6.935760e+001 
