!Agilent Technologies,E8363B,MY43030201,A.06.04.32
!Agilent E8363B: A.06.04.32
!Date: Tuesday, November 11, 2014 21:44:07
!Correction: S21(Response(S21)) 
!S1P File: Measurement: S21:
# Hz S  dB   R 50
3000000000  -4.352543e+001  -1.604968e+002 
3003125000  -4.553436e+001  -1.653586e+002 
3006250000  -4.516948e+001  -1.667356e+002 
3009375000  -4.598650e+001  -1.635708e+002 
3012500000  -4.470774e+001  -1.701212e+002 
3015625000  -4.516502e+001  -1.781878e+002 
3018750000  -4.527087e+001  -1.773493e+002 
3021875000  -4.392103e+001  -1.773774e+002 
3025000000  -4.260433e+001  1.768911e+002 
3028125000  -4.192490e+001  1.664261e+002 
3031250000  -4.082451e+001  1.534058e+002 
3034375000  -4.070395e+001  1.385602e+002 
3037500000  -4.154218e+001  1.261274e+002 
3040625000  -4.289957e+001  1.213990e+002 
3043750000  -4.337472e+001  1.152971e+002 
3046875000  -4.416465e+001  1.085902e+002 
3050000000  -4.511061e+001  1.043845e+002 
3053125000  -4.493460e+001  1.075020e+002 
3056250000  -4.471744e+001  1.080828e+002 
3059375000  -4.373123e+001  1.066104e+002 
3062500000  -4.268367e+001  1.034061e+002 
3065625000  -4.210036e+001  8.938046e+001 
3068750000  -4.175572e+001  8.278708e+001 
3071875000  -4.182904e+001  8.016016e+001 
3075000000  -4.126892e+001  7.201389e+001 
3078125000  -4.142456e+001  6.452115e+001 
3081250000  -4.137611e+001  5.927739e+001 
3084375000  -4.031868e+001  5.376129e+001 
3087500000  -4.060193e+001  4.440445e+001 
3090625000  -4.001477e+001  3.181562e+001 
3093750000  -4.112069e+001  2.327790e+001 
3096875000  -4.130863e+001  1.706599e+001 
3100000000  -4.106806e+001  1.312018e+001 
3103125000  -4.136933e+001  7.740953e+000 
3106250000  -4.092953e+001  3.024022e+000 
3109375000  -4.080455e+001  -2.417863e+000 
3112500000  -4.093797e+001  -1.004270e+001 
3115625000  -4.090180e+001  -1.501805e+001 
3118750000  -4.063672e+001  -1.911109e+001 
3121875000  -4.012761e+001  -3.168121e+001 
3125000000  -4.212816e+001  -3.625290e+001 
3128125000  -4.210265e+001  -2.945310e+001 
3131250000  -3.949009e+001  -3.770207e+001 
3134375000  -3.889751e+001  -5.536128e+001 
3137500000  -3.950462e+001  -6.962318e+001 
3140625000  -4.103208e+001  -7.171138e+001 
3143750000  -4.151279e+001  -7.705586e+001 
3146875000  -4.115633e+001  -7.639069e+001 
3150000000  -4.042472e+001  -8.204533e+001 
3153125000  -4.065815e+001  -9.013617e+001 
3156250000  -4.151265e+001  -8.732590e+001 
3159375000  -3.889920e+001  -9.047206e+001 
3162500000  -3.780144e+001  -1.081796e+002 
3165625000  -3.911982e+001  -1.220462e+002 
3168750000  -3.905664e+001  -1.233973e+002 
3171875000  -3.870549e+001  -1.311213e+002 
3175000000  -3.926305e+001  -1.417613e+002 
3178125000  -3.898968e+001  -1.446788e+002 
3181250000  -3.816675e+001  -1.537441e+002 
3184375000  -3.790738e+001  -1.657264e+002 
3187500000  -3.933430e+001  1.789742e+002 
3190625000  -4.088837e+001  1.714979e+002 
3193750000  -4.130651e+001  1.756529e+002 
3196875000  -4.114831e+001  1.750895e+002 
3200000000  -3.979687e+001  1.702546e+002 
3203125000  -3.960973e+001  1.606246e+002 
3206250000  -3.978882e+001  1.533315e+002 
3209375000  -3.957536e+001  1.447766e+002 
3212500000  -3.996096e+001  1.368507e+002 
3215625000  -3.969434e+001  1.340321e+002 
3218750000  -4.036771e+001  1.213983e+002 
3221875000  -4.078085e+001  1.162055e+002 
3225000000  -4.055375e+001  1.097737e+002 
3228125000  -4.117194e+001  1.016221e+002 
3231250000  -4.166895e+001  9.892466e+001 
3234375000  -4.098276e+001  9.548695e+001 
3237500000  -4.091438e+001  9.057250e+001 
3240625000  -4.054105e+001  8.501350e+001 
3243750000  -4.030021e+001  7.170710e+001 
3246875000  -4.070959e+001  6.445811e+001 
3250000000  -4.133615e+001  5.949331e+001 
3253125000  -4.108447e+001  5.538732e+001 
3256250000  -4.061590e+001  4.375534e+001 
3259375000  -4.121394e+001  3.149765e+001 
3262500000  -4.237700e+001  2.772886e+001 
3265625000  -4.270274e+001  3.033198e+001 
3268750000  -4.257210e+001  2.922366e+001 
3271875000  -4.189313e+001  2.273880e+001 
3275000000  -4.127847e+001  1.035155e+001 
3278125000  -4.166499e+001  5.073041e+000 
3281250000  -4.187025e+001  6.763332e-001 
3284375000  -4.112691e+001  -6.521099e+000 
3287500000  -4.167379e+001  -1.597237e+001 
3290625000  -4.153842e+001  -2.606847e+001 
3293750000  -4.150122e+001  -3.403881e+001 
3296875000  -4.285970e+001  -3.676222e+001 
3300000000  -4.199377e+001  -3.993448e+001 
3303125000  -4.116999e+001  -5.021064e+001 
3306250000  -4.093658e+001  -5.995472e+001 
3309375000  -4.080139e+001  -7.067054e+001 
3312500000  -4.125361e+001  -8.607329e+001 
3315625000  -4.240942e+001  -9.440851e+001 
3318750000  -4.396774e+001  -9.963479e+001 
3321875000  -4.511830e+001  -1.010478e+002 
3325000000  -4.505700e+001  -9.591853e+001 
3328125000  -4.414711e+001  -9.731580e+001 
3331250000  -4.218863e+001  -9.751420e+001 
3334375000  -4.046293e+001  -1.166937e+002 
3337500000  -4.068174e+001  -1.410684e+002 
3340625000  -4.278366e+001  -1.495315e+002 
3343750000  -4.471424e+001  -1.516462e+002 
3346875000  -4.392110e+001  -1.540065e+002 
3350000000  -4.342715e+001  -1.631967e+002 
3353125000  -4.380818e+001  -1.691533e+002 
3356250000  -4.360815e+001  1.797027e+002 
3359375000  -4.432325e+001  1.664158e+002 
3362500000  -4.521544e+001  1.576139e+002 
3365625000  -4.604657e+001  1.504517e+002 
3368750000  -4.624583e+001  1.454330e+002 
3371875000  -4.706675e+001  1.402014e+002 
3375000000  -4.896608e+001  1.343711e+002 
3378125000  -4.924498e+001  1.331499e+002 
3381250000  -5.048141e+001  1.392439e+002 
3384375000  -4.717122e+001  1.552134e+002 
3387500000  -4.476221e+001  1.277559e+002 
3390625000  -4.748082e+001  1.048635e+002 
3393750000  -4.793276e+001  1.043407e+002 
3396875000  -4.628017e+001  9.915299e+001 
3400000000  -4.667607e+001  8.734898e+001 
3403125000  -4.676146e+001  7.974281e+001 
3406250000  -4.762499e+001  6.834774e+001 
3409375000  -4.736451e+001  5.958585e+001 
3412500000  -4.809634e+001  5.467279e+001 
3415625000  -4.880466e+001  5.169621e+001 
3418750000  -4.885723e+001  4.393115e+001 
3421875000  -4.897923e+001  4.154439e+001 
3425000000  -4.791780e+001  3.494098e+001 
3428125000  -4.766773e+001  2.802657e+001 
3431250000  -4.719915e+001  1.388529e+001 
3434375000  -4.673706e+001  4.748955e+000 
3437500000  -4.780226e+001  -6.402061e+000 
3440625000  -4.736811e+001  -8.946191e+000 
3443750000  -4.608398e+001  -9.521345e+000 
3446875000  -4.556594e+001  -2.825264e+001 
3450000000  -4.556226e+001  -4.179696e+001 
3453125000  -4.559829e+001  -5.843628e+001 
3456250000  -4.692646e+001  -7.049427e+001 
3459375000  -4.802078e+001  -7.110274e+001 
3462500000  -4.793689e+001  -7.687038e+001 
3465625000  -4.738819e+001  -9.017200e+001 
3468750000  -4.761755e+001  -9.501867e+001 
3471875000  -4.712769e+001  -1.018982e+002 
3475000000  -4.698802e+001  -1.171180e+002 
3478125000  -4.752113e+001  -1.286477e+002 
3481250000  -4.881459e+001  -1.323439e+002 
3484375000  -4.790148e+001  -1.319070e+002 
3487500000  -4.743806e+001  -1.380721e+002 
3490625000  -4.715585e+001  -1.534589e+002 
3493750000  -4.791928e+001  -1.657459e+002 
3496875000  -4.880167e+001  -1.676803e+002 
3500000000  -4.812062e+001  -1.718668e+002 
3503125000  -4.722927e+001  -1.742473e+002 
3506250000  -4.538125e+001  1.695670e+002 
3509375000  -4.566630e+001  1.543956e+002 
3512500000  -4.629354e+001  1.361527e+002 
3515625000  -4.712848e+001  1.309996e+002 
3518750000  -4.765516e+001  1.274760e+002 
3521875000  -4.751403e+001  1.178700e+002 
3525000000  -4.812077e+001  1.130701e+002 
3528125000  -4.721278e+001  1.160312e+002 
3531250000  -4.673674e+001  1.047550e+002 
3534375000  -4.700624e+001  8.828476e+001 
3537500000  -4.786777e+001  8.104156e+001 
3540625000  -4.904726e+001  7.710719e+001 
3543750000  -4.925553e+001  8.697786e+001 
3546875000  -4.804199e+001  8.499289e+001 
3550000000  -4.678760e+001  7.647672e+001 
3553125000  -4.572890e+001  5.809612e+001 
3556250000  -4.696648e+001  4.985091e+001 
3559375000  -4.627692e+001  4.250016e+001 
3562500000  -4.614248e+001  3.509923e+001 
3565625000  -4.788325e+001  2.391372e+001 
3568750000  -4.772108e+001  2.775605e+001 
3571875000  -4.732117e+001  1.957470e+001 
3575000000  -4.693422e+001  1.187688e+001 
3578125000  -4.768636e+001  1.002482e+001 
3581250000  -4.758913e+001  7.359214e+000 
3584375000  -4.616380e+001  -1.445582e+000 
3587500000  -4.614080e+001  -1.132556e+001 
3590625000  -4.591579e+001  -2.268138e+001 
3593750000  -4.742344e+001  -2.399558e+001 
3596875000  -4.681461e+001  -1.676952e+001 
3600000000  -4.469413e+001  -3.015536e+001 
3603125000  -4.518328e+001  -4.855862e+001 
3606250000  -4.624426e+001  -5.156130e+001 
3609375000  -4.636981e+001  -5.376089e+001 
3612500000  -4.610355e+001  -6.340985e+001 
3615625000  -4.649922e+001  -6.444203e+001 
3618750000  -4.617367e+001  -6.958427e+001 
3621875000  -4.537889e+001  -7.744063e+001 
3625000000  -4.553515e+001  -7.975267e+001 
3628125000  -4.498607e+001  -8.685979e+001 
3631250000  -4.542744e+001  -9.941982e+001 
3634375000  -4.546038e+001  -9.631225e+001 
3637500000  -4.464558e+001  -9.767780e+001 
3640625000  -4.361030e+001  -1.035402e+002 
3643750000  -4.323135e+001  -1.156867e+002 
3646875000  -4.383786e+001  -1.269671e+002 
3650000000  -4.394852e+001  -1.314799e+002 
3653125000  -4.318708e+001  -1.387345e+002 
3656250000  -4.411286e+001  -1.469395e+002 
3659375000  -4.366938e+001  -1.511807e+002 
3662500000  -4.323839e+001  -1.587868e+002 
3665625000  -4.301287e+001  -1.628046e+002 
3668750000  -4.180683e+001  -1.661925e+002 
3671875000  -4.147639e+001  1.773744e+002 
3675000000  -4.239810e+001  1.706665e+002 
3678125000  -4.254790e+001  1.651311e+002 
3681250000  -4.232091e+001  1.596592e+002 
3684375000  -4.260859e+001  1.507835e+002 
3687500000  -4.287649e+001  1.413829e+002 
3690625000  -4.354369e+001  1.368381e+002 
3693750000  -4.440470e+001  1.344415e+002 
3696875000  -4.370521e+001  1.330576e+002 
3700000000  -4.343548e+001  1.229285e+002 
3703125000  -4.371906e+001  1.172091e+002 
3706250000  -4.435342e+001  1.119031e+002 
3709375000  -4.396170e+001  1.119693e+002 
3712500000  -4.291454e+001  1.049239e+002 
3715625000  -4.153775e+001  9.782835e+001 
3718750000  -4.192301e+001  8.868784e+001 
3721875000  -4.198883e+001  7.875126e+001 
3725000000  -4.229972e+001  7.119316e+001 
3728125000  -4.224438e+001  6.744984e+001 
3731250000  -4.211779e+001  6.113025e+001 
3734375000  -4.194570e+001  5.079690e+001 
3737500000  -4.300204e+001  4.543882e+001 
3740625000  -4.325901e+001  3.698223e+001 
3743750000  -4.307692e+001  3.367266e+001 
3746875000  -4.332837e+001  2.589837e+001 
3750000000  -4.366344e+001  2.213490e+001 
3753125000  -4.358971e+001  2.163533e+001 
3756250000  -4.396817e+001  1.494769e+001 
3759375000  -4.390376e+001  9.592136e+000 
3762500000  -4.381916e+001  7.698862e+000 
3765625000  -4.451653e+001  -4.926383e-001 
3768750000  -4.348061e+001  1.407211e+000 
3771875000  -4.240390e+001  -4.647050e+000 
3775000000  -4.234239e+001  -1.634534e+001 
3778125000  -4.291380e+001  -2.361107e+001 
3781250000  -4.240633e+001  -2.588118e+001 
3784375000  -4.256277e+001  -3.472371e+001 
3787500000  -4.226947e+001  -3.730486e+001 
3790625000  -4.276358e+001  -4.914600e+001 
3793750000  -4.251279e+001  -5.215145e+001 
3796875000  -4.145886e+001  -5.944284e+001 
3800000000  -4.092446e+001  -6.438072e+001 
3803125000  -4.181571e+001  -7.774292e+001 
3806250000  -4.266447e+001  -8.175945e+001 
3809375000  -4.159135e+001  -8.451311e+001 
3812500000  -4.182534e+001  -9.787057e+001 
3815625000  -4.297169e+001  -1.080608e+002 
3818750000  -4.446854e+001  -1.060378e+002 
3821875000  -4.392659e+001  -9.458021e+001 
3825000000  -4.134623e+001  -1.028817e+002 
3828125000  -4.055265e+001  -1.215092e+002 
3831250000  -4.165882e+001  -1.396683e+002 
3834375000  -4.405291e+001  -1.403376e+002 
3837500000  -4.405199e+001  -1.360829e+002 
3840625000  -4.249498e+001  -1.425088e+002 
3843750000  -4.208100e+001  -1.567881e+002 
3846875000  -4.322435e+001  -1.631684e+002 
3850000000  -4.442344e+001  -1.625903e+002 
3853125000  -4.334652e+001  -1.597796e+002 
3856250000  -4.302225e+001  -1.674773e+002 
3859375000  -4.223491e+001  -1.770374e+002 
3862500000  -4.200346e+001  1.714225e+002 
3865625000  -4.250884e+001  1.649591e+002 
3868750000  -4.258951e+001  1.637541e+002 
3871875000  -4.195707e+001  1.545950e+002 
3875000000  -4.250861e+001  1.436512e+002 
3878125000  -4.302429e+001  1.410341e+002 
3881250000  -4.374972e+001  1.391762e+002 
3884375000  -4.262119e+001  1.287892e+002 
3887500000  -4.323390e+001  1.239494e+002 
3890625000  -4.404351e+001  1.198967e+002 
3893750000  -4.417972e+001  1.173215e+002 
3896875000  -4.419165e+001  1.139056e+002 
3900000000  -4.468481e+001  1.079389e+002 
3903125000  -4.379009e+001  1.039371e+002 
3906250000  -4.369140e+001  9.891316e+001 
3909375000  -4.250572e+001  9.297170e+001 
3912500000  -4.400217e+001  8.277112e+001 
3915625000  -4.515499e+001  8.050327e+001 
3918750000  -4.468849e+001  8.077146e+001 
3921875000  -4.378981e+001  7.522841e+001 
3925000000  -4.307012e+001  6.596169e+001 
3928125000  -4.288609e+001  6.014840e+001 
3931250000  -4.363992e+001  5.155783e+001 
3934375000  -4.402750e+001  4.767450e+001 
3937500000  -4.488223e+001  4.477270e+001 
3940625000  -4.465020e+001  4.374166e+001 
3943750000  -4.303568e+001  3.979790e+001 
3946875000  -4.255809e+001  3.088766e+001 
3950000000  -4.401366e+001  2.290808e+001 
3953125000  -4.471420e+001  2.242905e+001 
3956250000  -4.309934e+001  2.079449e+001 
3959375000  -4.198260e+001  1.496309e+001 
3962500000  -4.167204e+001  5.925252e+000 
3965625000  -4.201018e+001  -5.575178e+000 
3968750000  -4.272849e+001  -1.563388e+001 
3971875000  -4.263953e+001  -1.874873e+001 
3975000000  -4.230798e+001  -2.320959e+001 
3978125000  -4.226611e+001  -2.902803e+001 
3981250000  -4.190075e+001  -3.783412e+001 
3984375000  -4.276424e+001  -4.602430e+001 
3987500000  -4.297483e+001  -4.986308e+001 
3990625000  -4.318839e+001  -5.398382e+001 
3993750000  -4.301190e+001  -6.005105e+001 
3996875000  -4.336769e+001  -6.777187e+001 
4000000000  -4.406515e+001  -6.906281e+001 
4003125000  -4.395884e+001  -7.025262e+001 
4006250000  -4.226575e+001  -7.774670e+001 
4009375000  -4.155432e+001  -9.344341e+001 
4012500000  -4.329480e+001  -1.018674e+002 
4015625000  -4.393496e+001  -1.042183e+002 
4018750000  -4.384410e+001  -1.032290e+002 
4021875000  -4.326028e+001  -1.128435e+002 
4025000000  -4.314378e+001  -1.206409e+002 
4028125000  -4.348435e+001  -1.298803e+002 
4031250000  -4.424601e+001  -1.347317e+002 
4034375000  -4.432014e+001  -1.369163e+002 
4037500000  -4.424235e+001  -1.429753e+002 
4040625000  -4.437820e+001  -1.473152e+002 
4043750000  -4.478366e+001  -1.494858e+002 
4046875000  -4.460960e+001  -1.556373e+002 
4050000000  -4.430373e+001  -1.634378e+002 
4053125000  -4.546816e+001  -1.611769e+002 
4056250000  -4.633207e+001  -1.618735e+002 
4059375000  -4.409666e+001  -1.661334e+002 
4062500000  -4.319358e+001  -1.702018e+002 
4065625000  -4.347531e+001  -1.796080e+002 
4068750000  -4.331270e+001  1.730933e+002 
4071875000  -4.269944e+001  1.647139e+002 
4075000000  -4.366078e+001  1.537337e+002 
4078125000  -4.440905e+001  1.519944e+002 
4081250000  -4.380598e+001  1.471742e+002 
4084375000  -4.389680e+001  1.402999e+002 
4087500000  -4.442787e+001  1.325860e+002 
4090625000  -4.528066e+001  1.308437e+002 
4093750000  -4.486895e+001  1.249696e+002 
4096875000  -4.457008e+001  1.196716e+002 
4100000000  -4.576554e+001  1.116271e+002 
4103125000  -4.603159e+001  1.153081e+002 
4106250000  -4.568606e+001  1.161807e+002 
4109375000  -4.428906e+001  1.121349e+002 
4112500000  -4.434833e+001  1.016127e+002 
4115625000  -4.456894e+001  9.721625e+001 
4118750000  -4.401227e+001  8.995890e+001 
4121875000  -4.381046e+001  8.346851e+001 
4125000000  -4.478788e+001  7.679425e+001 
4128125000  -4.570029e+001  8.093345e+001 
4131250000  -4.390914e+001  8.500716e+001 
4134375000  -4.175662e+001  7.473351e+001 
4137500000  -4.227472e+001  5.176600e+001 
4140625000  -4.493231e+001  4.587596e+001 
4143750000  -4.543192e+001  5.156319e+001 
4146875000  -4.421764e+001  5.312281e+001 
4150000000  -4.323865e+001  4.056163e+001 
4153125000  -4.341599e+001  3.091537e+001 
4156250000  -4.437117e+001  2.929659e+001 
4159375000  -4.401796e+001  3.048505e+001 
4162500000  -4.267364e+001  2.808455e+001 
4165625000  -4.189359e+001  1.776975e+001 
4168750000  -4.166703e+001  5.875199e+000 
4171875000  -4.131929e+001  -4.095728e+000 
4175000000  -4.226505e+001  -9.697895e+000 
4178125000  -4.291377e+001  -1.352491e+001 
4181250000  -4.268632e+001  -2.160174e+001 
4184375000  -4.277129e+001  -2.855808e+001 
4187500000  -4.243465e+001  -3.496560e+001 
4190625000  -4.305215e+001  -4.465352e+001 
4193750000  -4.440459e+001  -4.971716e+001 
4196875000  -4.533970e+001  -4.970675e+001 
4200000000  -4.624076e+001  -4.507563e+001 
4203125000  -4.513142e+001  -3.594001e+001 
4206250000  -4.102818e+001  -4.921177e+001 
4209375000  -4.149717e+001  -7.013198e+001 
4212500000  -4.416884e+001  -7.700951e+001 
4215625000  -4.470420e+001  -6.792849e+001 
4218750000  -4.260989e+001  -7.333054e+001 
4221875000  -4.137366e+001  -8.022816e+001 
4225000000  -4.268192e+001  -9.415754e+001 
4228125000  -4.266719e+001  -9.385882e+001 
4231250000  -4.089772e+001  -1.008976e+002 
4234375000  -4.146229e+001  -1.124456e+002 
4237500000  -4.069283e+001  -1.176904e+002 
4240625000  -4.137057e+001  -1.302518e+002 
4243750000  -4.256500e+001  -1.332520e+002 
4246875000  -4.322770e+001  -1.369001e+002 
4250000000  -4.286036e+001  -1.382339e+002 
4253125000  -4.322517e+001  -1.368241e+002 
4256250000  -4.292819e+001  -1.455374e+002 
4259375000  -4.264420e+001  -1.528485e+002 
4262500000  -4.248665e+001  -1.551730e+002 
4265625000  -4.225816e+001  -1.564287e+002 
4268750000  -4.158626e+001  -1.657288e+002 
4271875000  -4.099166e+001  -1.774147e+002 
4275000000  -4.058344e+001  1.747542e+002 
4278125000  -4.214219e+001  1.598539e+002 
4281250000  -4.270547e+001  1.594768e+002 
4284375000  -4.256426e+001  1.542695e+002 
4287500000  -4.410313e+001  1.521457e+002 
4290625000  -4.410408e+001  1.578500e+002 
4293750000  -4.207606e+001  1.606579e+002 
4296875000  -4.067183e+001  1.425868e+002 
4300000000  -4.146762e+001  1.322809e+002 
4303125000  -4.212960e+001  1.327331e+002 
4306250000  -4.111557e+001  1.327021e+002 
4309375000  -4.041048e+001  1.236512e+002 
4312500000  -4.018197e+001  1.106411e+002 
4315625000  -4.033123e+001  1.015315e+002 
4318750000  -4.098137e+001  9.803550e+001 
4321875000  -4.122882e+001  9.424214e+001 
4325000000  -4.080701e+001  8.903033e+001 
4328125000  -3.968863e+001  7.908699e+001 
4331250000  -4.022743e+001  6.751222e+001 
4334375000  -4.109341e+001  5.939126e+001 
4337500000  -4.225811e+001  5.804888e+001 
4340625000  -4.251835e+001  5.881597e+001 
4343750000  -4.180923e+001  5.535245e+001 
4346875000  -4.116223e+001  4.564499e+001 
4350000000  -4.181750e+001  3.686613e+001 
4353125000  -4.261277e+001  2.723800e+001 
4356250000  -4.462403e+001  2.933286e+001 
4359375000  -4.336317e+001  4.434359e+001 
4362500000  -3.972784e+001  3.158116e+001 
4365625000  -3.956313e+001  1.639498e+001 
4368750000  -4.066249e+001  6.145609e+000 
4371875000  -4.164582e+001  2.529256e+000 
4375000000  -4.116230e+001  -9.592572e-001 
4378125000  -4.095144e+001  -1.075377e+001 
4381250000  -4.107877e+001  -1.966472e+001 
4384375000  -4.114115e+001  -2.823722e+001 
4387500000  -4.228552e+001  -3.368432e+001 
4390625000  -4.285826e+001  -3.890979e+001 
4393750000  -4.240834e+001  -3.386451e+001 
4396875000  -4.179705e+001  -4.217463e+001 
4400000000  -4.137749e+001  -5.223588e+001 
4403125000  -4.253141e+001  -6.075921e+001 
4406250000  -4.228820e+001  -6.390648e+001 
4409375000  -4.323222e+001  -6.874096e+001 
4412500000  -4.418680e+001  -7.350108e+001 
4415625000  -4.376168e+001  -7.001606e+001 
4418750000  -4.213740e+001  -6.921137e+001 
