!Agilent Technologies,E8363B,MY43030201,A.06.04.32
!Agilent E8363B: A.06.04.32
!Date: Tuesday, November 11, 2014 21:51:48
!Correction: S21(Response(S21)) 
!S1P File: Measurement: S21:
# Hz S  dB   R 50
3000000000  -4.367832e+001  -1.622464e+002 
3003125000  -4.512668e+001  -1.678842e+002 
3006250000  -4.534191e+001  -1.686497e+002 
3009375000  -4.663897e+001  -1.663556e+002 
3012500000  -4.472167e+001  -1.726743e+002 
3015625000  -4.495686e+001  -1.793486e+002 
3018750000  -4.547969e+001  -1.789619e+002 
3021875000  -4.392421e+001  1.795605e+002 
3025000000  -4.272066e+001  1.771593e+002 
3028125000  -4.174207e+001  1.634716e+002 
3031250000  -4.100640e+001  1.504932e+002 
3034375000  -4.070562e+001  1.359177e+002 
3037500000  -4.192561e+001  1.252124e+002 
3040625000  -4.297305e+001  1.190385e+002 
3043750000  -4.344075e+001  1.112630e+002 
3046875000  -4.420939e+001  1.066480e+002 
3050000000  -4.537101e+001  9.952808e+001 
3053125000  -4.473477e+001  1.051133e+002 
3056250000  -4.499294e+001  1.079632e+002 
3059375000  -4.417086e+001  1.055139e+002 
3062500000  -4.269637e+001  9.796638e+001 
3065625000  -4.212622e+001  8.800917e+001 
3068750000  -4.178942e+001  7.909906e+001 
3071875000  -4.185533e+001  7.787682e+001 
3075000000  -4.122005e+001  6.929971e+001 
3078125000  -4.137410e+001  6.082365e+001 
3081250000  -4.146100e+001  5.522057e+001 
3084375000  -4.051388e+001  4.996193e+001 
3087500000  -4.063071e+001  4.227310e+001 
3090625000  -4.001200e+001  2.920998e+001 
3093750000  -4.104567e+001  1.985292e+001 
3096875000  -4.111199e+001  1.502722e+001 
3100000000  -4.126746e+001  1.207256e+001 
3103125000  -4.160123e+001  7.010925e+000 
3106250000  -4.112060e+001  -4.239835e-001 
3109375000  -4.094954e+001  -5.590103e+000 
3112500000  -4.091959e+001  -1.198820e+001 
3115625000  -4.102136e+001  -1.664028e+001 
3118750000  -4.074444e+001  -2.207717e+001 
3121875000  -4.029601e+001  -3.467236e+001 
3125000000  -4.209599e+001  -3.787774e+001 
3128125000  -4.188767e+001  -3.274057e+001 
3131250000  -3.939454e+001  -4.036143e+001 
3134375000  -3.890402e+001  -5.899248e+001 
3137500000  -3.984169e+001  -7.230463e+001 
3140625000  -4.084771e+001  -7.543048e+001 
3143750000  -4.153083e+001  -7.920759e+001 
3146875000  -4.117004e+001  -7.777201e+001 
3150000000  -4.026982e+001  -8.365968e+001 
3153125000  -4.075160e+001  -9.311456e+001 
3156250000  -4.124339e+001  -8.983910e+001 
3159375000  -3.920388e+001  -9.362461e+001 
3162500000  -3.769604e+001  -1.100732e+002 
3165625000  -3.879663e+001  -1.250257e+002 
3168750000  -3.906203e+001  -1.253960e+002 
3171875000  -3.864421e+001  -1.337681e+002 
3175000000  -3.901704e+001  -1.443253e+002 
3178125000  -3.861745e+001  -1.468401e+002 
3181250000  -3.803719e+001  -1.560229e+002 
3184375000  -3.779831e+001  -1.690370e+002 
3187500000  -3.921248e+001  1.766842e+002 
3190625000  -4.099041e+001  1.697528e+002 
3193750000  -4.104352e+001  1.740352e+002 
3196875000  -4.109549e+001  1.726940e+002 
3200000000  -3.975199e+001  1.672161e+002 
3203125000  -3.966160e+001  1.591231e+002 
3206250000  -3.995316e+001  1.503662e+002 
3209375000  -3.940636e+001  1.428618e+002 
3212500000  -3.993975e+001  1.340644e+002 
3215625000  -3.957194e+001  1.324020e+002 
3218750000  -4.040398e+001  1.192950e+002 
3221875000  -4.050504e+001  1.127326e+002 
3225000000  -4.047665e+001  1.070915e+002 
3228125000  -4.107434e+001  1.001101e+002 
3231250000  -4.141900e+001  9.810128e+001 
3234375000  -4.114479e+001  9.357581e+001 
3237500000  -4.087389e+001  8.934544e+001 
3240625000  -4.045234e+001  8.203587e+001 
3243750000  -4.017940e+001  6.891127e+001 
3246875000  -4.050729e+001  6.225474e+001 
3250000000  -4.121421e+001  5.824218e+001 
3253125000  -4.108629e+001  5.274943e+001 
3256250000  -4.043654e+001  4.271759e+001 
3259375000  -4.095035e+001  2.845964e+001 
3262500000  -4.243454e+001  2.432579e+001 
3265625000  -4.257764e+001  2.570972e+001 
3268750000  -4.238625e+001  2.449914e+001 
3271875000  -4.173595e+001  2.055088e+001 
3275000000  -4.096965e+001  9.067633e+000 
3278125000  -4.172623e+001  2.758369e+000 
3281250000  -4.172855e+001  -1.740815e+000 
3284375000  -4.109053e+001  -1.021118e+001 
3287500000  -4.162957e+001  -1.704229e+001 
3290625000  -4.138480e+001  -2.728403e+001 
3293750000  -4.148501e+001  -3.573851e+001 
3296875000  -4.258577e+001  -4.021455e+001 
3300000000  -4.190310e+001  -4.111943e+001 
3303125000  -4.104941e+001  -5.161991e+001 
3306250000  -4.082331e+001  -6.195971e+001 
3309375000  -4.082373e+001  -7.181925e+001 
3312500000  -4.114199e+001  -8.721343e+001 
3315625000  -4.250425e+001  -9.590372e+001 
3318750000  -4.381865e+001  -1.026967e+002 
3321875000  -4.520442e+001  -9.997452e+001 
3325000000  -4.514719e+001  -9.940501e+001 
3328125000  -4.430731e+001  -9.814084e+001 
3331250000  -4.243771e+001  -1.001418e+002 
3334375000  -3.998699e+001  -1.179263e+002 
3337500000  -4.090582e+001  -1.405818e+002 
3340625000  -4.272334e+001  -1.533112e+002 
3343750000  -4.454169e+001  -1.537903e+002 
3346875000  -4.380916e+001  -1.572362e+002 
3350000000  -4.337409e+001  -1.617185e+002 
3353125000  -4.357147e+001  -1.715103e+002 
3356250000  -4.306451e+001  1.781183e+002 
3359375000  -4.433020e+001  1.643999e+002 
3362500000  -4.504292e+001  1.580547e+002 
3365625000  -4.566645e+001  1.528448e+002 
3368750000  -4.664350e+001  1.440448e+002 
3371875000  -4.679730e+001  1.372601e+002 
3375000000  -4.842250e+001  1.324990e+002 
3378125000  -4.892983e+001  1.313376e+002 
3381250000  -5.018124e+001  1.416381e+002 
3384375000  -4.696666e+001  1.517256e+002 
3387500000  -4.437983e+001  1.258672e+002 
3390625000  -4.661778e+001  1.050998e+002 
3393750000  -4.766706e+001  1.033920e+002 
3396875000  -4.618336e+001  9.770802e+001 
3400000000  -4.587004e+001  8.460374e+001 
3403125000  -4.686054e+001  7.755108e+001 
3406250000  -4.777592e+001  7.111464e+001 
3409375000  -4.691649e+001  5.947456e+001 
3412500000  -4.797321e+001  5.432763e+001 
3415625000  -4.836337e+001  4.760302e+001 
3418750000  -4.867400e+001  4.131044e+001 
3421875000  -4.862839e+001  3.732677e+001 
3425000000  -4.759589e+001  3.527961e+001 
3428125000  -4.707473e+001  2.570984e+001 
3431250000  -4.681866e+001  1.262584e+001 
3434375000  -4.672264e+001  1.705763e+000 
3437500000  -4.757492e+001  -8.084702e+000 
3440625000  -4.753938e+001  -9.632463e+000 
3443750000  -4.674723e+001  -1.013525e+001 
3446875000  -4.587637e+001  -2.890359e+001 
3450000000  -4.500899e+001  -4.298327e+001 
3453125000  -4.603272e+001  -6.108180e+001 
3456250000  -4.754119e+001  -7.109226e+001 
3459375000  -4.818670e+001  -7.471587e+001 
3462500000  -4.804136e+001  -7.432218e+001 
3465625000  -4.720471e+001  -9.066174e+001 
3468750000  -4.786458e+001  -9.372450e+001 
3471875000  -4.694325e+001  -1.045417e+002 
3475000000  -4.709498e+001  -1.140754e+002 
3478125000  -4.773805e+001  -1.310710e+002 
3481250000  -4.880176e+001  -1.379422e+002 
3484375000  -4.866185e+001  -1.335004e+002 
3487500000  -4.769445e+001  -1.410132e+002 
3490625000  -4.730285e+001  -1.552579e+002 
3493750000  -4.835413e+001  -1.681714e+002 
3496875000  -4.841597e+001  -1.707482e+002 
3500000000  -4.892586e+001  -1.724004e+002 
3503125000  -4.721000e+001  -1.768060e+002 
3506250000  -4.540364e+001  1.719445e+002 
3509375000  -4.597866e+001  1.512146e+002 
3512500000  -4.621602e+001  1.339589e+002 
3515625000  -4.760234e+001  1.291794e+002 
3518750000  -4.792315e+001  1.312710e+002 
3521875000  -4.818100e+001  1.141014e+002 
3525000000  -4.918266e+001  1.133484e+002 
3528125000  -4.784070e+001  1.133152e+002 
3531250000  -4.657341e+001  1.030558e+002 
3534375000  -4.691923e+001  8.632203e+001 
3537500000  -4.785431e+001  8.034171e+001 
3540625000  -4.851336e+001  7.567937e+001 
3543750000  -4.944620e+001  8.122212e+001 
3546875000  -4.878963e+001  8.048409e+001 
3550000000  -4.663530e+001  7.452407e+001 
3553125000  -4.611237e+001  5.475840e+001 
3556250000  -4.744438e+001  4.776577e+001 
3559375000  -4.679048e+001  4.216162e+001 
3562500000  -4.616816e+001  2.883801e+001 
3565625000  -4.709233e+001  2.069330e+001 
3568750000  -4.781261e+001  2.161586e+001 
3571875000  -4.705371e+001  1.679352e+001 
3575000000  -4.707056e+001  7.954428e+000 
3578125000  -4.765407e+001  8.408104e+000 
3581250000  -4.722044e+001  1.107529e+000 
3584375000  -4.652291e+001  -5.503441e+000 
3587500000  -4.559983e+001  -1.461278e+001 
3590625000  -4.658199e+001  -2.667408e+001 
3593750000  -4.753818e+001  -2.712503e+001 
3596875000  -4.675111e+001  -2.645835e+001 
3600000000  -4.509540e+001  -3.398788e+001 
3603125000  -4.531347e+001  -5.013568e+001 
3606250000  -4.598970e+001  -5.412664e+001 
3609375000  -4.570477e+001  -5.889547e+001 
3612500000  -4.607181e+001  -6.659380e+001 
3615625000  -4.574443e+001  -6.853882e+001 
3618750000  -4.624430e+001  -7.460374e+001 
3621875000  -4.541498e+001  -8.037236e+001 
3625000000  -4.597123e+001  -8.408379e+001 
3628125000  -4.481332e+001  -8.958559e+001 
3631250000  -4.509042e+001  -1.002084e+002 
3634375000  -4.570956e+001  -9.952982e+001 
3637500000  -4.472960e+001  -1.035690e+002 
3640625000  -4.417143e+001  -1.083795e+002 
3643750000  -4.326066e+001  -1.193725e+002 
3646875000  -4.419326e+001  -1.328936e+002 
3650000000  -4.391000e+001  -1.364438e+002 
3653125000  -4.362637e+001  -1.421232e+002 
3656250000  -4.444986e+001  -1.515373e+002 
3659375000  -4.372864e+001  -1.543536e+002 
3662500000  -4.350716e+001  -1.624033e+002 
3665625000  -4.328119e+001  -1.648756e+002 
3668750000  -4.210644e+001  -1.725244e+002 
3671875000  -4.141433e+001  1.751645e+002 
3675000000  -4.217771e+001  1.655248e+002 
3678125000  -4.250635e+001  1.600681e+002 
3681250000  -4.238737e+001  1.567929e+002 
3684375000  -4.242408e+001  1.476481e+002 
3687500000  -4.259863e+001  1.381146e+002 
3690625000  -4.353393e+001  1.318608e+002 
3693750000  -4.444564e+001  1.312661e+002 
3696875000  -4.366442e+001  1.273494e+002 
3700000000  -4.311344e+001  1.199373e+002 
3703125000  -4.359917e+001  1.126037e+002 
3706250000  -4.447358e+001  1.088494e+002 
3709375000  -4.390622e+001  1.053809e+002 
3712500000  -4.291227e+001  1.035469e+002 
3715625000  -4.197448e+001  9.438777e+001 
3718750000  -4.195674e+001  8.508240e+001 
3721875000  -4.175863e+001  7.625321e+001 
3725000000  -4.250616e+001  6.715070e+001 
3728125000  -4.258835e+001  6.417305e+001 
3731250000  -4.195697e+001  5.761863e+001 
3734375000  -4.211640e+001  5.146858e+001 
3737500000  -4.283381e+001  4.007331e+001 
3740625000  -4.297884e+001  3.708294e+001 
3743750000  -4.283918e+001  2.852711e+001 
3746875000  -4.312427e+001  2.494772e+001 
3750000000  -4.364611e+001  1.918992e+001 
3753125000  -4.356641e+001  1.531359e+001 
3756250000  -4.361175e+001  1.258367e+001 
3759375000  -4.336439e+001  3.952073e+000 
3762500000  -4.353400e+001  1.662126e+000 
3765625000  -4.412532e+001  -3.141300e+000 
3768750000  -4.355473e+001  -3.073647e+000 
3771875000  -4.212873e+001  -1.074505e+001 
3775000000  -4.234202e+001  -2.145603e+001 
3778125000  -4.275348e+001  -2.819960e+001 
3781250000  -4.256601e+001  -3.264783e+001 
3784375000  -4.268318e+001  -4.066710e+001 
3787500000  -4.256671e+001  -4.304848e+001 
3790625000  -4.303557e+001  -5.262811e+001 
3793750000  -4.267861e+001  -5.788787e+001 
3796875000  -4.148327e+001  -6.270640e+001 
3800000000  -4.062284e+001  -7.029826e+001 
3803125000  -4.179916e+001  -8.057436e+001 
3806250000  -4.269591e+001  -8.544642e+001 
3809375000  -4.174106e+001  -9.057716e+001 
3812500000  -4.173255e+001  -1.021497e+002 
3815625000  -4.289147e+001  -1.133098e+002 
3818750000  -4.429027e+001  -1.100401e+002 
3821875000  -4.364418e+001  -1.008462e+002 
3825000000  -4.126722e+001  -1.058177e+002 
3828125000  -4.039868e+001  -1.278054e+002 
3831250000  -4.172656e+001  -1.426555e+002 
3834375000  -4.371665e+001  -1.412261e+002 
3837500000  -4.389941e+001  -1.377922e+002 
3840625000  -4.244001e+001  -1.478691e+002 
3843750000  -4.186468e+001  -1.604763e+002 
3846875000  -4.314279e+001  -1.704242e+002 
3850000000  -4.399239e+001  -1.628850e+002 
3853125000  -4.332198e+001  -1.652102e+002 
3856250000  -4.293949e+001  -1.714775e+002 
3859375000  -4.234569e+001  1.778813e+002 
3862500000  -4.182823e+001  1.671952e+002 
3865625000  -4.289699e+001  1.595101e+002 
3868750000  -4.244603e+001  1.592347e+002 
3871875000  -4.172890e+001  1.494982e+002 
3875000000  -4.253251e+001  1.397620e+002 
3878125000  -4.358174e+001  1.372962e+002 
3881250000  -4.334835e+001  1.354208e+002 
3884375000  -4.293129e+001  1.253935e+002 
3887500000  -4.342767e+001  1.182751e+002 
3890625000  -4.393965e+001  1.159232e+002 
3893750000  -4.421127e+001  1.104920e+002 
3896875000  -4.446043e+001  1.110792e+002 
3900000000  -4.446859e+001  1.060691e+002 
3903125000  -4.395216e+001  1.002673e+002 
3906250000  -4.352469e+001  9.536578e+001 
3909375000  -4.301268e+001  8.726427e+001 
3912500000  -4.370134e+001  7.677161e+001 
3915625000  -4.453580e+001  7.815281e+001 
3918750000  -4.459879e+001  7.767555e+001 
3921875000  -4.368101e+001  7.142999e+001 
3925000000  -4.321701e+001  6.463861e+001 
3928125000  -4.293065e+001  5.544243e+001 
3931250000  -4.365423e+001  4.762939e+001 
3934375000  -4.417161e+001  4.652711e+001 
3937500000  -4.469306e+001  4.468337e+001 
3940625000  -4.437909e+001  4.244678e+001 
3943750000  -4.303124e+001  3.657377e+001 
3946875000  -4.299151e+001  2.749241e+001 
3950000000  -4.371290e+001  1.942973e+001 
3953125000  -4.440702e+001  1.779239e+001 
3956250000  -4.278172e+001  1.857487e+001 
3959375000  -4.189764e+001  1.179181e+001 
3962500000  -4.129826e+001  -4.564851e-001 
3965625000  -4.169005e+001  -1.267555e+001 
3968750000  -4.224726e+001  -1.986251e+001 
3971875000  -4.231196e+001  -2.336300e+001 
3975000000  -4.202527e+001  -2.877426e+001 
3978125000  -4.175112e+001  -3.364712e+001 
3981250000  -4.162585e+001  -4.256671e+001 
3984375000  -4.226582e+001  -4.872445e+001 
3987500000  -4.278798e+001  -5.325634e+001 
3990625000  -4.287288e+001  -5.890935e+001 
3993750000  -4.312765e+001  -6.355540e+001 
3996875000  -4.293391e+001  -7.141760e+001 
4000000000  -4.361526e+001  -7.341093e+001 
4003125000  -4.405783e+001  -7.512243e+001 
4006250000  -4.180235e+001  -7.986701e+001 
4009375000  -4.146500e+001  -9.903232e+001 
4012500000  -4.262455e+001  -1.059734e+002 
4015625000  -4.376630e+001  -1.053455e+002 
4018750000  -4.367267e+001  -1.088880e+002 
4021875000  -4.294791e+001  -1.153706e+002 
4025000000  -4.284402e+001  -1.215852e+002 
4028125000  -4.310118e+001  -1.325979e+002 
4031250000  -4.373695e+001  -1.377986e+002 
4034375000  -4.439370e+001  -1.403212e+002 
4037500000  -4.437080e+001  -1.459698e+002 
4040625000  -4.405188e+001  -1.494097e+002 
4043750000  -4.451022e+001  -1.566952e+002 
4046875000  -4.415612e+001  -1.593393e+002 
4050000000  -4.398961e+001  -1.680161e+002 
4053125000  -4.528743e+001  -1.700882e+002 
4056250000  -4.532457e+001  -1.685452e+002 
4059375000  -4.371017e+001  -1.666468e+002 
4062500000  -4.345859e+001  -1.775393e+002 
4065625000  -4.327953e+001  -1.796437e+002 
4068750000  -4.286080e+001  1.694604e+002 
4071875000  -4.232719e+001  1.607816e+002 
4075000000  -4.336189e+001  1.503890e+002 
4078125000  -4.439634e+001  1.509674e+002 
4081250000  -4.304046e+001  1.436539e+002 
4084375000  -4.290727e+001  1.343987e+002 
4087500000  -4.373439e+001  1.262006e+002 
4090625000  -4.458870e+001  1.254940e+002 
4093750000  -4.468832e+001  1.217879e+002 
4096875000  -4.431461e+001  1.147137e+002 
4100000000  -4.507996e+001  1.084685e+002 
4103125000  -4.563123e+001  1.121260e+002 
4106250000  -4.513708e+001  1.131888e+002 
4109375000  -4.385053e+001  1.077055e+002 
4112500000  -4.402787e+001  9.679925e+001 
4115625000  -4.400637e+001  9.357537e+001 
4118750000  -4.386173e+001  8.708612e+001 
4121875000  -4.362284e+001  8.123695e+001 
4125000000  -4.493839e+001  7.336198e+001 
4128125000  -4.491173e+001  7.953745e+001 
4131250000  -4.358343e+001  8.042297e+001 
4134375000  -4.152549e+001  6.696590e+001 
4137500000  -4.199092e+001  4.637215e+001 
4140625000  -4.392228e+001  4.138932e+001 
4143750000  -4.487927e+001  4.669770e+001 
4146875000  -4.404919e+001  4.533170e+001 
4150000000  -4.314835e+001  3.786345e+001 
4153125000  -4.334981e+001  2.806232e+001 
4156250000  -4.382011e+001  2.252093e+001 
4159375000  -4.341953e+001  2.672060e+001 
4162500000  -4.228575e+001  2.229138e+001 
4165625000  -4.132444e+001  1.249069e+001 
4168750000  -4.085409e+001  3.826494e+000 
4171875000  -4.101187e+001  -9.446244e+000 
4175000000  -4.205928e+001  -1.756156e+001 
4178125000  -4.228914e+001  -2.011348e+001 
4181250000  -4.208736e+001  -2.517228e+001 
4184375000  -4.265228e+001  -3.307547e+001 
4187500000  -4.244499e+001  -3.891735e+001 
4190625000  -4.248643e+001  -4.856049e+001 
4193750000  -4.396305e+001  -5.189771e+001 
4196875000  -4.481550e+001  -5.571859e+001 
4200000000  -4.590298e+001  -5.175936e+001 
4203125000  -4.439180e+001  -4.059079e+001 
4206250000  -4.128033e+001  -5.030426e+001 
4209375000  -4.117185e+001  -7.564455e+001 
4212500000  -4.360172e+001  -8.140996e+001 
4215625000  -4.371568e+001  -7.592475e+001 
4218750000  -4.267701e+001  -7.267946e+001 
4221875000  -4.131392e+001  -8.415085e+001 
4225000000  -4.257249e+001  -9.984224e+001 
4228125000  -4.204250e+001  -9.985143e+001 
4231250000  -4.096149e+001  -1.066113e+002 
4234375000  -4.058712e+001  -1.161319e+002 
4237500000  -4.063905e+001  -1.220679e+002 
4240625000  -4.109381e+001  -1.336475e+002 
4243750000  -4.234853e+001  -1.431595e+002 
4246875000  -4.272513e+001  -1.408059e+002 
4250000000  -4.277097e+001  -1.424085e+002 
4253125000  -4.226287e+001  -1.465014e+002 
4256250000  -4.259867e+001  -1.515415e+002 
4259375000  -4.191544e+001  -1.574117e+002 
4262500000  -4.235463e+001  -1.642470e+002 
4265625000  -4.217977e+001  -1.606815e+002 
4268750000  -4.073350e+001  -1.718712e+002 
4271875000  -4.080337e+001  1.767922e+002 
4275000000  -4.043676e+001  1.695223e+002 
4278125000  -4.120432e+001  1.552054e+002 
4281250000  -4.264493e+001  1.520011e+002 
4284375000  -4.211996e+001  1.497787e+002 
4287500000  -4.387893e+001  1.452395e+002 
4290625000  -4.357671e+001  1.542187e+002 
4293750000  -4.133265e+001  1.538900e+002 
4296875000  -4.032844e+001  1.369798e+002 
4300000000  -4.129657e+001  1.257321e+002 
4303125000  -4.164502e+001  1.277478e+002 
4306250000  -4.067810e+001  1.269706e+002 
4309375000  -3.980140e+001  1.166771e+002 
4312500000  -3.951691e+001  1.071753e+002 
4315625000  -4.006564e+001  9.694583e+001 
4318750000  -4.061416e+001  9.119160e+001 
4321875000  -4.055352e+001  8.783671e+001 
4325000000  -4.012669e+001  8.560992e+001 
4328125000  -3.931616e+001  7.459899e+001 
4331250000  -3.967469e+001  6.206711e+001 
4334375000  -4.068870e+001  5.436773e+001 
4337500000  -4.181838e+001  5.219559e+001 
4340625000  -4.229723e+001  5.565741e+001 
4343750000  -4.088189e+001  4.917366e+001 
4346875000  -4.085691e+001  3.989665e+001 
4350000000  -4.093344e+001  3.070456e+001 
4353125000  -4.152107e+001  2.174923e+001 
4356250000  -4.389927e+001  2.777265e+001 
4359375000  -4.277308e+001  3.884827e+001 
4362500000  -3.924308e+001  2.767715e+001 
4365625000  -3.911873e+001  9.701097e+000 
4368750000  -3.984300e+001  3.317396e-001 
4371875000  -4.135329e+001  -4.920374e+000 
4375000000  -4.060155e+001  -9.527222e+000 
4378125000  -4.036090e+001  -1.700376e+001 
4381250000  -4.059860e+001  -2.641349e+001 
4384375000  -4.048339e+001  -3.256888e+001 
4387500000  -4.138443e+001  -3.881616e+001 
4390625000  -4.220967e+001  -4.160884e+001 
4393750000  -4.156913e+001  -4.098653e+001 
4396875000  -4.093864e+001  -4.879127e+001 
4400000000  -4.078880e+001  -5.717256e+001 
4403125000  -4.136880e+001  -6.822878e+001 
4406250000  -4.179002e+001  -7.146970e+001 
4409375000  -4.253247e+001  -7.889927e+001 
4412500000  -4.315775e+001  -7.846391e+001 
4415625000  -4.281364e+001  -7.529937e+001 
4418750000  -4.195351e+001  -7.828629e+001 
