!Agilent Technologies,E8363B,MY43030201,A.06.04.32
!Agilent E8363B: A.06.04.32
!Date: Tuesday, November 11, 2014 21:42:33
!Correction: S21(Response(S21)) 
!S1P File: Measurement: S21:
# Hz S  dB   R 50
3000000000  -4.351213e+001  -1.582939e+002 
3003125000  -4.529714e+001  -1.628094e+002 
3006250000  -4.516352e+001  -1.661157e+002 
3009375000  -4.585946e+001  -1.623259e+002 
3012500000  -4.477452e+001  -1.681560e+002 
3015625000  -4.507313e+001  -1.750648e+002 
3018750000  -4.526637e+001  -1.765284e+002 
3021875000  -4.406754e+001  -1.746716e+002 
3025000000  -4.271355e+001  -1.797537e+002 
3028125000  -4.154029e+001  1.673575e+002 
3031250000  -4.084119e+001  1.548146e+002 
3034375000  -4.060325e+001  1.405709e+002 
3037500000  -4.155875e+001  1.299548e+002 
3040625000  -4.281660e+001  1.232782e+002 
3043750000  -4.335263e+001  1.172525e+002 
3046875000  -4.398023e+001  1.111059e+002 
3050000000  -4.511633e+001  1.043565e+002 
3053125000  -4.498572e+001  1.092877e+002 
3056250000  -4.510090e+001  1.103919e+002 
3059375000  -4.383442e+001  1.084127e+002 
3062500000  -4.258976e+001  1.036232e+002 
3065625000  -4.222430e+001  9.172719e+001 
3068750000  -4.172026e+001  8.487196e+001 
3071875000  -4.178011e+001  8.300692e+001 
3075000000  -4.119296e+001  7.462151e+001 
3078125000  -4.122059e+001  6.634192e+001 
3081250000  -4.121995e+001  5.865910e+001 
3084375000  -4.055480e+001  5.409833e+001 
3087500000  -4.035570e+001  4.503049e+001 
3090625000  -3.991245e+001  3.318286e+001 
3093750000  -4.116854e+001  2.434536e+001 
3096875000  -4.120089e+001  1.929993e+001 
3100000000  -4.125510e+001  1.464327e+001 
3103125000  -4.127285e+001  1.012298e+001 
3106250000  -4.103481e+001  4.267428e+000 
3109375000  -4.101032e+001  -2.468882e-001 
3112500000  -4.095052e+001  -8.091422e+000 
3115625000  -4.069910e+001  -1.209878e+001 
3118750000  -4.080706e+001  -1.836864e+001 
3121875000  -4.023223e+001  -2.989301e+001 
3125000000  -4.232763e+001  -3.342250e+001 
3128125000  -4.224724e+001  -2.734988e+001 
3131250000  -3.955280e+001  -3.612706e+001 
3134375000  -3.887193e+001  -5.375592e+001 
3137500000  -3.952913e+001  -6.639400e+001 
3140625000  -4.109377e+001  -7.272678e+001 
3143750000  -4.168980e+001  -7.413466e+001 
3146875000  -4.120348e+001  -7.425190e+001 
3150000000  -4.042343e+001  -8.000628e+001 
3153125000  -4.087718e+001  -8.785203e+001 
3156250000  -4.157014e+001  -8.532388e+001 
3159375000  -3.933974e+001  -9.070907e+001 
3162500000  -3.771617e+001  -1.055466e+002 
3165625000  -3.893542e+001  -1.198411e+002 
3168750000  -3.932836e+001  -1.219171e+002 
3171875000  -3.866790e+001  -1.304423e+002 
3175000000  -3.924566e+001  -1.400865e+002 
3178125000  -3.867899e+001  -1.426219e+002 
3181250000  -3.823612e+001  -1.512088e+002 
3184375000  -3.799589e+001  -1.638662e+002 
3187500000  -3.904412e+001  -1.791942e+002 
3190625000  -4.096423e+001  1.737999e+002 
3193750000  -4.117292e+001  1.773261e+002 
3196875000  -4.108767e+001  1.767919e+002 
3200000000  -3.977961e+001  1.713900e+002 
3203125000  -3.952316e+001  1.625573e+002 
3206250000  -3.998825e+001  1.544387e+002 
3209375000  -3.955996e+001  1.456915e+002 
3212500000  -4.002211e+001  1.391418e+002 
3215625000  -3.969416e+001  1.362371e+002 
3218750000  -4.028600e+001  1.224042e+002 
3221875000  -4.061053e+001  1.154613e+002 
3225000000  -4.054166e+001  1.098211e+002 
3228125000  -4.119160e+001  1.037896e+002 
3231250000  -4.137150e+001  1.011046e+002 
3234375000  -4.113791e+001  9.641604e+001 
3237500000  -4.077237e+001  9.252170e+001 
3240625000  -4.043238e+001  8.577398e+001 
3243750000  -4.039404e+001  7.354744e+001 
3246875000  -4.088126e+001  6.685995e+001 
3250000000  -4.126609e+001  6.169706e+001 
3253125000  -4.140917e+001  5.639491e+001 
3256250000  -4.042292e+001  4.810545e+001 
3259375000  -4.112854e+001  3.506852e+001 
3262500000  -4.250048e+001  2.987040e+001 
3265625000  -4.270010e+001  3.160650e+001 
3268750000  -4.232932e+001  2.951038e+001 
3271875000  -4.158009e+001  2.291544e+001 
3275000000  -4.123753e+001  1.185324e+001 
3278125000  -4.168599e+001  6.056265e+000 
3281250000  -4.198978e+001  3.286554e+000 
3284375000  -4.128445e+001  -5.596297e+000 
3287500000  -4.176790e+001  -1.275358e+001 
3290625000  -4.168125e+001  -2.334682e+001 
3293750000  -4.147403e+001  -3.148258e+001 
3296875000  -4.286765e+001  -3.437359e+001 
3300000000  -4.202476e+001  -3.690813e+001 
3303125000  -4.100610e+001  -4.762877e+001 
3306250000  -4.078133e+001  -5.760169e+001 
3309375000  -4.079284e+001  -6.792716e+001 
3312500000  -4.125568e+001  -8.438344e+001 
3315625000  -4.248415e+001  -8.982284e+001 
3318750000  -4.406248e+001  -9.897032e+001 
3321875000  -4.551349e+001  -9.656024e+001 
3325000000  -4.524396e+001  -9.270838e+001 
3328125000  -4.427203e+001  -9.345493e+001 
3331250000  -4.248651e+001  -9.640302e+001 
3334375000  -4.018608e+001  -1.141278e+002 
3337500000  -4.095501e+001  -1.387319e+002 
3340625000  -4.295657e+001  -1.480634e+002 
3343750000  -4.467758e+001  -1.516829e+002 
3346875000  -4.456632e+001  -1.524530e+002 
3350000000  -4.391669e+001  -1.602208e+002 
3353125000  -4.374711e+001  -1.688961e+002 
3356250000  -4.374958e+001  -1.778780e+002 
3359375000  -4.452803e+001  1.665345e+002 
3362500000  -4.519462e+001  1.599063e+002 
3365625000  -4.600268e+001  1.533015e+002 
3368750000  -4.655496e+001  1.512944e+002 
3371875000  -4.729810e+001  1.418927e+002 
3375000000  -4.862171e+001  1.347104e+002 
3378125000  -4.924574e+001  1.328587e+002 
3381250000  -5.001063e+001  1.434638e+002 
3384375000  -4.721381e+001  1.548682e+002 
3387500000  -4.550111e+001  1.280031e+002 
3390625000  -4.648739e+001  1.120489e+002 
3393750000  -4.815246e+001  1.066866e+002 
3396875000  -4.667157e+001  1.029532e+002 
3400000000  -4.637682e+001  8.863255e+001 
3403125000  -4.716923e+001  7.890041e+001 
3406250000  -4.761953e+001  7.343227e+001 
3409375000  -4.765707e+001  6.352037e+001 
3412500000  -4.791851e+001  5.492385e+001 
3415625000  -4.870782e+001  5.272582e+001 
3418750000  -4.878598e+001  4.966951e+001 
3421875000  -4.926871e+001  3.927088e+001 
3425000000  -4.768447e+001  3.856329e+001 
3428125000  -4.726242e+001  3.173501e+001 
3431250000  -4.700116e+001  1.776417e+001 
3434375000  -4.729177e+001  5.242322e+000 
3437500000  -4.792873e+001  -1.896581e+000 
3440625000  -4.827282e+001  -7.998039e+000 
3443750000  -4.648633e+001  -1.151599e+001 
3446875000  -4.576208e+001  -2.596411e+001 
3450000000  -4.521206e+001  -4.212550e+001 
3453125000  -4.629502e+001  -5.482668e+001 
3456250000  -4.744056e+001  -6.721088e+001 
3459375000  -4.790072e+001  -6.826173e+001 
3462500000  -4.755275e+001  -7.814995e+001 
3465625000  -4.701111e+001  -8.789229e+001 
3468750000  -4.755432e+001  -9.322987e+001 
3471875000  -4.670966e+001  -1.020734e+002 
3475000000  -4.684258e+001  -1.130917e+002 
3478125000  -4.752985e+001  -1.281842e+002 
3481250000  -4.909135e+001  -1.324848e+002 
3484375000  -4.858323e+001  -1.320067e+002 
3487500000  -4.774674e+001  -1.406662e+002 
3490625000  -4.720579e+001  -1.503589e+002 
3493750000  -4.764338e+001  -1.677244e+002 
3496875000  -4.785502e+001  -1.665314e+002 
3500000000  -4.877829e+001  -1.719736e+002 
3503125000  -4.727652e+001  -1.730891e+002 
3506250000  -4.541744e+001  1.732282e+002 
3509375000  -4.596464e+001  1.533535e+002 
3512500000  -4.604499e+001  1.402838e+002 
3515625000  -4.711736e+001  1.344716e+002 
3518750000  -4.776199e+001  1.361899e+002 
3521875000  -4.743853e+001  1.233722e+002 
3525000000  -4.915653e+001  1.186890e+002 
3528125000  -4.816466e+001  1.214637e+002 
3531250000  -4.627291e+001  1.065956e+002 
3534375000  -4.695341e+001  9.240584e+001 
3537500000  -4.805750e+001  8.175911e+001 
3540625000  -4.916171e+001  7.506693e+001 
3543750000  -4.996235e+001  7.868467e+001 
3546875000  -4.843644e+001  8.505090e+001 
3550000000  -4.613699e+001  7.734843e+001 
3553125000  -4.584670e+001  5.418931e+001 
3556250000  -4.733281e+001  4.841116e+001 
3559375000  -4.671922e+001  4.674322e+001 
3562500000  -4.657170e+001  3.549097e+001 
3565625000  -4.724262e+001  2.724649e+001 
3568750000  -4.751027e+001  2.915377e+001 
3571875000  -4.707990e+001  2.359449e+001 
3575000000  -4.706948e+001  1.421965e+001 
3578125000  -4.739003e+001  9.105551e+000 
3581250000  -4.712096e+001  7.283926e+000 
3584375000  -4.609085e+001  -1.584347e+000 
3587500000  -4.555542e+001  -9.534775e+000 
3590625000  -4.669146e+001  -2.108308e+001 
3593750000  -4.777025e+001  -2.285978e+001 
3596875000  -4.647248e+001  -1.568595e+001 
3600000000  -4.459606e+001  -2.811551e+001 
3603125000  -4.522382e+001  -4.541903e+001 
3606250000  -4.612994e+001  -4.945247e+001 
3609375000  -4.595259e+001  -5.452990e+001 
3612500000  -4.610374e+001  -6.102345e+001 
3615625000  -4.595515e+001  -6.662092e+001 
3618750000  -4.634453e+001  -6.838249e+001 
3621875000  -4.564970e+001  -7.529132e+001 
3625000000  -4.578709e+001  -7.898064e+001 
3628125000  -4.487720e+001  -8.534695e+001 
3631250000  -4.512627e+001  -9.512811e+001 
3634375000  -4.566064e+001  -9.456216e+001 
3637500000  -4.455424e+001  -9.827271e+001 
3640625000  -4.362787e+001  -1.032480e+002 
3643750000  -4.315970e+001  -1.144905e+002 
3646875000  -4.352231e+001  -1.254230e+002 
3650000000  -4.398870e+001  -1.305890e+002 
3653125000  -4.327145e+001  -1.376553e+002 
3656250000  -4.394980e+001  -1.448949e+002 
3659375000  -4.371824e+001  -1.490103e+002 
3662500000  -4.335020e+001  -1.580010e+002 
3665625000  -4.349189e+001  -1.606054e+002 
3668750000  -4.207449e+001  -1.647794e+002 
3671875000  -4.151585e+001  -1.776579e+002 
3675000000  -4.237531e+001  1.706890e+002 
3678125000  -4.280478e+001  1.639421e+002 
3681250000  -4.251997e+001  1.583350e+002 
3684375000  -4.268371e+001  1.516663e+002 
3687500000  -4.306223e+001  1.446124e+002 
3690625000  -4.363182e+001  1.363602e+002 
3693750000  -4.439342e+001  1.351541e+002 
3696875000  -4.373443e+001  1.327576e+002 
3700000000  -4.329168e+001  1.265985e+002 
3703125000  -4.382988e+001  1.174803e+002 
3706250000  -4.471802e+001  1.144321e+002 
3709375000  -4.371543e+001  1.171557e+002 
3712500000  -4.287915e+001  1.092538e+002 
3715625000  -4.185255e+001  9.785194e+001 
3718750000  -4.171058e+001  8.806772e+001 
3721875000  -4.185625e+001  8.085115e+001 
3725000000  -4.247454e+001  7.042805e+001 
3728125000  -4.241051e+001  6.976121e+001 
3731250000  -4.194576e+001  6.278920e+001 
3734375000  -4.205214e+001  5.607700e+001 
3737500000  -4.289097e+001  4.544355e+001 
3740625000  -4.309842e+001  4.242371e+001 
3743750000  -4.311449e+001  3.476518e+001 
3746875000  -4.339719e+001  2.890424e+001 
3750000000  -4.367489e+001  2.595511e+001 
3753125000  -4.387685e+001  2.141154e+001 
3756250000  -4.369361e+001  1.891169e+001 
3759375000  -4.347295e+001  1.267904e+001 
3762500000  -4.343970e+001  8.654485e+000 
3765625000  -4.403867e+001  7.134019e-001 
3768750000  -4.381833e+001  3.038712e+000 
3771875000  -4.241884e+001  -4.606019e+000 
3775000000  -4.190534e+001  -1.476009e+001 
3778125000  -4.255518e+001  -2.153968e+001 
3781250000  -4.290707e+001  -2.692199e+001 
3784375000  -4.264362e+001  -3.347722e+001 
3787500000  -4.224626e+001  -3.727317e+001 
3790625000  -4.286025e+001  -4.713904e+001 
3793750000  -4.286386e+001  -4.945201e+001 
3796875000  -4.170143e+001  -5.631002e+001 
3800000000  -4.070828e+001  -6.261102e+001 
3803125000  -4.177813e+001  -7.430418e+001 
3806250000  -4.255902e+001  -7.961821e+001 
3809375000  -4.203057e+001  -8.396784e+001 
3812500000  -4.177326e+001  -9.478560e+001 
3815625000  -4.334359e+001  -1.064564e+002 
3818750000  -4.454312e+001  -1.030494e+002 
3821875000  -4.349054e+001  -9.496400e+001 
3825000000  -4.182343e+001  -9.942085e+001 
3828125000  -4.028093e+001  -1.220270e+002 
3831250000  -4.168396e+001  -1.366318e+002 
3834375000  -4.354169e+001  -1.359363e+002 
3837500000  -4.369443e+001  -1.345120e+002 
3840625000  -4.199221e+001  -1.426435e+002 
3843750000  -4.172047e+001  -1.550114e+002 
3846875000  -4.364081e+001  -1.627436e+002 
3850000000  -4.386405e+001  -1.551774e+002 
3853125000  -4.348857e+001  -1.590790e+002 
3856250000  -4.287632e+001  -1.666035e+002 
3859375000  -4.260752e+001  -1.750140e+002 
3862500000  -4.226587e+001  1.747530e+002 
3865625000  -4.251704e+001  1.661049e+002 
3868750000  -4.225679e+001  1.657284e+002 
3871875000  -4.213576e+001  1.571172e+002 
3875000000  -4.268303e+001  1.454508e+002 
3878125000  -4.349715e+001  1.446611e+002 
3881250000  -4.354193e+001  1.441621e+002 
3884375000  -4.269808e+001  1.316072e+002 
3887500000  -4.304034e+001  1.248275e+002 
3890625000  -4.412724e+001  1.224395e+002 
3893750000  -4.454749e+001  1.187091e+002 
3896875000  -4.435647e+001  1.157831e+002 
3900000000  -4.436256e+001  1.106986e+002 
3903125000  -4.389922e+001  1.040411e+002 
3906250000  -4.360151e+001  1.049819e+002 
3909375000  -4.281287e+001  9.174258e+001 
3912500000  -4.430275e+001  8.185040e+001 
3915625000  -4.516381e+001  8.068657e+001 
3918750000  -4.439426e+001  8.080286e+001 
3921875000  -4.399489e+001  7.793281e+001 
3925000000  -4.302927e+001  7.037146e+001 
3928125000  -4.305368e+001  6.101736e+001 
3931250000  -4.392623e+001  5.287407e+001 
3934375000  -4.401564e+001  5.414544e+001 
3937500000  -4.464922e+001  4.697094e+001 
3940625000  -4.490603e+001  4.731786e+001 
3943750000  -4.298866e+001  4.140176e+001 
3946875000  -4.289789e+001  3.309670e+001 
3950000000  -4.423286e+001  2.782697e+001 
3953125000  -4.514619e+001  2.551343e+001 
3956250000  -4.296955e+001  2.268184e+001 
3959375000  -4.154502e+001  1.820388e+001 
3962500000  -4.173518e+001  7.564107e+000 
3965625000  -4.177864e+001  -2.062542e+000 
3968750000  -4.273888e+001  -1.246262e+001 
3971875000  -4.251141e+001  -1.588323e+001 
3975000000  -4.203329e+001  -2.028175e+001 
3978125000  -4.221251e+001  -2.892380e+001 
3981250000  -4.187420e+001  -3.510780e+001 
3984375000  -4.249669e+001  -4.394968e+001 
3987500000  -4.321281e+001  -5.003998e+001 
3990625000  -4.332244e+001  -5.326119e+001 
3993750000  -4.339146e+001  -5.860819e+001 
3996875000  -4.342949e+001  -6.431039e+001 
4000000000  -4.374044e+001  -6.807539e+001 
4003125000  -4.382109e+001  -6.775623e+001 
4006250000  -4.193621e+001  -7.474997e+001 
4009375000  -4.116718e+001  -9.048154e+001 
4012500000  -4.316041e+001  -1.009631e+002 
4015625000  -4.415540e+001  -1.005102e+002 
4018750000  -4.391441e+001  -1.032230e+002 
4021875000  -4.323749e+001  -1.129551e+002 
4025000000  -4.303102e+001  -1.189285e+002 
4028125000  -4.337142e+001  -1.251917e+002 
4031250000  -4.423505e+001  -1.320717e+002 
4034375000  -4.399601e+001  -1.336532e+002 
4037500000  -4.416376e+001  -1.377084e+002 
4040625000  -4.424970e+001  -1.433501e+002 
4043750000  -4.473176e+001  -1.483545e+002 
4046875000  -4.466490e+001  -1.505660e+002 
4050000000  -4.445571e+001  -1.603001e+002 
4053125000  -4.546158e+001  -1.607478e+002 
4056250000  -4.627813e+001  -1.597299e+002 
4059375000  -4.434558e+001  -1.591789e+002 
4062500000  -4.356488e+001  -1.711936e+002 
4065625000  -4.370464e+001  -1.739460e+002 
4068750000  -4.329680e+001  1.766050e+002 
4071875000  -4.324238e+001  1.659918e+002 
4075000000  -4.408133e+001  1.565714e+002 
4078125000  -4.458649e+001  1.559536e+002 
4081250000  -4.398784e+001  1.497043e+002 
4084375000  -4.407697e+001  1.421392e+002 
4087500000  -4.436406e+001  1.345502e+002 
4090625000  -4.532336e+001  1.323288e+002 
4093750000  -4.474542e+001  1.267908e+002 
4096875000  -4.470082e+001  1.238831e+002 
4100000000  -4.541466e+001  1.149460e+002 
4103125000  -4.622449e+001  1.175237e+002 
4106250000  -4.594668e+001  1.165272e+002 
4109375000  -4.449559e+001  1.152175e+002 
4112500000  -4.468386e+001  1.059111e+002 
4115625000  -4.425358e+001  9.889636e+001 
4118750000  -4.432085e+001  9.609191e+001 
4121875000  -4.352702e+001  8.874513e+001 
4125000000  -4.519858e+001  8.125262e+001 
4128125000  -4.539848e+001  8.330631e+001 
4131250000  -4.426346e+001  8.799963e+001 
4134375000  -4.148323e+001  7.431425e+001 
4137500000  -4.238126e+001  5.373290e+001 
4140625000  -4.445847e+001  4.783587e+001 
4143750000  -4.517084e+001  4.973925e+001 
4146875000  -4.467397e+001  5.392971e+001 
4150000000  -4.323970e+001  4.380949e+001 
4153125000  -4.347282e+001  3.600642e+001 
4156250000  -4.404483e+001  2.822702e+001 
4159375000  -4.397992e+001  3.271338e+001 
4162500000  -4.268260e+001  3.338119e+001 
4165625000  -4.155105e+001  1.982395e+001 
4168750000  -4.150279e+001  1.091947e+001 
4171875000  -4.159952e+001  -2.252704e+000 
4175000000  -4.217020e+001  -1.016488e+001 
4178125000  -4.267465e+001  -1.384089e+001 
4181250000  -4.229719e+001  -1.902199e+001 
4184375000  -4.284981e+001  -2.725635e+001 
4187500000  -4.297430e+001  -3.220055e+001 
4190625000  -4.324435e+001  -4.326987e+001 
4193750000  -4.454918e+001  -4.779708e+001 
4196875000  -4.527021e+001  -5.113779e+001 
4200000000  -4.581504e+001  -4.551024e+001 
4203125000  -4.435746e+001  -3.327534e+001 
4206250000  -4.162691e+001  -4.139116e+001 
4209375000  -4.185244e+001  -6.864845e+001 
4212500000  -4.415783e+001  -7.673224e+001 
4215625000  -4.452271e+001  -6.855319e+001 
4218750000  -4.328275e+001  -6.599428e+001 
4221875000  -4.147255e+001  -8.110774e+001 
4225000000  -4.292735e+001  -9.031245e+001 
4228125000  -4.257226e+001  -9.063873e+001 
4231250000  -4.147315e+001  -1.000691e+002 
4234375000  -4.127979e+001  -1.113195e+002 
4237500000  -4.118984e+001  -1.170537e+002 
4240625000  -4.152086e+001  -1.243732e+002 
4243750000  -4.294302e+001  -1.336555e+002 
4246875000  -4.347379e+001  -1.351988e+002 
4250000000  -4.317442e+001  -1.353198e+002 
4253125000  -4.313337e+001  -1.366070e+002 
4256250000  -4.291002e+001  -1.419084e+002 
4259375000  -4.236607e+001  -1.516355e+002 
4262500000  -4.247307e+001  -1.557245e+002 
4265625000  -4.225916e+001  -1.536508e+002 
4268750000  -4.126488e+001  -1.642463e+002 
4271875000  -4.102314e+001  -1.748656e+002 
4275000000  -4.061750e+001  1.733253e+002 
4278125000  -4.205769e+001  1.608069e+002 
4281250000  -4.338792e+001  1.641967e+002 
4284375000  -4.258821e+001  1.578380e+002 
4287500000  -4.424107e+001  1.539962e+002 
4290625000  -4.430041e+001  1.629837e+002 
4293750000  -4.166736e+001  1.588492e+002 
4296875000  -4.088851e+001  1.450210e+002 
4300000000  -4.176419e+001  1.350495e+002 
4303125000  -4.245787e+001  1.381208e+002 
4306250000  -4.113322e+001  1.350773e+002 
4309375000  -4.018987e+001  1.291482e+002 
4312500000  -4.001345e+001  1.142099e+002 
4315625000  -4.059988e+001  1.043926e+002 
4318750000  -4.105024e+001  9.805322e+001 
4321875000  -4.080142e+001  9.818624e+001 
4325000000  -4.058393e+001  9.358856e+001 
4328125000  -4.004893e+001  8.241399e+001 
4331250000  -4.025912e+001  6.811467e+001 
4334375000  -4.129799e+001  6.241183e+001 
4337500000  -4.232046e+001  5.862944e+001 
4340625000  -4.257899e+001  6.240086e+001 
4343750000  -4.155742e+001  5.786700e+001 
4346875000  -4.151810e+001  4.709968e+001 
4350000000  -4.163088e+001  3.891590e+001 
4353125000  -4.245130e+001  2.660020e+001 
4356250000  -4.414257e+001  3.278014e+001 
4359375000  -4.316828e+001  4.557929e+001 
4362500000  -4.002359e+001  3.540863e+001 
4365625000  -3.984473e+001  1.586443e+001 
4368750000  -4.083528e+001  5.330047e+000 
4371875000  -4.184647e+001  4.396995e+000 
4375000000  -4.151209e+001  -1.439374e+000 
4378125000  -4.111535e+001  -6.931757e+000 
4381250000  -4.127316e+001  -1.603621e+001 
4384375000  -4.128565e+001  -2.576298e+001 
4387500000  -4.206889e+001  -2.909362e+001 
4390625000  -4.280629e+001  -3.204466e+001 
4393750000  -4.224152e+001  -3.488367e+001 
4396875000  -4.173167e+001  -4.039591e+001 
4400000000  -4.167651e+001  -4.867619e+001 
4403125000  -4.225062e+001  -5.745710e+001 
4406250000  -4.256050e+001  -6.136924e+001 
4409375000  -4.321112e+001  -6.702273e+001 
4412500000  -4.408101e+001  -6.928464e+001 
4415625000  -4.350863e+001  -6.500435e+001 
4418750000  -4.257924e+001  -7.027969e+001 
