!Agilent Technologies,E8363B,MY43030201,A.06.04.32
!Agilent E8363B: A.06.04.32
!Date: Tuesday, November 11, 2014 21:41:50
!Correction: S21(Response(S21)) 
!S1P File: Measurement: S21:
# Hz S  dB   R 50
3000000000  -4.364690e+001  -1.584510e+002 
3003125000  -4.526800e+001  -1.635249e+002 
3006250000  -4.519387e+001  -1.654808e+002 
3009375000  -4.593337e+001  -1.619386e+002 
3012500000  -4.502801e+001  -1.675637e+002 
3015625000  -4.511469e+001  -1.745612e+002 
3018750000  -4.527213e+001  -1.779082e+002 
3021875000  -4.383490e+001  -1.760348e+002 
3025000000  -4.258794e+001  1.797293e+002 
3028125000  -4.164012e+001  1.680901e+002 
3031250000  -4.096836e+001  1.545631e+002 
3034375000  -4.060379e+001  1.407190e+002 
3037500000  -4.148580e+001  1.305587e+002 
3040625000  -4.295147e+001  1.242573e+002 
3043750000  -4.330546e+001  1.157027e+002 
3046875000  -4.400458e+001  1.086999e+002 
3050000000  -4.519756e+001  1.049044e+002 
3053125000  -4.449165e+001  1.103559e+002 
3056250000  -4.463948e+001  1.143169e+002 
3059375000  -4.400820e+001  1.090863e+002 
3062500000  -4.250960e+001  1.034971e+002 
3065625000  -4.219558e+001  9.215766e+001 
3068750000  -4.180668e+001  8.484267e+001 
3071875000  -4.192972e+001  8.158302e+001 
3075000000  -4.103264e+001  7.406664e+001 
3078125000  -4.129458e+001  6.750421e+001 
3081250000  -4.142648e+001  5.963376e+001 
3084375000  -4.046462e+001  5.431272e+001 
3087500000  -4.054796e+001  4.722132e+001 
3090625000  -3.996733e+001  3.445124e+001 
3093750000  -4.113623e+001  2.384459e+001 
3096875000  -4.121939e+001  2.011890e+001 
3100000000  -4.115120e+001  1.603582e+001 
3103125000  -4.150770e+001  1.059649e+001 
3106250000  -4.089084e+001  6.145883e+000 
3109375000  -4.096444e+001  -2.587392e-001 
3112500000  -4.080634e+001  -8.363004e+000 
3115625000  -4.083522e+001  -1.242327e+001 
3118750000  -4.073675e+001  -1.748226e+001 
3121875000  -4.025608e+001  -2.853640e+001 
3125000000  -4.197511e+001  -3.546143e+001 
3128125000  -4.194792e+001  -2.856546e+001 
3131250000  -3.945636e+001  -3.460046e+001 
3134375000  -3.903078e+001  -5.349409e+001 
3137500000  -3.953643e+001  -6.769656e+001 
3140625000  -4.109746e+001  -7.099242e+001 
3143750000  -4.168646e+001  -7.561544e+001 
3146875000  -4.104780e+001  -7.435726e+001 
3150000000  -4.037368e+001  -7.897118e+001 
3153125000  -4.078090e+001  -8.858484e+001 
3156250000  -4.139894e+001  -8.597001e+001 
3159375000  -3.908427e+001  -8.990337e+001 
3162500000  -3.783670e+001  -1.052362e+002 
3165625000  -3.913090e+001  -1.197960e+002 
3168750000  -3.905155e+001  -1.208844e+002 
3171875000  -3.871714e+001  -1.297505e+002 
3175000000  -3.910604e+001  -1.393546e+002 
3178125000  -3.872436e+001  -1.425883e+002 
3181250000  -3.807811e+001  -1.508873e+002 
3184375000  -3.791007e+001  -1.639920e+002 
3187500000  -3.923875e+001  -1.794574e+002 
3190625000  -4.098082e+001  1.742767e+002 
3193750000  -4.148589e+001  1.777971e+002 
3196875000  -4.131715e+001  1.774421e+002 
3200000000  -3.991059e+001  1.718927e+002 
3203125000  -3.958194e+001  1.633178e+002 
3206250000  -3.985212e+001  1.548678e+002 
3209375000  -3.944141e+001  1.459868e+002 
3212500000  -4.012331e+001  1.380572e+002 
3215625000  -3.971101e+001  1.351206e+002 
3218750000  -4.036778e+001  1.231290e+002 
3221875000  -4.064491e+001  1.170684e+002 
3225000000  -4.055054e+001  1.117408e+002 
3228125000  -4.130208e+001  1.044544e+002 
3231250000  -4.153367e+001  1.016162e+002 
3234375000  -4.115935e+001  9.742522e+001 
3237500000  -4.098618e+001  9.249537e+001 
3240625000  -4.052732e+001  8.590964e+001 
3243750000  -4.062586e+001  7.413882e+001 
3246875000  -4.071899e+001  6.645804e+001 
3250000000  -4.112688e+001  6.251344e+001 
3253125000  -4.134365e+001  5.723466e+001 
3256250000  -4.055892e+001  4.820068e+001 
3259375000  -4.120985e+001  3.574149e+001 
3262500000  -4.244813e+001  2.992403e+001 
3265625000  -4.276587e+001  3.044936e+001 
3268750000  -4.243510e+001  2.948558e+001 
3271875000  -4.171872e+001  2.312722e+001 
3275000000  -4.111540e+001  1.263772e+001 
3278125000  -4.193845e+001  6.016185e+000 
3281250000  -4.200397e+001  1.861777e+000 
3284375000  -4.100619e+001  -5.640793e+000 
3287500000  -4.142759e+001  -1.227121e+001 
3290625000  -4.176097e+001  -2.465474e+001 
3293750000  -4.149514e+001  -3.064996e+001 
3296875000  -4.295161e+001  -3.582386e+001 
3300000000  -4.222964e+001  -3.770637e+001 
3303125000  -4.110740e+001  -4.592711e+001 
3306250000  -4.105095e+001  -5.737584e+001 
3309375000  -4.083690e+001  -6.881012e+001 
3312500000  -4.120504e+001  -8.258649e+001 
3315625000  -4.270726e+001  -9.314165e+001 
3318750000  -4.426322e+001  -9.785260e+001 
3321875000  -4.526538e+001  -9.854147e+001 
3325000000  -4.505160e+001  -9.405888e+001 
3328125000  -4.429875e+001  -9.411751e+001 
3331250000  -4.247931e+001  -9.716568e+001 
3334375000  -4.031032e+001  -1.169962e+002 
3337500000  -4.098436e+001  -1.379483e+002 
3340625000  -4.291653e+001  -1.482516e+002 
3343750000  -4.470641e+001  -1.507061e+002 
3346875000  -4.424809e+001  -1.534541e+002 
3350000000  -4.367460e+001  -1.584124e+002 
3353125000  -4.392724e+001  -1.702688e+002 
3356250000  -4.369312e+001  -1.787431e+002 
3359375000  -4.435350e+001  1.679216e+002 
3362500000  -4.508738e+001  1.592141e+002 
3365625000  -4.603026e+001  1.547974e+002 
3368750000  -4.639854e+001  1.488362e+002 
3371875000  -4.721801e+001  1.409247e+002 
3375000000  -4.910880e+001  1.350354e+002 
3378125000  -4.956875e+001  1.352912e+002 
3381250000  -5.018558e+001  1.423894e+002 
3384375000  -4.720827e+001  1.489440e+002 
3387500000  -4.519254e+001  1.284715e+002 
3390625000  -4.661195e+001  1.063943e+002 
3393750000  -4.791148e+001  1.088062e+002 
3396875000  -4.657354e+001  1.038731e+002 
3400000000  -4.656956e+001  8.926209e+001 
3403125000  -4.718681e+001  8.422247e+001 
3406250000  -4.808182e+001  7.474503e+001 
3409375000  -4.734731e+001  6.370094e+001 
3412500000  -4.794997e+001  5.674475e+001 
3415625000  -4.858070e+001  5.449418e+001 
3418750000  -4.899147e+001  4.229474e+001 
3421875000  -4.868133e+001  4.354138e+001 
3425000000  -4.757444e+001  3.808778e+001 
3428125000  -4.718575e+001  2.894173e+001 
3431250000  -4.733760e+001  1.662803e+001 
3434375000  -4.677147e+001  5.313107e+000 
3437500000  -4.773689e+001  -2.603665e+000 
3440625000  -4.769997e+001  -6.496663e+000 
3443750000  -4.664816e+001  -9.887330e+000 
3446875000  -4.575583e+001  -2.690011e+001 
3450000000  -4.483241e+001  -4.054153e+001 
3453125000  -4.575410e+001  -5.848912e+001 
3456250000  -4.743941e+001  -6.648757e+001 
3459375000  -4.842274e+001  -6.928312e+001 
3462500000  -4.761779e+001  -7.759427e+001 
3465625000  -4.718322e+001  -8.532617e+001 
3468750000  -4.787604e+001  -9.629166e+001 
3471875000  -4.701243e+001  -1.006436e+002 
3475000000  -4.704638e+001  -1.139884e+002 
3478125000  -4.781372e+001  -1.262569e+002 
3481250000  -4.888714e+001  -1.312430e+002 
3484375000  -4.828117e+001  -1.317703e+002 
3487500000  -4.780421e+001  -1.386400e+002 
3490625000  -4.686684e+001  -1.525955e+002 
3493750000  -4.807421e+001  -1.632021e+002 
3496875000  -4.801525e+001  -1.662529e+002 
3500000000  -4.824092e+001  -1.670846e+002 
3503125000  -4.718306e+001  -1.696900e+002 
3506250000  -4.566431e+001  1.743118e+002 
3509375000  -4.566748e+001  1.508176e+002 
3512500000  -4.572721e+001  1.389783e+002 
3515625000  -4.682174e+001  1.374110e+002 
3518750000  -4.792668e+001  1.340592e+002 
3521875000  -4.834740e+001  1.185427e+002 
3525000000  -4.871195e+001  1.178139e+002 
3528125000  -4.688594e+001  1.197821e+002 
3531250000  -4.689656e+001  1.082198e+002 
3534375000  -4.700476e+001  8.807007e+001 
3537500000  -4.740278e+001  8.313828e+001 
3540625000  -4.868856e+001  8.031432e+001 
3543750000  -4.914373e+001  8.255492e+001 
3546875000  -4.859512e+001  8.654757e+001 
3550000000  -4.705597e+001  7.819039e+001 
3553125000  -4.628556e+001  5.837273e+001 
3556250000  -4.775129e+001  5.270089e+001 
3559375000  -4.644296e+001  4.710105e+001 
3562500000  -4.626886e+001  3.257216e+001 
3565625000  -4.775653e+001  2.477714e+001 
3568750000  -4.794485e+001  2.979331e+001 
3571875000  -4.749941e+001  2.159423e+001 
3575000000  -4.647496e+001  1.582083e+001 
3578125000  -4.772622e+001  1.163246e+001 
3581250000  -4.729545e+001  9.564594e+000 
3584375000  -4.627893e+001  5.812070e-001 
3587500000  -4.589076e+001  -1.210463e+001 
3590625000  -4.644360e+001  -1.967108e+001 
3593750000  -4.786260e+001  -1.847431e+001 
3596875000  -4.665908e+001  -1.767787e+001 
3600000000  -4.471463e+001  -3.021147e+001 
3603125000  -4.512685e+001  -4.470928e+001 
3606250000  -4.595720e+001  -4.610250e+001 
3609375000  -4.619669e+001  -5.128532e+001 
3612500000  -4.602755e+001  -6.205890e+001 
3615625000  -4.597676e+001  -6.457266e+001 
3618750000  -4.602558e+001  -7.073921e+001 
3621875000  -4.560126e+001  -7.295602e+001 
3625000000  -4.558293e+001  -7.842239e+001 
3628125000  -4.458960e+001  -8.323424e+001 
3631250000  -4.507708e+001  -9.627525e+001 
3634375000  -4.588565e+001  -9.611946e+001 
3637500000  -4.473182e+001  -9.644772e+001 
3640625000  -4.367461e+001  -1.031005e+002 
3643750000  -4.329734e+001  -1.140492e+002 
3646875000  -4.372527e+001  -1.257214e+002 
3650000000  -4.386064e+001  -1.302511e+002 
3653125000  -4.307719e+001  -1.393362e+002 
3656250000  -4.422200e+001  -1.444363e+002 
3659375000  -4.381160e+001  -1.487238e+002 
3662500000  -4.331655e+001  -1.546567e+002 
3665625000  -4.334413e+001  -1.599211e+002 
3668750000  -4.239860e+001  -1.644063e+002 
3671875000  -4.142901e+001  -1.780367e+002 
3675000000  -4.236131e+001  1.706152e+002 
3678125000  -4.266355e+001  1.679127e+002 
3681250000  -4.269539e+001  1.588804e+002 
3684375000  -4.270317e+001  1.529122e+002 
3687500000  -4.303368e+001  1.443276e+002 
3690625000  -4.335942e+001  1.379333e+002 
3693750000  -4.483113e+001  1.368139e+002 
3696875000  -4.386340e+001  1.334947e+002 
3700000000  -4.300472e+001  1.266769e+002 
3703125000  -4.381656e+001  1.171052e+002 
3706250000  -4.478598e+001  1.154014e+002 
3709375000  -4.381015e+001  1.127126e+002 
3712500000  -4.310881e+001  1.082026e+002 
3715625000  -4.180214e+001  1.001070e+002 
3718750000  -4.197079e+001  8.969250e+001 
3721875000  -4.197195e+001  8.233887e+001 
3725000000  -4.239660e+001  7.187103e+001 
3728125000  -4.258287e+001  7.115811e+001 
3731250000  -4.200784e+001  6.241753e+001 
3734375000  -4.209305e+001  5.676869e+001 
3737500000  -4.300792e+001  4.610265e+001 
3740625000  -4.325816e+001  4.205236e+001 
3743750000  -4.284031e+001  3.586427e+001 
3746875000  -4.357710e+001  3.016309e+001 
3750000000  -4.379760e+001  2.613265e+001 
3753125000  -4.366451e+001  2.161794e+001 
3756250000  -4.393603e+001  1.838902e+001 
3759375000  -4.380956e+001  1.236390e+001 
3762500000  -4.372669e+001  8.313838e+000 
3765625000  -4.383885e+001  3.322123e+000 
3768750000  -4.391946e+001  4.356747e+000 
3771875000  -4.225825e+001  -3.121910e+000 
3775000000  -4.206587e+001  -1.670106e+001 
3778125000  -4.309798e+001  -2.131338e+001 
3781250000  -4.255703e+001  -2.495290e+001 
3784375000  -4.240437e+001  -3.351483e+001 
3787500000  -4.250160e+001  -3.668306e+001 
3790625000  -4.288068e+001  -4.909908e+001 
3793750000  -4.290415e+001  -5.115525e+001 
3796875000  -4.187835e+001  -5.387326e+001 
3800000000  -4.080595e+001  -6.218137e+001 
3803125000  -4.179260e+001  -7.504308e+001 
3806250000  -4.274848e+001  -7.888805e+001 
3809375000  -4.197461e+001  -8.490567e+001 
3812500000  -4.189366e+001  -9.624611e+001 
3815625000  -4.324288e+001  -1.035863e+002 
3818750000  -4.428157e+001  -1.031914e+002 
3821875000  -4.351656e+001  -9.270295e+001 
3825000000  -4.178903e+001  -1.013928e+002 
3828125000  -4.080858e+001  -1.208960e+002 
3831250000  -4.173321e+001  -1.381061e+002 
3834375000  -4.374155e+001  -1.358223e+002 
3837500000  -4.427344e+001  -1.342655e+002 
3840625000  -4.249366e+001  -1.393853e+002 
3843750000  -4.193708e+001  -1.563056e+002 
3846875000  -4.342592e+001  -1.618038e+002 
3850000000  -4.417878e+001  -1.557503e+002 
3853125000  -4.355458e+001  -1.589093e+002 
3856250000  -4.274191e+001  -1.650967e+002 
3859375000  -4.232566e+001  -1.761417e+002 
3862500000  -4.201069e+001  1.761054e+002 
3865625000  -4.267801e+001  1.670398e+002 
3868750000  -4.234961e+001  1.656372e+002 
3871875000  -4.183443e+001  1.557547e+002 
3875000000  -4.263388e+001  1.461972e+002 
3878125000  -4.327946e+001  1.441133e+002 
3881250000  -4.356691e+001  1.396372e+002 
3884375000  -4.257802e+001  1.305006e+002 
3887500000  -4.360052e+001  1.272476e+002 
3890625000  -4.418176e+001  1.244779e+002 
3893750000  -4.407784e+001  1.190193e+002 
3896875000  -4.452826e+001  1.172854e+002 
3900000000  -4.477790e+001  1.117245e+002 
3903125000  -4.392545e+001  1.068474e+002 
3906250000  -4.360162e+001  1.034234e+002 
3909375000  -4.304470e+001  9.198113e+001 
3912500000  -4.430898e+001  8.460873e+001 
3915625000  -4.471371e+001  8.244161e+001 
3918750000  -4.471718e+001  8.420663e+001 
3921875000  -4.413512e+001  7.498004e+001 
3925000000  -4.332761e+001  7.271677e+001 
3928125000  -4.298664e+001  6.149826e+001 
3931250000  -4.398919e+001  5.342026e+001 
3934375000  -4.404161e+001  5.252350e+001 
3937500000  -4.459312e+001  5.386229e+001 
3940625000  -4.464914e+001  4.919934e+001 
3943750000  -4.378016e+001  4.265063e+001 
3946875000  -4.273792e+001  3.445896e+001 
3950000000  -4.392441e+001  2.565306e+001 
3953125000  -4.487973e+001  2.442187e+001 
3956250000  -4.298669e+001  2.101584e+001 
3959375000  -4.251416e+001  1.977293e+001 
3962500000  -4.182134e+001  6.569475e+000 
3965625000  -4.216461e+001  -3.518038e+000 
3968750000  -4.264972e+001  -1.301966e+001 
3971875000  -4.265047e+001  -1.600290e+001 
3975000000  -4.227533e+001  -1.973486e+001 
3978125000  -4.235102e+001  -2.632171e+001 
3981250000  -4.210683e+001  -3.615425e+001 
3984375000  -4.253468e+001  -4.322153e+001 
3987500000  -4.301624e+001  -4.730539e+001 
3990625000  -4.326059e+001  -4.936307e+001 
3993750000  -4.325025e+001  -5.667358e+001 
3996875000  -4.327528e+001  -6.482436e+001 
4000000000  -4.381431e+001  -6.688301e+001 
4003125000  -4.416154e+001  -6.655434e+001 
4006250000  -4.188976e+001  -7.539548e+001 
4009375000  -4.150500e+001  -8.972742e+001 
4012500000  -4.292720e+001  -9.710571e+001 
4015625000  -4.447897e+001  -9.703592e+001 
4018750000  -4.404417e+001  -1.057467e+002 
4021875000  -4.342445e+001  -1.102831e+002 
4025000000  -4.343508e+001  -1.169142e+002 
4028125000  -4.339136e+001  -1.256870e+002 
4031250000  -4.420230e+001  -1.312074e+002 
4034375000  -4.425596e+001  -1.326239e+002 
4037500000  -4.422591e+001  -1.378782e+002 
4040625000  -4.459135e+001  -1.441165e+002 
4043750000  -4.473135e+001  -1.454317e+002 
4046875000  -4.452304e+001  -1.524801e+002 
4050000000  -4.439117e+001  -1.592372e+002 
4053125000  -4.568904e+001  -1.616263e+002 
4056250000  -4.613962e+001  -1.615018e+002 
4059375000  -4.414303e+001  -1.620716e+002 
4062500000  -4.343329e+001  -1.706455e+002 
4065625000  -4.428652e+001  -1.730961e+002 
4068750000  -4.335484e+001  1.735268e+002 
4071875000  -4.300554e+001  1.647044e+002 
4075000000  -4.364832e+001  1.584678e+002 
4078125000  -4.398499e+001  1.557827e+002 
4081250000  -4.354150e+001  1.509249e+002 
4084375000  -4.359845e+001  1.429877e+002 
4087500000  -4.425544e+001  1.362785e+002 
4090625000  -4.469058e+001  1.318481e+002 
4093750000  -4.466003e+001  1.302752e+002 
4096875000  -4.474247e+001  1.226982e+002 
4100000000  -4.612012e+001  1.146190e+002 
4103125000  -4.634842e+001  1.192529e+002 
4106250000  -4.566222e+001  1.197101e+002 
4109375000  -4.470105e+001  1.171978e+002 
4112500000  -4.465681e+001  1.050310e+002 
4115625000  -4.411512e+001  1.026973e+002 
4118750000  -4.431467e+001  9.392263e+001 
4121875000  -4.438630e+001  8.886894e+001 
4125000000  -4.511226e+001  8.213279e+001 
4128125000  -4.560136e+001  8.348158e+001 
4131250000  -4.416016e+001  8.648962e+001 
4134375000  -4.184290e+001  7.479920e+001 
4137500000  -4.227953e+001  5.196979e+001 
4140625000  -4.448343e+001  4.802380e+001 
4143750000  -4.508216e+001  5.402518e+001 
4146875000  -4.435135e+001  5.540374e+001 
4150000000  -4.310368e+001  4.512600e+001 
4153125000  -4.337500e+001  3.480011e+001 
4156250000  -4.436568e+001  3.032977e+001 
4159375000  -4.399724e+001  3.349976e+001 
4162500000  -4.297815e+001  3.016471e+001 
4165625000  -4.185608e+001  2.328331e+001 
4168750000  -4.148217e+001  1.070297e+001 
4171875000  -4.190537e+001  -1.455189e+000 
4175000000  -4.186289e+001  -8.985251e+000 
4178125000  -4.260870e+001  -1.219415e+001 
4181250000  -4.286583e+001  -1.653047e+001 
4184375000  -4.313083e+001  -2.540561e+001 
4187500000  -4.307257e+001  -3.104319e+001 
4190625000  -4.289413e+001  -4.111123e+001 
4193750000  -4.436407e+001  -4.634592e+001 
4196875000  -4.527347e+001  -4.856853e+001 
4200000000  -4.684515e+001  -4.517480e+001 
4203125000  -4.485011e+001  -3.235236e+001 
4206250000  -4.147487e+001  -4.510393e+001 
4209375000  -4.175684e+001  -6.772257e+001 
4212500000  -4.427276e+001  -7.624829e+001 
4215625000  -4.458859e+001  -6.782723e+001 
4218750000  -4.282207e+001  -7.005915e+001 
4221875000  -4.150165e+001  -7.974512e+001 
4225000000  -4.289330e+001  -8.973104e+001 
4228125000  -4.298752e+001  -8.804244e+001 
4231250000  -4.168626e+001  -9.834705e+001 
4234375000  -4.142547e+001  -1.076081e+002 
4237500000  -4.136987e+001  -1.140399e+002 
4240625000  -4.191080e+001  -1.249464e+002 
4243750000  -4.297864e+001  -1.351397e+002 
4246875000  -4.390247e+001  -1.324512e+002 
4250000000  -4.342906e+001  -1.349817e+002 
4253125000  -4.309369e+001  -1.361376e+002 
4256250000  -4.300790e+001  -1.410863e+002 
4259375000  -4.232589e+001  -1.499931e+002 
4262500000  -4.285685e+001  -1.538175e+002 
4265625000  -4.269402e+001  -1.559190e+002 
4268750000  -4.161813e+001  -1.617695e+002 
4271875000  -4.113448e+001  -1.743038e+002 
4275000000  -4.087737e+001  1.748687e+002 
4278125000  -4.201712e+001  1.654900e+002 
4281250000  -4.294666e+001  1.637082e+002 
4284375000  -4.259209e+001  1.600334e+002 
4287500000  -4.425715e+001  1.571402e+002 
4290625000  -4.421564e+001  1.652166e+002 
4293750000  -4.182114e+001  1.603789e+002 
4296875000  -4.076709e+001  1.459540e+002 
4300000000  -4.202921e+001  1.353648e+002 
4303125000  -4.267735e+001  1.391975e+002 
4306250000  -4.120630e+001  1.348149e+002 
4309375000  -4.005204e+001  1.277846e+002 
4312500000  -4.009464e+001  1.147605e+002 
4315625000  -4.062841e+001  1.058116e+002 
4318750000  -4.123377e+001  9.981268e+001 
4321875000  -4.129353e+001  9.596690e+001 
4325000000  -4.058367e+001  9.362242e+001 
4328125000  -4.012777e+001  8.402843e+001 
4331250000  -4.040646e+001  7.109763e+001 
4334375000  -4.139158e+001  6.181898e+001 
4337500000  -4.233935e+001  5.961298e+001 
4340625000  -4.262728e+001  6.191000e+001 
4343750000  -4.149490e+001  5.922999e+001 
4346875000  -4.134995e+001  4.758343e+001 
4350000000  -4.155313e+001  3.714707e+001 
4353125000  -4.205074e+001  2.877418e+001 
4356250000  -4.437346e+001  3.333465e+001 
4359375000  -4.281498e+001  4.692103e+001 
4362500000  -3.990563e+001  3.484228e+001 
4365625000  -3.931884e+001  1.652203e+001 
4368750000  -4.083761e+001  8.651901e+000 
4371875000  -4.187245e+001  4.829644e+000 
4375000000  -4.096091e+001  -2.323907e+000 
4378125000  -4.095691e+001  -8.865598e+000 
4381250000  -4.161311e+001  -1.528598e+001 
4384375000  -4.122381e+001  -2.344385e+001 
4387500000  -4.221922e+001  -3.018705e+001 
4390625000  -4.294077e+001  -3.293195e+001 
4393750000  -4.243868e+001  -3.410860e+001 
4396875000  -4.182520e+001  -4.072972e+001 
4400000000  -4.145182e+001  -4.889412e+001 
4403125000  -4.250410e+001  -5.845189e+001 
4406250000  -4.298411e+001  -6.110908e+001 
4409375000  -4.300235e+001  -6.613060e+001 
4412500000  -4.427682e+001  -7.012966e+001 
4415625000  -4.369188e+001  -6.575672e+001 
4418750000  -4.243266e+001  -6.794583e+001 
