!Agilent Technologies,E8363B,MY43030201,A.06.04.32
!Agilent E8363B: A.06.04.32
!Date: Tuesday, November 11, 2014 21:41:21
!Correction: S21(Response(S21)) 
!S1P File: Measurement: S21:
# Hz S  dB   R 50
3000000000  -4.366961e+001  -1.576990e+002 
3003125000  -4.522638e+001  -1.619107e+002 
3006250000  -4.520836e+001  -1.638617e+002 
3009375000  -4.587196e+001  -1.598583e+002 
3012500000  -4.481380e+001  -1.676145e+002 
3015625000  -4.521939e+001  -1.745703e+002 
3018750000  -4.536172e+001  -1.743307e+002 
3021875000  -4.371857e+001  -1.745487e+002 
3025000000  -4.266421e+001  -1.789007e+002 
3028125000  -4.169456e+001  1.680860e+002 
3031250000  -4.096131e+001  1.569753e+002 
3034375000  -4.074126e+001  1.430603e+002 
3037500000  -4.179741e+001  1.314335e+002 
3040625000  -4.264021e+001  1.239203e+002 
3043750000  -4.315781e+001  1.176214e+002 
3046875000  -4.405585e+001  1.110800e+002 
3050000000  -4.546223e+001  1.055319e+002 
3053125000  -4.465764e+001  1.090543e+002 
3056250000  -4.485731e+001  1.134080e+002 
3059375000  -4.393576e+001  1.094009e+002 
3062500000  -4.254984e+001  1.042078e+002 
3065625000  -4.229092e+001  9.279433e+001 
3068750000  -4.198070e+001  8.580975e+001 
3071875000  -4.167754e+001  8.170767e+001 
3075000000  -4.129536e+001  7.420267e+001 
3078125000  -4.126368e+001  6.690758e+001 
3081250000  -4.135429e+001  5.938793e+001 
3084375000  -4.043155e+001  5.593454e+001 
3087500000  -4.056831e+001  4.734428e+001 
3090625000  -3.996420e+001  3.407489e+001 
3093750000  -4.107758e+001  2.542339e+001 
3096875000  -4.125653e+001  1.938265e+001 
3100000000  -4.108584e+001  1.649899e+001 
3103125000  -4.138176e+001  1.053417e+001 
3106250000  -4.112803e+001  4.474300e+000 
3109375000  -4.095732e+001  7.663463e-001 
3112500000  -4.074828e+001  -7.660615e+000 
3115625000  -4.071454e+001  -1.256444e+001 
3118750000  -4.080068e+001  -1.734653e+001 
3121875000  -4.020428e+001  -2.929786e+001 
3125000000  -4.212222e+001  -3.380690e+001 
3128125000  -4.204447e+001  -2.708103e+001 
3131250000  -3.939497e+001  -3.527516e+001 
3134375000  -3.908401e+001  -5.322823e+001 
3137500000  -3.976550e+001  -6.600517e+001 
3140625000  -4.103926e+001  -7.069634e+001 
3143750000  -4.167583e+001  -7.487274e+001 
3146875000  -4.125376e+001  -7.405586e+001 
3150000000  -4.031861e+001  -7.942612e+001 
3153125000  -4.080171e+001  -8.750319e+001 
3156250000  -4.158081e+001  -8.667075e+001 
3159375000  -3.929239e+001  -8.818559e+001 
3162500000  -3.780471e+001  -1.048593e+002 
3165625000  -3.905916e+001  -1.194676e+002 
3168750000  -3.901513e+001  -1.203202e+002 
3171875000  -3.861066e+001  -1.290618e+002 
3175000000  -3.903938e+001  -1.391012e+002 
3178125000  -3.875506e+001  -1.420514e+002 
3181250000  -3.807875e+001  -1.510459e+002 
3184375000  -3.802670e+001  -1.626371e+002 
3187500000  -3.939405e+001  -1.786794e+002 
3190625000  -4.088302e+001  1.740161e+002 
3193750000  -4.123366e+001  1.777717e+002 
3196875000  -4.117419e+001  1.784377e+002 
3200000000  -4.000010e+001  1.730991e+002 
3203125000  -3.960941e+001  1.641001e+002 
3206250000  -3.995635e+001  1.554569e+002 
3209375000  -3.948774e+001  1.468197e+002 
3212500000  -4.020166e+001  1.386256e+002 
3215625000  -3.974981e+001  1.370186e+002 
3218750000  -4.032577e+001  1.232984e+002 
3221875000  -4.068283e+001  1.165014e+002 
3225000000  -4.049739e+001  1.118677e+002 
3228125000  -4.105532e+001  1.046748e+002 
3231250000  -4.146269e+001  1.014316e+002 
3234375000  -4.097614e+001  9.731410e+001 
3237500000  -4.105580e+001  9.277691e+001 
3240625000  -4.025886e+001  8.617312e+001 
3243750000  -4.036020e+001  7.493958e+001 
3246875000  -4.071953e+001  6.780779e+001 
3250000000  -4.121966e+001  6.104746e+001 
3253125000  -4.136267e+001  5.721616e+001 
3256250000  -4.046229e+001  4.846536e+001 
3259375000  -4.091056e+001  3.419509e+001 
3262500000  -4.233937e+001  3.067703e+001 
3265625000  -4.272882e+001  3.068833e+001 
3268750000  -4.265937e+001  2.834434e+001 
3271875000  -4.153682e+001  2.447863e+001 
3275000000  -4.120566e+001  1.294994e+001 
3278125000  -4.167288e+001  6.609324e+000 
3281250000  -4.185140e+001  1.563129e+000 
3284375000  -4.135825e+001  -5.221597e+000 
3287500000  -4.171029e+001  -1.226434e+001 
3290625000  -4.151286e+001  -2.241008e+001 
3293750000  -4.171619e+001  -3.145267e+001 
3296875000  -4.274974e+001  -3.522942e+001 
3300000000  -4.215294e+001  -3.755562e+001 
3303125000  -4.126089e+001  -4.639175e+001 
3306250000  -4.111061e+001  -5.696228e+001 
3309375000  -4.078360e+001  -6.815314e+001 
3312500000  -4.122980e+001  -8.221354e+001 
3315625000  -4.240344e+001  -9.092183e+001 
3318750000  -4.444620e+001  -9.766721e+001 
3321875000  -4.539114e+001  -9.691923e+001 
3325000000  -4.467933e+001  -9.295614e+001 
3328125000  -4.427130e+001  -9.343911e+001 
3331250000  -4.267286e+001  -9.439009e+001 
3334375000  -4.036660e+001  -1.146759e+002 
3337500000  -4.089072e+001  -1.377504e+002 
3340625000  -4.283893e+001  -1.468851e+002 
3343750000  -4.476023e+001  -1.480999e+002 
3346875000  -4.458171e+001  -1.517866e+002 
3350000000  -4.385456e+001  -1.586794e+002 
3353125000  -4.390877e+001  -1.682374e+002 
3356250000  -4.355563e+001  -1.772024e+002 
3359375000  -4.477345e+001  1.666446e+002 
3362500000  -4.510184e+001  1.609250e+002 
3365625000  -4.568163e+001  1.542980e+002 
3368750000  -4.633194e+001  1.481627e+002 
3371875000  -4.673809e+001  1.398004e+002 
3375000000  -4.870127e+001  1.381863e+002 
3378125000  -4.948204e+001  1.353634e+002 
3381250000  -5.047826e+001  1.470744e+002 
3384375000  -4.715065e+001  1.551430e+002 
3387500000  -4.516187e+001  1.310309e+002 
3390625000  -4.736389e+001  1.093241e+002 
3393750000  -4.796651e+001  1.073381e+002 
3396875000  -4.606279e+001  1.025728e+002 
3400000000  -4.633687e+001  8.806235e+001 
3403125000  -4.687368e+001  8.157720e+001 
3406250000  -4.744761e+001  7.222102e+001 
3409375000  -4.736559e+001  6.041928e+001 
3412500000  -4.810101e+001  5.388730e+001 
3415625000  -4.874955e+001  5.070373e+001 
3418750000  -4.883572e+001  4.526830e+001 
3421875000  -4.930077e+001  4.516007e+001 
3425000000  -4.806482e+001  3.807300e+001 
3428125000  -4.720645e+001  3.051118e+001 
3431250000  -4.698149e+001  1.803825e+001 
3434375000  -4.703443e+001  2.391604e+000 
3437500000  -4.752055e+001  -4.042025e+000 
3440625000  -4.791302e+001  -4.963682e+000 
3443750000  -4.643201e+001  -9.768558e+000 
3446875000  -4.570429e+001  -2.428489e+001 
3450000000  -4.525787e+001  -4.050567e+001 
3453125000  -4.578788e+001  -5.588969e+001 
3456250000  -4.675975e+001  -6.689830e+001 
3459375000  -4.816988e+001  -6.720009e+001 
3462500000  -4.716392e+001  -7.511939e+001 
3465625000  -4.726958e+001  -8.591784e+001 
3468750000  -4.714562e+001  -9.213109e+001 
3471875000  -4.716156e+001  -1.003447e+002 
3475000000  -4.722518e+001  -1.115225e+002 
3478125000  -4.743474e+001  -1.271685e+002 
3481250000  -4.911264e+001  -1.318633e+002 
3484375000  -4.850473e+001  -1.334011e+002 
3487500000  -4.753132e+001  -1.371394e+002 
3490625000  -4.732087e+001  -1.524902e+002 
3493750000  -4.813079e+001  -1.623632e+002 
3496875000  -4.846062e+001  -1.631344e+002 
3500000000  -4.791605e+001  -1.718162e+002 
3503125000  -4.708959e+001  -1.724395e+002 
3506250000  -4.571609e+001  1.723371e+002 
3509375000  -4.591674e+001  1.560058e+002 
3512500000  -4.595730e+001  1.417508e+002 
3515625000  -4.742999e+001  1.358784e+002 
3518750000  -4.779431e+001  1.336673e+002 
3521875000  -4.754831e+001  1.216505e+002 
3525000000  -4.918704e+001  1.144242e+002 
3528125000  -4.710620e+001  1.212820e+002 
3531250000  -4.636623e+001  1.084350e+002 
3534375000  -4.691656e+001  9.302514e+001 
3537500000  -4.778120e+001  8.501953e+001 
3540625000  -4.942624e+001  8.155315e+001 
3543750000  -4.959531e+001  8.101913e+001 
3546875000  -4.944966e+001  9.000211e+001 
3550000000  -4.630363e+001  7.573999e+001 
3553125000  -4.602766e+001  5.785933e+001 
3556250000  -4.717583e+001  5.085421e+001 
3559375000  -4.660534e+001  4.571061e+001 
3562500000  -4.638739e+001  3.540554e+001 
3565625000  -4.704604e+001  2.935096e+001 
3568750000  -4.827505e+001  2.706531e+001 
3571875000  -4.713794e+001  2.321557e+001 
3575000000  -4.706375e+001  1.802485e+001 
3578125000  -4.747932e+001  1.148223e+001 
3581250000  -4.744642e+001  8.083955e+000 
3584375000  -4.608841e+001  -8.039626e-001 
3587500000  -4.580305e+001  -6.602153e+000 
3590625000  -4.655251e+001  -1.963784e+001 
3593750000  -4.785043e+001  -1.997506e+001 
3596875000  -4.653617e+001  -1.884845e+001 
3600000000  -4.480505e+001  -2.866339e+001 
3603125000  -4.490773e+001  -4.697837e+001 
3606250000  -4.593298e+001  -4.584306e+001 
3609375000  -4.556218e+001  -4.999911e+001 
3612500000  -4.582910e+001  -5.853474e+001 
3615625000  -4.567016e+001  -6.434975e+001 
3618750000  -4.655856e+001  -6.789062e+001 
3621875000  -4.554760e+001  -7.317708e+001 
3625000000  -4.572874e+001  -7.795780e+001 
3628125000  -4.460084e+001  -8.208858e+001 
3631250000  -4.509539e+001  -9.258105e+001 
3634375000  -4.568786e+001  -9.463173e+001 
3637500000  -4.451433e+001  -9.452172e+001 
3640625000  -4.361340e+001  -1.017234e+002 
3643750000  -4.323835e+001  -1.138061e+002 
3646875000  -4.351405e+001  -1.255906e+002 
3650000000  -4.363123e+001  -1.268522e+002 
3653125000  -4.333477e+001  -1.384068e+002 
3656250000  -4.412867e+001  -1.463552e+002 
3659375000  -4.353336e+001  -1.454238e+002 
3662500000  -4.322141e+001  -1.559864e+002 
3665625000  -4.349007e+001  -1.581462e+002 
3668750000  -4.196793e+001  -1.629962e+002 
3671875000  -4.184335e+001  -1.781400e+002 
3675000000  -4.229273e+001  1.708504e+002 
3678125000  -4.261416e+001  1.666261e+002 
3681250000  -4.229465e+001  1.616637e+002 
3684375000  -4.255217e+001  1.525604e+002 
3687500000  -4.281092e+001  1.452834e+002 
3690625000  -4.370720e+001  1.381490e+002 
3693750000  -4.466993e+001  1.371839e+002 
3696875000  -4.401120e+001  1.367142e+002 
3700000000  -4.323458e+001  1.251879e+002 
3703125000  -4.397759e+001  1.183902e+002 
3706250000  -4.479765e+001  1.142688e+002 
3709375000  -4.409320e+001  1.155484e+002 
3712500000  -4.302049e+001  1.105848e+002 
3715625000  -4.191048e+001  9.990251e+001 
3718750000  -4.184276e+001  9.067564e+001 
3721875000  -4.176781e+001  8.218568e+001 
3725000000  -4.262283e+001  7.397761e+001 
3728125000  -4.240337e+001  6.966496e+001 
3731250000  -4.209786e+001  6.404118e+001 
3734375000  -4.234405e+001  5.815608e+001 
3737500000  -4.307748e+001  4.777363e+001 
3740625000  -4.320904e+001  4.451226e+001 
3743750000  -4.312729e+001  3.470586e+001 
3746875000  -4.350788e+001  2.957505e+001 
3750000000  -4.365470e+001  2.487223e+001 
3753125000  -4.368940e+001  2.133814e+001 
3756250000  -4.378762e+001  1.908703e+001 
3759375000  -4.385629e+001  1.441459e+001 
3762500000  -4.382923e+001  8.307084e+000 
3765625000  -4.408521e+001  3.904540e+000 
3768750000  -4.335398e+001  5.516182e+000 
3771875000  -4.220369e+001  -3.705886e+000 
3775000000  -4.248391e+001  -1.557016e+001 
3778125000  -4.263682e+001  -1.973621e+001 
3781250000  -4.245981e+001  -2.504739e+001 
3784375000  -4.231599e+001  -3.093135e+001 
3787500000  -4.214928e+001  -3.551294e+001 
3790625000  -4.255840e+001  -4.736612e+001 
3793750000  -4.261005e+001  -4.904380e+001 
3796875000  -4.184341e+001  -5.443960e+001 
3800000000  -4.079541e+001  -6.178787e+001 
3803125000  -4.174392e+001  -7.431676e+001 
3806250000  -4.265784e+001  -7.670512e+001 
3809375000  -4.185994e+001  -8.280202e+001 
3812500000  -4.185737e+001  -9.658941e+001 
3815625000  -4.293550e+001  -1.061534e+002 
3818750000  -4.444154e+001  -1.021068e+002 
3821875000  -4.316725e+001  -9.457135e+001 
3825000000  -4.140131e+001  -1.001225e+002 
3828125000  -4.035231e+001  -1.193704e+002 
3831250000  -4.152101e+001  -1.361272e+002 
3834375000  -4.396831e+001  -1.349539e+002 
3837500000  -4.423453e+001  -1.352032e+002 
3840625000  -4.271255e+001  -1.374039e+002 
3843750000  -4.175384e+001  -1.549472e+002 
3846875000  -4.345714e+001  -1.587724e+002 
3850000000  -4.394453e+001  -1.570066e+002 
3853125000  -4.381321e+001  -1.566615e+002 
3856250000  -4.320565e+001  -1.673147e+002 
3859375000  -4.222760e+001  -1.751417e+002 
3862500000  -4.219957e+001  1.754538e+002 
3865625000  -4.279348e+001  1.679248e+002 
3868750000  -4.248229e+001  1.659083e+002 
3871875000  -4.196354e+001  1.596050e+002 
3875000000  -4.269820e+001  1.468838e+002 
3878125000  -4.334687e+001  1.454699e+002 
3881250000  -4.354082e+001  1.414477e+002 
3884375000  -4.273397e+001  1.333780e+002 
3887500000  -4.322050e+001  1.262731e+002 
3890625000  -4.390519e+001  1.220902e+002 
3893750000  -4.458517e+001  1.207654e+002 
3896875000  -4.429740e+001  1.179469e+002 
3900000000  -4.460412e+001  1.101845e+002 
3903125000  -4.380447e+001  1.062605e+002 
3906250000  -4.377081e+001  1.034983e+002 
3909375000  -4.277800e+001  9.387130e+001 
3912500000  -4.388194e+001  8.242183e+001 
3915625000  -4.464753e+001  8.257868e+001 
3918750000  -4.495188e+001  8.020995e+001 
3921875000  -4.431958e+001  7.764132e+001 
3925000000  -4.293190e+001  7.117719e+001 
3928125000  -4.287170e+001  6.066455e+001 
3931250000  -4.374121e+001  5.308895e+001 
3934375000  -4.397750e+001  5.225974e+001 
3937500000  -4.477907e+001  4.808932e+001 
3940625000  -4.431268e+001  4.925759e+001 
3943750000  -4.357541e+001  4.281226e+001 
3946875000  -4.295233e+001  3.363603e+001 
3950000000  -4.420985e+001  2.325633e+001 
3953125000  -4.464922e+001  2.585193e+001 
3956250000  -4.356513e+001  2.421766e+001 
3959375000  -4.207228e+001  2.106395e+001 
3962500000  -4.183891e+001  6.658611e+000 
3965625000  -4.200518e+001  -1.943921e+000 
3968750000  -4.326683e+001  -1.100942e+001 
3971875000  -4.248452e+001  -1.693760e+001 
3975000000  -4.212408e+001  -1.876275e+001 
3978125000  -4.231630e+001  -2.726736e+001 
3981250000  -4.212696e+001  -3.343893e+001 
3984375000  -4.262652e+001  -4.113882e+001 
3987500000  -4.354894e+001  -4.744351e+001 
3990625000  -4.302986e+001  -5.076913e+001 
3993750000  -4.313216e+001  -5.720076e+001 
3996875000  -4.303102e+001  -6.349390e+001 
4000000000  -4.350167e+001  -6.543935e+001 
4003125000  -4.417410e+001  -7.015743e+001 
4006250000  -4.229107e+001  -7.251907e+001 
4009375000  -4.133458e+001  -8.959471e+001 
4012500000  -4.334609e+001  -9.766277e+001 
4015625000  -4.418211e+001  -9.950007e+001 
4018750000  -4.391301e+001  -1.016769e+002 
4021875000  -4.342075e+001  -1.077568e+002 
4025000000  -4.331876e+001  -1.169645e+002 
4028125000  -4.383885e+001  -1.243369e+002 
4031250000  -4.416650e+001  -1.316447e+002 
4034375000  -4.441103e+001  -1.292662e+002 
4037500000  -4.437726e+001  -1.349230e+002 
4040625000  -4.472664e+001  -1.429485e+002 
4043750000  -4.496775e+001  -1.447825e+002 
4046875000  -4.469456e+001  -1.492341e+002 
4050000000  -4.435003e+001  -1.585524e+002 
4053125000  -4.523572e+001  -1.603021e+002 
4056250000  -4.621286e+001  -1.590933e+002 
4059375000  -4.424950e+001  -1.588557e+002 
4062500000  -4.363820e+001  -1.706483e+002 
4065625000  -4.418993e+001  -1.769716e+002 
4068750000  -4.329646e+001  1.774252e+002 
4071875000  -4.316060e+001  1.652015e+002 
4075000000  -4.371292e+001  1.583730e+002 
4078125000  -4.402804e+001  1.548895e+002 
4081250000  -4.422475e+001  1.516570e+002 
4084375000  -4.386372e+001  1.443945e+002 
4087500000  -4.428468e+001  1.348593e+002 
4090625000  -4.521514e+001  1.333426e+002 
4093750000  -4.450253e+001  1.306275e+002 
4096875000  -4.433533e+001  1.222975e+002 
4100000000  -4.583405e+001  1.157610e+002 
4103125000  -4.657118e+001  1.197193e+002 
4106250000  -4.535487e+001  1.188876e+002 
4109375000  -4.501452e+001  1.159833e+002 
4112500000  -4.430249e+001  1.072862e+002 
4115625000  -4.466706e+001  9.932015e+001 
4118750000  -4.485479e+001  9.579708e+001 
4121875000  -4.403531e+001  8.768742e+001 
4125000000  -4.521901e+001  8.174623e+001 
4128125000  -4.516743e+001  8.403671e+001 
4131250000  -4.413433e+001  8.713332e+001 
4134375000  -4.196868e+001  7.533388e+001 
4137500000  -4.215779e+001  5.607038e+001 
4140625000  -4.451340e+001  4.802034e+001 
4143750000  -4.477542e+001  5.081228e+001 
4146875000  -4.433693e+001  5.511534e+001 
4150000000  -4.330343e+001  4.796696e+001 
4153125000  -4.374588e+001  3.514637e+001 
4156250000  -4.428796e+001  3.317260e+001 
4159375000  -4.385382e+001  3.684985e+001 
4162500000  -4.287948e+001  2.989897e+001 
4165625000  -4.232295e+001  2.445642e+001 
4168750000  -4.163955e+001  7.233566e+000 
4171875000  -4.133496e+001  2.251988e+000 
4175000000  -4.200624e+001  -7.914628e+000 
4178125000  -4.247843e+001  -8.971118e+000 
4181250000  -4.262125e+001  -1.741703e+001 
4184375000  -4.292069e+001  -2.366381e+001 
4187500000  -4.316367e+001  -3.242552e+001 
4190625000  -4.295166e+001  -4.060182e+001 
4193750000  -4.426028e+001  -4.614584e+001 
4196875000  -4.541755e+001  -4.751064e+001 
4200000000  -4.654009e+001  -4.319006e+001 
4203125000  -4.498864e+001  -3.141593e+001 
4206250000  -4.190085e+001  -4.151458e+001 
4209375000  -4.220031e+001  -6.852217e+001 
4212500000  -4.446787e+001  -7.024213e+001 
4215625000  -4.463363e+001  -6.666019e+001 
4218750000  -4.272222e+001  -6.630067e+001 
4221875000  -4.146526e+001  -7.912450e+001 
4225000000  -4.314624e+001  -9.047437e+001 
4228125000  -4.302100e+001  -8.797192e+001 
4231250000  -4.176689e+001  -9.799835e+001 
4234375000  -4.152900e+001  -1.057189e+002 
4237500000  -4.120466e+001  -1.121149e+002 
4240625000  -4.131977e+001  -1.231445e+002 
4243750000  -4.268752e+001  -1.347195e+002 
4246875000  -4.341901e+001  -1.332660e+002 
4250000000  -4.331205e+001  -1.334458e+002 
4253125000  -4.320289e+001  -1.350205e+002 
4256250000  -4.292865e+001  -1.414105e+002 
4259375000  -4.228855e+001  -1.488228e+002 
4262500000  -4.259825e+001  -1.529586e+002 
4265625000  -4.249944e+001  -1.553675e+002 
4268750000  -4.157388e+001  -1.614059e+002 
4271875000  -4.109948e+001  -1.747112e+002 
4275000000  -4.066426e+001  1.791559e+002 
4278125000  -4.196848e+001  1.626097e+002 
4281250000  -4.287428e+001  1.650042e+002 
4284375000  -4.265145e+001  1.613385e+002 
4287500000  -4.403067e+001  1.557941e+002 
4290625000  -4.444859e+001  1.617389e+002 
4293750000  -4.171693e+001  1.637974e+002 
4296875000  -4.050086e+001  1.473465e+002 
4300000000  -4.210472e+001  1.370760e+002 
4303125000  -4.244648e+001  1.385361e+002 
4306250000  -4.132679e+001  1.361911e+002 
4309375000  -4.026202e+001  1.278180e+002 
4312500000  -4.022674e+001  1.155049e+002 
4315625000  -4.069160e+001  1.044704e+002 
4318750000  -4.124618e+001  9.998678e+001 
4321875000  -4.125474e+001  9.843745e+001 
4325000000  -4.062710e+001  9.507149e+001 
4328125000  -3.976902e+001  8.292059e+001 
4331250000  -4.006965e+001  7.224431e+001 
4334375000  -4.134233e+001  6.186014e+001 
4337500000  -4.268629e+001  6.140613e+001 
4340625000  -4.248104e+001  6.423433e+001 
4343750000  -4.141036e+001  5.847623e+001 
4346875000  -4.167304e+001  4.879508e+001 
4350000000  -4.172665e+001  4.106960e+001 
4353125000  -4.246299e+001  3.066607e+001 
4356250000  -4.419944e+001  3.484350e+001 
4359375000  -4.375580e+001  4.690419e+001 
4362500000  -3.991113e+001  3.710214e+001 
4365625000  -3.962857e+001  1.814314e+001 
4368750000  -4.116457e+001  8.016130e+000 
4371875000  -4.191095e+001  8.071441e+000 
4375000000  -4.125660e+001  -7.664837e-002 
4378125000  -4.110479e+001  -7.110765e+000 
4381250000  -4.149826e+001  -1.575708e+001 
4384375000  -4.120512e+001  -2.242954e+001 
4387500000  -4.206663e+001  -2.998486e+001 
4390625000  -4.281331e+001  -3.080219e+001 
4393750000  -4.247564e+001  -3.519585e+001 
4396875000  -4.186650e+001  -3.779200e+001 
4400000000  -4.124068e+001  -4.697990e+001 
4403125000  -4.189571e+001  -5.772990e+001 
4406250000  -4.270006e+001  -5.991246e+001 
4409375000  -4.335419e+001  -6.560295e+001 
4412500000  -4.420232e+001  -6.978603e+001 
4415625000  -4.398181e+001  -6.407926e+001 
4418750000  -4.222306e+001  -6.552870e+001 
