!Agilent Technologies,E8363B,MY43030201,A.06.04.32
!Agilent E8363B: A.06.04.32
!Date: Tuesday, November 11, 2014 21:44:43
!Correction: S21(Response(S21)) 
!S1P File: Measurement: S21:
# Hz S  dB   R 50
3000000000  -4.375480e+001  -1.598565e+002 
3003125000  -4.513132e+001  -1.637794e+002 
3006250000  -4.522780e+001  -1.671551e+002 
3009375000  -4.600954e+001  -1.641196e+002 
3012500000  -4.478499e+001  -1.690574e+002 
3015625000  -4.490165e+001  -1.782868e+002 
3018750000  -4.536456e+001  -1.778718e+002 
3021875000  -4.409993e+001  -1.776498e+002 
3025000000  -4.247510e+001  1.774655e+002 
3028125000  -4.172405e+001  1.654808e+002 
3031250000  -4.081870e+001  1.531914e+002 
3034375000  -4.074461e+001  1.376989e+002 
3037500000  -4.157954e+001  1.280175e+002 
3040625000  -4.262555e+001  1.217293e+002 
3043750000  -4.363449e+001  1.145156e+002 
3046875000  -4.397623e+001  1.075518e+002 
3050000000  -4.513008e+001  1.017905e+002 
3053125000  -4.482809e+001  1.072811e+002 
3056250000  -4.469901e+001  1.093114e+002 
3059375000  -4.396139e+001  1.078806e+002 
3062500000  -4.272462e+001  1.005392e+002 
3065625000  -4.252232e+001  9.007562e+001 
3068750000  -4.169013e+001  8.134716e+001 
3071875000  -4.176382e+001  8.001828e+001 
3075000000  -4.124980e+001  7.227420e+001 
3078125000  -4.116356e+001  6.416036e+001 
3081250000  -4.154383e+001  5.774262e+001 
3084375000  -4.046655e+001  5.222973e+001 
3087500000  -4.051439e+001  4.354224e+001 
3090625000  -4.004267e+001  3.248388e+001 
3093750000  -4.111311e+001  2.306638e+001 
3096875000  -4.117994e+001  1.820282e+001 
3100000000  -4.115579e+001  1.351496e+001 
3103125000  -4.140326e+001  8.145772e+000 
3106250000  -4.099782e+001  2.004326e+000 
3109375000  -4.103557e+001  -3.629177e+000 
3112500000  -4.082220e+001  -9.498754e+000 
3115625000  -4.083499e+001  -1.518531e+001 
3118750000  -4.072793e+001  -2.042576e+001 
3121875000  -4.026582e+001  -3.353942e+001 
3125000000  -4.228447e+001  -3.628918e+001 
3128125000  -4.216096e+001  -3.105075e+001 
3131250000  -3.933424e+001  -3.779449e+001 
3134375000  -3.892069e+001  -5.615364e+001 
3137500000  -3.947779e+001  -6.890060e+001 
3140625000  -4.092710e+001  -7.229991e+001 
3143750000  -4.158094e+001  -7.890885e+001 
3146875000  -4.121004e+001  -7.530488e+001 
3150000000  -4.048994e+001  -8.155315e+001 
3153125000  -4.073592e+001  -9.104890e+001 
3156250000  -4.138529e+001  -8.796220e+001 
3159375000  -3.906128e+001  -9.163323e+001 
3162500000  -3.786031e+001  -1.087694e+002 
3165625000  -3.894783e+001  -1.213583e+002 
3168750000  -3.896965e+001  -1.232962e+002 
3171875000  -3.853628e+001  -1.324531e+002 
3175000000  -3.908727e+001  -1.420164e+002 
3178125000  -3.881495e+001  -1.450432e+002 
3181250000  -3.815928e+001  -1.524901e+002 
3184375000  -3.799030e+001  -1.655928e+002 
3187500000  -3.927818e+001  1.786174e+002 
3190625000  -4.083820e+001  1.703911e+002 
3193750000  -4.099512e+001  1.755584e+002 
3196875000  -4.109946e+001  1.753502e+002 
3200000000  -3.986184e+001  1.704638e+002 
3203125000  -3.964515e+001  1.601192e+002 
3206250000  -4.000603e+001  1.516812e+002 
3209375000  -3.950342e+001  1.438456e+002 
3212500000  -4.000083e+001  1.358244e+002 
3215625000  -3.988780e+001  1.341891e+002 
3218750000  -4.032595e+001  1.203099e+002 
3221875000  -4.072869e+001  1.139035e+002 
3225000000  -4.067974e+001  1.084647e+002 
3228125000  -4.108111e+001  1.012541e+002 
3231250000  -4.156709e+001  9.792015e+001 
3234375000  -4.119219e+001  9.596749e+001 
3237500000  -4.105565e+001  9.098246e+001 
3240625000  -4.044744e+001  8.403698e+001 
3243750000  -4.033312e+001  7.145584e+001 
3246875000  -4.074071e+001  6.378730e+001 
3250000000  -4.116723e+001  5.919902e+001 
3253125000  -4.126321e+001  5.547726e+001 
3256250000  -4.048968e+001  4.514665e+001 
3259375000  -4.082273e+001  3.136202e+001 
3262500000  -4.249385e+001  2.724184e+001 
3265625000  -4.255265e+001  2.789541e+001 
3268750000  -4.267459e+001  2.723957e+001 
3271875000  -4.176207e+001  2.188586e+001 
3275000000  -4.122352e+001  1.038279e+001 
3278125000  -4.167893e+001  4.201553e+000 
3281250000  -4.188714e+001  -6.926509e-001 
3284375000  -4.115528e+001  -7.489601e+000 
3287500000  -4.174794e+001  -1.517774e+001 
3290625000  -4.157865e+001  -2.618019e+001 
3293750000  -4.152590e+001  -3.351822e+001 
3296875000  -4.269854e+001  -3.731532e+001 
3300000000  -4.214031e+001  -4.039133e+001 
3303125000  -4.101748e+001  -4.996032e+001 
3306250000  -4.098500e+001  -5.895205e+001 
3309375000  -4.064714e+001  -7.078410e+001 
3312500000  -4.125048e+001  -8.518144e+001 
3315625000  -4.261356e+001  -9.432909e+001 
3318750000  -4.408130e+001  -1.011174e+002 
3321875000  -4.530872e+001  -1.001739e+002 
3325000000  -4.491224e+001  -9.526237e+001 
3328125000  -4.425242e+001  -9.736070e+001 
3331250000  -4.263191e+001  -9.893408e+001 
3334375000  -4.018533e+001  -1.165561e+002 
3337500000  -4.070835e+001  -1.409287e+002 
3340625000  -4.273091e+001  -1.500478e+002 
3343750000  -4.463017e+001  -1.531465e+002 
3346875000  -4.405196e+001  -1.558585e+002 
3350000000  -4.388272e+001  -1.611055e+002 
3353125000  -4.361391e+001  -1.705580e+002 
3356250000  -4.342151e+001  1.787973e+002 
3359375000  -4.423583e+001  1.664713e+002 
3362500000  -4.511490e+001  1.581991e+002 
3365625000  -4.560023e+001  1.540066e+002 
3368750000  -4.636135e+001  1.440891e+002 
3371875000  -4.714257e+001  1.393529e+002 
3375000000  -4.882864e+001  1.357660e+002 
3378125000  -4.982635e+001  1.366255e+002 
3381250000  -5.021658e+001  1.392274e+002 
3384375000  -4.723406e+001  1.516958e+002 
3387500000  -4.488226e+001  1.273183e+002 
3390625000  -4.692307e+001  1.043447e+002 
3393750000  -4.795352e+001  1.060200e+002 
3396875000  -4.689039e+001  1.008296e+002 
3400000000  -4.621291e+001  8.610709e+001 
3403125000  -4.683055e+001  7.912477e+001 
3406250000  -4.774210e+001  7.025845e+001 
3409375000  -4.726480e+001  6.024592e+001 
3412500000  -4.762424e+001  5.157854e+001 
3415625000  -4.967084e+001  4.535429e+001 
3418750000  -4.878620e+001  4.575569e+001 
3421875000  -4.972736e+001  4.059460e+001 
3425000000  -4.831269e+001  3.432593e+001 
3428125000  -4.736455e+001  2.539409e+001 
3431250000  -4.636800e+001  1.658453e+001 
3434375000  -4.700306e+001  5.450738e-001 
3437500000  -4.756576e+001  -4.608109e+000 
3440625000  -4.805814e+001  -7.794447e+000 
3443750000  -4.615913e+001  -1.118540e+001 
3446875000  -4.593745e+001  -2.489478e+001 
3450000000  -4.541310e+001  -4.457712e+001 
3453125000  -4.577769e+001  -6.002137e+001 
3456250000  -4.710279e+001  -7.015538e+001 
3459375000  -4.799792e+001  -7.105064e+001 
3462500000  -4.758894e+001  -7.690366e+001 
3465625000  -4.729437e+001  -9.039613e+001 
3468750000  -4.743430e+001  -9.629929e+001 
3471875000  -4.699755e+001  -1.028946e+002 
3475000000  -4.681654e+001  -1.134864e+002 
3478125000  -4.763690e+001  -1.297372e+002 
3481250000  -4.908620e+001  -1.304660e+002 
3484375000  -4.898563e+001  -1.349825e+002 
3487500000  -4.748421e+001  -1.436284e+002 
3490625000  -4.706570e+001  -1.526112e+002 
3493750000  -4.751315e+001  -1.652873e+002 
3496875000  -4.805520e+001  -1.645803e+002 
3500000000  -4.799748e+001  -1.703934e+002 
3503125000  -4.670165e+001  -1.757302e+002 
3506250000  -4.526331e+001  1.702840e+002 
3509375000  -4.572344e+001  1.510510e+002 
3512500000  -4.559011e+001  1.389354e+002 
3515625000  -4.733788e+001  1.327734e+002 
3518750000  -4.799542e+001  1.322120e+002 
3521875000  -4.744081e+001  1.206274e+002 
3525000000  -4.874255e+001  1.154579e+002 
3528125000  -4.733052e+001  1.184080e+002 
3531250000  -4.664023e+001  1.047084e+002 
3534375000  -4.659630e+001  8.791365e+001 
3537500000  -4.770180e+001  7.887736e+001 
3540625000  -4.846716e+001  7.687315e+001 
3543750000  -4.936355e+001  7.713108e+001 
3546875000  -4.855632e+001  8.403847e+001 
3550000000  -4.660535e+001  7.701938e+001 
3553125000  -4.632658e+001  5.396410e+001 
3556250000  -4.721465e+001  4.971806e+001 
3559375000  -4.685988e+001  4.186523e+001 
3562500000  -4.651775e+001  3.339008e+001 
3565625000  -4.783543e+001  2.438457e+001 
3568750000  -4.763694e+001  2.667086e+001 
3571875000  -4.732793e+001  1.855987e+001 
3575000000  -4.678685e+001  1.392921e+001 
3578125000  -4.799365e+001  6.885037e+000 
3581250000  -4.705422e+001  -6.733466e-001 
3584375000  -4.552521e+001  -3.124021e+000 
3587500000  -4.582097e+001  -1.431362e+001 
3590625000  -4.650501e+001  -2.332688e+001 
3593750000  -4.787487e+001  -2.397714e+001 
3596875000  -4.694630e+001  -1.755045e+001 
3600000000  -4.454644e+001  -3.186982e+001 
3603125000  -4.510538e+001  -4.531726e+001 
3606250000  -4.592104e+001  -5.179362e+001 
3609375000  -4.579919e+001  -5.498061e+001 
3612500000  -4.613868e+001  -6.471792e+001 
3615625000  -4.589135e+001  -6.911734e+001 
3618750000  -4.608377e+001  -7.012431e+001 
3621875000  -4.555991e+001  -7.532608e+001 
3625000000  -4.566143e+001  -8.190595e+001 
3628125000  -4.477635e+001  -8.494049e+001 
3631250000  -4.488945e+001  -9.534349e+001 
3634375000  -4.588852e+001  -9.898135e+001 
3637500000  -4.458421e+001  -9.880352e+001 
3640625000  -4.357427e+001  -1.069678e+002 
3643750000  -4.342019e+001  -1.163591e+002 
3646875000  -4.380155e+001  -1.293516e+002 
3650000000  -4.377889e+001  -1.331168e+002 
3653125000  -4.308457e+001  -1.408158e+002 
3656250000  -4.419975e+001  -1.463815e+002 
3659375000  -4.415637e+001  -1.510382e+002 
3662500000  -4.356147e+001  -1.572582e+002 
3665625000  -4.317846e+001  -1.627122e+002 
3668750000  -4.237211e+001  -1.677642e+002 
3671875000  -4.176965e+001  1.768344e+002 
3675000000  -4.220711e+001  1.680532e+002 
3678125000  -4.258397e+001  1.647407e+002 
3681250000  -4.245845e+001  1.584018e+002 
3684375000  -4.245222e+001  1.498898e+002 
3687500000  -4.284983e+001  1.401740e+002 
3690625000  -4.362975e+001  1.348483e+002 
3693750000  -4.457919e+001  1.344455e+002 
3696875000  -4.404445e+001  1.300966e+002 
3700000000  -4.320378e+001  1.233546e+002 
3703125000  -4.352963e+001  1.120060e+002 
3706250000  -4.481403e+001  1.114601e+002 
3709375000  -4.383792e+001  1.133576e+002 
3712500000  -4.295036e+001  1.055620e+002 
3715625000  -4.194941e+001  9.743948e+001 
3718750000  -4.179987e+001  8.650873e+001 
3721875000  -4.164703e+001  7.913884e+001 
3725000000  -4.244381e+001  7.104088e+001 
3728125000  -4.242934e+001  6.801982e+001 
3731250000  -4.167786e+001  6.094606e+001 
3734375000  -4.198924e+001  5.582867e+001 
3737500000  -4.282052e+001  4.340073e+001 
3740625000  -4.305874e+001  4.086186e+001 
3743750000  -4.304121e+001  3.113359e+001 
3746875000  -4.347964e+001  2.626745e+001 
3750000000  -4.355494e+001  2.455906e+001 
3753125000  -4.386936e+001  1.985380e+001 
3756250000  -4.373293e+001  1.678940e+001 
3759375000  -4.356621e+001  9.774652e+000 
3762500000  -4.341806e+001  5.656542e+000 
3765625000  -4.453991e+001  -2.236948e-001 
3768750000  -4.372453e+001  3.833367e+000 
3771875000  -4.224886e+001  -7.612528e+000 
3775000000  -4.223625e+001  -1.748954e+001 
3778125000  -4.282182e+001  -2.595258e+001 
3781250000  -4.279516e+001  -2.903112e+001 
3784375000  -4.271868e+001  -3.234579e+001 
3787500000  -4.216846e+001  -3.836811e+001 
3790625000  -4.305347e+001  -5.057182e+001 
3793750000  -4.291241e+001  -5.456593e+001 
3796875000  -4.147330e+001  -5.613921e+001 
3800000000  -4.071810e+001  -6.558472e+001 
3803125000  -4.165104e+001  -7.582330e+001 
3806250000  -4.238464e+001  -8.390948e+001 
3809375000  -4.185250e+001  -8.769561e+001 
3812500000  -4.177267e+001  -9.735487e+001 
3815625000  -4.315633e+001  -1.098758e+002 
3818750000  -4.445325e+001  -1.083412e+002 
3821875000  -4.363560e+001  -9.656420e+001 
3825000000  -4.107069e+001  -1.017182e+002 
3828125000  -4.054239e+001  -1.237532e+002 
3831250000  -4.166817e+001  -1.399832e+002 
3834375000  -4.379123e+001  -1.409935e+002 
3837500000  -4.372377e+001  -1.370878e+002 
3840625000  -4.240215e+001  -1.445204e+002 
3843750000  -4.158939e+001  -1.577316e+002 
3846875000  -4.372753e+001  -1.668612e+002 
3850000000  -4.378851e+001  -1.581730e+002 
3853125000  -4.334824e+001  -1.599715e+002 
3856250000  -4.343411e+001  -1.713062e+002 
3859375000  -4.234217e+001  -1.789450e+002 
3862500000  -4.214554e+001  1.699078e+002 
3865625000  -4.290048e+001  1.671997e+002 
3868750000  -4.222377e+001  1.631940e+002 
3871875000  -4.206918e+001  1.528569e+002 
3875000000  -4.278393e+001  1.437959e+002 
3878125000  -4.355272e+001  1.401458e+002 
3881250000  -4.334899e+001  1.407439e+002 
3884375000  -4.289977e+001  1.280121e+002 
3887500000  -4.348149e+001  1.213377e+002 
3890625000  -4.402373e+001  1.196437e+002 
3893750000  -4.442075e+001  1.172419e+002 
3896875000  -4.421590e+001  1.153411e+002 
3900000000  -4.423234e+001  1.099356e+002 
3903125000  -4.369816e+001  1.017978e+002 
3906250000  -4.337077e+001  9.900325e+001 
3909375000  -4.237690e+001  9.034934e+001 
3912500000  -4.373195e+001  7.961033e+001 
3915625000  -4.477577e+001  8.132874e+001 
3918750000  -4.423915e+001  7.803097e+001 
3921875000  -4.409487e+001  7.530613e+001 
3925000000  -4.314009e+001  6.876147e+001 
3928125000  -4.312063e+001  5.894871e+001 
3931250000  -4.342540e+001  4.792784e+001 
3934375000  -4.436842e+001  5.001894e+001 
3937500000  -4.496995e+001  4.490490e+001 
3940625000  -4.467830e+001  4.372088e+001 
3943750000  -4.323008e+001  3.922896e+001 
3946875000  -4.280503e+001  3.053201e+001 
3950000000  -4.377563e+001  2.154708e+001 
3953125000  -4.493027e+001  2.123963e+001 
3956250000  -4.327264e+001  2.046048e+001 
3959375000  -4.199429e+001  1.219896e+001 
3962500000  -4.165193e+001  6.634193e+000 
3965625000  -4.221281e+001  -6.043279e+000 
3968750000  -4.268655e+001  -1.473791e+001 
3971875000  -4.257222e+001  -1.810690e+001 
3975000000  -4.171154e+001  -2.467261e+001 
3978125000  -4.230091e+001  -3.049318e+001 
3981250000  -4.196488e+001  -3.833193e+001 
3984375000  -4.232852e+001  -4.772820e+001 
3987500000  -4.339249e+001  -5.172740e+001 
3990625000  -4.319074e+001  -5.639643e+001 
3993750000  -4.367049e+001  -5.937511e+001 
3996875000  -4.292379e+001  -6.704343e+001 
4000000000  -4.371269e+001  -7.087547e+001 
4003125000  -4.374985e+001  -7.237476e+001 
4006250000  -4.215261e+001  -7.589020e+001 
4009375000  -4.127251e+001  -9.375527e+001 
4012500000  -4.321179e+001  -1.033432e+002 
4015625000  -4.407595e+001  -1.015643e+002 
4018750000  -4.389729e+001  -1.056162e+002 
4021875000  -4.333433e+001  -1.155963e+002 
4025000000  -4.336895e+001  -1.198371e+002 
4028125000  -4.361077e+001  -1.289518e+002 
4031250000  -4.401713e+001  -1.343270e+002 
4034375000  -4.404678e+001  -1.369881e+002 
4037500000  -4.408755e+001  -1.396292e+002 
4040625000  -4.420950e+001  -1.428370e+002 
4043750000  -4.454656e+001  -1.518837e+002 
4046875000  -4.448941e+001  -1.546859e+002 
4050000000  -4.454585e+001  -1.629971e+002 
4053125000  -4.558847e+001  -1.629781e+002 
4056250000  -4.589771e+001  -1.648238e+002 
4059375000  -4.371636e+001  -1.645120e+002 
4062500000  -4.347658e+001  -1.728469e+002 
4065625000  -4.362262e+001  -1.799691e+002 
4068750000  -4.348000e+001  1.716715e+002 
4071875000  -4.308687e+001  1.629764e+002 
4075000000  -4.377687e+001  1.589585e+002 
4078125000  -4.412752e+001  1.532353e+002 
4081250000  -4.373347e+001  1.475921e+002 
4084375000  -4.408736e+001  1.344885e+002 
4087500000  -4.419474e+001  1.281303e+002 
4090625000  -4.502567e+001  1.271198e+002 
4093750000  -4.480012e+001  1.238162e+002 
4096875000  -4.444207e+001  1.197125e+002 
4100000000  -4.558575e+001  1.129630e+002 
4103125000  -4.585568e+001  1.160142e+002 
4106250000  -4.573411e+001  1.163544e+002 
4109375000  -4.388795e+001  1.103476e+002 
4112500000  -4.441899e+001  1.022413e+002 
4115625000  -4.462549e+001  9.697208e+001 
4118750000  -4.440553e+001  9.377554e+001 
4121875000  -4.391579e+001  8.622694e+001 
4125000000  -4.471281e+001  7.586266e+001 
4128125000  -4.551221e+001  7.975005e+001 
4131250000  -4.405232e+001  8.524589e+001 
4134375000  -4.210231e+001  7.286559e+001 
4137500000  -4.286402e+001  5.020811e+001 
4140625000  -4.492544e+001  4.391960e+001 
4143750000  -4.472985e+001  4.977977e+001 
4146875000  -4.408491e+001  5.265305e+001 
4150000000  -4.303049e+001  4.095805e+001 
4153125000  -4.361267e+001  3.336808e+001 
4156250000  -4.435623e+001  3.025362e+001 
4159375000  -4.368530e+001  2.976518e+001 
4162500000  -4.314815e+001  2.793730e+001 
4165625000  -4.149216e+001  1.853519e+001 
4168750000  -4.139728e+001  9.151404e+000 
4171875000  -4.163156e+001  -6.119385e+000 
4175000000  -4.207010e+001  -1.210986e+001 
4178125000  -4.248990e+001  -1.692583e+001 
4181250000  -4.257888e+001  -2.248415e+001 
4184375000  -4.293612e+001  -2.860546e+001 
4187500000  -4.269659e+001  -3.504159e+001 
4190625000  -4.313173e+001  -4.587213e+001 
4193750000  -4.447931e+001  -4.990404e+001 
4196875000  -4.507173e+001  -5.224821e+001 
4200000000  -4.607455e+001  -4.587519e+001 
4203125000  -4.487224e+001  -3.909274e+001 
4206250000  -4.134177e+001  -4.924664e+001 
4209375000  -4.143242e+001  -7.261887e+001 
4212500000  -4.404506e+001  -7.890018e+001 
4215625000  -4.443539e+001  -7.186672e+001 
4218750000  -4.309420e+001  -7.176708e+001 
4221875000  -4.160342e+001  -8.188663e+001 
4225000000  -4.262921e+001  -9.473505e+001 
4228125000  -4.243943e+001  -9.392969e+001 
4231250000  -4.085742e+001  -1.020410e+002 
4234375000  -4.121751e+001  -1.128170e+002 
4237500000  -4.121418e+001  -1.189001e+002 
4240625000  -4.137632e+001  -1.294440e+002 
4243750000  -4.278839e+001  -1.378449e+002 
4246875000  -4.320152e+001  -1.369576e+002 
4250000000  -4.344188e+001  -1.398283e+002 
4253125000  -4.292470e+001  -1.387422e+002 
4256250000  -4.316735e+001  -1.465930e+002 
4259375000  -4.252992e+001  -1.520384e+002 
4262500000  -4.248264e+001  -1.567910e+002 
4265625000  -4.209335e+001  -1.589464e+002 
4268750000  -4.114162e+001  -1.694900e+002 
4271875000  -4.079527e+001  -1.797135e+002 
4275000000  -4.078668e+001  1.736991e+002 
4278125000  -4.157670e+001  1.595585e+002 
4281250000  -4.258594e+001  1.620078e+002 
4284375000  -4.302473e+001  1.522605e+002 
4287500000  -4.399855e+001  1.508515e+002 
4290625000  -4.396520e+001  1.628020e+002 
4293750000  -4.217276e+001  1.571273e+002 
4296875000  -4.108709e+001  1.424252e+002 
4300000000  -4.215387e+001  1.326165e+002 
4303125000  -4.265495e+001  1.337892e+002 
4306250000  -4.107712e+001  1.349209e+002 
4309375000  -4.014531e+001  1.249361e+002 
4312500000  -3.993213e+001  1.116832e+002 
4315625000  -4.062781e+001  1.013055e+002 
4318750000  -4.118220e+001  9.563901e+001 
4321875000  -4.100347e+001  9.337579e+001 
4325000000  -4.049347e+001  9.047672e+001 
4328125000  -3.969155e+001  7.887215e+001 
4331250000  -4.022138e+001  6.554640e+001 
4334375000  -4.131375e+001  5.730425e+001 
4337500000  -4.222744e+001  5.616673e+001 
4340625000  -4.253141e+001  5.751036e+001 
4343750000  -4.167622e+001  5.550225e+001 
4346875000  -4.153918e+001  4.348364e+001 
4350000000  -4.131555e+001  3.379591e+001 
4353125000  -4.234450e+001  2.800582e+001 
4356250000  -4.452665e+001  2.983525e+001 
4359375000  -4.306506e+001  4.121419e+001 
4362500000  -3.958841e+001  3.404710e+001 
4365625000  -3.955235e+001  1.255263e+001 
4368750000  -4.074237e+001  1.495494e+000 
4371875000  -4.155504e+001  2.218227e+000 
4375000000  -4.128780e+001  -4.764796e+000 
4378125000  -4.120065e+001  -1.171933e+001 
4381250000  -4.091823e+001  -1.918320e+001 
4384375000  -4.141298e+001  -2.786769e+001 
4387500000  -4.179502e+001  -3.334582e+001 
4390625000  -4.264418e+001  -3.955660e+001 
4393750000  -4.224242e+001  -3.756978e+001 
4396875000  -4.166484e+001  -4.347747e+001 
4400000000  -4.123116e+001  -5.310585e+001 
4403125000  -4.233314e+001  -6.289460e+001 
4406250000  -4.297211e+001  -6.828722e+001 
4409375000  -4.307882e+001  -7.107819e+001 
4412500000  -4.397747e+001  -7.115906e+001 
4415625000  -4.371152e+001  -6.960193e+001 
4418750000  -4.224369e+001  -7.069728e+001 
