!Agilent Technologies,E8363B,MY43030201,A.06.04.32
!Agilent E8363B: A.06.04.32
!Date: Tuesday, November 11, 2014 21:45:46
!Correction: S21(Response(S21)) 
!S1P File: Measurement: S21:
# Hz S  dB   R 50
3000000000  -4.380224e+001  -1.617725e+002 
3003125000  -4.543828e+001  -1.666764e+002 
3006250000  -4.554684e+001  -1.663419e+002 
3009375000  -4.602674e+001  -1.645980e+002 
3012500000  -4.503501e+001  -1.710856e+002 
3015625000  -4.496880e+001  -1.776794e+002 
3018750000  -4.532870e+001  1.799986e+002 
3021875000  -4.382723e+001  -1.787265e+002 
3025000000  -4.273067e+001  1.779217e+002 
3028125000  -4.187909e+001  1.655851e+002 
3031250000  -4.080627e+001  1.528566e+002 
3034375000  -4.083966e+001  1.381157e+002 
3037500000  -4.166459e+001  1.274976e+002 
3040625000  -4.291611e+001  1.205723e+002 
3043750000  -4.331086e+001  1.145863e+002 
3046875000  -4.387009e+001  1.081810e+002 
3050000000  -4.531788e+001  1.029652e+002 
3053125000  -4.455867e+001  1.062175e+002 
3056250000  -4.480354e+001  1.094597e+002 
3059375000  -4.390216e+001  1.048201e+002 
3062500000  -4.246233e+001  1.019507e+002 
3065625000  -4.205874e+001  8.823021e+001 
3068750000  -4.164255e+001  8.150827e+001 
3071875000  -4.170473e+001  8.017020e+001 
3075000000  -4.139680e+001  7.141541e+001 
3078125000  -4.135752e+001  6.390391e+001 
3081250000  -4.104832e+001  5.778786e+001 
3084375000  -4.056424e+001  5.226449e+001 
3087500000  -4.059908e+001  4.471539e+001 
3090625000  -3.995729e+001  3.082714e+001 
3093750000  -4.104812e+001  2.250611e+001 
3096875000  -4.113531e+001  1.603258e+001 
3100000000  -4.106895e+001  1.247488e+001 
3103125000  -4.124955e+001  8.031788e+000 
3106250000  -4.108957e+001  2.175484e+000 
3109375000  -4.089933e+001  -2.583281e+000 
3112500000  -4.082831e+001  -1.031882e+001 
3115625000  -4.104520e+001  -1.607751e+001 
3118750000  -4.058771e+001  -1.948867e+001 
3121875000  -4.022390e+001  -3.247394e+001 
3125000000  -4.204446e+001  -3.654020e+001 
3128125000  -4.193466e+001  -3.059424e+001 
3131250000  -3.957145e+001  -3.886046e+001 
3134375000  -3.882894e+001  -5.576929e+001 
3137500000  -3.950464e+001  -6.947056e+001 
3140625000  -4.099054e+001  -7.339551e+001 
3143750000  -4.169349e+001  -7.794738e+001 
3146875000  -4.099499e+001  -7.694044e+001 
3150000000  -4.029057e+001  -8.120980e+001 
3153125000  -4.092688e+001  -8.995232e+001 
3156250000  -4.141836e+001  -8.879559e+001 
3159375000  -3.915508e+001  -9.195268e+001 
3162500000  -3.758095e+001  -1.082560e+002 
3165625000  -3.900845e+001  -1.216178e+002 
3168750000  -3.895070e+001  -1.233809e+002 
3171875000  -3.854456e+001  -1.324117e+002 
3175000000  -3.920824e+001  -1.431275e+002 
3178125000  -3.873152e+001  -1.452300e+002 
3181250000  -3.805212e+001  -1.548737e+002 
3184375000  -3.776069e+001  -1.664444e+002 
3187500000  -3.920484e+001  1.777004e+002 
3190625000  -4.085929e+001  1.708459e+002 
3193750000  -4.115901e+001  1.756816e+002 
3196875000  -4.099560e+001  1.750373e+002 
3200000000  -3.980752e+001  1.696506e+002 
3203125000  -3.966386e+001  1.602288e+002 
3206250000  -3.990220e+001  1.508153e+002 
3209375000  -3.951010e+001  1.430501e+002 
3212500000  -4.010530e+001  1.361606e+002 
3215625000  -3.952511e+001  1.335241e+002 
3218750000  -4.013760e+001  1.211418e+002 
3221875000  -4.058129e+001  1.141327e+002 
3225000000  -4.044691e+001  1.086041e+002 
3228125000  -4.113052e+001  1.004185e+002 
3231250000  -4.138529e+001  9.842149e+001 
3234375000  -4.118068e+001  9.487722e+001 
3237500000  -4.094670e+001  9.111516e+001 
3240625000  -4.031268e+001  8.380026e+001 
3243750000  -4.037636e+001  7.223293e+001 
3246875000  -4.066992e+001  6.341017e+001 
3250000000  -4.122760e+001  5.881201e+001 
3253125000  -4.093967e+001  5.355716e+001 
3256250000  -4.055459e+001  4.329763e+001 
3259375000  -4.105540e+001  3.268407e+001 
3262500000  -4.232248e+001  2.608931e+001 
3265625000  -4.253616e+001  2.618439e+001 
3268750000  -4.268622e+001  2.659454e+001 
3271875000  -4.156311e+001  2.101347e+001 
3275000000  -4.087804e+001  1.016457e+001 
3278125000  -4.172655e+001  5.083601e+000 
3281250000  -4.193208e+001  -9.237939e-003 
3284375000  -4.118391e+001  -9.004768e+000 
3287500000  -4.143677e+001  -1.793648e+001 
3290625000  -4.160036e+001  -2.692918e+001 
3293750000  -4.145834e+001  -3.212151e+001 
3296875000  -4.264825e+001  -3.725713e+001 
3300000000  -4.182181e+001  -4.092656e+001 
3303125000  -4.081867e+001  -5.044215e+001 
3306250000  -4.109163e+001  -5.998920e+001 
3309375000  -4.057425e+001  -7.156796e+001 
3312500000  -4.107688e+001  -8.656488e+001 
3315625000  -4.248443e+001  -9.444982e+001 
3318750000  -4.388199e+001  -1.002047e+002 
3321875000  -4.530093e+001  -9.933558e+001 
3325000000  -4.453183e+001  -9.608222e+001 
3328125000  -4.450554e+001  -9.710758e+001 
3331250000  -4.221664e+001  -9.756751e+001 
3334375000  -3.991349e+001  -1.174869e+002 
3337500000  -4.092919e+001  -1.405867e+002 
3340625000  -4.264932e+001  -1.503916e+002 
3343750000  -4.460191e+001  -1.534041e+002 
3346875000  -4.415150e+001  -1.567920e+002 
3350000000  -4.347057e+001  -1.622292e+002 
3353125000  -4.370937e+001  -1.697394e+002 
3356250000  -4.351566e+001  -1.796371e+002 
3359375000  -4.462002e+001  1.676773e+002 
3362500000  -4.494036e+001  1.575617e+002 
3365625000  -4.562504e+001  1.521211e+002 
3368750000  -4.658420e+001  1.475654e+002 
3371875000  -4.647899e+001  1.395802e+002 
3375000000  -4.883363e+001  1.356166e+002 
3378125000  -4.943439e+001  1.323170e+002 
3381250000  -5.126571e+001  1.422210e+002 
3384375000  -4.778318e+001  1.486947e+002 
3387500000  -4.499105e+001  1.300092e+002 
3390625000  -4.645054e+001  1.042440e+002 
3393750000  -4.776533e+001  1.048418e+002 
3396875000  -4.609085e+001  9.997940e+001 
3400000000  -4.605222e+001  8.941435e+001 
3403125000  -4.673371e+001  8.137802e+001 
3406250000  -4.769703e+001  7.341958e+001 
3409375000  -4.701347e+001  6.358414e+001 
3412500000  -4.817910e+001  5.350190e+001 
3415625000  -4.798606e+001  4.835684e+001 
3418750000  -4.833739e+001  4.424565e+001 
3421875000  -4.898563e+001  4.224855e+001 
3425000000  -4.780423e+001  3.572211e+001 
3428125000  -4.713823e+001  2.961130e+001 
3431250000  -4.728787e+001  1.612941e+001 
3434375000  -4.691290e+001  3.910537e+000 
3437500000  -4.744490e+001  -3.968081e+000 
3440625000  -4.777124e+001  -6.028534e+000 
3443750000  -4.661367e+001  -1.146165e+001 
3446875000  -4.592800e+001  -2.512031e+001 
3450000000  -4.506996e+001  -4.321602e+001 
3453125000  -4.600595e+001  -5.894246e+001 
3456250000  -4.726471e+001  -6.833354e+001 
3459375000  -4.799259e+001  -7.018188e+001 
3462500000  -4.793511e+001  -7.381319e+001 
3465625000  -4.712212e+001  -9.095163e+001 
3468750000  -4.758036e+001  -9.514696e+001 
3471875000  -4.683734e+001  -1.022146e+002 
3475000000  -4.706382e+001  -1.179177e+002 
3478125000  -4.757140e+001  -1.294371e+002 
3481250000  -4.877451e+001  -1.349702e+002 
3484375000  -4.905175e+001  -1.349555e+002 
3487500000  -4.740085e+001  -1.425272e+002 
3490625000  -4.724797e+001  -1.527914e+002 
3493750000  -4.749840e+001  -1.621431e+002 
3496875000  -4.813476e+001  -1.699511e+002 
3500000000  -4.845628e+001  -1.740676e+002 
3503125000  -4.690974e+001  -1.752818e+002 
3506250000  -4.521190e+001  1.725570e+002 
3509375000  -4.584622e+001  1.540670e+002 
3512500000  -4.627512e+001  1.399233e+002 
3515625000  -4.725629e+001  1.305316e+002 
3518750000  -4.770051e+001  1.311150e+002 
3521875000  -4.827008e+001  1.193785e+002 
3525000000  -4.816231e+001  1.146260e+002 
3528125000  -4.720178e+001  1.154394e+002 
3531250000  -4.688956e+001  1.046909e+002 
3534375000  -4.692462e+001  8.762088e+001 
3537500000  -4.737492e+001  8.059008e+001 
3540625000  -4.903849e+001  7.559896e+001 
3543750000  -4.938330e+001  8.008840e+001 
3546875000  -4.851709e+001  7.866142e+001 
3550000000  -4.631433e+001  7.196719e+001 
3553125000  -4.603429e+001  5.530817e+001 
3556250000  -4.765499e+001  4.799512e+001 
3559375000  -4.673249e+001  4.194745e+001 
3562500000  -4.662855e+001  3.236790e+001 
3565625000  -4.728247e+001  2.329465e+001 
3568750000  -4.772355e+001  2.320901e+001 
3571875000  -4.715444e+001  1.950597e+001 
3575000000  -4.728098e+001  1.180661e+001 
3578125000  -4.746102e+001  9.782389e+000 
3581250000  -4.737778e+001  2.826068e+000 
3584375000  -4.610234e+001  -5.961832e+000 
3587500000  -4.578585e+001  -1.154014e+001 
3590625000  -4.663539e+001  -2.508726e+001 
3593750000  -4.803196e+001  -2.776241e+001 
3596875000  -4.710832e+001  -1.895257e+001 
3600000000  -4.475971e+001  -3.220728e+001 
3603125000  -4.515616e+001  -4.969751e+001 
3606250000  -4.622849e+001  -5.334281e+001 
3609375000  -4.607238e+001  -5.753078e+001 
3612500000  -4.595645e+001  -6.324720e+001 
3615625000  -4.593680e+001  -6.987859e+001 
3618750000  -4.606226e+001  -6.837782e+001 
3621875000  -4.560394e+001  -7.698592e+001 
3625000000  -4.559219e+001  -8.176074e+001 
3628125000  -4.452195e+001  -8.849899e+001 
3631250000  -4.511345e+001  -9.766997e+001 
3634375000  -4.579036e+001  -9.813192e+001 
3637500000  -4.434338e+001  -9.872084e+001 
3640625000  -4.350731e+001  -1.060736e+002 
3643750000  -4.313798e+001  -1.195181e+002 
3646875000  -4.392156e+001  -1.299178e+002 
3650000000  -4.365138e+001  -1.334531e+002 
3653125000  -4.331492e+001  -1.419878e+002 
3656250000  -4.412613e+001  -1.495340e+002 
3659375000  -4.376582e+001  -1.539999e+002 
3662500000  -4.317104e+001  -1.591539e+002 
3665625000  -4.368265e+001  -1.628425e+002 
3668750000  -4.199584e+001  -1.666484e+002 
3671875000  -4.163015e+001  1.774628e+002 
3675000000  -4.206158e+001  1.679769e+002 
3678125000  -4.260231e+001  1.624070e+002 
3681250000  -4.229388e+001  1.578680e+002 
3684375000  -4.262231e+001  1.479026e+002 
3687500000  -4.296095e+001  1.405161e+002 
3690625000  -4.331712e+001  1.329015e+002 
3693750000  -4.428683e+001  1.318985e+002 
3696875000  -4.391292e+001  1.295320e+002 
3700000000  -4.289782e+001  1.223999e+002 
3703125000  -4.353977e+001  1.153171e+002 
3706250000  -4.431756e+001  1.106992e+002 
3709375000  -4.373458e+001  1.102092e+002 
3712500000  -4.299686e+001  1.060539e+002 
3715625000  -4.157145e+001  9.551327e+001 
3718750000  -4.177566e+001  8.545320e+001 
3721875000  -4.161446e+001  7.671593e+001 
3725000000  -4.228725e+001  6.779788e+001 
3728125000  -4.253790e+001  6.489044e+001 
3731250000  -4.162568e+001  5.874585e+001 
3734375000  -4.210231e+001  5.325208e+001 
3737500000  -4.248211e+001  4.334015e+001 
3740625000  -4.291887e+001  3.659679e+001 
3743750000  -4.244510e+001  3.106158e+001 
3746875000  -4.323333e+001  2.535711e+001 
3750000000  -4.363843e+001  1.979999e+001 
3753125000  -4.391740e+001  1.593617e+001 
3756250000  -4.369797e+001  1.477878e+001 
3759375000  -4.362810e+001  9.649430e+000 
3762500000  -4.336198e+001  5.612441e+000 
3765625000  -4.382853e+001  -5.573912e-001 
3768750000  -4.355032e+001  -1.304891e+000 
3771875000  -4.197851e+001  -7.819723e+000 
3775000000  -4.197377e+001  -2.101960e+001 
3778125000  -4.268974e+001  -2.495952e+001 
3781250000  -4.284943e+001  -3.213415e+001 
3784375000  -4.236111e+001  -3.522868e+001 
3787500000  -4.241204e+001  -4.161874e+001 
3790625000  -4.290440e+001  -5.031162e+001 
3793750000  -4.283229e+001  -5.298502e+001 
3796875000  -4.172196e+001  -5.984819e+001 
3800000000  -4.070025e+001  -6.634434e+001 
3803125000  -4.167545e+001  -7.802180e+001 
3806250000  -4.253153e+001  -8.268554e+001 
3809375000  -4.215717e+001  -8.971741e+001 
3812500000  -4.197890e+001  -9.992715e+001 
3815625000  -4.304363e+001  -1.099049e+002 
3818750000  -4.412369e+001  -1.095399e+002 
3821875000  -4.346836e+001  -9.648559e+001 
3825000000  -4.135117e+001  -1.040782e+002 
3828125000  -4.028248e+001  -1.252172e+002 
3831250000  -4.133808e+001  -1.425827e+002 
3834375000  -4.367147e+001  -1.403850e+002 
3837500000  -4.370846e+001  -1.381595e+002 
3840625000  -4.240132e+001  -1.440144e+002 
3843750000  -4.137047e+001  -1.577460e+002 
3846875000  -4.369672e+001  -1.671113e+002 
3850000000  -4.421707e+001  -1.601819e+002 
3853125000  -4.360332e+001  -1.642580e+002 
3856250000  -4.305816e+001  -1.688351e+002 
3859375000  -4.196325e+001  -1.790751e+002 
3862500000  -4.220074e+001  1.696631e+002 
3865625000  -4.272730e+001  1.616329e+002 
3868750000  -4.225859e+001  1.615323e+002 
3871875000  -4.174899e+001  1.520476e+002 
3875000000  -4.263920e+001  1.441993e+002 
3878125000  -4.298463e+001  1.409653e+002 
3881250000  -4.335800e+001  1.388971e+002 
3884375000  -4.266044e+001  1.284435e+002 
3887500000  -4.338623e+001  1.223096e+002 
3890625000  -4.392260e+001  1.187905e+002 
3893750000  -4.403887e+001  1.161595e+002 
3896875000  -4.422971e+001  1.123840e+002 
3900000000  -4.440385e+001  1.080572e+002 
3903125000  -4.388008e+001  1.015850e+002 
3906250000  -4.311352e+001  9.702835e+001 
3909375000  -4.286643e+001  8.975021e+001 
3912500000  -4.353160e+001  8.199142e+001 
3915625000  -4.460088e+001  8.046977e+001 
3918750000  -4.498724e+001  7.933844e+001 
3921875000  -4.360178e+001  7.323283e+001 
3925000000  -4.317551e+001  6.640023e+001 
3928125000  -4.273039e+001  5.581985e+001 
3931250000  -4.373820e+001  4.786422e+001 
3934375000  -4.395116e+001  4.754017e+001 
3937500000  -4.467662e+001  4.560535e+001 
3940625000  -4.444093e+001  4.462675e+001 
3943750000  -4.322464e+001  3.869009e+001 
3946875000  -4.284275e+001  2.920660e+001 
3950000000  -4.362718e+001  1.966009e+001 
3953125000  -4.406131e+001  2.130956e+001 
3956250000  -4.277240e+001  2.109729e+001 
3959375000  -4.160921e+001  1.657802e+001 
3962500000  -4.142355e+001  4.689488e+000 
3965625000  -4.196372e+001  -8.041094e+000 
3968750000  -4.248129e+001  -1.484671e+001 
3971875000  -4.270624e+001  -1.786432e+001 
3975000000  -4.172122e+001  -2.452918e+001 
3978125000  -4.227903e+001  -3.203210e+001 
3981250000  -4.163606e+001  -4.029268e+001 
3984375000  -4.238297e+001  -4.797543e+001 
3987500000  -4.297694e+001  -5.147649e+001 
3990625000  -4.283451e+001  -5.529375e+001 
3993750000  -4.299438e+001  -6.273695e+001 
3996875000  -4.290842e+001  -6.937919e+001 
4000000000  -4.341156e+001  -7.351873e+001 
4003125000  -4.376332e+001  -7.055067e+001 
4006250000  -4.189775e+001  -7.688280e+001 
4009375000  -4.124292e+001  -9.488846e+001 
4012500000  -4.304143e+001  -1.006855e+002 
4015625000  -4.405691e+001  -1.042037e+002 
4018750000  -4.341689e+001  -1.065781e+002 
4021875000  -4.294110e+001  -1.138408e+002 
4025000000  -4.321719e+001  -1.197213e+002 
4028125000  -4.373176e+001  -1.293206e+002 
4031250000  -4.374253e+001  -1.339308e+002 
4034375000  -4.386889e+001  -1.385229e+002 
4037500000  -4.430602e+001  -1.430272e+002 
4040625000  -4.411096e+001  -1.468516e+002 
4043750000  -4.441700e+001  -1.510171e+002 
4046875000  -4.451753e+001  -1.565475e+002 
4050000000  -4.387785e+001  -1.619900e+002 
4053125000  -4.518880e+001  -1.642190e+002 
4056250000  -4.583362e+001  -1.637561e+002 
4059375000  -4.354900e+001  -1.648463e+002 
4062500000  -4.317627e+001  -1.735150e+002 
4065625000  -4.316816e+001  -1.779440e+002 
4068750000  -4.241896e+001  1.728549e+002 
4071875000  -4.221861e+001  1.611401e+002 
4075000000  -4.347136e+001  1.548075e+002 
4078125000  -4.383603e+001  1.498236e+002 
4081250000  -4.336719e+001  1.442955e+002 
4084375000  -4.324950e+001  1.355499e+002 
4087500000  -4.399937e+001  1.293055e+002 
4090625000  -4.499069e+001  1.267612e+002 
4093750000  -4.450728e+001  1.243487e+002 
4096875000  -4.425872e+001  1.189476e+002 
4100000000  -4.492686e+001  1.105191e+002 
4103125000  -4.562725e+001  1.144196e+002 
4106250000  -4.565735e+001  1.152367e+002 
4109375000  -4.439360e+001  1.101399e+002 
4112500000  -4.405379e+001  1.004096e+002 
4115625000  -4.391374e+001  9.371992e+001 
4118750000  -4.366951e+001  9.027010e+001 
4121875000  -4.359053e+001  8.402138e+001 
4125000000  -4.446676e+001  7.736207e+001 
4128125000  -4.506272e+001  7.851391e+001 
4131250000  -4.322867e+001  8.390423e+001 
4134375000  -4.155247e+001  7.003127e+001 
4137500000  -4.195081e+001  5.124657e+001 
4140625000  -4.432294e+001  4.184173e+001 
4143750000  -4.490343e+001  5.067965e+001 
4146875000  -4.324490e+001  5.143124e+001 
4150000000  -4.294727e+001  4.210971e+001 
4153125000  -4.330019e+001  3.129727e+001 
4156250000  -4.427456e+001  2.740111e+001 
4159375000  -4.367507e+001  2.819327e+001 
4162500000  -4.227687e+001  2.620496e+001 
4165625000  -4.129401e+001  1.568405e+001 
4168750000  -4.107470e+001  6.159720e+000 
4171875000  -4.069531e+001  -5.358416e+000 
4175000000  -4.232058e+001  -1.240668e+001 
4178125000  -4.243367e+001  -1.754551e+001 
4181250000  -4.200530e+001  -2.406239e+001 
4184375000  -4.249494e+001  -2.993648e+001 
4187500000  -4.255415e+001  -3.702531e+001 
4190625000  -4.273654e+001  -4.616800e+001 
4193750000  -4.417207e+001  -5.037028e+001 
4196875000  -4.492374e+001  -5.313701e+001 
4200000000  -4.559169e+001  -4.659367e+001 
4203125000  -4.416751e+001  -3.632130e+001 
4206250000  -4.125135e+001  -4.759357e+001 
4209375000  -4.109708e+001  -7.259599e+001 
4212500000  -4.403461e+001  -7.994002e+001 
4215625000  -4.413741e+001  -7.493481e+001 
4218750000  -4.249582e+001  -7.614252e+001 
4221875000  -4.070823e+001  -8.187118e+001 
4225000000  -4.247413e+001  -9.597147e+001 
4228125000  -4.215101e+001  -9.513091e+001 
4231250000  -4.080633e+001  -1.021936e+002 
4234375000  -4.090020e+001  -1.133775e+002 
4237500000  -4.089500e+001  -1.187334e+002 
4240625000  -4.120781e+001  -1.291440e+002 
4243750000  -4.264139e+001  -1.390717e+002 
4246875000  -4.286747e+001  -1.406936e+002 
4250000000  -4.259416e+001  -1.374924e+002 
4253125000  -4.233551e+001  -1.434484e+002 
4256250000  -4.291419e+001  -1.489483e+002 
4259375000  -4.187033e+001  -1.562648e+002 
4262500000  -4.221470e+001  -1.592788e+002 
4265625000  -4.214753e+001  -1.598616e+002 
4268750000  -4.086759e+001  -1.712817e+002 
4271875000  -4.074858e+001  1.794161e+002 
4275000000  -4.030036e+001  1.705385e+002 
4278125000  -4.153535e+001  1.579459e+002 
4281250000  -4.268355e+001  1.564686e+002 
4284375000  -4.240223e+001  1.536514e+002 
4287500000  -4.372601e+001  1.498585e+002 
4290625000  -4.383876e+001  1.571299e+002 
4293750000  -4.162285e+001  1.545509e+002 
4296875000  -4.026762e+001  1.409593e+002 
4300000000  -4.124035e+001  1.304205e+002 
4303125000  -4.187453e+001  1.331019e+002 
4306250000  -4.075172e+001  1.306337e+002 
4309375000  -3.987586e+001  1.198743e+002 
4312500000  -3.959240e+001  1.097543e+002 
4315625000  -4.014796e+001  9.907792e+001 
4318750000  -4.063634e+001  9.479541e+001 
4321875000  -4.056326e+001  9.144789e+001 
4325000000  -3.980595e+001  8.881859e+001 
4328125000  -3.932481e+001  7.775237e+001 
4331250000  -3.965574e+001  6.370195e+001 
4334375000  -4.057085e+001  5.510923e+001 
4337500000  -4.190485e+001  5.521347e+001 
4340625000  -4.247329e+001  5.474223e+001 
4343750000  -4.068249e+001  5.251999e+001 
4346875000  -4.102206e+001  4.389962e+001 
4350000000  -4.090324e+001  3.269650e+001 
4353125000  -4.167688e+001  2.399924e+001 
4356250000  -4.402346e+001  2.754241e+001 
4359375000  -4.270968e+001  3.810832e+001 
4362500000  -3.930952e+001  3.006823e+001 
4365625000  -3.894899e+001  1.248781e+001 
4368750000  -4.034411e+001  -1.732995e+000 
4371875000  -4.089609e+001  -1.671654e+000 
4375000000  -4.063689e+001  -5.971375e+000 
4378125000  -4.037065e+001  -1.235615e+001 
4381250000  -4.067137e+001  -2.264504e+001 
4384375000  -4.079802e+001  -2.988613e+001 
4387500000  -4.137593e+001  -3.481220e+001 
4390625000  -4.194769e+001  -4.065101e+001 
4393750000  -4.180853e+001  -4.168534e+001 
4396875000  -4.124676e+001  -4.482280e+001 
4400000000  -4.084932e+001  -5.438282e+001 
4403125000  -4.149914e+001  -6.673814e+001 
4406250000  -4.222855e+001  -6.882719e+001 
4409375000  -4.232306e+001  -7.591775e+001 
4412500000  -4.358098e+001  -7.595351e+001 
4415625000  -4.319190e+001  -7.208556e+001 
4418750000  -4.166611e+001  -7.459237e+001 
