!Agilent Technologies,E8363B,MY43030201,A.06.04.32
!Agilent E8363B: A.06.04.32
!Date: Tuesday, November 11, 2014 21:47:26
!Correction: S21(Response(S21)) 
!S1P File: Measurement: S21:
# Hz S  dB   R 50
3000000000  -4.360479e+001  -1.607563e+002 
3003125000  -4.522162e+001  -1.657131e+002 
3006250000  -4.517340e+001  -1.675742e+002 
3009375000  -4.597058e+001  -1.661476e+002 
3012500000  -4.484855e+001  -1.705005e+002 
3015625000  -4.491479e+001  -1.782208e+002 
3018750000  -4.508085e+001  -1.793349e+002 
3021875000  -4.374819e+001  -1.792050e+002 
3025000000  -4.248350e+001  1.758335e+002 
3028125000  -4.163031e+001  1.632668e+002 
3031250000  -4.098402e+001  1.518620e+002 
3034375000  -4.093285e+001  1.373402e+002 
3037500000  -4.161430e+001  1.263913e+002 
3040625000  -4.307426e+001  1.191432e+002 
3043750000  -4.331016e+001  1.124380e+002 
3046875000  -4.409382e+001  1.062085e+002 
3050000000  -4.500709e+001  1.017486e+002 
3053125000  -4.469278e+001  1.058196e+002 
3056250000  -4.504588e+001  1.076284e+002 
3059375000  -4.429452e+001  1.043644e+002 
3062500000  -4.245526e+001  1.001640e+002 
3065625000  -4.193353e+001  8.962374e+001 
3068750000  -4.197992e+001  8.148742e+001 
3071875000  -4.169566e+001  7.707593e+001 
3075000000  -4.112601e+001  6.972915e+001 
3078125000  -4.134559e+001  6.392394e+001 
3081250000  -4.144450e+001  5.667119e+001 
3084375000  -4.046300e+001  5.145407e+001 
3087500000  -4.055301e+001  4.472943e+001 
3090625000  -4.002518e+001  3.011086e+001 
3093750000  -4.106734e+001  2.189573e+001 
3096875000  -4.111998e+001  1.547358e+001 
3100000000  -4.124380e+001  1.212259e+001 
3103125000  -4.141698e+001  7.173503e+000 
3106250000  -4.096502e+001  1.337980e+000 
3109375000  -4.094141e+001  -3.432578e+000 
3112500000  -4.077566e+001  -1.097262e+001 
3115625000  -4.082426e+001  -1.566544e+001 
3118750000  -4.064662e+001  -2.234100e+001 
3121875000  -4.017972e+001  -3.367142e+001 
3125000000  -4.224114e+001  -3.710971e+001 
3128125000  -4.201163e+001  -3.151243e+001 
3131250000  -3.952665e+001  -3.946207e+001 
3134375000  -3.882750e+001  -5.676881e+001 
3137500000  -3.960025e+001  -6.944517e+001 
3140625000  -4.100124e+001  -7.447486e+001 
3143750000  -4.143817e+001  -7.919822e+001 
3146875000  -4.115164e+001  -7.681846e+001 
3150000000  -4.038152e+001  -8.309324e+001 
3153125000  -4.060809e+001  -9.231071e+001 
3156250000  -4.119339e+001  -8.833886e+001 
3159375000  -3.918656e+001  -9.256254e+001 
3162500000  -3.779222e+001  -1.083085e+002 
3165625000  -3.895737e+001  -1.231388e+002 
3168750000  -3.902376e+001  -1.243296e+002 
3171875000  -3.855953e+001  -1.322941e+002 
3175000000  -3.914240e+001  -1.431137e+002 
3178125000  -3.866121e+001  -1.450089e+002 
3181250000  -3.805788e+001  -1.542175e+002 
3184375000  -3.780421e+001  -1.671173e+002 
3187500000  -3.921327e+001  1.766680e+002 
3190625000  -4.090384e+001  1.729444e+002 
3193750000  -4.120829e+001  1.742293e+002 
3196875000  -4.133331e+001  1.746188e+002 
3200000000  -3.985529e+001  1.689579e+002 
3203125000  -3.962367e+001  1.593858e+002 
3206250000  -3.984416e+001  1.525876e+002 
3209375000  -3.955545e+001  1.425578e+002 
3212500000  -3.987042e+001  1.363534e+002 
3215625000  -3.956763e+001  1.339228e+002 
3218750000  -4.044207e+001  1.198871e+002 
3221875000  -4.057071e+001  1.116596e+002 
3225000000  -4.063082e+001  1.086154e+002 
3228125000  -4.111431e+001  1.005916e+002 
3231250000  -4.126605e+001  9.740206e+001 
3234375000  -4.099516e+001  9.415655e+001 
3237500000  -4.099945e+001  8.874902e+001 
3240625000  -4.058947e+001  8.385129e+001 
3243750000  -4.030748e+001  7.056138e+001 
3246875000  -4.068605e+001  6.310566e+001 
3250000000  -4.103539e+001  5.898863e+001 
3253125000  -4.095373e+001  5.417465e+001 
3256250000  -4.049532e+001  4.498577e+001 
3259375000  -4.081114e+001  3.103827e+001 
3262500000  -4.221901e+001  2.622629e+001 
3265625000  -4.253499e+001  2.771574e+001 
3268750000  -4.261985e+001  2.614026e+001 
3271875000  -4.158010e+001  1.998467e+001 
3275000000  -4.120210e+001  9.376122e+000 
3278125000  -4.180816e+001  4.004777e+000 
3281250000  -4.196811e+001  -1.965207e+000 
3284375000  -4.099669e+001  -8.008700e+000 
3287500000  -4.150031e+001  -1.500300e+001 
3290625000  -4.152204e+001  -2.564600e+001 
3293750000  -4.139463e+001  -3.533147e+001 
3296875000  -4.261655e+001  -4.003679e+001 
3300000000  -4.217727e+001  -3.999020e+001 
3303125000  -4.119720e+001  -4.960083e+001 
3306250000  -4.076123e+001  -6.047646e+001 
3309375000  -4.061491e+001  -7.160882e+001 
3312500000  -4.096951e+001  -8.648433e+001 
3315625000  -4.260057e+001  -9.417346e+001 
3318750000  -4.393670e+001  -1.008238e+002 
3321875000  -4.532021e+001  -1.013449e+002 
3325000000  -4.547346e+001  -9.436507e+001 
3328125000  -4.434809e+001  -1.007530e+002 
3331250000  -4.231627e+001  -9.656804e+001 
3334375000  -4.033248e+001  -1.188553e+002 
3337500000  -4.091814e+001  -1.409675e+002 
3340625000  -4.289679e+001  -1.514930e+002 
3343750000  -4.454676e+001  -1.540618e+002 
3346875000  -4.422811e+001  -1.569540e+002 
3350000000  -4.372720e+001  -1.621015e+002 
3353125000  -4.354663e+001  -1.724668e+002 
3356250000  -4.335577e+001  1.784861e+002 
3359375000  -4.420012e+001  1.643919e+002 
3362500000  -4.521888e+001  1.582912e+002 
3365625000  -4.571373e+001  1.522217e+002 
3368750000  -4.621683e+001  1.464416e+002 
3371875000  -4.668865e+001  1.399707e+002 
3375000000  -4.809982e+001  1.338041e+002 
3378125000  -4.944737e+001  1.313607e+002 
3381250000  -5.079225e+001  1.439798e+002 
3384375000  -4.730838e+001  1.533360e+002 
3387500000  -4.474385e+001  1.286126e+002 
3390625000  -4.695245e+001  1.053066e+002 
3393750000  -4.841480e+001  1.056803e+002 
3396875000  -4.632180e+001  9.944711e+001 
3400000000  -4.557828e+001  8.819695e+001 
3403125000  -4.685710e+001  7.884991e+001 
3406250000  -4.770085e+001  6.751749e+001 
3409375000  -4.776636e+001  5.651506e+001 
3412500000  -4.850467e+001  5.264686e+001 
3415625000  -4.877544e+001  4.812931e+001 
3418750000  -4.865012e+001  4.526596e+001 
3421875000  -4.958106e+001  3.978363e+001 
3425000000  -4.786657e+001  3.609382e+001 
3428125000  -4.730975e+001  2.597963e+001 
3431250000  -4.685010e+001  1.523969e+001 
3434375000  -4.704237e+001  3.620902e+000 
3437500000  -4.768755e+001  -4.158344e+000 
3440625000  -4.773727e+001  -1.038274e+001 
3443750000  -4.632547e+001  -1.547627e+001 
3446875000  -4.585820e+001  -2.964390e+001 
3450000000  -4.531175e+001  -4.178571e+001 
3453125000  -4.539934e+001  -5.859673e+001 
3456250000  -4.735275e+001  -6.972983e+001 
3459375000  -4.807704e+001  -7.225481e+001 
3462500000  -4.739699e+001  -7.803523e+001 
3465625000  -4.717708e+001  -8.966813e+001 
3468750000  -4.739553e+001  -9.554543e+001 
3471875000  -4.691209e+001  -1.058974e+002 
3475000000  -4.728601e+001  -1.158265e+002 
3478125000  -4.771042e+001  -1.303141e+002 
3481250000  -4.880402e+001  -1.357157e+002 
3484375000  -4.864587e+001  -1.332178e+002 
3487500000  -4.763754e+001  -1.443806e+002 
3490625000  -4.705006e+001  -1.523542e+002 
3493750000  -4.789347e+001  -1.672936e+002 
3496875000  -4.836123e+001  -1.687904e+002 
3500000000  -4.825785e+001  -1.708140e+002 
3503125000  -4.737081e+001  -1.732011e+002 
3506250000  -4.562564e+001  1.703952e+002 
3509375000  -4.566836e+001  1.516566e+002 
3512500000  -4.605451e+001  1.391153e+002 
3515625000  -4.741100e+001  1.328102e+002 
3518750000  -4.799155e+001  1.298869e+002 
3521875000  -4.836090e+001  1.158123e+002 
3525000000  -4.900101e+001  1.139162e+002 
3528125000  -4.730935e+001  1.214320e+002 
3531250000  -4.654482e+001  1.063884e+002 
3534375000  -4.729464e+001  8.644869e+001 
3537500000  -4.766689e+001  7.668899e+001 
3540625000  -4.866301e+001  7.511167e+001 
3543750000  -4.923972e+001  7.991534e+001 
3546875000  -4.874918e+001  8.374557e+001 
3550000000  -4.640612e+001  7.214709e+001 
3553125000  -4.587035e+001  5.101725e+001 
3556250000  -4.729253e+001  4.505880e+001 
3559375000  -4.655286e+001  4.013216e+001 
3562500000  -4.663601e+001  3.356685e+001 
3565625000  -4.758725e+001  2.253681e+001 
3568750000  -4.764747e+001  2.351945e+001 
3571875000  -4.716368e+001  1.985296e+001 
3575000000  -4.694672e+001  1.185225e+001 
3578125000  -4.769727e+001  7.856043e+000 
3581250000  -4.771145e+001  3.301378e+000 
3584375000  -4.638685e+001  -4.192989e+000 
3587500000  -4.546989e+001  -1.492985e+001 
3590625000  -4.640734e+001  -2.159522e+001 
3593750000  -4.738824e+001  -2.603507e+001 
3596875000  -4.677290e+001  -2.324345e+001 
3600000000  -4.452936e+001  -3.273388e+001 
3603125000  -4.475837e+001  -4.885315e+001 
3606250000  -4.623794e+001  -5.565696e+001 
3609375000  -4.621072e+001  -5.725511e+001 
3612500000  -4.613002e+001  -6.505145e+001 
3615625000  -4.627201e+001  -6.682851e+001 
3618750000  -4.585460e+001  -7.077663e+001 
3621875000  -4.540111e+001  -7.773586e+001 
3625000000  -4.571605e+001  -8.579615e+001 
3628125000  -4.472503e+001  -8.893578e+001 
3631250000  -4.490404e+001  -9.811161e+001 
3634375000  -4.533925e+001  -1.000002e+002 
3637500000  -4.454406e+001  -9.810040e+001 
3640625000  -4.387759e+001  -1.060330e+002 
3643750000  -4.333458e+001  -1.194681e+002 
3646875000  -4.382034e+001  -1.279523e+002 
3650000000  -4.362978e+001  -1.343104e+002 
3653125000  -4.325023e+001  -1.427249e+002 
3656250000  -4.389318e+001  -1.470617e+002 
3659375000  -4.389573e+001  -1.532081e+002 
3662500000  -4.343522e+001  -1.595119e+002 
3665625000  -4.335486e+001  -1.639440e+002 
3668750000  -4.209426e+001  -1.694244e+002 
3671875000  -4.155059e+001  1.780074e+002 
3675000000  -4.219355e+001  1.673705e+002 
3678125000  -4.241443e+001  1.625432e+002 
3681250000  -4.212478e+001  1.555387e+002 
3684375000  -4.265837e+001  1.486965e+002 
3687500000  -4.299974e+001  1.400160e+002 
3690625000  -4.376596e+001  1.347598e+002 
3693750000  -4.398352e+001  1.333143e+002 
3696875000  -4.340046e+001  1.295312e+002 
3700000000  -4.302916e+001  1.203628e+002 
3703125000  -4.370990e+001  1.105832e+002 
3706250000  -4.455989e+001  1.091383e+002 
3709375000  -4.394653e+001  1.106808e+002 
3712500000  -4.285810e+001  1.058239e+002 
3715625000  -4.165303e+001  9.714621e+001 
3718750000  -4.186072e+001  8.503598e+001 
3721875000  -4.170677e+001  7.632801e+001 
3725000000  -4.230775e+001  6.839092e+001 
3728125000  -4.238131e+001  6.613254e+001 
3731250000  -4.167310e+001  5.851748e+001 
3734375000  -4.175933e+001  5.285496e+001 
3737500000  -4.275610e+001  4.308620e+001 
3740625000  -4.321205e+001  3.569213e+001 
3743750000  -4.293393e+001  2.977791e+001 
3746875000  -4.344313e+001  2.285467e+001 
3750000000  -4.371914e+001  2.021727e+001 
3753125000  -4.376781e+001  1.654205e+001 
3756250000  -4.394566e+001  1.422766e+001 
3759375000  -4.346909e+001  7.531463e+000 
3762500000  -4.378977e+001  3.267300e+000 
3765625000  -4.382198e+001  -1.024639e+000 
3768750000  -4.331146e+001  -1.341962e+000 
3771875000  -4.213087e+001  -6.631935e+000 
3775000000  -4.250682e+001  -1.940441e+001 
3778125000  -4.268605e+001  -2.731517e+001 
3781250000  -4.268774e+001  -2.962177e+001 
3784375000  -4.248681e+001  -3.636452e+001 
3787500000  -4.223801e+001  -4.445701e+001 
3790625000  -4.283801e+001  -5.215956e+001 
3793750000  -4.254870e+001  -5.465770e+001 
3796875000  -4.168338e+001  -5.969266e+001 
3800000000  -4.073247e+001  -6.867088e+001 
3803125000  -4.181714e+001  -8.015668e+001 
3806250000  -4.226081e+001  -8.493848e+001 
3809375000  -4.157204e+001  -8.970069e+001 
3812500000  -4.173629e+001  -9.948769e+001 
3815625000  -4.284417e+001  -1.109206e+002 
3818750000  -4.408914e+001  -1.080383e+002 
3821875000  -4.335578e+001  -9.755732e+001 
3825000000  -4.118774e+001  -1.043411e+002 
3828125000  -4.042292e+001  -1.246493e+002 
3831250000  -4.165305e+001  -1.427729e+002 
3834375000  -4.384917e+001  -1.402559e+002 
3837500000  -4.401607e+001  -1.385030e+002 
3840625000  -4.268033e+001  -1.456559e+002 
3843750000  -4.142545e+001  -1.613236e+002 
3846875000  -4.326792e+001  -1.650475e+002 
3850000000  -4.398100e+001  -1.591098e+002 
3853125000  -4.340297e+001  -1.647607e+002 
3856250000  -4.329281e+001  -1.709901e+002 
3859375000  -4.193052e+001  1.785878e+002 
3862500000  -4.206075e+001  1.695646e+002 
3865625000  -4.266117e+001  1.635000e+002 
3868750000  -4.234223e+001  1.628215e+002 
3871875000  -4.209111e+001  1.526686e+002 
3875000000  -4.249799e+001  1.426541e+002 
3878125000  -4.328061e+001  1.401346e+002 
3881250000  -4.319162e+001  1.386979e+002 
3884375000  -4.242929e+001  1.256590e+002 
3887500000  -4.310291e+001  1.218553e+002 
3890625000  -4.401443e+001  1.151647e+002 
3893750000  -4.416665e+001  1.155804e+002 
3896875000  -4.429381e+001  1.149302e+002 
3900000000  -4.412378e+001  1.065205e+002 
3903125000  -4.355467e+001  1.002582e+002 
3906250000  -4.356719e+001  9.685928e+001 
3909375000  -4.267016e+001  8.816544e+001 
3912500000  -4.400584e+001  7.909278e+001 
3915625000  -4.442612e+001  7.815550e+001 
3918750000  -4.463531e+001  7.482381e+001 
3921875000  -4.379363e+001  7.080692e+001 
3925000000  -4.326262e+001  6.691531e+001 
3928125000  -4.295246e+001  5.738262e+001 
3931250000  -4.375061e+001  4.985620e+001 
3934375000  -4.381041e+001  4.463209e+001 
3937500000  -4.437654e+001  4.269406e+001 
3940625000  -4.443792e+001  4.321649e+001 
3943750000  -4.319201e+001  3.762008e+001 
3946875000  -4.284921e+001  3.016435e+001 
3950000000  -4.386359e+001  1.924519e+001 
3953125000  -4.473898e+001  2.157588e+001 
3956250000  -4.281295e+001  2.104274e+001 
3959375000  -4.204831e+001  1.115860e+001 
3962500000  -4.148597e+001  3.312540e+000 
3965625000  -4.162592e+001  -8.921582e+000 
3968750000  -4.255830e+001  -1.680202e+001 
3971875000  -4.252293e+001  -2.188164e+001 
3975000000  -4.199770e+001  -2.340652e+001 
3978125000  -4.209406e+001  -3.178604e+001 
3981250000  -4.189736e+001  -3.991857e+001 
3984375000  -4.223835e+001  -4.933134e+001 
3987500000  -4.275319e+001  -5.340358e+001 
3990625000  -4.326769e+001  -5.574035e+001 
3993750000  -4.298618e+001  -6.016294e+001 
3996875000  -4.280309e+001  -6.814366e+001 
4000000000  -4.378004e+001  -7.196985e+001 
4003125000  -4.376608e+001  -7.453315e+001 
4006250000  -4.222089e+001  -7.638049e+001 
4009375000  -4.151236e+001  -9.357824e+001 
4012500000  -4.322300e+001  -1.023341e+002 
4015625000  -4.411807e+001  -1.042706e+002 
4018750000  -4.381255e+001  -1.059799e+002 
4021875000  -4.338786e+001  -1.165707e+002 
4025000000  -4.347407e+001  -1.222901e+002 
4028125000  -4.326345e+001  -1.308726e+002 
4031250000  -4.386324e+001  -1.364360e+002 
4034375000  -4.437435e+001  -1.381432e+002 
4037500000  -4.401763e+001  -1.401842e+002 
4040625000  -4.403024e+001  -1.463544e+002 
4043750000  -4.441119e+001  -1.536064e+002 
4046875000  -4.438331e+001  -1.581722e+002 
4050000000  -4.441471e+001  -1.646512e+002 
4053125000  -4.527343e+001  -1.689100e+002 
4056250000  -4.535159e+001  -1.581142e+002 
4059375000  -4.429728e+001  -1.659685e+002 
4062500000  -4.376881e+001  -1.731856e+002 
4065625000  -4.353387e+001  -1.798583e+002 
4068750000  -4.281247e+001  1.730452e+002 
4071875000  -4.256483e+001  1.627182e+002 
4075000000  -4.344302e+001  1.556286e+002 
4078125000  -4.413142e+001  1.509956e+002 
4081250000  -4.327406e+001  1.453288e+002 
4084375000  -4.332186e+001  1.359928e+002 
4087500000  -4.381314e+001  1.318356e+002 
4090625000  -4.471558e+001  1.258721e+002 
4093750000  -4.476707e+001  1.270468e+002 
4096875000  -4.422945e+001  1.163273e+002 
4100000000  -4.513628e+001  1.109341e+002 
4103125000  -4.559485e+001  1.150494e+002 
4106250000  -4.519533e+001  1.132595e+002 
4109375000  -4.421620e+001  1.104369e+002 
4112500000  -4.432705e+001  1.001414e+002 
4115625000  -4.442891e+001  9.497178e+001 
4118750000  -4.432636e+001  8.976230e+001 
4121875000  -4.359870e+001  8.127016e+001 
4125000000  -4.436637e+001  7.526959e+001 
4128125000  -4.504436e+001  7.672150e+001 
4131250000  -4.379156e+001  8.141163e+001 
4134375000  -4.131004e+001  7.049308e+001 
4137500000  -4.177149e+001  4.988680e+001 
4140625000  -4.408250e+001  4.157760e+001 
4143750000  -4.488709e+001  4.586633e+001 
4146875000  -4.408900e+001  4.890350e+001 
4150000000  -4.280666e+001  3.884307e+001 
4153125000  -4.327391e+001  2.746274e+001 
4156250000  -4.384025e+001  2.627719e+001 
4159375000  -4.379785e+001  2.890804e+001 
4162500000  -4.210416e+001  2.724935e+001 
4165625000  -4.163108e+001  1.682210e+001 
4168750000  -4.115947e+001  6.703783e+000 
4171875000  -4.151706e+001  -4.367083e+000 
4175000000  -4.185990e+001  -1.416832e+001 
4178125000  -4.234835e+001  -1.739914e+001 
4181250000  -4.178539e+001  -2.244384e+001 
4184375000  -4.280235e+001  -2.975305e+001 
4187500000  -4.230631e+001  -3.605496e+001 
4190625000  -4.282312e+001  -4.801389e+001 
4193750000  -4.423244e+001  -5.095371e+001 
4196875000  -4.466113e+001  -5.277928e+001 
4200000000  -4.586089e+001  -4.771797e+001 
4203125000  -4.410962e+001  -3.977640e+001 
4206250000  -4.107232e+001  -4.691334e+001 
4209375000  -4.123186e+001  -7.281239e+001 
4212500000  -4.401209e+001  -8.192960e+001 
4215625000  -4.421181e+001  -7.128545e+001 
4218750000  -4.234487e+001  -7.243965e+001 
4221875000  -4.153970e+001  -8.196511e+001 
4225000000  -4.188607e+001  -9.654527e+001 
4228125000  -4.226865e+001  -9.358262e+001 
4231250000  -4.072241e+001  -1.014816e+002 
4234375000  -4.068815e+001  -1.139120e+002 
4237500000  -4.090876e+001  -1.229789e+002 
4240625000  -4.111392e+001  -1.311849e+002 
4243750000  -4.276706e+001  -1.376239e+002 
4246875000  -4.265558e+001  -1.418443e+002 
4250000000  -4.261996e+001  -1.403926e+002 
4253125000  -4.237780e+001  -1.442570e+002 
4256250000  -4.199763e+001  -1.492298e+002 
4259375000  -4.213933e+001  -1.520746e+002 
4262500000  -4.222049e+001  -1.590091e+002 
4265625000  -4.198081e+001  -1.617025e+002 
4268750000  -4.086156e+001  -1.703546e+002 
4271875000  -4.106134e+001  -1.771828e+002 
4275000000  -4.045037e+001  1.722177e+002 
4278125000  -4.132646e+001  1.587997e+002 
4281250000  -4.228318e+001  1.556453e+002 
4284375000  -4.229628e+001  1.513837e+002 
4287500000  -4.394812e+001  1.475950e+002 
4290625000  -4.377613e+001  1.566039e+002 
4293750000  -4.184020e+001  1.541847e+002 
4296875000  -4.052562e+001  1.394992e+002 
4300000000  -4.179636e+001  1.293867e+002 
4303125000  -4.168004e+001  1.318767e+002 
4306250000  -4.094340e+001  1.300683e+002 
4309375000  -3.980346e+001  1.211469e+002 
4312500000  -3.985703e+001  1.076412e+002 
4315625000  -4.020574e+001  9.952357e+001 
4318750000  -4.090210e+001  9.338173e+001 
4321875000  -4.089701e+001  9.107832e+001 
4325000000  -4.020076e+001  8.846127e+001 
4328125000  -3.938826e+001  7.701405e+001 
4331250000  -3.957643e+001  6.408022e+001 
4334375000  -4.092632e+001  5.631606e+001 
4337500000  -4.183533e+001  5.360808e+001 
4340625000  -4.208296e+001  5.732457e+001 
4343750000  -4.086235e+001  5.322454e+001 
4346875000  -4.105650e+001  4.136538e+001 
4350000000  -4.112834e+001  3.384323e+001 
4353125000  -4.192194e+001  2.334428e+001 
4356250000  -4.380804e+001  2.379114e+001 
4359375000  -4.246110e+001  4.043414e+001 
4362500000  -3.955084e+001  2.937174e+001 
4365625000  -3.901537e+001  1.007903e+001 
4368750000  -4.057117e+001  -1.387597e-001 
4371875000  -4.119333e+001  -1.144989e+000 
4375000000  -4.101533e+001  -5.517713e+000 
4378125000  -4.054726e+001  -1.191415e+001 
4381250000  -4.046756e+001  -2.279612e+001 
4384375000  -4.061076e+001  -3.051518e+001 
4387500000  -4.209857e+001  -3.768776e+001 
4390625000  -4.196425e+001  -3.912844e+001 
4393750000  -4.191213e+001  -4.086903e+001 
4396875000  -4.096579e+001  -4.451070e+001 
4400000000  -4.063139e+001  -5.624520e+001 
4403125000  -4.201812e+001  -6.445527e+001 
4406250000  -4.197507e+001  -7.042314e+001 
4409375000  -4.239275e+001  -7.332351e+001 
4412500000  -4.363384e+001  -7.656544e+001 
4415625000  -4.286567e+001  -7.161339e+001 
4418750000  -4.192896e+001  -7.429532e+001 
