!Agilent Technologies,E8363B,MY43030201,A.06.04.32
!Agilent E8363B: A.06.04.32
!Date: Tuesday, November 11, 2014 21:44:30
!Correction: S21(Response(S21)) 
!S1P File: Measurement: S21:
# Hz S  dB   R 50
3000000000  -4.359616e+001  -1.597332e+002 
3003125000  -4.536178e+001  -1.647425e+002 
3006250000  -4.524953e+001  -1.663045e+002 
3009375000  -4.631582e+001  -1.630364e+002 
3012500000  -4.475324e+001  -1.714103e+002 
3015625000  -4.478717e+001  -1.768959e+002 
3018750000  -4.559561e+001  -1.765116e+002 
3021875000  -4.371265e+001  -1.770885e+002 
3025000000  -4.251316e+001  1.783717e+002 
3028125000  -4.174726e+001  1.657158e+002 
3031250000  -4.085755e+001  1.520603e+002 
3034375000  -4.084137e+001  1.383653e+002 
3037500000  -4.154004e+001  1.276417e+002 
3040625000  -4.280644e+001  1.224112e+002 
3043750000  -4.329084e+001  1.146280e+002 
3046875000  -4.412214e+001  1.072630e+002 
3050000000  -4.502798e+001  1.019604e+002 
3053125000  -4.459177e+001  1.077355e+002 
3056250000  -4.474282e+001  1.087048e+002 
3059375000  -4.388853e+001  1.076030e+002 
3062500000  -4.265196e+001  1.010234e+002 
3065625000  -4.189753e+001  9.017840e+001 
3068750000  -4.186801e+001  8.333096e+001 
3071875000  -4.181690e+001  7.805083e+001 
3075000000  -4.115576e+001  7.149022e+001 
3078125000  -4.130599e+001  6.519318e+001 
3081250000  -4.140579e+001  5.808394e+001 
3084375000  -4.054039e+001  5.213023e+001 
3087500000  -4.059058e+001  4.496487e+001 
3090625000  -4.007368e+001  3.189940e+001 
3093750000  -4.092910e+001  2.326896e+001 
3096875000  -4.129572e+001  1.654012e+001 
3100000000  -4.113178e+001  1.242275e+001 
3103125000  -4.141729e+001  8.621593e+000 
3106250000  -4.088381e+001  2.150267e+000 
3109375000  -4.084612e+001  -2.203864e+000 
3112500000  -4.082791e+001  -1.006448e+001 
3115625000  -4.086369e+001  -1.516266e+001 
3118750000  -4.079492e+001  -2.034374e+001 
3121875000  -3.994005e+001  -3.194017e+001 
3125000000  -4.206915e+001  -3.457103e+001 
3128125000  -4.199404e+001  -3.052578e+001 
3131250000  -3.933604e+001  -3.772252e+001 
3134375000  -3.899728e+001  -5.545407e+001 
3137500000  -3.953653e+001  -7.051620e+001 
3140625000  -4.094077e+001  -7.263539e+001 
3143750000  -4.155986e+001  -7.673766e+001 
3146875000  -4.133991e+001  -7.645190e+001 
3150000000  -4.038023e+001  -8.294280e+001 
3153125000  -4.091118e+001  -9.172503e+001 
3156250000  -4.147864e+001  -8.755194e+001 
3159375000  -3.908285e+001  -9.107330e+001 
3162500000  -3.767950e+001  -1.082687e+002 
3165625000  -3.898863e+001  -1.220919e+002 
3168750000  -3.907474e+001  -1.229500e+002 
3171875000  -3.857689e+001  -1.322519e+002 
3175000000  -3.920118e+001  -1.414761e+002 
3178125000  -3.876764e+001  -1.448751e+002 
3181250000  -3.814808e+001  -1.536044e+002 
3184375000  -3.778268e+001  -1.655724e+002 
3187500000  -3.942454e+001  1.790267e+002 
3190625000  -4.091530e+001  1.719929e+002 
3193750000  -4.107223e+001  1.758303e+002 
3196875000  -4.102616e+001  1.753684e+002 
3200000000  -3.984099e+001  1.690985e+002 
3203125000  -3.975857e+001  1.613452e+002 
3206250000  -3.992038e+001  1.525208e+002 
3209375000  -3.972286e+001  1.441180e+002 
3212500000  -3.999540e+001  1.380253e+002 
3215625000  -3.962817e+001  1.343816e+002 
3218750000  -4.036026e+001  1.221733e+002 
3221875000  -4.046969e+001  1.131041e+002 
3225000000  -4.052715e+001  1.092742e+002 
3228125000  -4.116457e+001  1.016059e+002 
3231250000  -4.149564e+001  9.810352e+001 
3234375000  -4.103629e+001  9.408283e+001 
3237500000  -4.110517e+001  9.059534e+001 
3240625000  -4.046286e+001  8.450632e+001 
3243750000  -4.034095e+001  7.326756e+001 
3246875000  -4.077185e+001  6.452740e+001 
3250000000  -4.117390e+001  5.932149e+001 
3253125000  -4.114004e+001  5.478414e+001 
3256250000  -4.038653e+001  4.530368e+001 
3259375000  -4.101770e+001  3.222366e+001 
3262500000  -4.247374e+001  2.697059e+001 
3265625000  -4.273149e+001  2.857233e+001 
3268750000  -4.234098e+001  2.773646e+001 
3271875000  -4.160798e+001  2.192640e+001 
3275000000  -4.128099e+001  8.779280e+000 
3278125000  -4.196254e+001  3.166158e+000 
3281250000  -4.196268e+001  -8.594253e-001 
3284375000  -4.097036e+001  -8.689198e+000 
3287500000  -4.152257e+001  -1.525893e+001 
3290625000  -4.168351e+001  -2.578001e+001 
3293750000  -4.178922e+001  -3.354146e+001 
3296875000  -4.285217e+001  -3.828800e+001 
3300000000  -4.196173e+001  -3.902456e+001 
3303125000  -4.085976e+001  -4.809080e+001 
3306250000  -4.085164e+001  -5.952335e+001 
3309375000  -4.066628e+001  -6.977033e+001 
3312500000  -4.130474e+001  -8.594374e+001 
3315625000  -4.260738e+001  -9.393933e+001 
3318750000  -4.414136e+001  -9.969399e+001 
3321875000  -4.510519e+001  -9.962932e+001 
3325000000  -4.473192e+001  -9.416862e+001 
3328125000  -4.413760e+001  -9.895823e+001 
3331250000  -4.264922e+001  -9.822261e+001 
3334375000  -4.032019e+001  -1.165331e+002 
3337500000  -4.092764e+001  -1.412196e+002 
3340625000  -4.278746e+001  -1.504361e+002 
3343750000  -4.421643e+001  -1.509325e+002 
3346875000  -4.390401e+001  -1.565151e+002 
3350000000  -4.379536e+001  -1.620848e+002 
3353125000  -4.380403e+001  -1.693092e+002 
3356250000  -4.358738e+001  1.788727e+002 
3359375000  -4.428306e+001  1.645638e+002 
3362500000  -4.502289e+001  1.582618e+002 
3365625000  -4.581188e+001  1.532778e+002 
3368750000  -4.667105e+001  1.471057e+002 
3371875000  -4.724454e+001  1.404232e+002 
3375000000  -4.818368e+001  1.352495e+002 
3378125000  -4.932705e+001  1.307482e+002 
3381250000  -5.050366e+001  1.384335e+002 
3384375000  -4.811580e+001  1.513799e+002 
3387500000  -4.441580e+001  1.272232e+002 
3390625000  -4.718749e+001  1.066781e+002 
3393750000  -4.777715e+001  1.057401e+002 
3396875000  -4.649159e+001  1.030118e+002 
3400000000  -4.591064e+001  8.514967e+001 
3403125000  -4.716247e+001  8.060017e+001 
3406250000  -4.782498e+001  7.064118e+001 
3409375000  -4.717150e+001  6.062516e+001 
3412500000  -4.799416e+001  5.334381e+001 
3415625000  -4.856438e+001  4.960634e+001 
3418750000  -4.880819e+001  4.342735e+001 
3421875000  -4.885403e+001  3.980028e+001 
3425000000  -4.775451e+001  3.702632e+001 
3428125000  -4.706996e+001  2.915233e+001 
3431250000  -4.704320e+001  1.532712e+001 
3434375000  -4.711978e+001  3.730241e+000 
3437500000  -4.758387e+001  -5.718894e+000 
3440625000  -4.772177e+001  -9.538738e+000 
3443750000  -4.605009e+001  -1.054307e+001 
3446875000  -4.581031e+001  -2.582678e+001 
3450000000  -4.495609e+001  -4.179560e+001 
3453125000  -4.581214e+001  -5.935517e+001 
3456250000  -4.725123e+001  -6.948352e+001 
3459375000  -4.780624e+001  -7.071852e+001 
3462500000  -4.796718e+001  -7.641245e+001 
3465625000  -4.748182e+001  -8.835748e+001 
3468750000  -4.770112e+001  -9.544060e+001 
3471875000  -4.707529e+001  -1.040292e+002 
3475000000  -4.664362e+001  -1.152526e+002 
3478125000  -4.755818e+001  -1.276702e+002 
3481250000  -4.854060e+001  -1.330688e+002 
3484375000  -4.851777e+001  -1.329997e+002 
3487500000  -4.757468e+001  -1.401574e+002 
3490625000  -4.686684e+001  -1.546703e+002 
3493750000  -4.809564e+001  -1.673215e+002 
3496875000  -4.771506e+001  -1.677975e+002 
3500000000  -4.814971e+001  -1.706502e+002 
3503125000  -4.747150e+001  -1.749973e+002 
3506250000  -4.525533e+001  1.723207e+002 
3509375000  -4.567346e+001  1.560432e+002 
3512500000  -4.648526e+001  1.370079e+002 
3515625000  -4.722199e+001  1.333215e+002 
3518750000  -4.772048e+001  1.328158e+002 
3521875000  -4.792524e+001  1.201485e+002 
3525000000  -4.964888e+001  1.154211e+002 
3528125000  -4.742491e+001  1.176370e+002 
3531250000  -4.641521e+001  1.077081e+002 
3534375000  -4.687989e+001  8.858080e+001 
3537500000  -4.773968e+001  7.807892e+001 
3540625000  -4.887277e+001  7.659039e+001 
3543750000  -4.952138e+001  7.956926e+001 
3546875000  -4.865546e+001  8.563092e+001 
3550000000  -4.643654e+001  7.673508e+001 
3553125000  -4.583394e+001  5.459898e+001 
3556250000  -4.783878e+001  4.867410e+001 
3559375000  -4.662319e+001  4.089231e+001 
3562500000  -4.647387e+001  3.227540e+001 
3565625000  -4.731501e+001  2.562048e+001 
3568750000  -4.783905e+001  2.629819e+001 
3571875000  -4.703624e+001  1.648376e+001 
3575000000  -4.703292e+001  1.337243e+001 
3578125000  -4.811640e+001  8.383936e+000 
3581250000  -4.736510e+001  2.493918e+000 
3584375000  -4.649039e+001  -2.755990e+000 
3587500000  -4.609303e+001  -1.291413e+001 
3590625000  -4.637550e+001  -2.123339e+001 
3593750000  -4.767011e+001  -2.412587e+001 
3596875000  -4.682666e+001  -1.940898e+001 
3600000000  -4.468580e+001  -3.105408e+001 
3603125000  -4.526920e+001  -4.746524e+001 
3606250000  -4.593956e+001  -5.301067e+001 
3609375000  -4.588420e+001  -5.681423e+001 
3612500000  -4.594377e+001  -6.104639e+001 
3615625000  -4.599792e+001  -6.922484e+001 
3618750000  -4.611996e+001  -6.679374e+001 
3621875000  -4.564132e+001  -7.519591e+001 
3625000000  -4.592726e+001  -8.150883e+001 
3628125000  -4.509936e+001  -8.664241e+001 
3631250000  -4.519342e+001  -9.711547e+001 
3634375000  -4.620899e+001  -9.567724e+001 
3637500000  -4.404433e+001  -9.978428e+001 
3640625000  -4.381832e+001  -1.064052e+002 
3643750000  -4.314644e+001  -1.169415e+002 
3646875000  -4.379727e+001  -1.276085e+002 
3650000000  -4.393056e+001  -1.331515e+002 
3653125000  -4.326934e+001  -1.394575e+002 
3656250000  -4.399637e+001  -1.475156e+002 
3659375000  -4.367095e+001  -1.515803e+002 
3662500000  -4.345073e+001  -1.566021e+002 
3665625000  -4.314355e+001  -1.637577e+002 
3668750000  -4.188264e+001  -1.667902e+002 
3671875000  -4.148062e+001  1.790867e+002 
3675000000  -4.233541e+001  1.700865e+002 
3678125000  -4.248771e+001  1.640635e+002 
3681250000  -4.254845e+001  1.570825e+002 
3684375000  -4.264222e+001  1.494948e+002 
3687500000  -4.280072e+001  1.415317e+002 
3690625000  -4.352814e+001  1.360966e+002 
3693750000  -4.445830e+001  1.323058e+002 
3696875000  -4.383733e+001  1.311392e+002 
3700000000  -4.297386e+001  1.258723e+002 
3703125000  -4.363754e+001  1.133672e+002 
3706250000  -4.476939e+001  1.134661e+002 
3709375000  -4.403350e+001  1.102079e+002 
3712500000  -4.318752e+001  1.075993e+002 
3715625000  -4.167088e+001  9.730107e+001 
3718750000  -4.183897e+001  8.805283e+001 
3721875000  -4.215240e+001  7.968589e+001 
3725000000  -4.253320e+001  7.080868e+001 
3728125000  -4.246322e+001  6.850249e+001 
3731250000  -4.175748e+001  6.172069e+001 
3734375000  -4.222448e+001  5.459752e+001 
3737500000  -4.294168e+001  4.334171e+001 
3740625000  -4.295145e+001  3.856400e+001 
3743750000  -4.281403e+001  3.266367e+001 
3746875000  -4.332858e+001  2.602943e+001 
3750000000  -4.402113e+001  2.350158e+001 
3753125000  -4.382804e+001  1.887991e+001 
3756250000  -4.377979e+001  1.563799e+001 
3759375000  -4.369242e+001  9.482236e+000 
3762500000  -4.371914e+001  5.058156e+000 
3765625000  -4.421603e+001  1.097740e+000 
3768750000  -4.359552e+001  -2.192948e-001 
3771875000  -4.235287e+001  -7.297295e+000 
3775000000  -4.217939e+001  -1.704201e+001 
3778125000  -4.264540e+001  -2.206278e+001 
3781250000  -4.265236e+001  -2.916704e+001 
3784375000  -4.230595e+001  -3.565590e+001 
3787500000  -4.240952e+001  -4.003959e+001 
3790625000  -4.280912e+001  -4.945238e+001 
3793750000  -4.278287e+001  -5.367062e+001 
3796875000  -4.199474e+001  -5.793518e+001 
3800000000  -4.079453e+001  -6.701493e+001 
3803125000  -4.162132e+001  -7.695786e+001 
3806250000  -4.253081e+001  -8.158920e+001 
3809375000  -4.192280e+001  -8.694579e+001 
3812500000  -4.191048e+001  -9.878268e+001 
3815625000  -4.313711e+001  -1.085828e+002 
3818750000  -4.411747e+001  -1.063226e+002 
3821875000  -4.350080e+001  -9.649306e+001 
3825000000  -4.167210e+001  -1.013379e+002 
3828125000  -4.052142e+001  -1.251063e+002 
3831250000  -4.162254e+001  -1.395614e+002 
3834375000  -4.367559e+001  -1.400519e+002 
3837500000  -4.420593e+001  -1.392689e+002 
3840625000  -4.199467e+001  -1.437864e+002 
3843750000  -4.203537e+001  -1.569506e+002 
3846875000  -4.350552e+001  -1.656476e+002 
3850000000  -4.424861e+001  -1.580538e+002 
3853125000  -4.339405e+001  -1.631695e+002 
3856250000  -4.310745e+001  -1.682450e+002 
3859375000  -4.225427e+001  -1.780941e+002 
3862500000  -4.191938e+001  1.707604e+002 
3865625000  -4.282932e+001  1.644340e+002 
3868750000  -4.233466e+001  1.628885e+002 
3871875000  -4.179261e+001  1.548162e+002 
3875000000  -4.278707e+001  1.419552e+002 
3878125000  -4.370529e+001  1.421569e+002 
3881250000  -4.350108e+001  1.384100e+002 
3884375000  -4.271271e+001  1.281979e+002 
3887500000  -4.322109e+001  1.227628e+002 
3890625000  -4.401485e+001  1.175365e+002 
3893750000  -4.447204e+001  1.175712e+002 
3896875000  -4.438400e+001  1.119884e+002 
3900000000  -4.449027e+001  1.106693e+002 
3903125000  -4.366805e+001  1.042471e+002 
3906250000  -4.328222e+001  9.876140e+001 
3909375000  -4.277312e+001  8.937569e+001 
3912500000  -4.372489e+001  8.055500e+001 
3915625000  -4.458134e+001  8.043996e+001 
3918750000  -4.419617e+001  8.010093e+001 
3921875000  -4.380484e+001  7.405362e+001 
3925000000  -4.290047e+001  6.588027e+001 
3928125000  -4.296492e+001  5.863475e+001 
3931250000  -4.372211e+001  4.961239e+001 
3934375000  -4.464294e+001  4.724047e+001 
3937500000  -4.456242e+001  4.652533e+001 
3940625000  -4.448854e+001  4.526745e+001 
3943750000  -4.330219e+001  3.806351e+001 
3946875000  -4.305079e+001  3.328300e+001 
3950000000  -4.430937e+001  1.982614e+001 
3953125000  -4.485717e+001  2.024366e+001 
3956250000  -4.266374e+001  2.003971e+001 
3959375000  -4.200936e+001  1.656822e+001 
3962500000  -4.181569e+001  2.855050e+000 
3965625000  -4.190506e+001  -9.743438e+000 
3968750000  -4.249638e+001  -1.602940e+001 
3971875000  -4.272326e+001  -1.871412e+001 
3975000000  -4.220227e+001  -2.330362e+001 
3978125000  -4.232912e+001  -3.022925e+001 
3981250000  -4.228152e+001  -3.892159e+001 
3984375000  -4.268317e+001  -4.587267e+001 
3987500000  -4.313229e+001  -5.134324e+001 
3990625000  -4.354555e+001  -5.426928e+001 
3993750000  -4.318099e+001  -6.049667e+001 
3996875000  -4.330438e+001  -6.703776e+001 
4000000000  -4.395734e+001  -7.124511e+001 
4003125000  -4.400725e+001  -7.078808e+001 
4006250000  -4.209318e+001  -7.523595e+001 
4009375000  -4.139175e+001  -9.521609e+001 
4012500000  -4.302321e+001  -1.036683e+002 
4015625000  -4.421344e+001  -1.008766e+002 
4018750000  -4.410926e+001  -1.076017e+002 
4021875000  -4.347835e+001  -1.141019e+002 
4025000000  -4.348417e+001  -1.199619e+002 
4028125000  -4.366552e+001  -1.292377e+002 
4031250000  -4.434541e+001  -1.360535e+002 
4034375000  -4.437247e+001  -1.379544e+002 
4037500000  -4.426459e+001  -1.384093e+002 
4040625000  -4.419851e+001  -1.465433e+002 
4043750000  -4.466584e+001  -1.502159e+002 
4046875000  -4.451652e+001  -1.563872e+002 
4050000000  -4.422010e+001  -1.596742e+002 
4053125000  -4.571798e+001  -1.654635e+002 
4056250000  -4.530091e+001  -1.633374e+002 
4059375000  -4.420897e+001  -1.636455e+002 
4062500000  -4.358546e+001  -1.737232e+002 
4065625000  -4.339940e+001  -1.786339e+002 
4068750000  -4.318261e+001  1.731813e+002 
4071875000  -4.290011e+001  1.641378e+002 
4075000000  -4.398060e+001  1.543731e+002 
4078125000  -4.404525e+001  1.513902e+002 
4081250000  -4.371463e+001  1.465144e+002 
4084375000  -4.371877e+001  1.362936e+002 
4087500000  -4.420026e+001  1.310023e+002 
4090625000  -4.527288e+001  1.259904e+002 
4093750000  -4.496056e+001  1.238675e+002 
4096875000  -4.433281e+001  1.177882e+002 
4100000000  -4.532154e+001  1.117126e+002 
4103125000  -4.618773e+001  1.182326e+002 
4106250000  -4.552969e+001  1.174554e+002 
4109375000  -4.444176e+001  1.101388e+002 
4112500000  -4.404713e+001  1.027734e+002 
4115625000  -4.455409e+001  9.812335e+001 
4118750000  -4.413089e+001  9.282871e+001 
4121875000  -4.399729e+001  8.586004e+001 
4125000000  -4.548662e+001  7.598161e+001 
4128125000  -4.580255e+001  7.819425e+001 
4131250000  -4.414692e+001  8.320313e+001 
4134375000  -4.203743e+001  7.294039e+001 
4137500000  -4.244835e+001  4.862819e+001 
4140625000  -4.451295e+001  4.782286e+001 
4143750000  -4.524954e+001  5.353936e+001 
4146875000  -4.425716e+001  4.854304e+001 
4150000000  -4.355768e+001  4.255647e+001 
4153125000  -4.366984e+001  3.420630e+001 
4156250000  -4.461364e+001  2.989662e+001 
4159375000  -4.378323e+001  3.225558e+001 
4162500000  -4.255394e+001  2.771159e+001 
4165625000  -4.174084e+001  1.770273e+001 
4168750000  -4.177331e+001  4.880847e+000 
4171875000  -4.147800e+001  -4.048553e+000 
4175000000  -4.225363e+001  -1.283513e+001 
4178125000  -4.296980e+001  -1.522023e+001 
4181250000  -4.221140e+001  -2.085522e+001 
4184375000  -4.281990e+001  -2.814316e+001 
4187500000  -4.284286e+001  -3.355507e+001 
4190625000  -4.294056e+001  -4.329127e+001 
4193750000  -4.449480e+001  -5.099492e+001 
4196875000  -4.480148e+001  -5.102041e+001 
4200000000  -4.634578e+001  -4.822422e+001 
4203125000  -4.452965e+001  -3.800928e+001 
4206250000  -4.154131e+001  -4.552853e+001 
4209375000  -4.176021e+001  -7.076027e+001 
4212500000  -4.409796e+001  -7.980518e+001 
4215625000  -4.446140e+001  -7.177689e+001 
4218750000  -4.303799e+001  -6.982707e+001 
4221875000  -4.142604e+001  -8.328612e+001 
4225000000  -4.284431e+001  -9.372411e+001 
4228125000  -4.213127e+001  -9.016238e+001 
4231250000  -4.134527e+001  -9.878939e+001 
4234375000  -4.166986e+001  -1.115015e+002 
4237500000  -4.115904e+001  -1.186616e+002 
4240625000  -4.150864e+001  -1.282116e+002 
4243750000  -4.265300e+001  -1.398459e+002 
4246875000  -4.355591e+001  -1.361540e+002 
4250000000  -4.329310e+001  -1.380859e+002 
4253125000  -4.326899e+001  -1.412275e+002 
4256250000  -4.287281e+001  -1.458784e+002 
4259375000  -4.246857e+001  -1.528020e+002 
4262500000  -4.247144e+001  -1.579326e+002 
4265625000  -4.266360e+001  -1.586387e+002 
4268750000  -4.152275e+001  -1.668640e+002 
4271875000  -4.122723e+001  -1.764043e+002 
4275000000  -4.098681e+001  1.760682e+002 
4278125000  -4.192930e+001  1.598685e+002 
4281250000  -4.291154e+001  1.576454e+002 
4284375000  -4.292514e+001  1.577514e+002 
4287500000  -4.415332e+001  1.511158e+002 
4290625000  -4.410025e+001  1.596712e+002 
4293750000  -4.185061e+001  1.563605e+002 
4296875000  -4.088406e+001  1.425273e+002 
4300000000  -4.189157e+001  1.324746e+002 
4303125000  -4.219699e+001  1.322024e+002 
4306250000  -4.109200e+001  1.326387e+002 
4309375000  -4.034552e+001  1.236643e+002 
4312500000  -4.024263e+001  1.109328e+002 
4315625000  -4.056029e+001  1.010031e+002 
4318750000  -4.108042e+001  9.766759e+001 
4321875000  -4.108725e+001  9.255040e+001 
4325000000  -4.024065e+001  9.000920e+001 
4328125000  -4.003936e+001  7.823316e+001 
4331250000  -4.010476e+001  6.649470e+001 
4334375000  -4.122419e+001  5.823459e+001 
4337500000  -4.255159e+001  5.811543e+001 
4340625000  -4.215320e+001  6.066292e+001 
4343750000  -4.131695e+001  5.443881e+001 
4346875000  -4.138917e+001  4.367568e+001 
4350000000  -4.164762e+001  3.502155e+001 
4353125000  -4.245806e+001  2.550745e+001 
4356250000  -4.425745e+001  3.184925e+001 
4359375000  -4.326437e+001  4.497591e+001 
4362500000  -3.993098e+001  3.316986e+001 
4365625000  -3.964687e+001  1.414619e+001 
4368750000  -4.061107e+001  1.234519e+000 
4371875000  -4.158673e+001  6.061651e-001 
4375000000  -4.089317e+001  -1.628710e+000 
4378125000  -4.084143e+001  -1.178835e+001 
4381250000  -4.131791e+001  -2.088901e+001 
4384375000  -4.132137e+001  -2.689605e+001 
4387500000  -4.200086e+001  -3.663090e+001 
4390625000  -4.231281e+001  -3.857325e+001 
4393750000  -4.223219e+001  -3.755609e+001 
4396875000  -4.187282e+001  -4.204779e+001 
4400000000  -4.134251e+001  -5.114549e+001 
4403125000  -4.239160e+001  -6.283538e+001 
4406250000  -4.300525e+001  -6.629435e+001 
4409375000  -4.346012e+001  -7.236708e+001 
4412500000  -4.402037e+001  -7.350164e+001 
4415625000  -4.371395e+001  -6.893397e+001 
4418750000  -4.226138e+001  -7.132697e+001 
