!Agilent Technologies,E8363B,MY43030201,A.06.04.32
!Agilent E8363B: A.06.04.32
!Date: Tuesday, November 11, 2014 21:45:27
!Correction: S21(Response(S21)) 
!S1P File: Measurement: S21:
# Hz S  dB   R 50
3000000000  -4.368385e+001  -1.612215e+002 
3003125000  -4.523544e+001  -1.655163e+002 
3006250000  -4.525475e+001  -1.673090e+002 
3009375000  -4.611250e+001  -1.650741e+002 
3012500000  -4.457215e+001  -1.717168e+002 
3015625000  -4.491485e+001  -1.765768e+002 
3018750000  -4.539617e+001  -1.782129e+002 
3021875000  -4.402841e+001  -1.778630e+002 
3025000000  -4.251485e+001  1.774132e+002 
3028125000  -4.168151e+001  1.642069e+002 
3031250000  -4.093501e+001  1.523282e+002 
3034375000  -4.084256e+001  1.372377e+002 
3037500000  -4.164622e+001  1.263969e+002 
3040625000  -4.278591e+001  1.200181e+002 
3043750000  -4.327100e+001  1.131295e+002 
3046875000  -4.415471e+001  1.062708e+002 
3050000000  -4.531476e+001  1.012145e+002 
3053125000  -4.488353e+001  1.076843e+002 
3056250000  -4.466828e+001  1.112349e+002 
3059375000  -4.374995e+001  1.045736e+002 
3062500000  -4.250119e+001  9.933181e+001 
3065625000  -4.201833e+001  8.833727e+001 
3068750000  -4.179816e+001  8.313215e+001 
3071875000  -4.193797e+001  7.972897e+001 
3075000000  -4.119814e+001  7.046800e+001 
3078125000  -4.128032e+001  6.441107e+001 
3081250000  -4.133625e+001  5.696612e+001 
3084375000  -4.054697e+001  5.161362e+001 
3087500000  -4.059592e+001  4.430900e+001 
3090625000  -3.994785e+001  3.127484e+001 
3093750000  -4.107635e+001  2.303201e+001 
3096875000  -4.116196e+001  1.583553e+001 
3100000000  -4.117892e+001  1.241303e+001 
3103125000  -4.127022e+001  7.695488e+000 
3106250000  -4.091142e+001  2.780602e+000 
3109375000  -4.103757e+001  -4.310574e+000 
3112500000  -4.093915e+001  -1.004469e+001 
3115625000  -4.084616e+001  -1.568794e+001 
3118750000  -4.080384e+001  -2.105753e+001 
3121875000  -4.012164e+001  -3.367753e+001 
3125000000  -4.196975e+001  -3.706195e+001 
3128125000  -4.188769e+001  -3.043878e+001 
3131250000  -3.969821e+001  -3.881718e+001 
3134375000  -3.899176e+001  -5.681937e+001 
3137500000  -3.945850e+001  -6.989235e+001 
3140625000  -4.079406e+001  -7.521864e+001 
3143750000  -4.148611e+001  -7.790649e+001 
3146875000  -4.116091e+001  -7.664965e+001 
3150000000  -4.029769e+001  -8.276472e+001 
3153125000  -4.080527e+001  -9.038680e+001 
3156250000  -4.133221e+001  -8.842782e+001 
3159375000  -3.907461e+001  -9.227973e+001 
3162500000  -3.790619e+001  -1.077975e+002 
3165625000  -3.919716e+001  -1.228207e+002 
3168750000  -3.906356e+001  -1.238217e+002 
3171875000  -3.852630e+001  -1.332351e+002 
3175000000  -3.927198e+001  -1.430074e+002 
3178125000  -3.870056e+001  -1.452008e+002 
3181250000  -3.813802e+001  -1.547856e+002 
3184375000  -3.792136e+001  -1.668377e+002 
3187500000  -3.922535e+001  1.771659e+002 
3190625000  -4.072495e+001  1.719562e+002 
3193750000  -4.127507e+001  1.744612e+002 
3196875000  -4.114925e+001  1.745438e+002 
3200000000  -3.990155e+001  1.695210e+002 
3203125000  -3.961105e+001  1.605735e+002 
3206250000  -3.990641e+001  1.527966e+002 
3209375000  -3.966276e+001  1.435204e+002 
3212500000  -4.003388e+001  1.359047e+002 
3215625000  -3.948986e+001  1.331290e+002 
3218750000  -4.043419e+001  1.206992e+002 
3221875000  -4.074684e+001  1.128912e+002 
3225000000  -4.050978e+001  1.085502e+002 
3228125000  -4.119814e+001  1.002492e+002 
3231250000  -4.141743e+001  9.723599e+001 
3234375000  -4.100278e+001  9.477736e+001 
3237500000  -4.104994e+001  8.980190e+001 
3240625000  -4.036194e+001  8.355064e+001 
3243750000  -4.038424e+001  7.095467e+001 
3246875000  -4.046097e+001  6.197190e+001 
3250000000  -4.124905e+001  5.834273e+001 
3253125000  -4.125900e+001  5.528014e+001 
3256250000  -4.054276e+001  4.540721e+001 
3259375000  -4.103072e+001  3.102647e+001 
3262500000  -4.264489e+001  2.627801e+001 
3265625000  -4.252760e+001  2.704045e+001 
3268750000  -4.252824e+001  2.733404e+001 
3271875000  -4.166803e+001  2.139344e+001 
3275000000  -4.121149e+001  9.839341e+000 
3278125000  -4.179046e+001  4.795455e+000 
3281250000  -4.182692e+001  -4.347148e-001 
3284375000  -4.118161e+001  -7.818894e+000 
3287500000  -4.151610e+001  -1.598900e+001 
3290625000  -4.143553e+001  -2.595345e+001 
3293750000  -4.159371e+001  -3.470016e+001 
3296875000  -4.298580e+001  -3.850661e+001 
3300000000  -4.209759e+001  -4.075925e+001 
3303125000  -4.093559e+001  -5.003172e+001 
3306250000  -4.081295e+001  -5.870026e+001 
3309375000  -4.080362e+001  -7.026647e+001 
3312500000  -4.141635e+001  -8.681950e+001 
3315625000  -4.270317e+001  -9.353838e+001 
3318750000  -4.433010e+001  -1.026206e+002 
3321875000  -4.528464e+001  -9.902671e+001 
3325000000  -4.518537e+001  -9.322397e+001 
3328125000  -4.438665e+001  -9.949368e+001 
3331250000  -4.246513e+001  -9.947485e+001 
3334375000  -4.044720e+001  -1.176894e+002 
3337500000  -4.099181e+001  -1.414478e+002 
3340625000  -4.321527e+001  -1.511127e+002 
3343750000  -4.479029e+001  -1.531626e+002 
3346875000  -4.435049e+001  -1.577704e+002 
3350000000  -4.382489e+001  -1.616167e+002 
3353125000  -4.384806e+001  -1.720741e+002 
3356250000  -4.348333e+001  1.776715e+002 
3359375000  -4.404182e+001  1.643493e+002 
3362500000  -4.512408e+001  1.581308e+002 
3365625000  -4.591895e+001  1.511952e+002 
3368750000  -4.637891e+001  1.475880e+002 
3371875000  -4.676975e+001  1.396553e+002 
3375000000  -4.844793e+001  1.319089e+002 
3378125000  -4.971825e+001  1.293965e+002 
3381250000  -5.017993e+001  1.446265e+002 
3384375000  -4.696370e+001  1.503506e+002 
3387500000  -4.516269e+001  1.281347e+002 
3390625000  -4.687114e+001  1.061501e+002 
3393750000  -4.781026e+001  1.046593e+002 
3396875000  -4.665293e+001  9.914931e+001 
3400000000  -4.656503e+001  8.789098e+001 
3403125000  -4.700034e+001  7.983843e+001 
3406250000  -4.798137e+001  6.816843e+001 
3409375000  -4.708993e+001  6.250847e+001 
3412500000  -4.805390e+001  5.244711e+001 
3415625000  -4.844637e+001  4.777973e+001 
3418750000  -4.908714e+001  4.552630e+001 
3421875000  -4.956314e+001  3.854758e+001 
3425000000  -4.803316e+001  3.532352e+001 
3428125000  -4.764345e+001  2.632048e+001 
3431250000  -4.722391e+001  1.329247e+001 
3434375000  -4.692234e+001  4.123446e+000 
3437500000  -4.760577e+001  -6.418298e+000 
3440625000  -4.780962e+001  -7.645117e+000 
3443750000  -4.654021e+001  -1.096257e+001 
3446875000  -4.543700e+001  -2.834442e+001 
3450000000  -4.551522e+001  -4.332543e+001 
3453125000  -4.612603e+001  -6.106681e+001 
3456250000  -4.777076e+001  -6.924245e+001 
3459375000  -4.805545e+001  -7.238984e+001 
3462500000  -4.770923e+001  -7.770848e+001 
3465625000  -4.737830e+001  -9.022158e+001 
3468750000  -4.763755e+001  -9.526133e+001 
3471875000  -4.696267e+001  -1.013621e+002 
3475000000  -4.703085e+001  -1.157890e+002 
3478125000  -4.730597e+001  -1.298719e+002 
3481250000  -4.870992e+001  -1.323460e+002 
3484375000  -4.816365e+001  -1.340768e+002 
3487500000  -4.742040e+001  -1.403263e+002 
3490625000  -4.685006e+001  -1.524874e+002 
3493750000  -4.777044e+001  -1.681162e+002 
3496875000  -4.799790e+001  -1.696944e+002 
3500000000  -4.823348e+001  -1.734674e+002 
3503125000  -4.692048e+001  -1.752440e+002 
3506250000  -4.547730e+001  1.723317e+002 
3509375000  -4.584004e+001  1.501594e+002 
3512500000  -4.599483e+001  1.373232e+002 
3515625000  -4.710565e+001  1.279333e+002 
3518750000  -4.732672e+001  1.283937e+002 
3521875000  -4.807627e+001  1.158706e+002 
3525000000  -4.898868e+001  1.133112e+002 
3528125000  -4.731635e+001  1.182023e+002 
3531250000  -4.661843e+001  1.062583e+002 
3534375000  -4.673291e+001  8.944531e+001 
3537500000  -4.767822e+001  7.974743e+001 
3540625000  -4.855671e+001  7.814646e+001 
3543750000  -4.934010e+001  7.985226e+001 
3546875000  -4.846794e+001  8.534497e+001 
3550000000  -4.615605e+001  7.529598e+001 
3553125000  -4.600757e+001  5.698550e+001 
3556250000  -4.758063e+001  4.635178e+001 
3559375000  -4.672351e+001  3.960144e+001 
3562500000  -4.640862e+001  3.311686e+001 
3565625000  -4.742488e+001  2.503031e+001 
3568750000  -4.800879e+001  2.522697e+001 
3571875000  -4.725251e+001  1.624956e+001 
3575000000  -4.700336e+001  1.154794e+001 
3578125000  -4.758942e+001  6.846863e+000 
3581250000  -4.760184e+001  5.997675e+000 
3584375000  -4.570967e+001  -4.589819e+000 
3587500000  -4.564503e+001  -1.395477e+001 
3590625000  -4.659511e+001  -2.635310e+001 
3593750000  -4.776257e+001  -2.599960e+001 
3596875000  -4.672598e+001  -2.325519e+001 
3600000000  -4.439833e+001  -3.198227e+001 
3603125000  -4.517995e+001  -4.849056e+001 
3606250000  -4.599096e+001  -5.531581e+001 
3609375000  -4.583521e+001  -5.483577e+001 
3612500000  -4.615707e+001  -6.608768e+001 
3615625000  -4.603076e+001  -6.927944e+001 
3618750000  -4.642954e+001  -7.159995e+001 
3621875000  -4.519616e+001  -7.687243e+001 
3625000000  -4.578276e+001  -8.219171e+001 
3628125000  -4.475525e+001  -8.537528e+001 
3631250000  -4.494304e+001  -9.642336e+001 
3634375000  -4.570771e+001  -9.920366e+001 
3637500000  -4.393714e+001  -9.904547e+001 
3640625000  -4.359344e+001  -1.055445e+002 
3643750000  -4.314627e+001  -1.193213e+002 
3646875000  -4.383184e+001  -1.301062e+002 
3650000000  -4.388354e+001  -1.348619e+002 
3653125000  -4.326066e+001  -1.431580e+002 
3656250000  -4.352815e+001  -1.492081e+002 
3659375000  -4.361599e+001  -1.529521e+002 
3662500000  -4.344379e+001  -1.594871e+002 
3665625000  -4.333336e+001  -1.628367e+002 
3668750000  -4.203641e+001  -1.657440e+002 
3671875000  -4.156211e+001  1.780186e+002 
3675000000  -4.240868e+001  1.687630e+002 
3678125000  -4.239835e+001  1.608298e+002 
3681250000  -4.214009e+001  1.579928e+002 
3684375000  -4.298706e+001  1.491536e+002 
3687500000  -4.277164e+001  1.387861e+002 
3690625000  -4.368249e+001  1.335342e+002 
3693750000  -4.435860e+001  1.338609e+002 
3696875000  -4.385778e+001  1.289496e+002 
3700000000  -4.337160e+001  1.222249e+002 
3703125000  -4.370013e+001  1.142314e+002 
3706250000  -4.454280e+001  1.110860e+002 
3709375000  -4.372968e+001  1.115231e+002 
3712500000  -4.280135e+001  1.064297e+002 
3715625000  -4.182817e+001  9.726439e+001 
3718750000  -4.170144e+001  8.501973e+001 
3721875000  -4.176772e+001  7.553300e+001 
3725000000  -4.217915e+001  7.037415e+001 
3728125000  -4.237447e+001  6.535215e+001 
3731250000  -4.200470e+001  5.957384e+001 
3734375000  -4.217068e+001  5.239928e+001 
3737500000  -4.290194e+001  4.537256e+001 
3740625000  -4.302831e+001  3.952538e+001 
3743750000  -4.305085e+001  2.915450e+001 
3746875000  -4.333945e+001  2.484939e+001 
3750000000  -4.337463e+001  2.114450e+001 
3753125000  -4.378490e+001  1.765906e+001 
3756250000  -4.401596e+001  1.392931e+001 
3759375000  -4.385075e+001  9.141260e+000 
3762500000  -4.356023e+001  6.211405e+000 
3765625000  -4.422442e+001  -2.062597e+000 
3768750000  -4.345255e+001  1.473967e+000 
3771875000  -4.208405e+001  -8.690065e+000 
3775000000  -4.208973e+001  -1.808410e+001 
3778125000  -4.258043e+001  -2.430661e+001 
3781250000  -4.250913e+001  -2.803948e+001 
3784375000  -4.223986e+001  -3.590290e+001 
3787500000  -4.274588e+001  -4.266348e+001 
3790625000  -4.279924e+001  -5.160745e+001 
3793750000  -4.251776e+001  -5.566110e+001 
3796875000  -4.160310e+001  -5.813060e+001 
3800000000  -4.096423e+001  -6.628437e+001 
3803125000  -4.161785e+001  -7.913157e+001 
3806250000  -4.251849e+001  -8.248543e+001 
3809375000  -4.202828e+001  -8.792696e+001 
3812500000  -4.162320e+001  -1.001895e+002 
3815625000  -4.297604e+001  -1.115972e+002 
3818750000  -4.474585e+001  -1.076427e+002 
3821875000  -4.341249e+001  -9.501922e+001 
3825000000  -4.149260e+001  -1.052726e+002 
3828125000  -4.027850e+001  -1.231732e+002 
3831250000  -4.175170e+001  -1.401808e+002 
3834375000  -4.369980e+001  -1.404038e+002 
3837500000  -4.388002e+001  -1.378574e+002 
3840625000  -4.252078e+001  -1.425019e+002 
3843750000  -4.179392e+001  -1.599901e+002 
3846875000  -4.369233e+001  -1.655806e+002 
3850000000  -4.417289e+001  -1.592916e+002 
3853125000  -4.368575e+001  -1.630137e+002 
3856250000  -4.333243e+001  -1.707076e+002 
3859375000  -4.247795e+001  -1.786544e+002 
3862500000  -4.203510e+001  1.703276e+002 
3865625000  -4.277414e+001  1.651747e+002 
3868750000  -4.225211e+001  1.630310e+002 
3871875000  -4.203411e+001  1.518897e+002 
3875000000  -4.233513e+001  1.419501e+002 
3878125000  -4.340414e+001  1.412369e+002 
3881250000  -4.330791e+001  1.390223e+002 
3884375000  -4.288002e+001  1.263908e+002 
3887500000  -4.296931e+001  1.229583e+002 
3890625000  -4.432586e+001  1.162364e+002 
3893750000  -4.438608e+001  1.158538e+002 
3896875000  -4.469476e+001  1.119260e+002 
3900000000  -4.418806e+001  1.077466e+002 
3903125000  -4.403260e+001  1.035121e+002 
3906250000  -4.342460e+001  9.944828e+001 
3909375000  -4.260808e+001  8.862423e+001 
3912500000  -4.407748e+001  7.869845e+001 
3915625000  -4.504058e+001  7.952051e+001 
3918750000  -4.478667e+001  8.022008e+001 
3921875000  -4.412758e+001  7.346946e+001 
3925000000  -4.323014e+001  6.398658e+001 
3928125000  -4.285052e+001  5.773653e+001 
3931250000  -4.384168e+001  4.927814e+001 
3934375000  -4.402394e+001  4.912627e+001 
3937500000  -4.478790e+001  4.634761e+001 
3940625000  -4.444579e+001  4.638400e+001 
3943750000  -4.349644e+001  3.799688e+001 
3946875000  -4.294882e+001  3.039236e+001 
3950000000  -4.382758e+001  1.995377e+001 
3953125000  -4.446621e+001  2.168963e+001 
3956250000  -4.282661e+001  1.987081e+001 
3959375000  -4.176076e+001  1.576890e+001 
3962500000  -4.129811e+001  7.440622e-001 
3965625000  -4.194696e+001  -9.168930e+000 
3968750000  -4.259864e+001  -1.497901e+001 
3971875000  -4.272732e+001  -2.255488e+001 
3975000000  -4.216830e+001  -2.464015e+001 
3978125000  -4.208795e+001  -3.366673e+001 
3981250000  -4.202407e+001  -3.880931e+001 
3984375000  -4.245162e+001  -4.582906e+001 
3987500000  -4.344053e+001  -5.286588e+001 
3990625000  -4.350689e+001  -5.573997e+001 
3993750000  -4.292741e+001  -6.098851e+001 
3996875000  -4.299068e+001  -6.637173e+001 
4000000000  -4.394923e+001  -7.068230e+001 
4003125000  -4.414824e+001  -7.116336e+001 
4006250000  -4.198172e+001  -7.656046e+001 
4009375000  -4.134781e+001  -9.653182e+001 
4012500000  -4.296741e+001  -1.027137e+002 
4015625000  -4.401746e+001  -1.036318e+002 
4018750000  -4.391580e+001  -1.080366e+002 
4021875000  -4.304664e+001  -1.146411e+002 
4025000000  -4.357941e+001  -1.209566e+002 
4028125000  -4.356186e+001  -1.296368e+002 
4031250000  -4.414488e+001  -1.346771e+002 
4034375000  -4.412391e+001  -1.369203e+002 
4037500000  -4.438014e+001  -1.408323e+002 
4040625000  -4.422422e+001  -1.445049e+002 
4043750000  -4.453276e+001  -1.507880e+002 
4046875000  -4.471137e+001  -1.567192e+002 
4050000000  -4.439801e+001  -1.649028e+002 
4053125000  -4.559597e+001  -1.652166e+002 
4056250000  -4.621533e+001  -1.666376e+002 
4059375000  -4.397473e+001  -1.646915e+002 
4062500000  -4.378207e+001  -1.740251e+002 
4065625000  -4.399650e+001  -1.785146e+002 
4068750000  -4.328442e+001  1.724437e+002 
4071875000  -4.296840e+001  1.592710e+002 
4075000000  -4.383742e+001  1.533349e+002 
4078125000  -4.410571e+001  1.520789e+002 
4081250000  -4.369195e+001  1.480055e+002 
4084375000  -4.383631e+001  1.392404e+002 
4087500000  -4.402692e+001  1.314063e+002 
4090625000  -4.506895e+001  1.272044e+002 
4093750000  -4.514404e+001  1.235380e+002 
4096875000  -4.470266e+001  1.204762e+002 
4100000000  -4.569661e+001  1.091194e+002 
4103125000  -4.620943e+001  1.159027e+002 
4106250000  -4.593940e+001  1.144770e+002 
4109375000  -4.460608e+001  1.087217e+002 
4112500000  -4.391735e+001  1.014186e+002 
4115625000  -4.410749e+001  9.742924e+001 
4118750000  -4.432312e+001  9.134167e+001 
4121875000  -4.408154e+001  8.388040e+001 
4125000000  -4.497883e+001  7.510993e+001 
4128125000  -4.535394e+001  7.853413e+001 
4131250000  -4.417343e+001  8.448857e+001 
4134375000  -4.171831e+001  6.886945e+001 
4137500000  -4.245731e+001  5.035290e+001 
4140625000  -4.451476e+001  4.289888e+001 
4143750000  -4.499073e+001  4.948144e+001 
4146875000  -4.367326e+001  4.992187e+001 
4150000000  -4.296997e+001  3.838195e+001 
4153125000  -4.359120e+001  3.131322e+001 
4156250000  -4.446081e+001  2.727153e+001 
4159375000  -4.362474e+001  2.968318e+001 
4162500000  -4.232746e+001  2.821733e+001 
4165625000  -4.170556e+001  1.607345e+001 
4168750000  -4.169331e+001  4.984595e+000 
4171875000  -4.141645e+001  -6.427785e+000 
4175000000  -4.210581e+001  -1.457594e+001 
4178125000  -4.251358e+001  -1.813746e+001 
4181250000  -4.216630e+001  -2.122891e+001 
4184375000  -4.287116e+001  -2.800117e+001 
4187500000  -4.250745e+001  -3.620825e+001 
4190625000  -4.286319e+001  -4.497995e+001 
4193750000  -4.401245e+001  -5.234378e+001 
4196875000  -4.526391e+001  -5.289838e+001 
4200000000  -4.594901e+001  -4.816628e+001 
4203125000  -4.490781e+001  -3.758042e+001 
4206250000  -4.137075e+001  -4.833237e+001 
4209375000  -4.163475e+001  -7.258617e+001 
4212500000  -4.364711e+001  -7.919767e+001 
4215625000  -4.472005e+001  -7.201180e+001 
4218750000  -4.289455e+001  -7.317560e+001 
4221875000  -4.163686e+001  -8.208504e+001 
4225000000  -4.303893e+001  -9.261295e+001 
4228125000  -4.257595e+001  -9.130901e+001 
4231250000  -4.166612e+001  -1.011818e+002 
4234375000  -4.143750e+001  -1.117307e+002 
4237500000  -4.120917e+001  -1.178768e+002 
4240625000  -4.118634e+001  -1.308552e+002 
4243750000  -4.258711e+001  -1.365744e+002 
4246875000  -4.353175e+001  -1.364474e+002 
4250000000  -4.279544e+001  -1.380010e+002 
4253125000  -4.279985e+001  -1.417885e+002 
4256250000  -4.274152e+001  -1.442038e+002 
4259375000  -4.210714e+001  -1.522301e+002 
4262500000  -4.236248e+001  -1.587471e+002 
4265625000  -4.198636e+001  -1.606914e+002 
4268750000  -4.098011e+001  -1.706776e+002 
4271875000  -4.081787e+001  -1.777565e+002 
4275000000  -4.034802e+001  1.721017e+002 
4278125000  -4.170793e+001  1.607383e+002 
4281250000  -4.242857e+001  1.569346e+002 
4284375000  -4.239182e+001  1.535900e+002 
4287500000  -4.394249e+001  1.478661e+002 
4290625000  -4.371413e+001  1.576952e+002 
4293750000  -4.181627e+001  1.587080e+002 
4296875000  -4.035620e+001  1.423885e+002 
4300000000  -4.155926e+001  1.290927e+002 
4303125000  -4.224178e+001  1.328526e+002 
4306250000  -4.087518e+001  1.331187e+002 
4309375000  -3.993319e+001  1.229380e+002 
4312500000  -3.958629e+001  1.075826e+002 
4315625000  -4.016820e+001  9.997908e+001 
4318750000  -4.095055e+001  9.595087e+001 
4321875000  -4.050840e+001  9.213715e+001 
4325000000  -4.010147e+001  8.993005e+001 
4328125000  -3.966966e+001  7.792841e+001 
4331250000  -3.978478e+001  6.583067e+001 
4334375000  -4.065651e+001  5.620629e+001 
4337500000  -4.195609e+001  5.453587e+001 
4340625000  -4.231885e+001  5.737189e+001 
4343750000  -4.120708e+001  5.401659e+001 
4346875000  -4.096606e+001  4.390921e+001 
4350000000  -4.122934e+001  3.378787e+001 
4353125000  -4.200574e+001  2.451849e+001 
4356250000  -4.378964e+001  2.818429e+001 
4359375000  -4.278942e+001  4.318629e+001 
4362500000  -3.973708e+001  3.363057e+001 
4365625000  -3.923538e+001  1.266245e+001 
4368750000  -4.046615e+001  2.481444e+000 
4371875000  -4.133611e+001  -4.569909e-001 
4375000000  -4.059880e+001  -5.903111e+000 
4378125000  -4.075675e+001  -1.519533e+001 
4381250000  -4.060987e+001  -2.030276e+001 
4384375000  -4.101030e+001  -2.899691e+001 
4387500000  -4.214477e+001  -3.586232e+001 
4390625000  -4.215393e+001  -3.929766e+001 
4393750000  -4.221094e+001  -3.765513e+001 
4396875000  -4.136380e+001  -4.403813e+001 
4400000000  -4.083063e+001  -5.264541e+001 
4403125000  -4.181594e+001  -6.363720e+001 
4406250000  -4.224055e+001  -6.929497e+001 
4409375000  -4.249690e+001  -7.304449e+001 
4412500000  -4.370868e+001  -7.398949e+001 
4415625000  -4.319982e+001  -6.916382e+001 
4418750000  -4.182895e+001  -7.223651e+001 
