!Agilent Technologies,E8363B,MY43030201,A.06.04.32
!Agilent E8363B: A.06.04.32
!Date: Tuesday, November 11, 2014 21:48:13
!Correction: S21(Response(S21)) 
!S1P File: Measurement: S21:
# Hz S  dB   R 50
3000000000  -4.376883e+001  -1.621804e+002 
3003125000  -4.526416e+001  -1.663595e+002 
3006250000  -4.525368e+001  -1.682743e+002 
3009375000  -4.611476e+001  -1.640668e+002 
3012500000  -4.485550e+001  -1.697621e+002 
3015625000  -4.513266e+001  -1.794058e+002 
3018750000  -4.525366e+001  -1.790130e+002 
3021875000  -4.410201e+001  -1.767514e+002 
3025000000  -4.241132e+001  1.759405e+002 
3028125000  -4.185935e+001  1.642235e+002 
3031250000  -4.083571e+001  1.515787e+002 
3034375000  -4.079601e+001  1.377100e+002 
3037500000  -4.181953e+001  1.259696e+002 
3040625000  -4.282650e+001  1.192063e+002 
3043750000  -4.329105e+001  1.141646e+002 
3046875000  -4.413669e+001  1.050603e+002 
3050000000  -4.536358e+001  1.007384e+002 
3053125000  -4.468760e+001  1.036164e+002 
3056250000  -4.491807e+001  1.084971e+002 
3059375000  -4.386016e+001  1.054168e+002 
3062500000  -4.262520e+001  1.021373e+002 
3065625000  -4.211920e+001  8.827232e+001 
3068750000  -4.183605e+001  8.044320e+001 
3071875000  -4.175230e+001  7.900061e+001 
3075000000  -4.138305e+001  7.118555e+001 
3078125000  -4.150721e+001  6.449606e+001 
3081250000  -4.128547e+001  5.592050e+001 
3084375000  -4.046211e+001  5.174306e+001 
3087500000  -4.064716e+001  4.417605e+001 
3090625000  -4.002365e+001  3.077230e+001 
3093750000  -4.100184e+001  2.251304e+001 
3096875000  -4.121316e+001  1.551038e+001 
3100000000  -4.117308e+001  1.200853e+001 
3103125000  -4.134100e+001  7.084571e+000 
3106250000  -4.100381e+001  1.422748e+000 
3109375000  -4.098661e+001  -3.578029e+000 
3112500000  -4.089351e+001  -1.148845e+001 
3115625000  -4.085776e+001  -1.472471e+001 
3118750000  -4.075666e+001  -2.108682e+001 
3121875000  -4.004473e+001  -3.284221e+001 
3125000000  -4.206031e+001  -3.578682e+001 
3128125000  -4.213984e+001  -2.926445e+001 
3131250000  -3.966399e+001  -3.980961e+001 
3134375000  -3.880676e+001  -5.748642e+001 
3137500000  -3.966932e+001  -6.911149e+001 
3140625000  -4.067897e+001  -7.420000e+001 
3143750000  -4.163569e+001  -7.957569e+001 
3146875000  -4.087418e+001  -7.771487e+001 
3150000000  -4.049498e+001  -8.270802e+001 
3153125000  -4.069421e+001  -9.053316e+001 
3156250000  -4.145799e+001  -8.717472e+001 
3159375000  -3.918950e+001  -9.222264e+001 
3162500000  -3.766303e+001  -1.080370e+002 
3165625000  -3.904686e+001  -1.232583e+002 
3168750000  -3.911531e+001  -1.248501e+002 
3171875000  -3.842401e+001  -1.320704e+002 
3175000000  -3.931944e+001  -1.425538e+002 
3178125000  -3.859592e+001  -1.454287e+002 
3181250000  -3.798621e+001  -1.545175e+002 
3184375000  -3.799139e+001  -1.664701e+002 
3187500000  -3.901882e+001  1.771846e+002 
3190625000  -4.066579e+001  1.700150e+002 
3193750000  -4.119603e+001  1.748935e+002 
3196875000  -4.084519e+001  1.735087e+002 
3200000000  -3.972930e+001  1.690419e+002 
3203125000  -3.957120e+001  1.598045e+002 
3206250000  -3.990957e+001  1.525128e+002 
3209375000  -3.943322e+001  1.427999e+002 
3212500000  -3.995453e+001  1.358158e+002 
3215625000  -3.976704e+001  1.327578e+002 
3218750000  -4.021637e+001  1.195752e+002 
3221875000  -4.038851e+001  1.125394e+002 
3225000000  -4.050821e+001  1.074198e+002 
3228125000  -4.090285e+001  1.005719e+002 
3231250000  -4.125909e+001  9.745845e+001 
3234375000  -4.093553e+001  9.376707e+001 
3237500000  -4.087339e+001  8.906068e+001 
3240625000  -4.037468e+001  8.313272e+001 
3243750000  -4.035881e+001  7.134251e+001 
3246875000  -4.059480e+001  6.331792e+001 
3250000000  -4.105169e+001  5.911708e+001 
3253125000  -4.109223e+001  5.437880e+001 
3256250000  -4.038103e+001  4.266993e+001 
3259375000  -4.096981e+001  3.036250e+001 
3262500000  -4.226165e+001  2.772659e+001 
3265625000  -4.260022e+001  2.641064e+001 
3268750000  -4.244104e+001  2.682336e+001 
3271875000  -4.180273e+001  2.224543e+001 
3275000000  -4.100591e+001  1.161765e+001 
3278125000  -4.178172e+001  5.382953e+000 
3281250000  -4.193972e+001  -4.799293e-001 
3284375000  -4.103717e+001  -8.995296e+000 
3287500000  -4.129716e+001  -1.628877e+001 
3290625000  -4.177903e+001  -2.515412e+001 
3293750000  -4.154259e+001  -3.421461e+001 
3296875000  -4.279228e+001  -3.792801e+001 
3300000000  -4.189325e+001  -4.010012e+001 
3303125000  -4.075791e+001  -5.083003e+001 
3306250000  -4.076594e+001  -6.054976e+001 
3309375000  -4.056649e+001  -7.064806e+001 
3312500000  -4.105944e+001  -8.633910e+001 
3315625000  -4.225708e+001  -9.564074e+001 
3318750000  -4.427057e+001  -1.002571e+002 
3321875000  -4.524707e+001  -9.974530e+001 
3325000000  -4.471048e+001  -9.643452e+001 
3328125000  -4.419513e+001  -9.926888e+001 
3331250000  -4.223334e+001  -9.938787e+001 
3334375000  -4.038596e+001  -1.170814e+002 
3337500000  -4.098911e+001  -1.398600e+002 
3340625000  -4.261791e+001  -1.500598e+002 
3343750000  -4.448617e+001  -1.529796e+002 
3346875000  -4.384314e+001  -1.548873e+002 
3350000000  -4.367583e+001  -1.602390e+002 
3353125000  -4.368896e+001  -1.717870e+002 
3356250000  -4.349678e+001  1.767482e+002 
3359375000  -4.418302e+001  1.647201e+002 
3362500000  -4.476471e+001  1.556897e+002 
3365625000  -4.599867e+001  1.510722e+002 
3368750000  -4.646389e+001  1.472744e+002 
3371875000  -4.707174e+001  1.400790e+002 
3375000000  -4.836121e+001  1.334688e+002 
3378125000  -4.893127e+001  1.331120e+002 
3381250000  -5.068907e+001  1.437560e+002 
3384375000  -4.754629e+001  1.524851e+002 
3387500000  -4.400186e+001  1.268708e+002 
3390625000  -4.683841e+001  1.064327e+002 
3393750000  -4.751560e+001  1.049018e+002 
3396875000  -4.624583e+001  9.885746e+001 
3400000000  -4.637158e+001  8.784575e+001 
3403125000  -4.695321e+001  7.813464e+001 
3406250000  -4.732379e+001  7.141270e+001 
3409375000  -4.713382e+001  6.199120e+001 
3412500000  -4.761049e+001  5.167100e+001 
3415625000  -4.863953e+001  4.890357e+001 
3418750000  -4.877613e+001  4.538583e+001 
3421875000  -4.860603e+001  3.908512e+001 
3425000000  -4.802802e+001  3.547953e+001 
3428125000  -4.714057e+001  2.712898e+001 
3431250000  -4.692359e+001  1.378386e+001 
3434375000  -4.743208e+001  4.798181e+000 
3437500000  -4.767928e+001  -3.110266e+000 
3440625000  -4.755337e+001  -9.384945e+000 
3443750000  -4.644923e+001  -1.297245e+001 
3446875000  -4.597107e+001  -2.630001e+001 
3450000000  -4.519897e+001  -4.170388e+001 
3453125000  -4.574725e+001  -5.906668e+001 
3456250000  -4.745962e+001  -7.146989e+001 
3459375000  -4.838728e+001  -7.173000e+001 
3462500000  -4.787284e+001  -7.274055e+001 
3465625000  -4.739093e+001  -8.888390e+001 
3468750000  -4.758934e+001  -9.380629e+001 
3471875000  -4.693837e+001  -1.021189e+002 
3475000000  -4.753672e+001  -1.157606e+002 
3478125000  -4.766637e+001  -1.318002e+002 
3481250000  -4.922785e+001  -1.341421e+002 
3484375000  -4.872507e+001  -1.346012e+002 
3487500000  -4.730826e+001  -1.439869e+002 
3490625000  -4.721745e+001  -1.530371e+002 
3493750000  -4.806172e+001  -1.660204e+002 
3496875000  -4.825003e+001  -1.699673e+002 
3500000000  -4.793777e+001  -1.704974e+002 
3503125000  -4.747393e+001  -1.726498e+002 
3506250000  -4.540255e+001  1.698243e+002 
3509375000  -4.563243e+001  1.514309e+002 
3512500000  -4.604821e+001  1.352971e+002 
3515625000  -4.725611e+001  1.308607e+002 
3518750000  -4.763085e+001  1.274533e+002 
3521875000  -4.799435e+001  1.198313e+002 
3525000000  -4.834665e+001  1.143243e+002 
3528125000  -4.730412e+001  1.169997e+002 
3531250000  -4.694754e+001  1.060632e+002 
3534375000  -4.699207e+001  8.749619e+001 
3537500000  -4.806401e+001  7.827228e+001 
3540625000  -4.879123e+001  7.499322e+001 
3543750000  -4.938940e+001  7.825076e+001 
3546875000  -4.835968e+001  8.301852e+001 
3550000000  -4.641083e+001  7.519640e+001 
3553125000  -4.613902e+001  5.286318e+001 
3556250000  -4.742963e+001  4.560172e+001 
3559375000  -4.672844e+001  4.035656e+001 
3562500000  -4.625653e+001  3.121320e+001 
3565625000  -4.760353e+001  2.459402e+001 
3568750000  -4.758205e+001  2.190802e+001 
3571875000  -4.705755e+001  1.595936e+001 
3575000000  -4.739231e+001  1.053391e+001 
3578125000  -4.759890e+001  8.383494e+000 
3581250000  -4.738481e+001  4.425784e+000 
3584375000  -4.570491e+001  -3.427904e+000 
3587500000  -4.582885e+001  -1.335972e+001 
3590625000  -4.682418e+001  -2.571902e+001 
3593750000  -4.772256e+001  -2.641117e+001 
3596875000  -4.719976e+001  -2.179246e+001 
3600000000  -4.462751e+001  -3.299139e+001 
3603125000  -4.551307e+001  -4.643146e+001 
3606250000  -4.616496e+001  -5.259970e+001 
3609375000  -4.628234e+001  -5.804669e+001 
3612500000  -4.609332e+001  -6.418973e+001 
3615625000  -4.585401e+001  -6.880202e+001 
3618750000  -4.606521e+001  -7.062303e+001 
3621875000  -4.546288e+001  -7.906419e+001 
3625000000  -4.618008e+001  -8.249046e+001 
3628125000  -4.457305e+001  -8.939242e+001 
3631250000  -4.522364e+001  -9.962207e+001 
3634375000  -4.603739e+001  -9.886710e+001 
3637500000  -4.442178e+001  -9.995702e+001 
3640625000  -4.348581e+001  -1.057307e+002 
3643750000  -4.326006e+001  -1.188431e+002 
3646875000  -4.393823e+001  -1.297150e+002 
3650000000  -4.384205e+001  -1.339239e+002 
3653125000  -4.337299e+001  -1.424918e+002 
3656250000  -4.406582e+001  -1.502681e+002 
3659375000  -4.396484e+001  -1.535284e+002 
3662500000  -4.365202e+001  -1.607332e+002 
3665625000  -4.332431e+001  -1.651642e+002 
3668750000  -4.214349e+001  -1.694104e+002 
3671875000  -4.159620e+001  1.771026e+002 
3675000000  -4.216050e+001  1.668571e+002 
3678125000  -4.265399e+001  1.623864e+002 
3681250000  -4.234674e+001  1.563527e+002 
3684375000  -4.252285e+001  1.472733e+002 
3687500000  -4.280015e+001  1.383480e+002 
3690625000  -4.342935e+001  1.330441e+002 
3693750000  -4.413484e+001  1.333660e+002 
3696875000  -4.376220e+001  1.287603e+002 
3700000000  -4.271789e+001  1.199623e+002 
3703125000  -4.373357e+001  1.113955e+002 
3706250000  -4.455046e+001  1.099731e+002 
3709375000  -4.388135e+001  1.115671e+002 
3712500000  -4.292075e+001  1.054194e+002 
3715625000  -4.164002e+001  9.566954e+001 
3718750000  -4.163528e+001  8.266728e+001 
3721875000  -4.187706e+001  7.638711e+001 
3725000000  -4.246247e+001  6.756080e+001 
3728125000  -4.223559e+001  6.487724e+001 
3731250000  -4.199220e+001  5.818683e+001 
3734375000  -4.226437e+001  5.189703e+001 
3737500000  -4.236229e+001  4.266849e+001 
3740625000  -4.299381e+001  3.740355e+001 
3743750000  -4.313840e+001  3.116422e+001 
3746875000  -4.351832e+001  2.430674e+001 
3750000000  -4.356417e+001  2.026316e+001 
3753125000  -4.374800e+001  1.717523e+001 
3756250000  -4.362092e+001  1.517859e+001 
3759375000  -4.364875e+001  8.631366e+000 
3762500000  -4.315139e+001  2.592011e+000 
3765625000  -4.427721e+001  -3.889566e+000 
3768750000  -4.354933e+001  -2.706345e+000 
3771875000  -4.198837e+001  -8.180095e+000 
3775000000  -4.235771e+001  -1.960546e+001 
3778125000  -4.288179e+001  -2.335157e+001 
3781250000  -4.241747e+001  -3.060922e+001 
3784375000  -4.270927e+001  -3.736309e+001 
3787500000  -4.232399e+001  -4.132338e+001 
3790625000  -4.314763e+001  -5.066041e+001 
3793750000  -4.262612e+001  -5.573066e+001 
3796875000  -4.173426e+001  -5.950780e+001 
3800000000  -4.079551e+001  -6.741826e+001 
3803125000  -4.179184e+001  -8.140728e+001 
3806250000  -4.245525e+001  -8.349519e+001 
3809375000  -4.179455e+001  -8.856992e+001 
3812500000  -4.209283e+001  -1.002792e+002 
3815625000  -4.296843e+001  -1.113568e+002 
3818750000  -4.415007e+001  -1.084642e+002 
3821875000  -4.322628e+001  -9.944530e+001 
3825000000  -4.141237e+001  -1.053906e+002 
3828125000  -4.030128e+001  -1.250914e+002 
3831250000  -4.118599e+001  -1.407921e+002 
3834375000  -4.362507e+001  -1.421940e+002 
3837500000  -4.390283e+001  -1.365792e+002 
3840625000  -4.266023e+001  -1.466227e+002 
3843750000  -4.131037e+001  -1.595398e+002 
3846875000  -4.397252e+001  -1.662332e+002 
3850000000  -4.403877e+001  -1.591021e+002 
3853125000  -4.364597e+001  -1.645737e+002 
3856250000  -4.302586e+001  -1.733799e+002 
3859375000  -4.197542e+001  -1.797531e+002 
3862500000  -4.223154e+001  1.699298e+002 
3865625000  -4.261403e+001  1.623576e+002 
3868750000  -4.226703e+001  1.611524e+002 
3871875000  -4.156039e+001  1.528358e+002 
3875000000  -4.240644e+001  1.433500e+002 
3878125000  -4.330678e+001  1.392898e+002 
3881250000  -4.333664e+001  1.380873e+002 
3884375000  -4.253172e+001  1.275647e+002 
3887500000  -4.333694e+001  1.227504e+002 
3890625000  -4.357858e+001  1.169261e+002 
3893750000  -4.416160e+001  1.144833e+002 
3896875000  -4.391889e+001  1.131699e+002 
3900000000  -4.455479e+001  1.041936e+002 
3903125000  -4.375542e+001  1.030088e+002 
3906250000  -4.339683e+001  9.931264e+001 
3909375000  -4.289258e+001  8.995014e+001 
3912500000  -4.374014e+001  8.145415e+001 
3915625000  -4.482576e+001  7.978477e+001 
3918750000  -4.479887e+001  7.934952e+001 
3921875000  -4.352406e+001  7.249104e+001 
3925000000  -4.313029e+001  6.547633e+001 
3928125000  -4.291850e+001  5.672684e+001 
3931250000  -4.342536e+001  4.928251e+001 
3934375000  -4.375135e+001  4.726007e+001 
3937500000  -4.440400e+001  4.418847e+001 
3940625000  -4.476587e+001  4.533126e+001 
3943750000  -4.322972e+001  3.836460e+001 
3946875000  -4.284879e+001  2.966761e+001 
3950000000  -4.356873e+001  2.014622e+001 
3953125000  -4.427478e+001  2.110497e+001 
3956250000  -4.321785e+001  2.208461e+001 
3959375000  -4.177847e+001  1.355045e+001 
3962500000  -4.156799e+001  2.233975e+000 
3965625000  -4.184395e+001  -9.868449e+000 
3968750000  -4.234317e+001  -1.804571e+001 
3971875000  -4.223951e+001  -2.189444e+001 
3975000000  -4.179166e+001  -2.490353e+001 
3978125000  -4.218659e+001  -3.143834e+001 
3981250000  -4.191800e+001  -3.966578e+001 
3984375000  -4.239212e+001  -4.746560e+001 
3987500000  -4.293545e+001  -5.223655e+001 
3990625000  -4.307133e+001  -5.817798e+001 
3993750000  -4.318375e+001  -6.292845e+001 
3996875000  -4.291610e+001  -7.111639e+001 
4000000000  -4.329058e+001  -7.223814e+001 
4003125000  -4.369807e+001  -7.028033e+001 
4006250000  -4.187320e+001  -7.629117e+001 
4009375000  -4.099060e+001  -9.825437e+001 
4012500000  -4.274265e+001  -1.002951e+002 
4015625000  -4.381225e+001  -1.021069e+002 
4018750000  -4.374296e+001  -1.090004e+002 
4021875000  -4.313540e+001  -1.159260e+002 
4025000000  -4.324850e+001  -1.218151e+002 
4028125000  -4.335875e+001  -1.315969e+002 
4031250000  -4.419202e+001  -1.364678e+002 
4034375000  -4.408011e+001  -1.380956e+002 
4037500000  -4.398509e+001  -1.413539e+002 
4040625000  -4.403159e+001  -1.468153e+002 
4043750000  -4.441695e+001  -1.526823e+002 
4046875000  -4.403139e+001  -1.541101e+002 
4050000000  -4.429077e+001  -1.649934e+002 
4053125000  -4.498290e+001  -1.654213e+002 
4056250000  -4.576560e+001  -1.653624e+002 
4059375000  -4.373625e+001  -1.642890e+002 
4062500000  -4.349050e+001  -1.738772e+002 
4065625000  -4.323675e+001  -1.776056e+002 
4068750000  -4.286791e+001  1.708062e+002 
4071875000  -4.257002e+001  1.610884e+002 
4075000000  -4.356676e+001  1.526547e+002 
4078125000  -4.370996e+001  1.513204e+002 
4081250000  -4.340924e+001  1.458441e+002 
4084375000  -4.320293e+001  1.345822e+002 
4087500000  -4.406063e+001  1.288953e+002 
4090625000  -4.426560e+001  1.250764e+002 
4093750000  -4.420256e+001  1.253196e+002 
4096875000  -4.393852e+001  1.170642e+002 
4100000000  -4.490566e+001  1.082611e+002 
4103125000  -4.584109e+001  1.138167e+002 
4106250000  -4.507172e+001  1.138676e+002 
4109375000  -4.371234e+001  1.101258e+002 
4112500000  -4.392471e+001  9.979084e+001 
4115625000  -4.380239e+001  9.685609e+001 
4118750000  -4.401749e+001  8.953936e+001 
4121875000  -4.363560e+001  8.410835e+001 
4125000000  -4.457088e+001  7.510192e+001 
4128125000  -4.515228e+001  7.809587e+001 
4131250000  -4.342539e+001  8.398575e+001 
4134375000  -4.155782e+001  6.841078e+001 
4137500000  -4.218507e+001  4.944816e+001 
4140625000  -4.413251e+001  4.371134e+001 
4143750000  -4.484017e+001  4.743058e+001 
4146875000  -4.366082e+001  4.989083e+001 
4150000000  -4.265113e+001  4.129566e+001 
4153125000  -4.324411e+001  3.001936e+001 
4156250000  -4.438235e+001  2.538975e+001 
4159375000  -4.338161e+001  3.021683e+001 
4162500000  -4.239786e+001  2.536517e+001 
4165625000  -4.156767e+001  1.471708e+001 
4168750000  -4.105931e+001  4.110557e+000 
4171875000  -4.122230e+001  -5.510178e+000 
4175000000  -4.166271e+001  -1.461102e+001 
4178125000  -4.254561e+001  -1.720176e+001 
4181250000  -4.179401e+001  -2.302476e+001 
4184375000  -4.258552e+001  -2.985781e+001 
4187500000  -4.230518e+001  -3.721744e+001 
4190625000  -4.241454e+001  -4.706236e+001 
4193750000  -4.409117e+001  -5.468102e+001 
4196875000  -4.491398e+001  -5.541274e+001 
4200000000  -4.557226e+001  -4.718670e+001 
4203125000  -4.411201e+001  -4.267143e+001 
4206250000  -4.084651e+001  -4.887424e+001 
4209375000  -4.137262e+001  -7.629092e+001 
4212500000  -4.382775e+001  -7.851169e+001 
4215625000  -4.422778e+001  -7.328786e+001 
4218750000  -4.236705e+001  -7.351925e+001 
4221875000  -4.125214e+001  -8.582449e+001 
4225000000  -4.225986e+001  -9.801292e+001 
4228125000  -4.202926e+001  -9.348534e+001 
4231250000  -4.073098e+001  -1.022349e+002 
4234375000  -4.081686e+001  -1.128515e+002 
4237500000  -4.079195e+001  -1.196444e+002 
4240625000  -4.103261e+001  -1.302968e+002 
4243750000  -4.238176e+001  -1.386577e+002 
4246875000  -4.287792e+001  -1.374100e+002 
4250000000  -4.308776e+001  -1.416519e+002 
4253125000  -4.241762e+001  -1.434538e+002 
4256250000  -4.259002e+001  -1.505767e+002 
4259375000  -4.195287e+001  -1.563702e+002 
4262500000  -4.219978e+001  -1.588949e+002 
4265625000  -4.168920e+001  -1.641062e+002 
4268750000  -4.084542e+001  -1.708609e+002 
4271875000  -4.037581e+001  1.790365e+002 
4275000000  -4.002933e+001  1.710501e+002 
4278125000  -4.133399e+001  1.600647e+002 
4281250000  -4.270420e+001  1.555632e+002 
4284375000  -4.207981e+001  1.527653e+002 
4287500000  -4.382126e+001  1.509760e+002 
4290625000  -4.371643e+001  1.540576e+002 
4293750000  -4.133231e+001  1.566478e+002 
4296875000  -4.025201e+001  1.410378e+002 
4300000000  -4.137223e+001  1.305062e+002 
4303125000  -4.215810e+001  1.315730e+002 
4306250000  -4.040694e+001  1.261515e+002 
4309375000  -4.003112e+001  1.191585e+002 
4312500000  -3.989753e+001  1.076091e+002 
4315625000  -3.994302e+001  9.840674e+001 
4318750000  -4.069839e+001  9.363769e+001 
4321875000  -4.053009e+001  9.074010e+001 
4325000000  -4.009132e+001  8.767930e+001 
4328125000  -3.913819e+001  7.406902e+001 
4331250000  -3.966519e+001  6.301843e+001 
4334375000  -4.057353e+001  5.434146e+001 
4337500000  -4.195042e+001  5.106738e+001 
4340625000  -4.226457e+001  5.450001e+001 
4343750000  -4.103214e+001  5.175397e+001 
4346875000  -4.085733e+001  4.224975e+001 
4350000000  -4.105091e+001  3.222886e+001 
4353125000  -4.178028e+001  2.333758e+001 
4356250000  -4.383546e+001  2.599747e+001 
4359375000  -4.279805e+001  3.754706e+001 
4362500000  -3.954836e+001  2.965707e+001 
4365625000  -3.902068e+001  9.657180e+000 
4368750000  -4.064153e+001  6.474574e-001 
4371875000  -4.072929e+001  -3.961119e+000 
4375000000  -4.035624e+001  -6.885626e+000 
4378125000  -4.045626e+001  -1.621183e+001 
4381250000  -4.068347e+001  -2.439144e+001 
4384375000  -4.056886e+001  -3.040763e+001 
4387500000  -4.182554e+001  -3.677794e+001 
4390625000  -4.214325e+001  -4.125337e+001 
4393750000  -4.173680e+001  -4.220313e+001 
4396875000  -4.098641e+001  -4.515670e+001 
4400000000  -4.054963e+001  -5.576979e+001 
4403125000  -4.163822e+001  -6.499162e+001 
4406250000  -4.227528e+001  -7.099474e+001 
4409375000  -4.261995e+001  -7.455716e+001 
4412500000  -4.361033e+001  -7.529475e+001 
4415625000  -4.313891e+001  -7.393871e+001 
4418750000  -4.183386e+001  -7.367689e+001 
