!Agilent Technologies,E8363B,MY43030201,A.06.04.32
!Agilent E8363B: A.06.04.32
!Date: Tuesday, November 11, 2014 21:46:47
!Correction: S21(Response(S21)) 
!S1P File: Measurement: S21:
# Hz S  dB   R 50
3000000000  -4.391865e+001  -1.616994e+002 
3003125000  -4.520062e+001  -1.674644e+002 
3006250000  -4.530515e+001  -1.689179e+002 
3009375000  -4.624303e+001  -1.635328e+002 
3012500000  -4.496441e+001  -1.710906e+002 
3015625000  -4.486628e+001  -1.767885e+002 
3018750000  -4.541627e+001  -1.784281e+002 
3021875000  -4.393299e+001  -1.798257e+002 
3025000000  -4.279359e+001  1.767804e+002 
3028125000  -4.178203e+001  1.654610e+002 
3031250000  -4.087188e+001  1.524429e+002 
3034375000  -4.078878e+001  1.365000e+002 
3037500000  -4.159109e+001  1.263745e+002 
3040625000  -4.282421e+001  1.216457e+002 
3043750000  -4.331176e+001  1.125707e+002 
3046875000  -4.449728e+001  1.088477e+002 
3050000000  -4.514290e+001  1.021460e+002 
3053125000  -4.464832e+001  1.058239e+002 
3056250000  -4.478905e+001  1.081790e+002 
3059375000  -4.385672e+001  1.054818e+002 
3062500000  -4.273317e+001  1.011011e+002 
3065625000  -4.214824e+001  8.863528e+001 
3068750000  -4.179668e+001  8.152836e+001 
3071875000  -4.180585e+001  7.896352e+001 
3075000000  -4.108107e+001  7.013958e+001 
3078125000  -4.142717e+001  6.413863e+001 
3081250000  -4.139756e+001  5.691788e+001 
3084375000  -4.039929e+001  5.014555e+001 
3087500000  -4.057980e+001  4.406490e+001 
3090625000  -3.975891e+001  3.090118e+001 
3093750000  -4.098011e+001  2.208188e+001 
3096875000  -4.124667e+001  1.596424e+001 
3100000000  -4.098990e+001  1.354947e+001 
3103125000  -4.154971e+001  6.877247e+000 
3106250000  -4.108263e+001  1.700264e+000 
3109375000  -4.097145e+001  -2.950101e+000 
3112500000  -4.097942e+001  -1.140156e+001 
3115625000  -4.087962e+001  -1.565917e+001 
3118750000  -4.074101e+001  -2.132114e+001 
3121875000  -4.002102e+001  -3.318448e+001 
3125000000  -4.217238e+001  -3.771211e+001 
3128125000  -4.212686e+001  -3.041915e+001 
3131250000  -3.947041e+001  -3.919962e+001 
3134375000  -3.886238e+001  -5.618490e+001 
3137500000  -3.945431e+001  -6.969032e+001 
3140625000  -4.082240e+001  -7.530281e+001 
3143750000  -4.159960e+001  -7.788493e+001 
3146875000  -4.110818e+001  -7.784984e+001 
3150000000  -4.035458e+001  -8.357216e+001 
3153125000  -4.058205e+001  -9.134870e+001 
3156250000  -4.155272e+001  -8.787720e+001 
3159375000  -3.895173e+001  -9.174078e+001 
3162500000  -3.776665e+001  -1.093552e+002 
3165625000  -3.893417e+001  -1.221844e+002 
3168750000  -3.905492e+001  -1.244112e+002 
3171875000  -3.854832e+001  -1.326019e+002 
3175000000  -3.915749e+001  -1.437728e+002 
3178125000  -3.871236e+001  -1.447335e+002 
3181250000  -3.812831e+001  -1.550395e+002 
3184375000  -3.793324e+001  -1.669404e+002 
3187500000  -3.929235e+001  1.779311e+002 
3190625000  -4.089940e+001  1.692487e+002 
3193750000  -4.117437e+001  1.742086e+002 
3196875000  -4.110329e+001  1.746410e+002 
3200000000  -3.982444e+001  1.689328e+002 
3203125000  -3.944159e+001  1.591056e+002 
3206250000  -3.995388e+001  1.520099e+002 
3209375000  -3.950352e+001  1.431138e+002 
3212500000  -3.997928e+001  1.357252e+002 
3215625000  -3.962359e+001  1.328971e+002 
3218750000  -4.030681e+001  1.197239e+002 
3221875000  -4.080670e+001  1.142027e+002 
3225000000  -4.034245e+001  1.074569e+002 
3228125000  -4.107399e+001  9.924478e+001 
3231250000  -4.152256e+001  9.883182e+001 
3234375000  -4.094253e+001  9.342474e+001 
3237500000  -4.102858e+001  9.017196e+001 
3240625000  -4.027343e+001  8.280816e+001 
3243750000  -4.041315e+001  7.057834e+001 
3246875000  -4.070672e+001  6.300851e+001 
3250000000  -4.114435e+001  5.908287e+001 
3253125000  -4.106155e+001  5.413476e+001 
3256250000  -4.040311e+001  4.458613e+001 
3259375000  -4.088081e+001  3.046711e+001 
3262500000  -4.249536e+001  2.768739e+001 
3265625000  -4.253935e+001  2.816962e+001 
3268750000  -4.254491e+001  2.676649e+001 
3271875000  -4.142917e+001  1.964046e+001 
3275000000  -4.116752e+001  9.498497e+000 
3278125000  -4.176754e+001  3.453885e+000 
3281250000  -4.180490e+001  -6.602903e-001 
3284375000  -4.093572e+001  -9.071801e+000 
3287500000  -4.144676e+001  -1.660953e+001 
3290625000  -4.148023e+001  -2.669580e+001 
3293750000  -4.137964e+001  -3.471928e+001 
3296875000  -4.271751e+001  -3.965582e+001 
3300000000  -4.203247e+001  -4.066853e+001 
3303125000  -4.084750e+001  -4.942366e+001 
3306250000  -4.091764e+001  -6.114217e+001 
3309375000  -4.086320e+001  -7.100352e+001 
3312500000  -4.123432e+001  -8.697380e+001 
3315625000  -4.250947e+001  -9.430123e+001 
3318750000  -4.384393e+001  -1.010339e+002 
3321875000  -4.513520e+001  -9.853957e+001 
3325000000  -4.471595e+001  -9.478835e+001 
3328125000  -4.374512e+001  -9.843995e+001 
3331250000  -4.241232e+001  -9.866501e+001 
3334375000  -4.015461e+001  -1.167396e+002 
3337500000  -4.086689e+001  -1.405197e+002 
3340625000  -4.281229e+001  -1.519437e+002 
3343750000  -4.475297e+001  -1.542609e+002 
3346875000  -4.388499e+001  -1.569602e+002 
3350000000  -4.376063e+001  -1.616913e+002 
3353125000  -4.347496e+001  -1.722351e+002 
3356250000  -4.320752e+001  1.780421e+002 
3359375000  -4.424910e+001  1.643613e+002 
3362500000  -4.489741e+001  1.567751e+002 
3365625000  -4.573934e+001  1.519431e+002 
3368750000  -4.641475e+001  1.468870e+002 
3371875000  -4.675008e+001  1.381481e+002 
3375000000  -4.874453e+001  1.348267e+002 
3378125000  -4.944262e+001  1.324994e+002 
3381250000  -5.065108e+001  1.424497e+002 
3384375000  -4.753906e+001  1.526503e+002 
3387500000  -4.465044e+001  1.281659e+002 
3390625000  -4.698831e+001  1.049459e+002 
3393750000  -4.752290e+001  1.047889e+002 
3396875000  -4.642295e+001  9.984724e+001 
3400000000  -4.615382e+001  8.962489e+001 
3403125000  -4.675268e+001  7.929893e+001 
3406250000  -4.699210e+001  6.961345e+001 
3409375000  -4.715334e+001  6.120691e+001 
3412500000  -4.784245e+001  5.458173e+001 
3415625000  -4.873865e+001  4.788096e+001 
3418750000  -4.858043e+001  4.495436e+001 
3421875000  -4.894684e+001  3.838788e+001 
3425000000  -4.808442e+001  3.787465e+001 
3428125000  -4.721936e+001  2.634301e+001 
3431250000  -4.707706e+001  1.461050e+001 
3434375000  -4.714494e+001  3.560236e+000 
3437500000  -4.758992e+001  -5.928620e+000 
3440625000  -4.815598e+001  -9.034653e+000 
3443750000  -4.656585e+001  -1.418649e+001 
3446875000  -4.560028e+001  -2.922295e+001 
3450000000  -4.523009e+001  -4.337435e+001 
3453125000  -4.553296e+001  -6.054935e+001 
3456250000  -4.699527e+001  -6.787604e+001 
3459375000  -4.806577e+001  -7.136159e+001 
3462500000  -4.833943e+001  -7.869375e+001 
3465625000  -4.735206e+001  -8.963778e+001 
3468750000  -4.730717e+001  -9.575876e+001 
3471875000  -4.711546e+001  -9.850592e+001 
3475000000  -4.697275e+001  -1.155158e+002 
3478125000  -4.752463e+001  -1.299069e+002 
3481250000  -4.865985e+001  -1.368008e+002 
3484375000  -4.803348e+001  -1.362616e+002 
3487500000  -4.761215e+001  -1.415511e+002 
3490625000  -4.748772e+001  -1.549711e+002 
3493750000  -4.803222e+001  -1.679402e+002 
3496875000  -4.802243e+001  -1.696777e+002 
3500000000  -4.805872e+001  -1.722800e+002 
3503125000  -4.695890e+001  -1.723616e+002 
3506250000  -4.548410e+001  1.679825e+002 
3509375000  -4.580663e+001  1.498624e+002 
3512500000  -4.586224e+001  1.352068e+002 
3515625000  -4.721680e+001  1.308165e+002 
3518750000  -4.838551e+001  1.293358e+002 
3521875000  -4.752409e+001  1.178133e+002 
3525000000  -4.849188e+001  1.154466e+002 
3528125000  -4.795644e+001  1.145303e+002 
3531250000  -4.693958e+001  1.055981e+002 
3534375000  -4.679351e+001  8.655738e+001 
3537500000  -4.788354e+001  7.752610e+001 
3540625000  -4.903286e+001  7.325146e+001 
3543750000  -4.911987e+001  8.027168e+001 
3546875000  -4.826454e+001  8.201899e+001 
3550000000  -4.627499e+001  7.295077e+001 
3553125000  -4.571241e+001  5.321219e+001 
3556250000  -4.722410e+001  4.872414e+001 
3559375000  -4.696814e+001  4.120468e+001 
3562500000  -4.684599e+001  3.105407e+001 
3565625000  -4.753263e+001  2.274701e+001 
3568750000  -4.778199e+001  2.379333e+001 
3571875000  -4.693642e+001  1.869481e+001 
3575000000  -4.691246e+001  1.093631e+001 
3578125000  -4.781754e+001  5.426529e+000 
3581250000  -4.734724e+001  3.383849e+000 
3584375000  -4.600588e+001  -4.818720e+000 
3587500000  -4.577607e+001  -1.651503e+001 
3590625000  -4.685989e+001  -2.201146e+001 
3593750000  -4.836266e+001  -2.721140e+001 
3596875000  -4.698174e+001  -2.159272e+001 
3600000000  -4.478674e+001  -3.061115e+001 
3603125000  -4.512209e+001  -4.969119e+001 
3606250000  -4.579926e+001  -5.153686e+001 
3609375000  -4.612062e+001  -5.795719e+001 
3612500000  -4.622191e+001  -6.713895e+001 
3615625000  -4.606650e+001  -6.951501e+001 
3618750000  -4.611161e+001  -7.102336e+001 
3621875000  -4.540760e+001  -8.015839e+001 
3625000000  -4.572462e+001  -8.196947e+001 
3628125000  -4.484972e+001  -8.807328e+001 
3631250000  -4.511276e+001  -9.953200e+001 
3634375000  -4.546152e+001  -1.000328e+002 
3637500000  -4.464801e+001  -9.995886e+001 
3640625000  -4.354819e+001  -1.090896e+002 
3643750000  -4.326944e+001  -1.192273e+002 
3646875000  -4.361726e+001  -1.283159e+002 
3650000000  -4.352904e+001  -1.328511e+002 
3653125000  -4.317509e+001  -1.414450e+002 
3656250000  -4.377785e+001  -1.497957e+002 
3659375000  -4.396893e+001  -1.519115e+002 
3662500000  -4.316743e+001  -1.602762e+002 
3665625000  -4.342112e+001  -1.642257e+002 
3668750000  -4.201398e+001  -1.699277e+002 
3671875000  -4.154452e+001  1.768545e+002 
3675000000  -4.227359e+001  1.672867e+002 
3678125000  -4.272366e+001  1.627908e+002 
3681250000  -4.227008e+001  1.564157e+002 
3684375000  -4.248375e+001  1.476573e+002 
3687500000  -4.279478e+001  1.401727e+002 
3690625000  -4.349878e+001  1.329401e+002 
3693750000  -4.461116e+001  1.327414e+002 
3696875000  -4.383100e+001  1.295765e+002 
3700000000  -4.312250e+001  1.215566e+002 
3703125000  -4.366111e+001  1.132847e+002 
3706250000  -4.493854e+001  1.100357e+002 
3709375000  -4.405342e+001  1.108790e+002 
3712500000  -4.284016e+001  1.037775e+002 
3715625000  -4.182781e+001  9.452203e+001 
3718750000  -4.197514e+001  8.531194e+001 
3721875000  -4.171348e+001  7.789304e+001 
3725000000  -4.252021e+001  6.868032e+001 
3728125000  -4.235770e+001  6.509464e+001 
3731250000  -4.185085e+001  5.950653e+001 
3734375000  -4.226260e+001  5.108965e+001 
3737500000  -4.232529e+001  4.272417e+001 
3740625000  -4.268583e+001  3.890318e+001 
3743750000  -4.293021e+001  3.072459e+001 
3746875000  -4.351316e+001  2.370755e+001 
3750000000  -4.359536e+001  2.113436e+001 
3753125000  -4.357021e+001  1.649010e+001 
3756250000  -4.373048e+001  1.273879e+001 
3759375000  -4.359811e+001  7.113093e+000 
3762500000  -4.331074e+001  4.494625e+000 
3765625000  -4.431538e+001  -2.258095e+000 
3768750000  -4.359420e+001  8.272981e-001 
3771875000  -4.230038e+001  -8.400934e+000 
3775000000  -4.208734e+001  -1.921430e+001 
3778125000  -4.267219e+001  -2.713781e+001 
3781250000  -4.257435e+001  -2.958042e+001 
3784375000  -4.246170e+001  -3.698053e+001 
3787500000  -4.229816e+001  -3.977237e+001 
3790625000  -4.308878e+001  -5.045477e+001 
3793750000  -4.253739e+001  -5.361784e+001 
3796875000  -4.204661e+001  -5.829351e+001 
3800000000  -4.058130e+001  -6.682760e+001 
3803125000  -4.162622e+001  -7.889049e+001 
3806250000  -4.243716e+001  -8.247607e+001 
3809375000  -4.173994e+001  -8.663931e+001 
3812500000  -4.161443e+001  -9.934491e+001 
3815625000  -4.328598e+001  -1.106559e+002 
3818750000  -4.444844e+001  -1.067749e+002 
3821875000  -4.361423e+001  -9.814914e+001 
3825000000  -4.134129e+001  -1.057459e+002 
3828125000  -4.045539e+001  -1.263959e+002 
3831250000  -4.184659e+001  -1.425745e+002 
3834375000  -4.365442e+001  -1.404235e+002 
3837500000  -4.395806e+001  -1.369809e+002 
3840625000  -4.244867e+001  -1.452281e+002 
3843750000  -4.181289e+001  -1.586620e+002 
3846875000  -4.377851e+001  -1.668920e+002 
3850000000  -4.427296e+001  -1.590265e+002 
3853125000  -4.340078e+001  -1.646072e+002 
3856250000  -4.307669e+001  -1.727041e+002 
3859375000  -4.230840e+001  1.798395e+002 
3862500000  -4.224171e+001  1.720523e+002 
3865625000  -4.282799e+001  1.635130e+002 
3868750000  -4.245042e+001  1.617999e+002 
3871875000  -4.196357e+001  1.513569e+002 
3875000000  -4.265343e+001  1.410546e+002 
3878125000  -4.353205e+001  1.384538e+002 
3881250000  -4.320404e+001  1.387707e+002 
3884375000  -4.254401e+001  1.262755e+002 
3887500000  -4.349335e+001  1.224523e+002 
3890625000  -4.385145e+001  1.169409e+002 
3893750000  -4.432185e+001  1.133787e+002 
3896875000  -4.461473e+001  1.119146e+002 
3900000000  -4.424915e+001  1.086431e+002 
3903125000  -4.378054e+001  1.012060e+002 
3906250000  -4.328978e+001  9.815357e+001 
3909375000  -4.250342e+001  8.441597e+001 
3912500000  -4.391369e+001  7.856493e+001 
3915625000  -4.518807e+001  7.837547e+001 
3918750000  -4.493656e+001  7.498943e+001 
3921875000  -4.351266e+001  7.262911e+001 
3925000000  -4.325652e+001  6.597692e+001 
3928125000  -4.277296e+001  5.392731e+001 
3931250000  -4.374544e+001  4.837531e+001 
3934375000  -4.378181e+001  4.764366e+001 
3937500000  -4.447121e+001  4.579732e+001 
3940625000  -4.437075e+001  4.319915e+001 
3943750000  -4.329816e+001  3.789597e+001 
3946875000  -4.286552e+001  3.083797e+001 
3950000000  -4.375085e+001  2.039427e+001 
3953125000  -4.430472e+001  2.131002e+001 
3956250000  -4.274512e+001  1.934536e+001 
3959375000  -4.189922e+001  1.230176e+001 
3962500000  -4.131010e+001  3.435557e+000 
3965625000  -4.163514e+001  -8.407977e+000 
3968750000  -4.243504e+001  -1.683265e+001 
3971875000  -4.256372e+001  -2.149526e+001 
3975000000  -4.202499e+001  -2.573348e+001 
3978125000  -4.201168e+001  -3.201725e+001 
3981250000  -4.197047e+001  -4.026331e+001 
3984375000  -4.215306e+001  -4.834673e+001 
3987500000  -4.283998e+001  -5.318360e+001 
3990625000  -4.301280e+001  -5.741391e+001 
3993750000  -4.319476e+001  -6.263667e+001 
3996875000  -4.298759e+001  -6.870493e+001 
4000000000  -4.353818e+001  -7.273136e+001 
4003125000  -4.386625e+001  -7.126243e+001 
4006250000  -4.177293e+001  -7.924712e+001 
4009375000  -4.101886e+001  -9.422329e+001 
4012500000  -4.303089e+001  -1.045307e+002 
4015625000  -4.369491e+001  -1.027609e+002 
4018750000  -4.395802e+001  -1.086072e+002 
4021875000  -4.295507e+001  -1.136054e+002 
4025000000  -4.300875e+001  -1.200704e+002 
4028125000  -4.324000e+001  -1.308815e+002 
4031250000  -4.373287e+001  -1.359594e+002 
4034375000  -4.390594e+001  -1.386236e+002 
4037500000  -4.404402e+001  -1.414498e+002 
4040625000  -4.424588e+001  -1.472819e+002 
4043750000  -4.453635e+001  -1.515111e+002 
4046875000  -4.463904e+001  -1.572232e+002 
4050000000  -4.435608e+001  -1.620040e+002 
4053125000  -4.560117e+001  -1.672651e+002 
4056250000  -4.543324e+001  -1.654540e+002 
4059375000  -4.372301e+001  -1.634845e+002 
4062500000  -4.341291e+001  -1.743240e+002 
4065625000  -4.331777e+001  1.796445e+002 
4068750000  -4.289857e+001  1.726566e+002 
4071875000  -4.273468e+001  1.623486e+002 
4075000000  -4.352892e+001  1.542740e+002 
4078125000  -4.417404e+001  1.494910e+002 
4081250000  -4.335181e+001  1.447422e+002 
4084375000  -4.352045e+001  1.400641e+002 
4087500000  -4.361862e+001  1.294472e+002 
4090625000  -4.461081e+001  1.257246e+002 
4093750000  -4.456427e+001  1.252517e+002 
4096875000  -4.439431e+001  1.152784e+002 
4100000000  -4.510203e+001  1.093287e+002 
4103125000  -4.581073e+001  1.113773e+002 
4106250000  -4.541432e+001  1.185986e+002 
4109375000  -4.447179e+001  1.118222e+002 
4112500000  -4.391702e+001  1.008426e+002 
4115625000  -4.442662e+001  9.495676e+001 
4118750000  -4.409452e+001  8.873287e+001 
4121875000  -4.339323e+001  8.586097e+001 
4125000000  -4.457576e+001  7.605372e+001 
4128125000  -4.558970e+001  7.789653e+001 
4131250000  -4.367077e+001  8.283659e+001 
4134375000  -4.136237e+001  7.103076e+001 
4137500000  -4.165858e+001  5.114959e+001 
4140625000  -4.394110e+001  4.371330e+001 
4143750000  -4.436958e+001  4.839042e+001 
4146875000  -4.400487e+001  4.743187e+001 
4150000000  -4.272165e+001  3.951914e+001 
4153125000  -4.326166e+001  3.005125e+001 
4156250000  -4.413356e+001  2.618287e+001 
4159375000  -4.394814e+001  2.935307e+001 
4162500000  -4.206753e+001  2.458812e+001 
4165625000  -4.158390e+001  1.547915e+001 
4168750000  -4.104351e+001  4.184112e+000 
4171875000  -4.121203e+001  -6.176108e+000 
4175000000  -4.178400e+001  -1.257436e+001 
4178125000  -4.220694e+001  -1.907786e+001 
4181250000  -4.221829e+001  -2.458456e+001 
4184375000  -4.269799e+001  -3.074998e+001 
4187500000  -4.236139e+001  -3.684706e+001 
4190625000  -4.267276e+001  -4.953965e+001 
4193750000  -4.391708e+001  -5.108411e+001 
4196875000  -4.540920e+001  -5.523691e+001 
4200000000  -4.579909e+001  -4.756700e+001 
4203125000  -4.474410e+001  -3.598080e+001 
4206250000  -4.121281e+001  -4.790216e+001 
4209375000  -4.132446e+001  -7.146336e+001 
4212500000  -4.389284e+001  -7.737580e+001 
4215625000  -4.403449e+001  -7.297308e+001 
4218750000  -4.247099e+001  -7.250115e+001 
4221875000  -4.083973e+001  -8.381305e+001 
4225000000  -4.236549e+001  -9.500929e+001 
4228125000  -4.208791e+001  -9.364924e+001 
4231250000  -4.086211e+001  -1.007370e+002 
4234375000  -4.122972e+001  -1.137587e+002 
4237500000  -4.082706e+001  -1.200584e+002 
4240625000  -4.088755e+001  -1.310519e+002 
4243750000  -4.217234e+001  -1.386566e+002 
4246875000  -4.288058e+001  -1.402097e+002 
4250000000  -4.251642e+001  -1.393433e+002 
4253125000  -4.248552e+001  -1.428374e+002 
4256250000  -4.228674e+001  -1.488961e+002 
4259375000  -4.204154e+001  -1.540175e+002 
4262500000  -4.234288e+001  -1.602797e+002 
4265625000  -4.209203e+001  -1.610621e+002 
4268750000  -4.119187e+001  -1.692294e+002 
4271875000  -4.052379e+001  -1.784803e+002 
4275000000  -4.023391e+001  1.729043e+002 
4278125000  -4.137302e+001  1.574060e+002 
4281250000  -4.240448e+001  1.551631e+002 
4284375000  -4.208442e+001  1.500177e+002 
4287500000  -4.345092e+001  1.504202e+002 
4290625000  -4.348341e+001  1.542441e+002 
4293750000  -4.172026e+001  1.560589e+002 
4296875000  -4.053387e+001  1.393963e+002 
4300000000  -4.141499e+001  1.306078e+002 
4303125000  -4.174282e+001  1.334951e+002 
4306250000  -4.082485e+001  1.287942e+002 
4309375000  -3.979461e+001  1.198002e+002 
4312500000  -3.993879e+001  1.077798e+002 
4315625000  -4.000171e+001  9.777614e+001 
4318750000  -4.043357e+001  9.381940e+001 
4321875000  -4.067189e+001  8.973842e+001 
4325000000  -4.005326e+001  8.705539e+001 
4328125000  -3.946920e+001  7.528477e+001 
4331250000  -3.964273e+001  6.348754e+001 
4334375000  -4.091740e+001  5.742936e+001 
4337500000  -4.203360e+001  5.339148e+001 
4340625000  -4.193989e+001  5.473969e+001 
4343750000  -4.092725e+001  5.414559e+001 
4346875000  -4.096440e+001  4.080455e+001 
4350000000  -4.108694e+001  3.324614e+001 
4353125000  -4.233757e+001  2.381144e+001 
4356250000  -4.431569e+001  2.829653e+001 
4359375000  -4.283439e+001  4.073459e+001 
4362500000  -3.958352e+001  3.189224e+001 
4365625000  -3.905427e+001  1.113009e+001 
4368750000  -4.023911e+001  9.830217e-001 
4371875000  -4.113562e+001  -2.700572e+000 
4375000000  -4.036325e+001  -9.552604e+000 
4378125000  -4.036037e+001  -1.569825e+001 
4381250000  -4.090945e+001  -2.313970e+001 
4384375000  -4.054173e+001  -3.124026e+001 
4387500000  -4.171684e+001  -3.992479e+001 
4390625000  -4.220061e+001  -3.850763e+001 
4393750000  -4.147365e+001  -4.126163e+001 
4396875000  -4.124854e+001  -4.532476e+001 
4400000000  -4.084298e+001  -5.554735e+001 
4403125000  -4.144232e+001  -6.735139e+001 
4406250000  -4.205713e+001  -6.716983e+001 
4409375000  -4.259333e+001  -7.371926e+001 
4412500000  -4.365906e+001  -7.696772e+001 
4415625000  -4.300606e+001  -7.360054e+001 
4418750000  -4.204848e+001  -7.442104e+001 
