!Agilent Technologies,E8363B,MY43030201,A.06.04.32
!Agilent E8363B: A.06.04.32
!Date: Tuesday, November 11, 2014 21:48:55
!Correction: S21(Response(S21)) 
!S1P File: Measurement: S21:
# Hz S  dB   R 50
3000000000  -4.367126e+001  -1.608615e+002 
3003125000  -4.504471e+001  -1.674679e+002 
3006250000  -4.529098e+001  -1.663071e+002 
3009375000  -4.636093e+001  -1.649534e+002 
3012500000  -4.507111e+001  -1.721243e+002 
3015625000  -4.496531e+001  -1.778969e+002 
3018750000  -4.544882e+001  -1.769742e+002 
3021875000  -4.410738e+001  -1.784008e+002 
3025000000  -4.257795e+001  1.780771e+002 
3028125000  -4.160276e+001  1.641385e+002 
3031250000  -4.088324e+001  1.525026e+002 
3034375000  -4.082494e+001  1.375878e+002 
3037500000  -4.155973e+001  1.280389e+002 
3040625000  -4.262733e+001  1.209027e+002 
3043750000  -4.321173e+001  1.139498e+002 
3046875000  -4.414332e+001  1.070662e+002 
3050000000  -4.515785e+001  1.031435e+002 
3053125000  -4.446777e+001  1.059459e+002 
3056250000  -4.445518e+001  1.111248e+002 
3059375000  -4.381620e+001  1.063593e+002 
3062500000  -4.297450e+001  1.001080e+002 
3065625000  -4.208339e+001  8.878570e+001 
3068750000  -4.186094e+001  8.046800e+001 
3071875000  -4.184124e+001  7.860078e+001 
3075000000  -4.127895e+001  7.045227e+001 
3078125000  -4.123187e+001  6.476366e+001 
3081250000  -4.127289e+001  5.749651e+001 
3084375000  -4.047865e+001  5.085646e+001 
3087500000  -4.048279e+001  4.281010e+001 
3090625000  -4.008284e+001  2.983372e+001 
3093750000  -4.102305e+001  2.144318e+001 
3096875000  -4.150030e+001  1.522815e+001 
3100000000  -4.103640e+001  1.306563e+001 
3103125000  -4.123510e+001  7.401406e+000 
3106250000  -4.111023e+001  2.070730e+000 
3109375000  -4.098043e+001  -3.315339e+000 
3112500000  -4.077701e+001  -1.283121e+001 
3115625000  -4.087378e+001  -1.542420e+001 
3118750000  -4.073725e+001  -2.069254e+001 
3121875000  -4.006688e+001  -3.320359e+001 
3125000000  -4.210731e+001  -3.539093e+001 
3128125000  -4.192375e+001  -3.021456e+001 
3131250000  -3.957306e+001  -3.843949e+001 
3134375000  -3.900465e+001  -5.672095e+001 
3137500000  -3.946962e+001  -6.959378e+001 
3140625000  -4.066929e+001  -7.472820e+001 
3143750000  -4.148400e+001  -7.826476e+001 
3146875000  -4.099660e+001  -7.792575e+001 
3150000000  -4.037160e+001  -8.292219e+001 
3153125000  -4.068716e+001  -9.207854e+001 
3156250000  -4.137048e+001  -8.797771e+001 
3159375000  -3.899955e+001  -9.197585e+001 
3162500000  -3.774455e+001  -1.097002e+002 
3165625000  -3.899893e+001  -1.228605e+002 
3168750000  -3.891393e+001  -1.245789e+002 
3171875000  -3.863201e+001  -1.325039e+002 
3175000000  -3.903132e+001  -1.428045e+002 
3178125000  -3.859653e+001  -1.460343e+002 
3181250000  -3.814178e+001  -1.548246e+002 
3184375000  -3.785715e+001  -1.658434e+002 
3187500000  -3.914899e+001  1.776294e+002 
3190625000  -4.072351e+001  1.707505e+002 
3193750000  -4.112405e+001  1.745659e+002 
3196875000  -4.106491e+001  1.747391e+002 
3200000000  -3.993266e+001  1.689702e+002 
3203125000  -3.956157e+001  1.608531e+002 
3206250000  -3.980154e+001  1.515232e+002 
3209375000  -3.946177e+001  1.434186e+002 
3212500000  -3.985018e+001  1.366190e+002 
3215625000  -3.959352e+001  1.332538e+002 
3218750000  -4.032323e+001  1.204203e+002 
3221875000  -4.052880e+001  1.126733e+002 
3225000000  -4.015331e+001  1.092809e+002 
3228125000  -4.101249e+001  1.006784e+002 
3231250000  -4.134287e+001  9.650401e+001 
3234375000  -4.101117e+001  9.345554e+001 
3237500000  -4.105404e+001  8.965511e+001 
3240625000  -4.051220e+001  8.235011e+001 
3243750000  -4.038726e+001  7.171153e+001 
3246875000  -4.056886e+001  6.349815e+001 
3250000000  -4.118973e+001  5.869629e+001 
3253125000  -4.117823e+001  5.431483e+001 
3256250000  -4.042451e+001  4.579089e+001 
3259375000  -4.089932e+001  3.097971e+001 
3262500000  -4.224682e+001  2.722366e+001 
3265625000  -4.246727e+001  2.839034e+001 
3268750000  -4.254203e+001  2.825258e+001 
3271875000  -4.168752e+001  2.025226e+001 
3275000000  -4.117847e+001  1.072777e+001 
3278125000  -4.186594e+001  1.776413e+000 
3281250000  -4.170100e+001  -5.474495e-001 
3284375000  -4.110565e+001  -7.696961e+000 
3287500000  -4.145798e+001  -1.548600e+001 
3290625000  -4.167811e+001  -2.460206e+001 
3293750000  -4.145892e+001  -3.451432e+001 
3296875000  -4.279424e+001  -3.799266e+001 
3300000000  -4.198725e+001  -3.998977e+001 
3303125000  -4.097962e+001  -5.048050e+001 
3306250000  -4.112769e+001  -6.016034e+001 
3309375000  -4.063002e+001  -7.139812e+001 
3312500000  -4.126178e+001  -8.656850e+001 
3315625000  -4.222953e+001  -9.287452e+001 
3318750000  -4.404811e+001  -1.008040e+002 
3321875000  -4.531429e+001  -9.819334e+001 
3325000000  -4.509442e+001  -9.548659e+001 
3328125000  -4.424620e+001  -9.715292e+001 
3331250000  -4.242315e+001  -9.998855e+001 
3334375000  -4.017873e+001  -1.168245e+002 
3337500000  -4.088785e+001  -1.400094e+002 
3340625000  -4.305454e+001  -1.515393e+002 
3343750000  -4.437530e+001  -1.512920e+002 
3346875000  -4.411763e+001  -1.583543e+002 
3350000000  -4.376247e+001  -1.608893e+002 
3353125000  -4.344547e+001  -1.690251e+002 
3356250000  -4.336910e+001  1.784960e+002 
3359375000  -4.431353e+001  1.672571e+002 
3362500000  -4.482787e+001  1.570257e+002 
3365625000  -4.575414e+001  1.526056e+002 
3368750000  -4.616744e+001  1.481367e+002 
3371875000  -4.660201e+001  1.399168e+002 
3375000000  -4.832494e+001  1.362216e+002 
3378125000  -4.913270e+001  1.351352e+002 
3381250000  -5.063423e+001  1.418529e+002 
3384375000  -4.761732e+001  1.497019e+002 
3387500000  -4.493179e+001  1.293657e+002 
3390625000  -4.693571e+001  1.045732e+002 
3393750000  -4.759634e+001  1.038223e+002 
3396875000  -4.636344e+001  9.866125e+001 
3400000000  -4.639409e+001  8.737791e+001 
3403125000  -4.683576e+001  7.944277e+001 
3406250000  -4.723045e+001  7.129876e+001 
3409375000  -4.709560e+001  5.846236e+001 
3412500000  -4.814979e+001  5.237181e+001 
3415625000  -4.874456e+001  4.893554e+001 
3418750000  -4.877070e+001  4.195978e+001 
3421875000  -4.905491e+001  4.377388e+001 
3425000000  -4.745496e+001  3.462386e+001 
3428125000  -4.728072e+001  2.775327e+001 
3431250000  -4.683702e+001  1.425542e+001 
3434375000  -4.666411e+001  4.143056e+000 
3437500000  -4.756264e+001  -8.324382e+000 
3440625000  -4.769841e+001  -9.439228e+000 
3443750000  -4.653316e+001  -1.265293e+001 
3446875000  -4.586079e+001  -2.738822e+001 
3450000000  -4.537061e+001  -4.336846e+001 
3453125000  -4.577728e+001  -5.980788e+001 
3456250000  -4.726991e+001  -6.895123e+001 
3459375000  -4.838288e+001  -7.265049e+001 
3462500000  -4.827613e+001  -7.579111e+001 
3465625000  -4.749605e+001  -9.077991e+001 
3468750000  -4.769979e+001  -9.390413e+001 
3471875000  -4.713280e+001  -1.038670e+002 
3475000000  -4.682092e+001  -1.140274e+002 
3478125000  -4.779298e+001  -1.300263e+002 
3481250000  -4.902259e+001  -1.357468e+002 
3484375000  -4.902432e+001  -1.317270e+002 
3487500000  -4.744889e+001  -1.398275e+002 
3490625000  -4.718471e+001  -1.542680e+002 
3493750000  -4.814048e+001  -1.669359e+002 
3496875000  -4.822295e+001  -1.698732e+002 
3500000000  -4.848746e+001  -1.709650e+002 
3503125000  -4.734602e+001  -1.770459e+002 
3506250000  -4.549089e+001  1.722504e+002 
3509375000  -4.581461e+001  1.530195e+002 
3512500000  -4.603119e+001  1.382315e+002 
3515625000  -4.727917e+001  1.325879e+002 
3518750000  -4.795010e+001  1.322091e+002 
3521875000  -4.826637e+001  1.185941e+002 
3525000000  -4.921046e+001  1.167473e+002 
3528125000  -4.759336e+001  1.178191e+002 
3531250000  -4.631693e+001  1.033908e+002 
3534375000  -4.665498e+001  8.972800e+001 
3537500000  -4.782020e+001  7.622395e+001 
3540625000  -4.868201e+001  7.599335e+001 
3543750000  -4.931227e+001  7.938966e+001 
3546875000  -4.810248e+001  8.379189e+001 
3550000000  -4.656653e+001  7.134541e+001 
3553125000  -4.620729e+001  5.587088e+001 
3556250000  -4.749544e+001  4.552660e+001 
3559375000  -4.668097e+001  4.084717e+001 
3562500000  -4.673064e+001  3.155856e+001 
3565625000  -4.680835e+001  2.414348e+001 
3568750000  -4.746405e+001  2.088160e+001 
3571875000  -4.715517e+001  1.677713e+001 
3575000000  -4.703993e+001  1.302645e+001 
3578125000  -4.758496e+001  6.613847e+000 
3581250000  -4.771764e+001  7.654436e+000 
3584375000  -4.570254e+001  -2.424650e+000 
3587500000  -4.573880e+001  -1.439536e+001 
3590625000  -4.657977e+001  -2.636702e+001 
3593750000  -4.747960e+001  -2.546818e+001 
3596875000  -4.712535e+001  -2.098358e+001 
3600000000  -4.459565e+001  -3.030524e+001 
3603125000  -4.515983e+001  -4.837156e+001 
3606250000  -4.603284e+001  -5.747394e+001 
3609375000  -4.591137e+001  -5.918481e+001 
3612500000  -4.593964e+001  -6.589404e+001 
3615625000  -4.593451e+001  -6.938542e+001 
3618750000  -4.614091e+001  -7.282317e+001 
3621875000  -4.507924e+001  -7.596589e+001 
3625000000  -4.586392e+001  -8.247324e+001 
3628125000  -4.471054e+001  -9.067234e+001 
3631250000  -4.468407e+001  -9.844019e+001 
3634375000  -4.571418e+001  -1.009117e+002 
3637500000  -4.427679e+001  -9.985674e+001 
3640625000  -4.373680e+001  -1.084866e+002 
3643750000  -4.357514e+001  -1.192466e+002 
3646875000  -4.365036e+001  -1.319682e+002 
3650000000  -4.359526e+001  -1.328192e+002 
3653125000  -4.314697e+001  -1.414425e+002 
3656250000  -4.416755e+001  -1.477110e+002 
3659375000  -4.378509e+001  -1.540695e+002 
3662500000  -4.353175e+001  -1.624448e+002 
3665625000  -4.323203e+001  -1.653585e+002 
3668750000  -4.189467e+001  -1.686335e+002 
3671875000  -4.133913e+001  1.779850e+002 
3675000000  -4.224930e+001  1.668656e+002 
3678125000  -4.253447e+001  1.627725e+002 
3681250000  -4.213382e+001  1.558711e+002 
3684375000  -4.249566e+001  1.478342e+002 
3687500000  -4.300440e+001  1.384022e+002 
3690625000  -4.367832e+001  1.331620e+002 
3693750000  -4.443351e+001  1.330809e+002 
3696875000  -4.388214e+001  1.293583e+002 
3700000000  -4.299175e+001  1.228689e+002 
3703125000  -4.368645e+001  1.118135e+002 
3706250000  -4.445673e+001  1.110246e+002 
3709375000  -4.388064e+001  1.104891e+002 
3712500000  -4.299981e+001  1.052959e+002 
3715625000  -4.176188e+001  9.427658e+001 
3718750000  -4.147935e+001  8.592616e+001 
3721875000  -4.176789e+001  7.704874e+001 
3725000000  -4.256977e+001  6.792464e+001 
3728125000  -4.250523e+001  6.571914e+001 
3731250000  -4.172881e+001  5.823655e+001 
3734375000  -4.187463e+001  5.151284e+001 
3737500000  -4.305946e+001  4.318098e+001 
3740625000  -4.288013e+001  3.466402e+001 
3743750000  -4.272383e+001  3.103144e+001 
3746875000  -4.377197e+001  2.275061e+001 
3750000000  -4.373669e+001  2.007714e+001 
3753125000  -4.368187e+001  1.827791e+001 
3756250000  -4.359581e+001  1.436221e+001 
3759375000  -4.358293e+001  9.533771e+000 
3762500000  -4.332230e+001  2.172464e+000 
3765625000  -4.385817e+001  -1.319621e+000 
3768750000  -4.338014e+001  -1.426495e+000 
3771875000  -4.226409e+001  -8.362154e+000 
3775000000  -4.228686e+001  -1.911734e+001 
3778125000  -4.263625e+001  -2.765510e+001 
3781250000  -4.268995e+001  -3.113914e+001 
3784375000  -4.237027e+001  -3.622763e+001 
3787500000  -4.227956e+001  -4.171212e+001 
3790625000  -4.283007e+001  -5.137978e+001 
3793750000  -4.287919e+001  -5.456464e+001 
3796875000  -4.174855e+001  -6.022911e+001 
3800000000  -4.077531e+001  -6.720791e+001 
3803125000  -4.170419e+001  -7.799805e+001 
3806250000  -4.223843e+001  -8.521590e+001 
3809375000  -4.194404e+001  -8.853575e+001 
3812500000  -4.145659e+001  -1.005629e+002 
3815625000  -4.355854e+001  -1.111382e+002 
3818750000  -4.411272e+001  -1.106797e+002 
3821875000  -4.339041e+001  -1.017631e+002 
3825000000  -4.158467e+001  -1.047255e+002 
3828125000  -4.042971e+001  -1.259233e+002 
3831250000  -4.158324e+001  -1.396966e+002 
3834375000  -4.342930e+001  -1.400921e+002 
3837500000  -4.398908e+001  -1.369008e+002 
3840625000  -4.218226e+001  -1.468310e+002 
3843750000  -4.162939e+001  -1.601422e+002 
3846875000  -4.308788e+001  -1.672665e+002 
3850000000  -4.407180e+001  -1.592852e+002 
3853125000  -4.380159e+001  -1.632955e+002 
3856250000  -4.276116e+001  -1.709806e+002 
3859375000  -4.210751e+001  -1.792236e+002 
3862500000  -4.213858e+001  1.690052e+002 
3865625000  -4.292173e+001  1.639217e+002 
3868750000  -4.245996e+001  1.631710e+002 
3871875000  -4.192230e+001  1.544196e+002 
3875000000  -4.253906e+001  1.423526e+002 
3878125000  -4.321314e+001  1.401908e+002 
3881250000  -4.352029e+001  1.392517e+002 
3884375000  -4.281316e+001  1.292806e+002 
3887500000  -4.321750e+001  1.234109e+002 
3890625000  -4.364376e+001  1.187572e+002 
3893750000  -4.425578e+001  1.143823e+002 
3896875000  -4.404148e+001  1.110938e+002 
3900000000  -4.469830e+001  1.040030e+002 
3903125000  -4.338934e+001  1.007831e+002 
3906250000  -4.340760e+001  9.588248e+001 
3909375000  -4.270937e+001  8.863246e+001 
3912500000  -4.364156e+001  8.014308e+001 
3915625000  -4.451853e+001  7.864185e+001 
3918750000  -4.445949e+001  7.858678e+001 
3921875000  -4.350047e+001  7.229068e+001 
3925000000  -4.309234e+001  6.682191e+001 
3928125000  -4.276591e+001  5.699238e+001 
3931250000  -4.371319e+001  4.861853e+001 
3934375000  -4.399763e+001  4.847221e+001 
3937500000  -4.439643e+001  4.356852e+001 
3940625000  -4.429526e+001  4.105442e+001 
3943750000  -4.304004e+001  3.600147e+001 
3946875000  -4.283811e+001  2.622122e+001 
3950000000  -4.357320e+001  2.257270e+001 
3953125000  -4.446772e+001  2.088779e+001 
3956250000  -4.276044e+001  1.920155e+001 
3959375000  -4.150227e+001  1.477445e+001 
3962500000  -4.142961e+001  3.667663e+000 
3965625000  -4.145121e+001  -8.096631e+000 
3968750000  -4.260313e+001  -1.577091e+001 
3971875000  -4.254919e+001  -2.206549e+001 
3975000000  -4.218061e+001  -2.362949e+001 
3978125000  -4.221795e+001  -3.096464e+001 
3981250000  -4.195921e+001  -3.745772e+001 
3984375000  -4.238698e+001  -4.646099e+001 
3987500000  -4.334705e+001  -5.244593e+001 
3990625000  -4.331060e+001  -5.693064e+001 
3993750000  -4.288084e+001  -6.330010e+001 
3996875000  -4.334960e+001  -7.023357e+001 
4000000000  -4.394352e+001  -6.912547e+001 
4003125000  -4.370671e+001  -6.986420e+001 
4006250000  -4.186293e+001  -7.901120e+001 
4009375000  -4.098295e+001  -9.607635e+001 
4012500000  -4.272786e+001  -1.033467e+002 
4015625000  -4.404311e+001  -1.040155e+002 
4018750000  -4.366705e+001  -1.087953e+002 
4021875000  -4.294190e+001  -1.171474e+002 
4025000000  -4.272553e+001  -1.208596e+002 
4028125000  -4.331744e+001  -1.302059e+002 
4031250000  -4.372642e+001  -1.385202e+002 
4034375000  -4.410948e+001  -1.371131e+002 
4037500000  -4.408400e+001  -1.427923e+002 
4040625000  -4.414500e+001  -1.473241e+002 
4043750000  -4.438828e+001  -1.520646e+002 
4046875000  -4.438227e+001  -1.555424e+002 
4050000000  -4.411798e+001  -1.630294e+002 
4053125000  -4.512052e+001  -1.675939e+002 
4056250000  -4.551878e+001  -1.628747e+002 
4059375000  -4.350842e+001  -1.655007e+002 
4062500000  -4.362320e+001  -1.737483e+002 
4065625000  -4.330182e+001  -1.786632e+002 
4068750000  -4.286051e+001  1.730639e+002 
4071875000  -4.299616e+001  1.628970e+002 
4075000000  -4.366875e+001  1.533027e+002 
4078125000  -4.371739e+001  1.518029e+002 
4081250000  -4.345782e+001  1.444274e+002 
4084375000  -4.335681e+001  1.391126e+002 
4087500000  -4.383993e+001  1.295198e+002 
4090625000  -4.467594e+001  1.263178e+002 
4093750000  -4.461096e+001  1.262997e+002 
4096875000  -4.420774e+001  1.173799e+002 
4100000000  -4.521530e+001  1.078706e+002 
4103125000  -4.569137e+001  1.130371e+002 
4106250000  -4.483696e+001  1.130857e+002 
4109375000  -4.444493e+001  1.101420e+002 
4112500000  -4.360527e+001  9.769407e+001 
4115625000  -4.398958e+001  9.658985e+001 
4118750000  -4.386824e+001  9.075716e+001 
4121875000  -4.405049e+001  8.241393e+001 
4125000000  -4.478169e+001  7.542702e+001 
4128125000  -4.509047e+001  7.781498e+001 
4131250000  -4.342848e+001  8.373058e+001 
4134375000  -4.150442e+001  7.081536e+001 
4137500000  -4.203529e+001  4.943014e+001 
4140625000  -4.391259e+001  4.225693e+001 
4143750000  -4.474064e+001  4.610664e+001 
4146875000  -4.390834e+001  5.340796e+001 
4150000000  -4.264944e+001  3.903185e+001 
4153125000  -4.321051e+001  2.964741e+001 
4156250000  -4.429762e+001  2.567428e+001 
4159375000  -4.399866e+001  2.881449e+001 
4162500000  -4.257559e+001  2.843099e+001 
4165625000  -4.151802e+001  1.556482e+001 
4168750000  -4.082555e+001  8.608166e+000 
4171875000  -4.117191e+001  -7.075383e+000 
4175000000  -4.165339e+001  -1.425695e+001 
4178125000  -4.259801e+001  -1.688150e+001 
4181250000  -4.224422e+001  -2.465856e+001 
4184375000  -4.256642e+001  -2.963842e+001 
4187500000  -4.241396e+001  -3.761242e+001 
4190625000  -4.247661e+001  -4.841541e+001 
4193750000  -4.405272e+001  -5.288029e+001 
4196875000  -4.494139e+001  -5.357902e+001 
4200000000  -4.652735e+001  -5.069796e+001 
4203125000  -4.448055e+001  -4.103530e+001 
4206250000  -4.093522e+001  -4.750003e+001 
4209375000  -4.106417e+001  -7.130479e+001 
4212500000  -4.427195e+001  -8.078168e+001 
4215625000  -4.404414e+001  -7.200790e+001 
4218750000  -4.260065e+001  -7.454449e+001 
4221875000  -4.092550e+001  -8.436433e+001 
4225000000  -4.204779e+001  -9.549012e+001 
4228125000  -4.201760e+001  -9.464414e+001 
4231250000  -4.101742e+001  -1.043808e+002 
4234375000  -4.090992e+001  -1.153097e+002 
4237500000  -4.064927e+001  -1.203682e+002 
4240625000  -4.102283e+001  -1.304117e+002 
4243750000  -4.243343e+001  -1.378006e+002 
4246875000  -4.328436e+001  -1.366264e+002 
4250000000  -4.262939e+001  -1.405540e+002 
4253125000  -4.239942e+001  -1.416786e+002 
4256250000  -4.242800e+001  -1.479130e+002 
4259375000  -4.218534e+001  -1.566398e+002 
4262500000  -4.248194e+001  -1.612937e+002 
4265625000  -4.217196e+001  -1.607355e+002 
4268750000  -4.120172e+001  -1.697401e+002 
4271875000  -4.062822e+001  1.797751e+002 
4275000000  -4.032281e+001  1.705114e+002 
4278125000  -4.112512e+001  1.573547e+002 
4281250000  -4.265908e+001  1.569458e+002 
4284375000  -4.245018e+001  1.526335e+002 
4287500000  -4.365164e+001  1.494910e+002 
4290625000  -4.385696e+001  1.586031e+002 
4293750000  -4.168997e+001  1.519676e+002 
4296875000  -4.026070e+001  1.386367e+002 
4300000000  -4.178616e+001  1.322100e+002 
4303125000  -4.202129e+001  1.307008e+002 
4306250000  -4.047884e+001  1.319584e+002 
4309375000  -3.972981e+001  1.206371e+002 
4312500000  -3.942238e+001  1.081578e+002 
4315625000  -4.012167e+001  9.778828e+001 
4318750000  -4.068663e+001  9.329804e+001 
4321875000  -4.074757e+001  9.045271e+001 
4325000000  -3.992520e+001  8.527543e+001 
4328125000  -3.938856e+001  7.595675e+001 
4331250000  -3.966067e+001  6.306390e+001 
4334375000  -4.075804e+001  5.551757e+001 
4337500000  -4.179010e+001  5.443009e+001 
4340625000  -4.188304e+001  5.546445e+001 
4343750000  -4.102692e+001  5.009600e+001 
4346875000  -4.105875e+001  4.224544e+001 
4350000000  -4.088621e+001  3.068884e+001 
4353125000  -4.149695e+001  2.556054e+001 
4356250000  -4.390190e+001  2.497333e+001 
4359375000  -4.282686e+001  4.126546e+001 
4362500000  -3.921396e+001  2.950975e+001 
4365625000  -3.873255e+001  1.183034e+001 
4368750000  -4.053046e+001  -4.929518e-001 
4371875000  -4.080200e+001  -3.253333e+000 
4375000000  -4.058701e+001  -6.762333e+000 
4378125000  -4.053766e+001  -1.490756e+001 
4381250000  -4.050984e+001  -2.116918e+001 
4384375000  -4.049524e+001  -2.853086e+001 
4387500000  -4.149548e+001  -3.788012e+001 
4390625000  -4.225253e+001  -3.850759e+001 
4393750000  -4.173640e+001  -3.766025e+001 
4396875000  -4.131438e+001  -4.526114e+001 
4400000000  -4.050631e+001  -5.556985e+001 
4403125000  -4.149760e+001  -6.245791e+001 
4406250000  -4.177332e+001  -6.867081e+001 
4409375000  -4.274419e+001  -7.486075e+001 
4412500000  -4.354789e+001  -7.696581e+001 
4415625000  -4.275520e+001  -7.514063e+001 
4418750000  -4.196619e+001  -7.461214e+001 
