!Agilent Technologies,E8363B,MY43030201,A.06.04.32
!Agilent E8363B: A.06.04.32
!Date: Tuesday, November 11, 2014 21:42:53
!Correction: S21(Response(S21)) 
!S1P File: Measurement: S21:
# Hz S  dB   R 50
3000000000  -4.365576e+001  -1.589866e+002 
3003125000  -4.497344e+001  -1.619776e+002 
3006250000  -4.550910e+001  -1.656364e+002 
3009375000  -4.592150e+001  -1.622442e+002 
3012500000  -4.519075e+001  -1.683816e+002 
3015625000  -4.485187e+001  -1.758579e+002 
3018750000  -4.527143e+001  -1.741841e+002 
3021875000  -4.388507e+001  -1.759021e+002 
3025000000  -4.239888e+001  1.792479e+002 
3028125000  -4.172752e+001  1.666521e+002 
3031250000  -4.085708e+001  1.542852e+002 
3034375000  -4.084951e+001  1.405711e+002 
3037500000  -4.161496e+001  1.289606e+002 
3040625000  -4.300010e+001  1.232191e+002 
3043750000  -4.324515e+001  1.173148e+002 
3046875000  -4.397628e+001  1.082457e+002 
3050000000  -4.490964e+001  1.036672e+002 
3053125000  -4.465911e+001  1.104097e+002 
3056250000  -4.464684e+001  1.123712e+002 
3059375000  -4.393909e+001  1.066818e+002 
3062500000  -4.246003e+001  1.034335e+002 
3065625000  -4.201624e+001  9.217764e+001 
3068750000  -4.180089e+001  8.405479e+001 
3071875000  -4.188140e+001  8.076241e+001 
3075000000  -4.121093e+001  7.336796e+001 
3078125000  -4.123428e+001  6.652254e+001 
3081250000  -4.118043e+001  5.907110e+001 
3084375000  -4.050089e+001  5.432870e+001 
3087500000  -4.060818e+001  4.511507e+001 
3090625000  -4.001863e+001  3.302886e+001 
3093750000  -4.082164e+001  2.435069e+001 
3096875000  -4.119578e+001  1.759588e+001 
3100000000  -4.116860e+001  1.432401e+001 
3103125000  -4.137019e+001  1.047852e+001 
3106250000  -4.107167e+001  3.939050e+000 
3109375000  -4.100077e+001  -1.554999e+000 
3112500000  -4.100352e+001  -9.600766e+000 
3115625000  -4.080588e+001  -1.385829e+001 
3118750000  -4.069662e+001  -1.866079e+001 
3121875000  -4.017992e+001  -2.945007e+001 
3125000000  -4.182158e+001  -3.520153e+001 
3128125000  -4.210723e+001  -2.902539e+001 
3131250000  -3.938132e+001  -3.688702e+001 
3134375000  -3.897808e+001  -5.496107e+001 
3137500000  -3.963077e+001  -6.800317e+001 
3140625000  -4.101072e+001  -7.360873e+001 
3143750000  -4.168379e+001  -7.525517e+001 
3146875000  -4.109189e+001  -7.380597e+001 
3150000000  -4.042328e+001  -8.122771e+001 
3153125000  -4.085877e+001  -8.965437e+001 
3156250000  -4.151821e+001  -8.635400e+001 
3159375000  -3.927337e+001  -9.003246e+001 
3162500000  -3.780412e+001  -1.051559e+002 
3165625000  -3.918185e+001  -1.210947e+002 
3168750000  -3.896654e+001  -1.227185e+002 
3171875000  -3.849250e+001  -1.305485e+002 
3175000000  -3.913210e+001  -1.410647e+002 
3178125000  -3.874232e+001  -1.431185e+002 
3181250000  -3.807827e+001  -1.521580e+002 
3184375000  -3.804806e+001  -1.644572e+002 
3187500000  -3.921561e+001  1.791617e+002 
3190625000  -4.092732e+001  1.730297e+002 
3193750000  -4.112969e+001  1.767259e+002 
3196875000  -4.120435e+001  1.763076e+002 
3200000000  -3.995459e+001  1.715848e+002 
3203125000  -3.964879e+001  1.625097e+002 
3206250000  -3.986377e+001  1.538357e+002 
3209375000  -3.942167e+001  1.448952e+002 
3212500000  -3.993660e+001  1.394129e+002 
3215625000  -3.976782e+001  1.350775e+002 
3218750000  -4.051989e+001  1.242937e+002 
3221875000  -4.068037e+001  1.160291e+002 
3225000000  -4.048998e+001  1.113001e+002 
3228125000  -4.111735e+001  1.033182e+002 
3231250000  -4.170870e+001  1.004598e+002 
3234375000  -4.105212e+001  9.725141e+001 
3237500000  -4.118697e+001  9.212413e+001 
3240625000  -4.056462e+001  8.447903e+001 
3243750000  -4.048329e+001  7.367273e+001 
3246875000  -4.072341e+001  6.541565e+001 
3250000000  -4.117796e+001  6.129303e+001 
3253125000  -4.139881e+001  5.705531e+001 
3256250000  -4.039329e+001  4.695007e+001 
3259375000  -4.117693e+001  3.377416e+001 
3262500000  -4.238800e+001  2.988956e+001 
3265625000  -4.259165e+001  2.997392e+001 
3268750000  -4.232957e+001  2.950896e+001 
3271875000  -4.207957e+001  2.346098e+001 
3275000000  -4.123377e+001  1.307592e+001 
3278125000  -4.188046e+001  4.870195e+000 
3281250000  -4.188533e+001  1.621410e+000 
3284375000  -4.099563e+001  -7.051014e+000 
3287500000  -4.168034e+001  -1.551863e+001 
3290625000  -4.163636e+001  -2.376510e+001 
3293750000  -4.158464e+001  -3.261983e+001 
3296875000  -4.299626e+001  -3.712989e+001 
3300000000  -4.207661e+001  -3.817495e+001 
3303125000  -4.105631e+001  -4.666317e+001 
3306250000  -4.102125e+001  -5.863698e+001 
3309375000  -4.095282e+001  -6.916788e+001 
3312500000  -4.111895e+001  -8.379473e+001 
3315625000  -4.237643e+001  -9.166051e+001 
3318750000  -4.414412e+001  -9.916726e+001 
3321875000  -4.533838e+001  -9.750310e+001 
3325000000  -4.496693e+001  -9.312505e+001 
3328125000  -4.453830e+001  -1.007617e+002 
3331250000  -4.268172e+001  -9.677602e+001 
3334375000  -4.041365e+001  -1.155873e+002 
3337500000  -4.111475e+001  -1.396667e+002 
3340625000  -4.297210e+001  -1.482225e+002 
3343750000  -4.472222e+001  -1.495466e+002 
3346875000  -4.399469e+001  -1.541762e+002 
3350000000  -4.395789e+001  -1.594887e+002 
3353125000  -4.364845e+001  -1.686756e+002 
3356250000  -4.336171e+001  -1.793706e+002 
3359375000  -4.483429e+001  1.703447e+002 
3362500000  -4.506562e+001  1.589014e+002 
3365625000  -4.612246e+001  1.539525e+002 
3368750000  -4.642612e+001  1.506317e+002 
3371875000  -4.719722e+001  1.434670e+002 
3375000000  -4.884081e+001  1.335767e+002 
3378125000  -4.967561e+001  1.344010e+002 
3381250000  -5.099421e+001  1.436952e+002 
3384375000  -4.801358e+001  1.547668e+002 
3387500000  -4.514496e+001  1.296914e+002 
3390625000  -4.723377e+001  1.093402e+002 
3393750000  -4.804767e+001  1.077628e+002 
3396875000  -4.638927e+001  1.018307e+002 
3400000000  -4.614345e+001  8.875460e+001 
3403125000  -4.703029e+001  7.878636e+001 
3406250000  -4.739767e+001  7.632977e+001 
3409375000  -4.754574e+001  5.937822e+001 
3412500000  -4.798300e+001  5.576261e+001 
3415625000  -4.867340e+001  5.220430e+001 
3418750000  -4.879401e+001  4.745253e+001 
3421875000  -4.904071e+001  4.248880e+001 
3425000000  -4.768212e+001  3.708200e+001 
3428125000  -4.715934e+001  2.675604e+001 
3431250000  -4.681433e+001  1.841085e+001 
3434375000  -4.713054e+001  3.504415e+000 
3437500000  -4.770899e+001  -4.488365e+000 
3440625000  -4.802346e+001  -7.638345e+000 
3443750000  -4.702901e+001  -9.824719e+000 
3446875000  -4.590300e+001  -2.547980e+001 
3450000000  -4.558559e+001  -4.139854e+001 
3453125000  -4.585143e+001  -5.867170e+001 
3456250000  -4.737536e+001  -6.711713e+001 
3459375000  -4.786626e+001  -7.046469e+001 
3462500000  -4.769597e+001  -7.478651e+001 
3465625000  -4.696365e+001  -8.777839e+001 
3468750000  -4.744579e+001  -9.549870e+001 
3471875000  -4.706721e+001  -1.036054e+002 
3475000000  -4.701717e+001  -1.137470e+002 
3478125000  -4.772054e+001  -1.265089e+002 
3481250000  -4.904319e+001  -1.318305e+002 
3484375000  -4.873013e+001  -1.329972e+002 
3487500000  -4.756290e+001  -1.401489e+002 
3490625000  -4.718446e+001  -1.507102e+002 
3493750000  -4.780994e+001  -1.647282e+002 
3496875000  -4.835017e+001  -1.660010e+002 
3500000000  -4.829910e+001  -1.692410e+002 
3503125000  -4.706942e+001  -1.728195e+002 
3506250000  -4.584780e+001  1.731078e+002 
3509375000  -4.600205e+001  1.530624e+002 
3512500000  -4.586574e+001  1.401882e+002 
3515625000  -4.708914e+001  1.293500e+002 
3518750000  -4.747216e+001  1.319554e+002 
3521875000  -4.775579e+001  1.168237e+002 
3525000000  -4.883465e+001  1.164458e+002 
3528125000  -4.772350e+001  1.188106e+002 
3531250000  -4.638881e+001  1.082287e+002 
3534375000  -4.672924e+001  9.187259e+001 
3537500000  -4.740405e+001  8.070052e+001 
3540625000  -4.905471e+001  7.807103e+001 
3543750000  -4.927578e+001  8.415093e+001 
3546875000  -4.836298e+001  8.253857e+001 
3550000000  -4.633693e+001  7.622314e+001 
3553125000  -4.613278e+001  5.604887e+001 
3556250000  -4.715993e+001  4.882743e+001 
3559375000  -4.682586e+001  4.607183e+001 
3562500000  -4.632383e+001  3.215346e+001 
3565625000  -4.746784e+001  2.449594e+001 
3568750000  -4.775948e+001  2.580490e+001 
3571875000  -4.697494e+001  1.848666e+001 
3575000000  -4.687777e+001  1.363367e+001 
3578125000  -4.771208e+001  8.229281e+000 
3581250000  -4.740294e+001  7.262203e+000 
3584375000  -4.575023e+001  -5.676470e-001 
3587500000  -4.570985e+001  -1.209188e+001 
3590625000  -4.660036e+001  -2.045524e+001 
3593750000  -4.788269e+001  -2.262176e+001 
3596875000  -4.635175e+001  -1.881804e+001 
3600000000  -4.490313e+001  -2.911139e+001 
3603125000  -4.501371e+001  -4.208035e+001 
3606250000  -4.620308e+001  -5.135698e+001 
3609375000  -4.564990e+001  -5.457144e+001 
3612500000  -4.610393e+001  -6.273243e+001 
3615625000  -4.619874e+001  -6.751610e+001 
3618750000  -4.641269e+001  -6.866545e+001 
3621875000  -4.584169e+001  -7.331876e+001 
3625000000  -4.550299e+001  -7.903919e+001 
3628125000  -4.472408e+001  -8.658446e+001 
3631250000  -4.503337e+001  -9.443667e+001 
3634375000  -4.603725e+001  -9.507230e+001 
3637500000  -4.415815e+001  -9.596717e+001 
3640625000  -4.380275e+001  -1.040459e+002 
3643750000  -4.346611e+001  -1.158571e+002 
3646875000  -4.384658e+001  -1.257701e+002 
3650000000  -4.386991e+001  -1.310909e+002 
3653125000  -4.335270e+001  -1.411541e+002 
3656250000  -4.414806e+001  -1.423485e+002 
3659375000  -4.419199e+001  -1.508932e+002 
3662500000  -4.329089e+001  -1.576506e+002 
3665625000  -4.322945e+001  -1.617993e+002 
3668750000  -4.194816e+001  -1.648020e+002 
3671875000  -4.143452e+001  -1.778305e+002 
3675000000  -4.218481e+001  1.717687e+002 
3678125000  -4.270124e+001  1.670410e+002 
3681250000  -4.245133e+001  1.602760e+002 
3684375000  -4.267973e+001  1.519328e+002 
3687500000  -4.280362e+001  1.432455e+002 
3690625000  -4.374956e+001  1.366087e+002 
3693750000  -4.406342e+001  1.350809e+002 
3696875000  -4.379115e+001  1.329666e+002 
3700000000  -4.311052e+001  1.250248e+002 
3703125000  -4.392237e+001  1.174004e+002 
3706250000  -4.424461e+001  1.132801e+002 
3709375000  -4.393481e+001  1.156259e+002 
3712500000  -4.299846e+001  1.095893e+002 
3715625000  -4.189024e+001  9.830970e+001 
3718750000  -4.162725e+001  8.820199e+001 
3721875000  -4.196194e+001  7.953567e+001 
3725000000  -4.264466e+001  7.222800e+001 
3728125000  -4.243397e+001  7.150054e+001 
3731250000  -4.208203e+001  6.149868e+001 
3734375000  -4.211705e+001  5.589306e+001 
3737500000  -4.301873e+001  4.794921e+001 
3740625000  -4.323486e+001  3.995176e+001 
3743750000  -4.289298e+001  3.472485e+001 
3746875000  -4.357455e+001  2.554249e+001 
3750000000  -4.395642e+001  2.432775e+001 
3753125000  -4.382324e+001  2.055566e+001 
3756250000  -4.403186e+001  1.765405e+001 
3759375000  -4.355510e+001  1.224813e+001 
3762500000  -4.355984e+001  7.227736e+000 
3765625000  -4.411530e+001  1.027237e+000 
3768750000  -4.367505e+001  1.531595e+000 
3771875000  -4.209860e+001  -3.915898e+000 
3775000000  -4.232764e+001  -1.728959e+001 
3778125000  -4.298674e+001  -2.224228e+001 
3781250000  -4.262449e+001  -2.743304e+001 
3784375000  -4.261254e+001  -3.202467e+001 
3787500000  -4.251363e+001  -3.922166e+001 
3790625000  -4.306573e+001  -4.996490e+001 
3793750000  -4.269722e+001  -5.103691e+001 
3796875000  -4.169450e+001  -5.809544e+001 
3800000000  -4.062079e+001  -6.295796e+001 
3803125000  -4.178968e+001  -7.705428e+001 
3806250000  -4.245617e+001  -7.993156e+001 
3809375000  -4.190235e+001  -8.524569e+001 
3812500000  -4.196695e+001  -9.596786e+001 
3815625000  -4.317287e+001  -1.060189e+002 
3818750000  -4.423516e+001  -1.017934e+002 
3821875000  -4.399127e+001  -9.588747e+001 
3825000000  -4.170901e+001  -1.005886e+002 
3828125000  -4.044780e+001  -1.214886e+002 
3831250000  -4.137169e+001  -1.366163e+002 
3834375000  -4.378860e+001  -1.367066e+002 
3837500000  -4.403337e+001  -1.323141e+002 
3840625000  -4.248666e+001  -1.395113e+002 
3843750000  -4.188477e+001  -1.568469e+002 
3846875000  -4.348204e+001  -1.636155e+002 
3850000000  -4.444194e+001  -1.550851e+002 
3853125000  -4.346160e+001  -1.560166e+002 
3856250000  -4.338372e+001  -1.661598e+002 
3859375000  -4.239610e+001  -1.740923e+002 
3862500000  -4.222990e+001  1.737743e+002 
3865625000  -4.247768e+001  1.672310e+002 
3868750000  -4.225885e+001  1.656585e+002 
3871875000  -4.219101e+001  1.544027e+002 
3875000000  -4.267888e+001  1.433455e+002 
3878125000  -4.353658e+001  1.441852e+002 
3881250000  -4.346315e+001  1.387746e+002 
3884375000  -4.269748e+001  1.323916e+002 
3887500000  -4.325911e+001  1.247618e+002 
3890625000  -4.393320e+001  1.198990e+002 
3893750000  -4.424998e+001  1.196306e+002 
3896875000  -4.477900e+001  1.145635e+002 
3900000000  -4.461419e+001  1.104338e+002 
3903125000  -4.373668e+001  1.032840e+002 
3906250000  -4.374858e+001  1.002743e+002 
3909375000  -4.272678e+001  9.252408e+001 
3912500000  -4.406879e+001  8.289104e+001 
3915625000  -4.532857e+001  8.144737e+001 
3918750000  -4.456931e+001  8.259160e+001 
3921875000  -4.406138e+001  7.672496e+001 
3925000000  -4.325873e+001  6.950076e+001 
3928125000  -4.295582e+001  6.018458e+001 
3931250000  -4.376838e+001  5.202593e+001 
3934375000  -4.385400e+001  5.125599e+001 
3937500000  -4.496636e+001  4.710782e+001 
3940625000  -4.469854e+001  4.857799e+001 
3943750000  -4.342450e+001  3.972288e+001 
3946875000  -4.285357e+001  3.080110e+001 
3950000000  -4.377164e+001  2.541255e+001 
3953125000  -4.469487e+001  2.471707e+001 
3956250000  -4.318126e+001  2.400998e+001 
3959375000  -4.223151e+001  1.535273e+001 
3962500000  -4.162011e+001  6.439208e+000 
3965625000  -4.196471e+001  -3.671904e+000 
3968750000  -4.299239e+001  -1.320690e+001 
3971875000  -4.284244e+001  -1.805255e+001 
3975000000  -4.199644e+001  -2.157283e+001 
3978125000  -4.259110e+001  -2.957740e+001 
3981250000  -4.209811e+001  -3.560422e+001 
3984375000  -4.252675e+001  -4.522723e+001 
3987500000  -4.333847e+001  -4.816985e+001 
3990625000  -4.295452e+001  -5.343535e+001 
3993750000  -4.309525e+001  -5.937159e+001 
3996875000  -4.331790e+001  -6.556181e+001 
4000000000  -4.385014e+001  -6.791675e+001 
4003125000  -4.420436e+001  -6.817236e+001 
4006250000  -4.231149e+001  -7.369028e+001 
4009375000  -4.138205e+001  -9.216325e+001 
4012500000  -4.305803e+001  -9.855838e+001 
4015625000  -4.420821e+001  -1.014692e+002 
4018750000  -4.401414e+001  -1.042164e+002 
4021875000  -4.324865e+001  -1.116657e+002 
4025000000  -4.327782e+001  -1.174788e+002 
4028125000  -4.346055e+001  -1.300589e+002 
4031250000  -4.451794e+001  -1.307357e+002 
4034375000  -4.408660e+001  -1.352935e+002 
4037500000  -4.448349e+001  -1.355825e+002 
4040625000  -4.445829e+001  -1.414569e+002 
4043750000  -4.482889e+001  -1.491067e+002 
4046875000  -4.475114e+001  -1.553371e+002 
4050000000  -4.443861e+001  -1.607820e+002 
4053125000  -4.526424e+001  -1.627490e+002 
4056250000  -4.596087e+001  -1.596618e+002 
4059375000  -4.438239e+001  -1.620245e+002 
4062500000  -4.365089e+001  -1.684747e+002 
4065625000  -4.366034e+001  -1.796438e+002 
4068750000  -4.322980e+001  1.766468e+002 
4071875000  -4.288049e+001  1.675802e+002 
4075000000  -4.390857e+001  1.581446e+002 
4078125000  -4.434774e+001  1.536715e+002 
4081250000  -4.372161e+001  1.500315e+002 
4084375000  -4.394837e+001  1.430675e+002 
4087500000  -4.422238e+001  1.353383e+002 
4090625000  -4.473951e+001  1.302760e+002 
4093750000  -4.477449e+001  1.285207e+002 
4096875000  -4.461304e+001  1.201839e+002 
4100000000  -4.546352e+001  1.155724e+002 
4103125000  -4.594091e+001  1.162613e+002 
4106250000  -4.598812e+001  1.194361e+002 
4109375000  -4.451578e+001  1.126840e+002 
4112500000  -4.439035e+001  1.069366e+002 
4115625000  -4.453181e+001  9.846214e+001 
4118750000  -4.471760e+001  9.644762e+001 
4121875000  -4.383184e+001  8.327641e+001 
4125000000  -4.455236e+001  8.036295e+001 
4128125000  -4.545771e+001  8.188654e+001 
4131250000  -4.398953e+001  8.917821e+001 
4134375000  -4.202084e+001  7.344402e+001 
4137500000  -4.262476e+001  5.327011e+001 
4140625000  -4.446058e+001  4.706833e+001 
4143750000  -4.528844e+001  5.303534e+001 
4146875000  -4.441158e+001  5.516642e+001 
4150000000  -4.262176e+001  4.405281e+001 
4153125000  -4.344739e+001  3.414176e+001 
4156250000  -4.424186e+001  3.073123e+001 
4159375000  -4.402514e+001  3.343743e+001 
4162500000  -4.304887e+001  3.088986e+001 
4165625000  -4.168135e+001  1.865437e+001 
4168750000  -4.167400e+001  9.680286e+000 
4171875000  -4.161770e+001  -1.691316e+000 
4175000000  -4.228156e+001  -1.040407e+001 
4178125000  -4.268429e+001  -1.284427e+001 
4181250000  -4.241929e+001  -1.940772e+001 
4184375000  -4.333679e+001  -2.816104e+001 
4187500000  -4.280951e+001  -3.291701e+001 
4190625000  -4.291731e+001  -4.066725e+001 
4193750000  -4.441203e+001  -5.005473e+001 
4196875000  -4.558717e+001  -5.023809e+001 
4200000000  -4.633226e+001  -4.388145e+001 
4203125000  -4.470023e+001  -3.384057e+001 
4206250000  -4.167310e+001  -4.466137e+001 
4209375000  -4.164082e+001  -6.812906e+001 
4212500000  -4.392309e+001  -7.585986e+001 
4215625000  -4.428048e+001  -7.039718e+001 
4218750000  -4.274517e+001  -6.952402e+001 
4221875000  -4.188502e+001  -7.972826e+001 
4225000000  -4.260578e+001  -8.965196e+001 
4228125000  -4.266623e+001  -8.974434e+001 
4231250000  -4.102959e+001  -9.781161e+001 
4234375000  -4.159948e+001  -1.099063e+002 
4237500000  -4.131591e+001  -1.163560e+002 
4240625000  -4.167099e+001  -1.265611e+002 
4243750000  -4.236522e+001  -1.372827e+002 
4246875000  -4.311951e+001  -1.321402e+002 
4250000000  -4.347261e+001  -1.339188e+002 
4253125000  -4.289819e+001  -1.384389e+002 
4256250000  -4.280577e+001  -1.415685e+002 
4259375000  -4.223561e+001  -1.481858e+002 
4262500000  -4.254852e+001  -1.533776e+002 
4265625000  -4.283429e+001  -1.557619e+002 
4268750000  -4.137220e+001  -1.624333e+002 
4271875000  -4.137908e+001  -1.740909e+002 
4275000000  -4.085203e+001  1.774915e+002 
4278125000  -4.159357e+001  1.647014e+002 
4281250000  -4.291731e+001  1.621536e+002 
4284375000  -4.283368e+001  1.614088e+002 
4287500000  -4.387545e+001  1.547592e+002 
4290625000  -4.384465e+001  1.602767e+002 
4293750000  -4.227406e+001  1.588412e+002 
4296875000  -4.059331e+001  1.448767e+002 
4300000000  -4.207030e+001  1.366843e+002 
4303125000  -4.259984e+001  1.373515e+002 
4306250000  -4.132298e+001  1.338848e+002 
4309375000  -4.019065e+001  1.252373e+002 
4312500000  -4.047313e+001  1.131937e+002 
4315625000  -4.071045e+001  1.032448e+002 
4318750000  -4.112949e+001  9.992660e+001 
4321875000  -4.140272e+001  9.740335e+001 
4325000000  -4.061377e+001  9.252698e+001 
4328125000  -3.979964e+001  8.147627e+001 
4331250000  -4.009327e+001  6.980495e+001 
4334375000  -4.126200e+001  5.998912e+001 
4337500000  -4.237245e+001  5.877422e+001 
4340625000  -4.273893e+001  6.221808e+001 
4343750000  -4.167985e+001  5.788053e+001 
4346875000  -4.146380e+001  4.629874e+001 
4350000000  -4.143132e+001  3.788263e+001 
4353125000  -4.222164e+001  2.846073e+001 
4356250000  -4.446678e+001  3.330823e+001 
4359375000  -4.317543e+001  4.585089e+001 
4362500000  -3.990644e+001  3.448740e+001 
4365625000  -3.968570e+001  1.530572e+001 
4368750000  -4.082829e+001  5.935667e+000 
4371875000  -4.138976e+001  2.099566e+000 
4375000000  -4.120138e+001  -6.044155e-001 
4378125000  -4.107806e+001  -8.614305e+000 
4381250000  -4.132234e+001  -1.494382e+001 
4384375000  -4.133124e+001  -2.400729e+001 
4387500000  -4.210623e+001  -3.134524e+001 
4390625000  -4.273899e+001  -3.321767e+001 
4393750000  -4.201526e+001  -3.523668e+001 
4396875000  -4.160671e+001  -3.825982e+001 
4400000000  -4.123888e+001  -5.037570e+001 
4403125000  -4.252761e+001  -5.857012e+001 
4406250000  -4.278011e+001  -6.510164e+001 
4409375000  -4.315846e+001  -6.982396e+001 
4412500000  -4.447120e+001  -6.905043e+001 
4415625000  -4.342971e+001  -6.515900e+001 
4418750000  -4.238342e+001  -6.845117e+001 
