!Agilent Technologies,E8363B,MY43030201,A.06.04.32
!Agilent E8363B: A.06.04.32
!Date: Tuesday, November 11, 2014 21:43:07
!Correction: S21(Response(S21)) 
!S1P File: Measurement: S21:
# Hz S  dB   R 50
3000000000  -4.359787e+001  -1.592174e+002 
3003125000  -4.533503e+001  -1.638375e+002 
3006250000  -4.512115e+001  -1.663364e+002 
3009375000  -4.626309e+001  -1.633741e+002 
3012500000  -4.484729e+001  -1.704981e+002 
3015625000  -4.471949e+001  -1.746480e+002 
3018750000  -4.522092e+001  -1.767894e+002 
3021875000  -4.407341e+001  -1.775069e+002 
3025000000  -4.267126e+001  1.780593e+002 
3028125000  -4.185085e+001  1.674276e+002 
3031250000  -4.098455e+001  1.536883e+002 
3034375000  -4.070398e+001  1.395305e+002 
3037500000  -4.191504e+001  1.292856e+002 
3040625000  -4.295125e+001  1.227490e+002 
3043750000  -4.351557e+001  1.160824e+002 
3046875000  -4.429530e+001  1.082160e+002 
3050000000  -4.523406e+001  1.045689e+002 
3053125000  -4.518198e+001  1.069792e+002 
3056250000  -4.502590e+001  1.103275e+002 
3059375000  -4.406704e+001  1.068195e+002 
3062500000  -4.223717e+001  1.017166e+002 
3065625000  -4.214088e+001  9.083910e+001 
3068750000  -4.165464e+001  8.339077e+001 
3071875000  -4.166900e+001  8.127152e+001 
3075000000  -4.116991e+001  7.284818e+001 
3078125000  -4.135514e+001  6.529976e+001 
3081250000  -4.120300e+001  5.948877e+001 
3084375000  -4.031227e+001  5.322377e+001 
3087500000  -4.059608e+001  4.628618e+001 
3090625000  -3.999538e+001  3.285202e+001 
3093750000  -4.106710e+001  2.386053e+001 
3096875000  -4.117344e+001  1.802470e+001 
3100000000  -4.125752e+001  1.505093e+001 
3103125000  -4.131284e+001  8.573909e+000 
3106250000  -4.108413e+001  4.471247e+000 
3109375000  -4.098437e+001  -1.148524e+000 
3112500000  -4.105177e+001  -9.779172e+000 
3115625000  -4.102905e+001  -1.317680e+001 
3118750000  -4.071019e+001  -1.813673e+001 
3121875000  -4.027389e+001  -3.079058e+001 
3125000000  -4.212017e+001  -3.361983e+001 
3128125000  -4.202396e+001  -2.709916e+001 
3131250000  -3.964505e+001  -3.706855e+001 
3134375000  -3.887177e+001  -5.463561e+001 
3137500000  -3.955644e+001  -6.736835e+001 
3140625000  -4.118267e+001  -7.176741e+001 
3143750000  -4.159371e+001  -7.691473e+001 
3146875000  -4.105635e+001  -7.596632e+001 
3150000000  -4.040717e+001  -8.113401e+001 
3153125000  -4.084669e+001  -8.948176e+001 
3156250000  -4.150789e+001  -8.680122e+001 
3159375000  -3.922758e+001  -9.002882e+001 
3162500000  -3.773190e+001  -1.051338e+002 
3165625000  -3.901328e+001  -1.202075e+002 
3168750000  -3.900315e+001  -1.214057e+002 
3171875000  -3.854412e+001  -1.311818e+002 
3175000000  -3.919593e+001  -1.398138e+002 
3178125000  -3.884435e+001  -1.431039e+002 
3181250000  -3.806784e+001  -1.523960e+002 
3184375000  -3.792932e+001  -1.647323e+002 
3187500000  -3.918201e+001  1.794856e+002 
3190625000  -4.110495e+001  1.726356e+002 
3193750000  -4.118962e+001  1.766431e+002 
3196875000  -4.122576e+001  1.770323e+002 
3200000000  -3.989163e+001  1.710560e+002 
3203125000  -3.978387e+001  1.627896e+002 
3206250000  -3.991564e+001  1.533380e+002 
3209375000  -3.940973e+001  1.441913e+002 
3212500000  -4.006465e+001  1.377586e+002 
3215625000  -3.974677e+001  1.347286e+002 
3218750000  -4.045799e+001  1.232362e+002 
3221875000  -4.076855e+001  1.159005e+002 
3225000000  -4.061411e+001  1.109192e+002 
3228125000  -4.138591e+001  1.029639e+002 
3231250000  -4.153487e+001  9.925638e+001 
3234375000  -4.100782e+001  9.638763e+001 
3237500000  -4.096859e+001  9.187015e+001 
3240625000  -4.066681e+001  8.550173e+001 
3243750000  -4.039164e+001  7.269518e+001 
3246875000  -4.075988e+001  6.518879e+001 
3250000000  -4.137767e+001  6.015160e+001 
3253125000  -4.146426e+001  5.699487e+001 
3256250000  -4.059671e+001  4.593726e+001 
3259375000  -4.102210e+001  3.533193e+001 
3262500000  -4.243482e+001  2.994168e+001 
3265625000  -4.271529e+001  2.982497e+001 
3268750000  -4.270166e+001  2.763683e+001 
3271875000  -4.179638e+001  2.201335e+001 
3275000000  -4.114754e+001  1.249074e+001 
3278125000  -4.167763e+001  4.214987e+000 
3281250000  -4.209273e+001  1.154749e+000 
3284375000  -4.116744e+001  -6.124753e+000 
3287500000  -4.179770e+001  -1.388281e+001 
3290625000  -4.166073e+001  -2.484799e+001 
3293750000  -4.167024e+001  -3.085748e+001 
3296875000  -4.296043e+001  -3.579445e+001 
3300000000  -4.212663e+001  -3.809086e+001 
3303125000  -4.102977e+001  -4.893513e+001 
3306250000  -4.079121e+001  -5.835304e+001 
3309375000  -4.079471e+001  -6.921707e+001 
3312500000  -4.120525e+001  -8.344062e+001 
3315625000  -4.260548e+001  -9.224475e+001 
3318750000  -4.393053e+001  -9.771398e+001 
3321875000  -4.535453e+001  -9.778687e+001 
3325000000  -4.514715e+001  -9.343713e+001 
3328125000  -4.385274e+001  -9.731737e+001 
3331250000  -4.240400e+001  -9.636462e+001 
3334375000  -4.018613e+001  -1.160227e+002 
3337500000  -4.090168e+001  -1.403600e+002 
3340625000  -4.259781e+001  -1.500659e+002 
3343750000  -4.433691e+001  -1.516422e+002 
3346875000  -4.414792e+001  -1.565399e+002 
3350000000  -4.385719e+001  -1.601960e+002 
3353125000  -4.365189e+001  -1.712128e+002 
3356250000  -4.348438e+001  1.790416e+002 
3359375000  -4.432802e+001  1.665167e+002 
3362500000  -4.502485e+001  1.586156e+002 
3365625000  -4.581362e+001  1.532621e+002 
3368750000  -4.668990e+001  1.470222e+002 
3371875000  -4.706439e+001  1.437793e+002 
3375000000  -4.839053e+001  1.351585e+002 
3378125000  -4.933531e+001  1.317667e+002 
3381250000  -5.049968e+001  1.417948e+002 
3384375000  -4.774066e+001  1.538861e+002 
3387500000  -4.533537e+001  1.268257e+002 
3390625000  -4.655279e+001  1.058679e+002 
3393750000  -4.757156e+001  1.053354e+002 
3396875000  -4.643481e+001  1.011812e+002 
3400000000  -4.638929e+001  8.789403e+001 
3403125000  -4.738358e+001  7.940481e+001 
3406250000  -4.749809e+001  7.047574e+001 
3409375000  -4.739438e+001  6.091700e+001 
3412500000  -4.777990e+001  5.721659e+001 
3415625000  -4.877916e+001  5.049815e+001 
3418750000  -4.886409e+001  4.669786e+001 
3421875000  -4.913433e+001  4.717716e+001 
3425000000  -4.793204e+001  3.787624e+001 
3428125000  -4.712012e+001  2.690553e+001 
3431250000  -4.683567e+001  1.505891e+001 
3434375000  -4.664721e+001  4.954099e+000 
3437500000  -4.766831e+001  -2.127495e+000 
3440625000  -4.819281e+001  -8.491729e+000 
3443750000  -4.643886e+001  -1.041222e+001 
3446875000  -4.593935e+001  -2.362555e+001 
3450000000  -4.515157e+001  -4.406113e+001 
3453125000  -4.575306e+001  -5.729870e+001 
3456250000  -4.764090e+001  -6.833408e+001 
3459375000  -4.809267e+001  -7.131818e+001 
3462500000  -4.758705e+001  -8.012254e+001 
3465625000  -4.765188e+001  -8.659874e+001 
3468750000  -4.789391e+001  -9.447298e+001 
3471875000  -4.711968e+001  -9.983569e+001 
3475000000  -4.700808e+001  -1.134497e+002 
3478125000  -4.773405e+001  -1.281948e+002 
3481250000  -4.882005e+001  -1.337253e+002 
3484375000  -4.841829e+001  -1.323277e+002 
3487500000  -4.755704e+001  -1.396197e+002 
3490625000  -4.710720e+001  -1.517238e+002 
3493750000  -4.804481e+001  -1.664210e+002 
3496875000  -4.786386e+001  -1.661531e+002 
3500000000  -4.872695e+001  -1.699923e+002 
3503125000  -4.719683e+001  -1.735712e+002 
3506250000  -4.532204e+001  1.733903e+002 
3509375000  -4.565394e+001  1.538345e+002 
3512500000  -4.622794e+001  1.388781e+002 
3515625000  -4.743470e+001  1.353844e+002 
3518750000  -4.779721e+001  1.348538e+002 
3521875000  -4.774576e+001  1.198711e+002 
3525000000  -4.892159e+001  1.196236e+002 
3528125000  -4.758370e+001  1.174292e+002 
3531250000  -4.669567e+001  1.061329e+002 
3534375000  -4.654857e+001  8.827506e+001 
3537500000  -4.782344e+001  8.030474e+001 
3540625000  -4.900172e+001  7.453627e+001 
3543750000  -4.933885e+001  8.260595e+001 
3546875000  -4.880606e+001  8.369785e+001 
3550000000  -4.663649e+001  7.576755e+001 
3553125000  -4.649094e+001  5.566338e+001 
3556250000  -4.700011e+001  4.767099e+001 
3559375000  -4.644429e+001  4.635424e+001 
3562500000  -4.643878e+001  3.715797e+001 
3565625000  -4.714470e+001  2.624611e+001 
3568750000  -4.792583e+001  2.582178e+001 
3571875000  -4.704342e+001  1.808936e+001 
3575000000  -4.748648e+001  1.562810e+001 
3578125000  -4.745012e+001  9.986204e+000 
3581250000  -4.770808e+001  4.655273e+000 
3584375000  -4.606416e+001  -2.331218e+000 
3587500000  -4.534240e+001  -9.115705e+000 
3590625000  -4.652129e+001  -2.203765e+001 
3593750000  -4.757854e+001  -2.288926e+001 
3596875000  -4.650674e+001  -1.945207e+001 
3600000000  -4.479412e+001  -2.996937e+001 
3603125000  -4.554859e+001  -4.601264e+001 
3606250000  -4.597219e+001  -5.093408e+001 
3609375000  -4.614752e+001  -5.674689e+001 
3612500000  -4.603345e+001  -5.947702e+001 
3615625000  -4.620045e+001  -6.640948e+001 
3618750000  -4.612276e+001  -6.924044e+001 
3621875000  -4.541775e+001  -7.714477e+001 
3625000000  -4.583265e+001  -8.005122e+001 
3628125000  -4.458476e+001  -8.484796e+001 
3631250000  -4.523837e+001  -9.367788e+001 
3634375000  -4.568790e+001  -9.535928e+001 
3637500000  -4.444621e+001  -9.988531e+001 
3640625000  -4.392831e+001  -1.038628e+002 
3643750000  -4.357936e+001  -1.168252e+002 
3646875000  -4.357820e+001  -1.243303e+002 
3650000000  -4.360460e+001  -1.328679e+002 
3653125000  -4.368375e+001  -1.382704e+002 
3656250000  -4.408155e+001  -1.458813e+002 
3659375000  -4.387544e+001  -1.500865e+002 
3662500000  -4.296185e+001  -1.572921e+002 
3665625000  -4.379105e+001  -1.615520e+002 
3668750000  -4.207563e+001  -1.651090e+002 
3671875000  -4.167345e+001  -1.796635e+002 
3675000000  -4.209596e+001  1.681086e+002 
3678125000  -4.262564e+001  1.666875e+002 
3681250000  -4.243889e+001  1.610270e+002 
3684375000  -4.259428e+001  1.519947e+002 
3687500000  -4.266553e+001  1.422492e+002 
3690625000  -4.337783e+001  1.363718e+002 
3693750000  -4.449011e+001  1.351202e+002 
3696875000  -4.425211e+001  1.322059e+002 
3700000000  -4.300224e+001  1.237850e+002 
3703125000  -4.359236e+001  1.177263e+002 
3706250000  -4.490852e+001  1.117154e+002 
3709375000  -4.363729e+001  1.160077e+002 
3712500000  -4.320598e+001  1.065702e+002 
3715625000  -4.188498e+001  9.741518e+001 
3718750000  -4.158595e+001  8.812045e+001 
3721875000  -4.192064e+001  8.093176e+001 
3725000000  -4.230587e+001  7.235530e+001 
3728125000  -4.248401e+001  6.943890e+001 
3731250000  -4.216241e+001  6.487522e+001 
3734375000  -4.207678e+001  5.638009e+001 
3737500000  -4.264875e+001  4.722047e+001 
3740625000  -4.301416e+001  3.909126e+001 
3743750000  -4.306189e+001  3.286565e+001 
3746875000  -4.299782e+001  2.876499e+001 
3750000000  -4.352626e+001  2.273272e+001 
3753125000  -4.352765e+001  2.182822e+001 
3756250000  -4.385787e+001  1.832545e+001 
3759375000  -4.356336e+001  1.254580e+001 
3762500000  -4.356348e+001  5.295340e+000 
3765625000  -4.427962e+001  1.538666e+000 
3768750000  -4.352324e+001  3.731269e+000 
3771875000  -4.206037e+001  -3.997452e+000 
3775000000  -4.229681e+001  -1.557493e+001 
3778125000  -4.231556e+001  -2.180121e+001 
3781250000  -4.267346e+001  -2.629444e+001 
3784375000  -4.274541e+001  -3.443681e+001 
3787500000  -4.209544e+001  -3.863522e+001 
3790625000  -4.285088e+001  -4.801516e+001 
3793750000  -4.278321e+001  -5.108871e+001 
3796875000  -4.177506e+001  -5.724063e+001 
3800000000  -4.075412e+001  -6.399568e+001 
3803125000  -4.169937e+001  -7.583403e+001 
3806250000  -4.256607e+001  -8.010790e+001 
3809375000  -4.209377e+001  -8.599079e+001 
3812500000  -4.172428e+001  -9.756998e+001 
3815625000  -4.292822e+001  -1.065225e+002 
3818750000  -4.446117e+001  -1.043846e+002 
3821875000  -4.314259e+001  -9.296850e+001 
3825000000  -4.191935e+001  -1.014079e+002 
3828125000  -4.031976e+001  -1.226483e+002 
3831250000  -4.132988e+001  -1.369967e+002 
3834375000  -4.377658e+001  -1.376318e+002 
3837500000  -4.422100e+001  -1.343872e+002 
3840625000  -4.247872e+001  -1.406600e+002 
3843750000  -4.181902e+001  -1.558756e+002 
3846875000  -4.347791e+001  -1.662094e+002 
3850000000  -4.418066e+001  -1.564497e+002 
3853125000  -4.353367e+001  -1.604809e+002 
3856250000  -4.307679e+001  -1.667910e+002 
3859375000  -4.223709e+001  -1.754099e+002 
3862500000  -4.214644e+001  1.734616e+002 
3865625000  -4.272553e+001  1.664870e+002 
3868750000  -4.252001e+001  1.664368e+002 
3871875000  -4.189590e+001  1.562138e+002 
3875000000  -4.251590e+001  1.462638e+002 
3878125000  -4.306124e+001  1.416223e+002 
3881250000  -4.347325e+001  1.413259e+002 
3884375000  -4.278029e+001  1.306957e+002 
3887500000  -4.336408e+001  1.237177e+002 
3890625000  -4.378220e+001  1.228354e+002 
3893750000  -4.438981e+001  1.187604e+002 
3896875000  -4.434591e+001  1.161440e+002 
3900000000  -4.450477e+001  1.092098e+002 
3903125000  -4.396252e+001  1.059139e+002 
3906250000  -4.329909e+001  1.007047e+002 
3909375000  -4.268064e+001  9.111092e+001 
3912500000  -4.403531e+001  8.035767e+001 
3915625000  -4.490194e+001  8.310389e+001 
3918750000  -4.484074e+001  8.071173e+001 
3921875000  -4.408849e+001  7.497285e+001 
3925000000  -4.321350e+001  6.812487e+001 
3928125000  -4.331893e+001  6.008514e+001 
3931250000  -4.371946e+001  5.009336e+001 
3934375000  -4.398286e+001  5.046700e+001 
3937500000  -4.484664e+001  5.013562e+001 
3940625000  -4.458858e+001  4.817286e+001 
3943750000  -4.353582e+001  3.913910e+001 
3946875000  -4.297222e+001  3.306817e+001 
3950000000  -4.410634e+001  2.507472e+001 
3953125000  -4.448212e+001  2.302912e+001 
3956250000  -4.306169e+001  2.371507e+001 
3959375000  -4.208459e+001  1.472860e+001 
3962500000  -4.177917e+001  7.243248e+000 
3965625000  -4.229362e+001  -3.993732e+000 
3968750000  -4.254692e+001  -1.385331e+001 
3971875000  -4.265411e+001  -1.981877e+001 
3975000000  -4.230297e+001  -2.129745e+001 
3978125000  -4.220539e+001  -2.901927e+001 
3981250000  -4.205938e+001  -3.777742e+001 
3984375000  -4.265344e+001  -4.368099e+001 
3987500000  -4.327860e+001  -4.990419e+001 
3990625000  -4.352447e+001  -5.325288e+001 
3993750000  -4.329435e+001  -5.897435e+001 
3996875000  -4.352477e+001  -6.423174e+001 
4000000000  -4.381990e+001  -6.910779e+001 
4003125000  -4.406162e+001  -6.806306e+001 
4006250000  -4.249435e+001  -7.458083e+001 
4009375000  -4.150802e+001  -9.184384e+001 
4012500000  -4.310915e+001  -1.001220e+002 
4015625000  -4.423682e+001  -1.030504e+002 
4018750000  -4.367944e+001  -1.039498e+002 
4021875000  -4.320474e+001  -1.115093e+002 
4025000000  -4.291661e+001  -1.188744e+002 
4028125000  -4.312977e+001  -1.252640e+002 
4031250000  -4.428140e+001  -1.320757e+002 
4034375000  -4.412671e+001  -1.357791e+002 
4037500000  -4.457069e+001  -1.383804e+002 
4040625000  -4.466449e+001  -1.474508e+002 
4043750000  -4.447539e+001  -1.489846e+002 
4046875000  -4.446120e+001  -1.544650e+002 
4050000000  -4.454032e+001  -1.631780e+002 
4053125000  -4.532074e+001  -1.639731e+002 
4056250000  -4.636515e+001  -1.627870e+002 
4059375000  -4.392203e+001  -1.626190e+002 
4062500000  -4.389668e+001  -1.676723e+002 
4065625000  -4.398827e+001  -1.778251e+002 
4068750000  -4.340671e+001  1.740123e+002 
4071875000  -4.277463e+001  1.636192e+002 
4075000000  -4.400348e+001  1.553656e+002 
4078125000  -4.482427e+001  1.568999e+002 
4081250000  -4.356393e+001  1.511045e+002 
4084375000  -4.351503e+001  1.404134e+002 
4087500000  -4.451922e+001  1.335013e+002 
4090625000  -4.504984e+001  1.320455e+002 
4093750000  -4.501819e+001  1.296150e+002 
4096875000  -4.434885e+001  1.188337e+002 
4100000000  -4.568823e+001  1.137345e+002 
4103125000  -4.612625e+001  1.151035e+002 
4106250000  -4.563758e+001  1.197160e+002 
4109375000  -4.461337e+001  1.158581e+002 
4112500000  -4.459767e+001  1.030841e+002 
4115625000  -4.479107e+001  1.010616e+002 
4118750000  -4.431720e+001  9.260661e+001 
4121875000  -4.396442e+001  8.537349e+001 
4125000000  -4.484821e+001  7.973940e+001 
4128125000  -4.556236e+001  8.007478e+001 
4131250000  -4.378589e+001  8.790376e+001 
4134375000  -4.192333e+001  7.380802e+001 
4137500000  -4.258717e+001  5.411662e+001 
4140625000  -4.410233e+001  4.483436e+001 
4143750000  -4.491893e+001  4.927509e+001 
4146875000  -4.412706e+001  4.990497e+001 
4150000000  -4.300988e+001  4.401348e+001 
4153125000  -4.321648e+001  3.204747e+001 
4156250000  -4.417366e+001  2.892201e+001 
4159375000  -4.389435e+001  3.265420e+001 
4162500000  -4.284756e+001  3.157520e+001 
4165625000  -4.208178e+001  1.886919e+001 
4168750000  -4.129377e+001  9.967320e+000 
4171875000  -4.151253e+001  -3.849154e+000 
4175000000  -4.244109e+001  -9.965079e+000 
4178125000  -4.251339e+001  -1.378477e+001 
4181250000  -4.227897e+001  -1.870912e+001 
4184375000  -4.292009e+001  -2.831613e+001 
4187500000  -4.269800e+001  -3.379251e+001 
4190625000  -4.305379e+001  -4.373634e+001 
4193750000  -4.443633e+001  -4.671023e+001 
4196875000  -4.563516e+001  -5.084459e+001 
4200000000  -4.647602e+001  -4.695575e+001 
4203125000  -4.515600e+001  -3.537151e+001 
4206250000  -4.142593e+001  -4.408310e+001 
4209375000  -4.169168e+001  -7.097390e+001 
4212500000  -4.424845e+001  -7.552014e+001 
4215625000  -4.447405e+001  -7.224300e+001 
4218750000  -4.301896e+001  -6.721382e+001 
4221875000  -4.131852e+001  -7.850344e+001 
4225000000  -4.296033e+001  -8.846177e+001 
4228125000  -4.236586e+001  -9.173015e+001 
4231250000  -4.163309e+001  -9.892518e+001 
4234375000  -4.135373e+001  -1.107463e+002 
4237500000  -4.119992e+001  -1.167304e+002 
4240625000  -4.176223e+001  -1.265673e+002 
4243750000  -4.289513e+001  -1.368660e+002 
4246875000  -4.355119e+001  -1.328189e+002 
4250000000  -4.343882e+001  -1.356751e+002 
4253125000  -4.287863e+001  -1.383187e+002 
4256250000  -4.296213e+001  -1.458501e+002 
4259375000  -4.260429e+001  -1.473547e+002 
4262500000  -4.279534e+001  -1.557358e+002 
4265625000  -4.248193e+001  -1.581207e+002 
4268750000  -4.128217e+001  -1.659301e+002 
4271875000  -4.136824e+001  -1.769125e+002 
4275000000  -4.077232e+001  1.743570e+002 
4278125000  -4.156852e+001  1.623185e+002 
4281250000  -4.304178e+001  1.597780e+002 
4284375000  -4.237854e+001  1.545973e+002 
4287500000  -4.346302e+001  1.557081e+002 
4290625000  -4.406318e+001  1.614302e+002 
4293750000  -4.181136e+001  1.582042e+002 
4296875000  -4.072657e+001  1.456423e+002 
4300000000  -4.211779e+001  1.348985e+002 
4303125000  -4.258893e+001  1.360310e+002 
4306250000  -4.105921e+001  1.348349e+002 
4309375000  -4.027827e+001  1.236165e+002 
4312500000  -3.994007e+001  1.130868e+002 
4315625000  -4.058070e+001  1.041940e+002 
4318750000  -4.131099e+001  9.826986e+001 
4321875000  -4.146414e+001  9.676263e+001 
4325000000  -4.047203e+001  9.138879e+001 
4328125000  -3.981666e+001  8.000102e+001 
4331250000  -4.012941e+001  6.870890e+001 
4334375000  -4.133985e+001  5.944882e+001 
4337500000  -4.244740e+001  5.916176e+001 
4340625000  -4.250356e+001  6.234808e+001 
4343750000  -4.182463e+001  5.541098e+001 
4346875000  -4.146274e+001  4.607765e+001 
4350000000  -4.178367e+001  3.682914e+001 
4353125000  -4.248827e+001  2.712453e+001 
4356250000  -4.436370e+001  3.359459e+001 
4359375000  -4.340749e+001  4.647666e+001 
4362500000  -3.995289e+001  3.372943e+001 
4365625000  -3.941471e+001  1.573786e+001 
4368750000  -4.090877e+001  3.931889e+000 
4371875000  -4.182729e+001  3.236213e+000 
4375000000  -4.097217e+001  -1.900616e+000 
4378125000  -4.115592e+001  -1.022171e+001 
4381250000  -4.104697e+001  -2.009200e+001 
4384375000  -4.098903e+001  -2.445498e+001 
4387500000  -4.219272e+001  -3.253028e+001 
4390625000  -4.292410e+001  -3.630383e+001 
4393750000  -4.189301e+001  -3.482037e+001 
4396875000  -4.181771e+001  -3.971151e+001 
4400000000  -4.154529e+001  -5.094239e+001 
4403125000  -4.200433e+001  -5.910157e+001 
4406250000  -4.268284e+001  -6.447643e+001 
4409375000  -4.352075e+001  -7.061789e+001 
4412500000  -4.394829e+001  -7.080099e+001 
4415625000  -4.374186e+001  -6.833753e+001 
4418750000  -4.239780e+001  -6.747306e+001 
