!Agilent Technologies,E8363B,MY43030201,A.06.04.32
!Agilent E8363B: A.06.04.32
!Date: Tuesday, November 11, 2014 21:46:07
!Correction: S21(Response(S21)) 
!S1P File: Measurement: S21:
# Hz S  dB   R 50
3000000000  -4.380351e+001  -1.609558e+002 
3003125000  -4.532072e+001  -1.654090e+002 
3006250000  -4.524822e+001  -1.670057e+002 
3009375000  -4.628577e+001  -1.639263e+002 
3012500000  -4.514166e+001  -1.710183e+002 
3015625000  -4.495847e+001  -1.793209e+002 
3018750000  -4.514314e+001  -1.770032e+002 
3021875000  -4.401270e+001  -1.790182e+002 
3025000000  -4.263719e+001  1.772265e+002 
3028125000  -4.181345e+001  1.653141e+002 
3031250000  -4.098656e+001  1.521680e+002 
3034375000  -4.065693e+001  1.376254e+002 
3037500000  -4.175707e+001  1.273734e+002 
3040625000  -4.296950e+001  1.196419e+002 
3043750000  -4.340354e+001  1.142928e+002 
3046875000  -4.398332e+001  1.075770e+002 
3050000000  -4.502362e+001  1.029478e+002 
3053125000  -4.473023e+001  1.062089e+002 
3056250000  -4.479593e+001  1.114547e+002 
3059375000  -4.397827e+001  1.065541e+002 
3062500000  -4.236061e+001  1.000923e+002 
3065625000  -4.227917e+001  8.891947e+001 
3068750000  -4.162968e+001  8.016394e+001 
3071875000  -4.196650e+001  7.914596e+001 
3075000000  -4.113675e+001  7.151354e+001 
3078125000  -4.134729e+001  6.376206e+001 
3081250000  -4.147785e+001  5.668151e+001 
3084375000  -4.044638e+001  5.157121e+001 
3087500000  -4.057951e+001  4.322208e+001 
3090625000  -3.999014e+001  3.034273e+001 
3093750000  -4.097300e+001  2.162917e+001 
3096875000  -4.128748e+001  1.637793e+001 
3100000000  -4.116811e+001  1.234928e+001 
3103125000  -4.136648e+001  7.013640e+000 
3106250000  -4.114317e+001  2.297097e+000 
3109375000  -4.091766e+001  -2.156476e+000 
3112500000  -4.088767e+001  -1.120294e+001 
3115625000  -4.097283e+001  -1.560658e+001 
3118750000  -4.061789e+001  -2.116914e+001 
3121875000  -4.023376e+001  -3.312903e+001 
3125000000  -4.234359e+001  -3.637650e+001 
3128125000  -4.208307e+001  -2.970860e+001 
3131250000  -3.949110e+001  -3.841423e+001 
3134375000  -3.879707e+001  -5.588761e+001 
3137500000  -3.948385e+001  -7.058969e+001 
3140625000  -4.088483e+001  -7.405992e+001 
3143750000  -4.144719e+001  -7.797214e+001 
3146875000  -4.090310e+001  -7.711386e+001 
3150000000  -4.044094e+001  -8.199946e+001 
3153125000  -4.070262e+001  -9.168557e+001 
3156250000  -4.141807e+001  -8.727380e+001 
3159375000  -3.906461e+001  -9.246241e+001 
3162500000  -3.770894e+001  -1.085676e+002 
3165625000  -3.895019e+001  -1.221433e+002 
3168750000  -3.896209e+001  -1.253192e+002 
3171875000  -3.860547e+001  -1.328011e+002 
3175000000  -3.908221e+001  -1.432612e+002 
3178125000  -3.853229e+001  -1.451153e+002 
3181250000  -3.803505e+001  -1.547123e+002 
3184375000  -3.786340e+001  -1.665283e+002 
3187500000  -3.907212e+001  1.781669e+002 
3190625000  -4.082782e+001  1.711872e+002 
3193750000  -4.110252e+001  1.752539e+002 
3196875000  -4.124686e+001  1.754389e+002 
3200000000  -4.001073e+001  1.695471e+002 
3203125000  -3.965738e+001  1.603451e+002 
3206250000  -3.971128e+001  1.518201e+002 
3209375000  -3.941721e+001  1.426044e+002 
3212500000  -4.002575e+001  1.362645e+002 
3215625000  -3.956457e+001  1.345714e+002 
3218750000  -4.033413e+001  1.208976e+002 
3221875000  -4.053460e+001  1.148882e+002 
3225000000  -4.027048e+001  1.088641e+002 
3228125000  -4.108160e+001  9.976270e+001 
3231250000  -4.140801e+001  9.760098e+001 
3234375000  -4.103984e+001  9.571571e+001 
3237500000  -4.091602e+001  9.036681e+001 
3240625000  -4.041383e+001  8.289403e+001 
3243750000  -4.033373e+001  7.101349e+001 
3246875000  -4.066111e+001  6.429589e+001 
3250000000  -4.099316e+001  5.927613e+001 
3253125000  -4.106146e+001  5.548890e+001 
3256250000  -4.034812e+001  4.442577e+001 
3259375000  -4.109833e+001  3.152547e+001 
3262500000  -4.220485e+001  2.742320e+001 
3265625000  -4.247904e+001  2.848402e+001 
3268750000  -4.245018e+001  2.665789e+001 
3271875000  -4.140693e+001  1.950723e+001 
3275000000  -4.105470e+001  1.074974e+001 
3278125000  -4.165521e+001  2.799981e+000 
3281250000  -4.200708e+001  5.570435e-001 
3284375000  -4.130296e+001  -9.115603e+000 
3287500000  -4.150563e+001  -1.633115e+001 
3290625000  -4.150793e+001  -2.641354e+001 
3293750000  -4.154675e+001  -3.385955e+001 
3296875000  -4.273298e+001  -3.880476e+001 
3300000000  -4.174876e+001  -4.067842e+001 
3303125000  -4.107638e+001  -4.980211e+001 
3306250000  -4.073404e+001  -5.952543e+001 
3309375000  -4.075434e+001  -7.113864e+001 
3312500000  -4.135672e+001  -8.610904e+001 
3315625000  -4.232149e+001  -9.524831e+001 
3318750000  -4.404368e+001  -1.018658e+002 
3321875000  -4.487329e+001  -9.965170e+001 
3325000000  -4.490791e+001  -9.658904e+001 
3328125000  -4.414537e+001  -9.825783e+001 
3331250000  -4.244430e+001  -9.614523e+001 
3334375000  -4.021022e+001  -1.182508e+002 
3337500000  -4.074613e+001  -1.415450e+002 
3340625000  -4.285675e+001  -1.513938e+002 
3343750000  -4.467578e+001  -1.538867e+002 
3346875000  -4.415086e+001  -1.566246e+002 
3350000000  -4.387310e+001  -1.606114e+002 
3353125000  -4.363257e+001  -1.693182e+002 
3356250000  -4.341533e+001  1.793227e+002 
3359375000  -4.421624e+001  1.648373e+002 
3362500000  -4.518000e+001  1.573719e+002 
3365625000  -4.541372e+001  1.512426e+002 
3368750000  -4.649118e+001  1.443548e+002 
3371875000  -4.711699e+001  1.407845e+002 
3375000000  -4.849215e+001  1.305463e+002 
3378125000  -4.900179e+001  1.294276e+002 
3381250000  -5.054151e+001  1.421683e+002 
3384375000  -4.757784e+001  1.557117e+002 
3387500000  -4.460781e+001  1.319879e+002 
3390625000  -4.686377e+001  1.045712e+002 
3393750000  -4.760837e+001  1.045873e+002 
3396875000  -4.599883e+001  9.926199e+001 
3400000000  -4.613782e+001  8.764655e+001 
3403125000  -4.706162e+001  7.896175e+001 
3406250000  -4.752207e+001  7.229767e+001 
3409375000  -4.754026e+001  5.918545e+001 
3412500000  -4.815899e+001  5.276143e+001 
3415625000  -4.854942e+001  4.601606e+001 
3418750000  -4.839803e+001  4.493754e+001 
3421875000  -4.929304e+001  4.227186e+001 
3425000000  -4.799826e+001  3.556104e+001 
3428125000  -4.741048e+001  2.902441e+001 
3431250000  -4.696950e+001  1.506348e+001 
3434375000  -4.724599e+001  5.955719e+000 
3437500000  -4.766554e+001  -4.322331e+000 
3440625000  -4.793039e+001  -8.604167e+000 
3443750000  -4.681330e+001  -1.190605e+001 
3446875000  -4.563901e+001  -2.660813e+001 
3450000000  -4.511063e+001  -4.533855e+001 
3453125000  -4.572324e+001  -5.963418e+001 
3456250000  -4.717019e+001  -7.121454e+001 
3459375000  -4.842654e+001  -7.409847e+001 
3462500000  -4.779594e+001  -7.630997e+001 
3465625000  -4.734303e+001  -8.647065e+001 
3468750000  -4.718377e+001  -9.639620e+001 
3471875000  -4.731025e+001  -1.025901e+002 
3475000000  -4.683602e+001  -1.138979e+002 
3478125000  -4.772158e+001  -1.270794e+002 
3481250000  -4.854533e+001  -1.318448e+002 
3484375000  -4.863472e+001  -1.337220e+002 
3487500000  -4.768256e+001  -1.422681e+002 
3490625000  -4.700893e+001  -1.540023e+002 
3493750000  -4.758331e+001  -1.655535e+002 
3496875000  -4.834621e+001  -1.673980e+002 
3500000000  -4.872013e+001  -1.722984e+002 
3503125000  -4.710714e+001  -1.771435e+002 
3506250000  -4.567220e+001  1.700743e+002 
3509375000  -4.562165e+001  1.527352e+002 
3512500000  -4.647148e+001  1.381289e+002 
3515625000  -4.725546e+001  1.296595e+002 
3518750000  -4.771534e+001  1.279085e+002 
3521875000  -4.750828e+001  1.196454e+002 
3525000000  -4.887525e+001  1.185219e+002 
3528125000  -4.745894e+001  1.156116e+002 
3531250000  -4.698643e+001  1.053549e+002 
3534375000  -4.672483e+001  8.924609e+001 
3537500000  -4.789394e+001  7.995966e+001 
3540625000  -4.891926e+001  7.635206e+001 
3543750000  -4.961009e+001  8.323330e+001 
3546875000  -4.902921e+001  8.065049e+001 
3550000000  -4.658860e+001  7.418398e+001 
3553125000  -4.555033e+001  5.601190e+001 
3556250000  -4.731242e+001  4.319986e+001 
3559375000  -4.706999e+001  4.612840e+001 
3562500000  -4.656192e+001  3.303630e+001 
3565625000  -4.786795e+001  2.330308e+001 
3568750000  -4.801975e+001  2.326362e+001 
3571875000  -4.739198e+001  1.773693e+001 
3575000000  -4.706646e+001  1.075431e+001 
3578125000  -4.770971e+001  8.491151e+000 
3581250000  -4.735931e+001  4.975023e-001 
3584375000  -4.598248e+001  -5.943629e+000 
3587500000  -4.556493e+001  -1.928536e+001 
3590625000  -4.642859e+001  -2.221527e+001 
3593750000  -4.773131e+001  -2.400779e+001 
3596875000  -4.703060e+001  -2.023090e+001 
3600000000  -4.489598e+001  -3.402603e+001 
3603125000  -4.489216e+001  -4.961920e+001 
3606250000  -4.598369e+001  -5.299749e+001 
3609375000  -4.593011e+001  -5.715265e+001 
3612500000  -4.612770e+001  -6.511800e+001 
3615625000  -4.595568e+001  -7.088073e+001 
3618750000  -4.615937e+001  -7.086414e+001 
3621875000  -4.537829e+001  -7.770742e+001 
3625000000  -4.562491e+001  -8.458434e+001 
3628125000  -4.451974e+001  -8.755434e+001 
3631250000  -4.460777e+001  -1.000710e+002 
3634375000  -4.583511e+001  -9.928896e+001 
3637500000  -4.456044e+001  -1.005836e+002 
3640625000  -4.360198e+001  -1.075475e+002 
3643750000  -4.308651e+001  -1.213390e+002 
3646875000  -4.378926e+001  -1.303557e+002 
3650000000  -4.378619e+001  -1.337669e+002 
3653125000  -4.320663e+001  -1.418268e+002 
3656250000  -4.384041e+001  -1.489837e+002 
3659375000  -4.387812e+001  -1.532548e+002 
3662500000  -4.352064e+001  -1.592359e+002 
3665625000  -4.363918e+001  -1.639675e+002 
3668750000  -4.190749e+001  -1.682214e+002 
3671875000  -4.146025e+001  1.778391e+002 
3675000000  -4.221799e+001  1.689829e+002 
3678125000  -4.269086e+001  1.632074e+002 
3681250000  -4.233253e+001  1.568833e+002 
3684375000  -4.256096e+001  1.488619e+002 
3687500000  -4.296477e+001  1.398560e+002 
3690625000  -4.328335e+001  1.342381e+002 
3693750000  -4.442177e+001  1.333578e+002 
3696875000  -4.388443e+001  1.292300e+002 
3700000000  -4.312897e+001  1.198152e+002 
3703125000  -4.364479e+001  1.145068e+002 
3706250000  -4.453922e+001  1.109855e+002 
3709375000  -4.380619e+001  1.102243e+002 
3712500000  -4.298864e+001  1.049504e+002 
3715625000  -4.166135e+001  9.582225e+001 
3718750000  -4.181141e+001  8.400882e+001 
3721875000  -4.176219e+001  7.713307e+001 
3725000000  -4.245982e+001  6.884490e+001 
3728125000  -4.252351e+001  6.566615e+001 
3731250000  -4.180528e+001  5.957380e+001 
3734375000  -4.219323e+001  5.143763e+001 
3737500000  -4.265154e+001  4.383143e+001 
3740625000  -4.296701e+001  3.616126e+001 
3743750000  -4.289111e+001  2.980702e+001 
3746875000  -4.335809e+001  2.273991e+001 
3750000000  -4.327334e+001  2.221757e+001 
3753125000  -4.362098e+001  1.757729e+001 
3756250000  -4.376210e+001  1.230623e+001 
3759375000  -4.317299e+001  4.813800e+000 
3762500000  -4.337900e+001  5.082426e+000 
3765625000  -4.441383e+001  -2.769844e+000 
3768750000  -4.360571e+001  3.478899e-002 
3771875000  -4.212487e+001  -9.248638e+000 
3775000000  -4.214992e+001  -1.961218e+001 
3778125000  -4.249278e+001  -2.628939e+001 
3781250000  -4.272715e+001  -2.811546e+001 
3784375000  -4.232685e+001  -3.691241e+001 
3787500000  -4.224333e+001  -4.054890e+001 
3790625000  -4.302446e+001  -5.118202e+001 
3793750000  -4.238670e+001  -5.494706e+001 
3796875000  -4.138160e+001  -5.987002e+001 
3800000000  -4.068652e+001  -6.725130e+001 
3803125000  -4.161831e+001  -7.703059e+001 
3806250000  -4.231947e+001  -8.227402e+001 
3809375000  -4.200431e+001  -8.851601e+001 
3812500000  -4.184174e+001  -1.001275e+002 
3815625000  -4.311382e+001  -1.102335e+002 
3818750000  -4.419981e+001  -1.083622e+002 
3821875000  -4.327795e+001  -9.965707e+001 
3825000000  -4.104674e+001  -1.032788e+002 
3828125000  -4.021212e+001  -1.239124e+002 
3831250000  -4.167487e+001  -1.418748e+002 
3834375000  -4.343662e+001  -1.422247e+002 
3837500000  -4.379729e+001  -1.408796e+002 
3840625000  -4.221920e+001  -1.447171e+002 
3843750000  -4.181152e+001  -1.580466e+002 
3846875000  -4.346335e+001  -1.681013e+002 
3850000000  -4.422890e+001  -1.602699e+002 
3853125000  -4.363643e+001  -1.615589e+002 
3856250000  -4.298697e+001  -1.718376e+002 
3859375000  -4.211557e+001  -1.798541e+002 
3862500000  -4.192594e+001  1.702140e+002 
3865625000  -4.264373e+001  1.626198e+002 
3868750000  -4.208936e+001  1.613576e+002 
3871875000  -4.175368e+001  1.540802e+002 
3875000000  -4.251978e+001  1.435518e+002 
3878125000  -4.324099e+001  1.383973e+002 
3881250000  -4.334928e+001  1.381643e+002 
3884375000  -4.255392e+001  1.278504e+002 
3887500000  -4.341327e+001  1.219638e+002 
3890625000  -4.351432e+001  1.177614e+002 
3893750000  -4.425009e+001  1.142636e+002 
3896875000  -4.422231e+001  1.134530e+002 
3900000000  -4.430234e+001  1.066729e+002 
3903125000  -4.389275e+001  1.022117e+002 
3906250000  -4.333926e+001  9.824064e+001 
3909375000  -4.269316e+001  9.017224e+001 
3912500000  -4.367830e+001  7.848261e+001 
3915625000  -4.453329e+001  7.926794e+001 
3918750000  -4.446408e+001  7.734960e+001 
3921875000  -4.375285e+001  7.143430e+001 
3925000000  -4.295963e+001  6.621255e+001 
3928125000  -4.279928e+001  5.762674e+001 
3931250000  -4.377994e+001  4.720901e+001 
3934375000  -4.386795e+001  4.728663e+001 
3937500000  -4.489884e+001  4.630653e+001 
3940625000  -4.447457e+001  4.354019e+001 
3943750000  -4.298359e+001  3.849232e+001 
3946875000  -4.294640e+001  2.957333e+001 
3950000000  -4.399428e+001  2.221842e+001 
3953125000  -4.440306e+001  2.173575e+001 
3956250000  -4.315149e+001  1.951308e+001 
3959375000  -4.168207e+001  1.433205e+001 
3962500000  -4.101326e+001  7.052355e-001 
3965625000  -4.194756e+001  -7.640630e+000 
3968750000  -4.225721e+001  -1.617610e+001 
3971875000  -4.246447e+001  -2.084712e+001 
3975000000  -4.202786e+001  -2.540708e+001 
3978125000  -4.192464e+001  -3.139748e+001 
3981250000  -4.200531e+001  -4.188128e+001 
3984375000  -4.242153e+001  -4.693829e+001 
3987500000  -4.294617e+001  -5.088345e+001 
3990625000  -4.271148e+001  -5.698084e+001 
3993750000  -4.295782e+001  -6.205420e+001 
3996875000  -4.314843e+001  -6.991772e+001 
4000000000  -4.352183e+001  -7.279007e+001 
4003125000  -4.377905e+001  -7.220089e+001 
4006250000  -4.184914e+001  -7.728094e+001 
4009375000  -4.144978e+001  -9.590063e+001 
4012500000  -4.305596e+001  -1.029835e+002 
4015625000  -4.428649e+001  -1.038379e+002 
4018750000  -4.380317e+001  -1.058903e+002 
4021875000  -4.275455e+001  -1.152396e+002 
4025000000  -4.344284e+001  -1.197931e+002 
4028125000  -4.363469e+001  -1.286288e+002 
4031250000  -4.376538e+001  -1.376943e+002 
4034375000  -4.419225e+001  -1.367153e+002 
4037500000  -4.427345e+001  -1.413280e+002 
4040625000  -4.406133e+001  -1.482794e+002 
4043750000  -4.454611e+001  -1.483775e+002 
4046875000  -4.451765e+001  -1.584553e+002 
4050000000  -4.420958e+001  -1.660086e+002 
4053125000  -4.491404e+001  -1.667891e+002 
4056250000  -4.560437e+001  -1.646091e+002 
4059375000  -4.408982e+001  -1.666276e+002 
4062500000  -4.353596e+001  -1.742080e+002 
4065625000  -4.317393e+001  -1.791088e+002 
4068750000  -4.315736e+001  1.726891e+002 
4071875000  -4.270214e+001  1.611425e+002 
4075000000  -4.346776e+001  1.530955e+002 
4078125000  -4.396790e+001  1.526434e+002 
4081250000  -4.361977e+001  1.456499e+002 
4084375000  -4.285269e+001  1.348878e+002 
4087500000  -4.385500e+001  1.288473e+002 
4090625000  -4.453904e+001  1.268624e+002 
4093750000  -4.423419e+001  1.244553e+002 
4096875000  -4.425898e+001  1.157657e+002 
4100000000  -4.541286e+001  1.130333e+002 
4103125000  -4.574453e+001  1.144327e+002 
4106250000  -4.513692e+001  1.142640e+002 
4109375000  -4.448303e+001  1.095921e+002 
4112500000  -4.402735e+001  1.015712e+002 
4115625000  -4.421087e+001  9.370592e+001 
4118750000  -4.411342e+001  8.913541e+001 
4121875000  -4.339517e+001  8.169367e+001 
4125000000  -4.484884e+001  7.611861e+001 
4128125000  -4.518077e+001  8.107658e+001 
4131250000  -4.329276e+001  8.244387e+001 
4134375000  -4.165983e+001  6.798167e+001 
4137500000  -4.217189e+001  5.014248e+001 
4140625000  -4.416530e+001  4.186830e+001 
4143750000  -4.458168e+001  4.876801e+001 
4146875000  -4.355655e+001  4.933168e+001 
4150000000  -4.265678e+001  3.983239e+001 
4153125000  -4.308013e+001  2.957233e+001 
4156250000  -4.402656e+001  2.756321e+001 
4159375000  -4.367093e+001  3.136288e+001 
4162500000  -4.274817e+001  2.515105e+001 
4165625000  -4.147566e+001  1.570964e+001 
4168750000  -4.114178e+001  4.303562e+000 
4171875000  -4.127261e+001  -5.343767e+000 
4175000000  -4.190343e+001  -1.586553e+001 
4178125000  -4.227683e+001  -1.842149e+001 
4181250000  -4.190878e+001  -2.381805e+001 
4184375000  -4.267471e+001  -3.020478e+001 
4187500000  -4.204927e+001  -3.663375e+001 
4190625000  -4.285391e+001  -4.817663e+001 
4193750000  -4.410207e+001  -5.093129e+001 
4196875000  -4.462471e+001  -5.504319e+001 
4200000000  -4.594685e+001  -4.967107e+001 
4203125000  -4.449106e+001  -3.628623e+001 
4206250000  -4.139186e+001  -4.713688e+001 
4209375000  -4.122185e+001  -7.453248e+001 
4212500000  -4.379997e+001  -8.003049e+001 
4215625000  -4.412078e+001  -7.407381e+001 
4218750000  -4.268457e+001  -7.258655e+001 
4221875000  -4.051013e+001  -8.359249e+001 
4225000000  -4.228586e+001  -9.326323e+001 
4228125000  -4.252500e+001  -9.548819e+001 
4231250000  -4.081863e+001  -1.033926e+002 
4234375000  -4.090254e+001  -1.144713e+002 
4237500000  -4.121689e+001  -1.205655e+002 
4240625000  -4.101362e+001  -1.303466e+002 
4243750000  -4.245578e+001  -1.393795e+002 
4246875000  -4.303609e+001  -1.380647e+002 
4250000000  -4.265047e+001  -1.390061e+002 
4253125000  -4.241335e+001  -1.428680e+002 
4256250000  -4.200834e+001  -1.490668e+002 
4259375000  -4.217187e+001  -1.543015e+002 
4262500000  -4.198076e+001  -1.595642e+002 
4265625000  -4.220913e+001  -1.621933e+002 
4268750000  -4.063130e+001  -1.683762e+002 
4271875000  -4.059572e+001  -1.797421e+002 
4275000000  -4.046192e+001  1.705751e+002 
4278125000  -4.116028e+001  1.591015e+002 
4281250000  -4.214006e+001  1.557269e+002 
4284375000  -4.210492e+001  1.492337e+002 
4287500000  -4.357102e+001  1.491869e+002 
4290625000  -4.346886e+001  1.548254e+002 
4293750000  -4.182881e+001  1.555976e+002 
4296875000  -4.035664e+001  1.406638e+002 
4300000000  -4.165738e+001  1.301290e+002 
4303125000  -4.193869e+001  1.303805e+002 
4306250000  -4.063021e+001  1.289968e+002 
4309375000  -3.971211e+001  1.196908e+002 
4312500000  -3.955481e+001  1.087650e+002 
4315625000  -3.995094e+001  9.791680e+001 
4318750000  -4.073932e+001  9.092410e+001 
4321875000  -4.053897e+001  9.125681e+001 
4325000000  -4.010719e+001  8.696925e+001 
4328125000  -3.939936e+001  7.641635e+001 
4331250000  -3.965839e+001  6.163886e+001 
4334375000  -4.105705e+001  5.624417e+001 
4337500000  -4.203745e+001  5.255489e+001 
4340625000  -4.255715e+001  5.620484e+001 
4343750000  -4.129956e+001  5.027789e+001 
4346875000  -4.100803e+001  4.054875e+001 
4350000000  -4.096886e+001  3.166494e+001 
4353125000  -4.154440e+001  2.166694e+001 
4356250000  -4.410490e+001  2.803462e+001 
4359375000  -4.288890e+001  3.947778e+001 
4362500000  -3.957338e+001  2.803623e+001 
4365625000  -3.881957e+001  1.154779e+001 
4368750000  -4.006157e+001  1.627642e-001 
4371875000  -4.129613e+001  -1.275442e+000 
4375000000  -4.047495e+001  -4.869783e+000 
4378125000  -4.060414e+001  -1.505376e+001 
4381250000  -4.042843e+001  -2.205047e+001 
4384375000  -4.082218e+001  -3.021095e+001 
4387500000  -4.151677e+001  -3.892315e+001 
4390625000  -4.208085e+001  -3.909688e+001 
4393750000  -4.184964e+001  -4.047193e+001 
4396875000  -4.089107e+001  -4.511685e+001 
4400000000  -4.063738e+001  -5.513163e+001 
4403125000  -4.155982e+001  -6.421445e+001 
4406250000  -4.221811e+001  -6.791772e+001 
4409375000  -4.233743e+001  -7.584551e+001 
4412500000  -4.354578e+001  -7.835040e+001 
4415625000  -4.332801e+001  -7.106660e+001 
4418750000  -4.169701e+001  -7.495355e+001 
