!Agilent Technologies,E8363B,MY43030201,A.06.04.32
!Agilent E8363B: A.06.04.32
!Date: Tuesday, November 11, 2014 21:45:30
!Correction: S21(Response(S21)) 
!S1P File: Measurement: S21:
# Hz S  dB   R 50
3000000000  -4.368638e+001  -1.613121e+002 
3003125000  -4.534501e+001  -1.658773e+002 
3006250000  -4.534048e+001  -1.681106e+002 
3009375000  -4.614654e+001  -1.636688e+002 
3012500000  -4.488632e+001  -1.705932e+002 
3015625000  -4.500946e+001  -1.770463e+002 
3018750000  -4.542492e+001  -1.773071e+002 
3021875000  -4.411833e+001  -1.772819e+002 
3025000000  -4.248151e+001  1.781775e+002 
3028125000  -4.175561e+001  1.645816e+002 
3031250000  -4.096250e+001  1.543820e+002 
3034375000  -4.083538e+001  1.373658e+002 
3037500000  -4.159589e+001  1.291896e+002 
3040625000  -4.305360e+001  1.210693e+002 
3043750000  -4.328213e+001  1.146994e+002 
3046875000  -4.416961e+001  1.079862e+002 
3050000000  -4.512361e+001  1.035882e+002 
3053125000  -4.461068e+001  1.062923e+002 
3056250000  -4.475839e+001  1.085589e+002 
3059375000  -4.397101e+001  1.059023e+002 
3062500000  -4.228012e+001  1.007820e+002 
3065625000  -4.214126e+001  8.978178e+001 
3068750000  -4.206985e+001  8.219550e+001 
3071875000  -4.171107e+001  7.899773e+001 
3075000000  -4.115797e+001  7.169236e+001 
3078125000  -4.140858e+001  6.452538e+001 
3081250000  -4.143697e+001  5.690032e+001 
3084375000  -4.050655e+001  5.255323e+001 
3087500000  -4.053495e+001  4.410714e+001 
3090625000  -4.005135e+001  3.170092e+001 
3093750000  -4.109662e+001  2.252383e+001 
3096875000  -4.134016e+001  1.683338e+001 
3100000000  -4.126587e+001  1.266443e+001 
3103125000  -4.137486e+001  8.127320e+000 
3106250000  -4.108344e+001  2.952384e+000 
3109375000  -4.110778e+001  -4.033143e+000 
3112500000  -4.095449e+001  -1.061908e+001 
3115625000  -4.092437e+001  -1.465737e+001 
3118750000  -4.059123e+001  -2.038574e+001 
3121875000  -4.022571e+001  -3.179068e+001 
3125000000  -4.218709e+001  -3.693430e+001 
3128125000  -4.180292e+001  -3.026887e+001 
3131250000  -3.960725e+001  -3.857011e+001 
3134375000  -3.891215e+001  -5.574218e+001 
3137500000  -3.975497e+001  -7.010162e+001 
3140625000  -4.098309e+001  -7.548109e+001 
3143750000  -4.149775e+001  -7.841663e+001 
3146875000  -4.112848e+001  -7.705218e+001 
3150000000  -4.049791e+001  -8.189632e+001 
3153125000  -4.061942e+001  -9.155101e+001 
3156250000  -4.138376e+001  -8.797385e+001 
3159375000  -3.915470e+001  -9.046090e+001 
3162500000  -3.786702e+001  -1.077348e+002 
3165625000  -3.891940e+001  -1.223650e+002 
3168750000  -3.908711e+001  -1.246243e+002 
3171875000  -3.849475e+001  -1.326224e+002 
3175000000  -3.900028e+001  -1.423531e+002 
3178125000  -3.882644e+001  -1.445111e+002 
3181250000  -3.813820e+001  -1.539187e+002 
3184375000  -3.772101e+001  -1.665109e+002 
3187500000  -3.915499e+001  1.791917e+002 
3190625000  -4.097275e+001  1.705763e+002 
3193750000  -4.116837e+001  1.745316e+002 
3196875000  -4.105938e+001  1.750899e+002 
3200000000  -3.992914e+001  1.686030e+002 
3203125000  -3.966621e+001  1.600992e+002 
3206250000  -3.975990e+001  1.522742e+002 
3209375000  -3.951464e+001  1.436082e+002 
3212500000  -4.001721e+001  1.358601e+002 
3215625000  -3.964306e+001  1.341492e+002 
3218750000  -4.037533e+001  1.231188e+002 
3221875000  -4.086465e+001  1.131870e+002 
3225000000  -4.050112e+001  1.080492e+002 
3228125000  -4.104358e+001  1.015226e+002 
3231250000  -4.139848e+001  9.715993e+001 
3234375000  -4.118452e+001  9.576949e+001 
3237500000  -4.112294e+001  9.119901e+001 
3240625000  -4.039765e+001  8.338651e+001 
3243750000  -4.047968e+001  7.065431e+001 
3246875000  -4.064046e+001  6.474019e+001 
3250000000  -4.112776e+001  5.859069e+001 
3253125000  -4.132124e+001  5.462223e+001 
3256250000  -4.037980e+001  4.497810e+001 
3259375000  -4.090327e+001  3.145838e+001 
3262500000  -4.214893e+001  2.772053e+001 
3265625000  -4.273732e+001  2.886242e+001 
3268750000  -4.252272e+001  2.710420e+001 
3271875000  -4.151575e+001  2.001433e+001 
3275000000  -4.102483e+001  1.031023e+001 
3278125000  -4.177980e+001  4.292143e+000 
3281250000  -4.183516e+001  1.386297e+000 
3284375000  -4.102504e+001  -8.764318e+000 
3287500000  -4.149494e+001  -1.556886e+001 
3290625000  -4.147725e+001  -2.717032e+001 
3293750000  -4.143021e+001  -3.294083e+001 
3296875000  -4.296015e+001  -3.872972e+001 
3300000000  -4.200257e+001  -3.940115e+001 
3303125000  -4.091608e+001  -4.902629e+001 
3306250000  -4.097543e+001  -5.907108e+001 
3309375000  -4.066499e+001  -7.058215e+001 
3312500000  -4.118199e+001  -8.542124e+001 
3315625000  -4.247760e+001  -9.339440e+001 
3318750000  -4.419713e+001  -9.875515e+001 
3321875000  -4.509484e+001  -9.766688e+001 
3325000000  -4.528304e+001  -9.356567e+001 
3328125000  -4.421510e+001  -9.632124e+001 
3331250000  -4.232911e+001  -9.931067e+001 
3334375000  -4.004499e+001  -1.168476e+002 
3337500000  -4.084093e+001  -1.394825e+002 
3340625000  -4.271301e+001  -1.498990e+002 
3343750000  -4.448888e+001  -1.519747e+002 
3346875000  -4.428571e+001  -1.551275e+002 
3350000000  -4.361200e+001  -1.616030e+002 
3353125000  -4.356018e+001  -1.695690e+002 
3356250000  -4.348651e+001  -1.780921e+002 
3359375000  -4.434208e+001  1.660257e+002 
3362500000  -4.522675e+001  1.584916e+002 
3365625000  -4.558690e+001  1.520594e+002 
3368750000  -4.621217e+001  1.458083e+002 
3371875000  -4.697486e+001  1.368139e+002 
3375000000  -4.879569e+001  1.344354e+002 
3378125000  -4.966145e+001  1.305214e+002 
3381250000  -5.076237e+001  1.410882e+002 
3384375000  -4.762552e+001  1.526524e+002 
3387500000  -4.479509e+001  1.261949e+002 
3390625000  -4.706429e+001  1.061157e+002 
3393750000  -4.801148e+001  1.085902e+002 
3396875000  -4.649793e+001  1.026312e+002 
3400000000  -4.629276e+001  8.931987e+001 
3403125000  -4.676177e+001  7.991502e+001 
3406250000  -4.784352e+001  7.292254e+001 
3409375000  -4.725388e+001  6.411657e+001 
3412500000  -4.787880e+001  5.203271e+001 
3415625000  -4.851124e+001  5.026452e+001 
3418750000  -4.878395e+001  4.461073e+001 
3421875000  -4.880622e+001  3.905643e+001 
3425000000  -4.814352e+001  3.462716e+001 
3428125000  -4.705993e+001  2.867840e+001 
3431250000  -4.662849e+001  1.665083e+001 
3434375000  -4.699001e+001  3.084774e+000 
3437500000  -4.754739e+001  -3.541364e+000 
3440625000  -4.806073e+001  -9.197289e+000 
3443750000  -4.645616e+001  -9.954931e+000 
3446875000  -4.557762e+001  -2.992706e+001 
3450000000  -4.552933e+001  -4.232070e+001 
3453125000  -4.600551e+001  -5.890960e+001 
3456250000  -4.745713e+001  -6.884707e+001 
3459375000  -4.800702e+001  -6.863964e+001 
3462500000  -4.790046e+001  -7.590823e+001 
3465625000  -4.774441e+001  -8.808420e+001 
3468750000  -4.792132e+001  -9.429255e+001 
3471875000  -4.676729e+001  -1.054717e+002 
3475000000  -4.710025e+001  -1.134649e+002 
3478125000  -4.765345e+001  -1.304652e+002 
3481250000  -4.894989e+001  -1.370566e+002 
3484375000  -4.830111e+001  -1.330993e+002 
3487500000  -4.777945e+001  -1.399506e+002 
3490625000  -4.731009e+001  -1.523245e+002 
3493750000  -4.833793e+001  -1.686025e+002 
3496875000  -4.829267e+001  -1.720038e+002 
3500000000  -4.802873e+001  -1.699800e+002 
3503125000  -4.731903e+001  -1.738289e+002 
3506250000  -4.564230e+001  1.701512e+002 
3509375000  -4.515768e+001  1.532457e+002 
3512500000  -4.641729e+001  1.355694e+002 
3515625000  -4.763643e+001  1.329551e+002 
3518750000  -4.789495e+001  1.312153e+002 
3521875000  -4.771215e+001  1.175102e+002 
3525000000  -4.926321e+001  1.157032e+002 
3528125000  -4.749049e+001  1.192469e+002 
3531250000  -4.705353e+001  1.066798e+002 
3534375000  -4.685010e+001  8.716095e+001 
3537500000  -4.798788e+001  7.767088e+001 
3540625000  -4.920248e+001  7.611134e+001 
3543750000  -4.911691e+001  7.747244e+001 
3546875000  -4.874839e+001  7.974830e+001 
3550000000  -4.646526e+001  7.269057e+001 
3553125000  -4.596260e+001  5.319805e+001 
3556250000  -4.694921e+001  4.946580e+001 
3559375000  -4.693657e+001  3.951769e+001 
3562500000  -4.656304e+001  3.183122e+001 
3565625000  -4.789104e+001  2.607206e+001 
3568750000  -4.801407e+001  2.703019e+001 
3571875000  -4.747704e+001  2.001142e+001 
3575000000  -4.691455e+001  6.776019e+000 
3578125000  -4.740482e+001  4.774539e+000 
3581250000  -4.760734e+001  6.004344e+000 
3584375000  -4.586243e+001  -4.403721e+000 
3587500000  -4.587371e+001  -1.621920e+001 
3590625000  -4.635115e+001  -2.466689e+001 
3593750000  -4.825603e+001  -2.623148e+001 
3596875000  -4.676710e+001  -1.944149e+001 
3600000000  -4.503976e+001  -3.268410e+001 
3603125000  -4.500908e+001  -4.904623e+001 
3606250000  -4.590810e+001  -5.147868e+001 
3609375000  -4.621452e+001  -5.652497e+001 
3612500000  -4.579010e+001  -6.253223e+001 
3615625000  -4.618644e+001  -6.798954e+001 
3618750000  -4.671183e+001  -7.145203e+001 
3621875000  -4.561222e+001  -7.586658e+001 
3625000000  -4.579998e+001  -8.244924e+001 
3628125000  -4.508468e+001  -9.087299e+001 
3631250000  -4.503776e+001  -9.847770e+001 
3634375000  -4.590774e+001  -1.002453e+002 
3637500000  -4.434665e+001  -1.005963e+002 
3640625000  -4.382539e+001  -1.084175e+002 
3643750000  -4.339762e+001  -1.171138e+002 
3646875000  -4.392280e+001  -1.269391e+002 
3650000000  -4.362493e+001  -1.322586e+002 
3653125000  -4.327758e+001  -1.429506e+002 
3656250000  -4.413353e+001  -1.470220e+002 
3659375000  -4.390111e+001  -1.528363e+002 
3662500000  -4.320931e+001  -1.610703e+002 
3665625000  -4.353654e+001  -1.617197e+002 
3668750000  -4.206879e+001  -1.685017e+002 
3671875000  -4.132374e+001  1.791419e+002 
3675000000  -4.213404e+001  1.661992e+002 
3678125000  -4.236035e+001  1.627026e+002 
3681250000  -4.258936e+001  1.567527e+002 
3684375000  -4.277385e+001  1.492934e+002 
3687500000  -4.297880e+001  1.409823e+002 
3690625000  -4.358183e+001  1.343336e+002 
3693750000  -4.447546e+001  1.339645e+002 
3696875000  -4.353633e+001  1.283498e+002 
3700000000  -4.310633e+001  1.231655e+002 
3703125000  -4.371161e+001  1.116055e+002 
3706250000  -4.474385e+001  1.101708e+002 
3709375000  -4.396865e+001  1.108405e+002 
3712500000  -4.287675e+001  1.036170e+002 
3715625000  -4.141273e+001  9.640321e+001 
3718750000  -4.180901e+001  8.749294e+001 
3721875000  -4.183751e+001  7.832173e+001 
3725000000  -4.242434e+001  7.005459e+001 
3728125000  -4.277708e+001  6.614383e+001 
3731250000  -4.208689e+001  5.929971e+001 
3734375000  -4.204579e+001  5.312537e+001 
3737500000  -4.251204e+001  4.359598e+001 
3740625000  -4.294824e+001  3.859476e+001 
3743750000  -4.295170e+001  3.100636e+001 
3746875000  -4.334764e+001  2.580152e+001 
3750000000  -4.329974e+001  1.868764e+001 
3753125000  -4.397715e+001  1.837830e+001 
3756250000  -4.347771e+001  1.397649e+001 
3759375000  -4.365076e+001  8.022252e+000 
3762500000  -4.378394e+001  4.467710e+000 
3765625000  -4.396436e+001  -2.527313e+000 
3768750000  -4.359428e+001  -6.558445e-001 
3771875000  -4.212208e+001  -7.377726e+000 
3775000000  -4.205914e+001  -1.881414e+001 
3778125000  -4.269397e+001  -2.355280e+001 
3781250000  -4.267558e+001  -3.133953e+001 
3784375000  -4.249174e+001  -3.582740e+001 
3787500000  -4.244321e+001  -4.064460e+001 
3790625000  -4.324148e+001  -4.963335e+001 
3793750000  -4.259864e+001  -5.643898e+001 
3796875000  -4.152810e+001  -6.095523e+001 
3800000000  -4.088029e+001  -6.716000e+001 
3803125000  -4.172206e+001  -7.876738e+001 
3806250000  -4.248677e+001  -8.155894e+001 
3809375000  -4.200007e+001  -8.740971e+001 
3812500000  -4.189937e+001  -9.912041e+001 
3815625000  -4.317928e+001  -1.075291e+002 
3818750000  -4.436539e+001  -1.061683e+002 
3821875000  -4.334125e+001  -9.732279e+001 
3825000000  -4.147060e+001  -1.029065e+002 
3828125000  -4.066177e+001  -1.261408e+002 
3831250000  -4.134872e+001  -1.409260e+002 
3834375000  -4.386438e+001  -1.401394e+002 
3837500000  -4.406721e+001  -1.374869e+002 
3840625000  -4.214349e+001  -1.438217e+002 
3843750000  -4.153394e+001  -1.590180e+002 
3846875000  -4.319788e+001  -1.651996e+002 
3850000000  -4.398239e+001  -1.616246e+002 
3853125000  -4.334969e+001  -1.628999e+002 
3856250000  -4.273286e+001  -1.694910e+002 
3859375000  -4.220824e+001  -1.790244e+002 
3862500000  -4.215844e+001  1.707531e+002 
3865625000  -4.256809e+001  1.640087e+002 
3868750000  -4.236883e+001  1.643872e+002 
3871875000  -4.173118e+001  1.509420e+002 
3875000000  -4.216313e+001  1.413332e+002 
3878125000  -4.305979e+001  1.410351e+002 
3881250000  -4.321384e+001  1.385388e+002 
3884375000  -4.268797e+001  1.301782e+002 
3887500000  -4.298150e+001  1.226741e+002 
3890625000  -4.379686e+001  1.209621e+002 
3893750000  -4.440350e+001  1.165901e+002 
3896875000  -4.458763e+001  1.122620e+002 
3900000000  -4.445454e+001  1.083153e+002 
3903125000  -4.409908e+001  1.032375e+002 
3906250000  -4.359671e+001  9.834392e+001 
3909375000  -4.266317e+001  8.766638e+001 
3912500000  -4.413982e+001  7.896958e+001 
3915625000  -4.475139e+001  7.920495e+001 
3918750000  -4.442140e+001  7.889556e+001 
3921875000  -4.365318e+001  7.347965e+001 
3925000000  -4.310804e+001  6.605425e+001 
3928125000  -4.294874e+001  5.689093e+001 
3931250000  -4.395159e+001  4.913765e+001 
3934375000  -4.420769e+001  4.930867e+001 
3937500000  -4.416583e+001  4.469188e+001 
3940625000  -4.423508e+001  4.340123e+001 
3943750000  -4.297356e+001  3.768200e+001 
3946875000  -4.293988e+001  2.979516e+001 
3950000000  -4.395263e+001  1.943193e+001 
3953125000  -4.435678e+001  2.296773e+001 
3956250000  -4.267808e+001  2.031868e+001 
3959375000  -4.189627e+001  1.361427e+001 
3962500000  -4.136588e+001  4.033208e+000 
3965625000  -4.213844e+001  -7.901162e+000 
3968750000  -4.241592e+001  -1.680555e+001 
3971875000  -4.263110e+001  -2.009478e+001 
3975000000  -4.197902e+001  -2.645230e+001 
3978125000  -4.201968e+001  -3.158153e+001 
3981250000  -4.192136e+001  -4.005698e+001 
3984375000  -4.249589e+001  -4.745147e+001 
3987500000  -4.288211e+001  -5.190609e+001 
3990625000  -4.311705e+001  -5.696288e+001 
3993750000  -4.319904e+001  -6.306900e+001 
3996875000  -4.279152e+001  -6.705745e+001 
4000000000  -4.361191e+001  -7.316912e+001 
4003125000  -4.374937e+001  -6.964041e+001 
4006250000  -4.136291e+001  -7.672855e+001 
4009375000  -4.134732e+001  -9.365743e+001 
4012500000  -4.293167e+001  -1.009835e+002 
4015625000  -4.405669e+001  -1.027891e+002 
4018750000  -4.340784e+001  -1.052473e+002 
4021875000  -4.311541e+001  -1.139423e+002 
4025000000  -4.295219e+001  -1.207836e+002 
4028125000  -4.363607e+001  -1.273616e+002 
4031250000  -4.366582e+001  -1.366908e+002 
4034375000  -4.452294e+001  -1.367926e+002 
4037500000  -4.381494e+001  -1.419130e+002 
4040625000  -4.371931e+001  -1.455604e+002 
4043750000  -4.464552e+001  -1.516960e+002 
4046875000  -4.431123e+001  -1.550310e+002 
4050000000  -4.414786e+001  -1.608379e+002 
4053125000  -4.476284e+001  -1.664847e+002 
4056250000  -4.513177e+001  -1.597211e+002 
4059375000  -4.396832e+001  -1.643721e+002 
4062500000  -4.302100e+001  -1.753922e+002 
4065625000  -4.355934e+001  1.798138e+002 
4068750000  -4.297372e+001  1.714801e+002 
4071875000  -4.258864e+001  1.640968e+002 
4075000000  -4.372676e+001  1.571462e+002 
4078125000  -4.427379e+001  1.549103e+002 
4081250000  -4.355281e+001  1.449976e+002 
4084375000  -4.276304e+001  1.360893e+002 
4087500000  -4.411007e+001  1.310179e+002 
4090625000  -4.457013e+001  1.287853e+002 
4093750000  -4.449628e+001  1.256829e+002 
4096875000  -4.426608e+001  1.132607e+002 
4100000000  -4.534680e+001  1.113990e+002 
4103125000  -4.599001e+001  1.141638e+002 
4106250000  -4.490956e+001  1.158362e+002 
4109375000  -4.434043e+001  1.120094e+002 
4112500000  -4.431055e+001  9.941703e+001 
4115625000  -4.421916e+001  9.616047e+001 
4118750000  -4.416008e+001  9.171255e+001 
4121875000  -4.350890e+001  8.379552e+001 
4125000000  -4.456874e+001  7.507827e+001 
4128125000  -4.525301e+001  8.273193e+001 
4131250000  -4.419859e+001  8.194246e+001 
4134375000  -4.120493e+001  7.013976e+001 
4137500000  -4.211266e+001  4.711841e+001 
4140625000  -4.418959e+001  4.239115e+001 
4143750000  -4.499723e+001  4.818651e+001 
4146875000  -4.428933e+001  5.244349e+001 
4150000000  -4.314958e+001  3.878903e+001 
4153125000  -4.299412e+001  3.077356e+001 
4156250000  -4.359090e+001  2.658428e+001 
4159375000  -4.397498e+001  2.772613e+001 
4162500000  -4.255696e+001  2.592044e+001 
4165625000  -4.153852e+001  1.558553e+001 
4168750000  -4.110637e+001  6.032506e+000 
4171875000  -4.101339e+001  -4.211076e+000 
4175000000  -4.192455e+001  -1.376104e+001 
4178125000  -4.217398e+001  -1.606603e+001 
4181250000  -4.187860e+001  -2.191648e+001 
4184375000  -4.264088e+001  -3.053762e+001 
4187500000  -4.253714e+001  -3.427000e+001 
4190625000  -4.265269e+001  -4.551483e+001 
4193750000  -4.376654e+001  -5.266852e+001 
4196875000  -4.491946e+001  -5.141587e+001 
4200000000  -4.633215e+001  -4.851648e+001 
4203125000  -4.446429e+001  -3.692751e+001 
4206250000  -4.126717e+001  -4.902552e+001 
4209375000  -4.170704e+001  -7.364330e+001 
4212500000  -4.376989e+001  -7.797951e+001 
4215625000  -4.444666e+001  -7.334503e+001 
4218750000  -4.206307e+001  -7.482203e+001 
4221875000  -4.102885e+001  -8.258978e+001 
4225000000  -4.203661e+001  -9.603989e+001 
4228125000  -4.261739e+001  -9.253436e+001 
4231250000  -4.081533e+001  -1.023205e+002 
4234375000  -4.101917e+001  -1.150723e+002 
4237500000  -4.064569e+001  -1.180483e+002 
4240625000  -4.118270e+001  -1.302562e+002 
4243750000  -4.211206e+001  -1.398496e+002 
4246875000  -4.327640e+001  -1.365808e+002 
4250000000  -4.274754e+001  -1.404746e+002 
4253125000  -4.259782e+001  -1.408887e+002 
4256250000  -4.234686e+001  -1.468953e+002 
4259375000  -4.222407e+001  -1.548377e+002 
4262500000  -4.224815e+001  -1.598688e+002 
4265625000  -4.209796e+001  -1.597322e+002 
4268750000  -4.125956e+001  -1.693305e+002 
4271875000  -4.051093e+001  -1.781166e+002 
4275000000  -4.012859e+001  1.709194e+002 
4278125000  -4.114317e+001  1.584371e+002 
4281250000  -4.200390e+001  1.562677e+002 
4284375000  -4.220356e+001  1.511809e+002 
4287500000  -4.399764e+001  1.497839e+002 
4290625000  -4.425664e+001  1.564902e+002 
4293750000  -4.162544e+001  1.559705e+002 
4296875000  -4.025562e+001  1.411058e+002 
4300000000  -4.133715e+001  1.331113e+002 
4303125000  -4.217564e+001  1.320004e+002 
4306250000  -4.090634e+001  1.313561e+002 
4309375000  -3.993304e+001  1.202190e+002 
4312500000  -3.977253e+001  1.077129e+002 
4315625000  -4.012846e+001  9.990681e+001 
4318750000  -4.073997e+001  9.481365e+001 
4321875000  -4.073569e+001  9.089288e+001 
4325000000  -4.024051e+001  8.745957e+001 
4328125000  -3.930103e+001  7.624233e+001 
4331250000  -4.002972e+001  6.444703e+001 
4334375000  -4.089557e+001  5.622317e+001 
4337500000  -4.198903e+001  5.376128e+001 
4340625000  -4.215475e+001  5.664085e+001 
4343750000  -4.115691e+001  5.357144e+001 
4346875000  -4.077729e+001  4.352271e+001 
4350000000  -4.070969e+001  3.320816e+001 
4353125000  -4.169361e+001  2.559607e+001 
4356250000  -4.413398e+001  2.609698e+001 
4359375000  -4.244375e+001  3.982558e+001 
4362500000  -3.968255e+001  2.826083e+001 
4365625000  -3.915536e+001  1.325608e+001 
4368750000  -4.010425e+001  1.380957e+000 
4371875000  -4.116932e+001  -5.372512e-001 
4375000000  -4.068459e+001  -5.298266e+000 
4378125000  -4.047637e+001  -1.296294e+001 
4381250000  -4.084185e+001  -2.242669e+001 
4384375000  -4.050975e+001  -3.020287e+001 
4387500000  -4.155754e+001  -3.818321e+001 
4390625000  -4.224585e+001  -3.771041e+001 
4393750000  -4.160225e+001  -3.746621e+001 
4396875000  -4.115238e+001  -4.419100e+001 
4400000000  -4.058204e+001  -5.498012e+001 
4403125000  -4.159421e+001  -6.558628e+001 
4406250000  -4.193975e+001  -6.663657e+001 
4409375000  -4.248948e+001  -7.381339e+001 
4412500000  -4.362042e+001  -7.528566e+001 
4415625000  -4.354426e+001  -7.491761e+001 
4418750000  -4.195968e+001  -7.472468e+001 
