!Agilent Technologies,E8363B,MY43030201,A.06.04.32
!Agilent E8363B: A.06.04.32
!Date: Tuesday, November 11, 2014 21:49:16
!Correction: S21(Response(S21)) 
!S1P File: Measurement: S21:
# Hz S  dB   R 50
3000000000  -4.387878e+001  -1.604855e+002 
3003125000  -4.550589e+001  -1.667040e+002 
3006250000  -4.553032e+001  -1.661859e+002 
3009375000  -4.626377e+001  -1.650993e+002 
3012500000  -4.494404e+001  -1.715185e+002 
3015625000  -4.481427e+001  -1.779278e+002 
3018750000  -4.554515e+001  -1.779542e+002 
3021875000  -4.388153e+001  -1.795775e+002 
3025000000  -4.255896e+001  1.760377e+002 
3028125000  -4.175267e+001  1.655029e+002 
3031250000  -4.099240e+001  1.521729e+002 
3034375000  -4.086024e+001  1.384060e+002 
3037500000  -4.167115e+001  1.273273e+002 
3040625000  -4.270122e+001  1.193452e+002 
3043750000  -4.343336e+001  1.142802e+002 
3046875000  -4.410515e+001  1.061642e+002 
3050000000  -4.541129e+001  1.029991e+002 
3053125000  -4.466819e+001  1.047818e+002 
3056250000  -4.470446e+001  1.086752e+002 
3059375000  -4.403514e+001  1.038493e+002 
3062500000  -4.249821e+001  1.002433e+002 
3065625000  -4.218398e+001  8.892041e+001 
3068750000  -4.191259e+001  8.243590e+001 
3071875000  -4.179957e+001  7.824894e+001 
3075000000  -4.121415e+001  7.063720e+001 
3078125000  -4.124951e+001  6.331079e+001 
3081250000  -4.142469e+001  5.673919e+001 
3084375000  -4.044337e+001  5.100087e+001 
3087500000  -4.046979e+001  4.168470e+001 
3090625000  -4.001716e+001  3.028765e+001 
3093750000  -4.108348e+001  2.072341e+001 
3096875000  -4.127479e+001  1.569341e+001 
3100000000  -4.085973e+001  1.175309e+001 
3103125000  -4.139968e+001  7.880452e+000 
3106250000  -4.096989e+001  1.575126e+000 
3109375000  -4.101232e+001  -4.696855e+000 
3112500000  -4.074514e+001  -1.230458e+001 
3115625000  -4.080650e+001  -1.659802e+001 
3118750000  -4.079021e+001  -2.171604e+001 
3121875000  -4.010487e+001  -3.246125e+001 
3125000000  -4.239297e+001  -3.768175e+001 
3128125000  -4.213509e+001  -3.061561e+001 
3131250000  -3.960735e+001  -3.938674e+001 
3134375000  -3.890642e+001  -5.721990e+001 
3137500000  -3.958255e+001  -6.978196e+001 
3140625000  -4.094997e+001  -7.296529e+001 
3143750000  -4.162770e+001  -7.916319e+001 
3146875000  -4.104033e+001  -7.752008e+001 
3150000000  -4.025699e+001  -8.186439e+001 
3153125000  -4.079592e+001  -9.102531e+001 
3156250000  -4.142224e+001  -8.983234e+001 
3159375000  -3.901882e+001  -9.259458e+001 
3162500000  -3.764657e+001  -1.092127e+002 
3165625000  -3.907248e+001  -1.215934e+002 
3168750000  -3.890176e+001  -1.245745e+002 
3171875000  -3.868750e+001  -1.323400e+002 
3175000000  -3.914055e+001  -1.434350e+002 
3178125000  -3.864065e+001  -1.453797e+002 
3181250000  -3.798733e+001  -1.554966e+002 
3184375000  -3.784159e+001  -1.661943e+002 
3187500000  -3.915618e+001  1.771425e+002 
3190625000  -4.068394e+001  1.704051e+002 
3193750000  -4.121015e+001  1.742451e+002 
3196875000  -4.113606e+001  1.744091e+002 
3200000000  -3.986152e+001  1.696688e+002 
3203125000  -3.955616e+001  1.607812e+002 
3206250000  -3.986715e+001  1.528947e+002 
3209375000  -3.945111e+001  1.429569e+002 
3212500000  -3.997776e+001  1.366239e+002 
3215625000  -3.965645e+001  1.333907e+002 
3218750000  -4.026716e+001  1.198719e+002 
3221875000  -4.051424e+001  1.135420e+002 
3225000000  -4.048943e+001  1.083027e+002 
3228125000  -4.099947e+001  1.008161e+002 
3231250000  -4.130067e+001  9.781087e+001 
3234375000  -4.080808e+001  9.406069e+001 
3237500000  -4.091786e+001  9.076213e+001 
3240625000  -4.039259e+001  8.269154e+001 
3243750000  -4.060095e+001  7.233237e+001 
3246875000  -4.057643e+001  6.260413e+001 
3250000000  -4.104918e+001  5.792421e+001 
3253125000  -4.104810e+001  5.425390e+001 
3256250000  -4.013092e+001  4.533641e+001 
3259375000  -4.078935e+001  3.144101e+001 
3262500000  -4.235022e+001  2.646655e+001 
3265625000  -4.251826e+001  2.686417e+001 
3268750000  -4.257115e+001  2.565961e+001 
3271875000  -4.142130e+001  2.037521e+001 
3275000000  -4.107718e+001  8.627676e+000 
3278125000  -4.181298e+001  4.682250e+000 
3281250000  -4.160781e+001  -1.803967e-001 
3284375000  -4.104806e+001  -9.434547e+000 
3287500000  -4.178312e+001  -1.616864e+001 
3290625000  -4.138818e+001  -2.650677e+001 
3293750000  -4.150125e+001  -3.304383e+001 
3296875000  -4.285329e+001  -3.984792e+001 
3300000000  -4.189310e+001  -4.106324e+001 
3303125000  -4.112875e+001  -4.909231e+001 
3306250000  -4.083464e+001  -6.048743e+001 
3309375000  -4.063222e+001  -7.000571e+001 
3312500000  -4.121581e+001  -8.643608e+001 
3315625000  -4.256083e+001  -9.374566e+001 
3318750000  -4.386505e+001  -1.004349e+002 
3321875000  -4.520584e+001  -1.007172e+002 
3325000000  -4.487818e+001  -9.754170e+001 
3328125000  -4.402383e+001  -9.726658e+001 
3331250000  -4.231855e+001  -9.768300e+001 
3334375000  -4.030550e+001  -1.166373e+002 
3337500000  -4.075224e+001  -1.398898e+002 
3340625000  -4.265152e+001  -1.499761e+002 
3343750000  -4.431909e+001  -1.512273e+002 
3346875000  -4.404830e+001  -1.576970e+002 
3350000000  -4.345055e+001  -1.615872e+002 
3353125000  -4.370039e+001  -1.716319e+002 
3356250000  -4.335962e+001  1.777102e+002 
3359375000  -4.424145e+001  1.655906e+002 
3362500000  -4.518295e+001  1.592546e+002 
3365625000  -4.544259e+001  1.494720e+002 
3368750000  -4.625218e+001  1.454427e+002 
3371875000  -4.708270e+001  1.397982e+002 
3375000000  -4.845414e+001  1.343524e+002 
3378125000  -4.947741e+001  1.334564e+002 
3381250000  -4.966189e+001  1.420274e+002 
3384375000  -4.757678e+001  1.507128e+002 
3387500000  -4.489709e+001  1.295853e+002 
3390625000  -4.656952e+001  1.057158e+002 
3393750000  -4.776030e+001  1.056508e+002 
3396875000  -4.642654e+001  1.008143e+002 
3400000000  -4.623304e+001  8.759299e+001 
3403125000  -4.655348e+001  7.991766e+001 
3406250000  -4.727170e+001  6.912621e+001 
3409375000  -4.732147e+001  6.107313e+001 
3412500000  -4.763036e+001  5.045019e+001 
3415625000  -4.837919e+001  4.537208e+001 
3418750000  -4.903693e+001  4.413506e+001 
3421875000  -4.923937e+001  4.265128e+001 
3425000000  -4.781372e+001  3.604341e+001 
3428125000  -4.730273e+001  2.873271e+001 
3431250000  -4.686108e+001  1.462937e+001 
3434375000  -4.695122e+001  9.829210e-001 
3437500000  -4.746864e+001  -8.848344e-001 
3440625000  -4.806260e+001  -1.072399e+001 
3443750000  -4.637639e+001  -1.218452e+001 
3446875000  -4.547764e+001  -2.887910e+001 
3450000000  -4.478788e+001  -4.352635e+001 
3453125000  -4.587064e+001  -6.423902e+001 
3456250000  -4.735328e+001  -6.959071e+001 
3459375000  -4.813556e+001  -7.469939e+001 
3462500000  -4.819086e+001  -8.033939e+001 
3465625000  -4.749348e+001  -8.679196e+001 
3468750000  -4.752168e+001  -9.550488e+001 
3471875000  -4.699883e+001  -1.025430e+002 
3475000000  -4.761584e+001  -1.157609e+002 
3478125000  -4.771599e+001  -1.294494e+002 
3481250000  -4.906869e+001  -1.356171e+002 
3484375000  -4.893505e+001  -1.345914e+002 
3487500000  -4.787381e+001  -1.434515e+002 
3490625000  -4.687221e+001  -1.510116e+002 
3493750000  -4.776047e+001  -1.658497e+002 
3496875000  -4.823135e+001  -1.684296e+002 
3500000000  -4.851162e+001  -1.708177e+002 
3503125000  -4.718404e+001  -1.753903e+002 
3506250000  -4.547248e+001  1.705485e+002 
3509375000  -4.555647e+001  1.495349e+002 
3512500000  -4.637155e+001  1.370872e+002 
3515625000  -4.773019e+001  1.324672e+002 
3518750000  -4.773779e+001  1.287251e+002 
3521875000  -4.759945e+001  1.165383e+002 
3525000000  -4.876537e+001  1.137423e+002 
3528125000  -4.717806e+001  1.174747e+002 
3531250000  -4.650935e+001  1.040983e+002 
3534375000  -4.668771e+001  9.162070e+001 
3537500000  -4.802771e+001  8.017809e+001 
3540625000  -4.887584e+001  7.390401e+001 
3543750000  -4.953026e+001  7.769720e+001 
3546875000  -4.807946e+001  8.214774e+001 
3550000000  -4.653530e+001  7.338712e+001 
3553125000  -4.569247e+001  5.208468e+001 
3556250000  -4.723061e+001  4.704561e+001 
3559375000  -4.657172e+001  4.071218e+001 
3562500000  -4.615627e+001  3.020038e+001 
3565625000  -4.746896e+001  2.434686e+001 
3568750000  -4.754319e+001  2.561898e+001 
3571875000  -4.740131e+001  1.740146e+001 
3575000000  -4.692822e+001  1.007811e+001 
3578125000  -4.747359e+001  4.481049e+000 
3581250000  -4.739392e+001  4.629040e+000 
3584375000  -4.589270e+001  -4.971973e+000 
3587500000  -4.574457e+001  -1.834448e+001 
3590625000  -4.693548e+001  -2.648821e+001 
3593750000  -4.765915e+001  -2.505668e+001 
3596875000  -4.641354e+001  -2.315739e+001 
3600000000  -4.490365e+001  -3.197098e+001 
3603125000  -4.456892e+001  -5.111882e+001 
3606250000  -4.616872e+001  -5.365290e+001 
3609375000  -4.617891e+001  -5.675148e+001 
3612500000  -4.589978e+001  -6.652298e+001 
3615625000  -4.617338e+001  -6.917509e+001 
3618750000  -4.613315e+001  -7.188464e+001 
3621875000  -4.553328e+001  -7.780215e+001 
3625000000  -4.570454e+001  -8.284058e+001 
3628125000  -4.489024e+001  -8.746918e+001 
3631250000  -4.519009e+001  -9.907226e+001 
3634375000  -4.540733e+001  -9.779042e+001 
3637500000  -4.421981e+001  -1.020879e+002 
3640625000  -4.369497e+001  -1.090007e+002 
3643750000  -4.349785e+001  -1.186623e+002 
3646875000  -4.353582e+001  -1.304546e+002 
3650000000  -4.381104e+001  -1.339396e+002 
3653125000  -4.314698e+001  -1.451621e+002 
3656250000  -4.409202e+001  -1.501918e+002 
3659375000  -4.396260e+001  -1.540038e+002 
3662500000  -4.311613e+001  -1.597535e+002 
3665625000  -4.347266e+001  -1.646128e+002 
3668750000  -4.191430e+001  -1.678225e+002 
3671875000  -4.151372e+001  1.764158e+002 
3675000000  -4.209766e+001  1.658826e+002 
3678125000  -4.215084e+001  1.622952e+002 
3681250000  -4.220372e+001  1.562157e+002 
3684375000  -4.257565e+001  1.487055e+002 
3687500000  -4.292708e+001  1.391905e+002 
3690625000  -4.347042e+001  1.335823e+002 
3693750000  -4.458614e+001  1.329310e+002 
3696875000  -4.355127e+001  1.293211e+002 
3700000000  -4.287134e+001  1.194204e+002 
3703125000  -4.367901e+001  1.090668e+002 
3706250000  -4.458158e+001  1.114289e+002 
3709375000  -4.368567e+001  1.111068e+002 
3712500000  -4.294302e+001  1.036864e+002 
3715625000  -4.168730e+001  9.642792e+001 
3718750000  -4.154774e+001  8.444830e+001 
3721875000  -4.171474e+001  7.528709e+001 
3725000000  -4.236509e+001  7.007285e+001 
3728125000  -4.254766e+001  6.736024e+001 
3731250000  -4.176193e+001  5.831659e+001 
3734375000  -4.169971e+001  5.072818e+001 
3737500000  -4.307448e+001  4.260985e+001 
3740625000  -4.275491e+001  3.559143e+001 
3743750000  -4.294318e+001  3.059509e+001 
3746875000  -4.319235e+001  2.559979e+001 
3750000000  -4.362650e+001  2.065362e+001 
3753125000  -4.361768e+001  1.752331e+001 
3756250000  -4.375721e+001  1.520113e+001 
3759375000  -4.364108e+001  7.278346e+000 
3762500000  -4.328438e+001  1.042895e+000 
3765625000  -4.415707e+001  -2.289387e+000 
3768750000  -4.335982e+001  2.482922e-001 
3771875000  -4.180285e+001  -8.816822e+000 
3775000000  -4.203191e+001  -1.845980e+001 
3778125000  -4.293486e+001  -2.500575e+001 
3781250000  -4.251789e+001  -3.241435e+001 
3784375000  -4.229925e+001  -3.763980e+001 
3787500000  -4.222072e+001  -4.093475e+001 
3790625000  -4.284861e+001  -5.174730e+001 
3793750000  -4.237406e+001  -5.763715e+001 
3796875000  -4.142586e+001  -5.915372e+001 
3800000000  -4.074592e+001  -6.805123e+001 
3803125000  -4.158200e+001  -7.916608e+001 
3806250000  -4.246379e+001  -8.508323e+001 
3809375000  -4.207849e+001  -8.934155e+001 
3812500000  -4.187597e+001  -1.010433e+002 
3815625000  -4.307492e+001  -1.099981e+002 
3818750000  -4.457178e+001  -1.066880e+002 
3821875000  -4.342356e+001  -9.829612e+001 
3825000000  -4.156795e+001  -1.058088e+002 
3828125000  -4.023876e+001  -1.249340e+002 
3831250000  -4.136388e+001  -1.407383e+002 
3834375000  -4.397565e+001  -1.413243e+002 
3837500000  -4.379760e+001  -1.377036e+002 
3840625000  -4.281698e+001  -1.474493e+002 
3843750000  -4.167059e+001  -1.590243e+002 
3846875000  -4.349375e+001  -1.663043e+002 
3850000000  -4.423032e+001  -1.585475e+002 
3853125000  -4.332168e+001  -1.620580e+002 
3856250000  -4.333601e+001  -1.709959e+002 
3859375000  -4.235949e+001  1.785564e+002 
3862500000  -4.231295e+001  1.713717e+002 
3865625000  -4.247505e+001  1.603821e+002 
3868750000  -4.235860e+001  1.624062e+002 
3871875000  -4.176582e+001  1.514923e+002 
3875000000  -4.257085e+001  1.419716e+002 
3878125000  -4.302653e+001  1.382949e+002 
3881250000  -4.316341e+001  1.406534e+002 
3884375000  -4.281640e+001  1.296785e+002 
3887500000  -4.305582e+001  1.194964e+002 
3890625000  -4.389918e+001  1.175312e+002 
3893750000  -4.417688e+001  1.126231e+002 
3896875000  -4.434657e+001  1.131562e+002 
3900000000  -4.461381e+001  1.093225e+002 
3903125000  -4.347517e+001  1.004941e+002 
3906250000  -4.373123e+001  9.677343e+001 
3909375000  -4.281693e+001  8.770011e+001 
3912500000  -4.413956e+001  7.914610e+001 
3915625000  -4.454716e+001  8.072977e+001 
3918750000  -4.446468e+001  7.589528e+001 
3921875000  -4.354491e+001  7.234666e+001 
3925000000  -4.275223e+001  6.438599e+001 
3928125000  -4.271684e+001  5.567880e+001 
3931250000  -4.363960e+001  5.066157e+001 
3934375000  -4.392868e+001  4.824450e+001 
3937500000  -4.453675e+001  4.352257e+001 
3940625000  -4.439983e+001  4.369668e+001 
3943750000  -4.294890e+001  3.791611e+001 
3946875000  -4.266130e+001  2.755320e+001 
3950000000  -4.359072e+001  2.171039e+001 
3953125000  -4.439740e+001  2.073286e+001 
3956250000  -4.274885e+001  2.086994e+001 
3959375000  -4.195981e+001  1.307898e+001 
3962500000  -4.144364e+001  1.883399e+000 
3965625000  -4.200290e+001  -7.689509e+000 
3968750000  -4.256115e+001  -1.772980e+001 
3971875000  -4.219725e+001  -2.147849e+001 
3975000000  -4.192314e+001  -2.551643e+001 
3978125000  -4.227574e+001  -3.252139e+001 
3981250000  -4.167571e+001  -4.056225e+001 
3984375000  -4.237511e+001  -4.664038e+001 
3987500000  -4.290396e+001  -5.300163e+001 
3990625000  -4.289613e+001  -5.687383e+001 
3993750000  -4.300657e+001  -6.198936e+001 
3996875000  -4.289818e+001  -6.994768e+001 
4000000000  -4.372376e+001  -7.138519e+001 
4003125000  -4.375608e+001  -7.159834e+001 
4006250000  -4.198674e+001  -7.660271e+001 
4009375000  -4.130805e+001  -9.597875e+001 
4012500000  -4.316358e+001  -1.024584e+002 
4015625000  -4.379435e+001  -1.048870e+002 
4018750000  -4.360799e+001  -1.085956e+002 
4021875000  -4.305595e+001  -1.141699e+002 
4025000000  -4.330309e+001  -1.231928e+002 
4028125000  -4.361426e+001  -1.306028e+002 
4031250000  -4.374101e+001  -1.366801e+002 
4034375000  -4.395381e+001  -1.381069e+002 
4037500000  -4.416509e+001  -1.427753e+002 
4040625000  -4.411933e+001  -1.489182e+002 
4043750000  -4.478981e+001  -1.531168e+002 
4046875000  -4.450713e+001  -1.543343e+002 
4050000000  -4.397651e+001  -1.632572e+002 
4053125000  -4.497581e+001  -1.644886e+002 
4056250000  -4.602934e+001  -1.637876e+002 
4059375000  -4.380692e+001  -1.680867e+002 
4062500000  -4.313018e+001  -1.756009e+002 
4065625000  -4.338440e+001  -1.775840e+002 
4068750000  -4.305010e+001  1.708080e+002 
4071875000  -4.270496e+001  1.617300e+002 
4075000000  -4.344152e+001  1.529808e+002 
4078125000  -4.395560e+001  1.508566e+002 
4081250000  -4.358959e+001  1.451021e+002 
4084375000  -4.345899e+001  1.374219e+002 
4087500000  -4.391852e+001  1.288643e+002 
4090625000  -4.457375e+001  1.296129e+002 
4093750000  -4.428470e+001  1.237669e+002 
4096875000  -4.419882e+001  1.158297e+002 
4100000000  -4.521177e+001  1.093092e+002 
4103125000  -4.576337e+001  1.136698e+002 
4106250000  -4.505505e+001  1.115728e+002 
4109375000  -4.395071e+001  1.070625e+002 
4112500000  -4.375495e+001  9.940150e+001 
4115625000  -4.424470e+001  9.503146e+001 
4118750000  -4.379794e+001  8.978207e+001 
4121875000  -4.398397e+001  8.233389e+001 
4125000000  -4.467449e+001  7.641103e+001 
4128125000  -4.538892e+001  7.854417e+001 
4131250000  -4.359752e+001  8.160788e+001 
4134375000  -4.169778e+001  7.081961e+001 
4137500000  -4.183042e+001  4.883085e+001 
4140625000  -4.444677e+001  4.200785e+001 
4143750000  -4.513520e+001  4.707830e+001 
4146875000  -4.431602e+001  4.868518e+001 
4150000000  -4.271360e+001  3.865790e+001 
4153125000  -4.322120e+001  2.896867e+001 
4156250000  -4.405276e+001  2.414803e+001 
4159375000  -4.358381e+001  2.883342e+001 
4162500000  -4.258533e+001  2.591185e+001 
4165625000  -4.161729e+001  1.531811e+001 
4168750000  -4.081982e+001  4.899960e+000 
4171875000  -4.108596e+001  -6.766394e+000 
4175000000  -4.181181e+001  -1.449670e+001 
4178125000  -4.229978e+001  -1.761040e+001 
4181250000  -4.202583e+001  -2.309827e+001 
4184375000  -4.233500e+001  -3.220954e+001 
4187500000  -4.198702e+001  -3.579044e+001 
4190625000  -4.290231e+001  -4.721130e+001 
4193750000  -4.372750e+001  -5.160813e+001 
4196875000  -4.437474e+001  -5.576312e+001 
4200000000  -4.561314e+001  -4.742600e+001 
4203125000  -4.428900e+001  -3.874129e+001 
4206250000  -4.120122e+001  -4.805233e+001 
4209375000  -4.125781e+001  -7.376657e+001 
4212500000  -4.370032e+001  -8.024068e+001 
4215625000  -4.464609e+001  -7.260821e+001 
4218750000  -4.208073e+001  -7.240068e+001 
4221875000  -4.131122e+001  -8.567252e+001 
4225000000  -4.177922e+001  -9.451474e+001 
4228125000  -4.187660e+001  -9.376318e+001 
4231250000  -4.084548e+001  -1.040478e+002 
4234375000  -4.073403e+001  -1.146438e+002 
4237500000  -4.056315e+001  -1.215242e+002 
4240625000  -4.102509e+001  -1.311009e+002 
4243750000  -4.238155e+001  -1.364538e+002 
4246875000  -4.276095e+001  -1.439238e+002 
4250000000  -4.287191e+001  -1.408419e+002 
4253125000  -4.229253e+001  -1.417345e+002 
4256250000  -4.268656e+001  -1.491302e+002 
4259375000  -4.191647e+001  -1.528301e+002 
4262500000  -4.224237e+001  -1.608140e+002 
4265625000  -4.179237e+001  -1.615889e+002 
4268750000  -4.090311e+001  -1.705606e+002 
4271875000  -4.033345e+001  -1.796196e+002 
4275000000  -4.064495e+001  1.714453e+002 
4278125000  -4.126765e+001  1.558694e+002 
4281250000  -4.261390e+001  1.556656e+002 
4284375000  -4.182540e+001  1.541799e+002 
4287500000  -4.365786e+001  1.504743e+002 
4290625000  -4.353487e+001  1.550162e+002 
4293750000  -4.171718e+001  1.565264e+002 
4296875000  -4.021751e+001  1.398915e+002 
4300000000  -4.141181e+001  1.262823e+002 
4303125000  -4.214286e+001  1.288378e+002 
4306250000  -4.074347e+001  1.299123e+002 
4309375000  -3.983654e+001  1.192295e+002 
4312500000  -3.998614e+001  1.079792e+002 
4315625000  -4.030265e+001  9.849931e+001 
4318750000  -4.042766e+001  9.277227e+001 
4321875000  -4.090014e+001  8.934359e+001 
4325000000  -4.014079e+001  8.637248e+001 
4328125000  -3.950132e+001  7.520226e+001 
4331250000  -3.974530e+001  6.358497e+001 
4334375000  -4.075132e+001  5.326920e+001 
4337500000  -4.179414e+001  5.403276e+001 
4340625000  -4.201479e+001  5.477584e+001 
4343750000  -4.090136e+001  5.156446e+001 
4346875000  -4.100001e+001  4.059561e+001 
4350000000  -4.087867e+001  3.204315e+001 
4353125000  -4.189989e+001  2.182819e+001 
4356250000  -4.409343e+001  2.886180e+001 
4359375000  -4.206714e+001  3.871246e+001 
4362500000  -3.938315e+001  3.068420e+001 
4365625000  -3.906050e+001  1.279104e+001 
4368750000  -4.018608e+001  -2.037585e-001 
4371875000  -4.085325e+001  -3.064958e+000 
4375000000  -4.057768e+001  -7.350840e+000 
4378125000  -4.044896e+001  -1.514327e+001 
4381250000  -4.028541e+001  -2.255309e+001 
4384375000  -4.064341e+001  -3.193116e+001 
4387500000  -4.132174e+001  -3.697230e+001 
4390625000  -4.202536e+001  -3.848042e+001 
4393750000  -4.150095e+001  -4.185797e+001 
4396875000  -4.121824e+001  -4.563758e+001 
4400000000  -4.074537e+001  -5.707121e+001 
4403125000  -4.109508e+001  -6.542829e+001 
4406250000  -4.200685e+001  -6.877316e+001 
4409375000  -4.228329e+001  -7.277568e+001 
4412500000  -4.371164e+001  -7.819958e+001 
4415625000  -4.293906e+001  -7.574597e+001 
4418750000  -4.188454e+001  -7.775415e+001 
