!Agilent Technologies,E8363B,MY43030201,A.06.04.32
!Agilent E8363B: A.06.04.32
!Date: Tuesday, November 11, 2014 21:45:11
!Correction: S21(Response(S21)) 
!S1P File: Measurement: S21:
# Hz S  dB   R 50
3000000000  -4.369200e+001  -1.606572e+002 
3003125000  -4.529247e+001  -1.673945e+002 
3006250000  -4.551769e+001  -1.663757e+002 
3009375000  -4.602972e+001  -1.640848e+002 
3012500000  -4.466006e+001  -1.703962e+002 
3015625000  -4.484657e+001  -1.777742e+002 
3018750000  -4.545304e+001  -1.768751e+002 
3021875000  -4.388916e+001  -1.783643e+002 
3025000000  -4.264685e+001  1.769876e+002 
3028125000  -4.163447e+001  1.657684e+002 
3031250000  -4.100751e+001  1.523616e+002 
3034375000  -4.102835e+001  1.378121e+002 
3037500000  -4.166471e+001  1.274255e+002 
3040625000  -4.264848e+001  1.217072e+002 
3043750000  -4.316757e+001  1.135467e+002 
3046875000  -4.412761e+001  1.061097e+002 
3050000000  -4.551541e+001  1.004807e+002 
3053125000  -4.485831e+001  1.054487e+002 
3056250000  -4.490078e+001  1.089769e+002 
3059375000  -4.371584e+001  1.066678e+002 
3062500000  -4.256596e+001  1.012025e+002 
3065625000  -4.207169e+001  9.056455e+001 
3068750000  -4.197117e+001  8.214674e+001 
3071875000  -4.203077e+001  7.946829e+001 
3075000000  -4.125009e+001  7.215903e+001 
3078125000  -4.136415e+001  6.341845e+001 
3081250000  -4.126926e+001  5.680220e+001 
3084375000  -4.042188e+001  5.157913e+001 
3087500000  -4.065625e+001  4.410286e+001 
3090625000  -4.001736e+001  3.083000e+001 
3093750000  -4.100550e+001  2.155011e+001 
3096875000  -4.113054e+001  1.669390e+001 
3100000000  -4.112074e+001  1.227176e+001 
3103125000  -4.149755e+001  8.609704e+000 
3106250000  -4.098880e+001  1.275140e+000 
3109375000  -4.106800e+001  -2.489717e+000 
3112500000  -4.082922e+001  -1.030695e+001 
3115625000  -4.096726e+001  -1.603298e+001 
3118750000  -4.068630e+001  -2.116049e+001 
3121875000  -4.009246e+001  -3.272123e+001 
3125000000  -4.211601e+001  -3.592591e+001 
3128125000  -4.231999e+001  -2.985335e+001 
3131250000  -3.954601e+001  -3.784050e+001 
3134375000  -3.909694e+001  -5.586071e+001 
3137500000  -3.951566e+001  -6.944302e+001 
3140625000  -4.103751e+001  -7.510491e+001 
3143750000  -4.167485e+001  -7.724897e+001 
3146875000  -4.118652e+001  -7.569279e+001 
3150000000  -4.043753e+001  -8.246757e+001 
3153125000  -4.084932e+001  -9.094515e+001 
3156250000  -4.143077e+001  -8.816551e+001 
3159375000  -3.916560e+001  -9.214812e+001 
3162500000  -3.780635e+001  -1.073537e+002 
3165625000  -3.896286e+001  -1.209971e+002 
3168750000  -3.911961e+001  -1.233008e+002 
3171875000  -3.853109e+001  -1.317159e+002 
3175000000  -3.907719e+001  -1.428358e+002 
3178125000  -3.872893e+001  -1.447128e+002 
3181250000  -3.816431e+001  -1.546719e+002 
3184375000  -3.787330e+001  -1.660806e+002 
3187500000  -3.940878e+001  1.788024e+002 
3190625000  -4.099128e+001  1.698386e+002 
3193750000  -4.111415e+001  1.761428e+002 
3196875000  -4.109763e+001  1.747263e+002 
3200000000  -3.985848e+001  1.688738e+002 
3203125000  -3.955391e+001  1.600265e+002 
3206250000  -3.983012e+001  1.518500e+002 
3209375000  -3.947122e+001  1.429238e+002 
3212500000  -3.996048e+001  1.350856e+002 
3215625000  -3.986012e+001  1.323894e+002 
3218750000  -4.031784e+001  1.198667e+002 
3221875000  -4.063114e+001  1.145921e+002 
3225000000  -4.048698e+001  1.082948e+002 
3228125000  -4.110137e+001  1.001962e+002 
3231250000  -4.135110e+001  9.772514e+001 
3234375000  -4.103262e+001  9.443853e+001 
3237500000  -4.090880e+001  9.022789e+001 
3240625000  -4.037486e+001  8.280518e+001 
3243750000  -4.050276e+001  7.031198e+001 
3246875000  -4.066584e+001  6.451353e+001 
3250000000  -4.127634e+001  5.833528e+001 
3253125000  -4.132322e+001  5.419687e+001 
3256250000  -4.072555e+001  4.448279e+001 
3259375000  -4.103353e+001  3.187048e+001 
3262500000  -4.245866e+001  2.741057e+001 
3265625000  -4.245591e+001  2.801046e+001 
3268750000  -4.252002e+001  2.627303e+001 
3271875000  -4.158072e+001  2.152789e+001 
3275000000  -4.123074e+001  1.033621e+001 
3278125000  -4.177653e+001  2.918104e+000 
3281250000  -4.194593e+001  -1.806118e-001 
3284375000  -4.109534e+001  -8.325173e+000 
3287500000  -4.168482e+001  -1.531487e+001 
3290625000  -4.167715e+001  -2.548192e+001 
3293750000  -4.176732e+001  -3.343169e+001 
3296875000  -4.261128e+001  -3.803029e+001 
3300000000  -4.211069e+001  -4.054619e+001 
3303125000  -4.118245e+001  -5.036079e+001 
3306250000  -4.073169e+001  -5.919067e+001 
3309375000  -4.073295e+001  -7.095548e+001 
3312500000  -4.131024e+001  -8.666379e+001 
3315625000  -4.263968e+001  -9.294018e+001 
3318750000  -4.407786e+001  -1.001597e+002 
3321875000  -4.531589e+001  -1.013712e+002 
3325000000  -4.490561e+001  -9.452431e+001 
3328125000  -4.440603e+001  -9.786968e+001 
3331250000  -4.243627e+001  -9.849133e+001 
3334375000  -4.027911e+001  -1.175199e+002 
3337500000  -4.085349e+001  -1.408362e+002 
3340625000  -4.280178e+001  -1.519800e+002 
3343750000  -4.472269e+001  -1.544369e+002 
3346875000  -4.399192e+001  -1.558658e+002 
3350000000  -4.388086e+001  -1.615481e+002 
3353125000  -4.360749e+001  -1.703736e+002 
3356250000  -4.349789e+001  1.785959e+002 
3359375000  -4.436258e+001  1.661823e+002 
3362500000  -4.510137e+001  1.567806e+002 
3365625000  -4.602495e+001  1.525400e+002 
3368750000  -4.648444e+001  1.479671e+002 
3371875000  -4.699934e+001  1.379124e+002 
3375000000  -4.852890e+001  1.329236e+002 
3378125000  -4.967073e+001  1.313954e+002 
3381250000  -5.084774e+001  1.394483e+002 
3384375000  -4.732521e+001  1.501120e+002 
3387500000  -4.491361e+001  1.297720e+002 
3390625000  -4.634224e+001  1.066109e+002 
3393750000  -4.803473e+001  1.058679e+002 
3396875000  -4.662860e+001  9.781772e+001 
3400000000  -4.610830e+001  8.218548e+001 
3403125000  -4.726849e+001  7.935384e+001 
3406250000  -4.761560e+001  7.251569e+001 
3409375000  -4.734553e+001  5.850687e+001 
3412500000  -4.786916e+001  5.244152e+001 
3415625000  -4.908307e+001  4.891391e+001 
3418750000  -4.873727e+001  4.035412e+001 
3421875000  -4.855923e+001  4.197793e+001 
3425000000  -4.755760e+001  3.738172e+001 
3428125000  -4.745013e+001  2.940817e+001 
3431250000  -4.706801e+001  1.662706e+001 
3434375000  -4.708944e+001  3.512058e+000 
3437500000  -4.735694e+001  -5.950620e+000 
3440625000  -4.747793e+001  -8.927651e+000 
3443750000  -4.568456e+001  -1.457918e+001 
3446875000  -4.537616e+001  -2.899953e+001 
3450000000  -4.557733e+001  -4.482533e+001 
3453125000  -4.583875e+001  -5.913281e+001 
3456250000  -4.737778e+001  -7.039637e+001 
3459375000  -4.758717e+001  -7.370887e+001 
3462500000  -4.775193e+001  -7.757944e+001 
3465625000  -4.774209e+001  -8.993413e+001 
3468750000  -4.771613e+001  -9.483455e+001 
3471875000  -4.715384e+001  -1.035114e+002 
3475000000  -4.723507e+001  -1.153397e+002 
3478125000  -4.751358e+001  -1.311236e+002 
3481250000  -4.888461e+001  -1.334248e+002 
3484375000  -4.845511e+001  -1.316017e+002 
3487500000  -4.776475e+001  -1.398641e+002 
3490625000  -4.746646e+001  -1.528360e+002 
3493750000  -4.780474e+001  -1.691400e+002 
3496875000  -4.776895e+001  -1.730460e+002 
3500000000  -4.810614e+001  -1.734080e+002 
3503125000  -4.703047e+001  -1.777308e+002 
3506250000  -4.585596e+001  1.728455e+002 
3509375000  -4.579003e+001  1.517413e+002 
3512500000  -4.568105e+001  1.366538e+002 
3515625000  -4.689882e+001  1.305298e+002 
3518750000  -4.787881e+001  1.301364e+002 
3521875000  -4.767657e+001  1.196625e+002 
3525000000  -4.905273e+001  1.176913e+002 
3528125000  -4.746933e+001  1.175379e+002 
3531250000  -4.659529e+001  1.039089e+002 
3534375000  -4.679556e+001  8.780679e+001 
3537500000  -4.795718e+001  7.926679e+001 
3540625000  -4.866896e+001  7.728420e+001 
3543750000  -4.935411e+001  8.125457e+001 
3546875000  -4.821411e+001  8.514587e+001 
3550000000  -4.624435e+001  7.255708e+001 
3553125000  -4.561258e+001  5.375251e+001 
3556250000  -4.733431e+001  4.529519e+001 
3559375000  -4.665805e+001  4.423959e+001 
3562500000  -4.631708e+001  3.280233e+001 
3565625000  -4.732024e+001  2.546575e+001 
3568750000  -4.826742e+001  2.691498e+001 
3571875000  -4.728483e+001  1.915606e+001 
3575000000  -4.670908e+001  1.327494e+001 
3578125000  -4.775647e+001  8.623814e+000 
3581250000  -4.731021e+001  5.798759e+000 
3584375000  -4.566079e+001  8.704121e-001 
3587500000  -4.562273e+001  -1.684796e+001 
3590625000  -4.659425e+001  -2.877825e+001 
3593750000  -4.775618e+001  -2.453418e+001 
3596875000  -4.715044e+001  -2.580120e+001 
3600000000  -4.462935e+001  -3.338918e+001 
3603125000  -4.501501e+001  -4.862268e+001 
3606250000  -4.626870e+001  -5.396558e+001 
3609375000  -4.598580e+001  -5.800016e+001 
3612500000  -4.611447e+001  -6.474628e+001 
3615625000  -4.585037e+001  -6.877860e+001 
3618750000  -4.604062e+001  -7.015939e+001 
3621875000  -4.567363e+001  -7.709502e+001 
3625000000  -4.566330e+001  -8.310751e+001 
3628125000  -4.478090e+001  -8.712112e+001 
3631250000  -4.525945e+001  -9.796216e+001 
3634375000  -4.552850e+001  -9.941994e+001 
3637500000  -4.443076e+001  -9.941432e+001 
3640625000  -4.357196e+001  -1.077183e+002 
3643750000  -4.318365e+001  -1.182264e+002 
3646875000  -4.384100e+001  -1.311376e+002 
3650000000  -4.390068e+001  -1.335264e+002 
3653125000  -4.311444e+001  -1.421185e+002 
3656250000  -4.387912e+001  -1.456658e+002 
3659375000  -4.394212e+001  -1.514764e+002 
3662500000  -4.327408e+001  -1.586566e+002 
3665625000  -4.356238e+001  -1.623733e+002 
3668750000  -4.234176e+001  -1.679329e+002 
3671875000  -4.133920e+001  1.783358e+002 
3675000000  -4.236308e+001  1.687212e+002 
3678125000  -4.256723e+001  1.663440e+002 
3681250000  -4.245345e+001  1.563806e+002 
3684375000  -4.269979e+001  1.496769e+002 
3687500000  -4.272639e+001  1.412846e+002 
3690625000  -4.349976e+001  1.336180e+002 
3693750000  -4.412103e+001  1.316736e+002 
3696875000  -4.400479e+001  1.314083e+002 
3700000000  -4.291701e+001  1.206930e+002 
3703125000  -4.394090e+001  1.164491e+002 
3706250000  -4.483629e+001  1.126764e+002 
3709375000  -4.368521e+001  1.114080e+002 
3712500000  -4.323446e+001  1.053822e+002 
3715625000  -4.146935e+001  9.560027e+001 
3718750000  -4.165414e+001  8.602995e+001 
3721875000  -4.165058e+001  7.687154e+001 
3725000000  -4.256751e+001  7.013428e+001 
3728125000  -4.254223e+001  6.610986e+001 
3731250000  -4.193950e+001  5.913600e+001 
3734375000  -4.234209e+001  5.235019e+001 
3737500000  -4.270924e+001  4.188107e+001 
3740625000  -4.310487e+001  3.875072e+001 
3743750000  -4.268872e+001  3.153335e+001 
3746875000  -4.328432e+001  2.644427e+001 
3750000000  -4.368215e+001  2.175888e+001 
3753125000  -4.368162e+001  1.881541e+001 
3756250000  -4.387291e+001  1.525828e+001 
3759375000  -4.341154e+001  1.019804e+001 
3762500000  -4.365648e+001  5.633055e+000 
3765625000  -4.415161e+001  -5.777599e-002 
3768750000  -4.356059e+001  6.576180e-002 
3771875000  -4.209710e+001  -8.301289e+000 
3775000000  -4.232014e+001  -1.743444e+001 
3778125000  -4.270137e+001  -2.506179e+001 
3781250000  -4.280477e+001  -3.006766e+001 
3784375000  -4.249148e+001  -3.530817e+001 
3787500000  -4.220703e+001  -4.082044e+001 
3790625000  -4.291585e+001  -5.139816e+001 
3793750000  -4.254058e+001  -5.421884e+001 
3796875000  -4.173805e+001  -5.900328e+001 
3800000000  -4.106395e+001  -6.623448e+001 
3803125000  -4.207290e+001  -7.984367e+001 
3806250000  -4.265426e+001  -8.204099e+001 
3809375000  -4.166003e+001  -8.801250e+001 
3812500000  -4.169344e+001  -9.730446e+001 
3815625000  -4.313843e+001  -1.083765e+002 
3818750000  -4.425533e+001  -1.075023e+002 
3821875000  -4.347298e+001  -9.860850e+001 
3825000000  -4.145185e+001  -1.057692e+002 
3828125000  -4.066351e+001  -1.235192e+002 
3831250000  -4.139134e+001  -1.408242e+002 
3834375000  -4.387685e+001  -1.417597e+002 
3837500000  -4.378482e+001  -1.372610e+002 
3840625000  -4.232160e+001  -1.429117e+002 
3843750000  -4.172878e+001  -1.570607e+002 
3846875000  -4.388439e+001  -1.645504e+002 
3850000000  -4.412998e+001  -1.594161e+002 
3853125000  -4.347638e+001  -1.624438e+002 
3856250000  -4.275856e+001  -1.697760e+002 
3859375000  -4.231434e+001  -1.791727e+002 
3862500000  -4.218383e+001  1.709274e+002 
3865625000  -4.284421e+001  1.645491e+002 
3868750000  -4.241837e+001  1.638841e+002 
3871875000  -4.163584e+001  1.520393e+002 
3875000000  -4.265712e+001  1.418274e+002 
3878125000  -4.310818e+001  1.416550e+002 
3881250000  -4.355442e+001  1.382639e+002 
3884375000  -4.262718e+001  1.289904e+002 
3887500000  -4.333935e+001  1.211169e+002 
3890625000  -4.435571e+001  1.158487e+002 
3893750000  -4.397507e+001  1.157769e+002 
3896875000  -4.436446e+001  1.111663e+002 
3900000000  -4.445320e+001  1.077179e+002 
3903125000  -4.392573e+001  1.029305e+002 
3906250000  -4.366881e+001  9.850266e+001 
3909375000  -4.270664e+001  8.894428e+001 
3912500000  -4.402069e+001  8.158347e+001 
3915625000  -4.499046e+001  8.214499e+001 
3918750000  -4.450595e+001  7.904159e+001 
3921875000  -4.379923e+001  7.163592e+001 
3925000000  -4.330011e+001  6.837168e+001 
3928125000  -4.314774e+001  5.637924e+001 
3931250000  -4.375406e+001  4.928955e+001 
3934375000  -4.407302e+001  4.843381e+001 
3937500000  -4.445799e+001  4.539815e+001 
3940625000  -4.458519e+001  4.479113e+001 
3943750000  -4.279055e+001  3.713354e+001 
3946875000  -4.292155e+001  2.823503e+001 
3950000000  -4.426469e+001  1.976508e+001 
3953125000  -4.461831e+001  2.355457e+001 
3956250000  -4.301903e+001  2.093499e+001 
3959375000  -4.210857e+001  1.660592e+001 
3962500000  -4.167297e+001  3.949343e+000 
3965625000  -4.193521e+001  -8.101395e+000 
3968750000  -4.291603e+001  -1.767496e+001 
3971875000  -4.288028e+001  -1.990245e+001 
3975000000  -4.204930e+001  -2.551594e+001 
3978125000  -4.209538e+001  -3.179355e+001 
3981250000  -4.231469e+001  -3.890171e+001 
3984375000  -4.248944e+001  -4.832093e+001 
3987500000  -4.317223e+001  -4.923302e+001 
3990625000  -4.308717e+001  -5.625026e+001 
3993750000  -4.318406e+001  -6.445083e+001 
3996875000  -4.294582e+001  -6.891331e+001 
4000000000  -4.396077e+001  -7.138795e+001 
4003125000  -4.422963e+001  -7.428233e+001 
4006250000  -4.205624e+001  -7.752286e+001 
4009375000  -4.099561e+001  -9.545709e+001 
4012500000  -4.271295e+001  -1.030678e+002 
4015625000  -4.425899e+001  -1.015783e+002 
4018750000  -4.387193e+001  -1.076559e+002 
4021875000  -4.314730e+001  -1.133597e+002 
4025000000  -4.338376e+001  -1.215488e+002 
4028125000  -4.370759e+001  -1.285426e+002 
4031250000  -4.393074e+001  -1.327493e+002 
4034375000  -4.418547e+001  -1.386061e+002 
4037500000  -4.426309e+001  -1.398389e+002 
4040625000  -4.421981e+001  -1.453652e+002 
4043750000  -4.484213e+001  -1.536384e+002 
4046875000  -4.455893e+001  -1.563090e+002 
4050000000  -4.433515e+001  -1.633709e+002 
4053125000  -4.531578e+001  -1.665009e+002 
4056250000  -4.575809e+001  -1.608775e+002 
4059375000  -4.385704e+001  -1.641627e+002 
4062500000  -4.350237e+001  -1.762768e+002 
4065625000  -4.358629e+001  -1.783615e+002 
4068750000  -4.323659e+001  1.718650e+002 
4071875000  -4.255249e+001  1.611972e+002 
4075000000  -4.353183e+001  1.574648e+002 
4078125000  -4.398052e+001  1.524397e+002 
4081250000  -4.345669e+001  1.474032e+002 
4084375000  -4.335978e+001  1.397565e+002 
4087500000  -4.447882e+001  1.316243e+002 
4090625000  -4.486366e+001  1.281571e+002 
4093750000  -4.465113e+001  1.238392e+002 
4096875000  -4.440855e+001  1.176247e+002 
4100000000  -4.514369e+001  1.103575e+002 
4103125000  -4.583280e+001  1.119067e+002 
4106250000  -4.542153e+001  1.163401e+002 
4109375000  -4.448274e+001  1.100924e+002 
4112500000  -4.384231e+001  1.030699e+002 
4115625000  -4.446732e+001  9.522121e+001 
4118750000  -4.430642e+001  9.047604e+001 
4121875000  -4.376563e+001  8.533858e+001 
4125000000  -4.515765e+001  7.621925e+001 
4128125000  -4.582835e+001  7.937448e+001 
4131250000  -4.418791e+001  8.442040e+001 
4134375000  -4.191196e+001  7.303947e+001 
4137500000  -4.271358e+001  5.340717e+001 
4140625000  -4.476256e+001  4.292943e+001 
4143750000  -4.552732e+001  5.067905e+001 
4146875000  -4.400602e+001  4.907993e+001 
4150000000  -4.308963e+001  4.208772e+001 
4153125000  -4.347974e+001  3.009038e+001 
4156250000  -4.462545e+001  3.071341e+001 
4159375000  -4.408434e+001  2.937451e+001 
4162500000  -4.283989e+001  2.991780e+001 
4165625000  -4.171928e+001  1.676484e+001 
4168750000  -4.132024e+001  6.961151e+000 
4171875000  -4.144358e+001  -3.771133e+000 
4175000000  -4.213700e+001  -1.191593e+001 
4178125000  -4.230688e+001  -1.796692e+001 
4181250000  -4.262761e+001  -2.352304e+001 
4184375000  -4.275730e+001  -2.912174e+001 
4187500000  -4.286098e+001  -3.709747e+001 
4190625000  -4.319351e+001  -4.376171e+001 
4193750000  -4.461436e+001  -5.037970e+001 
4196875000  -4.533963e+001  -5.201526e+001 
4200000000  -4.638937e+001  -4.774886e+001 
4203125000  -4.468102e+001  -3.750533e+001 
4206250000  -4.171761e+001  -4.916459e+001 
4209375000  -4.182817e+001  -7.225046e+001 
4212500000  -4.396780e+001  -7.959451e+001 
4215625000  -4.444856e+001  -7.138035e+001 
4218750000  -4.276512e+001  -7.333788e+001 
4221875000  -4.182542e+001  -8.006219e+001 
4225000000  -4.270044e+001  -9.343155e+001 
4228125000  -4.245765e+001  -9.239156e+001 
4231250000  -4.125961e+001  -1.018122e+002 
4234375000  -4.106587e+001  -1.122917e+002 
4237500000  -4.087144e+001  -1.184074e+002 
4240625000  -4.113163e+001  -1.279077e+002 
4243750000  -4.247204e+001  -1.370741e+002 
4246875000  -4.357693e+001  -1.380424e+002 
4250000000  -4.342966e+001  -1.412871e+002 
4253125000  -4.271673e+001  -1.400688e+002 
4256250000  -4.270631e+001  -1.492483e+002 
4259375000  -4.258683e+001  -1.516872e+002 
4262500000  -4.261377e+001  -1.585639e+002 
4265625000  -4.268568e+001  -1.573087e+002 
4268750000  -4.126274e+001  -1.667190e+002 
4271875000  -4.108218e+001  -1.790859e+002 
4275000000  -4.072492e+001  1.741564e+002 
4278125000  -4.131479e+001  1.589796e+002 
4281250000  -4.278967e+001  1.592116e+002 
4284375000  -4.243755e+001  1.529347e+002 
4287500000  -4.386406e+001  1.487158e+002 
4290625000  -4.362152e+001  1.602163e+002 
4293750000  -4.202340e+001  1.586307e+002 
4296875000  -4.088567e+001  1.401273e+002 
4300000000  -4.184922e+001  1.308045e+002 
4303125000  -4.215237e+001  1.283515e+002 
4306250000  -4.126615e+001  1.296411e+002 
4309375000  -4.014257e+001  1.233661e+002 
4312500000  -3.994475e+001  1.083196e+002 
4315625000  -4.056221e+001  9.946108e+001 
4318750000  -4.090841e+001  9.529914e+001 
4321875000  -4.140156e+001  9.482473e+001 
4325000000  -4.033750e+001  8.879859e+001 
4328125000  -3.956869e+001  7.756607e+001 
4331250000  -4.014151e+001  6.679350e+001 
4334375000  -4.105848e+001  5.732976e+001 
4337500000  -4.291129e+001  5.538194e+001 
4340625000  -4.245765e+001  5.738362e+001 
4343750000  -4.118363e+001  5.479734e+001 
4346875000  -4.114557e+001  4.455644e+001 
4350000000  -4.179486e+001  3.381733e+001 
4353125000  -4.235074e+001  2.545052e+001 
4356250000  -4.461327e+001  2.844925e+001 
4359375000  -4.325517e+001  4.074208e+001 
4362500000  -3.976182e+001  3.300410e+001 
4365625000  -3.938978e+001  1.468639e+001 
4368750000  -4.089637e+001  2.331727e+000 
4371875000  -4.125782e+001  -1.015550e+000 
4375000000  -4.090385e+001  -5.582719e+000 
4378125000  -4.106704e+001  -1.562759e+001 
4381250000  -4.116675e+001  -2.018068e+001 
4384375000  -4.124943e+001  -2.664473e+001 
4387500000  -4.219490e+001  -3.488583e+001 
4390625000  -4.261389e+001  -3.851553e+001 
4393750000  -4.202720e+001  -3.777491e+001 
4396875000  -4.181026e+001  -4.415573e+001 
4400000000  -4.130909e+001  -5.146359e+001 
4403125000  -4.201595e+001  -6.249895e+001 
4406250000  -4.269665e+001  -6.533424e+001 
4409375000  -4.277312e+001  -7.346657e+001 
4412500000  -4.406227e+001  -7.317271e+001 
4415625000  -4.389067e+001  -6.893481e+001 
4418750000  -4.225299e+001  -7.354483e+001 
