!Agilent Technologies,E8363B,MY43030201,A.06.04.32
!Agilent E8363B: A.06.04.32
!Date: Tuesday, November 11, 2014 21:52:47
!Correction: S21(Response(S21)) 
!S1P File: Measurement: S21:
# Hz S  dB   R 50
3000000000  -4.372823e+001  -1.622356e+002 
3003125000  -4.550251e+001  -1.679766e+002 
3006250000  -4.530002e+001  -1.692807e+002 
3009375000  -4.653200e+001  -1.658545e+002 
3012500000  -4.508211e+001  -1.713459e+002 
3015625000  -4.511774e+001  1.783200e+002 
3018750000  -4.471930e+001  1.796551e+002 
3021875000  -4.408270e+001  1.795049e+002 
3025000000  -4.255421e+001  1.759446e+002 
3028125000  -4.161215e+001  1.642059e+002 
3031250000  -4.084731e+001  1.501590e+002 
3034375000  -4.088480e+001  1.358912e+002 
3037500000  -4.164913e+001  1.245467e+002 
3040625000  -4.289679e+001  1.198212e+002 
3043750000  -4.322863e+001  1.113962e+002 
3046875000  -4.410024e+001  1.043340e+002 
3050000000  -4.515122e+001  1.003742e+002 
3053125000  -4.478660e+001  1.049267e+002 
3056250000  -4.493739e+001  1.062590e+002 
3059375000  -4.394615e+001  1.038875e+002 
3062500000  -4.257108e+001  9.996805e+001 
3065625000  -4.219914e+001  8.701524e+001 
3068750000  -4.196965e+001  8.065945e+001 
3071875000  -4.166961e+001  7.680959e+001 
3075000000  -4.126922e+001  7.012323e+001 
3078125000  -4.117401e+001  6.142605e+001 
3081250000  -4.134377e+001  5.532711e+001 
3084375000  -4.047563e+001  4.984611e+001 
3087500000  -4.055442e+001  4.125376e+001 
3090625000  -3.993501e+001  2.870887e+001 
3093750000  -4.105136e+001  1.952535e+001 
3096875000  -4.122549e+001  1.450203e+001 
3100000000  -4.124438e+001  1.032687e+001 
3103125000  -4.131133e+001  5.319746e+000 
3106250000  -4.122445e+001  -6.454839e-001 
3109375000  -4.113479e+001  -4.360672e+000 
3112500000  -4.094722e+001  -1.317702e+001 
3115625000  -4.095169e+001  -1.875848e+001 
3118750000  -4.077098e+001  -2.404347e+001 
3121875000  -4.018915e+001  -3.425611e+001 
3125000000  -4.217674e+001  -3.842770e+001 
3128125000  -4.184724e+001  -3.236546e+001 
3131250000  -3.956560e+001  -4.065642e+001 
3134375000  -3.889270e+001  -5.790495e+001 
3137500000  -3.965902e+001  -7.184624e+001 
3140625000  -4.102468e+001  -7.525010e+001 
3143750000  -4.157236e+001  -7.976852e+001 
3146875000  -4.098092e+001  -7.846861e+001 
3150000000  -4.030804e+001  -8.409134e+001 
3153125000  -4.081591e+001  -9.389358e+001 
3156250000  -4.140261e+001  -9.076236e+001 
3159375000  -3.914145e+001  -9.537100e+001 
3162500000  -3.771610e+001  -1.094941e+002 
3165625000  -3.910192e+001  -1.242519e+002 
3168750000  -3.911238e+001  -1.256152e+002 
3171875000  -3.872359e+001  -1.351913e+002 
3175000000  -3.905133e+001  -1.451334e+002 
3178125000  -3.859647e+001  -1.463810e+002 
3181250000  -3.792030e+001  -1.566249e+002 
3184375000  -3.789091e+001  -1.686975e+002 
3187500000  -3.919783e+001  1.749394e+002 
3190625000  -4.093383e+001  1.696750e+002 
3193750000  -4.127314e+001  1.729068e+002 
3196875000  -4.102311e+001  1.727329e+002 
3200000000  -3.985191e+001  1.670122e+002 
3203125000  -3.970913e+001  1.579267e+002 
3206250000  -3.983504e+001  1.503117e+002 
3209375000  -3.951327e+001  1.417154e+002 
3212500000  -3.994084e+001  1.344146e+002 
3215625000  -3.966262e+001  1.312680e+002 
3218750000  -4.045737e+001  1.189191e+002 
3221875000  -4.057660e+001  1.107907e+002 
3225000000  -4.034753e+001  1.059234e+002 
3228125000  -4.096842e+001  9.908710e+001 
3231250000  -4.157727e+001  9.655112e+001 
3234375000  -4.089661e+001  9.285939e+001 
3237500000  -4.076250e+001  8.879522e+001 
3240625000  -4.051027e+001  8.194755e+001 
3243750000  -4.024406e+001  6.947388e+001 
3246875000  -4.050868e+001  6.154547e+001 
3250000000  -4.115603e+001  5.617577e+001 
3253125000  -4.121416e+001  5.249872e+001 
3256250000  -4.048695e+001  4.227985e+001 
3259375000  -4.109668e+001  2.998408e+001 
3262500000  -4.217953e+001  2.397885e+001 
3265625000  -4.271874e+001  2.592311e+001 
3268750000  -4.238879e+001  2.559629e+001 
3271875000  -4.142455e+001  1.953898e+001 
3275000000  -4.117329e+001  7.785313e+000 
3278125000  -4.179107e+001  1.191331e+000 
3281250000  -4.167382e+001  -1.790296e+000 
3284375000  -4.064311e+001  -9.862123e+000 
3287500000  -4.138784e+001  -1.716778e+001 
3290625000  -4.149383e+001  -2.828325e+001 
3293750000  -4.143129e+001  -3.606495e+001 
3296875000  -4.262259e+001  -3.984081e+001 
3300000000  -4.198528e+001  -4.112102e+001 
3303125000  -4.077404e+001  -5.163967e+001 
3306250000  -4.111196e+001  -6.231896e+001 
3309375000  -4.066516e+001  -7.171783e+001 
3312500000  -4.115190e+001  -8.811929e+001 
3315625000  -4.223210e+001  -9.659204e+001 
3318750000  -4.397945e+001  -1.007943e+002 
3321875000  -4.499779e+001  -1.024392e+002 
3325000000  -4.468266e+001  -9.585791e+001 
3328125000  -4.395329e+001  -1.012786e+002 
3331250000  -4.240361e+001  -9.868115e+001 
3334375000  -3.996067e+001  -1.165869e+002 
3337500000  -4.075592e+001  -1.415116e+002 
3340625000  -4.266656e+001  -1.524559e+002 
3343750000  -4.464688e+001  -1.557668e+002 
3346875000  -4.392349e+001  -1.574673e+002 
3350000000  -4.331915e+001  -1.635491e+002 
3353125000  -4.363660e+001  -1.720933e+002 
3356250000  -4.330132e+001  1.781099e+002 
3359375000  -4.410314e+001  1.638380e+002 
3362500000  -4.500882e+001  1.573250e+002 
3365625000  -4.563235e+001  1.491961e+002 
3368750000  -4.641533e+001  1.424023e+002 
3371875000  -4.670139e+001  1.360048e+002 
3375000000  -4.855624e+001  1.290435e+002 
3378125000  -4.977546e+001  1.286280e+002 
3381250000  -5.052929e+001  1.404292e+002 
3384375000  -4.734441e+001  1.515198e+002 
3387500000  -4.479606e+001  1.252981e+002 
3390625000  -4.679612e+001  1.066333e+002 
3393750000  -4.752138e+001  1.033000e+002 
3396875000  -4.630341e+001  1.002175e+002 
3400000000  -4.590496e+001  8.606703e+001 
3403125000  -4.668890e+001  7.678711e+001 
3406250000  -4.726488e+001  7.261198e+001 
3409375000  -4.723820e+001  6.027074e+001 
3412500000  -4.776818e+001  5.260517e+001 
3415625000  -4.872327e+001  4.846640e+001 
3418750000  -4.838959e+001  4.293214e+001 
3421875000  -4.908426e+001  4.202405e+001 
3425000000  -4.820187e+001  3.490856e+001 
3428125000  -4.698661e+001  2.648672e+001 
3431250000  -4.718715e+001  1.490112e+001 
3434375000  -4.702107e+001  2.204264e+000 
3437500000  -4.777147e+001  -8.010819e+000 
3440625000  -4.801646e+001  -1.049551e+001 
3443750000  -4.643475e+001  -1.616568e+001 
3446875000  -4.570079e+001  -2.679279e+001 
3450000000  -4.541045e+001  -4.551996e+001 
3453125000  -4.564135e+001  -6.387617e+001 
3456250000  -4.783456e+001  -7.208579e+001 
3459375000  -4.810808e+001  -7.315282e+001 
3462500000  -4.785063e+001  -7.906280e+001 
3465625000  -4.727833e+001  -9.131385e+001 
3468750000  -4.794118e+001  -9.898280e+001 
3471875000  -4.673140e+001  -1.029264e+002 
3475000000  -4.678187e+001  -1.179249e+002 
3478125000  -4.775449e+001  -1.325248e+002 
3481250000  -4.910567e+001  -1.349751e+002 
3484375000  -4.858103e+001  -1.339901e+002 
3487500000  -4.760892e+001  -1.426468e+002 
3490625000  -4.714530e+001  -1.539983e+002 
3493750000  -4.800488e+001  -1.665872e+002 
3496875000  -4.835343e+001  -1.707448e+002 
3500000000  -4.867530e+001  -1.750137e+002 
3503125000  -4.760797e+001  -1.772067e+002 
3506250000  -4.569939e+001  1.704956e+002 
3509375000  -4.578895e+001  1.503899e+002 
3512500000  -4.617035e+001  1.365985e+002 
3515625000  -4.759737e+001  1.315074e+002 
3518750000  -4.766341e+001  1.301987e+002 
3521875000  -4.787929e+001  1.158351e+002 
3525000000  -4.952497e+001  1.141176e+002 
3528125000  -4.729159e+001  1.144019e+002 
3531250000  -4.647627e+001  1.043891e+002 
3534375000  -4.670265e+001  8.638498e+001 
3537500000  -4.833760e+001  7.424746e+001 
3540625000  -4.888448e+001  7.420620e+001 
3543750000  -4.938397e+001  7.753184e+001 
3546875000  -4.879120e+001  7.738487e+001 
3550000000  -4.645239e+001  7.095325e+001 
3553125000  -4.659766e+001  5.097333e+001 
3556250000  -4.728368e+001  4.277502e+001 
3559375000  -4.697513e+001  4.223365e+001 
3562500000  -4.654965e+001  2.952686e+001 
3565625000  -4.733930e+001  2.295090e+001 
3568750000  -4.822527e+001  2.140158e+001 
3571875000  -4.761049e+001  1.611833e+001 
3575000000  -4.648973e+001  1.066308e+001 
3578125000  -4.774330e+001  4.300307e+000 
3581250000  -4.758194e+001  2.522384e+000 
3584375000  -4.569748e+001  -6.218735e+000 
3587500000  -4.558404e+001  -1.841244e+001 
3590625000  -4.647485e+001  -2.763125e+001 
3593750000  -4.758523e+001  -2.778884e+001 
3596875000  -4.652734e+001  -2.118323e+001 
3600000000  -4.524473e+001  -3.495447e+001 
3603125000  -4.504621e+001  -5.073506e+001 
3606250000  -4.568825e+001  -5.723072e+001 
3609375000  -4.617040e+001  -6.022730e+001 
3612500000  -4.629184e+001  -6.851813e+001 
3615625000  -4.633500e+001  -7.226142e+001 
3618750000  -4.645641e+001  -7.110702e+001 
3621875000  -4.561435e+001  -8.182742e+001 
3625000000  -4.600012e+001  -8.447440e+001 
3628125000  -4.478977e+001  -8.980067e+001 
3631250000  -4.515281e+001  -9.988795e+001 
3634375000  -4.542681e+001  -1.016896e+002 
3637500000  -4.447708e+001  -1.028160e+002 
3640625000  -4.381628e+001  -1.099146e+002 
3643750000  -4.325762e+001  -1.213211e+002 
3646875000  -4.394111e+001  -1.313117e+002 
3650000000  -4.368992e+001  -1.369711e+002 
3653125000  -4.334192e+001  -1.441818e+002 
3656250000  -4.400990e+001  -1.537293e+002 
3659375000  -4.387925e+001  -1.562246e+002 
3662500000  -4.354101e+001  -1.628858e+002 
3665625000  -4.357775e+001  -1.651705e+002 
3668750000  -4.212381e+001  -1.701357e+002 
3671875000  -4.162952e+001  1.760992e+002 
3675000000  -4.225638e+001  1.654843e+002 
3678125000  -4.242356e+001  1.618194e+002 
3681250000  -4.232414e+001  1.539975e+002 
3684375000  -4.247728e+001  1.459380e+002 
3687500000  -4.298455e+001  1.354549e+002 
3690625000  -4.358757e+001  1.311575e+002 
3693750000  -4.497615e+001  1.292542e+002 
3696875000  -4.400323e+001  1.269922e+002 
3700000000  -4.309872e+001  1.199202e+002 
3703125000  -4.382638e+001  1.107748e+002 
3706250000  -4.458028e+001  1.078268e+002 
3709375000  -4.380988e+001  1.093783e+002 
3712500000  -4.297806e+001  1.037385e+002 
3715625000  -4.157051e+001  9.529287e+001 
3718750000  -4.159257e+001  8.377828e+001 
3721875000  -4.157737e+001  7.403719e+001 
3725000000  -4.223035e+001  6.702042e+001 
3728125000  -4.240915e+001  6.439862e+001 
3731250000  -4.194398e+001  5.639646e+001 
3734375000  -4.195327e+001  4.984178e+001 
3737500000  -4.279802e+001  4.080627e+001 
3740625000  -4.338485e+001  3.478684e+001 
3743750000  -4.222505e+001  2.957507e+001 
3746875000  -4.339427e+001  2.288323e+001 
3750000000  -4.339425e+001  1.742578e+001 
3753125000  -4.371477e+001  1.579205e+001 
3756250000  -4.368496e+001  1.142695e+001 
3759375000  -4.358907e+001  7.440385e+000 
3762500000  -4.345230e+001  2.212715e+000 
3765625000  -4.400410e+001  -4.360269e+000 
3768750000  -4.338248e+001  -1.785232e+000 
3771875000  -4.235397e+001  -1.276699e+001 
3775000000  -4.215127e+001  -2.213156e+001 
3778125000  -4.271564e+001  -2.887938e+001 
3781250000  -4.271332e+001  -3.157198e+001 
3784375000  -4.243940e+001  -3.968424e+001 
3787500000  -4.218150e+001  -4.206044e+001 
3790625000  -4.287950e+001  -5.170005e+001 
3793750000  -4.259579e+001  -5.676021e+001 
3796875000  -4.163371e+001  -6.186680e+001 
3800000000  -4.077782e+001  -7.048481e+001 
3803125000  -4.169326e+001  -8.207311e+001 
3806250000  -4.265836e+001  -8.570318e+001 
3809375000  -4.188299e+001  -9.206698e+001 
3812500000  -4.178685e+001  -1.049919e+002 
3815625000  -4.283033e+001  -1.138548e+002 
3818750000  -4.396533e+001  -1.102277e+002 
3821875000  -4.343999e+001  -1.006149e+002 
3825000000  -4.126265e+001  -1.079683e+002 
3828125000  -4.011248e+001  -1.283838e+002 
3831250000  -4.167333e+001  -1.444770e+002 
3834375000  -4.396469e+001  -1.450784e+002 
3837500000  -4.397040e+001  -1.402583e+002 
3840625000  -4.237802e+001  -1.484698e+002 
3843750000  -4.159477e+001  -1.623246e+002 
3846875000  -4.338047e+001  -1.689106e+002 
3850000000  -4.430189e+001  -1.624079e+002 
3853125000  -4.361790e+001  -1.657005e+002 
3856250000  -4.290855e+001  -1.731159e+002 
3859375000  -4.233184e+001  1.779826e+002 
3862500000  -4.188411e+001  1.694227e+002 
3865625000  -4.260853e+001  1.589259e+002 
3868750000  -4.222373e+001  1.599212e+002 
3871875000  -4.185640e+001  1.489712e+002 
3875000000  -4.217744e+001  1.407897e+002 
3878125000  -4.324473e+001  1.367005e+002 
3881250000  -4.316152e+001  1.338658e+002 
3884375000  -4.247295e+001  1.268289e+002 
3887500000  -4.325798e+001  1.182288e+002 
3890625000  -4.366831e+001  1.142212e+002 
3893750000  -4.438599e+001  1.132900e+002 
3896875000  -4.422018e+001  1.102492e+002 
3900000000  -4.428790e+001  1.022737e+002 
3903125000  -4.358990e+001  9.779987e+001 
3906250000  -4.330663e+001  9.501391e+001 
3909375000  -4.261575e+001  9.004959e+001 
3912500000  -4.356120e+001  7.870557e+001 
3915625000  -4.505947e+001  7.614548e+001 
3918750000  -4.431820e+001  7.705964e+001 
3921875000  -4.379823e+001  7.127670e+001 
3925000000  -4.271194e+001  6.130663e+001 
3928125000  -4.251081e+001  5.625076e+001 
3931250000  -4.352991e+001  4.759466e+001 
3934375000  -4.362283e+001  4.359149e+001 
3937500000  -4.462368e+001  4.080032e+001 
3940625000  -4.462342e+001  3.976917e+001 
3943750000  -4.318396e+001  3.476660e+001 
3946875000  -4.279857e+001  2.815268e+001 
3950000000  -4.337786e+001  1.740947e+001 
3953125000  -4.402942e+001  1.932603e+001 
3956250000  -4.262974e+001  1.632503e+001 
3959375000  -4.155634e+001  1.177185e+001 
3962500000  -4.165672e+001  -5.260881e-001 
3965625000  -4.159262e+001  -1.264246e+001 
3968750000  -4.258663e+001  -2.040671e+001 
3971875000  -4.223911e+001  -2.418237e+001 
3975000000  -4.203745e+001  -3.021795e+001 
3978125000  -4.186751e+001  -3.446923e+001 
3981250000  -4.164024e+001  -4.170324e+001 
3984375000  -4.236256e+001  -4.962538e+001 
3987500000  -4.292155e+001  -5.541122e+001 
3990625000  -4.305576e+001  -6.023353e+001 
3993750000  -4.306102e+001  -6.710715e+001 
3996875000  -4.304165e+001  -7.172274e+001 
4000000000  -4.352664e+001  -7.316895e+001 
4003125000  -4.398224e+001  -7.530524e+001 
4006250000  -4.178539e+001  -8.103220e+001 
4009375000  -4.167390e+001  -9.673804e+001 
4012500000  -4.282650e+001  -1.073008e+002 
4015625000  -4.407737e+001  -1.085192e+002 
4018750000  -4.364380e+001  -1.093207e+002 
4021875000  -4.294740e+001  -1.200516e+002 
4025000000  -4.288774e+001  -1.249552e+002 
4028125000  -4.309326e+001  -1.329137e+002 
4031250000  -4.379224e+001  -1.390184e+002 
4034375000  -4.408419e+001  -1.412633e+002 
4037500000  -4.414909e+001  -1.447452e+002 
4040625000  -4.411586e+001  -1.521710e+002 
4043750000  -4.472584e+001  -1.560345e+002 
4046875000  -4.434121e+001  -1.601405e+002 
4050000000  -4.361290e+001  -1.685886e+002 
4053125000  -4.491625e+001  -1.717240e+002 
4056250000  -4.579081e+001  -1.712750e+002 
4059375000  -4.356949e+001  -1.663444e+002 
4062500000  -4.348323e+001  -1.764182e+002 
4065625000  -4.358533e+001  1.781845e+002 
4068750000  -4.286281e+001  1.679995e+002 
4071875000  -4.261875e+001  1.580619e+002 
4075000000  -4.346699e+001  1.525103e+002 
4078125000  -4.370659e+001  1.512123e+002 
4081250000  -4.334024e+001  1.437335e+002 
4084375000  -4.316306e+001  1.347488e+002 
4087500000  -4.403141e+001  1.237664e+002 
4090625000  -4.474455e+001  1.227327e+002 
4093750000  -4.407790e+001  1.205902e+002 
4096875000  -4.389108e+001  1.117050e+002 
4100000000  -4.518510e+001  1.086329e+002 
4103125000  -4.548438e+001  1.114630e+002 
4106250000  -4.514372e+001  1.114202e+002 
4109375000  -4.397287e+001  1.072220e+002 
4112500000  -4.417995e+001  9.637296e+001 
4115625000  -4.440149e+001  9.224901e+001 
4118750000  -4.406942e+001  8.633499e+001 
4121875000  -4.329741e+001  7.962652e+001 
4125000000  -4.465250e+001  7.192128e+001 
4128125000  -4.495840e+001  7.826313e+001 
4131250000  -4.334684e+001  7.929902e+001 
4134375000  -4.143701e+001  6.620486e+001 
4137500000  -4.206528e+001  4.725861e+001 
4140625000  -4.378147e+001  4.107895e+001 
4143750000  -4.466822e+001  4.332191e+001 
4146875000  -4.373377e+001  4.779132e+001 
4150000000  -4.284755e+001  3.726530e+001 
4153125000  -4.276778e+001  2.582844e+001 
4156250000  -4.382652e+001  2.552044e+001 
4159375000  -4.382902e+001  2.586188e+001 
4162500000  -4.230746e+001  2.441105e+001 
4165625000  -4.124685e+001  1.232237e+001 
4168750000  -4.100598e+001  2.312610e+000 
4171875000  -4.081196e+001  -9.887699e+000 
4175000000  -4.194573e+001  -2.093043e+001 
4178125000  -4.217218e+001  -2.074371e+001 
4181250000  -4.235094e+001  -2.767764e+001 
4184375000  -4.236395e+001  -3.389179e+001 
4187500000  -4.232732e+001  -3.880796e+001 
4190625000  -4.263853e+001  -5.032107e+001 
4193750000  -4.388256e+001  -5.620244e+001 
4196875000  -4.497028e+001  -6.048799e+001 
4200000000  -4.559892e+001  -4.890210e+001 
4203125000  -4.422894e+001  -4.041213e+001 
4206250000  -4.109433e+001  -5.137341e+001 
4209375000  -4.129473e+001  -7.739199e+001 
4212500000  -4.393367e+001  -8.126412e+001 
4215625000  -4.411631e+001  -7.434393e+001 
4218750000  -4.222776e+001  -7.648248e+001 
4221875000  -4.100566e+001  -8.560529e+001 
4225000000  -4.215348e+001  -9.762890e+001 
4228125000  -4.223736e+001  -9.771122e+001 
4231250000  -4.055450e+001  -1.055182e+002 
4234375000  -4.108297e+001  -1.167896e+002 
4237500000  -4.064828e+001  -1.244960e+002 
4240625000  -4.062943e+001  -1.332537e+002 
4243750000  -4.236988e+001  -1.430165e+002 
4246875000  -4.276985e+001  -1.443652e+002 
4250000000  -4.231612e+001  -1.433501e+002 
4253125000  -4.236889e+001  -1.482104e+002 
4256250000  -4.231322e+001  -1.518295e+002 
4259375000  -4.206963e+001  -1.573097e+002 
4262500000  -4.253226e+001  -1.635210e+002 
4265625000  -4.239311e+001  -1.643069e+002 
4268750000  -4.108792e+001  -1.737943e+002 
4271875000  -4.074865e+001  1.784443e+002 
4275000000  -4.012652e+001  1.674717e+002 
4278125000  -4.127473e+001  1.543925e+002 
4281250000  -4.249992e+001  1.528720e+002 
4284375000  -4.204702e+001  1.458169e+002 
4287500000  -4.396276e+001  1.480273e+002 
4290625000  -4.365723e+001  1.520064e+002 
4293750000  -4.153298e+001  1.537575e+002 
4296875000  -4.041364e+001  1.374267e+002 
4300000000  -4.106044e+001  1.250435e+002 
4303125000  -4.187707e+001  1.281183e+002 
4306250000  -4.085209e+001  1.270366e+002 
4309375000  -4.010136e+001  1.176455e+002 
4312500000  -3.969221e+001  1.037663e+002 
4315625000  -4.020377e+001  9.383424e+001 
4318750000  -4.051384e+001  9.219485e+001 
4321875000  -4.067081e+001  8.908123e+001 
4325000000  -4.010330e+001  8.438352e+001 
4328125000  -3.937021e+001  7.264269e+001 
4331250000  -3.969984e+001  6.060148e+001 
4334375000  -4.070142e+001  5.141545e+001 
4337500000  -4.181899e+001  4.956480e+001 
4340625000  -4.187517e+001  5.424857e+001 
4343750000  -4.112709e+001  4.716804e+001 
4346875000  -4.065364e+001  3.819692e+001 
4350000000  -4.088050e+001  2.915949e+001 
4353125000  -4.171914e+001  2.071447e+001 
4356250000  -4.409722e+001  2.274708e+001 
4359375000  -4.280485e+001  3.669413e+001 
4362500000  -3.939301e+001  2.604476e+001 
4365625000  -3.912909e+001  7.590889e+000 
4368750000  -4.006181e+001  -2.589270e+000 
4371875000  -4.112465e+001  -2.796042e+000 
4375000000  -4.035929e+001  -1.189332e+001 
4378125000  -4.015098e+001  -1.787165e+001 
4381250000  -4.036375e+001  -2.446717e+001 
4384375000  -4.072887e+001  -3.365088e+001 
4387500000  -4.155232e+001  -4.225121e+001 
4390625000  -4.218868e+001  -4.205259e+001 
4393750000  -4.162709e+001  -4.358525e+001 
4396875000  -4.081656e+001  -4.989500e+001 
4400000000  -4.048328e+001  -5.772961e+001 
4403125000  -4.179622e+001  -6.940812e+001 
4406250000  -4.211013e+001  -7.041026e+001 
4409375000  -4.259370e+001  -7.995314e+001 
4412500000  -4.343972e+001  -7.749262e+001 
4415625000  -4.267400e+001  -7.744888e+001 
4418750000  -4.192885e+001  -7.846541e+001 
