!Agilent Technologies,E8363B,MY43030201,A.06.04.32
!Agilent E8363B: A.06.04.32
!Date: Tuesday, November 11, 2014 21:52:17
!Correction: S21(Response(S21)) 
!S1P File: Measurement: S21:
# Hz S  dB   R 50
3000000000  -4.370587e+001  -1.624144e+002 
3003125000  -4.549194e+001  -1.673827e+002 
3006250000  -4.533330e+001  -1.698558e+002 
3009375000  -4.624133e+001  -1.679986e+002 
3012500000  -4.476926e+001  -1.741076e+002 
3015625000  -4.497607e+001  1.779626e+002 
3018750000  -4.540881e+001  -1.775308e+002 
3021875000  -4.394123e+001  -1.796743e+002 
3025000000  -4.275966e+001  1.762926e+002 
3028125000  -4.162201e+001  1.629160e+002 
3031250000  -4.092616e+001  1.506942e+002 
3034375000  -4.097280e+001  1.358247e+002 
3037500000  -4.141665e+001  1.255191e+002 
3040625000  -4.298829e+001  1.198882e+002 
3043750000  -4.352296e+001  1.122797e+002 
3046875000  -4.410170e+001  1.042594e+002 
3050000000  -4.507954e+001  1.005259e+002 
3053125000  -4.474129e+001  1.049233e+002 
3056250000  -4.479795e+001  1.070094e+002 
3059375000  -4.397583e+001  1.047777e+002 
3062500000  -4.267667e+001  9.981721e+001 
3065625000  -4.233901e+001  8.707372e+001 
3068750000  -4.187984e+001  7.902818e+001 
3071875000  -4.210132e+001  7.760365e+001 
3075000000  -4.113739e+001  6.846452e+001 
3078125000  -4.125616e+001  6.331771e+001 
3081250000  -4.142267e+001  5.490684e+001 
3084375000  -4.053010e+001  5.023165e+001 
3087500000  -4.060976e+001  4.261453e+001 
3090625000  -4.003024e+001  2.865887e+001 
3093750000  -4.103413e+001  2.159230e+001 
3096875000  -4.130345e+001  1.412407e+001 
3100000000  -4.120139e+001  1.220134e+001 
3103125000  -4.158173e+001  5.729908e+000 
3106250000  -4.113059e+001  -7.386203e-001 
3109375000  -4.103886e+001  -5.913218e+000 
3112500000  -4.078280e+001  -1.287633e+001 
3115625000  -4.085675e+001  -1.672221e+001 
3118750000  -4.082636e+001  -2.302671e+001 
3121875000  -4.036029e+001  -3.445925e+001 
3125000000  -4.229291e+001  -3.922370e+001 
3128125000  -4.207779e+001  -3.317854e+001 
3131250000  -3.954778e+001  -4.091543e+001 
3134375000  -3.884177e+001  -5.848573e+001 
3137500000  -3.956262e+001  -7.176847e+001 
3140625000  -4.103706e+001  -7.600826e+001 
3143750000  -4.155346e+001  -7.919705e+001 
3146875000  -4.109544e+001  -7.867292e+001 
3150000000  -4.031603e+001  -8.403815e+001 
3153125000  -4.066111e+001  -9.255981e+001 
3156250000  -4.148039e+001  -9.012325e+001 
3159375000  -3.911515e+001  -9.335935e+001 
3162500000  -3.781393e+001  -1.094584e+002 
3165625000  -3.892543e+001  -1.239155e+002 
3168750000  -3.904284e+001  -1.253547e+002 
3171875000  -3.853822e+001  -1.340372e+002 
3175000000  -3.921195e+001  -1.435377e+002 
3178125000  -3.865082e+001  -1.461530e+002 
3181250000  -3.798724e+001  -1.563770e+002 
3184375000  -3.759378e+001  -1.674518e+002 
3187500000  -3.906973e+001  1.774062e+002 
3190625000  -4.072512e+001  1.691025e+002 
3193750000  -4.102085e+001  1.723033e+002 
3196875000  -4.111845e+001  1.729747e+002 
3200000000  -3.977550e+001  1.678693e+002 
3203125000  -3.976886e+001  1.589420e+002 
3206250000  -4.002349e+001  1.510775e+002 
3209375000  -3.931072e+001  1.419862e+002 
3212500000  -4.004849e+001  1.349243e+002 
3215625000  -3.957246e+001  1.307845e+002 
3218750000  -4.010447e+001  1.193545e+002 
3221875000  -4.046461e+001  1.120799e+002 
3225000000  -4.047093e+001  1.062816e+002 
3228125000  -4.117011e+001  9.905122e+001 
3231250000  -4.146620e+001  9.608003e+001 
3234375000  -4.101715e+001  9.326868e+001 
3237500000  -4.097448e+001  8.923561e+001 
3240625000  -4.018089e+001  8.138743e+001 
3243750000  -4.033388e+001  6.963889e+001 
3246875000  -4.072901e+001  6.250860e+001 
3250000000  -4.119251e+001  5.781095e+001 
3253125000  -4.105352e+001  5.361047e+001 
3256250000  -4.050200e+001  4.209799e+001 
3259375000  -4.106942e+001  2.916415e+001 
3262500000  -4.234904e+001  2.513884e+001 
3265625000  -4.265799e+001  2.646870e+001 
3268750000  -4.277871e+001  2.592783e+001 
3271875000  -4.143356e+001  1.938303e+001 
3275000000  -4.115879e+001  8.362887e+000 
3278125000  -4.158190e+001  1.887783e+000 
3281250000  -4.163531e+001  -2.224089e+000 
3284375000  -4.095102e+001  -1.064794e+001 
3287500000  -4.163873e+001  -1.809266e+001 
3290625000  -4.152858e+001  -2.752716e+001 
3293750000  -4.149649e+001  -3.481127e+001 
3296875000  -4.265340e+001  -3.895826e+001 
3300000000  -4.204516e+001  -4.188860e+001 
3303125000  -4.079642e+001  -5.132888e+001 
3306250000  -4.091895e+001  -6.160020e+001 
3309375000  -4.062383e+001  -7.192863e+001 
3312500000  -4.098507e+001  -8.770223e+001 
3315625000  -4.231283e+001  -9.702157e+001 
3318750000  -4.394586e+001  -1.030194e+002 
3321875000  -4.551983e+001  -9.968147e+001 
3325000000  -4.507436e+001  -9.774126e+001 
3328125000  -4.407082e+001  -9.880447e+001 
3331250000  -4.244481e+001  -1.013034e+002 
3334375000  -4.002151e+001  -1.192318e+002 
3337500000  -4.104409e+001  -1.420992e+002 
3340625000  -4.266232e+001  -1.501903e+002 
3343750000  -4.443154e+001  -1.555281e+002 
3346875000  -4.392214e+001  -1.565831e+002 
3350000000  -4.343835e+001  -1.620429e+002 
3353125000  -4.353191e+001  -1.714626e+002 
3356250000  -4.353263e+001  -1.798178e+002 
3359375000  -4.418177e+001  1.647933e+002 
3362500000  -4.504110e+001  1.578325e+002 
3365625000  -4.570605e+001  1.497799e+002 
3368750000  -4.628347e+001  1.453275e+002 
3371875000  -4.728613e+001  1.401963e+002 
3375000000  -4.845603e+001  1.324235e+002 
3378125000  -4.989306e+001  1.306190e+002 
3381250000  -5.017669e+001  1.443164e+002 
3384375000  -4.714746e+001  1.504674e+002 
3387500000  -4.450934e+001  1.273583e+002 
3390625000  -4.662024e+001  1.047976e+002 
3393750000  -4.787446e+001  1.047388e+002 
3396875000  -4.641227e+001  9.742471e+001 
3400000000  -4.594276e+001  8.586337e+001 
3403125000  -4.677663e+001  7.934976e+001 
3406250000  -4.701642e+001  6.987920e+001 
3409375000  -4.691412e+001  6.091743e+001 
3412500000  -4.787281e+001  5.117812e+001 
3415625000  -4.862995e+001  4.850230e+001 
3418750000  -4.866243e+001  4.101420e+001 
3421875000  -4.893503e+001  3.824720e+001 
3425000000  -4.759553e+001  3.550637e+001 
3428125000  -4.714014e+001  2.735569e+001 
3431250000  -4.658923e+001  1.447509e+001 
3434375000  -4.699631e+001  3.987692e+000 
3437500000  -4.739844e+001  -5.531648e+000 
3440625000  -4.767562e+001  -1.071340e+001 
3443750000  -4.673376e+001  -1.419755e+001 
3446875000  -4.588692e+001  -2.766966e+001 
3450000000  -4.540191e+001  -4.404149e+001 
3453125000  -4.586329e+001  -6.275727e+001 
3456250000  -4.750531e+001  -7.122029e+001 
3459375000  -4.758585e+001  -7.107403e+001 
3462500000  -4.774573e+001  -7.818394e+001 
3465625000  -4.727332e+001  -8.736388e+001 
3468750000  -4.761153e+001  -9.811879e+001 
3471875000  -4.732899e+001  -1.067953e+002 
3475000000  -4.677479e+001  -1.199484e+002 
3478125000  -4.816076e+001  -1.298694e+002 
3481250000  -4.947325e+001  -1.366608e+002 
3484375000  -4.863574e+001  -1.347835e+002 
3487500000  -4.759129e+001  -1.424361e+002 
3490625000  -4.783334e+001  -1.527382e+002 
3493750000  -4.798579e+001  -1.708648e+002 
3496875000  -4.837170e+001  -1.719993e+002 
3500000000  -4.794318e+001  -1.733411e+002 
3503125000  -4.737735e+001  -1.761842e+002 
3506250000  -4.602514e+001  1.710773e+002 
3509375000  -4.587087e+001  1.511111e+002 
3512500000  -4.579779e+001  1.339876e+002 
3515625000  -4.728909e+001  1.319967e+002 
3518750000  -4.796856e+001  1.293311e+002 
3521875000  -4.822781e+001  1.140595e+002 
3525000000  -4.918326e+001  1.126201e+002 
3528125000  -4.759609e+001  1.187735e+002 
3531250000  -4.717846e+001  1.032468e+002 
3534375000  -4.691904e+001  8.489264e+001 
3537500000  -4.810522e+001  8.161467e+001 
3540625000  -4.878788e+001  7.329708e+001 
3543750000  -4.951870e+001  7.650136e+001 
3546875000  -4.859450e+001  8.213306e+001 
3550000000  -4.668675e+001  7.252731e+001 
3553125000  -4.614388e+001  4.979322e+001 
3556250000  -4.710738e+001  4.492601e+001 
3559375000  -4.609428e+001  3.918762e+001 
3562500000  -4.660408e+001  2.836931e+001 
3565625000  -4.744811e+001  2.088130e+001 
3568750000  -4.778863e+001  2.333013e+001 
3571875000  -4.726568e+001  1.731155e+001 
3575000000  -4.702367e+001  8.860849e+000 
3578125000  -4.744907e+001  4.974082e+000 
3581250000  -4.749698e+001  2.637514e+000 
3584375000  -4.591665e+001  -4.411031e+000 
3587500000  -4.560743e+001  -1.826174e+001 
3590625000  -4.658786e+001  -2.614902e+001 
3593750000  -4.783138e+001  -2.741473e+001 
3596875000  -4.676598e+001  -2.435363e+001 
3600000000  -4.480048e+001  -3.492474e+001 
3603125000  -4.525458e+001  -4.790241e+001 
3606250000  -4.575584e+001  -5.402427e+001 
3609375000  -4.618225e+001  -5.783002e+001 
3612500000  -4.614397e+001  -6.793817e+001 
3615625000  -4.649762e+001  -7.063993e+001 
3618750000  -4.600980e+001  -7.363062e+001 
3621875000  -4.535455e+001  -8.043814e+001 
3625000000  -4.562675e+001  -8.478241e+001 
3628125000  -4.461041e+001  -8.975814e+001 
3631250000  -4.534403e+001  -9.851084e+001 
3634375000  -4.580168e+001  -1.020635e+002 
3637500000  -4.435847e+001  -1.034311e+002 
3640625000  -4.375242e+001  -1.090821e+002 
3643750000  -4.335661e+001  -1.202089e+002 
3646875000  -4.351556e+001  -1.324137e+002 
3650000000  -4.402352e+001  -1.373204e+002 
3653125000  -4.329015e+001  -1.439883e+002 
3656250000  -4.412886e+001  -1.500717e+002 
3659375000  -4.378395e+001  -1.552588e+002 
3662500000  -4.318423e+001  -1.634851e+002 
3665625000  -4.330734e+001  -1.648629e+002 
3668750000  -4.218299e+001  -1.688811e+002 
3671875000  -4.157466e+001  1.755061e+002 
3675000000  -4.218460e+001  1.674788e+002 
3678125000  -4.278902e+001  1.612999e+002 
3681250000  -4.266137e+001  1.551952e+002 
3684375000  -4.272231e+001  1.460556e+002 
3687500000  -4.307701e+001  1.377245e+002 
3690625000  -4.341085e+001  1.341115e+002 
3693750000  -4.439767e+001  1.295125e+002 
3696875000  -4.370340e+001  1.263122e+002 
3700000000  -4.315691e+001  1.176207e+002 
3703125000  -4.362413e+001  1.121797e+002 
3706250000  -4.468528e+001  1.091367e+002 
3709375000  -4.402439e+001  1.071510e+002 
3712500000  -4.301003e+001  1.027275e+002 
3715625000  -4.192192e+001  9.418503e+001 
3718750000  -4.173505e+001  8.286684e+001 
3721875000  -4.184099e+001  7.362421e+001 
3725000000  -4.240022e+001  6.732109e+001 
3728125000  -4.232796e+001  6.263063e+001 
3731250000  -4.207789e+001  5.790788e+001 
3734375000  -4.201231e+001  4.888607e+001 
3737500000  -4.296025e+001  4.183845e+001 
3740625000  -4.286808e+001  3.460740e+001 
3743750000  -4.286996e+001  2.889714e+001 
3746875000  -4.307998e+001  2.229152e+001 
3750000000  -4.368431e+001  2.125803e+001 
3753125000  -4.346784e+001  1.532696e+001 
3756250000  -4.356249e+001  1.143289e+001 
3759375000  -4.345709e+001  6.953948e+000 
3762500000  -4.320980e+001  1.693899e+000 
3765625000  -4.405235e+001  -4.412005e+000 
3768750000  -4.365680e+001  -4.568550e+000 
3771875000  -4.210200e+001  -1.011703e+001 
3775000000  -4.214111e+001  -2.414266e+001 
3778125000  -4.256189e+001  -2.894336e+001 
3781250000  -4.251422e+001  -3.233917e+001 
3784375000  -4.261550e+001  -3.968724e+001 
3787500000  -4.203841e+001  -4.450204e+001 
3790625000  -4.302135e+001  -5.314643e+001 
3793750000  -4.263729e+001  -5.555934e+001 
3796875000  -4.171209e+001  -6.111826e+001 
3800000000  -4.084676e+001  -7.032171e+001 
3803125000  -4.175040e+001  -8.169597e+001 
3806250000  -4.250565e+001  -8.579609e+001 
3809375000  -4.166233e+001  -9.097152e+001 
3812500000  -4.165557e+001  -1.027036e+002 
3815625000  -4.284436e+001  -1.137351e+002 
3818750000  -4.418860e+001  -1.108993e+002 
3821875000  -4.353185e+001  -1.028795e+002 
3825000000  -4.135114e+001  -1.076698e+002 
3828125000  -4.057170e+001  -1.270613e+002 
3831250000  -4.137732e+001  -1.434644e+002 
3834375000  -4.381946e+001  -1.423628e+002 
3837500000  -4.358153e+001  -1.388437e+002 
3840625000  -4.268686e+001  -1.459256e+002 
3843750000  -4.172539e+001  -1.620974e+002 
3846875000  -4.359990e+001  -1.703432e+002 
3850000000  -4.441640e+001  -1.615806e+002 
3853125000  -4.336306e+001  -1.638724e+002 
3856250000  -4.279168e+001  -1.699923e+002 
3859375000  -4.216583e+001  1.779941e+002 
3862500000  -4.200066e+001  1.686652e+002 
3865625000  -4.260446e+001  1.608128e+002 
3868750000  -4.255500e+001  1.622736e+002 
3871875000  -4.161212e+001  1.519304e+002 
3875000000  -4.225655e+001  1.416379e+002 
3878125000  -4.353344e+001  1.369833e+002 
3881250000  -4.319600e+001  1.345398e+002 
3884375000  -4.248812e+001  1.252143e+002 
3887500000  -4.301322e+001  1.191872e+002 
3890625000  -4.381015e+001  1.153573e+002 
3893750000  -4.437109e+001  1.119302e+002 
3896875000  -4.423194e+001  1.106883e+002 
3900000000  -4.417070e+001  1.062946e+002 
3903125000  -4.389190e+001  9.914809e+001 
3906250000  -4.348634e+001  9.744683e+001 
3909375000  -4.270205e+001  8.589689e+001 
3912500000  -4.352977e+001  7.567638e+001 
3915625000  -4.469489e+001  7.543147e+001 
3918750000  -4.422107e+001  7.424904e+001 
3921875000  -4.367914e+001  6.988780e+001 
3925000000  -4.270404e+001  6.475993e+001 
3928125000  -4.245156e+001  5.330260e+001 
3931250000  -4.355511e+001  4.564867e+001 
3934375000  -4.390230e+001  4.601637e+001 
3937500000  -4.479203e+001  4.300673e+001 
3940625000  -4.447630e+001  4.170197e+001 
3943750000  -4.309341e+001  3.633057e+001 
3946875000  -4.297872e+001  2.499159e+001 
3950000000  -4.368538e+001  1.838294e+001 
3953125000  -4.449425e+001  1.944668e+001 
3956250000  -4.244439e+001  1.786850e+001 
3959375000  -4.145799e+001  8.557603e+000 
3962500000  -4.140650e+001  -1.352028e+000 
3965625000  -4.200808e+001  -1.079694e+001 
3968750000  -4.245930e+001  -1.867297e+001 
3971875000  -4.233093e+001  -2.405685e+001 
3975000000  -4.172142e+001  -2.695007e+001 
3978125000  -4.229435e+001  -3.598188e+001 
3981250000  -4.154464e+001  -4.264801e+001 
3984375000  -4.237207e+001  -5.019975e+001 
3987500000  -4.295823e+001  -5.610374e+001 
3990625000  -4.289295e+001  -5.776859e+001 
3993750000  -4.284840e+001  -6.496008e+001 
3996875000  -4.315664e+001  -7.254091e+001 
4000000000  -4.370005e+001  -7.376591e+001 
4003125000  -4.414072e+001  -7.348531e+001 
4006250000  -4.202713e+001  -7.957093e+001 
4009375000  -4.124904e+001  -9.590833e+001 
4012500000  -4.285291e+001  -1.056126e+002 
4015625000  -4.390222e+001  -1.074009e+002 
4018750000  -4.363350e+001  -1.072932e+002 
4021875000  -4.296571e+001  -1.172115e+002 
4025000000  -4.286915e+001  -1.229344e+002 
4028125000  -4.318859e+001  -1.295076e+002 
4031250000  -4.389391e+001  -1.384974e+002 
4034375000  -4.417573e+001  -1.403087e+002 
4037500000  -4.429038e+001  -1.455310e+002 
4040625000  -4.394559e+001  -1.505739e+002 
4043750000  -4.457269e+001  -1.549625e+002 
4046875000  -4.430378e+001  -1.591559e+002 
4050000000  -4.439415e+001  -1.672746e+002 
4053125000  -4.500276e+001  -1.706013e+002 
4056250000  -4.545414e+001  -1.682284e+002 
4059375000  -4.387136e+001  -1.658571e+002 
4062500000  -4.341013e+001  -1.770802e+002 
4065625000  -4.325325e+001  1.778167e+002 
4068750000  -4.279591e+001  1.704038e+002 
4071875000  -4.246077e+001  1.596479e+002 
4075000000  -4.341550e+001  1.521323e+002 
4078125000  -4.426728e+001  1.487421e+002 
4081250000  -4.334600e+001  1.434359e+002 
4084375000  -4.312236e+001  1.327259e+002 
4087500000  -4.404179e+001  1.272353e+002 
4090625000  -4.443319e+001  1.212754e+002 
4093750000  -4.421102e+001  1.219740e+002 
4096875000  -4.400903e+001  1.149959e+002 
4100000000  -4.502095e+001  1.097396e+002 
4103125000  -4.575275e+001  1.105328e+002 
4106250000  -4.495048e+001  1.100190e+002 
4109375000  -4.428193e+001  1.054103e+002 
4112500000  -4.398552e+001  9.818052e+001 
4115625000  -4.391044e+001  9.176623e+001 
4118750000  -4.398755e+001  8.875370e+001 
4121875000  -4.370546e+001  7.849474e+001 
4125000000  -4.485994e+001  7.399738e+001 
4128125000  -4.504401e+001  7.525223e+001 
4131250000  -4.350647e+001  7.876389e+001 
4134375000  -4.140792e+001  6.910831e+001 
4137500000  -4.205116e+001  4.582270e+001 
4140625000  -4.410415e+001  3.855786e+001 
4143750000  -4.495082e+001  4.469717e+001 
4146875000  -4.426044e+001  4.775816e+001 
4150000000  -4.277748e+001  3.693146e+001 
4153125000  -4.291496e+001  2.954024e+001 
4156250000  -4.411946e+001  2.254424e+001 
4159375000  -4.357846e+001  2.773765e+001 
4162500000  -4.238640e+001  2.406467e+001 
4165625000  -4.095549e+001  1.563156e+001 
4168750000  -4.082104e+001  1.776398e+000 
4171875000  -4.099899e+001  -8.495968e+000 
4175000000  -4.177689e+001  -1.771357e+001 
4178125000  -4.196381e+001  -2.097044e+001 
4181250000  -4.225025e+001  -2.608305e+001 
4184375000  -4.226455e+001  -3.309834e+001 
4187500000  -4.216265e+001  -3.796587e+001 
4190625000  -4.266391e+001  -4.800072e+001 
4193750000  -4.407665e+001  -5.502092e+001 
4196875000  -4.476358e+001  -5.732334e+001 
4200000000  -4.571978e+001  -5.448487e+001 
4203125000  -4.413383e+001  -4.472255e+001 
4206250000  -4.098431e+001  -5.049461e+001 
4209375000  -4.127493e+001  -7.570387e+001 
4212500000  -4.401400e+001  -8.289470e+001 
4215625000  -4.378553e+001  -7.536067e+001 
4218750000  -4.178256e+001  -7.639869e+001 
4221875000  -4.072606e+001  -8.744478e+001 
4225000000  -4.223135e+001  -9.808174e+001 
4228125000  -4.226502e+001  -9.573703e+001 
4231250000  -4.053061e+001  -1.066508e+002 
4234375000  -4.102602e+001  -1.186015e+002 
4237500000  -4.088716e+001  -1.223470e+002 
4240625000  -4.128965e+001  -1.347062e+002 
4243750000  -4.265870e+001  -1.417036e+002 
4246875000  -4.269113e+001  -1.416630e+002 
4250000000  -4.266097e+001  -1.425161e+002 
4253125000  -4.234766e+001  -1.444947e+002 
4256250000  -4.214122e+001  -1.506871e+002 
4259375000  -4.172018e+001  -1.591153e+002 
4262500000  -4.247734e+001  -1.620590e+002 
4265625000  -4.195033e+001  -1.670027e+002 
4268750000  -4.092838e+001  -1.713328e+002 
4271875000  -4.079894e+001  1.760215e+002 
4275000000  -4.022530e+001  1.686689e+002 
4278125000  -4.124431e+001  1.532964e+002 
4281250000  -4.219694e+001  1.525071e+002 
4284375000  -4.239667e+001  1.498515e+002 
4287500000  -4.363545e+001  1.479819e+002 
4290625000  -4.360675e+001  1.542619e+002 
4293750000  -4.163018e+001  1.525979e+002 
4296875000  -4.030395e+001  1.342801e+002 
4300000000  -4.128467e+001  1.260834e+002 
4303125000  -4.165099e+001  1.275114e+002 
4306250000  -4.042219e+001  1.258906e+002 
4309375000  -3.971359e+001  1.179425e+002 
4312500000  -3.965678e+001  1.040260e+002 
4315625000  -4.003863e+001  9.782556e+001 
4318750000  -4.061417e+001  9.087150e+001 
4321875000  -4.080680e+001  8.755738e+001 
4325000000  -4.008501e+001  8.543776e+001 
4328125000  -3.925489e+001  7.371324e+001 
4331250000  -3.983534e+001  6.177266e+001 
4334375000  -4.076353e+001  5.342814e+001 
4337500000  -4.184874e+001  5.016502e+001 
4340625000  -4.222538e+001  5.154464e+001 
4343750000  -4.093045e+001  4.751708e+001 
4346875000  -4.097370e+001  3.894429e+001 
4350000000  -4.087827e+001  3.081387e+001 
4353125000  -4.140968e+001  2.040664e+001 
4356250000  -4.372878e+001  2.638589e+001 
4359375000  -4.273823e+001  3.475311e+001 
4362500000  -3.946782e+001  2.727482e+001 
4365625000  -3.907089e+001  6.286630e+000 
4368750000  -3.996842e+001  -1.657027e+000 
4371875000  -4.103965e+001  -2.176500e+000 
4375000000  -4.032895e+001  -7.463169e+000 
4378125000  -4.035551e+001  -1.792753e+001 
4381250000  -4.079135e+001  -2.616040e+001 
4384375000  -4.025578e+001  -3.350327e+001 
4387500000  -4.159165e+001  -4.100359e+001 
4390625000  -4.176923e+001  -4.274549e+001 
4393750000  -4.160315e+001  -4.164418e+001 
4396875000  -4.093076e+001  -4.935231e+001 
4400000000  -4.063338e+001  -5.853423e+001 
4403125000  -4.152224e+001  -6.981474e+001 
4406250000  -4.218595e+001  -7.142477e+001 
4409375000  -4.208108e+001  -7.740517e+001 
4412500000  -4.340483e+001  -7.704070e+001 
4415625000  -4.284280e+001  -7.530785e+001 
4418750000  -4.172516e+001  -7.912329e+001 
