!Agilent Technologies,E8363B,MY43030201,A.06.04.32
!Agilent E8363B: A.06.04.32
!Date: Tuesday, November 11, 2014 21:49:33
!Correction: S21(Response(S21)) 
!S1P File: Measurement: S21:
# Hz S  dB   R 50
3000000000  -4.361649e+001  -1.616163e+002 
3003125000  -4.554493e+001  -1.664643e+002 
3006250000  -4.553896e+001  -1.686105e+002 
3009375000  -4.626457e+001  -1.636898e+002 
3012500000  -4.477977e+001  -1.718201e+002 
3015625000  -4.508580e+001  -1.779139e+002 
3018750000  -4.517064e+001  -1.791579e+002 
3021875000  -4.404308e+001  -1.777467e+002 
3025000000  -4.252906e+001  1.769635e+002 
3028125000  -4.163087e+001  1.652077e+002 
3031250000  -4.095488e+001  1.511358e+002 
3034375000  -4.079361e+001  1.382474e+002 
3037500000  -4.168438e+001  1.273310e+002 
3040625000  -4.281027e+001  1.204862e+002 
3043750000  -4.323351e+001  1.124626e+002 
3046875000  -4.399981e+001  1.075024e+002 
3050000000  -4.558840e+001  1.008751e+002 
3053125000  -4.461406e+001  1.050074e+002 
3056250000  -4.452822e+001  1.079563e+002 
3059375000  -4.385350e+001  1.040591e+002 
3062500000  -4.260361e+001  9.988665e+001 
3065625000  -4.206915e+001  8.785783e+001 
3068750000  -4.172181e+001  7.993626e+001 
3071875000  -4.159927e+001  7.831661e+001 
3075000000  -4.125637e+001  6.984703e+001 
3078125000  -4.117247e+001  6.327304e+001 
3081250000  -4.127594e+001  5.690678e+001 
3084375000  -4.034443e+001  5.108178e+001 
3087500000  -4.073743e+001  4.256086e+001 
3090625000  -3.987220e+001  2.992852e+001 
3093750000  -4.111181e+001  2.248602e+001 
3096875000  -4.145029e+001  1.530191e+001 
3100000000  -4.125339e+001  1.170893e+001 
3103125000  -4.146379e+001  7.276746e+000 
3106250000  -4.084109e+001  2.175210e+000 
3109375000  -4.109906e+001  -3.934945e+000 
3112500000  -4.083502e+001  -1.103198e+001 
3115625000  -4.086424e+001  -1.644584e+001 
3118750000  -4.069578e+001  -2.172642e+001 
3121875000  -4.030623e+001  -3.145821e+001 
3125000000  -4.217192e+001  -3.804256e+001 
3128125000  -4.213380e+001  -3.060875e+001 
3131250000  -3.936940e+001  -4.035031e+001 
3134375000  -3.893417e+001  -5.718500e+001 
3137500000  -3.951015e+001  -7.105602e+001 
3140625000  -4.090686e+001  -7.415063e+001 
3143750000  -4.135912e+001  -7.833048e+001 
3146875000  -4.097031e+001  -7.820641e+001 
3150000000  -4.030811e+001  -8.290329e+001 
3153125000  -4.088311e+001  -9.181477e+001 
3156250000  -4.131683e+001  -8.825276e+001 
3159375000  -3.925592e+001  -9.201347e+001 
3162500000  -3.777736e+001  -1.087369e+002 
3165625000  -3.897525e+001  -1.222623e+002 
3168750000  -3.927835e+001  -1.257111e+002 
3171875000  -3.855168e+001  -1.331460e+002 
3175000000  -3.915713e+001  -1.434506e+002 
3178125000  -3.869047e+001  -1.457567e+002 
3181250000  -3.803909e+001  -1.538449e+002 
3184375000  -3.775765e+001  -1.666540e+002 
3187500000  -3.926641e+001  1.782812e+002 
3190625000  -4.077575e+001  1.709664e+002 
3193750000  -4.117167e+001  1.736317e+002 
3196875000  -4.101748e+001  1.747901e+002 
3200000000  -3.979755e+001  1.688989e+002 
3203125000  -3.964839e+001  1.597360e+002 
3206250000  -3.971190e+001  1.509621e+002 
3209375000  -3.939582e+001  1.426460e+002 
3212500000  -3.981898e+001  1.360691e+002 
3215625000  -3.968850e+001  1.335795e+002 
3218750000  -4.010122e+001  1.202260e+002 
3221875000  -4.049119e+001  1.138045e+002 
3225000000  -4.021898e+001  1.083903e+002 
3228125000  -4.092928e+001  9.955117e+001 
3231250000  -4.135287e+001  9.673347e+001 
3234375000  -4.096344e+001  9.395801e+001 
3237500000  -4.109181e+001  9.091907e+001 
3240625000  -4.039120e+001  8.288873e+001 
3243750000  -4.026284e+001  7.048013e+001 
3246875000  -4.068171e+001  6.251590e+001 
3250000000  -4.113634e+001  5.792903e+001 
3253125000  -4.124561e+001  5.372044e+001 
3256250000  -4.038929e+001  4.358271e+001 
3259375000  -4.084131e+001  3.119995e+001 
3262500000  -4.228437e+001  2.641162e+001 
3265625000  -4.253082e+001  2.798728e+001 
3268750000  -4.240234e+001  2.693737e+001 
3271875000  -4.164708e+001  1.940763e+001 
3275000000  -4.104131e+001  9.471134e+000 
3278125000  -4.165561e+001  3.537403e+000 
3281250000  -4.176650e+001  -8.337602e-001 
3284375000  -4.109147e+001  -8.781754e+000 
3287500000  -4.147466e+001  -1.736914e+001 
3290625000  -4.162206e+001  -2.690031e+001 
3293750000  -4.144675e+001  -3.296764e+001 
3296875000  -4.275611e+001  -3.804554e+001 
3300000000  -4.220019e+001  -4.064574e+001 
3303125000  -4.090608e+001  -4.997337e+001 
3306250000  -4.081091e+001  -6.143291e+001 
3309375000  -4.072454e+001  -7.112801e+001 
3312500000  -4.114573e+001  -8.542883e+001 
3315625000  -4.245281e+001  -9.460387e+001 
3318750000  -4.399859e+001  -1.002176e+002 
3321875000  -4.571508e+001  -9.993758e+001 
3325000000  -4.500151e+001  -9.416145e+001 
3328125000  -4.410667e+001  -9.870911e+001 
3331250000  -4.227316e+001  -9.870229e+001 
3334375000  -4.010573e+001  -1.171651e+002 
3337500000  -4.098022e+001  -1.402832e+002 
3340625000  -4.276001e+001  -1.509198e+002 
3343750000  -4.465542e+001  -1.548674e+002 
3346875000  -4.421309e+001  -1.571953e+002 
3350000000  -4.387564e+001  -1.627825e+002 
3353125000  -4.371040e+001  -1.713923e+002 
3356250000  -4.331532e+001  1.767336e+002 
3359375000  -4.425639e+001  1.644003e+002 
3362500000  -4.522895e+001  1.564508e+002 
3365625000  -4.574512e+001  1.495565e+002 
3368750000  -4.625242e+001  1.471810e+002 
3371875000  -4.668862e+001  1.378432e+002 
3375000000  -4.870158e+001  1.327252e+002 
3378125000  -4.892875e+001  1.336080e+002 
3381250000  -5.019740e+001  1.444570e+002 
3384375000  -4.751134e+001  1.525885e+002 
3387500000  -4.518557e+001  1.264024e+002 
3390625000  -4.657097e+001  1.109320e+002 
3393750000  -4.780505e+001  1.052359e+002 
3396875000  -4.640725e+001  9.869233e+001 
3400000000  -4.633348e+001  8.342345e+001 
3403125000  -4.690182e+001  7.836324e+001 
3406250000  -4.748668e+001  7.226615e+001 
3409375000  -4.710764e+001  6.266946e+001 
3412500000  -4.822026e+001  5.380149e+001 
3415625000  -4.882006e+001  4.539270e+001 
3418750000  -4.828004e+001  4.194502e+001 
3421875000  -4.889027e+001  3.924247e+001 
3425000000  -4.762423e+001  3.624548e+001 
3428125000  -4.723046e+001  2.851457e+001 
3431250000  -4.674026e+001  1.287165e+001 
3434375000  -4.690158e+001  3.338531e+000 
3437500000  -4.747371e+001  -5.499158e+000 
3440625000  -4.748029e+001  -1.138360e+001 
3443750000  -4.643771e+001  -1.395152e+001 
3446875000  -4.579574e+001  -2.685794e+001 
3450000000  -4.513186e+001  -4.453337e+001 
3453125000  -4.543808e+001  -6.320119e+001 
3456250000  -4.736535e+001  -6.958457e+001 
3459375000  -4.791475e+001  -7.314498e+001 
3462500000  -4.783643e+001  -7.614432e+001 
3465625000  -4.712514e+001  -8.989284e+001 
3468750000  -4.744984e+001  -9.425834e+001 
3471875000  -4.775801e+001  -1.035616e+002 
3475000000  -4.720982e+001  -1.149176e+002 
3478125000  -4.740974e+001  -1.301517e+002 
3481250000  -4.902501e+001  -1.317269e+002 
3484375000  -4.828353e+001  -1.332257e+002 
3487500000  -4.765294e+001  -1.427002e+002 
3490625000  -4.711514e+001  -1.507990e+002 
3493750000  -4.775524e+001  -1.683940e+002 
3496875000  -4.793979e+001  -1.693685e+002 
3500000000  -4.823178e+001  -1.724615e+002 
3503125000  -4.699751e+001  -1.755825e+002 
3506250000  -4.554022e+001  1.696336e+002 
3509375000  -4.568715e+001  1.512652e+002 
3512500000  -4.636060e+001  1.371143e+002 
3515625000  -4.738045e+001  1.309583e+002 
3518750000  -4.796964e+001  1.298712e+002 
3521875000  -4.761451e+001  1.166234e+002 
3525000000  -4.878124e+001  1.142435e+002 
3528125000  -4.786541e+001  1.190199e+002 
3531250000  -4.690607e+001  1.042699e+002 
3534375000  -4.732516e+001  8.448955e+001 
3537500000  -4.753893e+001  7.694080e+001 
3540625000  -4.858512e+001  7.665348e+001 
3543750000  -4.953558e+001  7.467873e+001 
3546875000  -4.824532e+001  8.013007e+001 
3550000000  -4.597536e+001  7.115032e+001 
3553125000  -4.612735e+001  5.395339e+001 
3556250000  -4.737071e+001  4.730005e+001 
3559375000  -4.668488e+001  4.194758e+001 
3562500000  -4.668057e+001  3.071750e+001 
3565625000  -4.778139e+001  2.226497e+001 
3568750000  -4.751982e+001  2.256459e+001 
3571875000  -4.722002e+001  1.978292e+001 
3575000000  -4.699759e+001  9.923299e+000 
3578125000  -4.782810e+001  6.546789e+000 
3581250000  -4.699177e+001  2.663758e+000 
3584375000  -4.603594e+001  -4.669941e+000 
3587500000  -4.582910e+001  -1.665073e+001 
3590625000  -4.648783e+001  -2.352844e+001 
3593750000  -4.786912e+001  -2.434695e+001 
3596875000  -4.665590e+001  -2.293133e+001 
3600000000  -4.480561e+001  -3.267733e+001 
3603125000  -4.514973e+001  -4.913063e+001 
3606250000  -4.580594e+001  -5.396178e+001 
3609375000  -4.603620e+001  -5.799012e+001 
3612500000  -4.570847e+001  -6.687628e+001 
3615625000  -4.605999e+001  -7.228979e+001 
3618750000  -4.652412e+001  -6.907584e+001 
3621875000  -4.521345e+001  -7.901073e+001 
3625000000  -4.593523e+001  -8.576142e+001 
3628125000  -4.430225e+001  -8.928589e+001 
3631250000  -4.499511e+001  -9.978925e+001 
3634375000  -4.561304e+001  -9.858427e+001 
3637500000  -4.434932e+001  -1.024308e+002 
3640625000  -4.365968e+001  -1.069984e+002 
3643750000  -4.306105e+001  -1.188028e+002 
3646875000  -4.375952e+001  -1.294287e+002 
3650000000  -4.394082e+001  -1.367788e+002 
3653125000  -4.351906e+001  -1.444482e+002 
3656250000  -4.418233e+001  -1.489856e+002 
3659375000  -4.391458e+001  -1.536590e+002 
3662500000  -4.348033e+001  -1.611878e+002 
3665625000  -4.334147e+001  -1.616526e+002 
3668750000  -4.196809e+001  -1.675214e+002 
3671875000  -4.175058e+001  1.770288e+002 
3675000000  -4.224577e+001  1.669070e+002 
3678125000  -4.283780e+001  1.628499e+002 
3681250000  -4.227242e+001  1.556346e+002 
3684375000  -4.249173e+001  1.487152e+002 
3687500000  -4.291669e+001  1.385420e+002 
3690625000  -4.371386e+001  1.333188e+002 
3693750000  -4.428661e+001  1.309279e+002 
3696875000  -4.376464e+001  1.294798e+002 
3700000000  -4.314231e+001  1.182794e+002 
3703125000  -4.389217e+001  1.144074e+002 
3706250000  -4.482104e+001  1.098900e+002 
3709375000  -4.386413e+001  1.100117e+002 
3712500000  -4.288181e+001  1.040568e+002 
3715625000  -4.159479e+001  9.591448e+001 
3718750000  -4.165537e+001  8.372726e+001 
3721875000  -4.186501e+001  7.611399e+001 
3725000000  -4.233494e+001  6.946641e+001 
3728125000  -4.232223e+001  6.483549e+001 
3731250000  -4.187331e+001  5.779446e+001 
3734375000  -4.180470e+001  5.103659e+001 
3737500000  -4.296746e+001  4.346123e+001 
3740625000  -4.332767e+001  3.733137e+001 
3743750000  -4.305030e+001  2.932765e+001 
3746875000  -4.316096e+001  2.498842e+001 
3750000000  -4.321874e+001  1.924559e+001 
3753125000  -4.394405e+001  1.597804e+001 
3756250000  -4.384139e+001  1.303350e+001 
3759375000  -4.366882e+001  8.389939e+000 
3762500000  -4.348742e+001  4.000538e+000 
3765625000  -4.439141e+001  -1.549542e+000 
3768750000  -4.342481e+001  7.553117e-001 
3771875000  -4.211893e+001  -9.013007e+000 
3775000000  -4.215244e+001  -2.020902e+001 
3778125000  -4.228330e+001  -2.764078e+001 
3781250000  -4.248527e+001  -3.188827e+001 
3784375000  -4.237363e+001  -3.714022e+001 
3787500000  -4.197187e+001  -4.326321e+001 
3790625000  -4.278621e+001  -5.152106e+001 
3793750000  -4.276172e+001  -5.625391e+001 
3796875000  -4.191735e+001  -6.091853e+001 
3800000000  -4.077581e+001  -6.791714e+001 
3803125000  -4.154031e+001  -8.009519e+001 
3806250000  -4.263169e+001  -8.340772e+001 
3809375000  -4.193048e+001  -9.098919e+001 
3812500000  -4.160015e+001  -9.912134e+001 
3815625000  -4.298808e+001  -1.115808e+002 
3818750000  -4.418980e+001  -1.106038e+002 
3821875000  -4.331284e+001  -9.736867e+001 
3825000000  -4.146895e+001  -1.056529e+002 
3828125000  -4.017585e+001  -1.277902e+002 
3831250000  -4.118844e+001  -1.417947e+002 
3834375000  -4.349023e+001  -1.426763e+002 
3837500000  -4.392937e+001  -1.415932e+002 
3840625000  -4.264763e+001  -1.480405e+002 
3843750000  -4.150414e+001  -1.593315e+002 
3846875000  -4.334145e+001  -1.665361e+002 
3850000000  -4.411715e+001  -1.595340e+002 
3853125000  -4.349352e+001  -1.648449e+002 
3856250000  -4.299259e+001  -1.691154e+002 
3859375000  -4.229501e+001  1.796081e+002 
3862500000  -4.215471e+001  1.694594e+002 
3865625000  -4.234371e+001  1.612060e+002 
3868750000  -4.250080e+001  1.613559e+002 
3871875000  -4.151322e+001  1.508730e+002 
3875000000  -4.241154e+001  1.415433e+002 
3878125000  -4.311055e+001  1.396658e+002 
3881250000  -4.302383e+001  1.388466e+002 
3884375000  -4.243954e+001  1.273451e+002 
3887500000  -4.318182e+001  1.199439e+002 
3890625000  -4.385639e+001  1.191703e+002 
3893750000  -4.431449e+001  1.116190e+002 
3896875000  -4.445428e+001  1.121598e+002 
3900000000  -4.449873e+001  1.045199e+002 
3903125000  -4.372300e+001  1.009544e+002 
3906250000  -4.338895e+001  9.892963e+001 
3909375000  -4.245456e+001  8.824061e+001 
3912500000  -4.393835e+001  7.810545e+001 
3915625000  -4.484071e+001  7.945730e+001 
3918750000  -4.437107e+001  7.640047e+001 
3921875000  -4.364192e+001  7.186628e+001 
3925000000  -4.284713e+001  6.523405e+001 
3928125000  -4.247726e+001  5.723893e+001 
3931250000  -4.358260e+001  4.913185e+001 
3934375000  -4.382982e+001  4.645167e+001 
3937500000  -4.447060e+001  4.404830e+001 
3940625000  -4.452691e+001  4.367001e+001 
3943750000  -4.321022e+001  3.794493e+001 
3946875000  -4.236362e+001  2.990163e+001 
3950000000  -4.365117e+001  2.079544e+001 
3953125000  -4.431145e+001  1.771922e+001 
3956250000  -4.294784e+001  1.887825e+001 
3959375000  -4.184025e+001  1.492461e+001 
3962500000  -4.148063e+001  2.214552e+000 
3965625000  -4.194133e+001  -8.824313e+000 
3968750000  -4.262662e+001  -1.710449e+001 
3971875000  -4.218821e+001  -2.112579e+001 
3975000000  -4.218980e+001  -2.825456e+001 
3978125000  -4.226590e+001  -3.234193e+001 
3981250000  -4.187042e+001  -4.001657e+001 
3984375000  -4.263671e+001  -4.915350e+001 
3987500000  -4.302741e+001  -5.167967e+001 
3990625000  -4.323827e+001  -5.873571e+001 
3993750000  -4.248683e+001  -6.344778e+001 
3996875000  -4.303997e+001  -6.920163e+001 
4000000000  -4.372091e+001  -7.428316e+001 
4003125000  -4.370159e+001  -7.234690e+001 
4006250000  -4.192088e+001  -7.936587e+001 
4009375000  -4.150131e+001  -9.547258e+001 
4012500000  -4.267994e+001  -1.033789e+002 
4015625000  -4.374943e+001  -1.009751e+002 
4018750000  -4.373533e+001  -1.100448e+002 
4021875000  -4.323338e+001  -1.146058e+002 
4025000000  -4.318122e+001  -1.206011e+002 
4028125000  -4.334461e+001  -1.332481e+002 
4031250000  -4.374114e+001  -1.368260e+002 
4034375000  -4.432302e+001  -1.380007e+002 
4037500000  -4.404940e+001  -1.420624e+002 
4040625000  -4.393266e+001  -1.502786e+002 
4043750000  -4.424624e+001  -1.545051e+002 
4046875000  -4.464661e+001  -1.569709e+002 
4050000000  -4.432741e+001  -1.661239e+002 
4053125000  -4.538372e+001  -1.667169e+002 
4056250000  -4.591205e+001  -1.641781e+002 
4059375000  -4.396485e+001  -1.640068e+002 
4062500000  -4.335521e+001  -1.754520e+002 
4065625000  -4.359074e+001  -1.798952e+002 
4068750000  -4.291418e+001  1.694457e+002 
4071875000  -4.254963e+001  1.603394e+002 
4075000000  -4.366709e+001  1.531468e+002 
4078125000  -4.407854e+001  1.511569e+002 
4081250000  -4.316687e+001  1.446627e+002 
4084375000  -4.308795e+001  1.375111e+002 
4087500000  -4.354404e+001  1.286696e+002 
4090625000  -4.475742e+001  1.262748e+002 
4093750000  -4.451575e+001  1.257136e+002 
4096875000  -4.366027e+001  1.159837e+002 
4100000000  -4.523556e+001  1.090068e+002 
4103125000  -4.605995e+001  1.141825e+002 
4106250000  -4.509265e+001  1.152026e+002 
4109375000  -4.413305e+001  1.113568e+002 
4112500000  -4.361958e+001  9.880952e+001 
4115625000  -4.469789e+001  9.564529e+001 
4118750000  -4.401547e+001  8.976962e+001 
4121875000  -4.405198e+001  8.099818e+001 
4125000000  -4.465334e+001  7.652075e+001 
4128125000  -4.494860e+001  7.803853e+001 
4131250000  -4.354117e+001  8.147147e+001 
4134375000  -4.122957e+001  6.920685e+001 
4137500000  -4.197898e+001  4.953385e+001 
4140625000  -4.411641e+001  4.024934e+001 
4143750000  -4.490862e+001  4.440696e+001 
4146875000  -4.390092e+001  4.893777e+001 
4150000000  -4.262265e+001  3.983481e+001 
4153125000  -4.300241e+001  2.863685e+001 
4156250000  -4.381783e+001  2.790084e+001 
4159375000  -4.372237e+001  2.918252e+001 
4162500000  -4.216028e+001  2.592006e+001 
4165625000  -4.150924e+001  1.632502e+001 
4168750000  -4.108043e+001  4.204022e+000 
4171875000  -4.099880e+001  -6.587295e+000 
4175000000  -4.179766e+001  -1.658175e+001 
4178125000  -4.223181e+001  -1.704637e+001 
4181250000  -4.201254e+001  -2.381400e+001 
4184375000  -4.259576e+001  -3.179164e+001 
4187500000  -4.222552e+001  -3.699841e+001 
4190625000  -4.264307e+001  -4.687538e+001 
4193750000  -4.405779e+001  -5.373293e+001 
4196875000  -4.476067e+001  -5.423315e+001 
4200000000  -4.562212e+001  -5.176651e+001 
4203125000  -4.470933e+001  -3.954465e+001 
4206250000  -4.128299e+001  -4.597475e+001 
4209375000  -4.144526e+001  -7.567651e+001 
4212500000  -4.374076e+001  -8.166074e+001 
4215625000  -4.407554e+001  -7.224888e+001 
4218750000  -4.230228e+001  -7.356470e+001 
4221875000  -4.065705e+001  -8.139880e+001 
4225000000  -4.245097e+001  -9.697945e+001 
4228125000  -4.195727e+001  -9.377251e+001 
4231250000  -4.078596e+001  -1.051441e+002 
4234375000  -4.074130e+001  -1.142616e+002 
4237500000  -4.063656e+001  -1.179980e+002 
4240625000  -4.107531e+001  -1.320693e+002 
4243750000  -4.243092e+001  -1.398732e+002 
4246875000  -4.323457e+001  -1.385849e+002 
4250000000  -4.277186e+001  -1.403194e+002 
4253125000  -4.235165e+001  -1.443143e+002 
4256250000  -4.238575e+001  -1.515514e+002 
4259375000  -4.161681e+001  -1.554929e+002 
4262500000  -4.228233e+001  -1.606465e+002 
4265625000  -4.188655e+001  -1.632698e+002 
4268750000  -4.101629e+001  -1.694245e+002 
4271875000  -4.060538e+001  1.786633e+002 
4275000000  -4.000201e+001  1.704325e+002 
4278125000  -4.113238e+001  1.594574e+002 
4281250000  -4.237069e+001  1.551362e+002 
4284375000  -4.203487e+001  1.506425e+002 
4287500000  -4.355270e+001  1.493627e+002 
4290625000  -4.359634e+001  1.569077e+002 
4293750000  -4.164084e+001  1.534965e+002 
4296875000  -4.002909e+001  1.399139e+002 
4300000000  -4.143059e+001  1.288593e+002 
4303125000  -4.197404e+001  1.271644e+002 
4306250000  -4.061003e+001  1.287888e+002 
4309375000  -3.971591e+001  1.189027e+002 
4312500000  -3.962136e+001  1.074657e+002 
4315625000  -4.011933e+001  9.815208e+001 
4318750000  -4.067308e+001  9.257648e+001 
4321875000  -4.076034e+001  9.202342e+001 
4325000000  -3.996269e+001  8.656576e+001 
4328125000  -3.943375e+001  7.504157e+001 
4331250000  -3.950287e+001  6.143045e+001 
4334375000  -4.063769e+001  5.516361e+001 
4337500000  -4.208933e+001  5.304221e+001 
4340625000  -4.194310e+001  5.570244e+001 
4343750000  -4.108354e+001  4.846614e+001 
4346875000  -4.075888e+001  4.109438e+001 
4350000000  -4.062307e+001  3.078881e+001 
4353125000  -4.192306e+001  2.425206e+001 
4356250000  -4.416223e+001  2.525222e+001 
4359375000  -4.240968e+001  3.790365e+001 
4362500000  -3.977076e+001  2.708136e+001 
4365625000  -3.910289e+001  1.167208e+001 
4368750000  -4.047639e+001  2.310789e+000 
4371875000  -4.115313e+001  -3.095737e-001 
4375000000  -4.063586e+001  -6.852703e+000 
4378125000  -4.041393e+001  -1.400482e+001 
4381250000  -4.032344e+001  -2.484108e+001 
4384375000  -4.061042e+001  -3.338993e+001 
4387500000  -4.142317e+001  -3.856562e+001 
4390625000  -4.184822e+001  -4.086499e+001 
4393750000  -4.168461e+001  -4.246486e+001 
4396875000  -4.092763e+001  -4.766522e+001 
4400000000  -4.053786e+001  -5.663274e+001 
4403125000  -4.147887e+001  -6.654118e+001 
4406250000  -4.193077e+001  -7.083293e+001 
4409375000  -4.228244e+001  -7.524261e+001 
4412500000  -4.359899e+001  -7.792201e+001 
4415625000  -4.305813e+001  -7.296316e+001 
4418750000  -4.191959e+001  -7.653173e+001 
