!Agilent Technologies,E8363B,MY43030201,A.06.04.32
!Agilent E8363B: A.06.04.32
!Date: Tuesday, November 11, 2014 21:52:02
!Correction: S21(Response(S21)) 
!S1P File: Measurement: S21:
# Hz S  dB   R 50
3000000000  -4.368316e+001  -1.626096e+002 
3003125000  -4.523163e+001  -1.680315e+002 
3006250000  -4.554269e+001  -1.685471e+002 
3009375000  -4.636267e+001  -1.658511e+002 
3012500000  -4.489180e+001  -1.714824e+002 
3015625000  -4.514355e+001  -1.791568e+002 
3018750000  -4.546547e+001  1.795195e+002 
3021875000  -4.385564e+001  1.788975e+002 
3025000000  -4.251361e+001  1.755005e+002 
3028125000  -4.179018e+001  1.633486e+002 
3031250000  -4.104172e+001  1.512198e+002 
3034375000  -4.069979e+001  1.364072e+002 
3037500000  -4.181630e+001  1.256771e+002 
3040625000  -4.305109e+001  1.187507e+002 
3043750000  -4.314557e+001  1.120910e+002 
3046875000  -4.405908e+001  1.038942e+002 
3050000000  -4.514686e+001  1.020433e+002 
3053125000  -4.485675e+001  1.043090e+002 
3056250000  -4.483901e+001  1.071720e+002 
3059375000  -4.390259e+001  1.026303e+002 
3062500000  -4.251680e+001  9.846211e+001 
3065625000  -4.227283e+001  8.874046e+001 
3068750000  -4.193434e+001  8.067812e+001 
3071875000  -4.182079e+001  7.784414e+001 
3075000000  -4.116105e+001  7.122449e+001 
3078125000  -4.121523e+001  6.318064e+001 
3081250000  -4.116838e+001  5.593684e+001 
3084375000  -4.046883e+001  5.021614e+001 
3087500000  -4.052394e+001  4.139304e+001 
3090625000  -4.014337e+001  2.981872e+001 
3093750000  -4.098231e+001  2.002567e+001 
3096875000  -4.111986e+001  1.588099e+001 
3100000000  -4.141421e+001  1.030298e+001 
3103125000  -4.149691e+001  5.755679e+000 
3106250000  -4.095846e+001  2.663896e-001 
3109375000  -4.095268e+001  -4.739053e+000 
3112500000  -4.103197e+001  -1.302272e+001 
3115625000  -4.080704e+001  -1.626123e+001 
3118750000  -4.073447e+001  -2.243085e+001 
3121875000  -4.017048e+001  -3.431598e+001 
3125000000  -4.200806e+001  -3.900474e+001 
3128125000  -4.209785e+001  -3.052788e+001 
3131250000  -3.947231e+001  -4.027314e+001 
3134375000  -3.894006e+001  -5.916683e+001 
3137500000  -3.933719e+001  -7.092132e+001 
3140625000  -4.090003e+001  -7.592504e+001 
3143750000  -4.163413e+001  -7.927415e+001 
3146875000  -4.119121e+001  -7.837053e+001 
3150000000  -4.038213e+001  -8.359649e+001 
3153125000  -4.085361e+001  -9.349883e+001 
3156250000  -4.138904e+001  -8.958328e+001 
3159375000  -3.912309e+001  -9.246245e+001 
3162500000  -3.772565e+001  -1.094541e+002 
3165625000  -3.887004e+001  -1.239523e+002 
3168750000  -3.904235e+001  -1.251088e+002 
3171875000  -3.862529e+001  -1.333766e+002 
3175000000  -3.918651e+001  -1.440034e+002 
3178125000  -3.867128e+001  -1.468345e+002 
3181250000  -3.800561e+001  -1.573952e+002 
3184375000  -3.789670e+001  -1.672988e+002 
3187500000  -3.887680e+001  1.768527e+002 
3190625000  -4.089927e+001  1.692050e+002 
3193750000  -4.112375e+001  1.732282e+002 
3196875000  -4.119508e+001  1.732259e+002 
3200000000  -3.988968e+001  1.674128e+002 
3203125000  -3.957104e+001  1.587934e+002 
3206250000  -3.980905e+001  1.506779e+002 
3209375000  -3.945503e+001  1.419926e+002 
3212500000  -4.014793e+001  1.345529e+002 
3215625000  -3.951147e+001  1.305897e+002 
3218750000  -4.012582e+001  1.185412e+002 
3221875000  -4.044520e+001  1.116801e+002 
3225000000  -4.046609e+001  1.080654e+002 
3228125000  -4.101939e+001  9.975184e+001 
3231250000  -4.148716e+001  9.508018e+001 
3234375000  -4.094695e+001  9.270966e+001 
3237500000  -4.090517e+001  8.935271e+001 
3240625000  -4.026767e+001  8.236798e+001 
3243750000  -4.040691e+001  7.102126e+001 
3246875000  -4.073286e+001  6.038434e+001 
3250000000  -4.106051e+001  5.673169e+001 
3253125000  -4.113937e+001  5.280066e+001 
3256250000  -4.043153e+001  4.295698e+001 
3259375000  -4.094911e+001  2.900469e+001 
3262500000  -4.226631e+001  2.482275e+001 
3265625000  -4.252123e+001  2.615180e+001 
3268750000  -4.267123e+001  2.545877e+001 
3271875000  -4.162159e+001  1.923904e+001 
3275000000  -4.128046e+001  7.762987e+000 
3278125000  -4.167651e+001  2.627896e+000 
3281250000  -4.181846e+001  -1.626316e+000 
3284375000  -4.101484e+001  -1.020161e+001 
3287500000  -4.154978e+001  -1.710551e+001 
3290625000  -4.166816e+001  -2.833503e+001 
3293750000  -4.156718e+001  -3.571440e+001 
3296875000  -4.268821e+001  -3.917813e+001 
3300000000  -4.190261e+001  -4.020681e+001 
3303125000  -4.087656e+001  -5.068581e+001 
3306250000  -4.086298e+001  -6.098830e+001 
3309375000  -4.054688e+001  -7.169855e+001 
3312500000  -4.125354e+001  -8.702209e+001 
3315625000  -4.258943e+001  -9.460045e+001 
3318750000  -4.407310e+001  -1.049976e+002 
3321875000  -4.520122e+001  -1.013735e+002 
3325000000  -4.456192e+001  -9.576010e+001 
3328125000  -4.430188e+001  -9.981674e+001 
3331250000  -4.260255e+001  -9.845057e+001 
3334375000  -4.002230e+001  -1.184631e+002 
3337500000  -4.075241e+001  -1.412280e+002 
3340625000  -4.248352e+001  -1.494653e+002 
3343750000  -4.419608e+001  -1.534936e+002 
3346875000  -4.426848e+001  -1.594932e+002 
3350000000  -4.342410e+001  -1.618441e+002 
3353125000  -4.342741e+001  -1.709136e+002 
3356250000  -4.296281e+001  1.778651e+002 
3359375000  -4.425098e+001  1.624042e+002 
3362500000  -4.522343e+001  1.565592e+002 
3365625000  -4.566410e+001  1.518639e+002 
3368750000  -4.643236e+001  1.445492e+002 
3371875000  -4.734671e+001  1.389746e+002 
3375000000  -4.854639e+001  1.305405e+002 
3378125000  -4.910916e+001  1.366353e+002 
3381250000  -5.063427e+001  1.443228e+002 
3384375000  -4.710791e+001  1.541648e+002 
3387500000  -4.496802e+001  1.255589e+002 
3390625000  -4.659718e+001  1.055906e+002 
3393750000  -4.782714e+001  1.004072e+002 
3396875000  -4.667949e+001  9.989569e+001 
3400000000  -4.608253e+001  8.674196e+001 
3403125000  -4.656077e+001  8.078741e+001 
3406250000  -4.765965e+001  6.989024e+001 
3409375000  -4.727922e+001  5.766267e+001 
3412500000  -4.840204e+001  5.143236e+001 
3415625000  -4.868268e+001  4.970161e+001 
3418750000  -4.870192e+001  4.217958e+001 
3421875000  -4.878025e+001  4.127105e+001 
3425000000  -4.748124e+001  3.522328e+001 
3428125000  -4.686940e+001  2.710583e+001 
3431250000  -4.683228e+001  1.555247e+001 
3434375000  -4.683352e+001  2.033481e+000 
3437500000  -4.751630e+001  -4.678268e+000 
3440625000  -4.783236e+001  -1.062045e+001 
3443750000  -4.672448e+001  -1.336759e+001 
3446875000  -4.568617e+001  -2.974215e+001 
3450000000  -4.583065e+001  -4.320175e+001 
3453125000  -4.588310e+001  -6.163069e+001 
3456250000  -4.760915e+001  -6.997626e+001 
3459375000  -4.813939e+001  -7.155072e+001 
3462500000  -4.797213e+001  -7.842393e+001 
3465625000  -4.675279e+001  -9.152540e+001 
3468750000  -4.746275e+001  -9.671728e+001 
3471875000  -4.703408e+001  -1.014407e+002 
3475000000  -4.686327e+001  -1.174871e+002 
3478125000  -4.750232e+001  -1.298423e+002 
3481250000  -4.920163e+001  -1.350222e+002 
3484375000  -4.876787e+001  -1.350487e+002 
3487500000  -4.770037e+001  -1.436660e+002 
3490625000  -4.701841e+001  -1.538361e+002 
3493750000  -4.747482e+001  -1.690536e+002 
3496875000  -4.831425e+001  -1.705201e+002 
3500000000  -4.904482e+001  -1.737818e+002 
3503125000  -4.726698e+001  -1.740876e+002 
3506250000  -4.576418e+001  1.713065e+002 
3509375000  -4.589658e+001  1.521626e+002 
3512500000  -4.587109e+001  1.363369e+002 
3515625000  -4.726080e+001  1.288337e+002 
3518750000  -4.803952e+001  1.286288e+002 
3521875000  -4.799528e+001  1.217733e+002 
3525000000  -4.916105e+001  1.129101e+002 
3528125000  -4.750985e+001  1.143882e+002 
3531250000  -4.678947e+001  1.007033e+002 
3534375000  -4.687965e+001  8.685622e+001 
3537500000  -4.811760e+001  7.954269e+001 
3540625000  -4.868435e+001  7.468829e+001 
3543750000  -4.992561e+001  7.720387e+001 
3546875000  -4.858833e+001  8.352535e+001 
3550000000  -4.681707e+001  7.168428e+001 
3553125000  -4.634641e+001  5.245244e+001 
3556250000  -4.732457e+001  4.751643e+001 
3559375000  -4.675909e+001  4.125701e+001 
3562500000  -4.660130e+001  2.856322e+001 
3565625000  -4.769155e+001  2.274131e+001 
3568750000  -4.755391e+001  2.193311e+001 
3571875000  -4.680161e+001  1.703259e+001 
3575000000  -4.715356e+001  9.340608e+000 
3578125000  -4.776097e+001  4.889563e+000 
3581250000  -4.754364e+001  6.043865e+000 
3584375000  -4.659079e+001  -6.446109e+000 
3587500000  -4.522784e+001  -1.748065e+001 
3590625000  -4.651513e+001  -2.811599e+001 
3593750000  -4.815580e+001  -2.657639e+001 
3596875000  -4.635033e+001  -2.064124e+001 
3600000000  -4.491830e+001  -3.399536e+001 
3603125000  -4.532764e+001  -4.968507e+001 
3606250000  -4.615247e+001  -5.867328e+001 
3609375000  -4.617687e+001  -5.905333e+001 
3612500000  -4.574517e+001  -6.834982e+001 
3615625000  -4.612106e+001  -6.969650e+001 
3618750000  -4.608099e+001  -7.347507e+001 
3621875000  -4.522645e+001  -7.826129e+001 
3625000000  -4.557985e+001  -8.468567e+001 
3628125000  -4.493418e+001  -9.084418e+001 
3631250000  -4.470884e+001  -9.783807e+001 
3634375000  -4.534568e+001  -1.005461e+002 
3637500000  -4.448158e+001  -1.024588e+002 
3640625000  -4.403346e+001  -1.097717e+002 
3643750000  -4.335677e+001  -1.203647e+002 
3646875000  -4.406824e+001  -1.293843e+002 
3650000000  -4.370657e+001  -1.387169e+002 
3653125000  -4.323104e+001  -1.443669e+002 
3656250000  -4.414234e+001  -1.493297e+002 
3659375000  -4.407766e+001  -1.548743e+002 
3662500000  -4.369128e+001  -1.630631e+002 
3665625000  -4.325738e+001  -1.657456e+002 
3668750000  -4.217590e+001  -1.694422e+002 
3671875000  -4.152755e+001  1.741951e+002 
3675000000  -4.198751e+001  1.655361e+002 
3678125000  -4.242099e+001  1.596813e+002 
3681250000  -4.247982e+001  1.544445e+002 
3684375000  -4.253566e+001  1.446475e+002 
3687500000  -4.293334e+001  1.386171e+002 
3690625000  -4.352348e+001  1.309146e+002 
3693750000  -4.465744e+001  1.322465e+002 
3696875000  -4.375754e+001  1.261911e+002 
3700000000  -4.302959e+001  1.184743e+002 
3703125000  -4.388368e+001  1.091370e+002 
3706250000  -4.462877e+001  1.082805e+002 
3709375000  -4.393468e+001  1.108613e+002 
3712500000  -4.284015e+001  1.039989e+002 
3715625000  -4.159962e+001  9.541214e+001 
3718750000  -4.174223e+001  8.527423e+001 
3721875000  -4.159902e+001  7.566886e+001 
3725000000  -4.245219e+001  6.746378e+001 
3728125000  -4.249296e+001  6.386232e+001 
3731250000  -4.210751e+001  5.755504e+001 
3734375000  -4.203600e+001  4.827436e+001 
3737500000  -4.281568e+001  4.149273e+001 
3740625000  -4.342465e+001  3.557592e+001 
3743750000  -4.276205e+001  2.905095e+001 
3746875000  -4.331417e+001  2.249836e+001 
3750000000  -4.352332e+001  1.783051e+001 
3753125000  -4.375795e+001  1.593845e+001 
3756250000  -4.324781e+001  1.077808e+001 
3759375000  -4.351725e+001  5.989203e+000 
3762500000  -4.334836e+001  2.563962e+000 
3765625000  -4.399620e+001  -7.384348e+000 
3768750000  -4.353528e+001  -2.908694e+000 
3771875000  -4.208978e+001  -1.127696e+001 
3775000000  -4.218034e+001  -2.194151e+001 
3778125000  -4.270135e+001  -2.841861e+001 
3781250000  -4.258297e+001  -3.032585e+001 
3784375000  -4.221674e+001  -3.785041e+001 
3787500000  -4.228459e+001  -4.377995e+001 
3790625000  -4.294486e+001  -5.271500e+001 
3793750000  -4.271679e+001  -5.638207e+001 
3796875000  -4.173226e+001  -6.216935e+001 
3800000000  -4.047941e+001  -6.912712e+001 
3803125000  -4.146137e+001  -7.962239e+001 
3806250000  -4.247432e+001  -8.591875e+001 
3809375000  -4.196630e+001  -9.049449e+001 
3812500000  -4.202602e+001  -1.002686e+002 
3815625000  -4.313388e+001  -1.133471e+002 
3818750000  -4.438879e+001  -1.102927e+002 
3821875000  -4.359974e+001  -9.948637e+001 
3825000000  -4.146645e+001  -1.081774e+002 
3828125000  -4.052331e+001  -1.267072e+002 
3831250000  -4.177685e+001  -1.443108e+002 
3834375000  -4.324438e+001  -1.415443e+002 
3837500000  -4.379799e+001  -1.388977e+002 
3840625000  -4.224529e+001  -1.455219e+002 
3843750000  -4.143947e+001  -1.603948e+002 
3846875000  -4.345992e+001  -1.684261e+002 
3850000000  -4.454822e+001  -1.616068e+002 
3853125000  -4.364489e+001  -1.654720e+002 
3856250000  -4.276099e+001  -1.747694e+002 
3859375000  -4.223108e+001  1.779137e+002 
3862500000  -4.170302e+001  1.680049e+002 
3865625000  -4.248998e+001  1.615928e+002 
3868750000  -4.240206e+001  1.589025e+002 
3871875000  -4.191893e+001  1.493507e+002 
3875000000  -4.246048e+001  1.413630e+002 
3878125000  -4.315373e+001  1.363986e+002 
3881250000  -4.329839e+001  1.344666e+002 
3884375000  -4.256086e+001  1.266328e+002 
3887500000  -4.343874e+001  1.199435e+002 
3890625000  -4.381798e+001  1.167236e+002 
3893750000  -4.391285e+001  1.153120e+002 
3896875000  -4.412231e+001  1.101769e+002 
3900000000  -4.441369e+001  1.058861e+002 
3903125000  -4.346832e+001  1.004926e+002 
3906250000  -4.307182e+001  9.720393e+001 
3909375000  -4.242953e+001  8.572907e+001 
3912500000  -4.362347e+001  7.997065e+001 
3915625000  -4.469731e+001  7.860417e+001 
3918750000  -4.447158e+001  7.472135e+001 
3921875000  -4.393521e+001  7.142059e+001 
3925000000  -4.277333e+001  6.416641e+001 
3928125000  -4.316849e+001  5.442061e+001 
3931250000  -4.343533e+001  4.772844e+001 
3934375000  -4.410299e+001  4.771260e+001 
3937500000  -4.454841e+001  4.323937e+001 
3940625000  -4.466750e+001  4.298540e+001 
3943750000  -4.331562e+001  3.672184e+001 
3946875000  -4.297379e+001  2.576518e+001 
3950000000  -4.362378e+001  1.656005e+001 
3953125000  -4.429039e+001  1.977689e+001 
3956250000  -4.278430e+001  1.680544e+001 
3959375000  -4.150629e+001  8.317529e+000 
3962500000  -4.157820e+001  1.793210e+000 
3965625000  -4.176693e+001  -1.078561e+001 
3968750000  -4.274573e+001  -1.879108e+001 
3971875000  -4.231859e+001  -2.375232e+001 
3975000000  -4.213874e+001  -2.852260e+001 
3978125000  -4.202845e+001  -3.515198e+001 
3981250000  -4.187983e+001  -4.257405e+001 
3984375000  -4.231822e+001  -5.091136e+001 
3987500000  -4.337135e+001  -5.164812e+001 
3990625000  -4.296835e+001  -5.935969e+001 
3993750000  -4.307346e+001  -6.331143e+001 
3996875000  -4.302827e+001  -7.208742e+001 
4000000000  -4.370870e+001  -7.540036e+001 
4003125000  -4.427349e+001  -7.353943e+001 
4006250000  -4.210654e+001  -8.019781e+001 
4009375000  -4.121014e+001  -9.703083e+001 
4012500000  -4.276481e+001  -1.052503e+002 
4015625000  -4.420879e+001  -1.057270e+002 
4018750000  -4.399674e+001  -1.087642e+002 
4021875000  -4.312440e+001  -1.175621e+002 
4025000000  -4.300057e+001  -1.223117e+002 
4028125000  -4.319827e+001  -1.305129e+002 
4031250000  -4.435261e+001  -1.396019e+002 
4034375000  -4.420597e+001  -1.402936e+002 
4037500000  -4.419667e+001  -1.438551e+002 
4040625000  -4.397925e+001  -1.496915e+002 
4043750000  -4.442352e+001  -1.544833e+002 
4046875000  -4.425146e+001  -1.583991e+002 
4050000000  -4.428745e+001  -1.695192e+002 
4053125000  -4.538535e+001  -1.710132e+002 
4056250000  -4.550808e+001  -1.649483e+002 
4059375000  -4.415384e+001  -1.672360e+002 
4062500000  -4.317596e+001  -1.776677e+002 
4065625000  -4.354280e+001  1.777493e+002 
4068750000  -4.286533e+001  1.698963e+002 
4071875000  -4.252085e+001  1.586883e+002 
4075000000  -4.365558e+001  1.536947e+002 
4078125000  -4.415359e+001  1.482968e+002 
4081250000  -4.319058e+001  1.426773e+002 
4084375000  -4.314447e+001  1.344140e+002 
4087500000  -4.386834e+001  1.271819e+002 
4090625000  -4.462613e+001  1.263721e+002 
4093750000  -4.448399e+001  1.233031e+002 
4096875000  -4.435571e+001  1.126633e+002 
4100000000  -4.536026e+001  1.054151e+002 
4103125000  -4.566954e+001  1.140131e+002 
4106250000  -4.506504e+001  1.101772e+002 
4109375000  -4.407142e+001  1.078243e+002 
4112500000  -4.407733e+001  9.743684e+001 
4115625000  -4.381739e+001  9.286529e+001 
4118750000  -4.390016e+001  8.582214e+001 
4121875000  -4.382955e+001  7.912791e+001 
4125000000  -4.464717e+001  7.216533e+001 
4128125000  -4.517897e+001  7.876588e+001 
4131250000  -4.386381e+001  8.137300e+001 
4134375000  -4.206813e+001  6.792150e+001 
4137500000  -4.248829e+001  4.567375e+001 
4140625000  -4.468896e+001  3.869066e+001 
4143750000  -4.437057e+001  4.258324e+001 
4146875000  -4.393195e+001  4.522071e+001 
4150000000  -4.233761e+001  3.719909e+001 
4153125000  -4.305467e+001  2.495167e+001 
4156250000  -4.408401e+001  2.359366e+001 
4159375000  -4.377920e+001  2.592462e+001 
4162500000  -4.233201e+001  2.485104e+001 
4165625000  -4.145485e+001  1.372715e+001 
4168750000  -4.106331e+001  2.676555e+000 
4171875000  -4.090226e+001  -9.204602e+000 
4175000000  -4.161766e+001  -1.758016e+001 
4178125000  -4.223156e+001  -2.033043e+001 
4181250000  -4.207514e+001  -2.425604e+001 
4184375000  -4.272275e+001  -2.976077e+001 
4187500000  -4.268734e+001  -4.199383e+001 
4190625000  -4.264233e+001  -4.913684e+001 
4193750000  -4.377147e+001  -5.371634e+001 
4196875000  -4.482680e+001  -5.821499e+001 
4200000000  -4.582035e+001  -5.317915e+001 
4203125000  -4.407262e+001  -4.268441e+001 
4206250000  -4.104668e+001  -5.092258e+001 
4209375000  -4.134422e+001  -7.492628e+001 
4212500000  -4.408510e+001  -8.013847e+001 
4215625000  -4.410726e+001  -7.696838e+001 
4218750000  -4.227261e+001  -7.769273e+001 
4221875000  -4.099481e+001  -8.450813e+001 
4225000000  -4.240295e+001  -9.837232e+001 
4228125000  -4.223485e+001  -9.805753e+001 
4231250000  -4.074418e+001  -1.045931e+002 
4234375000  -4.056480e+001  -1.143108e+002 
4237500000  -4.060295e+001  -1.222842e+002 
4240625000  -4.087782e+001  -1.319514e+002 
4243750000  -4.231680e+001  -1.426073e+002 
4246875000  -4.319728e+001  -1.409337e+002 
4250000000  -4.265250e+001  -1.411838e+002 
4253125000  -4.234721e+001  -1.471517e+002 
4256250000  -4.253261e+001  -1.524727e+002 
4259375000  -4.176707e+001  -1.601564e+002 
4262500000  -4.241175e+001  -1.598335e+002 
4265625000  -4.180574e+001  -1.618514e+002 
4268750000  -4.095393e+001  -1.708812e+002 
4271875000  -4.064758e+001  1.798676e+002 
4275000000  -4.014645e+001  1.678713e+002 
4278125000  -4.122071e+001  1.553819e+002 
4281250000  -4.230915e+001  1.533081e+002 
4284375000  -4.248070e+001  1.516191e+002 
4287500000  -4.354986e+001  1.454352e+002 
4290625000  -4.378203e+001  1.553843e+002 
4293750000  -4.164799e+001  1.549140e+002 
4296875000  -4.044795e+001  1.370372e+002 
4300000000  -4.135198e+001  1.283263e+002 
4303125000  -4.199777e+001  1.289203e+002 
4306250000  -4.082492e+001  1.282746e+002 
4309375000  -3.965254e+001  1.183410e+002 
4312500000  -3.992642e+001  1.052510e+002 
4315625000  -3.997385e+001  9.738891e+001 
4318750000  -4.066697e+001  9.174626e+001 
4321875000  -4.061042e+001  8.821119e+001 
4325000000  -3.980010e+001  8.483781e+001 
4328125000  -3.949475e+001  7.413715e+001 
4331250000  -3.980373e+001  6.161866e+001 
4334375000  -4.080467e+001  5.142031e+001 
4337500000  -4.166257e+001  5.159026e+001 
4340625000  -4.206018e+001  5.508619e+001 
4343750000  -4.115106e+001  5.077037e+001 
4346875000  -4.083280e+001  3.605820e+001 
4350000000  -4.107025e+001  2.784303e+001 
4353125000  -4.164906e+001  2.131990e+001 
4356250000  -4.421603e+001  2.295782e+001 
4359375000  -4.299746e+001  3.896662e+001 
4362500000  -3.928616e+001  2.592720e+001 
4365625000  -3.928160e+001  8.781027e+000 
4368750000  -4.038748e+001  -1.840046e+000 
4371875000  -4.107648e+001  -3.702346e+000 
4375000000  -4.061405e+001  -8.800372e+000 
4378125000  -4.027588e+001  -1.852715e+001 
4381250000  -4.059985e+001  -2.350823e+001 
4384375000  -4.059482e+001  -3.229663e+001 
4387500000  -4.142007e+001  -3.874349e+001 
4390625000  -4.184642e+001  -4.317605e+001 
4393750000  -4.151563e+001  -4.470143e+001 
4396875000  -4.109489e+001  -4.894116e+001 
4400000000  -4.079094e+001  -5.714957e+001 
4403125000  -4.154664e+001  -6.684053e+001 
4406250000  -4.180438e+001  -7.231078e+001 
4409375000  -4.274847e+001  -7.912999e+001 
4412500000  -4.395766e+001  -8.054541e+001 
4415625000  -4.305802e+001  -7.586815e+001 
4418750000  -4.176798e+001  -7.725797e+001 
