!Agilent Technologies,E8363B,MY43030201,A.06.04.32
!Agilent E8363B: A.06.04.32
!Date: Tuesday, November 11, 2014 21:44:55
!Correction: S21(Response(S21)) 
!S1P File: Measurement: S21:
# Hz S  dB   R 50
3000000000  -4.354530e+001  -1.604633e+002 
3003125000  -4.509485e+001  -1.658726e+002 
3006250000  -4.506708e+001  -1.677999e+002 
3009375000  -4.611642e+001  -1.642624e+002 
3012500000  -4.489788e+001  -1.706712e+002 
3015625000  -4.494032e+001  -1.768898e+002 
3018750000  -4.524855e+001  -1.767715e+002 
3021875000  -4.390444e+001  -1.782686e+002 
3025000000  -4.257878e+001  1.776727e+002 
3028125000  -4.190896e+001  1.647717e+002 
3031250000  -4.089821e+001  1.526599e+002 
3034375000  -4.075722e+001  1.398302e+002 
3037500000  -4.164277e+001  1.276999e+002 
3040625000  -4.282473e+001  1.224325e+002 
3043750000  -4.326579e+001  1.148974e+002 
3046875000  -4.395655e+001  1.075321e+002 
3050000000  -4.555368e+001  1.039934e+002 
3053125000  -4.471729e+001  1.054773e+002 
3056250000  -4.498110e+001  1.092510e+002 
3059375000  -4.391706e+001  1.043242e+002 
3062500000  -4.224310e+001  1.015599e+002 
3065625000  -4.201570e+001  8.910127e+001 
3068750000  -4.183529e+001  8.319925e+001 
3071875000  -4.172170e+001  8.002467e+001 
3075000000  -4.120472e+001  7.147974e+001 
3078125000  -4.116946e+001  6.360600e+001 
3081250000  -4.134431e+001  5.707390e+001 
3084375000  -4.037358e+001  5.097393e+001 
3087500000  -4.049818e+001  4.443637e+001 
3090625000  -4.010821e+001  3.073736e+001 
3093750000  -4.120607e+001  2.194479e+001 
3096875000  -4.137965e+001  1.710149e+001 
3100000000  -4.118394e+001  1.251066e+001 
3103125000  -4.138955e+001  7.963976e+000 
3106250000  -4.099908e+001  7.910356e-001 
3109375000  -4.094908e+001  -2.499435e+000 
3112500000  -4.082248e+001  -1.085442e+001 
3115625000  -4.081557e+001  -1.422051e+001 
3118750000  -4.085872e+001  -2.117397e+001 
3121875000  -4.030814e+001  -3.350443e+001 
3125000000  -4.201367e+001  -3.433635e+001 
3128125000  -4.184934e+001  -3.005352e+001 
3131250000  -3.951311e+001  -3.783744e+001 
3134375000  -3.894888e+001  -5.612828e+001 
3137500000  -3.954111e+001  -6.897691e+001 
3140625000  -4.106113e+001  -7.387327e+001 
3143750000  -4.156344e+001  -7.724668e+001 
3146875000  -4.110654e+001  -7.686293e+001 
3150000000  -4.054674e+001  -8.160115e+001 
3153125000  -4.078268e+001  -9.082755e+001 
3156250000  -4.123192e+001  -8.731582e+001 
3159375000  -3.932178e+001  -9.095827e+001 
3162500000  -3.774267e+001  -1.086388e+002 
3165625000  -3.913293e+001  -1.220520e+002 
3168750000  -3.894852e+001  -1.236038e+002 
3171875000  -3.855325e+001  -1.329883e+002 
3175000000  -3.909102e+001  -1.421220e+002 
3178125000  -3.868963e+001  -1.454598e+002 
3181250000  -3.819980e+001  -1.538824e+002 
3184375000  -3.793146e+001  -1.657977e+002 
3187500000  -3.922192e+001  1.787077e+002 
3190625000  -4.085356e+001  1.703569e+002 
3193750000  -4.136092e+001  1.750068e+002 
3196875000  -4.099146e+001  1.745028e+002 
3200000000  -4.007172e+001  1.695855e+002 
3203125000  -3.960444e+001  1.606601e+002 
3206250000  -3.978407e+001  1.529966e+002 
3209375000  -3.953938e+001  1.439413e+002 
3212500000  -3.995598e+001  1.366378e+002 
3215625000  -3.972207e+001  1.334333e+002 
3218750000  -4.030548e+001  1.201595e+002 
3221875000  -4.034813e+001  1.142478e+002 
3225000000  -4.046504e+001  1.087398e+002 
3228125000  -4.111277e+001  1.015369e+002 
3231250000  -4.146626e+001  9.938117e+001 
3234375000  -4.110654e+001  9.493842e+001 
3237500000  -4.101889e+001  9.018336e+001 
3240625000  -4.036684e+001  8.301939e+001 
3243750000  -4.043790e+001  7.071004e+001 
3246875000  -4.063754e+001  6.389214e+001 
3250000000  -4.140068e+001  5.836839e+001 
3253125000  -4.126015e+001  5.648146e+001 
3256250000  -4.054813e+001  4.469822e+001 
3259375000  -4.104380e+001  3.147335e+001 
3262500000  -4.246635e+001  2.746483e+001 
3265625000  -4.265900e+001  2.726710e+001 
3268750000  -4.260423e+001  2.704749e+001 
3271875000  -4.182276e+001  2.048210e+001 
3275000000  -4.117340e+001  1.008230e+001 
3278125000  -4.201409e+001  4.698696e+000 
3281250000  -4.197129e+001  -4.064021e-001 
3284375000  -4.117707e+001  -7.438064e+000 
3287500000  -4.155855e+001  -1.649402e+001 
3290625000  -4.166644e+001  -2.837280e+001 
3293750000  -4.154414e+001  -3.519955e+001 
3296875000  -4.253816e+001  -3.792376e+001 
3300000000  -4.202537e+001  -3.928486e+001 
3303125000  -4.103199e+001  -4.894271e+001 
3306250000  -4.077679e+001  -6.016063e+001 
3309375000  -4.084004e+001  -7.147648e+001 
3312500000  -4.123206e+001  -8.598179e+001 
3315625000  -4.252370e+001  -9.473143e+001 
3318750000  -4.391640e+001  -1.009569e+002 
3321875000  -4.561274e+001  -9.958253e+001 
3325000000  -4.483877e+001  -9.504136e+001 
3328125000  -4.415152e+001  -9.580119e+001 
3331250000  -4.252570e+001  -9.856936e+001 
3334375000  -4.018146e+001  -1.173556e+002 
3337500000  -4.099362e+001  -1.404785e+002 
3340625000  -4.305687e+001  -1.515438e+002 
3343750000  -4.476868e+001  -1.545995e+002 
3346875000  -4.406898e+001  -1.574424e+002 
3350000000  -4.373088e+001  -1.632576e+002 
3353125000  -4.387120e+001  -1.694436e+002 
3356250000  -4.331276e+001  1.797670e+002 
3359375000  -4.451833e+001  1.653563e+002 
3362500000  -4.497447e+001  1.578143e+002 
3365625000  -4.562755e+001  1.525181e+002 
3368750000  -4.660918e+001  1.457433e+002 
3371875000  -4.744449e+001  1.410134e+002 
3375000000  -4.844429e+001  1.333607e+002 
3378125000  -4.975481e+001  1.326277e+002 
3381250000  -5.036160e+001  1.465074e+002 
3384375000  -4.696867e+001  1.536278e+002 
3387500000  -4.460812e+001  1.252845e+002 
3390625000  -4.702358e+001  1.068234e+002 
3393750000  -4.760089e+001  1.021750e+002 
3396875000  -4.640160e+001  9.937540e+001 
3400000000  -4.638221e+001  8.558928e+001 
3403125000  -4.734515e+001  8.090919e+001 
3406250000  -4.752832e+001  6.915405e+001 
3409375000  -4.714365e+001  6.157571e+001 
3412500000  -4.781205e+001  5.373704e+001 
3415625000  -4.908657e+001  4.603379e+001 
3418750000  -4.892358e+001  4.211598e+001 
3421875000  -4.960576e+001  4.139730e+001 
3425000000  -4.738984e+001  3.538887e+001 
3428125000  -4.716520e+001  2.567497e+001 
3431250000  -4.694786e+001  1.430755e+001 
3434375000  -4.706030e+001  1.616786e+000 
3437500000  -4.784227e+001  -6.046102e+000 
3440625000  -4.777111e+001  -1.050137e+001 
3443750000  -4.618488e+001  -1.046837e+001 
3446875000  -4.549356e+001  -2.981863e+001 
3450000000  -4.527032e+001  -4.301020e+001 
3453125000  -4.590578e+001  -5.999672e+001 
3456250000  -4.699272e+001  -7.151745e+001 
3459375000  -4.812120e+001  -7.124397e+001 
3462500000  -4.770549e+001  -7.704906e+001 
3465625000  -4.706676e+001  -9.089021e+001 
3468750000  -4.735465e+001  -9.786912e+001 
3471875000  -4.700880e+001  -1.017992e+002 
3475000000  -4.706141e+001  -1.164197e+002 
3478125000  -4.761092e+001  -1.307729e+002 
3481250000  -4.963392e+001  -1.325562e+002 
3484375000  -4.880017e+001  -1.344759e+002 
3487500000  -4.779507e+001  -1.412088e+002 
3490625000  -4.713948e+001  -1.553627e+002 
3493750000  -4.819271e+001  -1.666899e+002 
3496875000  -4.777103e+001  -1.705257e+002 
3500000000  -4.824827e+001  -1.735715e+002 
3503125000  -4.702043e+001  -1.753858e+002 
3506250000  -4.536982e+001  1.710327e+002 
3509375000  -4.561022e+001  1.513002e+002 
3512500000  -4.619293e+001  1.377151e+002 
3515625000  -4.714730e+001  1.306539e+002 
3518750000  -4.760442e+001  1.326158e+002 
3521875000  -4.761045e+001  1.170319e+002 
3525000000  -4.852965e+001  1.148943e+002 
3528125000  -4.734081e+001  1.165619e+002 
3531250000  -4.673387e+001  1.056994e+002 
3534375000  -4.665842e+001  8.779034e+001 
3537500000  -4.763187e+001  8.264873e+001 
3540625000  -4.897601e+001  7.688216e+001 
3543750000  -4.974620e+001  7.991782e+001 
3546875000  -4.884150e+001  8.672908e+001 
3550000000  -4.647379e+001  7.558198e+001 
3553125000  -4.573057e+001  5.629266e+001 
3556250000  -4.736007e+001  4.826067e+001 
3559375000  -4.670955e+001  4.119704e+001 
3562500000  -4.630909e+001  3.575350e+001 
3565625000  -4.727040e+001  2.296590e+001 
3568750000  -4.733696e+001  2.421469e+001 
3571875000  -4.709533e+001  2.101788e+001 
3575000000  -4.706811e+001  1.375401e+001 
3578125000  -4.775007e+001  6.749983e+000 
3581250000  -4.776824e+001  2.858295e+000 
3584375000  -4.579191e+001  -1.039025e+000 
3587500000  -4.592033e+001  -1.283071e+001 
3590625000  -4.622741e+001  -2.292237e+001 
3593750000  -4.807461e+001  -2.534246e+001 
3596875000  -4.695787e+001  -2.085876e+001 
3600000000  -4.471149e+001  -3.136880e+001 
3603125000  -4.486521e+001  -4.442926e+001 
3606250000  -4.589762e+001  -5.209031e+001 
3609375000  -4.596420e+001  -5.727120e+001 
3612500000  -4.596999e+001  -6.438499e+001 
3615625000  -4.586493e+001  -6.771828e+001 
3618750000  -4.629808e+001  -6.902470e+001 
3621875000  -4.548087e+001  -7.534990e+001 
3625000000  -4.587477e+001  -7.861783e+001 
3628125000  -4.480927e+001  -8.701186e+001 
3631250000  -4.497738e+001  -9.612267e+001 
3634375000  -4.553030e+001  -9.604206e+001 
3637500000  -4.448854e+001  -9.926949e+001 
3640625000  -4.356198e+001  -1.061607e+002 
3643750000  -4.301339e+001  -1.190590e+002 
3646875000  -4.387957e+001  -1.271984e+002 
3650000000  -4.378238e+001  -1.330432e+002 
3653125000  -4.333681e+001  -1.427932e+002 
3656250000  -4.424152e+001  -1.471376e+002 
3659375000  -4.400092e+001  -1.506835e+002 
3662500000  -4.323309e+001  -1.575394e+002 
3665625000  -4.368768e+001  -1.624173e+002 
3668750000  -4.224539e+001  -1.681164e+002 
3671875000  -4.139792e+001  1.791947e+002 
3675000000  -4.227998e+001  1.686984e+002 
3678125000  -4.272264e+001  1.632170e+002 
3681250000  -4.224316e+001  1.567230e+002 
3684375000  -4.263824e+001  1.513959e+002 
3687500000  -4.298154e+001  1.405014e+002 
3690625000  -4.359200e+001  1.341733e+002 
3693750000  -4.443253e+001  1.347791e+002 
3696875000  -4.376271e+001  1.284604e+002 
3700000000  -4.301220e+001  1.230479e+002 
3703125000  -4.393377e+001  1.147856e+002 
3706250000  -4.458750e+001  1.107382e+002 
3709375000  -4.380355e+001  1.136540e+002 
3712500000  -4.290660e+001  1.069005e+002 
3715625000  -4.201599e+001  9.654884e+001 
3718750000  -4.170053e+001  8.698732e+001 
3721875000  -4.156561e+001  7.910771e+001 
3725000000  -4.242961e+001  6.884872e+001 
3728125000  -4.241187e+001  6.729185e+001 
3731250000  -4.209491e+001  6.051867e+001 
3734375000  -4.193921e+001  5.303443e+001 
3737500000  -4.266779e+001  4.420150e+001 
3740625000  -4.301624e+001  3.678360e+001 
3743750000  -4.305014e+001  3.132055e+001 
3746875000  -4.348354e+001  2.487871e+001 
3750000000  -4.353310e+001  2.181178e+001 
3753125000  -4.350450e+001  1.828360e+001 
3756250000  -4.418319e+001  1.327056e+001 
3759375000  -4.370609e+001  8.970435e+000 
3762500000  -4.324609e+001  3.940749e+000 
3765625000  -4.426279e+001  -1.572270e+000 
3768750000  -4.347466e+001  -8.616302e-001 
3771875000  -4.224678e+001  -6.631913e+000 
3775000000  -4.206814e+001  -1.959772e+001 
3778125000  -4.292939e+001  -2.262275e+001 
3781250000  -4.265862e+001  -2.801820e+001 
3784375000  -4.240340e+001  -3.467938e+001 
3787500000  -4.202752e+001  -3.910632e+001 
3790625000  -4.262501e+001  -4.940827e+001 
3793750000  -4.266984e+001  -5.364890e+001 
3796875000  -4.155989e+001  -5.711476e+001 
3800000000  -4.055738e+001  -6.489990e+001 
3803125000  -4.172314e+001  -7.704326e+001 
3806250000  -4.252581e+001  -8.319912e+001 
3809375000  -4.153874e+001  -8.588728e+001 
3812500000  -4.191007e+001  -9.610727e+001 
3815625000  -4.287545e+001  -1.113427e+002 
3818750000  -4.438413e+001  -1.085424e+002 
3821875000  -4.372989e+001  -9.653342e+001 
3825000000  -4.144233e+001  -1.038262e+002 
3828125000  -4.034310e+001  -1.249536e+002 
3831250000  -4.157775e+001  -1.398920e+002 
3834375000  -4.378503e+001  -1.405526e+002 
3837500000  -4.428371e+001  -1.342510e+002 
3840625000  -4.254653e+001  -1.427392e+002 
3843750000  -4.175547e+001  -1.568683e+002 
3846875000  -4.333187e+001  -1.649125e+002 
3850000000  -4.414163e+001  -1.587371e+002 
3853125000  -4.343069e+001  -1.614503e+002 
3856250000  -4.265874e+001  -1.694012e+002 
3859375000  -4.225751e+001  -1.758756e+002 
3862500000  -4.247044e+001  1.710594e+002 
3865625000  -4.281291e+001  1.629492e+002 
3868750000  -4.227633e+001  1.646538e+002 
3871875000  -4.195659e+001  1.540391e+002 
3875000000  -4.242387e+001  1.444395e+002 
3878125000  -4.336584e+001  1.405362e+002 
3881250000  -4.325139e+001  1.398136e+002 
3884375000  -4.250767e+001  1.294568e+002 
3887500000  -4.325799e+001  1.212091e+002 
3890625000  -4.402500e+001  1.185843e+002 
3893750000  -4.436808e+001  1.170455e+002 
3896875000  -4.433278e+001  1.129906e+002 
3900000000  -4.449361e+001  1.065672e+002 
3903125000  -4.363568e+001  1.029071e+002 
3906250000  -4.327816e+001  9.899123e+001 
3909375000  -4.253045e+001  8.993420e+001 
3912500000  -4.390643e+001  7.781497e+001 
3915625000  -4.482988e+001  7.949702e+001 
3918750000  -4.446437e+001  7.896683e+001 
3921875000  -4.390693e+001  7.460835e+001 
3925000000  -4.334494e+001  6.813322e+001 
3928125000  -4.314048e+001  5.757698e+001 
3931250000  -4.361490e+001  5.027410e+001 
3934375000  -4.404465e+001  4.817424e+001 
3937500000  -4.441298e+001  4.570565e+001 
3940625000  -4.496174e+001  4.381085e+001 
3943750000  -4.340888e+001  3.797171e+001 
3946875000  -4.304600e+001  3.165487e+001 
3950000000  -4.393499e+001  2.034972e+001 
3953125000  -4.437555e+001  2.202881e+001 
3956250000  -4.289745e+001  2.408978e+001 
3959375000  -4.196779e+001  1.529423e+001 
3962500000  -4.170090e+001  3.288726e+000 
3965625000  -4.210273e+001  -4.959392e+000 
3968750000  -4.248155e+001  -1.291554e+001 
3971875000  -4.243121e+001  -1.928641e+001 
3975000000  -4.215825e+001  -2.444080e+001 
3978125000  -4.221405e+001  -3.044061e+001 
3981250000  -4.222917e+001  -3.668695e+001 
3984375000  -4.270827e+001  -4.726315e+001 
3987500000  -4.316684e+001  -4.912077e+001 
3990625000  -4.309374e+001  -5.462050e+001 
3993750000  -4.321937e+001  -6.054521e+001 
3996875000  -4.286275e+001  -6.856525e+001 
4000000000  -4.349771e+001  -7.107334e+001 
4003125000  -4.394240e+001  -7.206377e+001 
4006250000  -4.197801e+001  -7.927014e+001 
4009375000  -4.140860e+001  -9.493764e+001 
4012500000  -4.322182e+001  -1.025012e+002 
4015625000  -4.395387e+001  -1.026022e+002 
4018750000  -4.379047e+001  -1.032134e+002 
4021875000  -4.292725e+001  -1.121142e+002 
4025000000  -4.294961e+001  -1.211415e+002 
4028125000  -4.375918e+001  -1.284151e+002 
4031250000  -4.409182e+001  -1.341090e+002 
4034375000  -4.424384e+001  -1.375607e+002 
4037500000  -4.439561e+001  -1.423310e+002 
4040625000  -4.420956e+001  -1.442583e+002 
4043750000  -4.485767e+001  -1.496360e+002 
4046875000  -4.413907e+001  -1.568481e+002 
4050000000  -4.471289e+001  -1.648951e+002 
4053125000  -4.527563e+001  -1.673445e+002 
4056250000  -4.561428e+001  -1.612266e+002 
4059375000  -4.403010e+001  -1.651206e+002 
4062500000  -4.356824e+001  -1.741217e+002 
4065625000  -4.394475e+001  -1.789207e+002 
4068750000  -4.323695e+001  1.696489e+002 
4071875000  -4.274071e+001  1.650726e+002 
4075000000  -4.384831e+001  1.542698e+002 
4078125000  -4.437439e+001  1.532178e+002 
4081250000  -4.371682e+001  1.468851e+002 
4084375000  -4.367536e+001  1.382708e+002 
4087500000  -4.480003e+001  1.307757e+002 
4090625000  -4.480951e+001  1.279426e+002 
4093750000  -4.481735e+001  1.232728e+002 
4096875000  -4.447830e+001  1.194714e+002 
4100000000  -4.522702e+001  1.095516e+002 
4103125000  -4.616257e+001  1.147090e+002 
4106250000  -4.550489e+001  1.163678e+002 
4109375000  -4.447588e+001  1.125090e+002 
4112500000  -4.414467e+001  9.961341e+001 
4115625000  -4.482106e+001  9.661100e+001 
4118750000  -4.401894e+001  9.289209e+001 
4121875000  -4.406536e+001  8.425347e+001 
4125000000  -4.465004e+001  7.641247e+001 
4128125000  -4.532775e+001  7.776305e+001 
4131250000  -4.400311e+001  8.528973e+001 
4134375000  -4.191404e+001  7.183236e+001 
4137500000  -4.256461e+001  5.169899e+001 
4140625000  -4.411101e+001  4.356867e+001 
4143750000  -4.509575e+001  4.959889e+001 
4146875000  -4.398169e+001  5.050468e+001 
4150000000  -4.327396e+001  4.136070e+001 
4153125000  -4.349480e+001  3.101521e+001 
4156250000  -4.438668e+001  2.932698e+001 
4159375000  -4.406209e+001  2.810098e+001 
4162500000  -4.249609e+001  2.777234e+001 
4165625000  -4.190503e+001  1.577519e+001 
4168750000  -4.150444e+001  8.643343e+000 
4171875000  -4.129637e+001  -5.217424e+000 
4175000000  -4.245504e+001  -1.284065e+001 
4178125000  -4.285402e+001  -1.561160e+001 
4181250000  -4.222795e+001  -1.997605e+001 
4184375000  -4.279348e+001  -2.841031e+001 
4187500000  -4.268487e+001  -3.648668e+001 
4190625000  -4.303412e+001  -4.628906e+001 
4193750000  -4.435881e+001  -5.070532e+001 
4196875000  -4.520397e+001  -5.113390e+001 
4200000000  -4.680635e+001  -4.787070e+001 
4203125000  -4.459449e+001  -3.550299e+001 
4206250000  -4.113531e+001  -4.877052e+001 
4209375000  -4.175935e+001  -7.058331e+001 
4212500000  -4.426318e+001  -7.516080e+001 
4215625000  -4.480806e+001  -7.262909e+001 
4218750000  -4.231494e+001  -7.280476e+001 
4221875000  -4.148769e+001  -8.275711e+001 
4225000000  -4.216071e+001  -9.239430e+001 
4228125000  -4.246677e+001  -9.316428e+001 
4231250000  -4.142899e+001  -1.019939e+002 
4234375000  -4.118740e+001  -1.122885e+002 
4237500000  -4.115919e+001  -1.174854e+002 
4240625000  -4.137783e+001  -1.285564e+002 
4243750000  -4.252072e+001  -1.392434e+002 
4246875000  -4.360732e+001  -1.366019e+002 
4250000000  -4.292789e+001  -1.364975e+002 
4253125000  -4.332314e+001  -1.413760e+002 
4256250000  -4.257969e+001  -1.448056e+002 
4259375000  -4.244571e+001  -1.521740e+002 
4262500000  -4.238883e+001  -1.580755e+002 
4265625000  -4.233178e+001  -1.559185e+002 
4268750000  -4.159372e+001  -1.687286e+002 
4271875000  -4.124159e+001  -1.767988e+002 
4275000000  -4.036369e+001  1.730472e+002 
4278125000  -4.205254e+001  1.598847e+002 
4281250000  -4.299987e+001  1.585578e+002 
4284375000  -4.244886e+001  1.514450e+002 
4287500000  -4.411457e+001  1.504085e+002 
4290625000  -4.376420e+001  1.612837e+002 
4293750000  -4.185926e+001  1.562599e+002 
4296875000  -4.109116e+001  1.422929e+002 
4300000000  -4.175466e+001  1.320330e+002 
4303125000  -4.192505e+001  1.328802e+002 
4306250000  -4.106587e+001  1.320542e+002 
4309375000  -4.016259e+001  1.232090e+002 
4312500000  -3.984297e+001  1.112088e+002 
4315625000  -4.065907e+001  1.018522e+002 
4318750000  -4.114356e+001  9.551841e+001 
4321875000  -4.141027e+001  9.359554e+001 
4325000000  -4.023610e+001  8.901268e+001 
4328125000  -3.965455e+001  7.852183e+001 
4331250000  -4.010938e+001  6.678355e+001 
4334375000  -4.099561e+001  5.681707e+001 
4337500000  -4.229550e+001  5.443653e+001 
4340625000  -4.240504e+001  5.956479e+001 
4343750000  -4.157189e+001  5.452721e+001 
4346875000  -4.117067e+001  4.414042e+001 
4350000000  -4.130521e+001  3.533276e+001 
4353125000  -4.204026e+001  2.359611e+001 
4356250000  -4.438147e+001  2.736668e+001 
4359375000  -4.360637e+001  4.007730e+001 
4362500000  -4.011078e+001  3.362730e+001 
4365625000  -3.925074e+001  1.355237e+001 
4368750000  -4.070879e+001  2.356874e+000 
4371875000  -4.138001e+001  2.505183e+000 
4375000000  -4.111908e+001  -5.491934e+000 
4378125000  -4.120772e+001  -1.120808e+001 
4381250000  -4.094829e+001  -2.034577e+001 
4384375000  -4.120244e+001  -2.846001e+001 
4387500000  -4.214404e+001  -3.520088e+001 
4390625000  -4.279589e+001  -3.615773e+001 
4393750000  -4.197647e+001  -3.630355e+001 
4396875000  -4.155923e+001  -4.248803e+001 
4400000000  -4.116129e+001  -5.038987e+001 
4403125000  -4.203822e+001  -6.371926e+001 
4406250000  -4.265525e+001  -6.752176e+001 
4409375000  -4.304106e+001  -6.998454e+001 
4412500000  -4.423344e+001  -7.142831e+001 
4415625000  -4.364660e+001  -6.966426e+001 
4418750000  -4.228601e+001  -7.000288e+001 
