!Agilent Technologies,E8363B,MY43030201,A.06.04.32
!Agilent E8363B: A.06.04.32
!Date: Tuesday, November 11, 2014 21:48:47
!Correction: S21(Response(S21)) 
!S1P File: Measurement: S21:
# Hz S  dB   R 50
3000000000  -4.377792e+001  -1.610238e+002 
3003125000  -4.523240e+001  -1.676717e+002 
3006250000  -4.528636e+001  -1.671621e+002 
3009375000  -4.602740e+001  -1.645095e+002 
3012500000  -4.498867e+001  -1.714721e+002 
3015625000  -4.520321e+001  -1.759029e+002 
3018750000  -4.562582e+001  -1.787935e+002 
3021875000  -4.399035e+001  -1.793173e+002 
3025000000  -4.243253e+001  1.774643e+002 
3028125000  -4.173926e+001  1.641385e+002 
3031250000  -4.099150e+001  1.512437e+002 
3034375000  -4.084635e+001  1.374107e+002 
3037500000  -4.168332e+001  1.282095e+002 
3040625000  -4.282018e+001  1.195640e+002 
3043750000  -4.335645e+001  1.124705e+002 
3046875000  -4.419781e+001  1.075843e+002 
3050000000  -4.501818e+001  1.019233e+002 
3053125000  -4.497556e+001  1.068610e+002 
3056250000  -4.467620e+001  1.093934e+002 
3059375000  -4.383252e+001  1.031262e+002 
3062500000  -4.233366e+001  9.886330e+001 
3065625000  -4.212725e+001  8.947089e+001 
3068750000  -4.167605e+001  8.041595e+001 
3071875000  -4.204142e+001  7.899033e+001 
3075000000  -4.105641e+001  7.094065e+001 
3078125000  -4.133672e+001  6.272437e+001 
3081250000  -4.129924e+001  5.676746e+001 
3084375000  -4.044282e+001  5.172260e+001 
3087500000  -4.066638e+001  4.422214e+001 
3090625000  -3.991713e+001  3.064121e+001 
3093750000  -4.095382e+001  2.212727e+001 
3096875000  -4.118304e+001  1.578809e+001 
3100000000  -4.129405e+001  1.148854e+001 
3103125000  -4.147130e+001  7.853222e+000 
3106250000  -4.098288e+001  1.886758e+000 
3109375000  -4.089279e+001  -3.546243e+000 
3112500000  -4.095687e+001  -1.152747e+001 
3115625000  -4.077454e+001  -1.702166e+001 
3118750000  -4.070930e+001  -2.007463e+001 
3121875000  -4.034737e+001  -3.339505e+001 
3125000000  -4.204190e+001  -3.620206e+001 
3128125000  -4.201204e+001  -3.062069e+001 
3131250000  -3.963731e+001  -3.860786e+001 
3134375000  -3.882495e+001  -5.565282e+001 
3137500000  -3.977924e+001  -6.938642e+001 
3140625000  -4.105549e+001  -7.335899e+001 
3143750000  -4.168851e+001  -7.875295e+001 
3146875000  -4.117360e+001  -7.721423e+001 
3150000000  -4.038973e+001  -8.355025e+001 
3153125000  -4.071767e+001  -9.115982e+001 
3156250000  -4.137277e+001  -8.877814e+001 
3159375000  -3.919223e+001  -9.247107e+001 
3162500000  -3.778971e+001  -1.096184e+002 
3165625000  -3.891761e+001  -1.219882e+002 
3168750000  -3.912904e+001  -1.247723e+002 
3171875000  -3.853616e+001  -1.327331e+002 
3175000000  -3.930481e+001  -1.444046e+002 
3178125000  -3.871155e+001  -1.456276e+002 
3181250000  -3.818610e+001  -1.544453e+002 
3184375000  -3.766291e+001  -1.669035e+002 
3187500000  -3.935717e+001  1.770325e+002 
3190625000  -4.095655e+001  1.697080e+002 
3193750000  -4.104873e+001  1.752622e+002 
3196875000  -4.109759e+001  1.759327e+002 
3200000000  -3.975629e+001  1.691460e+002 
3203125000  -3.959820e+001  1.608784e+002 
3206250000  -3.987772e+001  1.518192e+002 
3209375000  -3.932115e+001  1.430101e+002 
3212500000  -3.993988e+001  1.349014e+002 
3215625000  -3.967416e+001  1.335304e+002 
3218750000  -4.020638e+001  1.218054e+002 
3221875000  -4.070715e+001  1.127491e+002 
3225000000  -4.053825e+001  1.082724e+002 
3228125000  -4.112313e+001  1.004029e+002 
3231250000  -4.156056e+001  9.783147e+001 
3234375000  -4.081173e+001  9.409091e+001 
3237500000  -4.096025e+001  8.995731e+001 
3240625000  -4.036399e+001  8.339748e+001 
3243750000  -4.026321e+001  7.111469e+001 
3246875000  -4.068938e+001  6.221841e+001 
3250000000  -4.111066e+001  6.034767e+001 
3253125000  -4.100662e+001  5.433559e+001 
3256250000  -4.046151e+001  4.445518e+001 
3259375000  -4.081341e+001  3.134265e+001 
3262500000  -4.245507e+001  2.709273e+001 
3265625000  -4.263119e+001  2.971014e+001 
3268750000  -4.282598e+001  2.588691e+001 
3271875000  -4.187798e+001  2.100540e+001 
3275000000  -4.100556e+001  1.190306e+001 
3278125000  -4.166822e+001  2.826212e+000 
3281250000  -4.187416e+001  -9.864369e-002 
3284375000  -4.078392e+001  -8.298477e+000 
3287500000  -4.156906e+001  -1.585495e+001 
3290625000  -4.162343e+001  -2.464046e+001 
3293750000  -4.148837e+001  -3.314347e+001 
3296875000  -4.250597e+001  -3.940212e+001 
3300000000  -4.210319e+001  -4.136255e+001 
3303125000  -4.094377e+001  -4.893776e+001 
3306250000  -4.089894e+001  -6.005206e+001 
3309375000  -4.054500e+001  -7.001422e+001 
3312500000  -4.106829e+001  -8.450142e+001 
3315625000  -4.240807e+001  -9.350426e+001 
3318750000  -4.355754e+001  -9.969126e+001 
3321875000  -4.534442e+001  -1.023100e+002 
3325000000  -4.511483e+001  -9.486998e+001 
3328125000  -4.432168e+001  -9.805315e+001 
3331250000  -4.224279e+001  -1.004200e+002 
3334375000  -3.998736e+001  -1.171955e+002 
3337500000  -4.086772e+001  -1.404243e+002 
3340625000  -4.258277e+001  -1.500322e+002 
3343750000  -4.438791e+001  -1.530690e+002 
3346875000  -4.398395e+001  -1.550119e+002 
3350000000  -4.377406e+001  -1.630766e+002 
3353125000  -4.365177e+001  -1.696171e+002 
3356250000  -4.350386e+001  1.779366e+002 
3359375000  -4.434938e+001  1.644011e+002 
3362500000  -4.557938e+001  1.590939e+002 
3365625000  -4.576234e+001  1.521130e+002 
3368750000  -4.640268e+001  1.462277e+002 
3371875000  -4.691754e+001  1.415846e+002 
3375000000  -4.861901e+001  1.321102e+002 
3378125000  -4.918101e+001  1.301981e+002 
3381250000  -5.034151e+001  1.409775e+002 
3384375000  -4.768453e+001  1.511489e+002 
3387500000  -4.510087e+001  1.294160e+002 
3390625000  -4.673885e+001  1.097519e+002 
3393750000  -4.833567e+001  1.049463e+002 
3396875000  -4.639026e+001  1.014185e+002 
3400000000  -4.630469e+001  8.950136e+001 
3403125000  -4.698749e+001  7.838742e+001 
3406250000  -4.687990e+001  7.199854e+001 
3409375000  -4.717355e+001  6.176858e+001 
3412500000  -4.782961e+001  5.390693e+001 
3415625000  -4.873269e+001  4.890855e+001 
3418750000  -4.881845e+001  4.465880e+001 
3421875000  -4.884488e+001  4.143040e+001 
3425000000  -4.797181e+001  3.628373e+001 
3428125000  -4.705716e+001  2.914716e+001 
3431250000  -4.711436e+001  1.572093e+001 
3434375000  -4.711591e+001  2.407681e-001 
3437500000  -4.785276e+001  -4.336598e+000 
3440625000  -4.831479e+001  -6.637415e+000 
3443750000  -4.646417e+001  -1.343408e+001 
3446875000  -4.578499e+001  -2.525200e+001 
3450000000  -4.504287e+001  -4.151066e+001 
3453125000  -4.592879e+001  -5.972265e+001 
3456250000  -4.714637e+001  -7.161981e+001 
3459375000  -4.828631e+001  -7.075375e+001 
3462500000  -4.800669e+001  -7.977792e+001 
3465625000  -4.740342e+001  -8.881569e+001 
3468750000  -4.766922e+001  -9.615042e+001 
3471875000  -4.684883e+001  -1.056660e+002 
3475000000  -4.677932e+001  -1.149216e+002 
3478125000  -4.782449e+001  -1.277648e+002 
3481250000  -4.930850e+001  -1.320240e+002 
3484375000  -4.842047e+001  -1.333340e+002 
3487500000  -4.773106e+001  -1.404636e+002 
3490625000  -4.742883e+001  -1.551416e+002 
3493750000  -4.777645e+001  -1.652203e+002 
3496875000  -4.821265e+001  -1.700334e+002 
3500000000  -4.877834e+001  -1.718367e+002 
3503125000  -4.730814e+001  -1.737462e+002 
3506250000  -4.594512e+001  1.717717e+002 
3509375000  -4.546706e+001  1.520541e+002 
3512500000  -4.590281e+001  1.363736e+002 
3515625000  -4.734644e+001  1.335140e+002 
3518750000  -4.776776e+001  1.327626e+002 
3521875000  -4.811623e+001  1.174293e+002 
3525000000  -4.895351e+001  1.180937e+002 
3528125000  -4.736241e+001  1.154064e+002 
3531250000  -4.681277e+001  1.041251e+002 
3534375000  -4.736198e+001  8.736880e+001 
3537500000  -4.798595e+001  7.824756e+001 
3540625000  -4.947483e+001  7.762762e+001 
3543750000  -4.900515e+001  7.743221e+001 
3546875000  -4.860022e+001  8.310219e+001 
3550000000  -4.672808e+001  7.509761e+001 
3553125000  -4.564907e+001  5.507676e+001 
3556250000  -4.733810e+001  4.414008e+001 
3559375000  -4.663095e+001  4.107471e+001 
3562500000  -4.662310e+001  2.927392e+001 
3565625000  -4.776836e+001  2.298292e+001 
3568750000  -4.805860e+001  2.705391e+001 
3571875000  -4.751393e+001  1.805354e+001 
3575000000  -4.666605e+001  1.097780e+001 
3578125000  -4.782869e+001  9.340906e+000 
3581250000  -4.761566e+001  3.320197e+000 
3584375000  -4.570299e+001  -4.584282e+000 
3587500000  -4.551513e+001  -1.317483e+001 
3590625000  -4.649313e+001  -2.465174e+001 
3593750000  -4.775036e+001  -3.126834e+001 
3596875000  -4.683437e+001  -2.263829e+001 
3600000000  -4.473078e+001  -3.146818e+001 
3603125000  -4.520504e+001  -4.763178e+001 
3606250000  -4.616109e+001  -5.661025e+001 
3609375000  -4.591211e+001  -5.871419e+001 
3612500000  -4.643575e+001  -6.567274e+001 
3615625000  -4.615207e+001  -6.836626e+001 
3618750000  -4.618861e+001  -7.098791e+001 
3621875000  -4.535732e+001  -7.799699e+001 
3625000000  -4.543005e+001  -8.330354e+001 
3628125000  -4.460191e+001  -8.840089e+001 
3631250000  -4.503773e+001  -9.723797e+001 
3634375000  -4.570660e+001  -1.008457e+002 
3637500000  -4.434220e+001  -1.027034e+002 
3640625000  -4.396236e+001  -1.090274e+002 
3643750000  -4.348696e+001  -1.180810e+002 
3646875000  -4.392990e+001  -1.304321e+002 
3650000000  -4.360019e+001  -1.350671e+002 
3653125000  -4.338198e+001  -1.429906e+002 
3656250000  -4.416737e+001  -1.496675e+002 
3659375000  -4.407597e+001  -1.535375e+002 
3662500000  -4.356001e+001  -1.614228e+002 
3665625000  -4.310316e+001  -1.647691e+002 
3668750000  -4.175531e+001  -1.670304e+002 
3671875000  -4.161083e+001  1.781055e+002 
3675000000  -4.216898e+001  1.659241e+002 
3678125000  -4.251385e+001  1.604545e+002 
3681250000  -4.257463e+001  1.569996e+002 
3684375000  -4.252372e+001  1.482892e+002 
3687500000  -4.290141e+001  1.400865e+002 
3690625000  -4.321005e+001  1.340208e+002 
3693750000  -4.435871e+001  1.309621e+002 
3696875000  -4.343678e+001  1.289885e+002 
3700000000  -4.310270e+001  1.211090e+002 
3703125000  -4.367958e+001  1.137079e+002 
3706250000  -4.440955e+001  1.128009e+002 
3709375000  -4.385625e+001  1.114934e+002 
3712500000  -4.290064e+001  1.051793e+002 
3715625000  -4.155585e+001  9.514437e+001 
3718750000  -4.173084e+001  8.624300e+001 
3721875000  -4.169236e+001  7.503828e+001 
3725000000  -4.229673e+001  6.853320e+001 
3728125000  -4.225932e+001  6.558195e+001 
3731250000  -4.201656e+001  5.831360e+001 
3734375000  -4.189007e+001  5.103934e+001 
3737500000  -4.298429e+001  4.236767e+001 
3740625000  -4.326767e+001  3.733213e+001 
3743750000  -4.268282e+001  3.063647e+001 
3746875000  -4.347832e+001  2.391965e+001 
3750000000  -4.369729e+001  2.297179e+001 
3753125000  -4.374327e+001  1.691477e+001 
3756250000  -4.359356e+001  1.416695e+001 
3759375000  -4.374173e+001  8.170503e+000 
3762500000  -4.322081e+001  5.629556e+000 
3765625000  -4.417186e+001  -2.005733e+000 
3768750000  -4.320959e+001  -1.335703e+000 
3771875000  -4.210661e+001  -8.142361e+000 
3775000000  -4.234778e+001  -2.048272e+001 
3778125000  -4.268828e+001  -2.472034e+001 
3781250000  -4.303673e+001  -3.084607e+001 
3784375000  -4.238660e+001  -3.645113e+001 
3787500000  -4.226430e+001  -4.046389e+001 
3790625000  -4.308838e+001  -5.182948e+001 
3793750000  -4.232497e+001  -5.628745e+001 
3796875000  -4.183046e+001  -6.044112e+001 
3800000000  -4.084752e+001  -6.749596e+001 
3803125000  -4.150401e+001  -7.984381e+001 
3806250000  -4.236844e+001  -8.463318e+001 
3809375000  -4.166457e+001  -8.806516e+001 
3812500000  -4.166582e+001  -1.012796e+002 
3815625000  -4.286624e+001  -1.087999e+002 
3818750000  -4.463291e+001  -1.091703e+002 
3821875000  -4.322959e+001  -9.832160e+001 
3825000000  -4.111055e+001  -1.058747e+002 
3828125000  -4.034703e+001  -1.255388e+002 
3831250000  -4.145850e+001  -1.425809e+002 
3834375000  -4.378518e+001  -1.408198e+002 
3837500000  -4.381971e+001  -1.374315e+002 
3840625000  -4.249947e+001  -1.458199e+002 
3843750000  -4.158331e+001  -1.602247e+002 
3846875000  -4.345573e+001  -1.685173e+002 
3850000000  -4.419209e+001  -1.607881e+002 
3853125000  -4.354612e+001  -1.639340e+002 
3856250000  -4.307973e+001  -1.707289e+002 
3859375000  -4.215852e+001  -1.787700e+002 
3862500000  -4.227289e+001  1.696845e+002 
3865625000  -4.291412e+001  1.640044e+002 
3868750000  -4.220300e+001  1.629960e+002 
3871875000  -4.169534e+001  1.533918e+002 
3875000000  -4.245457e+001  1.435449e+002 
3878125000  -4.337377e+001  1.403602e+002 
3881250000  -4.301031e+001  1.378312e+002 
3884375000  -4.254449e+001  1.260353e+002 
3887500000  -4.339045e+001  1.212718e+002 
3890625000  -4.415609e+001  1.175512e+002 
3893750000  -4.399304e+001  1.157104e+002 
3896875000  -4.407830e+001  1.139219e+002 
3900000000  -4.408058e+001  1.055004e+002 
3903125000  -4.336751e+001  1.015990e+002 
3906250000  -4.346097e+001  9.634614e+001 
3909375000  -4.284517e+001  8.767077e+001 
3912500000  -4.391568e+001  7.888024e+001 
3915625000  -4.455898e+001  8.000230e+001 
3918750000  -4.441096e+001  7.826074e+001 
3921875000  -4.342059e+001  7.109108e+001 
3925000000  -4.254427e+001  6.789956e+001 
3928125000  -4.274950e+001  5.415570e+001 
3931250000  -4.408023e+001  4.894044e+001 
3934375000  -4.446815e+001  4.807928e+001 
3937500000  -4.462314e+001  4.410088e+001 
3940625000  -4.407619e+001  4.305041e+001 
3943750000  -4.299349e+001  3.698455e+001 
3946875000  -4.258200e+001  2.882295e+001 
3950000000  -4.368139e+001  1.803195e+001 
3953125000  -4.441309e+001  2.124164e+001 
3956250000  -4.286445e+001  2.059588e+001 
3959375000  -4.162508e+001  1.302563e+001 
3962500000  -4.139622e+001  1.486406e+000 
3965625000  -4.218593e+001  -8.766603e+000 
3968750000  -4.253228e+001  -1.815401e+001 
3971875000  -4.274942e+001  -2.292687e+001 
3975000000  -4.200449e+001  -2.396154e+001 
3978125000  -4.221252e+001  -3.607932e+001 
3981250000  -4.204704e+001  -4.004437e+001 
3984375000  -4.207468e+001  -4.875657e+001 
3987500000  -4.314408e+001  -5.420195e+001 
3990625000  -4.293462e+001  -5.671073e+001 
3993750000  -4.287563e+001  -6.120944e+001 
3996875000  -4.290846e+001  -6.873055e+001 
4000000000  -4.352592e+001  -7.453667e+001 
4003125000  -4.416767e+001  -7.147247e+001 
4006250000  -4.166864e+001  -7.850536e+001 
4009375000  -4.129980e+001  -9.483517e+001 
4012500000  -4.322195e+001  -1.023203e+002 
4015625000  -4.395047e+001  -1.035270e+002 
4018750000  -4.390396e+001  -1.079468e+002 
4021875000  -4.306537e+001  -1.148985e+002 
4025000000  -4.303257e+001  -1.222703e+002 
4028125000  -4.317184e+001  -1.298165e+002 
4031250000  -4.389115e+001  -1.363870e+002 
4034375000  -4.428019e+001  -1.400449e+002 
4037500000  -4.425356e+001  -1.418810e+002 
4040625000  -4.425724e+001  -1.461339e+002 
4043750000  -4.463797e+001  -1.523876e+002 
4046875000  -4.444193e+001  -1.560417e+002 
4050000000  -4.400179e+001  -1.610874e+002 
4053125000  -4.513895e+001  -1.676100e+002 
4056250000  -4.598624e+001  -1.615052e+002 
4059375000  -4.421124e+001  -1.667147e+002 
4062500000  -4.337814e+001  -1.734765e+002 
4065625000  -4.344340e+001  -1.780836e+002 
4068750000  -4.329205e+001  1.732121e+002 
4071875000  -4.243891e+001  1.625173e+002 
4075000000  -4.387579e+001  1.546135e+002 
4078125000  -4.372236e+001  1.498703e+002 
4081250000  -4.374271e+001  1.468908e+002 
4084375000  -4.315351e+001  1.383986e+002 
4087500000  -4.386508e+001  1.290674e+002 
4090625000  -4.457951e+001  1.291543e+002 
4093750000  -4.467181e+001  1.247091e+002 
4096875000  -4.445947e+001  1.167947e+002 
4100000000  -4.508578e+001  1.088925e+002 
4103125000  -4.577262e+001  1.132845e+002 
4106250000  -4.505291e+001  1.130245e+002 
4109375000  -4.414947e+001  1.084412e+002 
4112500000  -4.381289e+001  1.023285e+002 
4115625000  -4.422798e+001  9.329007e+001 
4118750000  -4.370364e+001  8.893956e+001 
4121875000  -4.364005e+001  8.216513e+001 
4125000000  -4.448038e+001  7.824971e+001 
4128125000  -4.504496e+001  7.902995e+001 
4131250000  -4.381179e+001  8.300948e+001 
4134375000  -4.154251e+001  7.157166e+001 
4137500000  -4.229731e+001  5.004258e+001 
4140625000  -4.419353e+001  4.502298e+001 
4143750000  -4.483134e+001  5.344314e+001 
4146875000  -4.445934e+001  5.078455e+001 
4150000000  -4.275650e+001  4.064399e+001 
4153125000  -4.317661e+001  3.135914e+001 
4156250000  -4.390822e+001  2.669398e+001 
4159375000  -4.361125e+001  2.988644e+001 
4162500000  -4.238935e+001  2.733692e+001 
4165625000  -4.114639e+001  1.789658e+001 
4168750000  -4.129803e+001  7.232591e+000 
4171875000  -4.132019e+001  -7.553175e+000 
4175000000  -4.178856e+001  -1.493180e+001 
4178125000  -4.226258e+001  -1.660667e+001 
4181250000  -4.222741e+001  -2.396746e+001 
4184375000  -4.241070e+001  -2.981242e+001 
4187500000  -4.235637e+001  -3.461663e+001 
4190625000  -4.233559e+001  -4.419619e+001 
4193750000  -4.363313e+001  -5.081927e+001 
4196875000  -4.477139e+001  -5.385733e+001 
4200000000  -4.587862e+001  -4.825986e+001 
4203125000  -4.410567e+001  -3.472105e+001 
4206250000  -4.118328e+001  -5.014035e+001 
4209375000  -4.116637e+001  -7.281981e+001 
4212500000  -4.398615e+001  -7.877021e+001 
4215625000  -4.399788e+001  -7.109272e+001 
4218750000  -4.194026e+001  -7.538021e+001 
4221875000  -4.104079e+001  -8.332925e+001 
4225000000  -4.202241e+001  -9.673608e+001 
4228125000  -4.184005e+001  -9.473608e+001 
4231250000  -4.108165e+001  -1.024228e+002 
4234375000  -4.069203e+001  -1.138225e+002 
4237500000  -4.088534e+001  -1.196335e+002 
4240625000  -4.093779e+001  -1.314576e+002 
4243750000  -4.227875e+001  -1.408913e+002 
4246875000  -4.278670e+001  -1.404972e+002 
4250000000  -4.254094e+001  -1.388798e+002 
4253125000  -4.270018e+001  -1.428849e+002 
4256250000  -4.231935e+001  -1.511019e+002 
4259375000  -4.208478e+001  -1.526007e+002 
4262500000  -4.243523e+001  -1.602951e+002 
4265625000  -4.173352e+001  -1.635513e+002 
4268750000  -4.074226e+001  -1.704310e+002 
4271875000  -4.066099e+001  1.798626e+002 
4275000000  -4.037048e+001  1.692248e+002 
4278125000  -4.122181e+001  1.586561e+002 
4281250000  -4.260458e+001  1.546139e+002 
4284375000  -4.236665e+001  1.525503e+002 
4287500000  -4.372525e+001  1.495718e+002 
4290625000  -4.379070e+001  1.546805e+002 
4293750000  -4.171337e+001  1.544281e+002 
4296875000  -4.031278e+001  1.415029e+002 
4300000000  -4.126556e+001  1.293102e+002 
4303125000  -4.217175e+001  1.305511e+002 
4306250000  -4.064414e+001  1.311790e+002 
4309375000  -3.969765e+001  1.194267e+002 
4312500000  -3.966750e+001  1.065515e+002 
4315625000  -4.024519e+001  9.840759e+001 
4318750000  -4.087412e+001  9.299502e+001 
4321875000  -4.061450e+001  9.112654e+001 
4325000000  -4.029000e+001  8.818216e+001 
4328125000  -3.950026e+001  7.461617e+001 
4331250000  -3.971550e+001  6.447281e+001 
4334375000  -4.072684e+001  5.319319e+001 
4337500000  -4.202487e+001  5.162627e+001 
4340625000  -4.173582e+001  5.617480e+001 
4343750000  -4.092112e+001  5.100057e+001 
4346875000  -4.097570e+001  4.102843e+001 
4350000000  -4.101201e+001  3.199497e+001 
4353125000  -4.215721e+001  2.476650e+001 
4356250000  -4.414157e+001  2.436236e+001 
4359375000  -4.297427e+001  4.005184e+001 
4362500000  -3.940792e+001  2.870876e+001 
4365625000  -3.890951e+001  1.196488e+001 
4368750000  -4.018242e+001  -1.593158e-001 
4371875000  -4.124137e+001  -4.072874e-001 
4375000000  -4.041700e+001  -7.020182e+000 
4378125000  -4.036508e+001  -1.285060e+001 
4381250000  -4.051760e+001  -2.432026e+001 
4384375000  -4.056192e+001  -3.030487e+001 
4387500000  -4.146742e+001  -4.023582e+001 
4390625000  -4.199764e+001  -3.939520e+001 
4393750000  -4.186898e+001  -3.936641e+001 
4396875000  -4.122422e+001  -4.643172e+001 
4400000000  -4.076749e+001  -5.574616e+001 
4403125000  -4.128090e+001  -6.662370e+001 
4406250000  -4.203659e+001  -6.877391e+001 
4409375000  -4.212948e+001  -7.222855e+001 
4412500000  -4.346707e+001  -7.403200e+001 
4415625000  -4.292423e+001  -7.401431e+001 
4418750000  -4.188933e+001  -7.331780e+001 
