!Agilent Technologies,E8363B,MY43030201,A.06.04.32
!Agilent E8363B: A.06.04.32
!Date: Tuesday, November 11, 2014 21:49:07
!Correction: S21(Response(S21)) 
!S1P File: Measurement: S21:
# Hz S  dB   R 50
3000000000  -4.367515e+001  -1.624453e+002 
3003125000  -4.527619e+001  -1.676226e+002 
3006250000  -4.540863e+001  -1.686727e+002 
3009375000  -4.657838e+001  -1.647044e+002 
3012500000  -4.490777e+001  -1.701705e+002 
3015625000  -4.499860e+001  -1.787375e+002 
3018750000  -4.537027e+001  -1.788787e+002 
3021875000  -4.395153e+001  -1.780038e+002 
3025000000  -4.248488e+001  1.769657e+002 
3028125000  -4.178731e+001  1.652384e+002 
3031250000  -4.088809e+001  1.508744e+002 
3034375000  -4.085356e+001  1.371798e+002 
3037500000  -4.155717e+001  1.261600e+002 
3040625000  -4.293611e+001  1.199995e+002 
3043750000  -4.333892e+001  1.141687e+002 
3046875000  -4.416631e+001  1.067066e+002 
3050000000  -4.517926e+001  1.022387e+002 
3053125000  -4.473046e+001  1.076764e+002 
3056250000  -4.481590e+001  1.095492e+002 
3059375000  -4.387599e+001  1.060978e+002 
3062500000  -4.251666e+001  1.001612e+002 
3065625000  -4.217119e+001  8.895920e+001 
3068750000  -4.192926e+001  8.191873e+001 
3071875000  -4.192550e+001  7.903692e+001 
3075000000  -4.130494e+001  7.112888e+001 
3078125000  -4.126702e+001  6.414780e+001 
3081250000  -4.148080e+001  5.636343e+001 
3084375000  -4.041174e+001  5.083415e+001 
3087500000  -4.059723e+001  4.286279e+001 
3090625000  -4.002113e+001  3.067532e+001 
3093750000  -4.100521e+001  2.181732e+001 
3096875000  -4.116463e+001  1.654250e+001 
3100000000  -4.096717e+001  1.196674e+001 
3103125000  -4.118042e+001  6.929133e+000 
3106250000  -4.121349e+001  1.532909e+000 
3109375000  -4.116425e+001  -3.926803e+000 
3112500000  -4.073652e+001  -1.006548e+001 
3115625000  -4.080052e+001  -1.601493e+001 
3118750000  -4.062346e+001  -2.045686e+001 
3121875000  -4.026705e+001  -3.188596e+001 
3125000000  -4.201738e+001  -3.644578e+001 
3128125000  -4.207605e+001  -3.197102e+001 
3131250000  -3.948291e+001  -3.911537e+001 
3134375000  -3.898257e+001  -5.661892e+001 
3137500000  -3.936357e+001  -6.996381e+001 
3140625000  -4.070939e+001  -7.362537e+001 
3143750000  -4.145437e+001  -7.915521e+001 
3146875000  -4.108804e+001  -7.641932e+001 
3150000000  -4.049036e+001  -8.289742e+001 
3153125000  -4.080537e+001  -9.061343e+001 
3156250000  -4.144670e+001  -8.921062e+001 
3159375000  -3.928796e+001  -9.216798e+001 
3162500000  -3.782835e+001  -1.080958e+002 
3165625000  -3.911555e+001  -1.228897e+002 
3168750000  -3.885611e+001  -1.255199e+002 
3171875000  -3.846380e+001  -1.329024e+002 
3175000000  -3.913050e+001  -1.424119e+002 
3178125000  -3.868750e+001  -1.454561e+002 
3181250000  -3.820061e+001  -1.546037e+002 
3184375000  -3.792910e+001  -1.670024e+002 
3187500000  -3.909587e+001  1.780733e+002 
3190625000  -4.090153e+001  1.707927e+002 
3193750000  -4.124579e+001  1.747533e+002 
3196875000  -4.114467e+001  1.746712e+002 
3200000000  -3.997016e+001  1.694470e+002 
3203125000  -3.971816e+001  1.603662e+002 
3206250000  -3.992990e+001  1.524079e+002 
3209375000  -3.947012e+001  1.440782e+002 
3212500000  -3.982343e+001  1.367050e+002 
3215625000  -3.947036e+001  1.327972e+002 
3218750000  -4.038324e+001  1.204300e+002 
3221875000  -4.051311e+001  1.133516e+002 
3225000000  -4.033054e+001  1.094963e+002 
3228125000  -4.133964e+001  1.006147e+002 
3231250000  -4.137539e+001  9.718689e+001 
3234375000  -4.101513e+001  9.366309e+001 
3237500000  -4.093146e+001  9.018788e+001 
3240625000  -4.032903e+001  8.167788e+001 
3243750000  -4.043373e+001  7.177228e+001 
3246875000  -4.062177e+001  6.319617e+001 
3250000000  -4.115141e+001  5.828135e+001 
3253125000  -4.116389e+001  5.372039e+001 
3256250000  -4.037461e+001  4.391215e+001 
3259375000  -4.086807e+001  3.070243e+001 
3262500000  -4.215232e+001  2.644960e+001 
3265625000  -4.260995e+001  2.781388e+001 
3268750000  -4.252002e+001  2.734541e+001 
3271875000  -4.185406e+001  2.084128e+001 
3275000000  -4.104111e+001  1.023156e+001 
3278125000  -4.170632e+001  4.491120e+000 
3281250000  -4.176815e+001  2.803749e-001 
3284375000  -4.122826e+001  -8.317672e+000 
3287500000  -4.156926e+001  -1.555903e+001 
3290625000  -4.162555e+001  -2.736753e+001 
3293750000  -4.150168e+001  -3.424707e+001 
3296875000  -4.278816e+001  -3.804718e+001 
3300000000  -4.205950e+001  -4.042525e+001 
3303125000  -4.101203e+001  -5.001059e+001 
3306250000  -4.080956e+001  -5.972752e+001 
3309375000  -4.074345e+001  -7.091878e+001 
3312500000  -4.109148e+001  -8.668959e+001 
3315625000  -4.252880e+001  -9.603185e+001 
3318750000  -4.388008e+001  -1.003474e+002 
3321875000  -4.518987e+001  -9.795264e+001 
3325000000  -4.512473e+001  -9.561433e+001 
3328125000  -4.406247e+001  -1.000073e+002 
3331250000  -4.285282e+001  -9.870386e+001 
3334375000  -4.011192e+001  -1.169183e+002 
3337500000  -4.060287e+001  -1.408183e+002 
3340625000  -4.279613e+001  -1.512513e+002 
3343750000  -4.422244e+001  -1.513977e+002 
3346875000  -4.403753e+001  -1.556855e+002 
3350000000  -4.357905e+001  -1.602235e+002 
3353125000  -4.362949e+001  -1.700347e+002 
3356250000  -4.321764e+001  -1.798650e+002 
3359375000  -4.406307e+001  1.648398e+002 
3362500000  -4.552313e+001  1.564525e+002 
3365625000  -4.570503e+001  1.529276e+002 
3368750000  -4.619059e+001  1.477018e+002 
3371875000  -4.690955e+001  1.398914e+002 
3375000000  -4.873354e+001  1.318851e+002 
3378125000  -4.943231e+001  1.295544e+002 
3381250000  -5.083575e+001  1.424384e+002 
3384375000  -4.754257e+001  1.498656e+002 
3387500000  -4.499797e+001  1.282411e+002 
3390625000  -4.719385e+001  1.087991e+002 
3393750000  -4.794924e+001  1.064695e+002 
3396875000  -4.596350e+001  1.013035e+002 
3400000000  -4.633730e+001  8.776492e+001 
3403125000  -4.657764e+001  8.088161e+001 
3406250000  -4.747459e+001  7.188829e+001 
3409375000  -4.708756e+001  6.060039e+001 
3412500000  -4.821588e+001  5.476270e+001 
3415625000  -4.908809e+001  4.904815e+001 
3418750000  -4.885822e+001  4.304947e+001 
3421875000  -4.903219e+001  4.068766e+001 
3425000000  -4.752645e+001  3.493966e+001 
3428125000  -4.752949e+001  2.779305e+001 
3431250000  -4.694141e+001  1.562155e+001 
3434375000  -4.696994e+001  3.184560e+000 
3437500000  -4.786790e+001  -7.281317e+000 
3440625000  -4.743012e+001  -8.438304e+000 
3443750000  -4.628152e+001  -1.447899e+001 
3446875000  -4.560394e+001  -2.886523e+001 
3450000000  -4.542184e+001  -4.325887e+001 
3453125000  -4.580801e+001  -5.869224e+001 
3456250000  -4.772320e+001  -7.048270e+001 
3459375000  -4.807399e+001  -7.522266e+001 
3462500000  -4.766761e+001  -7.864087e+001 
3465625000  -4.739687e+001  -8.822812e+001 
3468750000  -4.723527e+001  -9.620846e+001 
3471875000  -4.681180e+001  -1.013561e+002 
3475000000  -4.691470e+001  -1.162092e+002 
3478125000  -4.770024e+001  -1.304944e+002 
3481250000  -4.869536e+001  -1.355746e+002 
3484375000  -4.848267e+001  -1.342418e+002 
3487500000  -4.704989e+001  -1.412545e+002 
3490625000  -4.721606e+001  -1.527430e+002 
3493750000  -4.756296e+001  -1.650785e+002 
3496875000  -4.819383e+001  -1.696393e+002 
3500000000  -4.852662e+001  -1.732842e+002 
3503125000  -4.662053e+001  -1.772748e+002 
3506250000  -4.569194e+001  1.703845e+002 
3509375000  -4.512612e+001  1.513355e+002 
3512500000  -4.608125e+001  1.410310e+002 
3515625000  -4.675830e+001  1.312606e+002 
3518750000  -4.815036e+001  1.278145e+002 
3521875000  -4.778178e+001  1.180758e+002 
3525000000  -4.842576e+001  1.148683e+002 
3528125000  -4.823902e+001  1.168093e+002 
3531250000  -4.659430e+001  1.031003e+002 
3534375000  -4.732214e+001  8.665590e+001 
3537500000  -4.828203e+001  7.918527e+001 
3540625000  -4.887873e+001  7.672052e+001 
3543750000  -4.922908e+001  7.625777e+001 
3546875000  -4.866923e+001  8.237170e+001 
3550000000  -4.630961e+001  7.523352e+001 
3553125000  -4.640559e+001  5.166331e+001 
3556250000  -4.724976e+001  4.670413e+001 
3559375000  -4.636602e+001  4.189250e+001 
3562500000  -4.646299e+001  3.527313e+001 
3565625000  -4.749393e+001  2.558347e+001 
3568750000  -4.802953e+001  2.423289e+001 
3571875000  -4.736781e+001  2.105329e+001 
3575000000  -4.720601e+001  1.180079e+001 
3578125000  -4.772535e+001  6.218621e+000 
3581250000  -4.774066e+001  2.640873e+000 
3584375000  -4.569080e+001  1.804678e-001 
3587500000  -4.544246e+001  -1.624297e+001 
3590625000  -4.613765e+001  -2.628677e+001 
3593750000  -4.813002e+001  -2.664862e+001 
3596875000  -4.669139e+001  -2.254932e+001 
3600000000  -4.480089e+001  -3.115409e+001 
3603125000  -4.535546e+001  -5.203344e+001 
3606250000  -4.583675e+001  -5.505121e+001 
3609375000  -4.612398e+001  -5.768213e+001 
3612500000  -4.621777e+001  -6.361781e+001 
3615625000  -4.615703e+001  -6.873096e+001 
3618750000  -4.599972e+001  -7.224628e+001 
3621875000  -4.518311e+001  -7.997696e+001 
3625000000  -4.565168e+001  -8.191312e+001 
3628125000  -4.496032e+001  -8.863905e+001 
3631250000  -4.503091e+001  -9.969217e+001 
3634375000  -4.566594e+001  -1.022371e+002 
3637500000  -4.443647e+001  -1.022192e+002 
3640625000  -4.346463e+001  -1.077915e+002 
3643750000  -4.331885e+001  -1.193681e+002 
3646875000  -4.407946e+001  -1.294417e+002 
3650000000  -4.377094e+001  -1.352744e+002 
3653125000  -4.326517e+001  -1.437417e+002 
3656250000  -4.392353e+001  -1.480080e+002 
3659375000  -4.413107e+001  -1.522837e+002 
3662500000  -4.311720e+001  -1.621053e+002 
3665625000  -4.333869e+001  -1.645455e+002 
3668750000  -4.209962e+001  -1.692864e+002 
3671875000  -4.159646e+001  1.769394e+002 
3675000000  -4.220505e+001  1.672740e+002 
3678125000  -4.250098e+001  1.622176e+002 
3681250000  -4.221150e+001  1.574793e+002 
3684375000  -4.287168e+001  1.476492e+002 
3687500000  -4.302554e+001  1.388894e+002 
3690625000  -4.324495e+001  1.341016e+002 
3693750000  -4.443270e+001  1.338864e+002 
3696875000  -4.414576e+001  1.285573e+002 
3700000000  -4.273235e+001  1.219247e+002 
3703125000  -4.368792e+001  1.156289e+002 
3706250000  -4.444434e+001  1.132769e+002 
3709375000  -4.347483e+001  1.113954e+002 
3712500000  -4.258921e+001  1.057084e+002 
3715625000  -4.171985e+001  9.451890e+001 
3718750000  -4.176370e+001  8.614021e+001 
3721875000  -4.139160e+001  7.432724e+001 
3725000000  -4.233817e+001  7.016502e+001 
3728125000  -4.239314e+001  6.511535e+001 
3731250000  -4.183499e+001  5.885091e+001 
3734375000  -4.216002e+001  5.030416e+001 
3737500000  -4.240717e+001  4.375831e+001 
3740625000  -4.325449e+001  3.639335e+001 
3743750000  -4.279990e+001  2.965471e+001 
3746875000  -4.325617e+001  2.340552e+001 
3750000000  -4.352518e+001  1.974067e+001 
3753125000  -4.324768e+001  1.658029e+001 
3756250000  -4.357073e+001  1.375280e+001 
3759375000  -4.347917e+001  8.802567e+000 
3762500000  -4.358924e+001  3.990959e+000 
3765625000  -4.413265e+001  -2.711089e+000 
3768750000  -4.337323e+001  -1.526708e-001 
3771875000  -4.195844e+001  -8.843067e+000 
3775000000  -4.239442e+001  -2.026480e+001 
3778125000  -4.269235e+001  -2.569831e+001 
3781250000  -4.254344e+001  -3.004551e+001 
3784375000  -4.220901e+001  -3.848460e+001 
3787500000  -4.222198e+001  -4.159772e+001 
3790625000  -4.302616e+001  -5.342463e+001 
3793750000  -4.252051e+001  -5.492366e+001 
3796875000  -4.180639e+001  -6.022108e+001 
3800000000  -4.080613e+001  -6.654393e+001 
3803125000  -4.167908e+001  -7.899473e+001 
3806250000  -4.257333e+001  -8.525695e+001 
3809375000  -4.179289e+001  -8.942673e+001 
3812500000  -4.161416e+001  -9.956651e+001 
3815625000  -4.307875e+001  -1.116173e+002 
3818750000  -4.446268e+001  -1.071030e+002 
3821875000  -4.371689e+001  -9.834891e+001 
3825000000  -4.132571e+001  -1.050404e+002 
3828125000  -4.022761e+001  -1.255895e+002 
3831250000  -4.171055e+001  -1.404455e+002 
3834375000  -4.379019e+001  -1.433127e+002 
3837500000  -4.398233e+001  -1.359179e+002 
3840625000  -4.238059e+001  -1.455927e+002 
3843750000  -4.196166e+001  -1.599250e+002 
3846875000  -4.358744e+001  -1.682058e+002 
3850000000  -4.406568e+001  -1.581199e+002 
3853125000  -4.341520e+001  -1.654489e+002 
3856250000  -4.289751e+001  -1.707073e+002 
3859375000  -4.207698e+001  -1.785488e+002 
3862500000  -4.207778e+001  1.705601e+002 
3865625000  -4.229586e+001  1.642828e+002 
3868750000  -4.224458e+001  1.634280e+002 
3871875000  -4.207871e+001  1.535310e+002 
3875000000  -4.236040e+001  1.416409e+002 
3878125000  -4.333196e+001  1.410797e+002 
3881250000  -4.307826e+001  1.379563e+002 
3884375000  -4.261912e+001  1.293237e+002 
3887500000  -4.334084e+001  1.202745e+002 
3890625000  -4.402067e+001  1.169411e+002 
3893750000  -4.407108e+001  1.149690e+002 
3896875000  -4.405393e+001  1.121094e+002 
3900000000  -4.427399e+001  1.047588e+002 
3903125000  -4.366508e+001  1.020848e+002 
3906250000  -4.319782e+001  9.552627e+001 
3909375000  -4.261808e+001  8.791765e+001 
3912500000  -4.343663e+001  7.867634e+001 
3915625000  -4.490818e+001  7.995761e+001 
3918750000  -4.472589e+001  7.606823e+001 
3921875000  -4.387960e+001  7.357319e+001 
3925000000  -4.320668e+001  6.517277e+001 
3928125000  -4.300491e+001  5.820317e+001 
3931250000  -4.363874e+001  4.907043e+001 
3934375000  -4.393791e+001  4.556678e+001 
3937500000  -4.436703e+001  4.406072e+001 
3940625000  -4.430175e+001  4.399302e+001 
3943750000  -4.337704e+001  3.659138e+001 
3946875000  -4.283053e+001  2.866774e+001 
3950000000  -4.376700e+001  2.000949e+001 
3953125000  -4.449969e+001  2.103669e+001 
3956250000  -4.264962e+001  2.015380e+001 
3959375000  -4.176625e+001  1.436149e+001 
3962500000  -4.166804e+001  2.928404e+000 
3965625000  -4.198260e+001  -8.429183e+000 
3968750000  -4.232331e+001  -1.527512e+001 
3971875000  -4.196259e+001  -2.090731e+001 
3975000000  -4.180609e+001  -2.602129e+001 
3978125000  -4.226595e+001  -3.295937e+001 
3981250000  -4.165684e+001  -3.880050e+001 
3984375000  -4.226020e+001  -4.859026e+001 
3987500000  -4.307254e+001  -5.164652e+001 
3990625000  -4.326614e+001  -5.670247e+001 
3993750000  -4.305482e+001  -6.022486e+001 
3996875000  -4.301571e+001  -6.973852e+001 
4000000000  -4.371817e+001  -7.365501e+001 
4003125000  -4.363703e+001  -7.266233e+001 
4006250000  -4.179987e+001  -7.998997e+001 
4009375000  -4.137685e+001  -9.419597e+001 
4012500000  -4.290799e+001  -1.013052e+002 
4015625000  -4.380777e+001  -1.037188e+002 
4018750000  -4.371627e+001  -1.068731e+002 
4021875000  -4.316996e+001  -1.155034e+002 
4025000000  -4.287632e+001  -1.222534e+002 
4028125000  -4.283550e+001  -1.297132e+002 
4031250000  -4.400316e+001  -1.354154e+002 
4034375000  -4.405875e+001  -1.355722e+002 
4037500000  -4.404110e+001  -1.409671e+002 
4040625000  -4.437644e+001  -1.483205e+002 
4043750000  -4.455643e+001  -1.518028e+002 
4046875000  -4.422765e+001  -1.564869e+002 
4050000000  -4.361752e+001  -1.633302e+002 
4053125000  -4.523079e+001  -1.659158e+002 
4056250000  -4.594648e+001  -1.662374e+002 
4059375000  -4.400523e+001  -1.662088e+002 
4062500000  -4.318872e+001  -1.736839e+002 
4065625000  -4.335717e+001  -1.779659e+002 
4068750000  -4.300284e+001  1.712042e+002 
4071875000  -4.275696e+001  1.625665e+002 
4075000000  -4.359118e+001  1.518338e+002 
4078125000  -4.427725e+001  1.512566e+002 
4081250000  -4.330259e+001  1.472360e+002 
4084375000  -4.329782e+001  1.377319e+002 
4087500000  -4.444807e+001  1.297442e+002 
4090625000  -4.482143e+001  1.277405e+002 
4093750000  -4.456527e+001  1.229306e+002 
4096875000  -4.422425e+001  1.185607e+002 
4100000000  -4.528899e+001  1.106543e+002 
4103125000  -4.569551e+001  1.149548e+002 
4106250000  -4.522026e+001  1.120251e+002 
4109375000  -4.418776e+001  1.099147e+002 
4112500000  -4.392560e+001  1.002815e+002 
4115625000  -4.418386e+001  9.586696e+001 
4118750000  -4.385871e+001  8.866846e+001 
4121875000  -4.333870e+001  8.199724e+001 
4125000000  -4.447939e+001  7.657966e+001 
4128125000  -4.467476e+001  8.118343e+001 
4131250000  -4.399929e+001  8.261655e+001 
4134375000  -4.113138e+001  7.198677e+001 
4137500000  -4.231610e+001  4.916042e+001 
4140625000  -4.454979e+001  4.557208e+001 
4143750000  -4.508661e+001  4.659269e+001 
4146875000  -4.402816e+001  5.069293e+001 
4150000000  -4.249998e+001  3.836711e+001 
4153125000  -4.290768e+001  3.072366e+001 
4156250000  -4.373990e+001  2.504574e+001 
4159375000  -4.413918e+001  2.641792e+001 
4162500000  -4.232556e+001  2.726861e+001 
4165625000  -4.166892e+001  1.770211e+001 
4168750000  -4.089690e+001  4.407733e+000 
4171875000  -4.109950e+001  -7.240433e+000 
4175000000  -4.163473e+001  -1.588718e+001 
4178125000  -4.202665e+001  -1.758578e+001 
4181250000  -4.207598e+001  -2.400664e+001 
4184375000  -4.248651e+001  -3.265432e+001 
4187500000  -4.234266e+001  -3.627898e+001 
4190625000  -4.280832e+001  -4.536189e+001 
4193750000  -4.371125e+001  -5.042056e+001 
4196875000  -4.512531e+001  -5.348422e+001 
4200000000  -4.630299e+001  -4.768168e+001 
4203125000  -4.443737e+001  -3.960249e+001 
4206250000  -4.102660e+001  -4.860625e+001 
4209375000  -4.132516e+001  -7.396520e+001 
4212500000  -4.397311e+001  -8.088326e+001 
4215625000  -4.434449e+001  -7.410370e+001 
4218750000  -4.272954e+001  -7.392934e+001 
4221875000  -4.103484e+001  -8.334914e+001 
4225000000  -4.232650e+001  -9.975539e+001 
4228125000  -4.194769e+001  -9.435359e+001 
4231250000  -4.138929e+001  -1.047845e+002 
4234375000  -4.086406e+001  -1.151126e+002 
4237500000  -4.067410e+001  -1.187373e+002 
4240625000  -4.133002e+001  -1.311204e+002 
4243750000  -4.259007e+001  -1.395982e+002 
4246875000  -4.311177e+001  -1.399840e+002 
4250000000  -4.282582e+001  -1.407926e+002 
4253125000  -4.242467e+001  -1.434601e+002 
4256250000  -4.236091e+001  -1.510527e+002 
4259375000  -4.200882e+001  -1.547341e+002 
4262500000  -4.267689e+001  -1.621067e+002 
4265625000  -4.232473e+001  -1.587627e+002 
4268750000  -4.115186e+001  -1.694357e+002 
4271875000  -4.064748e+001  -1.793344e+002 
4275000000  -4.028503e+001  1.682552e+002 
4278125000  -4.153345e+001  1.605152e+002 
4281250000  -4.249102e+001  1.542148e+002 
4284375000  -4.187828e+001  1.538934e+002 
4287500000  -4.308072e+001  1.474871e+002 
4290625000  -4.397497e+001  1.564406e+002 
4293750000  -4.158221e+001  1.567250e+002 
4296875000  -4.041651e+001  1.398044e+002 
4300000000  -4.109069e+001  1.311144e+002 
4303125000  -4.197934e+001  1.300290e+002 
4306250000  -4.078222e+001  1.293240e+002 
4309375000  -3.974553e+001  1.204764e+002 
4312500000  -3.957915e+001  1.065603e+002 
4315625000  -4.008501e+001  9.970534e+001 
4318750000  -4.098621e+001  9.258176e+001 
4321875000  -4.076070e+001  9.092658e+001 
4325000000  -4.035540e+001  8.651569e+001 
4328125000  -3.939333e+001  7.418642e+001 
4331250000  -3.956884e+001  6.386883e+001 
4334375000  -4.070949e+001  5.572806e+001 
4337500000  -4.193013e+001  5.460034e+001 
4340625000  -4.188025e+001  5.440726e+001 
4343750000  -4.127034e+001  5.073510e+001 
4346875000  -4.081321e+001  4.143041e+001 
4350000000  -4.103885e+001  3.199683e+001 
4353125000  -4.185835e+001  2.261741e+001 
4356250000  -4.381013e+001  2.708631e+001 
4359375000  -4.256533e+001  3.922462e+001 
4362500000  -3.951983e+001  2.947769e+001 
4365625000  -3.904355e+001  1.216679e+001 
4368750000  -4.034990e+001  9.020143e-001 
4371875000  -4.114099e+001  -2.118286e+000 
4375000000  -4.064768e+001  -7.700375e+000 
4378125000  -4.024938e+001  -1.426113e+001 
4381250000  -4.067191e+001  -2.294984e+001 
4384375000  -4.051438e+001  -3.006074e+001 
4387500000  -4.153275e+001  -3.871317e+001 
4390625000  -4.180135e+001  -3.996374e+001 
4393750000  -4.174848e+001  -4.130196e+001 
4396875000  -4.073656e+001  -4.805200e+001 
4400000000  -4.078070e+001  -5.519562e+001 
4403125000  -4.125198e+001  -6.450813e+001 
4406250000  -4.199599e+001  -6.936209e+001 
4409375000  -4.243332e+001  -7.650587e+001 
4412500000  -4.388023e+001  -7.787156e+001 
4415625000  -4.307634e+001  -7.487921e+001 
4418750000  -4.167258e+001  -7.435013e+001 
