!Agilent Technologies,E8363B,MY43030201,A.06.04.32
!Agilent E8363B: A.06.04.32
!Date: Tuesday, November 11, 2014 21:40:58
!Correction: S21(Response(S21)) 
!S1P File: Measurement: S21:
# Hz S  dB   R 50
3000000000  -4.363471e+001  -1.567655e+002 
3003125000  -4.524765e+001  -1.621582e+002 
3006250000  -4.503623e+001  -1.622007e+002 
3009375000  -4.624648e+001  -1.609053e+002 
3012500000  -4.489174e+001  -1.658006e+002 
3015625000  -4.479961e+001  -1.752070e+002 
3018750000  -4.515627e+001  -1.743234e+002 
3021875000  -4.380855e+001  -1.731807e+002 
3025000000  -4.232225e+001  -1.773580e+002 
3028125000  -4.180089e+001  1.681864e+002 
3031250000  -4.094866e+001  1.561982e+002 
3034375000  -4.081791e+001  1.423288e+002 
3037500000  -4.152021e+001  1.312014e+002 
3040625000  -4.282550e+001  1.247039e+002 
3043750000  -4.340897e+001  1.180622e+002 
3046875000  -4.418641e+001  1.115433e+002 
3050000000  -4.516357e+001  1.057180e+002 
3053125000  -4.492038e+001  1.098048e+002 
3056250000  -4.482558e+001  1.129079e+002 
3059375000  -4.367631e+001  1.092104e+002 
3062500000  -4.248022e+001  1.036507e+002 
3065625000  -4.209110e+001  9.308585e+001 
3068750000  -4.180478e+001  8.597721e+001 
3071875000  -4.162463e+001  8.248545e+001 
3075000000  -4.115122e+001  7.341814e+001 
3078125000  -4.137420e+001  6.743811e+001 
3081250000  -4.138879e+001  6.025175e+001 
3084375000  -4.048631e+001  5.537686e+001 
3087500000  -4.054938e+001  4.746829e+001 
3090625000  -3.980217e+001  3.458801e+001 
3093750000  -4.085806e+001  2.575660e+001 
3096875000  -4.125918e+001  2.002027e+001 
3100000000  -4.090201e+001  1.598946e+001 
3103125000  -4.130098e+001  1.133039e+001 
3106250000  -4.090675e+001  5.788603e+000 
3109375000  -4.081813e+001  6.085216e-001 
3112500000  -4.080950e+001  -8.014815e+000 
3115625000  -4.083444e+001  -1.134522e+001 
3118750000  -4.061539e+001  -1.854004e+001 
3121875000  -4.018313e+001  -2.934921e+001 
3125000000  -4.223915e+001  -3.411435e+001 
3128125000  -4.196491e+001  -2.694475e+001 
3131250000  -3.964599e+001  -3.636848e+001 
3134375000  -3.889146e+001  -5.321807e+001 
3137500000  -3.937791e+001  -6.761720e+001 
3140625000  -4.086114e+001  -6.940500e+001 
3143750000  -4.174677e+001  -7.435683e+001 
3146875000  -4.105030e+001  -7.397897e+001 
3150000000  -4.025087e+001  -7.843558e+001 
3153125000  -4.075145e+001  -8.785549e+001 
3156250000  -4.157288e+001  -8.421414e+001 
3159375000  -3.913586e+001  -8.826716e+001 
3162500000  -3.774941e+001  -1.047667e+002 
3165625000  -3.909472e+001  -1.195127e+002 
3168750000  -3.892123e+001  -1.199366e+002 
3171875000  -3.848796e+001  -1.291984e+002 
3175000000  -3.928828e+001  -1.382356e+002 
3178125000  -3.877058e+001  -1.422130e+002 
3181250000  -3.803920e+001  -1.504549e+002 
3184375000  -3.783892e+001  -1.634107e+002 
3187500000  -3.931550e+001  -1.786274e+002 
3190625000  -4.072884e+001  1.746412e+002 
3193750000  -4.136425e+001  1.788061e+002 
3196875000  -4.093623e+001  1.791651e+002 
3200000000  -3.986156e+001  1.722913e+002 
3203125000  -3.969778e+001  1.640789e+002 
3206250000  -3.981316e+001  1.551767e+002 
3209375000  -3.967261e+001  1.466701e+002 
3212500000  -3.995049e+001  1.392744e+002 
3215625000  -3.971971e+001  1.376376e+002 
3218750000  -4.036810e+001  1.247335e+002 
3221875000  -4.065112e+001  1.172654e+002 
3225000000  -4.077625e+001  1.119492e+002 
3228125000  -4.136061e+001  1.049010e+002 
3231250000  -4.127033e+001  1.008848e+002 
3234375000  -4.104406e+001  9.706234e+001 
3237500000  -4.106295e+001  9.315556e+001 
3240625000  -4.033864e+001  8.736562e+001 
3243750000  -4.033475e+001  7.475574e+001 
3246875000  -4.077232e+001  6.695729e+001 
3250000000  -4.116644e+001  6.201336e+001 
3253125000  -4.118967e+001  5.693856e+001 
3256250000  -4.039172e+001  4.771691e+001 
3259375000  -4.094104e+001  3.516835e+001 
3262500000  -4.247719e+001  3.019600e+001 
3265625000  -4.259754e+001  3.182334e+001 
3268750000  -4.244094e+001  2.992888e+001 
3271875000  -4.162811e+001  2.310014e+001 
3275000000  -4.101646e+001  1.372221e+001 
3278125000  -4.188288e+001  6.137200e+000 
3281250000  -4.191349e+001  2.354378e+000 
3284375000  -4.104645e+001  -4.636970e+000 
3287500000  -4.172121e+001  -1.190794e+001 
3290625000  -4.163558e+001  -2.221868e+001 
3293750000  -4.175502e+001  -2.929638e+001 
3296875000  -4.284760e+001  -3.373284e+001 
3300000000  -4.198070e+001  -3.711919e+001 
3303125000  -4.096725e+001  -4.793018e+001 
3306250000  -4.095732e+001  -5.626587e+001 
3309375000  -4.070573e+001  -6.641431e+001 
3312500000  -4.124179e+001  -8.219257e+001 
3315625000  -4.232895e+001  -9.213913e+001 
3318750000  -4.416123e+001  -9.766519e+001 
3321875000  -4.535541e+001  -9.592669e+001 
3325000000  -4.558464e+001  -9.348507e+001 
3328125000  -4.408317e+001  -9.577499e+001 
3331250000  -4.220177e+001  -9.518959e+001 
3334375000  -4.040760e+001  -1.144783e+002 
3337500000  -4.090614e+001  -1.375803e+002 
3340625000  -4.300564e+001  -1.476011e+002 
3343750000  -4.473597e+001  -1.491293e+002 
3346875000  -4.413593e+001  -1.509619e+002 
3350000000  -4.370044e+001  -1.565593e+002 
3353125000  -4.407053e+001  -1.679483e+002 
3356250000  -4.331458e+001  -1.790785e+002 
3359375000  -4.425595e+001  1.701530e+002 
3362500000  -4.536690e+001  1.615226e+002 
3365625000  -4.596191e+001  1.554960e+002 
3368750000  -4.687146e+001  1.502573e+002 
3371875000  -4.709729e+001  1.428221e+002 
3375000000  -4.874754e+001  1.396423e+002 
3378125000  -4.964695e+001  1.377744e+002 
3381250000  -5.056043e+001  1.450370e+002 
3384375000  -4.711177e+001  1.544361e+002 
3387500000  -4.490802e+001  1.319094e+002 
3390625000  -4.716148e+001  1.088272e+002 
3393750000  -4.797393e+001  1.103031e+002 
3396875000  -4.629744e+001  1.036620e+002 
3400000000  -4.658733e+001  9.209593e+001 
3403125000  -4.708765e+001  8.242314e+001 
3406250000  -4.768833e+001  7.649450e+001 
3409375000  -4.786485e+001  6.173234e+001 
3412500000  -4.848910e+001  5.535252e+001 
3415625000  -4.850264e+001  5.298246e+001 
3418750000  -4.871665e+001  4.579229e+001 
3421875000  -4.927174e+001  4.365038e+001 
3425000000  -4.801341e+001  3.709437e+001 
3428125000  -4.684790e+001  3.185676e+001 
3431250000  -4.713520e+001  1.608762e+001 
3434375000  -4.726434e+001  8.414936e+000 
3437500000  -4.760575e+001  -4.805988e-001 
3440625000  -4.831255e+001  -1.246738e+000 
3443750000  -4.675912e+001  -1.196492e+001 
3446875000  -4.551539e+001  -2.431927e+001 
3450000000  -4.496235e+001  -3.777940e+001 
3453125000  -4.592985e+001  -5.442838e+001 
3456250000  -4.755654e+001  -6.502506e+001 
3459375000  -4.825116e+001  -6.995070e+001 
3462500000  -4.793674e+001  -7.242351e+001 
3465625000  -4.659599e+001  -8.702382e+001 
3468750000  -4.777943e+001  -9.377100e+001 
3471875000  -4.724226e+001  -9.946297e+001 
3475000000  -4.693475e+001  -1.126603e+002 
3478125000  -4.791280e+001  -1.260784e+002 
3481250000  -4.929219e+001  -1.328941e+002 
3484375000  -4.845990e+001  -1.291070e+002 
3487500000  -4.749031e+001  -1.381473e+002 
3490625000  -4.730624e+001  -1.518849e+002 
3493750000  -4.759196e+001  -1.604070e+002 
3496875000  -4.777909e+001  -1.648643e+002 
3500000000  -4.856141e+001  -1.677723e+002 
3503125000  -4.723436e+001  -1.708980e+002 
3506250000  -4.558452e+001  1.756518e+002 
3509375000  -4.589383e+001  1.569063e+002 
3512500000  -4.633265e+001  1.424183e+002 
3515625000  -4.672129e+001  1.356692e+002 
3518750000  -4.782705e+001  1.313387e+002 
3521875000  -4.776821e+001  1.200594e+002 
3525000000  -4.842977e+001  1.210037e+002 
3528125000  -4.746433e+001  1.219949e+002 
3531250000  -4.638740e+001  1.085022e+002 
3534375000  -4.666125e+001  9.393217e+001 
3537500000  -4.796435e+001  8.492055e+001 
3540625000  -4.888840e+001  8.038417e+001 
3543750000  -4.953757e+001  8.383304e+001 
3546875000  -4.851982e+001  8.793184e+001 
3550000000  -4.599680e+001  7.803573e+001 
3553125000  -4.639388e+001  6.060762e+001 
3556250000  -4.683710e+001  5.107406e+001 
3559375000  -4.648849e+001  4.496769e+001 
3562500000  -4.670203e+001  3.856925e+001 
3565625000  -4.762267e+001  2.888116e+001 
3568750000  -4.813549e+001  3.135365e+001 
3571875000  -4.697842e+001  2.254890e+001 
3575000000  -4.724832e+001  1.589275e+001 
3578125000  -4.744355e+001  1.303878e+001 
3581250000  -4.747600e+001  5.763713e+000 
3584375000  -4.616579e+001  -1.217087e+000 
3587500000  -4.594034e+001  -8.638000e+000 
3590625000  -4.671321e+001  -2.150025e+001 
3593750000  -4.787215e+001  -2.099438e+001 
3596875000  -4.691892e+001  -1.771502e+001 
3600000000  -4.440917e+001  -2.765502e+001 
3603125000  -4.554047e+001  -4.288784e+001 
3606250000  -4.570226e+001  -4.881958e+001 
3609375000  -4.605263e+001  -5.169134e+001 
3612500000  -4.591145e+001  -5.925342e+001 
3615625000  -4.622673e+001  -6.481354e+001 
3618750000  -4.616997e+001  -6.484480e+001 
3621875000  -4.510853e+001  -7.282311e+001 
3625000000  -4.563508e+001  -7.633069e+001 
3628125000  -4.468497e+001  -8.359154e+001 
3631250000  -4.529400e+001  -9.420004e+001 
3634375000  -4.534146e+001  -9.509619e+001 
3637500000  -4.446103e+001  -9.591608e+001 
3640625000  -4.377620e+001  -1.030082e+002 
3643750000  -4.303358e+001  -1.136225e+002 
3646875000  -4.388483e+001  -1.247960e+002 
3650000000  -4.398682e+001  -1.301924e+002 
3653125000  -4.296089e+001  -1.366123e+002 
3656250000  -4.405937e+001  -1.460952e+002 
3659375000  -4.399508e+001  -1.461413e+002 
3662500000  -4.368246e+001  -1.544659e+002 
3665625000  -4.349072e+001  -1.574690e+002 
3668750000  -4.210159e+001  -1.622190e+002 
3671875000  -4.156342e+001  -1.763419e+002 
3675000000  -4.209435e+001  1.729121e+002 
3678125000  -4.256409e+001  1.698531e+002 
3681250000  -4.231103e+001  1.617274e+002 
3684375000  -4.288371e+001  1.541111e+002 
3687500000  -4.288290e+001  1.458894e+002 
3690625000  -4.370233e+001  1.369606e+002 
3693750000  -4.487016e+001  1.392431e+002 
3696875000  -4.366869e+001  1.327069e+002 
3700000000  -4.327400e+001  1.265692e+002 
3703125000  -4.388345e+001  1.183115e+002 
3706250000  -4.475550e+001  1.168029e+002 
3709375000  -4.397650e+001  1.169892e+002 
3712500000  -4.313015e+001  1.115058e+002 
3715625000  -4.166145e+001  1.007742e+002 
3718750000  -4.203357e+001  8.979994e+001 
3721875000  -4.164386e+001  8.148753e+001 
3725000000  -4.234446e+001  7.205359e+001 
3728125000  -4.282386e+001  7.043224e+001 
3731250000  -4.220304e+001  6.461478e+001 
3734375000  -4.194502e+001  5.694022e+001 
3737500000  -4.275190e+001  4.679673e+001 
3740625000  -4.318275e+001  4.168753e+001 
3743750000  -4.308983e+001  3.689271e+001 
3746875000  -4.380640e+001  2.714472e+001 
3750000000  -4.370097e+001  2.598011e+001 
3753125000  -4.390744e+001  2.452827e+001 
3756250000  -4.409871e+001  2.051329e+001 
3759375000  -4.377518e+001  1.440247e+001 
3762500000  -4.357864e+001  9.043607e+000 
3765625000  -4.414280e+001  1.949341e+000 
3768750000  -4.366942e+001  4.383017e+000 
3771875000  -4.184573e+001  -2.990405e+000 
3775000000  -4.218296e+001  -1.415005e+001 
3778125000  -4.253513e+001  -1.827111e+001 
3781250000  -4.235098e+001  -2.624613e+001 
3784375000  -4.259727e+001  -2.868043e+001 
3787500000  -4.239214e+001  -3.571588e+001 
3790625000  -4.281288e+001  -4.360555e+001 
3793750000  -4.269422e+001  -4.866823e+001 
3796875000  -4.172970e+001  -5.386776e+001 
3800000000  -4.090728e+001  -6.162309e+001 
3803125000  -4.197328e+001  -7.272069e+001 
3806250000  -4.263830e+001  -7.736080e+001 
3809375000  -4.193436e+001  -8.348332e+001 
3812500000  -4.205307e+001  -9.340727e+001 
3815625000  -4.290391e+001  -1.060828e+002 
3818750000  -4.449839e+001  -1.030127e+002 
3821875000  -4.347734e+001  -9.464144e+001 
3825000000  -4.165747e+001  -9.808573e+001 
3828125000  -4.095655e+001  -1.202715e+002 
3831250000  -4.148940e+001  -1.361131e+002 
3834375000  -4.374155e+001  -1.365817e+002 
3837500000  -4.396914e+001  -1.324527e+002 
3840625000  -4.254480e+001  -1.427546e+002 
3843750000  -4.190647e+001  -1.538447e+002 
3846875000  -4.349823e+001  -1.612825e+002 
3850000000  -4.451608e+001  -1.556806e+002 
3853125000  -4.348872e+001  -1.564578e+002 
3856250000  -4.276262e+001  -1.633840e+002 
3859375000  -4.230341e+001  -1.746331e+002 
3862500000  -4.240331e+001  1.752189e+002 
3865625000  -4.278047e+001  1.676904e+002 
3868750000  -4.264378e+001  1.669534e+002 
3871875000  -4.219170e+001  1.587119e+002 
3875000000  -4.249720e+001  1.470032e+002 
3878125000  -4.355725e+001  1.425469e+002 
3881250000  -4.320788e+001  1.423089e+002 
3884375000  -4.266507e+001  1.329148e+002 
3887500000  -4.338084e+001  1.263145e+002 
3890625000  -4.429742e+001  1.224842e+002 
3893750000  -4.423544e+001  1.214576e+002 
3896875000  -4.414956e+001  1.162447e+002 
3900000000  -4.432524e+001  1.134323e+002 
3903125000  -4.417294e+001  1.073116e+002 
3906250000  -4.403020e+001  1.052490e+002 
3909375000  -4.279255e+001  9.479536e+001 
3912500000  -4.401289e+001  8.428651e+001 
3915625000  -4.506187e+001  8.507095e+001 
3918750000  -4.444572e+001  8.170770e+001 
3921875000  -4.387408e+001  7.814536e+001 
3925000000  -4.305464e+001  7.191919e+001 
3928125000  -4.328723e+001  6.517377e+001 
3931250000  -4.373658e+001  5.561261e+001 
3934375000  -4.426599e+001  5.396966e+001 
3937500000  -4.515359e+001  4.980941e+001 
3940625000  -4.456416e+001  4.722616e+001 
3943750000  -4.338764e+001  4.336885e+001 
3946875000  -4.266897e+001  3.310691e+001 
3950000000  -4.372974e+001  2.538793e+001 
3953125000  -4.482862e+001  2.548671e+001 
3956250000  -4.308139e+001  2.655837e+001 
3959375000  -4.212577e+001  2.022568e+001 
3962500000  -4.171326e+001  7.462481e+000 
3965625000  -4.219355e+001  -2.783995e+000 
3968750000  -4.308621e+001  -7.681648e+000 
3971875000  -4.268914e+001  -1.640829e+001 
3975000000  -4.214161e+001  -1.991737e+001 
3978125000  -4.230926e+001  -2.489187e+001 
3981250000  -4.199668e+001  -3.261375e+001 
3984375000  -4.251054e+001  -4.211992e+001 
3987500000  -4.304948e+001  -4.671815e+001 
3990625000  -4.310708e+001  -4.918666e+001 
3993750000  -4.321525e+001  -5.573688e+001 
3996875000  -4.339642e+001  -6.398758e+001 
4000000000  -4.380920e+001  -6.766925e+001 
4003125000  -4.442204e+001  -6.668118e+001 
4006250000  -4.238332e+001  -7.043614e+001 
4009375000  -4.182504e+001  -8.931463e+001 
4012500000  -4.292125e+001  -9.734599e+001 
4015625000  -4.427065e+001  -9.885569e+001 
4018750000  -4.417087e+001  -1.031068e+002 
4021875000  -4.341688e+001  -1.106011e+002 
4025000000  -4.308071e+001  -1.187021e+002 
4028125000  -4.353041e+001  -1.241961e+002 
4031250000  -4.415961e+001  -1.295237e+002 
4034375000  -4.406542e+001  -1.317440e+002 
4037500000  -4.396697e+001  -1.359034e+002 
4040625000  -4.448065e+001  -1.446139e+002 
4043750000  -4.483475e+001  -1.470905e+002 
4046875000  -4.441341e+001  -1.529450e+002 
4050000000  -4.446413e+001  -1.587540e+002 
4053125000  -4.520439e+001  -1.594680e+002 
4056250000  -4.556516e+001  -1.614696e+002 
4059375000  -4.449392e+001  -1.584897e+002 
4062500000  -4.374693e+001  -1.686184e+002 
4065625000  -4.360183e+001  -1.725248e+002 
4068750000  -4.353191e+001  1.794070e+002 
4071875000  -4.303760e+001  1.665463e+002 
4075000000  -4.379520e+001  1.607971e+002 
4078125000  -4.419397e+001  1.566572e+002 
4081250000  -4.394177e+001  1.509809e+002 
4084375000  -4.402672e+001  1.390738e+002 
4087500000  -4.444644e+001  1.346219e+002 
4090625000  -4.527828e+001  1.334973e+002 
4093750000  -4.483660e+001  1.316408e+002 
4096875000  -4.444884e+001  1.232527e+002 
4100000000  -4.544874e+001  1.161695e+002 
4103125000  -4.604721e+001  1.180834e+002 
4106250000  -4.564112e+001  1.193321e+002 
4109375000  -4.492857e+001  1.164414e+002 
4112500000  -4.431704e+001  1.089213e+002 
4115625000  -4.452013e+001  1.040439e+002 
4118750000  -4.434143e+001  9.750648e+001 
4121875000  -4.386368e+001  9.081201e+001 
4125000000  -4.497060e+001  8.233974e+001 
4128125000  -4.560672e+001  8.596754e+001 
4131250000  -4.384484e+001  9.017767e+001 
4134375000  -4.182714e+001  7.777969e+001 
4137500000  -4.231124e+001  5.700747e+001 
4140625000  -4.458469e+001  4.835101e+001 
4143750000  -4.528123e+001  5.152643e+001 
4146875000  -4.390636e+001  5.400179e+001 
4150000000  -4.319904e+001  4.550208e+001 
4153125000  -4.323195e+001  3.586753e+001 
4156250000  -4.457541e+001  3.294585e+001 
4159375000  -4.426587e+001  3.429783e+001 
4162500000  -4.334823e+001  3.066419e+001 
4165625000  -4.204139e+001  2.307238e+001 
4168750000  -4.175384e+001  1.195504e+001 
4171875000  -4.172408e+001  7.722853e-001 
4175000000  -4.215512e+001  -7.390759e+000 
4178125000  -4.283342e+001  -1.216999e+001 
4181250000  -4.229377e+001  -1.696279e+001 
4184375000  -4.304050e+001  -2.457916e+001 
4187500000  -4.286789e+001  -2.990651e+001 
4190625000  -4.282105e+001  -4.148354e+001 
4193750000  -4.439330e+001  -4.800991e+001 
4196875000  -4.549807e+001  -4.652114e+001 
4200000000  -4.628979e+001  -3.896573e+001 
4203125000  -4.454269e+001  -3.253998e+001 
4206250000  -4.123335e+001  -4.128523e+001 
4209375000  -4.185673e+001  -6.524473e+001 
4212500000  -4.425927e+001  -7.251154e+001 
4215625000  -4.465636e+001  -6.479424e+001 
4218750000  -4.322548e+001  -6.649748e+001 
4221875000  -4.118745e+001  -8.026507e+001 
4225000000  -4.315238e+001  -8.612833e+001 
4228125000  -4.280922e+001  -8.542731e+001 
4231250000  -4.148748e+001  -9.613946e+001 
4234375000  -4.148181e+001  -1.072728e+002 
4237500000  -4.150870e+001  -1.148896e+002 
4240625000  -4.128000e+001  -1.249060e+002 
4243750000  -4.270902e+001  -1.330647e+002 
4246875000  -4.361762e+001  -1.328214e+002 
4250000000  -4.324691e+001  -1.319299e+002 
4253125000  -4.305379e+001  -1.319493e+002 
4256250000  -4.282560e+001  -1.426376e+002 
4259375000  -4.306410e+001  -1.465042e+002 
4262500000  -4.269329e+001  -1.520072e+002 
4265625000  -4.225145e+001  -1.556824e+002 
4268750000  -4.137293e+001  -1.595342e+002 
4271875000  -4.110801e+001  -1.717400e+002 
4275000000  -4.097552e+001  1.787398e+002 
4278125000  -4.219282e+001  1.641429e+002 
4281250000  -4.288165e+001  1.611250e+002 
4284375000  -4.289163e+001  1.610894e+002 
4287500000  -4.374191e+001  1.570305e+002 
4290625000  -4.421644e+001  1.627320e+002 
4293750000  -4.189351e+001  1.625047e+002 
4296875000  -4.074389e+001  1.452899e+002 
4300000000  -4.181303e+001  1.377422e+002 
4303125000  -4.247491e+001  1.358842e+002 
4306250000  -4.099504e+001  1.371685e+002 
4309375000  -4.036506e+001  1.290209e+002 
4312500000  -4.011080e+001  1.168522e+002 
4315625000  -4.063585e+001  1.067335e+002 
4318750000  -4.097977e+001  1.021664e+002 
4321875000  -4.119420e+001  1.000930e+002 
4325000000  -4.049914e+001  9.368408e+001 
4328125000  -3.963309e+001  8.313908e+001 
4331250000  -4.017946e+001  7.044051e+001 
4334375000  -4.103745e+001  6.188940e+001 
4337500000  -4.245031e+001  6.233651e+001 
4340625000  -4.260017e+001  6.433022e+001 
4343750000  -4.141688e+001  6.115344e+001 
4346875000  -4.146479e+001  5.049623e+001 
4350000000  -4.162830e+001  4.013044e+001 
4353125000  -4.234589e+001  3.081187e+001 
4356250000  -4.410570e+001  3.416942e+001 
4359375000  -4.326506e+001  4.839953e+001 
4362500000  -3.991002e+001  3.604427e+001 
4365625000  -3.943726e+001  1.941485e+001 
4368750000  -4.104560e+001  9.099173e+000 
4371875000  -4.148866e+001  8.364853e+000 
4375000000  -4.140430e+001  1.130575e+000 
4378125000  -4.111777e+001  -6.711766e+000 
4381250000  -4.142622e+001  -1.535958e+001 
4384375000  -4.094305e+001  -2.355485e+001 
4387500000  -4.225267e+001  -2.698815e+001 
4390625000  -4.277671e+001  -2.993539e+001 
4393750000  -4.191820e+001  -3.192808e+001 
4396875000  -4.189378e+001  -3.791982e+001 
4400000000  -4.126029e+001  -4.646257e+001 
4403125000  -4.237922e+001  -5.870981e+001 
4406250000  -4.279124e+001  -6.310929e+001 
4409375000  -4.339567e+001  -6.573011e+001 
4412500000  -4.399653e+001  -6.902455e+001 
4415625000  -4.381332e+001  -6.417545e+001 
4418750000  -4.272112e+001  -6.615913e+001 
