!Agilent Technologies,E8363B,MY43030201,A.06.04.32
!Agilent E8363B: A.06.04.32
!Date: Tuesday, November 11, 2014 21:51:14
!Correction: S21(Response(S21)) 
!S1P File: Measurement: S21:
# Hz S  dB   R 50
3000000000  -4.363509e+001  -1.624210e+002 
3003125000  -4.548555e+001  -1.664449e+002 
3006250000  -4.509984e+001  -1.678358e+002 
3009375000  -4.615038e+001  -1.635453e+002 
3012500000  -4.500010e+001  -1.715446e+002 
3015625000  -4.480910e+001  -1.794524e+002 
3018750000  -4.545890e+001  -1.781479e+002 
3021875000  -4.402800e+001  1.788085e+002 
3025000000  -4.260419e+001  1.752802e+002 
3028125000  -4.184707e+001  1.637763e+002 
3031250000  -4.089485e+001  1.516869e+002 
3034375000  -4.089378e+001  1.366280e+002 
3037500000  -4.177015e+001  1.263420e+002 
3040625000  -4.315147e+001  1.191412e+002 
3043750000  -4.353614e+001  1.116045e+002 
3046875000  -4.407204e+001  1.058830e+002 
3050000000  -4.546541e+001  1.004719e+002 
3053125000  -4.481369e+001  1.055811e+002 
3056250000  -4.507077e+001  1.088522e+002 
3059375000  -4.398531e+001  1.052325e+002 
3062500000  -4.251448e+001  1.012499e+002 
3065625000  -4.211674e+001  8.848808e+001 
3068750000  -4.166623e+001  8.101833e+001 
3071875000  -4.171547e+001  7.741715e+001 
3075000000  -4.112628e+001  6.956072e+001 
3078125000  -4.138789e+001  6.242083e+001 
3081250000  -4.123430e+001  5.489365e+001 
3084375000  -4.043116e+001  4.963634e+001 
3087500000  -4.061676e+001  4.156638e+001 
3090625000  -4.005978e+001  2.933919e+001 
3093750000  -4.085556e+001  2.091088e+001 
3096875000  -4.126627e+001  1.614450e+001 
3100000000  -4.116452e+001  1.094018e+001 
3103125000  -4.145157e+001  5.284009e+000 
3106250000  -4.102412e+001  -4.200779e-001 
3109375000  -4.118239e+001  -5.099470e+000 
3112500000  -4.085565e+001  -1.274162e+001 
3115625000  -4.087919e+001  -1.715718e+001 
3118750000  -4.059294e+001  -2.067117e+001 
3121875000  -4.012126e+001  -3.433696e+001 
3125000000  -4.215905e+001  -3.753508e+001 
3128125000  -4.201233e+001  -3.136867e+001 
3131250000  -3.949406e+001  -3.976004e+001 
3134375000  -3.889249e+001  -5.841047e+001 
3137500000  -3.961636e+001  -7.149059e+001 
3140625000  -4.106295e+001  -7.412048e+001 
3143750000  -4.155006e+001  -7.924844e+001 
3146875000  -4.103802e+001  -7.817125e+001 
3150000000  -4.046149e+001  -8.377169e+001 
3153125000  -4.075638e+001  -9.297493e+001 
3156250000  -4.148010e+001  -8.950655e+001 
3159375000  -3.896461e+001  -9.343385e+001 
3162500000  -3.780037e+001  -1.099610e+002 
3165625000  -3.882245e+001  -1.248718e+002 
3168750000  -3.913113e+001  -1.257280e+002 
3171875000  -3.864888e+001  -1.339954e+002 
3175000000  -3.902695e+001  -1.446202e+002 
3178125000  -3.875853e+001  -1.452213e+002 
3181250000  -3.797729e+001  -1.558057e+002 
3184375000  -3.791548e+001  -1.681281e+002 
3187500000  -3.923124e+001  1.773978e+002 
3190625000  -4.108014e+001  1.692480e+002 
3193750000  -4.100222e+001  1.729613e+002 
3196875000  -4.083690e+001  1.739108e+002 
3200000000  -3.977008e+001  1.686357e+002 
3203125000  -3.952077e+001  1.588127e+002 
3206250000  -3.977264e+001  1.510545e+002 
3209375000  -3.940461e+001  1.412920e+002 
3212500000  -3.986122e+001  1.352930e+002 
3215625000  -3.948801e+001  1.327233e+002 
3218750000  -4.008798e+001  1.192897e+002 
3221875000  -4.052235e+001  1.123335e+002 
3225000000  -4.046540e+001  1.072076e+002 
3228125000  -4.107908e+001  9.902283e+001 
3231250000  -4.158971e+001  9.715479e+001 
3234375000  -4.107106e+001  9.239177e+001 
3237500000  -4.101194e+001  8.836288e+001 
3240625000  -4.025817e+001  8.169824e+001 
3243750000  -4.050422e+001  7.039599e+001 
3246875000  -4.080985e+001  6.149527e+001 
3250000000  -4.104921e+001  5.712798e+001 
3253125000  -4.108527e+001  5.234038e+001 
3256250000  -4.027416e+001  4.302388e+001 
3259375000  -4.100621e+001  3.002396e+001 
3262500000  -4.219674e+001  2.550307e+001 
3265625000  -4.239050e+001  2.743225e+001 
3268750000  -4.253768e+001  2.601149e+001 
3271875000  -4.160167e+001  1.918288e+001 
3275000000  -4.095022e+001  9.007760e+000 
3278125000  -4.170568e+001  1.170349e+000 
3281250000  -4.161642e+001  -2.423356e+000 
3284375000  -4.114410e+001  -9.834116e+000 
3287500000  -4.180024e+001  -1.625403e+001 
3290625000  -4.146495e+001  -2.579305e+001 
3293750000  -4.143546e+001  -3.499317e+001 
3296875000  -4.261602e+001  -3.906985e+001 
3300000000  -4.191156e+001  -4.155424e+001 
3303125000  -4.084079e+001  -4.946068e+001 
3306250000  -4.094447e+001  -6.103111e+001 
3309375000  -4.050788e+001  -7.255294e+001 
3312500000  -4.106773e+001  -8.694602e+001 
3315625000  -4.227351e+001  -9.504945e+001 
3318750000  -4.410793e+001  -9.979179e+001 
3321875000  -4.519765e+001  -9.920184e+001 
3325000000  -4.519049e+001  -9.855670e+001 
3328125000  -4.460229e+001  -9.804428e+001 
3331250000  -4.229813e+001  -9.974158e+001 
3334375000  -4.014351e+001  -1.175151e+002 
3337500000  -4.087584e+001  -1.415080e+002 
3340625000  -4.278183e+001  -1.515249e+002 
3343750000  -4.463220e+001  -1.520660e+002 
3346875000  -4.393156e+001  -1.569379e+002 
3350000000  -4.353827e+001  -1.621370e+002 
3353125000  -4.356097e+001  -1.711318e+002 
3356250000  -4.334937e+001  1.792276e+002 
3359375000  -4.415466e+001  1.639167e+002 
3362500000  -4.518889e+001  1.584051e+002 
3365625000  -4.599060e+001  1.507525e+002 
3368750000  -4.638792e+001  1.466909e+002 
3371875000  -4.723745e+001  1.378204e+002 
3375000000  -4.798006e+001  1.318886e+002 
3378125000  -4.943894e+001  1.305579e+002 
3381250000  -5.009195e+001  1.392083e+002 
3384375000  -4.729972e+001  1.504965e+002 
3387500000  -4.463808e+001  1.289412e+002 
3390625000  -4.651663e+001  1.053978e+002 
3393750000  -4.723134e+001  1.069104e+002 
3396875000  -4.608435e+001  9.973046e+001 
3400000000  -4.625762e+001  8.651513e+001 
3403125000  -4.693901e+001  7.657890e+001 
3406250000  -4.749941e+001  7.013957e+001 
3409375000  -4.713401e+001  5.789246e+001 
3412500000  -4.755586e+001  5.269080e+001 
3415625000  -4.868872e+001  4.991015e+001 
3418750000  -4.866081e+001  4.408038e+001 
3421875000  -4.906811e+001  3.617911e+001 
3425000000  -4.799321e+001  3.469144e+001 
3428125000  -4.682006e+001  2.577024e+001 
3431250000  -4.682331e+001  1.553939e+001 
3434375000  -4.687399e+001  2.391941e+000 
3437500000  -4.767198e+001  -4.832712e+000 
3440625000  -4.798082e+001  -9.676936e+000 
3443750000  -4.655158e+001  -1.358216e+001 
3446875000  -4.576155e+001  -2.875049e+001 
3450000000  -4.516682e+001  -4.404227e+001 
3453125000  -4.566566e+001  -6.280859e+001 
3456250000  -4.781821e+001  -7.036113e+001 
3459375000  -4.833073e+001  -7.220287e+001 
3462500000  -4.758210e+001  -7.494170e+001 
3465625000  -4.738608e+001  -9.080786e+001 
3468750000  -4.734610e+001  -9.396576e+001 
3471875000  -4.705917e+001  -1.014305e+002 
3475000000  -4.710435e+001  -1.182249e+002 
3478125000  -4.751817e+001  -1.309569e+002 
3481250000  -4.903784e+001  -1.324410e+002 
3484375000  -4.817898e+001  -1.350381e+002 
3487500000  -4.756285e+001  -1.409942e+002 
3490625000  -4.697335e+001  -1.542993e+002 
3493750000  -4.760424e+001  -1.693137e+002 
3496875000  -4.838336e+001  -1.692695e+002 
3500000000  -4.840592e+001  -1.722906e+002 
3503125000  -4.681801e+001  -1.790145e+002 
3506250000  -4.556108e+001  1.714602e+002 
3509375000  -4.560855e+001  1.508678e+002 
3512500000  -4.612222e+001  1.340735e+002 
3515625000  -4.731345e+001  1.319146e+002 
3518750000  -4.800986e+001  1.277876e+002 
3521875000  -4.779770e+001  1.174602e+002 
3525000000  -4.878156e+001  1.131037e+002 
3528125000  -4.736663e+001  1.160784e+002 
3531250000  -4.650887e+001  1.026031e+002 
3534375000  -4.659465e+001  9.025911e+001 
3537500000  -4.736138e+001  8.058997e+001 
3540625000  -4.911346e+001  7.344677e+001 
3543750000  -4.984275e+001  7.586931e+001 
3546875000  -4.833205e+001  8.424851e+001 
3550000000  -4.628116e+001  7.242873e+001 
3553125000  -4.602479e+001  5.687708e+001 
3556250000  -4.783866e+001  4.512640e+001 
3559375000  -4.665767e+001  4.325707e+001 
3562500000  -4.643883e+001  3.118756e+001 
3565625000  -4.745770e+001  2.406092e+001 
3568750000  -4.801086e+001  2.236549e+001 
3571875000  -4.715002e+001  1.686209e+001 
3575000000  -4.717991e+001  5.083923e+000 
3578125000  -4.783051e+001  7.145027e+000 
3581250000  -4.767397e+001  2.761812e+000 
3584375000  -4.615142e+001  -3.147925e+000 
3587500000  -4.608164e+001  -1.795130e+001 
3590625000  -4.665841e+001  -2.745644e+001 
3593750000  -4.788661e+001  -2.774311e+001 
3596875000  -4.616915e+001  -2.261174e+001 
3600000000  -4.456740e+001  -3.093310e+001 
3603125000  -4.522393e+001  -4.964913e+001 
3606250000  -4.655274e+001  -5.690240e+001 
3609375000  -4.622917e+001  -5.790486e+001 
3612500000  -4.601110e+001  -6.529503e+001 
3615625000  -4.644031e+001  -6.966322e+001 
3618750000  -4.626614e+001  -7.216134e+001 
3621875000  -4.524059e+001  -8.078323e+001 
3625000000  -4.570116e+001  -8.370457e+001 
3628125000  -4.455563e+001  -8.995483e+001 
3631250000  -4.510411e+001  -9.774760e+001 
3634375000  -4.571937e+001  -1.011739e+002 
3637500000  -4.454128e+001  -1.034110e+002 
3640625000  -4.370887e+001  -1.068556e+002 
3643750000  -4.335398e+001  -1.205130e+002 
3646875000  -4.406150e+001  -1.309812e+002 
3650000000  -4.352042e+001  -1.376353e+002 
3653125000  -4.333955e+001  -1.439735e+002 
3656250000  -4.402865e+001  -1.470445e+002 
3659375000  -4.352726e+001  -1.526232e+002 
3662500000  -4.340145e+001  -1.611512e+002 
3665625000  -4.318011e+001  -1.647915e+002 
3668750000  -4.174096e+001  -1.685927e+002 
3671875000  -4.175194e+001  1.757102e+002 
3675000000  -4.208468e+001  1.680132e+002 
3678125000  -4.262975e+001  1.605658e+002 
3681250000  -4.220113e+001  1.533345e+002 
3684375000  -4.238181e+001  1.471490e+002 
3687500000  -4.327550e+001  1.371752e+002 
3690625000  -4.363226e+001  1.350285e+002 
3693750000  -4.421911e+001  1.318635e+002 
3696875000  -4.379882e+001  1.278631e+002 
3700000000  -4.340021e+001  1.200718e+002 
3703125000  -4.340921e+001  1.128631e+002 
3706250000  -4.438132e+001  1.082381e+002 
3709375000  -4.386940e+001  1.095227e+002 
3712500000  -4.313362e+001  1.032009e+002 
3715625000  -4.160796e+001  9.394658e+001 
3718750000  -4.174471e+001  8.480137e+001 
3721875000  -4.185826e+001  7.661557e+001 
3725000000  -4.248094e+001  6.803539e+001 
3728125000  -4.282148e+001  6.342503e+001 
3731250000  -4.185728e+001  5.751782e+001 
3734375000  -4.213671e+001  4.939368e+001 
3737500000  -4.249835e+001  4.066031e+001 
3740625000  -4.287531e+001  3.461082e+001 
3743750000  -4.242025e+001  2.801608e+001 
3746875000  -4.335966e+001  2.195159e+001 
3750000000  -4.391682e+001  2.098045e+001 
3753125000  -4.392017e+001  1.660304e+001 
3756250000  -4.367823e+001  1.331381e+001 
3759375000  -4.354950e+001  7.086503e+000 
3762500000  -4.342896e+001  2.419065e+000 
3765625000  -4.421620e+001  -4.335779e+000 
3768750000  -4.385394e+001  -2.170377e+000 
3771875000  -4.203397e+001  -1.269603e+001 
3775000000  -4.232063e+001  -2.109993e+001 
3778125000  -4.242738e+001  -2.722971e+001 
3781250000  -4.279429e+001  -3.077735e+001 
3784375000  -4.254362e+001  -3.885718e+001 
3787500000  -4.247232e+001  -4.343916e+001 
3790625000  -4.269911e+001  -5.212971e+001 
3793750000  -4.265302e+001  -5.639841e+001 
3796875000  -4.187714e+001  -6.140174e+001 
3800000000  -4.071462e+001  -6.833643e+001 
3803125000  -4.175460e+001  -7.878448e+001 
3806250000  -4.217485e+001  -8.526951e+001 
3809375000  -4.199642e+001  -8.938873e+001 
3812500000  -4.164349e+001  -1.023967e+002 
3815625000  -4.298954e+001  -1.116024e+002 
3818750000  -4.426088e+001  -1.093008e+002 
3821875000  -4.343886e+001  -9.973200e+001 
3825000000  -4.148288e+001  -1.061996e+002 
3828125000  -4.045592e+001  -1.272203e+002 
3831250000  -4.150553e+001  -1.433332e+002 
3834375000  -4.365096e+001  -1.413496e+002 
3837500000  -4.394430e+001  -1.414872e+002 
3840625000  -4.241956e+001  -1.448210e+002 
3843750000  -4.161147e+001  -1.623917e+002 
3846875000  -4.335605e+001  -1.670295e+002 
3850000000  -4.457988e+001  -1.610764e+002 
3853125000  -4.351036e+001  -1.635897e+002 
3856250000  -4.321828e+001  -1.713638e+002 
3859375000  -4.217356e+001  1.791603e+002 
3862500000  -4.213574e+001  1.695111e+002 
3865625000  -4.274879e+001  1.630722e+002 
3868750000  -4.207484e+001  1.594413e+002 
3871875000  -4.193237e+001  1.531320e+002 
3875000000  -4.243195e+001  1.413208e+002 
3878125000  -4.335336e+001  1.385935e+002 
3881250000  -4.343459e+001  1.371629e+002 
3884375000  -4.242768e+001  1.267177e+002 
3887500000  -4.321952e+001  1.214493e+002 
3890625000  -4.355803e+001  1.135980e+002 
3893750000  -4.376801e+001  1.136282e+002 
3896875000  -4.426550e+001  1.107775e+002 
3900000000  -4.396833e+001  1.059273e+002 
3903125000  -4.356638e+001  1.019122e+002 
3906250000  -4.307310e+001  9.834367e+001 
3909375000  -4.274694e+001  8.576687e+001 
3912500000  -4.354879e+001  7.765652e+001 
3915625000  -4.508848e+001  7.742785e+001 
3918750000  -4.466703e+001  7.674785e+001 
3921875000  -4.378170e+001  7.023476e+001 
3925000000  -4.306300e+001  6.291648e+001 
3928125000  -4.295537e+001  5.732830e+001 
3931250000  -4.354667e+001  4.708928e+001 
3934375000  -4.407332e+001  4.647051e+001 
3937500000  -4.455476e+001  4.272660e+001 
3940625000  -4.433350e+001  4.088588e+001 
3943750000  -4.310351e+001  3.694569e+001 
3946875000  -4.294513e+001  2.844177e+001 
3950000000  -4.328621e+001  1.846510e+001 
3953125000  -4.421171e+001  1.816587e+001 
3956250000  -4.314075e+001  1.955226e+001 
3959375000  -4.193602e+001  1.169198e+001 
3962500000  -4.149911e+001  -7.661719e-001 
3965625000  -4.185331e+001  -1.051392e+001 
3968750000  -4.245564e+001  -1.603302e+001 
3971875000  -4.248697e+001  -2.400049e+001 
3975000000  -4.184660e+001  -2.806562e+001 
3978125000  -4.209512e+001  -3.408007e+001 
3981250000  -4.158907e+001  -4.278817e+001 
3984375000  -4.235266e+001  -4.963371e+001 
3987500000  -4.273849e+001  -5.351227e+001 
3990625000  -4.330898e+001  -5.848778e+001 
3993750000  -4.316186e+001  -6.445177e+001 
3996875000  -4.276078e+001  -7.178632e+001 
4000000000  -4.363892e+001  -7.310059e+001 
4003125000  -4.370090e+001  -7.328774e+001 
4006250000  -4.221959e+001  -8.137860e+001 
4009375000  -4.114639e+001  -9.680765e+001 
4012500000  -4.292123e+001  -1.025591e+002 
4015625000  -4.430239e+001  -1.059374e+002 
4018750000  -4.375175e+001  -1.105146e+002 
4021875000  -4.311054e+001  -1.166779e+002 
4025000000  -4.275541e+001  -1.239256e+002 
4028125000  -4.309942e+001  -1.320506e+002 
4031250000  -4.368730e+001  -1.383027e+002 
4034375000  -4.394977e+001  -1.399097e+002 
4037500000  -4.393923e+001  -1.448686e+002 
4040625000  -4.420377e+001  -1.470817e+002 
4043750000  -4.450304e+001  -1.538971e+002 
4046875000  -4.396619e+001  -1.571391e+002 
4050000000  -4.462094e+001  -1.648488e+002 
4053125000  -4.528484e+001  -1.669093e+002 
4056250000  -4.537327e+001  -1.656788e+002 
4059375000  -4.383938e+001  -1.667632e+002 
4062500000  -4.330199e+001  -1.749684e+002 
4065625000  -4.359860e+001  1.796168e+002 
4068750000  -4.278166e+001  1.680496e+002 
4071875000  -4.273315e+001  1.595897e+002 
4075000000  -4.330301e+001  1.516349e+002 
4078125000  -4.385889e+001  1.491474e+002 
4081250000  -4.388050e+001  1.427738e+002 
4084375000  -4.345078e+001  1.353436e+002 
4087500000  -4.426348e+001  1.286335e+002 
4090625000  -4.478042e+001  1.286841e+002 
4093750000  -4.449360e+001  1.226472e+002 
4096875000  -4.439774e+001  1.153618e+002 
4100000000  -4.488228e+001  1.086542e+002 
4103125000  -4.567939e+001  1.106942e+002 
4106250000  -4.492540e+001  1.127935e+002 
4109375000  -4.370267e+001  1.070044e+002 
4112500000  -4.395487e+001  9.804925e+001 
4115625000  -4.461156e+001  9.216210e+001 
4118750000  -4.400307e+001  8.777908e+001 
4121875000  -4.364019e+001  8.263564e+001 
4125000000  -4.440023e+001  7.448578e+001 
4128125000  -4.483794e+001  7.733379e+001 
4131250000  -4.363168e+001  8.253340e+001 
4134375000  -4.139730e+001  6.734880e+001 
4137500000  -4.211397e+001  4.917558e+001 
4140625000  -4.419370e+001  3.882487e+001 
4143750000  -4.446814e+001  4.560919e+001 
4146875000  -4.403711e+001  4.506429e+001 
4150000000  -4.296564e+001  3.955839e+001 
4153125000  -4.300226e+001  2.795976e+001 
4156250000  -4.392077e+001  2.483539e+001 
4159375000  -4.402938e+001  2.696512e+001 
4162500000  -4.230848e+001  2.367448e+001 
4165625000  -4.145523e+001  1.450540e+001 
4168750000  -4.117766e+001  3.118109e+000 
4171875000  -4.106124e+001  -9.524328e+000 
4175000000  -4.208644e+001  -1.753098e+001 
4178125000  -4.239093e+001  -2.052047e+001 
4181250000  -4.188963e+001  -2.494131e+001 
4184375000  -4.266034e+001  -3.287797e+001 
4187500000  -4.235017e+001  -3.919640e+001 
4190625000  -4.284462e+001  -4.833382e+001 
4193750000  -4.396303e+001  -5.345984e+001 
4196875000  -4.476385e+001  -5.583770e+001 
4200000000  -4.552361e+001  -4.975270e+001 
4203125000  -4.436812e+001  -3.926087e+001 
4206250000  -4.104811e+001  -5.000891e+001 
4209375000  -4.140980e+001  -7.384338e+001 
4212500000  -4.378823e+001  -8.118214e+001 
4215625000  -4.370993e+001  -7.696252e+001 
4218750000  -4.265479e+001  -7.492903e+001 
4221875000  -4.083712e+001  -8.573371e+001 
4225000000  -4.207359e+001  -9.805453e+001 
4228125000  -4.177812e+001  -9.718453e+001 
4231250000  -4.093271e+001  -1.045834e+002 
4234375000  -4.072138e+001  -1.163740e+002 
4237500000  -4.037614e+001  -1.218766e+002 
4240625000  -4.085516e+001  -1.319654e+002 
4243750000  -4.234786e+001  -1.418192e+002 
4246875000  -4.301659e+001  -1.395154e+002 
4250000000  -4.244818e+001  -1.405395e+002 
4253125000  -4.259205e+001  -1.443771e+002 
4256250000  -4.223072e+001  -1.507475e+002 
4259375000  -4.176180e+001  -1.568919e+002 
4262500000  -4.228873e+001  -1.618920e+002 
4265625000  -4.208846e+001  -1.624203e+002 
4268750000  -4.077604e+001  -1.716787e+002 
4271875000  -4.037498e+001  1.791852e+002 
4275000000  -4.069761e+001  1.686949e+002 
4278125000  -4.153535e+001  1.567591e+002 
4281250000  -4.237500e+001  1.545445e+002 
4284375000  -4.195532e+001  1.494079e+002 
4287500000  -4.376101e+001  1.483094e+002 
4290625000  -4.341089e+001  1.529183e+002 
4293750000  -4.138168e+001  1.537089e+002 
4296875000  -4.055954e+001  1.346434e+002 
4300000000  -4.135939e+001  1.292055e+002 
4303125000  -4.239828e+001  1.286644e+002 
4306250000  -4.055810e+001  1.289561e+002 
4309375000  -3.974966e+001  1.190592e+002 
4312500000  -3.974569e+001  1.069667e+002 
4315625000  -4.030043e+001  9.578178e+001 
4318750000  -4.064758e+001  9.186929e+001 
4321875000  -4.042023e+001  8.954973e+001 
4325000000  -4.017670e+001  8.491167e+001 
4328125000  -3.933842e+001  7.287362e+001 
4331250000  -4.006141e+001  6.120744e+001 
4334375000  -4.073183e+001  5.267538e+001 
4337500000  -4.197938e+001  5.183360e+001 
4340625000  -4.205576e+001  5.393938e+001 
4343750000  -4.081341e+001  4.775432e+001 
4346875000  -4.091652e+001  3.775237e+001 
4350000000  -4.090300e+001  2.910974e+001 
4353125000  -4.207852e+001  2.150091e+001 
4356250000  -4.404878e+001  2.362456e+001 
4359375000  -4.293721e+001  3.679287e+001 
4362500000  -3.943335e+001  2.739213e+001 
4365625000  -3.874818e+001  9.199082e+000 
4368750000  -4.021400e+001  -1.100567e+000 
4371875000  -4.076345e+001  -1.805657e+000 
4375000000  -4.066140e+001  -8.949027e+000 
4378125000  -4.059451e+001  -1.960473e+001 
4381250000  -4.059859e+001  -2.619432e+001 
4384375000  -4.058122e+001  -3.147784e+001 
4387500000  -4.149707e+001  -3.976133e+001 
4390625000  -4.216845e+001  -4.455011e+001 
4393750000  -4.169495e+001  -4.394280e+001 
4396875000  -4.096651e+001  -4.914705e+001 
4400000000  -4.072559e+001  -5.778887e+001 
4403125000  -4.130907e+001  -6.906736e+001 
4406250000  -4.208681e+001  -7.288980e+001 
4409375000  -4.256637e+001  -7.574738e+001 
4412500000  -4.344294e+001  -7.747312e+001 
4415625000  -4.279483e+001  -7.403433e+001 
4418750000  -4.179720e+001  -7.631870e+001 
