!Agilent Technologies,E8363B,MY43030201,A.06.04.32
!Agilent E8363B: A.06.04.32
!Date: Tuesday, November 11, 2014 21:51:38
!Correction: S21(Response(S21)) 
!S1P File: Measurement: S21:
# Hz S  dB   R 50
3000000000  -4.373959e+001  -1.624554e+002 
3003125000  -4.517835e+001  -1.676994e+002 
3006250000  -4.548621e+001  -1.678774e+002 
3009375000  -4.626757e+001  -1.655385e+002 
3012500000  -4.493045e+001  -1.739807e+002 
3015625000  -4.527110e+001  -1.788197e+002 
3018750000  -4.536961e+001  -1.794207e+002 
3021875000  -4.406627e+001  -1.797982e+002 
3025000000  -4.259900e+001  1.760342e+002 
3028125000  -4.187022e+001  1.628748e+002 
3031250000  -4.085162e+001  1.504018e+002 
3034375000  -4.074875e+001  1.374433e+002 
3037500000  -4.153552e+001  1.257882e+002 
3040625000  -4.302647e+001  1.209087e+002 
3043750000  -4.340946e+001  1.127319e+002 
3046875000  -4.415277e+001  1.069220e+002 
3050000000  -4.531911e+001  1.011311e+002 
3053125000  -4.467546e+001  1.048562e+002 
3056250000  -4.470739e+001  1.085914e+002 
3059375000  -4.377174e+001  1.045410e+002 
3062500000  -4.278862e+001  9.840919e+001 
3065625000  -4.209238e+001  8.764294e+001 
3068750000  -4.196237e+001  8.016834e+001 
3071875000  -4.176000e+001  7.847787e+001 
3075000000  -4.126601e+001  6.972868e+001 
3078125000  -4.136116e+001  6.251981e+001 
3081250000  -4.138061e+001  5.450655e+001 
3084375000  -4.051814e+001  5.061166e+001 
3087500000  -4.061465e+001  4.199514e+001 
3090625000  -3.992498e+001  2.958722e+001 
3093750000  -4.112670e+001  2.036641e+001 
3096875000  -4.126915e+001  1.502711e+001 
3100000000  -4.125935e+001  1.159131e+001 
3103125000  -4.139114e+001  6.199175e+000 
3106250000  -4.093885e+001  7.997625e-002 
3109375000  -4.103263e+001  -4.174655e+000 
3112500000  -4.096291e+001  -1.238133e+001 
3115625000  -4.084740e+001  -1.719622e+001 
3118750000  -4.082589e+001  -2.331847e+001 
3121875000  -4.035870e+001  -3.427308e+001 
3125000000  -4.233304e+001  -3.773343e+001 
3128125000  -4.218974e+001  -3.257647e+001 
3131250000  -3.940479e+001  -3.994619e+001 
3134375000  -3.901058e+001  -5.624992e+001 
3137500000  -3.947604e+001  -7.066508e+001 
3140625000  -4.079824e+001  -7.685464e+001 
3143750000  -4.142591e+001  -7.855342e+001 
3146875000  -4.119968e+001  -7.667581e+001 
3150000000  -4.043619e+001  -8.358065e+001 
3153125000  -4.064721e+001  -9.243829e+001 
3156250000  -4.135035e+001  -8.979018e+001 
3159375000  -3.907844e+001  -9.309573e+001 
3162500000  -3.778142e+001  -1.100803e+002 
3165625000  -3.895784e+001  -1.239039e+002 
3168750000  -3.889357e+001  -1.237397e+002 
3171875000  -3.843264e+001  -1.339553e+002 
3175000000  -3.925640e+001  -1.441297e+002 
3178125000  -3.870959e+001  -1.470757e+002 
3181250000  -3.797978e+001  -1.561343e+002 
3184375000  -3.775971e+001  -1.681753e+002 
3187500000  -3.926689e+001  1.760049e+002 
3190625000  -4.081145e+001  1.690237e+002 
3193750000  -4.139433e+001  1.738704e+002 
3196875000  -4.102588e+001  1.730455e+002 
3200000000  -3.982018e+001  1.690464e+002 
3203125000  -3.956837e+001  1.586308e+002 
3206250000  -3.975397e+001  1.500242e+002 
3209375000  -3.948811e+001  1.415181e+002 
3212500000  -3.990064e+001  1.341644e+002 
3215625000  -3.952265e+001  1.320363e+002 
3218750000  -4.018299e+001  1.197918e+002 
3221875000  -4.056174e+001  1.122288e+002 
3225000000  -4.034911e+001  1.072456e+002 
3228125000  -4.104914e+001  9.966660e+001 
3231250000  -4.142315e+001  9.668291e+001 
3234375000  -4.112007e+001  9.455872e+001 
3237500000  -4.091443e+001  8.951611e+001 
3240625000  -4.041346e+001  8.111115e+001 
3243750000  -4.015062e+001  7.030293e+001 
3246875000  -4.059444e+001  6.154852e+001 
3250000000  -4.117508e+001  5.678495e+001 
3253125000  -4.127488e+001  5.337497e+001 
3256250000  -4.024391e+001  4.407851e+001 
3259375000  -4.087837e+001  3.079070e+001 
3262500000  -4.227019e+001  2.494655e+001 
3265625000  -4.250307e+001  2.583722e+001 
3268750000  -4.252438e+001  2.646364e+001 
3271875000  -4.162114e+001  1.997994e+001 
3275000000  -4.120023e+001  1.045347e+001 
3278125000  -4.175872e+001  2.101637e+000 
3281250000  -4.189520e+001  -2.406329e+000 
3284375000  -4.104123e+001  -9.249116e+000 
3287500000  -4.158082e+001  -1.706599e+001 
3290625000  -4.130982e+001  -2.694037e+001 
3293750000  -4.146862e+001  -3.571553e+001 
3296875000  -4.279629e+001  -3.878190e+001 
3300000000  -4.203527e+001  -4.089090e+001 
3303125000  -4.102275e+001  -5.119049e+001 
3306250000  -4.092600e+001  -6.003635e+001 
3309375000  -4.050756e+001  -7.211020e+001 
3312500000  -4.125105e+001  -8.673992e+001 
3315625000  -4.233093e+001  -9.667035e+001 
3318750000  -4.399129e+001  -1.038351e+002 
3321875000  -4.525801e+001  -1.007310e+002 
3325000000  -4.489796e+001  -9.665973e+001 
3328125000  -4.442121e+001  -9.885043e+001 
3331250000  -4.268312e+001  -9.858206e+001 
3334375000  -4.001386e+001  -1.186753e+002 
3337500000  -4.081814e+001  -1.417043e+002 
3340625000  -4.289949e+001  -1.515534e+002 
3343750000  -4.467255e+001  -1.535805e+002 
3346875000  -4.386932e+001  -1.565452e+002 
3350000000  -4.364469e+001  -1.626371e+002 
3353125000  -4.347513e+001  -1.711100e+002 
3356250000  -4.348102e+001  1.765197e+002 
3359375000  -4.427400e+001  1.644980e+002 
3362500000  -4.519155e+001  1.553384e+002 
3365625000  -4.568602e+001  1.521281e+002 
3368750000  -4.601966e+001  1.440493e+002 
3371875000  -4.707236e+001  1.376075e+002 
3375000000  -4.827963e+001  1.363944e+002 
3378125000  -4.911041e+001  1.312927e+002 
3381250000  -5.043679e+001  1.398342e+002 
3384375000  -4.695364e+001  1.514919e+002 
3387500000  -4.482603e+001  1.261882e+002 
3390625000  -4.642784e+001  1.043507e+002 
3393750000  -4.732131e+001  1.016786e+002 
3396875000  -4.592678e+001  9.689523e+001 
3400000000  -4.613445e+001  8.498804e+001 
3403125000  -4.650197e+001  7.799298e+001 
3406250000  -4.710659e+001  6.918752e+001 
3409375000  -4.668544e+001  5.991094e+001 
3412500000  -4.806625e+001  5.321379e+001 
3415625000  -4.872343e+001  4.833848e+001 
3418750000  -4.900173e+001  3.935025e+001 
3421875000  -4.890781e+001  4.087506e+001 
3425000000  -4.769810e+001  3.436137e+001 
3428125000  -4.703543e+001  2.653451e+001 
3431250000  -4.683364e+001  1.451690e+001 
3434375000  -4.675573e+001  5.860665e-001 
3437500000  -4.720079e+001  -8.593641e+000 
3440625000  -4.781619e+001  -7.973569e+000 
3443750000  -4.686694e+001  -1.354255e+001 
3446875000  -4.581344e+001  -2.772885e+001 
3450000000  -4.529449e+001  -4.437885e+001 
3453125000  -4.569020e+001  -6.165429e+001 
3456250000  -4.729303e+001  -7.334904e+001 
3459375000  -4.829763e+001  -7.354054e+001 
3462500000  -4.794177e+001  -7.562390e+001 
3465625000  -4.731996e+001  -8.907648e+001 
3468750000  -4.774220e+001  -9.711604e+001 
3471875000  -4.708222e+001  -1.024116e+002 
3475000000  -4.713910e+001  -1.161294e+002 
3478125000  -4.773974e+001  -1.314677e+002 
3481250000  -4.891829e+001  -1.363483e+002 
3484375000  -4.860355e+001  -1.335512e+002 
3487500000  -4.798257e+001  -1.403343e+002 
3490625000  -4.721376e+001  -1.552014e+002 
3493750000  -4.780018e+001  -1.682059e+002 
3496875000  -4.783492e+001  -1.724913e+002 
3500000000  -4.863193e+001  -1.715304e+002 
3503125000  -4.734954e+001  -1.753685e+002 
3506250000  -4.586719e+001  1.703947e+002 
3509375000  -4.584038e+001  1.523783e+002 
3512500000  -4.628647e+001  1.355009e+002 
3515625000  -4.732725e+001  1.308045e+002 
3518750000  -4.773968e+001  1.301288e+002 
3521875000  -4.849287e+001  1.162722e+002 
3525000000  -4.882682e+001  1.134453e+002 
3528125000  -4.706419e+001  1.163400e+002 
3531250000  -4.678560e+001  1.021132e+002 
3534375000  -4.687814e+001  8.652205e+001 
3537500000  -4.758204e+001  7.599424e+001 
3540625000  -4.905754e+001  7.627595e+001 
3543750000  -4.955739e+001  7.815932e+001 
3546875000  -4.826583e+001  8.020344e+001 
3550000000  -4.686127e+001  7.378107e+001 
3553125000  -4.634245e+001  5.610757e+001 
3556250000  -4.746286e+001  4.763853e+001 
3559375000  -4.630592e+001  3.968384e+001 
3562500000  -4.661220e+001  3.209103e+001 
3565625000  -4.741179e+001  2.315698e+001 
3568750000  -4.764871e+001  2.518375e+001 
3571875000  -4.696093e+001  1.755103e+001 
3575000000  -4.696908e+001  1.078587e+001 
3578125000  -4.763579e+001  6.518725e+000 
3581250000  -4.761967e+001  3.812857e+000 
3584375000  -4.609225e+001  -4.278976e+000 
3587500000  -4.613421e+001  -1.674475e+001 
3590625000  -4.607847e+001  -2.689804e+001 
3593750000  -4.805576e+001  -2.704730e+001 
3596875000  -4.681726e+001  -2.238779e+001 
3600000000  -4.472505e+001  -3.167982e+001 
3603125000  -4.494775e+001  -4.967717e+001 
3606250000  -4.609294e+001  -5.448987e+001 
3609375000  -4.607261e+001  -5.923894e+001 
3612500000  -4.594963e+001  -6.382820e+001 
3615625000  -4.625017e+001  -6.971902e+001 
3618750000  -4.636148e+001  -7.198721e+001 
3621875000  -4.563431e+001  -7.847356e+001 
3625000000  -4.576177e+001  -8.551231e+001 
3628125000  -4.490424e+001  -8.985464e+001 
3631250000  -4.504961e+001  -1.007445e+002 
3634375000  -4.586095e+001  -1.008522e+002 
3637500000  -4.456006e+001  -1.010873e+002 
3640625000  -4.358308e+001  -1.074983e+002 
3643750000  -4.322615e+001  -1.201034e+002 
3646875000  -4.368250e+001  -1.309075e+002 
3650000000  -4.385364e+001  -1.345169e+002 
3653125000  -4.333125e+001  -1.437804e+002 
3656250000  -4.392749e+001  -1.487265e+002 
3659375000  -4.381888e+001  -1.524858e+002 
3662500000  -4.332693e+001  -1.620765e+002 
3665625000  -4.359281e+001  -1.659219e+002 
3668750000  -4.189262e+001  -1.692029e+002 
3671875000  -4.160019e+001  1.766981e+002 
3675000000  -4.235072e+001  1.647664e+002 
3678125000  -4.256103e+001  1.619753e+002 
3681250000  -4.240398e+001  1.553851e+002 
3684375000  -4.248268e+001  1.468613e+002 
3687500000  -4.295949e+001  1.376292e+002 
3690625000  -4.377299e+001  1.317664e+002 
3693750000  -4.422425e+001  1.289927e+002 
3696875000  -4.401684e+001  1.275848e+002 
3700000000  -4.325376e+001  1.194074e+002 
3703125000  -4.350006e+001  1.115450e+002 
3706250000  -4.451754e+001  1.099669e+002 
3709375000  -4.404959e+001  1.091531e+002 
3712500000  -4.317493e+001  1.026903e+002 
3715625000  -4.155727e+001  9.276205e+001 
3718750000  -4.170556e+001  8.337424e+001 
3721875000  -4.183528e+001  7.533582e+001 
3725000000  -4.240125e+001  6.816064e+001 
3728125000  -4.250289e+001  6.459837e+001 
3731250000  -4.203754e+001  5.857460e+001 
3734375000  -4.232510e+001  4.977812e+001 
3737500000  -4.280265e+001  4.041070e+001 
3740625000  -4.309336e+001  3.566076e+001 
3743750000  -4.296725e+001  2.916736e+001 
3746875000  -4.351711e+001  2.073693e+001 
3750000000  -4.346432e+001  1.839302e+001 
3753125000  -4.373401e+001  1.594658e+001 
3756250000  -4.397231e+001  1.370611e+001 
3759375000  -4.339888e+001  7.705469e+000 
3762500000  -4.361340e+001  1.430915e+000 
3765625000  -4.393290e+001  -3.578699e+000 
3768750000  -4.352501e+001  -1.642455e+000 
3771875000  -4.223106e+001  -1.164883e+001 
3775000000  -4.209874e+001  -2.113321e+001 
3778125000  -4.265929e+001  -2.883115e+001 
3781250000  -4.277652e+001  -3.123142e+001 
3784375000  -4.218058e+001  -3.813496e+001 
3787500000  -4.249465e+001  -4.237221e+001 
3790625000  -4.275166e+001  -5.213693e+001 
3793750000  -4.271139e+001  -5.854841e+001 
3796875000  -4.166607e+001  -6.210466e+001 
3800000000  -4.065561e+001  -6.806268e+001 
3803125000  -4.169994e+001  -7.986551e+001 
3806250000  -4.214386e+001  -8.509023e+001 
3809375000  -4.185208e+001  -9.010535e+001 
3812500000  -4.168233e+001  -1.026671e+002 
3815625000  -4.295241e+001  -1.128197e+002 
3818750000  -4.408489e+001  -1.100022e+002 
3821875000  -4.355507e+001  -1.021165e+002 
3825000000  -4.135602e+001  -1.075559e+002 
3828125000  -4.017191e+001  -1.280367e+002 
3831250000  -4.143868e+001  -1.428061e+002 
3834375000  -4.383091e+001  -1.434502e+002 
3837500000  -4.375316e+001  -1.400163e+002 
3840625000  -4.247123e+001  -1.458684e+002 
3843750000  -4.153928e+001  -1.614682e+002 
3846875000  -4.374434e+001  -1.684591e+002 
3850000000  -4.386479e+001  -1.634445e+002 
3853125000  -4.334005e+001  -1.658343e+002 
3856250000  -4.277844e+001  -1.712727e+002 
3859375000  -4.246136e+001  -1.798445e+002 
3862500000  -4.203440e+001  1.662089e+002 
3865625000  -4.311897e+001  1.622383e+002 
3868750000  -4.230100e+001  1.629887e+002 
3871875000  -4.189449e+001  1.496247e+002 
3875000000  -4.218557e+001  1.394588e+002 
3878125000  -4.316511e+001  1.382047e+002 
3881250000  -4.342265e+001  1.385768e+002 
3884375000  -4.261115e+001  1.248961e+002 
3887500000  -4.355136e+001  1.207391e+002 
3890625000  -4.392041e+001  1.174043e+002 
3893750000  -4.425805e+001  1.142959e+002 
3896875000  -4.407070e+001  1.114077e+002 
3900000000  -4.435289e+001  1.059751e+002 
3903125000  -4.384460e+001  9.816849e+001 
3906250000  -4.344485e+001  9.719589e+001 
3909375000  -4.246420e+001  8.619980e+001 
3912500000  -4.378819e+001  7.784987e+001 
3915625000  -4.499931e+001  7.649336e+001 
3918750000  -4.474533e+001  7.209088e+001 
3921875000  -4.378914e+001  7.028953e+001 
3925000000  -4.309849e+001  6.213997e+001 
3928125000  -4.308140e+001  5.710383e+001 
3931250000  -4.359183e+001  4.644043e+001 
3934375000  -4.399381e+001  4.421497e+001 
3937500000  -4.463371e+001  4.349438e+001 
3940625000  -4.421814e+001  4.255254e+001 
3943750000  -4.299751e+001  3.405669e+001 
3946875000  -4.295592e+001  2.750713e+001 
3950000000  -4.371451e+001  1.765577e+001 
3953125000  -4.446279e+001  1.859839e+001 
3956250000  -4.263615e+001  1.939850e+001 
3959375000  -4.155933e+001  1.411042e+001 
3962500000  -4.127057e+001  1.697690e+000 
3965625000  -4.189130e+001  -1.006091e+001 
3968750000  -4.237246e+001  -1.971412e+001 
3971875000  -4.217234e+001  -2.272515e+001 
3975000000  -4.197673e+001  -2.548530e+001 
3978125000  -4.193877e+001  -3.609430e+001 
3981250000  -4.175446e+001  -4.054046e+001 
3984375000  -4.224265e+001  -4.925242e+001 
3987500000  -4.270119e+001  -5.526102e+001 
3990625000  -4.295242e+001  -5.774669e+001 
3993750000  -4.272786e+001  -6.505361e+001 
3996875000  -4.264691e+001  -7.366202e+001 
4000000000  -4.358311e+001  -7.418199e+001 
4003125000  -4.394564e+001  -7.199708e+001 
4006250000  -4.195576e+001  -7.990462e+001 
4009375000  -4.133238e+001  -9.606142e+001 
4012500000  -4.275793e+001  -1.047525e+002 
4015625000  -4.390339e+001  -1.080599e+002 
4018750000  -4.393974e+001  -1.080956e+002 
4021875000  -4.329351e+001  -1.172867e+002 
4025000000  -4.311295e+001  -1.251947e+002 
4028125000  -4.323957e+001  -1.317472e+002 
4031250000  -4.370975e+001  -1.384129e+002 
4034375000  -4.422276e+001  -1.421191e+002 
4037500000  -4.414994e+001  -1.402965e+002 
4040625000  -4.403981e+001  -1.477925e+002 
4043750000  -4.430352e+001  -1.502897e+002 
4046875000  -4.385156e+001  -1.582252e+002 
4050000000  -4.425367e+001  -1.635832e+002 
4053125000  -4.501108e+001  -1.699062e+002 
4056250000  -4.550238e+001  -1.642881e+002 
4059375000  -4.373264e+001  -1.702350e+002 
4062500000  -4.318748e+001  -1.767797e+002 
4065625000  -4.361128e+001  -1.793625e+002 
4068750000  -4.289388e+001  1.693194e+002 
4071875000  -4.299359e+001  1.611102e+002 
4075000000  -4.387309e+001  1.571737e+002 
4078125000  -4.382237e+001  1.505378e+002 
4081250000  -4.346365e+001  1.437663e+002 
4084375000  -4.304427e+001  1.357172e+002 
4087500000  -4.396981e+001  1.282847e+002 
4090625000  -4.456440e+001  1.245857e+002 
4093750000  -4.412058e+001  1.265204e+002 
4096875000  -4.411952e+001  1.155421e+002 
4100000000  -4.523773e+001  1.067923e+002 
4103125000  -4.563326e+001  1.103766e+002 
4106250000  -4.531693e+001  1.139870e+002 
4109375000  -4.404103e+001  1.078806e+002 
4112500000  -4.407566e+001  9.856309e+001 
4115625000  -4.447649e+001  9.127893e+001 
4118750000  -4.402835e+001  8.947784e+001 
4121875000  -4.359215e+001  8.062924e+001 
4125000000  -4.453377e+001  7.221560e+001 
4128125000  -4.510143e+001  7.636361e+001 
4131250000  -4.356048e+001  7.902139e+001 
4134375000  -4.134949e+001  6.730228e+001 
4137500000  -4.199327e+001  4.872025e+001 
4140625000  -4.409590e+001  4.036258e+001 
4143750000  -4.514421e+001  4.462772e+001 
4146875000  -4.411626e+001  4.744128e+001 
4150000000  -4.276528e+001  3.745684e+001 
4153125000  -4.308055e+001  2.721410e+001 
4156250000  -4.448458e+001  2.466984e+001 
4159375000  -4.376053e+001  2.476728e+001 
4162500000  -4.259055e+001  2.260380e+001 
4165625000  -4.131301e+001  1.420301e+001 
4168750000  -4.110815e+001  4.366571e+000 
4171875000  -4.112299e+001  -7.416578e+000 
4175000000  -4.190918e+001  -1.897195e+001 
4178125000  -4.198639e+001  -2.047694e+001 
4181250000  -4.194651e+001  -2.581578e+001 
4184375000  -4.229727e+001  -3.252316e+001 
4187500000  -4.224633e+001  -3.734694e+001 
4190625000  -4.234487e+001  -4.833888e+001 
4193750000  -4.441760e+001  -5.137615e+001 
4196875000  -4.492588e+001  -5.625844e+001 
4200000000  -4.537096e+001  -4.850763e+001 
4203125000  -4.444498e+001  -3.946208e+001 
4206250000  -4.149251e+001  -5.378226e+001 
4209375000  -4.124623e+001  -7.741087e+001 
4212500000  -4.363993e+001  -8.058404e+001 
4215625000  -4.411065e+001  -7.525275e+001 
4218750000  -4.238367e+001  -7.700066e+001 
4221875000  -4.086386e+001  -8.829831e+001 
4225000000  -4.205643e+001  -9.845419e+001 
4228125000  -4.183604e+001  -9.640981e+001 
4231250000  -4.097303e+001  -1.054151e+002 
4234375000  -4.068906e+001  -1.172354e+002 
4237500000  -4.051043e+001  -1.238876e+002 
4240625000  -4.106836e+001  -1.313131e+002 
4243750000  -4.245951e+001  -1.427236e+002 
4246875000  -4.280398e+001  -1.409253e+002 
4250000000  -4.275535e+001  -1.443487e+002 
4253125000  -4.236382e+001  -1.465533e+002 
4256250000  -4.211790e+001  -1.523020e+002 
4259375000  -4.243454e+001  -1.570597e+002 
4262500000  -4.196897e+001  -1.631179e+002 
4265625000  -4.182734e+001  -1.640070e+002 
4268750000  -4.098186e+001  -1.709205e+002 
4271875000  -4.058537e+001  1.770165e+002 
4275000000  -4.026054e+001  1.701014e+002 
4278125000  -4.126941e+001  1.572144e+002 
4281250000  -4.244627e+001  1.540385e+002 
4284375000  -4.172054e+001  1.506105e+002 
4287500000  -4.345832e+001  1.483244e+002 
4290625000  -4.377323e+001  1.542999e+002 
4293750000  -4.138112e+001  1.511238e+002 
4296875000  -4.025180e+001  1.362668e+002 
4300000000  -4.135616e+001  1.281427e+002 
4303125000  -4.189578e+001  1.286436e+002 
4306250000  -4.083105e+001  1.276051e+002 
4309375000  -3.978880e+001  1.191047e+002 
4312500000  -3.963368e+001  1.048786e+002 
4315625000  -4.017558e+001  9.708755e+001 
4318750000  -4.055532e+001  8.957451e+001 
4321875000  -4.070282e+001  8.926961e+001 
4325000000  -4.006548e+001  8.384402e+001 
4328125000  -3.932628e+001  7.249611e+001 
4331250000  -3.986256e+001  6.220161e+001 
4334375000  -4.091638e+001  5.459736e+001 
4337500000  -4.207235e+001  5.054626e+001 
4340625000  -4.210817e+001  5.437240e+001 
4343750000  -4.132182e+001  5.024453e+001 
4346875000  -4.110019e+001  4.319479e+001 
4350000000  -4.110268e+001  2.926151e+001 
4353125000  -4.203325e+001  1.849941e+001 
4356250000  -4.397876e+001  2.509389e+001 
4359375000  -4.232885e+001  3.785547e+001 
4362500000  -3.931560e+001  2.692397e+001 
4365625000  -3.880298e+001  7.560505e+000 
4368750000  -4.051410e+001  1.093176e+000 
4371875000  -4.127607e+001  -4.051373e+000 
4375000000  -4.045732e+001  -1.022156e+001 
4378125000  -4.024349e+001  -1.625154e+001 
4381250000  -4.054618e+001  -2.499900e+001 
4384375000  -4.055879e+001  -2.994607e+001 
4387500000  -4.145159e+001  -3.939011e+001 
4390625000  -4.242416e+001  -4.246957e+001 
4393750000  -4.154036e+001  -4.211762e+001 
4396875000  -4.125190e+001  -4.817664e+001 
4400000000  -4.090926e+001  -5.909015e+001 
4403125000  -4.154778e+001  -6.644631e+001 
4406250000  -4.189403e+001  -7.276612e+001 
4409375000  -4.280516e+001  -7.708153e+001 
4412500000  -4.347079e+001  -7.860878e+001 
4415625000  -4.311101e+001  -7.553624e+001 
4418750000  -4.187621e+001  -8.004696e+001 
