!Agilent Technologies,E8363B,MY43030201,A.06.04.32
!Agilent E8363B: A.06.04.32
!Date: Tuesday, November 11, 2014 21:45:16
!Correction: S21(Response(S21)) 
!S1P File: Measurement: S21:
# Hz S  dB   R 50
3000000000  -4.378164e+001  -1.610296e+002 
3003125000  -4.522567e+001  -1.657583e+002 
3006250000  -4.520664e+001  -1.669040e+002 
3009375000  -4.592691e+001  -1.626526e+002 
3012500000  -4.440598e+001  -1.709379e+002 
3015625000  -4.507823e+001  -1.781163e+002 
3018750000  -4.516286e+001  -1.770636e+002 
3021875000  -4.388546e+001  -1.784547e+002 
3025000000  -4.247183e+001  1.769415e+002 
3028125000  -4.174112e+001  1.654778e+002 
3031250000  -4.091694e+001  1.527854e+002 
3034375000  -4.073049e+001  1.378548e+002 
3037500000  -4.152438e+001  1.265757e+002 
3040625000  -4.292499e+001  1.217277e+002 
3043750000  -4.328292e+001  1.142696e+002 
3046875000  -4.405243e+001  1.092700e+002 
3050000000  -4.529097e+001  1.026996e+002 
3053125000  -4.460853e+001  1.072232e+002 
3056250000  -4.451318e+001  1.084959e+002 
3059375000  -4.376976e+001  1.063038e+002 
3062500000  -4.247229e+001  9.988193e+001 
3065625000  -4.207533e+001  8.868164e+001 
3068750000  -4.177479e+001  8.207056e+001 
3071875000  -4.160354e+001  7.953542e+001 
3075000000  -4.114159e+001  7.196703e+001 
3078125000  -4.134853e+001  6.411520e+001 
3081250000  -4.130145e+001  5.683588e+001 
3084375000  -4.047762e+001  5.122221e+001 
3087500000  -4.043359e+001  4.318374e+001 
3090625000  -3.987798e+001  3.101693e+001 
3093750000  -4.098873e+001  2.174252e+001 
3096875000  -4.140675e+001  1.596579e+001 
3100000000  -4.109400e+001  1.268069e+001 
3103125000  -4.155529e+001  7.467753e+000 
3106250000  -4.087207e+001  2.313926e+000 
3109375000  -4.099418e+001  -2.960134e+000 
3112500000  -4.072318e+001  -1.057830e+001 
3115625000  -4.069574e+001  -1.552790e+001 
3118750000  -4.054980e+001  -2.145418e+001 
3121875000  -4.022520e+001  -3.227351e+001 
3125000000  -4.214627e+001  -3.777198e+001 
3128125000  -4.176630e+001  -3.031314e+001 
3131250000  -3.959669e+001  -3.870176e+001 
3134375000  -3.893510e+001  -5.584488e+001 
3137500000  -3.957219e+001  -6.980833e+001 
3140625000  -4.074464e+001  -7.309737e+001 
3143750000  -4.150790e+001  -7.703843e+001 
3146875000  -4.116638e+001  -7.639598e+001 
3150000000  -4.031092e+001  -8.288747e+001 
3153125000  -4.087380e+001  -9.168499e+001 
3156250000  -4.142579e+001  -8.807343e+001 
3159375000  -3.925625e+001  -9.083797e+001 
3162500000  -3.764835e+001  -1.078032e+002 
3165625000  -3.918114e+001  -1.215932e+002 
3168750000  -3.901964e+001  -1.242346e+002 
3171875000  -3.861065e+001  -1.329019e+002 
3175000000  -3.910495e+001  -1.416867e+002 
3178125000  -3.860334e+001  -1.447465e+002 
3181250000  -3.818116e+001  -1.548348e+002 
3184375000  -3.782614e+001  -1.665749e+002 
3187500000  -3.939296e+001  1.771732e+002 
3190625000  -4.092353e+001  1.705848e+002 
3193750000  -4.133020e+001  1.751086e+002 
3196875000  -4.110319e+001  1.746737e+002 
3200000000  -3.977664e+001  1.696375e+002 
3203125000  -3.959782e+001  1.594937e+002 
3206250000  -3.991659e+001  1.525114e+002 
3209375000  -3.938614e+001  1.435428e+002 
3212500000  -3.998064e+001  1.344296e+002 
3215625000  -3.967986e+001  1.331384e+002 
3218750000  -4.053169e+001  1.203992e+002 
3221875000  -4.082667e+001  1.148447e+002 
3225000000  -4.060666e+001  1.081314e+002 
3228125000  -4.114432e+001  9.977463e+001 
3231250000  -4.145727e+001  9.593807e+001 
3234375000  -4.103522e+001  9.489293e+001 
3237500000  -4.115868e+001  9.231057e+001 
3240625000  -4.046582e+001  8.245750e+001 
3243750000  -4.021755e+001  7.068534e+001 
3246875000  -4.084029e+001  6.397268e+001 
3250000000  -4.129340e+001  5.871265e+001 
3253125000  -4.124350e+001  5.497587e+001 
3256250000  -4.045424e+001  4.445616e+001 
3259375000  -4.123145e+001  3.094698e+001 
3262500000  -4.261452e+001  2.722468e+001 
3265625000  -4.248573e+001  2.917435e+001 
3268750000  -4.256595e+001  2.735262e+001 
3271875000  -4.157757e+001  2.081901e+001 
3275000000  -4.114314e+001  1.108179e+001 
3278125000  -4.162397e+001  2.304845e+000 
3281250000  -4.198948e+001  -7.212735e-001 
3284375000  -4.096471e+001  -8.587289e+000 
3287500000  -4.164341e+001  -1.642160e+001 
3290625000  -4.166051e+001  -2.550964e+001 
3293750000  -4.169662e+001  -3.355413e+001 
3296875000  -4.276874e+001  -3.715022e+001 
3300000000  -4.211419e+001  -4.063503e+001 
3303125000  -4.100528e+001  -5.032729e+001 
3306250000  -4.082292e+001  -6.021358e+001 
3309375000  -4.072846e+001  -7.142632e+001 
3312500000  -4.125493e+001  -8.714745e+001 
3315625000  -4.230919e+001  -9.457011e+001 
3318750000  -4.402482e+001  -1.019440e+002 
3321875000  -4.537366e+001  -9.982895e+001 
3325000000  -4.518269e+001  -9.649911e+001 
3328125000  -4.421712e+001  -1.007015e+002 
3331250000  -4.214384e+001  -9.820740e+001 
3334375000  -4.018750e+001  -1.179212e+002 
3337500000  -4.077334e+001  -1.429655e+002 
3340625000  -4.305252e+001  -1.510260e+002 
3343750000  -4.454647e+001  -1.535084e+002 
3346875000  -4.389751e+001  -1.569678e+002 
3350000000  -4.361185e+001  -1.593918e+002 
3353125000  -4.383487e+001  -1.715688e+002 
3356250000  -4.333142e+001  1.787985e+002 
3359375000  -4.448294e+001  1.661537e+002 
3362500000  -4.520035e+001  1.602092e+002 
3365625000  -4.546368e+001  1.495600e+002 
3368750000  -4.653801e+001  1.457859e+002 
3371875000  -4.729050e+001  1.397939e+002 
3375000000  -4.824945e+001  1.334308e+002 
3378125000  -4.913277e+001  1.308176e+002 
3381250000  -5.100340e+001  1.429605e+002 
3384375000  -4.722448e+001  1.531425e+002 
3387500000  -4.469795e+001  1.249705e+002 
3390625000  -4.672653e+001  1.049830e+002 
3393750000  -4.783693e+001  1.051522e+002 
3396875000  -4.685170e+001  1.004144e+002 
3400000000  -4.620421e+001  8.768095e+001 
3403125000  -4.685770e+001  7.856376e+001 
3406250000  -4.773631e+001  7.097443e+001 
3409375000  -4.741159e+001  6.305490e+001 
3412500000  -4.764444e+001  5.429030e+001 
3415625000  -4.849953e+001  4.887848e+001 
3418750000  -4.913074e+001  4.633134e+001 
3421875000  -4.956389e+001  4.115641e+001 
3425000000  -4.757005e+001  3.361307e+001 
3428125000  -4.754577e+001  2.844077e+001 
3431250000  -4.703967e+001  1.554378e+001 
3434375000  -4.741248e+001  -1.918383e-002 
3437500000  -4.781381e+001  -8.451433e+000 
3440625000  -4.789066e+001  -8.435892e+000 
3443750000  -4.657155e+001  -1.383711e+001 
3446875000  -4.567411e+001  -2.722814e+001 
3450000000  -4.488093e+001  -4.263694e+001 
3453125000  -4.609505e+001  -6.078110e+001 
3456250000  -4.709960e+001  -7.128759e+001 
3459375000  -4.792245e+001  -7.087785e+001 
3462500000  -4.773473e+001  -7.587757e+001 
3465625000  -4.759006e+001  -8.899622e+001 
3468750000  -4.740295e+001  -9.403977e+001 
3471875000  -4.699100e+001  -1.038738e+002 
3475000000  -4.696402e+001  -1.156592e+002 
3478125000  -4.733231e+001  -1.303388e+002 
3481250000  -4.856184e+001  -1.333976e+002 
3484375000  -4.887476e+001  -1.350656e+002 
3487500000  -4.746955e+001  -1.406221e+002 
3490625000  -4.765889e+001  -1.532908e+002 
3493750000  -4.818338e+001  -1.673422e+002 
3496875000  -4.771748e+001  -1.689982e+002 
3500000000  -4.851182e+001  -1.724886e+002 
3503125000  -4.691250e+001  -1.750741e+002 
3506250000  -4.523014e+001  1.724176e+002 
3509375000  -4.549549e+001  1.545614e+002 
3512500000  -4.640151e+001  1.378735e+002 
3515625000  -4.712029e+001  1.332857e+002 
3518750000  -4.800319e+001  1.292961e+002 
3521875000  -4.827461e+001  1.177862e+002 
3525000000  -4.818618e+001  1.141112e+002 
3528125000  -4.755870e+001  1.161001e+002 
3531250000  -4.678772e+001  1.074783e+002 
3534375000  -4.708121e+001  9.081129e+001 
3537500000  -4.782474e+001  8.045458e+001 
3540625000  -4.862498e+001  7.794012e+001 
3543750000  -4.882806e+001  7.869827e+001 
3546875000  -4.846385e+001  8.251671e+001 
3550000000  -4.679572e+001  7.419231e+001 
3553125000  -4.592318e+001  5.552231e+001 
3556250000  -4.715531e+001  4.801924e+001 
3559375000  -4.673340e+001  3.892352e+001 
3562500000  -4.657507e+001  3.345714e+001 
3565625000  -4.729037e+001  2.676723e+001 
3568750000  -4.802973e+001  2.579700e+001 
3571875000  -4.713152e+001  2.040101e+001 
3575000000  -4.695907e+001  9.946805e+000 
3578125000  -4.766973e+001  9.457628e+000 
3581250000  -4.705670e+001  2.925265e+000 
3584375000  -4.617944e+001  -1.981559e+000 
3587500000  -4.568758e+001  -1.574018e+001 
3590625000  -4.659058e+001  -2.076156e+001 
3593750000  -4.741331e+001  -2.645276e+001 
3596875000  -4.649681e+001  -1.910559e+001 
3600000000  -4.468491e+001  -3.096715e+001 
3603125000  -4.555938e+001  -4.906600e+001 
3606250000  -4.584393e+001  -5.286826e+001 
3609375000  -4.633898e+001  -5.745613e+001 
3612500000  -4.587352e+001  -6.344710e+001 
3615625000  -4.635196e+001  -6.876268e+001 
3618750000  -4.688783e+001  -7.312376e+001 
3621875000  -4.519036e+001  -7.689748e+001 
3625000000  -4.588541e+001  -8.069585e+001 
3628125000  -4.525487e+001  -8.813564e+001 
3631250000  -4.491464e+001  -9.661216e+001 
3634375000  -4.580301e+001  -9.964987e+001 
3637500000  -4.433241e+001  -9.803544e+001 
3640625000  -4.338186e+001  -1.055409e+002 
3643750000  -4.320106e+001  -1.179250e+002 
3646875000  -4.383527e+001  -1.278449e+002 
3650000000  -4.399784e+001  -1.317745e+002 
3653125000  -4.360794e+001  -1.429631e+002 
3656250000  -4.377413e+001  -1.478124e+002 
3659375000  -4.358743e+001  -1.509378e+002 
3662500000  -4.305466e+001  -1.592924e+002 
3665625000  -4.343244e+001  -1.631404e+002 
3668750000  -4.200406e+001  -1.690329e+002 
3671875000  -4.172193e+001  1.772597e+002 
3675000000  -4.229823e+001  1.686391e+002 
3678125000  -4.270210e+001  1.626745e+002 
3681250000  -4.214180e+001  1.581080e+002 
3684375000  -4.267130e+001  1.481104e+002 
3687500000  -4.265621e+001  1.408734e+002 
3690625000  -4.363669e+001  1.329631e+002 
3693750000  -4.412839e+001  1.340852e+002 
3696875000  -4.373697e+001  1.314990e+002 
3700000000  -4.320201e+001  1.215233e+002 
3703125000  -4.375237e+001  1.129196e+002 
3706250000  -4.465419e+001  1.124098e+002 
3709375000  -4.362983e+001  1.125930e+002 
3712500000  -4.301297e+001  1.058228e+002 
3715625000  -4.171771e+001  9.776556e+001 
3718750000  -4.211387e+001  8.773892e+001 
3721875000  -4.160870e+001  7.618840e+001 
3725000000  -4.243496e+001  7.060148e+001 
3728125000  -4.250949e+001  6.625718e+001 
3731250000  -4.212163e+001  6.148400e+001 
3734375000  -4.205394e+001  5.193893e+001 
3737500000  -4.298378e+001  4.583553e+001 
3740625000  -4.302223e+001  3.780045e+001 
3743750000  -4.257972e+001  3.229578e+001 
3746875000  -4.356425e+001  2.501235e+001 
3750000000  -4.371532e+001  2.271404e+001 
3753125000  -4.374997e+001  1.489684e+001 
3756250000  -4.382282e+001  1.682674e+001 
3759375000  -4.357338e+001  1.200119e+001 
3762500000  -4.327763e+001  2.634547e+000 
3765625000  -4.431843e+001  -1.930450e+000 
3768750000  -4.383292e+001  1.361761e+000 
3771875000  -4.182162e+001  -7.454444e+000 
3775000000  -4.213678e+001  -1.883845e+001 
3778125000  -4.267587e+001  -2.216025e+001 
3781250000  -4.221296e+001  -3.027755e+001 
3784375000  -4.259399e+001  -3.595205e+001 
3787500000  -4.236369e+001  -4.081527e+001 
3790625000  -4.260208e+001  -4.980654e+001 
3793750000  -4.274151e+001  -5.446219e+001 
3796875000  -4.170828e+001  -6.009933e+001 
3800000000  -4.059542e+001  -6.776070e+001 
3803125000  -4.158481e+001  -7.884954e+001 
3806250000  -4.246962e+001  -8.241355e+001 
3809375000  -4.182625e+001  -8.829340e+001 
3812500000  -4.166715e+001  -9.897484e+001 
3815625000  -4.304830e+001  -1.095220e+002 
3818750000  -4.454777e+001  -1.076927e+002 
3821875000  -4.395867e+001  -9.669382e+001 
3825000000  -4.144917e+001  -1.032893e+002 
3828125000  -4.020064e+001  -1.245623e+002 
3831250000  -4.127588e+001  -1.381623e+002 
3834375000  -4.378493e+001  -1.423527e+002 
3837500000  -4.400841e+001  -1.377103e+002 
3840625000  -4.219073e+001  -1.446381e+002 
3843750000  -4.184277e+001  -1.591147e+002 
3846875000  -4.371447e+001  -1.647585e+002 
3850000000  -4.424754e+001  -1.594953e+002 
3853125000  -4.366664e+001  -1.612988e+002 
3856250000  -4.279216e+001  -1.708669e+002 
3859375000  -4.229550e+001  -1.789634e+002 
3862500000  -4.203065e+001  1.707022e+002 
3865625000  -4.265120e+001  1.648642e+002 
3868750000  -4.231417e+001  1.634403e+002 
3871875000  -4.199682e+001  1.517082e+002 
3875000000  -4.258803e+001  1.429785e+002 
3878125000  -4.326793e+001  1.411958e+002 
3881250000  -4.359610e+001  1.391507e+002 
3884375000  -4.274250e+001  1.280887e+002 
3887500000  -4.313053e+001  1.231378e+002 
3890625000  -4.397874e+001  1.176887e+002 
3893750000  -4.418139e+001  1.172349e+002 
3896875000  -4.428128e+001  1.106610e+002 
3900000000  -4.445266e+001  1.062722e+002 
3903125000  -4.379406e+001  1.021507e+002 
3906250000  -4.350850e+001  9.659059e+001 
3909375000  -4.286728e+001  9.107138e+001 
3912500000  -4.370164e+001  7.893478e+001 
3915625000  -4.491660e+001  8.196757e+001 
3918750000  -4.453896e+001  7.819698e+001 
3921875000  -4.389635e+001  7.339905e+001 
3925000000  -4.313228e+001  6.417495e+001 
3928125000  -4.287876e+001  5.829361e+001 
3931250000  -4.383687e+001  5.104259e+001 
3934375000  -4.396947e+001  4.666328e+001 
3937500000  -4.422319e+001  4.660644e+001 
3940625000  -4.450700e+001  4.284802e+001 
3943750000  -4.322904e+001  3.854715e+001 
3946875000  -4.292235e+001  3.011302e+001 
3950000000  -4.353498e+001  1.939176e+001 
3953125000  -4.462839e+001  1.976719e+001 
3956250000  -4.322301e+001  2.042367e+001 
3959375000  -4.155680e+001  1.597615e+001 
3962500000  -4.166209e+001  3.410980e+000 
3965625000  -4.205053e+001  -7.362882e+000 
3968750000  -4.261951e+001  -1.645977e+001 
3971875000  -4.262098e+001  -2.231542e+001 
3975000000  -4.199263e+001  -2.380417e+001 
3978125000  -4.220084e+001  -2.961623e+001 
3981250000  -4.157063e+001  -4.034283e+001 
3984375000  -4.249060e+001  -4.560986e+001 
3987500000  -4.328936e+001  -5.210900e+001 
3990625000  -4.318989e+001  -5.479881e+001 
3993750000  -4.314207e+001  -6.260551e+001 
3996875000  -4.262093e+001  -6.982024e+001 
4000000000  -4.408426e+001  -7.096044e+001 
4003125000  -4.381116e+001  -7.392964e+001 
4006250000  -4.218374e+001  -7.854462e+001 
4009375000  -4.146216e+001  -9.393726e+001 
4012500000  -4.318397e+001  -1.047028e+002 
4015625000  -4.418943e+001  -1.006237e+002 
4018750000  -4.416796e+001  -1.052901e+002 
4021875000  -4.336818e+001  -1.155018e+002 
4025000000  -4.348492e+001  -1.222206e+002 
4028125000  -4.384077e+001  -1.301116e+002 
4031250000  -4.422041e+001  -1.357740e+002 
4034375000  -4.422433e+001  -1.376796e+002 
4037500000  -4.422654e+001  -1.433961e+002 
4040625000  -4.425258e+001  -1.459253e+002 
4043750000  -4.452208e+001  -1.509301e+002 
4046875000  -4.436463e+001  -1.551083e+002 
4050000000  -4.447166e+001  -1.625771e+002 
4053125000  -4.500675e+001  -1.659232e+002 
4056250000  -4.582348e+001  -1.610747e+002 
4059375000  -4.409448e+001  -1.638654e+002 
4062500000  -4.388663e+001  -1.740100e+002 
4065625000  -4.372392e+001  1.786073e+002 
4068750000  -4.324178e+001  1.707256e+002 
4071875000  -4.262817e+001  1.645069e+002 
4075000000  -4.412716e+001  1.561999e+002 
4078125000  -4.420396e+001  1.522216e+002 
4081250000  -4.379844e+001  1.464781e+002 
4084375000  -4.363341e+001  1.376585e+002 
4087500000  -4.421224e+001  1.277778e+002 
4090625000  -4.472736e+001  1.266673e+002 
4093750000  -4.486036e+001  1.253303e+002 
4096875000  -4.472480e+001  1.171399e+002 
4100000000  -4.558714e+001  1.107493e+002 
4103125000  -4.555060e+001  1.122164e+002 
4106250000  -4.559209e+001  1.126926e+002 
4109375000  -4.437159e+001  1.080754e+002 
4112500000  -4.406157e+001  9.924744e+001 
4115625000  -4.442543e+001  9.834947e+001 
4118750000  -4.403901e+001  9.009908e+001 
4121875000  -4.390508e+001  8.341727e+001 
4125000000  -4.466021e+001  7.811456e+001 
4128125000  -4.549607e+001  7.806139e+001 
4131250000  -4.385228e+001  8.461557e+001 
4134375000  -4.196469e+001  7.129395e+001 
4137500000  -4.232073e+001  4.832109e+001 
4140625000  -4.484671e+001  4.240126e+001 
4143750000  -4.514928e+001  4.896586e+001 
4146875000  -4.405090e+001  5.037337e+001 
4150000000  -4.289790e+001  4.014493e+001 
4153125000  -4.337520e+001  3.255379e+001 
4156250000  -4.414619e+001  2.838379e+001 
4159375000  -4.407391e+001  3.011432e+001 
4162500000  -4.264112e+001  2.865165e+001 
4165625000  -4.196081e+001  1.699630e+001 
4168750000  -4.148889e+001  7.000663e+000 
4171875000  -4.132567e+001  -6.909188e+000 
4175000000  -4.198157e+001  -1.371776e+001 
4178125000  -4.283836e+001  -1.440811e+001 
4181250000  -4.211559e+001  -2.409828e+001 
4184375000  -4.275021e+001  -2.626375e+001 
4187500000  -4.259692e+001  -3.564948e+001 
4190625000  -4.319662e+001  -4.427274e+001 
4193750000  -4.395433e+001  -4.843500e+001 
4196875000  -4.530515e+001  -5.394926e+001 
4200000000  -4.655443e+001  -4.594066e+001 
4203125000  -4.474358e+001  -3.753853e+001 
4206250000  -4.127514e+001  -4.783401e+001 
4209375000  -4.185609e+001  -7.310085e+001 
4212500000  -4.410825e+001  -7.671055e+001 
4215625000  -4.424537e+001  -7.436569e+001 
4218750000  -4.266806e+001  -7.100344e+001 
4221875000  -4.158524e+001  -8.217067e+001 
4225000000  -4.283626e+001  -9.691366e+001 
4228125000  -4.279942e+001  -9.171932e+001 
4231250000  -4.129514e+001  -1.018090e+002 
4234375000  -4.115940e+001  -1.129550e+002 
4237500000  -4.122166e+001  -1.186380e+002 
4240625000  -4.148388e+001  -1.313221e+002 
4243750000  -4.273355e+001  -1.400730e+002 
4246875000  -4.340569e+001  -1.376876e+002 
4250000000  -4.299876e+001  -1.368873e+002 
4253125000  -4.322322e+001  -1.444585e+002 
4256250000  -4.300693e+001  -1.486163e+002 
4259375000  -4.233809e+001  -1.521115e+002 
4262500000  -4.306480e+001  -1.584336e+002 
4265625000  -4.231360e+001  -1.615541e+002 
4268750000  -4.147691e+001  -1.669352e+002 
4271875000  -4.108858e+001  -1.779458e+002 
4275000000  -4.093532e+001  1.727807e+002 
4278125000  -4.197496e+001  1.610186e+002 
4281250000  -4.299028e+001  1.573542e+002 
4284375000  -4.276317e+001  1.512843e+002 
4287500000  -4.378839e+001  1.501973e+002 
4290625000  -4.398901e+001  1.576712e+002 
4293750000  -4.188131e+001  1.582360e+002 
4296875000  -4.071944e+001  1.431782e+002 
4300000000  -4.151653e+001  1.322398e+002 
4303125000  -4.219078e+001  1.307073e+002 
4306250000  -4.093140e+001  1.321335e+002 
4309375000  -4.024310e+001  1.222738e+002 
4312500000  -4.017271e+001  1.090031e+002 
4315625000  -4.063893e+001  1.007321e+002 
4318750000  -4.130711e+001  9.429299e+001 
4321875000  -4.088355e+001  9.228104e+001 
4325000000  -4.036471e+001  9.034644e+001 
4328125000  -3.951197e+001  7.788297e+001 
4331250000  -3.980315e+001  6.508922e+001 
4334375000  -4.094852e+001  5.720439e+001 
4337500000  -4.209740e+001  5.647498e+001 
4340625000  -4.265355e+001  5.867044e+001 
4343750000  -4.148162e+001  5.332770e+001 
4346875000  -4.139677e+001  4.234417e+001 
4350000000  -4.132655e+001  3.431993e+001 
4353125000  -4.218732e+001  2.475125e+001 
4356250000  -4.408912e+001  2.803917e+001 
4359375000  -4.307140e+001  4.469845e+001 
4362500000  -3.951454e+001  3.154457e+001 
4365625000  -3.913103e+001  1.226919e+001 
4368750000  -4.032396e+001  2.298671e+000 
4371875000  -4.115858e+001  6.792161e-001 
4375000000  -4.056727e+001  -3.863322e+000 
4378125000  -4.081526e+001  -1.075425e+001 
4381250000  -4.103539e+001  -1.991838e+001 
4384375000  -4.091061e+001  -2.750092e+001 
4387500000  -4.177865e+001  -3.538081e+001 
4390625000  -4.239710e+001  -3.756646e+001 
4393750000  -4.175974e+001  -3.762215e+001 
4396875000  -4.156551e+001  -4.166919e+001 
4400000000  -4.116840e+001  -5.404244e+001 
4403125000  -4.195777e+001  -6.499550e+001 
4406250000  -4.255867e+001  -6.660413e+001 
4409375000  -4.301206e+001  -7.248547e+001 
4412500000  -4.402576e+001  -7.601116e+001 
4415625000  -4.369974e+001  -7.068639e+001 
4418750000  -4.221922e+001  -7.123673e+001 
