!Agilent Technologies,E8363B,MY43030201,A.06.04.32
!Agilent E8363B: A.06.04.32
!Date: Tuesday, November 11, 2014 21:42:39
!Correction: S21(Response(S21)) 
!S1P File: Measurement: S21:
# Hz S  dB   R 50
3000000000  -4.363200e+001  -1.582486e+002 
3003125000  -4.512606e+001  -1.634154e+002 
3006250000  -4.527951e+001  -1.647146e+002 
3009375000  -4.602561e+001  -1.591495e+002 
3012500000  -4.488188e+001  -1.691326e+002 
3015625000  -4.501391e+001  -1.748519e+002 
3018750000  -4.506902e+001  -1.758303e+002 
3021875000  -4.394334e+001  -1.781573e+002 
3025000000  -4.253003e+001  -1.785106e+002 
3028125000  -4.183979e+001  1.678723e+002 
3031250000  -4.081989e+001  1.538742e+002 
3034375000  -4.079785e+001  1.403496e+002 
3037500000  -4.158431e+001  1.302814e+002 
3040625000  -4.285178e+001  1.249169e+002 
3043750000  -4.343218e+001  1.161419e+002 
3046875000  -4.410925e+001  1.103038e+002 
3050000000  -4.522311e+001  1.058595e+002 
3053125000  -4.475234e+001  1.097934e+002 
3056250000  -4.466941e+001  1.098717e+002 
3059375000  -4.383123e+001  1.066413e+002 
3062500000  -4.232513e+001  1.026689e+002 
3065625000  -4.198113e+001  9.156915e+001 
3068750000  -4.174287e+001  8.419202e+001 
3071875000  -4.212559e+001  8.014783e+001 
3075000000  -4.113341e+001  7.403981e+001 
3078125000  -4.128848e+001  6.519041e+001 
3081250000  -4.116958e+001  5.960382e+001 
3084375000  -4.052082e+001  5.512887e+001 
3087500000  -4.071510e+001  4.577135e+001 
3090625000  -4.000992e+001  3.314739e+001 
3093750000  -4.092686e+001  2.414080e+001 
3096875000  -4.125874e+001  1.879084e+001 
3100000000  -4.114828e+001  1.494429e+001 
3103125000  -4.147289e+001  1.031361e+001 
3106250000  -4.115124e+001  4.779795e+000 
3109375000  -4.087328e+001  4.845207e-002 
3112500000  -4.084241e+001  -9.257354e+000 
3115625000  -4.084624e+001  -1.334480e+001 
3118750000  -4.071984e+001  -1.865107e+001 
3121875000  -4.034062e+001  -2.957657e+001 
3125000000  -4.203754e+001  -3.332388e+001 
3128125000  -4.212322e+001  -2.724909e+001 
3131250000  -3.950231e+001  -3.682911e+001 
3134375000  -3.893341e+001  -5.410240e+001 
3137500000  -3.947083e+001  -6.759000e+001 
3140625000  -4.091497e+001  -7.262954e+001 
3143750000  -4.173664e+001  -7.548123e+001 
3146875000  -4.104183e+001  -7.443197e+001 
3150000000  -4.050925e+001  -7.988230e+001 
3153125000  -4.068484e+001  -8.861340e+001 
3156250000  -4.147541e+001  -8.761021e+001 
3159375000  -3.925793e+001  -8.923730e+001 
3162500000  -3.781693e+001  -1.069009e+002 
3165625000  -3.910001e+001  -1.206533e+002 
3168750000  -3.905385e+001  -1.215981e+002 
3171875000  -3.849951e+001  -1.298293e+002 
3175000000  -3.915557e+001  -1.393544e+002 
3178125000  -3.881237e+001  -1.427999e+002 
3181250000  -3.828138e+001  -1.515507e+002 
3184375000  -3.780470e+001  -1.650578e+002 
3187500000  -3.937185e+001  -1.794622e+002 
3190625000  -4.097468e+001  1.738743e+002 
3193750000  -4.120023e+001  1.769895e+002 
3196875000  -4.101243e+001  1.769213e+002 
3200000000  -3.992859e+001  1.721767e+002 
3203125000  -3.957789e+001  1.626573e+002 
3206250000  -3.987040e+001  1.556366e+002 
3209375000  -3.961966e+001  1.456242e+002 
3212500000  -4.002029e+001  1.374456e+002 
3215625000  -3.944577e+001  1.347462e+002 
3218750000  -4.039957e+001  1.238417e+002 
3221875000  -4.069807e+001  1.161608e+002 
3225000000  -4.055254e+001  1.110671e+002 
3228125000  -4.119160e+001  1.019983e+002 
3231250000  -4.171287e+001  1.009189e+002 
3234375000  -4.096046e+001  9.711530e+001 
3237500000  -4.093383e+001  9.321365e+001 
3240625000  -4.038115e+001  8.558485e+001 
3243750000  -4.031672e+001  7.451127e+001 
3246875000  -4.069438e+001  6.618784e+001 
3250000000  -4.138980e+001  6.068244e+001 
3253125000  -4.130659e+001  5.647507e+001 
3256250000  -4.060472e+001  4.720726e+001 
3259375000  -4.101611e+001  3.337951e+001 
3262500000  -4.230821e+001  2.876197e+001 
3265625000  -4.276366e+001  3.030040e+001 
3268750000  -4.247387e+001  3.006065e+001 
3271875000  -4.180624e+001  2.289626e+001 
3275000000  -4.142509e+001  1.201962e+001 
3278125000  -4.174923e+001  5.302629e+000 
3281250000  -4.190004e+001  1.410821e+000 
3284375000  -4.111315e+001  -5.767138e+000 
3287500000  -4.171595e+001  -1.346198e+001 
3290625000  -4.163536e+001  -2.428300e+001 
3293750000  -4.165640e+001  -3.085752e+001 
3296875000  -4.289343e+001  -3.480416e+001 
3300000000  -4.230857e+001  -3.846864e+001 
3303125000  -4.091680e+001  -4.717759e+001 
3306250000  -4.090056e+001  -5.855993e+001 
3309375000  -4.058587e+001  -6.866888e+001 
3312500000  -4.111784e+001  -8.438894e+001 
3315625000  -4.271863e+001  -9.144569e+001 
3318750000  -4.412542e+001  -9.933131e+001 
3321875000  -4.529958e+001  -9.692245e+001 
3325000000  -4.517485e+001  -9.566940e+001 
3328125000  -4.427890e+001  -9.649236e+001 
3331250000  -4.278944e+001  -9.755468e+001 
3334375000  -4.039102e+001  -1.132430e+002 
3337500000  -4.099775e+001  -1.392192e+002 
3340625000  -4.303015e+001  -1.492820e+002 
3343750000  -4.485048e+001  -1.493240e+002 
3346875000  -4.396230e+001  -1.562019e+002 
3350000000  -4.380139e+001  -1.590031e+002 
3353125000  -4.382589e+001  -1.682629e+002 
3356250000  -4.332507e+001  1.793023e+002 
3359375000  -4.458330e+001  1.667121e+002 
3362500000  -4.523527e+001  1.601090e+002 
3365625000  -4.592574e+001  1.543987e+002 
3368750000  -4.660591e+001  1.487616e+002 
3371875000  -4.731845e+001  1.395168e+002 
3375000000  -4.800092e+001  1.352779e+002 
3378125000  -4.956639e+001  1.373968e+002 
3381250000  -5.054539e+001  1.411641e+002 
3384375000  -4.733731e+001  1.517578e+002 
3387500000  -4.519530e+001  1.305269e+002 
3390625000  -4.699858e+001  1.075117e+002 
3393750000  -4.806839e+001  1.068258e+002 
3396875000  -4.653811e+001  1.036310e+002 
3400000000  -4.667258e+001  8.784536e+001 
3403125000  -4.722622e+001  7.851852e+001 
3406250000  -4.775707e+001  7.290440e+001 
3409375000  -4.752678e+001  6.485784e+001 
3412500000  -4.813499e+001  5.579724e+001 
3415625000  -4.955830e+001  5.191593e+001 
3418750000  -4.842866e+001  4.211616e+001 
3421875000  -4.831376e+001  4.284991e+001 
3425000000  -4.789959e+001  3.484829e+001 
3428125000  -4.681763e+001  3.049711e+001 
3431250000  -4.689254e+001  1.629481e+001 
3434375000  -4.682388e+001  5.030611e+000 
3437500000  -4.744807e+001  -2.137578e+000 
3440625000  -4.809713e+001  -7.745753e+000 
3443750000  -4.637626e+001  -9.708110e+000 
3446875000  -4.572116e+001  -2.643565e+001 
3450000000  -4.479992e+001  -4.001099e+001 
3453125000  -4.598411e+001  -5.874746e+001 
3456250000  -4.727426e+001  -6.864287e+001 
3459375000  -4.831281e+001  -7.009277e+001 
3462500000  -4.781993e+001  -7.464950e+001 
3465625000  -4.741584e+001  -8.655788e+001 
3468750000  -4.767847e+001  -9.393397e+001 
3471875000  -4.720978e+001  -1.017667e+002 
3475000000  -4.688598e+001  -1.150212e+002 
3478125000  -4.761931e+001  -1.283081e+002 
3481250000  -4.897422e+001  -1.292403e+002 
3484375000  -4.835319e+001  -1.328579e+002 
3487500000  -4.773273e+001  -1.385922e+002 
3490625000  -4.706947e+001  -1.522857e+002 
3493750000  -4.794595e+001  -1.656782e+002 
3496875000  -4.769172e+001  -1.672698e+002 
3500000000  -4.827028e+001  -1.709553e+002 
3503125000  -4.707064e+001  -1.750374e+002 
3506250000  -4.518096e+001  1.742342e+002 
3509375000  -4.565544e+001  1.548462e+002 
3512500000  -4.644981e+001  1.388730e+002 
3515625000  -4.678133e+001  1.335752e+002 
3518750000  -4.778562e+001  1.319113e+002 
3521875000  -4.783795e+001  1.182831e+002 
3525000000  -4.817257e+001  1.168960e+002 
3528125000  -4.728098e+001  1.180018e+002 
3531250000  -4.651005e+001  1.098320e+002 
3534375000  -4.690081e+001  8.975514e+001 
3537500000  -4.790588e+001  8.057339e+001 
3540625000  -4.891517e+001  7.940177e+001 
3543750000  -4.944602e+001  7.932178e+001 
3546875000  -4.878152e+001  8.265093e+001 
3550000000  -4.630260e+001  7.823392e+001 
3553125000  -4.593535e+001  5.795170e+001 
3556250000  -4.714455e+001  5.156500e+001 
3559375000  -4.662538e+001  4.496377e+001 
3562500000  -4.645074e+001  3.545610e+001 
3565625000  -4.711816e+001  2.599793e+001 
3568750000  -4.804277e+001  2.724839e+001 
3571875000  -4.700776e+001  1.807089e+001 
3575000000  -4.745008e+001  1.578313e+001 
3578125000  -4.779103e+001  1.147260e+001 
3581250000  -4.760028e+001  5.868338e+000 
3584375000  -4.577318e+001  -3.164637e-001 
3587500000  -4.614178e+001  -1.024924e+001 
3590625000  -4.635130e+001  -2.046884e+001 
3593750000  -4.728194e+001  -2.654083e+001 
3596875000  -4.692382e+001  -1.759490e+001 
3600000000  -4.489455e+001  -2.914319e+001 
3603125000  -4.529650e+001  -4.432413e+001 
3606250000  -4.619252e+001  -4.981623e+001 
3609375000  -4.616148e+001  -5.174900e+001 
3612500000  -4.598378e+001  -5.946729e+001 
3615625000  -4.618597e+001  -6.473280e+001 
3618750000  -4.609752e+001  -6.923717e+001 
3621875000  -4.578961e+001  -7.506474e+001 
3625000000  -4.547783e+001  -7.935647e+001 
3628125000  -4.465042e+001  -8.486180e+001 
3631250000  -4.491323e+001  -9.386578e+001 
3634375000  -4.560884e+001  -9.380117e+001 
3637500000  -4.463691e+001  -9.865358e+001 
3640625000  -4.376586e+001  -1.023769e+002 
3643750000  -4.326271e+001  -1.148761e+002 
3646875000  -4.360966e+001  -1.266123e+002 
3650000000  -4.374898e+001  -1.327442e+002 
3653125000  -4.313494e+001  -1.385705e+002 
3656250000  -4.416506e+001  -1.433906e+002 
3659375000  -4.350815e+001  -1.489339e+002 
3662500000  -4.324338e+001  -1.557797e+002 
3665625000  -4.382032e+001  -1.589825e+002 
3668750000  -4.202192e+001  -1.643597e+002 
3671875000  -4.153904e+001  -1.790746e+002 
3675000000  -4.216853e+001  1.727887e+002 
3678125000  -4.288898e+001  1.676953e+002 
3681250000  -4.247820e+001  1.598663e+002 
3684375000  -4.283304e+001  1.530494e+002 
3687500000  -4.294995e+001  1.444483e+002 
3690625000  -4.356409e+001  1.367679e+002 
3693750000  -4.437812e+001  1.373691e+002 
3696875000  -4.425023e+001  1.333764e+002 
3700000000  -4.326200e+001  1.255724e+002 
3703125000  -4.366339e+001  1.180865e+002 
3706250000  -4.483948e+001  1.148600e+002 
3709375000  -4.409540e+001  1.143830e+002 
3712500000  -4.280077e+001  1.089831e+002 
3715625000  -4.193579e+001  9.862669e+001 
3718750000  -4.145641e+001  9.032675e+001 
3721875000  -4.195718e+001  7.973662e+001 
3725000000  -4.246576e+001  7.212648e+001 
3728125000  -4.246122e+001  6.944443e+001 
3731250000  -4.202386e+001  6.156444e+001 
3734375000  -4.204568e+001  5.542490e+001 
3737500000  -4.280099e+001  4.539529e+001 
3740625000  -4.316469e+001  3.984002e+001 
3743750000  -4.306640e+001  3.470747e+001 
3746875000  -4.340456e+001  2.863929e+001 
3750000000  -4.378771e+001  2.560540e+001 
3753125000  -4.364903e+001  2.151654e+001 
3756250000  -4.405645e+001  1.721058e+001 
3759375000  -4.354295e+001  1.276503e+001 
3762500000  -4.350454e+001  8.732917e+000 
3765625000  -4.426826e+001  2.538310e+000 
3768750000  -4.357540e+001  1.001458e+000 
3771875000  -4.224654e+001  -3.342777e+000 
3775000000  -4.246297e+001  -1.595006e+001 
3778125000  -4.305405e+001  -2.160752e+001 
3781250000  -4.259260e+001  -2.703011e+001 
3784375000  -4.242644e+001  -3.392516e+001 
3787500000  -4.225842e+001  -3.785202e+001 
3790625000  -4.278360e+001  -4.547002e+001 
3793750000  -4.263792e+001  -4.997994e+001 
3796875000  -4.164238e+001  -5.644793e+001 
3800000000  -4.074229e+001  -6.342014e+001 
3803125000  -4.175634e+001  -7.418256e+001 
3806250000  -4.254181e+001  -8.106551e+001 
3809375000  -4.179472e+001  -8.416060e+001 
3812500000  -4.203203e+001  -9.480256e+001 
3815625000  -4.353014e+001  -1.039975e+002 
3818750000  -4.473519e+001  -1.056650e+002 
3821875000  -4.364902e+001  -9.532906e+001 
3825000000  -4.151699e+001  -1.003866e+002 
3828125000  -4.034771e+001  -1.206590e+002 
3831250000  -4.187045e+001  -1.363590e+002 
3834375000  -4.405490e+001  -1.392554e+002 
3837500000  -4.380627e+001  -1.351411e+002 
3840625000  -4.245135e+001  -1.395644e+002 
3843750000  -4.195421e+001  -1.569190e+002 
3846875000  -4.355919e+001  -1.632036e+002 
3850000000  -4.399688e+001  -1.550457e+002 
3853125000  -4.383305e+001  -1.632350e+002 
3856250000  -4.275382e+001  -1.657847e+002 
3859375000  -4.217613e+001  -1.745251e+002 
3862500000  -4.233510e+001  1.753543e+002 
3865625000  -4.269006e+001  1.669632e+002 
3868750000  -4.207790e+001  1.669195e+002 
3871875000  -4.183425e+001  1.574050e+002 
3875000000  -4.300576e+001  1.461101e+002 
3878125000  -4.304951e+001  1.442845e+002 
3881250000  -4.359338e+001  1.419039e+002 
3884375000  -4.267714e+001  1.300861e+002 
3887500000  -4.294572e+001  1.259279e+002 
3890625000  -4.384808e+001  1.216896e+002 
3893750000  -4.402769e+001  1.187385e+002 
3896875000  -4.442476e+001  1.161973e+002 
3900000000  -4.432887e+001  1.102226e+002 
3903125000  -4.389333e+001  1.055527e+002 
3906250000  -4.377782e+001  1.008717e+002 
3909375000  -4.276184e+001  9.354027e+001 
3912500000  -4.400061e+001  8.404708e+001 
3915625000  -4.497697e+001  8.318176e+001 
3918750000  -4.441464e+001  8.225758e+001 
3921875000  -4.405211e+001  7.548310e+001 
3925000000  -4.302952e+001  6.990090e+001 
3928125000  -4.322694e+001  6.258009e+001 
3931250000  -4.374888e+001  5.204539e+001 
3934375000  -4.413834e+001  5.161948e+001 
3937500000  -4.464367e+001  4.936836e+001 
3940625000  -4.450230e+001  4.784547e+001 
3943750000  -4.316063e+001  4.165191e+001 
3946875000  -4.310256e+001  3.410233e+001 
3950000000  -4.407834e+001  2.467398e+001 
3953125000  -4.472920e+001  2.574210e+001 
3956250000  -4.290869e+001  2.367887e+001 
3959375000  -4.218688e+001  1.784617e+001 
3962500000  -4.146506e+001  8.047096e+000 
3965625000  -4.208075e+001  -4.261422e+000 
3968750000  -4.287887e+001  -1.330753e+001 
3971875000  -4.246193e+001  -1.372084e+001 
3975000000  -4.200936e+001  -2.395969e+001 
3978125000  -4.240950e+001  -2.968986e+001 
3981250000  -4.203395e+001  -3.502640e+001 
3984375000  -4.244539e+001  -4.527926e+001 
3987500000  -4.308256e+001  -4.673212e+001 
3990625000  -4.310989e+001  -5.073591e+001 
3993750000  -4.330783e+001  -5.723654e+001 
3996875000  -4.295448e+001  -6.428349e+001 
4000000000  -4.377641e+001  -7.048045e+001 
4003125000  -4.398663e+001  -6.976118e+001 
4006250000  -4.202413e+001  -7.402108e+001 
4009375000  -4.146167e+001  -9.103565e+001 
4012500000  -4.293061e+001  -9.723659e+001 
4015625000  -4.426868e+001  -9.834772e+001 
4018750000  -4.390499e+001  -1.046060e+002 
4021875000  -4.344378e+001  -1.125500e+002 
4025000000  -4.336458e+001  -1.186024e+002 
4028125000  -4.349339e+001  -1.226712e+002 
4031250000  -4.424982e+001  -1.321539e+002 
4034375000  -4.419683e+001  -1.332454e+002 
4037500000  -4.414931e+001  -1.366563e+002 
4040625000  -4.453795e+001  -1.432881e+002 
4043750000  -4.488120e+001  -1.456393e+002 
4046875000  -4.509385e+001  -1.529389e+002 
4050000000  -4.419180e+001  -1.581712e+002 
4053125000  -4.569457e+001  -1.641461e+002 
4056250000  -4.602853e+001  -1.573041e+002 
4059375000  -4.396063e+001  -1.626811e+002 
4062500000  -4.355577e+001  -1.684443e+002 
4065625000  -4.377534e+001  -1.786754e+002 
4068750000  -4.274857e+001  1.772633e+002 
4071875000  -4.278702e+001  1.640654e+002 
4075000000  -4.373839e+001  1.575814e+002 
4078125000  -4.419037e+001  1.544182e+002 
4081250000  -4.386702e+001  1.491764e+002 
4084375000  -4.382015e+001  1.412120e+002 
4087500000  -4.446879e+001  1.343464e+002 
4090625000  -4.500456e+001  1.313619e+002 
4093750000  -4.461679e+001  1.308861e+002 
4096875000  -4.482863e+001  1.193687e+002 
4100000000  -4.544033e+001  1.182609e+002 
4103125000  -4.643688e+001  1.176479e+002 
4106250000  -4.566601e+001  1.216800e+002 
4109375000  -4.435217e+001  1.161269e+002 
4112500000  -4.437587e+001  1.056397e+002 
4115625000  -4.458958e+001  1.006580e+002 
4118750000  -4.355928e+001  9.696664e+001 
4121875000  -4.417529e+001  8.791516e+001 
4125000000  -4.470847e+001  7.995142e+001 
4128125000  -4.583099e+001  8.133879e+001 
4131250000  -4.420580e+001  8.558998e+001 
4134375000  -4.223496e+001  7.470316e+001 
4137500000  -4.271991e+001  5.429662e+001 
4140625000  -4.453886e+001  4.641993e+001 
4143750000  -4.500963e+001  5.231015e+001 
4146875000  -4.404044e+001  5.436038e+001 
4150000000  -4.317938e+001  4.396993e+001 
4153125000  -4.342045e+001  3.354385e+001 
4156250000  -4.441301e+001  3.080308e+001 
4159375000  -4.398423e+001  3.209118e+001 
4162500000  -4.278160e+001  3.168769e+001 
4165625000  -4.155722e+001  1.958184e+001 
4168750000  -4.136428e+001  1.107425e+001 
4171875000  -4.160682e+001  -2.491902e+000 
4175000000  -4.219646e+001  -1.121957e+001 
4178125000  -4.276917e+001  -1.345393e+001 
4181250000  -4.248138e+001  -1.989902e+001 
4184375000  -4.280573e+001  -2.561783e+001 
4187500000  -4.274759e+001  -3.110955e+001 
4190625000  -4.299463e+001  -4.327401e+001 
4193750000  -4.424392e+001  -4.583208e+001 
4196875000  -4.582439e+001  -5.233077e+001 
4200000000  -4.645853e+001  -4.260312e+001 
4203125000  -4.486452e+001  -3.221742e+001 
4206250000  -4.157389e+001  -4.458073e+001 
4209375000  -4.128471e+001  -6.920919e+001 
4212500000  -4.390584e+001  -7.436107e+001 
4215625000  -4.415148e+001  -6.852402e+001 
4218750000  -4.272459e+001  -6.736673e+001 
4221875000  -4.165042e+001  -8.042276e+001 
4225000000  -4.298088e+001  -9.109339e+001 
4228125000  -4.206774e+001  -8.708087e+001 
4231250000  -4.147852e+001  -1.010166e+002 
4234375000  -4.159500e+001  -1.087422e+002 
4237500000  -4.089990e+001  -1.131803e+002 
4240625000  -4.114874e+001  -1.277173e+002 
4243750000  -4.252783e+001  -1.330775e+002 
4246875000  -4.366465e+001  -1.331994e+002 
4250000000  -4.316834e+001  -1.369651e+002 
4253125000  -4.269678e+001  -1.382660e+002 
4256250000  -4.320788e+001  -1.426918e+002 
4259375000  -4.240803e+001  -1.516892e+002 
4262500000  -4.233225e+001  -1.551956e+002 
4265625000  -4.238340e+001  -1.564247e+002 
4268750000  -4.153543e+001  -1.636438e+002 
4271875000  -4.153949e+001  -1.733801e+002 
4275000000  -4.081255e+001  1.769479e+002 
4278125000  -4.206481e+001  1.632916e+002 
4281250000  -4.312209e+001  1.627142e+002 
4284375000  -4.270316e+001  1.592692e+002 
4287500000  -4.349547e+001  1.580769e+002 
4290625000  -4.395730e+001  1.631530e+002 
4293750000  -4.218800e+001  1.598942e+002 
4296875000  -4.073238e+001  1.484472e+002 
4300000000  -4.174702e+001  1.361191e+002 
4303125000  -4.232957e+001  1.359530e+002 
4306250000  -4.149643e+001  1.349462e+002 
4309375000  -4.029884e+001  1.267646e+002 
4312500000  -4.022415e+001  1.140775e+002 
4315625000  -4.041965e+001  1.040916e+002 
4318750000  -4.141194e+001  9.987198e+001 
4321875000  -4.086100e+001  9.693760e+001 
4325000000  -4.059287e+001  9.188976e+001 
4328125000  -3.986532e+001  8.112701e+001 
4331250000  -4.030554e+001  7.056499e+001 
4334375000  -4.138783e+001  6.182794e+001 
4337500000  -4.249675e+001  6.047449e+001 
4340625000  -4.258233e+001  6.006345e+001 
4343750000  -4.189440e+001  5.727641e+001 
4346875000  -4.148667e+001  4.475284e+001 
4350000000  -4.163188e+001  3.922123e+001 
4353125000  -4.227948e+001  2.706674e+001 
4356250000  -4.388166e+001  3.361156e+001 
4359375000  -4.342835e+001  4.403616e+001 
4362500000  -3.998750e+001  3.633031e+001 
4365625000  -3.958556e+001  1.646715e+001 
4368750000  -4.101789e+001  5.595158e+000 
4371875000  -4.163133e+001  2.333357e+000 
4375000000  -4.098214e+001  -1.912299e+000 
4378125000  -4.086971e+001  -9.136593e+000 
4381250000  -4.124656e+001  -1.523000e+001 
4384375000  -4.147601e+001  -2.339461e+001 
4387500000  -4.206416e+001  -3.368593e+001 
4390625000  -4.285186e+001  -3.350832e+001 
4393750000  -4.216989e+001  -3.342876e+001 
4396875000  -4.157929e+001  -3.796984e+001 
4400000000  -4.116654e+001  -4.985054e+001 
4403125000  -4.253220e+001  -5.946983e+001 
4406250000  -4.273064e+001  -6.239243e+001 
4409375000  -4.311011e+001  -6.821245e+001 
4412500000  -4.447047e+001  -7.074145e+001 
4415625000  -4.388302e+001  -6.728784e+001 
4418750000  -4.239102e+001  -6.908733e+001 
