!Agilent Technologies,E8363B,MY43030201,A.06.04.32
!Agilent E8363B: A.06.04.32
!Date: Tuesday, November 11, 2014 21:42:05
!Correction: S21(Response(S21)) 
!S1P File: Measurement: S21:
# Hz S  dB   R 50
3000000000  -4.376022e+001  -1.582428e+002 
3003125000  -4.519419e+001  -1.636298e+002 
3006250000  -4.552980e+001  -1.647016e+002 
3009375000  -4.615979e+001  -1.597206e+002 
3012500000  -4.482709e+001  -1.673032e+002 
3015625000  -4.492568e+001  -1.758517e+002 
3018750000  -4.543540e+001  -1.758649e+002 
3021875000  -4.400615e+001  -1.752484e+002 
3025000000  -4.273569e+001  -1.781018e+002 
3028125000  -4.191179e+001  1.685071e+002 
3031250000  -4.094577e+001  1.550843e+002 
3034375000  -4.086834e+001  1.417025e+002 
3037500000  -4.169876e+001  1.299510e+002 
3040625000  -4.284390e+001  1.252388e+002 
3043750000  -4.332355e+001  1.183982e+002 
3046875000  -4.398337e+001  1.091565e+002 
3050000000  -4.542118e+001  1.054594e+002 
3053125000  -4.503522e+001  1.095325e+002 
3056250000  -4.486754e+001  1.117432e+002 
3059375000  -4.359591e+001  1.095078e+002 
3062500000  -4.263844e+001  1.028557e+002 
3065625000  -4.222173e+001  9.393021e+001 
3068750000  -4.177695e+001  8.543750e+001 
3071875000  -4.198303e+001  8.241543e+001 
3075000000  -4.101753e+001  7.499770e+001 
3078125000  -4.130466e+001  6.774073e+001 
3081250000  -4.129144e+001  6.040605e+001 
3084375000  -4.051758e+001  5.482967e+001 
3087500000  -4.052777e+001  4.708490e+001 
3090625000  -4.005735e+001  3.435801e+001 
3093750000  -4.085649e+001  2.540788e+001 
3096875000  -4.141295e+001  1.911093e+001 
3100000000  -4.128498e+001  1.601463e+001 
3103125000  -4.140058e+001  1.062666e+001 
3106250000  -4.110352e+001  4.419750e+000 
3109375000  -4.089017e+001  -1.635312e-001 
3112500000  -4.076949e+001  -8.645364e+000 
3115625000  -4.077232e+001  -1.250187e+001 
3118750000  -4.088124e+001  -1.765934e+001 
3121875000  -4.017057e+001  -2.962495e+001 
3125000000  -4.224451e+001  -3.409113e+001 
3128125000  -4.229398e+001  -2.666877e+001 
3131250000  -3.962119e+001  -3.581678e+001 
3134375000  -3.876033e+001  -5.341978e+001 
3137500000  -3.956325e+001  -6.738470e+001 
3140625000  -4.084751e+001  -7.161777e+001 
3143750000  -4.163827e+001  -7.487479e+001 
3146875000  -4.097540e+001  -7.266597e+001 
3150000000  -4.032621e+001  -7.993204e+001 
3153125000  -4.090404e+001  -8.738736e+001 
3156250000  -4.154081e+001  -8.416533e+001 
3159375000  -3.898989e+001  -8.859557e+001 
3162500000  -3.767074e+001  -1.044319e+002 
3165625000  -3.924837e+001  -1.188805e+002 
3168750000  -3.901414e+001  -1.208442e+002 
3171875000  -3.858593e+001  -1.286433e+002 
3175000000  -3.914228e+001  -1.401237e+002 
3178125000  -3.886514e+001  -1.422177e+002 
3181250000  -3.808585e+001  -1.501001e+002 
3184375000  -3.797969e+001  -1.633611e+002 
3187500000  -3.912671e+001  -1.787582e+002 
3190625000  -4.079556e+001  1.736352e+002 
3193750000  -4.113127e+001  1.791320e+002 
3196875000  -4.119633e+001  1.777729e+002 
3200000000  -3.982293e+001  1.733818e+002 
3203125000  -3.967630e+001  1.632269e+002 
3206250000  -3.987197e+001  1.551767e+002 
3209375000  -3.955157e+001  1.467661e+002 
3212500000  -3.980460e+001  1.397157e+002 
3215625000  -3.950284e+001  1.357612e+002 
3218750000  -4.019517e+001  1.230386e+002 
3221875000  -4.057075e+001  1.167548e+002 
3225000000  -4.038604e+001  1.112410e+002 
3228125000  -4.101823e+001  1.045969e+002 
3231250000  -4.149622e+001  1.004424e+002 
3234375000  -4.105349e+001  9.786691e+001 
3237500000  -4.100278e+001  9.417306e+001 
3240625000  -4.039452e+001  8.656226e+001 
3243750000  -4.055441e+001  7.548955e+001 
3246875000  -4.080821e+001  6.744853e+001 
3250000000  -4.115305e+001  6.285862e+001 
3253125000  -4.115433e+001  5.830719e+001 
3256250000  -4.048077e+001  4.915618e+001 
3259375000  -4.103370e+001  3.353481e+001 
3262500000  -4.234845e+001  2.996383e+001 
3265625000  -4.247492e+001  3.208786e+001 
3268750000  -4.244565e+001  3.068642e+001 
3271875000  -4.190643e+001  2.484215e+001 
3275000000  -4.129163e+001  1.482454e+001 
3278125000  -4.145398e+001  7.464721e+000 
3281250000  -4.189310e+001  1.999454e+000 
3284375000  -4.088029e+001  -5.551753e+000 
3287500000  -4.140658e+001  -1.235318e+001 
3290625000  -4.170170e+001  -2.244750e+001 
3293750000  -4.165390e+001  -3.160505e+001 
3296875000  -4.275463e+001  -3.426497e+001 
3300000000  -4.209556e+001  -3.649957e+001 
3303125000  -4.102643e+001  -4.620687e+001 
3306250000  -4.088747e+001  -5.733518e+001 
3309375000  -4.055151e+001  -6.764602e+001 
3312500000  -4.142197e+001  -8.180237e+001 
3315625000  -4.241236e+001  -9.215150e+001 
3318750000  -4.400600e+001  -9.750337e+001 
3321875000  -4.537943e+001  -9.911110e+001 
3325000000  -4.503126e+001  -9.166851e+001 
3328125000  -4.416262e+001  -9.353619e+001 
3331250000  -4.238955e+001  -9.480549e+001 
3334375000  -4.050177e+001  -1.155854e+002 
3337500000  -4.079333e+001  -1.377404e+002 
3340625000  -4.276828e+001  -1.477010e+002 
3343750000  -4.452126e+001  -1.485658e+002 
3346875000  -4.436776e+001  -1.533951e+002 
3350000000  -4.385960e+001  -1.580725e+002 
3353125000  -4.349599e+001  -1.680991e+002 
3356250000  -4.352189e+001  -1.782614e+002 
3359375000  -4.433689e+001  1.685162e+002 
3362500000  -4.537847e+001  1.625402e+002 
3365625000  -4.577770e+001  1.536072e+002 
3368750000  -4.650005e+001  1.482655e+002 
3371875000  -4.684070e+001  1.451813e+002 
3375000000  -4.906178e+001  1.373050e+002 
3378125000  -4.919578e+001  1.360156e+002 
3381250000  -5.063701e+001  1.415768e+002 
3384375000  -4.772045e+001  1.550660e+002 
3387500000  -4.478903e+001  1.330847e+002 
3390625000  -4.778966e+001  1.068573e+002 
3393750000  -4.771465e+001  1.101558e+002 
3396875000  -4.645145e+001  1.037795e+002 
3400000000  -4.645131e+001  9.024693e+001 
3403125000  -4.704480e+001  8.341155e+001 
3406250000  -4.721093e+001  7.552831e+001 
3409375000  -4.726723e+001  6.379378e+001 
3412500000  -4.840222e+001  5.637297e+001 
3415625000  -4.901802e+001  5.031271e+001 
3418750000  -4.881442e+001  4.882930e+001 
3421875000  -4.922977e+001  4.270461e+001 
3425000000  -4.772514e+001  4.052607e+001 
3428125000  -4.716239e+001  3.071103e+001 
3431250000  -4.688202e+001  1.756137e+001 
3434375000  -4.705600e+001  6.031978e+000 
3437500000  -4.756975e+001  -6.275831e-002 
3440625000  -4.797908e+001  -5.991660e+000 
3443750000  -4.678825e+001  -1.052037e+001 
3446875000  -4.582445e+001  -2.183778e+001 
3450000000  -4.586329e+001  -3.781778e+001 
3453125000  -4.552057e+001  -5.887331e+001 
3456250000  -4.714424e+001  -6.815509e+001 
3459375000  -4.826376e+001  -6.854520e+001 
3462500000  -4.744843e+001  -7.274497e+001 
3465625000  -4.726444e+001  -8.731402e+001 
3468750000  -4.717366e+001  -9.128806e+001 
3471875000  -4.744283e+001  -9.914344e+001 
3475000000  -4.662367e+001  -1.147254e+002 
3478125000  -4.758474e+001  -1.260915e+002 
3481250000  -4.921436e+001  -1.304079e+002 
3484375000  -4.841869e+001  -1.337853e+002 
3487500000  -4.765251e+001  -1.389076e+002 
3490625000  -4.726537e+001  -1.495372e+002 
3493750000  -4.779914e+001  -1.623827e+002 
3496875000  -4.843958e+001  -1.667822e+002 
3500000000  -4.847711e+001  -1.697815e+002 
3503125000  -4.722552e+001  -1.735212e+002 
3506250000  -4.558738e+001  1.734181e+002 
3509375000  -4.574389e+001  1.550885e+002 
3512500000  -4.636849e+001  1.374826e+002 
3515625000  -4.732375e+001  1.337596e+002 
3518750000  -4.759984e+001  1.294459e+002 
3521875000  -4.723941e+001  1.197190e+002 
3525000000  -4.868933e+001  1.143722e+002 
3528125000  -4.755201e+001  1.195452e+002 
3531250000  -4.680489e+001  1.102979e+002 
3534375000  -4.669688e+001  9.228464e+001 
3537500000  -4.772137e+001  8.057480e+001 
3540625000  -4.903445e+001  8.016498e+001 
3543750000  -4.938797e+001  8.474182e+001 
3546875000  -4.865440e+001  8.508979e+001 
3550000000  -4.646086e+001  7.653055e+001 
3553125000  -4.547334e+001  5.825826e+001 
3556250000  -4.774818e+001  4.885028e+001 
3559375000  -4.660740e+001  4.452779e+001 
3562500000  -4.655215e+001  3.582211e+001 
3565625000  -4.723716e+001  2.992493e+001 
3568750000  -4.787597e+001  3.084568e+001 
3571875000  -4.769981e+001  2.254999e+001 
3575000000  -4.710498e+001  1.785887e+001 
3578125000  -4.739386e+001  9.480118e+000 
3581250000  -4.784855e+001  9.506837e+000 
3584375000  -4.603461e+001  1.242701e+000 
3587500000  -4.606627e+001  -1.100955e+001 
3590625000  -4.692875e+001  -1.909567e+001 
3593750000  -4.800792e+001  -1.896899e+001 
3596875000  -4.728038e+001  -1.751711e+001 
3600000000  -4.488102e+001  -2.926098e+001 
3603125000  -4.504613e+001  -4.528564e+001 
3606250000  -4.595513e+001  -4.774266e+001 
3609375000  -4.612196e+001  -5.320314e+001 
3612500000  -4.605619e+001  -6.016779e+001 
3615625000  -4.597157e+001  -6.733625e+001 
3618750000  -4.662033e+001  -6.705573e+001 
3621875000  -4.515705e+001  -7.557439e+001 
3625000000  -4.574909e+001  -8.047611e+001 
3628125000  -4.464088e+001  -8.505669e+001 
3631250000  -4.492832e+001  -9.433924e+001 
3634375000  -4.525323e+001  -9.488046e+001 
3637500000  -4.448082e+001  -9.850266e+001 
3640625000  -4.360239e+001  -1.013952e+002 
3643750000  -4.336712e+001  -1.139332e+002 
3646875000  -4.363425e+001  -1.252512e+002 
3650000000  -4.364654e+001  -1.272733e+002 
3653125000  -4.336000e+001  -1.398888e+002 
3656250000  -4.433458e+001  -1.459890e+002 
3659375000  -4.376407e+001  -1.486692e+002 
3662500000  -4.328517e+001  -1.558066e+002 
3665625000  -4.355070e+001  -1.613201e+002 
3668750000  -4.195736e+001  -1.628045e+002 
3671875000  -4.170555e+001  1.797317e+002 
3675000000  -4.210551e+001  1.714611e+002 
3678125000  -4.265231e+001  1.672667e+002 
3681250000  -4.209708e+001  1.597348e+002 
3684375000  -4.246748e+001  1.523955e+002 
3687500000  -4.292873e+001  1.439363e+002 
3690625000  -4.354157e+001  1.373047e+002 
3693750000  -4.454668e+001  1.372957e+002 
3696875000  -4.408007e+001  1.333386e+002 
3700000000  -4.326984e+001  1.251993e+002 
3703125000  -4.358754e+001  1.206842e+002 
3706250000  -4.488875e+001  1.139037e+002 
3709375000  -4.352271e+001  1.157217e+002 
3712500000  -4.295264e+001  1.089232e+002 
3715625000  -4.186292e+001  9.949056e+001 
3718750000  -4.161354e+001  9.056073e+001 
3721875000  -4.183650e+001  8.053455e+001 
3725000000  -4.253351e+001  7.271580e+001 
3728125000  -4.264517e+001  6.850986e+001 
3731250000  -4.224625e+001  6.252611e+001 
3734375000  -4.222689e+001  5.470718e+001 
3737500000  -4.300789e+001  4.987014e+001 
3740625000  -4.313376e+001  4.241288e+001 
3743750000  -4.295524e+001  3.440674e+001 
3746875000  -4.378366e+001  2.858127e+001 
3750000000  -4.392914e+001  2.502072e+001 
3753125000  -4.358982e+001  2.070098e+001 
3756250000  -4.375141e+001  1.971410e+001 
3759375000  -4.373481e+001  1.211171e+001 
3762500000  -4.352824e+001  6.436099e+000 
3765625000  -4.450886e+001  3.826961e+000 
3768750000  -4.361560e+001  4.776555e+000 
3771875000  -4.219809e+001  -5.166728e+000 
3775000000  -4.191855e+001  -1.356130e+001 
3778125000  -4.285598e+001  -2.236648e+001 
3781250000  -4.271659e+001  -2.505268e+001 
3784375000  -4.282046e+001  -3.083098e+001 
3787500000  -4.227295e+001  -3.935625e+001 
3790625000  -4.305219e+001  -4.687165e+001 
3793750000  -4.254435e+001  -4.962029e+001 
3796875000  -4.191460e+001  -5.544054e+001 
3800000000  -4.066772e+001  -6.443047e+001 
3803125000  -4.167587e+001  -7.556797e+001 
3806250000  -4.259943e+001  -7.859122e+001 
3809375000  -4.192130e+001  -8.457711e+001 
3812500000  -4.196658e+001  -9.655585e+001 
3815625000  -4.333628e+001  -1.049779e+002 
3818750000  -4.403574e+001  -1.033513e+002 
3821875000  -4.339737e+001  -9.344081e+001 
3825000000  -4.149745e+001  -1.015854e+002 
3828125000  -4.053070e+001  -1.214532e+002 
3831250000  -4.152613e+001  -1.367984e+002 
3834375000  -4.407706e+001  -1.369564e+002 
3837500000  -4.377615e+001  -1.349153e+002 
3840625000  -4.254640e+001  -1.396563e+002 
3843750000  -4.157536e+001  -1.540539e+002 
3846875000  -4.347948e+001  -1.638369e+002 
3850000000  -4.385212e+001  -1.572774e+002 
3853125000  -4.341493e+001  -1.592849e+002 
3856250000  -4.305504e+001  -1.671785e+002 
3859375000  -4.224635e+001  -1.742623e+002 
3862500000  -4.215829e+001  1.750412e+002 
3865625000  -4.295981e+001  1.696632e+002 
3868750000  -4.220989e+001  1.654451e+002 
3871875000  -4.187472e+001  1.550067e+002 
3875000000  -4.276782e+001  1.460151e+002 
3878125000  -4.328718e+001  1.444486e+002 
3881250000  -4.290204e+001  1.429524e+002 
3884375000  -4.287028e+001  1.315808e+002 
3887500000  -4.303035e+001  1.251846e+002 
3890625000  -4.388543e+001  1.209375e+002 
3893750000  -4.417929e+001  1.189119e+002 
3896875000  -4.462889e+001  1.181617e+002 
3900000000  -4.457875e+001  1.090028e+002 
3903125000  -4.357107e+001  1.032356e+002 
3906250000  -4.362314e+001  1.026005e+002 
3909375000  -4.268710e+001  9.349668e+001 
3912500000  -4.378095e+001  8.638583e+001 
3915625000  -4.535273e+001  8.242019e+001 
3918750000  -4.489487e+001  8.339554e+001 
3921875000  -4.382375e+001  7.788077e+001 
3925000000  -4.329532e+001  7.103379e+001 
3928125000  -4.298463e+001  6.210560e+001 
3931250000  -4.401651e+001  5.477312e+001 
3934375000  -4.371603e+001  5.194066e+001 
3937500000  -4.439972e+001  5.110257e+001 
3940625000  -4.453139e+001  4.609632e+001 
3943750000  -4.298160e+001  4.004549e+001 
3946875000  -4.271469e+001  3.148418e+001 
3950000000  -4.383850e+001  2.500377e+001 
3953125000  -4.426958e+001  2.563422e+001 
3956250000  -4.269574e+001  2.615096e+001 
3959375000  -4.227246e+001  1.694968e+001 
3962500000  -4.154368e+001  7.848133e+000 
3965625000  -4.183723e+001  -2.160968e+000 
3968750000  -4.257887e+001  -9.831094e+000 
3971875000  -4.226831e+001  -1.786717e+001 
3975000000  -4.231121e+001  -1.929381e+001 
3978125000  -4.229050e+001  -2.796879e+001 
3981250000  -4.203937e+001  -3.592241e+001 
3984375000  -4.243587e+001  -4.265977e+001 
3987500000  -4.316172e+001  -4.856239e+001 
3990625000  -4.310480e+001  -4.889315e+001 
3993750000  -4.295229e+001  -5.908960e+001 
3996875000  -4.318680e+001  -6.343939e+001 
4000000000  -4.371701e+001  -6.903065e+001 
4003125000  -4.374058e+001  -6.700811e+001 
4006250000  -4.185085e+001  -7.703136e+001 
4009375000  -4.118931e+001  -8.975330e+001 
4012500000  -4.286424e+001  -9.762228e+001 
4015625000  -4.417686e+001  -9.963561e+001 
4018750000  -4.359980e+001  -1.016876e+002 
4021875000  -4.308898e+001  -1.112785e+002 
4025000000  -4.313155e+001  -1.186868e+002 
4028125000  -4.344678e+001  -1.258167e+002 
4031250000  -4.389384e+001  -1.321374e+002 
4034375000  -4.421208e+001  -1.336195e+002 
4037500000  -4.445737e+001  -1.362411e+002 
4040625000  -4.425293e+001  -1.434254e+002 
4043750000  -4.434543e+001  -1.450681e+002 
4046875000  -4.443927e+001  -1.529023e+002 
4050000000  -4.438376e+001  -1.594771e+002 
4053125000  -4.486753e+001  -1.658094e+002 
4056250000  -4.599593e+001  -1.591524e+002 
4059375000  -4.449810e+001  -1.614363e+002 
4062500000  -4.321064e+001  -1.688244e+002 
4065625000  -4.351740e+001  -1.768683e+002 
4068750000  -4.308924e+001  1.776665e+002 
4071875000  -4.279035e+001  1.663978e+002 
4075000000  -4.378477e+001  1.604177e+002 
4078125000  -4.429581e+001  1.553352e+002 
4081250000  -4.392141e+001  1.529160e+002 
4084375000  -4.325356e+001  1.422464e+002 
4087500000  -4.397688e+001  1.325271e+002 
4090625000  -4.464280e+001  1.296059e+002 
4093750000  -4.421969e+001  1.288555e+002 
4096875000  -4.401648e+001  1.223572e+002 
4100000000  -4.499962e+001  1.166710e+002 
4103125000  -4.599628e+001  1.191555e+002 
4106250000  -4.527686e+001  1.176897e+002 
4109375000  -4.439534e+001  1.151088e+002 
4112500000  -4.375908e+001  1.072770e+002 
4115625000  -4.427095e+001  1.017323e+002 
4118750000  -4.395016e+001  9.745917e+001 
4121875000  -4.365746e+001  8.637673e+001 
4125000000  -4.483200e+001  8.014370e+001 
4128125000  -4.548374e+001  8.333624e+001 
4131250000  -4.379256e+001  8.785690e+001 
4134375000  -4.174022e+001  7.636022e+001 
4137500000  -4.220054e+001  5.490569e+001 
4140625000  -4.428439e+001  4.746753e+001 
4143750000  -4.481195e+001  5.373825e+001 
4146875000  -4.411725e+001  5.161856e+001 
4150000000  -4.316992e+001  4.292420e+001 
4153125000  -4.302887e+001  3.353325e+001 
4156250000  -4.419006e+001  3.171836e+001 
4159375000  -4.378540e+001  3.330159e+001 
4162500000  -4.278191e+001  3.157828e+001 
4165625000  -4.162126e+001  2.130668e+001 
4168750000  -4.134013e+001  1.176155e+001 
4171875000  -4.126762e+001  -3.658873e-001 
4175000000  -4.177709e+001  -1.162808e+001 
4178125000  -4.219484e+001  -1.087952e+001 
4181250000  -4.195036e+001  -1.860972e+001 
4184375000  -4.257014e+001  -2.597302e+001 
4187500000  -4.255068e+001  -3.196133e+001 
4190625000  -4.261864e+001  -4.247325e+001 
4193750000  -4.406365e+001  -4.611737e+001 
4196875000  -4.498749e+001  -5.033152e+001 
4200000000  -4.637103e+001  -4.352391e+001 
4203125000  -4.466981e+001  -3.290738e+001 
4206250000  -4.089567e+001  -4.174421e+001 
4209375000  -4.137521e+001  -6.736441e+001 
4212500000  -4.424175e+001  -7.595081e+001 
4215625000  -4.406294e+001  -6.877749e+001 
4218750000  -4.258686e+001  -6.742287e+001 
4221875000  -4.093546e+001  -8.173789e+001 
4225000000  -4.226177e+001  -9.372137e+001 
4228125000  -4.232220e+001  -8.774456e+001 
4231250000  -4.116594e+001  -9.902726e+001 
4234375000  -4.147239e+001  -1.082618e+002 
4237500000  -4.092713e+001  -1.142149e+002 
4240625000  -4.128347e+001  -1.260480e+002 
4243750000  -4.230944e+001  -1.352018e+002 
4246875000  -4.296266e+001  -1.336891e+002 
4250000000  -4.289924e+001  -1.335076e+002 
4253125000  -4.232947e+001  -1.393271e+002 
4256250000  -4.246833e+001  -1.434722e+002 
4259375000  -4.224562e+001  -1.496060e+002 
4262500000  -4.248370e+001  -1.544630e+002 
4265625000  -4.243483e+001  -1.563954e+002 
4268750000  -4.120552e+001  -1.645790e+002 
4271875000  -4.077124e+001  -1.747620e+002 
4275000000  -4.017654e+001  1.765570e+002 
4278125000  -4.122701e+001  1.647198e+002 
4281250000  -4.252636e+001  1.609244e+002 
4284375000  -4.213499e+001  1.573512e+002 
4287500000  -4.381085e+001  1.565411e+002 
4290625000  -4.359723e+001  1.582162e+002 
4293750000  -4.180912e+001  1.597807e+002 
4296875000  -4.077957e+001  1.467320e+002 
4300000000  -4.141981e+001  1.346161e+002 
4303125000  -4.193557e+001  1.347007e+002 
4306250000  -4.094654e+001  1.345488e+002 
4309375000  -3.965237e+001  1.242580e+002 
4312500000  -3.990239e+001  1.127648e+002 
4315625000  -4.026762e+001  1.037299e+002 
4318750000  -4.081630e+001  9.895026e+001 
4321875000  -4.071529e+001  9.559538e+001 
4325000000  -4.013840e+001  9.450207e+001 
4328125000  -3.949578e+001  8.207521e+001 
4331250000  -3.953098e+001  6.876250e+001 
4334375000  -4.065786e+001  5.977946e+001 
4337500000  -4.206779e+001  5.838187e+001 
4340625000  -4.223470e+001  6.180439e+001 
4343750000  -4.084631e+001  5.722858e+001 
4346875000  -4.105343e+001  4.420281e+001 
4350000000  -4.113153e+001  3.530959e+001 
4353125000  -4.197933e+001  2.938672e+001 
4356250000  -4.405930e+001  3.298700e+001 
4359375000  -4.264032e+001  4.144450e+001 
4362500000  -3.949937e+001  3.576524e+001 
4365625000  -3.909055e+001  1.695913e+001 
4368750000  -4.048544e+001  5.735777e+000 
4371875000  -4.136454e+001  5.237119e+000 
4375000000  -4.106566e+001  1.219481e-001 
4378125000  -4.077280e+001  -1.046005e+001 
4381250000  -4.096128e+001  -1.679054e+001 
4384375000  -4.096367e+001  -2.481971e+001 
4387500000  -4.152283e+001  -3.133694e+001 
4390625000  -4.225822e+001  -3.527024e+001 
4393750000  -4.202695e+001  -3.254133e+001 
4396875000  -4.119567e+001  -3.978096e+001 
4400000000  -4.101822e+001  -4.977863e+001 
4403125000  -4.151819e+001  -6.072863e+001 
4406250000  -4.222556e+001  -6.568755e+001 
4409375000  -4.260214e+001  -7.054454e+001 
4412500000  -4.349556e+001  -7.018687e+001 
4415625000  -4.326138e+001  -6.729480e+001 
4418750000  -4.184855e+001  -6.850775e+001 
