!Agilent Technologies,E8363B,MY43030201,A.06.04.32
!Agilent E8363B: A.06.04.32
!Date: Tuesday, November 11, 2014 21:49:31
!Correction: S21(Response(S21)) 
!S1P File: Measurement: S21:
# Hz S  dB   R 50
3000000000  -4.373871e+001  -1.610827e+002 
3003125000  -4.534050e+001  -1.666640e+002 
3006250000  -4.532477e+001  -1.661735e+002 
3009375000  -4.600683e+001  -1.644425e+002 
3012500000  -4.476992e+001  -1.712814e+002 
3015625000  -4.513832e+001  -1.794407e+002 
3018750000  -4.540590e+001  -1.783780e+002 
3021875000  -4.388046e+001  1.798670e+002 
3025000000  -4.256125e+001  1.774999e+002 
3028125000  -4.157399e+001  1.644284e+002 
3031250000  -4.104720e+001  1.510715e+002 
3034375000  -4.099252e+001  1.367604e+002 
3037500000  -4.160682e+001  1.279251e+002 
3040625000  -4.287578e+001  1.214248e+002 
3043750000  -4.346360e+001  1.127536e+002 
3046875000  -4.409588e+001  1.053058e+002 
3050000000  -4.535674e+001  1.025775e+002 
3053125000  -4.472979e+001  1.055398e+002 
3056250000  -4.464200e+001  1.095669e+002 
3059375000  -4.384855e+001  1.048237e+002 
3062500000  -4.268340e+001  9.974683e+001 
3065625000  -4.221313e+001  8.898711e+001 
3068750000  -4.172794e+001  8.163224e+001 
3071875000  -4.182222e+001  7.857716e+001 
3075000000  -4.124243e+001  7.174870e+001 
3078125000  -4.117294e+001  6.267148e+001 
3081250000  -4.119622e+001  5.705550e+001 
3084375000  -4.042980e+001  5.050823e+001 
3087500000  -4.047516e+001  4.363646e+001 
3090625000  -3.997218e+001  3.040641e+001 
3093750000  -4.092927e+001  2.081258e+001 
3096875000  -4.099158e+001  1.460048e+001 
3100000000  -4.119709e+001  1.342594e+001 
3103125000  -4.143739e+001  7.441893e+000 
3106250000  -4.104083e+001  3.235244e-001 
3109375000  -4.095250e+001  -3.515141e+000 
3112500000  -4.072226e+001  -1.145293e+001 
3115625000  -4.092801e+001  -1.543160e+001 
3118750000  -4.080792e+001  -2.165608e+001 
3121875000  -4.027858e+001  -3.201815e+001 
3125000000  -4.221142e+001  -3.632816e+001 
3128125000  -4.192014e+001  -3.030918e+001 
3131250000  -3.943446e+001  -4.042655e+001 
3134375000  -3.898966e+001  -5.833168e+001 
3137500000  -3.953686e+001  -6.910136e+001 
3140625000  -4.091572e+001  -7.422966e+001 
3143750000  -4.160225e+001  -7.712810e+001 
3146875000  -4.109471e+001  -7.685078e+001 
3150000000  -4.033359e+001  -8.297688e+001 
3153125000  -4.082312e+001  -9.284882e+001 
3156250000  -4.146344e+001  -8.892121e+001 
3159375000  -3.922137e+001  -9.267406e+001 
3162500000  -3.765554e+001  -1.083325e+002 
3165625000  -3.880513e+001  -1.235130e+002 
3168750000  -3.898722e+001  -1.244478e+002 
3171875000  -3.847601e+001  -1.341532e+002 
3175000000  -3.915055e+001  -1.438557e+002 
3178125000  -3.862436e+001  -1.462987e+002 
3181250000  -3.805308e+001  -1.556454e+002 
3184375000  -3.768767e+001  -1.669446e+002 
3187500000  -3.914285e+001  1.763852e+002 
3190625000  -4.077411e+001  1.698350e+002 
3193750000  -4.103253e+001  1.753264e+002 
3196875000  -4.113079e+001  1.735220e+002 
3200000000  -3.980541e+001  1.678062e+002 
3203125000  -3.951256e+001  1.597619e+002 
3206250000  -3.989851e+001  1.522873e+002 
3209375000  -3.954030e+001  1.429480e+002 
3212500000  -3.993931e+001  1.365262e+002 
3215625000  -3.964284e+001  1.316081e+002 
3218750000  -4.038197e+001  1.202399e+002 
3221875000  -4.048486e+001  1.129012e+002 
3225000000  -4.037791e+001  1.078639e+002 
3228125000  -4.118354e+001  9.978008e+001 
3231250000  -4.162454e+001  9.562067e+001 
3234375000  -4.111927e+001  9.430415e+001 
3237500000  -4.097568e+001  9.028975e+001 
3240625000  -4.044548e+001  8.224136e+001 
3243750000  -4.034731e+001  7.055066e+001 
3246875000  -4.041376e+001  6.372366e+001 
3250000000  -4.110139e+001  5.767455e+001 
3253125000  -4.113485e+001  5.321226e+001 
3256250000  -4.036862e+001  4.377459e+001 
3259375000  -4.098592e+001  3.157383e+001 
3262500000  -4.227456e+001  2.593757e+001 
3265625000  -4.252266e+001  2.707821e+001 
3268750000  -4.252426e+001  2.638011e+001 
3271875000  -4.167950e+001  1.985138e+001 
3275000000  -4.104769e+001  1.114496e+001 
3278125000  -4.187102e+001  2.692715e+000 
3281250000  -4.178360e+001  -9.792486e-001 
3284375000  -4.094878e+001  -9.083151e+000 
3287500000  -4.143785e+001  -1.664415e+001 
3290625000  -4.153258e+001  -2.728298e+001 
3293750000  -4.139706e+001  -3.486119e+001 
3296875000  -4.265289e+001  -3.824036e+001 
3300000000  -4.174201e+001  -3.836089e+001 
3303125000  -4.093941e+001  -5.047691e+001 
3306250000  -4.085007e+001  -6.043292e+001 
3309375000  -4.079955e+001  -7.030161e+001 
3312500000  -4.109030e+001  -8.587508e+001 
3315625000  -4.237829e+001  -9.498473e+001 
3318750000  -4.378637e+001  -1.000487e+002 
3321875000  -4.528601e+001  -9.981789e+001 
3325000000  -4.516143e+001  -9.709393e+001 
3328125000  -4.399406e+001  -1.001784e+002 
3331250000  -4.241289e+001  -9.907118e+001 
3334375000  -3.997098e+001  -1.174069e+002 
3337500000  -4.076189e+001  -1.422572e+002 
3340625000  -4.274454e+001  -1.498526e+002 
3343750000  -4.450101e+001  -1.508762e+002 
3346875000  -4.421947e+001  -1.568268e+002 
3350000000  -4.366756e+001  -1.609786e+002 
3353125000  -4.367326e+001  -1.699602e+002 
3356250000  -4.337289e+001  1.795916e+002 
3359375000  -4.426046e+001  1.649716e+002 
3362500000  -4.496321e+001  1.570963e+002 
3365625000  -4.554661e+001  1.526107e+002 
3368750000  -4.649664e+001  1.470395e+002 
3371875000  -4.686575e+001  1.411745e+002 
3375000000  -4.877842e+001  1.365682e+002 
3378125000  -4.893567e+001  1.343474e+002 
3381250000  -5.092793e+001  1.417109e+002 
3384375000  -4.741208e+001  1.522644e+002 
3387500000  -4.496583e+001  1.298737e+002 
3390625000  -4.643580e+001  1.077815e+002 
3393750000  -4.753484e+001  1.044082e+002 
3396875000  -4.626564e+001  1.011968e+002 
3400000000  -4.614915e+001  8.460058e+001 
3403125000  -4.705487e+001  7.921883e+001 
3406250000  -4.738866e+001  7.028031e+001 
3409375000  -4.733397e+001  6.364809e+001 
3412500000  -4.790982e+001  5.523505e+001 
3415625000  -4.845958e+001  4.729884e+001 
3418750000  -4.874667e+001  4.673455e+001 
3421875000  -4.891692e+001  4.115201e+001 
3425000000  -4.769565e+001  3.687176e+001 
3428125000  -4.716640e+001  2.797039e+001 
3431250000  -4.706760e+001  1.554052e+001 
3434375000  -4.678936e+001  3.377873e+000 
3437500000  -4.778057e+001  -8.680927e+000 
3440625000  -4.752848e+001  -9.128123e+000 
3443750000  -4.660863e+001  -1.134145e+001 
3446875000  -4.561341e+001  -2.692507e+001 
3450000000  -4.522837e+001  -4.353867e+001 
3453125000  -4.576893e+001  -6.002906e+001 
3456250000  -4.707766e+001  -6.966725e+001 
3459375000  -4.838416e+001  -7.389931e+001 
3462500000  -4.777787e+001  -7.561215e+001 
3465625000  -4.746954e+001  -8.702624e+001 
3468750000  -4.739121e+001  -9.527180e+001 
3471875000  -4.739319e+001  -1.056812e+002 
3475000000  -4.725445e+001  -1.155180e+002 
3478125000  -4.801917e+001  -1.272811e+002 
3481250000  -4.899062e+001  -1.352349e+002 
3484375000  -4.909991e+001  -1.314292e+002 
3487500000  -4.765863e+001  -1.421673e+002 
3490625000  -4.698135e+001  -1.504993e+002 
3493750000  -4.723158e+001  -1.651355e+002 
3496875000  -4.762118e+001  -1.693258e+002 
3500000000  -4.844267e+001  -1.713353e+002 
3503125000  -4.696578e+001  -1.733463e+002 
3506250000  -4.528747e+001  1.674126e+002 
3509375000  -4.586554e+001  1.529953e+002 
3512500000  -4.621807e+001  1.349139e+002 
3515625000  -4.748023e+001  1.282838e+002 
3518750000  -4.788385e+001  1.300596e+002 
3521875000  -4.781527e+001  1.201683e+002 
3525000000  -4.905379e+001  1.153874e+002 
3528125000  -4.791322e+001  1.172036e+002 
3531250000  -4.670687e+001  1.010387e+002 
3534375000  -4.667715e+001  8.767053e+001 
3537500000  -4.786226e+001  7.611377e+001 
3540625000  -4.934148e+001  7.383418e+001 
3543750000  -4.973122e+001  7.782787e+001 
3546875000  -4.812812e+001  8.214203e+001 
3550000000  -4.726865e+001  7.595159e+001 
3553125000  -4.629682e+001  5.240657e+001 
3556250000  -4.760270e+001  4.331493e+001 
3559375000  -4.688014e+001  4.405905e+001 
3562500000  -4.648103e+001  2.980532e+001 
3565625000  -4.732713e+001  2.550632e+001 
3568750000  -4.759003e+001  1.983537e+001 
3571875000  -4.724245e+001  2.053490e+001 
3575000000  -4.707939e+001  8.679120e+000 
3578125000  -4.767019e+001  8.027302e+000 
3581250000  -4.765364e+001  5.186424e+000 
3584375000  -4.620550e+001  -4.022632e+000 
3587500000  -4.603896e+001  -1.571672e+001 
3590625000  -4.654434e+001  -2.169309e+001 
3593750000  -4.742750e+001  -2.702453e+001 
3596875000  -4.694139e+001  -2.181664e+001 
3600000000  -4.463577e+001  -3.279053e+001 
3603125000  -4.489891e+001  -5.075491e+001 
3606250000  -4.623865e+001  -5.525098e+001 
3609375000  -4.625835e+001  -5.865023e+001 
3612500000  -4.589683e+001  -6.601085e+001 
3615625000  -4.580914e+001  -6.897012e+001 
3618750000  -4.609790e+001  -7.308007e+001 
3621875000  -4.529633e+001  -7.655978e+001 
3625000000  -4.563530e+001  -8.311989e+001 
3628125000  -4.498541e+001  -8.863776e+001 
3631250000  -4.515526e+001  -9.830087e+001 
3634375000  -4.540953e+001  -9.898848e+001 
3637500000  -4.463704e+001  -1.003804e+002 
3640625000  -4.361734e+001  -1.070128e+002 
3643750000  -4.310807e+001  -1.186593e+002 
3646875000  -4.365891e+001  -1.292912e+002 
3650000000  -4.345926e+001  -1.353192e+002 
3653125000  -4.325620e+001  -1.424537e+002 
3656250000  -4.403998e+001  -1.481593e+002 
3659375000  -4.375829e+001  -1.501730e+002 
3662500000  -4.312826e+001  -1.588876e+002 
3665625000  -4.333199e+001  -1.646747e+002 
3668750000  -4.205095e+001  -1.674473e+002 
3671875000  -4.141728e+001  1.783015e+002 
3675000000  -4.212783e+001  1.676360e+002 
3678125000  -4.260784e+001  1.629087e+002 
3681250000  -4.242540e+001  1.549421e+002 
3684375000  -4.272102e+001  1.471994e+002 
3687500000  -4.309732e+001  1.389240e+002 
3690625000  -4.337421e+001  1.335228e+002 
3693750000  -4.445068e+001  1.304036e+002 
3696875000  -4.392167e+001  1.291652e+002 
3700000000  -4.291725e+001  1.210312e+002 
3703125000  -4.351561e+001  1.110579e+002 
3706250000  -4.462554e+001  1.110234e+002 
3709375000  -4.402871e+001  1.130662e+002 
3712500000  -4.252391e+001  1.037369e+002 
3715625000  -4.159286e+001  9.355048e+001 
3718750000  -4.168507e+001  8.433229e+001 
3721875000  -4.168356e+001  7.805819e+001 
3725000000  -4.221358e+001  6.765504e+001 
3728125000  -4.238677e+001  6.392165e+001 
3731250000  -4.196269e+001  5.752179e+001 
3734375000  -4.187845e+001  5.018447e+001 
3737500000  -4.279280e+001  4.298191e+001 
3740625000  -4.293634e+001  3.591681e+001 
3743750000  -4.269575e+001  2.754659e+001 
3746875000  -4.310260e+001  2.326844e+001 
3750000000  -4.361407e+001  1.899068e+001 
3753125000  -4.366485e+001  1.638261e+001 
3756250000  -4.387190e+001  1.150692e+001 
3759375000  -4.375738e+001  6.122804e+000 
3762500000  -4.336978e+001  1.662937e+000 
3765625000  -4.394387e+001  -3.263696e+000 
3768750000  -4.369120e+001  -1.151826e+000 
3771875000  -4.196485e+001  -1.059378e+001 
3775000000  -4.196809e+001  -1.970408e+001 
3778125000  -4.270301e+001  -2.841407e+001 
3781250000  -4.278814e+001  -3.215057e+001 
3784375000  -4.231477e+001  -3.837427e+001 
3787500000  -4.249705e+001  -4.281876e+001 
3790625000  -4.298153e+001  -5.227905e+001 
3793750000  -4.245800e+001  -5.530336e+001 
3796875000  -4.159123e+001  -6.028729e+001 
3800000000  -4.096675e+001  -6.756512e+001 
3803125000  -4.165673e+001  -7.836866e+001 
3806250000  -4.234551e+001  -8.275925e+001 
3809375000  -4.158929e+001  -8.913093e+001 
3812500000  -4.160841e+001  -1.007470e+002 
3815625000  -4.285608e+001  -1.123017e+002 
3818750000  -4.460083e+001  -1.087730e+002 
3821875000  -4.313351e+001  -9.746690e+001 
3825000000  -4.156994e+001  -1.050202e+002 
3828125000  -4.032626e+001  -1.259251e+002 
3831250000  -4.151621e+001  -1.417269e+002 
3834375000  -4.351549e+001  -1.432803e+002 
3837500000  -4.425073e+001  -1.415004e+002 
3840625000  -4.252185e+001  -1.459415e+002 
3843750000  -4.185585e+001  -1.587238e+002 
3846875000  -4.338580e+001  -1.682104e+002 
3850000000  -4.398543e+001  -1.604225e+002 
3853125000  -4.343916e+001  -1.628307e+002 
3856250000  -4.313876e+001  -1.731300e+002 
3859375000  -4.227180e+001  1.793176e+002 
3862500000  -4.206652e+001  1.702421e+002 
3865625000  -4.231342e+001  1.611836e+002 
3868750000  -4.238632e+001  1.616911e+002 
3871875000  -4.171807e+001  1.523928e+002 
3875000000  -4.254502e+001  1.424650e+002 
3878125000  -4.339216e+001  1.383326e+002 
3881250000  -4.300219e+001  1.357062e+002 
3884375000  -4.240229e+001  1.278437e+002 
3887500000  -4.332338e+001  1.212280e+002 
3890625000  -4.359567e+001  1.172493e+002 
3893750000  -4.406479e+001  1.143720e+002 
3896875000  -4.418916e+001  1.085252e+002 
3900000000  -4.442973e+001  1.051706e+002 
3903125000  -4.362890e+001  9.768744e+001 
3906250000  -4.392459e+001  9.814080e+001 
3909375000  -4.247469e+001  8.686589e+001 
3912500000  -4.395219e+001  7.837455e+001 
3915625000  -4.489101e+001  7.815447e+001 
3918750000  -4.431741e+001  7.572163e+001 
3921875000  -4.356518e+001  7.249285e+001 
3925000000  -4.277662e+001  6.482896e+001 
3928125000  -4.306308e+001  5.594724e+001 
3931250000  -4.376678e+001  4.844962e+001 
3934375000  -4.391476e+001  4.844987e+001 
3937500000  -4.423688e+001  4.623512e+001 
3940625000  -4.444363e+001  4.238337e+001 
3943750000  -4.306536e+001  3.679578e+001 
3946875000  -4.280791e+001  2.841430e+001 
3950000000  -4.367590e+001  1.893242e+001 
3953125000  -4.422978e+001  2.103337e+001 
3956250000  -4.252011e+001  1.915535e+001 
3959375000  -4.180775e+001  1.108880e+001 
3962500000  -4.149965e+001  3.768729e+000 
3965625000  -4.202436e+001  -8.830719e+000 
3968750000  -4.252563e+001  -1.568347e+001 
3971875000  -4.230869e+001  -2.131330e+001 
3975000000  -4.203484e+001  -2.431852e+001 
3978125000  -4.213102e+001  -3.406459e+001 
3981250000  -4.173980e+001  -3.989359e+001 
3984375000  -4.259150e+001  -4.789761e+001 
3987500000  -4.295710e+001  -5.288389e+001 
3990625000  -4.303400e+001  -5.862606e+001 
3993750000  -4.309689e+001  -6.479330e+001 
3996875000  -4.288070e+001  -6.963317e+001 
4000000000  -4.356710e+001  -7.030856e+001 
4003125000  -4.404850e+001  -7.294635e+001 
4006250000  -4.202691e+001  -7.781569e+001 
4009375000  -4.132600e+001  -9.634368e+001 
4012500000  -4.259905e+001  -1.042341e+002 
4015625000  -4.396012e+001  -1.051803e+002 
4018750000  -4.396341e+001  -1.109157e+002 
4021875000  -4.315257e+001  -1.157960e+002 
4025000000  -4.298822e+001  -1.181933e+002 
4028125000  -4.314847e+001  -1.304790e+002 
4031250000  -4.397110e+001  -1.363837e+002 
4034375000  -4.402416e+001  -1.389902e+002 
4037500000  -4.399211e+001  -1.428847e+002 
4040625000  -4.441154e+001  -1.488958e+002 
4043750000  -4.451344e+001  -1.504574e+002 
4046875000  -4.430318e+001  -1.566844e+002 
4050000000  -4.407210e+001  -1.647313e+002 
4053125000  -4.464573e+001  -1.663762e+002 
4056250000  -4.557660e+001  -1.641001e+002 
4059375000  -4.390312e+001  -1.673396e+002 
4062500000  -4.381040e+001  -1.763203e+002 
4065625000  -4.340663e+001  1.788238e+002 
4068750000  -4.303215e+001  1.700510e+002 
4071875000  -4.235394e+001  1.612007e+002 
4075000000  -4.335488e+001  1.539216e+002 
4078125000  -4.423837e+001  1.496690e+002 
4081250000  -4.319104e+001  1.475529e+002 
4084375000  -4.300398e+001  1.366282e+002 
4087500000  -4.377920e+001  1.267892e+002 
4090625000  -4.445046e+001  1.275386e+002 
4093750000  -4.452662e+001  1.255306e+002 
4096875000  -4.379975e+001  1.163322e+002 
4100000000  -4.488443e+001  1.114345e+002 
4103125000  -4.566998e+001  1.117783e+002 
4106250000  -4.488498e+001  1.140511e+002 
4109375000  -4.431251e+001  1.086678e+002 
4112500000  -4.412426e+001  9.845384e+001 
4115625000  -4.444686e+001  9.531870e+001 
4118750000  -4.388820e+001  8.897279e+001 
4121875000  -4.351515e+001  8.539719e+001 
4125000000  -4.486979e+001  7.364940e+001 
4128125000  -4.479927e+001  7.966084e+001 
4131250000  -4.401003e+001  8.075016e+001 
4134375000  -4.142806e+001  6.960940e+001 
4137500000  -4.219449e+001  4.902271e+001 
4140625000  -4.397998e+001  4.109057e+001 
4143750000  -4.503106e+001  4.762411e+001 
4146875000  -4.395601e+001  4.700314e+001 
4150000000  -4.270295e+001  3.569802e+001 
4153125000  -4.324994e+001  2.959043e+001 
4156250000  -4.399192e+001  2.418055e+001 
4159375000  -4.347080e+001  2.883930e+001 
4162500000  -4.217680e+001  2.465861e+001 
4165625000  -4.114600e+001  1.582139e+001 
4168750000  -4.110588e+001  6.858018e+000 
4171875000  -4.119454e+001  -6.757589e+000 
4175000000  -4.186478e+001  -1.629230e+001 
4178125000  -4.212431e+001  -1.731532e+001 
4181250000  -4.168233e+001  -2.542516e+001 
4184375000  -4.282311e+001  -3.215746e+001 
4187500000  -4.236530e+001  -3.695222e+001 
4190625000  -4.239331e+001  -4.699339e+001 
4193750000  -4.347592e+001  -5.272840e+001 
4196875000  -4.478325e+001  -5.442017e+001 
4200000000  -4.584733e+001  -4.557454e+001 
4203125000  -4.442628e+001  -3.831213e+001 
4206250000  -4.114634e+001  -4.862697e+001 
4209375000  -4.158706e+001  -7.454296e+001 
4212500000  -4.392751e+001  -7.890780e+001 
4215625000  -4.400288e+001  -7.261647e+001 
4218750000  -4.220654e+001  -7.415733e+001 
4221875000  -4.134203e+001  -8.347992e+001 
4225000000  -4.208199e+001  -9.782896e+001 
4228125000  -4.195288e+001  -9.506100e+001 
4231250000  -4.112515e+001  -1.032311e+002 
4234375000  -4.083895e+001  -1.158569e+002 
4237500000  -4.077848e+001  -1.210026e+002 
4240625000  -4.089473e+001  -1.321998e+002 
4243750000  -4.209056e+001  -1.402065e+002 
4246875000  -4.309418e+001  -1.393304e+002 
4250000000  -4.285276e+001  -1.391226e+002 
4253125000  -4.246653e+001  -1.462906e+002 
4256250000  -4.227100e+001  -1.504657e+002 
4259375000  -4.202098e+001  -1.575991e+002 
4262500000  -4.192785e+001  -1.612825e+002 
4265625000  -4.173008e+001  -1.623609e+002 
4268750000  -4.067704e+001  -1.711921e+002 
4271875000  -4.060027e+001  -1.786058e+002 
4275000000  -4.025938e+001  1.678227e+002 
4278125000  -4.134868e+001  1.540423e+002 
4281250000  -4.235225e+001  1.568602e+002 
4284375000  -4.209528e+001  1.501971e+002 
4287500000  -4.353460e+001  1.513257e+002 
4290625000  -4.321445e+001  1.532773e+002 
4293750000  -4.109035e+001  1.544329e+002 
4296875000  -4.027405e+001  1.399238e+002 
4300000000  -4.145509e+001  1.300531e+002 
4303125000  -4.137836e+001  1.315292e+002 
4306250000  -4.072946e+001  1.298008e+002 
4309375000  -3.985490e+001  1.207513e+002 
4312500000  -3.966606e+001  1.058372e+002 
4315625000  -4.005415e+001  9.676733e+001 
4318750000  -4.084408e+001  9.251028e+001 
4321875000  -4.074015e+001  9.098071e+001 
4325000000  -4.011222e+001  8.667049e+001 
4328125000  -3.951803e+001  7.415349e+001 
4331250000  -3.967983e+001  6.299751e+001 
4334375000  -4.055583e+001  5.534982e+001 
4337500000  -4.182944e+001  5.217968e+001 
4340625000  -4.216013e+001  5.710093e+001 
4343750000  -4.101419e+001  4.952154e+001 
4346875000  -4.086435e+001  4.114593e+001 
4350000000  -4.098398e+001  2.987011e+001 
4353125000  -4.184941e+001  2.061537e+001 
4356250000  -4.306448e+001  2.786330e+001 
4359375000  -4.341359e+001  3.980114e+001 
4362500000  -3.929055e+001  2.866623e+001 
4365625000  -3.882360e+001  1.183045e+001 
4368750000  -3.986768e+001  -1.428428e+000 
4371875000  -4.093302e+001  -1.345281e+000 
4375000000  -4.063947e+001  -6.413036e+000 
4378125000  -4.033675e+001  -1.548535e+001 
4381250000  -4.042834e+001  -2.207615e+001 
4384375000  -4.074691e+001  -3.235355e+001 
4387500000  -4.136985e+001  -3.971306e+001 
4390625000  -4.185849e+001  -4.182458e+001 
4393750000  -4.192814e+001  -4.019800e+001 
4396875000  -4.067546e+001  -4.602807e+001 
4400000000  -4.067981e+001  -5.584837e+001 
4403125000  -4.148056e+001  -6.754437e+001 
4406250000  -4.197657e+001  -7.018293e+001 
4409375000  -4.250848e+001  -7.717923e+001 
4412500000  -4.352497e+001  -7.969311e+001 
4415625000  -4.336412e+001  -7.795560e+001 
4418750000  -4.187012e+001  -7.568672e+001 
