!Agilent Technologies,E8363B,MY43030201,A.06.04.32
!Agilent E8363B: A.06.04.32
!Date: Tuesday, November 11, 2014 21:40:49
!Correction: S21(Response(S21)) 
!S1P File: Measurement: S21:
# Hz S  dB   R 50
3000000000  -4.360072e+001  -1.571525e+002 
3003125000  -4.515002e+001  -1.632695e+002 
3006250000  -4.526971e+001  -1.634944e+002 
3009375000  -4.589725e+001  -1.612572e+002 
3012500000  -4.485576e+001  -1.671643e+002 
3015625000  -4.503420e+001  -1.741935e+002 
3018750000  -4.495551e+001  -1.764533e+002 
3021875000  -4.375912e+001  -1.749339e+002 
3025000000  -4.229288e+001  -1.796859e+002 
3028125000  -4.185773e+001  1.687167e+002 
3031250000  -4.104165e+001  1.558205e+002 
3034375000  -4.082629e+001  1.422983e+002 
3037500000  -4.144801e+001  1.314551e+002 
3040625000  -4.295792e+001  1.249403e+002 
3043750000  -4.320284e+001  1.185799e+002 
3046875000  -4.386258e+001  1.113955e+002 
3050000000  -4.543403e+001  1.074356e+002 
3053125000  -4.460241e+001  1.106364e+002 
3056250000  -4.482994e+001  1.141682e+002 
3059375000  -4.396301e+001  1.101765e+002 
3062500000  -4.269291e+001  1.028619e+002 
3065625000  -4.219184e+001  9.375398e+001 
3068750000  -4.149181e+001  8.510145e+001 
3071875000  -4.177102e+001  8.244128e+001 
3075000000  -4.105208e+001  7.479692e+001 
3078125000  -4.125970e+001  6.824954e+001 
3081250000  -4.124975e+001  6.135012e+001 
3084375000  -4.046046e+001  5.524987e+001 
3087500000  -4.069704e+001  4.706637e+001 
3090625000  -3.982384e+001  3.372547e+001 
3093750000  -4.114637e+001  2.565682e+001 
3096875000  -4.136427e+001  1.992780e+001 
3100000000  -4.108186e+001  1.586573e+001 
3103125000  -4.143435e+001  1.137919e+001 
3106250000  -4.102919e+001  5.026021e+000 
3109375000  -4.096025e+001  1.340837e+000 
3112500000  -4.081148e+001  -6.827537e+000 
3115625000  -4.077134e+001  -1.130687e+001 
3118750000  -4.067121e+001  -1.821567e+001 
3121875000  -4.027625e+001  -2.880493e+001 
3125000000  -4.213883e+001  -3.245500e+001 
3128125000  -4.209369e+001  -2.645912e+001 
3131250000  -3.942822e+001  -3.523452e+001 
3134375000  -3.896980e+001  -5.255305e+001 
3137500000  -3.939803e+001  -6.755632e+001 
3140625000  -4.090279e+001  -7.008298e+001 
3143750000  -4.146903e+001  -7.397803e+001 
3146875000  -4.104882e+001  -7.270065e+001 
3150000000  -4.025128e+001  -7.845664e+001 
3153125000  -4.083969e+001  -8.794267e+001 
3156250000  -4.151662e+001  -8.503374e+001 
3159375000  -3.924177e+001  -8.927874e+001 
3162500000  -3.767103e+001  -1.049462e+002 
3165625000  -3.902528e+001  -1.184620e+002 
3168750000  -3.918084e+001  -1.197903e+002 
3171875000  -3.851530e+001  -1.283356e+002 
3175000000  -3.920552e+001  -1.380131e+002 
3178125000  -3.874350e+001  -1.417542e+002 
3181250000  -3.801062e+001  -1.498811e+002 
3184375000  -3.793818e+001  -1.623843e+002 
3187500000  -3.917441e+001  -1.779176e+002 
3190625000  -4.103158e+001  1.744113e+002 
3193750000  -4.093124e+001  1.782408e+002 
3196875000  -4.118245e+001  1.784116e+002 
3200000000  -3.991757e+001  1.734524e+002 
3203125000  -3.956987e+001  1.647294e+002 
3206250000  -3.993156e+001  1.556458e+002 
3209375000  -3.950538e+001  1.465718e+002 
3212500000  -3.988577e+001  1.402567e+002 
3215625000  -3.984364e+001  1.372572e+002 
3218750000  -4.040285e+001  1.248990e+002 
3221875000  -4.064931e+001  1.174411e+002 
3225000000  -4.045126e+001  1.129821e+002 
3228125000  -4.116712e+001  1.035512e+002 
3231250000  -4.144258e+001  1.012257e+002 
3234375000  -4.087713e+001  9.747362e+001 
3237500000  -4.116225e+001  9.548173e+001 
3240625000  -4.036419e+001  8.658732e+001 
3243750000  -4.045156e+001  7.412638e+001 
3246875000  -4.073162e+001  6.672978e+001 
3250000000  -4.111478e+001  6.276977e+001 
3253125000  -4.125730e+001  5.767981e+001 
3256250000  -4.050167e+001  4.815821e+001 
3259375000  -4.093013e+001  3.459990e+001 
3262500000  -4.245049e+001  3.170331e+001 
3265625000  -4.233140e+001  3.040388e+001 
3268750000  -4.272429e+001  3.160081e+001 
3271875000  -4.173259e+001  2.401611e+001 
3275000000  -4.104117e+001  1.396570e+001 
3278125000  -4.179440e+001  5.558241e+000 
3281250000  -4.186103e+001  2.902979e+000 
3284375000  -4.106569e+001  -4.374041e+000 
3287500000  -4.157387e+001  -1.316589e+001 
3290625000  -4.153384e+001  -2.320578e+001 
3293750000  -4.151080e+001  -3.046225e+001 
3296875000  -4.274894e+001  -3.427802e+001 
3300000000  -4.206169e+001  -3.651137e+001 
3303125000  -4.118309e+001  -4.610125e+001 
3306250000  -4.106150e+001  -5.552045e+001 
3309375000  -4.080322e+001  -6.906355e+001 
3312500000  -4.122799e+001  -8.303610e+001 
3315625000  -4.256166e+001  -9.115009e+001 
3318750000  -4.416565e+001  -9.676654e+001 
3321875000  -4.539977e+001  -9.760501e+001 
3325000000  -4.516064e+001  -9.316303e+001 
3328125000  -4.452166e+001  -9.581232e+001 
3331250000  -4.252068e+001  -9.478514e+001 
3334375000  -4.016077e+001  -1.152705e+002 
3337500000  -4.078611e+001  -1.376681e+002 
3340625000  -4.260461e+001  -1.468359e+002 
3343750000  -4.494550e+001  -1.491176e+002 
3346875000  -4.400527e+001  -1.541298e+002 
3350000000  -4.393587e+001  -1.578634e+002 
3353125000  -4.366460e+001  -1.683103e+002 
3356250000  -4.339745e+001  -1.773198e+002 
3359375000  -4.452525e+001  1.683803e+002 
3362500000  -4.516970e+001  1.601730e+002 
3365625000  -4.582916e+001  1.555382e+002 
3368750000  -4.663762e+001  1.498948e+002 
3371875000  -4.731356e+001  1.438587e+002 
3375000000  -4.874939e+001  1.342352e+002 
3378125000  -4.953509e+001  1.363905e+002 
3381250000  -5.132072e+001  1.451387e+002 
3384375000  -4.765133e+001  1.552650e+002 
3387500000  -4.520829e+001  1.312148e+002 
3390625000  -4.647189e+001  1.102096e+002 
3393750000  -4.765172e+001  1.080785e+002 
3396875000  -4.649969e+001  1.017168e+002 
3400000000  -4.638654e+001  8.807148e+001 
3403125000  -4.702045e+001  8.467934e+001 
3406250000  -4.765789e+001  7.343604e+001 
3409375000  -4.743413e+001  6.491600e+001 
3412500000  -4.790641e+001  5.478783e+001 
3415625000  -4.854879e+001  5.299126e+001 
3418750000  -4.844016e+001  4.599924e+001 
3421875000  -4.945395e+001  4.240136e+001 
3425000000  -4.777919e+001  3.734613e+001 
3428125000  -4.768378e+001  3.179157e+001 
3431250000  -4.691074e+001  1.669414e+001 
3434375000  -4.701707e+001  3.487516e+000 
3437500000  -4.790470e+001  4.550305e-001 
3440625000  -4.777490e+001  -3.940895e+000 
3443750000  -4.658834e+001  -9.678332e+000 
3446875000  -4.555149e+001  -2.524683e+001 
3450000000  -4.554913e+001  -4.137498e+001 
3453125000  -4.599556e+001  -5.803119e+001 
3456250000  -4.738046e+001  -6.801886e+001 
3459375000  -4.858273e+001  -6.847533e+001 
3462500000  -4.802679e+001  -7.366473e+001 
3465625000  -4.707579e+001  -8.803125e+001 
3468750000  -4.737651e+001  -9.041477e+001 
3471875000  -4.645749e+001  -9.868526e+001 
3475000000  -4.708485e+001  -1.132684e+002 
3478125000  -4.793737e+001  -1.280585e+002 
3481250000  -4.885854e+001  -1.326414e+002 
3484375000  -4.858300e+001  -1.311001e+002 
3487500000  -4.740677e+001  -1.389700e+002 
3490625000  -4.707811e+001  -1.520328e+002 
3493750000  -4.776327e+001  -1.616823e+002 
3496875000  -4.821369e+001  -1.680616e+002 
3500000000  -4.850449e+001  -1.703435e+002 
3503125000  -4.690104e+001  -1.725543e+002 
3506250000  -4.574620e+001  1.771718e+002 
3509375000  -4.559779e+001  1.548843e+002 
3512500000  -4.631321e+001  1.414686e+002 
3515625000  -4.729196e+001  1.388639e+002 
3518750000  -4.751361e+001  1.313742e+002 
3521875000  -4.758827e+001  1.212366e+002 
3525000000  -4.839042e+001  1.203355e+002 
3528125000  -4.730182e+001  1.218035e+002 
3531250000  -4.651221e+001  1.071778e+002 
3534375000  -4.647158e+001  9.412586e+001 
3537500000  -4.747787e+001  8.232419e+001 
3540625000  -4.928847e+001  8.107097e+001 
3543750000  -4.925138e+001  8.015169e+001 
3546875000  -4.878739e+001  9.054760e+001 
3550000000  -4.639625e+001  8.056242e+001 
3553125000  -4.587383e+001  5.652832e+001 
3556250000  -4.695822e+001  5.289030e+001 
3559375000  -4.639690e+001  4.682026e+001 
3562500000  -4.611557e+001  3.583999e+001 
3565625000  -4.728589e+001  3.012652e+001 
3568750000  -4.771651e+001  3.335546e+001 
3571875000  -4.733358e+001  2.758624e+001 
3575000000  -4.691315e+001  1.781442e+001 
3578125000  -4.771294e+001  1.348315e+001 
3581250000  -4.746843e+001  9.098145e+000 
3584375000  -4.593468e+001  -5.001452e-001 
3587500000  -4.593699e+001  -9.991392e+000 
3590625000  -4.672023e+001  -2.012398e+001 
3593750000  -4.793821e+001  -2.080256e+001 
3596875000  -4.675273e+001  -1.509071e+001 
3600000000  -4.547262e+001  -2.698592e+001 
3603125000  -4.492107e+001  -4.500516e+001 
3606250000  -4.610171e+001  -4.647104e+001 
3609375000  -4.571671e+001  -5.084762e+001 
3612500000  -4.578445e+001  -5.918220e+001 
3615625000  -4.640893e+001  -6.285388e+001 
3618750000  -4.642204e+001  -6.567902e+001 
3621875000  -4.524896e+001  -7.179278e+001 
3625000000  -4.577904e+001  -7.768980e+001 
3628125000  -4.497755e+001  -8.401270e+001 
3631250000  -4.472379e+001  -9.211591e+001 
3634375000  -4.562198e+001  -9.236935e+001 
3637500000  -4.474916e+001  -9.512804e+001 
3640625000  -4.374316e+001  -1.024564e+002 
3643750000  -4.321493e+001  -1.102982e+002 
3646875000  -4.382057e+001  -1.243115e+002 
3650000000  -4.357029e+001  -1.306631e+002 
3653125000  -4.338439e+001  -1.379051e+002 
3656250000  -4.376607e+001  -1.455571e+002 
3659375000  -4.385092e+001  -1.473853e+002 
3662500000  -4.344904e+001  -1.556641e+002 
3665625000  -4.373481e+001  -1.569357e+002 
3668750000  -4.211635e+001  -1.624399e+002 
3671875000  -4.162310e+001  -1.764289e+002 
3675000000  -4.224081e+001  1.734791e+002 
3678125000  -4.275997e+001  1.667885e+002 
3681250000  -4.215320e+001  1.616797e+002 
3684375000  -4.285382e+001  1.543591e+002 
3687500000  -4.306307e+001  1.452752e+002 
3690625000  -4.352075e+001  1.361655e+002 
3693750000  -4.424284e+001  1.355140e+002 
3696875000  -4.399481e+001  1.362681e+002 
3700000000  -4.305735e+001  1.256638e+002 
3703125000  -4.353473e+001  1.178991e+002 
3706250000  -4.455735e+001  1.183407e+002 
3709375000  -4.427173e+001  1.177103e+002 
3712500000  -4.312640e+001  1.072991e+002 
3715625000  -4.218505e+001  1.006610e+002 
3718750000  -4.164727e+001  9.078948e+001 
3721875000  -4.172358e+001  8.221778e+001 
3725000000  -4.262027e+001  7.545129e+001 
3728125000  -4.292668e+001  7.254681e+001 
3731250000  -4.203490e+001  6.335302e+001 
3734375000  -4.213787e+001  5.653862e+001 
3737500000  -4.296663e+001  4.860250e+001 
3740625000  -4.298479e+001  3.994720e+001 
3743750000  -4.275883e+001  3.527447e+001 
3746875000  -4.334296e+001  2.997050e+001 
3750000000  -4.396247e+001  2.477869e+001 
3753125000  -4.368418e+001  2.353851e+001 
3756250000  -4.369073e+001  1.859501e+001 
3759375000  -4.398793e+001  1.376365e+001 
3762500000  -4.338158e+001  9.040716e+000 
3765625000  -4.430449e+001  1.881362e+000 
3768750000  -4.371175e+001  3.598018e+000 
3771875000  -4.221349e+001  -2.079187e+000 
3775000000  -4.229450e+001  -1.296520e+001 
3778125000  -4.292450e+001  -2.215687e+001 
3781250000  -4.247007e+001  -2.514573e+001 
3784375000  -4.270689e+001  -3.015801e+001 
3787500000  -4.224520e+001  -3.550694e+001 
3790625000  -4.283332e+001  -4.619537e+001 
3793750000  -4.255892e+001  -4.961764e+001 
3796875000  -4.197210e+001  -5.388489e+001 
3800000000  -4.064035e+001  -6.134113e+001 
3803125000  -4.178830e+001  -7.232359e+001 
3806250000  -4.263875e+001  -7.918077e+001 
3809375000  -4.211625e+001  -8.272767e+001 
3812500000  -4.168869e+001  -9.341771e+001 
3815625000  -4.326427e+001  -1.051628e+002 
3818750000  -4.438912e+001  -1.023069e+002 
3821875000  -4.338096e+001  -9.121546e+001 
3825000000  -4.168344e+001  -9.870460e+001 
3828125000  -4.061279e+001  -1.208326e+002 
3831250000  -4.199781e+001  -1.366191e+002 
3834375000  -4.392812e+001  -1.359779e+002 
3837500000  -4.406542e+001  -1.333082e+002 
3840625000  -4.236831e+001  -1.404308e+002 
3843750000  -4.218706e+001  -1.527238e+002 
3846875000  -4.366543e+001  -1.603886e+002 
3850000000  -4.394491e+001  -1.535984e+002 
3853125000  -4.401644e+001  -1.592205e+002 
3856250000  -4.281472e+001  -1.629484e+002 
3859375000  -4.164487e+001  -1.738524e+002 
3862500000  -4.221439e+001  1.751680e+002 
3865625000  -4.281109e+001  1.678195e+002 
3868750000  -4.231483e+001  1.680568e+002 
3871875000  -4.169595e+001  1.591208e+002 
3875000000  -4.278421e+001  1.475223e+002 
3878125000  -4.351893e+001  1.452045e+002 
3881250000  -4.330733e+001  1.415849e+002 
3884375000  -4.283449e+001  1.341183e+002 
3887500000  -4.334846e+001  1.292437e+002 
3890625000  -4.371618e+001  1.233378e+002 
3893750000  -4.464539e+001  1.204380e+002 
3896875000  -4.424697e+001  1.168547e+002 
3900000000  -4.418169e+001  1.129141e+002 
3903125000  -4.383180e+001  1.099982e+002 
3906250000  -4.360033e+001  1.079562e+002 
3909375000  -4.283065e+001  9.300030e+001 
3912500000  -4.357013e+001  8.363336e+001 
3915625000  -4.506226e+001  8.622585e+001 
3918750000  -4.449142e+001  8.474099e+001 
3921875000  -4.356684e+001  7.659753e+001 
3925000000  -4.321663e+001  7.096146e+001 
3928125000  -4.305021e+001  6.221419e+001 
3931250000  -4.399240e+001  5.531369e+001 
3934375000  -4.403309e+001  5.284413e+001 
3937500000  -4.451505e+001  5.190222e+001 
3940625000  -4.489486e+001  4.826968e+001 
3943750000  -4.342735e+001  4.542966e+001 
3946875000  -4.317762e+001  3.515561e+001 
3950000000  -4.394333e+001  2.493299e+001 
3953125000  -4.462503e+001  2.669925e+001 
3956250000  -4.301419e+001  2.648545e+001 
3959375000  -4.203979e+001  1.807743e+001 
3962500000  -4.171837e+001  9.034124e+000 
3965625000  -4.181579e+001  -1.347329e+000 
3968750000  -4.280624e+001  -1.288067e+001 
3971875000  -4.287005e+001  -1.363712e+001 
3975000000  -4.207373e+001  -1.937252e+001 
3978125000  -4.219106e+001  -2.787432e+001 
3981250000  -4.222299e+001  -3.222133e+001 
3984375000  -4.248198e+001  -4.206703e+001 
3987500000  -4.324423e+001  -4.556565e+001 
3990625000  -4.318728e+001  -5.053384e+001 
3993750000  -4.311632e+001  -5.336295e+001 
3996875000  -4.320726e+001  -6.384101e+001 
4000000000  -4.381910e+001  -6.662208e+001 
4003125000  -4.366118e+001  -6.758795e+001 
4006250000  -4.254163e+001  -7.124071e+001 
4009375000  -4.149391e+001  -8.979268e+001 
4012500000  -4.309287e+001  -9.471487e+001 
4015625000  -4.399316e+001  -9.874580e+001 
4018750000  -4.443062e+001  -1.033785e+002 
4021875000  -4.321722e+001  -1.087144e+002 
4025000000  -4.309885e+001  -1.147502e+002 
4028125000  -4.356937e+001  -1.239297e+002 
4031250000  -4.429588e+001  -1.288140e+002 
4034375000  -4.423667e+001  -1.327318e+002 
4037500000  -4.409057e+001  -1.354021e+002 
4040625000  -4.423070e+001  -1.425414e+002 
4043750000  -4.458603e+001  -1.441103e+002 
4046875000  -4.426723e+001  -1.520208e+002 
4050000000  -4.451408e+001  -1.584088e+002 
4053125000  -4.570788e+001  -1.632347e+002 
4056250000  -4.545655e+001  -1.557552e+002 
4059375000  -4.398897e+001  -1.581744e+002 
4062500000  -4.353405e+001  -1.674536e+002 
4065625000  -4.375037e+001  -1.754245e+002 
4068750000  -4.344105e+001  1.739178e+002 
4071875000  -4.292764e+001  1.666547e+002 
4075000000  -4.384332e+001  1.583829e+002 
4078125000  -4.467461e+001  1.547804e+002 
4081250000  -4.390319e+001  1.508403e+002 
4084375000  -4.353465e+001  1.433980e+002 
4087500000  -4.425276e+001  1.347180e+002 
4090625000  -4.517470e+001  1.320355e+002 
4093750000  -4.450637e+001  1.326136e+002 
4096875000  -4.430380e+001  1.244395e+002 
4100000000  -4.562065e+001  1.159867e+002 
4103125000  -4.593870e+001  1.165591e+002 
4106250000  -4.590525e+001  1.184425e+002 
4109375000  -4.432003e+001  1.173761e+002 
4112500000  -4.462737e+001  1.081112e+002 
4115625000  -4.479079e+001  1.003056e+002 
4118750000  -4.411050e+001  9.531630e+001 
4121875000  -4.429615e+001  8.820496e+001 
4125000000  -4.470932e+001  8.179236e+001 
4128125000  -4.560177e+001  8.423215e+001 
4131250000  -4.447860e+001  8.848924e+001 
4134375000  -4.208475e+001  7.901115e+001 
4137500000  -4.200200e+001  5.858961e+001 
4140625000  -4.425475e+001  4.707512e+001 
4143750000  -4.469560e+001  5.601474e+001 
4146875000  -4.445632e+001  5.566024e+001 
4150000000  -4.326973e+001  4.324775e+001 
4153125000  -4.320615e+001  3.724629e+001 
4156250000  -4.456519e+001  3.264438e+001 
4159375000  -4.404523e+001  3.550497e+001 
4162500000  -4.248946e+001  3.308663e+001 
4165625000  -4.153111e+001  2.113580e+001 
4168750000  -4.185620e+001  1.463671e+001 
4171875000  -4.179883e+001  -2.120166e-002 
4175000000  -4.232412e+001  -5.691274e+000 
4178125000  -4.285142e+001  -1.176233e+001 
4181250000  -4.224153e+001  -1.520100e+001 
4184375000  -4.304740e+001  -2.375614e+001 
4187500000  -4.260423e+001  -2.963484e+001 
4190625000  -4.302913e+001  -4.090364e+001 
4193750000  -4.422762e+001  -4.345286e+001 
4196875000  -4.549996e+001  -4.668795e+001 
4200000000  -4.593396e+001  -4.255481e+001 
4203125000  -4.501044e+001  -3.250334e+001 
4206250000  -4.168132e+001  -4.213104e+001 
4209375000  -4.149562e+001  -6.410935e+001 
4212500000  -4.424338e+001  -7.267503e+001 
4215625000  -4.415557e+001  -6.872015e+001 
4218750000  -4.276732e+001  -6.649876e+001 
4221875000  -4.136219e+001  -7.861594e+001 
4225000000  -4.264359e+001  -8.821073e+001 
4228125000  -4.295454e+001  -8.801357e+001 
4231250000  -4.126332e+001  -9.535170e+001 
4234375000  -4.158638e+001  -1.074262e+002 
4237500000  -4.118623e+001  -1.157794e+002 
4240625000  -4.138570e+001  -1.250201e+002 
4243750000  -4.279519e+001  -1.343113e+002 
4246875000  -4.358493e+001  -1.309042e+002 
4250000000  -4.302447e+001  -1.321841e+002 
4253125000  -4.306408e+001  -1.328481e+002 
4256250000  -4.283094e+001  -1.419978e+002 
4259375000  -4.261658e+001  -1.467728e+002 
4262500000  -4.244337e+001  -1.530765e+002 
4265625000  -4.230407e+001  -1.549401e+002 
4268750000  -4.132101e+001  -1.620208e+002 
4271875000  -4.089795e+001  -1.739855e+002 
4275000000  -4.091419e+001  -1.796308e+002 
4278125000  -4.144512e+001  1.628930e+002 
4281250000  -4.284150e+001  1.663187e+002 
4284375000  -4.247250e+001  1.593090e+002 
4287500000  -4.401188e+001  1.570145e+002 
4290625000  -4.451273e+001  1.632846e+002 
4293750000  -4.217511e+001  1.589479e+002 
4296875000  -4.092487e+001  1.480818e+002 
4300000000  -4.221836e+001  1.383541e+002 
4303125000  -4.239100e+001  1.382109e+002 
4306250000  -4.119838e+001  1.359157e+002 
4309375000  -4.027678e+001  1.263358e+002 
4312500000  -4.023040e+001  1.176438e+002 
4315625000  -4.072262e+001  1.064232e+002 
4318750000  -4.126401e+001  1.006288e+002 
4321875000  -4.146524e+001  1.003764e+002 
4325000000  -4.058450e+001  9.547256e+001 
4328125000  -3.992686e+001  8.317532e+001 
4331250000  -4.021485e+001  7.027586e+001 
4334375000  -4.094023e+001  6.408286e+001 
4337500000  -4.233513e+001  6.199166e+001 
4340625000  -4.269419e+001  6.446194e+001 
4343750000  -4.152036e+001  5.789419e+001 
4346875000  -4.173883e+001  4.983399e+001 
4350000000  -4.144741e+001  4.148479e+001 
4353125000  -4.206535e+001  3.258699e+001 
4356250000  -4.441042e+001  3.029098e+001 
4359375000  -4.279045e+001  4.489494e+001 
4362500000  -4.000475e+001  3.568661e+001 
4365625000  -3.946290e+001  2.231698e+001 
4368750000  -4.078198e+001  9.141919e+000 
4371875000  -4.169955e+001  6.091086e+000 
4375000000  -4.076575e+001  2.166546e+000 
4378125000  -4.120695e+001  -7.654625e+000 
4381250000  -4.131841e+001  -1.423975e+001 
4384375000  -4.107570e+001  -2.240830e+001 
4387500000  -4.202567e+001  -2.852801e+001 
4390625000  -4.278413e+001  -3.284793e+001 
4393750000  -4.223210e+001  -3.243618e+001 
4396875000  -4.168063e+001  -3.806092e+001 
4400000000  -4.132748e+001  -4.610495e+001 
4403125000  -4.193461e+001  -5.719599e+001 
4406250000  -4.254794e+001  -6.195960e+001 
4409375000  -4.328325e+001  -6.242643e+001 
4412500000  -4.412922e+001  -6.607874e+001 
4415625000  -4.349625e+001  -6.573606e+001 
4418750000  -4.220274e+001  -6.613754e+001 
