!Agilent Technologies,E8363B,MY43030201,A.06.04.32
!Agilent E8363B: A.06.04.32
!Date: Tuesday, November 11, 2014 21:47:04
!Correction: S21(Response(S21)) 
!S1P File: Measurement: S21:
# Hz S  dB   R 50
3000000000  -4.384808e+001  -1.626892e+002 
3003125000  -4.561120e+001  -1.671777e+002 
3006250000  -4.501996e+001  -1.681576e+002 
3009375000  -4.626540e+001  -1.659658e+002 
3012500000  -4.514849e+001  -1.715016e+002 
3015625000  -4.513604e+001  -1.773965e+002 
3018750000  -4.506690e+001  -1.777700e+002 
3021875000  -4.385217e+001  -1.770842e+002 
3025000000  -4.264631e+001  1.768797e+002 
3028125000  -4.159586e+001  1.656376e+002 
3031250000  -4.090585e+001  1.521771e+002 
3034375000  -4.080980e+001  1.370738e+002 
3037500000  -4.166829e+001  1.281633e+002 
3040625000  -4.306306e+001  1.188854e+002 
3043750000  -4.319968e+001  1.141465e+002 
3046875000  -4.424828e+001  1.046196e+002 
3050000000  -4.542824e+001  1.018777e+002 
3053125000  -4.449334e+001  1.055320e+002 
3056250000  -4.478968e+001  1.095215e+002 
3059375000  -4.371038e+001  1.036582e+002 
3062500000  -4.237072e+001  1.018111e+002 
3065625000  -4.215697e+001  9.051549e+001 
3068750000  -4.186605e+001  8.140231e+001 
3071875000  -4.161113e+001  7.884360e+001 
3075000000  -4.122323e+001  7.042165e+001 
3078125000  -4.132414e+001  6.470713e+001 
3081250000  -4.137057e+001  5.594283e+001 
3084375000  -4.057293e+001  5.161682e+001 
3087500000  -4.070791e+001  4.367554e+001 
3090625000  -3.994143e+001  3.115097e+001 
3093750000  -4.094615e+001  2.114446e+001 
3096875000  -4.124363e+001  1.712479e+001 
3100000000  -4.119859e+001  1.293791e+001 
3103125000  -4.146125e+001  8.440063e+000 
3106250000  -4.093732e+001  2.065058e+000 
3109375000  -4.104855e+001  -3.662743e+000 
3112500000  -4.089598e+001  -1.167250e+001 
3115625000  -4.090184e+001  -1.597530e+001 
3118750000  -4.070103e+001  -2.105916e+001 
3121875000  -4.031271e+001  -3.283738e+001 
3125000000  -4.217196e+001  -3.600835e+001 
3128125000  -4.219350e+001  -3.181687e+001 
3131250000  -3.954652e+001  -3.792690e+001 
3134375000  -3.887350e+001  -5.545221e+001 
3137500000  -3.953050e+001  -7.104875e+001 
3140625000  -4.096782e+001  -7.336965e+001 
3143750000  -4.160582e+001  -7.756788e+001 
3146875000  -4.098925e+001  -7.570100e+001 
3150000000  -4.044818e+001  -8.118985e+001 
3153125000  -4.066625e+001  -9.208038e+001 
3156250000  -4.145391e+001  -8.930331e+001 
3159375000  -3.927880e+001  -9.246378e+001 
3162500000  -3.775823e+001  -1.087786e+002 
3165625000  -3.906898e+001  -1.224023e+002 
3168750000  -3.910674e+001  -1.241861e+002 
3171875000  -3.852414e+001  -1.337498e+002 
3175000000  -3.920548e+001  -1.430826e+002 
3178125000  -3.869112e+001  -1.450667e+002 
3181250000  -3.807164e+001  -1.550063e+002 
3184375000  -3.778863e+001  -1.658944e+002 
3187500000  -3.905240e+001  1.770797e+002 
3190625000  -4.075412e+001  1.703817e+002 
3193750000  -4.116920e+001  1.759821e+002 
3196875000  -4.116940e+001  1.742899e+002 
3200000000  -3.993480e+001  1.691956e+002 
3203125000  -3.957206e+001  1.605492e+002 
3206250000  -3.987227e+001  1.518409e+002 
3209375000  -3.945480e+001  1.430746e+002 
3212500000  -4.003260e+001  1.366801e+002 
3215625000  -3.954912e+001  1.332632e+002 
3218750000  -4.016110e+001  1.198397e+002 
3221875000  -4.061274e+001  1.131032e+002 
3225000000  -4.018264e+001  1.081264e+002 
3228125000  -4.110475e+001  1.012330e+002 
3231250000  -4.153952e+001  9.701549e+001 
3234375000  -4.104098e+001  9.479867e+001 
3237500000  -4.103946e+001  8.988567e+001 
3240625000  -4.012717e+001  8.339371e+001 
3243750000  -4.032560e+001  7.150626e+001 
3246875000  -4.090208e+001  6.368134e+001 
3250000000  -4.107956e+001  5.828944e+001 
3253125000  -4.116346e+001  5.452929e+001 
3256250000  -4.028628e+001  4.324664e+001 
3259375000  -4.085599e+001  3.112295e+001 
3262500000  -4.224687e+001  2.746968e+001 
3265625000  -4.269162e+001  2.627105e+001 
3268750000  -4.238636e+001  2.692104e+001 
3271875000  -4.154647e+001  2.103168e+001 
3275000000  -4.116478e+001  1.107279e+001 
3278125000  -4.196639e+001  3.044037e+000 
3281250000  -4.200153e+001  -1.135312e+000 
3284375000  -4.082622e+001  -7.979827e+000 
3287500000  -4.164230e+001  -1.554868e+001 
3290625000  -4.155208e+001  -2.558726e+001 
3293750000  -4.154329e+001  -3.452547e+001 
3296875000  -4.275143e+001  -3.760891e+001 
3300000000  -4.202562e+001  -3.952627e+001 
3303125000  -4.106061e+001  -4.926397e+001 
3306250000  -4.091528e+001  -6.096890e+001 
3309375000  -4.072155e+001  -7.188364e+001 
3312500000  -4.116720e+001  -8.615746e+001 
3315625000  -4.256548e+001  -9.562608e+001 
3318750000  -4.406573e+001  -9.876207e+001 
3321875000  -4.546046e+001  -9.923540e+001 
3325000000  -4.494970e+001  -9.275449e+001 
3328125000  -4.397801e+001  -9.760127e+001 
3331250000  -4.219565e+001  -1.006812e+002 
3334375000  -4.029519e+001  -1.189231e+002 
3337500000  -4.079292e+001  -1.398156e+002 
3340625000  -4.282544e+001  -1.516602e+002 
3343750000  -4.436585e+001  -1.505377e+002 
3346875000  -4.396880e+001  -1.563530e+002 
3350000000  -4.374703e+001  -1.619454e+002 
3353125000  -4.355748e+001  -1.701091e+002 
3356250000  -4.354640e+001  -1.796499e+002 
3359375000  -4.431677e+001  1.649955e+002 
3362500000  -4.500919e+001  1.582795e+002 
3365625000  -4.598665e+001  1.514625e+002 
3368750000  -4.629174e+001  1.464495e+002 
3371875000  -4.722716e+001  1.412848e+002 
3375000000  -4.847128e+001  1.342899e+002 
3378125000  -4.942815e+001  1.340679e+002 
3381250000  -5.075035e+001  1.448020e+002 
3384375000  -4.703015e+001  1.562270e+002 
3387500000  -4.456736e+001  1.264773e+002 
3390625000  -4.679600e+001  1.054899e+002 
3393750000  -4.739554e+001  1.040266e+002 
3396875000  -4.630272e+001  9.951762e+001 
3400000000  -4.652037e+001  8.546024e+001 
3403125000  -4.656236e+001  7.818560e+001 
3406250000  -4.762057e+001  7.045470e+001 
3409375000  -4.715947e+001  6.065220e+001 
3412500000  -4.794529e+001  5.532936e+001 
3415625000  -4.862893e+001  4.844649e+001 
3418750000  -4.923491e+001  4.368227e+001 
3421875000  -4.891474e+001  4.327311e+001 
3425000000  -4.773741e+001  3.683321e+001 
3428125000  -4.707356e+001  2.687274e+001 
3431250000  -4.678630e+001  1.761176e+001 
3434375000  -4.728628e+001  4.651793e+000 
3437500000  -4.766349e+001  -4.741736e+000 
3440625000  -4.790030e+001  -9.057530e+000 
3443750000  -4.647352e+001  -1.334298e+001 
3446875000  -4.552821e+001  -2.568529e+001 
3450000000  -4.533365e+001  -4.488440e+001 
3453125000  -4.542759e+001  -6.091634e+001 
3456250000  -4.749251e+001  -7.015939e+001 
3459375000  -4.776191e+001  -7.283958e+001 
3462500000  -4.802402e+001  -7.733671e+001 
3465625000  -4.737960e+001  -9.054767e+001 
3468750000  -4.763599e+001  -9.771965e+001 
3471875000  -4.712635e+001  -1.042611e+002 
3475000000  -4.693429e+001  -1.163536e+002 
3478125000  -4.748812e+001  -1.298664e+002 
3481250000  -4.939891e+001  -1.335409e+002 
3484375000  -4.882294e+001  -1.332472e+002 
3487500000  -4.820132e+001  -1.430759e+002 
3490625000  -4.720954e+001  -1.516081e+002 
3493750000  -4.815186e+001  -1.646545e+002 
3496875000  -4.816858e+001  -1.702345e+002 
3500000000  -4.797609e+001  -1.708666e+002 
3503125000  -4.733415e+001  -1.755349e+002 
3506250000  -4.588304e+001  1.711005e+002 
3509375000  -4.547286e+001  1.494537e+002 
3512500000  -4.614715e+001  1.380688e+002 
3515625000  -4.748771e+001  1.289043e+002 
3518750000  -4.762817e+001  1.322793e+002 
3521875000  -4.800821e+001  1.162244e+002 
3525000000  -4.895641e+001  1.124464e+002 
3528125000  -4.802805e+001  1.156047e+002 
3531250000  -4.655772e+001  1.057670e+002 
3534375000  -4.694423e+001  9.042952e+001 
3537500000  -4.790512e+001  7.887756e+001 
3540625000  -4.893399e+001  7.727765e+001 
3543750000  -4.943191e+001  7.928528e+001 
3546875000  -4.829128e+001  8.392172e+001 
3550000000  -4.597470e+001  7.411111e+001 
3553125000  -4.598755e+001  5.405643e+001 
3556250000  -4.750010e+001  4.812589e+001 
3559375000  -4.661422e+001  4.343541e+001 
3562500000  -4.672847e+001  3.374132e+001 
3565625000  -4.732849e+001  2.311572e+001 
3568750000  -4.779414e+001  2.434594e+001 
3571875000  -4.752317e+001  1.623148e+001 
3575000000  -4.726544e+001  9.977587e+000 
3578125000  -4.752894e+001  6.821403e+000 
3581250000  -4.747745e+001  1.215748e+000 
3584375000  -4.605876e+001  -4.138299e+000 
3587500000  -4.534233e+001  -1.630701e+001 
3590625000  -4.656712e+001  -2.493661e+001 
3593750000  -4.753017e+001  -2.699474e+001 
3596875000  -4.654228e+001  -2.140660e+001 
3600000000  -4.456034e+001  -3.127374e+001 
3603125000  -4.515583e+001  -4.728353e+001 
3606250000  -4.570786e+001  -5.156852e+001 
3609375000  -4.616519e+001  -5.853138e+001 
3612500000  -4.601009e+001  -6.505952e+001 
3615625000  -4.584384e+001  -6.734534e+001 
3618750000  -4.617115e+001  -7.217795e+001 
3621875000  -4.535066e+001  -7.955336e+001 
3625000000  -4.591745e+001  -8.455691e+001 
3628125000  -4.464646e+001  -9.031465e+001 
3631250000  -4.512198e+001  -9.724908e+001 
3634375000  -4.574388e+001  -9.686028e+001 
3637500000  -4.469845e+001  -1.011958e+002 
3640625000  -4.375215e+001  -1.079918e+002 
3643750000  -4.335768e+001  -1.188400e+002 
3646875000  -4.380261e+001  -1.279261e+002 
3650000000  -4.408202e+001  -1.347070e+002 
3653125000  -4.323957e+001  -1.437762e+002 
3656250000  -4.419400e+001  -1.478924e+002 
3659375000  -4.356856e+001  -1.520558e+002 
3662500000  -4.363578e+001  -1.603519e+002 
3665625000  -4.383029e+001  -1.630043e+002 
3668750000  -4.216280e+001  -1.681943e+002 
3671875000  -4.145992e+001  1.769070e+002 
3675000000  -4.234340e+001  1.660863e+002 
3678125000  -4.280575e+001  1.625443e+002 
3681250000  -4.244659e+001  1.560867e+002 
3684375000  -4.274887e+001  1.474802e+002 
3687500000  -4.316730e+001  1.390281e+002 
3690625000  -4.360426e+001  1.336325e+002 
3693750000  -4.412662e+001  1.326008e+002 
3696875000  -4.357650e+001  1.286342e+002 
3700000000  -4.307293e+001  1.202546e+002 
3703125000  -4.345173e+001  1.123346e+002 
3706250000  -4.498514e+001  1.109563e+002 
3709375000  -4.382413e+001  1.104106e+002 
3712500000  -4.267617e+001  1.049937e+002 
3715625000  -4.153414e+001  9.329800e+001 
3718750000  -4.169262e+001  8.640304e+001 
3721875000  -4.193525e+001  7.728310e+001 
3725000000  -4.239381e+001  6.850784e+001 
3728125000  -4.243560e+001  6.567918e+001 
3731250000  -4.190510e+001  5.881555e+001 
3734375000  -4.195081e+001  5.251733e+001 
3737500000  -4.246326e+001  4.190289e+001 
3740625000  -4.314612e+001  3.623969e+001 
3743750000  -4.266332e+001  2.884878e+001 
3746875000  -4.323914e+001  2.470764e+001 
3750000000  -4.357283e+001  2.067836e+001 
3753125000  -4.376679e+001  1.760475e+001 
3756250000  -4.363601e+001  1.595801e+001 
3759375000  -4.409557e+001  8.641396e+000 
3762500000  -4.325976e+001  4.449506e+000 
3765625000  -4.406154e+001  -8.857539e-001 
3768750000  -4.334169e+001  -3.251727e+000 
3771875000  -4.192355e+001  -1.021843e+001 
3775000000  -4.249009e+001  -2.091151e+001 
3778125000  -4.279331e+001  -2.445235e+001 
3781250000  -4.287175e+001  -3.113420e+001 
3784375000  -4.250503e+001  -3.624516e+001 
3787500000  -4.221239e+001  -4.284493e+001 
3790625000  -4.300176e+001  -5.205803e+001 
3793750000  -4.250256e+001  -5.468665e+001 
3796875000  -4.167715e+001  -5.891942e+001 
3800000000  -4.080804e+001  -6.721994e+001 
3803125000  -4.159436e+001  -7.901423e+001 
3806250000  -4.246061e+001  -8.243772e+001 
3809375000  -4.193499e+001  -8.797390e+001 
3812500000  -4.183715e+001  -1.002926e+002 
3815625000  -4.316619e+001  -1.109494e+002 
3818750000  -4.452946e+001  -1.095695e+002 
3821875000  -4.379514e+001  -9.800460e+001 
3825000000  -4.138100e+001  -1.038840e+002 
3828125000  -4.011407e+001  -1.269054e+002 
3831250000  -4.164141e+001  -1.395928e+002 
3834375000  -4.398381e+001  -1.410415e+002 
3837500000  -4.390961e+001  -1.362190e+002 
3840625000  -4.277699e+001  -1.454671e+002 
3843750000  -4.172625e+001  -1.584736e+002 
3846875000  -4.320549e+001  -1.656452e+002 
3850000000  -4.434138e+001  -1.600719e+002 
3853125000  -4.358472e+001  -1.634696e+002 
3856250000  -4.312520e+001  -1.710391e+002 
3859375000  -4.194807e+001  -1.797801e+002 
3862500000  -4.201352e+001  1.693465e+002 
3865625000  -4.243063e+001  1.619991e+002 
3868750000  -4.227596e+001  1.617545e+002 
3871875000  -4.201625e+001  1.520526e+002 
3875000000  -4.236140e+001  1.414474e+002 
3878125000  -4.311818e+001  1.404025e+002 
3881250000  -4.300316e+001  1.372047e+002 
3884375000  -4.245630e+001  1.274836e+002 
3887500000  -4.294079e+001  1.219382e+002 
3890625000  -4.367452e+001  1.179621e+002 
3893750000  -4.413158e+001  1.149011e+002 
3896875000  -4.434470e+001  1.113163e+002 
3900000000  -4.443348e+001  1.063970e+002 
3903125000  -4.415989e+001  9.745310e+001 
3906250000  -4.333181e+001  9.665033e+001 
3909375000  -4.240676e+001  8.899112e+001 
3912500000  -4.369778e+001  8.048314e+001 
3915625000  -4.500815e+001  7.703093e+001 
3918750000  -4.462986e+001  7.674583e+001 
3921875000  -4.374202e+001  7.403851e+001 
3925000000  -4.311555e+001  6.552218e+001 
3928125000  -4.279315e+001  5.722731e+001 
3931250000  -4.341951e+001  5.058931e+001 
3934375000  -4.424506e+001  4.630135e+001 
3937500000  -4.440436e+001  4.559912e+001 
3940625000  -4.469046e+001  4.420844e+001 
3943750000  -4.340380e+001  4.096117e+001 
3946875000  -4.256039e+001  2.814331e+001 
3950000000  -4.380728e+001  1.886923e+001 
3953125000  -4.461478e+001  2.059786e+001 
3956250000  -4.309590e+001  2.169754e+001 
3959375000  -4.197325e+001  1.275622e+001 
3962500000  -4.159455e+001  2.666417e+000 
3965625000  -4.162214e+001  -9.826589e+000 
3968750000  -4.257858e+001  -1.623087e+001 
3971875000  -4.210372e+001  -1.963456e+001 
3975000000  -4.200508e+001  -2.552012e+001 
3978125000  -4.200113e+001  -3.161067e+001 
3981250000  -4.166303e+001  -3.950736e+001 
3984375000  -4.244614e+001  -4.860169e+001 
3987500000  -4.291253e+001  -5.233471e+001 
3990625000  -4.318105e+001  -5.871300e+001 
3993750000  -4.325332e+001  -6.281852e+001 
3996875000  -4.287520e+001  -6.920213e+001 
4000000000  -4.353563e+001  -7.218758e+001 
4003125000  -4.372819e+001  -7.279837e+001 
4006250000  -4.215584e+001  -7.737985e+001 
4009375000  -4.106687e+001  -9.498691e+001 
4012500000  -4.289024e+001  -1.024428e+002 
4015625000  -4.402485e+001  -1.039504e+002 
4018750000  -4.387491e+001  -1.059735e+002 
4021875000  -4.302832e+001  -1.150311e+002 
4025000000  -4.321162e+001  -1.202802e+002 
4028125000  -4.373219e+001  -1.293327e+002 
4031250000  -4.389325e+001  -1.352200e+002 
4034375000  -4.407121e+001  -1.361251e+002 
4037500000  -4.382733e+001  -1.433529e+002 
4040625000  -4.468258e+001  -1.494003e+002 
4043750000  -4.447620e+001  -1.523981e+002 
4046875000  -4.434039e+001  -1.564553e+002 
4050000000  -4.452767e+001  -1.649958e+002 
4053125000  -4.542005e+001  -1.676147e+002 
4056250000  -4.538819e+001  -1.626547e+002 
4059375000  -4.423121e+001  -1.658585e+002 
4062500000  -4.347952e+001  -1.731653e+002 
4065625000  -4.354453e+001  -1.799623e+002 
4068750000  -4.300735e+001  1.732890e+002 
4071875000  -4.225092e+001  1.623123e+002 
4075000000  -4.369607e+001  1.532611e+002 
4078125000  -4.375188e+001  1.510747e+002 
4081250000  -4.347359e+001  1.469369e+002 
4084375000  -4.331340e+001  1.366218e+002 
4087500000  -4.399003e+001  1.285540e+002 
4090625000  -4.479110e+001  1.276761e+002 
4093750000  -4.465412e+001  1.244022e+002 
4096875000  -4.393298e+001  1.167987e+002 
4100000000  -4.505994e+001  1.111748e+002 
4103125000  -4.602965e+001  1.146124e+002 
4106250000  -4.555505e+001  1.134821e+002 
4109375000  -4.439655e+001  1.108783e+002 
4112500000  -4.382814e+001  9.908881e+001 
4115625000  -4.423864e+001  9.412560e+001 
4118750000  -4.394909e+001  9.035481e+001 
4121875000  -4.358012e+001  8.237144e+001 
4125000000  -4.458600e+001  7.545385e+001 
4128125000  -4.488988e+001  7.904930e+001 
4131250000  -4.376753e+001  8.243113e+001 
4134375000  -4.162969e+001  7.126366e+001 
4137500000  -4.202994e+001  4.883897e+001 
4140625000  -4.383492e+001  4.183773e+001 
4143750000  -4.511703e+001  4.976260e+001 
4146875000  -4.367566e+001  4.703381e+001 
4150000000  -4.290860e+001  3.868364e+001 
4153125000  -4.301433e+001  2.949115e+001 
4156250000  -4.392736e+001  2.542739e+001 
4159375000  -4.357294e+001  2.768989e+001 
4162500000  -4.237252e+001  2.529910e+001 
4165625000  -4.116715e+001  1.589914e+001 
4168750000  -4.136953e+001  7.626472e+000 
4171875000  -4.097527e+001  -5.900073e+000 
4175000000  -4.139283e+001  -1.585346e+001 
4178125000  -4.231844e+001  -1.792654e+001 
4181250000  -4.212296e+001  -2.469210e+001 
4184375000  -4.230164e+001  -2.945439e+001 
4187500000  -4.239463e+001  -3.676133e+001 
4190625000  -4.252838e+001  -4.782021e+001 
4193750000  -4.403865e+001  -5.312239e+001 
4196875000  -4.490356e+001  -5.425045e+001 
4200000000  -4.571100e+001  -4.885128e+001 
4203125000  -4.429842e+001  -3.864871e+001 
4206250000  -4.102088e+001  -4.901850e+001 
4209375000  -4.170619e+001  -7.198378e+001 
4212500000  -4.381386e+001  -8.068220e+001 
4215625000  -4.395734e+001  -7.258000e+001 
4218750000  -4.223393e+001  -7.378385e+001 
4221875000  -4.095082e+001  -8.617956e+001 
4225000000  -4.219582e+001  -9.503895e+001 
4228125000  -4.209105e+001  -9.516119e+001 
4231250000  -4.057760e+001  -1.038416e+002 
4234375000  -4.073104e+001  -1.168676e+002 
4237500000  -4.066508e+001  -1.183336e+002 
4240625000  -4.121810e+001  -1.300263e+002 
4243750000  -4.248985e+001  -1.379628e+002 
4246875000  -4.321509e+001  -1.408452e+002 
4250000000  -4.233317e+001  -1.417054e+002 
4253125000  -4.249187e+001  -1.445359e+002 
4256250000  -4.219000e+001  -1.487365e+002 
4259375000  -4.193892e+001  -1.555262e+002 
4262500000  -4.197580e+001  -1.605816e+002 
4265625000  -4.212096e+001  -1.607454e+002 
4268750000  -4.053740e+001  -1.689390e+002 
4271875000  -4.082734e+001  1.795527e+002 
4275000000  -4.049038e+001  1.696337e+002 
4278125000  -4.132323e+001  1.565085e+002 
4281250000  -4.217953e+001  1.557850e+002 
4284375000  -4.209782e+001  1.526656e+002 
4287500000  -4.365994e+001  1.495716e+002 
4290625000  -4.379127e+001  1.558738e+002 
4293750000  -4.130905e+001  1.552594e+002 
4296875000  -4.069929e+001  1.410878e+002 
4300000000  -4.102759e+001  1.281967e+002 
4303125000  -4.209153e+001  1.279828e+002 
4306250000  -4.060282e+001  1.291092e+002 
4309375000  -3.999860e+001  1.199671e+002 
4312500000  -3.948568e+001  1.076350e+002 
4315625000  -4.015493e+001  9.960705e+001 
4318750000  -4.076892e+001  9.391228e+001 
4321875000  -4.070573e+001  9.030828e+001 
4325000000  -4.029495e+001  8.605505e+001 
4328125000  -3.934699e+001  7.628811e+001 
4331250000  -3.979397e+001  6.325661e+001 
4334375000  -4.081743e+001  5.620916e+001 
4337500000  -4.201049e+001  5.301205e+001 
4340625000  -4.241558e+001  5.726181e+001 
4343750000  -4.091717e+001  5.272396e+001 
4346875000  -4.088259e+001  4.233048e+001 
4350000000  -4.090655e+001  3.293865e+001 
4353125000  -4.189566e+001  2.429624e+001 
4356250000  -4.422836e+001  2.796806e+001 
4359375000  -4.309395e+001  3.542984e+001 
4362500000  -3.937583e+001  2.987618e+001 
4365625000  -3.894209e+001  1.185577e+001 
4368750000  -4.028097e+001  -9.287459e-001 
4371875000  -4.089823e+001  -1.550367e+000 
4375000000  -4.051054e+001  -7.502571e+000 
4378125000  -4.047493e+001  -1.507373e+001 
4381250000  -4.066073e+001  -2.381968e+001 
4384375000  -4.057105e+001  -2.954882e+001 
4387500000  -4.167997e+001  -3.719559e+001 
4390625000  -4.218222e+001  -4.117053e+001 
4393750000  -4.154793e+001  -3.848215e+001 
4396875000  -4.118570e+001  -4.512142e+001 
4400000000  -4.049342e+001  -5.737449e+001 
4403125000  -4.148861e+001  -6.414017e+001 
4406250000  -4.208564e+001  -6.819044e+001 
4409375000  -4.223017e+001  -7.287490e+001 
4412500000  -4.371262e+001  -7.625423e+001 
4415625000  -4.328477e+001  -7.353658e+001 
4418750000  -4.168406e+001  -7.591311e+001 
