!Agilent Technologies,E8363B,MY43030201,A.06.04.32
!Agilent E8363B: A.06.04.32
!Date: Tuesday, November 11, 2014 21:41:52
!Correction: S21(Response(S21)) 
!S1P File: Measurement: S21:
# Hz S  dB   R 50
3000000000  -4.359873e+001  -1.587019e+002 
3003125000  -4.522351e+001  -1.647765e+002 
3006250000  -4.552883e+001  -1.651205e+002 
3009375000  -4.581986e+001  -1.600491e+002 
3012500000  -4.481760e+001  -1.689083e+002 
3015625000  -4.494973e+001  -1.745301e+002 
3018750000  -4.513247e+001  -1.778307e+002 
3021875000  -4.394356e+001  -1.760512e+002 
3025000000  -4.280830e+001  -1.798190e+002 
3028125000  -4.191548e+001  1.677764e+002 
3031250000  -4.094783e+001  1.553626e+002 
3034375000  -4.073813e+001  1.414694e+002 
3037500000  -4.152761e+001  1.309722e+002 
3040625000  -4.291642e+001  1.223212e+002 
3043750000  -4.340519e+001  1.163115e+002 
3046875000  -4.408043e+001  1.105813e+002 
3050000000  -4.524385e+001  1.032482e+002 
3053125000  -4.459769e+001  1.102365e+002 
3056250000  -4.485367e+001  1.120354e+002 
3059375000  -4.392730e+001  1.087525e+002 
3062500000  -4.248675e+001  1.042454e+002 
3065625000  -4.228130e+001  9.143917e+001 
3068750000  -4.187999e+001  8.462231e+001 
3071875000  -4.197948e+001  8.281618e+001 
3075000000  -4.122621e+001  7.329590e+001 
3078125000  -4.131534e+001  6.843450e+001 
3081250000  -4.150748e+001  5.935207e+001 
3084375000  -4.038084e+001  5.495763e+001 
3087500000  -4.050289e+001  4.685426e+001 
3090625000  -3.980660e+001  3.426250e+001 
3093750000  -4.136877e+001  2.488565e+001 
3096875000  -4.123008e+001  1.685377e+001 
3100000000  -4.117363e+001  1.543945e+001 
3103125000  -4.151146e+001  1.003369e+001 
3106250000  -4.115319e+001  5.095509e+000 
3109375000  -4.098911e+001  4.730414e-001 
3112500000  -4.097578e+001  -8.266510e+000 
3115625000  -4.090178e+001  -1.329605e+001 
3118750000  -4.063140e+001  -1.794794e+001 
3121875000  -4.038252e+001  -2.969682e+001 
3125000000  -4.228084e+001  -3.466825e+001 
3128125000  -4.217781e+001  -2.886414e+001 
3131250000  -3.960997e+001  -3.661742e+001 
3134375000  -3.896810e+001  -5.379745e+001 
3137500000  -3.959045e+001  -6.766783e+001 
3140625000  -4.086941e+001  -7.065695e+001 
3143750000  -4.145723e+001  -7.603324e+001 
3146875000  -4.124522e+001  -7.476198e+001 
3150000000  -4.046799e+001  -7.921848e+001 
3153125000  -4.070627e+001  -8.769067e+001 
3156250000  -4.154130e+001  -8.489809e+001 
3159375000  -3.917363e+001  -8.811265e+001 
3162500000  -3.782518e+001  -1.056860e+002 
3165625000  -3.915839e+001  -1.191207e+002 
3168750000  -3.884294e+001  -1.208343e+002 
3171875000  -3.856585e+001  -1.304057e+002 
3175000000  -3.895866e+001  -1.411460e+002 
3178125000  -3.875594e+001  -1.422742e+002 
3181250000  -3.823057e+001  -1.510564e+002 
3184375000  -3.804150e+001  -1.629023e+002 
3187500000  -3.931903e+001  -1.796226e+002 
3190625000  -4.069360e+001  1.739417e+002 
3193750000  -4.118483e+001  1.784840e+002 
3196875000  -4.104023e+001  1.769315e+002 
3200000000  -3.988857e+001  1.713983e+002 
3203125000  -3.967820e+001  1.632367e+002 
3206250000  -3.993225e+001  1.558148e+002 
3209375000  -3.959335e+001  1.455401e+002 
3212500000  -4.003424e+001  1.381841e+002 
3215625000  -3.969447e+001  1.362619e+002 
3218750000  -4.054530e+001  1.228365e+002 
3221875000  -4.054606e+001  1.162628e+002 
3225000000  -4.053496e+001  1.115601e+002 
3228125000  -4.129492e+001  1.028047e+002 
3231250000  -4.140409e+001  1.003237e+002 
3234375000  -4.098153e+001  9.595268e+001 
3237500000  -4.119059e+001  9.338670e+001 
3240625000  -4.050662e+001  8.644724e+001 
3243750000  -4.061052e+001  7.456501e+001 
3246875000  -4.066713e+001  6.680023e+001 
3250000000  -4.120083e+001  6.128535e+001 
3253125000  -4.109677e+001  5.744756e+001 
3256250000  -4.068139e+001  4.721225e+001 
3259375000  -4.112767e+001  3.456221e+001 
3262500000  -4.266447e+001  2.945353e+001 
3265625000  -4.277773e+001  3.045009e+001 
3268750000  -4.266450e+001  2.938268e+001 
3271875000  -4.179959e+001  2.416872e+001 
3275000000  -4.116087e+001  1.313098e+001 
3278125000  -4.174282e+001  5.429581e+000 
3281250000  -4.192332e+001  2.450907e+000 
3284375000  -4.130855e+001  -5.926586e+000 
3287500000  -4.167842e+001  -1.397205e+001 
3290625000  -4.168490e+001  -2.457861e+001 
3293750000  -4.185302e+001  -3.221561e+001 
3296875000  -4.285073e+001  -3.464588e+001 
3300000000  -4.190574e+001  -3.798327e+001 
3303125000  -4.109499e+001  -4.702506e+001 
3306250000  -4.086643e+001  -5.793561e+001 
3309375000  -4.089459e+001  -6.838374e+001 
3312500000  -4.105794e+001  -8.380438e+001 
3315625000  -4.246044e+001  -9.096474e+001 
3318750000  -4.420300e+001  -9.651054e+001 
3321875000  -4.529340e+001  -9.563817e+001 
3325000000  -4.518538e+001  -9.164838e+001 
3328125000  -4.422783e+001  -9.666096e+001 
3331250000  -4.269777e+001  -9.617904e+001 
3334375000  -4.018290e+001  -1.151473e+002 
3337500000  -4.095706e+001  -1.392153e+002 
3340625000  -4.289804e+001  -1.493567e+002 
3343750000  -4.461752e+001  -1.504148e+002 
3346875000  -4.400516e+001  -1.548452e+002 
3350000000  -4.394282e+001  -1.602277e+002 
3353125000  -4.350925e+001  -1.690112e+002 
3356250000  -4.341890e+001  -1.787910e+002 
3359375000  -4.453280e+001  1.689034e+002 
3362500000  -4.538640e+001  1.592422e+002 
3365625000  -4.581796e+001  1.538521e+002 
3368750000  -4.661573e+001  1.479303e+002 
3371875000  -4.709072e+001  1.455234e+002 
3375000000  -4.888076e+001  1.369932e+002 
3378125000  -4.940166e+001  1.350023e+002 
3381250000  -5.080971e+001  1.438014e+002 
3384375000  -4.771059e+001  1.524909e+002 
3387500000  -4.502730e+001  1.326318e+002 
3390625000  -4.714038e+001  1.098177e+002 
3393750000  -4.773255e+001  1.075359e+002 
3396875000  -4.683485e+001  1.042232e+002 
3400000000  -4.639520e+001  8.946934e+001 
3403125000  -4.723507e+001  8.108120e+001 
3406250000  -4.725778e+001  7.764941e+001 
3409375000  -4.761705e+001  6.285643e+001 
3412500000  -4.811377e+001  5.815454e+001 
3415625000  -4.852513e+001  4.873026e+001 
3418750000  -4.887992e+001  4.688442e+001 
3421875000  -4.958519e+001  4.343119e+001 
3425000000  -4.802028e+001  3.742633e+001 
3428125000  -4.707631e+001  3.127283e+001 
3431250000  -4.685830e+001  1.911297e+001 
3434375000  -4.725776e+001  4.424754e+000 
3437500000  -4.821856e+001  -2.468418e+000 
3440625000  -4.795342e+001  -5.616418e+000 
3443750000  -4.660635e+001  -9.385894e+000 
3446875000  -4.517289e+001  -2.495757e+001 
3450000000  -4.480362e+001  -4.225669e+001 
3453125000  -4.596846e+001  -5.837659e+001 
3456250000  -4.723849e+001  -6.845673e+001 
3459375000  -4.841275e+001  -6.800327e+001 
3462500000  -4.730628e+001  -7.467661e+001 
3465625000  -4.776342e+001  -8.711032e+001 
3468750000  -4.749321e+001  -9.166943e+001 
3471875000  -4.715590e+001  -1.003596e+002 
3475000000  -4.699443e+001  -1.143694e+002 
3478125000  -4.758518e+001  -1.245193e+002 
3481250000  -4.901451e+001  -1.317436e+002 
3484375000  -4.845432e+001  -1.314537e+002 
3487500000  -4.729943e+001  -1.401021e+002 
3490625000  -4.701888e+001  -1.507361e+002 
3493750000  -4.762297e+001  -1.653964e+002 
3496875000  -4.787663e+001  -1.655112e+002 
3500000000  -4.808704e+001  -1.742392e+002 
3503125000  -4.711352e+001  -1.750083e+002 
3506250000  -4.592758e+001  1.727432e+002 
3509375000  -4.539209e+001  1.556993e+002 
3512500000  -4.625558e+001  1.384325e+002 
3515625000  -4.710405e+001  1.367916e+002 
3518750000  -4.804299e+001  1.339630e+002 
3521875000  -4.810819e+001  1.193009e+002 
3525000000  -4.911757e+001  1.147032e+002 
3528125000  -4.721569e+001  1.206630e+002 
3531250000  -4.648270e+001  1.058688e+002 
3534375000  -4.702084e+001  9.057536e+001 
3537500000  -4.790062e+001  8.217863e+001 
3540625000  -4.913667e+001  8.140574e+001 
3543750000  -4.957278e+001  8.113290e+001 
3546875000  -4.839841e+001  8.698244e+001 
3550000000  -4.688583e+001  7.853136e+001 
3553125000  -4.592277e+001  5.520432e+001 
3556250000  -4.770937e+001  5.083711e+001 
3559375000  -4.627538e+001  4.497727e+001 
3562500000  -4.622226e+001  3.655828e+001 
3565625000  -4.764186e+001  2.697577e+001 
3568750000  -4.777806e+001  2.775111e+001 
3571875000  -4.733587e+001  2.264359e+001 
3575000000  -4.706186e+001  1.474230e+001 
3578125000  -4.771723e+001  1.258687e+001 
3581250000  -4.735733e+001  1.045671e+001 
3584375000  -4.577599e+001  1.381287e+000 
3587500000  -4.583902e+001  -1.166203e+001 
3590625000  -4.634226e+001  -1.989481e+001 
3593750000  -4.789499e+001  -2.177174e+001 
3596875000  -4.674386e+001  -1.719563e+001 
3600000000  -4.477887e+001  -2.807530e+001 
3603125000  -4.512142e+001  -4.566143e+001 
3606250000  -4.625881e+001  -5.212582e+001 
3609375000  -4.595961e+001  -5.369260e+001 
3612500000  -4.589424e+001  -5.645922e+001 
3615625000  -4.642605e+001  -6.422827e+001 
3618750000  -4.632402e+001  -6.824496e+001 
3621875000  -4.561021e+001  -7.278905e+001 
3625000000  -4.574799e+001  -7.714378e+001 
3628125000  -4.493293e+001  -8.559739e+001 
3631250000  -4.508186e+001  -9.456300e+001 
3634375000  -4.576525e+001  -9.539481e+001 
3637500000  -4.450240e+001  -9.534337e+001 
3640625000  -4.382673e+001  -1.051098e+002 
3643750000  -4.314215e+001  -1.141660e+002 
3646875000  -4.349896e+001  -1.245790e+002 
3650000000  -4.399879e+001  -1.299746e+002 
3653125000  -4.329059e+001  -1.368428e+002 
3656250000  -4.395127e+001  -1.449143e+002 
3659375000  -4.395387e+001  -1.471483e+002 
3662500000  -4.330878e+001  -1.557976e+002 
3665625000  -4.351708e+001  -1.560586e+002 
3668750000  -4.213447e+001  -1.633374e+002 
3671875000  -4.178131e+001  -1.780339e+002 
3675000000  -4.223401e+001  1.724564e+002 
3678125000  -4.248304e+001  1.680458e+002 
3681250000  -4.211495e+001  1.607982e+002 
3684375000  -4.242255e+001  1.533470e+002 
3687500000  -4.275756e+001  1.420798e+002 
3690625000  -4.362307e+001  1.389343e+002 
3693750000  -4.454076e+001  1.354973e+002 
3696875000  -4.395812e+001  1.337575e+002 
3700000000  -4.322395e+001  1.251689e+002 
3703125000  -4.373370e+001  1.163575e+002 
3706250000  -4.458879e+001  1.161564e+002 
3709375000  -4.391465e+001  1.152375e+002 
3712500000  -4.336459e+001  1.108417e+002 
3715625000  -4.193603e+001  9.898780e+001 
3718750000  -4.193281e+001  8.984060e+001 
3721875000  -4.169051e+001  8.081672e+001 
3725000000  -4.213669e+001  7.375690e+001 
3728125000  -4.277857e+001  6.949334e+001 
3731250000  -4.195527e+001  6.172959e+001 
3734375000  -4.221087e+001  5.654300e+001 
3737500000  -4.264601e+001  4.816104e+001 
3740625000  -4.325247e+001  4.309054e+001 
3743750000  -4.279562e+001  3.333761e+001 
3746875000  -4.365322e+001  2.738966e+001 
3750000000  -4.372786e+001  2.604803e+001 
3753125000  -4.389685e+001  2.213506e+001 
3756250000  -4.375850e+001  1.881645e+001 
3759375000  -4.357700e+001  1.543730e+001 
3762500000  -4.368754e+001  7.273182e+000 
3765625000  -4.434612e+001  3.349147e+000 
3768750000  -4.371170e+001  1.943055e+000 
3771875000  -4.200372e+001  -4.476586e+000 
3775000000  -4.237717e+001  -1.331751e+001 
3778125000  -4.236552e+001  -1.974763e+001 
3781250000  -4.268926e+001  -2.456784e+001 
3784375000  -4.251484e+001  -3.189809e+001 
3787500000  -4.215183e+001  -3.595304e+001 
3790625000  -4.289211e+001  -4.478076e+001 
3793750000  -4.281273e+001  -5.120398e+001 
3796875000  -4.163610e+001  -5.462885e+001 
3800000000  -4.065808e+001  -6.156244e+001 
3803125000  -4.209368e+001  -7.386929e+001 
3806250000  -4.250655e+001  -7.829008e+001 
3809375000  -4.218110e+001  -8.352071e+001 
3812500000  -4.171924e+001  -9.431651e+001 
3815625000  -4.286007e+001  -1.048201e+002 
3818750000  -4.420478e+001  -1.037188e+002 
3821875000  -4.351426e+001  -9.277097e+001 
3825000000  -4.159650e+001  -9.944743e+001 
3828125000  -4.057459e+001  -1.214112e+002 
3831250000  -4.160752e+001  -1.345641e+002 
3834375000  -4.381389e+001  -1.370604e+002 
3837500000  -4.357885e+001  -1.334755e+002 
3840625000  -4.249677e+001  -1.394468e+002 
3843750000  -4.197832e+001  -1.525595e+002 
3846875000  -4.326417e+001  -1.637618e+002 
3850000000  -4.419753e+001  -1.584775e+002 
3853125000  -4.388927e+001  -1.575016e+002 
3856250000  -4.308002e+001  -1.667554e+002 
3859375000  -4.214903e+001  -1.749388e+002 
3862500000  -4.183177e+001  1.755732e+002 
3865625000  -4.273649e+001  1.665655e+002 
3868750000  -4.216875e+001  1.675044e+002 
3871875000  -4.151072e+001  1.571591e+002 
3875000000  -4.279751e+001  1.453894e+002 
3878125000  -4.339475e+001  1.431400e+002 
3881250000  -4.334864e+001  1.433212e+002 
3884375000  -4.257747e+001  1.316336e+002 
3887500000  -4.296568e+001  1.266451e+002 
3890625000  -4.399879e+001  1.226214e+002 
3893750000  -4.418415e+001  1.189482e+002 
3896875000  -4.431464e+001  1.150349e+002 
3900000000  -4.435024e+001  1.103409e+002 
3903125000  -4.333188e+001  1.079004e+002 
3906250000  -4.348685e+001  1.024954e+002 
3909375000  -4.285968e+001  9.377663e+001 
3912500000  -4.392100e+001  8.330421e+001 
3915625000  -4.471370e+001  8.436651e+001 
3918750000  -4.481142e+001  8.129591e+001 
3921875000  -4.380816e+001  7.655203e+001 
3925000000  -4.311980e+001  6.883025e+001 
3928125000  -4.306604e+001  6.211528e+001 
3931250000  -4.392771e+001  5.427645e+001 
3934375000  -4.396071e+001  5.255496e+001 
3937500000  -4.457138e+001  4.829462e+001 
3940625000  -4.488820e+001  4.736292e+001 
3943750000  -4.316554e+001  4.237726e+001 
3946875000  -4.249486e+001  3.465508e+001 
3950000000  -4.431438e+001  2.752013e+001 
3953125000  -4.481308e+001  2.407010e+001 
3956250000  -4.285831e+001  2.424833e+001 
3959375000  -4.221727e+001  1.852794e+001 
3962500000  -4.170584e+001  7.435437e+000 
3965625000  -4.195815e+001  -5.438603e+000 
3968750000  -4.260563e+001  -1.110702e+001 
3971875000  -4.261447e+001  -1.813930e+001 
3975000000  -4.202437e+001  -1.953267e+001 
3978125000  -4.230372e+001  -2.681328e+001 
3981250000  -4.193704e+001  -3.548595e+001 
3984375000  -4.244618e+001  -4.155309e+001 
3987500000  -4.325296e+001  -4.515737e+001 
3990625000  -4.363575e+001  -5.171042e+001 
3993750000  -4.303085e+001  -5.760810e+001 
3996875000  -4.313162e+001  -6.315308e+001 
4000000000  -4.362617e+001  -6.994121e+001 
4003125000  -4.385676e+001  -6.748357e+001 
4006250000  -4.202659e+001  -7.512428e+001 
4009375000  -4.147674e+001  -9.140153e+001 
4012500000  -4.300608e+001  -9.765930e+001 
4015625000  -4.441342e+001  -1.004112e+002 
4018750000  -4.375734e+001  -1.030839e+002 
4021875000  -4.353855e+001  -1.109419e+002 
4025000000  -4.322497e+001  -1.156453e+002 
4028125000  -4.378041e+001  -1.250771e+002 
4031250000  -4.429936e+001  -1.322440e+002 
4034375000  -4.440347e+001  -1.338146e+002 
4037500000  -4.458078e+001  -1.380934e+002 
4040625000  -4.427751e+001  -1.476356e+002 
4043750000  -4.487675e+001  -1.442475e+002 
4046875000  -4.465043e+001  -1.524521e+002 
4050000000  -4.480352e+001  -1.577938e+002 
4053125000  -4.580046e+001  -1.639134e+002 
4056250000  -4.548599e+001  -1.596525e+002 
4059375000  -4.365842e+001  -1.626160e+002 
4062500000  -4.409716e+001  -1.705746e+002 
4065625000  -4.388492e+001  -1.742645e+002 
4068750000  -4.346609e+001  1.732397e+002 
4071875000  -4.291814e+001  1.658254e+002 
4075000000  -4.382409e+001  1.587390e+002 
4078125000  -4.425215e+001  1.580044e+002 
4081250000  -4.376101e+001  1.491503e+002 
4084375000  -4.380115e+001  1.376444e+002 
4087500000  -4.424209e+001  1.347882e+002 
4090625000  -4.533263e+001  1.295234e+002 
4093750000  -4.444258e+001  1.303294e+002 
4096875000  -4.417166e+001  1.220159e+002 
4100000000  -4.540446e+001  1.177667e+002 
4103125000  -4.629906e+001  1.237014e+002 
4106250000  -4.577359e+001  1.186692e+002 
4109375000  -4.452473e+001  1.159651e+002 
4112500000  -4.413132e+001  1.048738e+002 
4115625000  -4.456878e+001  9.924055e+001 
4118750000  -4.463677e+001  9.609339e+001 
4121875000  -4.451911e+001  8.686955e+001 
4125000000  -4.515235e+001  8.047576e+001 
4128125000  -4.608171e+001  8.630611e+001 
4131250000  -4.413743e+001  8.712532e+001 
4134375000  -4.182963e+001  7.777779e+001 
4137500000  -4.244440e+001  5.469684e+001 
4140625000  -4.440831e+001  4.780730e+001 
4143750000  -4.503185e+001  5.237734e+001 
4146875000  -4.394234e+001  5.158779e+001 
4150000000  -4.325161e+001  4.511419e+001 
4153125000  -4.365616e+001  3.454248e+001 
4156250000  -4.442887e+001  3.169959e+001 
4159375000  -4.408536e+001  3.672888e+001 
4162500000  -4.281209e+001  3.160795e+001 
4165625000  -4.174766e+001  2.296832e+001 
4168750000  -4.179639e+001  8.377220e+000 
4171875000  -4.144807e+001  2.575060e-001 
4175000000  -4.208667e+001  -1.149621e+001 
4178125000  -4.306326e+001  -1.366416e+001 
4181250000  -4.229361e+001  -1.991940e+001 
4184375000  -4.286055e+001  -2.305264e+001 
4187500000  -4.279576e+001  -3.219732e+001 
4190625000  -4.304609e+001  -4.179495e+001 
4193750000  -4.443145e+001  -4.387135e+001 
4196875000  -4.522963e+001  -5.061494e+001 
4200000000  -4.664411e+001  -4.045904e+001 
4203125000  -4.483160e+001  -3.435975e+001 
4206250000  -4.150879e+001  -4.344417e+001 
4209375000  -4.177772e+001  -6.623612e+001 
4212500000  -4.406649e+001  -7.479479e+001 
4215625000  -4.481475e+001  -6.853144e+001 
4218750000  -4.280802e+001  -6.643946e+001 
4221875000  -4.109684e+001  -7.850967e+001 
4225000000  -4.286591e+001  -8.987454e+001 
4228125000  -4.267947e+001  -8.829880e+001 
4231250000  -4.145036e+001  -9.471360e+001 
4234375000  -4.140670e+001  -1.080245e+002 
4237500000  -4.113191e+001  -1.147574e+002 
4240625000  -4.172422e+001  -1.210042e+002 
4243750000  -4.287761e+001  -1.327691e+002 
4246875000  -4.366090e+001  -1.342460e+002 
4250000000  -4.338612e+001  -1.341751e+002 
4253125000  -4.288210e+001  -1.373221e+002 
4256250000  -4.322470e+001  -1.447641e+002 
4259375000  -4.282056e+001  -1.501216e+002 
4262500000  -4.255041e+001  -1.556816e+002 
4265625000  -4.280390e+001  -1.539932e+002 
4268750000  -4.158193e+001  -1.648240e+002 
4271875000  -4.114030e+001  -1.734949e+002 
4275000000  -4.094001e+001  1.758719e+002 
4278125000  -4.161654e+001  1.632597e+002 
4281250000  -4.290563e+001  1.643065e+002 
4284375000  -4.289934e+001  1.585706e+002 
4287500000  -4.383011e+001  1.547748e+002 
4290625000  -4.465732e+001  1.649835e+002 
4293750000  -4.193348e+001  1.623588e+002 
4296875000  -4.080616e+001  1.475013e+002 
4300000000  -4.204832e+001  1.353243e+002 
4303125000  -4.273106e+001  1.358257e+002 
4306250000  -4.115826e+001  1.377122e+002 
4309375000  -4.016996e+001  1.250891e+002 
4312500000  -3.997242e+001  1.126285e+002 
4315625000  -4.078172e+001  1.039894e+002 
4318750000  -4.124760e+001  1.006221e+002 
4321875000  -4.093035e+001  9.717860e+001 
4325000000  -4.042006e+001  9.457652e+001 
4328125000  -3.995763e+001  8.441500e+001 
4331250000  -4.043039e+001  7.023548e+001 
4334375000  -4.134734e+001  6.167281e+001 
4337500000  -4.249838e+001  5.928656e+001 
4340625000  -4.237001e+001  6.321136e+001 
4343750000  -4.159257e+001  5.992937e+001 
4346875000  -4.124741e+001  4.870898e+001 
4350000000  -4.182658e+001  3.817435e+001 
4353125000  -4.283470e+001  2.972188e+001 
4356250000  -4.477503e+001  3.489886e+001 
4359375000  -4.328415e+001  4.550877e+001 
4362500000  -4.015383e+001  3.769879e+001 
4365625000  -3.962962e+001  1.602404e+001 
4368750000  -4.084449e+001  7.771655e+000 
4371875000  -4.180207e+001  6.786649e+000 
4375000000  -4.080931e+001  4.327866e-001 
4378125000  -4.089806e+001  -9.555641e+000 
4381250000  -4.110303e+001  -1.519702e+001 
4384375000  -4.127019e+001  -2.417352e+001 
4387500000  -4.208081e+001  -3.052979e+001 
4390625000  -4.281321e+001  -3.119943e+001 
4393750000  -4.217753e+001  -3.200556e+001 
4396875000  -4.180762e+001  -3.755033e+001 
4400000000  -4.091792e+001  -4.722887e+001 
4403125000  -4.248779e+001  -5.700523e+001 
4406250000  -4.309819e+001  -6.151043e+001 
4409375000  -4.322426e+001  -6.736347e+001 
4412500000  -4.442980e+001  -6.745456e+001 
4415625000  -4.365365e+001  -6.574741e+001 
4418750000  -4.212665e+001  -6.705608e+001 
