!Agilent Technologies,E8363B,MY43030201,A.06.04.32
!Agilent E8363B: A.06.04.32
!Date: Tuesday, November 11, 2014 21:41:04
!Correction: S21(Response(S21)) 
!S1P File: Measurement: S21:
# Hz S  dB   R 50
3000000000  -4.355579e+001  -1.571051e+002 
3003125000  -4.525479e+001  -1.617047e+002 
3006250000  -4.527914e+001  -1.655871e+002 
3009375000  -4.611650e+001  -1.594088e+002 
3012500000  -4.461690e+001  -1.684933e+002 
3015625000  -4.499334e+001  -1.754605e+002 
3018750000  -4.518863e+001  -1.773009e+002 
3021875000  -4.385511e+001  -1.754022e+002 
3025000000  -4.257624e+001  -1.780140e+002 
3028125000  -4.181459e+001  1.678997e+002 
3031250000  -4.067168e+001  1.558743e+002 
3034375000  -4.074081e+001  1.415938e+002 
3037500000  -4.138157e+001  1.311111e+002 
3040625000  -4.255233e+001  1.246540e+002 
3043750000  -4.335398e+001  1.184454e+002 
3046875000  -4.399057e+001  1.087782e+002 
3050000000  -4.528024e+001  1.063064e+002 
3053125000  -4.483224e+001  1.105394e+002 
3056250000  -4.465462e+001  1.121765e+002 
3059375000  -4.370450e+001  1.090029e+002 
3062500000  -4.245130e+001  1.051613e+002 
3065625000  -4.212180e+001  9.258159e+001 
3068750000  -4.184529e+001  8.602947e+001 
3071875000  -4.183553e+001  8.192434e+001 
3075000000  -4.118378e+001  7.387116e+001 
3078125000  -4.107216e+001  6.667481e+001 
3081250000  -4.118450e+001  6.095050e+001 
3084375000  -4.048808e+001  5.543274e+001 
3087500000  -4.058184e+001  4.830801e+001 
3090625000  -3.998994e+001  3.537374e+001 
3093750000  -4.098530e+001  2.516473e+001 
3096875000  -4.118484e+001  2.084207e+001 
3100000000  -4.096332e+001  1.491452e+001 
3103125000  -4.150303e+001  1.157551e+001 
3106250000  -4.107001e+001  5.282302e+000 
3109375000  -4.091487e+001  -1.457022e-001 
3112500000  -4.093344e+001  -8.195438e+000 
3115625000  -4.088977e+001  -1.150092e+001 
3118750000  -4.075428e+001  -1.715935e+001 
3121875000  -4.025846e+001  -2.980485e+001 
3125000000  -4.197149e+001  -3.308382e+001 
3128125000  -4.198199e+001  -2.785237e+001 
3131250000  -3.946688e+001  -3.448098e+001 
3134375000  -3.885838e+001  -5.395841e+001 
3137500000  -3.964801e+001  -6.697460e+001 
3140625000  -4.121047e+001  -7.025805e+001 
3143750000  -4.145990e+001  -7.516906e+001 
3146875000  -4.094008e+001  -7.335934e+001 
3150000000  -4.041991e+001  -7.869698e+001 
3153125000  -4.063307e+001  -8.897261e+001 
3156250000  -4.147829e+001  -8.457976e+001 
3159375000  -3.920383e+001  -8.809422e+001 
3162500000  -3.781390e+001  -1.054616e+002 
3165625000  -3.915776e+001  -1.193127e+002 
3168750000  -3.910480e+001  -1.207196e+002 
3171875000  -3.879684e+001  -1.293086e+002 
3175000000  -3.931974e+001  -1.395642e+002 
3178125000  -3.876049e+001  -1.406762e+002 
3181250000  -3.818965e+001  -1.504413e+002 
3184375000  -3.789129e+001  -1.621009e+002 
3187500000  -3.927002e+001  -1.786052e+002 
3190625000  -4.095900e+001  1.747850e+002 
3193750000  -4.130638e+001  1.784427e+002 
3196875000  -4.102291e+001  1.781896e+002 
3200000000  -4.003090e+001  1.723576e+002 
3203125000  -3.967986e+001  1.643066e+002 
3206250000  -3.983814e+001  1.543948e+002 
3209375000  -3.954108e+001  1.471609e+002 
3212500000  -3.996381e+001  1.388896e+002 
3215625000  -3.973773e+001  1.373991e+002 
3218750000  -4.044410e+001  1.240386e+002 
3221875000  -4.057623e+001  1.174993e+002 
3225000000  -4.051917e+001  1.125268e+002 
3228125000  -4.125216e+001  1.039726e+002 
3231250000  -4.132983e+001  9.980529e+001 
3234375000  -4.120588e+001  9.739261e+001 
3237500000  -4.098564e+001  9.253423e+001 
3240625000  -4.054339e+001  8.782745e+001 
3243750000  -4.047084e+001  7.555712e+001 
3246875000  -4.085735e+001  6.690693e+001 
3250000000  -4.135580e+001  6.311668e+001 
3253125000  -4.145213e+001  5.723475e+001 
3256250000  -4.043938e+001  4.914810e+001 
3259375000  -4.109903e+001  3.478440e+001 
3262500000  -4.241431e+001  2.971963e+001 
3265625000  -4.272027e+001  3.026940e+001 
3268750000  -4.243228e+001  3.042283e+001 
3271875000  -4.168475e+001  2.331761e+001 
3275000000  -4.131136e+001  1.306279e+001 
3278125000  -4.175599e+001  7.400018e+000 
3281250000  -4.186166e+001  2.979172e+000 
3284375000  -4.122081e+001  -5.606459e+000 
3287500000  -4.155639e+001  -1.394082e+001 
3290625000  -4.175908e+001  -2.279482e+001 
3293750000  -4.156860e+001  -3.075371e+001 
3296875000  -4.260116e+001  -3.550150e+001 
3300000000  -4.196335e+001  -3.746808e+001 
3303125000  -4.108815e+001  -4.653679e+001 
3306250000  -4.093952e+001  -5.749304e+001 
3309375000  -4.088108e+001  -6.672583e+001 
3312500000  -4.136606e+001  -8.315137e+001 
3315625000  -4.239470e+001  -9.067805e+001 
3318750000  -4.400267e+001  -9.613976e+001 
3321875000  -4.540778e+001  -9.593656e+001 
3325000000  -4.499502e+001  -9.313918e+001 
3328125000  -4.411749e+001  -9.394875e+001 
3331250000  -4.257968e+001  -9.401250e+001 
3334375000  -4.044817e+001  -1.142895e+002 
3337500000  -4.101643e+001  -1.394982e+002 
3340625000  -4.277320e+001  -1.474967e+002 
3343750000  -4.485071e+001  -1.488112e+002 
3346875000  -4.436761e+001  -1.515413e+002 
3350000000  -4.385239e+001  -1.600596e+002 
3353125000  -4.345053e+001  -1.694791e+002 
3356250000  -4.334733e+001  -1.782353e+002 
3359375000  -4.450523e+001  1.684000e+002 
3362500000  -4.531651e+001  1.593942e+002 
3365625000  -4.585117e+001  1.573255e+002 
3368750000  -4.643523e+001  1.501103e+002 
3371875000  -4.728822e+001  1.437981e+002 
3375000000  -4.903030e+001  1.378943e+002 
3378125000  -4.921965e+001  1.370023e+002 
3381250000  -5.008083e+001  1.423183e+002 
3384375000  -4.751718e+001  1.562688e+002 
3387500000  -4.528822e+001  1.288014e+002 
3390625000  -4.670769e+001  1.085157e+002 
3393750000  -4.780020e+001  1.092594e+002 
3396875000  -4.660101e+001  1.032284e+002 
3400000000  -4.624891e+001  8.760112e+001 
3403125000  -4.737453e+001  8.345844e+001 
3406250000  -4.778296e+001  7.202757e+001 
3409375000  -4.719696e+001  6.159215e+001 
3412500000  -4.802813e+001  5.469058e+001 
3415625000  -4.902672e+001  5.070946e+001 
3418750000  -4.896539e+001  4.577006e+001 
3421875000  -4.918587e+001  4.207496e+001 
3425000000  -4.783287e+001  3.698807e+001 
3428125000  -4.715445e+001  2.939211e+001 
3431250000  -4.711650e+001  1.994464e+001 
3434375000  -4.722557e+001  5.996536e+000 
3437500000  -4.774569e+001  -3.480191e+000 
3440625000  -4.804597e+001  -5.703929e+000 
3443750000  -4.617132e+001  -1.092947e+001 
3446875000  -4.559412e+001  -2.422610e+001 
3450000000  -4.525715e+001  -4.115696e+001 
3453125000  -4.600777e+001  -5.673395e+001 
3456250000  -4.724104e+001  -6.694085e+001 
3459375000  -4.792595e+001  -6.908573e+001 
3462500000  -4.758290e+001  -7.453972e+001 
3465625000  -4.762193e+001  -8.570394e+001 
3468750000  -4.713737e+001  -8.970856e+001 
3471875000  -4.732767e+001  -1.018355e+002 
3475000000  -4.706364e+001  -1.078014e+002 
3478125000  -4.740512e+001  -1.260743e+002 
3481250000  -4.838563e+001  -1.300773e+002 
3484375000  -4.873093e+001  -1.300357e+002 
3487500000  -4.742641e+001  -1.341076e+002 
3490625000  -4.678903e+001  -1.486424e+002 
3493750000  -4.749762e+001  -1.636355e+002 
3496875000  -4.793062e+001  -1.682923e+002 
3500000000  -4.842981e+001  -1.698886e+002 
3503125000  -4.694619e+001  -1.731568e+002 
3506250000  -4.504778e+001  1.744077e+002 
3509375000  -4.551330e+001  1.568375e+002 
3512500000  -4.623115e+001  1.431125e+002 
3515625000  -4.722782e+001  1.339374e+002 
3518750000  -4.795553e+001  1.334875e+002 
3521875000  -4.793268e+001  1.202755e+002 
3525000000  -4.854810e+001  1.158862e+002 
3528125000  -4.748233e+001  1.192439e+002 
3531250000  -4.679794e+001  1.060270e+002 
3534375000  -4.686623e+001  9.325832e+001 
3537500000  -4.753762e+001  8.397414e+001 
3540625000  -4.931937e+001  7.896734e+001 
3543750000  -4.921745e+001  8.316677e+001 
3546875000  -4.887254e+001  8.837581e+001 
3550000000  -4.658110e+001  7.984179e+001 
3553125000  -4.572491e+001  5.835592e+001 
3556250000  -4.688874e+001  5.327645e+001 
3559375000  -4.679836e+001  4.781940e+001 
3562500000  -4.671003e+001  3.678143e+001 
3565625000  -4.718864e+001  3.063358e+001 
3568750000  -4.831888e+001  2.758437e+001 
3571875000  -4.764672e+001  2.160373e+001 
3575000000  -4.696094e+001  1.740724e+001 
3578125000  -4.792420e+001  9.764766e+000 
3581250000  -4.739444e+001  7.685212e+000 
3584375000  -4.594629e+001  6.190060e-001 
3587500000  -4.546740e+001  -8.978709e+000 
3590625000  -4.621634e+001  -2.093811e+001 
3593750000  -4.790575e+001  -2.269425e+001 
3596875000  -4.700639e+001  -1.591128e+001 
3600000000  -4.517486e+001  -2.600777e+001 
3603125000  -4.531892e+001  -4.120530e+001 
3606250000  -4.610863e+001  -4.716874e+001 
3609375000  -4.612172e+001  -5.185855e+001 
3612500000  -4.598032e+001  -6.059799e+001 
3615625000  -4.612795e+001  -6.343820e+001 
3618750000  -4.600184e+001  -6.563871e+001 
3621875000  -4.517852e+001  -7.189175e+001 
3625000000  -4.561467e+001  -7.565463e+001 
3628125000  -4.480320e+001  -8.294006e+001 
3631250000  -4.518501e+001  -9.341495e+001 
3634375000  -4.544161e+001  -9.098531e+001 
3637500000  -4.444891e+001  -9.732661e+001 
3640625000  -4.371205e+001  -1.033707e+002 
3643750000  -4.333073e+001  -1.136966e+002 
3646875000  -4.403585e+001  -1.240499e+002 
3650000000  -4.382864e+001  -1.287778e+002 
3653125000  -4.319159e+001  -1.389069e+002 
3656250000  -4.388170e+001  -1.443695e+002 
3659375000  -4.391751e+001  -1.448668e+002 
3662500000  -4.348991e+001  -1.547976e+002 
3665625000  -4.351350e+001  -1.600640e+002 
3668750000  -4.200468e+001  -1.616918e+002 
3671875000  -4.116694e+001  -1.774203e+002 
3675000000  -4.223291e+001  1.727963e+002 
3678125000  -4.282097e+001  1.677794e+002 
3681250000  -4.247685e+001  1.614673e+002 
3684375000  -4.279305e+001  1.527409e+002 
3687500000  -4.282101e+001  1.443825e+002 
3690625000  -4.350917e+001  1.386584e+002 
3693750000  -4.428819e+001  1.397499e+002 
3696875000  -4.399821e+001  1.326707e+002 
3700000000  -4.346033e+001  1.247099e+002 
3703125000  -4.342295e+001  1.178233e+002 
3706250000  -4.472061e+001  1.164517e+002 
3709375000  -4.403045e+001  1.167817e+002 
3712500000  -4.323744e+001  1.124201e+002 
3715625000  -4.177544e+001  1.010587e+002 
3718750000  -4.187790e+001  9.086172e+001 
3721875000  -4.172281e+001  8.215368e+001 
3725000000  -4.257993e+001  7.436322e+001 
3728125000  -4.274388e+001  7.177233e+001 
3731250000  -4.210375e+001  6.538894e+001 
3734375000  -4.211962e+001  5.796770e+001 
3737500000  -4.282540e+001  4.809584e+001 
3740625000  -4.329171e+001  4.037757e+001 
3743750000  -4.311540e+001  3.620512e+001 
3746875000  -4.348628e+001  2.832677e+001 
3750000000  -4.385097e+001  2.551941e+001 
3753125000  -4.384024e+001  2.425978e+001 
3756250000  -4.400384e+001  2.212170e+001 
3759375000  -4.355825e+001  1.347596e+001 
3762500000  -4.365985e+001  8.443137e+000 
3765625000  -4.396717e+001  3.940268e+000 
3768750000  -4.384973e+001  3.069287e+000 
3771875000  -4.231138e+001  -2.914438e+000 
3775000000  -4.204657e+001  -1.358778e+001 
3778125000  -4.279699e+001  -1.934765e+001 
3781250000  -4.300518e+001  -2.392813e+001 
3784375000  -4.240818e+001  -3.361145e+001 
3787500000  -4.255367e+001  -3.272031e+001 
3790625000  -4.272879e+001  -4.608207e+001 
3793750000  -4.273582e+001  -4.948436e+001 
3796875000  -4.166465e+001  -5.567924e+001 
3800000000  -4.075171e+001  -6.109753e+001 
3803125000  -4.152692e+001  -7.388925e+001 
3806250000  -4.247213e+001  -7.772653e+001 
3809375000  -4.207115e+001  -8.170285e+001 
3812500000  -4.187098e+001  -9.397550e+001 
3815625000  -4.293623e+001  -1.056074e+002 
3818750000  -4.442203e+001  -1.018076e+002 
3821875000  -4.366348e+001  -9.396877e+001 
3825000000  -4.130498e+001  -9.840291e+001 
3828125000  -4.027160e+001  -1.192314e+002 
3831250000  -4.147438e+001  -1.354438e+002 
3834375000  -4.398112e+001  -1.351435e+002 
3837500000  -4.420465e+001  -1.305515e+002 
3840625000  -4.274740e+001  -1.389140e+002 
3843750000  -4.181691e+001  -1.523193e+002 
3846875000  -4.341776e+001  -1.602298e+002 
3850000000  -4.481762e+001  -1.555455e+002 
3853125000  -4.377531e+001  -1.598421e+002 
3856250000  -4.304471e+001  -1.667741e+002 
3859375000  -4.245957e+001  -1.731689e+002 
3862500000  -4.244503e+001  1.770099e+002 
3865625000  -4.270572e+001  1.705309e+002 
3868750000  -4.234727e+001  1.670853e+002 
3871875000  -4.226772e+001  1.589352e+002 
3875000000  -4.256208e+001  1.487822e+002 
3878125000  -4.343586e+001  1.454899e+002 
3881250000  -4.316029e+001  1.426106e+002 
3884375000  -4.269957e+001  1.342570e+002 
3887500000  -4.362273e+001  1.270154e+002 
3890625000  -4.371889e+001  1.224400e+002 
3893750000  -4.421414e+001  1.192092e+002 
3896875000  -4.488530e+001  1.184691e+002 
3900000000  -4.429783e+001  1.146860e+002 
3903125000  -4.376002e+001  1.063304e+002 
3906250000  -4.375880e+001  1.053839e+002 
3909375000  -4.279331e+001  9.632409e+001 
3912500000  -4.403287e+001  8.371357e+001 
3915625000  -4.462335e+001  8.545484e+001 
3918750000  -4.485036e+001  8.416965e+001 
3921875000  -4.402934e+001  7.641708e+001 
3925000000  -4.306829e+001  7.069868e+001 
3928125000  -4.320061e+001  6.203031e+001 
3931250000  -4.367696e+001  5.356231e+001 
3934375000  -4.398736e+001  5.108989e+001 
3937500000  -4.453658e+001  4.973152e+001 
3940625000  -4.456131e+001  5.098224e+001 
3943750000  -4.341235e+001  4.253912e+001 
3946875000  -4.291234e+001  3.449430e+001 
3950000000  -4.383890e+001  2.737843e+001 
3953125000  -4.470592e+001  2.670947e+001 
3956250000  -4.294241e+001  2.581610e+001 
3959375000  -4.264244e+001  1.905361e+001 
3962500000  -4.173585e+001  8.385609e+000 
3965625000  -4.210725e+001  -2.088423e+000 
3968750000  -4.261287e+001  -1.130768e+001 
3971875000  -4.292056e+001  -1.368272e+001 
3975000000  -4.219132e+001  -1.982497e+001 
3978125000  -4.259777e+001  -2.778498e+001 
3981250000  -4.194104e+001  -3.382288e+001 
3984375000  -4.261894e+001  -4.206461e+001 
3987500000  -4.320776e+001  -4.687868e+001 
3990625000  -4.346694e+001  -4.843888e+001 
3993750000  -4.304837e+001  -5.557256e+001 
3996875000  -4.275800e+001  -6.308141e+001 
4000000000  -4.367172e+001  -6.654739e+001 
4003125000  -4.454127e+001  -6.704380e+001 
4006250000  -4.198873e+001  -7.272901e+001 
4009375000  -4.146311e+001  -9.046732e+001 
4012500000  -4.339890e+001  -9.667477e+001 
4015625000  -4.441645e+001  -9.592457e+001 
4018750000  -4.393106e+001  -1.009727e+002 
4021875000  -4.329834e+001  -1.103813e+002 
4025000000  -4.328679e+001  -1.146253e+002 
4028125000  -4.331572e+001  -1.232814e+002 
4031250000  -4.443531e+001  -1.306287e+002 
4034375000  -4.431253e+001  -1.337129e+002 
4037500000  -4.443510e+001  -1.346812e+002 
4040625000  -4.424736e+001  -1.409307e+002 
4043750000  -4.487722e+001  -1.446063e+002 
4046875000  -4.463354e+001  -1.529333e+002 
4050000000  -4.461750e+001  -1.589639e+002 
4053125000  -4.497982e+001  -1.623316e+002 
4056250000  -4.527893e+001  -1.571773e+002 
4059375000  -4.467486e+001  -1.611575e+002 
4062500000  -4.379886e+001  -1.677781e+002 
4065625000  -4.400702e+001  -1.738677e+002 
4068750000  -4.364479e+001  1.781941e+002 
4071875000  -4.272618e+001  1.661212e+002 
4075000000  -4.430250e+001  1.595012e+002 
4078125000  -4.443880e+001  1.570789e+002 
4081250000  -4.400173e+001  1.500495e+002 
4084375000  -4.352262e+001  1.428702e+002 
4087500000  -4.423094e+001  1.348070e+002 
4090625000  -4.477376e+001  1.333591e+002 
4093750000  -4.465343e+001  1.282065e+002 
4096875000  -4.450978e+001  1.231035e+002 
4100000000  -4.528915e+001  1.177987e+002 
4103125000  -4.637410e+001  1.206611e+002 
4106250000  -4.552446e+001  1.203707e+002 
4109375000  -4.469358e+001  1.135126e+002 
4112500000  -4.445431e+001  1.074617e+002 
4115625000  -4.496482e+001  1.031417e+002 
4118750000  -4.442939e+001  9.658327e+001 
4121875000  -4.395433e+001  8.766523e+001 
4125000000  -4.507330e+001  7.849837e+001 
4128125000  -4.501226e+001  8.712687e+001 
4131250000  -4.436802e+001  8.789394e+001 
4134375000  -4.184973e+001  7.738934e+001 
4137500000  -4.222569e+001  5.753972e+001 
4140625000  -4.462240e+001  4.947069e+001 
4143750000  -4.484227e+001  5.298803e+001 
4146875000  -4.420219e+001  5.713804e+001 
4150000000  -4.297625e+001  4.604995e+001 
4153125000  -4.355467e+001  3.842558e+001 
4156250000  -4.456950e+001  3.664303e+001 
4159375000  -4.428754e+001  3.580275e+001 
4162500000  -4.249531e+001  3.235395e+001 
4165625000  -4.192615e+001  2.174373e+001 
4168750000  -4.140084e+001  1.040529e+001 
4171875000  -4.175008e+001  2.761664e-001 
4175000000  -4.191775e+001  -1.034368e+001 
4178125000  -4.253148e+001  -1.025432e+001 
4181250000  -4.203265e+001  -1.766341e+001 
4184375000  -4.299162e+001  -2.504470e+001 
4187500000  -4.252566e+001  -3.047652e+001 
4190625000  -4.318756e+001  -4.163013e+001 
4193750000  -4.426014e+001  -4.684098e+001 
4196875000  -4.509448e+001  -4.584499e+001 
4200000000  -4.591365e+001  -4.047441e+001 
4203125000  -4.465839e+001  -2.952567e+001 
4206250000  -4.173330e+001  -4.260727e+001 
4209375000  -4.151552e+001  -6.718075e+001 
4212500000  -4.412016e+001  -7.330497e+001 
4215625000  -4.461488e+001  -6.973446e+001 
4218750000  -4.297494e+001  -6.563786e+001 
4221875000  -4.144826e+001  -7.738680e+001 
4225000000  -4.284889e+001  -9.180976e+001 
4228125000  -4.267316e+001  -8.764574e+001 
4231250000  -4.137956e+001  -9.625996e+001 
4234375000  -4.138347e+001  -1.076358e+002 
4237500000  -4.116361e+001  -1.138438e+002 
4240625000  -4.171627e+001  -1.200233e+002 
4243750000  -4.251645e+001  -1.323196e+002 
4246875000  -4.335134e+001  -1.342216e+002 
4250000000  -4.328785e+001  -1.323249e+002 
4253125000  -4.296969e+001  -1.381124e+002 
4256250000  -4.322670e+001  -1.410536e+002 
4259375000  -4.272303e+001  -1.472376e+002 
4262500000  -4.283277e+001  -1.536003e+002 
4265625000  -4.229407e+001  -1.530183e+002 
4268750000  -4.139515e+001  -1.631609e+002 
4271875000  -4.153514e+001  -1.743965e+002 
4275000000  -4.079551e+001  1.763634e+002 
4278125000  -4.223464e+001  1.668063e+002 
4281250000  -4.253353e+001  1.606176e+002 
4284375000  -4.291263e+001  1.617659e+002 
4287500000  -4.386424e+001  1.561879e+002 
4290625000  -4.434472e+001  1.642269e+002 
4293750000  -4.217571e+001  1.613806e+002 
4296875000  -4.107945e+001  1.475103e+002 
4300000000  -4.185681e+001  1.377711e+002 
4303125000  -4.248268e+001  1.381168e+002 
4306250000  -4.124147e+001  1.373629e+002 
4309375000  -4.030430e+001  1.261810e+002 
4312500000  -4.019217e+001  1.143288e+002 
4315625000  -4.048447e+001  1.065445e+002 
4318750000  -4.107720e+001  1.016072e+002 
4321875000  -4.115599e+001  9.929610e+001 
4325000000  -4.047072e+001  9.355111e+001 
4328125000  -3.979592e+001  8.339782e+001 
4331250000  -4.019421e+001  7.003792e+001 
4334375000  -4.127787e+001  6.320706e+001 
4337500000  -4.262870e+001  6.040253e+001 
4340625000  -4.287252e+001  6.575034e+001 
4343750000  -4.150991e+001  5.964834e+001 
4346875000  -4.142525e+001  4.830624e+001 
4350000000  -4.154225e+001  3.861301e+001 
4353125000  -4.243701e+001  3.127005e+001 
4356250000  -4.459548e+001  3.691812e+001 
4359375000  -4.327341e+001  4.706733e+001 
4362500000  -4.023050e+001  3.691089e+001 
4365625000  -3.968472e+001  2.031361e+001 
4368750000  -4.105379e+001  8.086758e+000 
4371875000  -4.208213e+001  4.504953e+000 
4375000000  -4.110476e+001  -5.340540e-001 
4378125000  -4.089320e+001  -5.811600e+000 
4381250000  -4.148929e+001  -1.377096e+001 
4384375000  -4.102497e+001  -2.167458e+001 
4387500000  -4.199140e+001  -2.996282e+001 
4390625000  -4.291218e+001  -3.267630e+001 
4393750000  -4.209018e+001  -3.078269e+001 
4396875000  -4.163532e+001  -3.849601e+001 
4400000000  -4.120460e+001  -4.891033e+001 
4403125000  -4.210019e+001  -5.737982e+001 
4406250000  -4.286132e+001  -6.087155e+001 
4409375000  -4.288941e+001  -6.538234e+001 
4412500000  -4.396637e+001  -6.606050e+001 
4415625000  -4.348780e+001  -6.329577e+001 
4418750000  -4.218139e+001  -6.859740e+001 
