!Agilent Technologies,E8363B,MY43030201,A.06.04.32
!Agilent E8363B: A.06.04.32
!Date: Tuesday, November 11, 2014 21:46:36
!Correction: S21(Response(S21)) 
!S1P File: Measurement: S21:
# Hz S  dB   R 50
3000000000  -4.362555e+001  -1.610033e+002 
3003125000  -4.552773e+001  -1.646817e+002 
3006250000  -4.520456e+001  -1.687780e+002 
3009375000  -4.624854e+001  -1.637361e+002 
3012500000  -4.469788e+001  -1.704723e+002 
3015625000  -4.505523e+001  -1.774647e+002 
3018750000  -4.558673e+001  -1.787008e+002 
3021875000  -4.389674e+001  -1.771514e+002 
3025000000  -4.249532e+001  1.751352e+002 
3028125000  -4.187986e+001  1.629735e+002 
3031250000  -4.101127e+001  1.521892e+002 
3034375000  -4.082460e+001  1.382214e+002 
3037500000  -4.164564e+001  1.265215e+002 
3040625000  -4.300388e+001  1.209048e+002 
3043750000  -4.367613e+001  1.129176e+002 
3046875000  -4.416372e+001  1.075788e+002 
3050000000  -4.560461e+001  1.023752e+002 
3053125000  -4.493007e+001  1.071352e+002 
3056250000  -4.493249e+001  1.095179e+002 
3059375000  -4.356941e+001  1.048342e+002 
3062500000  -4.236010e+001  1.000251e+002 
3065625000  -4.211689e+001  8.912454e+001 
3068750000  -4.169884e+001  8.093842e+001 
3071875000  -4.169354e+001  7.857282e+001 
3075000000  -4.127447e+001  6.987350e+001 
3078125000  -4.125036e+001  6.410184e+001 
3081250000  -4.137674e+001  5.720916e+001 
3084375000  -4.033058e+001  5.120033e+001 
3087500000  -4.064262e+001  4.330830e+001 
3090625000  -3.996593e+001  3.011052e+001 
3093750000  -4.124894e+001  2.168694e+001 
3096875000  -4.112564e+001  1.569837e+001 
3100000000  -4.117940e+001  1.207876e+001 
3103125000  -4.139913e+001  6.738818e+000 
3106250000  -4.099736e+001  1.773434e+000 
3109375000  -4.094963e+001  -3.473637e+000 
3112500000  -4.092215e+001  -1.222673e+001 
3115625000  -4.079232e+001  -1.624872e+001 
3118750000  -4.077026e+001  -2.162946e+001 
3121875000  -4.005691e+001  -3.270486e+001 
3125000000  -4.220961e+001  -3.644269e+001 
3128125000  -4.194848e+001  -3.031934e+001 
3131250000  -3.958611e+001  -3.855318e+001 
3134375000  -3.893832e+001  -5.623636e+001 
3137500000  -3.952699e+001  -7.036715e+001 
3140625000  -4.101153e+001  -7.337482e+001 
3143750000  -4.137866e+001  -7.784521e+001 
3146875000  -4.127193e+001  -7.611726e+001 
3150000000  -4.031495e+001  -8.280961e+001 
3153125000  -4.071553e+001  -9.138158e+001 
3156250000  -4.148052e+001  -8.765142e+001 
3159375000  -3.909341e+001  -9.188964e+001 
3162500000  -3.766839e+001  -1.088188e+002 
3165625000  -3.890184e+001  -1.223700e+002 
3168750000  -3.902434e+001  -1.241839e+002 
3171875000  -3.850312e+001  -1.337449e+002 
3175000000  -3.906763e+001  -1.426850e+002 
3178125000  -3.865550e+001  -1.453176e+002 
3181250000  -3.801552e+001  -1.548470e+002 
3184375000  -3.788279e+001  -1.671863e+002 
3187500000  -3.935703e+001  1.780021e+002 
3190625000  -4.092477e+001  1.702989e+002 
3193750000  -4.127143e+001  1.742592e+002 
3196875000  -4.116289e+001  1.746807e+002 
3200000000  -3.980971e+001  1.691277e+002 
3203125000  -3.970282e+001  1.605198e+002 
3206250000  -3.991565e+001  1.522721e+002 
3209375000  -3.935771e+001  1.436494e+002 
3212500000  -3.994561e+001  1.357588e+002 
3215625000  -3.985250e+001  1.329852e+002 
3218750000  -4.017449e+001  1.196930e+002 
3221875000  -4.065543e+001  1.123757e+002 
3225000000  -4.043801e+001  1.074898e+002 
3228125000  -4.101019e+001  9.942605e+001 
3231250000  -4.131221e+001  9.815878e+001 
3234375000  -4.093630e+001  9.287950e+001 
3237500000  -4.079715e+001  9.008739e+001 
3240625000  -4.029313e+001  8.265479e+001 
3243750000  -4.041991e+001  7.148618e+001 
3246875000  -4.064065e+001  6.373050e+001 
3250000000  -4.100460e+001  5.799943e+001 
3253125000  -4.136114e+001  5.459151e+001 
3256250000  -4.044605e+001  4.515222e+001 
3259375000  -4.086690e+001  3.130542e+001 
3262500000  -4.234531e+001  2.531455e+001 
3265625000  -4.245217e+001  2.732294e+001 
3268750000  -4.229620e+001  2.736191e+001 
3271875000  -4.163607e+001  1.895021e+001 
3275000000  -4.105460e+001  9.859336e+000 
3278125000  -4.154387e+001  2.624843e+000 
3281250000  -4.188246e+001  -9.966577e-001 
3284375000  -4.077534e+001  -8.182641e+000 
3287500000  -4.147191e+001  -1.718270e+001 
3290625000  -4.146292e+001  -2.653360e+001 
3293750000  -4.135129e+001  -3.278450e+001 
3296875000  -4.287527e+001  -3.900048e+001 
3300000000  -4.195506e+001  -4.011214e+001 
3303125000  -4.083239e+001  -5.054857e+001 
3306250000  -4.084363e+001  -6.014849e+001 
3309375000  -4.059400e+001  -7.103625e+001 
3312500000  -4.115770e+001  -8.651492e+001 
3315625000  -4.254897e+001  -9.429478e+001 
3318750000  -4.390992e+001  -9.981857e+001 
3321875000  -4.517850e+001  -1.018531e+002 
3325000000  -4.499406e+001  -9.707548e+001 
3328125000  -4.420238e+001  -9.896914e+001 
3331250000  -4.224963e+001  -9.960534e+001 
3334375000  -4.009396e+001  -1.173667e+002 
3337500000  -4.087473e+001  -1.409250e+002 
3340625000  -4.287939e+001  -1.517205e+002 
3343750000  -4.440566e+001  -1.531771e+002 
3346875000  -4.388057e+001  -1.560701e+002 
3350000000  -4.385613e+001  -1.625417e+002 
3353125000  -4.373078e+001  -1.715211e+002 
3356250000  -4.322982e+001  1.785210e+002 
3359375000  -4.424717e+001  1.650688e+002 
3362500000  -4.529232e+001  1.583915e+002 
3365625000  -4.579764e+001  1.511940e+002 
3368750000  -4.661463e+001  1.470882e+002 
3371875000  -4.691368e+001  1.400160e+002 
3375000000  -4.874441e+001  1.342232e+002 
3378125000  -4.898156e+001  1.302072e+002 
3381250000  -5.054614e+001  1.458576e+002 
3384375000  -4.740885e+001  1.524820e+002 
3387500000  -4.463254e+001  1.271698e+002 
3390625000  -4.636517e+001  1.031945e+002 
3393750000  -4.801846e+001  1.045785e+002 
3396875000  -4.585269e+001  9.842520e+001 
3400000000  -4.621393e+001  8.911943e+001 
3403125000  -4.697227e+001  7.835939e+001 
3406250000  -4.748633e+001  7.462872e+001 
3409375000  -4.732861e+001  5.850181e+001 
3412500000  -4.787848e+001  5.042492e+001 
3415625000  -4.887527e+001  4.965765e+001 
3418750000  -4.861567e+001  4.357140e+001 
3421875000  -4.910421e+001  4.036043e+001 
3425000000  -4.755478e+001  3.774847e+001 
3428125000  -4.685183e+001  2.918245e+001 
3431250000  -4.683137e+001  1.444589e+001 
3434375000  -4.689939e+001  3.252429e+000 
3437500000  -4.738019e+001  -3.654016e+000 
3440625000  -4.784916e+001  -1.068180e+001 
3443750000  -4.671484e+001  -1.310286e+001 
3446875000  -4.573525e+001  -3.163562e+001 
3450000000  -4.502898e+001  -4.250159e+001 
3453125000  -4.596125e+001  -6.355921e+001 
3456250000  -4.718349e+001  -6.861292e+001 
3459375000  -4.802551e+001  -7.294923e+001 
3462500000  -4.770236e+001  -7.577542e+001 
3465625000  -4.710546e+001  -8.792688e+001 
3468750000  -4.755580e+001  -9.721960e+001 
3471875000  -4.733664e+001  -1.058273e+002 
3475000000  -4.725263e+001  -1.171184e+002 
3478125000  -4.777677e+001  -1.316695e+002 
3481250000  -4.863595e+001  -1.337072e+002 
3484375000  -4.862246e+001  -1.353528e+002 
3487500000  -4.765916e+001  -1.404418e+002 
3490625000  -4.729047e+001  -1.511345e+002 
3493750000  -4.808270e+001  -1.698047e+002 
3496875000  -4.811281e+001  -1.704674e+002 
3500000000  -4.834088e+001  -1.711147e+002 
3503125000  -4.703201e+001  -1.751795e+002 
3506250000  -4.549288e+001  1.701573e+002 
3509375000  -4.561220e+001  1.504170e+002 
3512500000  -4.629229e+001  1.378745e+002 
3515625000  -4.727334e+001  1.321898e+002 
3518750000  -4.786644e+001  1.293804e+002 
3521875000  -4.794592e+001  1.199951e+002 
3525000000  -4.884644e+001  1.122478e+002 
3528125000  -4.787694e+001  1.165454e+002 
3531250000  -4.693776e+001  1.058239e+002 
3534375000  -4.665762e+001  8.923209e+001 
3537500000  -4.812410e+001  7.728941e+001 
3540625000  -4.929538e+001  7.547026e+001 
3543750000  -4.971165e+001  7.667175e+001 
3546875000  -4.854937e+001  8.179288e+001 
3550000000  -4.679198e+001  7.303735e+001 
3553125000  -4.617486e+001  5.348060e+001 
3556250000  -4.715606e+001  4.582386e+001 
3559375000  -4.701147e+001  4.425605e+001 
3562500000  -4.688871e+001  3.186396e+001 
3565625000  -4.730482e+001  2.299924e+001 
3568750000  -4.800047e+001  2.359335e+001 
3571875000  -4.718844e+001  1.993159e+001 
3575000000  -4.727094e+001  1.020725e+001 
3578125000  -4.788358e+001  7.717040e+000 
3581250000  -4.795289e+001  3.631550e+000 
3584375000  -4.615433e+001  -4.416543e+000 
3587500000  -4.563069e+001  -1.830897e+001 
3590625000  -4.682851e+001  -2.407828e+001 
3593750000  -4.748716e+001  -2.373467e+001 
3596875000  -4.685517e+001  -2.170836e+001 
3600000000  -4.485612e+001  -3.345975e+001 
3603125000  -4.528668e+001  -4.608364e+001 
3606250000  -4.601244e+001  -5.341162e+001 
3609375000  -4.613304e+001  -5.574241e+001 
3612500000  -4.586650e+001  -6.404460e+001 
3615625000  -4.620244e+001  -6.807536e+001 
3618750000  -4.610309e+001  -7.081509e+001 
3621875000  -4.523288e+001  -7.743756e+001 
3625000000  -4.604366e+001  -8.023151e+001 
3628125000  -4.474919e+001  -8.773683e+001 
3631250000  -4.522543e+001  -9.867912e+001 
3634375000  -4.550685e+001  -9.838660e+001 
3637500000  -4.451483e+001  -1.013909e+002 
3640625000  -4.361478e+001  -1.063251e+002 
3643750000  -4.336568e+001  -1.215789e+002 
3646875000  -4.369275e+001  -1.303957e+002 
3650000000  -4.398703e+001  -1.337438e+002 
3653125000  -4.295723e+001  -1.417190e+002 
3656250000  -4.407992e+001  -1.486855e+002 
3659375000  -4.356330e+001  -1.509688e+002 
3662500000  -4.319268e+001  -1.611678e+002 
3665625000  -4.344756e+001  -1.654685e+002 
3668750000  -4.188773e+001  -1.696789e+002 
3671875000  -4.149452e+001  1.776586e+002 
3675000000  -4.205073e+001  1.686193e+002 
3678125000  -4.290766e+001  1.619125e+002 
3681250000  -4.244354e+001  1.559422e+002 
3684375000  -4.279886e+001  1.481556e+002 
3687500000  -4.248502e+001  1.400162e+002 
3690625000  -4.366553e+001  1.338743e+002 
3693750000  -4.434323e+001  1.330366e+002 
3696875000  -4.343469e+001  1.281779e+002 
3700000000  -4.274822e+001  1.194675e+002 
3703125000  -4.358984e+001  1.146816e+002 
3706250000  -4.488585e+001  1.106898e+002 
3709375000  -4.384237e+001  1.103078e+002 
3712500000  -4.299976e+001  1.045285e+002 
3715625000  -4.163392e+001  9.621887e+001 
3718750000  -4.152642e+001  8.580873e+001 
3721875000  -4.177693e+001  7.617715e+001 
3725000000  -4.234540e+001  7.081702e+001 
3728125000  -4.256057e+001  6.630000e+001 
3731250000  -4.190242e+001  5.976576e+001 
3734375000  -4.209957e+001  5.100181e+001 
3737500000  -4.265502e+001  4.411768e+001 
3740625000  -4.310777e+001  3.663605e+001 
3743750000  -4.255231e+001  3.175703e+001 
3746875000  -4.355781e+001  2.387792e+001 
3750000000  -4.336651e+001  2.315455e+001 
3753125000  -4.382735e+001  1.635707e+001 
3756250000  -4.331756e+001  1.201778e+001 
3759375000  -4.404333e+001  7.895867e+000 
3762500000  -4.355750e+001  4.202424e+000 
3765625000  -4.416882e+001  -1.947784e+000 
3768750000  -4.370351e+001  -3.024739e+000 
3771875000  -4.228319e+001  -9.572799e+000 
3775000000  -4.210007e+001  -1.957637e+001 
3778125000  -4.269120e+001  -2.556744e+001 
3781250000  -4.254633e+001  -2.988508e+001 
3784375000  -4.232312e+001  -3.663268e+001 
3787500000  -4.222829e+001  -4.217210e+001 
3790625000  -4.305639e+001  -5.262560e+001 
3793750000  -4.261156e+001  -5.500916e+001 
3796875000  -4.133593e+001  -6.009530e+001 
3800000000  -4.058975e+001  -6.759429e+001 
3803125000  -4.173390e+001  -7.895509e+001 
3806250000  -4.236431e+001  -8.594968e+001 
3809375000  -4.194722e+001  -8.940814e+001 
3812500000  -4.182457e+001  -1.009316e+002 
3815625000  -4.311984e+001  -1.119939e+002 
3818750000  -4.426381e+001  -1.072686e+002 
3821875000  -4.351652e+001  -1.003755e+002 
3825000000  -4.155506e+001  -1.032824e+002 
3828125000  -4.045644e+001  -1.246953e+002 
3831250000  -4.153188e+001  -1.411583e+002 
3834375000  -4.373539e+001  -1.414080e+002 
3837500000  -4.375745e+001  -1.393610e+002 
3840625000  -4.238446e+001  -1.458884e+002 
3843750000  -4.162090e+001  -1.593411e+002 
3846875000  -4.293506e+001  -1.662446e+002 
3850000000  -4.411705e+001  -1.628397e+002 
3853125000  -4.356844e+001  -1.618605e+002 
3856250000  -4.272132e+001  -1.720976e+002 
3859375000  -4.213073e+001  1.788406e+002 
3862500000  -4.200451e+001  1.704637e+002 
3865625000  -4.246125e+001  1.652310e+002 
3868750000  -4.225049e+001  1.635300e+002 
3871875000  -4.198127e+001  1.529417e+002 
3875000000  -4.246167e+001  1.412869e+002 
3878125000  -4.313779e+001  1.407423e+002 
3881250000  -4.304819e+001  1.387720e+002 
3884375000  -4.241656e+001  1.286462e+002 
3887500000  -4.316591e+001  1.200580e+002 
3890625000  -4.364107e+001  1.176284e+002 
3893750000  -4.422854e+001  1.139170e+002 
3896875000  -4.413913e+001  1.106670e+002 
3900000000  -4.432293e+001  1.060974e+002 
3903125000  -4.427820e+001  1.032284e+002 
3906250000  -4.348403e+001  9.854305e+001 
3909375000  -4.274989e+001  8.867110e+001 
3912500000  -4.347422e+001  8.070399e+001 
3915625000  -4.469891e+001  7.974471e+001 
3918750000  -4.438867e+001  7.611700e+001 
3921875000  -4.372469e+001  7.208165e+001 
3925000000  -4.292657e+001  6.539537e+001 
3928125000  -4.293248e+001  5.816737e+001 
3931250000  -4.386513e+001  4.968137e+001 
3934375000  -4.402469e+001  4.861524e+001 
3937500000  -4.461625e+001  4.332501e+001 
3940625000  -4.440929e+001  4.411564e+001 
3943750000  -4.307200e+001  3.817871e+001 
3946875000  -4.265582e+001  3.146065e+001 
3950000000  -4.375741e+001  1.983259e+001 
3953125000  -4.437985e+001  1.916789e+001 
3956250000  -4.226952e+001  1.929436e+001 
3959375000  -4.187669e+001  1.136156e+001 
3962500000  -4.112106e+001  2.360744e+000 
3965625000  -4.170573e+001  -6.537591e+000 
3968750000  -4.241790e+001  -1.724133e+001 
3971875000  -4.274243e+001  -2.107770e+001 
3975000000  -4.241372e+001  -2.367250e+001 
3978125000  -4.178790e+001  -3.311306e+001 
3981250000  -4.172322e+001  -4.086724e+001 
3984375000  -4.247212e+001  -4.935814e+001 
3987500000  -4.308563e+001  -5.383060e+001 
3990625000  -4.287749e+001  -5.546129e+001 
3993750000  -4.280722e+001  -6.147972e+001 
3996875000  -4.293322e+001  -7.122181e+001 
4000000000  -4.388805e+001  -7.074625e+001 
4003125000  -4.362085e+001  -7.241755e+001 
4006250000  -4.193037e+001  -7.597820e+001 
4009375000  -4.112434e+001  -9.663630e+001 
4012500000  -4.302526e+001  -1.011442e+002 
4015625000  -4.395816e+001  -1.037827e+002 
4018750000  -4.332741e+001  -1.061430e+002 
4021875000  -4.287963e+001  -1.161407e+002 
4025000000  -4.283208e+001  -1.204196e+002 
4028125000  -4.313618e+001  -1.289211e+002 
4031250000  -4.368705e+001  -1.349754e+002 
4034375000  -4.369637e+001  -1.392728e+002 
4037500000  -4.431445e+001  -1.428855e+002 
4040625000  -4.421611e+001  -1.474004e+002 
4043750000  -4.471901e+001  -1.530456e+002 
4046875000  -4.415409e+001  -1.557222e+002 
4050000000  -4.384320e+001  -1.628010e+002 
4053125000  -4.490103e+001  -1.677386e+002 
4056250000  -4.505556e+001  -1.658032e+002 
4059375000  -4.378278e+001  -1.660935e+002 
4062500000  -4.358267e+001  -1.730103e+002 
4065625000  -4.353859e+001  -1.789424e+002 
4068750000  -4.277967e+001  1.723433e+002 
4071875000  -4.207856e+001  1.589824e+002 
4075000000  -4.367781e+001  1.552510e+002 
4078125000  -4.405138e+001  1.492310e+002 
4081250000  -4.361277e+001  1.444901e+002 
4084375000  -4.326730e+001  1.365020e+002 
4087500000  -4.382701e+001  1.283332e+002 
4090625000  -4.444629e+001  1.290624e+002 
4093750000  -4.481569e+001  1.256609e+002 
4096875000  -4.413300e+001  1.156980e+002 
4100000000  -4.541397e+001  1.115396e+002 
4103125000  -4.576193e+001  1.113761e+002 
4106250000  -4.508811e+001  1.143273e+002 
4109375000  -4.418502e+001  1.116499e+002 
4112500000  -4.384526e+001  9.848141e+001 
4115625000  -4.410309e+001  9.526987e+001 
4118750000  -4.414100e+001  9.122401e+001 
4121875000  -4.377209e+001  7.985537e+001 
4125000000  -4.447892e+001  7.800319e+001 
4128125000  -4.486095e+001  7.973799e+001 
4131250000  -4.393206e+001  8.119309e+001 
4134375000  -4.165498e+001  7.003709e+001 
4137500000  -4.198645e+001  4.855471e+001 
4140625000  -4.449068e+001  4.367805e+001 
4143750000  -4.509580e+001  4.977869e+001 
4146875000  -4.385278e+001  5.044685e+001 
4150000000  -4.258421e+001  3.873755e+001 
4153125000  -4.322540e+001  2.870483e+001 
4156250000  -4.397139e+001  2.326717e+001 
4159375000  -4.368677e+001  2.757889e+001 
4162500000  -4.235911e+001  2.565036e+001 
4165625000  -4.148030e+001  1.445273e+001 
4168750000  -4.093130e+001  4.384872e+000 
4171875000  -4.090425e+001  -7.565723e+000 
4175000000  -4.172293e+001  -1.584753e+001 
4178125000  -4.215764e+001  -1.856355e+001 
4181250000  -4.194970e+001  -2.285239e+001 
4184375000  -4.267679e+001  -3.058517e+001 
4187500000  -4.236487e+001  -3.720285e+001 
4190625000  -4.258611e+001  -4.795765e+001 
4193750000  -4.372481e+001  -5.169043e+001 
4196875000  -4.443598e+001  -5.421688e+001 
4200000000  -4.572769e+001  -4.950341e+001 
4203125000  -4.434779e+001  -3.780705e+001 
4206250000  -4.114557e+001  -4.882596e+001 
4209375000  -4.121078e+001  -7.301929e+001 
4212500000  -4.398646e+001  -7.718163e+001 
4215625000  -4.444726e+001  -7.182776e+001 
4218750000  -4.213635e+001  -7.420354e+001 
4221875000  -4.084589e+001  -8.627863e+001 
4225000000  -4.222417e+001  -9.676939e+001 
4228125000  -4.198723e+001  -9.425779e+001 
4231250000  -4.053590e+001  -1.039963e+002 
4234375000  -4.077363e+001  -1.149765e+002 
4237500000  -4.063263e+001  -1.179252e+002 
4240625000  -4.101838e+001  -1.311665e+002 
4243750000  -4.224821e+001  -1.393084e+002 
4246875000  -4.305836e+001  -1.388516e+002 
4250000000  -4.277086e+001  -1.392640e+002 
4253125000  -4.246123e+001  -1.412321e+002 
4256250000  -4.242136e+001  -1.509684e+002 
4259375000  -4.206525e+001  -1.563893e+002 
4262500000  -4.243547e+001  -1.599584e+002 
4265625000  -4.178063e+001  -1.634176e+002 
4268750000  -4.121984e+001  -1.699058e+002 
4271875000  -4.061439e+001  -1.793675e+002 
4275000000  -4.027830e+001  1.699985e+002 
4278125000  -4.152484e+001  1.562824e+002 
4281250000  -4.265348e+001  1.536914e+002 
4284375000  -4.214605e+001  1.516927e+002 
4287500000  -4.394216e+001  1.511831e+002 
4290625000  -4.369267e+001  1.540792e+002 
4293750000  -4.156391e+001  1.510647e+002 
4296875000  -4.023052e+001  1.378468e+002 
4300000000  -4.151443e+001  1.264078e+002 
4303125000  -4.176260e+001  1.316289e+002 
4306250000  -4.046607e+001  1.293130e+002 
4309375000  -3.988697e+001  1.172070e+002 
4312500000  -3.966335e+001  1.079517e+002 
4315625000  -4.021712e+001  9.958347e+001 
4318750000  -4.093737e+001  9.365817e+001 
4321875000  -4.073124e+001  9.155466e+001 
4325000000  -3.994680e+001  8.477064e+001 
4328125000  -3.942002e+001  7.571519e+001 
4331250000  -3.964457e+001  6.477608e+001 
4334375000  -4.074582e+001  5.463980e+001 
4337500000  -4.185516e+001  5.360214e+001 
4340625000  -4.185007e+001  5.570347e+001 
4343750000  -4.110238e+001  4.945503e+001 
4346875000  -4.088703e+001  4.254529e+001 
4350000000  -4.076094e+001  3.106593e+001 
4353125000  -4.183299e+001  2.420048e+001 
4356250000  -4.388271e+001  2.856450e+001 
4359375000  -4.290980e+001  4.304588e+001 
4362500000  -3.909765e+001  3.060586e+001 
4365625000  -3.902105e+001  1.176596e+001 
4368750000  -4.021850e+001  -3.581520e-001 
4371875000  -4.125171e+001  -1.957748e-001 
4375000000  -4.055025e+001  -8.189384e+000 
4378125000  -4.038041e+001  -1.459104e+001 
4381250000  -4.095491e+001  -2.339450e+001 
4384375000  -4.077945e+001  -2.954790e+001 
4387500000  -4.154270e+001  -3.875167e+001 
4390625000  -4.233687e+001  -4.031509e+001 
4393750000  -4.177514e+001  -3.981774e+001 
4396875000  -4.112942e+001  -4.444631e+001 
4400000000  -4.064917e+001  -5.568634e+001 
4403125000  -4.193493e+001  -6.448227e+001 
4406250000  -4.202841e+001  -6.821971e+001 
4409375000  -4.251841e+001  -7.595446e+001 
4412500000  -4.316198e+001  -7.984446e+001 
4415625000  -4.294510e+001  -7.505661e+001 
4418750000  -4.179254e+001  -7.402761e+001 
