!Agilent Technologies,E8363B,MY43030201,A.06.04.32
!Agilent E8363B: A.06.04.32
!Date: Tuesday, November 11, 2014 21:51:17
!Correction: S21(Response(S21)) 
!S1P File: Measurement: S21:
# Hz S  dB   R 50
3000000000  -4.385204e+001  -1.620143e+002 
3003125000  -4.518367e+001  -1.673739e+002 
3006250000  -4.544155e+001  -1.702380e+002 
3009375000  -4.635535e+001  -1.662517e+002 
3012500000  -4.489881e+001  -1.721975e+002 
3015625000  -4.484367e+001  -1.782066e+002 
3018750000  -4.524231e+001  1.797413e+002 
3021875000  -4.409460e+001  -1.794059e+002 
3025000000  -4.264887e+001  1.753081e+002 
3028125000  -4.178556e+001  1.633101e+002 
3031250000  -4.105299e+001  1.517888e+002 
3034375000  -4.076564e+001  1.367699e+002 
3037500000  -4.169503e+001  1.259092e+002 
3040625000  -4.273914e+001  1.188585e+002 
3043750000  -4.338675e+001  1.117532e+002 
3046875000  -4.421253e+001  1.047348e+002 
3050000000  -4.542069e+001  9.996724e+001 
3053125000  -4.464955e+001  1.063197e+002 
3056250000  -4.452777e+001  1.086278e+002 
3059375000  -4.391907e+001  1.040310e+002 
3062500000  -4.253878e+001  1.002261e+002 
3065625000  -4.231702e+001  8.716695e+001 
3068750000  -4.181845e+001  7.994765e+001 
3071875000  -4.198539e+001  7.845076e+001 
3075000000  -4.125310e+001  6.935281e+001 
3078125000  -4.137642e+001  6.322472e+001 
3081250000  -4.133539e+001  5.494031e+001 
3084375000  -4.049747e+001  5.076373e+001 
3087500000  -4.061475e+001  4.330885e+001 
3090625000  -4.003259e+001  3.073908e+001 
3093750000  -4.101474e+001  1.999096e+001 
3096875000  -4.119316e+001  1.326902e+001 
3100000000  -4.121373e+001  1.101727e+001 
3103125000  -4.135299e+001  6.351950e+000 
3106250000  -4.090182e+001  1.039915e+000 
3109375000  -4.098626e+001  -4.172353e+000 
3112500000  -4.108356e+001  -1.162844e+001 
3115625000  -4.097964e+001  -1.720751e+001 
3118750000  -4.076558e+001  -2.196554e+001 
3121875000  -4.011985e+001  -3.453058e+001 
3125000000  -4.202457e+001  -3.743011e+001 
3128125000  -4.187325e+001  -3.189140e+001 
3131250000  -3.965511e+001  -3.981311e+001 
3134375000  -3.888204e+001  -5.840237e+001 
3137500000  -3.955963e+001  -7.048591e+001 
3140625000  -4.077874e+001  -7.430171e+001 
3143750000  -4.137816e+001  -7.865620e+001 
3146875000  -4.109274e+001  -7.775637e+001 
3150000000  -4.033975e+001  -8.299681e+001 
3153125000  -4.077151e+001  -9.256120e+001 
3156250000  -4.125389e+001  -9.037247e+001 
3159375000  -3.907320e+001  -9.349577e+001 
3162500000  -3.768584e+001  -1.101650e+002 
3165625000  -3.897318e+001  -1.237239e+002 
3168750000  -3.893007e+001  -1.247807e+002 
3171875000  -3.872525e+001  -1.338921e+002 
3175000000  -3.901719e+001  -1.433200e+002 
3178125000  -3.873966e+001  -1.459192e+002 
3181250000  -3.812334e+001  -1.549654e+002 
3184375000  -3.789013e+001  -1.673093e+002 
3187500000  -3.908562e+001  1.766212e+002 
3190625000  -4.078838e+001  1.698745e+002 
3193750000  -4.115008e+001  1.724899e+002 
3196875000  -4.121376e+001  1.738293e+002 
3200000000  -3.976489e+001  1.685053e+002 
3203125000  -3.960749e+001  1.589784e+002 
3206250000  -3.980107e+001  1.505192e+002 
3209375000  -3.946869e+001  1.414783e+002 
3212500000  -3.999385e+001  1.340217e+002 
3215625000  -3.953580e+001  1.325923e+002 
3218750000  -4.021723e+001  1.190054e+002 
3221875000  -4.082972e+001  1.124763e+002 
3225000000  -4.040081e+001  1.076984e+002 
3228125000  -4.079988e+001  9.949320e+001 
3231250000  -4.150249e+001  9.585601e+001 
3234375000  -4.095671e+001  9.316126e+001 
3237500000  -4.099029e+001  8.893421e+001 
3240625000  -4.043930e+001  8.189292e+001 
3243750000  -4.031930e+001  6.856507e+001 
3246875000  -4.050922e+001  6.249490e+001 
3250000000  -4.093986e+001  5.756065e+001 
3253125000  -4.119136e+001  5.304465e+001 
3256250000  -4.021627e+001  4.301451e+001 
3259375000  -4.093880e+001  2.971290e+001 
3262500000  -4.226991e+001  2.690385e+001 
3265625000  -4.266952e+001  2.688028e+001 
3268750000  -4.262332e+001  2.567887e+001 
3271875000  -4.170360e+001  1.915504e+001 
3275000000  -4.125497e+001  1.028367e+001 
3278125000  -4.171548e+001  2.295340e+000 
3281250000  -4.185953e+001  -1.241189e+000 
3284375000  -4.103559e+001  -8.813746e+000 
3287500000  -4.160149e+001  -1.699680e+001 
3290625000  -4.156736e+001  -2.743652e+001 
3293750000  -4.145640e+001  -3.375981e+001 
3296875000  -4.271474e+001  -4.005585e+001 
3300000000  -4.198608e+001  -4.100494e+001 
3303125000  -4.092624e+001  -4.997869e+001 
3306250000  -4.099455e+001  -6.216118e+001 
3309375000  -4.064221e+001  -7.139001e+001 
3312500000  -4.105376e+001  -8.656470e+001 
3315625000  -4.245240e+001  -9.511217e+001 
3318750000  -4.398117e+001  -1.009104e+002 
3321875000  -4.557126e+001  -1.011559e+002 
3325000000  -4.490197e+001  -9.739596e+001 
3328125000  -4.397462e+001  -9.948365e+001 
3331250000  -4.221629e+001  -1.004409e+002 
3334375000  -4.014131e+001  -1.170235e+002 
3337500000  -4.083447e+001  -1.422487e+002 
3340625000  -4.267119e+001  -1.528604e+002 
3343750000  -4.428615e+001  -1.521039e+002 
3346875000  -4.364406e+001  -1.580178e+002 
3350000000  -4.373092e+001  -1.626913e+002 
3353125000  -4.349624e+001  -1.720878e+002 
3356250000  -4.302333e+001  1.774239e+002 
3359375000  -4.435331e+001  1.656919e+002 
3362500000  -4.510170e+001  1.565541e+002 
3365625000  -4.568325e+001  1.516096e+002 
3368750000  -4.635644e+001  1.438103e+002 
3371875000  -4.665576e+001  1.374826e+002 
3375000000  -4.853574e+001  1.360486e+002 
3378125000  -4.954751e+001  1.312764e+002 
3381250000  -5.051225e+001  1.408380e+002 
3384375000  -4.665953e+001  1.517031e+002 
3387500000  -4.482025e+001  1.243926e+002 
3390625000  -4.685380e+001  1.072159e+002 
3393750000  -4.745023e+001  1.026673e+002 
3396875000  -4.626516e+001  9.875430e+001 
3400000000  -4.603622e+001  8.731612e+001 
3403125000  -4.685421e+001  7.861065e+001 
3406250000  -4.780088e+001  6.770128e+001 
3409375000  -4.711032e+001  6.147416e+001 
3412500000  -4.768070e+001  5.350447e+001 
3415625000  -4.909756e+001  4.898706e+001 
3418750000  -4.856222e+001  4.407412e+001 
3421875000  -4.906981e+001  4.281995e+001 
3425000000  -4.744133e+001  3.469563e+001 
3428125000  -4.735185e+001  2.885920e+001 
3431250000  -4.655912e+001  1.330863e+001 
3434375000  -4.703553e+001  2.144025e+000 
3437500000  -4.773651e+001  -6.468637e+000 
3440625000  -4.780145e+001  -8.467107e+000 
3443750000  -4.671926e+001  -1.557253e+001 
3446875000  -4.574656e+001  -2.705697e+001 
3450000000  -4.518739e+001  -4.337188e+001 
3453125000  -4.595915e+001  -6.126169e+001 
3456250000  -4.748298e+001  -7.293286e+001 
3459375000  -4.818145e+001  -7.194255e+001 
3462500000  -4.814207e+001  -7.503864e+001 
3465625000  -4.737035e+001  -9.165146e+001 
3468750000  -4.777581e+001  -9.721632e+001 
3471875000  -4.685748e+001  -1.061083e+002 
3475000000  -4.674243e+001  -1.166499e+002 
3478125000  -4.749916e+001  -1.294315e+002 
3481250000  -4.970841e+001  -1.353082e+002 
3484375000  -4.842042e+001  -1.350775e+002 
3487500000  -4.762375e+001  -1.411995e+002 
3490625000  -4.694431e+001  -1.516316e+002 
3493750000  -4.755967e+001  -1.693186e+002 
3496875000  -4.850983e+001  -1.709650e+002 
3500000000  -4.860783e+001  -1.700784e+002 
3503125000  -4.771758e+001  -1.729354e+002 
3506250000  -4.543483e+001  1.703473e+002 
3509375000  -4.571141e+001  1.524099e+002 
3512500000  -4.627966e+001  1.367562e+002 
3515625000  -4.733699e+001  1.291653e+002 
3518750000  -4.803962e+001  1.291332e+002 
3521875000  -4.801662e+001  1.159185e+002 
3525000000  -4.846412e+001  1.183978e+002 
3528125000  -4.727926e+001  1.184082e+002 
3531250000  -4.644798e+001  1.073294e+002 
3534375000  -4.697440e+001  8.812733e+001 
3537500000  -4.784077e+001  7.779410e+001 
3540625000  -4.871497e+001  7.510014e+001 
3543750000  -4.958666e+001  8.010647e+001 
3546875000  -4.825745e+001  8.346085e+001 
3550000000  -4.641766e+001  7.261504e+001 
3553125000  -4.655685e+001  5.058754e+001 
3556250000  -4.701636e+001  4.471148e+001 
3559375000  -4.640737e+001  3.991567e+001 
3562500000  -4.640036e+001  3.094926e+001 
3565625000  -4.734967e+001  2.306170e+001 
3568750000  -4.795222e+001  2.218902e+001 
3571875000  -4.745797e+001  1.727774e+001 
3575000000  -4.704676e+001  1.041861e+001 
3578125000  -4.781870e+001  7.846105e+000 
3581250000  -4.732394e+001  3.549317e+000 
3584375000  -4.614818e+001  -4.858252e+000 
3587500000  -4.570027e+001  -1.732925e+001 
3590625000  -4.646505e+001  -2.776533e+001 
3593750000  -4.779134e+001  -3.080042e+001 
3596875000  -4.643954e+001  -2.384645e+001 
3600000000  -4.480221e+001  -3.641251e+001 
3603125000  -4.522318e+001  -5.111804e+001 
3606250000  -4.596564e+001  -5.684312e+001 
3609375000  -4.608133e+001  -6.168872e+001 
3612500000  -4.602256e+001  -6.675056e+001 
3615625000  -4.607260e+001  -7.086253e+001 
3618750000  -4.634761e+001  -7.311572e+001 
3621875000  -4.545228e+001  -7.987954e+001 
3625000000  -4.567868e+001  -8.248175e+001 
3628125000  -4.487845e+001  -9.032610e+001 
3631250000  -4.537830e+001  -1.000825e+002 
3634375000  -4.567643e+001  -9.851109e+001 
3637500000  -4.442085e+001  -1.022435e+002 
3640625000  -4.390171e+001  -1.097949e+002 
3643750000  -4.337190e+001  -1.200840e+002 
3646875000  -4.397419e+001  -1.306015e+002 
3650000000  -4.394189e+001  -1.363365e+002 
3653125000  -4.342698e+001  -1.434668e+002 
3656250000  -4.395012e+001  -1.516885e+002 
3659375000  -4.393736e+001  -1.530760e+002 
3662500000  -4.350368e+001  -1.613104e+002 
3665625000  -4.336572e+001  -1.658254e+002 
3668750000  -4.201690e+001  -1.692891e+002 
3671875000  -4.142271e+001  1.762696e+002 
3675000000  -4.239016e+001  1.671228e+002 
3678125000  -4.263585e+001  1.611460e+002 
3681250000  -4.235709e+001  1.560121e+002 
3684375000  -4.270988e+001  1.454501e+002 
3687500000  -4.297721e+001  1.394228e+002 
3690625000  -4.368021e+001  1.305762e+002 
3693750000  -4.441794e+001  1.304632e+002 
3696875000  -4.377834e+001  1.283301e+002 
3700000000  -4.319354e+001  1.198537e+002 
3703125000  -4.356300e+001  1.122368e+002 
3706250000  -4.462189e+001  1.098999e+002 
3709375000  -4.383905e+001  1.109050e+002 
3712500000  -4.309497e+001  1.044596e+002 
3715625000  -4.179417e+001  9.403019e+001 
3718750000  -4.159727e+001  8.337883e+001 
3721875000  -4.172801e+001  7.536848e+001 
3725000000  -4.236140e+001  6.743674e+001 
3728125000  -4.215425e+001  6.530512e+001 
3731250000  -4.197086e+001  5.841798e+001 
3734375000  -4.208607e+001  5.174074e+001 
3737500000  -4.277923e+001  4.063797e+001 
3740625000  -4.315323e+001  3.450106e+001 
3743750000  -4.247979e+001  2.955863e+001 
3746875000  -4.356655e+001  2.394222e+001 
3750000000  -4.361832e+001  1.833083e+001 
3753125000  -4.348849e+001  1.673734e+001 
3756250000  -4.401247e+001  1.166124e+001 
3759375000  -4.352011e+001  7.269823e+000 
3762500000  -4.332354e+001  1.955038e+000 
3765625000  -4.386132e+001  -3.651752e+000 
3768750000  -4.353035e+001  -2.563413e+000 
3771875000  -4.198569e+001  -1.267448e+001 
3775000000  -4.205816e+001  -1.994017e+001 
3778125000  -4.265931e+001  -2.658253e+001 
3781250000  -4.250335e+001  -3.139591e+001 
3784375000  -4.263261e+001  -3.591665e+001 
3787500000  -4.214047e+001  -4.317139e+001 
3790625000  -4.264104e+001  -5.362529e+001 
3793750000  -4.272923e+001  -5.708684e+001 
3796875000  -4.157188e+001  -6.223461e+001 
3800000000  -4.079406e+001  -6.928317e+001 
3803125000  -4.186508e+001  -8.197563e+001 
3806250000  -4.237125e+001  -8.512411e+001 
3809375000  -4.167461e+001  -9.116597e+001 
3812500000  -4.183372e+001  -1.036664e+002 
3815625000  -4.293806e+001  -1.134233e+002 
3818750000  -4.424997e+001  -1.091348e+002 
3821875000  -4.341506e+001  -9.967508e+001 
3825000000  -4.135523e+001  -1.069210e+002 
3828125000  -4.041962e+001  -1.270994e+002 
3831250000  -4.156440e+001  -1.437522e+002 
3834375000  -4.381800e+001  -1.436657e+002 
3837500000  -4.377648e+001  -1.407126e+002 
3840625000  -4.219309e+001  -1.445458e+002 
3843750000  -4.206476e+001  -1.609025e+002 
3846875000  -4.333107e+001  -1.672175e+002 
3850000000  -4.445295e+001  -1.632335e+002 
3853125000  -4.342506e+001  -1.651902e+002 
3856250000  -4.310199e+001  -1.731041e+002 
3859375000  -4.219533e+001  1.792860e+002 
3862500000  -4.209132e+001  1.703932e+002 
3865625000  -4.272155e+001  1.613970e+002 
3868750000  -4.224558e+001  1.585006e+002 
3871875000  -4.204350e+001  1.504467e+002 
3875000000  -4.271748e+001  1.391594e+002 
3878125000  -4.339283e+001  1.392240e+002 
3881250000  -4.308743e+001  1.366689e+002 
3884375000  -4.259135e+001  1.272131e+002 
3887500000  -4.326723e+001  1.183950e+002 
3890625000  -4.365111e+001  1.149411e+002 
3893750000  -4.386674e+001  1.128855e+002 
3896875000  -4.442549e+001  1.095230e+002 
3900000000  -4.397057e+001  1.041674e+002 
3903125000  -4.379227e+001  9.877506e+001 
3906250000  -4.314648e+001  9.550018e+001 
3909375000  -4.280007e+001  8.728659e+001 
3912500000  -4.380438e+001  7.581327e+001 
3915625000  -4.482335e+001  7.896758e+001 
3918750000  -4.428417e+001  7.557484e+001 
3921875000  -4.388396e+001  7.026615e+001 
3925000000  -4.298543e+001  6.553338e+001 
3928125000  -4.290907e+001  5.606102e+001 
3931250000  -4.355690e+001  4.726950e+001 
3934375000  -4.382158e+001  4.687231e+001 
3937500000  -4.432300e+001  4.431758e+001 
3940625000  -4.425380e+001  4.152859e+001 
3943750000  -4.339295e+001  3.551498e+001 
3946875000  -4.268422e+001  2.687591e+001 
3950000000  -4.361288e+001  1.933763e+001 
3953125000  -4.390646e+001  1.845626e+001 
3956250000  -4.277803e+001  2.156468e+001 
3959375000  -4.179105e+001  1.233787e+001 
3962500000  -4.155649e+001  1.256973e+000 
3965625000  -4.179322e+001  -8.656789e+000 
3968750000  -4.235207e+001  -2.020562e+001 
3971875000  -4.272560e+001  -2.456617e+001 
3975000000  -4.189250e+001  -2.576727e+001 
3978125000  -4.193178e+001  -3.530539e+001 
3981250000  -4.153455e+001  -4.306891e+001 
3984375000  -4.234439e+001  -4.837694e+001 
3987500000  -4.285192e+001  -5.381614e+001 
3990625000  -4.306234e+001  -5.794065e+001 
3993750000  -4.282212e+001  -6.500600e+001 
3996875000  -4.284669e+001  -7.207552e+001 
4000000000  -4.357376e+001  -7.470773e+001 
4003125000  -4.404074e+001  -7.466462e+001 
4006250000  -4.188013e+001  -7.895461e+001 
4009375000  -4.113189e+001  -9.842731e+001 
4012500000  -4.294531e+001  -1.037330e+002 
4015625000  -4.389535e+001  -1.060240e+002 
4018750000  -4.380862e+001  -1.061461e+002 
4021875000  -4.330091e+001  -1.178290e+002 
4025000000  -4.293549e+001  -1.235801e+002 
4028125000  -4.359615e+001  -1.320579e+002 
4031250000  -4.424281e+001  -1.388295e+002 
4034375000  -4.372502e+001  -1.393683e+002 
4037500000  -4.399166e+001  -1.442499e+002 
4040625000  -4.381417e+001  -1.488450e+002 
4043750000  -4.458026e+001  -1.518522e+002 
4046875000  -4.453989e+001  -1.571596e+002 
4050000000  -4.419131e+001  -1.674943e+002 
4053125000  -4.496269e+001  -1.695689e+002 
4056250000  -4.568097e+001  -1.620897e+002 
4059375000  -4.389150e+001  -1.668230e+002 
4062500000  -4.325000e+001  -1.747641e+002 
4065625000  -4.337623e+001  1.783662e+002 
4068750000  -4.283095e+001  1.701795e+002 
4071875000  -4.210308e+001  1.594762e+002 
4075000000  -4.352430e+001  1.508783e+002 
4078125000  -4.374915e+001  1.493631e+002 
4081250000  -4.345068e+001  1.470809e+002 
4084375000  -4.327196e+001  1.344698e+002 
4087500000  -4.389567e+001  1.256677e+002 
4090625000  -4.450835e+001  1.250100e+002 
4093750000  -4.401265e+001  1.223340e+002 
4096875000  -4.413808e+001  1.161110e+002 
4100000000  -4.509487e+001  1.099163e+002 
4103125000  -4.606415e+001  1.098254e+002 
4106250000  -4.480136e+001  1.123518e+002 
4109375000  -4.404525e+001  1.092080e+002 
4112500000  -4.412540e+001  9.928728e+001 
4115625000  -4.415949e+001  9.416161e+001 
4118750000  -4.373005e+001  8.782708e+001 
4121875000  -4.373451e+001  8.031680e+001 
4125000000  -4.444853e+001  7.282747e+001 
4128125000  -4.483583e+001  7.721481e+001 
4131250000  -4.373251e+001  7.891860e+001 
4134375000  -4.146774e+001  6.592069e+001 
4137500000  -4.239500e+001  4.668785e+001 
4140625000  -4.391906e+001  4.143181e+001 
4143750000  -4.446316e+001  4.683571e+001 
4146875000  -4.409127e+001  4.586184e+001 
4150000000  -4.276823e+001  3.832259e+001 
4153125000  -4.304937e+001  2.913787e+001 
4156250000  -4.403262e+001  2.312229e+001 
4159375000  -4.361403e+001  2.903945e+001 
4162500000  -4.257138e+001  2.613597e+001 
4165625000  -4.150124e+001  1.523321e+001 
4168750000  -4.102407e+001  3.791616e+000 
4171875000  -4.124521e+001  -6.830127e+000 
4175000000  -4.181755e+001  -1.633802e+001 
4178125000  -4.230296e+001  -1.725248e+001 
4181250000  -4.199091e+001  -2.730932e+001 
4184375000  -4.259433e+001  -3.103320e+001 
4187500000  -4.236195e+001  -3.938799e+001 
4190625000  -4.265454e+001  -4.904928e+001 
4193750000  -4.387725e+001  -5.604812e+001 
4196875000  -4.427768e+001  -5.372569e+001 
4200000000  -4.610583e+001  -4.904946e+001 
4203125000  -4.444968e+001  -3.990010e+001 
4206250000  -4.115902e+001  -5.004746e+001 
4209375000  -4.135186e+001  -7.603893e+001 
4212500000  -4.378195e+001  -8.470931e+001 
4215625000  -4.400197e+001  -7.659769e+001 
4218750000  -4.214128e+001  -7.520184e+001 
4221875000  -4.056691e+001  -8.431785e+001 
4225000000  -4.270116e+001  -9.831274e+001 
4228125000  -4.234492e+001  -9.619646e+001 
4231250000  -4.064387e+001  -1.059459e+002 
4234375000  -4.100330e+001  -1.167322e+002 
4237500000  -4.075020e+001  -1.233083e+002 
4240625000  -4.113982e+001  -1.330618e+002 
4243750000  -4.230297e+001  -1.420094e+002 
4246875000  -4.307594e+001  -1.403152e+002 
4250000000  -4.248801e+001  -1.429060e+002 
4253125000  -4.248534e+001  -1.450947e+002 
4256250000  -4.246858e+001  -1.502245e+002 
4259375000  -4.193920e+001  -1.565137e+002 
4262500000  -4.223258e+001  -1.633315e+002 
4265625000  -4.222537e+001  -1.625424e+002 
4268750000  -4.124760e+001  -1.696944e+002 
4271875000  -4.045766e+001  1.768886e+002 
4275000000  -4.006775e+001  1.682139e+002 
4278125000  -4.155936e+001  1.564522e+002 
4281250000  -4.251133e+001  1.555905e+002 
4284375000  -4.180626e+001  1.513606e+002 
4287500000  -4.380827e+001  1.474866e+002 
4290625000  -4.375529e+001  1.542899e+002 
4293750000  -4.127795e+001  1.540794e+002 
4296875000  -4.042111e+001  1.369477e+002 
4300000000  -4.164295e+001  1.282457e+002 
4303125000  -4.182580e+001  1.260760e+002 
4306250000  -4.059406e+001  1.285910e+002 
4309375000  -3.989577e+001  1.185624e+002 
4312500000  -3.999578e+001  1.048778e+002 
4315625000  -4.006646e+001  9.614588e+001 
4318750000  -4.071753e+001  9.160695e+001 
4321875000  -4.067978e+001  8.913327e+001 
4325000000  -4.002116e+001  8.546947e+001 
4328125000  -3.954883e+001  7.315701e+001 
4331250000  -3.970214e+001  6.212478e+001 
4334375000  -4.069021e+001  5.261742e+001 
4337500000  -4.225243e+001  5.010308e+001 
4340625000  -4.201790e+001  5.443318e+001 
4343750000  -4.115215e+001  5.000273e+001 
4346875000  -4.087759e+001  3.999047e+001 
4350000000  -4.091479e+001  3.047589e+001 
4353125000  -4.173300e+001  2.168103e+001 
4356250000  -4.403495e+001  2.396378e+001 
4359375000  -4.255505e+001  3.938856e+001 
4362500000  -3.898215e+001  2.759628e+001 
4365625000  -3.884439e+001  7.970706e+000 
4368750000  -4.017744e+001  -1.368548e+000 
4371875000  -4.109526e+001  -3.615470e+000 
4375000000  -4.031903e+001  -7.525646e+000 
4378125000  -4.042211e+001  -1.603321e+001 
4381250000  -4.059052e+001  -2.554577e+001 
4384375000  -4.060408e+001  -3.274607e+001 
4387500000  -4.125642e+001  -3.935208e+001 
4390625000  -4.246284e+001  -4.280165e+001 
4393750000  -4.120021e+001  -4.297492e+001 
4396875000  -4.119690e+001  -4.792675e+001 
4400000000  -4.068310e+001  -5.604026e+001 
4403125000  -4.176083e+001  -6.938681e+001 
4406250000  -4.213714e+001  -7.109139e+001 
4409375000  -4.258565e+001  -7.784496e+001 
4412500000  -4.336190e+001  -7.771156e+001 
4415625000  -4.309946e+001  -7.544519e+001 
4418750000  -4.218599e+001  -7.527864e+001 
