!Agilent Technologies,E8363B,MY43030201,A.06.04.32
!Agilent E8363B: A.06.04.32
!Date: Tuesday, November 11, 2014 21:44:47
!Correction: S21(Response(S21)) 
!S1P File: Measurement: S21:
# Hz S  dB   R 50
3000000000  -4.349801e+001  -1.604106e+002 
3003125000  -4.515283e+001  -1.651591e+002 
3006250000  -4.550579e+001  -1.674078e+002 
3009375000  -4.579643e+001  -1.641613e+002 
3012500000  -4.507718e+001  -1.689895e+002 
3015625000  -4.523188e+001  -1.766301e+002 
3018750000  -4.519644e+001  -1.773130e+002 
3021875000  -4.397699e+001  -1.782888e+002 
3025000000  -4.248981e+001  1.777398e+002 
3028125000  -4.169188e+001  1.654631e+002 
3031250000  -4.108192e+001  1.530652e+002 
3034375000  -4.058452e+001  1.386786e+002 
3037500000  -4.164738e+001  1.274516e+002 
3040625000  -4.291594e+001  1.203397e+002 
3043750000  -4.329849e+001  1.150025e+002 
3046875000  -4.404450e+001  1.082715e+002 
3050000000  -4.526254e+001  1.031918e+002 
3053125000  -4.485204e+001  1.065846e+002 
3056250000  -4.476249e+001  1.090558e+002 
3059375000  -4.403617e+001  1.077928e+002 
3062500000  -4.243184e+001  1.017418e+002 
3065625000  -4.221502e+001  9.017563e+001 
3068750000  -4.176384e+001  8.318699e+001 
3071875000  -4.189695e+001  7.998112e+001 
3075000000  -4.102703e+001  7.111025e+001 
3078125000  -4.117258e+001  6.510904e+001 
3081250000  -4.144596e+001  5.685682e+001 
3084375000  -4.039216e+001  5.203781e+001 
3087500000  -4.063367e+001  4.409846e+001 
3090625000  -3.998252e+001  3.122233e+001 
3093750000  -4.095380e+001  2.193175e+001 
3096875000  -4.141178e+001  1.605737e+001 
3100000000  -4.111742e+001  1.304916e+001 
3103125000  -4.136584e+001  8.449582e+000 
3106250000  -4.114911e+001  3.148697e+000 
3109375000  -4.100613e+001  -2.060513e+000 
3112500000  -4.075456e+001  -9.193915e+000 
3115625000  -4.088383e+001  -1.505093e+001 
3118750000  -4.074206e+001  -2.052258e+001 
3121875000  -4.013539e+001  -3.262854e+001 
3125000000  -4.207208e+001  -3.551279e+001 
3128125000  -4.199537e+001  -3.031584e+001 
3131250000  -3.949203e+001  -3.876447e+001 
3134375000  -3.891346e+001  -5.656559e+001 
3137500000  -3.973488e+001  -7.003915e+001 
3140625000  -4.092892e+001  -7.261982e+001 
3143750000  -4.165355e+001  -7.836940e+001 
3146875000  -4.129922e+001  -7.612406e+001 
3150000000  -4.037968e+001  -8.177385e+001 
3153125000  -4.076730e+001  -9.236895e+001 
3156250000  -4.138841e+001  -8.753897e+001 
3159375000  -3.924785e+001  -9.100336e+001 
3162500000  -3.792810e+001  -1.082377e+002 
3165625000  -3.916912e+001  -1.217621e+002 
3168750000  -3.897496e+001  -1.230317e+002 
3171875000  -3.861510e+001  -1.323085e+002 
3175000000  -3.919947e+001  -1.431203e+002 
3178125000  -3.892976e+001  -1.451658e+002 
3181250000  -3.815944e+001  -1.540258e+002 
3184375000  -3.777818e+001  -1.662641e+002 
3187500000  -3.921404e+001  1.793463e+002 
3190625000  -4.070145e+001  1.712283e+002 
3193750000  -4.118721e+001  1.750378e+002 
3196875000  -4.110504e+001  1.752301e+002 
3200000000  -3.978077e+001  1.690916e+002 
3203125000  -3.976633e+001  1.602350e+002 
3206250000  -3.984864e+001  1.529361e+002 
3209375000  -3.955861e+001  1.440824e+002 
3212500000  -4.005305e+001  1.375903e+002 
3215625000  -3.967586e+001  1.341593e+002 
3218750000  -4.039338e+001  1.219042e+002 
3221875000  -4.074884e+001  1.134528e+002 
3225000000  -4.057541e+001  1.093350e+002 
3228125000  -4.121890e+001  1.005764e+002 
3231250000  -4.143790e+001  9.763847e+001 
3234375000  -4.114827e+001  9.501988e+001 
3237500000  -4.114926e+001  9.086652e+001 
3240625000  -4.032952e+001  8.280266e+001 
3243750000  -4.041287e+001  7.130807e+001 
3246875000  -4.073372e+001  6.465520e+001 
3250000000  -4.126907e+001  5.842813e+001 
3253125000  -4.143097e+001  5.499934e+001 
3256250000  -4.056651e+001  4.438361e+001 
3259375000  -4.109171e+001  3.150121e+001 
3262500000  -4.246762e+001  2.642403e+001 
3265625000  -4.259365e+001  2.879643e+001 
3268750000  -4.231111e+001  2.648005e+001 
3271875000  -4.166505e+001  2.191841e+001 
3275000000  -4.123425e+001  1.096059e+001 
3278125000  -4.186324e+001  3.855159e+000 
3281250000  -4.179058e+001  -7.225862e-001 
3284375000  -4.107500e+001  -7.781278e+000 
3287500000  -4.165470e+001  -1.582289e+001 
3290625000  -4.165291e+001  -2.501546e+001 
3293750000  -4.148650e+001  -3.368518e+001 
3296875000  -4.293657e+001  -3.739599e+001 
3300000000  -4.207874e+001  -3.943156e+001 
3303125000  -4.119788e+001  -5.050751e+001 
3306250000  -4.109266e+001  -6.024165e+001 
3309375000  -4.073286e+001  -6.985131e+001 
3312500000  -4.115625e+001  -8.465874e+001 
3315625000  -4.251924e+001  -9.481447e+001 
3318750000  -4.389197e+001  -1.002058e+002 
3321875000  -4.540510e+001  -9.984435e+001 
3325000000  -4.497964e+001  -9.586592e+001 
3328125000  -4.422065e+001  -9.866576e+001 
3331250000  -4.256421e+001  -9.729772e+001 
3334375000  -4.061864e+001  -1.183808e+002 
3337500000  -4.100473e+001  -1.409399e+002 
3340625000  -4.300588e+001  -1.516550e+002 
3343750000  -4.478288e+001  -1.536065e+002 
3346875000  -4.440940e+001  -1.558615e+002 
3350000000  -4.358460e+001  -1.613911e+002 
3353125000  -4.345599e+001  -1.714334e+002 
3356250000  -4.321358e+001  1.787052e+002 
3359375000  -4.441411e+001  1.668001e+002 
3362500000  -4.526494e+001  1.582412e+002 
3365625000  -4.590512e+001  1.496254e+002 
3368750000  -4.647989e+001  1.449128e+002 
3371875000  -4.722827e+001  1.400060e+002 
3375000000  -4.836507e+001  1.331147e+002 
3378125000  -4.951714e+001  1.296779e+002 
3381250000  -5.045280e+001  1.422990e+002 
3384375000  -4.790506e+001  1.524904e+002 
3387500000  -4.464138e+001  1.276901e+002 
3390625000  -4.655160e+001  1.080669e+002 
3393750000  -4.715698e+001  1.026127e+002 
3396875000  -4.639029e+001  1.015241e+002 
3400000000  -4.656566e+001  8.611501e+001 
3403125000  -4.662302e+001  7.805476e+001 
3406250000  -4.758204e+001  7.152731e+001 
3409375000  -4.689042e+001  6.007810e+001 
3412500000  -4.757308e+001  5.218089e+001 
3415625000  -4.901867e+001  4.951075e+001 
3418750000  -4.881107e+001  4.240504e+001 
3421875000  -4.978251e+001  3.936819e+001 
3425000000  -4.789000e+001  3.933247e+001 
3428125000  -4.734012e+001  2.738335e+001 
3431250000  -4.724522e+001  1.325321e+001 
3434375000  -4.712774e+001  2.552660e+000 
3437500000  -4.782046e+001  -5.867534e+000 
3440625000  -4.822023e+001  -9.078140e+000 
3443750000  -4.669683e+001  -1.380524e+001 
3446875000  -4.601623e+001  -2.832144e+001 
3450000000  -4.559543e+001  -4.409666e+001 
3453125000  -4.553875e+001  -6.010345e+001 
3456250000  -4.685733e+001  -7.095391e+001 
3459375000  -4.842190e+001  -7.070815e+001 
3462500000  -4.786896e+001  -7.062437e+001 
3465625000  -4.750327e+001  -9.036051e+001 
3468750000  -4.746214e+001  -9.368719e+001 
3471875000  -4.737888e+001  -1.036270e+002 
3475000000  -4.685011e+001  -1.168702e+002 
3478125000  -4.800340e+001  -1.311979e+002 
3481250000  -4.883988e+001  -1.322156e+002 
3484375000  -4.871915e+001  -1.331532e+002 
3487500000  -4.752260e+001  -1.388774e+002 
3490625000  -4.763374e+001  -1.540461e+002 
3493750000  -4.846379e+001  -1.639472e+002 
3496875000  -4.804112e+001  -1.681531e+002 
3500000000  -4.860464e+001  -1.722616e+002 
3503125000  -4.723791e+001  -1.726574e+002 
3506250000  -4.513230e+001  1.729241e+002 
3509375000  -4.579265e+001  1.508917e+002 
3512500000  -4.622717e+001  1.391178e+002 
3515625000  -4.745251e+001  1.324305e+002 
3518750000  -4.790540e+001  1.313638e+002 
3521875000  -4.808087e+001  1.216969e+002 
3525000000  -4.874526e+001  1.157780e+002 
3528125000  -4.742036e+001  1.180886e+002 
3531250000  -4.633012e+001  1.051101e+002 
3534375000  -4.646494e+001  9.006319e+001 
3537500000  -4.779538e+001  8.229738e+001 
3540625000  -4.868640e+001  7.866036e+001 
3543750000  -4.945763e+001  7.919420e+001 
3546875000  -4.936843e+001  8.178117e+001 
3550000000  -4.613562e+001  7.698828e+001 
3553125000  -4.584111e+001  5.429286e+001 
3556250000  -4.754214e+001  4.574791e+001 
3559375000  -4.651706e+001  4.459145e+001 
3562500000  -4.669925e+001  3.289724e+001 
3565625000  -4.745148e+001  2.421241e+001 
3568750000  -4.773603e+001  2.605728e+001 
3571875000  -4.737308e+001  1.994535e+001 
3575000000  -4.663537e+001  8.294840e+000 
3578125000  -4.753614e+001  9.779854e+000 
3581250000  -4.767189e+001  5.097025e+000 
3584375000  -4.556203e+001  -4.487378e+000 
3587500000  -4.607918e+001  -1.368713e+001 
3590625000  -4.605170e+001  -2.123382e+001 
3593750000  -4.750441e+001  -2.706307e+001 
3596875000  -4.634271e+001  -1.882959e+001 
3600000000  -4.493888e+001  -3.220844e+001 
3603125000  -4.513324e+001  -4.630614e+001 
3606250000  -4.599536e+001  -5.367102e+001 
3609375000  -4.623899e+001  -5.980395e+001 
3612500000  -4.562730e+001  -6.481403e+001 
3615625000  -4.613158e+001  -6.690391e+001 
3618750000  -4.605830e+001  -7.089154e+001 
3621875000  -4.536464e+001  -7.484804e+001 
3625000000  -4.571130e+001  -8.061804e+001 
3628125000  -4.466667e+001  -8.766166e+001 
3631250000  -4.517097e+001  -9.656091e+001 
3634375000  -4.535288e+001  -9.851662e+001 
3637500000  -4.468820e+001  -9.900285e+001 
3640625000  -4.341817e+001  -1.056549e+002 
3643750000  -4.310284e+001  -1.177097e+002 
3646875000  -4.404507e+001  -1.281710e+002 
3650000000  -4.378137e+001  -1.318416e+002 
3653125000  -4.312108e+001  -1.418903e+002 
3656250000  -4.419853e+001  -1.486709e+002 
3659375000  -4.358072e+001  -1.510410e+002 
3662500000  -4.325056e+001  -1.586902e+002 
3665625000  -4.349578e+001  -1.632517e+002 
3668750000  -4.205840e+001  -1.665555e+002 
3671875000  -4.169234e+001  1.784452e+002 
3675000000  -4.236261e+001  1.705566e+002 
3678125000  -4.246093e+001  1.642583e+002 
3681250000  -4.234691e+001  1.582781e+002 
3684375000  -4.278439e+001  1.491965e+002 
3687500000  -4.309819e+001  1.404244e+002 
3690625000  -4.360217e+001  1.367832e+002 
3693750000  -4.463019e+001  1.336717e+002 
3696875000  -4.399908e+001  1.310842e+002 
3700000000  -4.313681e+001  1.214869e+002 
3703125000  -4.334866e+001  1.145749e+002 
3706250000  -4.457477e+001  1.114803e+002 
3709375000  -4.389724e+001  1.144759e+002 
3712500000  -4.301574e+001  1.058844e+002 
3715625000  -4.197466e+001  9.727784e+001 
3718750000  -4.156894e+001  8.594219e+001 
3721875000  -4.183373e+001  7.761439e+001 
3725000000  -4.255162e+001  7.035468e+001 
3728125000  -4.228052e+001  6.771547e+001 
3731250000  -4.208802e+001  6.122356e+001 
3734375000  -4.218389e+001  5.270074e+001 
3737500000  -4.296965e+001  4.278914e+001 
3740625000  -4.294525e+001  3.858132e+001 
3743750000  -4.280710e+001  2.830858e+001 
3746875000  -4.354593e+001  2.663092e+001 
3750000000  -4.370013e+001  2.239491e+001 
3753125000  -4.390186e+001  1.876995e+001 
3756250000  -4.372224e+001  1.687121e+001 
3759375000  -4.364072e+001  9.915882e+000 
3762500000  -4.320835e+001  4.606938e+000 
3765625000  -4.418298e+001  -7.179647e-001 
3768750000  -4.327709e+001  1.499374e-001 
3771875000  -4.222384e+001  -6.393951e+000 
3775000000  -4.202403e+001  -1.761405e+001 
3778125000  -4.294701e+001  -2.228281e+001 
3781250000  -4.284318e+001  -2.928434e+001 
3784375000  -4.235799e+001  -3.672596e+001 
3787500000  -4.225374e+001  -4.047604e+001 
3790625000  -4.274133e+001  -4.972726e+001 
3793750000  -4.275678e+001  -5.382029e+001 
3796875000  -4.164840e+001  -5.977479e+001 
3800000000  -4.091115e+001  -6.508592e+001 
3803125000  -4.158071e+001  -7.512352e+001 
3806250000  -4.256314e+001  -8.328260e+001 
3809375000  -4.189637e+001  -8.582804e+001 
3812500000  -4.167161e+001  -9.862195e+001 
3815625000  -4.294495e+001  -1.103381e+002 
3818750000  -4.468316e+001  -1.066542e+002 
3821875000  -4.353079e+001  -9.696748e+001 
3825000000  -4.157025e+001  -1.018471e+002 
3828125000  -4.069973e+001  -1.230343e+002 
3831250000  -4.163665e+001  -1.392222e+002 
3834375000  -4.370274e+001  -1.398033e+002 
3837500000  -4.372211e+001  -1.378207e+002 
3840625000  -4.260959e+001  -1.420379e+002 
3843750000  -4.185784e+001  -1.555738e+002 
3846875000  -4.374933e+001  -1.664292e+002 
3850000000  -4.401928e+001  -1.569575e+002 
3853125000  -4.338826e+001  -1.591404e+002 
3856250000  -4.273220e+001  -1.679477e+002 
3859375000  -4.228958e+001  -1.790970e+002 
3862500000  -4.226382e+001  1.696181e+002 
3865625000  -4.266082e+001  1.635202e+002 
3868750000  -4.195961e+001  1.625453e+002 
3871875000  -4.211271e+001  1.553784e+002 
3875000000  -4.234704e+001  1.449377e+002 
3878125000  -4.336309e+001  1.402541e+002 
3881250000  -4.340594e+001  1.377738e+002 
3884375000  -4.253211e+001  1.303089e+002 
3887500000  -4.317211e+001  1.231002e+002 
3890625000  -4.389293e+001  1.178277e+002 
3893750000  -4.418498e+001  1.169397e+002 
3896875000  -4.406007e+001  1.141213e+002 
3900000000  -4.447458e+001  1.095238e+002 
3903125000  -4.379707e+001  1.042813e+002 
3906250000  -4.356866e+001  1.003023e+002 
3909375000  -4.282711e+001  8.902061e+001 
3912500000  -4.400869e+001  8.124474e+001 
3915625000  -4.438844e+001  8.089907e+001 
3918750000  -4.461073e+001  7.727512e+001 
3921875000  -4.383275e+001  7.504693e+001 
3925000000  -4.310342e+001  6.812866e+001 
3928125000  -4.274119e+001  5.680482e+001 
3931250000  -4.362015e+001  4.993577e+001 
3934375000  -4.411096e+001  4.709142e+001 
3937500000  -4.480978e+001  4.518243e+001 
3940625000  -4.430138e+001  4.395535e+001 
3943750000  -4.300602e+001  3.754108e+001 
3946875000  -4.294590e+001  2.845427e+001 
3950000000  -4.386892e+001  1.843945e+001 
3953125000  -4.477789e+001  2.184390e+001 
3956250000  -4.320949e+001  2.405106e+001 
3959375000  -4.213393e+001  1.601631e+001 
3962500000  -4.137071e+001  2.562651e+000 
3965625000  -4.209113e+001  -9.463593e+000 
3968750000  -4.300912e+001  -1.842902e+001 
3971875000  -4.272990e+001  -2.087846e+001 
3975000000  -4.192284e+001  -2.428950e+001 
3978125000  -4.205019e+001  -3.146253e+001 
3981250000  -4.203429e+001  -3.945498e+001 
3984375000  -4.265036e+001  -4.786917e+001 
3987500000  -4.296783e+001  -5.106794e+001 
3990625000  -4.298018e+001  -5.689630e+001 
3993750000  -4.316304e+001  -6.026425e+001 
3996875000  -4.315015e+001  -6.830740e+001 
4000000000  -4.365046e+001  -7.163988e+001 
4003125000  -4.359798e+001  -7.183002e+001 
4006250000  -4.201040e+001  -7.847230e+001 
4009375000  -4.103414e+001  -9.266937e+001 
4012500000  -4.316468e+001  -9.935787e+001 
4015625000  -4.406205e+001  -1.034456e+002 
4018750000  -4.393287e+001  -1.070921e+002 
4021875000  -4.312394e+001  -1.155733e+002 
4025000000  -4.343640e+001  -1.202673e+002 
4028125000  -4.344333e+001  -1.265594e+002 
4031250000  -4.386938e+001  -1.352045e+002 
4034375000  -4.451878e+001  -1.388963e+002 
4037500000  -4.436267e+001  -1.416816e+002 
4040625000  -4.410525e+001  -1.467427e+002 
4043750000  -4.491016e+001  -1.485670e+002 
4046875000  -4.408804e+001  -1.556948e+002 
4050000000  -4.408355e+001  -1.629919e+002 
4053125000  -4.484729e+001  -1.675576e+002 
4056250000  -4.578418e+001  -1.633144e+002 
4059375000  -4.435384e+001  -1.630503e+002 
4062500000  -4.336932e+001  -1.730960e+002 
4065625000  -4.390247e+001  -1.786184e+002 
4068750000  -4.310939e+001  1.719132e+002 
4071875000  -4.300032e+001  1.596436e+002 
4075000000  -4.416449e+001  1.570167e+002 
4078125000  -4.398008e+001  1.530978e+002 
4081250000  -4.390807e+001  1.479062e+002 
4084375000  -4.397371e+001  1.379715e+002 
4087500000  -4.408295e+001  1.300897e+002 
4090625000  -4.485105e+001  1.295468e+002 
4093750000  -4.499116e+001  1.269376e+002 
4096875000  -4.464560e+001  1.171300e+002 
4100000000  -4.561300e+001  1.110800e+002 
4103125000  -4.612930e+001  1.155716e+002 
4106250000  -4.514908e+001  1.114713e+002 
4109375000  -4.485950e+001  1.111406e+002 
4112500000  -4.407619e+001  1.010556e+002 
4115625000  -4.452843e+001  9.797945e+001 
4118750000  -4.443887e+001  8.949799e+001 
4121875000  -4.394350e+001  8.347086e+001 
4125000000  -4.458158e+001  7.205457e+001 
4128125000  -4.534821e+001  7.990292e+001 
4131250000  -4.399605e+001  8.464590e+001 
4134375000  -4.221861e+001  7.111441e+001 
4137500000  -4.260195e+001  5.115100e+001 
4140625000  -4.434863e+001  4.460877e+001 
4143750000  -4.498565e+001  4.832037e+001 
4146875000  -4.472908e+001  4.955625e+001 
4150000000  -4.298470e+001  4.330173e+001 
4153125000  -4.332559e+001  3.135695e+001 
4156250000  -4.398106e+001  2.706820e+001 
4159375000  -4.404657e+001  3.005223e+001 
4162500000  -4.270829e+001  2.679781e+001 
4165625000  -4.156545e+001  1.725280e+001 
4168750000  -4.179824e+001  7.447162e+000 
4171875000  -4.136698e+001  -1.764326e+000 
4175000000  -4.226648e+001  -1.609731e+001 
4178125000  -4.279112e+001  -1.750548e+001 
4181250000  -4.220812e+001  -2.362565e+001 
4184375000  -4.270461e+001  -3.022878e+001 
4187500000  -4.259493e+001  -3.473727e+001 
4190625000  -4.297659e+001  -4.522956e+001 
4193750000  -4.457140e+001  -5.168787e+001 
4196875000  -4.515365e+001  -5.286404e+001 
4200000000  -4.625387e+001  -4.443988e+001 
4203125000  -4.441504e+001  -3.647192e+001 
4206250000  -4.131042e+001  -4.865969e+001 
4209375000  -4.190776e+001  -7.134107e+001 
4212500000  -4.406438e+001  -7.674904e+001 
4215625000  -4.474557e+001  -7.214005e+001 
4218750000  -4.277884e+001  -6.935762e+001 
4221875000  -4.165517e+001  -8.021937e+001 
4225000000  -4.263251e+001  -9.586644e+001 
4228125000  -4.268092e+001  -8.986047e+001 
4231250000  -4.130185e+001  -1.008040e+002 
4234375000  -4.144633e+001  -1.139022e+002 
4237500000  -4.119467e+001  -1.176618e+002 
4240625000  -4.168636e+001  -1.285607e+002 
4243750000  -4.270033e+001  -1.404217e+002 
4246875000  -4.317322e+001  -1.374973e+002 
4250000000  -4.319781e+001  -1.366488e+002 
4253125000  -4.284018e+001  -1.415652e+002 
4256250000  -4.287498e+001  -1.445707e+002 
4259375000  -4.259770e+001  -1.538296e+002 
4262500000  -4.279904e+001  -1.578216e+002 
4265625000  -4.233892e+001  -1.564907e+002 
4268750000  -4.143243e+001  -1.689535e+002 
4271875000  -4.112234e+001  -1.782361e+002 
4275000000  -4.085984e+001  1.729119e+002 
4278125000  -4.190983e+001  1.592560e+002 
4281250000  -4.276730e+001  1.584368e+002 
4284375000  -4.263869e+001  1.569658e+002 
4287500000  -4.399833e+001  1.530004e+002 
4290625000  -4.414277e+001  1.561346e+002 
4293750000  -4.186485e+001  1.561293e+002 
4296875000  -4.104239e+001  1.415976e+002 
4300000000  -4.173511e+001  1.331828e+002 
4303125000  -4.244145e+001  1.330904e+002 
4306250000  -4.132823e+001  1.301509e+002 
4309375000  -4.026611e+001  1.226919e+002 
4312500000  -3.973900e+001  1.107624e+002 
4315625000  -4.055899e+001  9.962299e+001 
4318750000  -4.149370e+001  9.721393e+001 
4321875000  -4.122335e+001  9.172896e+001 
4325000000  -4.058959e+001  9.004146e+001 
4328125000  -3.956143e+001  7.811911e+001 
4331250000  -4.013517e+001  6.688118e+001 
4334375000  -4.143319e+001  5.886095e+001 
4337500000  -4.252698e+001  5.692085e+001 
4340625000  -4.236436e+001  5.827322e+001 
4343750000  -4.164601e+001  5.519323e+001 
4346875000  -4.148700e+001  4.268387e+001 
4350000000  -4.162312e+001  3.571255e+001 
4353125000  -4.284906e+001  2.681315e+001 
4356250000  -4.438894e+001  2.835675e+001 
4359375000  -4.278984e+001  4.007074e+001 
4362500000  -3.972662e+001  3.328624e+001 
4365625000  -3.965522e+001  1.312547e+001 
4368750000  -4.095502e+001  3.294094e+000 
4371875000  -4.219336e+001  -5.518888e-001 
4375000000  -4.154270e+001  -4.917145e+000 
4378125000  -4.085744e+001  -1.056809e+001 
4381250000  -4.122986e+001  -2.138214e+001 
4384375000  -4.103315e+001  -2.734623e+001 
4387500000  -4.212641e+001  -3.477250e+001 
4390625000  -4.252578e+001  -3.738121e+001 
4393750000  -4.229378e+001  -3.934766e+001 
4396875000  -4.147570e+001  -4.215297e+001 
4400000000  -4.097697e+001  -5.078075e+001 
4403125000  -4.205759e+001  -6.053535e+001 
4406250000  -4.261314e+001  -6.765615e+001 
4409375000  -4.313875e+001  -7.344666e+001 
4412500000  -4.397057e+001  -7.335542e+001 
4415625000  -4.361588e+001  -7.181657e+001 
4418750000  -4.217054e+001  -7.166251e+001 
