!Agilent Technologies,E8363B,MY43030201,A.06.04.32
!Agilent E8363B: A.06.04.32
!Date: Tuesday, November 11, 2014 21:46:55
!Correction: S21(Response(S21)) 
!S1P File: Measurement: S21:
# Hz S  dB   R 50
3000000000  -4.377897e+001  -1.618881e+002 
3003125000  -4.530565e+001  -1.645781e+002 
3006250000  -4.530653e+001  -1.652046e+002 
3009375000  -4.590906e+001  -1.630840e+002 
3012500000  -4.478045e+001  -1.708853e+002 
3015625000  -4.502245e+001  -1.775162e+002 
3018750000  -4.537888e+001  -1.796647e+002 
3021875000  -4.386047e+001  -1.771877e+002 
3025000000  -4.255345e+001  1.769379e+002 
3028125000  -4.182445e+001  1.655044e+002 
3031250000  -4.084785e+001  1.524186e+002 
3034375000  -4.078558e+001  1.382652e+002 
3037500000  -4.164704e+001  1.261368e+002 
3040625000  -4.280455e+001  1.198223e+002 
3043750000  -4.334651e+001  1.135187e+002 
3046875000  -4.423186e+001  1.064461e+002 
3050000000  -4.518491e+001  1.027421e+002 
3053125000  -4.488289e+001  1.048133e+002 
3056250000  -4.473133e+001  1.091681e+002 
3059375000  -4.416166e+001  1.068580e+002 
3062500000  -4.254077e+001  9.964658e+001 
3065625000  -4.225454e+001  8.775770e+001 
3068750000  -4.183520e+001  8.069454e+001 
3071875000  -4.177408e+001  7.836144e+001 
3075000000  -4.140253e+001  7.027426e+001 
3078125000  -4.132993e+001  6.400750e+001 
3081250000  -4.127216e+001  5.732693e+001 
3084375000  -4.038511e+001  5.072688e+001 
3087500000  -4.054559e+001  4.370980e+001 
3090625000  -3.996924e+001  3.074937e+001 
3093750000  -4.107681e+001  2.163539e+001 
3096875000  -4.133406e+001  1.544362e+001 
3100000000  -4.103815e+001  1.222971e+001 
3103125000  -4.129222e+001  6.778946e+000 
3106250000  -4.080669e+001  1.983969e+000 
3109375000  -4.088603e+001  -3.424259e+000 
3112500000  -4.083735e+001  -1.034485e+001 
3115625000  -4.087199e+001  -1.578664e+001 
3118750000  -4.078684e+001  -2.074726e+001 
3121875000  -4.020249e+001  -3.147774e+001 
3125000000  -4.200593e+001  -3.718846e+001 
3128125000  -4.212586e+001  -2.970814e+001 
3131250000  -3.945395e+001  -3.925860e+001 
3134375000  -3.884607e+001  -5.620906e+001 
3137500000  -3.944333e+001  -6.948864e+001 
3140625000  -4.091032e+001  -7.405090e+001 
3143750000  -4.154677e+001  -7.674480e+001 
3146875000  -4.118896e+001  -7.732941e+001 
3150000000  -4.034728e+001  -8.279626e+001 
3153125000  -4.081953e+001  -9.208609e+001 
3156250000  -4.145130e+001  -8.821243e+001 
3159375000  -3.926131e+001  -9.170780e+001 
3162500000  -3.763636e+001  -1.089943e+002 
3165625000  -3.894149e+001  -1.215009e+002 
3168750000  -3.887432e+001  -1.236468e+002 
3171875000  -3.843396e+001  -1.333210e+002 
3175000000  -3.916425e+001  -1.434415e+002 
3178125000  -3.876158e+001  -1.454623e+002 
3181250000  -3.807488e+001  -1.546354e+002 
3184375000  -3.784261e+001  -1.670837e+002 
3187500000  -3.929325e+001  1.791258e+002 
3190625000  -4.096036e+001  1.691559e+002 
3193750000  -4.124110e+001  1.749109e+002 
3196875000  -4.096188e+001  1.746540e+002 
3200000000  -3.980266e+001  1.680497e+002 
3203125000  -3.967615e+001  1.602336e+002 
3206250000  -3.975731e+001  1.519050e+002 
3209375000  -3.961002e+001  1.425947e+002 
3212500000  -3.985324e+001  1.355580e+002 
3215625000  -3.951002e+001  1.334260e+002 
3218750000  -4.032935e+001  1.198647e+002 
3221875000  -4.064368e+001  1.133617e+002 
3225000000  -4.044329e+001  1.071192e+002 
3228125000  -4.113564e+001  1.005599e+002 
3231250000  -4.142406e+001  9.644438e+001 
3234375000  -4.086513e+001  9.290031e+001 
3237500000  -4.094910e+001  9.064256e+001 
3240625000  -4.025219e+001  8.255707e+001 
3243750000  -4.017807e+001  7.141763e+001 
3246875000  -4.037948e+001  6.379209e+001 
3250000000  -4.114871e+001  5.773671e+001 
3253125000  -4.106420e+001  5.451441e+001 
3256250000  -4.036257e+001  4.428606e+001 
3259375000  -4.087263e+001  3.137580e+001 
3262500000  -4.243819e+001  2.623327e+001 
3265625000  -4.256604e+001  2.823263e+001 
3268750000  -4.247621e+001  2.746734e+001 
3271875000  -4.156732e+001  2.045271e+001 
3275000000  -4.116253e+001  9.436231e+000 
3278125000  -4.162446e+001  2.967850e+000 
3281250000  -4.181467e+001  -3.410071e-001 
3284375000  -4.097602e+001  -8.537782e+000 
3287500000  -4.141823e+001  -1.708782e+001 
3290625000  -4.157342e+001  -2.679815e+001 
3293750000  -4.145427e+001  -3.359027e+001 
3296875000  -4.268505e+001  -3.701248e+001 
3300000000  -4.189648e+001  -4.132861e+001 
3303125000  -4.104850e+001  -5.079519e+001 
3306250000  -4.078989e+001  -6.030360e+001 
3309375000  -4.058645e+001  -7.104960e+001 
3312500000  -4.110669e+001  -8.582449e+001 
3315625000  -4.242390e+001  -9.333370e+001 
3318750000  -4.373236e+001  -1.014701e+002 
3321875000  -4.506872e+001  -9.789444e+001 
3325000000  -4.491901e+001  -9.348495e+001 
3328125000  -4.372125e+001  -9.791474e+001 
3331250000  -4.241197e+001  -9.739300e+001 
3334375000  -4.015586e+001  -1.185153e+002 
3337500000  -4.081175e+001  -1.411734e+002 
3340625000  -4.279396e+001  -1.521520e+002 
3343750000  -4.466931e+001  -1.527609e+002 
3346875000  -4.401551e+001  -1.581752e+002 
3350000000  -4.370109e+001  -1.622837e+002 
3353125000  -4.331416e+001  -1.700362e+002 
3356250000  -4.319815e+001  -1.799744e+002 
3359375000  -4.429742e+001  1.665524e+002 
3362500000  -4.506865e+001  1.573355e+002 
3365625000  -4.582723e+001  1.523578e+002 
3368750000  -4.609671e+001  1.439029e+002 
3371875000  -4.694419e+001  1.395545e+002 
3375000000  -4.868043e+001  1.346222e+002 
3378125000  -4.967820e+001  1.281819e+002 
3381250000  -5.037350e+001  1.437687e+002 
3384375000  -4.734440e+001  1.507794e+002 
3387500000  -4.465324e+001  1.275873e+002 
3390625000  -4.675953e+001  1.068656e+002 
3393750000  -4.758503e+001  1.076386e+002 
3396875000  -4.636123e+001  1.009809e+002 
3400000000  -4.645813e+001  8.663815e+001 
3403125000  -4.656596e+001  7.742361e+001 
3406250000  -4.764725e+001  7.196038e+001 
3409375000  -4.695504e+001  6.026865e+001 
3412500000  -4.787371e+001  5.384360e+001 
3415625000  -4.859670e+001  4.941151e+001 
3418750000  -4.830167e+001  4.257880e+001 
3421875000  -4.926372e+001  4.282086e+001 
3425000000  -4.749182e+001  3.417201e+001 
3428125000  -4.648324e+001  2.634301e+001 
3431250000  -4.680201e+001  1.507494e+001 
3434375000  -4.684478e+001  1.791484e+000 
3437500000  -4.800138e+001  -2.735014e+000 
3440625000  -4.771321e+001  -1.018784e+001 
3443750000  -4.659376e+001  -1.168057e+001 
3446875000  -4.558321e+001  -2.801028e+001 
3450000000  -4.516597e+001  -4.268365e+001 
3453125000  -4.552571e+001  -5.906660e+001 
3456250000  -4.697217e+001  -6.960122e+001 
3459375000  -4.906367e+001  -7.286367e+001 
3462500000  -4.790807e+001  -7.560230e+001 
3465625000  -4.709431e+001  -9.420302e+001 
3468750000  -4.790906e+001  -9.606965e+001 
3471875000  -4.762814e+001  -1.033002e+002 
3475000000  -4.700871e+001  -1.166212e+002 
3478125000  -4.763090e+001  -1.295960e+002 
3481250000  -4.909618e+001  -1.333869e+002 
3484375000  -4.845746e+001  -1.352874e+002 
3487500000  -4.725978e+001  -1.445035e+002 
3490625000  -4.727696e+001  -1.522741e+002 
3493750000  -4.772863e+001  -1.671672e+002 
3496875000  -4.787424e+001  -1.685809e+002 
3500000000  -4.838198e+001  -1.745710e+002 
3503125000  -4.726600e+001  -1.756544e+002 
3506250000  -4.593210e+001  1.693343e+002 
3509375000  -4.583532e+001  1.511056e+002 
3512500000  -4.618169e+001  1.368217e+002 
3515625000  -4.730508e+001  1.312246e+002 
3518750000  -4.739105e+001  1.286008e+002 
3521875000  -4.788608e+001  1.161813e+002 
3525000000  -4.864946e+001  1.155225e+002 
3528125000  -4.759881e+001  1.182404e+002 
3531250000  -4.690239e+001  1.025585e+002 
3534375000  -4.717116e+001  8.578699e+001 
3537500000  -4.765109e+001  7.894489e+001 
3540625000  -4.887009e+001  7.374696e+001 
3543750000  -4.933537e+001  7.636612e+001 
3546875000  -4.903476e+001  8.136986e+001 
3550000000  -4.647356e+001  7.300945e+001 
3553125000  -4.593923e+001  5.470262e+001 
3556250000  -4.693216e+001  4.702826e+001 
3559375000  -4.623600e+001  4.412437e+001 
3562500000  -4.619439e+001  3.232740e+001 
3565625000  -4.750890e+001  2.620482e+001 
3568750000  -4.840068e+001  2.622156e+001 
3571875000  -4.754412e+001  1.775813e+001 
3575000000  -4.705391e+001  1.119201e+001 
3578125000  -4.787340e+001  4.018129e+000 
3581250000  -4.782093e+001  4.330995e+000 
3584375000  -4.619633e+001  -3.834469e+000 
3587500000  -4.569658e+001  -1.662143e+001 
3590625000  -4.643238e+001  -2.449389e+001 
3593750000  -4.774832e+001  -2.361418e+001 
3596875000  -4.665131e+001  -2.591370e+001 
3600000000  -4.478061e+001  -3.323440e+001 
3603125000  -4.548952e+001  -4.752757e+001 
3606250000  -4.601364e+001  -5.461627e+001 
3609375000  -4.612960e+001  -5.642889e+001 
3612500000  -4.638706e+001  -6.386356e+001 
3615625000  -4.604904e+001  -7.010853e+001 
3618750000  -4.657821e+001  -7.379890e+001 
3621875000  -4.572309e+001  -7.867543e+001 
3625000000  -4.543755e+001  -8.232181e+001 
3628125000  -4.478920e+001  -8.835165e+001 
3631250000  -4.498380e+001  -9.731843e+001 
3634375000  -4.566332e+001  -1.002871e+002 
3637500000  -4.428297e+001  -9.959978e+001 
3640625000  -4.398484e+001  -1.060560e+002 
3643750000  -4.308899e+001  -1.174806e+002 
3646875000  -4.381495e+001  -1.293914e+002 
3650000000  -4.399008e+001  -1.346815e+002 
3653125000  -4.333971e+001  -1.420746e+002 
3656250000  -4.397843e+001  -1.490493e+002 
3659375000  -4.383839e+001  -1.542413e+002 
3662500000  -4.334722e+001  -1.600303e+002 
3665625000  -4.342007e+001  -1.651982e+002 
3668750000  -4.213340e+001  -1.673599e+002 
3671875000  -4.141172e+001  1.763418e+002 
3675000000  -4.209879e+001  1.666828e+002 
3678125000  -4.278109e+001  1.622351e+002 
3681250000  -4.234423e+001  1.555386e+002 
3684375000  -4.269160e+001  1.490806e+002 
3687500000  -4.297506e+001  1.393305e+002 
3690625000  -4.374527e+001  1.328582e+002 
3693750000  -4.448968e+001  1.324896e+002 
3696875000  -4.390048e+001  1.296627e+002 
3700000000  -4.327654e+001  1.224818e+002 
3703125000  -4.369545e+001  1.144110e+002 
3706250000  -4.446225e+001  1.095978e+002 
3709375000  -4.418131e+001  1.108275e+002 
3712500000  -4.294583e+001  1.042448e+002 
3715625000  -4.183389e+001  9.583887e+001 
3718750000  -4.148303e+001  8.581110e+001 
3721875000  -4.184269e+001  7.637508e+001 
3725000000  -4.247520e+001  6.740849e+001 
3728125000  -4.261199e+001  6.440779e+001 
3731250000  -4.184994e+001  5.779296e+001 
3734375000  -4.207399e+001  5.274104e+001 
3737500000  -4.273166e+001  4.049324e+001 
3740625000  -4.341199e+001  3.529410e+001 
3743750000  -4.251246e+001  2.810779e+001 
3746875000  -4.333549e+001  2.303035e+001 
3750000000  -4.364328e+001  2.018115e+001 
3753125000  -4.391567e+001  1.694358e+001 
3756250000  -4.365831e+001  1.367421e+001 
3759375000  -4.367339e+001  8.583518e+000 
3762500000  -4.324051e+001  4.529502e+000 
3765625000  -4.406768e+001  -8.433737e-001 
3768750000  -4.372479e+001  -6.881680e-001 
3771875000  -4.186895e+001  -8.248694e+000 
3775000000  -4.200351e+001  -2.096983e+001 
3778125000  -4.271191e+001  -2.854589e+001 
3781250000  -4.242809e+001  -2.866942e+001 
3784375000  -4.258459e+001  -3.421086e+001 
3787500000  -4.256829e+001  -3.908392e+001 
3790625000  -4.276408e+001  -5.127405e+001 
3793750000  -4.239379e+001  -5.682426e+001 
3796875000  -4.154668e+001  -5.899199e+001 
3800000000  -4.067600e+001  -6.718710e+001 
3803125000  -4.166706e+001  -7.949730e+001 
3806250000  -4.273447e+001  -8.433122e+001 
3809375000  -4.165189e+001  -8.868674e+001 
3812500000  -4.140520e+001  -9.747889e+001 
3815625000  -4.301542e+001  -1.103188e+002 
3818750000  -4.447188e+001  -1.104074e+002 
3821875000  -4.326871e+001  -1.001999e+002 
3825000000  -4.131377e+001  -1.047606e+002 
3828125000  -4.018123e+001  -1.254330e+002 
3831250000  -4.166573e+001  -1.406723e+002 
3834375000  -4.369244e+001  -1.407073e+002 
3837500000  -4.388824e+001  -1.366344e+002 
3840625000  -4.229519e+001  -1.456627e+002 
3843750000  -4.183212e+001  -1.604635e+002 
3846875000  -4.348824e+001  -1.671663e+002 
3850000000  -4.462372e+001  -1.586738e+002 
3853125000  -4.321905e+001  -1.621975e+002 
3856250000  -4.314177e+001  -1.712546e+002 
3859375000  -4.192344e+001  -1.786896e+002 
3862500000  -4.222087e+001  1.705771e+002 
3865625000  -4.289503e+001  1.620952e+002 
3868750000  -4.227130e+001  1.627699e+002 
3871875000  -4.179023e+001  1.528134e+002 
3875000000  -4.257327e+001  1.412448e+002 
3878125000  -4.332693e+001  1.400594e+002 
3881250000  -4.327718e+001  1.362336e+002 
3884375000  -4.244524e+001  1.286765e+002 
3887500000  -4.326824e+001  1.198148e+002 
3890625000  -4.425390e+001  1.186891e+002 
3893750000  -4.433905e+001  1.115151e+002 
3896875000  -4.449643e+001  1.120337e+002 
3900000000  -4.466119e+001  1.075205e+002 
3903125000  -4.332294e+001  1.017410e+002 
3906250000  -4.381205e+001  9.744250e+001 
3909375000  -4.245766e+001  8.854142e+001 
3912500000  -4.366316e+001  8.051010e+001 
3915625000  -4.497012e+001  8.023894e+001 
3918750000  -4.409917e+001  7.669376e+001 
3921875000  -4.373494e+001  7.544581e+001 
3925000000  -4.290981e+001  6.294244e+001 
3928125000  -4.286870e+001  5.642253e+001 
3931250000  -4.348932e+001  4.914178e+001 
3934375000  -4.391652e+001  4.687989e+001 
3937500000  -4.470039e+001  4.675922e+001 
3940625000  -4.442451e+001  4.527716e+001 
3943750000  -4.306338e+001  3.713196e+001 
3946875000  -4.271051e+001  2.824517e+001 
3950000000  -4.357175e+001  1.991394e+001 
3953125000  -4.464149e+001  1.968191e+001 
3956250000  -4.264042e+001  1.984300e+001 
3959375000  -4.187203e+001  1.456641e+001 
3962500000  -4.124808e+001  2.496412e+000 
3965625000  -4.165381e+001  -8.139344e+000 
3968750000  -4.256506e+001  -1.584941e+001 
3971875000  -4.215827e+001  -2.048801e+001 
3975000000  -4.183079e+001  -2.534391e+001 
3978125000  -4.206113e+001  -3.094227e+001 
3981250000  -4.181714e+001  -4.025068e+001 
3984375000  -4.218657e+001  -4.639621e+001 
3987500000  -4.291898e+001  -5.338713e+001 
3990625000  -4.286648e+001  -5.672375e+001 
3993750000  -4.309720e+001  -6.208221e+001 
3996875000  -4.285717e+001  -6.923482e+001 
4000000000  -4.339238e+001  -7.264037e+001 
4003125000  -4.381617e+001  -7.190341e+001 
4006250000  -4.213311e+001  -8.027191e+001 
4009375000  -4.134310e+001  -9.664911e+001 
4012500000  -4.269660e+001  -1.035088e+002 
4015625000  -4.407130e+001  -1.046379e+002 
4018750000  -4.386762e+001  -1.101463e+002 
4021875000  -4.286767e+001  -1.153754e+002 
4025000000  -4.291682e+001  -1.220375e+002 
4028125000  -4.338349e+001  -1.322156e+002 
4031250000  -4.398933e+001  -1.371173e+002 
4034375000  -4.419052e+001  -1.397695e+002 
4037500000  -4.425790e+001  -1.425927e+002 
4040625000  -4.423824e+001  -1.473772e+002 
4043750000  -4.447134e+001  -1.511056e+002 
4046875000  -4.406663e+001  -1.559570e+002 
4050000000  -4.446656e+001  -1.645352e+002 
4053125000  -4.520498e+001  -1.694308e+002 
4056250000  -4.548830e+001  -1.601032e+002 
4059375000  -4.382520e+001  -1.651504e+002 
4062500000  -4.332925e+001  -1.733574e+002 
4065625000  -4.368885e+001  1.799958e+002 
4068750000  -4.291216e+001  1.719993e+002 
4071875000  -4.228623e+001  1.622345e+002 
4075000000  -4.331742e+001  1.531574e+002 
4078125000  -4.382238e+001  1.515410e+002 
4081250000  -4.324236e+001  1.448692e+002 
4084375000  -4.353196e+001  1.361612e+002 
4087500000  -4.382290e+001  1.304259e+002 
4090625000  -4.485296e+001  1.262253e+002 
4093750000  -4.447128e+001  1.252988e+002 
4096875000  -4.385382e+001  1.172357e+002 
4100000000  -4.519058e+001  1.110994e+002 
4103125000  -4.623620e+001  1.170462e+002 
4106250000  -4.511153e+001  1.166507e+002 
4109375000  -4.414792e+001  1.091020e+002 
4112500000  -4.453801e+001  9.798998e+001 
4115625000  -4.397199e+001  9.669134e+001 
4118750000  -4.450782e+001  8.917434e+001 
4121875000  -4.362473e+001  8.405096e+001 
4125000000  -4.448492e+001  7.803788e+001 
4128125000  -4.541710e+001  7.987835e+001 
4131250000  -4.369175e+001  8.234617e+001 
4134375000  -4.169782e+001  7.007832e+001 
4137500000  -4.197783e+001  5.098808e+001 
4140625000  -4.426409e+001  4.229940e+001 
4143750000  -4.498254e+001  4.723706e+001 
4146875000  -4.407595e+001  4.933811e+001 
4150000000  -4.259306e+001  3.753068e+001 
4153125000  -4.305840e+001  3.066299e+001 
4156250000  -4.414610e+001  2.633129e+001 
4159375000  -4.376146e+001  2.848726e+001 
4162500000  -4.269030e+001  2.607810e+001 
4165625000  -4.155082e+001  1.580913e+001 
4168750000  -4.132533e+001  8.234588e+000 
4171875000  -4.111235e+001  -8.190866e+000 
4175000000  -4.198836e+001  -1.607620e+001 
4178125000  -4.248108e+001  -1.888967e+001 
4181250000  -4.210739e+001  -2.483555e+001 
4184375000  -4.230237e+001  -2.817392e+001 
4187500000  -4.235313e+001  -3.656470e+001 
4190625000  -4.271566e+001  -4.842002e+001 
4193750000  -4.391527e+001  -5.112944e+001 
4196875000  -4.480713e+001  -5.656865e+001 
4200000000  -4.620428e+001  -5.002020e+001 
4203125000  -4.447124e+001  -3.931649e+001 
4206250000  -4.119688e+001  -4.975367e+001 
4209375000  -4.179068e+001  -7.630978e+001 
4212500000  -4.387471e+001  -7.810937e+001 
4215625000  -4.412786e+001  -7.385092e+001 
4218750000  -4.255567e+001  -7.285305e+001 
4221875000  -4.078558e+001  -8.379066e+001 
4225000000  -4.214618e+001  -9.661610e+001 
4228125000  -4.225692e+001  -9.397978e+001 
4231250000  -4.107791e+001  -1.010426e+002 
4234375000  -4.093456e+001  -1.118855e+002 
4237500000  -4.088924e+001  -1.218927e+002 
4240625000  -4.123534e+001  -1.300609e+002 
4243750000  -4.219943e+001  -1.389131e+002 
4246875000  -4.282866e+001  -1.392657e+002 
4250000000  -4.276578e+001  -1.410515e+002 
4253125000  -4.265085e+001  -1.440237e+002 
4256250000  -4.242013e+001  -1.502782e+002 
4259375000  -4.197836e+001  -1.563187e+002 
4262500000  -4.212209e+001  -1.620648e+002 
4265625000  -4.218762e+001  -1.595696e+002 
4268750000  -4.084642e+001  -1.700120e+002 
4271875000  -4.075146e+001  -1.796692e+002 
4275000000  -4.042762e+001  1.692355e+002 
4278125000  -4.148683e+001  1.571118e+002 
4281250000  -4.254887e+001  1.548103e+002 
4284375000  -4.226514e+001  1.523150e+002 
4287500000  -4.369175e+001  1.503421e+002 
4290625000  -4.329844e+001  1.570766e+002 
4293750000  -4.182872e+001  1.546684e+002 
4296875000  -4.001608e+001  1.391328e+002 
4300000000  -4.132159e+001  1.279399e+002 
4303125000  -4.206810e+001  1.308596e+002 
4306250000  -4.071621e+001  1.281020e+002 
4309375000  -3.993879e+001  1.195655e+002 
4312500000  -3.949369e+001  1.072114e+002 
4315625000  -4.010316e+001  9.796966e+001 
4318750000  -4.089168e+001  9.372721e+001 
4321875000  -4.094986e+001  9.210459e+001 
4325000000  -3.988342e+001  8.655630e+001 
4328125000  -3.923027e+001  7.422299e+001 
4331250000  -3.961714e+001  6.396553e+001 
4334375000  -4.086459e+001  5.505828e+001 
4337500000  -4.164791e+001  5.341296e+001 
4340625000  -4.204774e+001  5.635127e+001 
4343750000  -4.128247e+001  5.071690e+001 
4346875000  -4.117991e+001  3.985073e+001 
4350000000  -4.105586e+001  3.114234e+001 
4353125000  -4.185463e+001  2.468519e+001 
4356250000  -4.390609e+001  2.817834e+001 
4359375000  -4.217215e+001  3.717713e+001 
4362500000  -3.935394e+001  2.908998e+001 
4365625000  -3.894554e+001  1.189427e+001 
4368750000  -4.050637e+001  1.584456e-001 
4371875000  -4.103366e+001  2.690349e-001 
4375000000  -4.107952e+001  -6.806690e+000 
4378125000  -4.087934e+001  -1.555106e+001 
4381250000  -4.066327e+001  -2.325944e+001 
4384375000  -4.082244e+001  -3.128739e+001 
4387500000  -4.164115e+001  -3.613678e+001 
4390625000  -4.220488e+001  -3.952814e+001 
4393750000  -4.183313e+001  -4.006591e+001 
4396875000  -4.097406e+001  -4.797757e+001 
4400000000  -4.085278e+001  -5.476577e+001 
4403125000  -4.123117e+001  -6.588918e+001 
4406250000  -4.220079e+001  -6.902455e+001 
4409375000  -4.230591e+001  -7.296551e+001 
4412500000  -4.359297e+001  -7.656964e+001 
4415625000  -4.339530e+001  -7.232890e+001 
4418750000  -4.203419e+001  -7.582808e+001 
