!Agilent Technologies,E8363B,MY43030201,A.06.04.32
!Agilent E8363B: A.06.04.32
!Date: Tuesday, November 11, 2014 21:52:27
!Correction: S21(Response(S21)) 
!S1P File: Measurement: S21:
# Hz S  dB   R 50
3000000000  -4.371528e+001  -1.634762e+002 
3003125000  -4.557762e+001  -1.668657e+002 
3006250000  -4.537072e+001  -1.697711e+002 
3009375000  -4.592721e+001  -1.656158e+002 
3012500000  -4.500043e+001  -1.732834e+002 
3015625000  -4.506679e+001  1.785885e+002 
3018750000  -4.522453e+001  1.795151e+002 
3021875000  -4.395721e+001  -1.798503e+002 
3025000000  -4.268798e+001  1.748963e+002 
3028125000  -4.184235e+001  1.632396e+002 
3031250000  -4.105467e+001  1.500036e+002 
3034375000  -4.065452e+001  1.355620e+002 
3037500000  -4.162491e+001  1.259488e+002 
3040625000  -4.299129e+001  1.181656e+002 
3043750000  -4.351609e+001  1.111004e+002 
3046875000  -4.405621e+001  1.066121e+002 
3050000000  -4.542115e+001  9.917400e+001 
3053125000  -4.474308e+001  1.044133e+002 
3056250000  -4.458303e+001  1.067533e+002 
3059375000  -4.403047e+001  1.036224e+002 
3062500000  -4.247961e+001  1.003923e+002 
3065625000  -4.225658e+001  8.648904e+001 
3068750000  -4.182455e+001  7.929803e+001 
3071875000  -4.173351e+001  7.677845e+001 
3075000000  -4.140421e+001  6.860757e+001 
3078125000  -4.119711e+001  6.221673e+001 
3081250000  -4.123502e+001  5.453114e+001 
3084375000  -4.052943e+001  4.893787e+001 
3087500000  -4.061467e+001  4.188957e+001 
3090625000  -4.007406e+001  2.961217e+001 
3093750000  -4.117141e+001  2.090479e+001 
3096875000  -4.116379e+001  1.469433e+001 
3100000000  -4.115719e+001  1.003500e+001 
3103125000  -4.142994e+001  5.819686e+000 
3106250000  -4.111887e+001  7.789683e-001 
3109375000  -4.110604e+001  -4.589648e+000 
3112500000  -4.091191e+001  -1.424019e+001 
3115625000  -4.077296e+001  -1.725955e+001 
3118750000  -4.082160e+001  -2.253319e+001 
3121875000  -4.034444e+001  -3.518458e+001 
3125000000  -4.216123e+001  -3.698303e+001 
3128125000  -4.195542e+001  -3.125907e+001 
3131250000  -3.949319e+001  -4.098556e+001 
3134375000  -3.876029e+001  -5.847380e+001 
3137500000  -3.947760e+001  -7.224867e+001 
3140625000  -4.111171e+001  -7.462648e+001 
3143750000  -4.149054e+001  -7.994936e+001 
3146875000  -4.120447e+001  -7.882887e+001 
3150000000  -4.026157e+001  -8.293487e+001 
3153125000  -4.059935e+001  -9.339742e+001 
3156250000  -4.129622e+001  -9.013850e+001 
3159375000  -3.917077e+001  -9.316152e+001 
3162500000  -3.782035e+001  -1.095535e+002 
3165625000  -3.903812e+001  -1.242151e+002 
3168750000  -3.894075e+001  -1.251970e+002 
3171875000  -3.857366e+001  -1.346192e+002 
3175000000  -3.909919e+001  -1.444734e+002 
3178125000  -3.882197e+001  -1.470690e+002 
3181250000  -3.825850e+001  -1.554617e+002 
3184375000  -3.786296e+001  -1.683193e+002 
3187500000  -3.925259e+001  1.755385e+002 
3190625000  -4.087065e+001  1.689256e+002 
3193750000  -4.112279e+001  1.725552e+002 
3196875000  -4.108098e+001  1.729635e+002 
3200000000  -3.977889e+001  1.665704e+002 
3203125000  -3.962366e+001  1.579065e+002 
3206250000  -3.987173e+001  1.506777e+002 
3209375000  -3.946609e+001  1.411452e+002 
3212500000  -3.989705e+001  1.334572e+002 
3215625000  -3.959377e+001  1.318884e+002 
3218750000  -4.023458e+001  1.182328e+002 
3221875000  -4.061684e+001  1.115057e+002 
3225000000  -4.050174e+001  1.061354e+002 
3228125000  -4.105756e+001  9.944669e+001 
3231250000  -4.148602e+001  9.528146e+001 
3234375000  -4.116191e+001  9.227896e+001 
3237500000  -4.081532e+001  8.669699e+001 
3240625000  -4.017982e+001  8.054211e+001 
3243750000  -4.023220e+001  6.976614e+001 
3246875000  -4.078428e+001  6.295343e+001 
3250000000  -4.110848e+001  5.589736e+001 
3253125000  -4.097894e+001  5.317258e+001 
3256250000  -4.037391e+001  4.198389e+001 
3259375000  -4.082822e+001  2.942539e+001 
3262500000  -4.233025e+001  2.654734e+001 
3265625000  -4.282724e+001  2.595386e+001 
3268750000  -4.252897e+001  2.608438e+001 
3271875000  -4.164796e+001  1.930230e+001 
3275000000  -4.101301e+001  7.891382e+000 
3278125000  -4.166726e+001  2.265722e+000 
3281250000  -4.188421e+001  -2.229283e+000 
3284375000  -4.085103e+001  -1.004306e+001 
3287500000  -4.167679e+001  -1.628128e+001 
3290625000  -4.149857e+001  -2.771688e+001 
3293750000  -4.149064e+001  -3.565319e+001 
3296875000  -4.261976e+001  -3.994946e+001 
3300000000  -4.192450e+001  -4.060102e+001 
3303125000  -4.090324e+001  -5.179718e+001 
3306250000  -4.092465e+001  -6.149226e+001 
3309375000  -4.067659e+001  -7.078259e+001 
3312500000  -4.100842e+001  -8.823660e+001 
3315625000  -4.227188e+001  -9.495345e+001 
3318750000  -4.366548e+001  -1.008869e+002 
3321875000  -4.491284e+001  -1.025496e+002 
3325000000  -4.513309e+001  -9.636165e+001 
3328125000  -4.379963e+001  -9.746397e+001 
3331250000  -4.235542e+001  -9.989859e+001 
3334375000  -4.014717e+001  -1.188311e+002 
3337500000  -4.072742e+001  -1.438172e+002 
3340625000  -4.279691e+001  -1.534131e+002 
3343750000  -4.474812e+001  -1.527215e+002 
3346875000  -4.365778e+001  -1.579032e+002 
3350000000  -4.369212e+001  -1.632287e+002 
3353125000  -4.351745e+001  -1.730291e+002 
3356250000  -4.327497e+001  1.776961e+002 
3359375000  -4.424923e+001  1.647893e+002 
3362500000  -4.501607e+001  1.555539e+002 
3365625000  -4.554168e+001  1.505115e+002 
3368750000  -4.618961e+001  1.450163e+002 
3371875000  -4.716136e+001  1.395501e+002 
3375000000  -4.883001e+001  1.342895e+002 
3378125000  -4.915709e+001  1.312946e+002 
3381250000  -5.122497e+001  1.467380e+002 
3384375000  -4.770030e+001  1.502066e+002 
3387500000  -4.484707e+001  1.270234e+002 
3390625000  -4.637694e+001  1.039239e+002 
3393750000  -4.790850e+001  1.005378e+002 
3396875000  -4.620234e+001  9.875945e+001 
3400000000  -4.623925e+001  8.598377e+001 
3403125000  -4.654659e+001  7.737623e+001 
3406250000  -4.724602e+001  6.984675e+001 
3409375000  -4.696982e+001  6.118467e+001 
3412500000  -4.792305e+001  5.254699e+001 
3415625000  -4.856358e+001  4.739537e+001 
3418750000  -4.869362e+001  4.205025e+001 
3421875000  -4.901861e+001  4.125451e+001 
3425000000  -4.779934e+001  3.317715e+001 
3428125000  -4.758655e+001  2.678624e+001 
3431250000  -4.643473e+001  1.478844e+001 
3434375000  -4.666674e+001  2.284922e+000 
3437500000  -4.735456e+001  -5.354174e+000 
3440625000  -4.757859e+001  -8.959087e+000 
3443750000  -4.668911e+001  -1.398831e+001 
3446875000  -4.583417e+001  -2.846816e+001 
3450000000  -4.545499e+001  -4.443515e+001 
3453125000  -4.574183e+001  -6.085707e+001 
3456250000  -4.742846e+001  -7.175068e+001 
3459375000  -4.794296e+001  -7.341169e+001 
3462500000  -4.777987e+001  -7.970337e+001 
3465625000  -4.742543e+001  -9.034789e+001 
3468750000  -4.759848e+001  -9.739352e+001 
3471875000  -4.719241e+001  -1.016523e+002 
3475000000  -4.709848e+001  -1.188368e+002 
3478125000  -4.771334e+001  -1.301634e+002 
3481250000  -4.891988e+001  -1.388059e+002 
3484375000  -4.860803e+001  -1.337791e+002 
3487500000  -4.693519e+001  -1.425023e+002 
3490625000  -4.744684e+001  -1.554631e+002 
3493750000  -4.809401e+001  -1.674943e+002 
3496875000  -4.843980e+001  -1.695269e+002 
3500000000  -4.859983e+001  -1.714550e+002 
3503125000  -4.669492e+001  -1.746337e+002 
3506250000  -4.590595e+001  1.696681e+002 
3509375000  -4.556004e+001  1.484651e+002 
3512500000  -4.606594e+001  1.323357e+002 
3515625000  -4.725418e+001  1.293676e+002 
3518750000  -4.777973e+001  1.284786e+002 
3521875000  -4.790077e+001  1.174401e+002 
3525000000  -4.889838e+001  1.118182e+002 
3528125000  -4.699990e+001  1.151619e+002 
3531250000  -4.675594e+001  1.038634e+002 
3534375000  -4.694917e+001  8.939642e+001 
3537500000  -4.781303e+001  7.576399e+001 
3540625000  -4.909315e+001  7.535165e+001 
3543750000  -4.911242e+001  7.871064e+001 
3546875000  -4.858310e+001  7.913072e+001 
3550000000  -4.652999e+001  7.135838e+001 
3553125000  -4.622064e+001  4.991483e+001 
3556250000  -4.698708e+001  4.648996e+001 
3559375000  -4.662439e+001  4.162522e+001 
3562500000  -4.667381e+001  3.078712e+001 
3565625000  -4.771189e+001  2.186421e+001 
3568750000  -4.856831e+001  2.183071e+001 
3571875000  -4.755948e+001  1.779436e+001 
3575000000  -4.674284e+001  1.078154e+001 
3578125000  -4.783210e+001  3.236466e+000 
3581250000  -4.792698e+001  1.850794e+000 
3584375000  -4.555516e+001  -5.382972e+000 
3587500000  -4.569563e+001  -1.806017e+001 
3590625000  -4.632872e+001  -2.748938e+001 
3593750000  -4.758279e+001  -2.844736e+001 
3596875000  -4.658029e+001  -2.294115e+001 
3600000000  -4.471884e+001  -3.336414e+001 
3603125000  -4.487573e+001  -4.690050e+001 
3606250000  -4.570473e+001  -5.822911e+001 
3609375000  -4.582930e+001  -5.943229e+001 
3612500000  -4.605616e+001  -6.569741e+001 
3615625000  -4.603505e+001  -7.080598e+001 
3618750000  -4.633115e+001  -7.187973e+001 
3621875000  -4.518940e+001  -8.054596e+001 
3625000000  -4.584609e+001  -8.468160e+001 
3628125000  -4.467693e+001  -8.988964e+001 
3631250000  -4.481948e+001  -9.802579e+001 
3634375000  -4.550298e+001  -1.018822e+002 
3637500000  -4.443485e+001  -1.022911e+002 
3640625000  -4.393479e+001  -1.087654e+002 
3643750000  -4.359434e+001  -1.197888e+002 
3646875000  -4.390722e+001  -1.298305e+002 
3650000000  -4.375251e+001  -1.366442e+002 
3653125000  -4.309241e+001  -1.443109e+002 
3656250000  -4.425093e+001  -1.501441e+002 
3659375000  -4.349212e+001  -1.547887e+002 
3662500000  -4.337895e+001  -1.635244e+002 
3665625000  -4.317141e+001  -1.651538e+002 
3668750000  -4.216933e+001  -1.708046e+002 
3671875000  -4.140363e+001  1.744706e+002 
3675000000  -4.243132e+001  1.667296e+002 
3678125000  -4.266312e+001  1.598885e+002 
3681250000  -4.251374e+001  1.537532e+002 
3684375000  -4.281858e+001  1.476866e+002 
3687500000  -4.329754e+001  1.384182e+002 
3690625000  -4.385969e+001  1.316062e+002 
3693750000  -4.435454e+001  1.310023e+002 
3696875000  -4.398349e+001  1.257751e+002 
3700000000  -4.320787e+001  1.210835e+002 
3703125000  -4.390296e+001  1.115742e+002 
3706250000  -4.464878e+001  1.069205e+002 
3709375000  -4.398121e+001  1.091238e+002 
3712500000  -4.277399e+001  1.033731e+002 
3715625000  -4.157938e+001  9.135596e+001 
3718750000  -4.186880e+001  8.503872e+001 
3721875000  -4.160222e+001  7.423730e+001 
3725000000  -4.219058e+001  6.694675e+001 
3728125000  -4.239828e+001  6.466550e+001 
3731250000  -4.182615e+001  5.651816e+001 
3734375000  -4.185235e+001  5.064425e+001 
3737500000  -4.271345e+001  4.182333e+001 
3740625000  -4.315412e+001  3.452435e+001 
3743750000  -4.257989e+001  2.979750e+001 
3746875000  -4.323377e+001  2.301746e+001 
3750000000  -4.358682e+001  1.860096e+001 
3753125000  -4.365107e+001  1.657498e+001 
3756250000  -4.368023e+001  1.085841e+001 
3759375000  -4.359735e+001  5.792102e+000 
3762500000  -4.350325e+001  3.297531e-001 
3765625000  -4.418877e+001  -3.988702e+000 
3768750000  -4.307204e+001  -1.716235e+000 
3771875000  -4.199946e+001  -1.022386e+001 
3775000000  -4.210947e+001  -2.167591e+001 
3778125000  -4.245517e+001  -2.727678e+001 
3781250000  -4.225298e+001  -3.031019e+001 
3784375000  -4.248065e+001  -3.839920e+001 
3787500000  -4.233453e+001  -4.550032e+001 
3790625000  -4.270699e+001  -5.367621e+001 
3793750000  -4.275546e+001  -5.755914e+001 
3796875000  -4.159409e+001  -6.142483e+001 
3800000000  -4.069492e+001  -6.931240e+001 
3803125000  -4.179222e+001  -8.183521e+001 
3806250000  -4.220697e+001  -8.773210e+001 
3809375000  -4.199623e+001  -9.227045e+001 
3812500000  -4.185823e+001  -1.034460e+002 
3815625000  -4.310021e+001  -1.135323e+002 
3818750000  -4.443746e+001  -1.110941e+002 
3821875000  -4.392793e+001  -1.019957e+002 
3825000000  -4.113515e+001  -1.068802e+002 
3828125000  -4.060093e+001  -1.288577e+002 
3831250000  -4.116921e+001  -1.426858e+002 
3834375000  -4.345507e+001  -1.437717e+002 
3837500000  -4.373400e+001  -1.406569e+002 
3840625000  -4.247919e+001  -1.482964e+002 
3843750000  -4.199615e+001  -1.628076e+002 
3846875000  -4.346804e+001  -1.688582e+002 
3850000000  -4.415470e+001  -1.646576e+002 
3853125000  -4.352741e+001  -1.661787e+002 
3856250000  -4.276487e+001  -1.718914e+002 
3859375000  -4.235337e+001  1.786070e+002 
3862500000  -4.200316e+001  1.682109e+002 
3865625000  -4.271568e+001  1.597409e+002 
3868750000  -4.183052e+001  1.588125e+002 
3871875000  -4.158893e+001  1.514530e+002 
3875000000  -4.240303e+001  1.382160e+002 
3878125000  -4.338217e+001  1.369405e+002 
3881250000  -4.329211e+001  1.364278e+002 
3884375000  -4.281425e+001  1.269688e+002 
3887500000  -4.327341e+001  1.187864e+002 
3890625000  -4.424113e+001  1.165660e+002 
3893750000  -4.450831e+001  1.134648e+002 
3896875000  -4.414761e+001  1.112539e+002 
3900000000  -4.460950e+001  1.042378e+002 
3903125000  -4.348732e+001  9.971450e+001 
3906250000  -4.323423e+001  9.301299e+001 
3909375000  -4.234021e+001  8.739582e+001 
3912500000  -4.380703e+001  7.923412e+001 
3915625000  -4.510064e+001  7.720579e+001 
3918750000  -4.449307e+001  7.676588e+001 
3921875000  -4.398255e+001  7.042543e+001 
3925000000  -4.314451e+001  6.330073e+001 
3928125000  -4.272176e+001  5.425671e+001 
3931250000  -4.381382e+001  4.760091e+001 
3934375000  -4.404784e+001  4.434093e+001 
3937500000  -4.488873e+001  4.003841e+001 
3940625000  -4.477716e+001  3.868644e+001 
3943750000  -4.302375e+001  3.703776e+001 
3946875000  -4.261728e+001  2.732269e+001 
3950000000  -4.342068e+001  2.022372e+001 
3953125000  -4.462288e+001  1.640611e+001 
3956250000  -4.274590e+001  2.067665e+001 
3959375000  -4.156804e+001  1.170299e+001 
3962500000  -4.140631e+001  -4.649338e-001 
3965625000  -4.155728e+001  -1.419702e+001 
3968750000  -4.261570e+001  -1.850666e+001 
3971875000  -4.245889e+001  -2.285645e+001 
3975000000  -4.209649e+001  -2.759131e+001 
3978125000  -4.221993e+001  -3.361002e+001 
3981250000  -4.182583e+001  -4.112257e+001 
3984375000  -4.226056e+001  -4.931266e+001 
3987500000  -4.277784e+001  -5.336005e+001 
3990625000  -4.296742e+001  -5.844111e+001 
3993750000  -4.310999e+001  -6.515856e+001 
3996875000  -4.315271e+001  -7.245046e+001 
4000000000  -4.358965e+001  -7.585464e+001 
4003125000  -4.380912e+001  -7.721996e+001 
4006250000  -4.195357e+001  -8.159401e+001 
4009375000  -4.082032e+001  -9.632071e+001 
4012500000  -4.271827e+001  -1.080496e+002 
4015625000  -4.388420e+001  -1.073972e+002 
4018750000  -4.369776e+001  -1.093106e+002 
4021875000  -4.324276e+001  -1.150958e+002 
4025000000  -4.320643e+001  -1.245517e+002 
4028125000  -4.318883e+001  -1.325074e+002 
4031250000  -4.393270e+001  -1.370130e+002 
4034375000  -4.399488e+001  -1.430439e+002 
4037500000  -4.410355e+001  -1.429939e+002 
4040625000  -4.410183e+001  -1.507404e+002 
4043750000  -4.464036e+001  -1.528712e+002 
4046875000  -4.410427e+001  -1.573306e+002 
4050000000  -4.425197e+001  -1.649416e+002 
4053125000  -4.495848e+001  -1.677908e+002 
4056250000  -4.599073e+001  -1.635389e+002 
4059375000  -4.339146e+001  -1.657659e+002 
4062500000  -4.324401e+001  -1.760268e+002 
4065625000  -4.378872e+001  1.796103e+002 
4068750000  -4.295191e+001  1.707434e+002 
4071875000  -4.252319e+001  1.610988e+002 
4075000000  -4.330423e+001  1.517875e+002 
4078125000  -4.374184e+001  1.526587e+002 
4081250000  -4.319980e+001  1.428528e+002 
4084375000  -4.360498e+001  1.344706e+002 
4087500000  -4.367742e+001  1.263653e+002 
4090625000  -4.445212e+001  1.242643e+002 
4093750000  -4.442694e+001  1.231003e+002 
4096875000  -4.409192e+001  1.138745e+002 
4100000000  -4.481879e+001  1.082531e+002 
4103125000  -4.550877e+001  1.108335e+002 
4106250000  -4.537175e+001  1.107382e+002 
4109375000  -4.412584e+001  1.071556e+002 
4112500000  -4.406900e+001  9.504330e+001 
4115625000  -4.413708e+001  9.213859e+001 
4118750000  -4.398872e+001  8.803038e+001 
4121875000  -4.373740e+001  8.168754e+001 
4125000000  -4.432068e+001  7.146794e+001 
4128125000  -4.475378e+001  7.672606e+001 
4131250000  -4.377890e+001  7.996146e+001 
4134375000  -4.160811e+001  6.689571e+001 
4137500000  -4.217804e+001  4.550410e+001 
4140625000  -4.377884e+001  3.952401e+001 
4143750000  -4.456416e+001  4.681120e+001 
4146875000  -4.382519e+001  4.725380e+001 
4150000000  -4.252811e+001  3.491640e+001 
4153125000  -4.295210e+001  2.825959e+001 
4156250000  -4.413224e+001  2.342553e+001 
4159375000  -4.388694e+001  2.389789e+001 
4162500000  -4.244516e+001  2.489347e+001 
4165625000  -4.157447e+001  1.430329e+001 
4168750000  -4.092152e+001  3.294399e+000 
4171875000  -4.113381e+001  -1.006819e+001 
4175000000  -4.164823e+001  -1.915520e+001 
4178125000  -4.246730e+001  -2.002112e+001 
4181250000  -4.198783e+001  -2.541047e+001 
4184375000  -4.242158e+001  -3.343596e+001 
4187500000  -4.232819e+001  -4.038532e+001 
4190625000  -4.266605e+001  -4.862709e+001 
4193750000  -4.363224e+001  -5.433358e+001 
4196875000  -4.481094e+001  -5.878786e+001 
4200000000  -4.562279e+001  -4.731786e+001 
4203125000  -4.417188e+001  -3.998155e+001 
4206250000  -4.099414e+001  -5.189009e+001 
4209375000  -4.130661e+001  -7.566679e+001 
4212500000  -4.357720e+001  -8.310594e+001 
4215625000  -4.389938e+001  -7.463666e+001 
4218750000  -4.272039e+001  -7.741209e+001 
4221875000  -4.063033e+001  -8.512698e+001 
4225000000  -4.170673e+001  -9.934946e+001 
4228125000  -4.174723e+001  -9.758023e+001 
4231250000  -4.075601e+001  -1.048333e+002 
4234375000  -4.100814e+001  -1.179310e+002 
4237500000  -4.025929e+001  -1.233953e+002 
4240625000  -4.129356e+001  -1.363276e+002 
4243750000  -4.239400e+001  -1.417531e+002 
4246875000  -4.292685e+001  -1.394883e+002 
4250000000  -4.239318e+001  -1.439061e+002 
4253125000  -4.243437e+001  -1.468510e+002 
4256250000  -4.248917e+001  -1.511381e+002 
4259375000  -4.203945e+001  -1.586540e+002 
4262500000  -4.209611e+001  -1.642222e+002 
4265625000  -4.177742e+001  -1.627988e+002 
4268750000  -4.094729e+001  -1.733727e+002 
4271875000  -4.065647e+001  1.774132e+002 
4275000000  -4.015443e+001  1.676785e+002 
4278125000  -4.140409e+001  1.540494e+002 
4281250000  -4.221128e+001  1.508289e+002 
4284375000  -4.236980e+001  1.503782e+002 
4287500000  -4.335909e+001  1.439285e+002 
4290625000  -4.389472e+001  1.514363e+002 
4293750000  -4.126296e+001  1.528216e+002 
4296875000  -4.022402e+001  1.379630e+002 
4300000000  -4.150860e+001  1.276125e+002 
4303125000  -4.193201e+001  1.267223e+002 
4306250000  -4.059099e+001  1.263956e+002 
4309375000  -3.992159e+001  1.181670e+002 
4312500000  -3.969868e+001  1.044991e+002 
4315625000  -4.009666e+001  9.582339e+001 
4318750000  -4.084059e+001  8.980933e+001 
4321875000  -4.070406e+001  8.825336e+001 
4325000000  -3.997874e+001  8.472628e+001 
4328125000  -3.932053e+001  7.222755e+001 
4331250000  -3.976955e+001  6.191813e+001 
4334375000  -4.066827e+001  5.125755e+001 
4337500000  -4.174233e+001  4.909053e+001 
4340625000  -4.184565e+001  5.295485e+001 
4343750000  -4.110794e+001  5.036557e+001 
4346875000  -4.064698e+001  3.799003e+001 
4350000000  -4.119979e+001  2.879008e+001 
4353125000  -4.189347e+001  1.957892e+001 
4356250000  -4.407021e+001  2.540026e+001 
4359375000  -4.275738e+001  3.799536e+001 
4362500000  -3.934258e+001  2.825035e+001 
4365625000  -3.884057e+001  8.553041e+000 
4368750000  -4.010917e+001  -2.153959e+000 
4371875000  -4.100179e+001  -4.673416e+000 
4375000000  -4.066851e+001  -1.240070e+001 
4378125000  -4.032825e+001  -1.716796e+001 
4381250000  -4.053342e+001  -2.343054e+001 
4384375000  -4.039183e+001  -3.299944e+001 
4387500000  -4.183971e+001  -4.250653e+001 
4390625000  -4.211267e+001  -4.100809e+001 
4393750000  -4.159726e+001  -4.338016e+001 
4396875000  -4.109639e+001  -4.788178e+001 
4400000000  -4.073324e+001  -5.896840e+001 
4403125000  -4.148664e+001  -6.781540e+001 
4406250000  -4.193190e+001  -7.150965e+001 
4409375000  -4.209609e+001  -7.547884e+001 
4412500000  -4.330065e+001  -7.967496e+001 
4415625000  -4.300246e+001  -7.510806e+001 
4418750000  -4.190293e+001  -7.884238e+001 
