!Agilent Technologies,E8363B,MY43030201,A.06.04.32
!Agilent E8363B: A.06.04.32
!Date: Tuesday, November 11, 2014 21:52:35
!Correction: S21(Response(S21)) 
!S1P File: Measurement: S21:
# Hz S  dB   R 50
3000000000  -4.363008e+001  -1.639213e+002 
3003125000  -4.520113e+001  -1.673473e+002 
3006250000  -4.551147e+001  -1.698556e+002 
3009375000  -4.620924e+001  -1.653314e+002 
3012500000  -4.485967e+001  -1.709331e+002 
3015625000  -4.508455e+001  1.799804e+002 
3018750000  -4.552465e+001  1.771859e+002 
3021875000  -4.387781e+001  1.791932e+002 
3025000000  -4.256355e+001  1.758329e+002 
3028125000  -4.167772e+001  1.630155e+002 
3031250000  -4.080065e+001  1.498745e+002 
3034375000  -4.081622e+001  1.365524e+002 
3037500000  -4.164038e+001  1.255853e+002 
3040625000  -4.294362e+001  1.181122e+002 
3043750000  -4.328925e+001  1.125050e+002 
3046875000  -4.410456e+001  1.030374e+002 
3050000000  -4.531590e+001  1.014601e+002 
3053125000  -4.492674e+001  1.044406e+002 
3056250000  -4.476138e+001  1.063510e+002 
3059375000  -4.424429e+001  1.031826e+002 
3062500000  -4.244292e+001  9.868811e+001 
3065625000  -4.211359e+001  8.596312e+001 
3068750000  -4.201257e+001  7.869337e+001 
3071875000  -4.192141e+001  7.675523e+001 
3075000000  -4.111691e+001  6.852942e+001 
3078125000  -4.131448e+001  6.160280e+001 
3081250000  -4.122810e+001  5.471927e+001 
3084375000  -4.044598e+001  4.934466e+001 
3087500000  -4.070057e+001  4.168348e+001 
3090625000  -3.988698e+001  2.878894e+001 
3093750000  -4.091069e+001  1.970487e+001 
3096875000  -4.118645e+001  1.384956e+001 
3100000000  -4.122073e+001  1.058739e+001 
3103125000  -4.140232e+001  5.364852e+000 
3106250000  -4.098927e+001  2.301858e-001 
3109375000  -4.094028e+001  -5.095510e+000 
3112500000  -4.089772e+001  -1.317371e+001 
3115625000  -4.073393e+001  -1.650441e+001 
3118750000  -4.077643e+001  -2.206913e+001 
3121875000  -4.026569e+001  -3.479834e+001 
3125000000  -4.212459e+001  -4.041757e+001 
3128125000  -4.187016e+001  -3.211402e+001 
3131250000  -3.962721e+001  -4.017553e+001 
3134375000  -3.891411e+001  -5.903436e+001 
3137500000  -3.960186e+001  -7.121138e+001 
3140625000  -4.072415e+001  -7.640110e+001 
3143750000  -4.165883e+001  -7.824216e+001 
3146875000  -4.117207e+001  -7.809316e+001 
3150000000  -4.031494e+001  -8.341701e+001 
3153125000  -4.066639e+001  -9.272042e+001 
3156250000  -4.131086e+001  -9.199107e+001 
3159375000  -3.919150e+001  -9.403601e+001 
3162500000  -3.765747e+001  -1.105376e+002 
3165625000  -3.902591e+001  -1.248149e+002 
3168750000  -3.906708e+001  -1.254857e+002 
3171875000  -3.847187e+001  -1.346773e+002 
3175000000  -3.904543e+001  -1.444425e+002 
3178125000  -3.871909e+001  -1.472519e+002 
3181250000  -3.815869e+001  -1.563822e+002 
3184375000  -3.791282e+001  -1.697230e+002 
3187500000  -3.918038e+001  1.759717e+002 
3190625000  -4.073747e+001  1.697399e+002 
3193750000  -4.124626e+001  1.733270e+002 
3196875000  -4.105174e+001  1.726880e+002 
3200000000  -3.972240e+001  1.681512e+002 
3203125000  -3.957837e+001  1.586727e+002 
3206250000  -3.973365e+001  1.509726e+002 
3209375000  -3.924206e+001  1.418897e+002 
3212500000  -3.983517e+001  1.335701e+002 
3215625000  -3.964605e+001  1.309750e+002 
3218750000  -4.026091e+001  1.197242e+002 
3221875000  -4.075694e+001  1.124181e+002 
3225000000  -4.041179e+001  1.066453e+002 
3228125000  -4.094205e+001  9.816075e+001 
3231250000  -4.158505e+001  9.495877e+001 
3234375000  -4.112189e+001  9.233013e+001 
3237500000  -4.099274e+001  8.781767e+001 
3240625000  -4.023690e+001  8.155029e+001 
3243750000  -4.026447e+001  6.943629e+001 
3246875000  -4.078311e+001  6.101710e+001 
3250000000  -4.112786e+001  5.579355e+001 
3253125000  -4.120458e+001  5.450725e+001 
3256250000  -4.048802e+001  4.395164e+001 
3259375000  -4.117953e+001  2.829936e+001 
3262500000  -4.233655e+001  2.511429e+001 
3265625000  -4.257893e+001  2.701791e+001 
3268750000  -4.253207e+001  2.490857e+001 
3271875000  -4.144468e+001  1.928999e+001 
3275000000  -4.113166e+001  8.205961e+000 
3278125000  -4.174231e+001  1.611250e+000 
3281250000  -4.184460e+001  -1.058968e+000 
3284375000  -4.072196e+001  -8.790999e+000 
3287500000  -4.146012e+001  -1.742894e+001 
3290625000  -4.139576e+001  -2.855657e+001 
3293750000  -4.144158e+001  -3.623635e+001 
3296875000  -4.269670e+001  -4.065512e+001 
3300000000  -4.206101e+001  -4.156512e+001 
3303125000  -4.079447e+001  -5.149672e+001 
3306250000  -4.071487e+001  -6.155114e+001 
3309375000  -4.063092e+001  -7.251553e+001 
3312500000  -4.102709e+001  -8.738354e+001 
3315625000  -4.241857e+001  -9.537885e+001 
3318750000  -4.383786e+001  -1.010978e+002 
3321875000  -4.532948e+001  -1.005012e+002 
3325000000  -4.539626e+001  -9.192410e+001 
3328125000  -4.410560e+001  -1.009322e+002 
3331250000  -4.242415e+001  -9.893250e+001 
3334375000  -4.025359e+001  -1.192530e+002 
3337500000  -4.048437e+001  -1.422220e+002 
3340625000  -4.269537e+001  -1.537189e+002 
3343750000  -4.483635e+001  -1.533069e+002 
3346875000  -4.396971e+001  -1.587915e+002 
3350000000  -4.374378e+001  -1.635054e+002 
3353125000  -4.362786e+001  -1.715854e+002 
3356250000  -4.345792e+001  1.792772e+002 
3359375000  -4.434862e+001  1.642559e+002 
3362500000  -4.512774e+001  1.552865e+002 
3365625000  -4.574783e+001  1.499234e+002 
3368750000  -4.648003e+001  1.440605e+002 
3371875000  -4.694239e+001  1.398701e+002 
3375000000  -4.853680e+001  1.322718e+002 
3378125000  -4.850575e+001  1.298768e+002 
3381250000  -4.983257e+001  1.441407e+002 
3384375000  -4.764686e+001  1.536482e+002 
3387500000  -4.419036e+001  1.259483e+002 
3390625000  -4.613224e+001  1.060099e+002 
3393750000  -4.722830e+001  1.040772e+002 
3396875000  -4.635087e+001  9.927582e+001 
3400000000  -4.607222e+001  8.593882e+001 
3403125000  -4.680071e+001  7.814364e+001 
3406250000  -4.758130e+001  7.207230e+001 
3409375000  -4.694425e+001  5.958114e+001 
3412500000  -4.822528e+001  5.429358e+001 
3415625000  -4.834748e+001  4.793434e+001 
3418750000  -4.859500e+001  4.629813e+001 
3421875000  -4.855511e+001  4.016435e+001 
3425000000  -4.759828e+001  3.290870e+001 
3428125000  -4.732737e+001  2.612809e+001 
3431250000  -4.657747e+001  1.258051e+001 
3434375000  -4.736030e+001  1.386488e+000 
3437500000  -4.789520e+001  -4.857650e+000 
3440625000  -4.782600e+001  -8.651864e+000 
3443750000  -4.633800e+001  -1.693817e+001 
3446875000  -4.566579e+001  -2.790314e+001 
3450000000  -4.490329e+001  -4.346798e+001 
3453125000  -4.586474e+001  -6.006879e+001 
3456250000  -4.772018e+001  -7.447511e+001 
3459375000  -4.800279e+001  -7.210172e+001 
3462500000  -4.836335e+001  -7.854908e+001 
3465625000  -4.759455e+001  -9.257977e+001 
3468750000  -4.721576e+001  -9.923067e+001 
3471875000  -4.697563e+001  -1.029511e+002 
3475000000  -4.680733e+001  -1.157835e+002 
3478125000  -4.780211e+001  -1.293407e+002 
3481250000  -4.858969e+001  -1.366939e+002 
3484375000  -4.889951e+001  -1.360450e+002 
3487500000  -4.774457e+001  -1.443424e+002 
3490625000  -4.743715e+001  -1.535166e+002 
3493750000  -4.811726e+001  -1.680262e+002 
3496875000  -4.858607e+001  -1.712113e+002 
3500000000  -4.877880e+001  -1.757096e+002 
3503125000  -4.723989e+001  -1.754602e+002 
3506250000  -4.600851e+001  1.684071e+002 
3509375000  -4.564397e+001  1.522821e+002 
3512500000  -4.619142e+001  1.332545e+002 
3515625000  -4.750344e+001  1.289957e+002 
3518750000  -4.763352e+001  1.315499e+002 
3521875000  -4.778530e+001  1.158543e+002 
3525000000  -4.907337e+001  1.127219e+002 
3528125000  -4.763742e+001  1.161383e+002 
3531250000  -4.665244e+001  1.037719e+002 
3534375000  -4.681468e+001  8.268820e+001 
3537500000  -4.806007e+001  7.417033e+001 
3540625000  -4.896880e+001  7.499223e+001 
3543750000  -4.982776e+001  8.109880e+001 
3546875000  -4.876515e+001  8.062894e+001 
3550000000  -4.643033e+001  7.092322e+001 
3553125000  -4.589473e+001  5.459395e+001 
3556250000  -4.765695e+001  4.276983e+001 
3559375000  -4.672219e+001  4.194164e+001 
3562500000  -4.654131e+001  2.784051e+001 
3565625000  -4.726320e+001  2.171552e+001 
3568750000  -4.810632e+001  2.160889e+001 
3571875000  -4.740089e+001  1.880435e+001 
3575000000  -4.678835e+001  1.032439e+001 
3578125000  -4.743013e+001  3.790882e+000 
3581250000  -4.748212e+001  5.189072e+000 
3584375000  -4.640560e+001  -6.308215e+000 
3587500000  -4.580950e+001  -1.412464e+001 
3590625000  -4.624270e+001  -2.714193e+001 
3593750000  -4.739711e+001  -2.763685e+001 
3596875000  -4.679285e+001  -2.417739e+001 
3600000000  -4.491958e+001  -3.630014e+001 
3603125000  -4.499525e+001  -5.066607e+001 
3606250000  -4.567913e+001  -5.721303e+001 
3609375000  -4.598815e+001  -5.882771e+001 
3612500000  -4.635385e+001  -6.711493e+001 
3615625000  -4.655336e+001  -7.144546e+001 
3618750000  -4.636987e+001  -7.780938e+001 
3621875000  -4.537049e+001  -7.952283e+001 
3625000000  -4.604566e+001  -8.394774e+001 
3628125000  -4.517095e+001  -8.634692e+001 
3631250000  -4.482583e+001  -1.010123e+002 
3634375000  -4.567895e+001  -1.013838e+002 
3637500000  -4.458699e+001  -1.017922e+002 
3640625000  -4.382326e+001  -1.093465e+002 
3643750000  -4.332325e+001  -1.211710e+002 
3646875000  -4.386502e+001  -1.324295e+002 
3650000000  -4.420013e+001  -1.382268e+002 
3653125000  -4.330170e+001  -1.431902e+002 
3656250000  -4.422824e+001  -1.493461e+002 
3659375000  -4.395079e+001  -1.541735e+002 
3662500000  -4.318504e+001  -1.607710e+002 
3665625000  -4.323852e+001  -1.667595e+002 
3668750000  -4.190127e+001  -1.688160e+002 
3671875000  -4.137850e+001  1.753663e+002 
3675000000  -4.222903e+001  1.650856e+002 
3678125000  -4.250130e+001  1.601514e+002 
3681250000  -4.246266e+001  1.524881e+002 
3684375000  -4.249817e+001  1.446891e+002 
3687500000  -4.272468e+001  1.383477e+002 
3690625000  -4.351511e+001  1.325538e+002 
3693750000  -4.434933e+001  1.321743e+002 
3696875000  -4.376944e+001  1.283913e+002 
3700000000  -4.319234e+001  1.208578e+002 
3703125000  -4.349707e+001  1.111320e+002 
3706250000  -4.446110e+001  1.092761e+002 
3709375000  -4.422208e+001  1.080984e+002 
3712500000  -4.274947e+001  1.015942e+002 
3715625000  -4.156066e+001  9.542943e+001 
3718750000  -4.154333e+001  8.273224e+001 
3721875000  -4.175867e+001  7.380708e+001 
3725000000  -4.247668e+001  6.843012e+001 
3728125000  -4.223564e+001  6.350409e+001 
3731250000  -4.207537e+001  5.558281e+001 
3734375000  -4.188996e+001  4.953111e+001 
3737500000  -4.271360e+001  4.037570e+001 
3740625000  -4.286707e+001  3.480058e+001 
3743750000  -4.300761e+001  2.926051e+001 
3746875000  -4.325246e+001  2.069778e+001 
3750000000  -4.335356e+001  1.869095e+001 
3753125000  -4.372829e+001  1.587563e+001 
3756250000  -4.367571e+001  1.158088e+001 
3759375000  -4.361813e+001  6.513038e+000 
3762500000  -4.356617e+001  2.153213e-001 
3765625000  -4.375456e+001  -5.859648e+000 
3768750000  -4.323166e+001  -3.530922e+000 
3771875000  -4.177857e+001  -1.142070e+001 
3775000000  -4.214665e+001  -2.126922e+001 
3778125000  -4.251162e+001  -2.798049e+001 
3781250000  -4.249700e+001  -3.499832e+001 
3784375000  -4.210607e+001  -4.049873e+001 
3787500000  -4.229230e+001  -4.413871e+001 
3790625000  -4.290937e+001  -5.486784e+001 
3793750000  -4.282768e+001  -5.763960e+001 
3796875000  -4.146344e+001  -6.179720e+001 
3800000000  -4.071185e+001  -7.016331e+001 
3803125000  -4.148299e+001  -8.131044e+001 
3806250000  -4.261845e+001  -8.657451e+001 
3809375000  -4.187826e+001  -8.975161e+001 
3812500000  -4.167386e+001  -1.016844e+002 
3815625000  -4.294830e+001  -1.136415e+002 
3818750000  -4.441932e+001  -1.081811e+002 
3821875000  -4.364771e+001  -1.009595e+002 
3825000000  -4.138196e+001  -1.065606e+002 
3828125000  -4.036808e+001  -1.283250e+002 
3831250000  -4.173162e+001  -1.433933e+002 
3834375000  -4.379940e+001  -1.438972e+002 
3837500000  -4.390188e+001  -1.413489e+002 
3840625000  -4.216009e+001  -1.471778e+002 
3843750000  -4.165378e+001  -1.612485e+002 
3846875000  -4.327618e+001  -1.692144e+002 
3850000000  -4.420653e+001  -1.619649e+002 
3853125000  -4.329461e+001  -1.649339e+002 
3856250000  -4.271297e+001  -1.736626e+002 
3859375000  -4.200701e+001  1.780294e+002 
3862500000  -4.205815e+001  1.683800e+002 
3865625000  -4.265720e+001  1.618401e+002 
3868750000  -4.232890e+001  1.595322e+002 
3871875000  -4.190905e+001  1.493730e+002 
3875000000  -4.242178e+001  1.392105e+002 
3878125000  -4.303320e+001  1.356266e+002 
3881250000  -4.294240e+001  1.363972e+002 
3884375000  -4.249106e+001  1.252910e+002 
3887500000  -4.321610e+001  1.207177e+002 
3890625000  -4.362770e+001  1.147769e+002 
3893750000  -4.408872e+001  1.137215e+002 
3896875000  -4.411119e+001  1.083120e+002 
3900000000  -4.409321e+001  1.051100e+002 
3903125000  -4.378061e+001  9.825522e+001 
3906250000  -4.349727e+001  9.560075e+001 
3909375000  -4.262928e+001  8.475127e+001 
3912500000  -4.386415e+001  7.866419e+001 
3915625000  -4.442905e+001  7.700217e+001 
3918750000  -4.461017e+001  7.603823e+001 
3921875000  -4.389162e+001  7.027905e+001 
3925000000  -4.306001e+001  6.435377e+001 
3928125000  -4.277161e+001  5.565718e+001 
3931250000  -4.358006e+001  4.564473e+001 
3934375000  -4.358282e+001  4.444269e+001 
3937500000  -4.421556e+001  4.173705e+001 
3940625000  -4.438169e+001  4.322860e+001 
3943750000  -4.327876e+001  3.532046e+001 
3946875000  -4.251112e+001  2.758402e+001 
3950000000  -4.384478e+001  1.665332e+001 
3953125000  -4.438424e+001  1.654939e+001 
3956250000  -4.289202e+001  1.830249e+001 
3959375000  -4.179155e+001  1.322489e+001 
3962500000  -4.123156e+001  -2.043992e+000 
3965625000  -4.184792e+001  -1.274269e+001 
3968750000  -4.249679e+001  -1.975836e+001 
3971875000  -4.221572e+001  -2.361200e+001 
3975000000  -4.161307e+001  -2.916991e+001 
3978125000  -4.206960e+001  -3.548831e+001 
3981250000  -4.172371e+001  -4.202014e+001 
3984375000  -4.221518e+001  -4.912455e+001 
3987500000  -4.289795e+001  -5.370279e+001 
3990625000  -4.292136e+001  -5.682184e+001 
3993750000  -4.289206e+001  -6.567588e+001 
3996875000  -4.279947e+001  -7.135178e+001 
4000000000  -4.334533e+001  -7.625452e+001 
4003125000  -4.375906e+001  -7.596085e+001 
4006250000  -4.198140e+001  -8.068829e+001 
4009375000  -4.103789e+001  -9.879253e+001 
4012500000  -4.296318e+001  -1.042339e+002 
4015625000  -4.350885e+001  -1.048435e+002 
4018750000  -4.336671e+001  -1.104206e+002 
4021875000  -4.317811e+001  -1.188090e+002 
4025000000  -4.279631e+001  -1.247345e+002 
4028125000  -4.329940e+001  -1.337285e+002 
4031250000  -4.413604e+001  -1.366580e+002 
4034375000  -4.388833e+001  -1.408430e+002 
4037500000  -4.427220e+001  -1.429583e+002 
4040625000  -4.401600e+001  -1.491202e+002 
4043750000  -4.453550e+001  -1.534987e+002 
4046875000  -4.409400e+001  -1.577165e+002 
4050000000  -4.430124e+001  -1.672624e+002 
4053125000  -4.534822e+001  -1.702295e+002 
4056250000  -4.580658e+001  -1.653180e+002 
4059375000  -4.364383e+001  -1.695005e+002 
4062500000  -4.351321e+001  -1.753141e+002 
4065625000  -4.325715e+001  1.760674e+002 
4068750000  -4.306499e+001  1.682985e+002 
4071875000  -4.270346e+001  1.590062e+002 
4075000000  -4.394611e+001  1.502067e+002 
4078125000  -4.368868e+001  1.478266e+002 
4081250000  -4.342059e+001  1.441310e+002 
4084375000  -4.298789e+001  1.362640e+002 
4087500000  -4.339892e+001  1.244134e+002 
4090625000  -4.497556e+001  1.238767e+002 
4093750000  -4.429482e+001  1.245712e+002 
4096875000  -4.405875e+001  1.147232e+002 
4100000000  -4.539284e+001  1.069448e+002 
4103125000  -4.555566e+001  1.074801e+002 
4106250000  -4.572410e+001  1.076925e+002 
4109375000  -4.431113e+001  1.099872e+002 
4112500000  -4.407345e+001  9.880647e+001 
4115625000  -4.394110e+001  9.104321e+001 
4118750000  -4.388236e+001  8.750459e+001 
4121875000  -4.366409e+001  7.952696e+001 
4125000000  -4.447506e+001  7.184915e+001 
4128125000  -4.533919e+001  7.682886e+001 
4131250000  -4.345266e+001  8.003529e+001 
4134375000  -4.157846e+001  6.696726e+001 
4137500000  -4.183082e+001  4.604467e+001 
4140625000  -4.399828e+001  4.003528e+001 
4143750000  -4.506946e+001  4.779158e+001 
4146875000  -4.384115e+001  4.590475e+001 
4150000000  -4.253710e+001  3.722366e+001 
4153125000  -4.326300e+001  2.733325e+001 
4156250000  -4.376717e+001  2.412919e+001 
4159375000  -4.399904e+001  2.829271e+001 
4162500000  -4.220305e+001  2.333034e+001 
4165625000  -4.154348e+001  1.423830e+001 
4168750000  -4.111364e+001  1.189341e+000 
4171875000  -4.109836e+001  -9.236155e+000 
4175000000  -4.219379e+001  -1.807930e+001 
4178125000  -4.232247e+001  -1.866001e+001 
4181250000  -4.190247e+001  -2.794112e+001 
4184375000  -4.254242e+001  -3.188206e+001 
4187500000  -4.242555e+001  -3.943148e+001 
4190625000  -4.276479e+001  -4.790396e+001 
4193750000  -4.387455e+001  -5.400916e+001 
4196875000  -4.506220e+001  -5.759059e+001 
4200000000  -4.602641e+001  -5.253631e+001 
4203125000  -4.444602e+001  -4.179877e+001 
4206250000  -4.093784e+001  -5.107347e+001 
4209375000  -4.115159e+001  -7.551202e+001 
4212500000  -4.398387e+001  -7.911775e+001 
4215625000  -4.363614e+001  -7.642204e+001 
4218750000  -4.216108e+001  -7.469464e+001 
4221875000  -4.120540e+001  -8.497826e+001 
4225000000  -4.214792e+001  -9.554868e+001 
4228125000  -4.193411e+001  -9.591042e+001 
4231250000  -4.117265e+001  -1.065517e+002 
4234375000  -4.077131e+001  -1.178531e+002 
4237500000  -4.078189e+001  -1.242484e+002 
4240625000  -4.125537e+001  -1.342459e+002 
4243750000  -4.177364e+001  -1.403829e+002 
4246875000  -4.312765e+001  -1.428750e+002 
4250000000  -4.261907e+001  -1.430761e+002 
4253125000  -4.270814e+001  -1.477876e+002 
4256250000  -4.243401e+001  -1.533845e+002 
4259375000  -4.205685e+001  -1.585200e+002 
4262500000  -4.207805e+001  -1.619980e+002 
4265625000  -4.204569e+001  -1.652941e+002 
4268750000  -4.077540e+001  -1.734382e+002 
4271875000  -4.049905e+001  1.745745e+002 
4275000000  -4.007586e+001  1.672318e+002 
4278125000  -4.120539e+001  1.540487e+002 
4281250000  -4.279986e+001  1.539274e+002 
4284375000  -4.212354e+001  1.516503e+002 
4287500000  -4.348089e+001  1.449806e+002 
4290625000  -4.397449e+001  1.521177e+002 
4293750000  -4.149010e+001  1.547870e+002 
4296875000  -4.016518e+001  1.370966e+002 
4300000000  -4.112844e+001  1.257415e+002 
4303125000  -4.176067e+001  1.276257e+002 
4306250000  -4.028976e+001  1.248418e+002 
4309375000  -3.983091e+001  1.168350e+002 
4312500000  -3.948967e+001  1.034651e+002 
4315625000  -4.031062e+001  9.469347e+001 
4318750000  -4.059143e+001  9.003139e+001 
4321875000  -4.047727e+001  8.750166e+001 
4325000000  -4.003458e+001  8.314766e+001 
4328125000  -3.930109e+001  7.171545e+001 
4331250000  -3.973348e+001  5.949202e+001 
4334375000  -4.099604e+001  5.078084e+001 
4337500000  -4.195382e+001  5.057143e+001 
4340625000  -4.238407e+001  5.502710e+001 
4343750000  -4.096268e+001  4.918995e+001 
4346875000  -4.106104e+001  3.891303e+001 
4350000000  -4.101471e+001  2.918538e+001 
4353125000  -4.199566e+001  2.045370e+001 
4356250000  -4.335447e+001  2.206809e+001 
4359375000  -4.271296e+001  3.672637e+001 
4362500000  -3.909196e+001  2.532061e+001 
4365625000  -3.907841e+001  7.382177e+000 
4368750000  -4.001824e+001  -4.137024e+000 
4371875000  -4.085695e+001  -3.818135e+000 
4375000000  -4.064385e+001  -6.899071e+000 
4378125000  -4.040521e+001  -1.771423e+001 
4381250000  -4.050319e+001  -2.686079e+001 
4384375000  -4.054511e+001  -3.280523e+001 
4387500000  -4.150985e+001  -4.086515e+001 
4390625000  -4.187698e+001  -4.361287e+001 
4393750000  -4.147744e+001  -4.382533e+001 
4396875000  -4.094348e+001  -4.973240e+001 
4400000000  -4.078382e+001  -5.779872e+001 
4403125000  -4.132199e+001  -6.786836e+001 
4406250000  -4.196329e+001  -7.256216e+001 
4409375000  -4.257240e+001  -7.487367e+001 
4412500000  -4.387895e+001  -7.623720e+001 
4415625000  -4.294673e+001  -7.529456e+001 
4418750000  -4.191130e+001  -8.086680e+001 
