!Agilent Technologies,E8363B,MY43030201,A.06.04.32
!Agilent E8363B: A.06.04.32
!Date: Tuesday, November 11, 2014 21:48:04
!Correction: S21(Response(S21)) 
!S1P File: Measurement: S21:
# Hz S  dB   R 50
3000000000  -4.363203e+001  -1.625245e+002 
3003125000  -4.534221e+001  -1.653346e+002 
3006250000  -4.552584e+001  -1.697183e+002 
3009375000  -4.638990e+001  -1.664278e+002 
3012500000  -4.503620e+001  -1.722454e+002 
3015625000  -4.503017e+001  -1.777697e+002 
3018750000  -4.540220e+001  1.798187e+002 
3021875000  -4.395002e+001  -1.780150e+002 
3025000000  -4.262991e+001  1.766686e+002 
3028125000  -4.175077e+001  1.651289e+002 
3031250000  -4.104149e+001  1.517849e+002 
3034375000  -4.078140e+001  1.372825e+002 
3037500000  -4.151337e+001  1.271036e+002 
3040625000  -4.293964e+001  1.216413e+002 
3043750000  -4.341721e+001  1.127476e+002 
3046875000  -4.421024e+001  1.050970e+002 
3050000000  -4.511958e+001  1.003220e+002 
3053125000  -4.481437e+001  1.052375e+002 
3056250000  -4.466070e+001  1.102020e+002 
3059375000  -4.376702e+001  1.030265e+002 
3062500000  -4.231348e+001  9.876543e+001 
3065625000  -4.238106e+001  8.982013e+001 
3068750000  -4.179848e+001  8.187610e+001 
3071875000  -4.167468e+001  7.833521e+001 
3075000000  -4.124342e+001  7.159505e+001 
3078125000  -4.121787e+001  6.376884e+001 
3081250000  -4.125642e+001  5.754300e+001 
3084375000  -4.025871e+001  5.025018e+001 
3087500000  -4.058865e+001  4.313025e+001 
3090625000  -4.001626e+001  3.117385e+001 
3093750000  -4.104548e+001  2.197593e+001 
3096875000  -4.125838e+001  1.590806e+001 
3100000000  -4.110615e+001  1.123985e+001 
3103125000  -4.147023e+001  8.085664e+000 
3106250000  -4.100933e+001  1.821941e+000 
3109375000  -4.096416e+001  -4.059350e+000 
3112500000  -4.086143e+001  -1.219886e+001 
3115625000  -4.075060e+001  -1.600090e+001 
3118750000  -4.083110e+001  -2.172357e+001 
3121875000  -4.029092e+001  -3.290547e+001 
3125000000  -4.189219e+001  -3.505211e+001 
3128125000  -4.194779e+001  -3.272573e+001 
3131250000  -3.943151e+001  -3.775231e+001 
3134375000  -3.888438e+001  -5.778546e+001 
3137500000  -3.961451e+001  -6.908349e+001 
3140625000  -4.086390e+001  -7.520962e+001 
3143750000  -4.165813e+001  -7.979404e+001 
3146875000  -4.105557e+001  -7.746140e+001 
3150000000  -4.029868e+001  -8.233302e+001 
3153125000  -4.086836e+001  -9.021497e+001 
3156250000  -4.140698e+001  -8.814915e+001 
3159375000  -3.912358e+001  -9.216329e+001 
3162500000  -3.759977e+001  -1.094196e+002 
3165625000  -3.904314e+001  -1.228726e+002 
3168750000  -3.891905e+001  -1.251549e+002 
3171875000  -3.854002e+001  -1.324091e+002 
3175000000  -3.919267e+001  -1.433485e+002 
3178125000  -3.859033e+001  -1.451563e+002 
3181250000  -3.802872e+001  -1.548561e+002 
3184375000  -3.788493e+001  -1.665322e+002 
3187500000  -3.928173e+001  1.764994e+002 
3190625000  -4.082229e+001  1.703572e+002 
3193750000  -4.127605e+001  1.754249e+002 
3196875000  -4.105999e+001  1.749561e+002 
3200000000  -3.981860e+001  1.689112e+002 
3203125000  -3.955960e+001  1.604721e+002 
3206250000  -3.981548e+001  1.524196e+002 
3209375000  -3.947642e+001  1.428234e+002 
3212500000  -3.997175e+001  1.364078e+002 
3215625000  -3.954880e+001  1.332590e+002 
3218750000  -4.042990e+001  1.213617e+002 
3221875000  -4.048828e+001  1.130939e+002 
3225000000  -4.039066e+001  1.081053e+002 
3228125000  -4.098994e+001  1.003718e+002 
3231250000  -4.145666e+001  9.728136e+001 
3234375000  -4.115613e+001  9.387393e+001 
3237500000  -4.094273e+001  8.872262e+001 
3240625000  -4.025751e+001  8.356720e+001 
3243750000  -4.044030e+001  7.028919e+001 
3246875000  -4.048780e+001  6.394656e+001 
3250000000  -4.127906e+001  5.916552e+001 
3253125000  -4.124600e+001  5.413501e+001 
3256250000  -4.035125e+001  4.455715e+001 
3259375000  -4.076607e+001  3.175708e+001 
3262500000  -4.229180e+001  2.644811e+001 
3265625000  -4.254622e+001  2.857924e+001 
3268750000  -4.241075e+001  2.595399e+001 
3271875000  -4.151716e+001  2.057586e+001 
3275000000  -4.098848e+001  9.629102e+000 
3278125000  -4.154696e+001  2.320918e+000 
3281250000  -4.160793e+001  -1.699027e-001 
3284375000  -4.083654e+001  -8.643612e+000 
3287500000  -4.133542e+001  -1.773940e+001 
3290625000  -4.163507e+001  -2.646186e+001 
3293750000  -4.145016e+001  -3.522203e+001 
3296875000  -4.275917e+001  -3.825762e+001 
3300000000  -4.210657e+001  -4.074778e+001 
3303125000  -4.101950e+001  -4.988431e+001 
3306250000  -4.108936e+001  -6.002925e+001 
3309375000  -4.050504e+001  -7.149998e+001 
3312500000  -4.114612e+001  -8.608074e+001 
3315625000  -4.244746e+001  -9.378242e+001 
3318750000  -4.411953e+001  -1.000623e+002 
3321875000  -4.499293e+001  -9.974302e+001 
3325000000  -4.488901e+001  -9.763332e+001 
3328125000  -4.398328e+001  -9.906314e+001 
3331250000  -4.271101e+001  -9.789584e+001 
3334375000  -3.994170e+001  -1.168934e+002 
3337500000  -4.101647e+001  -1.406680e+002 
3340625000  -4.296273e+001  -1.502440e+002 
3343750000  -4.447860e+001  -1.534313e+002 
3346875000  -4.428787e+001  -1.576726e+002 
3350000000  -4.365974e+001  -1.620998e+002 
3353125000  -4.352290e+001  -1.721215e+002 
3356250000  -4.297072e+001  1.786460e+002 
3359375000  -4.451138e+001  1.654860e+002 
3362500000  -4.502662e+001  1.595903e+002 
3365625000  -4.557565e+001  1.519198e+002 
3368750000  -4.634486e+001  1.468542e+002 
3371875000  -4.722742e+001  1.397263e+002 
3375000000  -4.925756e+001  1.325093e+002 
3378125000  -4.958958e+001  1.294303e+002 
3381250000  -5.042394e+001  1.437785e+002 
3384375000  -4.738602e+001  1.515036e+002 
3387500000  -4.507650e+001  1.281386e+002 
3390625000  -4.690678e+001  1.064654e+002 
3393750000  -4.764421e+001  1.037020e+002 
3396875000  -4.666410e+001  1.013511e+002 
3400000000  -4.640163e+001  8.397744e+001 
3403125000  -4.687300e+001  8.007308e+001 
3406250000  -4.694030e+001  7.089436e+001 
3409375000  -4.713940e+001  6.221089e+001 
3412500000  -4.803743e+001  5.334396e+001 
3415625000  -4.896249e+001  4.798191e+001 
3418750000  -4.880246e+001  4.169128e+001 
3421875000  -4.917071e+001  4.120646e+001 
3425000000  -4.763777e+001  3.685178e+001 
3428125000  -4.715765e+001  2.641490e+001 
3431250000  -4.700569e+001  1.499735e+001 
3434375000  -4.717155e+001  1.516920e+000 
3437500000  -4.735482e+001  -1.976991e+000 
3440625000  -4.766145e+001  -6.202051e+000 
3443750000  -4.619587e+001  -1.253115e+001 
3446875000  -4.642389e+001  -2.837118e+001 
3450000000  -4.503730e+001  -4.430491e+001 
3453125000  -4.560687e+001  -6.111662e+001 
3456250000  -4.737333e+001  -6.847015e+001 
3459375000  -4.822726e+001  -6.971942e+001 
3462500000  -4.792015e+001  -7.897794e+001 
3465625000  -4.693465e+001  -8.896856e+001 
3468750000  -4.729903e+001  -9.595798e+001 
3471875000  -4.676668e+001  -1.019897e+002 
3475000000  -4.660573e+001  -1.146024e+002 
3478125000  -4.786519e+001  -1.281381e+002 
3481250000  -4.912251e+001  -1.357164e+002 
3484375000  -4.845145e+001  -1.335247e+002 
3487500000  -4.753008e+001  -1.414446e+002 
3490625000  -4.704556e+001  -1.574553e+002 
3493750000  -4.769016e+001  -1.704202e+002 
3496875000  -4.795681e+001  -1.708810e+002 
3500000000  -4.892501e+001  -1.749441e+002 
3503125000  -4.719422e+001  -1.728421e+002 
3506250000  -4.553260e+001  1.706461e+002 
3509375000  -4.596873e+001  1.517043e+002 
3512500000  -4.631794e+001  1.348747e+002 
3515625000  -4.762516e+001  1.287170e+002 
3518750000  -4.791636e+001  1.312906e+002 
3521875000  -4.837170e+001  1.152742e+002 
3525000000  -4.836172e+001  1.115989e+002 
3528125000  -4.751542e+001  1.200462e+002 
3531250000  -4.654211e+001  1.027071e+002 
3534375000  -4.714841e+001  8.961629e+001 
3537500000  -4.788818e+001  7.742973e+001 
3540625000  -4.904245e+001  7.596142e+001 
3543750000  -4.969569e+001  8.211128e+001 
3546875000  -4.840853e+001  8.231499e+001 
3550000000  -4.661918e+001  7.543695e+001 
3553125000  -4.571118e+001  5.347178e+001 
3556250000  -4.787637e+001  4.769988e+001 
3559375000  -4.642217e+001  4.150544e+001 
3562500000  -4.671202e+001  3.265854e+001 
3565625000  -4.725465e+001  2.689973e+001 
3568750000  -4.773615e+001  2.519995e+001 
3571875000  -4.723997e+001  1.728018e+001 
3575000000  -4.719439e+001  1.202363e+001 
3578125000  -4.754934e+001  9.031420e+000 
3581250000  -4.741473e+001  2.682509e+000 
3584375000  -4.596689e+001  -5.447583e+000 
3587500000  -4.558269e+001  -1.617377e+001 
3590625000  -4.684669e+001  -2.747737e+001 
3593750000  -4.762613e+001  -2.679610e+001 
3596875000  -4.648016e+001  -2.125271e+001 
3600000000  -4.444028e+001  -3.036856e+001 
3603125000  -4.525057e+001  -4.813824e+001 
3606250000  -4.597089e+001  -5.417344e+001 
3609375000  -4.632184e+001  -5.791333e+001 
3612500000  -4.612441e+001  -6.108585e+001 
3615625000  -4.626385e+001  -6.949765e+001 
3618750000  -4.635236e+001  -7.203827e+001 
3621875000  -4.561761e+001  -7.759924e+001 
3625000000  -4.590547e+001  -8.226047e+001 
3628125000  -4.468096e+001  -8.846378e+001 
3631250000  -4.503804e+001  -9.879488e+001 
3634375000  -4.549440e+001  -9.908563e+001 
3637500000  -4.459815e+001  -1.013352e+002 
3640625000  -4.367952e+001  -1.072164e+002 
3643750000  -4.343364e+001  -1.186840e+002 
3646875000  -4.372421e+001  -1.297278e+002 
3650000000  -4.406724e+001  -1.355076e+002 
3653125000  -4.329597e+001  -1.402552e+002 
3656250000  -4.408718e+001  -1.487284e+002 
3659375000  -4.379694e+001  -1.534279e+002 
3662500000  -4.321006e+001  -1.610087e+002 
3665625000  -4.325648e+001  -1.653743e+002 
3668750000  -4.183894e+001  -1.678777e+002 
3671875000  -4.124460e+001  1.766382e+002 
3675000000  -4.200575e+001  1.678288e+002 
3678125000  -4.249516e+001  1.633471e+002 
3681250000  -4.241565e+001  1.576727e+002 
3684375000  -4.269137e+001  1.475246e+002 
3687500000  -4.300723e+001  1.382563e+002 
3690625000  -4.350444e+001  1.333780e+002 
3693750000  -4.442133e+001  1.327338e+002 
3696875000  -4.374311e+001  1.299336e+002 
3700000000  -4.293771e+001  1.213968e+002 
3703125000  -4.366210e+001  1.136087e+002 
3706250000  -4.448696e+001  1.121323e+002 
3709375000  -4.372022e+001  1.115370e+002 
3712500000  -4.260427e+001  1.049520e+002 
3715625000  -4.174260e+001  9.553556e+001 
3718750000  -4.198709e+001  8.660690e+001 
3721875000  -4.188108e+001  7.573773e+001 
3725000000  -4.259840e+001  6.800202e+001 
3728125000  -4.254435e+001  6.388998e+001 
3731250000  -4.202550e+001  6.036001e+001 
3734375000  -4.223317e+001  5.173268e+001 
3737500000  -4.290195e+001  4.253965e+001 
3740625000  -4.330034e+001  3.433761e+001 
3743750000  -4.272400e+001  2.888642e+001 
3746875000  -4.307153e+001  2.643678e+001 
3750000000  -4.341499e+001  2.000513e+001 
3753125000  -4.386462e+001  1.642077e+001 
3756250000  -4.409916e+001  1.281444e+001 
3759375000  -4.364007e+001  8.213016e+000 
3762500000  -4.320575e+001  2.508834e+000 
3765625000  -4.428793e+001  -1.379713e+000 
3768750000  -4.338269e+001  -4.317794e-001 
3771875000  -4.204840e+001  -8.725888e+000 
3775000000  -4.215732e+001  -2.005466e+001 
3778125000  -4.286391e+001  -2.278549e+001 
3781250000  -4.275248e+001  -3.143756e+001 
3784375000  -4.239764e+001  -3.613268e+001 
3787500000  -4.229499e+001  -4.237018e+001 
3790625000  -4.275053e+001  -5.127678e+001 
3793750000  -4.256123e+001  -5.684278e+001 
3796875000  -4.155182e+001  -5.939474e+001 
3800000000  -4.076946e+001  -6.856040e+001 
3803125000  -4.148172e+001  -7.783888e+001 
3806250000  -4.215615e+001  -8.381182e+001 
3809375000  -4.212077e+001  -8.869037e+001 
3812500000  -4.163174e+001  -9.972328e+001 
3815625000  -4.313736e+001  -1.100938e+002 
3818750000  -4.429151e+001  -1.077612e+002 
3821875000  -4.301181e+001  -9.977776e+001 
3825000000  -4.154045e+001  -1.011207e+002 
3828125000  -4.061857e+001  -1.247546e+002 
3831250000  -4.137534e+001  -1.431043e+002 
3834375000  -4.384344e+001  -1.420174e+002 
3837500000  -4.413996e+001  -1.394732e+002 
3840625000  -4.221351e+001  -1.465838e+002 
3843750000  -4.179291e+001  -1.619775e+002 
3846875000  -4.327927e+001  -1.676104e+002 
3850000000  -4.427371e+001  -1.621570e+002 
3853125000  -4.349896e+001  -1.637296e+002 
3856250000  -4.292863e+001  -1.695946e+002 
3859375000  -4.249497e+001  -1.795803e+002 
3862500000  -4.229963e+001  1.700363e+002 
3865625000  -4.287465e+001  1.642205e+002 
3868750000  -4.248155e+001  1.601194e+002 
3871875000  -4.163853e+001  1.517527e+002 
3875000000  -4.232549e+001  1.401804e+002 
3878125000  -4.334007e+001  1.387981e+002 
3881250000  -4.343094e+001  1.391130e+002 
3884375000  -4.266793e+001  1.299135e+002 
3887500000  -4.324924e+001  1.213572e+002 
3890625000  -4.365329e+001  1.171201e+002 
3893750000  -4.409029e+001  1.150412e+002 
3896875000  -4.452077e+001  1.111807e+002 
3900000000  -4.457990e+001  1.089147e+002 
3903125000  -4.420663e+001  1.029252e+002 
3906250000  -4.349950e+001  9.715227e+001 
3909375000  -4.242842e+001  8.969016e+001 
3912500000  -4.398291e+001  7.886892e+001 
3915625000  -4.495405e+001  7.714783e+001 
3918750000  -4.414951e+001  7.520310e+001 
3921875000  -4.372981e+001  7.216521e+001 
3925000000  -4.286087e+001  6.404079e+001 
3928125000  -4.261138e+001  5.644363e+001 
3931250000  -4.349081e+001  4.717868e+001 
3934375000  -4.369035e+001  5.008620e+001 
3937500000  -4.425033e+001  4.513076e+001 
3940625000  -4.452447e+001  4.243932e+001 
3943750000  -4.309662e+001  3.755233e+001 
3946875000  -4.259050e+001  2.800551e+001 
3950000000  -4.395253e+001  2.119567e+001 
3953125000  -4.455025e+001  2.097135e+001 
3956250000  -4.318974e+001  1.851795e+001 
3959375000  -4.165387e+001  1.511738e+001 
3962500000  -4.145078e+001  1.508866e+000 
3965625000  -4.170427e+001  -7.838675e+000 
3968750000  -4.283224e+001  -1.828803e+001 
3971875000  -4.213343e+001  -2.205174e+001 
3975000000  -4.213325e+001  -2.896821e+001 
3978125000  -4.234461e+001  -3.206710e+001 
3981250000  -4.163911e+001  -3.955373e+001 
3984375000  -4.240319e+001  -4.835242e+001 
3987500000  -4.280732e+001  -5.069542e+001 
3990625000  -4.301548e+001  -5.365212e+001 
3993750000  -4.303825e+001  -6.335714e+001 
3996875000  -4.299426e+001  -6.987824e+001 
4000000000  -4.390620e+001  -7.024023e+001 
4003125000  -4.336764e+001  -7.382075e+001 
4006250000  -4.206107e+001  -7.824201e+001 
4009375000  -4.129057e+001  -9.375243e+001 
4012500000  -4.294608e+001  -1.036707e+002 
4015625000  -4.388255e+001  -1.047325e+002 
4018750000  -4.369985e+001  -1.062578e+002 
4021875000  -4.296002e+001  -1.164478e+002 
4025000000  -4.272508e+001  -1.225282e+002 
4028125000  -4.307053e+001  -1.297403e+002 
4031250000  -4.407182e+001  -1.358131e+002 
4034375000  -4.419097e+001  -1.397631e+002 
4037500000  -4.400703e+001  -1.396409e+002 
4040625000  -4.426138e+001  -1.462173e+002 
4043750000  -4.435176e+001  -1.517279e+002 
4046875000  -4.413003e+001  -1.560718e+002 
4050000000  -4.430789e+001  -1.627270e+002 
4053125000  -4.516339e+001  -1.690207e+002 
4056250000  -4.616111e+001  -1.652759e+002 
4059375000  -4.409607e+001  -1.642896e+002 
4062500000  -4.315086e+001  -1.729104e+002 
4065625000  -4.319491e+001  1.782956e+002 
4068750000  -4.300003e+001  1.731151e+002 
4071875000  -4.244528e+001  1.625898e+002 
4075000000  -4.375783e+001  1.532530e+002 
4078125000  -4.379134e+001  1.515869e+002 
4081250000  -4.345217e+001  1.463905e+002 
4084375000  -4.359388e+001  1.359236e+002 
4087500000  -4.395934e+001  1.301955e+002 
4090625000  -4.457289e+001  1.249205e+002 
4093750000  -4.411338e+001  1.251418e+002 
4096875000  -4.441208e+001  1.171588e+002 
4100000000  -4.526180e+001  1.099885e+002 
4103125000  -4.592108e+001  1.145686e+002 
4106250000  -4.469085e+001  1.159035e+002 
4109375000  -4.440295e+001  1.100706e+002 
4112500000  -4.361002e+001  1.002408e+002 
4115625000  -4.393181e+001  9.583973e+001 
4118750000  -4.404864e+001  9.070706e+001 
4121875000  -4.335996e+001  8.134795e+001 
4125000000  -4.439168e+001  7.725593e+001 
4128125000  -4.503170e+001  7.909699e+001 
4131250000  -4.371616e+001  8.246499e+001 
4134375000  -4.150034e+001  7.104512e+001 
4137500000  -4.147083e+001  5.078609e+001 
4140625000  -4.445107e+001  4.091183e+001 
4143750000  -4.438219e+001  4.667501e+001 
4146875000  -4.383760e+001  5.022241e+001 
4150000000  -4.260268e+001  4.109415e+001 
4153125000  -4.327025e+001  2.789843e+001 
4156250000  -4.400105e+001  2.658160e+001 
4159375000  -4.355499e+001  2.909675e+001 
4162500000  -4.202945e+001  2.605615e+001 
4165625000  -4.163009e+001  1.623371e+001 
4168750000  -4.112811e+001  5.931660e+000 
4171875000  -4.131499e+001  -7.266074e+000 
4175000000  -4.171865e+001  -1.360760e+001 
4178125000  -4.221430e+001  -1.700567e+001 
4181250000  -4.211956e+001  -2.471174e+001 
4184375000  -4.267770e+001  -3.054818e+001 
4187500000  -4.262368e+001  -3.639825e+001 
4190625000  -4.265413e+001  -4.662661e+001 
4193750000  -4.354317e+001  -5.250259e+001 
4196875000  -4.463727e+001  -5.393894e+001 
4200000000  -4.551986e+001  -4.699720e+001 
4203125000  -4.399403e+001  -3.987730e+001 
4206250000  -4.108408e+001  -5.100046e+001 
4209375000  -4.157557e+001  -7.410606e+001 
4212500000  -4.362443e+001  -7.968359e+001 
4215625000  -4.406137e+001  -7.397879e+001 
4218750000  -4.254647e+001  -7.172601e+001 
4221875000  -4.110762e+001  -8.537586e+001 
4225000000  -4.236940e+001  -9.587833e+001 
4228125000  -4.199480e+001  -9.549831e+001 
4231250000  -4.083005e+001  -1.048463e+002 
4234375000  -4.094080e+001  -1.146860e+002 
4237500000  -4.063348e+001  -1.204551e+002 
4240625000  -4.108275e+001  -1.314758e+002 
4243750000  -4.208844e+001  -1.381211e+002 
4246875000  -4.288146e+001  -1.390437e+002 
4250000000  -4.259693e+001  -1.400495e+002 
4253125000  -4.231540e+001  -1.430016e+002 
4256250000  -4.247146e+001  -1.482479e+002 
4259375000  -4.208787e+001  -1.540147e+002 
4262500000  -4.228529e+001  -1.593326e+002 
4265625000  -4.205137e+001  -1.606136e+002 
4268750000  -4.108291e+001  -1.682836e+002 
4271875000  -4.069639e+001  1.782736e+002 
4275000000  -4.000124e+001  1.689753e+002 
4278125000  -4.156089e+001  1.561229e+002 
4281250000  -4.243004e+001  1.557036e+002 
4284375000  -4.200786e+001  1.524551e+002 
4287500000  -4.395689e+001  1.513395e+002 
4290625000  -4.384959e+001  1.576724e+002 
4293750000  -4.151634e+001  1.560542e+002 
4296875000  -4.009237e+001  1.408280e+002 
4300000000  -4.125921e+001  1.265404e+002 
4303125000  -4.234549e+001  1.290986e+002 
4306250000  -4.042236e+001  1.295950e+002 
4309375000  -3.986850e+001  1.204390e+002 
4312500000  -3.990247e+001  1.073412e+002 
4315625000  -4.015772e+001  9.785543e+001 
4318750000  -4.091599e+001  9.212581e+001 
4321875000  -4.054337e+001  9.210142e+001 
4325000000  -4.016800e+001  8.733146e+001 
4328125000  -3.939246e+001  7.656047e+001 
4331250000  -3.976565e+001  6.262862e+001 
4334375000  -4.070144e+001  5.647607e+001 
4337500000  -4.182605e+001  5.538578e+001 
4340625000  -4.193060e+001  5.571085e+001 
4343750000  -4.108144e+001  4.997532e+001 
4346875000  -4.054960e+001  4.188671e+001 
4350000000  -4.122336e+001  3.123734e+001 
4353125000  -4.202749e+001  2.033970e+001 
4356250000  -4.383938e+001  2.665477e+001 
4359375000  -4.312840e+001  3.678620e+001 
4362500000  -3.952262e+001  2.958554e+001 
4365625000  -3.893815e+001  1.230027e+001 
4368750000  -4.011163e+001  1.289001e+000 
4371875000  -4.117896e+001  -5.555469e-001 
4375000000  -4.093779e+001  -6.640965e+000 
4378125000  -4.030168e+001  -1.657736e+001 
4381250000  -4.041984e+001  -2.207257e+001 
4384375000  -4.050406e+001  -2.956234e+001 
4387500000  -4.182673e+001  -3.630890e+001 
4390625000  -4.210689e+001  -4.113564e+001 
4393750000  -4.178117e+001  -3.883319e+001 
4396875000  -4.128568e+001  -4.595741e+001 
4400000000  -4.073039e+001  -5.532663e+001 
4403125000  -4.127715e+001  -6.388021e+001 
4406250000  -4.184586e+001  -6.953271e+001 
4409375000  -4.224336e+001  -7.419947e+001 
4412500000  -4.337357e+001  -7.790215e+001 
4415625000  -4.311405e+001  -7.396086e+001 
4418750000  -4.200064e+001  -7.631268e+001 
