!Agilent Technologies,E8363B,MY43030201,A.06.04.32
!Agilent E8363B: A.06.04.32
!Date: Tuesday, November 11, 2014 21:43:36
!Correction: S21(Response(S21)) 
!S1P File: Measurement: S21:
# Hz S  dB   R 50
3000000000  -4.376263e+001  -1.601286e+002 
3003125000  -4.542517e+001  -1.648508e+002 
3006250000  -4.536946e+001  -1.677215e+002 
3009375000  -4.589097e+001  -1.625911e+002 
3012500000  -4.464777e+001  -1.699793e+002 
3015625000  -4.515465e+001  -1.745322e+002 
3018750000  -4.535063e+001  -1.753887e+002 
3021875000  -4.411627e+001  -1.769296e+002 
3025000000  -4.262351e+001  1.796911e+002 
3028125000  -4.174789e+001  1.659863e+002 
3031250000  -4.080289e+001  1.535823e+002 
3034375000  -4.088974e+001  1.400101e+002 
3037500000  -4.159517e+001  1.305021e+002 
3040625000  -4.291679e+001  1.217143e+002 
3043750000  -4.312092e+001  1.167227e+002 
3046875000  -4.424228e+001  1.064565e+002 
3050000000  -4.539103e+001  1.051305e+002 
3053125000  -4.457832e+001  1.079094e+002 
3056250000  -4.456939e+001  1.094949e+002 
3059375000  -4.382014e+001  1.058554e+002 
3062500000  -4.241806e+001  1.012785e+002 
3065625000  -4.220656e+001  9.128101e+001 
3068750000  -4.174281e+001  8.305506e+001 
3071875000  -4.167409e+001  8.169267e+001 
3075000000  -4.119370e+001  7.196358e+001 
3078125000  -4.118998e+001  6.610642e+001 
3081250000  -4.110287e+001  5.877792e+001 
3084375000  -4.048343e+001  5.397632e+001 
3087500000  -4.052578e+001  4.529866e+001 
3090625000  -3.998539e+001  3.227528e+001 
3093750000  -4.109184e+001  2.264722e+001 
3096875000  -4.113937e+001  1.750945e+001 
3100000000  -4.125031e+001  1.397776e+001 
3103125000  -4.156096e+001  8.653697e+000 
3106250000  -4.107230e+001  2.392148e+000 
3109375000  -4.103426e+001  -1.721210e+000 
3112500000  -4.081190e+001  -9.088332e+000 
3115625000  -4.103556e+001  -1.293391e+001 
3118750000  -4.052527e+001  -1.883596e+001 
3121875000  -4.022180e+001  -3.133592e+001 
3125000000  -4.226746e+001  -3.538936e+001 
3128125000  -4.198954e+001  -2.915221e+001 
3131250000  -3.966360e+001  -3.666427e+001 
3134375000  -3.909459e+001  -5.496947e+001 
3137500000  -3.944345e+001  -6.909387e+001 
3140625000  -4.116862e+001  -7.308642e+001 
3143750000  -4.158351e+001  -7.719432e+001 
3146875000  -4.129938e+001  -7.529637e+001 
3150000000  -4.053041e+001  -8.133911e+001 
3153125000  -4.082163e+001  -9.074989e+001 
3156250000  -4.145119e+001  -8.632362e+001 
3159375000  -3.927438e+001  -9.109576e+001 
3162500000  -3.777491e+001  -1.071145e+002 
3165625000  -3.908209e+001  -1.213922e+002 
3168750000  -3.906829e+001  -1.234943e+002 
3171875000  -3.877006e+001  -1.312402e+002 
3175000000  -3.916096e+001  -1.415120e+002 
3178125000  -3.891706e+001  -1.439572e+002 
3181250000  -3.819366e+001  -1.519888e+002 
3184375000  -3.796143e+001  -1.651330e+002 
3187500000  -3.929012e+001  1.785461e+002 
3190625000  -4.090320e+001  1.722736e+002 
3193750000  -4.135630e+001  1.763499e+002 
3196875000  -4.102914e+001  1.760795e+002 
3200000000  -3.997369e+001  1.706692e+002 
3203125000  -3.975283e+001  1.627719e+002 
3206250000  -3.972975e+001  1.533614e+002 
3209375000  -3.948621e+001  1.447497e+002 
3212500000  -4.007022e+001  1.374874e+002 
3215625000  -3.954264e+001  1.348577e+002 
3218750000  -4.052608e+001  1.213325e+002 
3221875000  -4.040372e+001  1.152013e+002 
3225000000  -4.040797e+001  1.094620e+002 
3228125000  -4.120613e+001  1.036842e+002 
3231250000  -4.146622e+001  9.886826e+001 
3234375000  -4.119340e+001  9.584002e+001 
3237500000  -4.107848e+001  9.133678e+001 
3240625000  -4.049282e+001  8.432833e+001 
3243750000  -4.042491e+001  7.306335e+001 
3246875000  -4.064520e+001  6.572616e+001 
3250000000  -4.114080e+001  5.955834e+001 
3253125000  -4.109965e+001  5.761015e+001 
3256250000  -4.039188e+001  4.519127e+001 
3259375000  -4.115887e+001  3.269952e+001 
3262500000  -4.220595e+001  2.689796e+001 
3265625000  -4.258853e+001  3.077995e+001 
3268750000  -4.253576e+001  2.850693e+001 
3271875000  -4.177041e+001  2.218222e+001 
3275000000  -4.111288e+001  1.201912e+001 
3278125000  -4.180456e+001  4.370357e+000 
3281250000  -4.183732e+001  4.088684e-002 
3284375000  -4.116658e+001  -7.468353e+000 
3287500000  -4.160976e+001  -1.473210e+001 
3290625000  -4.160910e+001  -2.488503e+001 
3293750000  -4.164328e+001  -3.291091e+001 
3296875000  -4.289705e+001  -3.692934e+001 
3300000000  -4.199318e+001  -4.073258e+001 
3303125000  -4.116889e+001  -4.957060e+001 
3306250000  -4.095249e+001  -5.880038e+001 
3309375000  -4.057771e+001  -6.954493e+001 
3312500000  -4.142451e+001  -8.499156e+001 
3315625000  -4.243311e+001  -9.300949e+001 
3318750000  -4.398122e+001  -9.928244e+001 
3321875000  -4.495802e+001  -9.882249e+001 
3325000000  -4.520260e+001  -9.422578e+001 
3328125000  -4.403806e+001  -9.659117e+001 
3331250000  -4.261063e+001  -9.622137e+001 
3334375000  -4.060476e+001  -1.166936e+002 
3337500000  -4.110611e+001  -1.408619e+002 
3340625000  -4.288402e+001  -1.496488e+002 
3343750000  -4.466972e+001  -1.528735e+002 
3346875000  -4.418940e+001  -1.546372e+002 
3350000000  -4.367808e+001  -1.587615e+002 
3353125000  -4.375997e+001  -1.701375e+002 
3356250000  -4.338430e+001  1.797381e+002 
3359375000  -4.448422e+001  1.687265e+002 
3362500000  -4.540564e+001  1.617429e+002 
3365625000  -4.616957e+001  1.507052e+002 
3368750000  -4.656467e+001  1.485261e+002 
3371875000  -4.709001e+001  1.409718e+002 
3375000000  -4.864963e+001  1.359191e+002 
3378125000  -4.986039e+001  1.351242e+002 
3381250000  -5.152827e+001  1.412575e+002 
3384375000  -4.752889e+001  1.539592e+002 
3387500000  -4.460947e+001  1.296858e+002 
3390625000  -4.693927e+001  1.028521e+002 
3393750000  -4.821985e+001  1.051877e+002 
3396875000  -4.648300e+001  1.007241e+002 
3400000000  -4.622998e+001  8.684981e+001 
3403125000  -4.721748e+001  7.988683e+001 
3406250000  -4.770054e+001  7.221092e+001 
3409375000  -4.743846e+001  5.787339e+001 
3412500000  -4.787878e+001  5.409483e+001 
3415625000  -4.893095e+001  5.184559e+001 
3418750000  -4.898245e+001  4.380616e+001 
3421875000  -4.897514e+001  4.408051e+001 
3425000000  -4.720592e+001  3.459690e+001 
3428125000  -4.721445e+001  2.836971e+001 
3431250000  -4.675466e+001  1.353189e+001 
3434375000  -4.695833e+001  2.654573e+000 
3437500000  -4.717236e+001  -8.979346e+000 
3440625000  -4.793858e+001  -7.394700e+000 
3443750000  -4.615727e+001  -1.180276e+001 
3446875000  -4.608112e+001  -2.780167e+001 
3450000000  -4.539492e+001  -4.322646e+001 
3453125000  -4.560429e+001  -5.763443e+001 
3456250000  -4.762792e+001  -6.730143e+001 
3459375000  -4.796841e+001  -7.110777e+001 
3462500000  -4.823992e+001  -7.419165e+001 
3465625000  -4.703647e+001  -8.868867e+001 
3468750000  -4.735424e+001  -9.531904e+001 
3471875000  -4.700826e+001  -1.006205e+002 
3475000000  -4.656500e+001  -1.134135e+002 
3478125000  -4.789871e+001  -1.293618e+002 
3481250000  -4.911243e+001  -1.328408e+002 
3484375000  -4.886344e+001  -1.319852e+002 
3487500000  -4.701154e+001  -1.413928e+002 
3490625000  -4.726287e+001  -1.518492e+002 
3493750000  -4.791319e+001  -1.648118e+002 
3496875000  -4.765336e+001  -1.695029e+002 
3500000000  -4.830504e+001  -1.675529e+002 
3503125000  -4.733449e+001  -1.718626e+002 
3506250000  -4.551675e+001  1.724174e+002 
3509375000  -4.558916e+001  1.553178e+002 
3512500000  -4.636914e+001  1.363006e+002 
3515625000  -4.702803e+001  1.318223e+002 
3518750000  -4.791140e+001  1.317698e+002 
3521875000  -4.767226e+001  1.215508e+002 
3525000000  -4.915862e+001  1.162736e+002 
3528125000  -4.736799e+001  1.191482e+002 
3531250000  -4.653741e+001  1.075164e+002 
3534375000  -4.680851e+001  9.045010e+001 
3537500000  -4.792276e+001  8.270482e+001 
3540625000  -4.873482e+001  7.756521e+001 
3543750000  -4.896946e+001  8.108195e+001 
3546875000  -4.893687e+001  8.428113e+001 
3550000000  -4.613718e+001  7.795474e+001 
3553125000  -4.587874e+001  5.264806e+001 
3556250000  -4.731637e+001  4.715486e+001 
3559375000  -4.647827e+001  4.624862e+001 
3562500000  -4.672492e+001  3.125632e+001 
3565625000  -4.710875e+001  2.738224e+001 
3568750000  -4.774873e+001  2.553781e+001 
3571875000  -4.725658e+001  2.056826e+001 
3575000000  -4.698368e+001  1.330165e+001 
3578125000  -4.731210e+001  1.114309e+001 
3581250000  -4.734995e+001  5.683723e+000 
3584375000  -4.621905e+001  -1.559272e+000 
3587500000  -4.573495e+001  -1.457501e+001 
3590625000  -4.657687e+001  -2.217603e+001 
3593750000  -4.818755e+001  -2.308445e+001 
3596875000  -4.677249e+001  -1.972366e+001 
3600000000  -4.477302e+001  -3.136025e+001 
3603125000  -4.491908e+001  -4.654959e+001 
3606250000  -4.601891e+001  -5.323481e+001 
3609375000  -4.569191e+001  -5.640449e+001 
3612500000  -4.610915e+001  -6.382553e+001 
3615625000  -4.640500e+001  -6.886616e+001 
3618750000  -4.614960e+001  -6.988563e+001 
3621875000  -4.545763e+001  -7.361421e+001 
3625000000  -4.563937e+001  -7.752236e+001 
3628125000  -4.462601e+001  -8.486804e+001 
3631250000  -4.508088e+001  -9.621082e+001 
3634375000  -4.544136e+001  -9.620942e+001 
3637500000  -4.459310e+001  -9.746965e+001 
3640625000  -4.371342e+001  -1.067366e+002 
3643750000  -4.305442e+001  -1.170478e+002 
3646875000  -4.366822e+001  -1.260179e+002 
3650000000  -4.357916e+001  -1.332982e+002 
3653125000  -4.320235e+001  -1.385110e+002 
3656250000  -4.447241e+001  -1.456356e+002 
3659375000  -4.374405e+001  -1.509366e+002 
3662500000  -4.335596e+001  -1.568624e+002 
3665625000  -4.348116e+001  -1.636376e+002 
3668750000  -4.196215e+001  -1.662459e+002 
3671875000  -4.144171e+001  1.790754e+002 
3675000000  -4.217496e+001  1.702824e+002 
3678125000  -4.257752e+001  1.646814e+002 
3681250000  -4.227149e+001  1.595568e+002 
3684375000  -4.226602e+001  1.525711e+002 
3687500000  -4.280907e+001  1.427912e+002 
3690625000  -4.404786e+001  1.362454e+002 
3693750000  -4.420116e+001  1.340250e+002 
3696875000  -4.404013e+001  1.320833e+002 
3700000000  -4.308437e+001  1.249851e+002 
3703125000  -4.363728e+001  1.176644e+002 
3706250000  -4.455282e+001  1.126191e+002 
3709375000  -4.409391e+001  1.146540e+002 
3712500000  -4.277399e+001  1.068387e+002 
3715625000  -4.163819e+001  9.872374e+001 
3718750000  -4.195264e+001  8.739085e+001 
3721875000  -4.208902e+001  7.868221e+001 
3725000000  -4.247559e+001  7.133002e+001 
3728125000  -4.275085e+001  6.912029e+001 
3731250000  -4.180339e+001  6.186319e+001 
3734375000  -4.194647e+001  5.489253e+001 
3737500000  -4.270963e+001  4.565311e+001 
3740625000  -4.325969e+001  3.971739e+001 
3743750000  -4.285859e+001  3.517409e+001 
3746875000  -4.337309e+001  2.690971e+001 
3750000000  -4.370393e+001  2.314319e+001 
3753125000  -4.356477e+001  1.992384e+001 
3756250000  -4.371156e+001  1.639837e+001 
3759375000  -4.368898e+001  1.240868e+001 
3762500000  -4.370486e+001  5.630181e+000 
3765625000  -4.440674e+001  2.498335e+000 
3768750000  -4.333249e+001  1.068108e+000 
3771875000  -4.199485e+001  -6.868356e+000 
3775000000  -4.207602e+001  -1.645852e+001 
3778125000  -4.282856e+001  -2.246622e+001 
3781250000  -4.263789e+001  -2.768918e+001 
3784375000  -4.256477e+001  -3.405452e+001 
3787500000  -4.265501e+001  -4.068431e+001 
3790625000  -4.294070e+001  -4.639775e+001 
3793750000  -4.313157e+001  -5.154613e+001 
3796875000  -4.152727e+001  -5.729779e+001 
3800000000  -4.084460e+001  -6.437411e+001 
3803125000  -4.204340e+001  -7.546774e+001 
3806250000  -4.247220e+001  -8.202361e+001 
3809375000  -4.167337e+001  -8.543732e+001 
3812500000  -4.195214e+001  -9.652511e+001 
3815625000  -4.305637e+001  -1.068684e+002 
3818750000  -4.438637e+001  -1.051054e+002 
3821875000  -4.350680e+001  -9.639074e+001 
3825000000  -4.150657e+001  -1.035488e+002 
3828125000  -4.029950e+001  -1.235272e+002 
3831250000  -4.151012e+001  -1.385064e+002 
3834375000  -4.409219e+001  -1.387014e+002 
3837500000  -4.385157e+001  -1.348262e+002 
3840625000  -4.224245e+001  -1.404618e+002 
3843750000  -4.163466e+001  -1.568103e+002 
3846875000  -4.336885e+001  -1.632020e+002 
3850000000  -4.416908e+001  -1.595690e+002 
3853125000  -4.330765e+001  -1.622460e+002 
3856250000  -4.307947e+001  -1.672241e+002 
3859375000  -4.178967e+001  -1.767325e+002 
3862500000  -4.213313e+001  1.705897e+002 
3865625000  -4.291836e+001  1.670735e+002 
3868750000  -4.231602e+001  1.628143e+002 
3871875000  -4.168082e+001  1.556315e+002 
3875000000  -4.255877e+001  1.437319e+002 
3878125000  -4.316421e+001  1.421514e+002 
3881250000  -4.353344e+001  1.415641e+002 
3884375000  -4.253725e+001  1.304991e+002 
3887500000  -4.367226e+001  1.248888e+002 
3890625000  -4.411806e+001  1.206162e+002 
3893750000  -4.487570e+001  1.157586e+002 
3896875000  -4.438190e+001  1.131559e+002 
3900000000  -4.448245e+001  1.070531e+002 
3903125000  -4.428203e+001  1.030441e+002 
3906250000  -4.353376e+001  9.912495e+001 
3909375000  -4.267865e+001  9.184135e+001 
3912500000  -4.372196e+001  8.010252e+001 
3915625000  -4.506757e+001  8.384637e+001 
3918750000  -4.462637e+001  8.044575e+001 
3921875000  -4.350603e+001  7.771536e+001 
3925000000  -4.284637e+001  6.905147e+001 
3928125000  -4.308332e+001  5.950690e+001 
3931250000  -4.351424e+001  5.175382e+001 
3934375000  -4.416214e+001  4.721473e+001 
3937500000  -4.482158e+001  4.742583e+001 
3940625000  -4.493245e+001  4.621117e+001 
3943750000  -4.335015e+001  4.118521e+001 
3946875000  -4.281444e+001  3.351588e+001 
3950000000  -4.372527e+001  2.367867e+001 
3953125000  -4.473208e+001  2.411675e+001 
3956250000  -4.302654e+001  2.264900e+001 
3959375000  -4.213064e+001  1.526014e+001 
3962500000  -4.187931e+001  6.218226e+000 
3965625000  -4.205407e+001  -7.689695e+000 
3968750000  -4.268133e+001  -1.385451e+001 
3971875000  -4.241357e+001  -1.859191e+001 
3975000000  -4.216792e+001  -2.290971e+001 
3978125000  -4.253013e+001  -3.006300e+001 
3981250000  -4.188467e+001  -3.808367e+001 
3984375000  -4.271170e+001  -4.467630e+001 
3987500000  -4.341213e+001  -4.809842e+001 
3990625000  -4.320066e+001  -5.377208e+001 
3993750000  -4.314505e+001  -6.016553e+001 
3996875000  -4.298013e+001  -6.542954e+001 
4000000000  -4.360775e+001  -6.997211e+001 
4003125000  -4.357578e+001  -7.057172e+001 
4006250000  -4.212630e+001  -7.791282e+001 
4009375000  -4.125228e+001  -9.071690e+001 
4012500000  -4.298735e+001  -1.003254e+002 
4015625000  -4.431104e+001  -1.018501e+002 
4018750000  -4.402323e+001  -1.046478e+002 
4021875000  -4.333917e+001  -1.124129e+002 
4025000000  -4.338123e+001  -1.190306e+002 
4028125000  -4.355433e+001  -1.281883e+002 
4031250000  -4.423490e+001  -1.339008e+002 
4034375000  -4.419410e+001  -1.368437e+002 
4037500000  -4.417748e+001  -1.389991e+002 
4040625000  -4.456161e+001  -1.447809e+002 
4043750000  -4.453238e+001  -1.519045e+002 
4046875000  -4.453030e+001  -1.556413e+002 
4050000000  -4.434177e+001  -1.646888e+002 
4053125000  -4.563033e+001  -1.669768e+002 
4056250000  -4.577488e+001  -1.630393e+002 
4059375000  -4.422730e+001  -1.642635e+002 
4062500000  -4.391117e+001  -1.714169e+002 
4065625000  -4.358199e+001  -1.777520e+002 
4068750000  -4.331020e+001  1.726783e+002 
4071875000  -4.302059e+001  1.641507e+002 
4075000000  -4.359858e+001  1.552483e+002 
4078125000  -4.447942e+001  1.569619e+002 
4081250000  -4.346156e+001  1.513970e+002 
4084375000  -4.395365e+001  1.383319e+002 
4087500000  -4.402382e+001  1.325297e+002 
4090625000  -4.514821e+001  1.309566e+002 
4093750000  -4.449974e+001  1.286121e+002 
4096875000  -4.446455e+001  1.214449e+002 
4100000000  -4.572329e+001  1.135403e+002 
4103125000  -4.645213e+001  1.133533e+002 
4106250000  -4.496019e+001  1.177759e+002 
4109375000  -4.466596e+001  1.115739e+002 
4112500000  -4.450525e+001  1.025437e+002 
4115625000  -4.474665e+001  9.784049e+001 
4118750000  -4.430406e+001  9.205194e+001 
4121875000  -4.435283e+001  8.620226e+001 
4125000000  -4.469944e+001  7.772198e+001 
4128125000  -4.539407e+001  8.271778e+001 
4131250000  -4.418102e+001  8.459251e+001 
4134375000  -4.211150e+001  7.318918e+001 
4137500000  -4.248898e+001  5.219960e+001 
4140625000  -4.406874e+001  4.622258e+001 
4143750000  -4.545628e+001  4.861060e+001 
4146875000  -4.476265e+001  5.196799e+001 
4150000000  -4.295411e+001  4.079160e+001 
4153125000  -4.346580e+001  3.183677e+001 
4156250000  -4.441282e+001  2.998763e+001 
4159375000  -4.403042e+001  3.216455e+001 
4162500000  -4.272508e+001  2.999946e+001 
4165625000  -4.175076e+001  2.005706e+001 
4168750000  -4.178069e+001  8.355824e+000 
4171875000  -4.148614e+001  -3.522837e+000 
4175000000  -4.236618e+001  -1.213596e+001 
4178125000  -4.266550e+001  -1.423558e+001 
4181250000  -4.243548e+001  -1.994231e+001 
4184375000  -4.303640e+001  -2.696150e+001 
4187500000  -4.278741e+001  -3.232312e+001 
4190625000  -4.278030e+001  -4.295290e+001 
4193750000  -4.404803e+001  -5.000401e+001 
4196875000  -4.539209e+001  -5.169426e+001 
4200000000  -4.586282e+001  -4.621863e+001 
4203125000  -4.491726e+001  -3.454964e+001 
4206250000  -4.155123e+001  -4.697927e+001 
4209375000  -4.199872e+001  -7.099160e+001 
4212500000  -4.434169e+001  -7.542044e+001 
4215625000  -4.419834e+001  -7.255148e+001 
4218750000  -4.315669e+001  -7.217889e+001 
4221875000  -4.154967e+001  -8.088228e+001 
4225000000  -4.275274e+001  -9.336256e+001 
4228125000  -4.309951e+001  -9.104247e+001 
4231250000  -4.129122e+001  -9.834701e+001 
4234375000  -4.139847e+001  -1.129062e+002 
4237500000  -4.077465e+001  -1.155461e+002 
4240625000  -4.184088e+001  -1.285619e+002 
4243750000  -4.285169e+001  -1.349233e+002 
4246875000  -4.377766e+001  -1.367563e+002 
4250000000  -4.339721e+001  -1.364868e+002 
4253125000  -4.282246e+001  -1.396647e+002 
4256250000  -4.316314e+001  -1.438910e+002 
4259375000  -4.257853e+001  -1.516893e+002 
4262500000  -4.240887e+001  -1.533918e+002 
4265625000  -4.219440e+001  -1.597473e+002 
4268750000  -4.145565e+001  -1.666208e+002 
4271875000  -4.113232e+001  -1.756837e+002 
4275000000  -4.098186e+001  1.752964e+002 
4278125000  -4.207858e+001  1.614511e+002 
4281250000  -4.274526e+001  1.599773e+002 
4284375000  -4.244340e+001  1.550445e+002 
4287500000  -4.494931e+001  1.522849e+002 
4290625000  -4.417934e+001  1.588161e+002 
4293750000  -4.187460e+001  1.580925e+002 
4296875000  -4.093397e+001  1.416046e+002 
4300000000  -4.211483e+001  1.317049e+002 
4303125000  -4.221740e+001  1.346114e+002 
4306250000  -4.105822e+001  1.333395e+002 
4309375000  -4.021978e+001  1.234503e+002 
4312500000  -3.983737e+001  1.130961e+002 
4315625000  -4.052052e+001  1.022056e+002 
4318750000  -4.116362e+001  9.695105e+001 
4321875000  -4.129672e+001  9.464378e+001 
4325000000  -4.065161e+001  9.056023e+001 
4328125000  -3.975269e+001  8.027846e+001 
4331250000  -4.022459e+001  6.775727e+001 
4334375000  -4.116478e+001  5.828683e+001 
4337500000  -4.252839e+001  5.873677e+001 
4340625000  -4.236958e+001  5.799702e+001 
4343750000  -4.134537e+001  5.553080e+001 
4346875000  -4.118113e+001  4.481221e+001 
4350000000  -4.129792e+001  3.625318e+001 
4353125000  -4.240467e+001  2.768002e+001 
4356250000  -4.384095e+001  2.868369e+001 
4359375000  -4.312624e+001  4.466227e+001 
4362500000  -3.949792e+001  3.456975e+001 
4365625000  -3.959002e+001  1.520697e+001 
4368750000  -4.105324e+001  5.233098e+000 
4371875000  -4.162254e+001  7.022147e-001 
4375000000  -4.100238e+001  -1.416436e+000 
4378125000  -4.081489e+001  -9.604379e+000 
4381250000  -4.132893e+001  -1.974779e+001 
4384375000  -4.133348e+001  -2.720709e+001 
4387500000  -4.228838e+001  -3.329284e+001 
4390625000  -4.270113e+001  -3.384842e+001 
4393750000  -4.246734e+001  -3.577272e+001 
4396875000  -4.180959e+001  -3.883396e+001 
4400000000  -4.147202e+001  -5.135566e+001 
4403125000  -4.184602e+001  -5.999491e+001 
4406250000  -4.283530e+001  -6.525657e+001 
4409375000  -4.304948e+001  -6.994978e+001 
4412500000  -4.380639e+001  -7.165716e+001 
4415625000  -4.363275e+001  -6.867970e+001 
4418750000  -4.234303e+001  -6.832027e+001 
