!Agilent Technologies,E8363B,MY43030201,A.06.04.32
!Agilent E8363B: A.06.04.32
!Date: Tuesday, November 11, 2014 21:44:02
!Correction: S21(Response(S21)) 
!S1P File: Measurement: S21:
# Hz S  dB   R 50
3000000000  -4.380412e+001  -1.596353e+002 
3003125000  -4.533292e+001  -1.655804e+002 
3006250000  -4.557711e+001  -1.669956e+002 
3009375000  -4.645315e+001  -1.615631e+002 
3012500000  -4.515918e+001  -1.695122e+002 
3015625000  -4.480641e+001  -1.778542e+002 
3018750000  -4.538434e+001  -1.753398e+002 
3021875000  -4.378086e+001  -1.773885e+002 
3025000000  -4.253262e+001  1.791480e+002 
3028125000  -4.173209e+001  1.658355e+002 
3031250000  -4.094726e+001  1.538228e+002 
3034375000  -4.082926e+001  1.391215e+002 
3037500000  -4.154572e+001  1.290249e+002 
3040625000  -4.279211e+001  1.221793e+002 
3043750000  -4.329942e+001  1.141859e+002 
3046875000  -4.416986e+001  1.076690e+002 
3050000000  -4.515471e+001  1.036563e+002 
3053125000  -4.466129e+001  1.075543e+002 
3056250000  -4.474462e+001  1.096350e+002 
3059375000  -4.344967e+001  1.060877e+002 
3062500000  -4.240276e+001  1.030057e+002 
3065625000  -4.215039e+001  9.024599e+001 
3068750000  -4.189145e+001  8.313808e+001 
3071875000  -4.195318e+001  8.040415e+001 
3075000000  -4.112038e+001  7.204990e+001 
3078125000  -4.137386e+001  6.534412e+001 
3081250000  -4.129842e+001  5.756942e+001 
3084375000  -4.045034e+001  5.255898e+001 
3087500000  -4.070904e+001  4.513702e+001 
3090625000  -3.992124e+001  3.208667e+001 
3093750000  -4.100932e+001  2.342589e+001 
3096875000  -4.127114e+001  1.866173e+001 
3100000000  -4.123103e+001  1.379036e+001 
3103125000  -4.140714e+001  8.096193e+000 
3106250000  -4.104994e+001  3.122236e+000 
3109375000  -4.094389e+001  -2.490084e+000 
3112500000  -4.086102e+001  -9.444898e+000 
3115625000  -4.079802e+001  -1.458786e+001 
3118750000  -4.083099e+001  -2.094340e+001 
3121875000  -4.036291e+001  -3.213799e+001 
3125000000  -4.203390e+001  -3.453962e+001 
3128125000  -4.210273e+001  -2.931095e+001 
3131250000  -3.941065e+001  -3.805747e+001 
3134375000  -3.886713e+001  -5.515378e+001 
3137500000  -3.970597e+001  -6.916776e+001 
3140625000  -4.098866e+001  -7.247080e+001 
3143750000  -4.161595e+001  -7.810602e+001 
3146875000  -4.101416e+001  -7.669837e+001 
3150000000  -4.035393e+001  -8.114683e+001 
3153125000  -4.060786e+001  -9.074279e+001 
3156250000  -4.132867e+001  -8.686629e+001 
3159375000  -3.915830e+001  -8.963525e+001 
3162500000  -3.789415e+001  -1.074163e+002 
3165625000  -3.899620e+001  -1.220226e+002 
3168750000  -3.910762e+001  -1.233759e+002 
3171875000  -3.864142e+001  -1.308747e+002 
3175000000  -3.929012e+001  -1.412698e+002 
3178125000  -3.879427e+001  -1.442921e+002 
3181250000  -3.814086e+001  -1.523593e+002 
3184375000  -3.805276e+001  -1.657779e+002 
3187500000  -3.928880e+001  1.789091e+002 
3190625000  -4.113577e+001  1.711254e+002 
3193750000  -4.112137e+001  1.755641e+002 
3196875000  -4.136817e+001  1.753683e+002 
3200000000  -3.972066e+001  1.704838e+002 
3203125000  -3.967252e+001  1.622761e+002 
3206250000  -3.987354e+001  1.533206e+002 
3209375000  -3.954678e+001  1.442852e+002 
3212500000  -4.011050e+001  1.359559e+002 
3215625000  -3.989553e+001  1.346966e+002 
3218750000  -4.051349e+001  1.219965e+002 
3221875000  -4.077135e+001  1.138020e+002 
3225000000  -4.029307e+001  1.096163e+002 
3228125000  -4.118718e+001  1.012048e+002 
3231250000  -4.161323e+001  9.961570e+001 
3234375000  -4.093759e+001  9.578321e+001 
3237500000  -4.097717e+001  9.098438e+001 
3240625000  -4.053732e+001  8.449228e+001 
3243750000  -4.037635e+001  7.202759e+001 
3246875000  -4.095555e+001  6.303514e+001 
3250000000  -4.127074e+001  6.006841e+001 
3253125000  -4.136529e+001  5.612276e+001 
3256250000  -4.049865e+001  4.613139e+001 
3259375000  -4.087817e+001  3.303865e+001 
3262500000  -4.240381e+001  2.848616e+001 
3265625000  -4.266731e+001  2.836497e+001 
3268750000  -4.269067e+001  2.926795e+001 
3271875000  -4.184953e+001  2.170837e+001 
3275000000  -4.112523e+001  1.211002e+001 
3278125000  -4.181990e+001  4.335636e+000 
3281250000  -4.187957e+001  1.146732e+000 
3284375000  -4.107066e+001  -6.519375e+000 
3287500000  -4.163861e+001  -1.471769e+001 
3290625000  -4.169334e+001  -2.321086e+001 
3293750000  -4.154008e+001  -3.176409e+001 
3296875000  -4.280732e+001  -3.745313e+001 
3300000000  -4.182743e+001  -3.882850e+001 
3303125000  -4.092936e+001  -4.912817e+001 
3306250000  -4.113444e+001  -5.999871e+001 
3309375000  -4.071579e+001  -7.133851e+001 
3312500000  -4.131920e+001  -8.501823e+001 
3315625000  -4.266316e+001  -9.372430e+001 
3318750000  -4.400592e+001  -9.977750e+001 
3321875000  -4.538061e+001  -9.984225e+001 
3325000000  -4.481706e+001  -9.328942e+001 
3328125000  -4.430821e+001  -9.786175e+001 
3331250000  -4.233020e+001  -9.930766e+001 
3334375000  -4.039928e+001  -1.156888e+002 
3337500000  -4.089101e+001  -1.386615e+002 
3340625000  -4.309915e+001  -1.496017e+002 
3343750000  -4.477415e+001  -1.517653e+002 
3346875000  -4.433304e+001  -1.556216e+002 
3350000000  -4.358204e+001  -1.606179e+002 
3353125000  -4.352575e+001  -1.691642e+002 
3356250000  -4.351997e+001  -1.796576e+002 
3359375000  -4.432752e+001  1.653839e+002 
3362500000  -4.529271e+001  1.554732e+002 
3365625000  -4.575044e+001  1.510425e+002 
3368750000  -4.705816e+001  1.454035e+002 
3371875000  -4.703495e+001  1.417818e+002 
3375000000  -4.884475e+001  1.333533e+002 
3378125000  -4.968046e+001  1.335348e+002 
3381250000  -5.059437e+001  1.475871e+002 
3384375000  -4.753372e+001  1.511437e+002 
3387500000  -4.494259e+001  1.296581e+002 
3390625000  -4.666847e+001  1.061519e+002 
3393750000  -4.792688e+001  1.029014e+002 
3396875000  -4.628314e+001  1.029578e+002 
3400000000  -4.616320e+001  8.437157e+001 
3403125000  -4.736231e+001  7.761497e+001 
3406250000  -4.753489e+001  7.237764e+001 
3409375000  -4.748151e+001  6.072844e+001 
3412500000  -4.817322e+001  5.333247e+001 
3415625000  -4.906621e+001  4.976408e+001 
3418750000  -4.927781e+001  4.510339e+001 
3421875000  -4.926770e+001  4.269400e+001 
3425000000  -4.781285e+001  3.466560e+001 
3428125000  -4.783865e+001  2.655130e+001 
3431250000  -4.668853e+001  1.682038e+001 
3434375000  -4.692509e+001  5.863208e+000 
3437500000  -4.789772e+001  -6.877964e+000 
3440625000  -4.827809e+001  -8.509644e+000 
3443750000  -4.655532e+001  -1.255276e+001 
3446875000  -4.577751e+001  -2.793939e+001 
3450000000  -4.522355e+001  -4.421550e+001 
3453125000  -4.598989e+001  -5.970992e+001 
3456250000  -4.722704e+001  -7.071008e+001 
3459375000  -4.810435e+001  -7.314808e+001 
3462500000  -4.800787e+001  -7.933035e+001 
3465625000  -4.748793e+001  -8.764590e+001 
3468750000  -4.799537e+001  -9.361346e+001 
3471875000  -4.724909e+001  -1.021515e+002 
3475000000  -4.704440e+001  -1.116685e+002 
3478125000  -4.788086e+001  -1.282066e+002 
3481250000  -4.860757e+001  -1.346612e+002 
3484375000  -4.903998e+001  -1.336910e+002 
3487500000  -4.751551e+001  -1.418441e+002 
3490625000  -4.710118e+001  -1.518088e+002 
3493750000  -4.741667e+001  -1.679896e+002 
3496875000  -4.787576e+001  -1.692911e+002 
3500000000  -4.874329e+001  -1.707088e+002 
3503125000  -4.686982e+001  -1.752140e+002 
3506250000  -4.530132e+001  1.738711e+002 
3509375000  -4.557061e+001  1.578151e+002 
3512500000  -4.594978e+001  1.413157e+002 
3515625000  -4.703180e+001  1.313614e+002 
3518750000  -4.749612e+001  1.323573e+002 
3521875000  -4.799888e+001  1.217120e+002 
3525000000  -4.838708e+001  1.153310e+002 
3528125000  -4.761444e+001  1.206446e+002 
3531250000  -4.698200e+001  1.067546e+002 
3534375000  -4.647971e+001  9.114922e+001 
3537500000  -4.764839e+001  7.700754e+001 
3540625000  -4.906131e+001  7.686536e+001 
3543750000  -4.887390e+001  7.825185e+001 
3546875000  -4.945479e+001  8.590172e+001 
3550000000  -4.647695e+001  7.675743e+001 
3553125000  -4.584947e+001  5.664952e+001 
3556250000  -4.752882e+001  4.960151e+001 
3559375000  -4.647455e+001  4.362273e+001 
3562500000  -4.646267e+001  3.386241e+001 
3565625000  -4.729700e+001  2.583220e+001 
3568750000  -4.751477e+001  2.543443e+001 
3571875000  -4.742500e+001  2.222214e+001 
3575000000  -4.704010e+001  1.225223e+001 
3578125000  -4.769251e+001  9.847011e+000 
3581250000  -4.779458e+001  5.174702e+000 
3584375000  -4.589273e+001  1.611363e-001 
3587500000  -4.546067e+001  -1.238391e+001 
3590625000  -4.590456e+001  -2.191287e+001 
3593750000  -4.764692e+001  -2.031972e+001 
3596875000  -4.637220e+001  -1.849953e+001 
3600000000  -4.488170e+001  -2.932345e+001 
3603125000  -4.505571e+001  -4.492869e+001 
3606250000  -4.578947e+001  -5.206863e+001 
3609375000  -4.591535e+001  -5.594845e+001 
3612500000  -4.610421e+001  -6.033273e+001 
3615625000  -4.621593e+001  -6.567055e+001 
3618750000  -4.609862e+001  -6.928976e+001 
3621875000  -4.526472e+001  -7.653310e+001 
3625000000  -4.597570e+001  -7.941527e+001 
3628125000  -4.477905e+001  -8.525146e+001 
3631250000  -4.494495e+001  -9.250026e+001 
3634375000  -4.548196e+001  -9.843610e+001 
3637500000  -4.472159e+001  -9.799644e+001 
3640625000  -4.348230e+001  -1.043285e+002 
3643750000  -4.309750e+001  -1.165001e+002 
3646875000  -4.388662e+001  -1.260502e+002 
3650000000  -4.386111e+001  -1.306853e+002 
3653125000  -4.310346e+001  -1.389539e+002 
3656250000  -4.405349e+001  -1.467070e+002 
3659375000  -4.410886e+001  -1.495876e+002 
3662500000  -4.323738e+001  -1.562220e+002 
3665625000  -4.340534e+001  -1.589465e+002 
3668750000  -4.182288e+001  -1.673869e+002 
3671875000  -4.148748e+001  -1.796096e+002 
3675000000  -4.202248e+001  1.701969e+002 
3678125000  -4.280903e+001  1.652250e+002 
3681250000  -4.227601e+001  1.581663e+002 
3684375000  -4.293586e+001  1.498421e+002 
3687500000  -4.317042e+001  1.429838e+002 
3690625000  -4.348343e+001  1.354234e+002 
3693750000  -4.455318e+001  1.359954e+002 
3696875000  -4.367540e+001  1.301145e+002 
3700000000  -4.309607e+001  1.214865e+002 
3703125000  -4.357717e+001  1.146434e+002 
3706250000  -4.464652e+001  1.127250e+002 
3709375000  -4.401114e+001  1.153602e+002 
3712500000  -4.286758e+001  1.072514e+002 
3715625000  -4.207559e+001  9.807507e+001 
3718750000  -4.172268e+001  8.935143e+001 
3721875000  -4.200420e+001  7.873789e+001 
3725000000  -4.264389e+001  6.973769e+001 
3728125000  -4.233687e+001  6.910237e+001 
3731250000  -4.200814e+001  6.021237e+001 
3734375000  -4.211077e+001  5.289353e+001 
3737500000  -4.269733e+001  4.639894e+001 
3740625000  -4.345886e+001  4.276678e+001 
3743750000  -4.275497e+001  3.201044e+001 
3746875000  -4.354690e+001  2.509998e+001 
3750000000  -4.386664e+001  2.250173e+001 
3753125000  -4.383100e+001  1.923998e+001 
3756250000  -4.364067e+001  1.589591e+001 
3759375000  -4.388433e+001  1.067359e+001 
3762500000  -4.357921e+001  6.884352e+000 
3765625000  -4.421260e+001  8.541199e-001 
3768750000  -4.305922e+001  6.775467e-001 
3771875000  -4.215273e+001  -5.737571e+000 
3775000000  -4.218761e+001  -1.874133e+001 
3778125000  -4.290849e+001  -2.512996e+001 
3781250000  -4.279258e+001  -2.567944e+001 
3784375000  -4.243567e+001  -3.520635e+001 
3787500000  -4.217371e+001  -4.012063e+001 
3790625000  -4.314191e+001  -4.803224e+001 
3793750000  -4.272680e+001  -5.050348e+001 
3796875000  -4.189681e+001  -5.722133e+001 
3800000000  -4.092588e+001  -6.594244e+001 
3803125000  -4.157790e+001  -7.599040e+001 
3806250000  -4.256891e+001  -7.974247e+001 
3809375000  -4.188215e+001  -8.725780e+001 
3812500000  -4.180680e+001  -9.753596e+001 
3815625000  -4.328244e+001  -1.058916e+002 
3818750000  -4.429666e+001  -1.065549e+002 
3821875000  -4.375232e+001  -9.692454e+001 
3825000000  -4.165372e+001  -1.012926e+002 
3828125000  -4.052450e+001  -1.236462e+002 
3831250000  -4.201756e+001  -1.386378e+002 
3834375000  -4.384306e+001  -1.367733e+002 
3837500000  -4.428124e+001  -1.362528e+002 
3840625000  -4.241047e+001  -1.443712e+002 
3843750000  -4.197722e+001  -1.566424e+002 
3846875000  -4.348757e+001  -1.647374e+002 
3850000000  -4.412297e+001  -1.571478e+002 
3853125000  -4.357519e+001  -1.623482e+002 
3856250000  -4.319554e+001  -1.673239e+002 
3859375000  -4.239856e+001  -1.768517e+002 
3862500000  -4.197494e+001  1.714109e+002 
3865625000  -4.252784e+001  1.658607e+002 
3868750000  -4.203012e+001  1.653214e+002 
3871875000  -4.170236e+001  1.547643e+002 
3875000000  -4.252239e+001  1.452650e+002 
3878125000  -4.349174e+001  1.417531e+002 
3881250000  -4.344637e+001  1.381021e+002 
3884375000  -4.263691e+001  1.310002e+002 
3887500000  -4.315352e+001  1.239468e+002 
3890625000  -4.387162e+001  1.209821e+002 
3893750000  -4.430618e+001  1.161156e+002 
3896875000  -4.427614e+001  1.129331e+002 
3900000000  -4.420805e+001  1.069043e+002 
3903125000  -4.349652e+001  1.026623e+002 
3906250000  -4.327525e+001  1.008561e+002 
3909375000  -4.286586e+001  9.072052e+001 
3912500000  -4.372933e+001  7.985981e+001 
3915625000  -4.501438e+001  8.094735e+001 
3918750000  -4.453129e+001  8.095618e+001 
3921875000  -4.419131e+001  7.419463e+001 
3925000000  -4.322487e+001  6.862823e+001 
3928125000  -4.329694e+001  5.691936e+001 
3931250000  -4.394451e+001  5.138837e+001 
3934375000  -4.427789e+001  4.815234e+001 
3937500000  -4.466429e+001  4.581853e+001 
3940625000  -4.501867e+001  4.562062e+001 
3943750000  -4.300199e+001  3.990436e+001 
3946875000  -4.262764e+001  3.083820e+001 
3950000000  -4.381289e+001  2.121707e+001 
3953125000  -4.488611e+001  2.334099e+001 
3956250000  -4.318822e+001  2.144733e+001 
3959375000  -4.180921e+001  1.488266e+001 
3962500000  -4.188097e+001  5.352559e+000 
3965625000  -4.198974e+001  -4.464884e+000 
3968750000  -4.265572e+001  -1.313730e+001 
3971875000  -4.228854e+001  -2.035868e+001 
3975000000  -4.221521e+001  -2.311072e+001 
3978125000  -4.225708e+001  -3.142981e+001 
3981250000  -4.200885e+001  -3.757119e+001 
3984375000  -4.240855e+001  -4.747745e+001 
3987500000  -4.323312e+001  -4.878065e+001 
3990625000  -4.331062e+001  -5.547462e+001 
3993750000  -4.320113e+001  -5.938460e+001 
3996875000  -4.323214e+001  -6.747153e+001 
4000000000  -4.351677e+001  -7.003371e+001 
4003125000  -4.405216e+001  -7.194588e+001 
4006250000  -4.213293e+001  -7.505310e+001 
4009375000  -4.167014e+001  -9.205805e+001 
4012500000  -4.293188e+001  -1.017999e+002 
4015625000  -4.439254e+001  -1.012632e+002 
4018750000  -4.380354e+001  -1.065816e+002 
4021875000  -4.320080e+001  -1.134309e+002 
4025000000  -4.328043e+001  -1.185820e+002 
4028125000  -4.343658e+001  -1.286319e+002 
4031250000  -4.406056e+001  -1.336661e+002 
4034375000  -4.471454e+001  -1.347799e+002 
4037500000  -4.439684e+001  -1.412986e+002 
4040625000  -4.421386e+001  -1.430313e+002 
4043750000  -4.440928e+001  -1.495506e+002 
4046875000  -4.455157e+001  -1.552481e+002 
4050000000  -4.430834e+001  -1.609006e+002 
4053125000  -4.539698e+001  -1.629190e+002 
4056250000  -4.573035e+001  -1.591187e+002 
4059375000  -4.440646e+001  -1.643645e+002 
4062500000  -4.386662e+001  -1.728194e+002 
4065625000  -4.375853e+001  -1.762847e+002 
4068750000  -4.338908e+001  1.722819e+002 
4071875000  -4.284837e+001  1.640443e+002 
4075000000  -4.369261e+001  1.542421e+002 
4078125000  -4.405719e+001  1.502668e+002 
4081250000  -4.338144e+001  1.471045e+002 
4084375000  -4.361062e+001  1.392816e+002 
4087500000  -4.436123e+001  1.300524e+002 
4090625000  -4.543696e+001  1.296474e+002 
4093750000  -4.449969e+001  1.289820e+002 
4096875000  -4.432204e+001  1.154974e+002 
4100000000  -4.581646e+001  1.143904e+002 
4103125000  -4.562799e+001  1.172491e+002 
4106250000  -4.565776e+001  1.188958e+002 
4109375000  -4.430355e+001  1.137928e+002 
4112500000  -4.432694e+001  1.022847e+002 
4115625000  -4.473565e+001  9.893829e+001 
4118750000  -4.399648e+001  8.940744e+001 
4121875000  -4.381903e+001  8.494831e+001 
4125000000  -4.471158e+001  7.983882e+001 
4128125000  -4.524067e+001  8.056812e+001 
4131250000  -4.430962e+001  8.400545e+001 
4134375000  -4.221512e+001  7.356231e+001 
4137500000  -4.284480e+001  5.385219e+001 
4140625000  -4.399198e+001  4.501338e+001 
4143750000  -4.518107e+001  4.987783e+001 
4146875000  -4.388108e+001  5.238035e+001 
4150000000  -4.317246e+001  4.234715e+001 
4153125000  -4.373738e+001  3.370512e+001 
4156250000  -4.460746e+001  2.908829e+001 
4159375000  -4.425230e+001  3.045855e+001 
4162500000  -4.252729e+001  2.907254e+001 
4165625000  -4.189132e+001  1.935715e+001 
4168750000  -4.101436e+001  7.511808e+000 
4171875000  -4.149636e+001  -4.062907e+000 
4175000000  -4.219765e+001  -1.466173e+001 
4178125000  -4.270042e+001  -1.514588e+001 
4181250000  -4.222197e+001  -2.206427e+001 
4184375000  -4.284149e+001  -2.867446e+001 
4187500000  -4.300605e+001  -3.375982e+001 
4190625000  -4.314455e+001  -4.374760e+001 
4193750000  -4.444717e+001  -4.909654e+001 
4196875000  -4.508858e+001  -4.879257e+001 
4200000000  -4.665249e+001  -4.129749e+001 
4203125000  -4.501893e+001  -3.280300e+001 
4206250000  -4.138525e+001  -4.535460e+001 
4209375000  -4.146054e+001  -6.992629e+001 
4212500000  -4.434668e+001  -7.456591e+001 
4215625000  -4.424806e+001  -7.159418e+001 
4218750000  -4.324262e+001  -7.108194e+001 
4221875000  -4.129333e+001  -8.454014e+001 
4225000000  -4.302485e+001  -9.441473e+001 
4228125000  -4.273434e+001  -9.076710e+001 
4231250000  -4.132584e+001  -9.957138e+001 
4234375000  -4.115120e+001  -1.095385e+002 
4237500000  -4.114706e+001  -1.154387e+002 
4240625000  -4.147488e+001  -1.282360e+002 
4243750000  -4.290613e+001  -1.361351e+002 
4246875000  -4.345691e+001  -1.353069e+002 
4250000000  -4.351111e+001  -1.390998e+002 
4253125000  -4.337074e+001  -1.393521e+002 
4256250000  -4.266294e+001  -1.461884e+002 
4259375000  -4.226339e+001  -1.523961e+002 
4262500000  -4.266688e+001  -1.581934e+002 
4265625000  -4.247559e+001  -1.598656e+002 
4268750000  -4.110230e+001  -1.637972e+002 
4271875000  -4.096919e+001  -1.776106e+002 
4275000000  -4.079770e+001  1.758465e+002 
4278125000  -4.184545e+001  1.636959e+002 
4281250000  -4.290831e+001  1.588689e+002 
4284375000  -4.289349e+001  1.513646e+002 
4287500000  -4.380840e+001  1.544875e+002 
4290625000  -4.388240e+001  1.580540e+002 
4293750000  -4.198668e+001  1.610129e+002 
4296875000  -4.070448e+001  1.422908e+002 
4300000000  -4.207657e+001  1.342347e+002 
4303125000  -4.265265e+001  1.339112e+002 
4306250000  -4.125901e+001  1.338919e+002 
4309375000  -4.038237e+001  1.228974e+002 
4312500000  -3.992949e+001  1.103457e+002 
4315625000  -4.068972e+001  1.009770e+002 
4318750000  -4.111156e+001  9.751376e+001 
4321875000  -4.137903e+001  9.576476e+001 
4325000000  -4.032687e+001  8.972896e+001 
4328125000  -3.969202e+001  7.955478e+001 
4331250000  -4.006301e+001  6.705991e+001 
4334375000  -4.121437e+001  5.996309e+001 
4337500000  -4.224975e+001  5.706123e+001 
4340625000  -4.248091e+001  5.991876e+001 
4343750000  -4.145250e+001  5.340728e+001 
4346875000  -4.145932e+001  4.516099e+001 
4350000000  -4.146848e+001  3.277511e+001 
4353125000  -4.235959e+001  2.673493e+001 
4356250000  -4.424405e+001  3.088941e+001 
4359375000  -4.377444e+001  4.598417e+001 
4362500000  -3.963099e+001  3.279191e+001 
4365625000  -3.971242e+001  1.573452e+001 
4368750000  -4.079976e+001  3.673699e+000 
4371875000  -4.149688e+001  5.007885e-001 
4375000000  -4.132413e+001  -6.175294e+000 
4378125000  -4.102700e+001  -1.064068e+001 
4381250000  -4.123453e+001  -1.823570e+001 
4384375000  -4.094817e+001  -2.647917e+001 
4387500000  -4.210765e+001  -3.233555e+001 
4390625000  -4.278444e+001  -3.530471e+001 
4393750000  -4.227510e+001  -3.708745e+001 
4396875000  -4.162642e+001  -4.274464e+001 
4400000000  -4.124617e+001  -5.209723e+001 
4403125000  -4.214486e+001  -5.986338e+001 
4406250000  -4.265278e+001  -6.464079e+001 
4409375000  -4.270503e+001  -7.041902e+001 
4412500000  -4.401968e+001  -7.293582e+001 
4415625000  -4.405323e+001  -6.814445e+001 
4418750000  -4.211120e+001  -7.074704e+001 
