!Agilent Technologies,E8363B,MY43030201,A.06.04.32
!Agilent E8363B: A.06.04.32
!Date: Tuesday, November 11, 2014 21:42:52
!Correction: S21(Response(S21)) 
!S1P File: Measurement: S21:
# Hz S  dB   R 50
3000000000  -4.361716e+001  -1.595672e+002 
3003125000  -4.544219e+001  -1.635510e+002 
3006250000  -4.535311e+001  -1.670935e+002 
3009375000  -4.599628e+001  -1.628640e+002 
3012500000  -4.508155e+001  -1.685980e+002 
3015625000  -4.496360e+001  -1.762374e+002 
3018750000  -4.559349e+001  -1.767869e+002 
3021875000  -4.391005e+001  -1.767067e+002 
3025000000  -4.266453e+001  1.795343e+002 
3028125000  -4.169189e+001  1.682841e+002 
3031250000  -4.094560e+001  1.556427e+002 
3034375000  -4.097602e+001  1.402879e+002 
3037500000  -4.165671e+001  1.309957e+002 
3040625000  -4.287130e+001  1.237273e+002 
3043750000  -4.340897e+001  1.166641e+002 
3046875000  -4.400924e+001  1.088242e+002 
3050000000  -4.534432e+001  1.038916e+002 
3053125000  -4.465699e+001  1.098996e+002 
3056250000  -4.488900e+001  1.114447e+002 
3059375000  -4.384583e+001  1.084548e+002 
3062500000  -4.232531e+001  1.027619e+002 
3065625000  -4.229773e+001  9.126203e+001 
3068750000  -4.183161e+001  8.524773e+001 
3071875000  -4.170174e+001  8.089102e+001 
3075000000  -4.118021e+001  7.245229e+001 
3078125000  -4.122948e+001  6.516075e+001 
3081250000  -4.121608e+001  6.074546e+001 
3084375000  -4.052890e+001  5.332131e+001 
3087500000  -4.060436e+001  4.569844e+001 
3090625000  -4.004151e+001  3.312176e+001 
3093750000  -4.121681e+001  2.423678e+001 
3096875000  -4.130516e+001  1.887961e+001 
3100000000  -4.108470e+001  1.481719e+001 
3103125000  -4.148335e+001  9.047682e+000 
3106250000  -4.102262e+001  3.481217e+000 
3109375000  -4.098801e+001  -1.128515e+000 
3112500000  -4.082109e+001  -8.837869e+000 
3115625000  -4.080017e+001  -1.392055e+001 
3118750000  -4.070021e+001  -1.869349e+001 
3121875000  -4.013325e+001  -3.037694e+001 
3125000000  -4.204641e+001  -3.375011e+001 
3128125000  -4.198530e+001  -2.945843e+001 
3131250000  -3.954266e+001  -3.548771e+001 
3134375000  -3.904028e+001  -5.437901e+001 
3137500000  -3.964692e+001  -6.827987e+001 
3140625000  -4.077772e+001  -7.289744e+001 
3143750000  -4.167459e+001  -7.544538e+001 
3146875000  -4.109895e+001  -7.579529e+001 
3150000000  -4.038406e+001  -8.045100e+001 
3153125000  -4.069871e+001  -8.988393e+001 
3156250000  -4.147531e+001  -8.722017e+001 
3159375000  -3.905103e+001  -8.911997e+001 
3162500000  -3.770477e+001  -1.062532e+002 
3165625000  -3.914783e+001  -1.199486e+002 
3168750000  -3.888801e+001  -1.212500e+002 
3171875000  -3.866662e+001  -1.318032e+002 
3175000000  -3.917922e+001  -1.401648e+002 
3178125000  -3.885678e+001  -1.430395e+002 
3181250000  -3.822030e+001  -1.516301e+002 
3184375000  -3.802358e+001  -1.631430e+002 
3187500000  -3.939736e+001  1.789912e+002 
3190625000  -4.096662e+001  1.722773e+002 
3193750000  -4.115721e+001  1.760553e+002 
3196875000  -4.121820e+001  1.766458e+002 
3200000000  -3.987133e+001  1.713367e+002 
3203125000  -3.953354e+001  1.633514e+002 
3206250000  -3.996209e+001  1.549590e+002 
3209375000  -3.950249e+001  1.458873e+002 
3212500000  -3.999140e+001  1.369258e+002 
3215625000  -3.977132e+001  1.360553e+002 
3218750000  -4.019981e+001  1.225874e+002 
3221875000  -4.066350e+001  1.155285e+002 
3225000000  -4.041543e+001  1.111350e+002 
3228125000  -4.130738e+001  1.019668e+002 
3231250000  -4.145118e+001  9.983939e+001 
3234375000  -4.110338e+001  9.624360e+001 
3237500000  -4.100004e+001  9.323005e+001 
3240625000  -4.038968e+001  8.683356e+001 
3243750000  -4.032779e+001  7.337189e+001 
3246875000  -4.061786e+001  6.526620e+001 
3250000000  -4.095953e+001  6.078573e+001 
3253125000  -4.133510e+001  5.696884e+001 
3256250000  -4.075903e+001  4.673732e+001 
3259375000  -4.107981e+001  3.383987e+001 
3262500000  -4.253468e+001  2.944428e+001 
3265625000  -4.269737e+001  2.878279e+001 
3268750000  -4.283456e+001  2.804646e+001 
3271875000  -4.162539e+001  2.395620e+001 
3275000000  -4.128788e+001  1.285518e+001 
3278125000  -4.180429e+001  5.249558e+000 
3281250000  -4.193835e+001  1.917304e+000 
3284375000  -4.119935e+001  -7.550439e+000 
3287500000  -4.170279e+001  -1.572966e+001 
3290625000  -4.151337e+001  -2.389598e+001 
3293750000  -4.160623e+001  -3.198984e+001 
3296875000  -4.308265e+001  -3.714411e+001 
3300000000  -4.210085e+001  -3.749370e+001 
3303125000  -4.098735e+001  -4.676803e+001 
3306250000  -4.097589e+001  -5.859970e+001 
3309375000  -4.076508e+001  -6.841749e+001 
3312500000  -4.130724e+001  -8.360335e+001 
3315625000  -4.259687e+001  -9.176200e+001 
3318750000  -4.370906e+001  -9.915224e+001 
3321875000  -4.533281e+001  -9.543542e+001 
3325000000  -4.506390e+001  -9.209405e+001 
3328125000  -4.423313e+001  -9.684064e+001 
3331250000  -4.253428e+001  -9.696670e+001 
3334375000  -4.039055e+001  -1.147038e+002 
3337500000  -4.102707e+001  -1.389588e+002 
3340625000  -4.285337e+001  -1.493752e+002 
3343750000  -4.448625e+001  -1.523898e+002 
3346875000  -4.403264e+001  -1.559620e+002 
3350000000  -4.369152e+001  -1.602351e+002 
3353125000  -4.384664e+001  -1.681018e+002 
3356250000  -4.321953e+001  -1.795890e+002 
3359375000  -4.466122e+001  1.676284e+002 
3362500000  -4.502062e+001  1.593424e+002 
3365625000  -4.589855e+001  1.518928e+002 
3368750000  -4.623512e+001  1.471650e+002 
3371875000  -4.742797e+001  1.412746e+002 
3375000000  -4.886321e+001  1.359658e+002 
3378125000  -4.944159e+001  1.350904e+002 
3381250000  -5.031339e+001  1.440934e+002 
3384375000  -4.747794e+001  1.533301e+002 
3387500000  -4.518458e+001  1.305797e+002 
3390625000  -4.697742e+001  1.098060e+002 
3393750000  -4.748305e+001  1.057253e+002 
3396875000  -4.629778e+001  1.023756e+002 
3400000000  -4.646079e+001  8.890810e+001 
3403125000  -4.678165e+001  8.331572e+001 
3406250000  -4.756999e+001  7.019370e+001 
3409375000  -4.694844e+001  6.093424e+001 
3412500000  -4.819022e+001  5.612898e+001 
3415625000  -4.848690e+001  4.951900e+001 
3418750000  -4.884259e+001  4.320393e+001 
3421875000  -4.938618e+001  4.325969e+001 
3425000000  -4.817828e+001  3.589100e+001 
3428125000  -4.755936e+001  2.993205e+001 
3431250000  -4.707273e+001  1.691844e+001 
3434375000  -4.693937e+001  3.001622e+000 
3437500000  -4.757891e+001  -2.571566e+000 
3440625000  -4.769172e+001  -5.798275e+000 
3443750000  -4.661171e+001  -8.718298e+000 
3446875000  -4.557120e+001  -2.341165e+001 
3450000000  -4.534616e+001  -4.254195e+001 
3453125000  -4.567015e+001  -6.067600e+001 
3456250000  -4.702158e+001  -6.999026e+001 
3459375000  -4.819959e+001  -6.993069e+001 
3462500000  -4.755264e+001  -7.728155e+001 
3465625000  -4.709501e+001  -8.890923e+001 
3468750000  -4.735646e+001  -9.366823e+001 
3471875000  -4.719047e+001  -1.031046e+002 
3475000000  -4.693457e+001  -1.131652e+002 
3478125000  -4.788825e+001  -1.284205e+002 
3481250000  -4.914759e+001  -1.352239e+002 
3484375000  -4.844467e+001  -1.304852e+002 
3487500000  -4.734383e+001  -1.379478e+002 
3490625000  -4.696484e+001  -1.534849e+002 
3493750000  -4.805435e+001  -1.655262e+002 
3496875000  -4.821003e+001  -1.671676e+002 
3500000000  -4.822688e+001  -1.720817e+002 
3503125000  -4.738066e+001  -1.732794e+002 
3506250000  -4.557035e+001  1.727172e+002 
3509375000  -4.558318e+001  1.555583e+002 
3512500000  -4.609941e+001  1.410059e+002 
3515625000  -4.751689e+001  1.322981e+002 
3518750000  -4.735273e+001  1.328436e+002 
3521875000  -4.785738e+001  1.219068e+002 
3525000000  -4.817607e+001  1.176763e+002 
3528125000  -4.800456e+001  1.169333e+002 
3531250000  -4.663978e+001  1.066001e+002 
3534375000  -4.740048e+001  8.942334e+001 
3537500000  -4.768081e+001  8.098434e+001 
3540625000  -4.886430e+001  7.755708e+001 
3543750000  -4.957402e+001  8.061911e+001 
3546875000  -4.932189e+001  8.852886e+001 
3550000000  -4.617734e+001  7.356677e+001 
3553125000  -4.612664e+001  5.938326e+001 
3556250000  -4.734536e+001  5.015153e+001 
3559375000  -4.652061e+001  4.355765e+001 
3562500000  -4.648877e+001  3.671674e+001 
3565625000  -4.721225e+001  2.931930e+001 
3568750000  -4.778907e+001  2.468116e+001 
3571875000  -4.733706e+001  2.214556e+001 
3575000000  -4.756270e+001  1.775759e+001 
3578125000  -4.804138e+001  1.109512e+001 
3581250000  -4.779920e+001  6.149359e+000 
3584375000  -4.587146e+001  -2.535855e-001 
3587500000  -4.581272e+001  -1.250703e+001 
3590625000  -4.675571e+001  -2.262304e+001 
3593750000  -4.768021e+001  -2.284540e+001 
3596875000  -4.652367e+001  -2.101808e+001 
3600000000  -4.479285e+001  -2.976111e+001 
3603125000  -4.540707e+001  -4.301345e+001 
3606250000  -4.630670e+001  -4.959466e+001 
3609375000  -4.614420e+001  -5.337220e+001 
3612500000  -4.603543e+001  -6.036753e+001 
3615625000  -4.642813e+001  -6.557095e+001 
3618750000  -4.634808e+001  -7.020216e+001 
3621875000  -4.527239e+001  -7.229092e+001 
3625000000  -4.626142e+001  -7.721274e+001 
3628125000  -4.483344e+001  -8.217843e+001 
3631250000  -4.567296e+001  -9.442973e+001 
3634375000  -4.591178e+001  -9.563565e+001 
3637500000  -4.431732e+001  -9.792178e+001 
3640625000  -4.374194e+001  -1.038761e+002 
3643750000  -4.327123e+001  -1.136566e+002 
3646875000  -4.391243e+001  -1.254442e+002 
3650000000  -4.392972e+001  -1.307852e+002 
3653125000  -4.326575e+001  -1.400454e+002 
3656250000  -4.406867e+001  -1.467046e+002 
3659375000  -4.373422e+001  -1.515170e+002 
3662500000  -4.364592e+001  -1.569942e+002 
3665625000  -4.346930e+001  -1.601732e+002 
3668750000  -4.204541e+001  -1.669731e+002 
3671875000  -4.148385e+001  -1.795889e+002 
3675000000  -4.249255e+001  1.697962e+002 
3678125000  -4.265403e+001  1.644860e+002 
3681250000  -4.243816e+001  1.599612e+002 
3684375000  -4.273379e+001  1.504922e+002 
3687500000  -4.281300e+001  1.428493e+002 
3690625000  -4.373261e+001  1.367629e+002 
3693750000  -4.450578e+001  1.358162e+002 
3696875000  -4.392983e+001  1.307233e+002 
3700000000  -4.346582e+001  1.259660e+002 
3703125000  -4.359303e+001  1.164247e+002 
3706250000  -4.452844e+001  1.157114e+002 
3709375000  -4.397131e+001  1.146787e+002 
3712500000  -4.306584e+001  1.091145e+002 
3715625000  -4.175457e+001  1.006404e+002 
3718750000  -4.165382e+001  8.789681e+001 
3721875000  -4.209394e+001  8.161293e+001 
3725000000  -4.242830e+001  7.255858e+001 
3728125000  -4.260757e+001  7.024915e+001 
3731250000  -4.189312e+001  6.286458e+001 
3734375000  -4.222495e+001  5.351083e+001 
3737500000  -4.300510e+001  4.350338e+001 
3740625000  -4.316724e+001  3.931264e+001 
3743750000  -4.280605e+001  3.433772e+001 
3746875000  -4.343443e+001  2.740460e+001 
3750000000  -4.393102e+001  2.439915e+001 
3753125000  -4.371863e+001  2.202862e+001 
3756250000  -4.347054e+001  1.860807e+001 
3759375000  -4.336750e+001  1.191111e+001 
3762500000  -4.337829e+001  6.247383e+000 
3765625000  -4.453758e+001  1.157760e+000 
3768750000  -4.374170e+001  3.662345e+000 
3771875000  -4.230317e+001  -4.316414e+000 
3775000000  -4.212358e+001  -1.646862e+001 
3778125000  -4.292540e+001  -2.287431e+001 
3781250000  -4.262085e+001  -2.658974e+001 
3784375000  -4.237936e+001  -3.311805e+001 
3787500000  -4.211158e+001  -3.571003e+001 
3790625000  -4.318548e+001  -4.948487e+001 
3793750000  -4.287002e+001  -5.184283e+001 
3796875000  -4.169043e+001  -5.701862e+001 
3800000000  -4.088977e+001  -6.215673e+001 
3803125000  -4.176159e+001  -7.408286e+001 
3806250000  -4.251935e+001  -8.018184e+001 
3809375000  -4.191320e+001  -8.328291e+001 
3812500000  -4.178112e+001  -9.536156e+001 
3815625000  -4.290664e+001  -1.089175e+002 
3818750000  -4.451825e+001  -1.034337e+002 
3821875000  -4.367933e+001  -9.402066e+001 
3825000000  -4.121387e+001  -1.016855e+002 
3828125000  -4.035423e+001  -1.211312e+002 
3831250000  -4.178514e+001  -1.367261e+002 
3834375000  -4.387884e+001  -1.372534e+002 
3837500000  -4.372355e+001  -1.344982e+002 
3840625000  -4.265557e+001  -1.405571e+002 
3843750000  -4.206723e+001  -1.560317e+002 
3846875000  -4.354902e+001  -1.635398e+002 
3850000000  -4.395467e+001  -1.562024e+002 
3853125000  -4.355383e+001  -1.595358e+002 
3856250000  -4.311982e+001  -1.690426e+002 
3859375000  -4.216750e+001  -1.762233e+002 
3862500000  -4.230675e+001  1.736790e+002 
3865625000  -4.266285e+001  1.659482e+002 
3868750000  -4.210867e+001  1.635827e+002 
3871875000  -4.182697e+001  1.557605e+002 
3875000000  -4.265404e+001  1.460989e+002 
3878125000  -4.347086e+001  1.426105e+002 
3881250000  -4.353816e+001  1.421965e+002 
3884375000  -4.260424e+001  1.299605e+002 
3887500000  -4.366301e+001  1.236213e+002 
3890625000  -4.388638e+001  1.225786e+002 
3893750000  -4.417500e+001  1.201841e+002 
3896875000  -4.450938e+001  1.182357e+002 
3900000000  -4.422090e+001  1.111714e+002 
3903125000  -4.363734e+001  1.072519e+002 
3906250000  -4.345183e+001  9.806577e+001 
3909375000  -4.261572e+001  9.356303e+001 
3912500000  -4.387942e+001  7.889027e+001 
3915625000  -4.506754e+001  8.243005e+001 
3918750000  -4.495203e+001  8.079263e+001 
3921875000  -4.442247e+001  7.725738e+001 
3925000000  -4.333357e+001  6.599464e+001 
3928125000  -4.302518e+001  6.106428e+001 
3931250000  -4.373521e+001  5.522797e+001 
3934375000  -4.431839e+001  5.079343e+001 
3937500000  -4.522433e+001  4.784579e+001 
3940625000  -4.447603e+001  4.565861e+001 
3943750000  -4.329949e+001  3.964674e+001 
3946875000  -4.291380e+001  3.268177e+001 
3950000000  -4.396914e+001  2.211873e+001 
3953125000  -4.468895e+001  2.436720e+001 
3956250000  -4.321301e+001  2.279467e+001 
3959375000  -4.205351e+001  1.816888e+001 
3962500000  -4.157872e+001  5.372477e+000 
3965625000  -4.186335e+001  -6.447969e+000 
3968750000  -4.289374e+001  -1.310055e+001 
3971875000  -4.228231e+001  -1.504349e+001 
3975000000  -4.227627e+001  -2.181989e+001 
3978125000  -4.250729e+001  -2.673767e+001 
3981250000  -4.207556e+001  -3.568209e+001 
3984375000  -4.249214e+001  -4.563672e+001 
3987500000  -4.273177e+001  -5.126577e+001 
3990625000  -4.349038e+001  -5.012640e+001 
3993750000  -4.359011e+001  -5.750304e+001 
3996875000  -4.292095e+001  -6.437152e+001 
4000000000  -4.370317e+001  -6.897800e+001 
4003125000  -4.355677e+001  -7.116887e+001 
4006250000  -4.226646e+001  -7.745241e+001 
4009375000  -4.133647e+001  -9.295879e+001 
4012500000  -4.328646e+001  -9.881290e+001 
4015625000  -4.441502e+001  -9.817092e+001 
4018750000  -4.408784e+001  -1.032249e+002 
4021875000  -4.345878e+001  -1.117643e+002 
4025000000  -4.326035e+001  -1.185431e+002 
4028125000  -4.332691e+001  -1.248548e+002 
4031250000  -4.431106e+001  -1.314458e+002 
4034375000  -4.415590e+001  -1.328802e+002 
4037500000  -4.454195e+001  -1.376103e+002 
4040625000  -4.430235e+001  -1.440038e+002 
4043750000  -4.484726e+001  -1.475853e+002 
4046875000  -4.462498e+001  -1.534423e+002 
4050000000  -4.437294e+001  -1.612009e+002 
4053125000  -4.561393e+001  -1.649924e+002 
4056250000  -4.558412e+001  -1.568973e+002 
4059375000  -4.400181e+001  -1.611219e+002 
4062500000  -4.354717e+001  -1.725925e+002 
4065625000  -4.361576e+001  -1.780704e+002 
4068750000  -4.325730e+001  1.742644e+002 
4071875000  -4.285632e+001  1.630513e+002 
4075000000  -4.339179e+001  1.581513e+002 
4078125000  -4.448096e+001  1.555423e+002 
4081250000  -4.372575e+001  1.506752e+002 
4084375000  -4.357454e+001  1.404980e+002 
4087500000  -4.439484e+001  1.335652e+002 
4090625000  -4.488728e+001  1.339293e+002 
4093750000  -4.489104e+001  1.301081e+002 
4096875000  -4.466568e+001  1.198719e+002 
4100000000  -4.604023e+001  1.131066e+002 
4103125000  -4.575312e+001  1.166178e+002 
4106250000  -4.572552e+001  1.208456e+002 
4109375000  -4.461757e+001  1.139695e+002 
4112500000  -4.509924e+001  1.018994e+002 
4115625000  -4.482041e+001  1.002489e+002 
4118750000  -4.455933e+001  9.603006e+001 
4121875000  -4.417868e+001  8.678959e+001 
4125000000  -4.480692e+001  8.094187e+001 
4128125000  -4.574071e+001  8.224928e+001 
4131250000  -4.369256e+001  8.835526e+001 
4134375000  -4.221793e+001  7.502886e+001 
4137500000  -4.275592e+001  5.208279e+001 
4140625000  -4.414810e+001  4.395808e+001 
4143750000  -4.480860e+001  4.748975e+001 
4146875000  -4.428352e+001  5.301028e+001 
4150000000  -4.295826e+001  4.404876e+001 
4153125000  -4.316192e+001  3.537144e+001 
4156250000  -4.425665e+001  2.776098e+001 
4159375000  -4.405297e+001  3.389248e+001 
4162500000  -4.242509e+001  2.895971e+001 
4165625000  -4.202982e+001  1.872364e+001 
4168750000  -4.164950e+001  9.540566e+000 
4171875000  -4.138865e+001  -2.986477e+000 
4175000000  -4.204379e+001  -8.830714e+000 
4178125000  -4.296384e+001  -1.345590e+001 
4181250000  -4.246447e+001  -1.907641e+001 
4184375000  -4.290791e+001  -2.626166e+001 
4187500000  -4.280398e+001  -3.252956e+001 
4190625000  -4.306252e+001  -3.998261e+001 
4193750000  -4.448127e+001  -4.804600e+001 
4196875000  -4.524934e+001  -4.856299e+001 
4200000000  -4.675684e+001  -4.191974e+001 
4203125000  -4.505441e+001  -3.279208e+001 
4206250000  -4.130081e+001  -4.454655e+001 
4209375000  -4.178676e+001  -6.908894e+001 
4212500000  -4.411079e+001  -7.579150e+001 
4215625000  -4.447781e+001  -6.730286e+001 
4218750000  -4.286997e+001  -6.623049e+001 
4221875000  -4.149968e+001  -7.829958e+001 
4225000000  -4.276175e+001  -8.925871e+001 
4228125000  -4.258596e+001  -9.208044e+001 
4231250000  -4.113646e+001  -1.007895e+002 
4234375000  -4.149644e+001  -1.098978e+002 
4237500000  -4.117572e+001  -1.159242e+002 
4240625000  -4.113765e+001  -1.259230e+002 
4243750000  -4.255195e+001  -1.356327e+002 
4246875000  -4.355404e+001  -1.335377e+002 
4250000000  -4.336516e+001  -1.364316e+002 
4253125000  -4.297127e+001  -1.353747e+002 
4256250000  -4.286942e+001  -1.441803e+002 
4259375000  -4.253734e+001  -1.513820e+002 
4262500000  -4.269790e+001  -1.533317e+002 
4265625000  -4.274647e+001  -1.560812e+002 
4268750000  -4.131089e+001  -1.647173e+002 
4271875000  -4.127257e+001  -1.736038e+002 
4275000000  -4.080453e+001  1.747170e+002 
4278125000  -4.230451e+001  1.627603e+002 
4281250000  -4.301107e+001  1.621868e+002 
4284375000  -4.253330e+001  1.601272e+002 
4287500000  -4.391435e+001  1.534729e+002 
4290625000  -4.391550e+001  1.608193e+002 
4293750000  -4.176887e+001  1.592581e+002 
4296875000  -4.081734e+001  1.448791e+002 
4300000000  -4.214957e+001  1.383243e+002 
4303125000  -4.249902e+001  1.354527e+002 
4306250000  -4.138187e+001  1.342992e+002 
4309375000  -4.017382e+001  1.244919e+002 
4312500000  -4.004029e+001  1.128192e+002 
4315625000  -4.043562e+001  1.026028e+002 
4318750000  -4.125310e+001  9.750325e+001 
4321875000  -4.114473e+001  9.539555e+001 
4325000000  -4.054272e+001  9.108811e+001 
4328125000  -3.979224e+001  8.174197e+001 
4331250000  -4.013950e+001  6.938543e+001 
4334375000  -4.108966e+001  5.924376e+001 
4337500000  -4.250500e+001  5.954948e+001 
4340625000  -4.276344e+001  6.203690e+001 
4343750000  -4.166401e+001  5.490165e+001 
4346875000  -4.155210e+001  4.763667e+001 
4350000000  -4.168281e+001  3.517950e+001 
4353125000  -4.259847e+001  2.931850e+001 
4356250000  -4.507665e+001  3.094493e+001 
4359375000  -4.327766e+001  4.630242e+001 
4362500000  -3.971178e+001  3.423168e+001 
4365625000  -3.953937e+001  1.639557e+001 
4368750000  -4.110004e+001  7.053728e+000 
4371875000  -4.171572e+001  5.657564e+000 
4375000000  -4.126057e+001  -1.628269e+000 
4378125000  -4.106233e+001  -9.115419e+000 
4381250000  -4.108262e+001  -1.727914e+001 
4384375000  -4.091510e+001  -2.491802e+001 
4387500000  -4.210125e+001  -2.969082e+001 
4390625000  -4.293319e+001  -3.370958e+001 
4393750000  -4.199479e+001  -3.375836e+001 
4396875000  -4.157225e+001  -4.142691e+001 
4400000000  -4.157141e+001  -4.960303e+001 
4403125000  -4.253420e+001  -6.068798e+001 
4406250000  -4.255381e+001  -6.282608e+001 
4409375000  -4.298612e+001  -6.906179e+001 
4412500000  -4.420016e+001  -6.980732e+001 
4415625000  -4.379513e+001  -6.690936e+001 
4418750000  -4.242794e+001  -6.965757e+001 
