!Agilent Technologies,E8363B,MY43030201,A.06.04.32
!Agilent E8363B: A.06.04.32
!Date: Tuesday, November 11, 2014 21:47:32
!Correction: S21(Response(S21)) 
!S1P File: Measurement: S21:
# Hz S  dB   R 50
3000000000  -4.360231e+001  -1.615365e+002 
3003125000  -4.524149e+001  -1.664611e+002 
3006250000  -4.519719e+001  -1.691749e+002 
3009375000  -4.610209e+001  -1.640873e+002 
3012500000  -4.473594e+001  -1.727220e+002 
3015625000  -4.513273e+001  -1.768644e+002 
3018750000  -4.538133e+001  -1.787055e+002 
3021875000  -4.387652e+001  -1.789938e+002 
3025000000  -4.242926e+001  1.761109e+002 
3028125000  -4.170924e+001  1.638985e+002 
3031250000  -4.076549e+001  1.522435e+002 
3034375000  -4.072337e+001  1.381443e+002 
3037500000  -4.174097e+001  1.262251e+002 
3040625000  -4.295657e+001  1.203279e+002 
3043750000  -4.335948e+001  1.129165e+002 
3046875000  -4.413080e+001  1.058594e+002 
3050000000  -4.537619e+001  1.008130e+002 
3053125000  -4.464635e+001  1.055977e+002 
3056250000  -4.472675e+001  1.068340e+002 
3059375000  -4.380111e+001  1.037707e+002 
3062500000  -4.240117e+001  9.869745e+001 
3065625000  -4.220049e+001  8.957502e+001 
3068750000  -4.196524e+001  8.171846e+001 
3071875000  -4.190230e+001  7.748567e+001 
3075000000  -4.125780e+001  6.972005e+001 
3078125000  -4.131362e+001  6.294253e+001 
3081250000  -4.127134e+001  5.649728e+001 
3084375000  -4.045542e+001  5.081089e+001 
3087500000  -4.056350e+001  4.295332e+001 
3090625000  -4.007663e+001  2.981287e+001 
3093750000  -4.099709e+001  2.164299e+001 
3096875000  -4.121981e+001  1.472125e+001 
3100000000  -4.125135e+001  1.065010e+001 
3103125000  -4.141397e+001  7.208738e+000 
3106250000  -4.089348e+001  1.290189e+000 
3109375000  -4.089067e+001  -3.973034e+000 
3112500000  -4.078331e+001  -1.167100e+001 
3115625000  -4.079553e+001  -1.637270e+001 
3118750000  -4.073127e+001  -1.998580e+001 
3121875000  -4.008248e+001  -3.153540e+001 
3125000000  -4.221093e+001  -3.823577e+001 
3128125000  -4.215854e+001  -3.106540e+001 
3131250000  -3.963689e+001  -3.983421e+001 
3134375000  -3.883992e+001  -5.665285e+001 
3137500000  -3.935965e+001  -7.053246e+001 
3140625000  -4.098082e+001  -7.554669e+001 
3143750000  -4.164988e+001  -7.888612e+001 
3146875000  -4.120087e+001  -7.818911e+001 
3150000000  -4.027451e+001  -8.321959e+001 
3153125000  -4.059226e+001  -9.230504e+001 
3156250000  -4.147252e+001  -8.813071e+001 
3159375000  -3.914486e+001  -9.314412e+001 
3162500000  -3.772597e+001  -1.091285e+002 
3165625000  -3.901703e+001  -1.229241e+002 
3168750000  -3.894961e+001  -1.242528e+002 
3171875000  -3.864834e+001  -1.340140e+002 
3175000000  -3.909367e+001  -1.430829e+002 
3178125000  -3.864525e+001  -1.458952e+002 
3181250000  -3.820588e+001  -1.554204e+002 
3184375000  -3.800017e+001  -1.681187e+002 
3187500000  -3.908340e+001  1.767738e+002 
3190625000  -4.085658e+001  1.694832e+002 
3193750000  -4.107479e+001  1.742195e+002 
3196875000  -4.110083e+001  1.754368e+002 
3200000000  -3.968181e+001  1.682416e+002 
3203125000  -3.973215e+001  1.604312e+002 
3206250000  -3.986687e+001  1.517052e+002 
3209375000  -3.938281e+001  1.422834e+002 
3212500000  -4.008353e+001  1.348678e+002 
3215625000  -3.969752e+001  1.326979e+002 
3218750000  -4.016662e+001  1.205875e+002 
3221875000  -4.061346e+001  1.130447e+002 
3225000000  -4.044998e+001  1.075996e+002 
3228125000  -4.111279e+001  1.001851e+002 
3231250000  -4.162477e+001  9.596641e+001 
3234375000  -4.124442e+001  9.359214e+001 
3237500000  -4.107669e+001  8.975594e+001 
3240625000  -4.051382e+001  8.241718e+001 
3243750000  -4.029436e+001  7.103628e+001 
3246875000  -4.064622e+001  6.405483e+001 
3250000000  -4.114121e+001  5.740617e+001 
3253125000  -4.125086e+001  5.511024e+001 
3256250000  -4.056394e+001  4.543980e+001 
3259375000  -4.099825e+001  3.097897e+001 
3262500000  -4.258305e+001  2.608482e+001 
3265625000  -4.262143e+001  2.797226e+001 
3268750000  -4.262715e+001  2.785483e+001 
3271875000  -4.151582e+001  2.161520e+001 
3275000000  -4.119192e+001  9.280304e+000 
3278125000  -4.173164e+001  3.575000e+000 
3281250000  -4.188939e+001  -5.385670e-001 
3284375000  -4.110738e+001  -8.976600e+000 
3287500000  -4.166967e+001  -1.605235e+001 
3290625000  -4.161876e+001  -2.630431e+001 
3293750000  -4.167200e+001  -3.472594e+001 
3296875000  -4.293549e+001  -3.886291e+001 
3300000000  -4.220047e+001  -4.006556e+001 
3303125000  -4.105318e+001  -4.899622e+001 
3306250000  -4.093089e+001  -5.989334e+001 
3309375000  -4.075965e+001  -7.248441e+001 
3312500000  -4.124820e+001  -8.603059e+001 
3315625000  -4.249391e+001  -9.553065e+001 
3318750000  -4.399382e+001  -1.002458e+002 
3321875000  -4.491632e+001  -1.000774e+002 
3325000000  -4.494510e+001  -9.766730e+001 
3328125000  -4.425590e+001  -9.777927e+001 
3331250000  -4.247258e+001  -9.848671e+001 
3334375000  -4.014284e+001  -1.188967e+002 
3337500000  -4.086643e+001  -1.416211e+002 
3340625000  -4.269744e+001  -1.508935e+002 
3343750000  -4.454702e+001  -1.535589e+002 
3346875000  -4.408058e+001  -1.591546e+002 
3350000000  -4.354466e+001  -1.606187e+002 
3353125000  -4.350568e+001  -1.732094e+002 
3356250000  -4.344949e+001  1.769290e+002 
3359375000  -4.420474e+001  1.636392e+002 
3362500000  -4.498508e+001  1.589712e+002 
3365625000  -4.601707e+001  1.505245e+002 
3368750000  -4.662259e+001  1.443789e+002 
3371875000  -4.694320e+001  1.388547e+002 
3375000000  -4.840796e+001  1.313316e+002 
3378125000  -4.961236e+001  1.309165e+002 
3381250000  -5.077619e+001  1.401810e+002 
3384375000  -4.799398e+001  1.508042e+002 
3387500000  -4.523302e+001  1.258501e+002 
3390625000  -4.666964e+001  1.015686e+002 
3393750000  -4.811389e+001  1.049382e+002 
3396875000  -4.634183e+001  9.947575e+001 
3400000000  -4.654212e+001  8.381991e+001 
3403125000  -4.708054e+001  7.725044e+001 
3406250000  -4.752302e+001  7.184209e+001 
3409375000  -4.755311e+001  5.765336e+001 
3412500000  -4.829253e+001  5.392009e+001 
3415625000  -4.884564e+001  4.850699e+001 
3418750000  -4.888691e+001  4.536059e+001 
3421875000  -4.978075e+001  3.743970e+001 
3425000000  -4.797095e+001  3.338440e+001 
3428125000  -4.729824e+001  2.542197e+001 
3431250000  -4.731872e+001  1.271864e+001 
3434375000  -4.687398e+001  2.550633e-001 
3437500000  -4.749920e+001  -6.810392e+000 
3440625000  -4.766006e+001  -9.507353e+000 
3443750000  -4.640312e+001  -1.421698e+001 
3446875000  -4.577919e+001  -2.775565e+001 
3450000000  -4.511190e+001  -4.327501e+001 
3453125000  -4.574260e+001  -6.242952e+001 
3456250000  -4.719835e+001  -7.132033e+001 
3459375000  -4.836727e+001  -7.381407e+001 
3462500000  -4.751986e+001  -7.763290e+001 
3465625000  -4.746181e+001  -9.000540e+001 
3468750000  -4.734244e+001  -9.658046e+001 
3471875000  -4.686966e+001  -1.033888e+002 
3475000000  -4.760945e+001  -1.189682e+002 
3478125000  -4.787263e+001  -1.295491e+002 
3481250000  -4.891645e+001  -1.324456e+002 
3484375000  -4.879408e+001  -1.363198e+002 
3487500000  -4.738330e+001  -1.444879e+002 
3490625000  -4.738923e+001  -1.556779e+002 
3493750000  -4.821275e+001  -1.688049e+002 
3496875000  -4.757468e+001  -1.705027e+002 
3500000000  -4.816877e+001  -1.745518e+002 
3503125000  -4.732806e+001  -1.738818e+002 
3506250000  -4.542748e+001  1.719472e+002 
3509375000  -4.567410e+001  1.514549e+002 
3512500000  -4.639347e+001  1.342765e+002 
3515625000  -4.719898e+001  1.294147e+002 
3518750000  -4.791616e+001  1.283432e+002 
3521875000  -4.775682e+001  1.137479e+002 
3525000000  -4.900895e+001  1.126942e+002 
3528125000  -4.773347e+001  1.159854e+002 
3531250000  -4.678194e+001  1.036792e+002 
3534375000  -4.720490e+001  8.862991e+001 
3537500000  -4.798466e+001  7.718627e+001 
3540625000  -4.859291e+001  7.481624e+001 
3543750000  -4.984552e+001  7.970573e+001 
3546875000  -4.873547e+001  7.943562e+001 
3550000000  -4.617027e+001  7.175846e+001 
3553125000  -4.615546e+001  5.279705e+001 
3556250000  -4.737117e+001  4.222656e+001 
3559375000  -4.648635e+001  4.322696e+001 
3562500000  -4.663351e+001  3.309293e+001 
3565625000  -4.739749e+001  2.221274e+001 
3568750000  -4.757652e+001  2.609706e+001 
3571875000  -4.758424e+001  1.924855e+001 
3575000000  -4.704285e+001  1.034618e+001 
3578125000  -4.761587e+001  8.753829e+000 
3581250000  -4.736708e+001  4.069577e+000 
3584375000  -4.593468e+001  -3.690314e+000 
3587500000  -4.557547e+001  -1.855140e+001 
3590625000  -4.682411e+001  -2.588641e+001 
3593750000  -4.825902e+001  -2.756511e+001 
3596875000  -4.670390e+001  -1.985658e+001 
3600000000  -4.510055e+001  -3.314571e+001 
3603125000  -4.506939e+001  -5.088403e+001 
3606250000  -4.612221e+001  -5.553396e+001 
3609375000  -4.612899e+001  -5.808114e+001 
3612500000  -4.616914e+001  -6.431998e+001 
3615625000  -4.644422e+001  -7.041192e+001 
3618750000  -4.601296e+001  -7.326326e+001 
3621875000  -4.590079e+001  -7.441998e+001 
3625000000  -4.543030e+001  -8.253674e+001 
3628125000  -4.449132e+001  -8.911942e+001 
3631250000  -4.524353e+001  -9.624586e+001 
3634375000  -4.528296e+001  -9.809289e+001 
3637500000  -4.423785e+001  -1.014050e+002 
3640625000  -4.365394e+001  -1.052879e+002 
3643750000  -4.343372e+001  -1.177182e+002 
3646875000  -4.392426e+001  -1.305221e+002 
3650000000  -4.375462e+001  -1.338404e+002 
3653125000  -4.322356e+001  -1.436340e+002 
3656250000  -4.393862e+001  -1.487249e+002 
3659375000  -4.362100e+001  -1.540423e+002 
3662500000  -4.357007e+001  -1.587967e+002 
3665625000  -4.327697e+001  -1.646008e+002 
3668750000  -4.182785e+001  -1.688766e+002 
3671875000  -4.154148e+001  1.777956e+002 
3675000000  -4.221855e+001  1.691332e+002 
3678125000  -4.265069e+001  1.626902e+002 
3681250000  -4.211224e+001  1.566248e+002 
3684375000  -4.244768e+001  1.484543e+002 
3687500000  -4.263667e+001  1.369539e+002 
3690625000  -4.349160e+001  1.344371e+002 
3693750000  -4.415385e+001  1.304944e+002 
3696875000  -4.373439e+001  1.280289e+002 
3700000000  -4.302051e+001  1.199730e+002 
3703125000  -4.344884e+001  1.130211e+002 
3706250000  -4.433956e+001  1.108492e+002 
3709375000  -4.392842e+001  1.093395e+002 
3712500000  -4.302138e+001  1.041860e+002 
3715625000  -4.128662e+001  9.609240e+001 
3718750000  -4.180222e+001  8.679891e+001 
3721875000  -4.187128e+001  7.622710e+001 
3725000000  -4.231340e+001  6.952856e+001 
3728125000  -4.247083e+001  6.359402e+001 
3731250000  -4.206054e+001  5.955402e+001 
3734375000  -4.214169e+001  5.120014e+001 
3737500000  -4.250238e+001  4.152351e+001 
3740625000  -4.299089e+001  3.670155e+001 
3743750000  -4.282060e+001  3.215069e+001 
3746875000  -4.316068e+001  2.454631e+001 
3750000000  -4.361548e+001  1.816503e+001 
3753125000  -4.372160e+001  1.864081e+001 
3756250000  -4.404496e+001  1.545401e+001 
3759375000  -4.351142e+001  7.782563e+000 
3762500000  -4.333455e+001  3.711510e+000 
3765625000  -4.391674e+001  -3.350863e+000 
3768750000  -4.357816e+001  -4.458541e-001 
3771875000  -4.215194e+001  -8.398026e+000 
3775000000  -4.237557e+001  -1.869641e+001 
3778125000  -4.279064e+001  -2.754524e+001 
3781250000  -4.276998e+001  -3.213706e+001 
3784375000  -4.226303e+001  -3.661926e+001 
3787500000  -4.228405e+001  -4.102560e+001 
3790625000  -4.294080e+001  -5.065730e+001 
3793750000  -4.239509e+001  -5.517648e+001 
3796875000  -4.141360e+001  -6.008208e+001 
3800000000  -4.084837e+001  -6.861924e+001 
3803125000  -4.169650e+001  -7.831257e+001 
3806250000  -4.257608e+001  -8.355134e+001 
3809375000  -4.173139e+001  -8.958225e+001 
3812500000  -4.167318e+001  -9.896765e+001 
3815625000  -4.314106e+001  -1.118146e+002 
3818750000  -4.387831e+001  -1.072891e+002 
3821875000  -4.368112e+001  -9.828916e+001 
3825000000  -4.133950e+001  -1.045635e+002 
3828125000  -4.046701e+001  -1.269016e+002 
3831250000  -4.110915e+001  -1.428240e+002 
3834375000  -4.404841e+001  -1.423759e+002 
3837500000  -4.376239e+001  -1.379638e+002 
3840625000  -4.244931e+001  -1.444792e+002 
3843750000  -4.160849e+001  -1.591796e+002 
3846875000  -4.329851e+001  -1.679630e+002 
3850000000  -4.425775e+001  -1.614211e+002 
3853125000  -4.389149e+001  -1.593738e+002 
3856250000  -4.281611e+001  -1.695418e+002 
3859375000  -4.202188e+001  1.776384e+002 
3862500000  -4.183158e+001  1.704996e+002 
3865625000  -4.243714e+001  1.628050e+002 
3868750000  -4.235027e+001  1.617492e+002 
3871875000  -4.173895e+001  1.534553e+002 
3875000000  -4.220600e+001  1.413403e+002 
3878125000  -4.310203e+001  1.377019e+002 
3881250000  -4.292144e+001  1.383950e+002 
3884375000  -4.267109e+001  1.279374e+002 
3887500000  -4.313236e+001  1.227070e+002 
3890625000  -4.412732e+001  1.177220e+002 
3893750000  -4.421708e+001  1.138241e+002 
3896875000  -4.439933e+001  1.102799e+002 
3900000000  -4.406205e+001  1.032138e+002 
3903125000  -4.397882e+001  1.018709e+002 
3906250000  -4.370161e+001  9.641360e+001 
3909375000  -4.254694e+001  9.072340e+001 
3912500000  -4.393734e+001  8.081205e+001 
3915625000  -4.502639e+001  7.996535e+001 
3918750000  -4.456846e+001  7.567264e+001 
3921875000  -4.403153e+001  7.233564e+001 
3925000000  -4.308163e+001  6.420654e+001 
3928125000  -4.298243e+001  5.685578e+001 
3931250000  -4.382338e+001  4.660569e+001 
3934375000  -4.411950e+001  4.711438e+001 
3937500000  -4.459722e+001  4.541661e+001 
3940625000  -4.461274e+001  4.227060e+001 
3943750000  -4.359669e+001  3.780005e+001 
3946875000  -4.290619e+001  2.791305e+001 
3950000000  -4.384991e+001  1.838857e+001 
3953125000  -4.455234e+001  2.281094e+001 
3956250000  -4.311376e+001  1.721658e+001 
3959375000  -4.168563e+001  1.213839e+001 
3962500000  -4.163223e+001  1.725077e+000 
3965625000  -4.197989e+001  -1.050762e+001 
3968750000  -4.274333e+001  -1.664864e+001 
3971875000  -4.259002e+001  -2.084179e+001 
3975000000  -4.229332e+001  -2.527186e+001 
3978125000  -4.189581e+001  -3.444140e+001 
3981250000  -4.206210e+001  -3.956628e+001 
3984375000  -4.242074e+001  -4.716505e+001 
3987500000  -4.337597e+001  -5.134068e+001 
3990625000  -4.297342e+001  -5.548483e+001 
3993750000  -4.261623e+001  -6.392294e+001 
3996875000  -4.276984e+001  -6.802929e+001 
4000000000  -4.402754e+001  -7.314046e+001 
4003125000  -4.407491e+001  -7.297643e+001 
4006250000  -4.203024e+001  -7.863951e+001 
4009375000  -4.138862e+001  -9.566996e+001 
4012500000  -4.282571e+001  -1.037254e+002 
4015625000  -4.409552e+001  -1.031557e+002 
4018750000  -4.371350e+001  -1.058780e+002 
4021875000  -4.338526e+001  -1.155625e+002 
4025000000  -4.302024e+001  -1.235190e+002 
4028125000  -4.349692e+001  -1.280629e+002 
4031250000  -4.437634e+001  -1.373041e+002 
4034375000  -4.411700e+001  -1.398555e+002 
4037500000  -4.414342e+001  -1.418151e+002 
4040625000  -4.406093e+001  -1.470556e+002 
4043750000  -4.446339e+001  -1.516215e+002 
4046875000  -4.478729e+001  -1.530416e+002 
4050000000  -4.423806e+001  -1.615271e+002 
4053125000  -4.530802e+001  -1.659066e+002 
4056250000  -4.592818e+001  -1.626444e+002 
4059375000  -4.443771e+001  -1.625953e+002 
4062500000  -4.372104e+001  -1.744025e+002 
4065625000  -4.355561e+001  1.796179e+002 
4068750000  -4.319230e+001  1.708178e+002 
4071875000  -4.279878e+001  1.622204e+002 
4075000000  -4.314466e+001  1.532343e+002 
4078125000  -4.434325e+001  1.495656e+002 
4081250000  -4.339247e+001  1.444489e+002 
4084375000  -4.303091e+001  1.368162e+002 
4087500000  -4.406682e+001  1.291471e+002 
4090625000  -4.465752e+001  1.292841e+002 
4093750000  -4.476052e+001  1.230834e+002 
4096875000  -4.408039e+001  1.181986e+002 
4100000000  -4.520720e+001  1.103592e+002 
4103125000  -4.626538e+001  1.160754e+002 
4106250000  -4.526198e+001  1.180961e+002 
4109375000  -4.422033e+001  1.083700e+002 
4112500000  -4.399197e+001  9.988926e+001 
4115625000  -4.393195e+001  9.435717e+001 
4118750000  -4.416470e+001  8.724578e+001 
4121875000  -4.420148e+001  8.237175e+001 
4125000000  -4.476810e+001  7.271561e+001 
4128125000  -4.497663e+001  8.033881e+001 
4131250000  -4.389105e+001  8.010965e+001 
4134375000  -4.136274e+001  7.021882e+001 
4137500000  -4.221164e+001  4.918358e+001 
4140625000  -4.434162e+001  4.468290e+001 
4143750000  -4.496582e+001  4.539793e+001 
4146875000  -4.387984e+001  4.876258e+001 
4150000000  -4.272580e+001  3.845209e+001 
4153125000  -4.336951e+001  3.079670e+001 
4156250000  -4.390952e+001  2.766535e+001 
4159375000  -4.413814e+001  2.864812e+001 
4162500000  -4.233670e+001  2.671248e+001 
4165625000  -4.189960e+001  1.786197e+001 
4168750000  -4.120796e+001  4.026440e+000 
4171875000  -4.137025e+001  -4.740772e+000 
4175000000  -4.207981e+001  -1.675672e+001 
4178125000  -4.228934e+001  -1.823921e+001 
4181250000  -4.201886e+001  -2.434552e+001 
4184375000  -4.262473e+001  -3.061779e+001 
4187500000  -4.234673e+001  -3.664386e+001 
4190625000  -4.266016e+001  -4.538406e+001 
4193750000  -4.402199e+001  -5.317027e+001 
4196875000  -4.469833e+001  -5.065163e+001 
4200000000  -4.612113e+001  -5.204383e+001 
4203125000  -4.453588e+001  -3.630526e+001 
4206250000  -4.104832e+001  -4.725539e+001 
4209375000  -4.126146e+001  -7.288724e+001 
4212500000  -4.398803e+001  -7.998759e+001 
4215625000  -4.413600e+001  -7.364896e+001 
4218750000  -4.263472e+001  -7.308096e+001 
4221875000  -4.121767e+001  -8.416363e+001 
4225000000  -4.247359e+001  -9.715583e+001 
4228125000  -4.246714e+001  -9.095763e+001 
4231250000  -4.100352e+001  -1.028846e+002 
4234375000  -4.136077e+001  -1.115588e+002 
4237500000  -4.089579e+001  -1.189625e+002 
4240625000  -4.122097e+001  -1.327612e+002 
4243750000  -4.205085e+001  -1.400775e+002 
4246875000  -4.298910e+001  -1.373918e+002 
4250000000  -4.293591e+001  -1.391818e+002 
4253125000  -4.235580e+001  -1.445659e+002 
4256250000  -4.239631e+001  -1.492669e+002 
4259375000  -4.239326e+001  -1.540222e+002 
4262500000  -4.231011e+001  -1.605008e+002 
4265625000  -4.230128e+001  -1.594186e+002 
4268750000  -4.095615e+001  -1.689620e+002 
4271875000  -4.093336e+001  -1.793632e+002 
4275000000  -4.052891e+001  1.709636e+002 
4278125000  -4.162608e+001  1.582111e+002 
4281250000  -4.240997e+001  1.567479e+002 
4284375000  -4.227728e+001  1.526269e+002 
4287500000  -4.359669e+001  1.483674e+002 
4290625000  -4.350291e+001  1.544016e+002 
4293750000  -4.147829e+001  1.568879e+002 
4296875000  -4.048064e+001  1.392760e+002 
4300000000  -4.139782e+001  1.315950e+002 
4303125000  -4.203458e+001  1.309031e+002 
4306250000  -4.070169e+001  1.295790e+002 
4309375000  -3.993021e+001  1.213372e+002 
4312500000  -3.976280e+001  1.103534e+002 
4315625000  -4.036928e+001  9.772902e+001 
4318750000  -4.085913e+001  9.308241e+001 
4321875000  -4.073961e+001  9.025821e+001 
4325000000  -4.009895e+001  8.679971e+001 
4328125000  -3.952552e+001  7.651731e+001 
4331250000  -3.997806e+001  6.358910e+001 
4334375000  -4.079502e+001  5.494330e+001 
4337500000  -4.208187e+001  5.515299e+001 
4340625000  -4.174632e+001  5.579243e+001 
4343750000  -4.103094e+001  5.247824e+001 
4346875000  -4.074672e+001  4.175088e+001 
4350000000  -4.108529e+001  3.247120e+001 
4353125000  -4.222830e+001  2.117471e+001 
4356250000  -4.431166e+001  2.636949e+001 
4359375000  -4.262350e+001  4.120780e+001 
4362500000  -3.962689e+001  2.988201e+001 
4365625000  -3.911678e+001  1.188166e+001 
4368750000  -4.015964e+001  -5.550362e-001 
4371875000  -4.105838e+001  -1.981236e+000 
4375000000  -4.079069e+001  -5.901017e+000 
4378125000  -4.036227e+001  -1.472298e+001 
4381250000  -4.080254e+001  -2.372616e+001 
4384375000  -4.073612e+001  -2.836554e+001 
4387500000  -4.180074e+001  -3.774187e+001 
4390625000  -4.219670e+001  -3.951684e+001 
4393750000  -4.213198e+001  -4.080083e+001 
4396875000  -4.161371e+001  -4.457793e+001 
4400000000  -4.065707e+001  -5.309694e+001 
4403125000  -4.163622e+001  -6.422856e+001 
4406250000  -4.207583e+001  -6.907829e+001 
4409375000  -4.256852e+001  -7.240295e+001 
4412500000  -4.388443e+001  -7.581126e+001 
4415625000  -4.322255e+001  -7.075280e+001 
4418750000  -4.196822e+001  -7.482378e+001 
