!Agilent Technologies,E8363B,MY43030201,A.06.04.32
!Agilent E8363B: A.06.04.32
!Date: Tuesday, November 11, 2014 21:46:11
!Correction: S21(Response(S21)) 
!S1P File: Measurement: S21:
# Hz S  dB   R 50
3000000000  -4.367520e+001  -1.616409e+002 
3003125000  -4.523098e+001  -1.671931e+002 
3006250000  -4.539011e+001  -1.676277e+002 
3009375000  -4.624244e+001  -1.630801e+002 
3012500000  -4.495474e+001  -1.722833e+002 
3015625000  -4.519681e+001  -1.785060e+002 
3018750000  -4.546022e+001  -1.768816e+002 
3021875000  -4.391423e+001  -1.779453e+002 
3025000000  -4.267139e+001  1.775896e+002 
3028125000  -4.182582e+001  1.653533e+002 
3031250000  -4.080987e+001  1.518019e+002 
3034375000  -4.075984e+001  1.375492e+002 
3037500000  -4.186057e+001  1.280806e+002 
3040625000  -4.292775e+001  1.201379e+002 
3043750000  -4.338286e+001  1.129780e+002 
3046875000  -4.425164e+001  1.076407e+002 
3050000000  -4.512579e+001  1.019123e+002 
3053125000  -4.508526e+001  1.062578e+002 
3056250000  -4.484882e+001  1.095788e+002 
3059375000  -4.388384e+001  1.046899e+002 
3062500000  -4.265661e+001  1.003881e+002 
3065625000  -4.225993e+001  8.922404e+001 
3068750000  -4.191036e+001  8.100875e+001 
3071875000  -4.159341e+001  7.931313e+001 
3075000000  -4.116830e+001  7.139723e+001 
3078125000  -4.115456e+001  6.363137e+001 
3081250000  -4.134095e+001  5.740319e+001 
3084375000  -4.034460e+001  5.083807e+001 
3087500000  -4.051834e+001  4.332790e+001 
3090625000  -4.000558e+001  3.045957e+001 
3093750000  -4.091804e+001  2.167954e+001 
3096875000  -4.126332e+001  1.642816e+001 
3100000000  -4.122286e+001  1.358270e+001 
3103125000  -4.138023e+001  7.199943e+000 
3106250000  -4.103653e+001  2.181936e+000 
3109375000  -4.092326e+001  -3.220045e+000 
3112500000  -4.083913e+001  -1.168328e+001 
3115625000  -4.075873e+001  -1.560504e+001 
3118750000  -4.077213e+001  -2.000718e+001 
3121875000  -4.018948e+001  -3.202604e+001 
3125000000  -4.209114e+001  -3.610433e+001 
3128125000  -4.207167e+001  -3.075680e+001 
3131250000  -3.953582e+001  -3.781898e+001 
3134375000  -3.880772e+001  -5.754941e+001 
3137500000  -3.954938e+001  -7.029930e+001 
3140625000  -4.080879e+001  -7.433506e+001 
3143750000  -4.153003e+001  -7.804038e+001 
3146875000  -4.107852e+001  -7.574992e+001 
3150000000  -4.042324e+001  -8.190752e+001 
3153125000  -4.072439e+001  -9.215946e+001 
3156250000  -4.158891e+001  -8.818820e+001 
3159375000  -3.902673e+001  -9.084584e+001 
3162500000  -3.787928e+001  -1.096695e+002 
3165625000  -3.920825e+001  -1.226084e+002 
3168750000  -3.898734e+001  -1.254334e+002 
3171875000  -3.847921e+001  -1.336014e+002 
3175000000  -3.911344e+001  -1.423194e+002 
3178125000  -3.878129e+001  -1.453220e+002 
3181250000  -3.806881e+001  -1.547731e+002 
3184375000  -3.773191e+001  -1.662825e+002 
3187500000  -3.943545e+001  1.780316e+002 
3190625000  -4.062548e+001  1.712036e+002 
3193750000  -4.109758e+001  1.748719e+002 
3196875000  -4.107354e+001  1.757477e+002 
3200000000  -3.996838e+001  1.691919e+002 
3203125000  -3.959232e+001  1.603566e+002 
3206250000  -3.986774e+001  1.522296e+002 
3209375000  -3.963182e+001  1.445350e+002 
3212500000  -3.992298e+001  1.361539e+002 
3215625000  -3.960738e+001  1.326332e+002 
3218750000  -4.036172e+001  1.207000e+002 
3221875000  -4.056540e+001  1.133473e+002 
3225000000  -4.040977e+001  1.081553e+002 
3228125000  -4.108961e+001  1.007760e+002 
3231250000  -4.141999e+001  9.620265e+001 
3234375000  -4.104748e+001  9.282919e+001 
3237500000  -4.097963e+001  9.090162e+001 
3240625000  -4.020361e+001  8.389835e+001 
3243750000  -4.041964e+001  7.142719e+001 
3246875000  -4.065830e+001  6.405494e+001 
3250000000  -4.107703e+001  5.873505e+001 
3253125000  -4.107204e+001  5.480368e+001 
3256250000  -4.049207e+001  4.439843e+001 
3259375000  -4.075316e+001  3.133818e+001 
3262500000  -4.230430e+001  2.810431e+001 
3265625000  -4.263327e+001  2.778727e+001 
3268750000  -4.249755e+001  2.714425e+001 
3271875000  -4.135632e+001  1.956787e+001 
3275000000  -4.108779e+001  8.765691e+000 
3278125000  -4.175566e+001  2.625094e+000 
3281250000  -4.183614e+001  5.405597e-001 
3284375000  -4.097532e+001  -8.112146e+000 
3287500000  -4.159397e+001  -1.644567e+001 
3290625000  -4.160137e+001  -2.689622e+001 
3293750000  -4.167970e+001  -3.329536e+001 
3296875000  -4.256515e+001  -3.744079e+001 
3300000000  -4.208289e+001  -4.016053e+001 
3303125000  -4.098538e+001  -5.086072e+001 
3306250000  -4.104769e+001  -6.074611e+001 
3309375000  -4.049960e+001  -7.167811e+001 
3312500000  -4.125274e+001  -8.448859e+001 
3315625000  -4.246213e+001  -9.508266e+001 
3318750000  -4.367580e+001  -1.001264e+002 
3321875000  -4.505973e+001  -9.867335e+001 
3325000000  -4.470474e+001  -9.270562e+001 
3328125000  -4.429132e+001  -9.771741e+001 
3331250000  -4.257120e+001  -9.680688e+001 
3334375000  -4.038403e+001  -1.168181e+002 
3337500000  -4.088675e+001  -1.391424e+002 
3340625000  -4.278074e+001  -1.509645e+002 
3343750000  -4.478443e+001  -1.525463e+002 
3346875000  -4.404607e+001  -1.557198e+002 
3350000000  -4.358098e+001  -1.611079e+002 
3353125000  -4.369516e+001  -1.719273e+002 
3356250000  -4.335818e+001  1.784989e+002 
3359375000  -4.444189e+001  1.648744e+002 
3362500000  -4.511744e+001  1.558675e+002 
3365625000  -4.543586e+001  1.531019e+002 
3368750000  -4.654920e+001  1.451065e+002 
3371875000  -4.705781e+001  1.408179e+002 
3375000000  -4.820975e+001  1.344005e+002 
3378125000  -4.924285e+001  1.340617e+002 
3381250000  -5.052395e+001  1.415661e+002 
3384375000  -4.718499e+001  1.520983e+002 
3387500000  -4.440757e+001  1.271070e+002 
3390625000  -4.683922e+001  1.057584e+002 
3393750000  -4.734483e+001  1.057196e+002 
3396875000  -4.663789e+001  1.018495e+002 
3400000000  -4.612998e+001  8.527536e+001 
3403125000  -4.699137e+001  7.715049e+001 
3406250000  -4.726121e+001  7.267861e+001 
3409375000  -4.696135e+001  6.168608e+001 
3412500000  -4.806143e+001  5.287370e+001 
3415625000  -4.882008e+001  4.827043e+001 
3418750000  -4.886069e+001  4.250193e+001 
3421875000  -4.895235e+001  4.196846e+001 
3425000000  -4.714212e+001  3.512034e+001 
3428125000  -4.756722e+001  2.909263e+001 
3431250000  -4.657944e+001  1.647899e+001 
3434375000  -4.692902e+001  4.392030e+000 
3437500000  -4.803024e+001  -6.275039e+000 
3440625000  -4.805527e+001  -6.691390e+000 
3443750000  -4.640676e+001  -1.203044e+001 
3446875000  -4.540835e+001  -2.802870e+001 
3450000000  -4.517696e+001  -4.575017e+001 
3453125000  -4.586023e+001  -6.069648e+001 
3456250000  -4.709056e+001  -6.845824e+001 
3459375000  -4.837938e+001  -7.115517e+001 
3462500000  -4.812907e+001  -7.200485e+001 
3465625000  -4.695356e+001  -8.876128e+001 
3468750000  -4.741536e+001  -9.408601e+001 
3471875000  -4.717340e+001  -1.024562e+002 
3475000000  -4.664093e+001  -1.168489e+002 
3478125000  -4.760749e+001  -1.301967e+002 
3481250000  -4.951963e+001  -1.354795e+002 
3484375000  -4.850974e+001  -1.376069e+002 
3487500000  -4.740044e+001  -1.452829e+002 
3490625000  -4.727542e+001  -1.522723e+002 
3493750000  -4.796197e+001  -1.656469e+002 
3496875000  -4.822461e+001  -1.686268e+002 
3500000000  -4.849102e+001  -1.697207e+002 
3503125000  -4.746816e+001  -1.746784e+002 
3506250000  -4.523630e+001  1.693857e+002 
3509375000  -4.537178e+001  1.518293e+002 
3512500000  -4.609474e+001  1.377486e+002 
3515625000  -4.712330e+001  1.311016e+002 
3518750000  -4.783031e+001  1.312326e+002 
3521875000  -4.757265e+001  1.182048e+002 
3525000000  -4.860450e+001  1.135630e+002 
3528125000  -4.738148e+001  1.168808e+002 
3531250000  -4.655585e+001  1.062159e+002 
3534375000  -4.703235e+001  8.602484e+001 
3537500000  -4.787735e+001  7.791489e+001 
3540625000  -4.891726e+001  7.567958e+001 
3543750000  -4.970872e+001  8.285053e+001 
3546875000  -4.902608e+001  8.378324e+001 
3550000000  -4.698888e+001  7.391243e+001 
3553125000  -4.591260e+001  5.666685e+001 
3556250000  -4.735319e+001  4.381876e+001 
3559375000  -4.670517e+001  4.168121e+001 
3562500000  -4.620894e+001  3.229616e+001 
3565625000  -4.759802e+001  2.507781e+001 
3568750000  -4.820645e+001  2.455807e+001 
3571875000  -4.729787e+001  1.945868e+001 
3575000000  -4.731350e+001  1.218283e+001 
3578125000  -4.774328e+001  7.730381e+000 
3581250000  -4.751689e+001  2.964341e+000 
3584375000  -4.599529e+001  -4.267975e+000 
3587500000  -4.577743e+001  -1.590467e+001 
3590625000  -4.647410e+001  -2.261493e+001 
3593750000  -4.801353e+001  -2.569478e+001 
3596875000  -4.668142e+001  -1.981676e+001 
3600000000  -4.515507e+001  -3.339024e+001 
3603125000  -4.515293e+001  -4.726226e+001 
3606250000  -4.597250e+001  -5.319947e+001 
3609375000  -4.612928e+001  -5.828706e+001 
3612500000  -4.632015e+001  -6.287241e+001 
3615625000  -4.584907e+001  -6.950985e+001 
3618750000  -4.616817e+001  -6.992539e+001 
3621875000  -4.568211e+001  -7.763617e+001 
3625000000  -4.598923e+001  -8.244779e+001 
3628125000  -4.464167e+001  -8.489353e+001 
3631250000  -4.490082e+001  -1.006410e+002 
3634375000  -4.538865e+001  -1.015023e+002 
3637500000  -4.443179e+001  -1.006893e+002 
3640625000  -4.349980e+001  -1.080612e+002 
3643750000  -4.303860e+001  -1.195430e+002 
3646875000  -4.371382e+001  -1.279287e+002 
3650000000  -4.368178e+001  -1.329146e+002 
3653125000  -4.331417e+001  -1.427670e+002 
3656250000  -4.382250e+001  -1.491405e+002 
3659375000  -4.359799e+001  -1.531263e+002 
3662500000  -4.349887e+001  -1.611662e+002 
3665625000  -4.318714e+001  -1.629163e+002 
3668750000  -4.174493e+001  -1.673707e+002 
3671875000  -4.156089e+001  1.771202e+002 
3675000000  -4.238057e+001  1.669614e+002 
3678125000  -4.242117e+001  1.633905e+002 
3681250000  -4.235755e+001  1.566392e+002 
3684375000  -4.258798e+001  1.483431e+002 
3687500000  -4.282504e+001  1.401981e+002 
3690625000  -4.332960e+001  1.355640e+002 
3693750000  -4.445351e+001  1.326213e+002 
3696875000  -4.382854e+001  1.290927e+002 
3700000000  -4.346083e+001  1.207759e+002 
3703125000  -4.369527e+001  1.143701e+002 
3706250000  -4.469396e+001  1.137608e+002 
3709375000  -4.375919e+001  1.106168e+002 
3712500000  -4.267238e+001  1.041098e+002 
3715625000  -4.188385e+001  9.313904e+001 
3718750000  -4.146667e+001  8.488891e+001 
3721875000  -4.161901e+001  7.655968e+001 
3725000000  -4.207747e+001  6.946375e+001 
3728125000  -4.237186e+001  6.729639e+001 
3731250000  -4.195276e+001  6.011285e+001 
3734375000  -4.199991e+001  5.112112e+001 
3737500000  -4.294893e+001  4.417488e+001 
3740625000  -4.293533e+001  3.706566e+001 
3743750000  -4.284327e+001  3.023954e+001 
3746875000  -4.326332e+001  2.465142e+001 
3750000000  -4.344427e+001  2.193931e+001 
3753125000  -4.376522e+001  1.437790e+001 
3756250000  -4.424228e+001  1.385794e+001 
3759375000  -4.391175e+001  7.580042e+000 
3762500000  -4.350842e+001  3.040751e+000 
3765625000  -4.407253e+001  -4.510341e-001 
3768750000  -4.366798e+001  -2.118838e+000 
3771875000  -4.196772e+001  -7.193078e+000 
3775000000  -4.213272e+001  -1.865300e+001 
3778125000  -4.279053e+001  -2.587670e+001 
3781250000  -4.263781e+001  -2.951443e+001 
3784375000  -4.239098e+001  -3.473513e+001 
3787500000  -4.248625e+001  -4.053814e+001 
3790625000  -4.272144e+001  -5.291259e+001 
3793750000  -4.260062e+001  -5.563556e+001 
3796875000  -4.149561e+001  -5.851381e+001 
3800000000  -4.065275e+001  -6.734150e+001 
3803125000  -4.157664e+001  -7.844485e+001 
3806250000  -4.266318e+001  -8.148099e+001 
3809375000  -4.191751e+001  -8.962635e+001 
3812500000  -4.161904e+001  -9.951423e+001 
3815625000  -4.284481e+001  -1.098386e+002 
3818750000  -4.434986e+001  -1.071097e+002 
3821875000  -4.335020e+001  -9.880904e+001 
3825000000  -4.120810e+001  -1.064961e+002 
3828125000  -4.028717e+001  -1.251193e+002 
3831250000  -4.137413e+001  -1.425073e+002 
3834375000  -4.354837e+001  -1.407287e+002 
3837500000  -4.399059e+001  -1.364067e+002 
3840625000  -4.249245e+001  -1.445761e+002 
3843750000  -4.189710e+001  -1.579551e+002 
3846875000  -4.347694e+001  -1.657548e+002 
3850000000  -4.404440e+001  -1.625616e+002 
3853125000  -4.368163e+001  -1.629374e+002 
3856250000  -4.285604e+001  -1.724772e+002 
3859375000  -4.229981e+001  -1.798550e+002 
3862500000  -4.204954e+001  1.718200e+002 
3865625000  -4.234408e+001  1.621221e+002 
3868750000  -4.245673e+001  1.609722e+002 
3871875000  -4.165199e+001  1.532264e+002 
3875000000  -4.232726e+001  1.424171e+002 
3878125000  -4.351105e+001  1.398525e+002 
3881250000  -4.335310e+001  1.370494e+002 
3884375000  -4.236049e+001  1.290794e+002 
3887500000  -4.328075e+001  1.214748e+002 
3890625000  -4.365738e+001  1.161234e+002 
3893750000  -4.398940e+001  1.146299e+002 
3896875000  -4.423746e+001  1.122051e+002 
3900000000  -4.413461e+001  1.039640e+002 
3903125000  -4.387190e+001  9.960880e+001 
3906250000  -4.371250e+001  9.710868e+001 
3909375000  -4.278921e+001  8.776805e+001 
3912500000  -4.374934e+001  7.921089e+001 
3915625000  -4.483065e+001  7.980079e+001 
3918750000  -4.433638e+001  7.636095e+001 
3921875000  -4.404464e+001  7.120065e+001 
3925000000  -4.326716e+001  6.712711e+001 
3928125000  -4.263425e+001  5.689772e+001 
3931250000  -4.389081e+001  4.957807e+001 
3934375000  -4.374791e+001  4.570325e+001 
3937500000  -4.454579e+001  4.420829e+001 
3940625000  -4.477221e+001  4.422686e+001 
3943750000  -4.315407e+001  3.791438e+001 
3946875000  -4.288605e+001  3.003233e+001 
3950000000  -4.334529e+001  2.008083e+001 
3953125000  -4.464455e+001  2.126587e+001 
3956250000  -4.260461e+001  2.016087e+001 
3959375000  -4.155723e+001  1.388050e+001 
3962500000  -4.161311e+001  3.836084e+000 
3965625000  -4.157755e+001  -9.330303e+000 
3968750000  -4.228539e+001  -1.590294e+001 
3971875000  -4.258144e+001  -2.293140e+001 
3975000000  -4.191072e+001  -2.599206e+001 
3978125000  -4.247459e+001  -3.282919e+001 
3981250000  -4.163010e+001  -3.977152e+001 
3984375000  -4.233306e+001  -4.731513e+001 
3987500000  -4.295821e+001  -5.241608e+001 
3990625000  -4.279345e+001  -5.588337e+001 
3993750000  -4.289295e+001  -5.883667e+001 
3996875000  -4.273021e+001  -6.896813e+001 
4000000000  -4.375059e+001  -7.267095e+001 
4003125000  -4.383223e+001  -7.538707e+001 
4006250000  -4.188099e+001  -7.921874e+001 
4009375000  -4.126307e+001  -9.592215e+001 
4012500000  -4.282127e+001  -1.055301e+002 
4015625000  -4.393076e+001  -1.021043e+002 
4018750000  -4.364235e+001  -1.056617e+002 
4021875000  -4.310263e+001  -1.169593e+002 
4025000000  -4.279136e+001  -1.228528e+002 
4028125000  -4.317329e+001  -1.280270e+002 
4031250000  -4.403328e+001  -1.351733e+002 
4034375000  -4.391503e+001  -1.381422e+002 
4037500000  -4.413308e+001  -1.439823e+002 
4040625000  -4.420811e+001  -1.458306e+002 
4043750000  -4.457869e+001  -1.514803e+002 
4046875000  -4.427059e+001  -1.571456e+002 
4050000000  -4.453723e+001  -1.648766e+002 
4053125000  -4.469025e+001  -1.667892e+002 
4056250000  -4.574417e+001  -1.634852e+002 
4059375000  -4.381256e+001  -1.642753e+002 
4062500000  -4.323070e+001  -1.747867e+002 
4065625000  -4.331974e+001  -1.794202e+002 
4068750000  -4.312244e+001  1.741407e+002 
4071875000  -4.237027e+001  1.590282e+002 
4075000000  -4.326619e+001  1.544341e+002 
4078125000  -4.396022e+001  1.492783e+002 
4081250000  -4.380594e+001  1.455431e+002 
4084375000  -4.351008e+001  1.376480e+002 
4087500000  -4.413864e+001  1.281761e+002 
4090625000  -4.508607e+001  1.268117e+002 
4093750000  -4.481269e+001  1.256677e+002 
4096875000  -4.396080e+001  1.139639e+002 
4100000000  -4.545974e+001  1.110954e+002 
4103125000  -4.591936e+001  1.092654e+002 
4106250000  -4.471968e+001  1.141041e+002 
4109375000  -4.412040e+001  1.098438e+002 
4112500000  -4.393383e+001  1.001320e+002 
4115625000  -4.430640e+001  9.269617e+001 
4118750000  -4.431833e+001  8.882403e+001 
4121875000  -4.388418e+001  8.164825e+001 
4125000000  -4.472369e+001  7.621320e+001 
4128125000  -4.537850e+001  7.742696e+001 
4131250000  -4.334591e+001  8.250014e+001 
4134375000  -4.143939e+001  7.117892e+001 
4137500000  -4.196560e+001  5.053581e+001 
4140625000  -4.358878e+001  4.234739e+001 
4143750000  -4.486168e+001  4.779213e+001 
4146875000  -4.371675e+001  4.729244e+001 
4150000000  -4.262420e+001  3.782683e+001 
4153125000  -4.335005e+001  2.899780e+001 
4156250000  -4.399115e+001  2.712790e+001 
4159375000  -4.374411e+001  3.015801e+001 
4162500000  -4.234320e+001  2.623566e+001 
4165625000  -4.170115e+001  1.653088e+001 
4168750000  -4.104298e+001  6.308169e+000 
4171875000  -4.124418e+001  -7.118236e+000 
4175000000  -4.203018e+001  -1.418272e+001 
4178125000  -4.211742e+001  -1.844304e+001 
4181250000  -4.187381e+001  -2.447270e+001 
4184375000  -4.273235e+001  -2.925652e+001 
4187500000  -4.237731e+001  -3.724514e+001 
4190625000  -4.283703e+001  -4.722438e+001 
4193750000  -4.394960e+001  -5.304594e+001 
4196875000  -4.466048e+001  -5.287623e+001 
4200000000  -4.563342e+001  -4.709866e+001 
4203125000  -4.447871e+001  -3.584999e+001 
4206250000  -4.143391e+001  -4.887612e+001 
4209375000  -4.124289e+001  -7.428877e+001 
4212500000  -4.370626e+001  -7.791531e+001 
4215625000  -4.418851e+001  -7.119399e+001 
4218750000  -4.234897e+001  -7.381205e+001 
4221875000  -4.087035e+001  -8.297056e+001 
4225000000  -4.214182e+001  -9.248547e+001 
4228125000  -4.216911e+001  -9.491380e+001 
4231250000  -4.054148e+001  -1.027006e+002 
4234375000  -4.100484e+001  -1.131508e+002 
4237500000  -4.101214e+001  -1.214314e+002 
4240625000  -4.100595e+001  -1.318675e+002 
4243750000  -4.243196e+001  -1.412843e+002 
4246875000  -4.350866e+001  -1.406209e+002 
4250000000  -4.268663e+001  -1.383943e+002 
4253125000  -4.277927e+001  -1.398563e+002 
4256250000  -4.232891e+001  -1.508992e+002 
4259375000  -4.231049e+001  -1.553205e+002 
4262500000  -4.222911e+001  -1.579239e+002 
4265625000  -4.206971e+001  -1.614074e+002 
4268750000  -4.104371e+001  -1.689516e+002 
4271875000  -4.058217e+001  1.799864e+002 
4275000000  -4.056111e+001  1.703983e+002 
4278125000  -4.164909e+001  1.584325e+002 
4281250000  -4.242646e+001  1.601923e+002 
4284375000  -4.194138e+001  1.521032e+002 
4287500000  -4.359726e+001  1.500661e+002 
4290625000  -4.398788e+001  1.556977e+002 
4293750000  -4.176328e+001  1.552028e+002 
4296875000  -3.996620e+001  1.415414e+002 
4300000000  -4.140876e+001  1.307086e+002 
4303125000  -4.161558e+001  1.295622e+002 
4306250000  -4.035797e+001  1.297337e+002 
4309375000  -3.968089e+001  1.204429e+002 
4312500000  -3.961890e+001  1.087297e+002 
4315625000  -3.999821e+001  9.750932e+001 
4318750000  -4.075654e+001  9.436698e+001 
4321875000  -4.074743e+001  9.047237e+001 
4325000000  -4.010497e+001  8.733163e+001 
4328125000  -3.964116e+001  7.618858e+001 
4331250000  -3.955148e+001  6.356815e+001 
4334375000  -4.065760e+001  5.660851e+001 
4337500000  -4.191116e+001  5.438118e+001 
4340625000  -4.204904e+001  5.616958e+001 
4343750000  -4.142986e+001  5.184407e+001 
4346875000  -4.087753e+001  4.111735e+001 
4350000000  -4.092499e+001  3.232834e+001 
4353125000  -4.182719e+001  2.392460e+001 
4356250000  -4.375471e+001  2.774347e+001 
4359375000  -4.230689e+001  3.823663e+001 
4362500000  -3.934842e+001  2.907206e+001 
4365625000  -3.897081e+001  1.036864e+001 
4368750000  -4.038227e+001  -1.038260e-002 
4371875000  -4.121186e+001  -2.385849e+000 
4375000000  -4.031895e+001  -7.175614e+000 
4378125000  -4.025901e+001  -1.386204e+001 
4381250000  -4.042976e+001  -2.376204e+001 
4384375000  -4.045967e+001  -3.009759e+001 
4387500000  -4.126761e+001  -3.605795e+001 
4390625000  -4.217786e+001  -3.864807e+001 
4393750000  -4.153190e+001  -4.047503e+001 
4396875000  -4.134443e+001  -4.605636e+001 
4400000000  -4.061479e+001  -5.355112e+001 
4403125000  -4.111644e+001  -6.573705e+001 
4406250000  -4.172916e+001  -6.815862e+001 
4409375000  -4.235078e+001  -7.470203e+001 
4412500000  -4.353661e+001  -7.613304e+001 
4415625000  -4.290734e+001  -7.184372e+001 
4418750000  -4.132368e+001  -7.499364e+001 
