!Agilent Technologies,E8363B,MY43030201,A.06.04.32
!Agilent E8363B: A.06.04.32
!Date: Tuesday, November 11, 2014 21:48:01
!Correction: S21(Response(S21)) 
!S1P File: Measurement: S21:
# Hz S  dB   R 50
3000000000  -4.361603e+001  -1.616103e+002 
3003125000  -4.534613e+001  -1.656411e+002 
3006250000  -4.519048e+001  -1.661559e+002 
3009375000  -4.623190e+001  -1.639789e+002 
3012500000  -4.491288e+001  -1.703577e+002 
3015625000  -4.494269e+001  -1.790905e+002 
3018750000  -4.549256e+001  -1.782400e+002 
3021875000  -4.391322e+001  -1.791852e+002 
3025000000  -4.262554e+001  1.773559e+002 
3028125000  -4.159808e+001  1.647614e+002 
3031250000  -4.096770e+001  1.519916e+002 
3034375000  -4.084314e+001  1.375081e+002 
3037500000  -4.168179e+001  1.276059e+002 
3040625000  -4.296429e+001  1.203492e+002 
3043750000  -4.330972e+001  1.136541e+002 
3046875000  -4.424086e+001  1.057844e+002 
3050000000  -4.506713e+001  1.045930e+002 
3053125000  -4.485300e+001  1.063687e+002 
3056250000  -4.505831e+001  1.070535e+002 
3059375000  -4.403298e+001  1.053286e+002 
3062500000  -4.246727e+001  9.953007e+001 
3065625000  -4.221012e+001  8.955905e+001 
3068750000  -4.186222e+001  8.068935e+001 
3071875000  -4.181367e+001  7.872633e+001 
3075000000  -4.116508e+001  7.009341e+001 
3078125000  -4.134816e+001  6.357992e+001 
3081250000  -4.124093e+001  5.673486e+001 
3084375000  -4.042200e+001  5.102902e+001 
3087500000  -4.070226e+001  4.287882e+001 
3090625000  -3.997119e+001  3.141676e+001 
3093750000  -4.111098e+001  2.095531e+001 
3096875000  -4.132896e+001  1.557837e+001 
3100000000  -4.115226e+001  1.131879e+001 
3103125000  -4.148344e+001  7.440105e+000 
3106250000  -4.107112e+001  1.839697e+000 
3109375000  -4.086911e+001  -2.910412e+000 
3112500000  -4.080219e+001  -1.186076e+001 
3115625000  -4.086706e+001  -1.542170e+001 
3118750000  -4.091750e+001  -2.025139e+001 
3121875000  -4.013956e+001  -3.291817e+001 
3125000000  -4.219717e+001  -3.675160e+001 
3128125000  -4.200261e+001  -3.133881e+001 
3131250000  -3.948276e+001  -3.884609e+001 
3134375000  -3.903289e+001  -5.796056e+001 
3137500000  -3.962465e+001  -7.069494e+001 
3140625000  -4.089612e+001  -7.403829e+001 
3143750000  -4.158162e+001  -7.816860e+001 
3146875000  -4.118823e+001  -7.729115e+001 
3150000000  -4.047931e+001  -8.166952e+001 
3153125000  -4.068893e+001  -9.090098e+001 
3156250000  -4.143084e+001  -8.858652e+001 
3159375000  -3.913165e+001  -9.171194e+001 
3162500000  -3.778913e+001  -1.086880e+002 
3165625000  -3.904122e+001  -1.227453e+002 
3168750000  -3.913284e+001  -1.253216e+002 
3171875000  -3.845942e+001  -1.319675e+002 
3175000000  -3.918385e+001  -1.431202e+002 
3178125000  -3.859663e+001  -1.455993e+002 
3181250000  -3.815285e+001  -1.545019e+002 
3184375000  -3.778568e+001  -1.657831e+002 
3187500000  -3.917103e+001  1.776109e+002 
3190625000  -4.075416e+001  1.704251e+002 
3193750000  -4.122397e+001  1.747596e+002 
3196875000  -4.081482e+001  1.745374e+002 
3200000000  -3.998763e+001  1.695811e+002 
3203125000  -3.956765e+001  1.605581e+002 
3206250000  -3.996919e+001  1.514074e+002 
3209375000  -3.934613e+001  1.421713e+002 
3212500000  -4.003306e+001  1.344709e+002 
3215625000  -3.961688e+001  1.321020e+002 
3218750000  -4.034546e+001  1.206696e+002 
3221875000  -4.062765e+001  1.122415e+002 
3225000000  -4.057725e+001  1.081326e+002 
3228125000  -4.111480e+001  1.001194e+002 
3231250000  -4.133897e+001  9.850809e+001 
3234375000  -4.102723e+001  9.337972e+001 
3237500000  -4.103874e+001  8.967153e+001 
3240625000  -4.040287e+001  8.256081e+001 
3243750000  -4.048262e+001  7.114473e+001 
3246875000  -4.044806e+001  6.281970e+001 
3250000000  -4.111359e+001  5.902731e+001 
3253125000  -4.106783e+001  5.507705e+001 
3256250000  -4.024420e+001  4.422708e+001 
3259375000  -4.103991e+001  3.059029e+001 
3262500000  -4.259742e+001  2.671233e+001 
3265625000  -4.285754e+001  2.752970e+001 
3268750000  -4.248480e+001  2.608774e+001 
3271875000  -4.152844e+001  1.935695e+001 
3275000000  -4.110813e+001  1.007249e+001 
3278125000  -4.164769e+001  3.673590e+000 
3281250000  -4.182118e+001  1.046751e-001 
3284375000  -4.089407e+001  -8.229570e+000 
3287500000  -4.159735e+001  -1.692677e+001 
3290625000  -4.145749e+001  -2.652336e+001 
3293750000  -4.154045e+001  -3.398922e+001 
3296875000  -4.279156e+001  -3.859169e+001 
3300000000  -4.184422e+001  -4.083916e+001 
3303125000  -4.122901e+001  -5.030842e+001 
3306250000  -4.088614e+001  -6.048356e+001 
3309375000  -4.051110e+001  -7.194505e+001 
3312500000  -4.108865e+001  -8.426226e+001 
3315625000  -4.245718e+001  -9.355703e+001 
3318750000  -4.391608e+001  -1.004883e+002 
3321875000  -4.517818e+001  -1.001063e+002 
3325000000  -4.487106e+001  -9.695519e+001 
3328125000  -4.384329e+001  -9.868511e+001 
3331250000  -4.235014e+001  -9.756415e+001 
3334375000  -4.008488e+001  -1.183124e+002 
3337500000  -4.100532e+001  -1.404408e+002 
3340625000  -4.255654e+001  -1.509111e+002 
3343750000  -4.449852e+001  -1.524676e+002 
3346875000  -4.398346e+001  -1.563220e+002 
3350000000  -4.375014e+001  -1.591809e+002 
3353125000  -4.360030e+001  -1.709597e+002 
3356250000  -4.336034e+001  1.790852e+002 
3359375000  -4.415432e+001  1.634696e+002 
3362500000  -4.490606e+001  1.579873e+002 
3365625000  -4.582408e+001  1.524328e+002 
3368750000  -4.648434e+001  1.488329e+002 
3371875000  -4.680650e+001  1.391605e+002 
3375000000  -4.825084e+001  1.344772e+002 
3378125000  -4.873545e+001  1.309896e+002 
3381250000  -5.110491e+001  1.397480e+002 
3384375000  -4.741661e+001  1.512647e+002 
3387500000  -4.460539e+001  1.264597e+002 
3390625000  -4.650956e+001  1.069930e+002 
3393750000  -4.745745e+001  1.060936e+002 
3396875000  -4.646574e+001  9.964894e+001 
3400000000  -4.640701e+001  8.883850e+001 
3403125000  -4.684854e+001  8.000359e+001 
3406250000  -4.702808e+001  6.917253e+001 
3409375000  -4.738459e+001  5.952599e+001 
3412500000  -4.796909e+001  5.298360e+001 
3415625000  -4.888788e+001  5.094996e+001 
3418750000  -4.895005e+001  4.259779e+001 
3421875000  -4.929568e+001  3.926358e+001 
3425000000  -4.760702e+001  3.429256e+001 
3428125000  -4.697468e+001  2.986271e+001 
3431250000  -4.644996e+001  1.597175e+001 
3434375000  -4.687008e+001  4.587449e+000 
3437500000  -4.749501e+001  -2.885198e+000 
3440625000  -4.786152e+001  -6.635843e+000 
3443750000  -4.688034e+001  -1.181974e+001 
3446875000  -4.581536e+001  -2.697531e+001 
3450000000  -4.497805e+001  -4.486295e+001 
3453125000  -4.584839e+001  -6.045282e+001 
3456250000  -4.728329e+001  -6.899467e+001 
3459375000  -4.808918e+001  -7.159777e+001 
3462500000  -4.758397e+001  -7.657294e+001 
3465625000  -4.728262e+001  -9.026743e+001 
3468750000  -4.758169e+001  -9.552520e+001 
3471875000  -4.714825e+001  -1.019553e+002 
3475000000  -4.716962e+001  -1.153914e+002 
3478125000  -4.729475e+001  -1.284247e+002 
3481250000  -4.889286e+001  -1.344344e+002 
3484375000  -4.864065e+001  -1.381767e+002 
3487500000  -4.752170e+001  -1.422602e+002 
3490625000  -4.738293e+001  -1.542183e+002 
3493750000  -4.756741e+001  -1.666101e+002 
3496875000  -4.826738e+001  -1.719519e+002 
3500000000  -4.843120e+001  -1.738402e+002 
3503125000  -4.699569e+001  -1.768571e+002 
3506250000  -4.609515e+001  1.741189e+002 
3509375000  -4.577684e+001  1.511016e+002 
3512500000  -4.636348e+001  1.386398e+002 
3515625000  -4.758820e+001  1.282925e+002 
3518750000  -4.764330e+001  1.313080e+002 
3521875000  -4.775182e+001  1.172828e+002 
3525000000  -4.867092e+001  1.106661e+002 
3528125000  -4.752832e+001  1.162751e+002 
3531250000  -4.668482e+001  1.026708e+002 
3534375000  -4.730395e+001  8.966287e+001 
3537500000  -4.783898e+001  7.906749e+001 
3540625000  -4.884427e+001  7.556657e+001 
3543750000  -4.904806e+001  7.888275e+001 
3546875000  -4.878273e+001  8.385200e+001 
3550000000  -4.629090e+001  7.281615e+001 
3553125000  -4.569593e+001  5.105660e+001 
3556250000  -4.729148e+001  4.541579e+001 
3559375000  -4.657268e+001  4.272853e+001 
3562500000  -4.653008e+001  3.363779e+001 
3565625000  -4.723566e+001  2.309264e+001 
3568750000  -4.773181e+001  2.379835e+001 
3571875000  -4.740171e+001  1.965841e+001 
3575000000  -4.725729e+001  8.894255e+000 
3578125000  -4.818699e+001  7.980522e+000 
3581250000  -4.764969e+001  1.314517e+000 
3584375000  -4.637738e+001  -7.486062e+000 
3587500000  -4.547177e+001  -1.567483e+001 
3590625000  -4.622518e+001  -2.622048e+001 
3593750000  -4.768579e+001  -2.325963e+001 
3596875000  -4.640171e+001  -1.881403e+001 
3600000000  -4.474570e+001  -3.327671e+001 
3603125000  -4.512937e+001  -4.895874e+001 
3606250000  -4.601365e+001  -5.397159e+001 
3609375000  -4.598008e+001  -5.811640e+001 
3612500000  -4.605845e+001  -6.599514e+001 
3615625000  -4.592372e+001  -7.019845e+001 
3618750000  -4.625926e+001  -7.073181e+001 
3621875000  -4.543460e+001  -7.356282e+001 
3625000000  -4.531710e+001  -8.210033e+001 
3628125000  -4.466305e+001  -8.852541e+001 
3631250000  -4.501966e+001  -9.827732e+001 
3634375000  -4.570535e+001  -9.884798e+001 
3637500000  -4.453975e+001  -9.911982e+001 
3640625000  -4.348695e+001  -1.096717e+002 
3643750000  -4.334488e+001  -1.192618e+002 
3646875000  -4.378664e+001  -1.281790e+002 
3650000000  -4.391776e+001  -1.358969e+002 
3653125000  -4.341669e+001  -1.425901e+002 
3656250000  -4.400817e+001  -1.498651e+002 
3659375000  -4.373672e+001  -1.540075e+002 
3662500000  -4.346543e+001  -1.600737e+002 
3665625000  -4.344738e+001  -1.634702e+002 
3668750000  -4.198075e+001  -1.673540e+002 
3671875000  -4.149032e+001  1.763289e+002 
3675000000  -4.209851e+001  1.683709e+002 
3678125000  -4.253917e+001  1.623903e+002 
3681250000  -4.223918e+001  1.559106e+002 
3684375000  -4.257266e+001  1.502039e+002 
3687500000  -4.267555e+001  1.388227e+002 
3690625000  -4.366914e+001  1.322971e+002 
3693750000  -4.430959e+001  1.326156e+002 
3696875000  -4.392871e+001  1.269732e+002 
3700000000  -4.299089e+001  1.197581e+002 
3703125000  -4.357035e+001  1.123719e+002 
3706250000  -4.490042e+001  1.109950e+002 
3709375000  -4.371798e+001  1.098124e+002 
3712500000  -4.289106e+001  1.021917e+002 
3715625000  -4.155492e+001  9.517081e+001 
3718750000  -4.198357e+001  8.765876e+001 
3721875000  -4.176379e+001  7.658575e+001 
3725000000  -4.213798e+001  6.842755e+001 
3728125000  -4.246305e+001  6.417993e+001 
3731250000  -4.198612e+001  5.896048e+001 
3734375000  -4.209869e+001  5.194085e+001 
3737500000  -4.291293e+001  4.373318e+001 
3740625000  -4.310785e+001  3.688927e+001 
3743750000  -4.251111e+001  3.289022e+001 
3746875000  -4.311611e+001  2.490288e+001 
3750000000  -4.357941e+001  2.147313e+001 
3753125000  -4.366233e+001  1.772218e+001 
3756250000  -4.395857e+001  1.305276e+001 
3759375000  -4.360741e+001  1.059634e+001 
3762500000  -4.345345e+001  4.296068e+000 
3765625000  -4.409530e+001  -2.166997e+000 
3768750000  -4.342209e+001  -7.267883e-001 
3771875000  -4.207664e+001  -7.418274e+000 
3775000000  -4.203197e+001  -2.100871e+001 
3778125000  -4.277209e+001  -2.679133e+001 
3781250000  -4.252636e+001  -2.950587e+001 
3784375000  -4.228550e+001  -3.540873e+001 
3787500000  -4.230018e+001  -4.227090e+001 
3790625000  -4.270991e+001  -5.154659e+001 
3793750000  -4.260817e+001  -5.486816e+001 
3796875000  -4.188050e+001  -6.099390e+001 
3800000000  -4.076555e+001  -6.632516e+001 
3803125000  -4.164467e+001  -7.810835e+001 
3806250000  -4.251322e+001  -8.379805e+001 
3809375000  -4.188667e+001  -8.988696e+001 
3812500000  -4.154491e+001  -9.990430e+001 
3815625000  -4.313290e+001  -1.119729e+002 
3818750000  -4.396364e+001  -1.080287e+002 
3821875000  -4.324168e+001  -9.599583e+001 
3825000000  -4.168404e+001  -1.054063e+002 
3828125000  -4.050628e+001  -1.257403e+002 
3831250000  -4.150771e+001  -1.412086e+002 
3834375000  -4.355108e+001  -1.416129e+002 
3837500000  -4.341773e+001  -1.404208e+002 
3840625000  -4.250561e+001  -1.444810e+002 
3843750000  -4.157619e+001  -1.608513e+002 
3846875000  -4.333866e+001  -1.678014e+002 
3850000000  -4.386934e+001  -1.601354e+002 
3853125000  -4.386443e+001  -1.636531e+002 
3856250000  -4.274371e+001  -1.720986e+002 
3859375000  -4.221504e+001  1.794758e+002 
3862500000  -4.196550e+001  1.695712e+002 
3865625000  -4.280031e+001  1.605882e+002 
3868750000  -4.240032e+001  1.606561e+002 
3871875000  -4.192635e+001  1.525405e+002 
3875000000  -4.255021e+001  1.415552e+002 
3878125000  -4.320465e+001  1.416517e+002 
3881250000  -4.286628e+001  1.373133e+002 
3884375000  -4.279163e+001  1.292962e+002 
3887500000  -4.297370e+001  1.218175e+002 
3890625000  -4.397984e+001  1.199167e+002 
3893750000  -4.404926e+001  1.147613e+002 
3896875000  -4.422663e+001  1.118345e+002 
3900000000  -4.417788e+001  1.051305e+002 
3903125000  -4.387297e+001  1.029222e+002 
3906250000  -4.340657e+001  9.950593e+001 
3909375000  -4.280187e+001  8.802478e+001 
3912500000  -4.362132e+001  8.105215e+001 
3915625000  -4.506986e+001  7.885269e+001 
3918750000  -4.448302e+001  7.817469e+001 
3921875000  -4.375552e+001  7.218854e+001 
3925000000  -4.303867e+001  6.710731e+001 
3928125000  -4.271000e+001  5.566900e+001 
3931250000  -4.352375e+001  4.933355e+001 
3934375000  -4.383910e+001  4.589335e+001 
3937500000  -4.444051e+001  4.338903e+001 
3940625000  -4.457077e+001  4.238264e+001 
3943750000  -4.316505e+001  3.557532e+001 
3946875000  -4.263645e+001  2.797511e+001 
3950000000  -4.378328e+001  1.931546e+001 
3953125000  -4.445964e+001  2.109424e+001 
3956250000  -4.248908e+001  2.006402e+001 
3959375000  -4.184822e+001  1.323118e+001 
3962500000  -4.160838e+001  3.397205e+000 
3965625000  -4.149265e+001  -9.422429e+000 
3968750000  -4.229211e+001  -1.631641e+001 
3971875000  -4.262171e+001  -1.942160e+001 
3975000000  -4.205688e+001  -2.612321e+001 
3978125000  -4.226137e+001  -3.352895e+001 
3981250000  -4.198240e+001  -3.982575e+001 
3984375000  -4.257938e+001  -4.924281e+001 
3987500000  -4.329436e+001  -5.291616e+001 
3990625000  -4.266582e+001  -5.665340e+001 
3993750000  -4.293957e+001  -6.090089e+001 
3996875000  -4.278883e+001  -7.075776e+001 
4000000000  -4.345024e+001  -7.361149e+001 
4003125000  -4.389161e+001  -7.125169e+001 
4006250000  -4.199025e+001  -7.730793e+001 
4009375000  -4.116130e+001  -9.688889e+001 
4012500000  -4.299876e+001  -1.000873e+002 
4015625000  -4.394974e+001  -1.034252e+002 
4018750000  -4.359071e+001  -1.082497e+002 
4021875000  -4.302953e+001  -1.161599e+002 
4025000000  -4.334120e+001  -1.208177e+002 
4028125000  -4.339024e+001  -1.309556e+002 
4031250000  -4.391134e+001  -1.353483e+002 
4034375000  -4.413963e+001  -1.395030e+002 
4037500000  -4.403980e+001  -1.406209e+002 
4040625000  -4.387316e+001  -1.473764e+002 
4043750000  -4.417211e+001  -1.505204e+002 
4046875000  -4.437020e+001  -1.569797e+002 
4050000000  -4.418810e+001  -1.643128e+002 
4053125000  -4.526212e+001  -1.697592e+002 
4056250000  -4.613173e+001  -1.666021e+002 
4059375000  -4.386841e+001  -1.670108e+002 
4062500000  -4.339842e+001  -1.727124e+002 
4065625000  -4.375999e+001  -1.795585e+002 
4068750000  -4.267054e+001  1.694789e+002 
4071875000  -4.237646e+001  1.631029e+002 
4075000000  -4.376108e+001  1.537955e+002 
4078125000  -4.373967e+001  1.512303e+002 
4081250000  -4.374437e+001  1.473656e+002 
4084375000  -4.364289e+001  1.378814e+002 
4087500000  -4.384625e+001  1.304625e+002 
4090625000  -4.469662e+001  1.265396e+002 
4093750000  -4.399327e+001  1.235392e+002 
4096875000  -4.377122e+001  1.151021e+002 
4100000000  -4.488095e+001  1.103884e+002 
4103125000  -4.587431e+001  1.152180e+002 
4106250000  -4.528064e+001  1.145174e+002 
4109375000  -4.419531e+001  1.073373e+002 
4112500000  -4.373525e+001  9.892164e+001 
4115625000  -4.445104e+001  9.627230e+001 
4118750000  -4.430699e+001  8.892005e+001 
4121875000  -4.331335e+001  8.095471e+001 
4125000000  -4.471929e+001  7.452660e+001 
4128125000  -4.521803e+001  7.864902e+001 
4131250000  -4.362549e+001  8.339217e+001 
4134375000  -4.191041e+001  7.038737e+001 
4137500000  -4.221292e+001  4.835550e+001 
4140625000  -4.427192e+001  4.190957e+001 
4143750000  -4.467435e+001  4.710226e+001 
4146875000  -4.375468e+001  4.845452e+001 
4150000000  -4.229798e+001  4.006559e+001 
4153125000  -4.339315e+001  3.150018e+001 
4156250000  -4.388618e+001  2.584329e+001 
4159375000  -4.388125e+001  3.081186e+001 
4162500000  -4.219982e+001  2.574393e+001 
4165625000  -4.145422e+001  1.637779e+001 
4168750000  -4.086044e+001  4.590104e+000 
4171875000  -4.104701e+001  -7.116499e+000 
4175000000  -4.163933e+001  -1.281092e+001 
4178125000  -4.231956e+001  -1.836232e+001 
4181250000  -4.194720e+001  -2.330902e+001 
4184375000  -4.295948e+001  -3.139567e+001 
4187500000  -4.249538e+001  -3.473286e+001 
4190625000  -4.223816e+001  -4.708976e+001 
4193750000  -4.405413e+001  -5.126967e+001 
4196875000  -4.465025e+001  -5.283731e+001 
4200000000  -4.574232e+001  -4.822821e+001 
4203125000  -4.435024e+001  -4.082853e+001 
4206250000  -4.122464e+001  -4.871687e+001 
4209375000  -4.139146e+001  -7.667847e+001 
4212500000  -4.383092e+001  -8.165524e+001 
4215625000  -4.409763e+001  -7.417398e+001 
4218750000  -4.261434e+001  -7.402174e+001 
4221875000  -4.073073e+001  -8.346592e+001 
4225000000  -4.240350e+001  -9.706036e+001 
4228125000  -4.209275e+001  -9.426519e+001 
4231250000  -4.099807e+001  -1.043909e+002 
4234375000  -4.117473e+001  -1.141334e+002 
4237500000  -4.090091e+001  -1.180901e+002 
4240625000  -4.100973e+001  -1.342021e+002 
4243750000  -4.242215e+001  -1.415282e+002 
4246875000  -4.279551e+001  -1.395584e+002 
4250000000  -4.290103e+001  -1.408006e+002 
4253125000  -4.268961e+001  -1.410555e+002 
4256250000  -4.264210e+001  -1.499109e+002 
4259375000  -4.174210e+001  -1.554216e+002 
4262500000  -4.214713e+001  -1.609942e+002 
4265625000  -4.208203e+001  -1.614463e+002 
4268750000  -4.043188e+001  -1.678242e+002 
4271875000  -4.053644e+001  1.796309e+002 
4275000000  -4.032625e+001  1.703644e+002 
4278125000  -4.128116e+001  1.586188e+002 
4281250000  -4.237523e+001  1.543322e+002 
4284375000  -4.191344e+001  1.522141e+002 
4287500000  -4.407467e+001  1.497622e+002 
4290625000  -4.345329e+001  1.574280e+002 
4293750000  -4.135286e+001  1.555165e+002 
4296875000  -4.041202e+001  1.375353e+002 
4300000000  -4.153640e+001  1.298764e+002 
4303125000  -4.186443e+001  1.311141e+002 
4306250000  -4.042282e+001  1.273612e+002 
4309375000  -3.961963e+001  1.191868e+002 
4312500000  -3.945243e+001  1.081631e+002 
4315625000  -4.002148e+001  9.837933e+001 
4318750000  -4.091209e+001  9.427410e+001 
4321875000  -4.063512e+001  9.072510e+001 
4325000000  -4.017664e+001  8.887056e+001 
4328125000  -3.935530e+001  7.578262e+001 
4331250000  -3.987649e+001  6.385502e+001 
4334375000  -4.079717e+001  5.520250e+001 
4337500000  -4.176940e+001  5.492387e+001 
4340625000  -4.199820e+001  5.615298e+001 
4343750000  -4.114339e+001  5.191405e+001 
4346875000  -4.093031e+001  4.297371e+001 
4350000000  -4.082139e+001  3.307126e+001 
4353125000  -4.170743e+001  2.174314e+001 
4356250000  -4.408915e+001  2.493449e+001 
4359375000  -4.288922e+001  3.978773e+001 
4362500000  -3.982465e+001  3.053583e+001 
4365625000  -3.906728e+001  1.062512e+001 
4368750000  -4.013864e+001  -7.347716e-001 
4371875000  -4.103173e+001  -3.715796e+000 
4375000000  -4.079742e+001  -6.841172e+000 
4378125000  -4.030851e+001  -1.570459e+001 
4381250000  -4.050903e+001  -2.369759e+001 
4384375000  -4.057971e+001  -3.083995e+001 
4387500000  -4.135301e+001  -3.895264e+001 
4390625000  -4.182685e+001  -3.902022e+001 
4393750000  -4.153957e+001  -3.901349e+001 
4396875000  -4.099495e+001  -4.552448e+001 
4400000000  -4.065701e+001  -5.413573e+001 
4403125000  -4.191303e+001  -6.743247e+001 
4406250000  -4.242477e+001  -6.872318e+001 
4409375000  -4.214191e+001  -7.226771e+001 
4412500000  -4.325412e+001  -7.541285e+001 
4415625000  -4.305054e+001  -7.220773e+001 
4418750000  -4.169186e+001  -7.421148e+001 
