!Agilent Technologies,E8363B,MY43030201,A.06.04.32
!Agilent E8363B: A.06.04.32
!Date: Tuesday, November 11, 2014 21:41:07
!Correction: S21(Response(S21)) 
!S1P File: Measurement: S21:
# Hz S  dB   R 50
3000000000  -4.359743e+001  -1.573642e+002 
3003125000  -4.527371e+001  -1.619097e+002 
3006250000  -4.520383e+001  -1.646848e+002 
3009375000  -4.596028e+001  -1.605439e+002 
3012500000  -4.480647e+001  -1.684918e+002 
3015625000  -4.486869e+001  -1.746597e+002 
3018750000  -4.527328e+001  -1.728279e+002 
3021875000  -4.377343e+001  -1.747464e+002 
3025000000  -4.246185e+001  -1.789328e+002 
3028125000  -4.163773e+001  1.679533e+002 
3031250000  -4.081731e+001  1.559499e+002 
3034375000  -4.090866e+001  1.418192e+002 
3037500000  -4.162231e+001  1.305349e+002 
3040625000  -4.292785e+001  1.259661e+002 
3043750000  -4.348685e+001  1.171397e+002 
3046875000  -4.392862e+001  1.113560e+002 
3050000000  -4.495426e+001  1.066314e+002 
3053125000  -4.485681e+001  1.098802e+002 
3056250000  -4.474559e+001  1.123794e+002 
3059375000  -4.387983e+001  1.087213e+002 
3062500000  -4.230007e+001  1.046091e+002 
3065625000  -4.225314e+001  9.361768e+001 
3068750000  -4.176190e+001  8.433861e+001 
3071875000  -4.184842e+001  8.250601e+001 
3075000000  -4.097366e+001  7.477260e+001 
3078125000  -4.122681e+001  6.706800e+001 
3081250000  -4.135405e+001  6.092320e+001 
3084375000  -4.043038e+001  5.516940e+001 
3087500000  -4.054026e+001  4.828901e+001 
3090625000  -3.996588e+001  3.440594e+001 
3093750000  -4.098851e+001  2.563625e+001 
3096875000  -4.106680e+001  1.981462e+001 
3100000000  -4.102888e+001  1.477519e+001 
3103125000  -4.142922e+001  1.132083e+001 
3106250000  -4.101694e+001  4.989605e+000 
3109375000  -4.098147e+001  6.273948e-001 
3112500000  -4.088293e+001  -7.650362e+000 
3115625000  -4.076619e+001  -1.237093e+001 
3118750000  -4.069003e+001  -1.716815e+001 
3121875000  -4.021174e+001  -2.835227e+001 
3125000000  -4.213560e+001  -3.281967e+001 
3128125000  -4.211979e+001  -2.699518e+001 
3131250000  -3.951971e+001  -3.465850e+001 
3134375000  -3.877052e+001  -5.397226e+001 
3137500000  -3.951595e+001  -6.685227e+001 
3140625000  -4.092162e+001  -6.878964e+001 
3143750000  -4.178787e+001  -7.409145e+001 
3146875000  -4.118978e+001  -7.375514e+001 
3150000000  -4.025326e+001  -7.862688e+001 
3153125000  -4.074059e+001  -8.797963e+001 
3156250000  -4.135401e+001  -8.443382e+001 
3159375000  -3.928953e+001  -8.867490e+001 
3162500000  -3.784314e+001  -1.046252e+002 
3165625000  -3.897963e+001  -1.193409e+002 
3168750000  -3.911209e+001  -1.212914e+002 
3171875000  -3.866790e+001  -1.291049e+002 
3175000000  -3.919787e+001  -1.403356e+002 
3178125000  -3.872416e+001  -1.423548e+002 
3181250000  -3.805110e+001  -1.507152e+002 
3184375000  -3.777250e+001  -1.627153e+002 
3187500000  -3.922051e+001  -1.778135e+002 
3190625000  -4.081589e+001  1.747635e+002 
3193750000  -4.120894e+001  1.783385e+002 
3196875000  -4.117235e+001  1.782217e+002 
3200000000  -3.964970e+001  1.731336e+002 
3203125000  -3.966526e+001  1.651578e+002 
3206250000  -4.001765e+001  1.549756e+002 
3209375000  -3.943779e+001  1.469312e+002 
3212500000  -3.979484e+001  1.398318e+002 
3215625000  -3.985955e+001  1.358039e+002 
3218750000  -4.041140e+001  1.239758e+002 
3221875000  -4.070293e+001  1.185285e+002 
3225000000  -4.042294e+001  1.129577e+002 
3228125000  -4.108344e+001  1.042563e+002 
3231250000  -4.145713e+001  1.003596e+002 
3234375000  -4.114694e+001  9.767610e+001 
3237500000  -4.097141e+001  9.410965e+001 
3240625000  -4.034232e+001  8.725124e+001 
3243750000  -4.042567e+001  7.576337e+001 
3246875000  -4.079663e+001  6.728781e+001 
3250000000  -4.139557e+001  6.316482e+001 
3253125000  -4.130380e+001  5.763454e+001 
3256250000  -4.039513e+001  4.730501e+001 
3259375000  -4.112378e+001  3.513836e+001 
3262500000  -4.235981e+001  2.982045e+001 
3265625000  -4.264086e+001  3.103830e+001 
3268750000  -4.235095e+001  3.125333e+001 
3271875000  -4.175722e+001  2.521598e+001 
3275000000  -4.122129e+001  1.368780e+001 
3278125000  -4.193505e+001  8.073170e+000 
3281250000  -4.191456e+001  2.969095e+000 
3284375000  -4.098177e+001  -5.543040e+000 
3287500000  -4.163176e+001  -1.298605e+001 
3290625000  -4.162439e+001  -2.325067e+001 
3293750000  -4.158560e+001  -3.052267e+001 
3296875000  -4.284927e+001  -3.512661e+001 
3300000000  -4.226962e+001  -3.773813e+001 
3303125000  -4.100191e+001  -4.689155e+001 
3306250000  -4.114324e+001  -5.643255e+001 
3309375000  -4.069131e+001  -6.715569e+001 
3312500000  -4.111833e+001  -8.257800e+001 
3315625000  -4.248276e+001  -8.990812e+001 
3318750000  -4.392749e+001  -9.666243e+001 
3321875000  -4.532147e+001  -9.802267e+001 
3325000000  -4.504113e+001  -9.459951e+001 
3328125000  -4.413962e+001  -9.466319e+001 
3331250000  -4.267000e+001  -9.496870e+001 
3334375000  -4.009337e+001  -1.146877e+002 
3337500000  -4.107849e+001  -1.376053e+002 
3340625000  -4.283301e+001  -1.466842e+002 
3343750000  -4.491157e+001  -1.494282e+002 
3346875000  -4.410499e+001  -1.536294e+002 
3350000000  -4.371104e+001  -1.585567e+002 
3353125000  -4.385046e+001  -1.667283e+002 
3356250000  -4.353826e+001  -1.769767e+002 
3359375000  -4.451572e+001  1.696126e+002 
3362500000  -4.539252e+001  1.600098e+002 
3365625000  -4.611996e+001  1.565175e+002 
3368750000  -4.613928e+001  1.511387e+002 
3371875000  -4.712893e+001  1.440872e+002 
3375000000  -4.819597e+001  1.368506e+002 
3378125000  -4.934273e+001  1.345602e+002 
3381250000  -5.071261e+001  1.466824e+002 
3384375000  -4.716839e+001  1.542132e+002 
3387500000  -4.497942e+001  1.340497e+002 
3390625000  -4.668568e+001  1.068606e+002 
3393750000  -4.815276e+001  1.067448e+002 
3396875000  -4.609324e+001  1.038167e+002 
3400000000  -4.609633e+001  9.027901e+001 
3403125000  -4.672082e+001  7.893850e+001 
3406250000  -4.764545e+001  7.456586e+001 
3409375000  -4.737667e+001  6.279113e+001 
3412500000  -4.793808e+001  5.323205e+001 
3415625000  -4.932196e+001  5.095594e+001 
3418750000  -4.896579e+001  4.753319e+001 
3421875000  -4.905832e+001  4.689545e+001 
3425000000  -4.795162e+001  3.802772e+001 
3428125000  -4.767151e+001  3.106502e+001 
3431250000  -4.683504e+001  1.944414e+001 
3434375000  -4.671735e+001  6.243871e+000 
3437500000  -4.774036e+001  -2.930161e+000 
3440625000  -4.766050e+001  -5.936832e+000 
3443750000  -4.639075e+001  -4.928112e+000 
3446875000  -4.530165e+001  -2.553514e+001 
3450000000  -4.537580e+001  -3.953481e+001 
3453125000  -4.592999e+001  -5.835813e+001 
3456250000  -4.722741e+001  -6.656319e+001 
3459375000  -4.884739e+001  -7.037525e+001 
3462500000  -4.814905e+001  -7.359126e+001 
3465625000  -4.722785e+001  -8.492735e+001 
3468750000  -4.742642e+001  -9.201677e+001 
3471875000  -4.699250e+001  -1.013472e+002 
3475000000  -4.679852e+001  -1.114715e+002 
3478125000  -4.811308e+001  -1.239820e+002 
3481250000  -4.855373e+001  -1.296306e+002 
3484375000  -4.820999e+001  -1.314196e+002 
3487500000  -4.752206e+001  -1.399739e+002 
3490625000  -4.746211e+001  -1.506565e+002 
3493750000  -4.792044e+001  -1.616919e+002 
3496875000  -4.794741e+001  -1.666398e+002 
3500000000  -4.812558e+001  -1.675169e+002 
3503125000  -4.706016e+001  -1.710133e+002 
3506250000  -4.514022e+001  1.726659e+002 
3509375000  -4.557640e+001  1.568370e+002 
3512500000  -4.641952e+001  1.420879e+002 
3515625000  -4.714584e+001  1.357796e+002 
3518750000  -4.725172e+001  1.346420e+002 
3521875000  -4.800963e+001  1.193228e+002 
3525000000  -4.826314e+001  1.158174e+002 
3528125000  -4.750314e+001  1.183559e+002 
3531250000  -4.649066e+001  1.085508e+002 
3534375000  -4.714316e+001  9.142537e+001 
3537500000  -4.805857e+001  8.416998e+001 
3540625000  -4.905172e+001  7.930553e+001 
3543750000  -4.869688e+001  8.136911e+001 
3546875000  -4.828473e+001  8.917328e+001 
3550000000  -4.611915e+001  7.962905e+001 
3553125000  -4.620565e+001  5.967616e+001 
3556250000  -4.731638e+001  5.109154e+001 
3559375000  -4.676041e+001  4.798478e+001 
3562500000  -4.614450e+001  3.668399e+001 
3565625000  -4.732294e+001  2.863178e+001 
3568750000  -4.791901e+001  2.751031e+001 
3571875000  -4.713819e+001  2.145580e+001 
3575000000  -4.686398e+001  1.587040e+001 
3578125000  -4.749752e+001  1.279012e+001 
3581250000  -4.775885e+001  5.991669e+000 
3584375000  -4.639603e+001  2.535779e+000 
3587500000  -4.558094e+001  -8.964506e+000 
3590625000  -4.671579e+001  -1.938091e+001 
3593750000  -4.759944e+001  -1.987698e+001 
3596875000  -4.625323e+001  -1.686761e+001 
3600000000  -4.447813e+001  -2.780933e+001 
3603125000  -4.566404e+001  -4.547548e+001 
3606250000  -4.575410e+001  -4.498987e+001 
3609375000  -4.547978e+001  -5.337728e+001 
3612500000  -4.602912e+001  -6.000033e+001 
3615625000  -4.605924e+001  -6.535062e+001 
3618750000  -4.612695e+001  -6.592552e+001 
3621875000  -4.546997e+001  -7.264368e+001 
3625000000  -4.567636e+001  -7.396795e+001 
3628125000  -4.478152e+001  -8.245782e+001 
3631250000  -4.500225e+001  -9.440578e+001 
3634375000  -4.513578e+001  -9.188325e+001 
3637500000  -4.438585e+001  -9.494180e+001 
3640625000  -4.358832e+001  -1.038729e+002 
3643750000  -4.314988e+001  -1.127051e+002 
3646875000  -4.391784e+001  -1.258069e+002 
3650000000  -4.395387e+001  -1.287204e+002 
3653125000  -4.291491e+001  -1.361213e+002 
3656250000  -4.433751e+001  -1.421851e+002 
3659375000  -4.372161e+001  -1.473194e+002 
3662500000  -4.333667e+001  -1.546203e+002 
3665625000  -4.312269e+001  -1.585216e+002 
3668750000  -4.192917e+001  -1.620811e+002 
3671875000  -4.137020e+001  -1.771773e+002 
3675000000  -4.230511e+001  1.736561e+002 
3678125000  -4.268483e+001  1.680816e+002 
3681250000  -4.258687e+001  1.612510e+002 
3684375000  -4.287806e+001  1.523637e+002 
3687500000  -4.319027e+001  1.454581e+002 
3690625000  -4.359718e+001  1.401336e+002 
3693750000  -4.453322e+001  1.394811e+002 
3696875000  -4.391268e+001  1.362969e+002 
3700000000  -4.333331e+001  1.260710e+002 
3703125000  -4.351802e+001  1.192638e+002 
3706250000  -4.477229e+001  1.161932e+002 
3709375000  -4.394739e+001  1.173349e+002 
3712500000  -4.331256e+001  1.095659e+002 
3715625000  -4.167230e+001  1.010141e+002 
3718750000  -4.142692e+001  9.106882e+001 
3721875000  -4.187188e+001  8.147202e+001 
3725000000  -4.247115e+001  7.319097e+001 
3728125000  -4.266312e+001  7.190363e+001 
3731250000  -4.180431e+001  6.519897e+001 
3734375000  -4.197997e+001  5.498350e+001 
3737500000  -4.315791e+001  4.877285e+001 
3740625000  -4.328976e+001  4.198336e+001 
3743750000  -4.309445e+001  3.634687e+001 
3746875000  -4.347755e+001  2.883046e+001 
3750000000  -4.407784e+001  2.751054e+001 
3753125000  -4.369434e+001  2.137241e+001 
3756250000  -4.389664e+001  1.983423e+001 
3759375000  -4.339281e+001  1.194977e+001 
3762500000  -4.366037e+001  8.524355e+000 
3765625000  -4.425379e+001  4.001015e+000 
3768750000  -4.377065e+001  5.503389e+000 
3771875000  -4.210688e+001  -3.969348e+000 
3775000000  -4.197961e+001  -1.472231e+001 
3778125000  -4.275109e+001  -2.105250e+001 
3781250000  -4.264050e+001  -2.347500e+001 
3784375000  -4.232535e+001  -2.949054e+001 
3787500000  -4.247131e+001  -3.537197e+001 
3790625000  -4.306999e+001  -4.734214e+001 
3793750000  -4.275085e+001  -4.730584e+001 
3796875000  -4.181503e+001  -5.327138e+001 
3800000000  -4.073376e+001  -6.171891e+001 
3803125000  -4.171589e+001  -7.197858e+001 
3806250000  -4.283055e+001  -7.810023e+001 
3809375000  -4.205494e+001  -8.407604e+001 
3812500000  -4.195081e+001  -9.448411e+001 
3815625000  -4.371127e+001  -1.062613e+002 
3818750000  -4.447974e+001  -1.028526e+002 
3821875000  -4.344221e+001  -9.319551e+001 
3825000000  -4.163255e+001  -1.015858e+002 
3828125000  -4.053732e+001  -1.212110e+002 
3831250000  -4.146228e+001  -1.352458e+002 
3834375000  -4.380073e+001  -1.358254e+002 
3837500000  -4.401570e+001  -1.330799e+002 
3840625000  -4.263605e+001  -1.405306e+002 
3843750000  -4.170486e+001  -1.521127e+002 
3846875000  -4.323338e+001  -1.629097e+002 
3850000000  -4.427845e+001  -1.541500e+002 
3853125000  -4.307965e+001  -1.570989e+002 
3856250000  -4.297640e+001  -1.652032e+002 
3859375000  -4.221888e+001  -1.764768e+002 
3862500000  -4.230065e+001  1.761594e+002 
3865625000  -4.274412e+001  1.688188e+002 
3868750000  -4.259905e+001  1.669317e+002 
3871875000  -4.201707e+001  1.583316e+002 
3875000000  -4.279176e+001  1.463751e+002 
3878125000  -4.353055e+001  1.441531e+002 
3881250000  -4.325756e+001  1.439682e+002 
3884375000  -4.262669e+001  1.319410e+002 
3887500000  -4.358839e+001  1.291242e+002 
3890625000  -4.392773e+001  1.237667e+002 
3893750000  -4.404686e+001  1.207473e+002 
3896875000  -4.403274e+001  1.187500e+002 
3900000000  -4.481121e+001  1.127816e+002 
3903125000  -4.399932e+001  1.041283e+002 
3906250000  -4.360626e+001  1.046688e+002 
3909375000  -4.279033e+001  9.569546e+001 
3912500000  -4.379517e+001  8.577454e+001 
3915625000  -4.470322e+001  8.415838e+001 
3918750000  -4.457735e+001  8.339107e+001 
3921875000  -4.413622e+001  7.826027e+001 
3925000000  -4.327822e+001  7.304230e+001 
3928125000  -4.323485e+001  6.264161e+001 
3931250000  -4.351916e+001  5.291321e+001 
3934375000  -4.408541e+001  5.357460e+001 
3937500000  -4.463334e+001  4.678045e+001 
3940625000  -4.456854e+001  4.852427e+001 
3943750000  -4.332777e+001  4.434504e+001 
3946875000  -4.311671e+001  3.409921e+001 
3950000000  -4.372235e+001  2.688935e+001 
3953125000  -4.485817e+001  2.852778e+001 
3956250000  -4.291312e+001  2.425446e+001 
3959375000  -4.217975e+001  1.767072e+001 
3962500000  -4.152884e+001  8.026899e+000 
3965625000  -4.225935e+001  -2.074542e+000 
3968750000  -4.241079e+001  -1.023054e+001 
3971875000  -4.256777e+001  -1.403891e+001 
3975000000  -4.230059e+001  -2.019124e+001 
3978125000  -4.235982e+001  -2.546754e+001 
3981250000  -4.183110e+001  -3.255700e+001 
3984375000  -4.240895e+001  -4.177285e+001 
3987500000  -4.321359e+001  -4.696606e+001 
3990625000  -4.331670e+001  -4.883753e+001 
3993750000  -4.321067e+001  -5.813858e+001 
3996875000  -4.329543e+001  -6.102983e+001 
4000000000  -4.394292e+001  -6.531355e+001 
4003125000  -4.408881e+001  -6.665386e+001 
4006250000  -4.218656e+001  -7.100681e+001 
4009375000  -4.158643e+001  -8.896165e+001 
4012500000  -4.311118e+001  -9.774403e+001 
4015625000  -4.409346e+001  -9.942920e+001 
4018750000  -4.387598e+001  -1.000512e+002 
4021875000  -4.330810e+001  -1.102489e+002 
4025000000  -4.314862e+001  -1.177591e+002 
4028125000  -4.326896e+001  -1.247580e+002 
4031250000  -4.425409e+001  -1.298156e+002 
4034375000  -4.409179e+001  -1.340374e+002 
4037500000  -4.418194e+001  -1.354974e+002 
4040625000  -4.430270e+001  -1.396828e+002 
4043750000  -4.436808e+001  -1.450104e+002 
4046875000  -4.489806e+001  -1.480901e+002 
4050000000  -4.406590e+001  -1.577881e+002 
4053125000  -4.543263e+001  -1.594888e+002 
4056250000  -4.565245e+001  -1.588643e+002 
4059375000  -4.382644e+001  -1.583994e+002 
4062500000  -4.394685e+001  -1.674857e+002 
4065625000  -4.394971e+001  -1.742245e+002 
4068750000  -4.362332e+001  1.775809e+002 
4071875000  -4.289357e+001  1.673174e+002 
4075000000  -4.368221e+001  1.611736e+002 
4078125000  -4.453869e+001  1.576245e+002 
4081250000  -4.376119e+001  1.513196e+002 
4084375000  -4.387372e+001  1.422171e+002 
4087500000  -4.414871e+001  1.331518e+002 
4090625000  -4.487724e+001  1.311941e+002 
4093750000  -4.499849e+001  1.317266e+002 
4096875000  -4.469746e+001  1.237589e+002 
4100000000  -4.604961e+001  1.166943e+002 
4103125000  -4.626998e+001  1.169370e+002 
4106250000  -4.537126e+001  1.215454e+002 
4109375000  -4.471996e+001  1.164092e+002 
4112500000  -4.457299e+001  1.089775e+002 
4115625000  -4.494208e+001  1.001421e+002 
4118750000  -4.447817e+001  9.560983e+001 
4121875000  -4.413226e+001  8.923354e+001 
4125000000  -4.514758e+001  8.116792e+001 
4128125000  -4.537415e+001  8.629903e+001 
4131250000  -4.441655e+001  8.720751e+001 
4134375000  -4.195275e+001  7.592719e+001 
4137500000  -4.212703e+001  5.288467e+001 
4140625000  -4.439502e+001  4.761533e+001 
4143750000  -4.495051e+001  5.243125e+001 
4146875000  -4.363411e+001  5.650964e+001 
4150000000  -4.326518e+001  4.564921e+001 
4153125000  -4.361401e+001  3.703396e+001 
4156250000  -4.434811e+001  3.228387e+001 
4159375000  -4.404956e+001  3.254940e+001 
4162500000  -4.288280e+001  3.273688e+001 
4165625000  -4.191037e+001  2.246294e+001 
4168750000  -4.147272e+001  1.387991e+001 
4171875000  -4.131921e+001  -2.686756e+000 
4175000000  -4.220794e+001  -8.808264e+000 
4178125000  -4.271005e+001  -1.187302e+001 
4181250000  -4.238417e+001  -1.856909e+001 
4184375000  -4.287711e+001  -2.191677e+001 
4187500000  -4.252479e+001  -2.979671e+001 
4190625000  -4.263770e+001  -4.126541e+001 
4193750000  -4.407585e+001  -4.675477e+001 
4196875000  -4.497390e+001  -4.724114e+001 
4200000000  -4.632962e+001  -4.203285e+001 
4203125000  -4.513479e+001  -3.111975e+001 
4206250000  -4.183898e+001  -4.374988e+001 
4209375000  -4.152196e+001  -6.460510e+001 
4212500000  -4.381430e+001  -7.048216e+001 
4215625000  -4.447282e+001  -6.667940e+001 
4218750000  -4.324256e+001  -6.676605e+001 
4221875000  -4.143172e+001  -7.602715e+001 
4225000000  -4.323555e+001  -8.832134e+001 
4228125000  -4.250551e+001  -8.938665e+001 
4231250000  -4.136972e+001  -9.559220e+001 
4234375000  -4.141304e+001  -1.068598e+002 
4237500000  -4.094740e+001  -1.144412e+002 
4240625000  -4.136222e+001  -1.236532e+002 
4243750000  -4.246809e+001  -1.325555e+002 
4246875000  -4.323534e+001  -1.307793e+002 
4250000000  -4.313218e+001  -1.324615e+002 
4253125000  -4.320175e+001  -1.335991e+002 
4256250000  -4.274987e+001  -1.445362e+002 
4259375000  -4.269738e+001  -1.495807e+002 
4262500000  -4.237453e+001  -1.519087e+002 
4265625000  -4.245707e+001  -1.517683e+002 
4268750000  -4.156623e+001  -1.604130e+002 
4271875000  -4.164302e+001  -1.704395e+002 
4275000000  -4.075918e+001  -1.798993e+002 
4278125000  -4.204486e+001  1.667695e+002 
4281250000  -4.247939e+001  1.619272e+002 
4284375000  -4.256247e+001  1.583741e+002 
4287500000  -4.398489e+001  1.575656e+002 
4290625000  -4.449983e+001  1.639724e+002 
4293750000  -4.229304e+001  1.598028e+002 
4296875000  -4.082811e+001  1.506391e+002 
4300000000  -4.188915e+001  1.369003e+002 
4303125000  -4.247829e+001  1.373587e+002 
4306250000  -4.135127e+001  1.361851e+002 
4309375000  -4.027935e+001  1.287248e+002 
4312500000  -4.046115e+001  1.153381e+002 
4315625000  -4.058811e+001  1.049459e+002 
4318750000  -4.145465e+001  1.004327e+002 
4321875000  -4.123069e+001  9.868482e+001 
4325000000  -4.070929e+001  9.520515e+001 
4328125000  -3.997488e+001  8.467630e+001 
4331250000  -4.035690e+001  7.114447e+001 
4334375000  -4.119873e+001  6.123901e+001 
4337500000  -4.220431e+001  6.183561e+001 
4340625000  -4.270592e+001  6.396777e+001 
4343750000  -4.130396e+001  6.036481e+001 
4346875000  -4.147238e+001  5.008162e+001 
4350000000  -4.164177e+001  4.142726e+001 
4353125000  -4.230127e+001  3.047329e+001 
4356250000  -4.404243e+001  3.327380e+001 
4359375000  -4.342321e+001  4.548230e+001 
4362500000  -4.019320e+001  3.827635e+001 
4365625000  -4.004423e+001  1.911005e+001 
4368750000  -4.113571e+001  6.981816e+000 
4371875000  -4.164497e+001  8.174181e+000 
4375000000  -4.123380e+001  4.330421e-001 
4378125000  -4.084269e+001  -6.573805e+000 
4381250000  -4.115465e+001  -1.342677e+001 
4384375000  -4.114305e+001  -2.437375e+001 
4387500000  -4.222022e+001  -2.962680e+001 
4390625000  -4.266558e+001  -3.282985e+001 
4393750000  -4.253440e+001  -3.272491e+001 
4396875000  -4.143708e+001  -3.623653e+001 
4400000000  -4.129021e+001  -4.727757e+001 
4403125000  -4.235074e+001  -5.498458e+001 
4406250000  -4.277336e+001  -6.044759e+001 
4409375000  -4.321320e+001  -6.770500e+001 
4412500000  -4.439156e+001  -6.663824e+001 
4415625000  -4.376812e+001  -6.523676e+001 
4418750000  -4.236094e+001  -6.507092e+001 
