!Agilent Technologies,E8363B,MY43030201,A.06.04.32
!Agilent E8363B: A.06.04.32
!Date: Tuesday, November 11, 2014 21:40:35
!Correction: S21(Response(S21)) 
!S1P File: Measurement: S21:
# Hz S  dB   R 50
3000000000  -4.360416e+001  -1.578061e+002 
3003125000  -4.530191e+001  -1.608685e+002 
3006250000  -4.528814e+001  -1.647056e+002 
3009375000  -4.615306e+001  -1.611408e+002 
3012500000  -4.502551e+001  -1.648015e+002 
3015625000  -4.475249e+001  -1.748197e+002 
3018750000  -4.517974e+001  -1.744942e+002 
3021875000  -4.369491e+001  -1.755899e+002 
3025000000  -4.261316e+001  -1.794849e+002 
3028125000  -4.168489e+001  1.685564e+002 
3031250000  -4.089688e+001  1.566872e+002 
3034375000  -4.087252e+001  1.412035e+002 
3037500000  -4.168733e+001  1.328163e+002 
3040625000  -4.291592e+001  1.256321e+002 
3043750000  -4.325095e+001  1.170338e+002 
3046875000  -4.405780e+001  1.097935e+002 
3050000000  -4.557682e+001  1.087574e+002 
3053125000  -4.458398e+001  1.105354e+002 
3056250000  -4.492472e+001  1.126292e+002 
3059375000  -4.384567e+001  1.091871e+002 
3062500000  -4.226860e+001  1.033121e+002 
3065625000  -4.203434e+001  9.287115e+001 
3068750000  -4.164972e+001  8.607449e+001 
3071875000  -4.151004e+001  8.302137e+001 
3075000000  -4.117557e+001  7.578792e+001 
3078125000  -4.109203e+001  6.756382e+001 
3081250000  -4.127524e+001  6.040298e+001 
3084375000  -4.034631e+001  5.641069e+001 
3087500000  -4.043054e+001  4.886517e+001 
3090625000  -3.990536e+001  3.554920e+001 
3093750000  -4.109310e+001  2.636144e+001 
3096875000  -4.130938e+001  2.020971e+001 
3100000000  -4.120697e+001  1.700457e+001 
3103125000  -4.146986e+001  1.022593e+001 
3106250000  -4.096981e+001  5.230072e+000 
3109375000  -4.087080e+001  -8.950586e-002 
3112500000  -4.062896e+001  -7.425079e+000 
3115625000  -4.100840e+001  -1.235503e+001 
3118750000  -4.077334e+001  -1.644636e+001 
3121875000  -4.024324e+001  -2.885980e+001 
3125000000  -4.204217e+001  -3.346023e+001 
3128125000  -4.205430e+001  -2.828878e+001 
3131250000  -3.928079e+001  -3.526580e+001 
3134375000  -3.871345e+001  -5.360121e+001 
3137500000  -3.952191e+001  -6.472307e+001 
3140625000  -4.072963e+001  -6.911564e+001 
3143750000  -4.166554e+001  -7.420466e+001 
3146875000  -4.082143e+001  -7.287368e+001 
3150000000  -4.019114e+001  -7.918939e+001 
3153125000  -4.089841e+001  -8.829649e+001 
3156250000  -4.134674e+001  -8.497801e+001 
3159375000  -3.917484e+001  -8.731909e+001 
3162500000  -3.772945e+001  -1.042335e+002 
3165625000  -3.903417e+001  -1.195408e+002 
3168750000  -3.903912e+001  -1.200567e+002 
3171875000  -3.876721e+001  -1.290295e+002 
3175000000  -3.916556e+001  -1.383925e+002 
3178125000  -3.863401e+001  -1.413298e+002 
3181250000  -3.812706e+001  -1.504679e+002 
3184375000  -3.801415e+001  -1.632838e+002 
3187500000  -3.913317e+001  -1.779749e+002 
3190625000  -4.083199e+001  1.757179e+002 
3193750000  -4.110161e+001  1.785257e+002 
3196875000  -4.121519e+001  1.780826e+002 
3200000000  -3.984101e+001  1.730136e+002 
3203125000  -3.964124e+001  1.645462e+002 
3206250000  -3.989013e+001  1.556669e+002 
3209375000  -3.962498e+001  1.467583e+002 
3212500000  -3.991101e+001  1.384093e+002 
3215625000  -3.966212e+001  1.368860e+002 
3218750000  -4.041256e+001  1.245935e+002 
3221875000  -4.073564e+001  1.177407e+002 
3225000000  -4.045461e+001  1.120729e+002 
3228125000  -4.108650e+001  1.042813e+002 
3231250000  -4.133522e+001  1.018906e+002 
3234375000  -4.108440e+001  9.754253e+001 
3237500000  -4.098399e+001  9.387228e+001 
3240625000  -4.037803e+001  8.662088e+001 
3243750000  -4.030129e+001  7.576331e+001 
3246875000  -4.072644e+001  6.746053e+001 
3250000000  -4.116112e+001  6.179673e+001 
3253125000  -4.130584e+001  5.840390e+001 
3256250000  -4.064183e+001  4.821885e+001 
3259375000  -4.101254e+001  3.622039e+001 
3262500000  -4.239240e+001  3.075061e+001 
3265625000  -4.269474e+001  3.230861e+001 
3268750000  -4.259448e+001  3.079232e+001 
3271875000  -4.157880e+001  2.488931e+001 
3275000000  -4.105864e+001  1.354001e+001 
3278125000  -4.159746e+001  6.311653e+000 
3281250000  -4.178448e+001  3.938693e+000 
3284375000  -4.112640e+001  -4.441018e+000 
3287500000  -4.162296e+001  -1.202829e+001 
3290625000  -4.153852e+001  -2.120038e+001 
3293750000  -4.185126e+001  -3.171543e+001 
3296875000  -4.268905e+001  -3.512181e+001 
3300000000  -4.221304e+001  -3.629737e+001 
3303125000  -4.112807e+001  -4.698252e+001 
3306250000  -4.097179e+001  -5.481902e+001 
3309375000  -4.076270e+001  -6.681872e+001 
3312500000  -4.122400e+001  -8.103445e+001 
3315625000  -4.236997e+001  -8.946688e+001 
3318750000  -4.434700e+001  -9.874018e+001 
3321875000  -4.593225e+001  -9.558414e+001 
3325000000  -4.534900e+001  -9.074398e+001 
3328125000  -4.442533e+001  -9.241510e+001 
3331250000  -4.287649e+001  -9.566565e+001 
3334375000  -4.022281e+001  -1.138587e+002 
3337500000  -4.096191e+001  -1.384448e+002 
3340625000  -4.275046e+001  -1.469156e+002 
3343750000  -4.467149e+001  -1.498360e+002 
3346875000  -4.384576e+001  -1.536540e+002 
3350000000  -4.362624e+001  -1.580000e+002 
3353125000  -4.366572e+001  -1.686503e+002 
3356250000  -4.364880e+001  -1.771295e+002 
3359375000  -4.441937e+001  1.678932e+002 
3362500000  -4.522960e+001  1.621723e+002 
3365625000  -4.582629e+001  1.552303e+002 
3368750000  -4.674323e+001  1.473931e+002 
3371875000  -4.730565e+001  1.419882e+002 
3375000000  -4.886666e+001  1.360347e+002 
3378125000  -4.908939e+001  1.349722e+002 
3381250000  -5.047409e+001  1.456792e+002 
3384375000  -4.773647e+001  1.534992e+002 
3387500000  -4.511609e+001  1.330519e+002 
3390625000  -4.667314e+001  1.093741e+002 
3393750000  -4.797599e+001  1.059159e+002 
3396875000  -4.642036e+001  1.025867e+002 
3400000000  -4.628703e+001  8.818085e+001 
3403125000  -4.694636e+001  8.316821e+001 
3406250000  -4.798671e+001  7.394836e+001 
3409375000  -4.751731e+001  6.535398e+001 
3412500000  -4.845267e+001  5.412890e+001 
3415625000  -4.905589e+001  5.033758e+001 
3418750000  -4.899184e+001  4.803226e+001 
3421875000  -4.947334e+001  4.594682e+001 
3425000000  -4.766747e+001  3.620848e+001 
3428125000  -4.736975e+001  3.021822e+001 
3431250000  -4.684166e+001  1.787011e+001 
3434375000  -4.652925e+001  7.977856e+000 
3437500000  -4.727471e+001  -1.348225e+000 
3440625000  -4.804616e+001  -4.879622e+000 
3443750000  -4.672647e+001  -1.024196e+001 
3446875000  -4.570146e+001  -2.538444e+001 
3450000000  -4.508125e+001  -3.857547e+001 
3453125000  -4.594749e+001  -5.773079e+001 
3456250000  -4.742514e+001  -6.591776e+001 
3459375000  -4.781908e+001  -6.755488e+001 
3462500000  -4.762704e+001  -7.257798e+001 
3465625000  -4.718971e+001  -8.901643e+001 
3468750000  -4.730312e+001  -9.127282e+001 
3471875000  -4.703608e+001  -1.009799e+002 
3475000000  -4.711660e+001  -1.108559e+002 
3478125000  -4.738473e+001  -1.274517e+002 
3481250000  -4.891752e+001  -1.318658e+002 
3484375000  -4.839617e+001  -1.301964e+002 
3487500000  -4.726471e+001  -1.385890e+002 
3490625000  -4.749594e+001  -1.482994e+002 
3493750000  -4.736864e+001  -1.631299e+002 
3496875000  -4.803096e+001  -1.658623e+002 
3500000000  -4.843484e+001  -1.708353e+002 
3503125000  -4.709449e+001  -1.719822e+002 
3506250000  -4.563175e+001  1.775932e+002 
3509375000  -4.550789e+001  1.551431e+002 
3512500000  -4.627414e+001  1.412965e+002 
3515625000  -4.704564e+001  1.340684e+002 
3518750000  -4.786113e+001  1.343983e+002 
3521875000  -4.765359e+001  1.207817e+002 
3525000000  -4.842867e+001  1.173199e+002 
3528125000  -4.713596e+001  1.220199e+002 
3531250000  -4.643526e+001  1.085336e+002 
3534375000  -4.694880e+001  9.322651e+001 
3537500000  -4.780785e+001  8.570338e+001 
3540625000  -4.919028e+001  8.076934e+001 
3543750000  -4.894074e+001  8.087823e+001 
3546875000  -4.861186e+001  8.831935e+001 
3550000000  -4.631231e+001  8.087722e+001 
3553125000  -4.624516e+001  5.968014e+001 
3556250000  -4.708508e+001  5.199487e+001 
3559375000  -4.611605e+001  4.442946e+001 
3562500000  -4.671904e+001  3.567731e+001 
3565625000  -4.713366e+001  2.999026e+001 
3568750000  -4.762711e+001  2.647785e+001 
3571875000  -4.724295e+001  2.430538e+001 
3575000000  -4.721916e+001  1.603683e+001 
3578125000  -4.781602e+001  1.374532e+001 
3581250000  -4.743273e+001  8.638556e+000 
3584375000  -4.609801e+001  5.418573e+000 
3587500000  -4.548708e+001  -6.402495e+000 
3590625000  -4.639688e+001  -1.778690e+001 
3593750000  -4.778683e+001  -1.797116e+001 
3596875000  -4.678503e+001  -1.550153e+001 
3600000000  -4.489869e+001  -2.787040e+001 
3603125000  -4.488807e+001  -4.736210e+001 
3606250000  -4.620171e+001  -4.845971e+001 
3609375000  -4.611259e+001  -5.142745e+001 
3612500000  -4.591956e+001  -5.909059e+001 
3615625000  -4.580457e+001  -6.289721e+001 
3618750000  -4.623090e+001  -6.792927e+001 
3621875000  -4.564020e+001  -7.309306e+001 
3625000000  -4.558740e+001  -7.548441e+001 
3628125000  -4.504782e+001  -8.267642e+001 
3631250000  -4.535610e+001  -9.250350e+001 
3634375000  -4.551141e+001  -9.325340e+001 
3637500000  -4.473740e+001  -9.433855e+001 
3640625000  -4.373232e+001  -1.017523e+002 
3643750000  -4.280007e+001  -1.148327e+002 
3646875000  -4.386385e+001  -1.250235e+002 
3650000000  -4.397121e+001  -1.290805e+002 
3653125000  -4.314412e+001  -1.359847e+002 
3656250000  -4.391265e+001  -1.410235e+002 
3659375000  -4.356787e+001  -1.485562e+002 
3662500000  -4.311149e+001  -1.559696e+002 
3665625000  -4.344116e+001  -1.568159e+002 
3668750000  -4.199617e+001  -1.627352e+002 
3671875000  -4.149317e+001  -1.777040e+002 
3675000000  -4.219606e+001  1.714111e+002 
3678125000  -4.274980e+001  1.668934e+002 
3681250000  -4.212257e+001  1.627630e+002 
3684375000  -4.264714e+001  1.550834e+002 
3687500000  -4.297376e+001  1.449706e+002 
3690625000  -4.348421e+001  1.385869e+002 
3693750000  -4.434837e+001  1.374192e+002 
3696875000  -4.377427e+001  1.357813e+002 
3700000000  -4.316156e+001  1.254996e+002 
3703125000  -4.381046e+001  1.211250e+002 
3706250000  -4.457131e+001  1.155418e+002 
3709375000  -4.380792e+001  1.167781e+002 
3712500000  -4.298303e+001  1.093724e+002 
3715625000  -4.205954e+001  9.944398e+001 
3718750000  -4.162053e+001  9.040829e+001 
3721875000  -4.176978e+001  8.281419e+001 
3725000000  -4.219936e+001  7.528255e+001 
3728125000  -4.246273e+001  7.077522e+001 
3731250000  -4.201947e+001  6.296535e+001 
3734375000  -4.241438e+001  5.722473e+001 
3737500000  -4.288096e+001  4.734378e+001 
3740625000  -4.330812e+001  4.263519e+001 
3743750000  -4.275687e+001  3.654068e+001 
3746875000  -4.352740e+001  2.979557e+001 
3750000000  -4.378260e+001  2.572693e+001 
3753125000  -4.364660e+001  2.336046e+001 
3756250000  -4.363848e+001  1.890066e+001 
3759375000  -4.387328e+001  1.421498e+001 
3762500000  -4.351323e+001  1.051741e+001 
3765625000  -4.421300e+001  2.227918e+000 
3768750000  -4.398779e+001  3.802134e+000 
3771875000  -4.220355e+001  -1.304754e+000 
3775000000  -4.219001e+001  -1.182021e+001 
3778125000  -4.266306e+001  -1.871780e+001 
3781250000  -4.287479e+001  -2.589706e+001 
3784375000  -4.234564e+001  -2.950149e+001 
3787500000  -4.253660e+001  -3.486356e+001 
3790625000  -4.305894e+001  -4.396009e+001 
3793750000  -4.279632e+001  -5.143818e+001 
3796875000  -4.178212e+001  -5.483117e+001 
3800000000  -4.077734e+001  -6.187975e+001 
3803125000  -4.157350e+001  -7.200952e+001 
3806250000  -4.233636e+001  -7.640785e+001 
3809375000  -4.206562e+001  -8.205173e+001 
3812500000  -4.198728e+001  -9.391195e+001 
3815625000  -4.297915e+001  -1.056290e+002 
3818750000  -4.411370e+001  -1.037902e+002 
3821875000  -4.336240e+001  -9.206307e+001 
3825000000  -4.128737e+001  -9.931377e+001 
3828125000  -4.032937e+001  -1.199811e+002 
3831250000  -4.189133e+001  -1.358128e+002 
3834375000  -4.397561e+001  -1.364644e+002 
3837500000  -4.392174e+001  -1.319280e+002 
3840625000  -4.270168e+001  -1.364491e+002 
3843750000  -4.184380e+001  -1.555611e+002 
3846875000  -4.345861e+001  -1.606037e+002 
3850000000  -4.418127e+001  -1.542886e+002 
3853125000  -4.348631e+001  -1.565511e+002 
3856250000  -4.310595e+001  -1.645560e+002 
3859375000  -4.231916e+001  -1.724731e+002 
3862500000  -4.238840e+001  1.765298e+002 
3865625000  -4.297330e+001  1.698941e+002 
3868750000  -4.235587e+001  1.680607e+002 
3871875000  -4.196060e+001  1.572489e+002 
3875000000  -4.304085e+001  1.479319e+002 
3878125000  -4.347066e+001  1.451588e+002 
3881250000  -4.328166e+001  1.432611e+002 
3884375000  -4.298113e+001  1.337328e+002 
3887500000  -4.337865e+001  1.258476e+002 
3890625000  -4.369677e+001  1.236246e+002 
3893750000  -4.438185e+001  1.188141e+002 
3896875000  -4.489444e+001  1.206945e+002 
3900000000  -4.469102e+001  1.169190e+002 
3903125000  -4.402191e+001  1.081250e+002 
3906250000  -4.357323e+001  1.021928e+002 
3909375000  -4.316558e+001  9.597125e+001 
3912500000  -4.384908e+001  8.724314e+001 
3915625000  -4.541334e+001  8.700001e+001 
3918750000  -4.461874e+001  8.290818e+001 
3921875000  -4.426518e+001  7.816372e+001 
3925000000  -4.323717e+001  7.234554e+001 
3928125000  -4.330555e+001  6.238334e+001 
3931250000  -4.398579e+001  5.425989e+001 
3934375000  -4.456251e+001  5.533725e+001 
3937500000  -4.453341e+001  4.941269e+001 
3940625000  -4.479220e+001  5.034363e+001 
3943750000  -4.329931e+001  4.214017e+001 
3946875000  -4.280016e+001  3.399624e+001 
3950000000  -4.344018e+001  2.580248e+001 
3953125000  -4.449940e+001  2.716726e+001 
3956250000  -4.278309e+001  2.402888e+001 
3959375000  -4.215864e+001  1.999637e+001 
3962500000  -4.160478e+001  9.585544e+000 
3965625000  -4.198105e+001  -2.598070e+000 
3968750000  -4.253424e+001  -1.137582e+001 
3971875000  -4.261224e+001  -1.495603e+001 
3975000000  -4.195315e+001  -2.012924e+001 
3978125000  -4.227714e+001  -2.655984e+001 
3981250000  -4.211691e+001  -3.400008e+001 
3984375000  -4.246441e+001  -4.203007e+001 
3987500000  -4.311209e+001  -4.813494e+001 
3990625000  -4.325387e+001  -4.893951e+001 
3993750000  -4.321112e+001  -5.355061e+001 
3996875000  -4.325646e+001  -6.015812e+001 
4000000000  -4.395740e+001  -6.677960e+001 
4003125000  -4.394721e+001  -6.749132e+001 
4006250000  -4.231825e+001  -7.484558e+001 
4009375000  -4.139619e+001  -8.756708e+001 
4012500000  -4.302554e+001  -9.865557e+001 
4015625000  -4.392678e+001  -9.579498e+001 
4018750000  -4.380429e+001  -1.006239e+002 
4021875000  -4.334023e+001  -1.086749e+002 
4025000000  -4.331890e+001  -1.160611e+002 
4028125000  -4.358457e+001  -1.225544e+002 
4031250000  -4.435158e+001  -1.310405e+002 
4034375000  -4.446822e+001  -1.332418e+002 
4037500000  -4.419191e+001  -1.376228e+002 
4040625000  -4.442283e+001  -1.403708e+002 
4043750000  -4.458642e+001  -1.437126e+002 
4046875000  -4.480571e+001  -1.487830e+002 
4050000000  -4.415934e+001  -1.582567e+002 
4053125000  -4.578218e+001  -1.625171e+002 
4056250000  -4.581327e+001  -1.564950e+002 
4059375000  -4.418244e+001  -1.622532e+002 
4062500000  -4.392908e+001  -1.693382e+002 
4065625000  -4.396934e+001  -1.734432e+002 
4068750000  -4.335128e+001  1.757798e+002 
4071875000  -4.307652e+001  1.693631e+002 
4075000000  -4.366869e+001  1.619877e+002 
4078125000  -4.400014e+001  1.578834e+002 
4081250000  -4.412216e+001  1.518699e+002 
4084375000  -4.385248e+001  1.417330e+002 
4087500000  -4.439907e+001  1.333312e+002 
4090625000  -4.525269e+001  1.335107e+002 
4093750000  -4.483905e+001  1.333055e+002 
4096875000  -4.488424e+001  1.223677e+002 
4100000000  -4.529369e+001  1.161085e+002 
4103125000  -4.571748e+001  1.223981e+002 
4106250000  -4.534261e+001  1.225610e+002 
4109375000  -4.466291e+001  1.134443e+002 
4112500000  -4.441992e+001  1.055940e+002 
4115625000  -4.466686e+001  1.025959e+002 
4118750000  -4.377751e+001  9.903394e+001 
4121875000  -4.375787e+001  8.993290e+001 
4125000000  -4.500381e+001  8.119081e+001 
4128125000  -4.571506e+001  8.566514e+001 
4131250000  -4.421767e+001  9.034493e+001 
4134375000  -4.188649e+001  7.769088e+001 
4137500000  -4.246961e+001  5.747338e+001 
4140625000  -4.467319e+001  4.900273e+001 
4143750000  -4.487922e+001  5.312347e+001 
4146875000  -4.456247e+001  5.667572e+001 
4150000000  -4.321888e+001  4.482090e+001 
4153125000  -4.341893e+001  3.753480e+001 
4156250000  -4.389619e+001  3.284847e+001 
4159375000  -4.407015e+001  3.688125e+001 
4162500000  -4.284756e+001  3.388499e+001 
4165625000  -4.190483e+001  2.351244e+001 
4168750000  -4.161326e+001  1.056714e+001 
4171875000  -4.149369e+001  1.729838e-001 
4175000000  -4.234478e+001  -6.502032e+000 
4178125000  -4.263600e+001  -1.358633e+001 
4181250000  -4.236410e+001  -1.667626e+001 
4184375000  -4.296559e+001  -2.198096e+001 
4187500000  -4.276054e+001  -2.961139e+001 
4190625000  -4.298405e+001  -4.154127e+001 
4193750000  -4.426700e+001  -4.568690e+001 
4196875000  -4.572283e+001  -4.556762e+001 
4200000000  -4.615446e+001  -4.138786e+001 
4203125000  -4.500468e+001  -3.367040e+001 
4206250000  -4.159579e+001  -4.342938e+001 
4209375000  -4.149200e+001  -6.466563e+001 
4212500000  -4.413410e+001  -7.366415e+001 
4215625000  -4.433270e+001  -6.468076e+001 
4218750000  -4.279235e+001  -6.745776e+001 
4221875000  -4.148664e+001  -7.818729e+001 
4225000000  -4.260995e+001  -8.916759e+001 
4228125000  -4.238402e+001  -8.544897e+001 
4231250000  -4.189510e+001  -9.646855e+001 
4234375000  -4.134395e+001  -1.067977e+002 
4237500000  -4.117847e+001  -1.123637e+002 
4240625000  -4.171659e+001  -1.224899e+002 
4243750000  -4.250526e+001  -1.316588e+002 
4246875000  -4.326875e+001  -1.323615e+002 
4250000000  -4.360502e+001  -1.331373e+002 
4253125000  -4.270957e+001  -1.328864e+002 
4256250000  -4.304937e+001  -1.409233e+002 
4259375000  -4.242778e+001  -1.461781e+002 
4262500000  -4.255189e+001  -1.517854e+002 
4265625000  -4.247152e+001  -1.538274e+002 
4268750000  -4.088933e+001  -1.614777e+002 
4271875000  -4.141321e+001  -1.740634e+002 
4275000000  -4.074186e+001  -1.787492e+002 
4278125000  -4.180424e+001  1.663288e+002 
4281250000  -4.265608e+001  1.636759e+002 
4284375000  -4.242745e+001  1.600671e+002 
4287500000  -4.399316e+001  1.565889e+002 
4290625000  -4.447364e+001  1.652129e+002 
4293750000  -4.186245e+001  1.628926e+002 
4296875000  -4.082495e+001  1.474316e+002 
4300000000  -4.188354e+001  1.372410e+002 
4303125000  -4.234431e+001  1.377405e+002 
4306250000  -4.111153e+001  1.369765e+002 
4309375000  -4.041238e+001  1.285449e+002 
4312500000  -4.000406e+001  1.149156e+002 
4315625000  -4.070524e+001  1.060719e+002 
4318750000  -4.148342e+001  1.014144e+002 
4321875000  -4.114186e+001  9.995667e+001 
4325000000  -4.057919e+001  9.434917e+001 
4328125000  -4.016919e+001  8.256883e+001 
4331250000  -4.004539e+001  7.250834e+001 
4334375000  -4.098496e+001  6.267159e+001 
4337500000  -4.239400e+001  6.094452e+001 
4340625000  -4.263553e+001  6.305603e+001 
4343750000  -4.144987e+001  6.064975e+001 
4346875000  -4.158560e+001  4.821344e+001 
4350000000  -4.154502e+001  4.250839e+001 
4353125000  -4.264774e+001  3.066496e+001 
4356250000  -4.424187e+001  3.413069e+001 
4359375000  -4.289511e+001  4.593086e+001 
4362500000  -3.973271e+001  3.940562e+001 
4365625000  -3.943601e+001  1.849159e+001 
4368750000  -4.120348e+001  7.944723e+000 
4371875000  -4.193444e+001  8.040682e+000 
4375000000  -4.092392e+001  1.614983e+000 
4378125000  -4.099650e+001  -7.915319e+000 
4381250000  -4.114760e+001  -1.229607e+001 
4384375000  -4.136398e+001  -2.256500e+001 
4387500000  -4.219680e+001  -2.977738e+001 
4390625000  -4.249714e+001  -3.205936e+001 
4393750000  -4.212915e+001  -3.000593e+001 
4396875000  -4.184894e+001  -3.622022e+001 
4400000000  -4.133582e+001  -4.656401e+001 
4403125000  -4.199974e+001  -5.625301e+001 
4406250000  -4.257647e+001  -6.103564e+001 
4409375000  -4.325393e+001  -6.560989e+001 
4412500000  -4.422306e+001  -6.834476e+001 
4415625000  -4.365572e+001  -6.520506e+001 
4418750000  -4.218234e+001  -6.484759e+001 
