!Agilent Technologies,E8363B,MY43030201,A.06.04.32
!Agilent E8363B: A.06.04.32
!Date: Tuesday, November 11, 2014 21:43:21
!Correction: S21(Response(S21)) 
!S1P File: Measurement: S21:
# Hz S  dB   R 50
3000000000  -4.355884e+001  -1.597996e+002 
3003125000  -4.520473e+001  -1.658313e+002 
3006250000  -4.542487e+001  -1.654428e+002 
3009375000  -4.576877e+001  -1.640554e+002 
3012500000  -4.470561e+001  -1.684637e+002 
3015625000  -4.507883e+001  -1.764444e+002 
3018750000  -4.553743e+001  -1.740059e+002 
3021875000  -4.379196e+001  -1.762503e+002 
3025000000  -4.268612e+001  -1.797938e+002 
3028125000  -4.174905e+001  1.664503e+002 
3031250000  -4.071980e+001  1.530512e+002 
3034375000  -4.066359e+001  1.407160e+002 
3037500000  -4.160333e+001  1.300014e+002 
3040625000  -4.302928e+001  1.236925e+002 
3043750000  -4.331607e+001  1.150808e+002 
3046875000  -4.383961e+001  1.110679e+002 
3050000000  -4.531405e+001  1.039731e+002 
3053125000  -4.481394e+001  1.085748e+002 
3056250000  -4.472814e+001  1.100059e+002 
3059375000  -4.354115e+001  1.060847e+002 
3062500000  -4.238074e+001  1.025889e+002 
3065625000  -4.215113e+001  9.181543e+001 
3068750000  -4.182431e+001  8.209406e+001 
3071875000  -4.182109e+001  8.086890e+001 
3075000000  -4.124598e+001  7.276115e+001 
3078125000  -4.120734e+001  6.554456e+001 
3081250000  -4.146754e+001  5.961928e+001 
3084375000  -4.039130e+001  5.320348e+001 
3087500000  -4.065833e+001  4.503453e+001 
3090625000  -3.997838e+001  3.212126e+001 
3093750000  -4.101262e+001  2.347875e+001 
3096875000  -4.113287e+001  1.749257e+001 
3100000000  -4.111183e+001  1.517923e+001 
3103125000  -4.146320e+001  9.069366e+000 
3106250000  -4.116411e+001  4.262725e+000 
3109375000  -4.102686e+001  -1.863143e+000 
3112500000  -4.082386e+001  -8.944642e+000 
3115625000  -4.095406e+001  -1.414736e+001 
3118750000  -4.078561e+001  -1.937929e+001 
3121875000  -4.023562e+001  -3.135657e+001 
3125000000  -4.206837e+001  -3.490021e+001 
3128125000  -4.199258e+001  -3.031669e+001 
3131250000  -3.962526e+001  -3.799300e+001 
3134375000  -3.891854e+001  -5.516572e+001 
3137500000  -3.971965e+001  -6.853652e+001 
3140625000  -4.092891e+001  -7.253014e+001 
3143750000  -4.158866e+001  -7.605608e+001 
3146875000  -4.100811e+001  -7.482567e+001 
3150000000  -4.049066e+001  -8.089108e+001 
3153125000  -4.092602e+001  -9.061492e+001 
3156250000  -4.153563e+001  -8.597382e+001 
3159375000  -3.923321e+001  -9.012473e+001 
3162500000  -3.781029e+001  -1.073250e+002 
3165625000  -3.907949e+001  -1.209264e+002 
3168750000  -3.905400e+001  -1.224671e+002 
3171875000  -3.848458e+001  -1.318839e+002 
3175000000  -3.922248e+001  -1.417281e+002 
3178125000  -3.885456e+001  -1.430660e+002 
3181250000  -3.825722e+001  -1.525419e+002 
3184375000  -3.798076e+001  -1.649640e+002 
3187500000  -3.927826e+001  1.785922e+002 
3190625000  -4.074793e+001  1.718487e+002 
3193750000  -4.135220e+001  1.781254e+002 
3196875000  -4.117702e+001  1.775957e+002 
3200000000  -4.003549e+001  1.721280e+002 
3203125000  -3.979727e+001  1.608969e+002 
3206250000  -3.988140e+001  1.533514e+002 
3209375000  -3.947399e+001  1.442660e+002 
3212500000  -3.996117e+001  1.369549e+002 
3215625000  -3.992120e+001  1.323790e+002 
3218750000  -4.057172e+001  1.212569e+002 
3221875000  -4.061324e+001  1.144166e+002 
3225000000  -4.067443e+001  1.091013e+002 
3228125000  -4.119276e+001  1.022038e+002 
3231250000  -4.148206e+001  9.881691e+001 
3234375000  -4.113034e+001  9.462327e+001 
3237500000  -4.112099e+001  9.133992e+001 
3240625000  -4.053260e+001  8.528127e+001 
3243750000  -4.047273e+001  7.286526e+001 
3246875000  -4.075356e+001  6.517095e+001 
3250000000  -4.114716e+001  6.005939e+001 
3253125000  -4.106349e+001  5.493658e+001 
3256250000  -4.047624e+001  4.629350e+001 
3259375000  -4.089682e+001  3.209022e+001 
3262500000  -4.256884e+001  2.860858e+001 
3265625000  -4.286176e+001  2.967227e+001 
3268750000  -4.251569e+001  2.979659e+001 
3271875000  -4.143985e+001  2.174196e+001 
3275000000  -4.126803e+001  1.273828e+001 
3278125000  -4.169721e+001  5.087535e+000 
3281250000  -4.205750e+001  1.518987e+000 
3284375000  -4.106477e+001  -6.154396e+000 
3287500000  -4.168258e+001  -1.435635e+001 
3290625000  -4.149681e+001  -2.461515e+001 
3293750000  -4.155540e+001  -3.179441e+001 
3296875000  -4.274968e+001  -3.738692e+001 
3300000000  -4.213874e+001  -3.860963e+001 
3303125000  -4.111979e+001  -4.924983e+001 
3306250000  -4.084737e+001  -5.868357e+001 
3309375000  -4.075234e+001  -6.996711e+001 
3312500000  -4.115408e+001  -8.576076e+001 
3315625000  -4.239345e+001  -9.277913e+001 
3318750000  -4.408373e+001  -9.724746e+001 
3321875000  -4.541317e+001  -9.844172e+001 
3325000000  -4.505488e+001  -9.513676e+001 
3328125000  -4.406400e+001  -9.762557e+001 
3331250000  -4.262775e+001  -9.739312e+001 
3334375000  -4.037225e+001  -1.161591e+002 
3337500000  -4.090341e+001  -1.394894e+002 
3340625000  -4.272808e+001  -1.496629e+002 
3343750000  -4.459959e+001  -1.516956e+002 
3346875000  -4.421996e+001  -1.563064e+002 
3350000000  -4.378877e+001  -1.618543e+002 
3353125000  -4.379525e+001  -1.697343e+002 
3356250000  -4.337078e+001  -1.790354e+002 
3359375000  -4.477919e+001  1.662428e+002 
3362500000  -4.512378e+001  1.593976e+002 
3365625000  -4.598635e+001  1.513129e+002 
3368750000  -4.621402e+001  1.483407e+002 
3371875000  -4.712577e+001  1.392848e+002 
3375000000  -4.873471e+001  1.345949e+002 
3378125000  -4.940605e+001  1.356873e+002 
3381250000  -5.083826e+001  1.409431e+002 
3384375000  -4.740025e+001  1.566648e+002 
3387500000  -4.503497e+001  1.293174e+002 
3390625000  -4.636095e+001  1.080274e+002 
3393750000  -4.785276e+001  1.074906e+002 
3396875000  -4.586348e+001  1.007084e+002 
3400000000  -4.659737e+001  8.638302e+001 
3403125000  -4.698535e+001  8.093444e+001 
3406250000  -4.787477e+001  7.129340e+001 
3409375000  -4.695871e+001  5.923968e+001 
3412500000  -4.767271e+001  5.411366e+001 
3415625000  -4.907070e+001  5.120041e+001 
3418750000  -4.860171e+001  4.572226e+001 
3421875000  -4.923569e+001  4.424994e+001 
3425000000  -4.771726e+001  3.663752e+001 
3428125000  -4.726110e+001  2.667619e+001 
3431250000  -4.675153e+001  1.690234e+001 
3434375000  -4.724232e+001  1.244976e+000 
3437500000  -4.786681e+001  -3.466025e+000 
3440625000  -4.771077e+001  -9.678654e+000 
3443750000  -4.627516e+001  -1.100241e+001 
3446875000  -4.591919e+001  -2.863391e+001 
3450000000  -4.526847e+001  -4.120563e+001 
3453125000  -4.589248e+001  -5.686908e+001 
3456250000  -4.696807e+001  -6.727713e+001 
3459375000  -4.831670e+001  -6.975935e+001 
3462500000  -4.821368e+001  -7.518092e+001 
3465625000  -4.762499e+001  -8.692118e+001 
3468750000  -4.759202e+001  -9.638634e+001 
3471875000  -4.701518e+001  -1.013218e+002 
3475000000  -4.667821e+001  -1.133676e+002 
3478125000  -4.766516e+001  -1.287786e+002 
3481250000  -4.881699e+001  -1.311341e+002 
3484375000  -4.840841e+001  -1.362696e+002 
3487500000  -4.736017e+001  -1.401330e+002 
3490625000  -4.742922e+001  -1.510571e+002 
3493750000  -4.776931e+001  -1.652560e+002 
3496875000  -4.799915e+001  -1.682988e+002 
3500000000  -4.857018e+001  -1.744453e+002 
3503125000  -4.730481e+001  -1.724902e+002 
3506250000  -4.545110e+001  1.742877e+002 
3509375000  -4.532114e+001  1.536208e+002 
3512500000  -4.580489e+001  1.390708e+002 
3515625000  -4.695575e+001  1.341106e+002 
3518750000  -4.761823e+001  1.295621e+002 
3521875000  -4.775979e+001  1.235729e+002 
3525000000  -4.857198e+001  1.150030e+002 
3528125000  -4.759274e+001  1.201727e+002 
3531250000  -4.619588e+001  1.058685e+002 
3534375000  -4.660890e+001  9.127820e+001 
3537500000  -4.781680e+001  7.928658e+001 
3540625000  -4.868644e+001  7.569333e+001 
3543750000  -4.938276e+001  8.093443e+001 
3546875000  -4.882983e+001  8.521954e+001 
3550000000  -4.632358e+001  7.668396e+001 
3553125000  -4.594983e+001  5.534858e+001 
3556250000  -4.739386e+001  4.968092e+001 
3559375000  -4.654027e+001  4.374959e+001 
3562500000  -4.612118e+001  3.331880e+001 
3565625000  -4.746198e+001  2.580810e+001 
3568750000  -4.790299e+001  2.735136e+001 
3571875000  -4.736759e+001  2.118673e+001 
3575000000  -4.703345e+001  1.309940e+001 
3578125000  -4.800920e+001  1.135675e+001 
3581250000  -4.757436e+001  6.551265e+000 
3584375000  -4.602070e+001  -1.535745e+000 
3587500000  -4.597699e+001  -1.075429e+001 
3590625000  -4.647723e+001  -2.264376e+001 
3593750000  -4.775408e+001  -2.615936e+001 
3596875000  -4.704860e+001  -1.921437e+001 
3600000000  -4.518847e+001  -2.832891e+001 
3603125000  -4.513641e+001  -4.443008e+001 
3606250000  -4.612365e+001  -4.855460e+001 
3609375000  -4.595387e+001  -5.456184e+001 
3612500000  -4.577589e+001  -6.259861e+001 
3615625000  -4.638774e+001  -6.417548e+001 
3618750000  -4.635933e+001  -6.903040e+001 
3621875000  -4.521477e+001  -7.525376e+001 
3625000000  -4.555802e+001  -7.771290e+001 
3628125000  -4.472354e+001  -8.718533e+001 
3631250000  -4.495594e+001  -9.780951e+001 
3634375000  -4.557750e+001  -9.536449e+001 
3637500000  -4.427853e+001  -9.663957e+001 
3640625000  -4.371614e+001  -1.046745e+002 
3643750000  -4.301171e+001  -1.167996e+002 
3646875000  -4.344669e+001  -1.257381e+002 
3650000000  -4.385378e+001  -1.316216e+002 
3653125000  -4.332085e+001  -1.373150e+002 
3656250000  -4.407862e+001  -1.470444e+002 
3659375000  -4.381833e+001  -1.505024e+002 
3662500000  -4.337018e+001  -1.593167e+002 
3665625000  -4.339214e+001  -1.620911e+002 
3668750000  -4.217199e+001  -1.660687e+002 
3671875000  -4.170654e+001  -1.789788e+002 
3675000000  -4.217560e+001  1.695249e+002 
3678125000  -4.288056e+001  1.660633e+002 
3681250000  -4.236996e+001  1.582575e+002 
3684375000  -4.250737e+001  1.516337e+002 
3687500000  -4.303572e+001  1.421677e+002 
3690625000  -4.347385e+001  1.373587e+002 
3693750000  -4.455365e+001  1.336398e+002 
3696875000  -4.403156e+001  1.316613e+002 
3700000000  -4.333330e+001  1.225770e+002 
3703125000  -4.381402e+001  1.155986e+002 
3706250000  -4.428064e+001  1.141649e+002 
3709375000  -4.435354e+001  1.163513e+002 
3712500000  -4.301429e+001  1.086672e+002 
3715625000  -4.206581e+001  9.809295e+001 
3718750000  -4.173684e+001  8.748206e+001 
3721875000  -4.177654e+001  8.085481e+001 
3725000000  -4.258842e+001  7.180130e+001 
3728125000  -4.260435e+001  6.801498e+001 
3731250000  -4.218488e+001  6.152637e+001 
3734375000  -4.203645e+001  5.462367e+001 
3737500000  -4.290657e+001  4.466457e+001 
3740625000  -4.310483e+001  3.975497e+001 
3743750000  -4.308736e+001  3.447899e+001 
3746875000  -4.351832e+001  2.625893e+001 
3750000000  -4.358363e+001  2.480659e+001 
3753125000  -4.348885e+001  2.072745e+001 
3756250000  -4.382255e+001  1.651202e+001 
3759375000  -4.391349e+001  1.325805e+001 
3762500000  -4.351311e+001  6.878429e+000 
3765625000  -4.407169e+001  1.252597e+000 
3768750000  -4.347910e+001  2.848294e+000 
3771875000  -4.247340e+001  -4.312304e+000 
3775000000  -4.218608e+001  -1.737679e+001 
3778125000  -4.272779e+001  -2.241490e+001 
3781250000  -4.293436e+001  -2.717526e+001 
3784375000  -4.254272e+001  -3.361084e+001 
3787500000  -4.259105e+001  -3.988739e+001 
3790625000  -4.319733e+001  -4.808662e+001 
3793750000  -4.296012e+001  -5.054140e+001 
3796875000  -4.153481e+001  -5.505524e+001 
3800000000  -4.057384e+001  -6.395259e+001 
3803125000  -4.160177e+001  -7.547748e+001 
3806250000  -4.252008e+001  -8.083614e+001 
3809375000  -4.180178e+001  -8.520285e+001 
3812500000  -4.176442e+001  -9.656027e+001 
3815625000  -4.290761e+001  -1.071284e+002 
3818750000  -4.444658e+001  -1.038086e+002 
3821875000  -4.356347e+001  -9.724474e+001 
3825000000  -4.136405e+001  -1.013220e+002 
3828125000  -4.035557e+001  -1.248232e+002 
3831250000  -4.158701e+001  -1.378752e+002 
3834375000  -4.405312e+001  -1.392454e+002 
3837500000  -4.429011e+001  -1.370058e+002 
3840625000  -4.232476e+001  -1.432974e+002 
3843750000  -4.177265e+001  -1.588481e+002 
3846875000  -4.396715e+001  -1.632479e+002 
3850000000  -4.429195e+001  -1.540270e+002 
3853125000  -4.331125e+001  -1.602281e+002 
3856250000  -4.280450e+001  -1.680344e+002 
3859375000  -4.219585e+001  -1.792227e+002 
3862500000  -4.241756e+001  1.735620e+002 
3865625000  -4.287923e+001  1.653238e+002 
3868750000  -4.226024e+001  1.675921e+002 
3871875000  -4.181062e+001  1.544029e+002 
3875000000  -4.246173e+001  1.463918e+002 
3878125000  -4.338523e+001  1.421002e+002 
3881250000  -4.350962e+001  1.393116e+002 
3884375000  -4.277718e+001  1.299342e+002 
3887500000  -4.336747e+001  1.252787e+002 
3890625000  -4.370640e+001  1.207139e+002 
3893750000  -4.423923e+001  1.176418e+002 
3896875000  -4.443921e+001  1.161274e+002 
3900000000  -4.458412e+001  1.084042e+002 
3903125000  -4.394699e+001  1.054686e+002 
3906250000  -4.348267e+001  1.021968e+002 
3909375000  -4.257270e+001  9.025357e+001 
3912500000  -4.368162e+001  8.227017e+001 
3915625000  -4.525597e+001  8.143219e+001 
3918750000  -4.464197e+001  7.953683e+001 
3921875000  -4.404266e+001  7.679783e+001 
3925000000  -4.298498e+001  6.669160e+001 
3928125000  -4.293476e+001  6.162115e+001 
3931250000  -4.376793e+001  5.150931e+001 
3934375000  -4.395234e+001  4.924346e+001 
3937500000  -4.429093e+001  4.549313e+001 
3940625000  -4.437197e+001  4.785958e+001 
3943750000  -4.338618e+001  3.807909e+001 
3946875000  -4.291111e+001  3.325402e+001 
3950000000  -4.420620e+001  2.488666e+001 
3953125000  -4.474294e+001  2.193722e+001 
3956250000  -4.311629e+001  2.157256e+001 
3959375000  -4.196304e+001  1.541228e+001 
3962500000  -4.155308e+001  6.840273e+000 
3965625000  -4.190033e+001  -6.422824e+000 
3968750000  -4.249929e+001  -1.391313e+001 
3971875000  -4.276004e+001  -1.759063e+001 
3975000000  -4.225432e+001  -2.146741e+001 
3978125000  -4.211268e+001  -3.046113e+001 
3981250000  -4.213212e+001  -3.735270e+001 
3984375000  -4.253962e+001  -4.493488e+001 
3987500000  -4.320518e+001  -4.929810e+001 
3990625000  -4.379838e+001  -5.146048e+001 
3993750000  -4.326148e+001  -5.806348e+001 
3996875000  -4.332094e+001  -6.696808e+001 
4000000000  -4.372510e+001  -6.605872e+001 
4003125000  -4.418936e+001  -7.040866e+001 
4006250000  -4.233475e+001  -7.614457e+001 
4009375000  -4.147999e+001  -9.346584e+001 
4012500000  -4.329306e+001  -9.912862e+001 
4015625000  -4.410689e+001  -1.005552e+002 
4018750000  -4.417289e+001  -1.057177e+002 
4021875000  -4.351450e+001  -1.150296e+002 
4025000000  -4.365974e+001  -1.185050e+002 
4028125000  -4.364022e+001  -1.251607e+002 
4031250000  -4.417073e+001  -1.345651e+002 
4034375000  -4.447307e+001  -1.342067e+002 
4037500000  -4.414545e+001  -1.410776e+002 
4040625000  -4.392271e+001  -1.476415e+002 
4043750000  -4.453005e+001  -1.473138e+002 
4046875000  -4.445364e+001  -1.507842e+002 
4050000000  -4.438612e+001  -1.615498e+002 
4053125000  -4.528012e+001  -1.657941e+002 
4056250000  -4.600016e+001  -1.589763e+002 
4059375000  -4.379189e+001  -1.628084e+002 
4062500000  -4.395358e+001  -1.727600e+002 
4065625000  -4.400208e+001  -1.797832e+002 
4068750000  -4.306879e+001  1.702779e+002 
4071875000  -4.318047e+001  1.639815e+002 
4075000000  -4.379776e+001  1.570798e+002 
4078125000  -4.418999e+001  1.552903e+002 
4081250000  -4.400851e+001  1.463557e+002 
4084375000  -4.351666e+001  1.413317e+002 
4087500000  -4.368313e+001  1.313582e+002 
4090625000  -4.501439e+001  1.294077e+002 
4093750000  -4.434217e+001  1.284426e+002 
4096875000  -4.440738e+001  1.203645e+002 
4100000000  -4.572497e+001  1.141274e+002 
4103125000  -4.644160e+001  1.144434e+002 
4106250000  -4.552613e+001  1.165511e+002 
4109375000  -4.449147e+001  1.136987e+002 
4112500000  -4.415054e+001  1.047000e+002 
4115625000  -4.464840e+001  9.891345e+001 
4118750000  -4.406723e+001  9.334377e+001 
4121875000  -4.408065e+001  8.750280e+001 
4125000000  -4.503173e+001  7.520583e+001 
4128125000  -4.517070e+001  7.864061e+001 
4131250000  -4.426872e+001  8.489275e+001 
4134375000  -4.196887e+001  7.202879e+001 
4137500000  -4.208044e+001  5.412056e+001 
4140625000  -4.438321e+001  4.653487e+001 
4143750000  -4.499797e+001  5.240675e+001 
4146875000  -4.379448e+001  5.152440e+001 
4150000000  -4.302359e+001  4.480391e+001 
4153125000  -4.324233e+001  3.519728e+001 
4156250000  -4.479092e+001  2.931941e+001 
4159375000  -4.407402e+001  3.425118e+001 
4162500000  -4.281421e+001  2.936255e+001 
4165625000  -4.165126e+001  1.960710e+001 
4168750000  -4.124286e+001  9.545191e+000 
4171875000  -4.161103e+001  -3.497392e+000 
4175000000  -4.223150e+001  -1.146442e+001 
4178125000  -4.289695e+001  -1.279173e+001 
4181250000  -4.265624e+001  -2.073392e+001 
4184375000  -4.310645e+001  -2.803173e+001 
4187500000  -4.324636e+001  -3.358714e+001 
4190625000  -4.326720e+001  -4.189262e+001 
4193750000  -4.441196e+001  -4.858897e+001 
4196875000  -4.519506e+001  -5.103350e+001 
4200000000  -4.633258e+001  -4.579618e+001 
4203125000  -4.495271e+001  -3.627939e+001 
4206250000  -4.169134e+001  -4.787964e+001 
4209375000  -4.177949e+001  -6.990131e+001 
4212500000  -4.410337e+001  -7.837944e+001 
4215625000  -4.459098e+001  -7.133324e+001 
4218750000  -4.312934e+001  -7.264100e+001 
4221875000  -4.125697e+001  -8.331081e+001 
4225000000  -4.305377e+001  -8.953770e+001 
4228125000  -4.296539e+001  -8.896595e+001 
4231250000  -4.143591e+001  -1.002957e+002 
4234375000  -4.075626e+001  -1.097848e+002 
4237500000  -4.181227e+001  -1.153151e+002 
4240625000  -4.126363e+001  -1.260901e+002 
4243750000  -4.269461e+001  -1.346371e+002 
4246875000  -4.374651e+001  -1.361953e+002 
4250000000  -4.303085e+001  -1.361386e+002 
4253125000  -4.304913e+001  -1.381844e+002 
4256250000  -4.276926e+001  -1.468638e+002 
4259375000  -4.270729e+001  -1.505734e+002 
4262500000  -4.277410e+001  -1.550042e+002 
4265625000  -4.267242e+001  -1.590688e+002 
4268750000  -4.135482e+001  -1.657374e+002 
4271875000  -4.130583e+001  -1.758375e+002 
4275000000  -4.041303e+001  1.749089e+002 
4278125000  -4.176944e+001  1.622072e+002 
4281250000  -4.298352e+001  1.608764e+002 
4284375000  -4.232770e+001  1.575637e+002 
4287500000  -4.411323e+001  1.563425e+002 
4290625000  -4.415201e+001  1.634902e+002 
4293750000  -4.164008e+001  1.572960e+002 
4296875000  -4.056452e+001  1.436334e+002 
4300000000  -4.197547e+001  1.331743e+002 
4303125000  -4.249894e+001  1.350559e+002 
4306250000  -4.125854e+001  1.346704e+002 
4309375000  -4.006027e+001  1.229173e+002 
4312500000  -3.984327e+001  1.127984e+002 
4315625000  -4.056282e+001  1.032146e+002 
4318750000  -4.111380e+001  9.845285e+001 
4321875000  -4.114883e+001  9.542252e+001 
4325000000  -4.079316e+001  9.128130e+001 
4328125000  -3.988603e+001  8.113687e+001 
4331250000  -4.014175e+001  6.910484e+001 
4334375000  -4.130971e+001  6.024747e+001 
4337500000  -4.231794e+001  5.742605e+001 
4340625000  -4.260248e+001  5.992527e+001 
4343750000  -4.148431e+001  5.582684e+001 
4346875000  -4.173250e+001  4.464783e+001 
4350000000  -4.178252e+001  3.617315e+001 
4353125000  -4.240866e+001  2.514060e+001 
4356250000  -4.440328e+001  3.263916e+001 
4359375000  -4.371991e+001  4.480553e+001 
4362500000  -3.987842e+001  3.690797e+001 
4365625000  -3.976687e+001  1.536918e+001 
4368750000  -4.078800e+001  2.930217e+000 
4371875000  -4.204625e+001  1.317180e+000 
4375000000  -4.104280e+001  -8.499106e-001 
4378125000  -4.124955e+001  -1.121778e+001 
4381250000  -4.100341e+001  -1.852087e+001 
4384375000  -4.091042e+001  -2.363739e+001 
4387500000  -4.201614e+001  -3.231054e+001 
4390625000  -4.279743e+001  -3.549854e+001 
4393750000  -4.228072e+001  -3.441880e+001 
4396875000  -4.175132e+001  -4.030843e+001 
4400000000  -4.129086e+001  -4.892118e+001 
4403125000  -4.223637e+001  -6.182552e+001 
4406250000  -4.274360e+001  -6.292094e+001 
4409375000  -4.346017e+001  -6.865380e+001 
4412500000  -4.417560e+001  -7.050203e+001 
4415625000  -4.357128e+001  -6.777293e+001 
4418750000  -4.216106e+001  -7.087412e+001 
