!Agilent Technologies,E8363B,MY43030201,A.06.04.32
!Agilent E8363B: A.06.04.32
!Date: Tuesday, November 11, 2014 21:42:15
!Correction: S21(Response(S21)) 
!S1P File: Measurement: S21:
# Hz S  dB   R 50
3000000000  -4.369874e+001  -1.587193e+002 
3003125000  -4.524770e+001  -1.637854e+002 
3006250000  -4.539369e+001  -1.656869e+002 
3009375000  -4.611490e+001  -1.607969e+002 
3012500000  -4.503370e+001  -1.679290e+002 
3015625000  -4.477053e+001  -1.744283e+002 
3018750000  -4.509749e+001  -1.755902e+002 
3021875000  -4.398909e+001  -1.755437e+002 
3025000000  -4.240833e+001  -1.786643e+002 
3028125000  -4.159552e+001  1.679328e+002 
3031250000  -4.092691e+001  1.538203e+002 
3034375000  -4.088629e+001  1.411505e+002 
3037500000  -4.151579e+001  1.310396e+002 
3040625000  -4.284578e+001  1.232018e+002 
3043750000  -4.360124e+001  1.155207e+002 
3046875000  -4.413036e+001  1.088940e+002 
3050000000  -4.528073e+001  1.075223e+002 
3053125000  -4.470390e+001  1.091758e+002 
3056250000  -4.473310e+001  1.114377e+002 
3059375000  -4.421633e+001  1.090778e+002 
3062500000  -4.245704e+001  1.040909e+002 
3065625000  -4.231022e+001  9.194473e+001 
3068750000  -4.187665e+001  8.356321e+001 
3071875000  -4.178284e+001  8.109472e+001 
3075000000  -4.116391e+001  7.382471e+001 
3078125000  -4.117460e+001  6.774025e+001 
3081250000  -4.129912e+001  6.016804e+001 
3084375000  -4.052478e+001  5.449706e+001 
3087500000  -4.045047e+001  4.774039e+001 
3090625000  -4.009180e+001  3.339783e+001 
3093750000  -4.098097e+001  2.551830e+001 
3096875000  -4.106058e+001  1.883252e+001 
3100000000  -4.108376e+001  1.558346e+001 
3103125000  -4.145003e+001  1.042683e+001 
3106250000  -4.106127e+001  5.151952e+000 
3109375000  -4.094864e+001  -7.733962e-001 
3112500000  -4.083723e+001  -8.280046e+000 
3115625000  -4.068865e+001  -1.323454e+001 
3118750000  -4.073599e+001  -1.856425e+001 
3121875000  -4.024758e+001  -2.969869e+001 
3125000000  -4.207571e+001  -3.424141e+001 
3128125000  -4.208865e+001  -2.781337e+001 
3131250000  -3.953165e+001  -3.523713e+001 
3134375000  -3.882433e+001  -5.398009e+001 
3137500000  -3.951889e+001  -6.743456e+001 
3140625000  -4.091225e+001  -7.148064e+001 
3143750000  -4.161219e+001  -7.564262e+001 
3146875000  -4.120546e+001  -7.667839e+001 
3150000000  -4.042895e+001  -8.004963e+001 
3153125000  -4.090938e+001  -8.957155e+001 
3156250000  -4.155078e+001  -8.473716e+001 
3159375000  -3.911211e+001  -8.833427e+001 
3162500000  -3.779368e+001  -1.056984e+002 
3165625000  -3.912159e+001  -1.209806e+002 
3168750000  -3.904744e+001  -1.211989e+002 
3171875000  -3.862574e+001  -1.293795e+002 
3175000000  -3.918734e+001  -1.399936e+002 
3178125000  -3.873732e+001  -1.419865e+002 
3181250000  -3.814637e+001  -1.515971e+002 
3184375000  -3.777362e+001  -1.640984e+002 
3187500000  -3.930040e+001  -1.798303e+002 
3190625000  -4.081384e+001  1.731703e+002 
3193750000  -4.095277e+001  1.770381e+002 
3196875000  -4.117532e+001  1.777178e+002 
3200000000  -3.982029e+001  1.704405e+002 
3203125000  -3.966815e+001  1.637360e+002 
3206250000  -3.971221e+001  1.546517e+002 
3209375000  -3.946547e+001  1.456531e+002 
3212500000  -4.012131e+001  1.396470e+002 
3215625000  -3.951527e+001  1.343454e+002 
3218750000  -4.039322e+001  1.241580e+002 
3221875000  -4.067259e+001  1.156521e+002 
3225000000  -4.058437e+001  1.115041e+002 
3228125000  -4.117183e+001  1.035518e+002 
3231250000  -4.157838e+001  9.949493e+001 
3234375000  -4.115729e+001  9.694468e+001 
3237500000  -4.118319e+001  9.225551e+001 
3240625000  -4.048057e+001  8.634344e+001 
3243750000  -4.044529e+001  7.442156e+001 
3246875000  -4.080839e+001  6.733937e+001 
3250000000  -4.143639e+001  6.231462e+001 
3253125000  -4.128786e+001  5.608208e+001 
3256250000  -4.063970e+001  4.702339e+001 
3259375000  -4.095026e+001  3.378014e+001 
3262500000  -4.229527e+001  2.999190e+001 
3265625000  -4.276891e+001  3.138381e+001 
3268750000  -4.276303e+001  2.965562e+001 
3271875000  -4.191732e+001  2.225851e+001 
3275000000  -4.126968e+001  1.210074e+001 
3278125000  -4.173751e+001  5.379322e+000 
3281250000  -4.189820e+001  1.241575e+000 
3284375000  -4.111028e+001  -6.271293e+000 
3287500000  -4.151659e+001  -1.289315e+001 
3290625000  -4.154472e+001  -2.399471e+001 
3293750000  -4.154902e+001  -3.029038e+001 
3296875000  -4.290106e+001  -3.415756e+001 
3300000000  -4.220037e+001  -3.616094e+001 
3303125000  -4.068487e+001  -4.715954e+001 
3306250000  -4.093069e+001  -5.719812e+001 
3309375000  -4.079734e+001  -6.923646e+001 
3312500000  -4.120234e+001  -8.384441e+001 
3315625000  -4.266250e+001  -9.166820e+001 
3318750000  -4.395202e+001  -9.750112e+001 
3321875000  -4.537180e+001  -9.661687e+001 
3325000000  -4.550290e+001  -9.639492e+001 
3328125000  -4.410326e+001  -9.479933e+001 
3331250000  -4.253512e+001  -9.681033e+001 
3334375000  -4.028563e+001  -1.143434e+002 
3337500000  -4.089931e+001  -1.385046e+002 
3340625000  -4.300731e+001  -1.489006e+002 
3343750000  -4.496656e+001  -1.513909e+002 
3346875000  -4.410435e+001  -1.536981e+002 
3350000000  -4.374948e+001  -1.590485e+002 
3353125000  -4.365177e+001  -1.685323e+002 
3356250000  -4.356099e+001  -1.779488e+002 
3359375000  -4.433363e+001  1.668151e+002 
3362500000  -4.505090e+001  1.619742e+002 
3365625000  -4.570723e+001  1.548686e+002 
3368750000  -4.689726e+001  1.476061e+002 
3371875000  -4.664068e+001  1.434961e+002 
3375000000  -4.875108e+001  1.353423e+002 
3378125000  -4.874972e+001  1.351847e+002 
3381250000  -5.024929e+001  1.465967e+002 
3384375000  -4.701616e+001  1.521986e+002 
3387500000  -4.497758e+001  1.329909e+002 
3390625000  -4.731316e+001  1.100969e+002 
3393750000  -4.798181e+001  1.084103e+002 
3396875000  -4.654358e+001  1.036460e+002 
3400000000  -4.636290e+001  9.057929e+001 
3403125000  -4.703210e+001  8.343661e+001 
3406250000  -4.771507e+001  7.297389e+001 
3409375000  -4.697858e+001  6.279788e+001 
3412500000  -4.779934e+001  5.821789e+001 
3415625000  -4.916026e+001  5.244696e+001 
3418750000  -4.922770e+001  4.237332e+001 
3421875000  -4.863457e+001  4.284579e+001 
3425000000  -4.836927e+001  3.910855e+001 
3428125000  -4.735564e+001  3.035732e+001 
3431250000  -4.647927e+001  1.705707e+001 
3434375000  -4.697544e+001  4.581261e+000 
3437500000  -4.784950e+001  -9.627855e-001 
3440625000  -4.779437e+001  -8.205157e+000 
3443750000  -4.659966e+001  -1.115752e+001 
3446875000  -4.597455e+001  -2.561794e+001 
3450000000  -4.527408e+001  -4.176906e+001 
3453125000  -4.582310e+001  -5.637616e+001 
3456250000  -4.763701e+001  -6.764314e+001 
3459375000  -4.805689e+001  -7.297228e+001 
3462500000  -4.773149e+001  -7.385366e+001 
3465625000  -4.756328e+001  -8.986295e+001 
3468750000  -4.736349e+001  -9.227795e+001 
3471875000  -4.687242e+001  -1.007048e+002 
3475000000  -4.677634e+001  -1.116560e+002 
3478125000  -4.793391e+001  -1.237024e+002 
3481250000  -4.887062e+001  -1.334811e+002 
3484375000  -4.869898e+001  -1.302516e+002 
3487500000  -4.737018e+001  -1.413550e+002 
3490625000  -4.723332e+001  -1.477474e+002 
3493750000  -4.757187e+001  -1.655444e+002 
3496875000  -4.821651e+001  -1.656772e+002 
3500000000  -4.822445e+001  -1.692977e+002 
3503125000  -4.676427e+001  -1.711532e+002 
3506250000  -4.562462e+001  1.758322e+002 
3509375000  -4.567158e+001  1.552983e+002 
3512500000  -4.609770e+001  1.412406e+002 
3515625000  -4.762462e+001  1.349277e+002 
3518750000  -4.784037e+001  1.341196e+002 
3521875000  -4.761907e+001  1.201146e+002 
3525000000  -4.860442e+001  1.162440e+002 
3528125000  -4.768106e+001  1.174815e+002 
3531250000  -4.645298e+001  1.068227e+002 
3534375000  -4.701640e+001  9.073132e+001 
3537500000  -4.837233e+001  8.402100e+001 
3540625000  -4.913200e+001  7.532097e+001 
3543750000  -4.970605e+001  8.392636e+001 
3546875000  -4.889540e+001  9.009119e+001 
3550000000  -4.661034e+001  7.886998e+001 
3553125000  -4.587861e+001  5.701351e+001 
3556250000  -4.774297e+001  4.943979e+001 
3559375000  -4.686248e+001  4.674280e+001 
3562500000  -4.627649e+001  3.632501e+001 
3565625000  -4.748749e+001  2.945615e+001 
3568750000  -4.777486e+001  2.616621e+001 
3571875000  -4.707418e+001  2.063342e+001 
3575000000  -4.701656e+001  1.134564e+001 
3578125000  -4.777187e+001  1.129434e+001 
3581250000  -4.763844e+001  1.067398e+001 
3584375000  -4.572252e+001  -2.505933e+000 
3587500000  -4.608449e+001  -1.155189e+001 
3590625000  -4.636094e+001  -2.207062e+001 
3593750000  -4.743730e+001  -2.394123e+001 
3596875000  -4.651469e+001  -1.917109e+001 
3600000000  -4.468835e+001  -2.922773e+001 
3603125000  -4.524279e+001  -4.365348e+001 
3606250000  -4.588328e+001  -4.965832e+001 
3609375000  -4.624097e+001  -5.246735e+001 
3612500000  -4.610914e+001  -6.205428e+001 
3615625000  -4.619142e+001  -6.703949e+001 
3618750000  -4.623743e+001  -6.654225e+001 
3621875000  -4.563389e+001  -7.255668e+001 
3625000000  -4.564248e+001  -7.862022e+001 
3628125000  -4.490278e+001  -8.584924e+001 
3631250000  -4.523450e+001  -9.380922e+001 
3634375000  -4.545654e+001  -9.382236e+001 
3637500000  -4.480051e+001  -9.589482e+001 
3640625000  -4.359602e+001  -1.037749e+002 
3643750000  -4.344022e+001  -1.151635e+002 
3646875000  -4.372916e+001  -1.252879e+002 
3650000000  -4.363093e+001  -1.303234e+002 
3653125000  -4.320265e+001  -1.382524e+002 
3656250000  -4.406491e+001  -1.449850e+002 
3659375000  -4.418418e+001  -1.506415e+002 
3662500000  -4.331948e+001  -1.560878e+002 
3665625000  -4.338029e+001  -1.606311e+002 
3668750000  -4.204584e+001  -1.650087e+002 
3671875000  -4.140910e+001  -1.796590e+002 
3675000000  -4.220441e+001  1.708324e+002 
3678125000  -4.280967e+001  1.663078e+002 
3681250000  -4.259795e+001  1.596997e+002 
3684375000  -4.273609e+001  1.528562e+002 
3687500000  -4.309829e+001  1.457762e+002 
3690625000  -4.360666e+001  1.369679e+002 
3693750000  -4.446189e+001  1.373867e+002 
3696875000  -4.382087e+001  1.350472e+002 
3700000000  -4.316389e+001  1.236056e+002 
3703125000  -4.381739e+001  1.176122e+002 
3706250000  -4.451378e+001  1.115851e+002 
3709375000  -4.388390e+001  1.154136e+002 
3712500000  -4.306617e+001  1.079751e+002 
3715625000  -4.187812e+001  9.971951e+001 
3718750000  -4.185696e+001  9.061042e+001 
3721875000  -4.181861e+001  8.119732e+001 
3725000000  -4.261216e+001  7.271458e+001 
3728125000  -4.287014e+001  7.067165e+001 
3731250000  -4.181543e+001  6.399893e+001 
3734375000  -4.199241e+001  5.637085e+001 
3737500000  -4.281631e+001  4.566708e+001 
3740625000  -4.344551e+001  4.295095e+001 
3743750000  -4.334605e+001  3.594504e+001 
3746875000  -4.356242e+001  2.976456e+001 
3750000000  -4.381450e+001  2.337164e+001 
3753125000  -4.388470e+001  2.196684e+001 
3756250000  -4.369511e+001  2.109827e+001 
3759375000  -4.390983e+001  1.235059e+001 
3762500000  -4.384320e+001  7.465142e+000 
3765625000  -4.393600e+001  3.718239e+000 
3768750000  -4.383243e+001  3.287452e+000 
3771875000  -4.258648e+001  -3.255260e+000 
3775000000  -4.231068e+001  -1.408610e+001 
3778125000  -4.240694e+001  -2.108501e+001 
3781250000  -4.241408e+001  -2.601803e+001 
3784375000  -4.222834e+001  -3.131401e+001 
3787500000  -4.222177e+001  -3.943195e+001 
3790625000  -4.285928e+001  -4.793190e+001 
3793750000  -4.292278e+001  -5.047796e+001 
3796875000  -4.173790e+001  -5.571655e+001 
3800000000  -4.069140e+001  -6.254722e+001 
3803125000  -4.181772e+001  -7.521470e+001 
3806250000  -4.247171e+001  -7.921688e+001 
3809375000  -4.188573e+001  -8.281880e+001 
3812500000  -4.160408e+001  -9.466686e+001 
3815625000  -4.293176e+001  -1.072356e+002 
3818750000  -4.439463e+001  -1.053791e+002 
3821875000  -4.374234e+001  -9.261794e+001 
3825000000  -4.153891e+001  -1.006855e+002 
3828125000  -4.043710e+001  -1.209792e+002 
3831250000  -4.180663e+001  -1.356181e+002 
3834375000  -4.396580e+001  -1.333150e+002 
3837500000  -4.407803e+001  -1.326256e+002 
3840625000  -4.231160e+001  -1.396569e+002 
3843750000  -4.183352e+001  -1.551792e+002 
3846875000  -4.364561e+001  -1.643641e+002 
3850000000  -4.426423e+001  -1.556162e+002 
3853125000  -4.346314e+001  -1.583602e+002 
3856250000  -4.290725e+001  -1.679341e+002 
3859375000  -4.218974e+001  -1.730637e+002 
3862500000  -4.248702e+001  1.743173e+002 
3865625000  -4.262677e+001  1.696722e+002 
3868750000  -4.244815e+001  1.661855e+002 
3871875000  -4.182495e+001  1.569638e+002 
3875000000  -4.216934e+001  1.466537e+002 
3878125000  -4.376239e+001  1.446345e+002 
3881250000  -4.366927e+001  1.415522e+002 
3884375000  -4.299975e+001  1.292919e+002 
3887500000  -4.318709e+001  1.245806e+002 
3890625000  -4.406604e+001  1.225601e+002 
3893750000  -4.466774e+001  1.173677e+002 
3896875000  -4.412397e+001  1.152088e+002 
3900000000  -4.454608e+001  1.106036e+002 
3903125000  -4.375343e+001  1.057494e+002 
3906250000  -4.377895e+001  1.020427e+002 
3909375000  -4.282209e+001  9.110214e+001 
3912500000  -4.390324e+001  8.067384e+001 
3915625000  -4.521465e+001  8.323283e+001 
3918750000  -4.468195e+001  8.186643e+001 
3921875000  -4.357054e+001  7.624294e+001 
3925000000  -4.298977e+001  7.272403e+001 
3928125000  -4.318607e+001  6.159673e+001 
3931250000  -4.386245e+001  5.355571e+001 
3934375000  -4.388107e+001  5.036675e+001 
3937500000  -4.437819e+001  4.792128e+001 
3940625000  -4.482360e+001  4.461574e+001 
3943750000  -4.356308e+001  4.189687e+001 
3946875000  -4.281598e+001  3.266581e+001 
3950000000  -4.398005e+001  2.251483e+001 
3953125000  -4.457444e+001  2.388743e+001 
3956250000  -4.259893e+001  2.308790e+001 
3959375000  -4.216531e+001  1.928494e+001 
3962500000  -4.170479e+001  6.426120e+000 
3965625000  -4.218671e+001  -4.324193e+000 
3968750000  -4.240824e+001  -1.366021e+001 
3971875000  -4.268441e+001  -1.611664e+001 
3975000000  -4.223701e+001  -2.089295e+001 
3978125000  -4.223848e+001  -2.798756e+001 
3981250000  -4.197028e+001  -3.483227e+001 
3984375000  -4.262193e+001  -3.978556e+001 
3987500000  -4.299819e+001  -4.835229e+001 
3990625000  -4.366596e+001  -5.249922e+001 
3993750000  -4.306916e+001  -5.806123e+001 
3996875000  -4.338381e+001  -6.400186e+001 
4000000000  -4.364249e+001  -6.619757e+001 
4003125000  -4.385756e+001  -6.832507e+001 
4006250000  -4.193664e+001  -7.641512e+001 
4009375000  -4.150283e+001  -9.122327e+001 
4012500000  -4.303229e+001  -9.932651e+001 
4015625000  -4.386869e+001  -9.882549e+001 
4018750000  -4.424909e+001  -1.027522e+002 
4021875000  -4.357468e+001  -1.118793e+002 
4025000000  -4.315831e+001  -1.173448e+002 
4028125000  -4.340393e+001  -1.241539e+002 
4031250000  -4.405772e+001  -1.315159e+002 
4034375000  -4.408853e+001  -1.326204e+002 
4037500000  -4.427078e+001  -1.376669e+002 
4040625000  -4.441632e+001  -1.416781e+002 
4043750000  -4.483579e+001  -1.469347e+002 
4046875000  -4.465034e+001  -1.536707e+002 
4050000000  -4.413220e+001  -1.598387e+002 
4053125000  -4.525694e+001  -1.644175e+002 
4056250000  -4.601297e+001  -1.593077e+002 
4059375000  -4.417461e+001  -1.617611e+002 
4062500000  -4.361843e+001  -1.688930e+002 
4065625000  -4.366380e+001  -1.759904e+002 
4068750000  -4.343012e+001  1.743718e+002 
4071875000  -4.321069e+001  1.636488e+002 
4075000000  -4.397348e+001  1.581741e+002 
4078125000  -4.425350e+001  1.580611e+002 
4081250000  -4.383146e+001  1.502495e+002 
4084375000  -4.372754e+001  1.413370e+002 
4087500000  -4.409476e+001  1.334489e+002 
4090625000  -4.486360e+001  1.324109e+002 
4093750000  -4.505660e+001  1.289511e+002 
4096875000  -4.469579e+001  1.228758e+002 
4100000000  -4.570585e+001  1.098528e+002 
4103125000  -4.586910e+001  1.202113e+002 
4106250000  -4.598289e+001  1.183945e+002 
4109375000  -4.462577e+001  1.156917e+002 
4112500000  -4.460527e+001  1.054282e+002 
4115625000  -4.471224e+001  1.002482e+002 
4118750000  -4.463160e+001  9.569680e+001 
4121875000  -4.427189e+001  8.594342e+001 
4125000000  -4.506539e+001  7.924493e+001 
4128125000  -4.517660e+001  8.646458e+001 
4131250000  -4.400780e+001  8.790237e+001 
4134375000  -4.190738e+001  7.327125e+001 
4137500000  -4.219965e+001  5.491971e+001 
4140625000  -4.467458e+001  4.755098e+001 
4143750000  -4.523431e+001  5.399836e+001 
4146875000  -4.430882e+001  5.227255e+001 
4150000000  -4.303706e+001  4.371522e+001 
4153125000  -4.328994e+001  3.273578e+001 
4156250000  -4.441425e+001  3.119495e+001 
4159375000  -4.409978e+001  3.318501e+001 
4162500000  -4.271659e+001  3.183818e+001 
4165625000  -4.173001e+001  2.124206e+001 
4168750000  -4.176059e+001  1.051386e+001 
4171875000  -4.127523e+001  -1.228740e+000 
4175000000  -4.245612e+001  -1.023678e+001 
4178125000  -4.293807e+001  -1.188115e+001 
4181250000  -4.264260e+001  -1.836551e+001 
4184375000  -4.283206e+001  -2.499820e+001 
4187500000  -4.283271e+001  -3.213331e+001 
4190625000  -4.324897e+001  -4.149265e+001 
4193750000  -4.433157e+001  -4.759596e+001 
4196875000  -4.535695e+001  -4.986562e+001 
4200000000  -4.689387e+001  -4.192809e+001 
4203125000  -4.463917e+001  -3.519939e+001 
4206250000  -4.130059e+001  -4.301527e+001 
4209375000  -4.189606e+001  -6.939255e+001 
4212500000  -4.398943e+001  -7.532024e+001 
4215625000  -4.452713e+001  -6.915781e+001 
4218750000  -4.322993e+001  -6.809560e+001 
4221875000  -4.175691e+001  -8.088364e+001 
4225000000  -4.277880e+001  -9.123870e+001 
4228125000  -4.244147e+001  -8.948122e+001 
4231250000  -4.174800e+001  -9.541477e+001 
4234375000  -4.122346e+001  -1.101318e+002 
4237500000  -4.094281e+001  -1.137595e+002 
4240625000  -4.160332e+001  -1.261595e+002 
4243750000  -4.319343e+001  -1.346089e+002 
4246875000  -4.362594e+001  -1.324341e+002 
4250000000  -4.330924e+001  -1.338164e+002 
4253125000  -4.299066e+001  -1.386576e+002 
4256250000  -4.278712e+001  -1.440393e+002 
4259375000  -4.236483e+001  -1.490162e+002 
4262500000  -4.285940e+001  -1.543848e+002 
4265625000  -4.249523e+001  -1.539229e+002 
4268750000  -4.158348e+001  -1.632057e+002 
4271875000  -4.097505e+001  -1.759414e+002 
4275000000  -4.081858e+001  1.772430e+002 
4278125000  -4.146048e+001  1.636034e+002 
4281250000  -4.301968e+001  1.635948e+002 
4284375000  -4.259198e+001  1.563388e+002 
4287500000  -4.424105e+001  1.561573e+002 
4290625000  -4.429615e+001  1.633297e+002 
4293750000  -4.181278e+001  1.602827e+002 
4296875000  -4.088908e+001  1.455777e+002 
4300000000  -4.164838e+001  1.374754e+002 
4303125000  -4.245277e+001  1.354300e+002 
4306250000  -4.144896e+001  1.376944e+002 
4309375000  -4.017693e+001  1.248736e+002 
4312500000  -3.984795e+001  1.143043e+002 
4315625000  -4.062471e+001  1.039271e+002 
4318750000  -4.113551e+001  1.002860e+002 
4321875000  -4.137325e+001  9.701572e+001 
4325000000  -4.094266e+001  9.471918e+001 
4328125000  -3.980115e+001  8.291334e+001 
4331250000  -4.016087e+001  6.980025e+001 
4334375000  -4.127853e+001  6.179753e+001 
4337500000  -4.293121e+001  6.124397e+001 
4340625000  -4.259361e+001  6.146731e+001 
4343750000  -4.157053e+001  5.635458e+001 
4346875000  -4.164112e+001  4.724428e+001 
4350000000  -4.137193e+001  3.917625e+001 
4353125000  -4.200866e+001  2.890165e+001 
4356250000  -4.422625e+001  3.085150e+001 
4359375000  -4.373815e+001  4.475109e+001 
4362500000  -4.011449e+001  3.691624e+001 
4365625000  -3.983612e+001  1.810504e+001 
4368750000  -4.069992e+001  6.951740e+000 
4371875000  -4.165315e+001  5.366824e+000 
4375000000  -4.123116e+001  6.403722e-001 
4378125000  -4.098740e+001  -1.025530e+001 
4381250000  -4.113944e+001  -1.502486e+001 
4384375000  -4.118946e+001  -2.406304e+001 
4387500000  -4.194986e+001  -3.010093e+001 
4390625000  -4.259912e+001  -3.198980e+001 
4393750000  -4.213821e+001  -3.219668e+001 
4396875000  -4.172221e+001  -3.887958e+001 
4400000000  -4.128809e+001  -4.969328e+001 
4403125000  -4.230606e+001  -5.973438e+001 
4406250000  -4.273365e+001  -6.399649e+001 
4409375000  -4.331427e+001  -6.495338e+001 
4412500000  -4.420371e+001  -7.064084e+001 
4415625000  -4.384970e+001  -6.710804e+001 
4418750000  -4.236090e+001  -6.709588e+001 
