!Agilent Technologies,E8363B,MY43030201,A.06.04.32
!Agilent E8363B: A.06.04.32
!Date: Tuesday, November 11, 2014 21:47:18
!Correction: S21(Response(S21)) 
!S1P File: Measurement: S21:
# Hz S  dB   R 50
3000000000  -4.373174e+001  -1.603937e+002 
3003125000  -4.529119e+001  -1.659707e+002 
3006250000  -4.503429e+001  -1.680543e+002 
3009375000  -4.612783e+001  -1.643062e+002 
3012500000  -4.485049e+001  -1.719144e+002 
3015625000  -4.494154e+001  -1.764028e+002 
3018750000  -4.522117e+001  -1.784260e+002 
3021875000  -4.396077e+001  -1.770610e+002 
3025000000  -4.243631e+001  1.771454e+002 
3028125000  -4.163724e+001  1.658800e+002 
3031250000  -4.101767e+001  1.514835e+002 
3034375000  -4.081142e+001  1.388746e+002 
3037500000  -4.143473e+001  1.270586e+002 
3040625000  -4.274164e+001  1.200488e+002 
3043750000  -4.328345e+001  1.130681e+002 
3046875000  -4.415179e+001  1.066641e+002 
3050000000  -4.505092e+001  1.015951e+002 
3053125000  -4.513480e+001  1.068129e+002 
3056250000  -4.479370e+001  1.086508e+002 
3059375000  -4.401580e+001  1.055199e+002 
3062500000  -4.265675e+001  9.957845e+001 
3065625000  -4.221526e+001  8.828104e+001 
3068750000  -4.186483e+001  8.215663e+001 
3071875000  -4.188551e+001  8.000230e+001 
3075000000  -4.117192e+001  7.215945e+001 
3078125000  -4.129393e+001  6.326885e+001 
3081250000  -4.139135e+001  5.754872e+001 
3084375000  -4.043668e+001  5.186491e+001 
3087500000  -4.052096e+001  4.345660e+001 
3090625000  -3.993958e+001  3.044213e+001 
3093750000  -4.086331e+001  2.175303e+001 
3096875000  -4.107640e+001  1.667145e+001 
3100000000  -4.112237e+001  1.228883e+001 
3103125000  -4.133306e+001  7.753202e+000 
3106250000  -4.103393e+001  2.971895e+000 
3109375000  -4.097055e+001  -1.970492e+000 
3112500000  -4.087649e+001  -1.110801e+001 
3115625000  -4.097457e+001  -1.587605e+001 
3118750000  -4.078647e+001  -2.089345e+001 
3121875000  -4.038609e+001  -3.257657e+001 
3125000000  -4.212820e+001  -3.733196e+001 
3128125000  -4.197525e+001  -3.106101e+001 
3131250000  -3.938453e+001  -3.903619e+001 
3134375000  -3.905236e+001  -5.656815e+001 
3137500000  -3.937680e+001  -7.050861e+001 
3140625000  -4.087393e+001  -7.460161e+001 
3143750000  -4.146224e+001  -7.781080e+001 
3146875000  -4.108267e+001  -7.674831e+001 
3150000000  -4.044082e+001  -8.199483e+001 
3153125000  -4.060871e+001  -9.127248e+001 
3156250000  -4.148327e+001  -8.920242e+001 
3159375000  -3.917304e+001  -9.283837e+001 
3162500000  -3.787253e+001  -1.084888e+002 
3165625000  -3.889253e+001  -1.217899e+002 
3168750000  -3.906463e+001  -1.237464e+002 
3171875000  -3.854757e+001  -1.333227e+002 
3175000000  -3.918953e+001  -1.419598e+002 
3178125000  -3.866549e+001  -1.450821e+002 
3181250000  -3.790792e+001  -1.544688e+002 
3184375000  -3.786295e+001  -1.668878e+002 
3187500000  -3.928835e+001  1.799343e+002 
3190625000  -4.074508e+001  1.707521e+002 
3193750000  -4.107676e+001  1.740243e+002 
3196875000  -4.122123e+001  1.740733e+002 
3200000000  -3.970487e+001  1.699048e+002 
3203125000  -3.972188e+001  1.605748e+002 
3206250000  -3.974981e+001  1.517947e+002 
3209375000  -3.954509e+001  1.436770e+002 
3212500000  -3.996790e+001  1.365160e+002 
3215625000  -3.944723e+001  1.331382e+002 
3218750000  -4.018084e+001  1.198679e+002 
3221875000  -4.055561e+001  1.144515e+002 
3225000000  -4.039994e+001  1.092644e+002 
3228125000  -4.106899e+001  9.979407e+001 
3231250000  -4.146150e+001  9.777409e+001 
3234375000  -4.096193e+001  9.419531e+001 
3237500000  -4.088372e+001  8.959495e+001 
3240625000  -4.049319e+001  8.176987e+001 
3243750000  -4.024941e+001  7.075502e+001 
3246875000  -4.065311e+001  6.372175e+001 
3250000000  -4.115868e+001  5.793436e+001 
3253125000  -4.109713e+001  5.481220e+001 
3256250000  -4.035815e+001  4.381847e+001 
3259375000  -4.089009e+001  3.174575e+001 
3262500000  -4.231421e+001  2.631056e+001 
3265625000  -4.270482e+001  2.781702e+001 
3268750000  -4.244635e+001  2.637671e+001 
3271875000  -4.153648e+001  2.000656e+001 
3275000000  -4.107601e+001  8.428508e+000 
3278125000  -4.173267e+001  4.617605e+000 
3281250000  -4.179660e+001  -5.863310e-001 
3284375000  -4.095982e+001  -1.001019e+001 
3287500000  -4.162531e+001  -1.653659e+001 
3290625000  -4.136528e+001  -2.558791e+001 
3293750000  -4.134043e+001  -3.299803e+001 
3296875000  -4.271550e+001  -3.810384e+001 
3300000000  -4.209856e+001  -3.985462e+001 
3303125000  -4.110941e+001  -5.032352e+001 
3306250000  -4.075628e+001  -6.029176e+001 
3309375000  -4.081853e+001  -7.066340e+001 
3312500000  -4.115972e+001  -8.636434e+001 
3315625000  -4.244219e+001  -9.426214e+001 
3318750000  -4.382442e+001  -9.985329e+001 
3321875000  -4.557148e+001  -9.911579e+001 
3325000000  -4.522799e+001  -9.459358e+001 
3328125000  -4.418027e+001  -9.887904e+001 
3331250000  -4.230810e+001  -9.959106e+001 
3334375000  -4.004951e+001  -1.170198e+002 
3337500000  -4.066977e+001  -1.419111e+002 
3340625000  -4.300860e+001  -1.499297e+002 
3343750000  -4.456702e+001  -1.522210e+002 
3346875000  -4.398199e+001  -1.561058e+002 
3350000000  -4.375140e+001  -1.622156e+002 
3353125000  -4.369027e+001  -1.709055e+002 
3356250000  -4.314744e+001  1.787176e+002 
3359375000  -4.414407e+001  1.652526e+002 
3362500000  -4.503827e+001  1.566211e+002 
3365625000  -4.567739e+001  1.514725e+002 
3368750000  -4.652083e+001  1.469274e+002 
3371875000  -4.681353e+001  1.400069e+002 
3375000000  -4.835433e+001  1.344667e+002 
3378125000  -4.934523e+001  1.309683e+002 
3381250000  -5.121211e+001  1.449037e+002 
3384375000  -4.740600e+001  1.509227e+002 
3387500000  -4.468995e+001  1.250615e+002 
3390625000  -4.676443e+001  1.066305e+002 
3393750000  -4.758922e+001  1.059020e+002 
3396875000  -4.621845e+001  1.025057e+002 
3400000000  -4.617506e+001  8.664893e+001 
3403125000  -4.685461e+001  7.955482e+001 
3406250000  -4.700748e+001  7.276689e+001 
3409375000  -4.732891e+001  6.153346e+001 
3412500000  -4.766987e+001  5.357491e+001 
3415625000  -4.873703e+001  4.841325e+001 
3418750000  -4.853428e+001  4.154987e+001 
3421875000  -4.902326e+001  4.175438e+001 
3425000000  -4.767266e+001  3.542112e+001 
3428125000  -4.730479e+001  2.745530e+001 
3431250000  -4.699658e+001  1.605029e+001 
3434375000  -4.695184e+001  2.403383e+000 
3437500000  -4.744469e+001  -3.501330e+000 
3440625000  -4.790321e+001  -9.214299e+000 
3443750000  -4.621771e+001  -1.130294e+001 
3446875000  -4.603175e+001  -2.806096e+001 
3450000000  -4.519005e+001  -4.382487e+001 
3453125000  -4.610120e+001  -5.840662e+001 
3456250000  -4.760676e+001  -6.967537e+001 
3459375000  -4.776647e+001  -7.093647e+001 
3462500000  -4.769696e+001  -7.774069e+001 
3465625000  -4.696383e+001  -8.720648e+001 
3468750000  -4.767610e+001  -9.540954e+001 
3471875000  -4.695433e+001  -1.041669e+002 
3475000000  -4.679550e+001  -1.171122e+002 
3478125000  -4.732747e+001  -1.337366e+002 
3481250000  -4.897453e+001  -1.314769e+002 
3484375000  -4.855002e+001  -1.326292e+002 
3487500000  -4.765377e+001  -1.410899e+002 
3490625000  -4.740118e+001  -1.554522e+002 
3493750000  -4.814603e+001  -1.662729e+002 
3496875000  -4.794067e+001  -1.680207e+002 
3500000000  -4.871114e+001  -1.725509e+002 
3503125000  -4.689228e+001  -1.734835e+002 
3506250000  -4.551067e+001  1.706211e+002 
3509375000  -4.547516e+001  1.494324e+002 
3512500000  -4.623636e+001  1.345755e+002 
3515625000  -4.728120e+001  1.330003e+002 
3518750000  -4.813953e+001  1.296680e+002 
3521875000  -4.813529e+001  1.144390e+002 
3525000000  -4.957540e+001  1.173535e+002 
3528125000  -4.717663e+001  1.180068e+002 
3531250000  -4.678065e+001  1.030097e+002 
3534375000  -4.669579e+001  8.880893e+001 
3537500000  -4.799481e+001  7.748480e+001 
3540625000  -4.871184e+001  7.533996e+001 
3543750000  -4.903636e+001  7.992815e+001 
3546875000  -4.856020e+001  8.200485e+001 
3550000000  -4.647723e+001  7.591449e+001 
3553125000  -4.656998e+001  5.668100e+001 
3556250000  -4.725200e+001  4.533717e+001 
3559375000  -4.667006e+001  4.268048e+001 
3562500000  -4.661333e+001  3.271258e+001 
3565625000  -4.774694e+001  2.500848e+001 
3568750000  -4.805440e+001  2.464862e+001 
3571875000  -4.773422e+001  2.002725e+001 
3575000000  -4.663487e+001  1.346697e+001 
3578125000  -4.761820e+001  7.917846e+000 
3581250000  -4.788324e+001  5.764547e+000 
3584375000  -4.592301e+001  -3.117200e-001 
3587500000  -4.569543e+001  -1.628373e+001 
3590625000  -4.649366e+001  -2.722260e+001 
3593750000  -4.796194e+001  -2.463567e+001 
3596875000  -4.659753e+001  -2.061685e+001 
3600000000  -4.484796e+001  -3.226852e+001 
3603125000  -4.502929e+001  -4.980003e+001 
3606250000  -4.601885e+001  -5.267677e+001 
3609375000  -4.599404e+001  -5.597537e+001 
3612500000  -4.620489e+001  -6.619498e+001 
3615625000  -4.630577e+001  -6.569463e+001 
3618750000  -4.609489e+001  -7.201438e+001 
3621875000  -4.550665e+001  -7.935720e+001 
3625000000  -4.568114e+001  -8.416303e+001 
3628125000  -4.467886e+001  -8.876233e+001 
3631250000  -4.490401e+001  -9.985455e+001 
3634375000  -4.546378e+001  -9.752519e+001 
3637500000  -4.429597e+001  -1.002346e+002 
3640625000  -4.346408e+001  -1.079921e+002 
3643750000  -4.318061e+001  -1.182519e+002 
3646875000  -4.358430e+001  -1.313551e+002 
3650000000  -4.375173e+001  -1.343487e+002 
3653125000  -4.310117e+001  -1.423387e+002 
3656250000  -4.405770e+001  -1.489093e+002 
3659375000  -4.347812e+001  -1.517011e+002 
3662500000  -4.370161e+001  -1.595924e+002 
3665625000  -4.326017e+001  -1.641219e+002 
3668750000  -4.208088e+001  -1.707816e+002 
3671875000  -4.158359e+001  1.783207e+002 
3675000000  -4.232787e+001  1.672751e+002 
3678125000  -4.254664e+001  1.633499e+002 
3681250000  -4.240417e+001  1.574807e+002 
3684375000  -4.273367e+001  1.465803e+002 
3687500000  -4.303949e+001  1.381839e+002 
3690625000  -4.330512e+001  1.359874e+002 
3693750000  -4.408776e+001  1.326704e+002 
3696875000  -4.369141e+001  1.299160e+002 
3700000000  -4.304122e+001  1.214193e+002 
3703125000  -4.381356e+001  1.118491e+002 
3706250000  -4.447514e+001  1.112072e+002 
3709375000  -4.391350e+001  1.122353e+002 
3712500000  -4.282795e+001  1.061481e+002 
3715625000  -4.139059e+001  9.497861e+001 
3718750000  -4.172782e+001  8.691087e+001 
3721875000  -4.178874e+001  7.769204e+001 
3725000000  -4.229009e+001  6.836716e+001 
3728125000  -4.235664e+001  6.681242e+001 
3731250000  -4.196078e+001  5.937774e+001 
3734375000  -4.176708e+001  5.080386e+001 
3737500000  -4.278908e+001  4.473836e+001 
3740625000  -4.308871e+001  3.677233e+001 
3743750000  -4.282954e+001  3.076690e+001 
3746875000  -4.345452e+001  2.405004e+001 
3750000000  -4.364330e+001  2.068785e+001 
3753125000  -4.370387e+001  1.706348e+001 
3756250000  -4.357131e+001  1.449709e+001 
3759375000  -4.372624e+001  8.384813e+000 
3762500000  -4.352398e+001  4.202451e+000 
3765625000  -4.406831e+001  -1.684385e+000 
3768750000  -4.366120e+001  -1.604575e+000 
3771875000  -4.243351e+001  -6.545024e+000 
3775000000  -4.208992e+001  -1.871276e+001 
3778125000  -4.244925e+001  -2.747126e+001 
3781250000  -4.266806e+001  -3.006430e+001 
3784375000  -4.230082e+001  -3.610679e+001 
3787500000  -4.216982e+001  -4.294859e+001 
3790625000  -4.285180e+001  -5.218525e+001 
3793750000  -4.252120e+001  -5.602995e+001 
3796875000  -4.167016e+001  -5.889116e+001 
3800000000  -4.055634e+001  -6.664821e+001 
3803125000  -4.174276e+001  -8.071742e+001 
3806250000  -4.251522e+001  -8.284879e+001 
3809375000  -4.201967e+001  -8.846940e+001 
3812500000  -4.156223e+001  -9.990089e+001 
3815625000  -4.311529e+001  -1.119439e+002 
3818750000  -4.404249e+001  -1.075346e+002 
3821875000  -4.341105e+001  -9.564727e+001 
3825000000  -4.147807e+001  -1.069027e+002 
3828125000  -4.044401e+001  -1.253982e+002 
3831250000  -4.129387e+001  -1.397102e+002 
3834375000  -4.362476e+001  -1.398208e+002 
3837500000  -4.405119e+001  -1.385017e+002 
3840625000  -4.212886e+001  -1.437057e+002 
3843750000  -4.178352e+001  -1.601678e+002 
3846875000  -4.339571e+001  -1.647632e+002 
3850000000  -4.400125e+001  -1.592054e+002 
3853125000  -4.302785e+001  -1.643265e+002 
3856250000  -4.317533e+001  -1.704909e+002 
3859375000  -4.196779e+001  -1.798774e+002 
3862500000  -4.236230e+001  1.701406e+002 
3865625000  -4.258093e+001  1.621994e+002 
3868750000  -4.251437e+001  1.625793e+002 
3871875000  -4.170527e+001  1.500401e+002 
3875000000  -4.233252e+001  1.427359e+002 
3878125000  -4.313070e+001  1.407590e+002 
3881250000  -4.305979e+001  1.371160e+002 
3884375000  -4.261734e+001  1.279873e+002 
3887500000  -4.298129e+001  1.217348e+002 
3890625000  -4.353048e+001  1.188675e+002 
3893750000  -4.433982e+001  1.158994e+002 
3896875000  -4.407998e+001  1.147030e+002 
3900000000  -4.418358e+001  1.071353e+002 
3903125000  -4.338909e+001  1.016691e+002 
3906250000  -4.344510e+001  9.706574e+001 
3909375000  -4.292165e+001  8.700273e+001 
3912500000  -4.365033e+001  7.975492e+001 
3915625000  -4.491890e+001  7.656632e+001 
3918750000  -4.479298e+001  7.871725e+001 
3921875000  -4.397621e+001  7.571766e+001 
3925000000  -4.279536e+001  6.482948e+001 
3928125000  -4.291965e+001  5.358300e+001 
3931250000  -4.355465e+001  4.886018e+001 
3934375000  -4.392510e+001  4.889620e+001 
3937500000  -4.435571e+001  4.148800e+001 
3940625000  -4.449666e+001  4.278816e+001 
3943750000  -4.332677e+001  3.741254e+001 
3946875000  -4.263791e+001  3.076020e+001 
3950000000  -4.366224e+001  2.258265e+001 
3953125000  -4.459526e+001  2.208590e+001 
3956250000  -4.290303e+001  1.848201e+001 
3959375000  -4.197171e+001  1.196914e+001 
3962500000  -4.139851e+001  1.833291e+000 
3965625000  -4.186309e+001  -9.551727e+000 
3968750000  -4.221810e+001  -1.605145e+001 
3971875000  -4.244343e+001  -2.020601e+001 
3975000000  -4.205706e+001  -2.584900e+001 
3978125000  -4.208867e+001  -3.299383e+001 
3981250000  -4.188953e+001  -3.976616e+001 
3984375000  -4.241508e+001  -4.699779e+001 
3987500000  -4.276640e+001  -5.095074e+001 
3990625000  -4.308870e+001  -5.631032e+001 
3993750000  -4.298702e+001  -6.153390e+001 
3996875000  -4.306365e+001  -6.919675e+001 
4000000000  -4.359837e+001  -7.054493e+001 
4003125000  -4.364631e+001  -7.211255e+001 
4006250000  -4.206478e+001  -7.992474e+001 
4009375000  -4.161963e+001  -9.364530e+001 
4012500000  -4.251444e+001  -1.022708e+002 
4015625000  -4.422989e+001  -1.047892e+002 
4018750000  -4.376321e+001  -1.074754e+002 
4021875000  -4.275687e+001  -1.163050e+002 
4025000000  -4.289861e+001  -1.201193e+002 
4028125000  -4.344017e+001  -1.271441e+002 
4031250000  -4.374667e+001  -1.350621e+002 
4034375000  -4.410503e+001  -1.391877e+002 
4037500000  -4.403774e+001  -1.413071e+002 
4040625000  -4.401833e+001  -1.478561e+002 
4043750000  -4.423211e+001  -1.497551e+002 
4046875000  -4.400030e+001  -1.568800e+002 
4050000000  -4.414887e+001  -1.622521e+002 
4053125000  -4.505479e+001  -1.682948e+002 
4056250000  -4.519974e+001  -1.628271e+002 
4059375000  -4.356948e+001  -1.647953e+002 
4062500000  -4.343196e+001  -1.772479e+002 
4065625000  -4.358994e+001  1.793997e+002 
4068750000  -4.299675e+001  1.711395e+002 
4071875000  -4.234553e+001  1.613874e+002 
4075000000  -4.330059e+001  1.525491e+002 
4078125000  -4.386877e+001  1.492495e+002 
4081250000  -4.352009e+001  1.473291e+002 
4084375000  -4.322678e+001  1.388238e+002 
4087500000  -4.376928e+001  1.292360e+002 
4090625000  -4.473143e+001  1.278356e+002 
4093750000  -4.469970e+001  1.266291e+002 
4096875000  -4.405290e+001  1.160368e+002 
4100000000  -4.464487e+001  1.112016e+002 
4103125000  -4.555522e+001  1.117304e+002 
4106250000  -4.529084e+001  1.133876e+002 
4109375000  -4.405442e+001  1.099501e+002 
4112500000  -4.440068e+001  1.002362e+002 
4115625000  -4.393395e+001  9.662199e+001 
4118750000  -4.394840e+001  9.156853e+001 
4121875000  -4.363740e+001  8.286674e+001 
4125000000  -4.487849e+001  7.698621e+001 
4128125000  -4.527819e+001  8.046387e+001 
4131250000  -4.367067e+001  8.384396e+001 
4134375000  -4.155658e+001  7.159991e+001 
4137500000  -4.224473e+001  4.957253e+001 
4140625000  -4.390896e+001  4.033046e+001 
4143750000  -4.431225e+001  4.672915e+001 
4146875000  -4.357425e+001  4.816459e+001 
4150000000  -4.269852e+001  4.085984e+001 
4153125000  -4.323230e+001  2.970121e+001 
4156250000  -4.387714e+001  2.453960e+001 
4159375000  -4.412971e+001  3.119457e+001 
4162500000  -4.197334e+001  2.925460e+001 
4165625000  -4.134057e+001  1.489590e+001 
4168750000  -4.123724e+001  6.223318e+000 
4171875000  -4.106681e+001  -6.465782e+000 
4175000000  -4.182211e+001  -1.576084e+001 
4178125000  -4.205991e+001  -1.840495e+001 
4181250000  -4.187248e+001  -2.423238e+001 
4184375000  -4.271306e+001  -2.823772e+001 
4187500000  -4.229273e+001  -3.716083e+001 
4190625000  -4.282420e+001  -4.862104e+001 
4193750000  -4.394563e+001  -5.350418e+001 
4196875000  -4.489692e+001  -5.332509e+001 
4200000000  -4.582724e+001  -4.899162e+001 
4203125000  -4.436736e+001  -4.001405e+001 
4206250000  -4.139853e+001  -4.962452e+001 
4209375000  -4.124377e+001  -7.372640e+001 
4212500000  -4.372094e+001  -7.997350e+001 
4215625000  -4.371901e+001  -7.172571e+001 
4218750000  -4.249747e+001  -7.402522e+001 
4221875000  -4.056463e+001  -8.411202e+001 
4225000000  -4.252626e+001  -9.644198e+001 
4228125000  -4.244306e+001  -9.684919e+001 
4231250000  -4.071829e+001  -1.029551e+002 
4234375000  -4.061812e+001  -1.150329e+002 
4237500000  -4.063383e+001  -1.199177e+002 
4240625000  -4.075096e+001  -1.323100e+002 
4243750000  -4.233920e+001  -1.397708e+002 
4246875000  -4.274155e+001  -1.397786e+002 
4250000000  -4.249748e+001  -1.391602e+002 
4253125000  -4.251909e+001  -1.437751e+002 
4256250000  -4.264819e+001  -1.488589e+002 
4259375000  -4.201539e+001  -1.559956e+002 
4262500000  -4.231728e+001  -1.610062e+002 
4265625000  -4.233063e+001  -1.607748e+002 
4268750000  -4.063225e+001  -1.709039e+002 
4271875000  -4.051003e+001  -1.771792e+002 
4275000000  -4.033854e+001  1.714675e+002 
4278125000  -4.132079e+001  1.573474e+002 
4281250000  -4.266019e+001  1.552758e+002 
4284375000  -4.237406e+001  1.520018e+002 
4287500000  -4.390026e+001  1.488122e+002 
4290625000  -4.357448e+001  1.543469e+002 
4293750000  -4.170532e+001  1.583962e+002 
4296875000  -4.057599e+001  1.395286e+002 
4300000000  -4.142281e+001  1.310954e+002 
4303125000  -4.187347e+001  1.297265e+002 
4306250000  -4.042826e+001  1.302652e+002 
4309375000  -3.999395e+001  1.213298e+002 
4312500000  -3.954283e+001  1.097114e+002 
4315625000  -4.047507e+001  9.771486e+001 
4318750000  -4.063596e+001  9.359193e+001 
4321875000  -4.074289e+001  9.124336e+001 
4325000000  -4.003517e+001  8.460038e+001 
4328125000  -3.941370e+001  7.541058e+001 
4331250000  -3.975948e+001  6.369921e+001 
4334375000  -4.066510e+001  5.602617e+001 
4337500000  -4.169819e+001  5.393115e+001 
4340625000  -4.213584e+001  5.566771e+001 
4343750000  -4.090591e+001  5.004404e+001 
4346875000  -4.076230e+001  4.438412e+001 
4350000000  -4.115875e+001  3.263240e+001 
4353125000  -4.232458e+001  1.811056e+001 
4356250000  -4.372437e+001  2.694056e+001 
4359375000  -4.313016e+001  3.933674e+001 
4362500000  -3.964283e+001  2.890912e+001 
4365625000  -3.874500e+001  1.146961e+001 
4368750000  -4.030401e+001  1.407267e-001 
4371875000  -4.115464e+001  3.029667e-001 
4375000000  -4.021693e+001  -6.351058e+000 
4378125000  -4.026372e+001  -1.250953e+001 
4381250000  -4.051988e+001  -2.274513e+001 
4384375000  -4.037040e+001  -3.128541e+001 
4387500000  -4.164647e+001  -3.704004e+001 
4390625000  -4.234245e+001  -3.864243e+001 
4393750000  -4.158498e+001  -4.073630e+001 
4396875000  -4.130189e+001  -4.549976e+001 
4400000000  -4.104149e+001  -5.645543e+001 
4403125000  -4.180383e+001  -6.722744e+001 
4406250000  -4.212876e+001  -7.166422e+001 
4409375000  -4.235286e+001  -7.601257e+001 
4412500000  -4.361240e+001  -7.622438e+001 
4415625000  -4.286301e+001  -7.415812e+001 
4418750000  -4.228718e+001  -7.347372e+001 
