!Agilent Technologies,E8363B,MY43030201,A.06.04.32
!Agilent E8363B: A.06.04.32
!Date: Tuesday, November 11, 2014 21:44:20
!Correction: S21(Response(S21)) 
!S1P File: Measurement: S21:
# Hz S  dB   R 50
3000000000  -4.349823e+001  -1.605174e+002 
3003125000  -4.522076e+001  -1.625720e+002 
3006250000  -4.543385e+001  -1.654580e+002 
3009375000  -4.589806e+001  -1.641199e+002 
3012500000  -4.462379e+001  -1.695888e+002 
3015625000  -4.507870e+001  -1.755104e+002 
3018750000  -4.551685e+001  -1.762890e+002 
3021875000  -4.388997e+001  -1.761091e+002 
3025000000  -4.262299e+001  1.773521e+002 
3028125000  -4.173038e+001  1.671436e+002 
3031250000  -4.079403e+001  1.538538e+002 
3034375000  -4.074058e+001  1.388792e+002 
3037500000  -4.159662e+001  1.271056e+002 
3040625000  -4.275826e+001  1.227952e+002 
3043750000  -4.334480e+001  1.151013e+002 
3046875000  -4.400726e+001  1.089765e+002 
3050000000  -4.522971e+001  1.029276e+002 
3053125000  -4.483849e+001  1.088569e+002 
3056250000  -4.450728e+001  1.090306e+002 
3059375000  -4.387096e+001  1.061964e+002 
3062500000  -4.231897e+001  1.028911e+002 
3065625000  -4.218209e+001  9.163168e+001 
3068750000  -4.189450e+001  8.213434e+001 
3071875000  -4.185901e+001  7.993380e+001 
3075000000  -4.125031e+001  7.130367e+001 
3078125000  -4.121505e+001  6.604977e+001 
3081250000  -4.136173e+001  5.754569e+001 
3084375000  -4.054583e+001  5.248764e+001 
3087500000  -4.043628e+001  4.495310e+001 
3090625000  -3.986782e+001  3.237715e+001 
3093750000  -4.101486e+001  2.393137e+001 
3096875000  -4.114707e+001  1.745309e+001 
3100000000  -4.122318e+001  1.298149e+001 
3103125000  -4.142436e+001  8.534877e+000 
3106250000  -4.098195e+001  2.295651e+000 
3109375000  -4.094313e+001  -1.559924e+000 
3112500000  -4.094329e+001  -1.010775e+001 
3115625000  -4.108165e+001  -1.476551e+001 
3118750000  -4.064929e+001  -2.084460e+001 
3121875000  -4.033094e+001  -3.208951e+001 
3125000000  -4.216498e+001  -3.475436e+001 
3128125000  -4.208844e+001  -3.071092e+001 
3131250000  -3.961334e+001  -3.760209e+001 
3134375000  -3.893281e+001  -5.632901e+001 
3137500000  -3.942786e+001  -6.914433e+001 
3140625000  -4.097359e+001  -7.467776e+001 
3143750000  -4.156334e+001  -7.706789e+001 
3146875000  -4.122460e+001  -7.577129e+001 
3150000000  -4.043817e+001  -8.139265e+001 
3153125000  -4.089700e+001  -9.066780e+001 
3156250000  -4.117741e+001  -8.827180e+001 
3159375000  -3.895314e+001  -9.045348e+001 
3162500000  -3.777214e+001  -1.082886e+002 
3165625000  -3.897035e+001  -1.211889e+002 
3168750000  -3.905992e+001  -1.232437e+002 
3171875000  -3.865773e+001  -1.328986e+002 
3175000000  -3.921484e+001  -1.420875e+002 
3178125000  -3.871226e+001  -1.447329e+002 
3181250000  -3.808222e+001  -1.546200e+002 
3184375000  -3.783075e+001  -1.646541e+002 
3187500000  -3.931470e+001  1.797480e+002 
3190625000  -4.074008e+001  1.711987e+002 
3193750000  -4.111358e+001  1.760882e+002 
3196875000  -4.119389e+001  1.762279e+002 
3200000000  -3.978722e+001  1.713696e+002 
3203125000  -3.967771e+001  1.616119e+002 
3206250000  -3.979499e+001  1.532995e+002 
3209375000  -3.949355e+001  1.436136e+002 
3212500000  -3.991484e+001  1.374744e+002 
3215625000  -3.964429e+001  1.340020e+002 
3218750000  -4.042606e+001  1.226847e+002 
3221875000  -4.066649e+001  1.140836e+002 
3225000000  -4.051492e+001  1.092916e+002 
3228125000  -4.113702e+001  1.014799e+002 
3231250000  -4.136118e+001  9.781219e+001 
3234375000  -4.123668e+001  9.437960e+001 
3237500000  -4.098383e+001  9.148053e+001 
3240625000  -4.036353e+001  8.304212e+001 
3243750000  -4.045621e+001  7.306732e+001 
3246875000  -4.070948e+001  6.367117e+001 
3250000000  -4.123314e+001  5.936323e+001 
3253125000  -4.150727e+001  5.482067e+001 
3256250000  -4.054867e+001  4.619518e+001 
3259375000  -4.115792e+001  3.155606e+001 
3262500000  -4.254451e+001  2.727161e+001 
3265625000  -4.268111e+001  2.795993e+001 
3268750000  -4.261288e+001  2.786577e+001 
3271875000  -4.160835e+001  2.066297e+001 
3275000000  -4.122255e+001  1.120157e+001 
3278125000  -4.170718e+001  4.145403e+000 
3281250000  -4.183348e+001  1.039785e+000 
3284375000  -4.121474e+001  -7.581476e+000 
3287500000  -4.151307e+001  -1.570923e+001 
3290625000  -4.163416e+001  -2.558729e+001 
3293750000  -4.142580e+001  -3.331297e+001 
3296875000  -4.268829e+001  -3.650261e+001 
3300000000  -4.225428e+001  -3.953709e+001 
3303125000  -4.117460e+001  -4.971659e+001 
3306250000  -4.077341e+001  -5.920860e+001 
3309375000  -4.058617e+001  -6.932565e+001 
3312500000  -4.131984e+001  -8.508109e+001 
3315625000  -4.255034e+001  -9.321877e+001 
3318750000  -4.392181e+001  -1.017873e+002 
3321875000  -4.496671e+001  -9.784986e+001 
3325000000  -4.485197e+001  -9.607027e+001 
3328125000  -4.439429e+001  -9.877850e+001 
3331250000  -4.222280e+001  -9.729932e+001 
3334375000  -4.034226e+001  -1.174684e+002 
3337500000  -4.108331e+001  -1.399183e+002 
3340625000  -4.276094e+001  -1.513603e+002 
3343750000  -4.466008e+001  -1.526924e+002 
3346875000  -4.394670e+001  -1.562158e+002 
3350000000  -4.391763e+001  -1.601616e+002 
3353125000  -4.385314e+001  -1.714271e+002 
3356250000  -4.362742e+001  -1.796017e+002 
3359375000  -4.433453e+001  1.681990e+002 
3362500000  -4.516288e+001  1.592898e+002 
3365625000  -4.577202e+001  1.535673e+002 
3368750000  -4.678790e+001  1.454167e+002 
3371875000  -4.719674e+001  1.433233e+002 
3375000000  -4.857418e+001  1.350652e+002 
3378125000  -4.946175e+001  1.331804e+002 
3381250000  -5.086739e+001  1.411084e+002 
3384375000  -4.715777e+001  1.517423e+002 
3387500000  -4.496229e+001  1.308530e+002 
3390625000  -4.688601e+001  1.064579e+002 
3393750000  -4.815882e+001  1.068260e+002 
3396875000  -4.659384e+001  1.031869e+002 
3400000000  -4.601185e+001  8.714093e+001 
3403125000  -4.702087e+001  8.092529e+001 
3406250000  -4.762454e+001  6.724438e+001 
3409375000  -4.686182e+001  5.966001e+001 
3412500000  -4.750425e+001  5.540799e+001 
3415625000  -4.886640e+001  4.666296e+001 
3418750000  -4.912839e+001  4.707682e+001 
3421875000  -4.891581e+001  4.322871e+001 
3425000000  -4.793083e+001  3.530844e+001 
3428125000  -4.777222e+001  2.571457e+001 
3431250000  -4.675827e+001  1.644596e+001 
3434375000  -4.686216e+001  2.640662e+000 
3437500000  -4.727665e+001  -3.320432e+000 
3440625000  -4.771128e+001  -1.024433e+001 
3443750000  -4.673231e+001  -9.613365e+000 
3446875000  -4.570629e+001  -2.533758e+001 
3450000000  -4.538966e+001  -4.394563e+001 
3453125000  -4.560625e+001  -6.099080e+001 
3456250000  -4.727576e+001  -7.039438e+001 
3459375000  -4.782689e+001  -6.876824e+001 
3462500000  -4.800441e+001  -7.686629e+001 
3465625000  -4.703460e+001  -8.843018e+001 
3468750000  -4.735142e+001  -9.623864e+001 
3471875000  -4.700064e+001  -1.028370e+002 
3475000000  -4.672431e+001  -1.162364e+002 
3478125000  -4.775133e+001  -1.286077e+002 
3481250000  -4.936563e+001  -1.328133e+002 
3484375000  -4.853642e+001  -1.326167e+002 
3487500000  -4.736909e+001  -1.411813e+002 
3490625000  -4.705530e+001  -1.502676e+002 
3493750000  -4.781818e+001  -1.673796e+002 
3496875000  -4.812144e+001  -1.670284e+002 
3500000000  -4.842563e+001  -1.731373e+002 
3503125000  -4.733152e+001  -1.747887e+002 
3506250000  -4.594341e+001  1.720896e+002 
3509375000  -4.553846e+001  1.540180e+002 
3512500000  -4.621050e+001  1.397704e+002 
3515625000  -4.734209e+001  1.309545e+002 
3518750000  -4.746648e+001  1.311322e+002 
3521875000  -4.788581e+001  1.202966e+002 
3525000000  -4.884495e+001  1.133080e+002 
3528125000  -4.688295e+001  1.213275e+002 
3531250000  -4.625327e+001  1.050888e+002 
3534375000  -4.679354e+001  9.030479e+001 
3537500000  -4.762316e+001  7.997198e+001 
3540625000  -4.831214e+001  7.869801e+001 
3543750000  -4.888148e+001  7.657676e+001 
3546875000  -4.862408e+001  8.432383e+001 
3550000000  -4.649938e+001  7.579841e+001 
3553125000  -4.579758e+001  5.563751e+001 
3556250000  -4.688711e+001  4.959166e+001 
3559375000  -4.659095e+001  4.494387e+001 
3562500000  -4.627961e+001  3.353348e+001 
3565625000  -4.710620e+001  2.516111e+001 
3568750000  -4.787424e+001  2.619917e+001 
3571875000  -4.709526e+001  2.085075e+001 
3575000000  -4.673456e+001  1.169527e+001 
3578125000  -4.747740e+001  9.270775e+000 
3581250000  -4.770531e+001  4.513543e+000 
3584375000  -4.578408e+001  -1.871983e+000 
3587500000  -4.569193e+001  -1.205033e+001 
3590625000  -4.665079e+001  -2.309814e+001 
3593750000  -4.818320e+001  -2.548103e+001 
3596875000  -4.661901e+001  -2.258240e+001 
3600000000  -4.502052e+001  -3.172293e+001 
3603125000  -4.529656e+001  -4.789849e+001 
3606250000  -4.584033e+001  -5.173676e+001 
3609375000  -4.636468e+001  -5.277027e+001 
3612500000  -4.603011e+001  -6.253638e+001 
3615625000  -4.607415e+001  -6.721858e+001 
3618750000  -4.623857e+001  -6.838309e+001 
3621875000  -4.571610e+001  -7.688306e+001 
3625000000  -4.577351e+001  -8.063380e+001 
3628125000  -4.490358e+001  -8.565028e+001 
3631250000  -4.515416e+001  -9.604588e+001 
3634375000  -4.591040e+001  -9.841121e+001 
3637500000  -4.446236e+001  -9.945210e+001 
3640625000  -4.381557e+001  -1.071293e+002 
3643750000  -4.339046e+001  -1.174581e+002 
3646875000  -4.413835e+001  -1.263366e+002 
3650000000  -4.390494e+001  -1.317135e+002 
3653125000  -4.324239e+001  -1.402898e+002 
3656250000  -4.395042e+001  -1.467043e+002 
3659375000  -4.355693e+001  -1.508282e+002 
3662500000  -4.326718e+001  -1.587616e+002 
3665625000  -4.337081e+001  -1.621623e+002 
3668750000  -4.217124e+001  -1.651661e+002 
3671875000  -4.178561e+001  1.794590e+002 
3675000000  -4.218965e+001  1.677203e+002 
3678125000  -4.302533e+001  1.623119e+002 
3681250000  -4.258607e+001  1.586689e+002 
3684375000  -4.282311e+001  1.502635e+002 
3687500000  -4.295370e+001  1.402892e+002 
3690625000  -4.361980e+001  1.348162e+002 
3693750000  -4.450115e+001  1.328736e+002 
3696875000  -4.437997e+001  1.319841e+002 
3700000000  -4.315929e+001  1.212298e+002 
3703125000  -4.371923e+001  1.137915e+002 
3706250000  -4.469365e+001  1.133037e+002 
3709375000  -4.384377e+001  1.124600e+002 
3712500000  -4.283652e+001  1.073626e+002 
3715625000  -4.141216e+001  9.848077e+001 
3718750000  -4.184597e+001  8.778286e+001 
3721875000  -4.184940e+001  7.909843e+001 
3725000000  -4.230651e+001  7.118447e+001 
3728125000  -4.272094e+001  6.652576e+001 
3731250000  -4.189387e+001  6.177811e+001 
3734375000  -4.207863e+001  5.334729e+001 
3737500000  -4.296693e+001  4.292198e+001 
3740625000  -4.322231e+001  3.747988e+001 
3743750000  -4.299873e+001  3.195070e+001 
3746875000  -4.343578e+001  2.673315e+001 
3750000000  -4.370904e+001  2.265659e+001 
3753125000  -4.396786e+001  1.911191e+001 
3756250000  -4.395704e+001  1.742362e+001 
3759375000  -4.349656e+001  1.121186e+001 
3762500000  -4.334821e+001  4.868040e+000 
3765625000  -4.445643e+001  -2.657910e+000 
3768750000  -4.356186e+001  -2.249126e-001 
3771875000  -4.236216e+001  -8.196903e+000 
3775000000  -4.192947e+001  -1.695041e+001 
3778125000  -4.269865e+001  -2.256451e+001 
3781250000  -4.254375e+001  -2.749827e+001 
3784375000  -4.250857e+001  -3.427646e+001 
3787500000  -4.236403e+001  -3.806249e+001 
3790625000  -4.322966e+001  -4.881229e+001 
3793750000  -4.288904e+001  -5.346358e+001 
3796875000  -4.179866e+001  -5.707359e+001 
3800000000  -4.077155e+001  -6.533590e+001 
3803125000  -4.197328e+001  -7.667555e+001 
3806250000  -4.261003e+001  -8.214328e+001 
3809375000  -4.174310e+001  -8.697089e+001 
3812500000  -4.151921e+001  -9.760004e+001 
3815625000  -4.314356e+001  -1.083621e+002 
3818750000  -4.448795e+001  -1.070808e+002 
3821875000  -4.388339e+001  -9.579562e+001 
3825000000  -4.156491e+001  -1.017260e+002 
3828125000  -4.042367e+001  -1.256994e+002 
3831250000  -4.164100e+001  -1.382232e+002 
3834375000  -4.381026e+001  -1.374448e+002 
3837500000  -4.429069e+001  -1.353835e+002 
3840625000  -4.209677e+001  -1.410114e+002 
3843750000  -4.194760e+001  -1.568968e+002 
3846875000  -4.330830e+001  -1.663002e+002 
3850000000  -4.437558e+001  -1.560292e+002 
3853125000  -4.354996e+001  -1.590078e+002 
3856250000  -4.309730e+001  -1.686677e+002 
3859375000  -4.228860e+001  -1.775114e+002 
3862500000  -4.215621e+001  1.727863e+002 
3865625000  -4.241159e+001  1.670450e+002 
3868750000  -4.226302e+001  1.639064e+002 
3871875000  -4.191451e+001  1.524779e+002 
3875000000  -4.224448e+001  1.447427e+002 
3878125000  -4.341233e+001  1.423804e+002 
3881250000  -4.336223e+001  1.401538e+002 
3884375000  -4.246373e+001  1.281814e+002 
3887500000  -4.303722e+001  1.241972e+002 
3890625000  -4.422541e+001  1.202062e+002 
3893750000  -4.424759e+001  1.188982e+002 
3896875000  -4.421070e+001  1.132342e+002 
3900000000  -4.407537e+001  1.084326e+002 
3903125000  -4.368061e+001  1.071368e+002 
3906250000  -4.380579e+001  1.000940e+002 
3909375000  -4.289172e+001  8.812331e+001 
3912500000  -4.352467e+001  8.018169e+001 
3915625000  -4.519347e+001  7.975837e+001 
3918750000  -4.445232e+001  7.896896e+001 
3921875000  -4.376301e+001  7.323694e+001 
3925000000  -4.335360e+001  6.794775e+001 
3928125000  -4.293204e+001  5.773633e+001 
3931250000  -4.392887e+001  5.214890e+001 
3934375000  -4.430058e+001  4.994166e+001 
3937500000  -4.474757e+001  4.804169e+001 
3940625000  -4.449368e+001  4.491587e+001 
3943750000  -4.304350e+001  3.946244e+001 
3946875000  -4.287717e+001  3.140676e+001 
3950000000  -4.382253e+001  2.502872e+001 
3953125000  -4.450748e+001  2.193350e+001 
3956250000  -4.248626e+001  2.136002e+001 
3959375000  -4.197284e+001  1.479500e+001 
3962500000  -4.203323e+001  4.908611e+000 
3965625000  -4.180785e+001  -6.559882e+000 
3968750000  -4.265381e+001  -1.541365e+001 
3971875000  -4.260369e+001  -1.881010e+001 
3975000000  -4.186538e+001  -2.477170e+001 
3978125000  -4.220451e+001  -3.128590e+001 
3981250000  -4.185134e+001  -3.932690e+001 
3984375000  -4.261208e+001  -4.747499e+001 
3987500000  -4.319583e+001  -4.876160e+001 
3990625000  -4.311560e+001  -5.369490e+001 
3993750000  -4.305838e+001  -5.929311e+001 
3996875000  -4.296984e+001  -6.794785e+001 
4000000000  -4.359365e+001  -6.872141e+001 
4003125000  -4.407249e+001  -7.077784e+001 
4006250000  -4.196080e+001  -7.797012e+001 
4009375000  -4.116834e+001  -9.366769e+001 
4012500000  -4.304720e+001  -1.023603e+002 
4015625000  -4.403833e+001  -1.037366e+002 
4018750000  -4.405702e+001  -1.066541e+002 
4021875000  -4.302560e+001  -1.141669e+002 
4025000000  -4.298488e+001  -1.210114e+002 
4028125000  -4.348500e+001  -1.284416e+002 
4031250000  -4.440850e+001  -1.320590e+002 
4034375000  -4.420898e+001  -1.372877e+002 
4037500000  -4.436659e+001  -1.387853e+002 
4040625000  -4.440034e+001  -1.476683e+002 
4043750000  -4.477470e+001  -1.500728e+002 
4046875000  -4.448407e+001  -1.536516e+002 
4050000000  -4.471663e+001  -1.607831e+002 
4053125000  -4.567973e+001  -1.648529e+002 
4056250000  -4.633568e+001  -1.600771e+002 
4059375000  -4.403167e+001  -1.653646e+002 
4062500000  -4.361137e+001  -1.714850e+002 
4065625000  -4.403574e+001  -1.779491e+002 
4068750000  -4.356757e+001  1.719548e+002 
4071875000  -4.304540e+001  1.618472e+002 
4075000000  -4.399069e+001  1.534398e+002 
4078125000  -4.443631e+001  1.522885e+002 
4081250000  -4.333544e+001  1.471849e+002 
4084375000  -4.372665e+001  1.384952e+002 
4087500000  -4.434823e+001  1.306152e+002 
4090625000  -4.468892e+001  1.287701e+002 
4093750000  -4.461951e+001  1.261287e+002 
4096875000  -4.424680e+001  1.185237e+002 
4100000000  -4.554169e+001  1.136918e+002 
4103125000  -4.619550e+001  1.173561e+002 
4106250000  -4.540676e+001  1.176559e+002 
4109375000  -4.439626e+001  1.124591e+002 
4112500000  -4.481104e+001  1.028847e+002 
4115625000  -4.430878e+001  9.675939e+001 
4118750000  -4.431604e+001  9.363109e+001 
4121875000  -4.405864e+001  8.603243e+001 
4125000000  -4.463782e+001  7.908095e+001 
4128125000  -4.578032e+001  8.251254e+001 
4131250000  -4.442293e+001  8.709514e+001 
4134375000  -4.178315e+001  7.232058e+001 
4137500000  -4.252687e+001  5.106981e+001 
4140625000  -4.448340e+001  4.383810e+001 
4143750000  -4.520347e+001  5.117317e+001 
4146875000  -4.375655e+001  5.201517e+001 
4150000000  -4.292157e+001  3.958944e+001 
4153125000  -4.376316e+001  3.021151e+001 
4156250000  -4.444512e+001  2.802519e+001 
4159375000  -4.403146e+001  3.108937e+001 
4162500000  -4.253167e+001  2.837531e+001 
4165625000  -4.205889e+001  1.899540e+001 
4168750000  -4.182644e+001  6.906871e+000 
4171875000  -4.149804e+001  -6.318761e+000 
4175000000  -4.229174e+001  -1.291882e+001 
4178125000  -4.270635e+001  -1.584740e+001 
4181250000  -4.247023e+001  -2.214759e+001 
4184375000  -4.286707e+001  -2.800930e+001 
4187500000  -4.281369e+001  -3.509039e+001 
4190625000  -4.297429e+001  -4.389743e+001 
4193750000  -4.413148e+001  -4.854732e+001 
4196875000  -4.537621e+001  -5.172607e+001 
4200000000  -4.630700e+001  -4.030339e+001 
4203125000  -4.471575e+001  -3.439180e+001 
4206250000  -4.128268e+001  -4.497057e+001 
4209375000  -4.189533e+001  -7.161008e+001 
4212500000  -4.407689e+001  -7.640414e+001 
4215625000  -4.428643e+001  -7.114103e+001 
4218750000  -4.294739e+001  -7.045513e+001 
4221875000  -4.163959e+001  -8.231801e+001 
4225000000  -4.242222e+001  -9.360835e+001 
4228125000  -4.258129e+001  -9.180398e+001 
4231250000  -4.141880e+001  -1.026510e+002 
4234375000  -4.153928e+001  -1.102296e+002 
4237500000  -4.148917e+001  -1.178071e+002 
4240625000  -4.155004e+001  -1.284452e+002 
4243750000  -4.242278e+001  -1.373793e+002 
4246875000  -4.316273e+001  -1.356690e+002 
4250000000  -4.293505e+001  -1.386075e+002 
4253125000  -4.249061e+001  -1.407993e+002 
4256250000  -4.247467e+001  -1.447635e+002 
4259375000  -4.229640e+001  -1.515677e+002 
4262500000  -4.274285e+001  -1.583471e+002 
4265625000  -4.256846e+001  -1.605309e+002 
4268750000  -4.125632e+001  -1.663225e+002 
4271875000  -4.127161e+001  -1.785909e+002 
4275000000  -4.059593e+001  1.726939e+002 
4278125000  -4.172095e+001  1.613595e+002 
4281250000  -4.263511e+001  1.583126e+002 
4284375000  -4.255786e+001  1.579585e+002 
4287500000  -4.414501e+001  1.501835e+002 
4290625000  -4.416470e+001  1.598766e+002 
4293750000  -4.184344e+001  1.562945e+002 
4296875000  -4.067877e+001  1.431645e+002 
4300000000  -4.200065e+001  1.330131e+002 
4303125000  -4.228019e+001  1.341993e+002 
4306250000  -4.105929e+001  1.318670e+002 
4309375000  -4.010996e+001  1.232527e+002 
4312500000  -4.004025e+001  1.110912e+002 
4315625000  -4.069769e+001  1.019105e+002 
4318750000  -4.143510e+001  9.580991e+001 
4321875000  -4.110405e+001  9.429332e+001 
4325000000  -4.050996e+001  8.797804e+001 
4328125000  -3.992375e+001  8.134222e+001 
4331250000  -4.025084e+001  6.561689e+001 
4334375000  -4.108826e+001  5.972016e+001 
4337500000  -4.242735e+001  5.693249e+001 
4340625000  -4.260300e+001  5.995599e+001 
4343750000  -4.159586e+001  5.274367e+001 
4346875000  -4.156195e+001  4.423650e+001 
4350000000  -4.182051e+001  3.518132e+001 
4353125000  -4.301022e+001  2.676359e+001 
4356250000  -4.444693e+001  3.109480e+001 
4359375000  -4.336123e+001  4.333234e+001 
4362500000  -3.994337e+001  3.489179e+001 
4365625000  -3.980199e+001  1.548969e+001 
4368750000  -4.105286e+001  4.573173e+000 
4371875000  -4.188685e+001  7.759001e-002 
4375000000  -4.103591e+001  -2.786658e+000 
4378125000  -4.091269e+001  -1.320381e+001 
4381250000  -4.115634e+001  -1.900132e+001 
4384375000  -4.143050e+001  -2.537152e+001 
4387500000  -4.227423e+001  -3.456372e+001 
4390625000  -4.250343e+001  -3.504139e+001 
4393750000  -4.229105e+001  -3.657420e+001 
4396875000  -4.174499e+001  -4.246511e+001 
4400000000  -4.138760e+001  -5.057387e+001 
4403125000  -4.208041e+001  -6.115825e+001 
4406250000  -4.290505e+001  -6.490144e+001 
4409375000  -4.322342e+001  -7.203160e+001 
4412500000  -4.384452e+001  -7.278548e+001 
4415625000  -4.365948e+001  -7.014094e+001 
4418750000  -4.237410e+001  -7.062540e+001 
