!Agilent Technologies,E8363B,MY43030201,A.06.04.32
!Agilent E8363B: A.06.04.32
!Date: Tuesday, November 11, 2014 21:51:59
!Correction: S21(Response(S21)) 
!S1P File: Measurement: S21:
# Hz S  dB   R 50
3000000000  -4.366203e+001  -1.621878e+002 
3003125000  -4.550556e+001  -1.686253e+002 
3006250000  -4.534598e+001  -1.702230e+002 
3009375000  -4.609994e+001  -1.643152e+002 
3012500000  -4.481497e+001  -1.722212e+002 
3015625000  -4.523335e+001  -1.793635e+002 
3018750000  -4.547089e+001  1.791701e+002 
3021875000  -4.386989e+001  -1.797740e+002 
3025000000  -4.279622e+001  1.765566e+002 
3028125000  -4.160465e+001  1.627855e+002 
3031250000  -4.093622e+001  1.506962e+002 
3034375000  -4.074786e+001  1.355344e+002 
3037500000  -4.166754e+001  1.242875e+002 
3040625000  -4.291016e+001  1.187863e+002 
3043750000  -4.341234e+001  1.109795e+002 
3046875000  -4.406038e+001  1.052019e+002 
3050000000  -4.528270e+001  9.993732e+001 
3053125000  -4.479871e+001  1.049647e+002 
3056250000  -4.473485e+001  1.078793e+002 
3059375000  -4.382022e+001  1.047649e+002 
3062500000  -4.249014e+001  1.004214e+002 
3065625000  -4.206481e+001  8.753763e+001 
3068750000  -4.166362e+001  8.023550e+001 
3071875000  -4.182901e+001  7.777721e+001 
3075000000  -4.156470e+001  6.978994e+001 
3078125000  -4.139585e+001  6.173136e+001 
3081250000  -4.142535e+001  5.546260e+001 
3084375000  -4.059258e+001  4.977238e+001 
3087500000  -4.053931e+001  4.264893e+001 
3090625000  -4.009829e+001  2.948138e+001 
3093750000  -4.135784e+001  2.095184e+001 
3096875000  -4.122109e+001  1.485791e+001 
3100000000  -4.125232e+001  9.125188e+000 
3103125000  -4.131602e+001  5.113794e+000 
3106250000  -4.100503e+001  -1.710453e-001 
3109375000  -4.097949e+001  -5.501757e+000 
3112500000  -4.097518e+001  -1.245780e+001 
3115625000  -4.095506e+001  -1.701979e+001 
3118750000  -4.076888e+001  -2.179210e+001 
3121875000  -4.023032e+001  -3.359060e+001 
3125000000  -4.205578e+001  -3.806956e+001 
3128125000  -4.192660e+001  -3.229100e+001 
3131250000  -3.941022e+001  -4.008152e+001 
3134375000  -3.889694e+001  -5.701153e+001 
3137500000  -3.939842e+001  -7.094752e+001 
3140625000  -4.108324e+001  -7.564314e+001 
3143750000  -4.139669e+001  -7.837690e+001 
3146875000  -4.096624e+001  -7.808254e+001 
3150000000  -4.038675e+001  -8.318020e+001 
3153125000  -4.058760e+001  -9.383156e+001 
3156250000  -4.148301e+001  -8.977989e+001 
3159375000  -3.905647e+001  -9.294199e+001 
3162500000  -3.766969e+001  -1.091771e+002 
3165625000  -3.914054e+001  -1.237745e+002 
3168750000  -3.897480e+001  -1.249110e+002 
3171875000  -3.852990e+001  -1.338601e+002 
3175000000  -3.895877e+001  -1.440873e+002 
3178125000  -3.859848e+001  -1.461377e+002 
3181250000  -3.818873e+001  -1.556471e+002 
3184375000  -3.777924e+001  -1.676136e+002 
3187500000  -3.935784e+001  1.765157e+002 
3190625000  -4.084232e+001  1.696393e+002 
3193750000  -4.103773e+001  1.735638e+002 
3196875000  -4.113488e+001  1.724183e+002 
3200000000  -3.989391e+001  1.674122e+002 
3203125000  -3.960548e+001  1.588011e+002 
3206250000  -3.967746e+001  1.511265e+002 
3209375000  -3.940339e+001  1.408547e+002 
3212500000  -4.001508e+001  1.347207e+002 
3215625000  -3.962249e+001  1.323229e+002 
3218750000  -4.017966e+001  1.185416e+002 
3221875000  -4.030811e+001  1.127486e+002 
3225000000  -4.034510e+001  1.068432e+002 
3228125000  -4.098929e+001  9.918748e+001 
3231250000  -4.141283e+001  9.683890e+001 
3234375000  -4.103012e+001  9.246564e+001 
3237500000  -4.088961e+001  8.968230e+001 
3240625000  -4.035128e+001  8.133535e+001 
3243750000  -4.039401e+001  7.059156e+001 
3246875000  -4.067939e+001  6.163010e+001 
3250000000  -4.113230e+001  5.742769e+001 
3253125000  -4.109403e+001  5.333192e+001 
3256250000  -4.028950e+001  4.212164e+001 
3259375000  -4.100270e+001  2.926631e+001 
3262500000  -4.235162e+001  2.543880e+001 
3265625000  -4.255648e+001  2.807377e+001 
3268750000  -4.249455e+001  2.532957e+001 
3271875000  -4.157418e+001  1.957714e+001 
3275000000  -4.109284e+001  9.335198e+000 
3278125000  -4.166246e+001  2.514275e+000 
3281250000  -4.199036e+001  -1.941799e+000 
3284375000  -4.096834e+001  -1.047080e+001 
3287500000  -4.152983e+001  -1.803040e+001 
3290625000  -4.166454e+001  -2.918981e+001 
3293750000  -4.165334e+001  -3.346066e+001 
3296875000  -4.266602e+001  -4.008621e+001 
3300000000  -4.194646e+001  -4.070343e+001 
3303125000  -4.090077e+001  -5.069315e+001 
3306250000  -4.102270e+001  -6.150239e+001 
3309375000  -4.066108e+001  -7.130736e+001 
3312500000  -4.134365e+001  -8.743754e+001 
3315625000  -4.225878e+001  -9.594653e+001 
3318750000  -4.347776e+001  -1.019857e+002 
3321875000  -4.526643e+001  -9.979153e+001 
3325000000  -4.502618e+001  -9.599529e+001 
3328125000  -4.395516e+001  -9.779567e+001 
3331250000  -4.229924e+001  -9.988188e+001 
3334375000  -4.023252e+001  -1.182360e+002 
3337500000  -4.072861e+001  -1.427339e+002 
3340625000  -4.260802e+001  -1.517152e+002 
3343750000  -4.482859e+001  -1.527128e+002 
3346875000  -4.405472e+001  -1.578795e+002 
3350000000  -4.346688e+001  -1.616536e+002 
3353125000  -4.332210e+001  -1.709298e+002 
3356250000  -4.335062e+001  1.783929e+002 
3359375000  -4.425772e+001  1.627657e+002 
3362500000  -4.521539e+001  1.572178e+002 
3365625000  -4.570802e+001  1.533122e+002 
3368750000  -4.633992e+001  1.466814e+002 
3371875000  -4.692418e+001  1.388369e+002 
3375000000  -4.856754e+001  1.300404e+002 
3378125000  -4.929358e+001  1.295862e+002 
3381250000  -4.971983e+001  1.423984e+002 
3384375000  -4.765472e+001  1.541729e+002 
3387500000  -4.435534e+001  1.298135e+002 
3390625000  -4.649525e+001  1.069447e+002 
3393750000  -4.743764e+001  1.028017e+002 
3396875000  -4.660586e+001  1.005860e+002 
3400000000  -4.620586e+001  8.371239e+001 
3403125000  -4.657774e+001  7.696388e+001 
3406250000  -4.719328e+001  6.980540e+001 
3409375000  -4.736312e+001  6.155361e+001 
3412500000  -4.777214e+001  5.195127e+001 
3415625000  -4.868172e+001  4.903176e+001 
3418750000  -4.839816e+001  4.278305e+001 
3421875000  -4.895716e+001  4.234034e+001 
3425000000  -4.771482e+001  3.420761e+001 
3428125000  -4.673819e+001  2.750630e+001 
3431250000  -4.666673e+001  1.449296e+001 
3434375000  -4.699751e+001  2.923201e+000 
3437500000  -4.733249e+001  -6.915106e+000 
3440625000  -4.822733e+001  -1.207754e+001 
3443750000  -4.646815e+001  -1.400293e+001 
3446875000  -4.564837e+001  -2.816071e+001 
3450000000  -4.510657e+001  -4.470541e+001 
3453125000  -4.567239e+001  -5.958997e+001 
3456250000  -4.715151e+001  -7.085863e+001 
3459375000  -4.819007e+001  -7.152162e+001 
3462500000  -4.804980e+001  -7.754504e+001 
3465625000  -4.743858e+001  -8.878993e+001 
3468750000  -4.765934e+001  -9.934970e+001 
3471875000  -4.716714e+001  -1.057872e+002 
3475000000  -4.712553e+001  -1.175114e+002 
3478125000  -4.751329e+001  -1.316436e+002 
3481250000  -4.947020e+001  -1.378727e+002 
3484375000  -4.833764e+001  -1.352659e+002 
3487500000  -4.751606e+001  -1.443923e+002 
3490625000  -4.715045e+001  -1.535809e+002 
3493750000  -4.820826e+001  -1.665486e+002 
3496875000  -4.837786e+001  -1.698485e+002 
3500000000  -4.812872e+001  -1.779161e+002 
3503125000  -4.741459e+001  -1.744002e+002 
3506250000  -4.551454e+001  1.689831e+002 
3509375000  -4.572465e+001  1.516928e+002 
3512500000  -4.636218e+001  1.364964e+002 
3515625000  -4.748512e+001  1.311085e+002 
3518750000  -4.795003e+001  1.289027e+002 
3521875000  -4.810950e+001  1.131088e+002 
3525000000  -4.824769e+001  1.094693e+002 
3528125000  -4.705036e+001  1.148543e+002 
3531250000  -4.657304e+001  1.022521e+002 
3534375000  -4.689801e+001  8.743166e+001 
3537500000  -4.764715e+001  7.799160e+001 
3540625000  -4.921849e+001  7.525427e+001 
3543750000  -4.966715e+001  7.871353e+001 
3546875000  -4.877915e+001  7.924853e+001 
3550000000  -4.663836e+001  7.017097e+001 
3553125000  -4.649823e+001  5.708168e+001 
3556250000  -4.758399e+001  4.738476e+001 
3559375000  -4.649055e+001  4.230902e+001 
3562500000  -4.633865e+001  3.070046e+001 
3565625000  -4.769462e+001  2.464590e+001 
3568750000  -4.734574e+001  2.325356e+001 
3571875000  -4.723782e+001  1.603102e+001 
3575000000  -4.724113e+001  9.414797e+000 
3578125000  -4.755004e+001  5.310937e+000 
3581250000  -4.769998e+001  3.843241e+000 
3584375000  -4.615413e+001  -2.415028e+000 
3587500000  -4.565318e+001  -1.701387e+001 
3590625000  -4.684284e+001  -2.739274e+001 
3593750000  -4.798460e+001  -2.674424e+001 
3596875000  -4.651966e+001  -1.923266e+001 
3600000000  -4.510321e+001  -3.593829e+001 
3603125000  -4.547496e+001  -5.043801e+001 
3606250000  -4.573920e+001  -5.526524e+001 
3609375000  -4.553055e+001  -5.664827e+001 
3612500000  -4.611447e+001  -6.523241e+001 
3615625000  -4.618635e+001  -7.080553e+001 
3618750000  -4.577145e+001  -7.266904e+001 
3621875000  -4.560241e+001  -7.924757e+001 
3625000000  -4.610480e+001  -8.183464e+001 
3628125000  -4.468114e+001  -8.812865e+001 
3631250000  -4.528325e+001  -9.852602e+001 
3634375000  -4.582215e+001  -9.819431e+001 
3637500000  -4.465025e+001  -1.005818e+002 
3640625000  -4.380764e+001  -1.076444e+002 
3643750000  -4.336810e+001  -1.198075e+002 
3646875000  -4.384483e+001  -1.324399e+002 
3650000000  -4.366742e+001  -1.351404e+002 
3653125000  -4.321766e+001  -1.428581e+002 
3656250000  -4.407459e+001  -1.509795e+002 
3659375000  -4.391400e+001  -1.552098e+002 
3662500000  -4.361570e+001  -1.644006e+002 
3665625000  -4.337376e+001  -1.661488e+002 
3668750000  -4.187277e+001  -1.709705e+002 
3671875000  -4.159619e+001  1.753911e+002 
3675000000  -4.214128e+001  1.662604e+002 
3678125000  -4.269456e+001  1.617283e+002 
3681250000  -4.244923e+001  1.541888e+002 
3684375000  -4.248266e+001  1.464180e+002 
3687500000  -4.279753e+001  1.372999e+002 
3690625000  -4.348124e+001  1.339368e+002 
3693750000  -4.424691e+001  1.298218e+002 
3696875000  -4.415005e+001  1.295451e+002 
3700000000  -4.305883e+001  1.214400e+002 
3703125000  -4.385924e+001  1.125003e+002 
3706250000  -4.452686e+001  1.092062e+002 
3709375000  -4.368845e+001  1.092534e+002 
3712500000  -4.278610e+001  1.034023e+002 
3715625000  -4.176484e+001  9.219149e+001 
3718750000  -4.136039e+001  8.371032e+001 
3721875000  -4.180593e+001  7.424339e+001 
3725000000  -4.244171e+001  6.683497e+001 
3728125000  -4.244684e+001  6.417973e+001 
3731250000  -4.219120e+001  5.753704e+001 
3734375000  -4.184940e+001  4.960125e+001 
3737500000  -4.266140e+001  4.183925e+001 
3740625000  -4.290818e+001  3.529095e+001 
3743750000  -4.288836e+001  2.994367e+001 
3746875000  -4.324352e+001  2.409401e+001 
3750000000  -4.381556e+001  1.957949e+001 
3753125000  -4.382174e+001  1.331069e+001 
3756250000  -4.379496e+001  1.120762e+001 
3759375000  -4.362425e+001  7.594132e+000 
3762500000  -4.349667e+001  2.128053e+000 
3765625000  -4.427205e+001  -3.779990e+000 
3768750000  -4.347854e+001  -2.000927e+000 
3771875000  -4.184719e+001  -1.083502e+001 
3775000000  -4.211824e+001  -2.202050e+001 
3778125000  -4.278825e+001  -2.629732e+001 
3781250000  -4.249196e+001  -3.223138e+001 
3784375000  -4.236134e+001  -3.969767e+001 
3787500000  -4.241317e+001  -4.484789e+001 
3790625000  -4.281625e+001  -5.444630e+001 
3793750000  -4.248889e+001  -5.901178e+001 
3796875000  -4.170942e+001  -6.218233e+001 
3800000000  -4.077035e+001  -6.852672e+001 
3803125000  -4.167435e+001  -7.950198e+001 
3806250000  -4.244091e+001  -8.352221e+001 
3809375000  -4.193656e+001  -9.103839e+001 
3812500000  -4.182345e+001  -1.023169e+002 
3815625000  -4.299786e+001  -1.141398e+002 
3818750000  -4.420513e+001  -1.110337e+002 
3821875000  -4.321649e+001  -1.008010e+002 
3825000000  -4.124187e+001  -1.071842e+002 
3828125000  -4.036578e+001  -1.272854e+002 
3831250000  -4.129488e+001  -1.436536e+002 
3834375000  -4.353917e+001  -1.432587e+002 
3837500000  -4.423487e+001  -1.407774e+002 
3840625000  -4.277641e+001  -1.449417e+002 
3843750000  -4.159452e+001  -1.613008e+002 
3846875000  -4.332266e+001  -1.692464e+002 
3850000000  -4.390990e+001  -1.606316e+002 
3853125000  -4.350806e+001  -1.647392e+002 
3856250000  -4.260948e+001  -1.735078e+002 
3859375000  -4.212629e+001  1.786013e+002 
3862500000  -4.189715e+001  1.670638e+002 
3865625000  -4.249995e+001  1.597219e+002 
3868750000  -4.214919e+001  1.602013e+002 
3871875000  -4.171520e+001  1.480777e+002 
3875000000  -4.252732e+001  1.404557e+002 
3878125000  -4.291804e+001  1.396495e+002 
3881250000  -4.317612e+001  1.369331e+002 
3884375000  -4.257444e+001  1.253063e+002 
3887500000  -4.292701e+001  1.193167e+002 
3890625000  -4.390185e+001  1.138839e+002 
3893750000  -4.364635e+001  1.131519e+002 
3896875000  -4.406005e+001  1.075963e+002 
3900000000  -4.433612e+001  1.059007e+002 
3903125000  -4.399229e+001  9.870093e+001 
3906250000  -4.302766e+001  9.611391e+001 
3909375000  -4.235691e+001  8.667706e+001 
3912500000  -4.400333e+001  7.584689e+001 
3915625000  -4.459884e+001  7.819753e+001 
3918750000  -4.469963e+001  7.668491e+001 
3921875000  -4.359038e+001  7.170163e+001 
3925000000  -4.291708e+001  6.512402e+001 
3928125000  -4.305663e+001  5.534821e+001 
3931250000  -4.377533e+001  4.574662e+001 
3934375000  -4.385617e+001  4.477932e+001 
3937500000  -4.418251e+001  4.381776e+001 
3940625000  -4.440112e+001  4.015311e+001 
3943750000  -4.307378e+001  3.542432e+001 
3946875000  -4.279764e+001  2.433665e+001 
3950000000  -4.359326e+001  1.597841e+001 
3953125000  -4.413462e+001  1.988322e+001 
3956250000  -4.299424e+001  1.822085e+001 
3959375000  -4.170424e+001  1.268134e+001 
3962500000  -4.144056e+001  8.421174e-001 
3965625000  -4.175022e+001  -1.032696e+001 
3968750000  -4.230597e+001  -1.849027e+001 
3971875000  -4.272622e+001  -2.407503e+001 
3975000000  -4.220432e+001  -2.838320e+001 
3978125000  -4.185584e+001  -3.298142e+001 
3981250000  -4.152851e+001  -4.148172e+001 
3984375000  -4.214821e+001  -4.857604e+001 
3987500000  -4.289174e+001  -5.372961e+001 
3990625000  -4.324391e+001  -5.786353e+001 
3993750000  -4.278349e+001  -6.319434e+001 
3996875000  -4.282067e+001  -7.073333e+001 
4000000000  -4.384083e+001  -7.384146e+001 
4003125000  -4.403439e+001  -7.744019e+001 
4006250000  -4.181296e+001  -8.069999e+001 
4009375000  -4.128691e+001  -9.823543e+001 
4012500000  -4.301875e+001  -1.041412e+002 
4015625000  -4.408136e+001  -1.053276e+002 
4018750000  -4.372759e+001  -1.063020e+002 
4021875000  -4.294127e+001  -1.153136e+002 
4025000000  -4.317850e+001  -1.233133e+002 
4028125000  -4.312428e+001  -1.296300e+002 
4031250000  -4.394038e+001  -1.380735e+002 
4034375000  -4.408659e+001  -1.422800e+002 
4037500000  -4.409589e+001  -1.424821e+002 
4040625000  -4.374514e+001  -1.491177e+002 
4043750000  -4.469873e+001  -1.546275e+002 
4046875000  -4.425083e+001  -1.599512e+002 
4050000000  -4.398724e+001  -1.683678e+002 
4053125000  -4.543576e+001  -1.688112e+002 
4056250000  -4.608107e+001  -1.669435e+002 
4059375000  -4.375507e+001  -1.677365e+002 
4062500000  -4.328775e+001  -1.750817e+002 
4065625000  -4.375224e+001  1.780264e+002 
4068750000  -4.299720e+001  1.711715e+002 
4071875000  -4.237932e+001  1.597399e+002 
4075000000  -4.324777e+001  1.514161e+002 
4078125000  -4.411998e+001  1.492560e+002 
4081250000  -4.319762e+001  1.433204e+002 
4084375000  -4.307524e+001  1.335044e+002 
4087500000  -4.396600e+001  1.284822e+002 
4090625000  -4.482234e+001  1.262464e+002 
4093750000  -4.439442e+001  1.239459e+002 
4096875000  -4.395556e+001  1.141775e+002 
4100000000  -4.521604e+001  1.087221e+002 
4103125000  -4.579553e+001  1.117205e+002 
4106250000  -4.493907e+001  1.132589e+002 
4109375000  -4.424987e+001  1.081581e+002 
4112500000  -4.365455e+001  9.844751e+001 
4115625000  -4.396870e+001  9.136832e+001 
4118750000  -4.366410e+001  8.830991e+001 
4121875000  -4.397007e+001  7.923549e+001 
4125000000  -4.470569e+001  7.240449e+001 
4128125000  -4.515003e+001  7.662685e+001 
4131250000  -4.381973e+001  8.020743e+001 
4134375000  -4.154800e+001  6.690102e+001 
4137500000  -4.199698e+001  4.770502e+001 
4140625000  -4.374732e+001  3.896388e+001 
4143750000  -4.463420e+001  4.487209e+001 
4146875000  -4.394495e+001  4.525515e+001 
4150000000  -4.249489e+001  3.946554e+001 
4153125000  -4.315210e+001  2.737506e+001 
4156250000  -4.390293e+001  2.443819e+001 
4159375000  -4.387393e+001  2.602507e+001 
4162500000  -4.195729e+001  2.375832e+001 
4165625000  -4.157001e+001  1.435962e+001 
4168750000  -4.106047e+001  4.231527e+000 
4171875000  -4.114072e+001  -9.268514e+000 
4175000000  -4.183610e+001  -1.714412e+001 
4178125000  -4.202827e+001  -2.000932e+001 
4181250000  -4.188563e+001  -2.762206e+001 
4184375000  -4.262352e+001  -3.391049e+001 
4187500000  -4.246489e+001  -3.910532e+001 
4190625000  -4.251876e+001  -4.834927e+001 
4193750000  -4.380519e+001  -5.606952e+001 
4196875000  -4.507367e+001  -5.581652e+001 
4200000000  -4.648822e+001  -5.155331e+001 
4203125000  -4.435437e+001  -4.078595e+001 
4206250000  -4.124953e+001  -5.224016e+001 
4209375000  -4.116051e+001  -7.694874e+001 
4212500000  -4.392295e+001  -8.048321e+001 
4215625000  -4.389702e+001  -7.700282e+001 
4218750000  -4.205565e+001  -7.391293e+001 
4221875000  -4.080197e+001  -8.394544e+001 
4225000000  -4.258607e+001  -9.756604e+001 
4228125000  -4.220777e+001  -9.779359e+001 
4231250000  -4.080849e+001  -1.082197e+002 
4234375000  -4.088517e+001  -1.154232e+002 
4237500000  -4.037457e+001  -1.237545e+002 
4240625000  -4.130967e+001  -1.319665e+002 
4243750000  -4.252569e+001  -1.430612e+002 
4246875000  -4.304640e+001  -1.406157e+002 
4250000000  -4.244020e+001  -1.428316e+002 
4253125000  -4.236021e+001  -1.464246e+002 
4256250000  -4.252427e+001  -1.517181e+002 
4259375000  -4.207630e+001  -1.597170e+002 
4262500000  -4.221019e+001  -1.626756e+002 
4265625000  -4.213888e+001  -1.633095e+002 
4268750000  -4.066894e+001  -1.720873e+002 
4271875000  -4.055494e+001  1.787818e+002 
4275000000  -4.040525e+001  1.687992e+002 
4278125000  -4.136042e+001  1.555697e+002 
4281250000  -4.268810e+001  1.544273e+002 
4284375000  -4.196024e+001  1.496165e+002 
4287500000  -4.355019e+001  1.476212e+002 
4290625000  -4.396786e+001  1.525111e+002 
4293750000  -4.137820e+001  1.531131e+002 
4296875000  -4.018687e+001  1.380130e+002 
4300000000  -4.131877e+001  1.273525e+002 
4303125000  -4.207692e+001  1.280993e+002 
4306250000  -4.060997e+001  1.275820e+002 
4309375000  -3.969539e+001  1.176596e+002 
4312500000  -3.981157e+001  1.064372e+002 
4315625000  -3.999205e+001  9.597575e+001 
4318750000  -4.064813e+001  9.173090e+001 
4321875000  -4.067517e+001  8.713872e+001 
4325000000  -4.012666e+001  8.436494e+001 
4328125000  -3.927884e+001  7.253513e+001 
4331250000  -3.976049e+001  6.270534e+001 
4334375000  -4.093690e+001  5.149961e+001 
4337500000  -4.171479e+001  5.278613e+001 
4340625000  -4.187967e+001  5.230642e+001 
4343750000  -4.116891e+001  4.885099e+001 
4346875000  -4.101661e+001  3.927213e+001 
4350000000  -4.115023e+001  2.905237e+001 
4353125000  -4.178319e+001  2.265116e+001 
4356250000  -4.412846e+001  2.845892e+001 
4359375000  -4.262090e+001  3.544901e+001 
4362500000  -3.932164e+001  2.771168e+001 
4365625000  -3.906153e+001  9.374459e+000 
4368750000  -4.012284e+001  -5.980822e-001 
4371875000  -4.123447e+001  -3.398957e+000 
4375000000  -4.040866e+001  -1.115353e+001 
4378125000  -4.023672e+001  -1.731461e+001 
4381250000  -4.083333e+001  -2.618844e+001 
4384375000  -4.074689e+001  -3.287163e+001 
4387500000  -4.155605e+001  -3.999970e+001 
4390625000  -4.202441e+001  -4.339791e+001 
4393750000  -4.169310e+001  -4.073484e+001 
4396875000  -4.105953e+001  -4.701787e+001 
4400000000  -4.087906e+001  -5.692682e+001 
4403125000  -4.159027e+001  -6.777153e+001 
4406250000  -4.214214e+001  -7.362450e+001 
4409375000  -4.259479e+001  -7.778286e+001 
4412500000  -4.333893e+001  -7.979825e+001 
4415625000  -4.291555e+001  -7.515160e+001 
4418750000  -4.159774e+001  -7.649734e+001 
