!Agilent Technologies,E8363B,MY43030201,A.06.04.32
!Agilent E8363B: A.06.04.32
!Date: Tuesday, November 11, 2014 21:45:32
!Correction: S21(Response(S21)) 
!S1P File: Measurement: S21:
# Hz S  dB   R 50
3000000000  -4.358614e+001  -1.602239e+002 
3003125000  -4.501075e+001  -1.665413e+002 
3006250000  -4.495583e+001  -1.678860e+002 
3009375000  -4.611901e+001  -1.642024e+002 
3012500000  -4.486556e+001  -1.712181e+002 
3015625000  -4.497589e+001  -1.772065e+002 
3018750000  -4.516693e+001  -1.781707e+002 
3021875000  -4.378046e+001  -1.773844e+002 
3025000000  -4.261150e+001  1.776249e+002 
3028125000  -4.190947e+001  1.653871e+002 
3031250000  -4.097314e+001  1.530079e+002 
3034375000  -4.087007e+001  1.385744e+002 
3037500000  -4.182026e+001  1.273901e+002 
3040625000  -4.277779e+001  1.228519e+002 
3043750000  -4.354512e+001  1.153366e+002 
3046875000  -4.388268e+001  1.057699e+002 
3050000000  -4.524845e+001  1.012824e+002 
3053125000  -4.502289e+001  1.054417e+002 
3056250000  -4.482158e+001  1.097337e+002 
3059375000  -4.390770e+001  1.058367e+002 
3062500000  -4.269812e+001  9.937514e+001 
3065625000  -4.223159e+001  8.998043e+001 
3068750000  -4.198106e+001  8.282782e+001 
3071875000  -4.176754e+001  7.829654e+001 
3075000000  -4.124961e+001  7.203496e+001 
3078125000  -4.133150e+001  6.404483e+001 
3081250000  -4.116937e+001  5.823080e+001 
3084375000  -4.033751e+001  5.181483e+001 
3087500000  -4.070170e+001  4.424936e+001 
3090625000  -3.991386e+001  3.141331e+001 
3093750000  -4.110846e+001  2.151903e+001 
3096875000  -4.127875e+001  1.641509e+001 
3100000000  -4.104983e+001  1.231634e+001 
3103125000  -4.148027e+001  8.154086e+000 
3106250000  -4.089610e+001  2.619780e+000 
3109375000  -4.106289e+001  -2.210134e+000 
3112500000  -4.074694e+001  -1.144888e+001 
3115625000  -4.071132e+001  -1.467089e+001 
3118750000  -4.078794e+001  -1.969866e+001 
3121875000  -4.024899e+001  -3.283308e+001 
3125000000  -4.226742e+001  -3.620440e+001 
3128125000  -4.193179e+001  -3.085809e+001 
3131250000  -3.953307e+001  -3.894623e+001 
3134375000  -3.894021e+001  -5.626576e+001 
3137500000  -3.963237e+001  -6.892065e+001 
3140625000  -4.094542e+001  -7.292980e+001 
3143750000  -4.169100e+001  -7.768884e+001 
3146875000  -4.095272e+001  -7.671445e+001 
3150000000  -4.048542e+001  -8.184409e+001 
3153125000  -4.089314e+001  -9.104111e+001 
3156250000  -4.153361e+001  -8.752346e+001 
3159375000  -3.923891e+001  -9.180801e+001 
3162500000  -3.775232e+001  -1.076405e+002 
3165625000  -3.900734e+001  -1.230528e+002 
3168750000  -3.911216e+001  -1.241356e+002 
3171875000  -3.860773e+001  -1.334546e+002 
3175000000  -3.900639e+001  -1.435186e+002 
3178125000  -3.872351e+001  -1.446809e+002 
3181250000  -3.808677e+001  -1.542990e+002 
3184375000  -3.780465e+001  -1.655352e+002 
3187500000  -3.932263e+001  1.778624e+002 
3190625000  -4.088674e+001  1.714671e+002 
3193750000  -4.118647e+001  1.746759e+002 
3196875000  -4.096858e+001  1.746907e+002 
3200000000  -3.988350e+001  1.689989e+002 
3203125000  -3.964412e+001  1.604135e+002 
3206250000  -3.987800e+001  1.531673e+002 
3209375000  -3.948511e+001  1.429748e+002 
3212500000  -3.992480e+001  1.367069e+002 
3215625000  -3.974930e+001  1.345916e+002 
3218750000  -4.050947e+001  1.224830e+002 
3221875000  -4.054837e+001  1.150128e+002 
3225000000  -4.046217e+001  1.084118e+002 
3228125000  -4.088560e+001  1.022726e+002 
3231250000  -4.161435e+001  9.819284e+001 
3234375000  -4.097394e+001  9.580730e+001 
3237500000  -4.091331e+001  8.960546e+001 
3240625000  -4.047310e+001  8.404440e+001 
3243750000  -4.053552e+001  7.220745e+001 
3246875000  -4.055682e+001  6.397931e+001 
3250000000  -4.108471e+001  6.022867e+001 
3253125000  -4.115732e+001  5.405844e+001 
3256250000  -4.034638e+001  4.557495e+001 
3259375000  -4.090831e+001  3.140666e+001 
3262500000  -4.216278e+001  2.453432e+001 
3265625000  -4.247927e+001  2.879707e+001 
3268750000  -4.241343e+001  2.478957e+001 
3271875000  -4.165432e+001  2.142729e+001 
3275000000  -4.090174e+001  1.098347e+001 
3278125000  -4.169205e+001  4.400511e+000 
3281250000  -4.190350e+001  -3.725053e-001 
3284375000  -4.120305e+001  -7.090598e+000 
3287500000  -4.171236e+001  -1.597530e+001 
3290625000  -4.161957e+001  -2.574520e+001 
3293750000  -4.140267e+001  -3.378783e+001 
3296875000  -4.262007e+001  -3.840118e+001 
3300000000  -4.192258e+001  -3.984291e+001 
3303125000  -4.090758e+001  -4.964660e+001 
3306250000  -4.102256e+001  -5.910495e+001 
3309375000  -4.061563e+001  -7.118733e+001 
3312500000  -4.104770e+001  -8.580238e+001 
3315625000  -4.223413e+001  -9.430904e+001 
3318750000  -4.424020e+001  -1.002513e+002 
3321875000  -4.508161e+001  -1.012493e+002 
3325000000  -4.508702e+001  -9.493163e+001 
3328125000  -4.404202e+001  -9.858115e+001 
3331250000  -4.226887e+001  -9.966207e+001 
3334375000  -3.996802e+001  -1.171598e+002 
3337500000  -4.068093e+001  -1.404170e+002 
3340625000  -4.284359e+001  -1.511116e+002 
3343750000  -4.466048e+001  -1.537639e+002 
3346875000  -4.434649e+001  -1.550505e+002 
3350000000  -4.381918e+001  -1.611082e+002 
3353125000  -4.358009e+001  -1.705880e+002 
3356250000  -4.344846e+001  -1.787515e+002 
3359375000  -4.423612e+001  1.645253e+002 
3362500000  -4.547425e+001  1.591642e+002 
3365625000  -4.591151e+001  1.540594e+002 
3368750000  -4.641563e+001  1.450054e+002 
3371875000  -4.733561e+001  1.377030e+002 
3375000000  -4.901205e+001  1.337729e+002 
3378125000  -4.999983e+001  1.312014e+002 
3381250000  -5.098212e+001  1.443583e+002 
3384375000  -4.698968e+001  1.537947e+002 
3387500000  -4.453473e+001  1.293825e+002 
3390625000  -4.683114e+001  1.085931e+002 
3393750000  -4.747302e+001  1.061786e+002 
3396875000  -4.667384e+001  1.033141e+002 
3400000000  -4.630875e+001  8.916206e+001 
3403125000  -4.667386e+001  7.887785e+001 
3406250000  -4.749361e+001  7.234563e+001 
3409375000  -4.690329e+001  6.134178e+001 
3412500000  -4.780600e+001  5.386203e+001 
3415625000  -4.857072e+001  5.112511e+001 
3418750000  -4.818686e+001  4.222681e+001 
3421875000  -4.874272e+001  4.404647e+001 
3425000000  -4.828202e+001  3.428233e+001 
3428125000  -4.766427e+001  2.850672e+001 
3431250000  -4.684354e+001  1.673614e+001 
3434375000  -4.701853e+001  6.291999e+000 
3437500000  -4.780552e+001  -6.150520e+000 
3440625000  -4.763028e+001  -8.777732e+000 
3443750000  -4.659648e+001  -1.247645e+001 
3446875000  -4.557690e+001  -2.577308e+001 
3450000000  -4.535176e+001  -4.234991e+001 
3453125000  -4.592463e+001  -5.912946e+001 
3456250000  -4.744273e+001  -6.738094e+001 
3459375000  -4.811557e+001  -6.944046e+001 
3462500000  -4.798926e+001  -7.516541e+001 
3465625000  -4.746903e+001  -8.897292e+001 
3468750000  -4.733161e+001  -9.497839e+001 
3471875000  -4.711133e+001  -1.050853e+002 
3475000000  -4.769704e+001  -1.157781e+002 
3478125000  -4.739197e+001  -1.283640e+002 
3481250000  -4.861731e+001  -1.303148e+002 
3484375000  -4.847900e+001  -1.327041e+002 
3487500000  -4.755587e+001  -1.409152e+002 
3490625000  -4.776408e+001  -1.530995e+002 
3493750000  -4.778006e+001  -1.674945e+002 
3496875000  -4.814179e+001  -1.699594e+002 
3500000000  -4.834662e+001  -1.699675e+002 
3503125000  -4.737379e+001  -1.753434e+002 
3506250000  -4.577504e+001  1.685455e+002 
3509375000  -4.571828e+001  1.492101e+002 
3512500000  -4.622853e+001  1.360966e+002 
3515625000  -4.743427e+001  1.316580e+002 
3518750000  -4.734266e+001  1.302931e+002 
3521875000  -4.801950e+001  1.181518e+002 
3525000000  -4.880082e+001  1.158967e+002 
3528125000  -4.750768e+001  1.191077e+002 
3531250000  -4.636832e+001  1.050054e+002 
3534375000  -4.702864e+001  8.761452e+001 
3537500000  -4.789761e+001  7.819276e+001 
3540625000  -4.934898e+001  7.699928e+001 
3543750000  -4.929432e+001  7.933880e+001 
3546875000  -4.834398e+001  8.478569e+001 
3550000000  -4.645828e+001  7.318166e+001 
3553125000  -4.635001e+001  5.602578e+001 
3556250000  -4.739032e+001  4.551216e+001 
3559375000  -4.647063e+001  4.193899e+001 
3562500000  -4.692650e+001  3.412996e+001 
3565625000  -4.730941e+001  2.553204e+001 
3568750000  -4.774177e+001  2.340419e+001 
3571875000  -4.715795e+001  2.147917e+001 
3575000000  -4.745585e+001  1.127410e+001 
3578125000  -4.710069e+001  8.332829e+000 
3581250000  -4.698318e+001  5.069795e+000 
3584375000  -4.608534e+001  -3.217010e+000 
3587500000  -4.590083e+001  -1.501360e+001 
3590625000  -4.637347e+001  -2.432579e+001 
3593750000  -4.778762e+001  -2.415122e+001 
3596875000  -4.678555e+001  -2.026350e+001 
3600000000  -4.468071e+001  -3.316255e+001 
3603125000  -4.491925e+001  -4.790507e+001 
3606250000  -4.618008e+001  -5.224474e+001 
3609375000  -4.578232e+001  -5.491250e+001 
3612500000  -4.610741e+001  -6.389992e+001 
3615625000  -4.602023e+001  -7.099263e+001 
3618750000  -4.588998e+001  -6.714169e+001 
3621875000  -4.542233e+001  -7.744524e+001 
3625000000  -4.572710e+001  -8.038168e+001 
3628125000  -4.501343e+001  -8.993872e+001 
3631250000  -4.503659e+001  -9.844099e+001 
3634375000  -4.591861e+001  -9.877988e+001 
3637500000  -4.432110e+001  -9.937760e+001 
3640625000  -4.386146e+001  -1.075660e+002 
3643750000  -4.330063e+001  -1.186965e+002 
3646875000  -4.333505e+001  -1.285303e+002 
3650000000  -4.375836e+001  -1.330466e+002 
3653125000  -4.313634e+001  -1.431122e+002 
3656250000  -4.431729e+001  -1.480140e+002 
3659375000  -4.377207e+001  -1.531510e+002 
3662500000  -4.340606e+001  -1.600659e+002 
3665625000  -4.367630e+001  -1.643329e+002 
3668750000  -4.191877e+001  -1.688360e+002 
3671875000  -4.167448e+001  1.776095e+002 
3675000000  -4.198743e+001  1.669366e+002 
3678125000  -4.242610e+001  1.634577e+002 
3681250000  -4.200840e+001  1.579483e+002 
3684375000  -4.258287e+001  1.492612e+002 
3687500000  -4.279079e+001  1.408421e+002 
3690625000  -4.359609e+001  1.339623e+002 
3693750000  -4.456770e+001  1.336258e+002 
3696875000  -4.400150e+001  1.282830e+002 
3700000000  -4.306376e+001  1.226194e+002 
3703125000  -4.332132e+001  1.147688e+002 
3706250000  -4.461328e+001  1.120372e+002 
3709375000  -4.408921e+001  1.127387e+002 
3712500000  -4.244907e+001  1.045211e+002 
3715625000  -4.173021e+001  9.614783e+001 
3718750000  -4.158047e+001  8.597327e+001 
3721875000  -4.207854e+001  7.722507e+001 
3725000000  -4.275331e+001  6.913158e+001 
3728125000  -4.242900e+001  6.696125e+001 
3731250000  -4.195859e+001  6.019871e+001 
3734375000  -4.189785e+001  5.344805e+001 
3737500000  -4.280252e+001  4.259497e+001 
3740625000  -4.328015e+001  3.819939e+001 
3743750000  -4.274701e+001  3.324209e+001 
3746875000  -4.308493e+001  2.566434e+001 
3750000000  -4.359176e+001  2.213925e+001 
3753125000  -4.381623e+001  1.575187e+001 
3756250000  -4.391505e+001  1.587212e+001 
3759375000  -4.360175e+001  6.569291e+000 
3762500000  -4.321564e+001  4.150994e+000 
3765625000  -4.403672e+001  -1.299341e+000 
3768750000  -4.353671e+001  -2.002026e+000 
3771875000  -4.192225e+001  -8.673790e+000 
3775000000  -4.227969e+001  -1.994417e+001 
3778125000  -4.242798e+001  -2.526564e+001 
3781250000  -4.274236e+001  -3.004012e+001 
3784375000  -4.230368e+001  -3.572491e+001 
3787500000  -4.232816e+001  -4.038409e+001 
3790625000  -4.291116e+001  -5.036186e+001 
3793750000  -4.244775e+001  -5.365440e+001 
3796875000  -4.173721e+001  -5.802968e+001 
3800000000  -4.093306e+001  -6.715172e+001 
3803125000  -4.165740e+001  -7.787132e+001 
3806250000  -4.265065e+001  -8.255770e+001 
3809375000  -4.182558e+001  -8.885614e+001 
3812500000  -4.170225e+001  -9.782838e+001 
3815625000  -4.280177e+001  -1.085419e+002 
3818750000  -4.411596e+001  -1.076490e+002 
3821875000  -4.381725e+001  -9.861536e+001 
3825000000  -4.151801e+001  -1.041143e+002 
3828125000  -4.029379e+001  -1.244132e+002 
3831250000  -4.132444e+001  -1.405354e+002 
3834375000  -4.315892e+001  -1.402224e+002 
3837500000  -4.417049e+001  -1.368541e+002 
3840625000  -4.239491e+001  -1.442071e+002 
3843750000  -4.154343e+001  -1.608782e+002 
3846875000  -4.315250e+001  -1.648002e+002 
3850000000  -4.407450e+001  -1.600204e+002 
3853125000  -4.335633e+001  -1.608157e+002 
3856250000  -4.308360e+001  -1.698211e+002 
3859375000  -4.210002e+001  -1.773736e+002 
3862500000  -4.209322e+001  1.720700e+002 
3865625000  -4.241969e+001  1.642932e+002 
3868750000  -4.221292e+001  1.635444e+002 
3871875000  -4.154384e+001  1.520370e+002 
3875000000  -4.243375e+001  1.445794e+002 
3878125000  -4.320521e+001  1.399354e+002 
3881250000  -4.320911e+001  1.385684e+002 
3884375000  -4.258639e+001  1.303120e+002 
3887500000  -4.327271e+001  1.233668e+002 
3890625000  -4.374541e+001  1.181410e+002 
3893750000  -4.411715e+001  1.158603e+002 
3896875000  -4.438404e+001  1.114652e+002 
3900000000  -4.448701e+001  1.086923e+002 
3903125000  -4.411768e+001  1.017982e+002 
3906250000  -4.337235e+001  9.676765e+001 
3909375000  -4.260686e+001  8.976475e+001 
3912500000  -4.345175e+001  8.210293e+001 
3915625000  -4.494099e+001  8.030161e+001 
3918750000  -4.447278e+001  7.686349e+001 
3921875000  -4.405196e+001  7.429053e+001 
3925000000  -4.254901e+001  6.709592e+001 
3928125000  -4.300486e+001  5.781163e+001 
3931250000  -4.370070e+001  4.914198e+001 
3934375000  -4.406703e+001  4.969688e+001 
3937500000  -4.431702e+001  4.322646e+001 
3940625000  -4.419193e+001  4.544039e+001 
3943750000  -4.295279e+001  3.897338e+001 
3946875000  -4.274132e+001  2.817227e+001 
3950000000  -4.395292e+001  2.007155e+001 
3953125000  -4.438324e+001  2.405517e+001 
3956250000  -4.276577e+001  1.928390e+001 
3959375000  -4.217258e+001  1.282530e+001 
3962500000  -4.151024e+001  2.126646e+000 
3965625000  -4.166707e+001  -6.928092e+000 
3968750000  -4.220985e+001  -1.589211e+001 
3971875000  -4.226795e+001  -2.086808e+001 
3975000000  -4.172823e+001  -2.576351e+001 
3978125000  -4.180016e+001  -3.220007e+001 
3981250000  -4.190745e+001  -3.964724e+001 
3984375000  -4.245203e+001  -4.708031e+001 
3987500000  -4.300980e+001  -5.255024e+001 
3990625000  -4.309907e+001  -5.500715e+001 
3993750000  -4.301930e+001  -6.206919e+001 
3996875000  -4.274784e+001  -6.857281e+001 
4000000000  -4.370441e+001  -7.166080e+001 
4003125000  -4.378215e+001  -7.369396e+001 
4006250000  -4.183968e+001  -7.727505e+001 
4009375000  -4.136712e+001  -9.486941e+001 
4012500000  -4.279568e+001  -1.024432e+002 
4015625000  -4.399226e+001  -1.000329e+002 
4018750000  -4.369603e+001  -1.063715e+002 
4021875000  -4.305266e+001  -1.119987e+002 
4025000000  -4.295552e+001  -1.214286e+002 
4028125000  -4.314915e+001  -1.286324e+002 
4031250000  -4.364271e+001  -1.370965e+002 
4034375000  -4.419681e+001  -1.378622e+002 
4037500000  -4.392126e+001  -1.391383e+002 
4040625000  -4.430288e+001  -1.466415e+002 
4043750000  -4.445267e+001  -1.496773e+002 
4046875000  -4.435988e+001  -1.561098e+002 
4050000000  -4.436125e+001  -1.649029e+002 
4053125000  -4.535103e+001  -1.642259e+002 
4056250000  -4.536661e+001  -1.640633e+002 
4059375000  -4.378522e+001  -1.628071e+002 
4062500000  -4.350578e+001  -1.746430e+002 
4065625000  -4.338646e+001  -1.798294e+002 
4068750000  -4.297790e+001  1.724391e+002 
4071875000  -4.226422e+001  1.637123e+002 
4075000000  -4.346759e+001  1.537478e+002 
4078125000  -4.407898e+001  1.519133e+002 
4081250000  -4.327897e+001  1.474877e+002 
4084375000  -4.336575e+001  1.373822e+002 
4087500000  -4.365823e+001  1.313626e+002 
4090625000  -4.459400e+001  1.275934e+002 
4093750000  -4.435663e+001  1.264770e+002 
4096875000  -4.406958e+001  1.180868e+002 
4100000000  -4.540985e+001  1.135915e+002 
4103125000  -4.584498e+001  1.150027e+002 
4106250000  -4.572627e+001  1.139605e+002 
4109375000  -4.410591e+001  1.086108e+002 
4112500000  -4.356513e+001  1.010220e+002 
4115625000  -4.434979e+001  9.609233e+001 
4118750000  -4.370046e+001  8.999246e+001 
4121875000  -4.369781e+001  8.339902e+001 
4125000000  -4.472449e+001  7.648028e+001 
4128125000  -4.486806e+001  7.837502e+001 
4131250000  -4.371882e+001  8.265897e+001 
4134375000  -4.127268e+001  6.879726e+001 
4137500000  -4.198696e+001  4.924007e+001 
4140625000  -4.390182e+001  4.526146e+001 
4143750000  -4.478670e+001  4.658876e+001 
4146875000  -4.374968e+001  4.987024e+001 
4150000000  -4.285332e+001  3.964338e+001 
4153125000  -4.326742e+001  3.223037e+001 
4156250000  -4.375660e+001  2.723463e+001 
4159375000  -4.389546e+001  3.005841e+001 
4162500000  -4.223385e+001  2.800485e+001 
4165625000  -4.146262e+001  1.647186e+001 
4168750000  -4.093864e+001  5.763545e+000 
4171875000  -4.120647e+001  -3.433691e+000 
4175000000  -4.211201e+001  -1.465731e+001 
4178125000  -4.242726e+001  -1.684016e+001 
4181250000  -4.190921e+001  -2.237973e+001 
4184375000  -4.238453e+001  -3.009897e+001 
4187500000  -4.196243e+001  -3.748524e+001 
4190625000  -4.247614e+001  -4.593892e+001 
4193750000  -4.408002e+001  -5.238768e+001 
4196875000  -4.540071e+001  -5.579594e+001 
4200000000  -4.583278e+001  -5.023811e+001 
4203125000  -4.430572e+001  -3.920402e+001 
4206250000  -4.089104e+001  -4.763771e+001 
4209375000  -4.150877e+001  -7.306307e+001 
4212500000  -4.355017e+001  -7.599294e+001 
4215625000  -4.368221e+001  -7.205394e+001 
4218750000  -4.224126e+001  -7.109801e+001 
4221875000  -4.043198e+001  -8.404462e+001 
4225000000  -4.239344e+001  -9.456209e+001 
4228125000  -4.174136e+001  -9.231160e+001 
4231250000  -4.105547e+001  -1.047432e+002 
4234375000  -4.089121e+001  -1.115324e+002 
4237500000  -4.067586e+001  -1.205026e+002 
4240625000  -4.125972e+001  -1.310122e+002 
4243750000  -4.234591e+001  -1.403237e+002 
4246875000  -4.321193e+001  -1.388663e+002 
4250000000  -4.286126e+001  -1.398680e+002 
4253125000  -4.251297e+001  -1.417787e+002 
4256250000  -4.253458e+001  -1.510114e+002 
4259375000  -4.191557e+001  -1.540779e+002 
4262500000  -4.195757e+001  -1.585669e+002 
4265625000  -4.212139e+001  -1.606239e+002 
4268750000  -4.102266e+001  -1.676495e+002 
4271875000  -4.097430e+001  1.790556e+002 
4275000000  -4.014922e+001  1.714691e+002 
4278125000  -4.092936e+001  1.592020e+002 
4281250000  -4.256653e+001  1.561481e+002 
4284375000  -4.218877e+001  1.523546e+002 
4287500000  -4.398056e+001  1.482685e+002 
4290625000  -4.338859e+001  1.569551e+002 
4293750000  -4.141069e+001  1.567514e+002 
4296875000  -4.053408e+001  1.385633e+002 
4300000000  -4.149035e+001  1.308631e+002 
4303125000  -4.161015e+001  1.332374e+002 
4306250000  -4.079358e+001  1.322148e+002 
4309375000  -3.991371e+001  1.217176e+002 
4312500000  -3.990448e+001  1.093500e+002 
4315625000  -4.019093e+001  9.798540e+001 
4318750000  -4.053756e+001  9.496278e+001 
4321875000  -4.071431e+001  9.237511e+001 
4325000000  -4.000660e+001  8.685687e+001 
4328125000  -3.941125e+001  7.607664e+001 
4331250000  -3.953279e+001  6.444732e+001 
4334375000  -4.077916e+001  5.652362e+001 
4337500000  -4.201370e+001  5.462000e+001 
4340625000  -4.213659e+001  5.600142e+001 
4343750000  -4.107806e+001  5.142290e+001 
4346875000  -4.104876e+001  4.199127e+001 
4350000000  -4.086288e+001  3.310186e+001 
4353125000  -4.155019e+001  2.453416e+001 
4356250000  -4.376511e+001  2.813546e+001 
4359375000  -4.267704e+001  3.943535e+001 
4362500000  -3.923920e+001  3.083357e+001 
4365625000  -3.884307e+001  1.436335e+001 
4368750000  -3.988195e+001  1.280565e+000 
4371875000  -4.107858e+001  5.273003e-004 
4375000000  -4.060738e+001  -5.487733e+000 
4378125000  -4.026868e+001  -1.532190e+001 
4381250000  -4.080537e+001  -1.980906e+001 
4384375000  -4.074334e+001  -2.938129e+001 
4387500000  -4.142605e+001  -3.573250e+001 
4390625000  -4.245287e+001  -3.797828e+001 
4393750000  -4.183330e+001  -3.845555e+001 
4396875000  -4.117709e+001  -4.570634e+001 
4400000000  -4.066831e+001  -5.414660e+001 
4403125000  -4.168487e+001  -6.461381e+001 
4406250000  -4.217130e+001  -7.043702e+001 
4409375000  -4.258500e+001  -7.574954e+001 
4412500000  -4.388289e+001  -7.464354e+001 
4415625000  -4.311554e+001  -7.259262e+001 
4418750000  -4.184495e+001  -7.180892e+001 
