!Agilent Technologies,E8363B,MY43030201,A.06.04.32
!Agilent E8363B: A.06.04.32
!Date: Tuesday, November 11, 2014 21:43:53
!Correction: S21(Response(S21)) 
!S1P File: Measurement: S21:
# Hz S  dB   R 50
3000000000  -4.369967e+001  -1.603910e+002 
3003125000  -4.542067e+001  -1.647941e+002 
3006250000  -4.533480e+001  -1.671498e+002 
3009375000  -4.603033e+001  -1.619851e+002 
3012500000  -4.501670e+001  -1.706541e+002 
3015625000  -4.505760e+001  -1.759688e+002 
3018750000  -4.517865e+001  -1.764716e+002 
3021875000  -4.392248e+001  -1.767190e+002 
3025000000  -4.265421e+001  1.780298e+002 
3028125000  -4.156464e+001  1.664210e+002 
3031250000  -4.103986e+001  1.535717e+002 
3034375000  -4.095738e+001  1.393752e+002 
3037500000  -4.151858e+001  1.284803e+002 
3040625000  -4.288039e+001  1.218414e+002 
3043750000  -4.328947e+001  1.145791e+002 
3046875000  -4.393887e+001  1.087408e+002 
3050000000  -4.528360e+001  1.027256e+002 
3053125000  -4.486788e+001  1.083682e+002 
3056250000  -4.456309e+001  1.111092e+002 
3059375000  -4.383993e+001  1.067002e+002 
3062500000  -4.245280e+001  1.021989e+002 
3065625000  -4.214933e+001  9.084019e+001 
3068750000  -4.177148e+001  8.395075e+001 
3071875000  -4.181830e+001  8.014991e+001 
3075000000  -4.127667e+001  7.291351e+001 
3078125000  -4.143475e+001  6.504376e+001 
3081250000  -4.128993e+001  5.869350e+001 
3084375000  -4.055440e+001  5.284509e+001 
3087500000  -4.042887e+001  4.472408e+001 
3090625000  -3.988760e+001  3.168427e+001 
3093750000  -4.098985e+001  2.253546e+001 
3096875000  -4.136582e+001  1.750982e+001 
3100000000  -4.117936e+001  1.476013e+001 
3103125000  -4.153922e+001  8.400313e+000 
3106250000  -4.094524e+001  2.995679e+000 
3109375000  -4.103933e+001  -2.260846e+000 
3112500000  -4.085646e+001  -1.021180e+001 
3115625000  -4.092402e+001  -1.457734e+001 
3118750000  -4.061343e+001  -1.961274e+001 
3121875000  -4.021080e+001  -3.182348e+001 
3125000000  -4.230152e+001  -3.572535e+001 
3128125000  -4.201456e+001  -3.081676e+001 
3131250000  -3.963997e+001  -3.866686e+001 
3134375000  -3.877551e+001  -5.580562e+001 
3137500000  -3.956713e+001  -6.921363e+001 
3140625000  -4.097419e+001  -7.287376e+001 
3143750000  -4.153458e+001  -7.633785e+001 
3146875000  -4.111349e+001  -7.563132e+001 
3150000000  -4.041558e+001  -8.129884e+001 
3153125000  -4.076523e+001  -9.091971e+001 
3156250000  -4.138812e+001  -8.732513e+001 
3159375000  -3.925519e+001  -9.166879e+001 
3162500000  -3.773554e+001  -1.066899e+002 
3165625000  -3.903840e+001  -1.203998e+002 
3168750000  -3.888161e+001  -1.229580e+002 
3171875000  -3.870491e+001  -1.327278e+002 
3175000000  -3.914678e+001  -1.430075e+002 
3178125000  -3.880261e+001  -1.446370e+002 
3181250000  -3.811541e+001  -1.532014e+002 
3184375000  -3.778906e+001  -1.654177e+002 
3187500000  -3.921685e+001  1.798274e+002 
3190625000  -4.104478e+001  1.719614e+002 
3193750000  -4.108384e+001  1.761283e+002 
3196875000  -4.113838e+001  1.753162e+002 
3200000000  -4.003357e+001  1.706432e+002 
3203125000  -3.956963e+001  1.618480e+002 
3206250000  -3.992392e+001  1.527250e+002 
3209375000  -3.937988e+001  1.438582e+002 
3212500000  -3.992229e+001  1.370041e+002 
3215625000  -3.969046e+001  1.344804e+002 
3218750000  -4.047359e+001  1.212113e+002 
3221875000  -4.073688e+001  1.144177e+002 
3225000000  -4.052959e+001  1.098535e+002 
3228125000  -4.108138e+001  1.015872e+002 
3231250000  -4.165462e+001  9.930235e+001 
3234375000  -4.101211e+001  9.588659e+001 
3237500000  -4.100765e+001  9.085103e+001 
3240625000  -4.040264e+001  8.483537e+001 
3243750000  -4.042621e+001  7.305354e+001 
3246875000  -4.074093e+001  6.398574e+001 
3250000000  -4.127101e+001  6.053124e+001 
3253125000  -4.120398e+001  5.634725e+001 
3256250000  -4.055613e+001  4.542517e+001 
3259375000  -4.094343e+001  3.237138e+001 
3262500000  -4.253677e+001  2.860065e+001 
3265625000  -4.267450e+001  2.924318e+001 
3268750000  -4.242600e+001  2.777002e+001 
3271875000  -4.168840e+001  2.041969e+001 
3275000000  -4.103405e+001  1.138775e+001 
3278125000  -4.186939e+001  5.312057e+000 
3281250000  -4.185041e+001  -8.678742e-002 
3284375000  -4.107800e+001  -8.170600e+000 
3287500000  -4.146360e+001  -1.543198e+001 
3290625000  -4.187620e+001  -2.553832e+001 
3293750000  -4.172982e+001  -3.341479e+001 
3296875000  -4.279320e+001  -3.648205e+001 
3300000000  -4.207632e+001  -3.886823e+001 
3303125000  -4.106772e+001  -4.939214e+001 
3306250000  -4.101370e+001  -5.876542e+001 
3309375000  -4.078105e+001  -6.931697e+001 
3312500000  -4.128960e+001  -8.450980e+001 
3315625000  -4.262843e+001  -9.394051e+001 
3318750000  -4.395003e+001  -1.016018e+002 
3321875000  -4.507912e+001  -9.830019e+001 
3325000000  -4.519761e+001  -9.771055e+001 
3328125000  -4.431134e+001  -9.446280e+001 
3331250000  -4.246259e+001  -9.833144e+001 
3334375000  -4.031905e+001  -1.168575e+002 
3337500000  -4.069692e+001  -1.390915e+002 
3340625000  -4.284941e+001  -1.505737e+002 
3343750000  -4.460038e+001  -1.524183e+002 
3346875000  -4.396479e+001  -1.558636e+002 
3350000000  -4.399076e+001  -1.605948e+002 
3353125000  -4.370328e+001  -1.704686e+002 
3356250000  -4.364368e+001  1.792506e+002 
3359375000  -4.443894e+001  1.669604e+002 
3362500000  -4.490324e+001  1.588418e+002 
3365625000  -4.581165e+001  1.509831e+002 
3368750000  -4.666198e+001  1.474466e+002 
3371875000  -4.692652e+001  1.409966e+002 
3375000000  -4.875137e+001  1.349128e+002 
3378125000  -4.949215e+001  1.336333e+002 
3381250000  -5.038513e+001  1.382012e+002 
3384375000  -4.792325e+001  1.506513e+002 
3387500000  -4.507074e+001  1.299354e+002 
3390625000  -4.714133e+001  1.089450e+002 
3393750000  -4.774898e+001  1.054116e+002 
3396875000  -4.653310e+001  1.007145e+002 
3400000000  -4.658966e+001  8.619981e+001 
3403125000  -4.702803e+001  7.771954e+001 
3406250000  -4.759506e+001  7.207478e+001 
3409375000  -4.778125e+001  6.301815e+001 
3412500000  -4.798013e+001  5.277299e+001 
3415625000  -4.868570e+001  4.788556e+001 
3418750000  -4.847701e+001  4.594809e+001 
3421875000  -4.902277e+001  4.335414e+001 
3425000000  -4.798102e+001  3.672546e+001 
3428125000  -4.697376e+001  2.980033e+001 
3431250000  -4.711318e+001  1.575529e+001 
3434375000  -4.713007e+001  4.903172e+000 
3437500000  -4.734668e+001  -4.258482e+000 
3440625000  -4.814859e+001  -9.997857e+000 
3443750000  -4.650013e+001  -1.097985e+001 
3446875000  -4.569682e+001  -2.837588e+001 
3450000000  -4.529890e+001  -4.089987e+001 
3453125000  -4.599006e+001  -5.935266e+001 
3456250000  -4.733524e+001  -7.079662e+001 
3459375000  -4.829860e+001  -7.168510e+001 
3462500000  -4.795449e+001  -7.418313e+001 
3465625000  -4.746906e+001  -8.943388e+001 
3468750000  -4.738378e+001  -9.600910e+001 
3471875000  -4.745166e+001  -1.035197e+002 
3475000000  -4.681301e+001  -1.151256e+002 
3478125000  -4.758072e+001  -1.284879e+002 
3481250000  -4.920056e+001  -1.302450e+002 
3484375000  -4.826735e+001  -1.319337e+002 
3487500000  -4.757178e+001  -1.397706e+002 
3490625000  -4.730632e+001  -1.527769e+002 
3493750000  -4.745013e+001  -1.660611e+002 
3496875000  -4.775969e+001  -1.690680e+002 
3500000000  -4.830762e+001  -1.695930e+002 
3503125000  -4.667970e+001  -1.727110e+002 
3506250000  -4.515945e+001  1.716969e+002 
3509375000  -4.566605e+001  1.532588e+002 
3512500000  -4.594173e+001  1.380275e+002 
3515625000  -4.687499e+001  1.364654e+002 
3518750000  -4.774268e+001  1.323196e+002 
3521875000  -4.778226e+001  1.195896e+002 
3525000000  -4.874816e+001  1.130603e+002 
3528125000  -4.699176e+001  1.192820e+002 
3531250000  -4.633496e+001  1.090765e+002 
3534375000  -4.676333e+001  8.900600e+001 
3537500000  -4.767033e+001  8.268689e+001 
3540625000  -4.915772e+001  7.791537e+001 
3543750000  -4.956478e+001  7.954786e+001 
3546875000  -4.810736e+001  8.195387e+001 
3550000000  -4.610002e+001  7.596516e+001 
3553125000  -4.589635e+001  5.676268e+001 
3556250000  -4.714894e+001  4.862260e+001 
3559375000  -4.636929e+001  4.257105e+001 
3562500000  -4.652863e+001  3.420156e+001 
3565625000  -4.756695e+001  2.655204e+001 
3568750000  -4.814868e+001  2.529411e+001 
3571875000  -4.765964e+001  2.092038e+001 
3575000000  -4.664856e+001  1.438267e+001 
3578125000  -4.788749e+001  1.076562e+001 
3581250000  -4.704675e+001  4.503065e+000 
3584375000  -4.566492e+001  -3.717394e+000 
3587500000  -4.569202e+001  -1.258494e+001 
3590625000  -4.661192e+001  -2.325250e+001 
3593750000  -4.744862e+001  -2.229741e+001 
3596875000  -4.697026e+001  -1.629527e+001 
3600000000  -4.478670e+001  -3.012522e+001 
3603125000  -4.516882e+001  -4.963607e+001 
3606250000  -4.553301e+001  -5.387988e+001 
3609375000  -4.589898e+001  -5.679474e+001 
3612500000  -4.580140e+001  -6.079424e+001 
3615625000  -4.604449e+001  -6.659428e+001 
3618750000  -4.571182e+001  -6.911273e+001 
3621875000  -4.509924e+001  -7.525275e+001 
3625000000  -4.573951e+001  -8.205241e+001 
3628125000  -4.463611e+001  -8.612461e+001 
3631250000  -4.504658e+001  -9.659391e+001 
3634375000  -4.535593e+001  -9.449513e+001 
3637500000  -4.463904e+001  -9.862484e+001 
3640625000  -4.350079e+001  -1.044376e+002 
3643750000  -4.328751e+001  -1.176226e+002 
3646875000  -4.402399e+001  -1.283016e+002 
3650000000  -4.370346e+001  -1.314418e+002 
3653125000  -4.317503e+001  -1.396686e+002 
3656250000  -4.386164e+001  -1.467141e+002 
3659375000  -4.389875e+001  -1.506413e+002 
3662500000  -4.368042e+001  -1.580164e+002 
3665625000  -4.348013e+001  -1.590191e+002 
3668750000  -4.217131e+001  -1.657663e+002 
3671875000  -4.170456e+001  1.789581e+002 
3675000000  -4.219172e+001  1.698677e+002 
3678125000  -4.256022e+001  1.659680e+002 
3681250000  -4.231395e+001  1.570481e+002 
3684375000  -4.296606e+001  1.495814e+002 
3687500000  -4.297614e+001  1.415592e+002 
3690625000  -4.377845e+001  1.353046e+002 
3693750000  -4.476371e+001  1.334124e+002 
3696875000  -4.381530e+001  1.314874e+002 
3700000000  -4.335038e+001  1.239138e+002 
3703125000  -4.374055e+001  1.155664e+002 
3706250000  -4.525587e+001  1.127255e+002 
3709375000  -4.407581e+001  1.152182e+002 
3712500000  -4.293100e+001  1.069628e+002 
3715625000  -4.199471e+001  9.682001e+001 
3718750000  -4.169182e+001  8.724276e+001 
3721875000  -4.184706e+001  7.698613e+001 
3725000000  -4.254832e+001  7.244485e+001 
3728125000  -4.265494e+001  6.780238e+001 
3731250000  -4.169747e+001  5.904052e+001 
3734375000  -4.208937e+001  5.550841e+001 
3737500000  -4.277419e+001  4.314049e+001 
3740625000  -4.309130e+001  3.822183e+001 
3743750000  -4.277675e+001  3.492169e+001 
3746875000  -4.344588e+001  2.694038e+001 
3750000000  -4.380355e+001  2.329870e+001 
3753125000  -4.383113e+001  2.113656e+001 
3756250000  -4.391266e+001  1.652741e+001 
3759375000  -4.362844e+001  1.190197e+001 
3762500000  -4.333668e+001  5.142255e+000 
3765625000  -4.405079e+001  2.830687e-001 
3768750000  -4.387365e+001  3.461330e-001 
3771875000  -4.245258e+001  -3.673759e+000 
3775000000  -4.221306e+001  -1.517080e+001 
3778125000  -4.284101e+001  -2.434296e+001 
3781250000  -4.255027e+001  -2.673456e+001 
3784375000  -4.240188e+001  -3.289859e+001 
3787500000  -4.255914e+001  -3.781680e+001 
3790625000  -4.299086e+001  -4.746562e+001 
3793750000  -4.300272e+001  -5.204790e+001 
3796875000  -4.163639e+001  -5.846149e+001 
3800000000  -4.075951e+001  -6.453851e+001 
3803125000  -4.177051e+001  -7.695773e+001 
3806250000  -4.215878e+001  -8.199567e+001 
3809375000  -4.190509e+001  -8.552271e+001 
3812500000  -4.161710e+001  -9.787531e+001 
3815625000  -4.285811e+001  -1.081661e+002 
3818750000  -4.403742e+001  -1.058381e+002 
3821875000  -4.324071e+001  -9.772009e+001 
3825000000  -4.134117e+001  -1.029168e+002 
3828125000  -4.033497e+001  -1.246991e+002 
3831250000  -4.174742e+001  -1.385096e+002 
3834375000  -4.368793e+001  -1.381487e+002 
3837500000  -4.393003e+001  -1.365675e+002 
3840625000  -4.239167e+001  -1.444940e+002 
3843750000  -4.142025e+001  -1.565753e+002 
3846875000  -4.310187e+001  -1.649721e+002 
3850000000  -4.429642e+001  -1.565923e+002 
3853125000  -4.377587e+001  -1.617162e+002 
3856250000  -4.306395e+001  -1.678187e+002 
3859375000  -4.225807e+001  -1.773656e+002 
3862500000  -4.205666e+001  1.715209e+002 
3865625000  -4.271999e+001  1.644353e+002 
3868750000  -4.243684e+001  1.639741e+002 
3871875000  -4.197867e+001  1.531180e+002 
3875000000  -4.271988e+001  1.429660e+002 
3878125000  -4.323732e+001  1.425644e+002 
3881250000  -4.359240e+001  1.401088e+002 
3884375000  -4.276327e+001  1.312659e+002 
3887500000  -4.309475e+001  1.238898e+002 
3890625000  -4.391623e+001  1.221192e+002 
3893750000  -4.416540e+001  1.175263e+002 
3896875000  -4.427947e+001  1.154966e+002 
3900000000  -4.415351e+001  1.114099e+002 
3903125000  -4.378827e+001  1.037143e+002 
3906250000  -4.395541e+001  9.973770e+001 
3909375000  -4.245753e+001  8.893044e+001 
3912500000  -4.367707e+001  8.255973e+001 
3915625000  -4.520732e+001  8.120966e+001 
3918750000  -4.434510e+001  7.895115e+001 
3921875000  -4.377132e+001  7.374308e+001 
3925000000  -4.300855e+001  6.855965e+001 
3928125000  -4.285655e+001  5.975935e+001 
3931250000  -4.380518e+001  5.140957e+001 
3934375000  -4.447831e+001  4.796590e+001 
3937500000  -4.441908e+001  4.797750e+001 
3940625000  -4.487954e+001  4.485382e+001 
3943750000  -4.347655e+001  3.939332e+001 
3946875000  -4.275779e+001  3.201149e+001 
3950000000  -4.387362e+001  2.272945e+001 
3953125000  -4.418607e+001  2.170099e+001 
3956250000  -4.279422e+001  2.329206e+001 
3959375000  -4.226312e+001  1.534570e+001 
3962500000  -4.189582e+001  5.219323e+000 
3965625000  -4.179666e+001  -7.752855e+000 
3968750000  -4.307915e+001  -1.521989e+001 
3971875000  -4.270383e+001  -1.749775e+001 
3975000000  -4.220571e+001  -2.225336e+001 
3978125000  -4.215263e+001  -3.048239e+001 
3981250000  -4.197047e+001  -3.838732e+001 
3984375000  -4.239067e+001  -4.482991e+001 
3987500000  -4.337954e+001  -5.162106e+001 
3990625000  -4.322548e+001  -5.276369e+001 
3993750000  -4.343048e+001  -5.872967e+001 
3996875000  -4.304014e+001  -6.780653e+001 
4000000000  -4.393553e+001  -6.645860e+001 
4003125000  -4.382444e+001  -6.856320e+001 
4006250000  -4.227565e+001  -7.588535e+001 
4009375000  -4.153438e+001  -9.189622e+001 
4012500000  -4.325314e+001  -1.017405e+002 
4015625000  -4.386663e+001  -1.013584e+002 
4018750000  -4.414105e+001  -1.060363e+002 
4021875000  -4.328153e+001  -1.134807e+002 
4025000000  -4.351040e+001  -1.208977e+002 
4028125000  -4.354033e+001  -1.290195e+002 
4031250000  -4.467717e+001  -1.362438e+002 
4034375000  -4.412925e+001  -1.362072e+002 
4037500000  -4.420156e+001  -1.383829e+002 
4040625000  -4.441111e+001  -1.452368e+002 
4043750000  -4.482524e+001  -1.502391e+002 
4046875000  -4.459708e+001  -1.520354e+002 
4050000000  -4.399501e+001  -1.625037e+002 
4053125000  -4.526073e+001  -1.658807e+002 
4056250000  -4.602408e+001  -1.628622e+002 
4059375000  -4.425060e+001  -1.639880e+002 
4062500000  -4.357730e+001  -1.736893e+002 
4065625000  -4.363115e+001  -1.771975e+002 
4068750000  -4.350404e+001  1.724228e+002 
4071875000  -4.301617e+001  1.639986e+002 
4075000000  -4.382356e+001  1.580538e+002 
4078125000  -4.436910e+001  1.508182e+002 
4081250000  -4.398492e+001  1.502081e+002 
4084375000  -4.350592e+001  1.396255e+002 
4087500000  -4.412827e+001  1.309055e+002 
4090625000  -4.531992e+001  1.293637e+002 
4093750000  -4.472770e+001  1.276858e+002 
4096875000  -4.482946e+001  1.194458e+002 
4100000000  -4.531871e+001  1.139521e+002 
4103125000  -4.590142e+001  1.172944e+002 
4106250000  -4.542791e+001  1.152489e+002 
4109375000  -4.468509e+001  1.131536e+002 
4112500000  -4.408807e+001  1.024877e+002 
4115625000  -4.454734e+001  9.723636e+001 
4118750000  -4.383535e+001  9.293076e+001 
4121875000  -4.393574e+001  8.388013e+001 
4125000000  -4.488088e+001  7.835789e+001 
4128125000  -4.547711e+001  8.061562e+001 
4131250000  -4.403846e+001  8.621637e+001 
4134375000  -4.155469e+001  7.340994e+001 
4137500000  -4.239218e+001  5.157973e+001 
4140625000  -4.462220e+001  4.583150e+001 
4143750000  -4.534790e+001  5.227686e+001 
4146875000  -4.435830e+001  5.354037e+001 
4150000000  -4.327510e+001  4.477547e+001 
4153125000  -4.371495e+001  3.337394e+001 
4156250000  -4.381925e+001  2.955911e+001 
4159375000  -4.367548e+001  3.170356e+001 
4162500000  -4.284129e+001  3.056341e+001 
4165625000  -4.180922e+001  1.878391e+001 
4168750000  -4.147712e+001  8.514678e+000 
4171875000  -4.155176e+001  -4.462716e+000 
4175000000  -4.230622e+001  -1.255223e+001 
4178125000  -4.273699e+001  -1.538399e+001 
4181250000  -4.252654e+001  -2.331831e+001 
4184375000  -4.315655e+001  -2.689765e+001 
4187500000  -4.274456e+001  -3.497344e+001 
4190625000  -4.284595e+001  -4.454489e+001 
4193750000  -4.440739e+001  -4.757133e+001 
4196875000  -4.503196e+001  -5.002837e+001 
4200000000  -4.612053e+001  -4.372953e+001 
4203125000  -4.478972e+001  -3.364515e+001 
4206250000  -4.177485e+001  -4.717525e+001 
4209375000  -4.134957e+001  -7.298547e+001 
4212500000  -4.409223e+001  -7.810262e+001 
4215625000  -4.427737e+001  -7.244503e+001 
4218750000  -4.283815e+001  -6.951615e+001 
4221875000  -4.171099e+001  -8.207451e+001 
4225000000  -4.237495e+001  -9.023843e+001 
4228125000  -4.278665e+001  -9.092846e+001 
4231250000  -4.131263e+001  -9.799086e+001 
4234375000  -4.133081e+001  -1.115392e+002 
4237500000  -4.141222e+001  -1.171432e+002 
4240625000  -4.172438e+001  -1.288272e+002 
4243750000  -4.301281e+001  -1.370740e+002 
4246875000  -4.389219e+001  -1.345815e+002 
4250000000  -4.291185e+001  -1.368933e+002 
4253125000  -4.338307e+001  -1.416181e+002 
4256250000  -4.292978e+001  -1.448309e+002 
4259375000  -4.241171e+001  -1.501183e+002 
4262500000  -4.286125e+001  -1.542890e+002 
4265625000  -4.240932e+001  -1.555569e+002 
4268750000  -4.137523e+001  -1.669732e+002 
4271875000  -4.099398e+001  -1.774503e+002 
4275000000  -4.084870e+001  1.732023e+002 
4278125000  -4.155083e+001  1.621246e+002 
4281250000  -4.254490e+001  1.582704e+002 
4284375000  -4.268151e+001  1.577587e+002 
4287500000  -4.372669e+001  1.517397e+002 
4290625000  -4.405206e+001  1.598120e+002 
4293750000  -4.182079e+001  1.602624e+002 
4296875000  -4.062248e+001  1.419948e+002 
4300000000  -4.197993e+001  1.316003e+002 
4303125000  -4.264215e+001  1.325307e+002 
4306250000  -4.105520e+001  1.331637e+002 
4309375000  -4.035263e+001  1.238985e+002 
4312500000  -4.029066e+001  1.124548e+002 
4315625000  -4.033350e+001  1.023196e+002 
4318750000  -4.120115e+001  9.855927e+001 
4321875000  -4.134720e+001  9.668878e+001 
4325000000  -4.030552e+001  9.130799e+001 
4328125000  -3.993353e+001  7.950137e+001 
4331250000  -4.013955e+001  6.816389e+001 
4334375000  -4.113273e+001  5.807403e+001 
4337500000  -4.238562e+001  5.605122e+001 
4340625000  -4.240924e+001  5.736148e+001 
4343750000  -4.153716e+001  5.356449e+001 
4346875000  -4.171191e+001  4.620303e+001 
4350000000  -4.127148e+001  3.573220e+001 
4353125000  -4.239530e+001  2.622250e+001 
4356250000  -4.445898e+001  3.479884e+001 
4359375000  -4.287627e+001  4.307087e+001 
4362500000  -4.035852e+001  3.182564e+001 
4365625000  -3.940550e+001  1.396446e+001 
4368750000  -4.091754e+001  4.496748e+000 
4371875000  -4.156056e+001  1.621552e+000 
4375000000  -4.089566e+001  -2.767471e+000 
4378125000  -4.083458e+001  -1.195986e+001 
4381250000  -4.063558e+001  -1.830069e+001 
4384375000  -4.128341e+001  -2.608764e+001 
4387500000  -4.199970e+001  -3.607196e+001 
4390625000  -4.231284e+001  -3.563741e+001 
4393750000  -4.225041e+001  -3.515826e+001 
4396875000  -4.172382e+001  -4.113787e+001 
4400000000  -4.120956e+001  -5.172359e+001 
4403125000  -4.188670e+001  -6.128045e+001 
4406250000  -4.235448e+001  -6.502208e+001 
4409375000  -4.322601e+001  -7.232086e+001 
4412500000  -4.418182e+001  -7.250244e+001 
4415625000  -4.406992e+001  -6.701974e+001 
4418750000  -4.244364e+001  -7.043948e+001 
