!Agilent Technologies,E8363B,MY43030201,A.06.04.32
!Agilent E8363B: A.06.04.32
!Date: Tuesday, November 11, 2014 21:45:44
!Correction: S21(Response(S21)) 
!S1P File: Measurement: S21:
# Hz S  dB   R 50
3000000000  -4.367652e+001  -1.614709e+002 
3003125000  -4.525048e+001  -1.642032e+002 
3006250000  -4.536317e+001  -1.676868e+002 
3009375000  -4.625483e+001  -1.642412e+002 
3012500000  -4.482030e+001  -1.733459e+002 
3015625000  -4.497121e+001  -1.773264e+002 
3018750000  -4.552018e+001  -1.783630e+002 
3021875000  -4.408213e+001  -1.786912e+002 
3025000000  -4.259326e+001  1.773854e+002 
3028125000  -4.182926e+001  1.655257e+002 
3031250000  -4.088624e+001  1.519672e+002 
3034375000  -4.083926e+001  1.374991e+002 
3037500000  -4.165370e+001  1.283739e+002 
3040625000  -4.304618e+001  1.231099e+002 
3043750000  -4.337919e+001  1.145012e+002 
3046875000  -4.400159e+001  1.078224e+002 
3050000000  -4.507034e+001  1.039119e+002 
3053125000  -4.479609e+001  1.061516e+002 
3056250000  -4.488966e+001  1.074963e+002 
3059375000  -4.396307e+001  1.053534e+002 
3062500000  -4.240388e+001  1.022182e+002 
3065625000  -4.230431e+001  9.049737e+001 
3068750000  -4.181086e+001  8.081486e+001 
3071875000  -4.182456e+001  8.013941e+001 
3075000000  -4.109795e+001  7.146502e+001 
3078125000  -4.106060e+001  6.449084e+001 
3081250000  -4.123996e+001  5.713053e+001 
3084375000  -4.030842e+001  5.126886e+001 
3087500000  -4.055013e+001  4.406483e+001 
3090625000  -3.985561e+001  3.134368e+001 
3093750000  -4.100688e+001  2.176323e+001 
3096875000  -4.127100e+001  1.751952e+001 
3100000000  -4.112687e+001  1.235950e+001 
3103125000  -4.126262e+001  8.060088e+000 
3106250000  -4.112365e+001  1.369742e+000 
3109375000  -4.100182e+001  -2.772712e+000 
3112500000  -4.068581e+001  -1.100600e+001 
3115625000  -4.081542e+001  -1.539610e+001 
3118750000  -4.074875e+001  -2.132511e+001 
3121875000  -4.017096e+001  -3.143189e+001 
3125000000  -4.213033e+001  -3.781911e+001 
3128125000  -4.189904e+001  -2.990418e+001 
3131250000  -3.942294e+001  -3.873410e+001 
3134375000  -3.884261e+001  -5.638025e+001 
3137500000  -3.955298e+001  -6.989281e+001 
3140625000  -4.091957e+001  -7.492547e+001 
3143750000  -4.172495e+001  -7.825050e+001 
3146875000  -4.126865e+001  -7.531084e+001 
3150000000  -4.028927e+001  -8.257846e+001 
3153125000  -4.091359e+001  -9.129604e+001 
3156250000  -4.165102e+001  -8.808028e+001 
3159375000  -3.917604e+001  -9.057098e+001 
3162500000  -3.759195e+001  -1.081259e+002 
3165625000  -3.906903e+001  -1.228839e+002 
3168750000  -3.907087e+001  -1.236003e+002 
3171875000  -3.860078e+001  -1.329473e+002 
3175000000  -3.920375e+001  -1.429742e+002 
3178125000  -3.883028e+001  -1.448123e+002 
3181250000  -3.808780e+001  -1.546154e+002 
3184375000  -3.782035e+001  -1.662218e+002 
3187500000  -3.929098e+001  1.790274e+002 
3190625000  -4.095002e+001  1.720849e+002 
3193750000  -4.112316e+001  1.750433e+002 
3196875000  -4.119263e+001  1.755064e+002 
3200000000  -3.984883e+001  1.688062e+002 
3203125000  -3.965533e+001  1.603902e+002 
3206250000  -3.989885e+001  1.514583e+002 
3209375000  -3.948995e+001  1.440918e+002 
3212500000  -4.011565e+001  1.367859e+002 
3215625000  -3.969809e+001  1.343828e+002 
3218750000  -4.021877e+001  1.220167e+002 
3221875000  -4.067854e+001  1.129233e+002 
3225000000  -4.037671e+001  1.090108e+002 
3228125000  -4.094548e+001  1.013653e+002 
3231250000  -4.133664e+001  9.735643e+001 
3234375000  -4.110275e+001  9.519273e+001 
3237500000  -4.097097e+001  9.118485e+001 
3240625000  -4.035409e+001  8.334484e+001 
3243750000  -4.039246e+001  7.178477e+001 
3246875000  -4.057941e+001  6.322463e+001 
3250000000  -4.099891e+001  5.867203e+001 
3253125000  -4.104835e+001  5.400183e+001 
3256250000  -4.047339e+001  4.460331e+001 
3259375000  -4.096739e+001  3.188591e+001 
3262500000  -4.238139e+001  2.739219e+001 
3265625000  -4.267617e+001  2.843455e+001 
3268750000  -4.229401e+001  2.591048e+001 
3271875000  -4.174466e+001  2.057603e+001 
3275000000  -4.109801e+001  1.107364e+001 
3278125000  -4.162954e+001  3.960738e+000 
3281250000  -4.185365e+001  7.509956e-001 
3284375000  -4.111886e+001  -8.822820e+000 
3287500000  -4.141185e+001  -1.644223e+001 
3290625000  -4.143378e+001  -2.700148e+001 
3293750000  -4.148087e+001  -3.397177e+001 
3296875000  -4.256272e+001  -3.773711e+001 
3300000000  -4.206264e+001  -4.016636e+001 
3303125000  -4.107653e+001  -4.930981e+001 
3306250000  -4.085841e+001  -6.072718e+001 
3309375000  -4.055672e+001  -7.041951e+001 
3312500000  -4.115121e+001  -8.568184e+001 
3315625000  -4.245220e+001  -9.552579e+001 
3318750000  -4.383900e+001  -9.944429e+001 
3321875000  -4.516410e+001  -9.908636e+001 
3325000000  -4.473664e+001  -9.845287e+001 
3328125000  -4.394186e+001  -9.477315e+001 
3331250000  -4.242816e+001  -9.817589e+001 
3334375000  -4.034894e+001  -1.165240e+002 
3337500000  -4.075409e+001  -1.394712e+002 
3340625000  -4.274023e+001  -1.500264e+002 
3343750000  -4.449812e+001  -1.528348e+002 
3346875000  -4.381553e+001  -1.573361e+002 
3350000000  -4.365631e+001  -1.598700e+002 
3353125000  -4.340457e+001  -1.713831e+002 
3356250000  -4.307687e+001  1.792996e+002 
3359375000  -4.441200e+001  1.671264e+002 
3362500000  -4.523698e+001  1.580840e+002 
3365625000  -4.554736e+001  1.498944e+002 
3368750000  -4.605235e+001  1.466660e+002 
3371875000  -4.679219e+001  1.409320e+002 
3375000000  -4.862135e+001  1.336324e+002 
3378125000  -4.917282e+001  1.346983e+002 
3381250000  -4.992434e+001  1.395682e+002 
3384375000  -4.782459e+001  1.494316e+002 
3387500000  -4.518600e+001  1.261782e+002 
3390625000  -4.653768e+001  1.075433e+002 
3393750000  -4.728551e+001  1.048041e+002 
3396875000  -4.635892e+001  1.003913e+002 
3400000000  -4.617131e+001  9.232494e+001 
3403125000  -4.673282e+001  8.272152e+001 
3406250000  -4.801871e+001  7.134627e+001 
3409375000  -4.706973e+001  6.241357e+001 
3412500000  -4.790538e+001  5.768338e+001 
3415625000  -4.888601e+001  5.091251e+001 
3418750000  -4.861933e+001  4.461724e+001 
3421875000  -4.853210e+001  4.227808e+001 
3425000000  -4.802125e+001  3.505662e+001 
3428125000  -4.748279e+001  2.622281e+001 
3431250000  -4.664120e+001  1.425739e+001 
3434375000  -4.693998e+001  2.115918e+000 
3437500000  -4.740628e+001  -5.698050e+000 
3440625000  -4.789597e+001  -8.379366e+000 
3443750000  -4.696325e+001  -1.254326e+001 
3446875000  -4.562419e+001  -2.703781e+001 
3450000000  -4.526020e+001  -4.384194e+001 
3453125000  -4.566446e+001  -6.041750e+001 
3456250000  -4.733412e+001  -6.924123e+001 
3459375000  -4.796572e+001  -7.215866e+001 
3462500000  -4.796712e+001  -7.800430e+001 
3465625000  -4.732555e+001  -8.868838e+001 
3468750000  -4.787141e+001  -9.628091e+001 
3471875000  -4.690012e+001  -1.018122e+002 
3475000000  -4.723203e+001  -1.140027e+002 
3478125000  -4.780011e+001  -1.282808e+002 
3481250000  -4.909286e+001  -1.371214e+002 
3484375000  -4.834032e+001  -1.325187e+002 
3487500000  -4.762562e+001  -1.391002e+002 
3490625000  -4.714438e+001  -1.545969e+002 
3493750000  -4.763247e+001  -1.673537e+002 
3496875000  -4.778176e+001  -1.688815e+002 
3500000000  -4.839618e+001  -1.735201e+002 
3503125000  -4.707754e+001  -1.752398e+002 
3506250000  -4.547757e+001  1.698798e+002 
3509375000  -4.548788e+001  1.499993e+002 
3512500000  -4.611191e+001  1.392918e+002 
3515625000  -4.716666e+001  1.312262e+002 
3518750000  -4.816658e+001  1.298629e+002 
3521875000  -4.794642e+001  1.177774e+002 
3525000000  -4.912977e+001  1.128996e+002 
3528125000  -4.782588e+001  1.202937e+002 
3531250000  -4.641413e+001  1.077003e+002 
3534375000  -4.707247e+001  8.838301e+001 
3537500000  -4.764460e+001  7.879677e+001 
3540625000  -4.902101e+001  7.814366e+001 
3543750000  -4.965725e+001  8.271400e+001 
3546875000  -4.882985e+001  8.246249e+001 
3550000000  -4.703012e+001  7.610154e+001 
3553125000  -4.612663e+001  5.357850e+001 
3556250000  -4.755921e+001  4.563570e+001 
3559375000  -4.697753e+001  4.179531e+001 
3562500000  -4.655527e+001  2.976440e+001 
3565625000  -4.730656e+001  2.432212e+001 
3568750000  -4.774408e+001  2.398385e+001 
3571875000  -4.728394e+001  1.843887e+001 
3575000000  -4.694686e+001  1.057326e+001 
3578125000  -4.744781e+001  7.792274e+000 
3581250000  -4.705393e+001  5.732410e+000 
3584375000  -4.581681e+001  -3.596476e+000 
3587500000  -4.598688e+001  -1.369752e+001 
3590625000  -4.622892e+001  -2.248763e+001 
3593750000  -4.771890e+001  -2.558714e+001 
3596875000  -4.668820e+001  -1.952332e+001 
3600000000  -4.450556e+001  -3.245895e+001 
3603125000  -4.502316e+001  -4.766211e+001 
3606250000  -4.572252e+001  -5.425587e+001 
3609375000  -4.573023e+001  -5.725551e+001 
3612500000  -4.600030e+001  -6.361500e+001 
3615625000  -4.611317e+001  -6.698173e+001 
3618750000  -4.624907e+001  -7.255693e+001 
3621875000  -4.541033e+001  -7.801727e+001 
3625000000  -4.561190e+001  -8.225752e+001 
3628125000  -4.486143e+001  -8.765077e+001 
3631250000  -4.483960e+001  -9.741355e+001 
3634375000  -4.544035e+001  -1.005496e+002 
3637500000  -4.479313e+001  -9.906451e+001 
3640625000  -4.383209e+001  -1.071941e+002 
3643750000  -4.313077e+001  -1.184165e+002 
3646875000  -4.376183e+001  -1.299029e+002 
3650000000  -4.389915e+001  -1.334268e+002 
3653125000  -4.325671e+001  -1.432246e+002 
3656250000  -4.373502e+001  -1.493042e+002 
3659375000  -4.384489e+001  -1.504674e+002 
3662500000  -4.304604e+001  -1.609994e+002 
3665625000  -4.330800e+001  -1.632281e+002 
3668750000  -4.236601e+001  -1.682987e+002 
3671875000  -4.133364e+001  1.768470e+002 
3675000000  -4.230081e+001  1.693836e+002 
3678125000  -4.247266e+001  1.616406e+002 
3681250000  -4.240562e+001  1.565196e+002 
3684375000  -4.240794e+001  1.487494e+002 
3687500000  -4.315876e+001  1.407645e+002 
3690625000  -4.355082e+001  1.325220e+002 
3693750000  -4.466671e+001  1.333890e+002 
3696875000  -4.376185e+001  1.319474e+002 
3700000000  -4.299941e+001  1.207740e+002 
3703125000  -4.370219e+001  1.110695e+002 
3706250000  -4.451711e+001  1.110173e+002 
3709375000  -4.398566e+001  1.116147e+002 
3712500000  -4.277045e+001  1.050988e+002 
3715625000  -4.183858e+001  9.563683e+001 
3718750000  -4.173258e+001  8.545065e+001 
3721875000  -4.193355e+001  7.894515e+001 
3725000000  -4.222670e+001  6.854417e+001 
3728125000  -4.250799e+001  6.509393e+001 
3731250000  -4.189202e+001  5.813569e+001 
3734375000  -4.185561e+001  5.222851e+001 
3737500000  -4.277201e+001  4.196301e+001 
3740625000  -4.288691e+001  3.740188e+001 
3743750000  -4.279824e+001  3.143760e+001 
3746875000  -4.327686e+001  2.849869e+001 
3750000000  -4.371334e+001  2.056317e+001 
3753125000  -4.381429e+001  1.782313e+001 
3756250000  -4.368279e+001  1.580570e+001 
3759375000  -4.386202e+001  1.230843e+001 
3762500000  -4.341153e+001  5.783116e+000 
3765625000  -4.431792e+001  -9.198782e-001 
3768750000  -4.340529e+001  -2.940865e+000 
3771875000  -4.204831e+001  -7.282196e+000 
3775000000  -4.206929e+001  -1.974463e+001 
3778125000  -4.273368e+001  -2.603735e+001 
3781250000  -4.265281e+001  -2.919144e+001 
3784375000  -4.263271e+001  -3.625888e+001 
3787500000  -4.252826e+001  -3.978339e+001 
3790625000  -4.305215e+001  -5.203986e+001 
3793750000  -4.262744e+001  -5.244628e+001 
3796875000  -4.161037e+001  -5.812693e+001 
3800000000  -4.081153e+001  -6.741254e+001 
3803125000  -4.170454e+001  -7.832979e+001 
3806250000  -4.249235e+001  -8.387161e+001 
3809375000  -4.173832e+001  -8.814582e+001 
3812500000  -4.178787e+001  -9.820990e+001 
3815625000  -4.330074e+001  -1.091781e+002 
3818750000  -4.447792e+001  -1.082521e+002 
3821875000  -4.349450e+001  -9.583144e+001 
3825000000  -4.109292e+001  -1.038147e+002 
3828125000  -4.042228e+001  -1.251386e+002 
3831250000  -4.149119e+001  -1.413881e+002 
3834375000  -4.349567e+001  -1.402981e+002 
3837500000  -4.381944e+001  -1.391990e+002 
3840625000  -4.248523e+001  -1.431364e+002 
3843750000  -4.172989e+001  -1.578269e+002 
3846875000  -4.337686e+001  -1.653285e+002 
3850000000  -4.426602e+001  -1.610563e+002 
3853125000  -4.331524e+001  -1.599605e+002 
3856250000  -4.305970e+001  -1.685531e+002 
3859375000  -4.231236e+001  -1.786976e+002 
3862500000  -4.258371e+001  1.691944e+002 
3865625000  -4.279248e+001  1.638410e+002 
3868750000  -4.232408e+001  1.609244e+002 
3871875000  -4.194525e+001  1.522337e+002 
3875000000  -4.234359e+001  1.434619e+002 
3878125000  -4.295324e+001  1.394595e+002 
3881250000  -4.319280e+001  1.386303e+002 
3884375000  -4.251350e+001  1.269745e+002 
3887500000  -4.314204e+001  1.217404e+002 
3890625000  -4.377218e+001  1.194673e+002 
3893750000  -4.417898e+001  1.156081e+002 
3896875000  -4.424119e+001  1.115017e+002 
3900000000  -4.473409e+001  1.061273e+002 
3903125000  -4.373016e+001  1.026732e+002 
3906250000  -4.329977e+001  9.697102e+001 
3909375000  -4.242090e+001  8.921918e+001 
3912500000  -4.401474e+001  8.011075e+001 
3915625000  -4.472930e+001  7.800091e+001 
3918750000  -4.459129e+001  7.776704e+001 
3921875000  -4.390280e+001  7.418245e+001 
3925000000  -4.315413e+001  6.742117e+001 
3928125000  -4.322542e+001  5.753975e+001 
3931250000  -4.357958e+001  4.833824e+001 
3934375000  -4.395688e+001  4.777824e+001 
3937500000  -4.446799e+001  4.391299e+001 
3940625000  -4.438683e+001  4.318724e+001 
3943750000  -4.362840e+001  3.732174e+001 
3946875000  -4.266190e+001  2.999412e+001 
3950000000  -4.345502e+001  1.959765e+001 
3953125000  -4.444974e+001  2.214265e+001 
3956250000  -4.274646e+001  2.211018e+001 
3959375000  -4.181110e+001  1.280011e+001 
3962500000  -4.154829e+001  3.892568e+000 
3965625000  -4.202058e+001  -6.086918e+000 
3968750000  -4.226822e+001  -1.535301e+001 
3971875000  -4.260327e+001  -1.996872e+001 
3975000000  -4.183873e+001  -2.606185e+001 
3978125000  -4.202022e+001  -3.304273e+001 
3981250000  -4.172345e+001  -4.012922e+001 
3984375000  -4.224200e+001  -4.718214e+001 
3987500000  -4.298904e+001  -5.358879e+001 
3990625000  -4.295937e+001  -5.497051e+001 
3993750000  -4.272150e+001  -6.209314e+001 
3996875000  -4.287910e+001  -7.041045e+001 
4000000000  -4.327934e+001  -7.133434e+001 
4003125000  -4.386147e+001  -7.076820e+001 
4006250000  -4.176057e+001  -7.687342e+001 
4009375000  -4.137743e+001  -9.315385e+001 
4012500000  -4.241037e+001  -1.043428e+002 
4015625000  -4.362811e+001  -1.054049e+002 
4018750000  -4.369813e+001  -1.082884e+002 
4021875000  -4.332908e+001  -1.131272e+002 
4025000000  -4.295247e+001  -1.212049e+002 
4028125000  -4.314762e+001  -1.284067e+002 
4031250000  -4.383164e+001  -1.347790e+002 
4034375000  -4.394061e+001  -1.394771e+002 
4037500000  -4.390614e+001  -1.404890e+002 
4040625000  -4.386533e+001  -1.471847e+002 
4043750000  -4.435534e+001  -1.530917e+002 
4046875000  -4.455381e+001  -1.571898e+002 
4050000000  -4.426501e+001  -1.620263e+002 
4053125000  -4.498121e+001  -1.645146e+002 
4056250000  -4.580023e+001  -1.605305e+002 
4059375000  -4.410020e+001  -1.656381e+002 
4062500000  -4.329237e+001  -1.742714e+002 
4065625000  -4.320357e+001  -1.792330e+002 
4068750000  -4.320214e+001  1.719152e+002 
4071875000  -4.240779e+001  1.625378e+002 
4075000000  -4.333290e+001  1.525491e+002 
4078125000  -4.417402e+001  1.533676e+002 
4081250000  -4.338132e+001  1.468830e+002 
4084375000  -4.347556e+001  1.358545e+002 
4087500000  -4.392444e+001  1.273698e+002 
4090625000  -4.450726e+001  1.264614e+002 
4093750000  -4.416083e+001  1.251390e+002 
4096875000  -4.405618e+001  1.159043e+002 
4100000000  -4.475823e+001  1.108297e+002 
4103125000  -4.590825e+001  1.149172e+002 
4106250000  -4.505505e+001  1.174360e+002 
4109375000  -4.419594e+001  1.092669e+002 
4112500000  -4.440483e+001  1.001409e+002 
4115625000  -4.444141e+001  9.404254e+001 
4118750000  -4.381486e+001  9.191272e+001 
4121875000  -4.380457e+001  8.487547e+001 
4125000000  -4.481546e+001  7.658474e+001 
4128125000  -4.537370e+001  7.892049e+001 
4131250000  -4.355177e+001  8.325296e+001 
4134375000  -4.127545e+001  6.957777e+001 
4137500000  -4.179830e+001  5.102372e+001 
4140625000  -4.440426e+001  4.272104e+001 
4143750000  -4.458578e+001  4.699953e+001 
4146875000  -4.405661e+001  4.932029e+001 
4150000000  -4.273121e+001  4.050397e+001 
4153125000  -4.334267e+001  3.208089e+001 
4156250000  -4.411695e+001  2.600172e+001 
4159375000  -4.363939e+001  2.738470e+001 
4162500000  -4.240054e+001  2.603170e+001 
4165625000  -4.148600e+001  1.774314e+001 
4168750000  -4.122706e+001  5.246348e+000 
4171875000  -4.085996e+001  -4.907028e+000 
4175000000  -4.199145e+001  -1.449443e+001 
4178125000  -4.269068e+001  -1.477290e+001 
4181250000  -4.201881e+001  -2.494574e+001 
4184375000  -4.280069e+001  -3.021667e+001 
4187500000  -4.233769e+001  -3.658372e+001 
4190625000  -4.244955e+001  -4.785250e+001 
4193750000  -4.382309e+001  -4.936353e+001 
4196875000  -4.507613e+001  -5.327160e+001 
4200000000  -4.618093e+001  -4.682679e+001 
4203125000  -4.410862e+001  -3.753265e+001 
4206250000  -4.159499e+001  -4.832948e+001 
4209375000  -4.130428e+001  -7.211732e+001 
4212500000  -4.335948e+001  -8.269553e+001 
4215625000  -4.440606e+001  -7.188865e+001 
4218750000  -4.280977e+001  -7.266096e+001 
4221875000  -4.116619e+001  -8.293732e+001 
4225000000  -4.244112e+001  -9.748350e+001 
4228125000  -4.206516e+001  -9.247206e+001 
4231250000  -4.096843e+001  -1.032399e+002 
4234375000  -4.106127e+001  -1.148831e+002 
4237500000  -4.094802e+001  -1.191098e+002 
4240625000  -4.103135e+001  -1.321108e+002 
4243750000  -4.215770e+001  -1.379913e+002 
4246875000  -4.331612e+001  -1.391699e+002 
4250000000  -4.264105e+001  -1.400940e+002 
4253125000  -4.283861e+001  -1.444549e+002 
4256250000  -4.232679e+001  -1.479264e+002 
4259375000  -4.217756e+001  -1.545615e+002 
4262500000  -4.216152e+001  -1.585713e+002 
4265625000  -4.201322e+001  -1.604418e+002 
4268750000  -4.115208e+001  -1.688961e+002 
4271875000  -4.076785e+001  -1.795256e+002 
4275000000  -4.025894e+001  1.715368e+002 
4278125000  -4.130111e+001  1.594000e+002 
4281250000  -4.254689e+001  1.580910e+002 
4284375000  -4.246229e+001  1.518736e+002 
4287500000  -4.383595e+001  1.529602e+002 
4290625000  -4.370617e+001  1.568989e+002 
4293750000  -4.151484e+001  1.560644e+002 
4296875000  -4.051986e+001  1.397677e+002 
4300000000  -4.132787e+001  1.300903e+002 
4303125000  -4.167795e+001  1.317045e+002 
4306250000  -4.028851e+001  1.312279e+002 
4309375000  -3.981453e+001  1.208364e+002 
4312500000  -3.966628e+001  1.075381e+002 
4315625000  -4.029263e+001  9.747648e+001 
4318750000  -4.081117e+001  9.523197e+001 
4321875000  -4.071676e+001  9.171709e+001 
4325000000  -4.020501e+001  8.823100e+001 
4328125000  -3.942030e+001  7.700360e+001 
4331250000  -3.962642e+001  6.404743e+001 
4334375000  -4.066546e+001  5.580251e+001 
4337500000  -4.198141e+001  5.306320e+001 
4340625000  -4.199940e+001  5.614157e+001 
4343750000  -4.116026e+001  5.141428e+001 
4346875000  -4.121701e+001  4.112713e+001 
4350000000  -4.091900e+001  3.107130e+001 
4353125000  -4.176848e+001  2.535170e+001 
4356250000  -4.430023e+001  2.712200e+001 
4359375000  -4.283743e+001  4.484391e+001 
4362500000  -3.990491e+001  3.053322e+001 
4365625000  -3.924436e+001  1.276323e+001 
4368750000  -4.024633e+001  2.194914e-001 
4371875000  -4.128683e+001  -1.795049e-002 
4375000000  -4.065136e+001  -6.763884e+000 
4378125000  -4.053577e+001  -1.381610e+001 
4381250000  -4.061690e+001  -2.200949e+001 
4384375000  -4.086464e+001  -2.917730e+001 
4387500000  -4.160347e+001  -3.741603e+001 
4390625000  -4.232133e+001  -4.001175e+001 
4393750000  -4.162738e+001  -4.024091e+001 
4396875000  -4.128816e+001  -4.409719e+001 
4400000000  -4.095231e+001  -5.528272e+001 
4403125000  -4.140285e+001  -6.569980e+001 
4406250000  -4.200414e+001  -6.978825e+001 
4409375000  -4.263843e+001  -7.663432e+001 
4412500000  -4.335398e+001  -7.961011e+001 
4415625000  -4.318523e+001  -7.244263e+001 
4418750000  -4.174268e+001  -7.413213e+001 
