!Agilent Technologies,E8363B,MY43030201,A.06.04.32
!Agilent E8363B: A.06.04.32
!Date: Tuesday, November 11, 2014 21:44:38
!Correction: S21(Response(S21)) 
!S1P File: Measurement: S21:
# Hz S  dB   R 50
3000000000  -4.370082e+001  -1.602790e+002 
3003125000  -4.504226e+001  -1.657221e+002 
3006250000  -4.511678e+001  -1.657482e+002 
3009375000  -4.599094e+001  -1.661453e+002 
3012500000  -4.503173e+001  -1.688167e+002 
3015625000  -4.509132e+001  -1.766456e+002 
3018750000  -4.541172e+001  -1.776195e+002 
3021875000  -4.374144e+001  -1.774698e+002 
3025000000  -4.259735e+001  -1.799662e+002 
3028125000  -4.159682e+001  1.661149e+002 
3031250000  -4.097267e+001  1.521316e+002 
3034375000  -4.081168e+001  1.378571e+002 
3037500000  -4.148370e+001  1.278349e+002 
3040625000  -4.281010e+001  1.221946e+002 
3043750000  -4.319034e+001  1.139715e+002 
3046875000  -4.438791e+001  1.076055e+002 
3050000000  -4.527564e+001  1.016256e+002 
3053125000  -4.441989e+001  1.083758e+002 
3056250000  -4.458572e+001  1.095780e+002 
3059375000  -4.386307e+001  1.060291e+002 
3062500000  -4.284060e+001  1.001741e+002 
3065625000  -4.236304e+001  8.919444e+001 
3068750000  -4.167517e+001  8.245580e+001 
3071875000  -4.160182e+001  7.975094e+001 
3075000000  -4.118087e+001  7.280440e+001 
3078125000  -4.119662e+001  6.458795e+001 
3081250000  -4.129501e+001  5.730357e+001 
3084375000  -4.051495e+001  5.356794e+001 
3087500000  -4.067097e+001  4.347294e+001 
3090625000  -4.011345e+001  3.117999e+001 
3093750000  -4.095360e+001  2.332517e+001 
3096875000  -4.123553e+001  1.662428e+001 
3100000000  -4.117032e+001  1.300366e+001 
3103125000  -4.128327e+001  8.783372e+000 
3106250000  -4.106656e+001  3.777060e+000 
3109375000  -4.093726e+001  -3.324899e+000 
3112500000  -4.084101e+001  -1.039555e+001 
3115625000  -4.097129e+001  -1.361215e+001 
3118750000  -4.075926e+001  -1.996832e+001 
3121875000  -4.030181e+001  -3.186217e+001 
3125000000  -4.214167e+001  -3.455621e+001 
3128125000  -4.204541e+001  -3.044133e+001 
3131250000  -3.956865e+001  -3.778902e+001 
3134375000  -3.882942e+001  -5.622524e+001 
3137500000  -3.955680e+001  -6.760169e+001 
3140625000  -4.095784e+001  -7.335928e+001 
3143750000  -4.149673e+001  -7.794291e+001 
3146875000  -4.101379e+001  -7.609715e+001 
3150000000  -4.047549e+001  -8.299023e+001 
3153125000  -4.091275e+001  -8.970454e+001 
3156250000  -4.148986e+001  -8.901907e+001 
3159375000  -3.916762e+001  -9.080864e+001 
3162500000  -3.765078e+001  -1.073989e+002 
3165625000  -3.902733e+001  -1.217956e+002 
3168750000  -3.896480e+001  -1.234835e+002 
3171875000  -3.848693e+001  -1.313430e+002 
3175000000  -3.917265e+001  -1.418249e+002 
3178125000  -3.882737e+001  -1.444047e+002 
3181250000  -3.793836e+001  -1.547077e+002 
3184375000  -3.788573e+001  -1.669683e+002 
3187500000  -3.950151e+001  1.785082e+002 
3190625000  -4.103785e+001  1.702344e+002 
3193750000  -4.131455e+001  1.761486e+002 
3196875000  -4.127772e+001  1.755384e+002 
3200000000  -3.983177e+001  1.697415e+002 
3203125000  -3.959167e+001  1.605088e+002 
3206250000  -3.969430e+001  1.525509e+002 
3209375000  -3.951815e+001  1.432660e+002 
3212500000  -4.010434e+001  1.354865e+002 
3215625000  -3.960715e+001  1.342141e+002 
3218750000  -4.059696e+001  1.212071e+002 
3221875000  -4.065728e+001  1.135963e+002 
3225000000  -4.048026e+001  1.072676e+002 
3228125000  -4.127545e+001  1.017608e+002 
3231250000  -4.149129e+001  9.784267e+001 
3234375000  -4.112053e+001  9.543909e+001 
3237500000  -4.097691e+001  9.110152e+001 
3240625000  -4.041113e+001  8.383342e+001 
3243750000  -4.040994e+001  7.210204e+001 
3246875000  -4.072921e+001  6.414595e+001 
3250000000  -4.134240e+001  6.038649e+001 
3253125000  -4.121938e+001  5.523985e+001 
3256250000  -4.033336e+001  4.392402e+001 
3259375000  -4.091388e+001  3.192460e+001 
3262500000  -4.257604e+001  2.719378e+001 
3265625000  -4.271302e+001  2.931985e+001 
3268750000  -4.270525e+001  2.671058e+001 
3271875000  -4.173088e+001  2.015916e+001 
3275000000  -4.108278e+001  1.131343e+001 
3278125000  -4.180412e+001  3.620715e+000 
3281250000  -4.174207e+001  1.087430e+000 
3284375000  -4.102604e+001  -9.248446e+000 
3287500000  -4.153305e+001  -1.563299e+001 
3290625000  -4.155468e+001  -2.488291e+001 
3293750000  -4.132258e+001  -3.409165e+001 
3296875000  -4.277679e+001  -3.773988e+001 
3300000000  -4.207319e+001  -3.933071e+001 
3303125000  -4.109210e+001  -5.032187e+001 
3306250000  -4.088587e+001  -6.027894e+001 
3309375000  -4.074735e+001  -7.212049e+001 
3312500000  -4.130087e+001  -8.588761e+001 
3315625000  -4.240572e+001  -9.442905e+001 
3318750000  -4.385135e+001  -1.013884e+002 
3321875000  -4.537475e+001  -9.800352e+001 
3325000000  -4.521289e+001  -9.433382e+001 
3328125000  -4.432440e+001  -9.670376e+001 
3331250000  -4.214739e+001  -9.771697e+001 
3334375000  -4.019740e+001  -1.158755e+002 
3337500000  -4.086098e+001  -1.414106e+002 
3340625000  -4.313720e+001  -1.496090e+002 
3343750000  -4.434908e+001  -1.522215e+002 
3346875000  -4.437003e+001  -1.549431e+002 
3350000000  -4.398320e+001  -1.608942e+002 
3353125000  -4.399324e+001  -1.700442e+002 
3356250000  -4.334756e+001  -1.788117e+002 
3359375000  -4.447215e+001  1.654041e+002 
3362500000  -4.500614e+001  1.581437e+002 
3365625000  -4.567511e+001  1.529642e+002 
3368750000  -4.620338e+001  1.463305e+002 
3371875000  -4.703268e+001  1.370581e+002 
3375000000  -4.857562e+001  1.345694e+002 
3378125000  -4.940574e+001  1.324468e+002 
3381250000  -5.091946e+001  1.466524e+002 
3384375000  -4.719437e+001  1.543162e+002 
3387500000  -4.478403e+001  1.308432e+002 
3390625000  -4.671467e+001  1.081632e+002 
3393750000  -4.739680e+001  1.068318e+002 
3396875000  -4.680012e+001  1.003175e+002 
3400000000  -4.663733e+001  8.626321e+001 
3403125000  -4.718545e+001  8.125998e+001 
3406250000  -4.750975e+001  7.220873e+001 
3409375000  -4.717223e+001  6.042310e+001 
3412500000  -4.828227e+001  5.006829e+001 
3415625000  -4.935560e+001  4.990977e+001 
3418750000  -4.847572e+001  4.299728e+001 
3421875000  -4.948766e+001  4.014143e+001 
3425000000  -4.798084e+001  3.728165e+001 
3428125000  -4.725653e+001  2.777843e+001 
3431250000  -4.709197e+001  1.447088e+001 
3434375000  -4.679013e+001  3.862179e+000 
3437500000  -4.793242e+001  -5.792300e+000 
3440625000  -4.759097e+001  -1.023651e+001 
3443750000  -4.655518e+001  -1.471252e+001 
3446875000  -4.590292e+001  -3.008308e+001 
3450000000  -4.527950e+001  -4.327612e+001 
3453125000  -4.596810e+001  -6.194323e+001 
3456250000  -4.715045e+001  -6.809495e+001 
3459375000  -4.799264e+001  -7.114446e+001 
3462500000  -4.782433e+001  -7.576191e+001 
3465625000  -4.743977e+001  -8.798060e+001 
3468750000  -4.772250e+001  -9.667316e+001 
3471875000  -4.660164e+001  -1.034345e+002 
3475000000  -4.694064e+001  -1.135412e+002 
3478125000  -4.749313e+001  -1.300053e+002 
3481250000  -4.894286e+001  -1.375598e+002 
3484375000  -4.834944e+001  -1.330854e+002 
3487500000  -4.738078e+001  -1.411741e+002 
3490625000  -4.745039e+001  -1.531776e+002 
3493750000  -4.769879e+001  -1.651989e+002 
3496875000  -4.841132e+001  -1.702242e+002 
3500000000  -4.825734e+001  -1.717829e+002 
3503125000  -4.719977e+001  -1.761836e+002 
3506250000  -4.556537e+001  1.707280e+002 
3509375000  -4.572498e+001  1.519509e+002 
3512500000  -4.622755e+001  1.382460e+002 
3515625000  -4.724256e+001  1.329583e+002 
3518750000  -4.758387e+001  1.298868e+002 
3521875000  -4.798255e+001  1.172294e+002 
3525000000  -4.869344e+001  1.160986e+002 
3528125000  -4.803721e+001  1.176835e+002 
3531250000  -4.677245e+001  1.080083e+002 
3534375000  -4.703421e+001  8.664471e+001 
3537500000  -4.790554e+001  8.225208e+001 
3540625000  -4.892534e+001  7.987763e+001 
3543750000  -4.956396e+001  7.730070e+001 
3546875000  -4.874040e+001  8.773051e+001 
3550000000  -4.660262e+001  7.400716e+001 
3553125000  -4.582143e+001  5.489663e+001 
3556250000  -4.741676e+001  5.170731e+001 
3559375000  -4.680140e+001  4.393793e+001 
3562500000  -4.670821e+001  3.386750e+001 
3565625000  -4.720679e+001  2.684744e+001 
3568750000  -4.795953e+001  2.642817e+001 
3571875000  -4.709243e+001  2.250983e+001 
3575000000  -4.715154e+001  1.201574e+001 
3578125000  -4.742558e+001  1.016348e+001 
3581250000  -4.744189e+001  3.308589e+000 
3584375000  -4.601357e+001  -2.342723e+000 
3587500000  -4.586902e+001  -1.507288e+001 
3590625000  -4.645527e+001  -2.224170e+001 
3593750000  -4.782993e+001  -2.546405e+001 
3596875000  -4.669488e+001  -2.193945e+001 
3600000000  -4.458792e+001  -3.075242e+001 
3603125000  -4.511006e+001  -4.617352e+001 
3606250000  -4.587285e+001  -5.323882e+001 
3609375000  -4.631275e+001  -5.613990e+001 
3612500000  -4.608302e+001  -6.449574e+001 
3615625000  -4.634004e+001  -6.945737e+001 
3618750000  -4.629673e+001  -6.986999e+001 
3621875000  -4.548225e+001  -7.747411e+001 
3625000000  -4.544970e+001  -8.381906e+001 
3628125000  -4.467995e+001  -8.762527e+001 
3631250000  -4.506136e+001  -9.623617e+001 
3634375000  -4.588072e+001  -9.854962e+001 
3637500000  -4.432253e+001  -1.007013e+002 
3640625000  -4.359647e+001  -1.068382e+002 
3643750000  -4.295773e+001  -1.164166e+002 
3646875000  -4.353320e+001  -1.261591e+002 
3650000000  -4.371909e+001  -1.328809e+002 
3653125000  -4.345298e+001  -1.423975e+002 
3656250000  -4.427137e+001  -1.468542e+002 
3659375000  -4.385647e+001  -1.512083e+002 
3662500000  -4.325153e+001  -1.587721e+002 
3665625000  -4.340920e+001  -1.636090e+002 
3668750000  -4.198915e+001  -1.661802e+002 
3671875000  -4.168584e+001  1.793733e+002 
3675000000  -4.221355e+001  1.685369e+002 
3678125000  -4.284636e+001  1.636515e+002 
3681250000  -4.253212e+001  1.576986e+002 
3684375000  -4.274824e+001  1.491770e+002 
3687500000  -4.297058e+001  1.411693e+002 
3690625000  -4.361852e+001  1.360143e+002 
3693750000  -4.443547e+001  1.371009e+002 
3696875000  -4.400948e+001  1.314686e+002 
3700000000  -4.289936e+001  1.233118e+002 
3703125000  -4.370663e+001  1.162041e+002 
3706250000  -4.484785e+001  1.139326e+002 
3709375000  -4.383609e+001  1.134895e+002 
3712500000  -4.311118e+001  1.076676e+002 
3715625000  -4.174754e+001  9.635477e+001 
3718750000  -4.180024e+001  8.866327e+001 
3721875000  -4.194873e+001  7.808159e+001 
3725000000  -4.232032e+001  6.990719e+001 
3728125000  -4.278548e+001  6.677436e+001 
3731250000  -4.198320e+001  6.053341e+001 
3734375000  -4.218544e+001  5.351654e+001 
3737500000  -4.284141e+001  4.403670e+001 
3740625000  -4.321828e+001  3.738860e+001 
3743750000  -4.289105e+001  3.113913e+001 
3746875000  -4.323388e+001  2.550815e+001 
3750000000  -4.362749e+001  2.261466e+001 
3753125000  -4.372683e+001  1.708371e+001 
3756250000  -4.403949e+001  1.666198e+001 
3759375000  -4.359387e+001  1.199196e+001 
3762500000  -4.340729e+001  3.357250e+000 
3765625000  -4.442374e+001  -3.083604e+000 
3768750000  -4.380833e+001  -5.727413e-001 
3771875000  -4.220015e+001  -6.401303e+000 
3775000000  -4.220998e+001  -1.969412e+001 
3778125000  -4.258728e+001  -2.477667e+001 
3781250000  -4.252157e+001  -2.882520e+001 
3784375000  -4.238472e+001  -3.501978e+001 
3787500000  -4.257684e+001  -4.224983e+001 
3790625000  -4.285343e+001  -4.927836e+001 
3793750000  -4.280794e+001  -5.270056e+001 
3796875000  -4.158472e+001  -5.712104e+001 
3800000000  -4.083084e+001  -6.478552e+001 
3803125000  -4.184446e+001  -7.664589e+001 
3806250000  -4.272059e+001  -7.997094e+001 
3809375000  -4.198370e+001  -8.542376e+001 
3812500000  -4.160719e+001  -9.782111e+001 
3815625000  -4.306433e+001  -1.083241e+002 
3818750000  -4.463898e+001  -1.057588e+002 
3821875000  -4.366486e+001  -9.682202e+001 
3825000000  -4.176443e+001  -1.008941e+002 
3828125000  -4.037774e+001  -1.236828e+002 
3831250000  -4.170523e+001  -1.377807e+002 
3834375000  -4.376333e+001  -1.411906e+002 
3837500000  -4.401713e+001  -1.362857e+002 
3840625000  -4.243838e+001  -1.436566e+002 
3843750000  -4.173810e+001  -1.574744e+002 
3846875000  -4.342652e+001  -1.656779e+002 
3850000000  -4.436831e+001  -1.574955e+002 
3853125000  -4.369559e+001  -1.616165e+002 
3856250000  -4.286390e+001  -1.697474e+002 
3859375000  -4.242595e+001  -1.783268e+002 
3862500000  -4.249962e+001  1.704075e+002 
3865625000  -4.280442e+001  1.643337e+002 
3868750000  -4.242522e+001  1.650048e+002 
3871875000  -4.194001e+001  1.544593e+002 
3875000000  -4.268244e+001  1.441062e+002 
3878125000  -4.339529e+001  1.403359e+002 
3881250000  -4.316923e+001  1.416363e+002 
3884375000  -4.265775e+001  1.291917e+002 
3887500000  -4.350379e+001  1.218170e+002 
3890625000  -4.411115e+001  1.199920e+002 
3893750000  -4.422083e+001  1.156528e+002 
3896875000  -4.443450e+001  1.146803e+002 
3900000000  -4.428482e+001  1.083247e+002 
3903125000  -4.348351e+001  1.031833e+002 
3906250000  -4.344426e+001  9.966881e+001 
3909375000  -4.273840e+001  8.905576e+001 
3912500000  -4.373314e+001  7.898638e+001 
3915625000  -4.492247e+001  8.122792e+001 
3918750000  -4.447274e+001  7.645078e+001 
3921875000  -4.411197e+001  7.316557e+001 
3925000000  -4.336343e+001  6.757249e+001 
3928125000  -4.300845e+001  5.935223e+001 
3931250000  -4.358451e+001  5.018605e+001 
3934375000  -4.404566e+001  4.762060e+001 
3937500000  -4.454738e+001  4.833524e+001 
3940625000  -4.462044e+001  4.577844e+001 
3943750000  -4.336554e+001  3.810163e+001 
3946875000  -4.287919e+001  2.862004e+001 
3950000000  -4.368003e+001  1.955277e+001 
3953125000  -4.447043e+001  2.217332e+001 
3956250000  -4.278530e+001  2.058601e+001 
3959375000  -4.178527e+001  1.544401e+001 
3962500000  -4.172850e+001  3.250160e+000 
3965625000  -4.213846e+001  -7.215084e+000 
3968750000  -4.257854e+001  -1.552306e+001 
3971875000  -4.260021e+001  -2.061770e+001 
3975000000  -4.238677e+001  -2.386261e+001 
3978125000  -4.242823e+001  -3.107331e+001 
3981250000  -4.206301e+001  -3.588840e+001 
3984375000  -4.252385e+001  -4.644732e+001 
3987500000  -4.307240e+001  -5.081225e+001 
3990625000  -4.318301e+001  -5.580424e+001 
3993750000  -4.317988e+001  -5.980513e+001 
3996875000  -4.319434e+001  -6.813365e+001 
4000000000  -4.375788e+001  -7.099403e+001 
4003125000  -4.373451e+001  -7.393227e+001 
4006250000  -4.176406e+001  -7.694559e+001 
4009375000  -4.138701e+001  -9.332857e+001 
4012500000  -4.312267e+001  -1.027751e+002 
4015625000  -4.416783e+001  -1.015639e+002 
4018750000  -4.367481e+001  -1.060501e+002 
4021875000  -4.302923e+001  -1.151352e+002 
4025000000  -4.348370e+001  -1.199439e+002 
4028125000  -4.356315e+001  -1.254308e+002 
4031250000  -4.456651e+001  -1.356890e+002 
4034375000  -4.420110e+001  -1.373201e+002 
4037500000  -4.423619e+001  -1.392232e+002 
4040625000  -4.414297e+001  -1.452635e+002 
4043750000  -4.463224e+001  -1.470238e+002 
4046875000  -4.455581e+001  -1.565916e+002 
4050000000  -4.399749e+001  -1.643279e+002 
4053125000  -4.568229e+001  -1.672199e+002 
4056250000  -4.602943e+001  -1.587773e+002 
4059375000  -4.407910e+001  -1.636976e+002 
4062500000  -4.336817e+001  -1.738910e+002 
4065625000  -4.385470e+001  1.774500e+002 
4068750000  -4.318829e+001  1.728564e+002 
4071875000  -4.300145e+001  1.625579e+002 
4075000000  -4.394746e+001  1.552426e+002 
4078125000  -4.434427e+001  1.530337e+002 
4081250000  -4.379578e+001  1.477341e+002 
4084375000  -4.401805e+001  1.400883e+002 
4087500000  -4.424346e+001  1.298799e+002 
4090625000  -4.526529e+001  1.270036e+002 
4093750000  -4.530441e+001  1.278057e+002 
4096875000  -4.459968e+001  1.188477e+002 
4100000000  -4.550277e+001  1.117004e+002 
4103125000  -4.612822e+001  1.142997e+002 
4106250000  -4.570362e+001  1.182702e+002 
4109375000  -4.488306e+001  1.147626e+002 
4112500000  -4.467014e+001  1.010333e+002 
4115625000  -4.456618e+001  9.804510e+001 
4118750000  -4.437169e+001  9.005595e+001 
4121875000  -4.381555e+001  8.402666e+001 
4125000000  -4.475453e+001  7.867290e+001 
4128125000  -4.529761e+001  8.137542e+001 
4131250000  -4.429290e+001  8.369061e+001 
4134375000  -4.155136e+001  7.055473e+001 
4137500000  -4.239922e+001  5.252532e+001 
4140625000  -4.472932e+001  4.274322e+001 
4143750000  -4.500902e+001  4.981034e+001 
4146875000  -4.421566e+001  5.187314e+001 
4150000000  -4.276283e+001  4.105897e+001 
4153125000  -4.344746e+001  3.074267e+001 
4156250000  -4.435880e+001  2.962741e+001 
4159375000  -4.411318e+001  3.012617e+001 
4162500000  -4.268867e+001  2.677635e+001 
4165625000  -4.169874e+001  1.807112e+001 
4168750000  -4.156296e+001  7.472422e+000 
4171875000  -4.140478e+001  -3.214106e+000 
4175000000  -4.202184e+001  -1.294813e+001 
4178125000  -4.283172e+001  -1.330686e+001 
4181250000  -4.215545e+001  -2.223999e+001 
4184375000  -4.309872e+001  -2.668716e+001 
4187500000  -4.280691e+001  -3.382751e+001 
4190625000  -4.328529e+001  -4.277010e+001 
4193750000  -4.419458e+001  -4.956713e+001 
4196875000  -4.529751e+001  -5.134056e+001 
4200000000  -4.624546e+001  -4.468366e+001 
4203125000  -4.503440e+001  -3.440543e+001 
4206250000  -4.123595e+001  -4.920271e+001 
4209375000  -4.170327e+001  -6.991634e+001 
4212500000  -4.426963e+001  -7.848145e+001 
4215625000  -4.440985e+001  -7.517049e+001 
4218750000  -4.314486e+001  -6.830497e+001 
4221875000  -4.141360e+001  -8.279112e+001 
4225000000  -4.273407e+001  -9.315044e+001 
4228125000  -4.251624e+001  -8.816581e+001 
4231250000  -4.147474e+001  -1.023229e+002 
4234375000  -4.109114e+001  -1.100639e+002 
4237500000  -4.123258e+001  -1.154516e+002 
4240625000  -4.157547e+001  -1.296476e+002 
4243750000  -4.272538e+001  -1.371517e+002 
4246875000  -4.323312e+001  -1.337969e+002 
4250000000  -4.306764e+001  -1.405647e+002 
4253125000  -4.279086e+001  -1.390322e+002 
4256250000  -4.266851e+001  -1.490099e+002 
4259375000  -4.196959e+001  -1.497808e+002 
4262500000  -4.259773e+001  -1.595662e+002 
4265625000  -4.225053e+001  -1.588832e+002 
4268750000  -4.105785e+001  -1.670462e+002 
4271875000  -4.100441e+001  -1.775811e+002 
4275000000  -4.070260e+001  1.741844e+002 
4278125000  -4.206176e+001  1.598979e+002 
4281250000  -4.263527e+001  1.576062e+002 
4284375000  -4.271057e+001  1.566141e+002 
4287500000  -4.390302e+001  1.526452e+002 
4290625000  -4.414977e+001  1.569817e+002 
4293750000  -4.212226e+001  1.569663e+002 
4296875000  -4.064181e+001  1.415654e+002 
4300000000  -4.191020e+001  1.327219e+002 
4303125000  -4.232395e+001  1.343048e+002 
4306250000  -4.102270e+001  1.332331e+002 
4309375000  -4.028530e+001  1.226218e+002 
4312500000  -3.998553e+001  1.134078e+002 
4315625000  -4.051640e+001  1.023175e+002 
4318750000  -4.109494e+001  9.638476e+001 
4321875000  -4.120020e+001  9.119469e+001 
4325000000  -4.078177e+001  9.210635e+001 
4328125000  -4.000893e+001  7.880276e+001 
4331250000  -4.039444e+001  6.679958e+001 
4334375000  -4.134072e+001  5.937798e+001 
4337500000  -4.241197e+001  5.543634e+001 
4340625000  -4.259068e+001  6.032499e+001 
4343750000  -4.165574e+001  5.604181e+001 
4346875000  -4.162499e+001  4.396354e+001 
4350000000  -4.144888e+001  3.690892e+001 
4353125000  -4.272078e+001  2.569807e+001 
4356250000  -4.484895e+001  2.837373e+001 
4359375000  -4.330555e+001  4.356737e+001 
4362500000  -4.015808e+001  3.200935e+001 
4365625000  -3.941051e+001  1.211738e+001 
4368750000  -4.073990e+001  4.168448e+000 
4371875000  -4.165972e+001  6.242913e-001 
4375000000  -4.090786e+001  -2.428528e+000 
4378125000  -4.126730e+001  -1.330016e+001 
4381250000  -4.100692e+001  -1.990067e+001 
4384375000  -4.134269e+001  -2.692674e+001 
4387500000  -4.238534e+001  -3.681545e+001 
4390625000  -4.290007e+001  -3.677404e+001 
4393750000  -4.216562e+001  -3.702948e+001 
4396875000  -4.165091e+001  -4.259253e+001 
4400000000  -4.106090e+001  -5.169760e+001 
4403125000  -4.208174e+001  -6.166474e+001 
4406250000  -4.278278e+001  -6.908461e+001 
4409375000  -4.317840e+001  -7.236428e+001 
4412500000  -4.417341e+001  -7.271651e+001 
4415625000  -4.365044e+001  -6.774703e+001 
4418750000  -4.227319e+001  -7.200031e+001 
